! Created with skrf 1.8.0 (http://scikit-rf.org).
# Hz S RI R 50.0 
!freq ReS11 ImS11
4000000000.0 -0.2491 -1.469
4003000000.0 -1.294 -0.7808
4006000000.0 -1.381 0.4857
4009000000.0 -0.4566 1.445
4012000000.0 0.8578 1.29
4016000000.0 1.523 0.1561
4019000000.0 1.114 -1.067
4022000000.0 -0.2195 -1.545
4025000000.0 -1.364 -0.8191
4028000000.0 -1.508 0.5415
4031000000.0 -0.5297 1.486
4034000000.0 0.8728 1.337
4038000000.0 1.589 0.1433
4041000000.0 1.122 -1.177
4044000000.0 -0.1601 -1.612
4047000000.0 -1.399 -0.8736
4050000000.0 -1.492 0.5163
4053000000.0 -0.5552 1.458
4056000000.0 0.8159 1.396
4059000000.0 1.584 0.2657
4062000000.0 1.191 -1.07
4066000000.0 -0.04669 -1.615
4069000000.0 -1.288 -0.9869
4072000000.0 -1.592 0.3406
4075000000.0 -0.7606 1.479
4078000000.0 0.6642 1.493
4081000000.0 1.589 0.5019
4084000000.0 1.318 -0.9381
4088000000.0 0.1647 -1.644
4091000000.0 -1.138 -1.158
4094000000.0 -1.619 0.1342
4097000000.0 -0.8868 1.313
4100000000.0 0.4324 1.545
4103000000.0 1.482 0.6461
4106000000.0 1.393 -0.7227
4109000000.0 0.3823 -1.485
4112000000.0 -0.9095 -1.231
4116000000.0 -1.489 -0.122
4119000000.0 -1.048 1.058
4122000000.0 0.09617 1.474
4125000000.0 1.161 0.9116
4128000000.0 1.444 -0.2674
4131000000.0 0.7274 -1.281
4134000000.0 -0.504 -1.374
4138000000.0 -1.377 -0.5224
4141000000.0 -1.314 0.7009
4144000000.0 -0.3241 1.466
4147000000.0 0.9416 1.196
4150000000.0 1.53 0.04345
4153000000.0 1.039 -1.123
4156000000.0 -0.186 -1.509
4159000000.0 -1.308 -0.7723
4162000000.0 -1.431 0.4614
4166000000.0 -0.5624 1.4
4169000000.0 0.7354 1.333
4172000000.0 1.478 0.3634
4175000000.0 1.204 -0.9379
4178000000.0 0.04491 -1.508
4181000000.0 -1.106 -1.017
4184000000.0 -1.463 0.1961
4188000000.0 -0.7943 1.291
4191000000.0 0.4907 1.459
4194000000.0 1.425 0.5812
4197000000.0 1.355 -0.7697
4200000000.0 0.2445 -1.587
4203000000.0 -1.069 -1.214
4206000000.0 -1.627 0.06545
4209000000.0 -0.9072 1.343
4212000000.0 0.494 1.598
4216000000.0 1.553 0.598
4219000000.0 1.424 -0.9361
4222000000.0 0.1382 -1.693
4225000000.0 -1.219 -1.158
4228000000.0 -1.674 0.2996
4231000000.0 -0.7712 1.491
4234000000.0 0.7342 1.454
4238000000.0 1.593 0.3221
4241000000.0 1.206 -1.074
4244000000.0 -0.09602 -1.606
4247000000.0 -1.323 -0.8983
4250000000.0 -1.446 0.4899
4253000000.0 -0.5268 1.462
4256000000.0 0.8308 1.29
4259000000.0 1.53 0.1143
4262000000.0 1.007 -1.083
4266000000.0 -0.2431 -1.438
4269000000.0 -1.281 -0.7057
4272000000.0 -1.337 0.5811
4275000000.0 -0.3373 1.409
4278000000.0 0.9159 1.139
4281000000.0 1.439 0.02026
4284000000.0 0.8731 -1.092
4288000000.0 -0.2797 -1.348
4291000000.0 -1.258 -0.6347
4294000000.0 -1.221 0.505
4297000000.0 -0.3636 1.277
4300000000.0 0.8039 1.045
4303000000.0 1.319 0.07123
4306000000.0 0.8941 -0.9375
4309000000.0 -0.09621 -1.305
4312000000.0 -1.051 -0.7312
4316000000.0 -1.267 0.3078
4319000000.0 -0.5707 1.191
4322000000.0 0.5383 1.204
4325000000.0 1.249 0.3749
4328000000.0 1.087 -0.7068
4331000000.0 0.135 -1.339
4334000000.0 -0.9207 -0.9943
4338000000.0 -1.389 0.07511
4341000000.0 -0.8121 1.135
4344000000.0 0.3675 1.401
4347000000.0 1.318 0.613
4350000000.0 1.292 -0.6119
4353000000.0 0.3593 -1.444
4356000000.0 -0.8701 -1.195
4359000000.0 -1.465 -0.1179
4362000000.0 -1.022 1.037
4366000000.0 0.1792 1.488
4369000000.0 1.249 0.7894
4372000000.0 1.433 -0.4536
4375000000.0 0.5684 -1.385
4378000000.0 -0.754 -1.328
4381000000.0 -1.481 -0.2725
4384000000.0 -1.185 0.994
4388000000.0 0.05276 1.546
4391000000.0 1.238 0.9895
4394000000.0 1.516 -0.3747
4397000000.0 0.6445 -1.456
4400000000.0 -0.7146 -1.41
4403000000.0 -1.541 -0.3162
4406000000.0 -1.195 1.032
4409000000.0 0.0587 1.591
4412000000.0 1.273 0.9181
4416000000.0 1.505 -0.4526
4419000000.0 0.5852 -1.425
4422000000.0 -0.788 -1.299
4425000000.0 -1.445 -0.1747
4428000000.0 -1.025 1.002
4431000000.0 0.1933 1.417
4434000000.0 1.216 0.7504
4438000000.0 1.291 -0.4877
4441000000.0 0.3849 -1.326
4444000000.0 -0.7521 -1.126
4447000000.0 -1.311 -0.03965
4450000000.0 -0.8475 1.019
4453000000.0 0.2518 1.268
4456000000.0 1.14 0.5486
4459000000.0 1.113 -0.5643
4462000000.0 0.2343 -1.206
4466000000.0 -0.8271 -0.9149
4469000000.0 -1.211 0.06885
4472000000.0 -0.6554 1.015
4475000000.0 0.3518 1.146
4478000000.0 1.116 0.4251
4481000000.0 0.9921 -0.6215
4484000000.0 0.1278 -1.134
4488000000.0 -0.7965 -0.796
4491000000.0 -1.127 0.1475
4494000000.0 -0.6066 0.9638
4497000000.0 0.3652 1.082
4500000000.0 1.057 0.355
4503000000.0 0.9437 -0.5921
4506000000.0 0.1513 -1.097
4509000000.0 -0.7661 -0.8196
4512000000.0 -1.128 0.07824
4516000000.0 -0.6757 0.9286
4519000000.0 0.3032 1.104
4522000000.0 1.058 0.4695
4525000000.0 1.036 -0.53
4528000000.0 0.2512 -1.163
4531000000.0 -0.7555 -0.9339
4534000000.0 -1.211 -0.04523
4538000000.0 -0.7886 0.9185
4541000000.0 0.2006 1.201
4544000000.0 1.056 0.6135
4547000000.0 1.167 -0.4047
4550000000.0 0.4205 -1.158
4553000000.0 -0.6469 -1.07
4556000000.0 -1.211 -0.1974
4559000000.0 -0.9743 0.806
4562000000.0 0.03048 1.273
4566000000.0 0.9732 0.8218
4569000000.0 1.239 -0.2093
4572000000.0 0.662 -1.13
4575000000.0 -0.4676 -1.225
4578000000.0 -1.249 -0.4413
4581000000.0 -1.137 0.7031
4584000000.0 -0.2113 1.347
4588000000.0 0.8987 1.01
4591000000.0 1.381 -0.04311
4594000000.0 0.8387 -1.093
4597000000.0 -0.3277 -1.348
4600000000.0 -1.265 -0.6207
4603000000.0 -1.303 0.6031
4606000000.0 -0.3993 1.382
4609000000.0 0.8275 1.124
4612000000.0 1.424 0.07972
4616000000.0 0.9613 -1.031
4619000000.0 -0.179 -1.39
4622000000.0 -1.201 -0.6848
4625000000.0 -1.278 0.4821
4628000000.0 -0.4485 1.288
4631000000.0 0.7468 1.166
4634000000.0 1.36 0.143
4638000000.0 0.9768 -0.955
4641000000.0 -0.1386 -1.349
4644000000.0 -1.127 -0.7247
4647000000.0 -1.28 0.42
4650000000.0 -0.427 1.243
4653000000.0 0.694 1.087
4656000000.0 1.264 0.152
4659000000.0 0.9069 -0.8763
4662000000.0 -0.1458 -1.255
4666000000.0 -1.002 -0.6453
4669000000.0 -1.112 0.4225
4672000000.0 -0.3377 1.107
4675000000.0 0.657 0.9561
4678000000.0 1.142 0.09559
4681000000.0 0.7892 -0.822
4684000000.0 -0.1436 -1.119
4688000000.0 -0.9535 -0.5681
4691000000.0 -1.039 0.3632
4694000000.0 -0.324 1.046
4697000000.0 0.5664 0.9137
4700000000.0 1.078 0.1068
4703000000.0 0.7112 -0.8058
4706000000.0 -0.1633 -1.075
4709000000.0 -0.9251 -0.5627
4712000000.0 -1.014 0.369
4716000000.0 -0.304 1.017
4719000000.0 0.616 0.8864
4722000000.0 1.086 0.09199
4725000000.0 0.755 -0.7843
4728000000.0 -0.1479 -1.05
4731000000.0 -0.9024 -0.5861
4734000000.0 -0.9941 0.2998
4738000000.0 -0.391 0.9899
4741000000.0 0.5142 0.925
4744000000.0 1.054 0.2107
4747000000.0 0.838 -0.679
4750000000.0 0.0005949 -1.064
4753000000.0 -0.817 -0.703
4756000000.0 -1.087 0.2007
4759000000.0 -0.5696 0.9861
4762000000.0 0.3922 1.084
4766000000.0 1.091 0.3932
4769000000.0 1.007 -0.5996
4772000000.0 0.2154 -1.151
4775000000.0 -0.7438 -0.9025
4778000000.0 -1.225 0.03622
4781000000.0 -0.7799 0.9317
4784000000.0 0.2266 1.199
4788000000.0 1.039 0.6041
4791000000.0 1.181 -0.4352
4794000000.0 0.4452 -1.162
4797000000.0 -0.632 -1.112
4800000000.0 -1.248 -0.2554
4803000000.0 -0.9553 0.7904
4806000000.0 -0.02063 1.265
4809000000.0 0.9779 0.8521
4812000000.0 1.297 -0.2072
4816000000.0 0.6735 -1.146
4819000000.0 -0.4615 -1.267
4822000000.0 -1.295 -0.4561
4825000000.0 -1.179 0.6932
4828000000.0 -0.1927 1.366
4831000000.0 0.9369 1.045
4834000000.0 1.412 -0.05245
4838000000.0 0.8341 -1.125
4841000000.0 -0.3202 -1.353
4844000000.0 -1.251 -0.5821
4847000000.0 -1.273 0.5826
4850000000.0 -0.3368 1.362
4853000000.0 0.8365 1.081
4856000000.0 1.382 0.02704
4859000000.0 0.919 -1.005
4862000000.0 -0.2206 -1.328
4866000000.0 -1.151 -0.6606
4869000000.0 -1.235 0.4878
4872000000.0 -0.376 1.253
4875000000.0 0.7174 1.086
4878000000.0 1.269 0.1518
4881000000.0 0.8701 -0.8887
4884000000.0 -0.1263 -1.191
4888000000.0 -1.013 -0.6506
4891000000.0 -1.118 0.3818
4894000000.0 -0.3961 1.098
4897000000.0 0.6134 0.9534
4900000000.0 1.093 0.1692
4903000000.0 0.7829 -0.7679
4906000000.0 -0.1201 -1.063
4909000000.0 -0.8793 -0.5954
4912000000.0 -0.9747 0.2858
4916000000.0 -0.3877 0.9276
4919000000.0 0.461 0.8775
4922000000.0 0.9278 0.1627
4925000000.0 0.754 -0.6002
4928000000.0 -0.01614 -0.9438
4931000000.0 -0.7123 -0.603
4934000000.0 -0.9072 0.1974
4938000000.0 -0.4545 0.8552
4941000000.0 0.3441 0.9059
4944000000.0 0.8986 0.2738
4947000000.0 0.7688 -0.5173
4950000000.0 0.1083 -0.9314
4953000000.0 -0.6689 -0.6811
4956000000.0 -0.9832 0.0819
4959000000.0 -0.5458 0.8004
4962000000.0 0.3045 0.9359
4966000000.0 0.9276 0.3566
4969000000.0 0.8752 -0.4803
4972000000.0 0.1868 -1.042
4975000000.0 -0.6468 -0.792
4978000000.0 -1.049 0.01844
4981000000.0 -0.6498 0.8146
4984000000.0 0.2275 1.007
4988000000.0 0.9945 0.5056
4991000000.0 1.015 -0.403
4994000000.0 0.3334 -1.067
4997000000.0 -0.5963 -0.9561
5000000000.0 -1.151 -0.1152
5003000000.0 -0.8516 0.7909
5006000000.0 0.07842 1.21
5009000000.0 0.9857 0.7138
5012000000.0 1.182 -0.3343
5016000000.0 0.5305 -1.14
5019000000.0 -0.5452 -1.133
5022000000.0 -1.276 -0.324
5025000000.0 -1.014 0.7665
5028000000.0 -0.05484 1.287
5031000000.0 0.9453 0.8582
5034000000.0 1.254 -0.1972
5038000000.0 0.6441 -1.103
5041000000.0 -0.4116 -1.204
5044000000.0 -1.224 -0.4744
5047000000.0 -1.141 0.6502
5050000000.0 -0.2142 1.274
5053000000.0 0.8106 0.9935
5056000000.0 1.323 0.02279
5059000000.0 0.8486 -0.9942
5062000000.0 -0.2391 -1.296
5066000000.0 -1.13 -0.6621
5069000000.0 -1.223 0.4466
5072000000.0 -0.4041 1.215
5075000000.0 0.6285 1.116
5078000000.0 1.257 0.1517
5081000000.0 0.9516 -0.8044
5084000000.0 -0.06092 -1.23
5088000000.0 -0.9424 -0.7298
5091000000.0 -1.164 0.2338
5094000000.0 -0.5361 1.065
5097000000.0 0.4808 1.051
5100000000.0 1.082 0.3397
5103000000.0 0.9685 -0.6351
5106000000.0 0.1537 -1.083
5109000000.0 -0.6926 -0.7916
5112000000.0 -1.084 0.05473
5116000000.0 -0.6459 0.8387
5119000000.0 0.2416 1.028
5122000000.0 0.9445 0.4702
5125000000.0 0.9397 -0.3755
5128000000.0 0.284 -0.9812
5131000000.0 -0.571 -0.8089
5134000000.0 -0.9596 -0.0915
5138000000.0 -0.648 0.683
5141000000.0 0.08955 0.9694
5144000000.0 0.8018 0.5176
5147000000.0 0.8932 -0.3079
5150000000.0 0.3009 -0.8541
5153000000.0 -0.4549 -0.8166
5156000000.0 -0.9289 -0.1505
5159000000.0 -0.6476 0.5729
5162000000.0 0.03085 0.8788
5166000000.0 0.734 0.5368
5169000000.0 0.8714 -0.23
5172000000.0 0.3699 -0.8253
5175000000.0 -0.3926 -0.8213
5178000000.0 -0.9221 -0.2263
5181000000.0 -0.6909 0.5699
5184000000.0 -0.002496 0.9331
5188000000.0 0.7319 0.5795
5191000000.0 0.8728 -0.2159
5194000000.0 0.4055 -0.8468
5197000000.0 -0.4274 -0.849
5200000000.0 -0.9223 -0.1918
5203000000.0 -0.7611 0.5999
5206000000.0 0.01345 0.9785
5209000000.0 0.7495 0.5946
5212000000.0 0.9178 -0.2019
5216000000.0 0.4515 -0.875
5219000000.0 -0.4274 -0.8989
5222000000.0 -0.9551 -0.2742
5225000000.0 -0.8459 0.5607
5228000000.0 -0.0507 0.984
5231000000.0 0.7523 0.7083
5234000000.0 1.013 -0.1175
5238000000.0 0.5733 -0.8795
5241000000.0 -0.3019 -1.005
5244000000.0 -0.9809 -0.4028
5247000000.0 -0.944 0.5141
5250000000.0 -0.2185 1.058
5253000000.0 0.6733 0.8265
5256000000.0 1.091 -0.004893
5259000000.0 0.7019 -0.834
5262000000.0 -0.1819 -1.04
5266000000.0 -0.9543 -0.5521
5269000000.0 -1.039 0.3715
5272000000.0 -0.4244 1.025
5275000000.0 0.5427 0.9849
5278000000.0 1.082 0.2254
5281000000.0 0.9003 -0.6942
5284000000.0 0.02781 -1.118
5288000000.0 -0.8323 -0.7395
5291000000.0 -1.115 0.1445
5294000000.0 -0.6072 0.9369
5297000000.0 0.3358 1.06
5300000000.0 1.034 0.4248
5303000000.0 1.021 -0.4986
5306000000.0 0.2665 -1.07
5309000000.0 -0.6774 -0.9308
5312000000.0 -1.134 -0.1075
5316000000.0 -0.8003 0.8387
5319000000.0 0.1431 1.13
5322000000.0 0.9385 0.6325
5325000000.0 1.088 -0.3197
5328000000.0 0.4525 -1.024
5331000000.0 -0.514 -1.004
5334000000.0 -1.086 -0.211
5338000000.0 -0.8536 0.6883
5341000000.0 -0.01305 1.102
5344000000.0 0.8694 0.7127
5347000000.0 1.085 -0.2288
5350000000.0 0.5349 -0.9469
5353000000.0 -0.3869 -1.022
5356000000.0 -1.016 -0.3019
5359000000.0 -0.8571 0.5875
5362000000.0 -0.06658 1.056
5366000000.0 0.7557 0.7104
5369000000.0 1.013 -0.1519
5372000000.0 0.5143 -0.8858
5375000000.0 -0.3866 -0.9322
5378000000.0 -0.9501 -0.2514
5381000000.0 -0.7966 0.5613
5384000000.0 -0.01042 0.9582
5388000000.0 0.7553 0.6249
5391000000.0 0.9013 -0.1704
5394000000.0 0.4471 -0.8447
5397000000.0 -0.371 -0.8101
5400000000.0 -0.8642 -0.2036
5403000000.0 -0.6765 0.5506
5406000000.0 0.04717 0.8539
5409000000.0 0.6735 0.5496
5412000000.0 0.8409 -0.1799
5416000000.0 0.369 -0.7713
5419000000.0 -0.3581 -0.763
5422000000.0 -0.8202 -0.1931
5425000000.0 -0.6521 0.549
5428000000.0 0.01099 0.8651
5431000000.0 0.6847 0.5402
5434000000.0 0.8524 -0.1714
5438000000.0 0.3634 -0.7974
5441000000.0 -0.3971 -0.8368
5444000000.0 -0.879 -0.2209
5447000000.0 -0.7156 0.5517
5450000000.0 -0.05944 0.9167
5453000000.0 0.6788 0.584
5456000000.0 0.8636 -0.1421
5459000000.0 0.4618 -0.8162
5462000000.0 -0.3429 -0.8455
5466000000.0 -0.8601 -0.3104
5469000000.0 -0.8226 0.4908
5472000000.0 -0.1402 0.9174
5475000000.0 0.6474 0.73
5478000000.0 0.9612 -0.03124
5481000000.0 0.6095 -0.7772
5484000000.0 -0.1778 -0.9735
5488000000.0 -0.8574 -0.4771
5491000000.0 -0.9749 0.3746
5494000000.0 -0.3577 0.9475
5497000000.0 0.5874 0.8795
5500000000.0 1.027 0.1429
5503000000.0 0.7744 -0.7308
5506000000.0 -0.02516 -1.032
5509000000.0 -0.8374 -0.6573
5512000000.0 -1.043 0.2308
5516000000.0 -0.4934 0.9415
5519000000.0 0.4231 0.9861
5522000000.0 1.01 0.3415
5525000000.0 0.8989 -0.5625
5528000000.0 0.1609 -1.047
5531000000.0 -0.7097 -0.8107
5534000000.0 -1.06 0.03874
5538000000.0 -0.6956 0.8714
5541000000.0 0.2296 1.065
5544000000.0 0.9586 0.4914
5547000000.0 0.9616 -0.4156
5550000000.0 0.3112 -1.02
5553000000.0 -0.5837 -0.8862
5556000000.0 -1.02 -0.08515
5559000000.0 -0.7582 0.7169
5562000000.0 0.07907 1.049
5566000000.0 0.8114 0.574
5569000000.0 0.97 -0.2728
5572000000.0 0.3542 -0.8878
5575000000.0 -0.4432 -0.8742
5578000000.0 -0.9269 -0.1937
5581000000.0 -0.7404 0.6064
5584000000.0 -0.01166 0.9692
5588000000.0 0.7139 0.5804
5591000000.0 0.8881 -0.1895
5594000000.0 0.4104 -0.7809
5597000000.0 -0.363 -0.8312
5600000000.0 -0.8466 -0.2418
5603000000.0 -0.7182 0.4905
5606000000.0 -0.04756 0.8331
5609000000.0 0.624 0.5945
5612000000.0 0.8074 -0.1061
5616000000.0 0.4202 -0.7157
5619000000.0 -0.2915 -0.7813
5622000000.0 -0.7902 -0.2763
5625000000.0 -0.7024 0.4695
5628000000.0 -0.08606 0.7916
5631000000.0 0.5858 0.5686
5634000000.0 0.829 -0.09732
5638000000.0 0.4046 -0.6805
5641000000.0 -0.2712 -0.7622
5644000000.0 -0.8038 -0.2725
5647000000.0 -0.7121 0.4493
5650000000.0 -0.115 0.8605
5653000000.0 0.598 0.5947
5656000000.0 0.8503 -0.1121
5659000000.0 0.4679 -0.7285
5662000000.0 -0.3157 -0.8403
5666000000.0 -0.876 -0.3071
5669000000.0 -0.7829 0.4883
5672000000.0 -0.1087 0.9211
5675000000.0 0.6443 0.6625
5678000000.0 0.9529 -0.08506
5681000000.0 0.5245 -0.8172
5684000000.0 -0.2624 -0.9177
5688000000.0 -0.8944 -0.3734
5691000000.0 -0.8907 0.4866
5694000000.0 -0.1693 0.9764
5697000000.0 0.6553 0.7612
5700000000.0 1.045 -0.02544
5703000000.0 0.6395 -0.8151
5706000000.0 -0.2504 -1.013
5709000000.0 -0.9715 -0.4891
5712000000.0 -0.9942 0.4234
5716000000.0 -0.3006 1.049
5719000000.0 0.6137 0.8884
5722000000.0 1.078 0.07952
5725000000.0 0.7644 -0.7991
5728000000.0 -0.08056 -1.129
5731000000.0 -0.9284 -0.6162
5734000000.0 -1.051 0.3153
5738000000.0 -0.4188 1.046
5741000000.0 0.5279 1.034
5744000000.0 1.117 0.2158
5747000000.0 0.9084 -0.6833
5750000000.0 0.02847 -1.099
5753000000.0 -0.8221 -0.7349
5756000000.0 -1.118 0.1631
5759000000.0 -0.5913 0.9695
5762000000.0 0.362 1.068
5766000000.0 1.02 0.3963
5769000000.0 0.9687 -0.5292
5772000000.0 0.1867 -1.098
5775000000.0 -0.7307 -0.8293
5778000000.0 -1.063 0.02819
5781000000.0 -0.6636 0.8573
5784000000.0 0.2323 1.031
5788000000.0 0.9263 0.4842
5791000000.0 0.9877 -0.3838
5794000000.0 0.2913 -1.011
5797000000.0 -0.6034 -0.8849
5800000000.0 -1.053 -0.05135
5803000000.0 -0.7327 0.7466
5806000000.0 0.1154 1.018
5809000000.0 0.8832 0.5596
5812000000.0 0.9517 -0.3347
5816000000.0 0.3241 -0.9545
5819000000.0 -0.4819 -0.8325
5822000000.0 -0.9638 -0.1591
5825000000.0 -0.7326 0.6587
5828000000.0 0.07491 0.9544
5831000000.0 0.7615 0.5446
5834000000.0 0.901 -0.2612
5838000000.0 0.3532 -0.8676
5841000000.0 -0.4472 -0.8231
5844000000.0 -0.9208 -0.1514
5847000000.0 -0.6665 0.6099
5850000000.0 0.05486 0.9564
5853000000.0 0.7416 0.5187
5856000000.0 0.8583 -0.2416
5859000000.0 0.3437 -0.8444
5862000000.0 -0.4464 -0.7824
5866000000.0 -0.8987 -0.1341
5869000000.0 -0.6486 0.6337
5872000000.0 0.07016 0.877
5875000000.0 0.733 0.5094
5878000000.0 0.8558 -0.2567
5881000000.0 0.3324 -0.8172
5884000000.0 -0.4169 -0.7621
5888000000.0 -0.8508 -0.1798
5891000000.0 -0.6586 0.582
5894000000.0 0.0266 0.8504
5897000000.0 0.6735 0.5373
5900000000.0 0.8849 -0.218
5903000000.0 0.3834 -0.835
5906000000.0 -0.3647 -0.8141
5909000000.0 -0.8941 -0.2337
5912000000.0 -0.7492 0.5539
5916000000.0 -0.08346 0.8977
5919000000.0 0.6648 0.625
5922000000.0 0.8819 -0.1394
5925000000.0 0.4899 -0.7895
5928000000.0 -0.3256 -0.8659
5931000000.0 -0.8711 -0.3399
5934000000.0 -0.8271 0.4488
5938000000.0 -0.1528 0.9361
5941000000.0 0.599 0.7297
5944000000.0 0.9741 -0.03257
5947000000.0 0.588 -0.7294
5950000000.0 -0.2136 -0.9874
5953000000.0 -0.8562 -0.4476
5956000000.0 -0.9016 0.3645
5959000000.0 -0.3037 0.9296
5962000000.0 0.5482 0.8446
5966000000.0 1.005 0.1038
5969000000.0 0.7135 -0.7014
5972000000.0 -0.04639 -1.014
5975000000.0 -0.8446 -0.5664
5978000000.0 -0.9941 0.2758
5981000000.0 -0.3871 0.9498
5984000000.0 0.4704 0.904
5988000000.0 1.013 0.2207
5991000000.0 0.8192 -0.6065
5994000000.0 0.04106 -1.033
5997000000.0 -0.7755 -0.6587
6000000000.0 -0.9743 0.2011
6003000000.0 -0.4451 0.9093
6006000000.0 0.4136 0.9003
6009000000.0 0.9508 0.2657
6012000000.0 0.7978 -0.5556
6016000000.0 0.04483 -0.9924
6019000000.0 -0.7077 -0.6042
6022000000.0 -0.9125 0.1855
6025000000.0 -0.4272 0.826
6028000000.0 0.3543 0.8617
6031000000.0 0.9106 0.2346
6034000000.0 0.7411 -0.5398
6038000000.0 0.0703 -0.8972
6041000000.0 -0.685 -0.6086
6044000000.0 -0.8779 0.1599
6047000000.0 -0.409 0.766
6050000000.0 0.3324 0.8415
6053000000.0 0.8245 0.2502
6056000000.0 0.711 -0.4936
6059000000.0 0.04291 -0.8425
6062000000.0 -0.6612 -0.5334
6066000000.0 -0.8594 0.1252
6069000000.0 -0.459 0.7446
6072000000.0 0.3078 0.7714
6075000000.0 0.8099 0.2306
6078000000.0 0.6963 -0.4932
6081000000.0 0.0491 -0.8461
6084000000.0 -0.6238 -0.5468
6088000000.0 -0.854 0.1332
6091000000.0 -0.4102 0.7413
6094000000.0 0.3081 0.8021
6097000000.0 0.8434 0.2712
6100000000.0 0.7242 -0.498
6103000000.0 0.08712 -0.8831
6106000000.0 -0.6397 -0.5983
6109000000.0 -0.8798 0.1315
6112000000.0 -0.448 0.8094
6116000000.0 0.3089 0.8402
6119000000.0 0.8874 0.3111
6122000000.0 0.7806 -0.5582
6125000000.0 0.1033 -0.9592
6128000000.0 -0.6823 -0.6588
6131000000.0 -0.9572 0.1377
6134000000.0 -0.4994 0.8263
6138000000.0 0.3164 0.9419
6141000000.0 0.9376 0.3708
6144000000.0 0.8275 -0.526
6147000000.0 0.1061 -0.9779
6150000000.0 -0.685 -0.6945
6153000000.0 -1.005 0.1133
6156000000.0 -0.5662 0.8388
6159000000.0 0.3112 0.9613
6162000000.0 0.9173 0.374
6166000000.0 0.8992 -0.4976
6169000000.0 0.158 -0.9821
6172000000.0 -0.717 -0.7461
6175000000.0 -1.014 0.06538
6178000000.0 -0.5402 0.817
6181000000.0 0.2966 0.9517
6184000000.0 0.9491 0.3643
6188000000.0 0.8635 -0.4984
6191000000.0 0.1851 -0.9505
6194000000.0 -0.6199 -0.7801
6197000000.0 -0.9667 0.07568
6200000000.0 -0.5896 0.8015
6203000000.0 0.2242 0.898
6206000000.0 0.8256 0.3835
6209000000.0 0.8294 -0.4089
6212000000.0 0.1925 -0.8865
6216000000.0 -0.5826 -0.7496
6219000000.0 -0.8744 0.002625
6222000000.0 -0.5451 0.7028
6225000000.0 0.1913 0.8509
6228000000.0 0.7556 0.4086
6231000000.0 0.7851 -0.3755
6234000000.0 0.2382 -0.8433
6238000000.0 -0.5332 -0.6956
6241000000.0 -0.8542 -0.001818
6244000000.0 -0.5364 0.625
6247000000.0 0.1883 0.8435
6250000000.0 0.7411 0.3559
6253000000.0 0.7685 -0.3401
6256000000.0 0.2156 -0.7885
6259000000.0 -0.4958 -0.6586
6262000000.0 -0.8263 -0.03171
6266000000.0 -0.5125 0.6623
