! Created with skrf 1.8.0 (http://scikit-rf.org).
# Hz S RI R 50.0 
!freq ReS11 ImS11
4000000000.0 -0.1866 -1.512
4003000000.0 -1.303 -0.8264
4006000000.0 -1.467 0.4782
4009000000.0 -0.4975 1.452
4012000000.0 0.7789 1.355
4016000000.0 1.542 0.2006
4019000000.0 1.169 -1.064
4022000000.0 -0.1019 -1.56
4025000000.0 -1.297 -0.9325
4028000000.0 -1.513 0.4665
4031000000.0 -0.5948 1.484
4034000000.0 0.797 1.429
4038000000.0 1.638 0.2431
4041000000.0 1.25 -1.139
4044000000.0 -0.1131 -1.631
4047000000.0 -1.355 -0.9129
4050000000.0 -1.595 0.4625
4053000000.0 -0.6473 1.539
4056000000.0 0.7834 1.474
4059000000.0 1.587 0.314
4062000000.0 1.29 -1.034
4066000000.0 0.006245 -1.659
4069000000.0 -1.226 -1.066
4072000000.0 -1.587 0.2721
4075000000.0 -0.8381 1.438
4078000000.0 0.5627 1.57
4081000000.0 1.56 0.5591
4084000000.0 1.441 -0.8224
4088000000.0 0.275 -1.652
4091000000.0 -1.118 -1.255
4094000000.0 -1.662 0.09063
4097000000.0 -0.9959 1.305
4100000000.0 0.3623 1.59
4103000000.0 1.456 0.7211
4106000000.0 1.51 -0.654
4109000000.0 0.4561 -1.524
4112000000.0 -0.838 -1.335
4116000000.0 -1.522 -0.1964
4119000000.0 -1.178 1.025
4122000000.0 0.03484 1.507
4125000000.0 1.136 0.9665
4128000000.0 1.485 -0.2156
4131000000.0 0.7952 -1.279
4134000000.0 -0.4305 -1.426
4138000000.0 -1.379 -0.6028
4141000000.0 -1.37 0.6602
4144000000.0 -0.3602 1.461
4147000000.0 0.8588 1.237
4150000000.0 1.564 0.1465
4153000000.0 1.097 -1.113
4156000000.0 -0.1283 -1.556
4159000000.0 -1.25 -0.9211
4162000000.0 -1.484 0.3906
4166000000.0 -0.6345 1.39
4169000000.0 0.6362 1.359
4172000000.0 1.481 0.3911
4175000000.0 1.325 -0.8153
4178000000.0 0.1617 -1.509
4181000000.0 -1.051 -1.097
4184000000.0 -1.551 0.07226
4188000000.0 -0.9019 1.243
4191000000.0 0.3788 1.532
4194000000.0 1.386 0.7263
4197000000.0 1.445 -0.6455
4200000000.0 0.3778 -1.528
4203000000.0 -0.9677 -1.305
4206000000.0 -1.644 -0.02466
4209000000.0 -1.083 1.289
4212000000.0 0.3443 1.655
4216000000.0 1.502 0.7625
4219000000.0 1.541 -0.7538
4222000000.0 0.3667 -1.657
4225000000.0 -1.096 -1.294
4228000000.0 -1.732 0.116
4231000000.0 -0.9551 1.405
4234000000.0 0.5474 1.582
4238000000.0 1.534 0.5034
4241000000.0 1.347 -0.9126
4244000000.0 0.08887 -1.625
4247000000.0 -1.219 -1.074
4250000000.0 -1.583 0.364
4253000000.0 -0.697 1.434
4256000000.0 0.6938 1.417
4259000000.0 1.503 0.3079
4262000000.0 1.169 -0.9915
4266000000.0 -0.04704 -1.546
4269000000.0 -1.236 -0.8534
4272000000.0 -1.467 0.4562
4275000000.0 -0.5441 1.412
4278000000.0 0.7426 1.254
4281000000.0 1.441 0.1403
4284000000.0 1.031 -0.9948
4288000000.0 -0.1149 -1.423
4291000000.0 -1.149 -0.7682
4294000000.0 -1.319 0.4153
4297000000.0 -0.4867 1.312
4300000000.0 0.6534 1.174
4303000000.0 1.32 0.2813
4306000000.0 1.007 -0.8358
4309000000.0 0.04842 -1.299
4312000000.0 -0.9927 -0.8714
4316000000.0 -1.285 0.204
4319000000.0 -0.7002 1.116
4322000000.0 0.4421 1.29
4325000000.0 1.234 0.5126
4328000000.0 1.191 -0.6539
4331000000.0 0.2845 -1.362
4334000000.0 -0.8491 -1.082
4338000000.0 -1.436 -0.04622
4341000000.0 -0.9305 1.046
4344000000.0 0.2119 1.426
4347000000.0 1.223 0.7533
4350000000.0 1.385 -0.4829
4353000000.0 0.5182 -1.411
4356000000.0 -0.7244 -1.268
4359000000.0 -1.445 -0.2282
4362000000.0 -1.115 0.9487
4366000000.0 0.005092 1.459
4369000000.0 1.149 0.9487
4372000000.0 1.455 -0.2522
4375000000.0 0.7373 -1.295
4378000000.0 -0.547 -1.41
4381000000.0 -1.435 -0.5432
4384000000.0 -1.293 0.8298
4388000000.0 -0.2009 1.555
4391000000.0 1.1 1.139
4394000000.0 1.589 -0.1508
4397000000.0 0.864 -1.354
4400000000.0 -0.4783 -1.537
4403000000.0 -1.508 -0.5462
4406000000.0 -1.378 0.8338
4409000000.0 -0.2022 1.59
4412000000.0 1.096 1.154
4416000000.0 1.558 -0.1757
4419000000.0 0.8152 -1.315
4422000000.0 -0.527 -1.459
4425000000.0 -1.407 -0.465
4428000000.0 -1.21 0.8262
4431000000.0 -0.1316 1.498
4434000000.0 1.086 0.9505
4438000000.0 1.425 -0.2555
4441000000.0 0.6756 -1.277
4444000000.0 -0.5565 -1.279
4447000000.0 -1.351 -0.3329
4450000000.0 -1.096 0.8479
4453000000.0 0.02783 1.356
4456000000.0 1.047 0.823
4459000000.0 1.269 -0.3405
4462000000.0 0.4945 -1.192
4466000000.0 -0.6352 -1.091
4469000000.0 -1.229 -0.1621
4472000000.0 -0.8813 0.8706
4475000000.0 0.175 1.216
4478000000.0 1.022 0.6444
4481000000.0 1.116 -0.4102
4484000000.0 0.3649 -1.12
4488000000.0 -0.6644 -0.9723
4491000000.0 -1.137 -0.08465
4494000000.0 -0.794 0.8263
4497000000.0 0.1719 1.153
4500000000.0 0.9954 0.5617
4503000000.0 1.013 -0.389
4506000000.0 0.3567 -1.06
4509000000.0 -0.6159 -0.9349
4512000000.0 -1.126 -0.1387
4516000000.0 -0.7912 0.805
4519000000.0 0.1248 1.112
4522000000.0 0.9183 0.6357
4525000000.0 1.113 -0.3243
4528000000.0 0.4119 -1.09
4531000000.0 -0.5771 -1.015
4534000000.0 -1.161 -0.1916
4538000000.0 -0.8935 0.7771
4541000000.0 0.03995 1.185
4544000000.0 0.9337 0.7992
4547000000.0 1.181 -0.2419
4550000000.0 0.563 -1.061
4553000000.0 -0.4526 -1.131
4556000000.0 -1.161 -0.4244
4559000000.0 -1.03 0.6484
4562000000.0 -0.1801 1.253
4566000000.0 0.8236 0.9226
4569000000.0 1.276 -0.01586
4572000000.0 0.7847 -1.028
4575000000.0 -0.2737 -1.299
4578000000.0 -1.176 -0.6106
4581000000.0 -1.226 0.5381
4584000000.0 -0.4151 1.27
4588000000.0 0.735 1.174
4591000000.0 1.343 0.1786
4594000000.0 0.9979 -0.9707
4597000000.0 -0.09658 -1.379
4600000000.0 -1.135 -0.8327
4603000000.0 -1.345 0.3583
4606000000.0 -0.5804 1.283
4609000000.0 0.6382 1.292
4612000000.0 1.399 0.3321
4616000000.0 1.107 -0.8421
4619000000.0 0.0561 -1.414
4622000000.0 -1.064 -0.9281
4625000000.0 -1.416 0.1997
4628000000.0 -0.6687 1.24
4631000000.0 0.5246 1.297
4634000000.0 1.333 0.4342
4638000000.0 1.157 -0.7658
4641000000.0 0.1301 -1.378
4644000000.0 -0.9667 -0.959
4647000000.0 -1.367 0.1843
4650000000.0 -0.6333 1.173
4653000000.0 0.4589 1.253
4656000000.0 1.238 0.3895
4659000000.0 1.101 -0.7204
4662000000.0 0.07809 -1.281
4666000000.0 -0.9196 -0.8527
4669000000.0 -1.201 0.221
4672000000.0 -0.6103 1.068
4675000000.0 0.4548 1.103
4678000000.0 1.16 0.3354
4681000000.0 0.9734 -0.6517
4684000000.0 0.05694 -1.1
4688000000.0 -0.8631 -0.7381
4691000000.0 -1.111 0.2049
4694000000.0 -0.5381 0.9839
4697000000.0 0.3889 1.068
4700000000.0 1.05 0.301
4703000000.0 0.9077 -0.6507
4706000000.0 0.05708 -1.113
4709000000.0 -0.824 -0.7048
4712000000.0 -1.067 0.1899
4716000000.0 -0.4873 0.9624
4719000000.0 0.4194 1.007
4722000000.0 1.045 0.2687
4725000000.0 0.8358 -0.6293
4728000000.0 0.02972 -1.068
4731000000.0 -0.7558 -0.6911
4734000000.0 -1.029 0.1682
4738000000.0 -0.5472 0.9163
4741000000.0 0.3634 0.9901
4744000000.0 0.9906 0.3449
4747000000.0 0.9344 -0.5309
4750000000.0 0.1674 -1.049
4753000000.0 -0.7282 -0.8163
4756000000.0 -1.076 0.03609
4759000000.0 -0.6926 0.8762
4762000000.0 0.2315 1.095
4766000000.0 1.011 0.5361
4769000000.0 1.087 -0.4866
4772000000.0 0.3359 -1.117
4775000000.0 -0.6225 -0.9954
4778000000.0 -1.163 -0.1434
4781000000.0 -0.8566 0.8195
4784000000.0 0.05128 1.178
4788000000.0 0.9811 0.757
4791000000.0 1.168 -0.2507
4794000000.0 0.5944 -1.084
4797000000.0 -0.4792 -1.178
4800000000.0 -1.232 -0.3931
4803000000.0 -1.05 0.6581
4806000000.0 -0.164 1.243
4809000000.0 0.8367 0.9487
4812000000.0 1.305 -0.03858
4816000000.0 0.8441 -1.046
4819000000.0 -0.2581 -1.323
4822000000.0 -1.176 -0.6249
4825000000.0 -1.251 0.5132
4828000000.0 -0.3896 1.324
4831000000.0 0.7822 1.191
4834000000.0 1.407 0.1457
4838000000.0 1.005 -0.9917
4841000000.0 -0.1466 -1.417
4844000000.0 -1.183 -0.7966
4847000000.0 -1.358 0.3993
4850000000.0 -0.5664 1.278
4853000000.0 0.6666 1.216
4856000000.0 1.371 0.2714
4859000000.0 1.083 -0.8996
4862000000.0 -0.01961 -1.389
4866000000.0 -1.076 -0.8551
4869000000.0 -1.314 0.2959
4872000000.0 -0.6019 1.198
4875000000.0 0.558 1.211
4878000000.0 1.286 0.3306
4881000000.0 1.041 -0.7742
4884000000.0 0.03946 -1.27
4888000000.0 -0.9239 -0.8261
4891000000.0 -1.23 0.1793
4894000000.0 -0.5772 1.07
4897000000.0 0.4131 1.094
4900000000.0 1.134 0.3329
4903000000.0 0.9358 -0.6534
4906000000.0 0.07886 -1.118
4909000000.0 -0.8184 -0.735
4912000000.0 -1.073 0.13
4916000000.0 -0.5523 0.8946
4919000000.0 0.3474 0.9735
4922000000.0 0.9589 0.3705
4925000000.0 0.8684 -0.5027
4928000000.0 0.1424 -0.9674
4931000000.0 -0.6548 -0.7197
4934000000.0 -0.9336 0.03314
4938000000.0 -0.5883 0.755
4941000000.0 0.2309 0.9485
4944000000.0 0.8682 0.3714
4947000000.0 0.8646 -0.3926
4950000000.0 0.2522 -0.9362
4953000000.0 -0.5612 -0.7784
4956000000.0 -0.9861 -0.03939
4959000000.0 -0.6538 0.7317
4962000000.0 0.1407 0.9686
4966000000.0 0.8614 0.4941
4969000000.0 0.914 -0.3704
4972000000.0 0.328 -0.9468
4975000000.0 -0.5547 -0.8737
4978000000.0 -1.014 -0.1095
4981000000.0 -0.7716 0.6883
4984000000.0 0.05554 1.038
4988000000.0 0.8565 0.6151
4991000000.0 1.037 -0.2646
4994000000.0 0.4643 -0.9737
4997000000.0 -0.4391 -1.002
5000000000.0 -1.101 -0.3034
5003000000.0 -0.9531 0.6703
5006000000.0 -0.09127 1.155
5009000000.0 0.8783 0.8393
5012000000.0 1.208 -0.1234
5016000000.0 0.6459 -1.015
5019000000.0 -0.3838 -1.218
5022000000.0 -1.184 -0.4724
5025000000.0 -1.123 0.5964
5028000000.0 -0.2297 1.284
5031000000.0 0.8204 1.009
5034000000.0 1.297 -0.02035
5038000000.0 0.8165 -0.9956
5041000000.0 -0.21 -1.279
5044000000.0 -1.141 -0.6416
5047000000.0 -1.233 0.4459
5050000000.0 -0.4222 1.24
5053000000.0 0.6848 1.128
5056000000.0 1.274 0.2328
5059000000.0 0.9871 -0.8674
5062000000.0 -0.01609 -1.339
5066000000.0 -1.021 -0.8346
5069000000.0 -1.308 0.265
5072000000.0 -0.6026 1.176
5075000000.0 0.487 1.213
5078000000.0 1.201 0.4034
5081000000.0 1.056 -0.7394
5084000000.0 0.1062 -1.217
5088000000.0 -0.851 -0.9053
5091000000.0 -1.213 0.08761
5094000000.0 -0.6981 0.9194
5097000000.0 0.2725 1.152
5100000000.0 1.039 0.5293
5103000000.0 1.072 -0.4528
5106000000.0 0.3522 -1.09
5109000000.0 -0.613 -0.9493
5112000000.0 -1.107 -0.1667
5116000000.0 -0.7594 0.704
5119000000.0 0.07209 1.058
5122000000.0 0.879 0.6244
5125000000.0 1.026 -0.2804
5128000000.0 0.4719 -0.9512
5131000000.0 -0.4002 -0.908
5134000000.0 -0.98 -0.2481
5138000000.0 -0.8315 0.5754
5141000000.0 -0.07282 1.005
5144000000.0 0.7306 0.6622
5147000000.0 0.9557 -0.1515
5150000000.0 0.5087 -0.8229
5153000000.0 -0.2886 -0.8948
5156000000.0 -0.8493 -0.3357
5159000000.0 -0.8212 0.4666
5162000000.0 -0.1587 0.9034
5166000000.0 0.5988 0.6814
5169000000.0 0.9176 -0.04194
5172000000.0 0.5437 -0.7561
5175000000.0 -0.2267 -0.891
5178000000.0 -0.8312 -0.4045
5181000000.0 -0.8344 0.4248
5184000000.0 -0.1784 0.8733
5188000000.0 0.5884 0.7388
5191000000.0 0.9186 -0.02452
5194000000.0 0.5787 -0.7487
5197000000.0 -0.2298 -0.9207
5200000000.0 -0.8778 -0.4173
5203000000.0 -0.8696 0.437
5206000000.0 -0.2065 0.9567
5209000000.0 0.6227 0.7719
5212000000.0 0.9535 -0.002967
5216000000.0 0.6235 -0.7498
5219000000.0 -0.1822 -1.0
5222000000.0 -0.8895 -0.4465
5225000000.0 -0.9209 0.3914
5228000000.0 -0.268 0.9972
5231000000.0 0.5997 0.8219
5234000000.0 1.03 0.06991
5238000000.0 0.7225 -0.7605
5241000000.0 -0.1108 -1.075
5244000000.0 -0.9126 -0.5552
5247000000.0 -1.004 0.3202
5250000000.0 -0.4018 0.9817
5253000000.0 0.5512 0.942
5256000000.0 1.064 0.2317
5259000000.0 0.85 -0.6854
5262000000.0 0.01225 -1.062
5266000000.0 -0.8248 -0.6988
5269000000.0 -1.108 0.1916
5272000000.0 -0.5307 0.9465
5275000000.0 0.3525 1.059
5278000000.0 1.007 0.4177
5281000000.0 0.9701 -0.5661
5284000000.0 0.2445 -1.092
5288000000.0 -0.7056 -0.8955
5291000000.0 -1.105 -0.05153
5294000000.0 -0.7718 0.8202
5297000000.0 0.1294 1.145
5300000000.0 0.9373 0.6451
5303000000.0 1.098 -0.286
5306000000.0 0.4839 -1.044
5309000000.0 -0.4583 -1.045
5312000000.0 -1.119 -0.2783
5316000000.0 -0.9482 0.6682
5319000000.0 -0.09534 1.18
5322000000.0 0.8275 0.8446
5325000000.0 1.163 -0.0613
5328000000.0 0.682 -0.9518
5331000000.0 -0.2824 -1.122
5334000000.0 -1.067 -0.4326
5338000000.0 -1.035 0.5168
5341000000.0 -0.2723 1.138
5344000000.0 0.682 0.9233
5347000000.0 1.148 0.04711
5350000000.0 0.786 -0.8192
5353000000.0 -0.1803 -1.099
5356000000.0 -0.9681 -0.565
5359000000.0 -1.047 0.3714
5362000000.0 -0.3441 1.009
5366000000.0 0.5793 0.9036
5369000000.0 1.076 0.1491
5372000000.0 0.7491 -0.7177
5375000000.0 -0.103 -1.051
5378000000.0 -0.88 -0.5857
5381000000.0 -0.973 0.3424
5384000000.0 -0.3643 0.9826
5388000000.0 0.5668 0.8561
5391000000.0 0.9801 0.1249
5394000000.0 0.6779 -0.6763
5397000000.0 -0.1153 -0.9245
5400000000.0 -0.8243 -0.4984
5403000000.0 -0.8787 0.3227
5406000000.0 -0.2936 0.8667
5409000000.0 0.479 0.7566
5412000000.0 0.8983 0.1057
5416000000.0 0.5739 -0.6187
5419000000.0 -0.1204 -0.8589
5422000000.0 -0.7524 -0.4783
5425000000.0 -0.8274 0.3149
5428000000.0 -0.2708 0.833
5431000000.0 0.5144 0.7615
5434000000.0 0.8671 0.09369
5438000000.0 0.6048 -0.6364
5441000000.0 -0.1031 -0.887
5444000000.0 -0.7642 -0.4399
5447000000.0 -0.8075 0.2878
5450000000.0 -0.2583 0.8314
5453000000.0 0.4683 0.7383
5456000000.0 0.8804 0.1214
5459000000.0 0.6408 -0.5987
5462000000.0 -0.07639 -0.9037
5466000000.0 -0.7563 -0.5272
5469000000.0 -0.8908 0.2495
5472000000.0 -0.4186 0.8151
5475000000.0 0.3819 0.8278
5478000000.0 0.9143 0.2188
5481000000.0 0.7944 -0.5452
5484000000.0 0.06834 -0.9509
5488000000.0 -0.6833 -0.7178
5491000000.0 -0.9767 0.1235
5494000000.0 -0.5837 0.8464
5497000000.0 0.2599 0.9563
5500000000.0 0.935 0.3957
5503000000.0 0.9312 -0.4371
5506000000.0 0.2075 -0.9911
5509000000.0 -0.6138 -0.829
5512000000.0 -1.041 -0.05746
5516000000.0 -0.735 0.7499
5519000000.0 0.109 1.033
5522000000.0 0.8484 0.5676
5525000000.0 0.9762 -0.2943
5528000000.0 0.4776 -1.004
5531000000.0 -0.4624 -0.9621
5534000000.0 -1.025 -0.2704
5538000000.0 -0.8876 0.604
5541000000.0 -0.1068 1.071
5544000000.0 0.7461 0.7353
5547000000.0 1.081 -0.09175
5550000000.0 0.6356 -0.8658
5553000000.0 -0.3149 -1.02
5556000000.0 -1.012 -0.4207
5559000000.0 -0.9406 0.4826
5562000000.0 -0.244 1.028
5566000000.0 0.6254 0.8414
5569000000.0 1.076 0.009425
5572000000.0 0.7215 -0.7802
5575000000.0 -0.1308 -1.009
5578000000.0 -0.8451 -0.535
5581000000.0 -0.9545 0.2797
5584000000.0 -0.3685 0.9231
5588000000.0 0.4768 0.8933
5591000000.0 0.9523 0.1912
5594000000.0 0.7462 -0.6129
5597000000.0 -0.03011 -0.9665
5600000000.0 -0.7262 -0.6096
5603000000.0 -0.8761 0.1622
5606000000.0 -0.4288 0.8204
5609000000.0 0.3245 0.8362
5612000000.0 0.8674 0.2492
5616000000.0 0.7356 -0.514
5619000000.0 0.04364 -0.897
5622000000.0 -0.6291 -0.5901
5625000000.0 -0.8741 0.0939
5628000000.0 -0.4397 0.7362
5631000000.0 0.2905 0.8159
5634000000.0 0.8032 0.2809
5638000000.0 0.7157 -0.4809
5641000000.0 0.09799 -0.8403
5644000000.0 -0.6112 -0.6016
5647000000.0 -0.8487 0.1001
5650000000.0 -0.4683 0.7342
5653000000.0 0.2718 0.8311
5656000000.0 0.7911 0.265
5659000000.0 0.7137 -0.4604
5662000000.0 0.1059 -0.876
5666000000.0 -0.6446 -0.6225
5669000000.0 -0.8899 0.1019
5672000000.0 -0.4725 0.7777
5675000000.0 0.3241 0.8688
5678000000.0 0.8566 0.2981
5681000000.0 0.7882 -0.4995
5684000000.0 0.1203 -0.9661
5688000000.0 -0.6493 -0.6715
5691000000.0 -0.9724 0.09264
5694000000.0 -0.5447 0.8043
5697000000.0 0.2861 0.9338
5700000000.0 0.9052 0.3648
5703000000.0 0.8675 -0.4834
5706000000.0 0.1805 -0.9997
5709000000.0 -0.654 -0.7794
5712000000.0 -1.043 0.03176
5716000000.0 -0.6357 0.8279
5719000000.0 0.2511 1.048
5722000000.0 0.9502 0.4791
5725000000.0 0.9687 -0.4142
5728000000.0 0.3235 -1.038
5731000000.0 -0.603 -0.8995
5734000000.0 -1.105 -0.1132
5738000000.0 -0.7722 0.7653
5741000000.0 0.07845 1.101
5744000000.0 0.8919 0.6187
5747000000.0 1.055 -0.3066
5750000000.0 0.4522 -1.033
5753000000.0 -0.4888 -0.9763
5756000000.0 -1.125 -0.2812
5759000000.0 -0.8779 0.6452
5762000000.0 -0.09993 1.118
5766000000.0 0.8289 0.7891
5769000000.0 1.131 -0.1033
5772000000.0 0.6326 -0.9289
5775000000.0 -0.3192 -1.074
5778000000.0 -1.022 -0.4501
5781000000.0 -1.017 0.5062
5784000000.0 -0.2386 1.073
5788000000.0 0.6551 0.8634
5791000000.0 1.123 0.06173
5794000000.0 0.7284 -0.7918
5797000000.0 -0.1467 -1.07
5800000000.0 -0.9237 -0.5795
5803000000.0 -1.017 0.317
5806000000.0 -0.3765 1.038
5809000000.0 0.5182 0.9107
5812000000.0 1.046 0.222
5816000000.0 0.8306 -0.6792
5819000000.0 -0.02901 -1.034
5822000000.0 -0.81 -0.6452
5825000000.0 -0.9615 0.2119
5828000000.0 -0.5077 0.9251
5831000000.0 0.4076 0.9308
5834000000.0 0.9689 0.289
5838000000.0 0.8162 -0.5557
5841000000.0 0.07009 -1.007
5844000000.0 -0.7116 -0.6512
5847000000.0 -0.9759 0.1125
5850000000.0 -0.5394 0.8371
5853000000.0 0.3056 0.893
5856000000.0 0.8969 0.2998
5859000000.0 0.8012 -0.5064
5862000000.0 0.1236 -0.9308
5866000000.0 -0.6338 -0.6589
5869000000.0 -0.8939 0.1049
5872000000.0 -0.4949 0.7691
5875000000.0 0.2604 0.8462
5878000000.0 0.852 0.2979
5881000000.0 0.7554 -0.46
5884000000.0 0.133 -0.8708
5888000000.0 -0.6011 -0.6335
5891000000.0 -0.8527 0.05358
5894000000.0 -0.495 0.7258
5897000000.0 0.2569 0.8389
5900000000.0 0.7876 0.3346
5903000000.0 0.7687 -0.4075
5906000000.0 0.1724 -0.8352
5909000000.0 -0.5385 -0.6702
5912000000.0 -0.8731 -0.01778
5916000000.0 -0.5603 0.656
5919000000.0 0.1515 0.8547
5922000000.0 0.7632 0.4088
5925000000.0 0.824 -0.3413
5928000000.0 0.2578 -0.8613
5931000000.0 -0.5087 -0.7453
5934000000.0 -0.8867 -0.08148
5938000000.0 -0.6559 0.6433
5941000000.0 0.06967 0.9129
5944000000.0 0.7123 0.5514
5947000000.0 0.8788 -0.2574
5950000000.0 0.4005 -0.8117
5953000000.0 -0.4197 -0.8267
5956000000.0 -0.9036 -0.2374
5959000000.0 -0.7665 0.535
5962000000.0 -0.05735 0.9474
5966000000.0 0.6903 0.6431
5969000000.0 0.9713 -0.07986
5972000000.0 0.5401 -0.8106
5975000000.0 -0.2797 -0.934
5978000000.0 -0.8893 -0.3836
5981000000.0 -0.8804 0.4171
5984000000.0 -0.2281 0.9742
5988000000.0 0.5934 0.8159
5991000000.0 0.9978 0.07657
5994000000.0 0.655 -0.7378
5997000000.0 -0.1357 -1.014
6000000000.0 -0.8773 -0.5357
6003000000.0 -0.9566 0.3404
6006000000.0 -0.3693 0.9349
6009000000.0 0.5044 0.8739
6012000000.0 1.002 0.1732
6016000000.0 0.7529 -0.6509
6019000000.0 -0.02638 -1.026
6022000000.0 -0.7519 -0.6336
6025000000.0 -0.9743 0.2119
6028000000.0 -0.4642 0.881
6031000000.0 0.4014 0.9175
6034000000.0 0.9491 0.2897
6038000000.0 0.819 -0.5595
6041000000.0 0.09219 -0.9805
6044000000.0 -0.7063 -0.6666
6047000000.0 -0.9526 0.1038
6050000000.0 -0.5242 0.8121
6053000000.0 0.306 0.9141
6056000000.0 0.8809 0.3244
6059000000.0 0.8231 -0.4877
6062000000.0 0.1156 -0.9209
6066000000.0 -0.6474 -0.6749
6069000000.0 -0.9393 0.05063
6072000000.0 -0.4986 0.7367
6075000000.0 0.2551 0.8543
6078000000.0 0.848 0.3705
6081000000.0 0.8022 -0.4013
6084000000.0 0.1559 -0.8806
6088000000.0 -0.5854 -0.6653
6091000000.0 -0.8904 0.02163
6094000000.0 -0.5506 0.6891
6097000000.0 0.1841 0.8394
6100000000.0 0.7838 0.367
6103000000.0 0.7625 -0.3703
6106000000.0 0.2039 -0.8581
6109000000.0 -0.5092 -0.6791
6112000000.0 -0.8657 -0.02147
6116000000.0 -0.5632 0.6764
6119000000.0 0.191 0.8631
6122000000.0 0.7284 0.4234
6125000000.0 0.7966 -0.322
6128000000.0 0.222 -0.8642
6131000000.0 -0.4905 -0.6866
6134000000.0 -0.8746 -0.05771
6138000000.0 -0.6177 0.6912
6141000000.0 0.1366 0.8849
6144000000.0 0.7653 0.4552
6147000000.0 0.8394 -0.2967
6150000000.0 0.3075 -0.849
6153000000.0 -0.4402 -0.7579
6156000000.0 -0.8887 -0.1422
6159000000.0 -0.6658 0.5958
6162000000.0 0.03409 0.8976
6166000000.0 0.7222 0.5818
6169000000.0 0.8744 -0.2379
6172000000.0 0.393 -0.8678
6175000000.0 -0.4203 -0.859
6178000000.0 -0.896 -0.206
6181000000.0 -0.7503 0.5668
6184000000.0 -0.02744 0.9483
6188000000.0 0.7045 0.6575
6191000000.0 0.9361 -0.1694
6194000000.0 0.4932 -0.8648
6197000000.0 -0.3547 -0.8705
6200000000.0 -0.9264 -0.3005
6203000000.0 -0.8014 0.4968
6206000000.0 -0.1343 0.8948
6209000000.0 0.636 0.6847
6212000000.0 0.9404 -0.07275
6216000000.0 0.5892 -0.7448
6219000000.0 -0.2289 -0.894
6222000000.0 -0.8653 -0.4089
6225000000.0 -0.8124 0.3875
6228000000.0 -0.2099 0.9054
6231000000.0 0.5247 0.7598
6234000000.0 0.8747 0.06369
6238000000.0 0.6103 -0.6441
6241000000.0 -0.1188 -0.9072
6244000000.0 -0.71 -0.4579
6247000000.0 -0.8395 0.2658
6250000000.0 -0.3193 0.7919
6253000000.0 0.3955 0.7481
6256000000.0 0.8199 0.1618
6259000000.0 0.6776 -0.4996
6262000000.0 0.02706 -0.8479
6266000000.0 -0.6242 -0.5644
6269000000.0 -0.8368 0.09161
