! Created with skrf 1.8.0 (http://scikit-rf.org).
# Hz S RI R 50.0 
!freq ReS11 ImS11
4000000000.0 -0.1194 -1.475
4003000000.0 -1.287 -0.8702
4006000000.0 -1.433 0.5062
4009000000.0 -0.5146 1.416
4012000000.0 0.7615 1.311
4016000000.0 1.495 0.2237
4019000000.0 1.124 -1.061
4022000000.0 -0.1306 -1.583
4025000000.0 -1.278 -0.8728
4028000000.0 -1.54 0.4472
4031000000.0 -0.6158 1.498
4034000000.0 0.8125 1.416
4038000000.0 1.583 0.2296
4041000000.0 1.176 -1.122
4044000000.0 -0.1508 -1.617
4047000000.0 -1.346 -0.9095
4050000000.0 -1.545 0.4744
4053000000.0 -0.6306 1.488
4056000000.0 0.7735 1.444
4059000000.0 1.582 0.369
4062000000.0 1.23 -1.018
4066000000.0 0.03588 -1.601
4069000000.0 -1.225 -1.028
4072000000.0 -1.569 0.2767
4075000000.0 -0.8315 1.4
4078000000.0 0.585 1.515
4081000000.0 1.546 0.5076
4084000000.0 1.389 -0.8679
4088000000.0 0.2291 -1.611
4091000000.0 -1.089 -1.205
4094000000.0 -1.665 0.04741
4097000000.0 -0.9752 1.283
4100000000.0 0.3478 1.559
4103000000.0 1.435 0.7282
4106000000.0 1.475 -0.6374
4109000000.0 0.4322 -1.526
4112000000.0 -0.8709 -1.262
4116000000.0 -1.502 -0.1894
4119000000.0 -1.139 1.007
4122000000.0 0.02058 1.497
4125000000.0 1.142 0.9198
4128000000.0 1.468 -0.2344
4131000000.0 0.8035 -1.26
4134000000.0 -0.4313 -1.404
4138000000.0 -1.384 -0.5897
4141000000.0 -1.347 0.6501
4144000000.0 -0.3941 1.472
4147000000.0 0.8719 1.265
4150000000.0 1.529 0.142
4153000000.0 1.066 -1.049
4156000000.0 -0.1311 -1.503
4159000000.0 -1.223 -0.8815
4162000000.0 -1.484 0.3677
4166000000.0 -0.6764 1.365
4169000000.0 0.6456 1.391
4172000000.0 1.453 0.4121
4175000000.0 1.244 -0.8549
4178000000.0 0.1555 -1.495
4181000000.0 -1.062 -1.082
4184000000.0 -1.503 0.06125
4188000000.0 -0.8732 1.235
4191000000.0 0.3841 1.486
4194000000.0 1.386 0.647
4197000000.0 1.422 -0.6781
4200000000.0 0.3814 -1.53
4203000000.0 -0.9586 -1.289
4206000000.0 -1.645 -0.05871
4209000000.0 -1.045 1.216
4212000000.0 0.3446 1.614
4216000000.0 1.518 0.7055
4219000000.0 1.512 -0.7559
4222000000.0 0.3392 -1.678
4225000000.0 -1.135 -1.3
4228000000.0 -1.676 0.1465
4231000000.0 -0.899 1.374
4234000000.0 0.5541 1.553
4238000000.0 1.573 0.4915
4241000000.0 1.343 -0.9049
4244000000.0 0.08888 -1.62
4247000000.0 -1.212 -1.036
4250000000.0 -1.556 0.2806
4253000000.0 -0.6951 1.398
4256000000.0 0.6922 1.367
4259000000.0 1.528 0.3151
4262000000.0 1.134 -0.9753
4266000000.0 -0.03651 -1.493
4269000000.0 -1.219 -0.848
4272000000.0 -1.405 0.3963
4275000000.0 -0.516 1.37
4278000000.0 0.7559 1.234
4281000000.0 1.399 0.1666
4284000000.0 1.021 -0.9848
4288000000.0 -0.1711 -1.398
4291000000.0 -1.136 -0.7486
4294000000.0 -1.3 0.4154
4297000000.0 -0.4991 1.24
4300000000.0 0.6517 1.117
4303000000.0 1.274 0.2746
4306000000.0 1.01 -0.8174
4309000000.0 0.00984 -1.281
4312000000.0 -0.979 -0.8556
4316000000.0 -1.24 0.1747
4319000000.0 -0.6732 1.101
4322000000.0 0.3987 1.26
4325000000.0 1.23 0.5119
4328000000.0 1.173 -0.6569
4331000000.0 0.2896 -1.302
4334000000.0 -0.8724 -1.073
4338000000.0 -1.382 -0.04104
4341000000.0 -0.9249 1.039
4344000000.0 0.2327 1.392
4347000000.0 1.217 0.724
4350000000.0 1.357 -0.4699
4353000000.0 0.4871 -1.346
4356000000.0 -0.7046 -1.278
4359000000.0 -1.406 -0.2485
4362000000.0 -1.072 0.9714
4366000000.0 0.02555 1.484
4369000000.0 1.15 0.9564
4372000000.0 1.455 -0.2999
4375000000.0 0.7026 -1.297
4378000000.0 -0.5692 -1.376
4381000000.0 -1.429 -0.4776
4384000000.0 -1.309 0.8013
4388000000.0 -0.1676 1.534
4391000000.0 1.088 1.132
4394000000.0 1.568 -0.1714
4397000000.0 0.8489 -1.321
4400000000.0 -0.5028 -1.506
4403000000.0 -1.475 -0.5647
4406000000.0 -1.353 0.8554
4409000000.0 -0.1708 1.583
4412000000.0 1.089 1.089
4416000000.0 1.534 -0.2152
4419000000.0 0.7961 -1.327
4422000000.0 -0.5655 -1.438
4425000000.0 -1.43 -0.4283
4428000000.0 -1.205 0.8263
4431000000.0 -0.05084 1.487
4434000000.0 1.076 0.9915
4438000000.0 1.425 -0.2593
4441000000.0 0.6451 -1.231
4444000000.0 -0.5628 -1.225
4447000000.0 -1.334 -0.31
4450000000.0 -1.05 0.8386
4453000000.0 0.009925 1.312
4456000000.0 1.061 0.7905
4459000000.0 1.241 -0.3608
4462000000.0 0.4498 -1.162
4466000000.0 -0.6524 -1.132
4469000000.0 -1.224 -0.1298
4472000000.0 -0.8378 0.9058
4475000000.0 0.1455 1.184
4478000000.0 1.035 0.5868
4481000000.0 1.087 -0.4343
4484000000.0 0.3457 -1.095
4488000000.0 -0.6668 -0.9349
4491000000.0 -1.139 -0.07165
4494000000.0 -0.7719 0.8461
4497000000.0 0.2043 1.085
4500000000.0 0.994 0.5728
4503000000.0 1.011 -0.416
4506000000.0 0.2994 -1.044
4509000000.0 -0.6293 -0.922
4512000000.0 -1.09 -0.09849
4516000000.0 -0.8001 0.7905
4519000000.0 0.1122 1.103
4522000000.0 0.942 0.6265
4525000000.0 1.072 -0.3561
4528000000.0 0.4241 -1.076
4531000000.0 -0.565 -1.039
4534000000.0 -1.174 -0.1821
4538000000.0 -0.9054 0.7586
4541000000.0 0.02623 1.172
4544000000.0 0.9405 0.7406
4547000000.0 1.174 -0.2565
4550000000.0 0.5586 -1.062
4553000000.0 -0.455 -1.105
4556000000.0 -1.201 -0.3769
4559000000.0 -0.999 0.6811
4562000000.0 -0.1965 1.268
4566000000.0 0.8506 0.9095
4569000000.0 1.283 -0.04912
4572000000.0 0.7653 -1.021
4575000000.0 -0.2952 -1.255
4578000000.0 -1.173 -0.5909
4581000000.0 -1.236 0.5115
4584000000.0 -0.3841 1.27
4588000000.0 0.7365 1.14
4591000000.0 1.328 0.1479
4594000000.0 0.9669 -0.9409
4597000000.0 -0.09093 -1.36
4600000000.0 -1.128 -0.7989
4603000000.0 -1.363 0.3835
4606000000.0 -0.5368 1.291
4609000000.0 0.641 1.214
4612000000.0 1.351 0.2938
4616000000.0 1.084 -0.877
4619000000.0 0.03315 -1.4
4622000000.0 -1.077 -0.9116
4625000000.0 -1.329 0.2452
4628000000.0 -0.6206 1.206
4631000000.0 0.521 1.266
4634000000.0 1.334 0.3836
4638000000.0 1.123 -0.7921
4641000000.0 0.07825 -1.348
4644000000.0 -1.028 -0.9103
4647000000.0 -1.329 0.1972
4650000000.0 -0.6678 1.168
4653000000.0 0.4881 1.235
4656000000.0 1.265 0.3996
4659000000.0 1.044 -0.739
4662000000.0 0.08599 -1.233
4666000000.0 -0.9239 -0.8406
4669000000.0 -1.193 0.2361
4672000000.0 -0.5761 1.064
4675000000.0 0.4736 1.077
4678000000.0 1.131 0.2978
4681000000.0 0.9354 -0.6417
4684000000.0 0.03824 -1.12
4688000000.0 -0.8505 -0.7052
4691000000.0 -1.098 0.1951
4694000000.0 -0.5284 0.9756
4697000000.0 0.44 1.025
4700000000.0 1.05 0.3234
4703000000.0 0.8772 -0.6484
4706000000.0 0.03789 -1.094
4709000000.0 -0.843 -0.653
4712000000.0 -1.063 0.2289
4716000000.0 -0.4759 0.9643
4719000000.0 0.4716 0.9508
4722000000.0 1.022 0.2559
4725000000.0 0.8496 -0.6199
4728000000.0 0.04421 -1.058
4731000000.0 -0.795 -0.6913
4734000000.0 -1.028 0.1789
4738000000.0 -0.5359 0.901
4741000000.0 0.362 0.9715
4744000000.0 0.9956 0.355
4747000000.0 0.8995 -0.5173
4750000000.0 0.1338 -1.045
4753000000.0 -0.7182 -0.7853
4756000000.0 -1.085 0.05229
4759000000.0 -0.6867 0.8573
4762000000.0 0.2352 1.098
4766000000.0 1.01 0.5104
4769000000.0 1.07 -0.4214
4772000000.0 0.3418 -1.117
4775000000.0 -0.6474 -0.994
4778000000.0 -1.151 -0.1529
4781000000.0 -0.8727 0.8207
4784000000.0 0.07811 1.166
4788000000.0 0.9708 0.6926
4791000000.0 1.178 -0.2921
4794000000.0 0.5458 -1.084
4797000000.0 -0.4731 -1.154
4800000000.0 -1.228 -0.3746
4803000000.0 -1.061 0.6642
4806000000.0 -0.1883 1.249
4809000000.0 0.856 0.9256
4812000000.0 1.304 -0.02666
4816000000.0 0.8072 -1.046
4819000000.0 -0.2833 -1.279
4822000000.0 -1.191 -0.6044
4825000000.0 -1.253 0.5098
4828000000.0 -0.425 1.321
4831000000.0 0.8 1.14
4834000000.0 1.38 0.1246
4838000000.0 0.9732 -1.013
4841000000.0 -0.1577 -1.408
4844000000.0 -1.164 -0.7722
4847000000.0 -1.322 0.4166
4850000000.0 -0.5094 1.305
4853000000.0 0.669 1.226
4856000000.0 1.324 0.2564
4859000000.0 1.059 -0.8774
4862000000.0 -0.005192 -1.336
4866000000.0 -1.073 -0.8295
4869000000.0 -1.305 0.2998
4872000000.0 -0.6016 1.186
4875000000.0 0.5287 1.191
4878000000.0 1.283 0.3303
4881000000.0 1.024 -0.7564
4884000000.0 0.0149 -1.287
4888000000.0 -0.9332 -0.8141
4891000000.0 -1.221 0.2352
4894000000.0 -0.583 1.024
4897000000.0 0.4552 1.073
4900000000.0 1.109 0.3255
4903000000.0 0.8836 -0.6522
4906000000.0 0.06676 -1.088
4909000000.0 -0.769 -0.7434
4912000000.0 -1.025 0.1601
4916000000.0 -0.5415 0.8866
4919000000.0 0.3282 0.9413
4922000000.0 0.9431 0.3068
4925000000.0 0.846 -0.5048
4928000000.0 0.1392 -0.9335
4931000000.0 -0.6398 -0.7306
4934000000.0 -0.9588 0.04392
4938000000.0 -0.5629 0.7735
4941000000.0 0.2421 0.9221
4944000000.0 0.8302 0.4076
4947000000.0 0.856 -0.382
4950000000.0 0.244 -0.9194
4953000000.0 -0.5653 -0.754
4956000000.0 -0.9561 -0.04379
4959000000.0 -0.6577 0.7143
4962000000.0 0.1616 0.9764
4966000000.0 0.8455 0.503
4969000000.0 0.924 -0.3717
4972000000.0 0.3113 -0.9574
4975000000.0 -0.5542 -0.8673
4978000000.0 -1.034 -0.1248
4981000000.0 -0.7387 0.7094
4984000000.0 0.07148 1.007
4988000000.0 0.8555 0.6264
4991000000.0 1.018 -0.2832
4994000000.0 0.4509 -0.9992
4997000000.0 -0.4842 -0.9979
5000000000.0 -1.071 -0.2819
5003000000.0 -0.9159 0.6809
5006000000.0 -0.09481 1.146
5009000000.0 0.8795 0.8013
5012000000.0 1.219 -0.153
5016000000.0 0.6534 -1.038
5019000000.0 -0.3876 -1.19
5022000000.0 -1.168 -0.4707
5025000000.0 -1.081 0.6188
5028000000.0 -0.2247 1.252
5031000000.0 0.8223 0.969
5034000000.0 1.286 0.008508
5038000000.0 0.8024 -0.9722
5041000000.0 -0.2392 -1.26
5044000000.0 -1.145 -0.5925
5047000000.0 -1.196 0.4746
5050000000.0 -0.4078 1.234
5053000000.0 0.6642 1.114
5056000000.0 1.295 0.208
5059000000.0 0.9789 -0.8617
5062000000.0 -0.04272 -1.285
5066000000.0 -1.021 -0.8092
5069000000.0 -1.286 0.28
5072000000.0 -0.6347 1.162
5075000000.0 0.4956 1.205
5078000000.0 1.242 0.3918
5081000000.0 1.066 -0.6666
5084000000.0 0.104 -1.249
5088000000.0 -0.8495 -0.8646
5091000000.0 -1.201 0.1326
5094000000.0 -0.715 0.9804
5097000000.0 0.3008 1.153
5100000000.0 1.064 0.5079
5103000000.0 1.031 -0.4522
5106000000.0 0.3041 -1.027
5109000000.0 -0.5971 -0.8974
5112000000.0 -1.071 -0.07973
5116000000.0 -0.7849 0.7291
5119000000.0 0.06546 1.046
5122000000.0 0.8434 0.6
5125000000.0 0.991 -0.2395
5128000000.0 0.4685 -0.9412
5131000000.0 -0.442 -0.9268
5134000000.0 -0.9718 -0.2318
5138000000.0 -0.7768 0.5843
5141000000.0 -0.05954 0.9635
5144000000.0 0.7016 0.6562
5147000000.0 0.942 -0.1226
5150000000.0 0.4574 -0.8115
5153000000.0 -0.3039 -0.8939
5156000000.0 -0.8676 -0.3305
5159000000.0 -0.7916 0.4914
5162000000.0 -0.1279 0.9086
5166000000.0 0.6546 0.6579
5169000000.0 0.8888 -0.06678
5172000000.0 0.542 -0.7359
5175000000.0 -0.2424 -0.8565
5178000000.0 -0.8217 -0.3636
5181000000.0 -0.8041 0.4408
5184000000.0 -0.1864 0.8771
5188000000.0 0.6286 0.713
5191000000.0 0.9267 -0.01319
5194000000.0 0.5653 -0.7472
5197000000.0 -0.2351 -0.892
5200000000.0 -0.8571 -0.3779
5203000000.0 -0.8322 0.4418
5206000000.0 -0.2179 0.9461
5209000000.0 0.6195 0.75
5212000000.0 0.9352 0.01395
5216000000.0 0.5859 -0.7604
5219000000.0 -0.1898 -0.955
5222000000.0 -0.9027 -0.451
5225000000.0 -0.9284 0.4178
5228000000.0 -0.2563 0.9694
5231000000.0 0.6101 0.8377
5234000000.0 1.027 0.04828
5238000000.0 0.7008 -0.7726
5241000000.0 -0.1301 -1.034
5244000000.0 -0.8978 -0.5334
5247000000.0 -0.9871 0.3477
5250000000.0 -0.3998 0.9949
5253000000.0 0.5132 0.93
5256000000.0 1.045 0.1797
5259000000.0 0.8165 -0.7017
5262000000.0 0.01204 -1.108
5266000000.0 -0.8127 -0.6779
5269000000.0 -1.073 0.1522
5272000000.0 -0.5776 0.9624
5275000000.0 0.3516 1.059
5278000000.0 1.029 0.3958
5281000000.0 0.9547 -0.5023
5284000000.0 0.2225 -1.088
5288000000.0 -0.6627 -0.8731
5291000000.0 -1.103 -0.03886
5294000000.0 -0.7378 0.8326
5297000000.0 0.1238 1.103
5300000000.0 0.9365 0.6458
5303000000.0 1.062 -0.2964
5306000000.0 0.4367 -1.029
5309000000.0 -0.4916 -1.04
5312000000.0 -1.117 -0.2992
5316000000.0 -0.939 0.6644
5319000000.0 -0.104 1.136
5322000000.0 0.8253 0.8325
5325000000.0 1.144 -0.1166
5328000000.0 0.6776 -0.9704
5331000000.0 -0.3093 -1.117
5334000000.0 -1.046 -0.4616
5338000000.0 -0.998 0.4738
5341000000.0 -0.266 1.114
5344000000.0 0.6865 0.8827
5347000000.0 1.122 0.03939
5350000000.0 0.7374 -0.86
5353000000.0 -0.176 -1.078
5356000000.0 -0.9347 -0.5312
5359000000.0 -0.992 0.3874
5362000000.0 -0.3784 1.036
5366000000.0 0.5841 0.8917
5369000000.0 1.056 0.117
5372000000.0 0.7502 -0.7399
5375000000.0 -0.07779 -1.058
5378000000.0 -0.8631 -0.5481
5381000000.0 -0.9578 0.3391
5384000000.0 -0.3456 0.9885
5388000000.0 0.5366 0.8146
5391000000.0 0.9542 0.07646
5394000000.0 0.6564 -0.7034
5397000000.0 -0.1099 -0.9263
5400000000.0 -0.8116 -0.4873
5403000000.0 -0.8468 0.3171
5406000000.0 -0.274 0.844
5409000000.0 0.4773 0.7226
5412000000.0 0.9047 0.04813
5416000000.0 0.6028 -0.6759
5419000000.0 -0.1488 -0.8836
5422000000.0 -0.7559 -0.4214
5425000000.0 -0.813 0.2879
5428000000.0 -0.2477 0.8541
5431000000.0 0.4874 0.7036
5434000000.0 0.8305 0.0737
5438000000.0 0.6059 -0.6535
5441000000.0 -0.1326 -0.8529
5444000000.0 -0.7508 -0.4646
5447000000.0 -0.8255 0.3069
5450000000.0 -0.273 0.8338
5453000000.0 0.5164 0.75
5456000000.0 0.8888 0.09345
5459000000.0 0.6634 -0.6397
5462000000.0 -0.08492 -0.8348
5466000000.0 -0.7397 -0.5282
5469000000.0 -0.8795 0.2439
5472000000.0 -0.3943 0.8206
5475000000.0 0.3844 0.8152
5478000000.0 0.9155 0.2049
5481000000.0 0.7252 -0.5392
5484000000.0 0.08856 -0.9391
5488000000.0 -0.6916 -0.6672
5491000000.0 -0.9201 0.08417
5494000000.0 -0.5408 0.8051
5497000000.0 0.3168 0.9878
5500000000.0 0.9173 0.3822
5503000000.0 0.886 -0.4517
5506000000.0 0.2061 -0.9653
5509000000.0 -0.6367 -0.7969
5512000000.0 -1.007 -0.04595
5516000000.0 -0.7169 0.7573
5519000000.0 0.1115 1.03
5522000000.0 0.8644 0.5634
5525000000.0 1.001 -0.3019
5528000000.0 0.4426 -0.9812
5531000000.0 -0.4491 -0.9743
5534000000.0 -1.037 -0.2761
5538000000.0 -0.8503 0.6266
5541000000.0 -0.09538 1.077
5544000000.0 0.7277 0.7448
5547000000.0 1.044 -0.1326
5550000000.0 0.6095 -0.8958
5553000000.0 -0.2967 -1.059
5556000000.0 -0.9581 -0.4131
5559000000.0 -1.006 0.4578
5562000000.0 -0.2364 1.02
5566000000.0 0.6219 0.8364
5569000000.0 1.062 0.03717
5572000000.0 0.6585 -0.7839
5575000000.0 -0.1629 -1.02
5578000000.0 -0.8608 -0.483
5581000000.0 -0.934 0.3484
5584000000.0 -0.3268 0.9246
5588000000.0 0.5041 0.8399
5591000000.0 0.9547 0.1624
5594000000.0 0.7239 -0.6308
5597000000.0 -0.03023 -0.9464
5600000000.0 -0.7565 -0.5733
5603000000.0 -0.873 0.2282
5606000000.0 -0.4066 0.8061
5609000000.0 0.363 0.8218
5612000000.0 0.8564 0.2085
5616000000.0 0.7104 -0.511
5619000000.0 0.03737 -0.8625
5622000000.0 -0.6423 -0.5764
5625000000.0 -0.8263 0.1423
5628000000.0 -0.4225 0.7334
5631000000.0 0.323 0.7721
5634000000.0 0.8011 0.2558
5638000000.0 0.7165 -0.4419
5641000000.0 0.07042 -0.8326
5644000000.0 -0.6171 -0.5851
5647000000.0 -0.8074 0.0934
5650000000.0 -0.4184 0.7183
5653000000.0 0.3074 0.8021
5656000000.0 0.831 0.2745
5659000000.0 0.7361 -0.4916
5662000000.0 0.08345 -0.8473
5666000000.0 -0.6206 -0.6059
5669000000.0 -0.8811 0.1331
5672000000.0 -0.4554 0.7531
5675000000.0 0.3259 0.864
5678000000.0 0.8843 0.2808
5681000000.0 0.7826 -0.5061
5684000000.0 0.1158 -0.9221
5688000000.0 -0.661 -0.6591
5691000000.0 -0.9472 0.1116
5694000000.0 -0.5393 0.8082
5697000000.0 0.3145 0.9154
5700000000.0 0.9402 0.3544
5703000000.0 0.8602 -0.4856
5706000000.0 0.1272 -0.9988
5709000000.0 -0.6557 -0.7832
5712000000.0 -1.028 0.077
5716000000.0 -0.6297 0.8193
5719000000.0 0.2543 1.015
5722000000.0 0.9493 0.4659
5725000000.0 0.9559 -0.424
5728000000.0 0.2823 -1.019
5731000000.0 -0.6327 -0.8888
5734000000.0 -1.085 -0.07134
5738000000.0 -0.7713 0.7737
5741000000.0 0.1164 1.057
5744000000.0 0.9036 0.5949
5747000000.0 1.056 -0.3159
5750000000.0 0.4132 -1.011
5753000000.0 -0.4986 -0.9923
5756000000.0 -1.074 -0.2199
5759000000.0 -0.9059 0.6825
5762000000.0 -0.06718 1.134
5766000000.0 0.7578 0.7379
5769000000.0 1.142 -0.1584
5772000000.0 0.6114 -0.9368
5775000000.0 -0.3579 -1.032
5778000000.0 -1.03 -0.44
5781000000.0 -0.962 0.514
5784000000.0 -0.2288 1.037
5788000000.0 0.6371 0.8579
5791000000.0 1.104 0.04034
5794000000.0 0.7264 -0.7978
5797000000.0 -0.1687 -1.062
5800000000.0 -0.9211 -0.5642
5803000000.0 -1.012 0.3457
5806000000.0 -0.342 1.024
5809000000.0 0.52 0.9403
5812000000.0 1.033 0.1612
5816000000.0 0.7948 -0.6929
5819000000.0 -0.03572 -1.058
5822000000.0 -0.8204 -0.6361
5825000000.0 -0.99 0.2124
5828000000.0 -0.4602 0.8921
5831000000.0 0.4308 0.8933
5834000000.0 0.9501 0.2709
5838000000.0 0.7862 -0.5692
5841000000.0 0.0387 -0.9717
5844000000.0 -0.7336 -0.6275
5847000000.0 -0.9452 0.1395
5850000000.0 -0.4469 0.8378
5853000000.0 0.3243 0.8642
5856000000.0 0.8813 0.2668
5859000000.0 0.7774 -0.507
5862000000.0 0.06216 -0.9143
5866000000.0 -0.6745 -0.6272
5869000000.0 -0.9209 0.1046
5872000000.0 -0.4668 0.7474
5875000000.0 0.3102 0.8018
5878000000.0 0.8408 0.27
5881000000.0 0.7414 -0.4901
5884000000.0 0.1138 -0.9103
5888000000.0 -0.6183 -0.6342
5891000000.0 -0.8839 0.08362
5894000000.0 -0.4726 0.716
5897000000.0 0.2515 0.8214
5900000000.0 0.7898 0.319
5903000000.0 0.7482 -0.4174
5906000000.0 0.1903 -0.8666
5909000000.0 -0.5654 -0.6709
5912000000.0 -0.8956 0.00724
5916000000.0 -0.5058 0.6833
5919000000.0 0.1823 0.8156
5922000000.0 0.8007 0.3905
5925000000.0 0.8566 -0.3586
5928000000.0 0.2484 -0.8594
5931000000.0 -0.5018 -0.7241
5934000000.0 -0.8706 -0.06301
5938000000.0 -0.6207 0.6377
5941000000.0 0.1204 0.9152
5944000000.0 0.7847 0.4981
5947000000.0 0.8573 -0.2644
5950000000.0 0.3671 -0.8276
5953000000.0 -0.3924 -0.8121
5956000000.0 -0.876 -0.1787
5959000000.0 -0.7646 0.5275
5962000000.0 -0.04601 0.9192
5966000000.0 0.7106 0.6514
5969000000.0 0.933 -0.1195
5972000000.0 0.5399 -0.7975
5975000000.0 -0.2707 -0.9396
5978000000.0 -0.9015 -0.3425
5981000000.0 -0.8382 0.465
5984000000.0 -0.2187 0.9271
5988000000.0 0.5956 0.7487
5991000000.0 0.9774 0.02172
5994000000.0 0.6518 -0.7493
5997000000.0 -0.151 -0.9737
6000000000.0 -0.8827 -0.5122
6003000000.0 -0.9318 0.3258
6006000000.0 -0.3374 0.9308
6009000000.0 0.4759 0.8486
6012000000.0 0.9732 0.1619
6016000000.0 0.765 -0.6804
6019000000.0 -0.07534 -0.9752
6022000000.0 -0.7945 -0.6086
6025000000.0 -0.9786 0.2292
6028000000.0 -0.4206 0.9005
6031000000.0 0.3971 0.8705
6034000000.0 0.9482 0.2378
6038000000.0 0.7852 -0.5783
6041000000.0 0.05718 -0.9583
6044000000.0 -0.7125 -0.6614
6047000000.0 -0.9555 0.1246
6050000000.0 -0.4701 0.8173
6053000000.0 0.3178 0.8835
6056000000.0 0.8659 0.2919
6059000000.0 0.7788 -0.5159
6062000000.0 0.1172 -0.9131
6066000000.0 -0.64 -0.6465
6069000000.0 -0.9034 0.09819
6072000000.0 -0.495 0.7407
6075000000.0 0.2609 0.8588
6078000000.0 0.8203 0.313
6081000000.0 0.76 -0.4304
6084000000.0 0.1229 -0.8561
6088000000.0 -0.5698 -0.6481
6091000000.0 -0.8442 0.05396
6094000000.0 -0.5087 0.7049
6097000000.0 0.2227 0.8257
6100000000.0 0.78 0.3642
6103000000.0 0.7478 -0.4101
6106000000.0 0.1782 -0.8481
6109000000.0 -0.5465 -0.6875
6112000000.0 -0.8678 -0.002944
6116000000.0 -0.5635 0.6515
6119000000.0 0.1887 0.8509
6122000000.0 0.8035 0.3992
6125000000.0 0.7753 -0.3816
6128000000.0 0.2229 -0.8461
6131000000.0 -0.5231 -0.6882
6134000000.0 -0.8867 -0.04211
6138000000.0 -0.5864 0.669
6141000000.0 0.1431 0.8641
6144000000.0 0.7601 0.4231
6147000000.0 0.8292 -0.3116
6150000000.0 0.2652 -0.8416
6153000000.0 -0.5038 -0.7709
6156000000.0 -0.8631 -0.1393
6159000000.0 -0.6245 0.6178
6162000000.0 0.07852 0.9185
6166000000.0 0.7407 0.5207
6169000000.0 0.9045 -0.2539
6172000000.0 0.3451 -0.8613
6175000000.0 -0.4461 -0.8132
6178000000.0 -0.9282 -0.1768
6181000000.0 -0.7247 0.6218
6184000000.0 -0.008002 0.9497
6188000000.0 0.7674 0.5854
6191000000.0 0.9261 -0.1697
6194000000.0 0.4345 -0.821
6197000000.0 -0.3396 -0.8377
6200000000.0 -0.9249 -0.3346
6203000000.0 -0.7877 0.5277
6206000000.0 -0.0948 0.9434
6209000000.0 0.6327 0.6724
6212000000.0 0.9523 -0.09052
6216000000.0 0.5333 -0.7347
6219000000.0 -0.2416 -0.8566
6222000000.0 -0.818 -0.3896
6225000000.0 -0.7937 0.4366
6228000000.0 -0.2104 0.8741
6231000000.0 0.5552 0.7358
6234000000.0 0.8765 0.02265
6238000000.0 0.5685 -0.6683
6241000000.0 -0.1155 -0.8424
6244000000.0 -0.7511 -0.4746
6247000000.0 -0.8065 0.285
6250000000.0 -0.297 0.8097
6253000000.0 0.4147 0.715
6256000000.0 0.8252 0.1545
6259000000.0 0.6299 -0.5261
6262000000.0 0.02226 -0.8259
6266000000.0 -0.6182 -0.5114
6269000000.0 -0.8008 0.1283
