! Created with skrf 1.8.0 (http://scikit-rf.org).
# Hz S RI R 50.0 
!freq ReS11 ImS11
4000000000.0 -0.1938 -1.479
4003000000.0 -1.282 -0.8112
4006000000.0 -1.471 0.4811
4009000000.0 -0.5049 1.42
4012000000.0 0.7895 1.342
4016000000.0 1.535 0.2217
4019000000.0 1.117 -1.056
4022000000.0 -0.1431 -1.545
4025000000.0 -1.317 -0.9144
4028000000.0 -1.535 0.4934
4031000000.0 -0.5636 1.482
4034000000.0 0.8495 1.379
4038000000.0 1.619 0.2252
4041000000.0 1.25 -1.128
4044000000.0 -0.1613 -1.649
4047000000.0 -1.386 -0.9247
4050000000.0 -1.574 0.4484
4053000000.0 -0.633 1.509
4056000000.0 0.7407 1.395
4059000000.0 1.632 0.2787
4062000000.0 1.26 -0.9804
4066000000.0 -0.01525 -1.636
4069000000.0 -1.233 -1.045
4072000000.0 -1.608 0.2814
4075000000.0 -0.7915 1.391
4078000000.0 0.577 1.533
4081000000.0 1.544 0.5218
4084000000.0 1.378 -0.8202
4088000000.0 0.2612 -1.646
4091000000.0 -1.127 -1.233
4094000000.0 -1.639 0.07529
4097000000.0 -0.9994 1.291
4100000000.0 0.4015 1.551
4103000000.0 1.412 0.7198
4106000000.0 1.424 -0.6623
4109000000.0 0.456 -1.484
4112000000.0 -0.8627 -1.277
4116000000.0 -1.49 -0.15
4119000000.0 -1.103 1.016
4122000000.0 0.02934 1.512
4125000000.0 1.146 0.9153
4128000000.0 1.473 -0.2479
4131000000.0 0.7945 -1.277
4134000000.0 -0.4465 -1.397
4138000000.0 -1.362 -0.5829
4141000000.0 -1.334 0.6615
4144000000.0 -0.3497 1.434
4147000000.0 0.8618 1.253
4150000000.0 1.506 0.1111
4153000000.0 1.073 -1.075
4156000000.0 -0.09478 -1.483
4159000000.0 -1.251 -0.9073
4162000000.0 -1.475 0.3949
4166000000.0 -0.6205 1.405
4169000000.0 0.6384 1.356
4172000000.0 1.442 0.4153
4175000000.0 1.246 -0.8681
4178000000.0 0.1402 -1.516
4181000000.0 -1.038 -1.095
4184000000.0 -1.482 0.1144
4188000000.0 -0.9136 1.23
4191000000.0 0.4047 1.49
4194000000.0 1.426 0.6713
4197000000.0 1.412 -0.6753
4200000000.0 0.351 -1.535
4203000000.0 -0.9736 -1.281
4206000000.0 -1.642 -0.03912
4209000000.0 -1.041 1.289
4212000000.0 0.3688 1.64
4216000000.0 1.52 0.7212
4219000000.0 1.526 -0.7401
4222000000.0 0.3109 -1.652
4225000000.0 -1.138 -1.261
4228000000.0 -1.663 0.1295
4231000000.0 -0.9202 1.427
4234000000.0 0.6102 1.557
4238000000.0 1.556 0.4778
4241000000.0 1.347 -0.9306
4244000000.0 0.07456 -1.609
4247000000.0 -1.238 -1.026
4250000000.0 -1.553 0.3499
4253000000.0 -0.6839 1.403
4256000000.0 0.7077 1.386
4259000000.0 1.514 0.2827
4262000000.0 1.138 -1.011
4266000000.0 -0.1083 -1.512
4269000000.0 -1.252 -0.8604
4272000000.0 -1.393 0.4476
4275000000.0 -0.5027 1.383
4278000000.0 0.754 1.233
4281000000.0 1.418 0.1565
4284000000.0 0.9956 -0.9934
4288000000.0 -0.1663 -1.372
4291000000.0 -1.168 -0.7311
4294000000.0 -1.254 0.4133
4297000000.0 -0.5131 1.258
4300000000.0 0.6594 1.159
4303000000.0 1.302 0.2711
4306000000.0 0.989 -0.8535
4309000000.0 -0.004268 -1.268
4312000000.0 -1.003 -0.821
4316000000.0 -1.272 0.2281
4319000000.0 -0.6523 1.127
4322000000.0 0.4505 1.258
4325000000.0 1.185 0.4846
4328000000.0 1.168 -0.6345
4331000000.0 0.2784 -1.274
4334000000.0 -0.8859 -1.061
4338000000.0 -1.388 -0.03094
4341000000.0 -0.8833 1.096
4344000000.0 0.2139 1.369
4347000000.0 1.216 0.7107
4350000000.0 1.341 -0.453
4353000000.0 0.4592 -1.42
4356000000.0 -0.7671 -1.257
4359000000.0 -1.446 -0.2475
4362000000.0 -1.106 0.9497
4366000000.0 0.007437 1.459
4369000000.0 1.165 0.8976
4372000000.0 1.442 -0.2942
4375000000.0 0.6999 -1.35
4378000000.0 -0.604 -1.403
4381000000.0 -1.459 -0.4424
4384000000.0 -1.277 0.8717
4388000000.0 -0.1629 1.549
4391000000.0 1.086 1.063
4394000000.0 1.564 -0.2055
4397000000.0 0.8758 -1.333
4400000000.0 -0.5014 -1.494
4403000000.0 -1.519 -0.5281
4406000000.0 -1.3 0.8592
4409000000.0 -0.1595 1.602
4412000000.0 1.144 1.087
4416000000.0 1.519 -0.22
4419000000.0 0.7512 -1.318
4422000000.0 -0.5659 -1.401
4425000000.0 -1.476 -0.4137
4428000000.0 -1.181 0.8577
4431000000.0 -0.05974 1.429
4434000000.0 1.103 0.9316
4438000000.0 1.376 -0.2707
4441000000.0 0.5917 -1.257
4444000000.0 -0.591 -1.251
4447000000.0 -1.311 -0.2555
4450000000.0 -1.035 0.8803
4453000000.0 0.05714 1.307
4456000000.0 1.06 0.7488
4459000000.0 1.232 -0.3914
4462000000.0 0.42 -1.2
4466000000.0 -0.6523 -1.051
4469000000.0 -1.229 -0.1149
4472000000.0 -0.8537 0.9025
4475000000.0 0.1843 1.236
4478000000.0 1.032 0.5714
4481000000.0 1.079 -0.4154
4484000000.0 0.3084 -1.112
4488000000.0 -0.6713 -0.9256
4491000000.0 -1.143 -0.03779
4494000000.0 -0.7364 0.8668
4497000000.0 0.198 1.106
4500000000.0 0.9956 0.5261
4503000000.0 1.033 -0.4049
4506000000.0 0.2993 -1.035
4509000000.0 -0.6311 -0.9117
4512000000.0 -1.13 -0.07973
4516000000.0 -0.7694 0.8463
4519000000.0 0.1495 1.107
4522000000.0 0.997 0.6148
4525000000.0 1.048 -0.3884
4528000000.0 0.4008 -1.086
4531000000.0 -0.6103 -1.019
4534000000.0 -1.153 -0.1906
4538000000.0 -0.8714 0.7943
4541000000.0 0.06726 1.195
4544000000.0 0.9295 0.7249
4547000000.0 1.164 -0.2571
4550000000.0 0.5146 -1.105
4553000000.0 -0.4848 -1.117
4556000000.0 -1.167 -0.3435
4559000000.0 -1.046 0.6839
4562000000.0 -0.1442 1.253
4566000000.0 0.8641 0.8878
4569000000.0 1.246 -0.09704
4572000000.0 0.7605 -1.034
4575000000.0 -0.3038 -1.283
4578000000.0 -1.159 -0.5785
4581000000.0 -1.213 0.499
4584000000.0 -0.3815 1.272
4588000000.0 0.7641 1.123
4591000000.0 1.381 0.1197
4594000000.0 0.9741 -0.9867
4597000000.0 -0.1148 -1.373
4600000000.0 -1.128 -0.7818
4603000000.0 -1.344 0.4054
4606000000.0 -0.5484 1.298
4609000000.0 0.66 1.23
4612000000.0 1.389 0.2543
4616000000.0 1.083 -0.9045
4619000000.0 0.02758 -1.383
4622000000.0 -1.085 -0.86
4625000000.0 -1.403 0.2677
4628000000.0 -0.6349 1.219
4631000000.0 0.5529 1.27
4634000000.0 1.307 0.3808
4638000000.0 1.101 -0.8327
4641000000.0 0.06021 -1.359
4644000000.0 -1.033 -0.8779
4647000000.0 -1.299 0.218
4650000000.0 -0.6461 1.185
4653000000.0 0.5218 1.205
4656000000.0 1.304 0.3544
4659000000.0 1.024 -0.7413
4662000000.0 0.02464 -1.253
4666000000.0 -0.9673 -0.7965
4669000000.0 -1.195 0.2207
4672000000.0 -0.5193 1.043
4675000000.0 0.464 1.091
4678000000.0 1.134 0.2709
4681000000.0 0.9309 -0.6964
4684000000.0 0.02108 -1.144
4688000000.0 -0.8694 -0.722
4691000000.0 -1.098 0.2501
4694000000.0 -0.4872 0.9726
4697000000.0 0.4455 0.995
4700000000.0 1.087 0.2504
4703000000.0 0.8354 -0.6735
4706000000.0 -0.01698 -1.081
4709000000.0 -0.8369 -0.6951
4712000000.0 -1.05 0.2578
4716000000.0 -0.4617 0.9543
4719000000.0 0.4508 0.9412
4722000000.0 1.03 0.2556
4725000000.0 0.8102 -0.6585
4728000000.0 -0.02799 -1.076
4731000000.0 -0.7764 -0.6444
4734000000.0 -1.044 0.1988
4738000000.0 -0.4831 0.9335
4741000000.0 0.384 0.9625
4744000000.0 1.018 0.3105
4747000000.0 0.8801 -0.5661
4750000000.0 0.09267 -1.075
4753000000.0 -0.743 -0.8033
4756000000.0 -1.087 0.04095
4759000000.0 -0.6945 0.8813
4762000000.0 0.2416 1.091
4766000000.0 0.996 0.4933
4769000000.0 1.031 -0.4635
4772000000.0 0.3213 -1.064
4775000000.0 -0.6685 -0.9729
4778000000.0 -1.166 -0.1081
4781000000.0 -0.861 0.8556
4784000000.0 0.09099 1.194
4788000000.0 0.957 0.6866
4791000000.0 1.204 -0.2969
4794000000.0 0.542 -1.108
4797000000.0 -0.4883 -1.146
4800000000.0 -1.215 -0.3823
4803000000.0 -1.063 0.6919
4806000000.0 -0.1954 1.254
4809000000.0 0.8651 0.9126
4812000000.0 1.274 -0.06385
4816000000.0 0.7822 -1.046
4819000000.0 -0.2971 -1.285
4822000000.0 -1.197 -0.6023
4825000000.0 -1.26 0.5383
4828000000.0 -0.3536 1.319
4831000000.0 0.8114 1.136
4834000000.0 1.372 0.1241
4838000000.0 1.009 -1.004
4841000000.0 -0.1486 -1.392
4844000000.0 -1.17 -0.738
4847000000.0 -1.309 0.4457
4850000000.0 -0.4958 1.304
4853000000.0 0.6801 1.205
4856000000.0 1.342 0.206
4859000000.0 1.042 -0.8858
4862000000.0 -0.05796 -1.369
4866000000.0 -1.078 -0.8236
4869000000.0 -1.302 0.3158
4872000000.0 -0.5596 1.188
4875000000.0 0.5503 1.18
4878000000.0 1.272 0.2758
4881000000.0 1.019 -0.7513
4884000000.0 0.04629 -1.28
4888000000.0 -0.9431 -0.7835
4891000000.0 -1.207 0.2512
4894000000.0 -0.551 1.037
4897000000.0 0.4905 1.041
4900000000.0 1.129 0.2841
4903000000.0 0.9244 -0.6347
4906000000.0 0.06689 -1.064
4909000000.0 -0.7776 -0.7254
4912000000.0 -1.034 0.1636
4916000000.0 -0.499 0.8689
4919000000.0 0.3395 0.9485
4922000000.0 0.9432 0.3198
4925000000.0 0.827 -0.501
4928000000.0 0.1225 -0.9877
4931000000.0 -0.6454 -0.6941
4934000000.0 -0.9447 0.07628
4938000000.0 -0.555 0.7796
4941000000.0 0.2756 0.8972
4944000000.0 0.8466 0.406
4947000000.0 0.8435 -0.4398
4950000000.0 0.2306 -0.9166
4953000000.0 -0.5733 -0.7606
4956000000.0 -0.9866 -0.04825
4959000000.0 -0.6312 0.7624
4962000000.0 0.1744 0.9492
4966000000.0 0.8775 0.4703
4969000000.0 0.9364 -0.3674
4972000000.0 0.2961 -0.9623
4975000000.0 -0.5344 -0.8296
4978000000.0 -1.006 -0.1153
4981000000.0 -0.725 0.7148
4984000000.0 0.1022 1.049
4988000000.0 0.8553 0.5927
4991000000.0 1.029 -0.2849
4994000000.0 0.44 -1.007
4997000000.0 -0.4786 -0.9588
5000000000.0 -1.089 -0.2686
5003000000.0 -0.9601 0.6725
5006000000.0 -0.04425 1.167
5009000000.0 0.894 0.8059
5012000000.0 1.192 -0.1238
5016000000.0 0.6491 -1.052
5019000000.0 -0.4142 -1.161
5022000000.0 -1.159 -0.4509
5025000000.0 -1.095 0.6256
5028000000.0 -0.211 1.25
5031000000.0 0.8704 0.9574
5034000000.0 1.269 -0.02924
5038000000.0 0.7878 -1.009
5041000000.0 -0.2803 -1.265
5044000000.0 -1.124 -0.5824
5047000000.0 -1.205 0.4849
5050000000.0 -0.4092 1.238
5053000000.0 0.6952 1.095
5056000000.0 1.265 0.1904
5059000000.0 0.9913 -0.8773
5062000000.0 -0.08563 -1.314
5066000000.0 -1.048 -0.8038
5069000000.0 -1.251 0.2629
5072000000.0 -0.6029 1.168
5075000000.0 0.498 1.19
5078000000.0 1.223 0.3378
5081000000.0 1.07 -0.702
5084000000.0 0.1117 -1.199
5088000000.0 -0.832 -0.8957
5091000000.0 -1.204 0.07689
5094000000.0 -0.6954 0.9904
5097000000.0 0.3226 1.128
5100000000.0 1.067 0.4672
5103000000.0 1.023 -0.5035
5106000000.0 0.2807 -1.076
5109000000.0 -0.6135 -0.8871
5112000000.0 -1.058 -0.101
5116000000.0 -0.7777 0.7628
5119000000.0 0.0656 1.051
5122000000.0 0.8327 0.5723
5125000000.0 1.019 -0.3019
5128000000.0 0.4119 -0.9434
5131000000.0 -0.4437 -0.8883
5134000000.0 -0.9714 -0.2455
5138000000.0 -0.8306 0.5825
5141000000.0 -0.05532 0.9804
5144000000.0 0.7605 0.6102
5147000000.0 0.9098 -0.1576
5150000000.0 0.4914 -0.8222
5153000000.0 -0.3064 -0.8738
5156000000.0 -0.8965 -0.3091
5159000000.0 -0.7651 0.4587
5162000000.0 -0.1318 0.9251
5166000000.0 0.6237 0.6447
5169000000.0 0.9199 -0.03159
5172000000.0 0.487 -0.7214
5175000000.0 -0.2593 -0.8814
5178000000.0 -0.8262 -0.3654
5181000000.0 -0.8163 0.4403
5184000000.0 -0.1433 0.9172
5188000000.0 0.6133 0.6961
5191000000.0 0.9392 -0.04755
5194000000.0 0.5162 -0.7527
5197000000.0 -0.2324 -0.9117
5200000000.0 -0.8841 -0.3911
5203000000.0 -0.8351 0.4423
5206000000.0 -0.1728 0.9281
5209000000.0 0.631 0.7279
5212000000.0 0.9524 -0.0327
5216000000.0 0.5844 -0.763
5219000000.0 -0.2569 -0.9477
5222000000.0 -0.8881 -0.4129
5225000000.0 -0.9039 0.4302
5228000000.0 -0.2454 0.9784
5231000000.0 0.6132 0.8239
5234000000.0 1.039 0.04145
5238000000.0 0.6944 -0.7656
5241000000.0 -0.1484 -1.012
5244000000.0 -0.9247 -0.5414
5247000000.0 -0.9937 0.3351
5250000000.0 -0.3634 0.987
5253000000.0 0.5316 0.9249
5256000000.0 1.054 0.1807
5259000000.0 0.832 -0.6918
5262000000.0 -0.01475 -1.089
5266000000.0 -0.8505 -0.6887
5269000000.0 -1.071 0.198
5272000000.0 -0.5309 0.9709
5275000000.0 0.3817 1.047
5278000000.0 1.014 0.3952
5281000000.0 0.9505 -0.5414
5284000000.0 0.2044 -1.086
5288000000.0 -0.7121 -0.856
5291000000.0 -1.141 -0.007154
5294000000.0 -0.7481 0.8053
5297000000.0 0.1483 1.097
5300000000.0 0.9522 0.6219
5303000000.0 1.1 -0.3065
5306000000.0 0.439 -1.068
5309000000.0 -0.5017 -1.01
5312000000.0 -1.09 -0.2498
5316000000.0 -0.9218 0.6879
5319000000.0 -0.07162 1.166
5322000000.0 0.8292 0.7979
5325000000.0 1.12 -0.1156
5328000000.0 0.6361 -0.9854
5331000000.0 -0.3241 -1.085
5334000000.0 -1.045 -0.4699
5338000000.0 -0.9931 0.5252
5341000000.0 -0.2197 1.093
5344000000.0 0.6894 0.879
5347000000.0 1.123 -0.004368
5350000000.0 0.7263 -0.8394
5353000000.0 -0.1962 -1.087
5356000000.0 -0.9615 -0.5452
5359000000.0 -1.007 0.4037
5362000000.0 -0.355 1.032
5366000000.0 0.587 0.8685
5369000000.0 1.055 0.09206
5372000000.0 0.7059 -0.7778
5375000000.0 -0.153 -1.041
5378000000.0 -0.8794 -0.5186
5381000000.0 -0.9162 0.3535
5384000000.0 -0.2847 0.9355
5388000000.0 0.5717 0.8036
5391000000.0 0.964 0.08713
5394000000.0 0.6485 -0.7026
5397000000.0 -0.1439 -0.9207
5400000000.0 -0.8003 -0.4721
5403000000.0 -0.8584 0.3525
5406000000.0 -0.2684 0.8656
5409000000.0 0.5084 0.7338
5412000000.0 0.8901 0.03843
5416000000.0 0.5767 -0.6527
5419000000.0 -0.1405 -0.8442
5422000000.0 -0.7459 -0.4218
5425000000.0 -0.8116 0.335
5428000000.0 -0.2277 0.8336
5431000000.0 0.5031 0.7221
5434000000.0 0.8881 0.01385
5438000000.0 0.5646 -0.6652
5441000000.0 -0.1746 -0.8794
5444000000.0 -0.7746 -0.4127
5447000000.0 -0.8233 0.34
5450000000.0 -0.282 0.8636
5453000000.0 0.4696 0.7253
5456000000.0 0.9194 0.0764
5459000000.0 0.6258 -0.6403
5462000000.0 -0.1082 -0.906
5466000000.0 -0.7814 -0.4755
5469000000.0 -0.8775 0.2573
5472000000.0 -0.3482 0.8652
5475000000.0 0.456 0.8362
5478000000.0 0.9034 0.1689
5481000000.0 0.7461 -0.613
5484000000.0 0.05948 -0.9803
5488000000.0 -0.6966 -0.6547
5491000000.0 -0.9552 0.1453
5494000000.0 -0.5486 0.8397
5497000000.0 0.3056 0.9387
5500000000.0 0.952 0.3449
5503000000.0 0.8568 -0.48
5506000000.0 0.2128 -1.018
5509000000.0 -0.6151 -0.8165
5512000000.0 -1.01 -0.03363
5516000000.0 -0.7112 0.7684
5519000000.0 0.1426 1.037
5522000000.0 0.8755 0.5479
5525000000.0 1.015 -0.3098
5528000000.0 0.3939 -0.9501
5531000000.0 -0.485 -0.9427
5534000000.0 -1.025 -0.253
5538000000.0 -0.8451 0.6227
5541000000.0 -0.05116 1.026
5544000000.0 0.7666 0.7349
5547000000.0 1.058 -0.141
5550000000.0 0.567 -0.92
5553000000.0 -0.3091 -1.009
5556000000.0 -1.007 -0.3797
5559000000.0 -0.9212 0.4989
5562000000.0 -0.2038 1.027
5566000000.0 0.6539 0.8308
5569000000.0 1.041 0.01368
5572000000.0 0.6457 -0.7965
5575000000.0 -0.1832 -0.9879
5578000000.0 -0.8807 -0.5023
5581000000.0 -0.9524 0.3516
5584000000.0 -0.3155 0.9268
5588000000.0 0.5368 0.8243
5591000000.0 0.9321 0.1563
5594000000.0 0.6846 -0.6308
5597000000.0 -0.04346 -0.9211
5600000000.0 -0.742 -0.5509
5603000000.0 -0.8954 0.237
5606000000.0 -0.3585 0.8069
5609000000.0 0.4196 0.8042
5612000000.0 0.8768 0.1901
5616000000.0 0.6722 -0.5299
5619000000.0 0.03093 -0.8655
5622000000.0 -0.6663 -0.5665
5625000000.0 -0.8363 0.1834
5628000000.0 -0.3946 0.7539
5631000000.0 0.3309 0.7685
5634000000.0 0.8098 0.2287
5638000000.0 0.6799 -0.4811
5641000000.0 0.02886 -0.8362
5644000000.0 -0.6188 -0.5545
5647000000.0 -0.8139 0.1461
5650000000.0 -0.4131 0.7504
5653000000.0 0.329 0.7691
5656000000.0 0.8159 0.2499
5659000000.0 0.7132 -0.4825
5662000000.0 0.06588 -0.8462
5666000000.0 -0.6531 -0.5619
5669000000.0 -0.8868 0.1209
5672000000.0 -0.4325 0.7903
5675000000.0 0.3511 0.8257
5678000000.0 0.8804 0.2373
5681000000.0 0.7612 -0.5213
5684000000.0 0.08093 -0.9416
5688000000.0 -0.6671 -0.6643
5691000000.0 -0.9547 0.1335
5694000000.0 -0.5115 0.8495
5697000000.0 0.3278 0.9168
5700000000.0 0.9326 0.3114
5703000000.0 0.8462 -0.5149
5706000000.0 0.1304 -0.9601
5709000000.0 -0.7084 -0.7121
5712000000.0 -1.022 0.06717
5716000000.0 -0.6256 0.852
5719000000.0 0.2477 0.9978
5722000000.0 0.98 0.4518
5725000000.0 0.9482 -0.448
5728000000.0 0.2589 -1.059
5731000000.0 -0.6165 -0.8735
5734000000.0 -1.074 -0.05049
5738000000.0 -0.7785 0.7983
5741000000.0 0.1553 1.072
5744000000.0 0.9068 0.602
5747000000.0 1.068 -0.3363
5750000000.0 0.437 -1.008
5753000000.0 -0.5219 -0.9923
5756000000.0 -1.079 -0.2295
5759000000.0 -0.8718 0.6927
5762000000.0 -0.03762 1.109
5766000000.0 0.8258 0.7313
5769000000.0 1.08 -0.1757
5772000000.0 0.5966 -0.9656
5775000000.0 -0.3579 -1.053
5778000000.0 -1.049 -0.3644
5781000000.0 -0.9399 0.5493
5784000000.0 -0.2469 1.061
5788000000.0 0.6881 0.816
5791000000.0 1.093 0.0115
5794000000.0 0.6734 -0.8276
5797000000.0 -0.1683 -1.067
5800000000.0 -0.9249 -0.5355
5803000000.0 -0.9876 0.3659
5806000000.0 -0.3333 1.027
5809000000.0 0.5381 0.8916
5812000000.0 1.045 0.1756
5816000000.0 0.7716 -0.6938
5819000000.0 -0.04901 -1.033
5822000000.0 -0.8361 -0.6134
5825000000.0 -0.947 0.252
5828000000.0 -0.3805 0.8907
5831000000.0 0.4139 0.9018
5834000000.0 0.9342 0.2135
5838000000.0 0.7607 -0.5779
5841000000.0 0.02786 -0.9525
5844000000.0 -0.7378 -0.6239
5847000000.0 -0.954 0.1974
5850000000.0 -0.4446 0.85
5853000000.0 0.3695 0.8635
5856000000.0 0.9154 0.2506
5859000000.0 0.759 -0.5374
5862000000.0 0.0571 -0.9412
5866000000.0 -0.6601 -0.6244
5869000000.0 -0.8777 0.1366
5872000000.0 -0.4626 0.7979
5875000000.0 0.3137 0.8169
5878000000.0 0.8519 0.2371
5881000000.0 0.7234 -0.4731
5884000000.0 0.068 -0.8706
5888000000.0 -0.6145 -0.6091
5891000000.0 -0.8632 0.1243
5894000000.0 -0.4434 0.7301
5897000000.0 0.2787 0.786
5900000000.0 0.7831 0.3168
5903000000.0 0.7111 -0.4631
5906000000.0 0.1259 -0.8654
5909000000.0 -0.5943 -0.6087
5912000000.0 -0.8641 0.07185
5916000000.0 -0.4914 0.7147
5919000000.0 0.2189 0.8472
5922000000.0 0.7844 0.3894
5925000000.0 0.7865 -0.3922
5928000000.0 0.1936 -0.8634
5931000000.0 -0.506 -0.7022
5934000000.0 -0.8918 -0.04285
5938000000.0 -0.5977 0.6786
5941000000.0 0.09327 0.8775
5944000000.0 0.7676 0.4597
5947000000.0 0.8722 -0.2896
5950000000.0 0.331 -0.8508
5953000000.0 -0.4475 -0.8165
5956000000.0 -0.8924 -0.1519
5959000000.0 -0.7446 0.5799
5962000000.0 -0.01325 0.9456
5966000000.0 0.6952 0.6451
5969000000.0 0.9153 -0.1582
5972000000.0 0.5147 -0.7932
5975000000.0 -0.3242 -0.9142
5978000000.0 -0.8811 -0.3505
5981000000.0 -0.828 0.4553
5984000000.0 -0.1663 0.9477
5988000000.0 0.6309 0.7505
5991000000.0 0.991 -0.01935
5994000000.0 0.6364 -0.7885
5997000000.0 -0.1956 -1.005
6000000000.0 -0.8787 -0.5096
6003000000.0 -0.9091 0.3594
6006000000.0 -0.3204 0.9635
6009000000.0 0.5347 0.853
6012000000.0 1.001 0.0922
6016000000.0 0.7299 -0.7059
6019000000.0 -0.09296 -0.9941
6022000000.0 -0.8109 -0.5525
6025000000.0 -0.9367 0.25
6028000000.0 -0.4019 0.8862
6031000000.0 0.484 0.8728
6034000000.0 0.9403 0.2359
6038000000.0 0.7828 -0.5883
6041000000.0 0.003118 -0.9832
6044000000.0 -0.743 -0.6153
6047000000.0 -0.9298 0.1716
6050000000.0 -0.4552 0.8563
6053000000.0 0.3605 0.8654
6056000000.0 0.9044 0.2501
6059000000.0 0.7639 -0.5581
6062000000.0 0.07857 -0.9263
6066000000.0 -0.7091 -0.6052
6069000000.0 -0.891 0.1214
6072000000.0 -0.452 0.7914
6075000000.0 0.3154 0.8294
6078000000.0 0.8633 0.3053
6081000000.0 0.7488 -0.4488
6084000000.0 0.0799 -0.8663
6088000000.0 -0.602 -0.621
6091000000.0 -0.8452 0.08378
6094000000.0 -0.4521 0.6891
6097000000.0 0.2398 0.7984
6100000000.0 0.7898 0.3239
6103000000.0 0.7334 -0.4433
6106000000.0 0.1255 -0.8326
6109000000.0 -0.546 -0.6242
6112000000.0 -0.8843 0.01896
6116000000.0 -0.4885 0.6918
6119000000.0 0.2262 0.8649
6122000000.0 0.8103 0.3617
6125000000.0 0.7671 -0.4046
6128000000.0 0.1933 -0.8416
6131000000.0 -0.5587 -0.6855
6134000000.0 -0.8582 0.03125
6138000000.0 -0.5648 0.6733
6141000000.0 0.1542 0.8539
6144000000.0 0.7836 0.4061
6147000000.0 0.8128 -0.3366
6150000000.0 0.2371 -0.8885
6153000000.0 -0.5117 -0.7185
6156000000.0 -0.9193 -0.07536
6159000000.0 -0.6002 0.6792
6162000000.0 0.1278 0.8982
6166000000.0 0.7856 0.4984
6169000000.0 0.8899 -0.2884
6172000000.0 0.317 -0.8755
6175000000.0 -0.484 -0.8233
6178000000.0 -0.946 -0.1544
6181000000.0 -0.7035 0.6271
6184000000.0 0.05371 0.9571
6188000000.0 0.7511 0.5459
6191000000.0 0.9472 -0.252
6194000000.0 0.4141 -0.8321
6197000000.0 -0.372 -0.8562
6200000000.0 -0.9128 -0.2149
6203000000.0 -0.7676 0.5421
6206000000.0 -0.04078 0.9734
6209000000.0 0.7065 0.64
6212000000.0 0.8903 -0.1147
6216000000.0 0.4906 -0.7901
6219000000.0 -0.288 -0.8886
6222000000.0 -0.8407 -0.3419
6225000000.0 -0.7925 0.4777
6228000000.0 -0.1545 0.9115
6231000000.0 0.6042 0.6735
6234000000.0 0.9224 -0.0008369
6238000000.0 0.54 -0.6938
6241000000.0 -0.1643 -0.8427
6244000000.0 -0.786 -0.4042
6247000000.0 -0.8168 0.3252
6250000000.0 -0.2942 0.7859
6253000000.0 0.4407 0.7035
6256000000.0 0.8283 0.1429
6259000000.0 0.5811 -0.5538
6262000000.0 -0.03224 -0.8493
6266000000.0 -0.6531 -0.4959
6269000000.0 -0.7882 0.145
