! Created with skrf 1.8.0 (http://scikit-rf.org).
# Hz S RI R 50.0 
!freq ReS11 ImS11
4000000000.0 -0.8455 -1.258
4003000000.0 -1.52 -0.1472
4006000000.0 -1.078 1.105
4009000000.0 0.2083 1.549
4012000000.0 1.312 0.773
4016000000.0 1.516 -0.5819
4019000000.0 0.4922 -1.537
4022000000.0 -0.8936 -1.367
4025000000.0 -1.699 -0.1265
4028000000.0 -1.16 1.25
4031000000.0 0.2298 1.639
4034000000.0 1.502 0.8268
4038000000.0 1.541 -0.6234
4041000000.0 0.461 -1.625
4044000000.0 -0.9597 -1.374
4047000000.0 -1.697 -0.1166
4050000000.0 -1.096 1.209
4053000000.0 0.2826 1.645
4056000000.0 1.385 0.841
4059000000.0 1.496 -0.5678
4062000000.0 0.5327 -1.531
4066000000.0 -0.844 -1.398
4069000000.0 -1.598 -0.2177
4072000000.0 -1.187 1.06
4075000000.0 0.05091 1.579
4078000000.0 1.288 0.9665
4081000000.0 1.573 -0.371
4084000000.0 0.6893 -1.431
4088000000.0 -0.6496 -1.474
4091000000.0 -1.569 -0.4491
4094000000.0 -1.264 0.9078
4097000000.0 -0.1543 1.574
4100000000.0 1.125 1.062
4103000000.0 1.517 -0.1463
4106000000.0 0.8728 -1.274
4109000000.0 -0.4215 -1.436
4112000000.0 -1.358 -0.5626
4116000000.0 -1.278 0.6546
4119000000.0 -0.3162 1.387
4122000000.0 0.8719 1.14
4125000000.0 1.411 0.1075
4128000000.0 0.9814 -1.045
4131000000.0 -0.1306 -1.37
4134000000.0 -1.16 -0.7529
4138000000.0 -1.361 0.4146
4141000000.0 -0.5804 1.285
4144000000.0 0.6314 1.272
4147000000.0 1.408 0.2855
4150000000.0 1.112 -0.9174
4153000000.0 -0.01136 -1.462
4156000000.0 -1.153 -0.8893
4159000000.0 -1.388 0.3233
4162000000.0 -0.5897 1.344
4166000000.0 0.6947 1.269
4169000000.0 1.417 0.2194
4172000000.0 1.07 -0.9968
4175000000.0 -0.1342 -1.444
4178000000.0 -1.236 -0.7696
4181000000.0 -1.343 0.5182
4184000000.0 -0.4166 1.398
4188000000.0 0.8858 1.13
4191000000.0 1.483 -0.005806
4194000000.0 0.8358 -1.176
4197000000.0 -0.4266 -1.369
4200000000.0 -1.398 -0.4547
4203000000.0 -1.187 0.8615
4206000000.0 -0.01925 1.478
4209000000.0 1.216 0.8854
4212000000.0 1.409 -0.4862
4216000000.0 0.4625 -1.424
4219000000.0 -0.854 -1.178
4222000000.0 -1.475 0.02898
4225000000.0 -0.8467 1.199
4228000000.0 0.3974 1.352
4231000000.0 1.315 0.4647
4234000000.0 1.194 -0.7965
4238000000.0 0.0504 -1.404
4241000000.0 -1.047 -0.8847
4244000000.0 -1.398 0.2867
4247000000.0 -0.5894 1.209
4250000000.0 0.535 1.225
4253000000.0 1.307 0.3372
4256000000.0 1.115 -0.8196
4259000000.0 0.0245 -1.357
4262000000.0 -1.061 -0.8986
4266000000.0 -1.342 0.2798
4269000000.0 -0.6069 1.217
4272000000.0 0.5403 1.27
4275000000.0 1.36 0.3218
4278000000.0 1.132 -0.8664
4281000000.0 0.06126 -1.416
4284000000.0 -1.061 -0.9246
4288000000.0 -1.378 0.2756
4291000000.0 -0.6852 1.219
4294000000.0 0.5246 1.321
4297000000.0 1.332 0.3837
4300000000.0 1.149 -0.797
4303000000.0 0.1385 -1.429
4306000000.0 -1.022 -1.013
4309000000.0 -1.448 0.1074
4312000000.0 -0.7954 1.248
4316000000.0 0.4869 1.379
4319000000.0 1.403 0.5424
4322000000.0 1.268 -0.7584
4325000000.0 0.191 -1.529
4328000000.0 -1.082 -1.123
4331000000.0 -1.545 0.2143
4334000000.0 -0.807 1.405
4338000000.0 0.6385 1.488
4341000000.0 1.554 0.385
4344000000.0 1.271 -1.035
4347000000.0 -0.0996 -1.624
4350000000.0 -1.369 -0.9183
4353000000.0 -1.5 0.5723
4356000000.0 -0.4954 1.526
4359000000.0 0.9291 1.281
4362000000.0 1.532 0.006794
4366000000.0 0.8858 -1.207
4369000000.0 -0.419 -1.419
4372000000.0 -1.363 -0.4856
4375000000.0 -1.2 0.8014
4378000000.0 -0.07764 1.405
4381000000.0 1.074 0.8978
4384000000.0 1.365 -0.2956
4388000000.0 0.5615 -1.249
4391000000.0 -0.668 -1.192
4394000000.0 -1.356 -0.2229
4397000000.0 -0.9421 0.9226
4400000000.0 0.1328 1.349
4403000000.0 1.119 0.6826
4406000000.0 1.225 -0.5038
4409000000.0 0.405 -1.258
4412000000.0 -0.7328 -1.092
4416000000.0 -1.299 -0.07381
4419000000.0 -0.8502 0.974
4422000000.0 0.2184 1.266
4425000000.0 1.128 0.6171
4428000000.0 1.169 -0.4963
4431000000.0 0.3664 -1.248
4434000000.0 -0.7255 -1.086
4438000000.0 -1.333 -0.1168
4441000000.0 -0.9311 0.9295
4444000000.0 0.1354 1.345
4447000000.0 1.118 0.7466
4450000000.0 1.286 -0.4403
4453000000.0 0.4965 -1.281
4456000000.0 -0.6633 -1.241
4459000000.0 -1.429 -0.208
4462000000.0 -1.074 0.9209
4466000000.0 0.02199 1.456
4469000000.0 1.144 0.9348
4472000000.0 1.448 -0.3245
4475000000.0 0.653 -1.346
4478000000.0 -0.6211 -1.385
4481000000.0 -1.475 -0.3932
4484000000.0 -1.213 0.9061
4488000000.0 -0.05878 1.55
4491000000.0 1.154 1.032
4494000000.0 1.543 -0.234
4497000000.0 0.8125 -1.346
4500000000.0 -0.5421 -1.499
4503000000.0 -1.453 -0.4807
4506000000.0 -1.262 0.8113
4509000000.0 -0.1835 1.527
4512000000.0 1.073 1.089
4516000000.0 1.501 -0.1771
4519000000.0 0.8245 -1.315
4522000000.0 -0.4989 -1.424
4525000000.0 -1.426 -0.5373
4528000000.0 -1.267 0.836
4531000000.0 -0.1448 1.484
4534000000.0 1.072 1.028
4538000000.0 1.416 -0.2157
4541000000.0 0.7 -1.239
4544000000.0 -0.5069 -1.326
4547000000.0 -1.323 -0.3684
4550000000.0 -1.092 0.808
4553000000.0 -0.05192 1.355
4556000000.0 1.021 0.8595
4559000000.0 1.265 -0.2637
4562000000.0 0.5857 -1.162
4566000000.0 -0.5745 -1.137
4569000000.0 -1.249 -0.2622
4572000000.0 -0.9369 0.8188
4575000000.0 0.08774 1.216
4578000000.0 0.9944 0.687
4581000000.0 1.12 -0.3441
4584000000.0 0.4112 -1.097
4588000000.0 -0.6159 -0.9927
4591000000.0 -1.166 -0.1212
4594000000.0 -0.7936 0.8156
4597000000.0 0.1771 1.12
4600000000.0 0.97 0.5364
4603000000.0 1.03 -0.4436
4606000000.0 0.2636 -1.069
4609000000.0 -0.6832 -0.898
4612000000.0 -1.122 -0.03508
4616000000.0 -0.7019 0.8388
4619000000.0 0.258 1.057
4622000000.0 1.002 0.4881
4625000000.0 0.9936 -0.4954
4628000000.0 0.2606 -1.123
4631000000.0 -0.6911 -0.8663
4634000000.0 -1.117 -0.005282
4638000000.0 -0.7132 0.8927
4641000000.0 0.2761 1.134
4644000000.0 1.063 0.4954
4647000000.0 1.092 -0.5067
4650000000.0 0.3148 -1.151
4653000000.0 -0.7178 -0.9333
4656000000.0 -1.216 0.009948
4659000000.0 -0.7882 0.9279
4662000000.0 0.2215 1.215
4666000000.0 1.109 0.6008
4669000000.0 1.153 -0.5204
4672000000.0 0.3513 -1.208
4675000000.0 -0.7417 -1.034
4678000000.0 -1.268 -0.1034
4681000000.0 -0.8707 0.9563
4684000000.0 0.1352 1.254
4688000000.0 1.093 0.7522
4691000000.0 1.304 -0.4087
4694000000.0 0.4705 -1.249
4697000000.0 -0.6987 -1.158
4700000000.0 -1.387 -0.2068
4703000000.0 -1.029 0.947
4706000000.0 0.1663 1.405
4709000000.0 1.177 0.8148
4712000000.0 1.347 -0.4345
4716000000.0 0.4586 -1.338
4719000000.0 -0.7766 -1.202
4722000000.0 -1.4 -0.07706
4725000000.0 -0.951 1.02
4728000000.0 0.2102 1.348
4731000000.0 1.186 0.6162
4734000000.0 1.23 -0.5613
4738000000.0 0.3015 -1.249
4741000000.0 -0.8306 -0.966
4744000000.0 -1.261 0.03513
4747000000.0 -0.7264 1.002
4750000000.0 0.378 1.168
4753000000.0 1.124 0.4012
4756000000.0 0.9808 -0.6236
4759000000.0 0.07316 -1.134
4762000000.0 -0.8388 -0.7568
4766000000.0 -1.083 0.2116
4769000000.0 -0.4654 0.974
4772000000.0 0.4717 0.9303
4775000000.0 0.9908 0.1642
4778000000.0 0.7285 -0.6938
4781000000.0 -0.09319 -0.9634
4784000000.0 -0.8096 -0.4898
4788000000.0 -0.8789 0.3619
4791000000.0 -0.2671 0.9002
4794000000.0 0.5549 0.7521
4797000000.0 0.9321 0.04441
4800000000.0 0.5987 -0.7147
4803000000.0 -0.1814 -0.856
4806000000.0 -0.8168 -0.397
4809000000.0 -0.8124 0.4082
4812000000.0 -0.1959 0.8794
4816000000.0 0.6025 0.7161
4819000000.0 0.9215 -0.01221
4822000000.0 0.579 -0.7592
4825000000.0 -0.2486 -0.9318
4828000000.0 -0.8986 -0.3924
4831000000.0 -0.8609 0.4254
4834000000.0 -0.2119 0.9897
4838000000.0 0.6662 0.8192
4841000000.0 1.071 -0.005218
4844000000.0 0.6344 -0.82
4847000000.0 -0.2203 -1.048
4850000000.0 -1.0 -0.496
4853000000.0 -1.018 0.4267
4856000000.0 -0.2933 1.117
4859000000.0 0.6834 0.935
4862000000.0 1.183 0.07528
4866000000.0 0.8289 -0.9109
4869000000.0 -0.2263 -1.204
4872000000.0 -1.091 -0.6349
4875000000.0 -1.194 0.466
4878000000.0 -0.4074 1.256
4881000000.0 0.7385 1.104
4884000000.0 1.31 0.107
4888000000.0 0.9344 -0.9638
4891000000.0 -0.189 -1.351
4894000000.0 -1.171 -0.6547
4897000000.0 -1.265 0.5344
4900000000.0 -0.3557 1.313
4903000000.0 0.7843 1.106
4906000000.0 1.348 0.05207
4909000000.0 0.8736 -1.023
4912000000.0 -0.2515 -1.3
4916000000.0 -1.14 -0.5772
4919000000.0 -1.107 0.5282
4922000000.0 -0.3049 1.184
4925000000.0 0.7199 0.9534
4928000000.0 1.184 0.01598
4931000000.0 0.7078 -0.9068
4934000000.0 -0.2433 -1.114
4938000000.0 -0.9764 -0.5151
4941000000.0 -0.9941 0.4691
4944000000.0 -0.2541 1.024
4947000000.0 0.6579 0.8452
4950000000.0 1.054 0.02856
4953000000.0 0.6678 -0.7912
4956000000.0 -0.2142 -0.9624
4959000000.0 -0.8665 -0.4744
4962000000.0 -0.8822 0.4311
4966000000.0 -0.2095 0.9364
4969000000.0 0.5824 0.735
4972000000.0 0.9462 -0.02231
4975000000.0 0.5746 -0.7617
4978000000.0 -0.2344 -0.878
4981000000.0 -0.8299 -0.3698
4984000000.0 -0.8201 0.4214
4988000000.0 -0.1801 0.8943
4991000000.0 0.558 0.7129
4994000000.0 0.9194 0.007989
4997000000.0 0.5555 -0.7491
5000000000.0 -0.2018 -0.9126
5003000000.0 -0.8525 -0.399
5006000000.0 -0.8504 0.3886
5009000000.0 -0.2082 0.9287
5012000000.0 0.6129 0.7981
5016000000.0 1.008 0.01603
5019000000.0 0.6586 -0.8126
5022000000.0 -0.2016 -1.045
5025000000.0 -0.9459 -0.4791
5028000000.0 -1.008 0.4586
5031000000.0 -0.281 1.026
5034000000.0 0.6486 0.8933
5038000000.0 1.113 0.07699
5041000000.0 0.7489 -0.8404
5044000000.0 -0.1748 -1.154
5047000000.0 -0.9875 -0.606
5050000000.0 -1.101 0.3979
5053000000.0 -0.3643 1.106
5056000000.0 0.6102 1.033
5059000000.0 1.225 0.19
5062000000.0 0.9197 -0.8741
5066000000.0 -0.05454 -1.239
5069000000.0 -1.012 -0.727
5072000000.0 -1.241 0.3222
5075000000.0 -0.539 1.168
5078000000.0 0.585 1.174
5081000000.0 1.234 0.2929
5084000000.0 1.028 -0.8287
5088000000.0 0.03732 -1.26
5091000000.0 -0.978 -0.8112
5094000000.0 -1.239 0.1758
5097000000.0 -0.6368 1.072
5100000000.0 0.4106 1.18
5103000000.0 1.137 0.4151
5106000000.0 1.018 -0.6124
5109000000.0 0.2128 -1.153
5112000000.0 -0.764 -0.8907
5116000000.0 -1.195 0.01682
5119000000.0 -0.7317 0.8913
5122000000.0 0.2276 1.153
5125000000.0 0.9865 0.5733
5128000000.0 1.045 -0.3995
5131000000.0 0.3581 -1.09
5134000000.0 -0.5733 -0.9222
5138000000.0 -1.066 -0.1723
5141000000.0 -0.7658 0.7329
5144000000.0 0.0363 1.042
5147000000.0 0.8474 0.6262
5150000000.0 1.004 -0.258
5153000000.0 0.4393 -0.9132
5156000000.0 -0.3911 -0.92
5159000000.0 -0.9712 -0.2619
5162000000.0 -0.8017 0.5373
5166000000.0 -0.06863 0.9694
5169000000.0 0.6575 0.7044
5172000000.0 0.951 -0.1061
5175000000.0 0.5206 -0.7481
5178000000.0 -0.2634 -0.9065
5181000000.0 -0.8706 -0.3489
5184000000.0 -0.8161 0.4737
5188000000.0 -0.1393 0.9067
5191000000.0 0.6161 0.6835
5194000000.0 0.9116 -0.04031
5197000000.0 0.561 -0.7749
5200000000.0 -0.2562 -0.8952
5203000000.0 -0.8576 -0.3404
5206000000.0 -0.8171 0.4768
5209000000.0 -0.166 0.9183
5212000000.0 0.6231 0.6999
5216000000.0 0.9588 -0.0564
5219000000.0 0.5287 -0.7638
5222000000.0 -0.2594 -0.8946
5225000000.0 -0.9098 -0.3364
5228000000.0 -0.8284 0.4775
5231000000.0 -0.1203 0.9621
5234000000.0 0.6628 0.7203
5238000000.0 0.9798 -0.07189
5241000000.0 0.5792 -0.8048
5244000000.0 -0.3098 -0.9597
5247000000.0 -0.9031 -0.3792
5250000000.0 -0.8787 0.4997
5253000000.0 -0.1579 0.9956
5256000000.0 0.6897 0.7722
5259000000.0 1.034 -0.02204
5262000000.0 0.6349 -0.8082
5266000000.0 -0.225 -1.004
5269000000.0 -0.9469 -0.4511
5272000000.0 -0.9267 0.4381
5275000000.0 -0.28 1.007
5278000000.0 0.6163 0.865
5281000000.0 1.074 0.09643
5284000000.0 0.7385 -0.7363
5288000000.0 -0.102 -1.043
5291000000.0 -0.8584 -0.6304
5294000000.0 -1.026 0.2633
5297000000.0 -0.4742 0.9552
5300000000.0 0.4374 1.005
5303000000.0 1.032 0.2924
5306000000.0 0.9223 -0.6177
5309000000.0 0.1065 -1.11
5312000000.0 -0.7411 -0.8111
5316000000.0 -1.104 0.07154
5319000000.0 -0.6983 0.9099
5322000000.0 0.2727 1.108
5325000000.0 1.021 0.5253
5328000000.0 1.06 -0.4383
5331000000.0 0.3381 -1.108
5334000000.0 -0.6255 -0.937
5338000000.0 -1.119 -0.1591
5341000000.0 -0.8335 0.7971
5344000000.0 0.04133 1.138
5347000000.0 0.9025 0.6723
5350000000.0 1.122 -0.2528
5353000000.0 0.495 -1.021
5356000000.0 -0.428 -1.062
5359000000.0 -1.088 -0.3589
5362000000.0 -0.9265 0.602
5366000000.0 -0.1237 1.127
5369000000.0 0.79 0.7975
5372000000.0 1.126 -0.08784
5375000000.0 0.6361 -0.9425
5378000000.0 -0.3117 -1.086
5381000000.0 -1.014 -0.4024
5384000000.0 -0.9517 0.5233
5388000000.0 -0.1827 1.095
5391000000.0 0.7159 0.8142
5394000000.0 1.063 -0.03094
5397000000.0 0.6317 -0.8502
5400000000.0 -0.2498 -1.001
5403000000.0 -0.9159 -0.3787
5406000000.0 -0.8745 0.4658
5409000000.0 -0.1824 0.9565
5412000000.0 0.6183 0.7449
5416000000.0 0.9594 -0.01648
5419000000.0 0.5767 -0.7635
5422000000.0 -0.2126 -0.8954
5425000000.0 -0.8595 -0.3773
5428000000.0 -0.7978 0.4522
5431000000.0 -0.1439 0.8914
5434000000.0 0.6083 0.6571
5438000000.0 0.9205 -0.0437
5441000000.0 0.4744 -0.7275
5444000000.0 -0.2711 -0.8608
5447000000.0 -0.8222 -0.3132
5450000000.0 -0.7595 0.4689
5453000000.0 -0.09136 0.8918
5456000000.0 0.6162 0.6088
5459000000.0 0.8769 -0.1196
5462000000.0 0.486 -0.7223
5466000000.0 -0.2937 -0.8179
5469000000.0 -0.7989 -0.3416
5472000000.0 -0.7356 0.4366
5475000000.0 -0.1303 0.8511
5478000000.0 0.5807 0.6574
5481000000.0 0.8793 -0.03402
5484000000.0 0.5603 -0.7136
5488000000.0 -0.2111 -0.878
5491000000.0 -0.8235 -0.3959
5494000000.0 -0.8605 0.3853
5497000000.0 -0.2496 0.8871
5500000000.0 0.5326 0.7677
5503000000.0 0.934 0.03972
5506000000.0 0.6527 -0.6883
5509000000.0 -0.1262 -0.9401
5512000000.0 -0.8212 -0.5292
5516000000.0 -0.9091 0.2617
5519000000.0 -0.3321 0.8887
5522000000.0 0.4179 0.8759
5525000000.0 0.9551 0.2248
5528000000.0 0.7922 -0.5351
5531000000.0 0.08147 -0.984
5534000000.0 -0.7018 -0.7033
5538000000.0 -1.018 0.08505
5541000000.0 -0.5755 0.8525
5544000000.0 0.2891 0.9894
5547000000.0 0.9495 0.4465
5550000000.0 0.9456 -0.437
5553000000.0 0.27 -1.034
5556000000.0 -0.6216 -0.8582
5559000000.0 -1.059 -0.1128
5562000000.0 -0.7659 0.7666
5566000000.0 0.1068 1.059
5569000000.0 0.8467 0.5676
5572000000.0 1.052 -0.309
5575000000.0 0.4449 -0.9647
5578000000.0 -0.4575 -0.9453
5581000000.0 -0.9897 -0.2375
5584000000.0 -0.8379 0.5984
5588000000.0 -0.05903 1.06
5591000000.0 0.7613 0.7036
5594000000.0 0.9981 -0.1292
5597000000.0 0.5365 -0.8723
5600000000.0 -0.3263 -0.9235
5603000000.0 -0.927 -0.3563
5606000000.0 -0.8595 0.469
5609000000.0 -0.1813 0.9622
5612000000.0 0.5821 0.718
5616000000.0 0.9513 0.0004782
5619000000.0 0.5826 -0.7439
5622000000.0 -0.1827 -0.8981
5625000000.0 -0.8254 -0.4269
5628000000.0 -0.8327 0.3507
5631000000.0 -0.2363 0.8771
5634000000.0 0.5346 0.7456
5638000000.0 0.9205 0.02927
5641000000.0 0.5773 -0.6653
5644000000.0 -0.1334 -0.8499
5647000000.0 -0.7407 -0.444
5650000000.0 -0.8164 0.3155
5653000000.0 -0.2575 0.83
5656000000.0 0.4944 0.7089
5659000000.0 0.8799 0.07698
5662000000.0 0.6247 -0.6137
5666000000.0 -0.1283 -0.8692
5669000000.0 -0.7608 -0.4237
5672000000.0 -0.791 0.34
5675000000.0 -0.2401 0.8627
5678000000.0 0.5006 0.7028
5681000000.0 0.8737 0.04219
5684000000.0 0.5902 -0.6675
5688000000.0 -0.1551 -0.9082
5691000000.0 -0.7777 -0.4267
5694000000.0 -0.825 0.3673
5697000000.0 -0.2357 0.9074
5700000000.0 0.5363 0.7546
5703000000.0 0.9365 0.04751
5706000000.0 0.6053 -0.6989
5709000000.0 -0.1566 -0.9341
5712000000.0 -0.8713 -0.4621
5716000000.0 -0.9106 0.3928
5719000000.0 -0.2971 0.9717
5722000000.0 0.5444 0.8415
5725000000.0 0.9834 0.1059
5728000000.0 0.72 -0.7275
5731000000.0 -0.07291 -1.01
5734000000.0 -0.8459 -0.5518
5738000000.0 -1.001 0.3093
5741000000.0 -0.4229 0.931
5744000000.0 0.5008 0.8932
5747000000.0 1.032 0.2281
5750000000.0 0.7724 -0.6281
5753000000.0 0.01951 -1.067
5756000000.0 -0.8245 -0.7
5759000000.0 -1.059 0.1656
5762000000.0 -0.5568 0.9524
5766000000.0 0.3897 1.04
5769000000.0 0.9834 0.4111
5772000000.0 0.9359 -0.5685
5775000000.0 0.1867 -1.08
5778000000.0 -0.7242 -0.8169
5781000000.0 -1.092 0.0007835
5784000000.0 -0.7079 0.8461
5788000000.0 0.2161 1.058
5791000000.0 0.9376 0.5296
5794000000.0 0.9872 -0.3805
5797000000.0 0.3635 -1.008
5800000000.0 -0.5575 -0.9327
5803000000.0 -1.072 -0.1519
5806000000.0 -0.809 0.7023
5809000000.0 0.03978 1.078
5812000000.0 0.8184 0.6619
5816000000.0 1.031 -0.2006
5819000000.0 0.4872 -0.9216
5822000000.0 -0.4134 -0.9715
5825000000.0 -0.9869 -0.2766
5828000000.0 -0.8532 0.5858
5831000000.0 -0.08968 1.036
5834000000.0 0.7252 0.7167
5838000000.0 1.02 -0.1112
5841000000.0 0.5731 -0.8572
5844000000.0 -0.3184 -0.9763
5847000000.0 -0.9369 -0.3766
5850000000.0 -0.8799 0.4915
5853000000.0 -0.1984 0.9687
5856000000.0 0.6428 0.7704
5859000000.0 0.9489 -0.04673
5862000000.0 0.6089 -0.7752
5866000000.0 -0.247 -0.9282
5869000000.0 -0.8319 -0.3766
5872000000.0 -0.845 0.4113
5875000000.0 -0.1685 0.9063
5878000000.0 0.5993 0.7172
5881000000.0 0.9195 -0.01606
5884000000.0 0.5512 -0.7112
5888000000.0 -0.1901 -0.8682
5891000000.0 -0.7731 -0.3907
5894000000.0 -0.768 0.3655
5897000000.0 -0.2183 0.8296
5900000000.0 0.518 0.6802
5903000000.0 0.8747 0.03482
5906000000.0 0.5702 -0.6396
5909000000.0 -0.1392 -0.8518
5912000000.0 -0.7413 -0.4093
5916000000.0 -0.7826 0.336
5919000000.0 -0.257 0.8051
5922000000.0 0.4758 0.6844
5925000000.0 0.8544 0.09236
5928000000.0 0.5748 -0.6068
5931000000.0 -0.0828 -0.8622
5934000000.0 -0.7321 -0.4595
5938000000.0 -0.7809 0.2371
5941000000.0 -0.3012 0.8138
5944000000.0 0.4229 0.7417
5947000000.0 0.83 0.1834
5950000000.0 0.6696 -0.5669
5953000000.0 -0.002753 -0.8937
5956000000.0 -0.6718 -0.5818
5959000000.0 -0.8249 0.1342
5962000000.0 -0.4498 0.7636
5966000000.0 0.3044 0.816
5969000000.0 0.8285 0.2916
5972000000.0 0.7702 -0.4578
5975000000.0 0.1729 -0.8928
5978000000.0 -0.5736 -0.6993
5981000000.0 -0.9217 0.007651
5984000000.0 -0.6238 0.745
5988000000.0 0.1858 0.9266
5991000000.0 0.861 0.4576
5994000000.0 0.8966 -0.3576
5997000000.0 0.3269 -0.9319
6000000000.0 -0.5125 -0.8232
6003000000.0 -0.9701 -0.1475
6006000000.0 -0.7116 0.6664
6009000000.0 0.0161 0.9717
6012000000.0 0.7832 0.5785
6016000000.0 0.9441 -0.233
6019000000.0 0.4259 -0.8874
6022000000.0 -0.4084 -0.8951
6025000000.0 -0.9475 -0.2771
6028000000.0 -0.7863 0.5674
6031000000.0 -0.07215 0.9933
6034000000.0 0.7196 0.673
6038000000.0 0.9791 -0.1482
6041000000.0 0.5346 -0.8368
6044000000.0 -0.2857 -0.9428
6047000000.0 -0.9464 -0.3528
6050000000.0 -0.8711 0.502
6053000000.0 -0.1728 0.9632
6056000000.0 0.6497 0.749
6059000000.0 0.978 -0.04312
6062000000.0 0.5582 -0.7709
6066000000.0 -0.2293 -0.9163
6069000000.0 -0.8852 -0.3889
6072000000.0 -0.8504 0.4395
6075000000.0 -0.194 0.882
6078000000.0 0.5821 0.7084
6081000000.0 0.9265 0.0104
6084000000.0 0.5347 -0.7064
6088000000.0 -0.2023 -0.8458
6091000000.0 -0.7821 -0.3816
6094000000.0 -0.8083 0.3584
6097000000.0 -0.2448 0.8385
6100000000.0 0.5536 0.7158
6103000000.0 0.8877 0.03204
6106000000.0 0.5796 -0.6502
6109000000.0 -0.1343 -0.8516
6112000000.0 -0.7544 -0.434
6116000000.0 -0.8066 0.306
6119000000.0 -0.2508 0.8245
6122000000.0 0.4821 0.7173
6125000000.0 0.8588 0.08328
6128000000.0 0.6076 -0.5965
6131000000.0 -0.1283 -0.8379
6134000000.0 -0.7029 -0.4547
6138000000.0 -0.7832 0.2994
6141000000.0 -0.2872 0.8095
6144000000.0 0.4356 0.7075
6147000000.0 0.8202 0.1092
6150000000.0 0.6198 -0.575
6153000000.0 -0.02735 -0.8453
6156000000.0 -0.6729 -0.5124
6159000000.0 -0.8163 0.2366
6162000000.0 -0.3445 0.8019
6166000000.0 0.4325 0.7976
6169000000.0 0.8398 0.167
6172000000.0 0.6597 -0.5778
6175000000.0 -0.01234 -0.8716
6178000000.0 -0.6969 -0.5596
6181000000.0 -0.8755 0.1657
6184000000.0 -0.4088 0.7991
6188000000.0 0.3541 0.8357
6191000000.0 0.8802 0.2612
6194000000.0 0.7447 -0.4974
6197000000.0 0.04475 -0.9082
6200000000.0 -0.6617 -0.6337
6203000000.0 -0.896 0.1194
6206000000.0 -0.5042 0.7786
6209000000.0 0.2803 0.8754
6212000000.0 0.8673 0.3179
6216000000.0 0.8016 -0.4219
6219000000.0 0.1508 -0.89
6222000000.0 -0.5788 -0.6671
6225000000.0 -0.9219 0.01007
6228000000.0 -0.5782 0.7386
6231000000.0 0.1809 0.8746
6234000000.0 0.7634 0.4095
6238000000.0 0.788 -0.3483
6241000000.0 0.2396 -0.8289
6244000000.0 -0.4888 -0.7083
6247000000.0 -0.8373 -0.08677
6250000000.0 -0.5937 0.594
6253000000.0 0.05273 0.8574
6256000000.0 0.6788 0.5232
6259000000.0 0.8217 -0.2011
6262000000.0 0.3519 -0.7632
