! Created with skrf 1.8.0 (http://scikit-rf.org).
# Hz S RI R 50.0 
!freq ReS11 ImS11
4000000000.0 -0.3119 -1.497
4003000000.0 -1.344 -0.6887
4006000000.0 -1.345 0.634
4009000000.0 -0.3789 1.496
4012000000.0 0.88 1.281
4016000000.0 1.562 0.07382
4019000000.0 1.021 -1.165
4022000000.0 -0.2362 -1.526
4025000000.0 -1.423 -0.7589
4028000000.0 -1.434 0.5973
4031000000.0 -0.4283 1.562
4034000000.0 0.9492 1.3
4038000000.0 1.642 0.04403
4041000000.0 1.057 -1.21
4044000000.0 -0.2885 -1.602
4047000000.0 -1.467 -0.7874
4050000000.0 -1.509 0.6052
4053000000.0 -0.4821 1.565
4056000000.0 0.8837 1.404
4059000000.0 1.619 0.1691
4062000000.0 1.197 -1.13
4066000000.0 -0.1717 -1.668
4069000000.0 -1.33 -0.9497
4072000000.0 -1.555 0.4294
4075000000.0 -0.7034 1.478
4078000000.0 0.7174 1.509
4081000000.0 1.577 0.3706
4084000000.0 1.301 -0.9751
4088000000.0 0.1083 -1.668
4091000000.0 -1.21 -1.075
4094000000.0 -1.631 0.2343
4097000000.0 -0.8407 1.382
4100000000.0 0.5242 1.518
4103000000.0 1.476 0.5526
4106000000.0 1.341 -0.7655
4109000000.0 0.3091 -1.507
4112000000.0 -0.9323 -1.181
4116000000.0 -1.527 -0.06179
4119000000.0 -1.044 1.056
4122000000.0 0.1438 1.487
4125000000.0 1.219 0.8434
4128000000.0 1.422 -0.3723
4131000000.0 0.6628 -1.333
4134000000.0 -0.5735 -1.353
4138000000.0 -1.398 -0.4275
4141000000.0 -1.263 0.7764
4144000000.0 -0.2306 1.459
4147000000.0 0.9618 1.127
4150000000.0 1.452 -0.04687
4153000000.0 0.9694 -1.145
4156000000.0 -0.2898 -1.477
4159000000.0 -1.294 -0.7237
4162000000.0 -1.417 0.5203
4166000000.0 -0.4808 1.416
4169000000.0 0.7655 1.281
4172000000.0 1.475 0.2466
4175000000.0 1.123 -1.026
4178000000.0 -0.06101 -1.489
4181000000.0 -1.192 -0.9266
4184000000.0 -1.475 0.3178
4188000000.0 -0.7255 1.32
4191000000.0 0.5786 1.397
4194000000.0 1.451 0.4474
4197000000.0 1.254 -0.9061
4200000000.0 0.09819 -1.55
4203000000.0 -1.136 -1.081
4206000000.0 -1.568 0.2563
4209000000.0 -0.7796 1.439
4212000000.0 0.6463 1.505
4216000000.0 1.58 0.3718
4219000000.0 1.299 -1.006
4222000000.0 -0.02223 -1.611
4225000000.0 -1.369 -0.9954
4228000000.0 -1.582 0.4557
4231000000.0 -0.5503 1.54
4234000000.0 0.8895 1.378
4238000000.0 1.586 0.1517
4241000000.0 1.031 -1.176
4244000000.0 -0.2967 -1.54
4247000000.0 -1.379 -0.7148
4250000000.0 -1.364 0.6395
4253000000.0 -0.3005 1.484
4256000000.0 0.9939 1.117
4259000000.0 1.531 -0.1167
4262000000.0 0.8447 -1.228
4266000000.0 -0.4159 -1.4
4269000000.0 -1.35 -0.5463
4272000000.0 -1.259 0.7395
4275000000.0 -0.2128 1.411
4278000000.0 1.001 1.015
4281000000.0 1.374 -0.1153
4284000000.0 0.7461 -1.168
4288000000.0 -0.4299 -1.288
4291000000.0 -1.253 -0.4569
4294000000.0 -1.138 0.62
4297000000.0 -0.2376 1.303
4300000000.0 0.8359 0.9863
4303000000.0 1.282 -0.004993
4306000000.0 0.8063 -1.03
4309000000.0 -0.2479 -1.252
4312000000.0 -1.154 -0.6225
4316000000.0 -1.225 0.4464
4319000000.0 -0.4307 1.209
4322000000.0 0.6515 1.171
4325000000.0 1.314 0.2133
4328000000.0 1.006 -0.8691
4331000000.0 0.03253 -1.35
4334000000.0 -1.061 -0.8927
4338000000.0 -1.36 0.2473
4341000000.0 -0.6881 1.212
4344000000.0 0.5118 1.319
4347000000.0 1.356 0.3985
4350000000.0 1.231 -0.7725
4353000000.0 0.2245 -1.455
4356000000.0 -0.9959 -1.073
4359000000.0 -1.483 0.03481
4362000000.0 -0.8602 1.199
4366000000.0 0.3916 1.432
4369000000.0 1.362 0.6464
4372000000.0 1.382 -0.6355
4375000000.0 0.3438 -1.471
4378000000.0 -0.9186 -1.188
4381000000.0 -1.543 -0.07069
4384000000.0 -1.036 1.17
4388000000.0 0.2629 1.536
4391000000.0 1.375 0.7521
4394000000.0 1.473 -0.6053
4397000000.0 0.4154 -1.57
4400000000.0 -0.9594 -1.265
4403000000.0 -1.588 -0.03551
4406000000.0 -0.9698 1.252
4409000000.0 0.3506 1.531
4412000000.0 1.392 0.6585
4416000000.0 1.335 -0.7055
4419000000.0 0.3051 -1.478
4422000000.0 -0.9706 -1.063
4425000000.0 -1.434 0.09551
4428000000.0 -0.7916 1.185
4431000000.0 0.4367 1.305
4434000000.0 1.3 0.444
4438000000.0 1.111 -0.7725
4441000000.0 0.1098 -1.324
4444000000.0 -0.9709 -0.8983
4447000000.0 -1.272 0.2282
4450000000.0 -0.627 1.117
4453000000.0 0.5014 1.121
4456000000.0 1.184 0.301
4459000000.0 0.9498 -0.7697
4462000000.0 -0.04385 -1.249
4466000000.0 -0.9638 -0.7128
4469000000.0 -1.172 0.3373
4472000000.0 -0.4618 1.102
4475000000.0 0.5619 1.027
4478000000.0 1.156 0.1762
4481000000.0 0.8669 -0.8213
4484000000.0 -0.072 -1.122
4488000000.0 -0.9433 -0.6465
4491000000.0 -1.122 0.3225
4494000000.0 -0.4225 1.07
4497000000.0 0.5634 1.025
4500000000.0 1.142 0.1692
4503000000.0 0.8502 -0.7267
4506000000.0 -0.06194 -1.13
4509000000.0 -0.8931 -0.6834
4512000000.0 -1.117 0.2914
4516000000.0 -0.5033 1.024
4519000000.0 0.4816 1.055
4522000000.0 1.142 0.2948
4525000000.0 0.9472 -0.7155
4528000000.0 0.07832 -1.173
4531000000.0 -0.8797 -0.8099
4534000000.0 -1.193 0.1825
4538000000.0 -0.6715 1.067
4541000000.0 0.3678 1.187
4544000000.0 1.154 0.4525
4547000000.0 1.111 -0.6231
4550000000.0 0.2512 -1.222
4553000000.0 -0.8052 -0.9816
4556000000.0 -1.271 -0.01556
4559000000.0 -0.8253 0.9769
4562000000.0 0.2228 1.277
4566000000.0 1.11 0.6603
4569000000.0 1.223 -0.4346
4572000000.0 0.4378 -1.238
4575000000.0 -0.6616 -1.16
4578000000.0 -1.322 -0.2388
4581000000.0 -1.053 0.8601
4584000000.0 0.01126 1.381
4588000000.0 1.092 0.8711
4591000000.0 1.36 -0.2726
4594000000.0 0.6343 -1.234
4597000000.0 -0.5689 -1.312
4600000000.0 -1.341 -0.3655
4603000000.0 -1.178 0.7897
4606000000.0 -0.1122 1.419
4609000000.0 1.002 0.9616
4612000000.0 1.411 -0.1709
4616000000.0 0.7371 -1.167
4619000000.0 -0.4507 -1.302
4622000000.0 -1.324 -0.4795
4625000000.0 -1.194 0.7095
4628000000.0 -0.2049 1.349
4631000000.0 0.9288 0.9699
4634000000.0 1.345 -0.0943
4638000000.0 0.7482 -1.126
4641000000.0 -0.4094 -1.241
4644000000.0 -1.199 -0.4838
4647000000.0 -1.123 0.6541
4650000000.0 -0.1637 1.267
4653000000.0 0.8783 0.9093
4656000000.0 1.225 -0.151
4659000000.0 0.6544 -1.053
4662000000.0 -0.4103 -1.16
4666000000.0 -1.133 -0.3993
4669000000.0 -0.9634 0.6182
4672000000.0 -0.09078 1.155
4675000000.0 0.8083 0.7839
4678000000.0 1.1 -0.1396
4681000000.0 0.5793 -0.9198
4684000000.0 -0.3602 -1.022
4688000000.0 -1.028 -0.368
4691000000.0 -0.8867 0.6353
4694000000.0 -0.09673 1.077
4697000000.0 0.7459 0.7535
4700000000.0 1.051 -0.1087
4703000000.0 0.5585 -0.9312
4706000000.0 -0.3512 -1.03
4709000000.0 -1.068 -0.347
4712000000.0 -0.9166 0.5671
4716000000.0 -0.1008 1.107
4719000000.0 0.7623 0.7929
4722000000.0 1.106 -0.08134
4725000000.0 0.5806 -0.9158
4728000000.0 -0.3128 -1.018
4731000000.0 -1.001 -0.3902
4734000000.0 -0.9441 0.5216
4738000000.0 -0.205 1.083
4741000000.0 0.6885 0.8364
4744000000.0 1.07 0.01346
4747000000.0 0.7462 -0.8561
4750000000.0 -0.1883 -1.115
4753000000.0 -0.9886 -0.5732
4756000000.0 -1.09 0.3908
4759000000.0 -0.4353 1.079
4762000000.0 0.5707 1.017
4766000000.0 1.146 0.2125
4769000000.0 0.9223 -0.7387
4772000000.0 0.005268 -1.225
4775000000.0 -0.9236 -0.7865
4778000000.0 -1.226 0.1893
4781000000.0 -0.6262 1.08
4784000000.0 0.4131 1.197
4788000000.0 1.166 0.4449
4791000000.0 1.122 -0.6117
4794000000.0 0.248 -1.268
4797000000.0 -0.8054 -1.0
4800000000.0 -1.301 -0.03652
4803000000.0 -0.8344 0.9871
4806000000.0 0.1751 1.272
4809000000.0 1.128 0.6619
4812000000.0 1.271 -0.4268
4816000000.0 0.4973 -1.285
4819000000.0 -0.6653 -1.192
4822000000.0 -1.359 -0.2545
4825000000.0 -1.074 0.9344
4828000000.0 0.03231 1.414
4831000000.0 1.107 0.838
4834000000.0 1.374 -0.2922
4838000000.0 0.6038 -1.27
4841000000.0 -0.5919 -1.262
4844000000.0 -1.344 -0.3444
4847000000.0 -1.113 0.8191
4850000000.0 -0.05152 1.371
4853000000.0 1.019 0.9095
4856000000.0 1.334 -0.2306
4859000000.0 0.6547 -1.132
4862000000.0 -0.4366 -1.201
4866000000.0 -1.244 -0.4107
4869000000.0 -1.069 0.691
4872000000.0 -0.1326 1.251
4875000000.0 0.8867 0.8897
4878000000.0 1.206 -0.1345
4881000000.0 0.6377 -1.014
4884000000.0 -0.4008 -1.127
4888000000.0 -1.077 -0.3964
4891000000.0 -0.986 0.5762
4894000000.0 -0.1805 1.105
4897000000.0 0.7358 0.7976
4900000000.0 1.072 -0.07904
4903000000.0 0.5865 -0.8524
4906000000.0 -0.2806 -1.009
4909000000.0 -0.9427 -0.3814
4912000000.0 -0.8631 0.4744
4916000000.0 -0.164 0.9287
4919000000.0 0.604 0.7394
4922000000.0 0.926 -0.009853
4925000000.0 0.578 -0.7401
4928000000.0 -0.2015 -0.9209
4931000000.0 -0.8312 -0.4454
4934000000.0 -0.8489 0.3733
4938000000.0 -0.2719 0.895
4941000000.0 0.5364 0.7641
4944000000.0 0.9439 0.1102
4947000000.0 0.6746 -0.6754
4950000000.0 -0.0877 -0.9458
4953000000.0 -0.8072 -0.5232
4956000000.0 -0.9176 0.2993
4959000000.0 -0.3707 0.9122
4962000000.0 0.5029 0.8716
4966000000.0 0.99 0.1638
4969000000.0 0.7891 -0.6737
4972000000.0 -0.03868 -1.033
4975000000.0 -0.8195 -0.6633
4978000000.0 -1.045 0.2519
4981000000.0 -0.49 0.9581
4984000000.0 0.4342 1.001
4988000000.0 1.079 0.2795
4991000000.0 0.9375 -0.6347
4994000000.0 0.1064 -1.145
4997000000.0 -0.805 -0.8316
5000000000.0 -1.193 0.09349
5003000000.0 -0.6947 0.9794
5006000000.0 0.3433 1.211
5009000000.0 1.132 0.4947
5012000000.0 1.121 -0.5668
5016000000.0 0.2664 -1.262
5019000000.0 -0.8031 -0.9837
5022000000.0 -1.287 -0.03376
5025000000.0 -0.8509 0.9799
5028000000.0 0.2296 1.291
5031000000.0 1.105 0.6616
5034000000.0 1.224 -0.4494
5038000000.0 0.4151 -1.219
5041000000.0 -0.6622 -1.103
5044000000.0 -1.286 -0.1907
5047000000.0 -0.9551 0.8733
5050000000.0 0.05061 1.324
5053000000.0 1.02 0.7806
5056000000.0 1.232 -0.2361
5059000000.0 0.6135 -1.147
5062000000.0 -0.5042 -1.193
5066000000.0 -1.202 -0.3721
5069000000.0 -1.042 0.6592
5072000000.0 -0.1636 1.217
5075000000.0 0.868 0.9091
5078000000.0 1.257 -0.07456
5081000000.0 0.6994 -0.9963
5084000000.0 -0.2913 -1.138
5088000000.0 -1.059 -0.5148
5091000000.0 -1.037 0.4563
5094000000.0 -0.2968 1.091
5097000000.0 0.6326 0.9209
5100000000.0 1.037 0.08923
5103000000.0 0.7161 -0.7817
5106000000.0 -0.1011 -1.067
5109000000.0 -0.8699 -0.5383
5112000000.0 -0.9768 0.2958
5116000000.0 -0.4088 0.9361
5119000000.0 0.4754 0.8815
5122000000.0 0.98 0.1869
5125000000.0 0.7576 -0.6212
5128000000.0 -0.02294 -0.9696
5131000000.0 -0.7257 -0.5909
5134000000.0 -0.9467 0.1944
5138000000.0 -0.3999 0.8231
5141000000.0 0.377 0.8396
5144000000.0 0.8865 0.2345
5147000000.0 0.698 -0.5457
5150000000.0 -0.004037 -0.9102
5153000000.0 -0.6817 -0.5756
5156000000.0 -0.8826 0.1965
5159000000.0 -0.4106 0.7694
5162000000.0 0.3872 0.7921
5166000000.0 0.8509 0.244
5169000000.0 0.7064 -0.5089
5172000000.0 0.0298 -0.9055
5175000000.0 -0.6642 -0.5827
5178000000.0 -0.8844 0.1331
5181000000.0 -0.441 0.8062
5184000000.0 0.3465 0.8554
5188000000.0 0.8836 0.2712
5191000000.0 0.7853 -0.555
5194000000.0 0.05366 -0.9412
5197000000.0 -0.7074 -0.6369
5200000000.0 -0.9497 0.1581
5203000000.0 -0.5011 0.8563
5206000000.0 0.3402 0.8966
5209000000.0 0.9389 0.2869
5212000000.0 0.8562 -0.5526
5216000000.0 0.09233 -1.006
5219000000.0 -0.7409 -0.7179
5222000000.0 -1.033 0.1078
5225000000.0 -0.5612 0.8535
5228000000.0 0.2989 0.9762
5231000000.0 0.9663 0.4469
5234000000.0 0.9381 -0.5229
5238000000.0 0.2402 -1.044
5241000000.0 -0.6653 -0.849
5244000000.0 -1.1 -0.02359
5247000000.0 -0.7252 0.8024
5250000000.0 0.1815 1.079
5253000000.0 0.9676 0.5795
5256000000.0 1.024 -0.3709
5259000000.0 0.3912 -1.028
5262000000.0 -0.57 -0.9768
5266000000.0 -1.091 -0.2177
5269000000.0 -0.8353 0.7258
5272000000.0 0.0003055 1.105
5275000000.0 0.8227 0.7018
5278000000.0 1.083 -0.1797
5281000000.0 0.5734 -0.9851
5284000000.0 -0.3583 -1.034
5288000000.0 -1.072 -0.3896
5291000000.0 -0.9806 0.5503
5294000000.0 -0.1917 1.092
5297000000.0 0.7298 0.8537
5300000000.0 1.124 0.03406
5303000000.0 0.7256 -0.8659
5306000000.0 -0.2119 -1.116
5309000000.0 -0.9895 -0.5336
5312000000.0 -1.038 0.3759
5316000000.0 -0.3384 1.073
5319000000.0 0.5979 0.9322
5322000000.0 1.081 0.1144
5325000000.0 0.8011 -0.7902
5328000000.0 -0.113 -1.096
5331000000.0 -0.8943 -0.5786
5334000000.0 -1.028 0.3695
5338000000.0 -0.317 0.9811
5341000000.0 0.5585 0.8657
5344000000.0 1.014 0.1217
5347000000.0 0.6787 -0.7208
5350000000.0 -0.1102 -0.9757
5353000000.0 -0.8712 -0.5004
5356000000.0 -0.9113 0.3649
5359000000.0 -0.286 0.9426
5362000000.0 0.5393 0.7755
5366000000.0 0.9137 0.03125
5369000000.0 0.6161 -0.7241
5372000000.0 -0.1927 -0.8968
5375000000.0 -0.8157 -0.3909
5378000000.0 -0.8223 0.4088
5381000000.0 -0.1681 0.9035
5384000000.0 0.5822 0.6464
5388000000.0 0.8518 -0.06594
5391000000.0 0.4612 -0.6898
5394000000.0 -0.2695 -0.8392
5397000000.0 -0.8047 -0.3094
5400000000.0 -0.7044 0.4392
5403000000.0 -0.06321 0.8164
5406000000.0 0.5999 0.5782
5409000000.0 0.865 -0.08294
5412000000.0 0.4205 -0.7307
5416000000.0 -0.2558 -0.8047
5419000000.0 -0.8318 -0.3119
5422000000.0 -0.7373 0.4584
5425000000.0 -0.1032 0.892
5428000000.0 0.6418 0.6387
5431000000.0 0.9479 -0.08207
5434000000.0 0.5532 -0.7752
5438000000.0 -0.301 -0.8969
5441000000.0 -0.894 -0.3407
5444000000.0 -0.8913 0.4589
5447000000.0 -0.168 0.9868
5450000000.0 0.6276 0.7652
5453000000.0 1.01 -0.0057
5456000000.0 0.644 -0.799
5459000000.0 -0.2338 -1.015
5462000000.0 -0.9055 -0.5224
5466000000.0 -0.9433 0.3663
5469000000.0 -0.3424 1.027
5472000000.0 0.5201 0.8622
5475000000.0 1.047 0.1481
5478000000.0 0.7914 -0.7355
5481000000.0 -0.07006 -1.067
5484000000.0 -0.8959 -0.6388
5488000000.0 -1.073 0.2807
5491000000.0 -0.4611 0.9997
5494000000.0 0.4931 1.006
5497000000.0 1.07 0.2392
5500000000.0 0.8664 -0.684
5503000000.0 0.01118 -1.132
5506000000.0 -0.8638 -0.7472
5509000000.0 -1.108 0.229
5512000000.0 -0.5056 0.9656
5516000000.0 0.4351 1.019
5519000000.0 1.043 0.3053
5522000000.0 0.9121 -0.6321
5525000000.0 0.08248 -1.055
5528000000.0 -0.7438 -0.7133
5531000000.0 -1.007 0.1478
5534000000.0 -0.5263 0.8814
5538000000.0 0.393 0.919
5541000000.0 0.9202 0.2877
5544000000.0 0.7913 -0.5687
5547000000.0 0.06235 -0.9913
5550000000.0 -0.73 -0.6667
5553000000.0 -0.9255 0.2133
5556000000.0 -0.4277 0.8065
5559000000.0 0.3783 0.8657
5562000000.0 0.8206 0.2104
5566000000.0 0.659 -0.5466
5569000000.0 0.00792 -0.8472
5572000000.0 -0.6763 -0.4885
5575000000.0 -0.7912 0.2341
5578000000.0 -0.3015 0.7833
5581000000.0 0.4111 0.7119
5584000000.0 0.7994 0.1262
5588000000.0 0.558 -0.5373
5591000000.0 -0.07985 -0.7739
5594000000.0 -0.6819 -0.3698
5597000000.0 -0.7298 0.3037
5600000000.0 -0.2285 0.7675
5603000000.0 0.4734 0.6886
5606000000.0 0.8288 0.02428
5609000000.0 0.5524 -0.64
5612000000.0 -0.1826 -0.8079
5616000000.0 -0.743 -0.3589
5619000000.0 -0.7799 0.3437
5622000000.0 -0.2165 0.8528
5625000000.0 0.5289 0.6556
5628000000.0 0.8747 0.009779
5631000000.0 0.5698 -0.7082
5634000000.0 -0.1861 -0.8917
5638000000.0 -0.8406 -0.3957
5641000000.0 -0.8252 0.428
5644000000.0 -0.1963 0.983
5647000000.0 0.63 0.7667
5650000000.0 1.041 0.0133
5653000000.0 0.6062 -0.7902
5656000000.0 -0.2023 -1.012
5659000000.0 -0.9669 -0.4688
5662000000.0 -0.9869 0.4756
5666000000.0 -0.2372 1.054
5669000000.0 0.6595 0.8448
5672000000.0 1.129 -0.02039
5675000000.0 0.7013 -0.8741
5678000000.0 -0.2377 -1.085
5681000000.0 -1.014 -0.5207
5684000000.0 -1.051 0.4978
5688000000.0 -0.2194 1.088
5691000000.0 0.7086 0.8784
5694000000.0 1.16 -0.04794
5697000000.0 0.695 -0.8822
5700000000.0 -0.2938 -1.111
5703000000.0 -1.051 -0.4476
5706000000.0 -1.003 0.5506
5709000000.0 -0.181 1.122
5712000000.0 0.7463 0.8217
5716000000.0 1.087 -0.09514
5719000000.0 0.6032 -0.9049
5722000000.0 -0.3445 -1.024
5725000000.0 -0.985 -0.3534
5728000000.0 -0.8798 0.6089
5731000000.0 -0.08734 1.031
5734000000.0 0.7635 0.6754
5738000000.0 0.9928 -0.2086
5741000000.0 0.43 -0.8776
5744000000.0 -0.4468 -0.8742
5747000000.0 -0.9646 -0.1698
5750000000.0 -0.6942 0.6594
5753000000.0 0.1181 0.9586
5756000000.0 0.8228 0.4758
5759000000.0 0.8539 -0.3989
5762000000.0 0.2175 -0.9314
5766000000.0 -0.5866 -0.7039
5769000000.0 -0.9367 0.07089
5772000000.0 -0.4698 0.7595
5775000000.0 0.3177 0.865
5778000000.0 0.896 0.2523
5781000000.0 0.7156 -0.5627
5784000000.0 0.01795 -0.9404
5788000000.0 -0.7543 -0.5493
5791000000.0 -0.8885 0.2454
5794000000.0 -0.3633 0.8835
5797000000.0 0.4797 0.821
5800000000.0 0.9286 0.09992
5803000000.0 0.6556 -0.6965
5806000000.0 -0.1546 -0.9494
5809000000.0 -0.8549 -0.485
5812000000.0 -0.8775 0.3958
5816000000.0 -0.2605 0.9381
5819000000.0 0.6049 0.7956
5822000000.0 1.014 0.02155
5825000000.0 0.6391 -0.7778
5828000000.0 -0.1813 -0.9849
5831000000.0 -0.8776 -0.453
5834000000.0 -0.9063 0.4298
5838000000.0 -0.2501 0.9796
5841000000.0 0.6323 0.8113
5844000000.0 1.06 0.02242
5847000000.0 0.6693 -0.7745
5850000000.0 -0.2054 -1.025
5853000000.0 -0.9399 -0.4748
5856000000.0 -0.9458 0.4185
5859000000.0 -0.2802 1.013
5862000000.0 0.6726 0.8452
5866000000.0 1.088 0.01921
5869000000.0 0.6783 -0.8068
5872000000.0 -0.1966 -1.039
5875000000.0 -0.9358 -0.4959
5878000000.0 -0.9816 0.4881
5881000000.0 -0.2384 0.9996
5884000000.0 0.629 0.7906
5888000000.0 1.018 0.01031
5891000000.0 0.6413 -0.8149
5894000000.0 -0.2456 -0.9905
5897000000.0 -0.9425 -0.4002
5900000000.0 -0.8897 0.4889
5903000000.0 -0.168 1.009
5906000000.0 0.6324 0.7373
5909000000.0 0.9832 -0.05226
5912000000.0 0.5524 -0.7718
5916000000.0 -0.284 -0.8953
5919000000.0 -0.8902 -0.3632
5922000000.0 -0.7816 0.5076
5925000000.0 -0.1026 0.9272
5928000000.0 0.6824 0.6167
5931000000.0 0.8848 -0.1572
5934000000.0 0.3988 -0.786
5938000000.0 -0.3472 -0.7818
5941000000.0 -0.8575 -0.2218
5944000000.0 -0.6972 0.502
5947000000.0 -0.01512 0.8608
5950000000.0 0.6438 0.5214
5953000000.0 0.8416 -0.1943
5956000000.0 0.3633 -0.7577
5959000000.0 -0.3676 -0.7432
5962000000.0 -0.8037 -0.1973
5966000000.0 -0.6495 0.5506
5969000000.0 0.02126 0.8454
5972000000.0 0.6201 0.5231
5975000000.0 0.808 -0.1893
5978000000.0 0.3549 -0.7785
5981000000.0 -0.3631 -0.7365
5984000000.0 -0.8374 -0.1992
5988000000.0 -0.6705 0.5053
5991000000.0 -0.007897 0.8454
5994000000.0 0.6685 0.5467
5997000000.0 0.8659 -0.1455
6000000000.0 0.4098 -0.771
6003000000.0 -0.3457 -0.7899
6006000000.0 -0.8665 -0.2372
6009000000.0 -0.7314 0.5134
6012000000.0 -0.05868 0.9163
6016000000.0 0.6259 0.6349
6019000000.0 0.9164 -0.1149
6022000000.0 0.5105 -0.7734
6025000000.0 -0.2806 -0.8769
6028000000.0 -0.9095 -0.3498
6031000000.0 -0.8028 0.4449
6034000000.0 -0.1539 0.953
6038000000.0 0.6279 0.7389
6041000000.0 0.964 -0.009554
6044000000.0 0.6019 -0.7946
6047000000.0 -0.2482 -0.9813
6050000000.0 -0.909 -0.4418
6053000000.0 -0.9333 0.438
6056000000.0 -0.2407 0.9766
6059000000.0 0.5939 0.8036
6062000000.0 1.029 0.03051
6066000000.0 0.6631 -0.761
6069000000.0 -0.2232 -0.9929
6072000000.0 -0.9127 -0.4647
6075000000.0 -0.9304 0.4447
6078000000.0 -0.2657 0.9709
6081000000.0 0.584 0.7905
6084000000.0 0.983 0.02284
6088000000.0 0.6164 -0.7392
6091000000.0 -0.1875 -0.9646
6094000000.0 -0.8632 -0.4815
6097000000.0 -0.882 0.3745
6100000000.0 -0.2446 0.9475
6103000000.0 0.529 0.7726
6106000000.0 0.9809 0.04615
6109000000.0 0.6085 -0.7016
6112000000.0 -0.1919 -0.8987
6116000000.0 -0.8179 -0.421
6119000000.0 -0.8105 0.3654
6122000000.0 -0.2431 0.8944
6125000000.0 0.554 0.6938
6128000000.0 0.8909 0.05056
6131000000.0 0.5166 -0.6888
6134000000.0 -0.1981 -0.8316
6138000000.0 -0.775 -0.3704
6141000000.0 -0.746 0.3297
6144000000.0 -0.2129 0.8222
6147000000.0 0.4942 0.6924
6150000000.0 0.8306 0.02776
6153000000.0 0.5358 -0.6172
6156000000.0 -0.1693 -0.7896
6159000000.0 -0.732 -0.374
6162000000.0 -0.7585 0.3457
6166000000.0 -0.1967 0.7843
6169000000.0 0.4624 0.6861
6172000000.0 0.8096 0.008607
6175000000.0 0.5602 -0.65
6178000000.0 -0.1529 -0.8345
6181000000.0 -0.7205 -0.3745
6184000000.0 -0.793 0.3359
6188000000.0 -0.1826 0.8322
6191000000.0 0.5219 0.6773
6194000000.0 0.8411 0.03527
6197000000.0 0.5714 -0.6437
6200000000.0 -0.1799 -0.8812
6203000000.0 -0.7746 -0.4142
6206000000.0 -0.8259 0.348
6209000000.0 -0.2323 0.8364
6212000000.0 0.4963 0.7305
6216000000.0 0.8423 0.03879
6219000000.0 0.6167 -0.6235
6222000000.0 -0.0996 -0.8727
6225000000.0 -0.7773 -0.4377
6228000000.0 -0.8189 0.281
6231000000.0 -0.3117 0.7979
6234000000.0 0.4179 0.7685
6238000000.0 0.8639 0.1235
6241000000.0 0.6011 -0.5665
6244000000.0 -0.05492 -0.8694
6247000000.0 -0.6864 -0.5383
6250000000.0 -0.8167 0.2346
6253000000.0 -0.3725 0.767
6256000000.0 0.3466 0.7529
6259000000.0 0.8133 0.1934
6262000000.0 0.6829 -0.4706
