! Created with skrf 1.8.0 (http://scikit-rf.org).
# Hz S RI R 50.0 
!freq ReS11 ImS11
4000000000.0 -0.2648 -1.463
4003000000.0 -1.295 -0.7157
4006000000.0 -1.397 0.5649
4009000000.0 -0.4178 1.47
4012000000.0 0.8179 1.283
4016000000.0 1.539 0.1238
4019000000.0 1.112 -1.082
4022000000.0 -0.2273 -1.536
4025000000.0 -1.358 -0.8304
4028000000.0 -1.499 0.5487
4031000000.0 -0.5089 1.522
4034000000.0 0.9153 1.319
4038000000.0 1.607 0.1291
4041000000.0 1.085 -1.162
4044000000.0 -0.2175 -1.653
4047000000.0 -1.431 -0.8408
4050000000.0 -1.523 0.5096
4053000000.0 -0.5367 1.514
4056000000.0 0.8348 1.371
4059000000.0 1.59 0.2618
4062000000.0 1.178 -1.074
4066000000.0 -0.0339 -1.587
4069000000.0 -1.266 -1.019
4072000000.0 -1.573 0.3436
4075000000.0 -0.7107 1.431
4078000000.0 0.6399 1.511
4081000000.0 1.569 0.441
4084000000.0 1.328 -0.8886
4088000000.0 0.1583 -1.653
4091000000.0 -1.164 -1.125
4094000000.0 -1.652 0.1823
4097000000.0 -0.9062 1.329
4100000000.0 0.4474 1.555
4103000000.0 1.474 0.6254
4106000000.0 1.397 -0.6958
4109000000.0 0.3648 -1.525
4112000000.0 -0.8742 -1.225
4116000000.0 -1.458 -0.1435
4119000000.0 -1.066 1.039
4122000000.0 0.1185 1.46
4125000000.0 1.155 0.8893
4128000000.0 1.435 -0.2942
4131000000.0 0.6997 -1.293
4134000000.0 -0.5064 -1.398
4138000000.0 -1.374 -0.5091
4141000000.0 -1.289 0.7069
4144000000.0 -0.3072 1.439
4147000000.0 0.9319 1.21
4150000000.0 1.532 0.04317
4153000000.0 0.9891 -1.106
4156000000.0 -0.1638 -1.5
4159000000.0 -1.278 -0.8117
4162000000.0 -1.474 0.4513
4166000000.0 -0.5811 1.386
4169000000.0 0.6758 1.308
4172000000.0 1.434 0.312
4175000000.0 1.191 -0.9189
4178000000.0 0.04479 -1.5
4181000000.0 -1.101 -0.9967
4184000000.0 -1.485 0.1913
4188000000.0 -0.7748 1.298
4191000000.0 0.4893 1.441
4194000000.0 1.429 0.5607
4197000000.0 1.309 -0.7785
4200000000.0 0.263 -1.531
4203000000.0 -1.025 -1.18
4206000000.0 -1.612 0.1243
4209000000.0 -0.9019 1.329
4212000000.0 0.4955 1.565
4216000000.0 1.56 0.5434
4219000000.0 1.425 -0.8817
4222000000.0 0.1327 -1.677
4225000000.0 -1.225 -1.114
4228000000.0 -1.619 0.3105
4231000000.0 -0.7275 1.519
4234000000.0 0.6923 1.472
4238000000.0 1.6 0.3198
4241000000.0 1.209 -1.055
4244000000.0 -0.1158 -1.577
4247000000.0 -1.317 -0.8643
4250000000.0 -1.453 0.4841
4253000000.0 -0.4794 1.449
4256000000.0 0.8415 1.249
4259000000.0 1.472 0.1242
4262000000.0 1.005 -1.127
4266000000.0 -0.2532 -1.423
4269000000.0 -1.271 -0.6939
4272000000.0 -1.347 0.5843
4275000000.0 -0.3222 1.406
4278000000.0 0.8819 1.135
4281000000.0 1.393 0.001834
4284000000.0 0.8477 -1.09
4288000000.0 -0.314 -1.342
4291000000.0 -1.215 -0.6003
4294000000.0 -1.213 0.5797
4297000000.0 -0.3348 1.279
4300000000.0 0.7738 1.041
4303000000.0 1.287 0.1034
4306000000.0 0.9219 -0.9323
4309000000.0 -0.1218 -1.255
4312000000.0 -1.038 -0.6971
4316000000.0 -1.231 0.3386
4319000000.0 -0.5894 1.157
4322000000.0 0.5113 1.152
4325000000.0 1.245 0.3535
4328000000.0 1.111 -0.7351
4331000000.0 0.1303 -1.333
4334000000.0 -0.9072 -0.9555
4338000000.0 -1.345 0.1066
4341000000.0 -0.794 1.122
4344000000.0 0.3985 1.335
4347000000.0 1.299 0.6076
4350000000.0 1.271 -0.6171
4353000000.0 0.3424 -1.393
4356000000.0 -0.8651 -1.173
4359000000.0 -1.431 -0.09586
4362000000.0 -0.996 1.077
4366000000.0 0.2332 1.477
4369000000.0 1.288 0.7556
4372000000.0 1.379 -0.4673
4375000000.0 0.551 -1.381
4378000000.0 -0.7305 -1.292
4381000000.0 -1.472 -0.2913
4384000000.0 -1.169 1.003
4388000000.0 0.03823 1.537
4391000000.0 1.24 0.9484
4394000000.0 1.497 -0.3734
4397000000.0 0.6261 -1.407
4400000000.0 -0.723 -1.402
4403000000.0 -1.53 -0.3142
4406000000.0 -1.193 1.053
4409000000.0 0.06938 1.573
4412000000.0 1.287 0.837
4416000000.0 1.461 -0.4622
4419000000.0 0.5174 -1.391
4422000000.0 -0.7877 -1.254
4425000000.0 -1.476 -0.163
4428000000.0 -1.0 1.049
4431000000.0 0.1751 1.426
4434000000.0 1.185 0.6738
4438000000.0 1.266 -0.5036
4441000000.0 0.3779 -1.306
4444000000.0 -0.7927 -1.073
4447000000.0 -1.312 -0.009724
4450000000.0 -0.7959 1.006
4453000000.0 0.2796 1.233
4456000000.0 1.149 0.5296
4459000000.0 1.122 -0.5481
4462000000.0 0.1982 -1.23
4466000000.0 -0.8265 -0.9328
4469000000.0 -1.195 0.0888
4472000000.0 -0.6497 0.9926
4475000000.0 0.3662 1.118
4478000000.0 1.119 0.3987
4481000000.0 0.966 -0.6042
4484000000.0 0.1417 -1.151
4488000000.0 -0.8216 -0.7582
4491000000.0 -1.104 0.1356
4494000000.0 -0.5854 0.942
4497000000.0 0.3985 1.085
4500000000.0 1.094 0.3586
4503000000.0 0.9361 -0.5695
4506000000.0 0.1312 -1.09
4509000000.0 -0.7632 -0.7825
4512000000.0 -1.1 0.08238
4516000000.0 -0.6439 0.9332
4519000000.0 0.3369 1.061
4522000000.0 1.053 0.452
4525000000.0 1.024 -0.5363
4528000000.0 0.2371 -1.163
4531000000.0 -0.7285 -0.9406
4534000000.0 -1.191 -0.01128
4538000000.0 -0.7741 0.9079
4541000000.0 0.2073 1.182
4544000000.0 1.028 0.6149
4547000000.0 1.147 -0.4236
4550000000.0 0.4179 -1.179
4553000000.0 -0.6433 -1.054
4556000000.0 -1.228 -0.1787
4559000000.0 -0.9685 0.8177
4562000000.0 0.004431 1.256
4566000000.0 0.9862 0.8017
4569000000.0 1.256 -0.2393
4572000000.0 0.6371 -1.116
4575000000.0 -0.4591 -1.217
4578000000.0 -1.283 -0.4203
4581000000.0 -1.128 0.7056
4584000000.0 -0.2143 1.343
4588000000.0 0.8959 1.008
4591000000.0 1.384 -0.06345
4594000000.0 0.8345 -1.123
4597000000.0 -0.3311 -1.367
4600000000.0 -1.26 -0.6118
4603000000.0 -1.238 0.5776
4606000000.0 -0.3207 1.328
4609000000.0 0.8327 1.104
4612000000.0 1.405 0.05949
4616000000.0 0.9353 -1.045
4619000000.0 -0.2182 -1.385
4622000000.0 -1.212 -0.6703
4625000000.0 -1.282 0.4543
4628000000.0 -0.434 1.3
4631000000.0 0.7299 1.131
4634000000.0 1.351 0.1297
4638000000.0 0.9413 -0.9717
4641000000.0 -0.1406 -1.311
4644000000.0 -1.109 -0.7337
4647000000.0 -1.232 0.4372
4650000000.0 -0.4107 1.235
4653000000.0 0.7032 1.086
4656000000.0 1.227 0.1433
4659000000.0 0.8614 -0.8893
4662000000.0 -0.1565 -1.213
4666000000.0 -1.012 -0.6055
4669000000.0 -1.119 0.4379
4672000000.0 -0.3391 1.114
4675000000.0 0.634 0.9514
4678000000.0 1.141 0.06609
4681000000.0 0.7709 -0.8329
4684000000.0 -0.1779 -1.06
4688000000.0 -0.9553 -0.5714
4691000000.0 -1.009 0.3649
4694000000.0 -0.3498 1.036
4697000000.0 0.5938 0.909
4700000000.0 1.11 0.06879
4703000000.0 0.7552 -0.7741
4706000000.0 -0.1565 -1.059
4709000000.0 -0.929 -0.5696
4712000000.0 -0.9832 0.4196
4716000000.0 -0.288 1.053
4719000000.0 0.6194 0.8897
4722000000.0 1.086 0.05574
4725000000.0 0.7256 -0.747
4728000000.0 -0.1357 -1.048
4731000000.0 -0.8769 -0.5502
4734000000.0 -0.9961 0.3463
4738000000.0 -0.3645 0.9679
4741000000.0 0.5206 0.9614
4744000000.0 1.037 0.1606
4747000000.0 0.8418 -0.6778
4750000000.0 -0.02101 -1.072
4753000000.0 -0.8445 -0.6946
4756000000.0 -1.063 0.1921
4759000000.0 -0.5523 0.9992
4762000000.0 0.4198 1.072
4766000000.0 1.097 0.3203
4769000000.0 0.9848 -0.6115
4772000000.0 0.1809 -1.165
4775000000.0 -0.8178 -0.8803
4778000000.0 -1.204 0.03772
4781000000.0 -0.7622 0.9414
4784000000.0 0.2558 1.185
4788000000.0 1.082 0.6122
4791000000.0 1.166 -0.4503
4794000000.0 0.428 -1.203
4797000000.0 -0.629 -1.093
4800000000.0 -1.28 -0.2125
4803000000.0 -0.9338 0.8145
4806000000.0 0.002975 1.29
4809000000.0 0.9875 0.8412
4812000000.0 1.273 -0.2481
4816000000.0 0.654 -1.142
4819000000.0 -0.4677 -1.268
4822000000.0 -1.272 -0.468
4825000000.0 -1.174 0.7297
4828000000.0 -0.2048 1.352
4831000000.0 0.9312 1.014
4834000000.0 1.39 -0.07363
4838000000.0 0.8163 -1.116
4841000000.0 -0.3474 -1.368
4844000000.0 -1.267 -0.5828
4847000000.0 -1.232 0.6327
4850000000.0 -0.3073 1.344
4853000000.0 0.857 1.098
4856000000.0 1.364 0.05665
4859000000.0 0.8709 -1.032
4862000000.0 -0.261 -1.32
4866000000.0 -1.136 -0.6338
4869000000.0 -1.22 0.5067
4872000000.0 -0.3911 1.214
4875000000.0 0.7341 1.033
4878000000.0 1.257 0.1086
4881000000.0 0.8588 -0.9035
4884000000.0 -0.1259 -1.211
4888000000.0 -0.9994 -0.5963
4891000000.0 -1.094 0.4112
4894000000.0 -0.3707 1.091
4897000000.0 0.5895 0.9573
4900000000.0 1.096 0.1246
4903000000.0 0.7837 -0.7627
4906000000.0 -0.1162 -1.08
4909000000.0 -0.8527 -0.5815
4912000000.0 -0.9773 0.3022
4916000000.0 -0.3852 0.9281
4919000000.0 0.4607 0.8796
4922000000.0 0.9428 0.1885
4925000000.0 0.7422 -0.6198
4928000000.0 -0.008427 -0.9827
4931000000.0 -0.7523 -0.5836
4934000000.0 -0.9148 0.1994
4938000000.0 -0.4492 0.8628
4941000000.0 0.3296 0.8444
4944000000.0 0.9087 0.2497
4947000000.0 0.7521 -0.5499
4950000000.0 0.09729 -0.9367
4953000000.0 -0.6792 -0.6535
4956000000.0 -0.9657 0.1313
4959000000.0 -0.5153 0.8325
4962000000.0 0.317 0.953
4966000000.0 0.9271 0.3632
4969000000.0 0.8555 -0.4944
4972000000.0 0.1626 -0.9936
4975000000.0 -0.6704 -0.7633
4978000000.0 -1.043 0.03784
4981000000.0 -0.6499 0.8146
4984000000.0 0.238 1.04
4988000000.0 0.9497 0.5047
4991000000.0 1.019 -0.4183
4994000000.0 0.3212 -1.07
4997000000.0 -0.6399 -0.9261
5000000000.0 -1.142 -0.1201
5003000000.0 -0.8303 0.8096
5006000000.0 0.09024 1.186
5009000000.0 1.001 0.7039
5012000000.0 1.17 -0.3602
5016000000.0 0.504 -1.122
5019000000.0 -0.5691 -1.112
5022000000.0 -1.241 -0.3053
5025000000.0 -1.017 0.7913
5028000000.0 -0.02631 1.265
5031000000.0 0.9875 0.8615
5034000000.0 1.279 -0.2287
5038000000.0 0.6515 -1.122
5041000000.0 -0.4636 -1.226
5044000000.0 -1.215 -0.4476
5047000000.0 -1.148 0.6268
5050000000.0 -0.2254 1.268
5053000000.0 0.8322 0.9758
5056000000.0 1.3 -0.01174
5059000000.0 0.8049 -0.9621
5062000000.0 -0.2459 -1.292
5066000000.0 -1.127 -0.6122
5069000000.0 -1.189 0.4467
5072000000.0 -0.4111 1.199
5075000000.0 0.6487 1.053
5078000000.0 1.246 0.1649
5081000000.0 0.9196 -0.8678
5084000000.0 -0.06433 -1.191
5088000000.0 -0.9296 -0.7145
5091000000.0 -1.184 0.2595
5094000000.0 -0.498 1.024
5097000000.0 0.4515 1.071
5100000000.0 1.049 0.3265
5103000000.0 0.9136 -0.6214
5106000000.0 0.1428 -1.065
5109000000.0 -0.7114 -0.8129
5112000000.0 -1.035 0.07061
5116000000.0 -0.648 0.8314
5119000000.0 0.2247 0.9995
5122000000.0 0.9567 0.464
5125000000.0 0.9416 -0.4196
5128000000.0 0.2446 -0.9675
5131000000.0 -0.5814 -0.8242
5134000000.0 -0.9849 -0.08531
5138000000.0 -0.6554 0.6913
5141000000.0 0.1454 0.935
5144000000.0 0.7831 0.4773
5147000000.0 0.8714 -0.3014
5150000000.0 0.318 -0.9012
5153000000.0 -0.4662 -0.7844
5156000000.0 -0.8981 -0.1399
5159000000.0 -0.6849 0.5975
5162000000.0 0.0608 0.9082
5166000000.0 0.7466 0.5207
5169000000.0 0.834 -0.2355
5172000000.0 0.3437 -0.8346
5175000000.0 -0.417 -0.7774
5178000000.0 -0.8558 -0.1532
5181000000.0 -0.6785 0.6168
5184000000.0 0.001197 0.9199
5188000000.0 0.7237 0.5609
5191000000.0 0.884 -0.2458
5194000000.0 0.3643 -0.8765
5197000000.0 -0.4307 -0.8364
5200000000.0 -0.9524 -0.1981
5203000000.0 -0.7098 0.6059
5206000000.0 0.01671 0.9538
5209000000.0 0.7339 0.5858
5212000000.0 0.9433 -0.2221
5216000000.0 0.4062 -0.8893
5219000000.0 -0.4123 -0.8914
5222000000.0 -0.9504 -0.2293
5225000000.0 -0.7907 0.6065
5228000000.0 -0.05255 1.024
5231000000.0 0.7535 0.6817
5234000000.0 1.005 -0.1578
5238000000.0 0.5681 -0.9009
5241000000.0 -0.3469 -1.006
5244000000.0 -1.008 -0.3657
5247000000.0 -0.9136 0.5506
5250000000.0 -0.1931 1.072
5253000000.0 0.7041 0.8288
5256000000.0 1.08 -0.01017
5259000000.0 0.656 -0.8283
5262000000.0 -0.1934 -1.064
5266000000.0 -0.9293 -0.5527
5269000000.0 -1.026 0.3858
5272000000.0 -0.3673 1.033
5275000000.0 0.5376 0.9449
5278000000.0 1.068 0.197
5281000000.0 0.8394 -0.7174
5284000000.0 0.0184 -1.111
5288000000.0 -0.8498 -0.6967
5291000000.0 -1.099 0.183
5294000000.0 -0.5695 0.9884
5297000000.0 0.3236 1.052
5300000000.0 1.046 0.4168
5303000000.0 1.002 -0.515
5306000000.0 0.2157 -1.111
5309000000.0 -0.6716 -0.9296
5312000000.0 -1.118 -0.04278
5316000000.0 -0.749 0.8698
5319000000.0 0.1505 1.123
5322000000.0 0.9565 0.6082
5325000000.0 1.095 -0.3674
5328000000.0 0.3956 -1.035
5331000000.0 -0.5551 -1.002
5334000000.0 -1.094 -0.2145
5338000000.0 -0.872 0.7189
5341000000.0 0.05208 1.062
5344000000.0 0.8783 0.6601
5347000000.0 1.102 -0.2599
5350000000.0 0.4775 -0.9335
5353000000.0 -0.4459 -0.986
5356000000.0 -1.018 -0.2612
5359000000.0 -0.8751 0.6565
5362000000.0 -0.04033 1.039
5366000000.0 0.7735 0.6764
5369000000.0 1.007 -0.1846
5372000000.0 0.4537 -0.8911
5375000000.0 -0.3966 -0.9195
5378000000.0 -0.9642 -0.2409
5381000000.0 -0.7486 0.5725
5384000000.0 0.01302 0.947
5388000000.0 0.7263 0.5564
5391000000.0 0.8758 -0.2097
5394000000.0 0.3921 -0.8368
5397000000.0 -0.3722 -0.8125
5400000000.0 -0.8406 -0.1698
5403000000.0 -0.6498 0.5855
5406000000.0 0.007629 0.8637
5409000000.0 0.6733 0.5107
5412000000.0 0.8171 -0.2008
5416000000.0 0.3557 -0.7481
5419000000.0 -0.4265 -0.7566
5422000000.0 -0.8123 -0.1674
5425000000.0 -0.6515 0.5657
5428000000.0 0.04728 0.8472
5431000000.0 0.6988 0.5335
5434000000.0 0.8466 -0.2154
5438000000.0 0.3468 -0.8168
5441000000.0 -0.3933 -0.8066
5444000000.0 -0.8885 -0.1882
5447000000.0 -0.6792 0.5382
5450000000.0 -0.005044 0.9124
5453000000.0 0.714 0.6274
5456000000.0 0.9002 -0.1834
5459000000.0 0.426 -0.8226
5462000000.0 -0.3747 -0.8592
5466000000.0 -0.9046 -0.2853
5469000000.0 -0.781 0.5149
5472000000.0 -0.1019 0.9313
5475000000.0 0.6836 0.704
5478000000.0 0.9754 -0.02708
5481000000.0 0.6016 -0.7963
5484000000.0 -0.2076 -0.9638
5488000000.0 -0.8774 -0.4666
5491000000.0 -0.9301 0.3542
5494000000.0 -0.2893 0.9868
5497000000.0 0.5291 0.8692
5500000000.0 1.043 0.135
5503000000.0 0.7684 -0.6827
5506000000.0 -0.04648 -1.072
5509000000.0 -0.8545 -0.6442
5512000000.0 -1.046 0.2622
5516000000.0 -0.4813 0.9636
5519000000.0 0.4279 1.005
5522000000.0 1.044 0.2861
5525000000.0 0.8728 -0.5603
5528000000.0 0.1226 -1.072
5531000000.0 -0.7155 -0.7495
5534000000.0 -1.063 0.03292
5538000000.0 -0.607 0.8834
5541000000.0 0.2694 1.05
5544000000.0 0.9471 0.4552
5547000000.0 0.9323 -0.4586
5550000000.0 0.2527 -1.038
5553000000.0 -0.6161 -0.8345
5556000000.0 -1.04 -0.06366
5559000000.0 -0.7259 0.7594
5562000000.0 0.1388 1.012
5566000000.0 0.8899 0.5191
5569000000.0 0.9554 -0.3181
5572000000.0 0.3683 -0.9398
5575000000.0 -0.511 -0.8324
5578000000.0 -0.9305 -0.1527
5581000000.0 -0.7328 0.6278
5584000000.0 0.04918 0.9531
5588000000.0 0.7301 0.5827
5591000000.0 0.8816 -0.2218
5594000000.0 0.3646 -0.8049
5597000000.0 -0.3933 -0.7792
5600000000.0 -0.8829 -0.2052
5603000000.0 -0.6872 0.533
5606000000.0 -0.02365 0.8376
5609000000.0 0.6566 0.5334
5612000000.0 0.8183 -0.1772
5616000000.0 0.4031 -0.7205
5619000000.0 -0.333 -0.7418
5622000000.0 -0.8059 -0.2185
5625000000.0 -0.6714 0.4738
5628000000.0 -0.02359 0.8279
5631000000.0 0.62 0.5292
5634000000.0 0.7967 -0.1346
5638000000.0 0.3979 -0.7228
5641000000.0 -0.3232 -0.7618
5644000000.0 -0.8 -0.2334
5647000000.0 -0.6637 0.4907
5650000000.0 -0.02612 0.8506
5653000000.0 0.6509 0.5517
5656000000.0 0.8478 -0.1847
5659000000.0 0.435 -0.7702
5662000000.0 -0.3346 -0.7943
5666000000.0 -0.8564 -0.2461
5669000000.0 -0.747 0.5213
5672000000.0 -0.08146 0.9111
5675000000.0 0.7036 0.6431
5678000000.0 0.9429 -0.152
5681000000.0 0.493 -0.8436
5684000000.0 -0.3378 -0.9147
5688000000.0 -0.9482 -0.3095
5691000000.0 -0.8529 0.546
5694000000.0 -0.1181 0.9969
5697000000.0 0.7162 0.7367
5700000000.0 1.025 -0.07612
5703000000.0 0.6111 -0.8693
5706000000.0 -0.3094 -1.017
5709000000.0 -0.977 -0.4403
5712000000.0 -0.977 0.4943
5716000000.0 -0.2345 1.049
5719000000.0 0.6728 0.8016
5722000000.0 1.095 0.03183
5725000000.0 0.6917 -0.8651
5728000000.0 -0.1915 -1.079
5731000000.0 -0.9419 -0.538
5734000000.0 -1.048 0.3487
5738000000.0 -0.3894 1.036
5741000000.0 0.5705 0.9621
5744000000.0 1.124 0.1523
5747000000.0 0.8704 -0.7278
5750000000.0 -0.04397 -1.131
5753000000.0 -0.8728 -0.688
5756000000.0 -1.085 0.2149
5759000000.0 -0.4945 0.9774
5762000000.0 0.4334 1.015
5766000000.0 1.074 0.3023
5769000000.0 0.9116 -0.5952
5772000000.0 0.1155 -1.098
5775000000.0 -0.7475 -0.7722
5778000000.0 -1.074 0.09241
5781000000.0 -0.6259 0.8867
5784000000.0 0.2723 1.042
5788000000.0 0.9883 0.4097
5791000000.0 0.9352 -0.4832
5794000000.0 0.2373 -1.015
5797000000.0 -0.6343 -0.8428
5800000000.0 -1.035 -0.01347
5803000000.0 -0.6207 0.805
5806000000.0 0.1725 1.002
5809000000.0 0.9066 0.4604
5812000000.0 0.9298 -0.4049
5816000000.0 0.2635 -0.9367
5819000000.0 -0.5684 -0.8054
5822000000.0 -0.9473 -0.06945
5825000000.0 -0.6304 0.6989
5828000000.0 0.1302 0.8992
5831000000.0 0.8338 0.4536
5834000000.0 0.8571 -0.3644
5838000000.0 0.2435 -0.887
5841000000.0 -0.5472 -0.7385
5844000000.0 -0.8815 -0.07401
5847000000.0 -0.6174 0.6617
5850000000.0 0.1326 0.9003
5853000000.0 0.7729 0.4287
5856000000.0 0.8198 -0.3596
5859000000.0 0.2382 -0.8623
5862000000.0 -0.5368 -0.7078
5866000000.0 -0.8552 -0.03317
5869000000.0 -0.5987 0.6401
5872000000.0 0.1633 0.8534
5875000000.0 0.7389 0.4157
5878000000.0 0.803 -0.3242
5881000000.0 0.2452 -0.8219
5884000000.0 -0.4654 -0.6971
5888000000.0 -0.8966 -0.04561
5891000000.0 -0.5779 0.652
5894000000.0 0.1042 0.8964
5897000000.0 0.731 0.4957
5900000000.0 0.836 -0.2852
5903000000.0 0.3006 -0.8274
5906000000.0 -0.4076 -0.7389
5909000000.0 -0.8861 -0.09441
5912000000.0 -0.672 0.5922
5916000000.0 0.04141 0.8801
5919000000.0 0.7561 0.5576
5922000000.0 0.8669 -0.2415
5925000000.0 0.4128 -0.8792
5928000000.0 -0.406 -0.8491
5931000000.0 -0.8818 -0.2225
5934000000.0 -0.7536 0.5721
5938000000.0 -0.05727 0.9686
5941000000.0 0.7262 0.6107
5944000000.0 0.9513 -0.141
5947000000.0 0.5208 -0.8246
5950000000.0 -0.3382 -0.9223
5953000000.0 -0.9321 -0.3629
5956000000.0 -0.8212 0.4837
5959000000.0 -0.1819 0.9765
5962000000.0 0.6354 0.7735
5966000000.0 1.011 -0.01316
5969000000.0 0.6005 -0.802
5972000000.0 -0.2346 -0.956
5975000000.0 -0.9045 -0.4367
5978000000.0 -0.9105 0.4263
5981000000.0 -0.2519 0.9984
5984000000.0 0.618 0.8237
5988000000.0 1.016 0.06516
5991000000.0 0.666 -0.7373
5994000000.0 -0.1565 -1.004
5997000000.0 -0.898 -0.5304
6000000000.0 -0.9304 0.4046
6003000000.0 -0.2681 0.9551
6006000000.0 0.5558 0.8127
6009000000.0 0.9639 0.08666
6012000000.0 0.6575 -0.7165
6016000000.0 -0.1528 -0.9346
6019000000.0 -0.8282 -0.4547
6022000000.0 -0.8649 0.3395
6025000000.0 -0.2716 0.8891
6028000000.0 0.5217 0.7344
6031000000.0 0.8997 0.03665
6034000000.0 0.6217 -0.6617
6038000000.0 -0.118 -0.8687
6041000000.0 -0.742 -0.4336
6044000000.0 -0.8128 0.3435
6047000000.0 -0.2515 0.8285
6050000000.0 0.4832 0.6812
6053000000.0 0.8313 0.05009
6056000000.0 0.5851 -0.6468
6059000000.0 -0.1602 -0.8245
6062000000.0 -0.7351 -0.4037
6066000000.0 -0.7658 0.3213
6069000000.0 -0.2136 0.8117
6072000000.0 0.5108 0.7029
6075000000.0 0.8209 0.01996
6078000000.0 0.5293 -0.6522
6081000000.0 -0.1555 -0.8039
6084000000.0 -0.7432 -0.3853
6088000000.0 -0.7588 0.3492
6091000000.0 -0.2376 0.8338
6094000000.0 0.5125 0.7082
6097000000.0 0.8749 0.06283
6100000000.0 0.5828 -0.6786
6103000000.0 -0.1447 -0.8988
6106000000.0 -0.8166 -0.4543
6109000000.0 -0.8379 0.3565
6112000000.0 -0.2565 0.8842
6116000000.0 0.5724 0.7482
6119000000.0 0.9277 0.02574
6122000000.0 0.6217 -0.6958
6125000000.0 -0.1874 -0.9495
6128000000.0 -0.9043 -0.4415
6131000000.0 -0.9089 0.3936
6134000000.0 -0.2451 0.9788
6138000000.0 0.5907 0.8066
6141000000.0 1.022 0.0461
6144000000.0 0.6691 -0.7831
6147000000.0 -0.1791 -0.9731
6150000000.0 -0.9127 -0.483
6153000000.0 -0.9425 0.4078
6156000000.0 -0.2334 0.9644
6159000000.0 0.6066 0.844
6162000000.0 1.008 0.04234
6166000000.0 0.6747 -0.7444
6169000000.0 -0.2095 -0.9976
6172000000.0 -0.8856 -0.4351
6175000000.0 -0.9074 0.404
6178000000.0 -0.2748 0.9482
6181000000.0 0.6043 0.7957
6184000000.0 0.977 0.01785
6188000000.0 0.6192 -0.7559
6191000000.0 -0.1663 -0.9402
6194000000.0 -0.8257 -0.4154
6197000000.0 -0.8312 0.3927
6200000000.0 -0.2408 0.906
6203000000.0 0.5488 0.7118
6206000000.0 0.875 0.04914
6209000000.0 0.5761 -0.6815
6212000000.0 -0.195 -0.8898
6216000000.0 -0.7975 -0.3821
6219000000.0 -0.7914 0.3921
6222000000.0 -0.2049 0.7961
6225000000.0 0.5299 0.6499
6228000000.0 0.8286 0.01702
6231000000.0 0.5418 -0.6986
6234000000.0 -0.2069 -0.8539
6238000000.0 -0.785 -0.3708
6241000000.0 -0.7446 0.3418
6244000000.0 -0.1445 0.8303
6247000000.0 0.5278 0.6288
6250000000.0 0.8043 -0.08109
6253000000.0 0.5046 -0.6739
6256000000.0 -0.2592 -0.7623
6259000000.0 -0.7485 -0.2777
6262000000.0 -0.7006 0.4575
