! Created with skrf 1.8.0 (http://scikit-rf.org).
# Hz S RI R 50.0 
!freq ReS11 ImS11
4000000000.0 0.1499 -1.5
4003000000.0 -1.032 -1.139
4006000000.0 -1.514 0.08097
4009000000.0 -0.8876 1.225
4012000000.0 0.3911 1.501
4016000000.0 1.375 0.6161
4019000000.0 1.363 -0.7045
4022000000.0 0.2747 -1.479
4025000000.0 -1.014 -1.226
4028000000.0 -1.545 0.02156
4031000000.0 -0.9354 1.254
4034000000.0 0.3742 1.536
4038000000.0 1.475 0.6154
4041000000.0 1.422 -0.728
4044000000.0 0.3231 -1.548
4047000000.0 -1.0 -1.198
4050000000.0 -1.596 0.05472
4053000000.0 -0.9914 1.211
4056000000.0 0.3603 1.553
4059000000.0 1.451 0.6601
4062000000.0 1.442 -0.6745
4066000000.0 0.4134 -1.522
4069000000.0 -0.9028 -1.325
4072000000.0 -1.605 -0.1094
4075000000.0 -1.134 1.195
4078000000.0 0.1462 1.568
4081000000.0 1.394 0.8901
4084000000.0 1.584 -0.4841
4088000000.0 0.6166 -1.551
4091000000.0 -0.8171 -1.439
4094000000.0 -1.641 -0.2726
4097000000.0 -1.246 1.057
4100000000.0 0.04697 1.659
4103000000.0 1.218 0.9935
4106000000.0 1.571 -0.2691
4109000000.0 0.7682 -1.375
4112000000.0 -0.5362 -1.44
4116000000.0 -1.443 -0.5198
4119000000.0 -1.336 0.7167
4122000000.0 -0.3166 1.497
4125000000.0 0.9264 1.2
4128000000.0 1.523 0.07922
4131000000.0 1.05 -1.064
4134000000.0 -0.1057 -1.465
4138000000.0 -1.234 -0.8974
4141000000.0 -1.459 0.3637
4144000000.0 -0.7057 1.363
4147000000.0 0.5786 1.42
4150000000.0 1.459 0.4648
4153000000.0 1.305 -0.7976
4156000000.0 0.21 -1.54
4159000000.0 -1.018 -1.146
4162000000.0 -1.542 0.03871
4166000000.0 -0.9679 1.172
4169000000.0 0.2699 1.484
4172000000.0 1.327 0.7635
4175000000.0 1.421 -0.5034
4178000000.0 0.5573 -1.385
4181000000.0 -0.7096 -1.312
4184000000.0 -1.44 -0.3102
4188000000.0 -1.216 0.957
4191000000.0 -0.04231 1.5
4194000000.0 1.152 1.058
4197000000.0 1.536 -0.2375
4200000000.0 0.8428 -1.325
4203000000.0 -0.5116 -1.512
4206000000.0 -1.506 -0.572
4209000000.0 -1.405 0.8106
4212000000.0 -0.2806 1.624
4216000000.0 1.134 1.262
4219000000.0 1.695 -0.09656
4222000000.0 0.9761 -1.391
4225000000.0 -0.5465 -1.624
4228000000.0 -1.633 -0.6148
4231000000.0 -1.474 0.9261
4234000000.0 -0.1701 1.684
4238000000.0 1.229 1.164
4241000000.0 1.67 -0.2227
4244000000.0 0.791 -1.491
4247000000.0 -0.6416 -1.518
4250000000.0 -1.614 -0.4004
4253000000.0 -1.312 1.055
4256000000.0 0.04595 1.639
4259000000.0 1.28 0.9939
4262000000.0 1.547 -0.3838
4266000000.0 0.6429 -1.473
4269000000.0 -0.7505 -1.405
4272000000.0 -1.552 -0.2485
4275000000.0 -1.123 1.073
4278000000.0 0.1411 1.529
4281000000.0 1.302 0.819
4284000000.0 1.394 -0.5434
4288000000.0 0.4754 -1.437
4291000000.0 -0.8246 -1.211
4294000000.0 -1.389 -0.1714
4297000000.0 -0.9874 0.9956
4300000000.0 0.1682 1.34
4303000000.0 1.12 0.74
4306000000.0 1.25 -0.3965
4309000000.0 0.5232 -1.216
4312000000.0 -0.6204 -1.181
4316000000.0 -1.276 -0.27
4319000000.0 -1.026 0.8104
4322000000.0 -0.06015 1.322
4325000000.0 0.996 0.8879
4328000000.0 1.297 -0.1875
4331000000.0 0.7154 -1.122
4334000000.0 -0.3885 -1.313
4338000000.0 -1.256 -0.5184
4341000000.0 -1.218 0.6125
4344000000.0 -0.2741 1.339
4347000000.0 0.9087 1.079
4350000000.0 1.39 0.05821
4353000000.0 0.9339 -1.054
4356000000.0 -0.2177 -1.397
4359000000.0 -1.271 -0.7301
4362000000.0 -1.328 0.4884
4366000000.0 -0.5017 1.34
4369000000.0 0.6743 1.243
4372000000.0 1.43 0.2881
4375000000.0 1.123 -0.9024
4378000000.0 0.01973 -1.515
4381000000.0 -1.102 -0.9649
4384000000.0 -1.485 0.2036
4388000000.0 -0.7678 1.297
4391000000.0 0.519 1.445
4394000000.0 1.49 0.5435
4397000000.0 1.348 -0.7803
4400000000.0 0.2422 -1.55
4403000000.0 -1.065 -1.175
4406000000.0 -1.583 0.1209
4409000000.0 -0.938 1.287
4412000000.0 0.4149 1.545
4416000000.0 1.49 0.6416
4419000000.0 1.395 -0.7502
4422000000.0 0.2666 -1.572
4425000000.0 -0.9935 -1.223
4428000000.0 -1.55 0.02463
4431000000.0 -0.9176 1.258
4434000000.0 0.3609 1.519
4438000000.0 1.383 0.5868
4441000000.0 1.34 -0.7301
4444000000.0 0.2483 -1.476
4447000000.0 -1.011 -1.101
4450000000.0 -1.487 0.07515
4453000000.0 -0.7952 1.177
4456000000.0 0.4545 1.394
4459000000.0 1.357 0.4762
4462000000.0 1.206 -0.7565
4466000000.0 0.1088 -1.376
4469000000.0 -0.9679 -0.9426
4472000000.0 -1.33 0.2288
4475000000.0 -0.6032 1.155
4478000000.0 0.4901 1.155
4481000000.0 1.192 0.2773
4484000000.0 0.9555 -0.722
4488000000.0 0.03968 -1.173
4491000000.0 -0.9263 -0.7357
4494000000.0 -1.114 0.2871
4497000000.0 -0.499 1.047
4500000000.0 0.5112 1.007
4503000000.0 1.061 0.2067
4506000000.0 0.8176 -0.7192
4509000000.0 -0.02399 -1.085
4512000000.0 -0.8777 -0.6702
4516000000.0 -1.042 0.2657
4519000000.0 -0.4319 1.002
4522000000.0 0.4822 0.9666
4525000000.0 1.04 0.2119
4528000000.0 0.829 -0.7024
4531000000.0 -0.0427 -1.093
4534000000.0 -0.8681 -0.6629
4538000000.0 -1.052 0.2441
4541000000.0 -0.4869 0.9989
4544000000.0 0.4501 1.005
4547000000.0 1.083 0.287
4550000000.0 0.8986 -0.6495
4553000000.0 0.07362 -1.113
4556000000.0 -0.8461 -0.7743
4559000000.0 -1.138 0.1332
4562000000.0 -0.6164 0.9918
4566000000.0 0.3203 1.122
4569000000.0 1.104 0.4598
4572000000.0 1.061 -0.526
4575000000.0 0.2761 -1.165
4578000000.0 -0.755 -0.9575
4581000000.0 -1.262 -0.07456
4584000000.0 -0.8531 0.9291
4588000000.0 0.1616 1.261
4591000000.0 1.13 0.672
4594000000.0 1.207 -0.4363
4597000000.0 0.4584 -1.227
4600000000.0 -0.6726 -1.161
4603000000.0 -1.32 -0.2461
4606000000.0 -1.021 0.8907
4609000000.0 0.01375 1.338
4612000000.0 1.055 0.8851
4616000000.0 1.328 -0.2892
4619000000.0 0.6407 -1.218
4622000000.0 -0.552 -1.265
4625000000.0 -1.312 -0.4065
4628000000.0 -1.152 0.7697
4631000000.0 -0.1038 1.395
4634000000.0 1.01 0.9666
4638000000.0 1.382 -0.1745
4641000000.0 0.778 -1.155
4644000000.0 -0.4194 -1.299
4647000000.0 -1.295 -0.4662
4650000000.0 -1.152 0.7015
4653000000.0 -0.1782 1.343
4656000000.0 0.9408 1.003
4659000000.0 1.323 -0.1311
4662000000.0 0.7268 -1.124
4666000000.0 -0.4521 -1.267
4669000000.0 -1.182 -0.4509
4672000000.0 -1.097 0.6687
4675000000.0 -0.1474 1.231
4678000000.0 0.8167 0.9032
4681000000.0 1.197 -0.08414
4684000000.0 0.6475 -0.9898
4688000000.0 -0.3892 -1.166
4691000000.0 -1.114 -0.3864
4694000000.0 -0.9798 0.6016
4697000000.0 -0.1552 1.141
4700000000.0 0.8045 0.8281
4703000000.0 1.107 -0.1515
4706000000.0 0.5887 -0.9624
4709000000.0 -0.3533 -1.066
4712000000.0 -1.059 -0.3374
4716000000.0 -0.9088 0.6343
4719000000.0 -0.06435 1.093
4722000000.0 0.8089 0.6931
4725000000.0 1.012 -0.1903
4728000000.0 0.4893 -0.9037
4731000000.0 -0.4022 -0.9482
4734000000.0 -0.9694 -0.2727
4738000000.0 -0.8337 0.5876
4741000000.0 -0.06829 1.012
4744000000.0 0.7352 0.6884
4747000000.0 0.9824 -0.1137
4750000000.0 0.5191 -0.878
4753000000.0 -0.3235 -0.9253
4756000000.0 -0.9636 -0.3203
4759000000.0 -0.8805 0.5348
4762000000.0 -0.1661 1.011
4766000000.0 0.6987 0.7794
4769000000.0 1.071 -0.008907
4772000000.0 0.6268 -0.8674
4775000000.0 -0.2937 -1.039
4778000000.0 -0.9783 -0.4477
4781000000.0 -1.01 0.4532
4784000000.0 -0.3074 1.069
4788000000.0 0.631 0.8928
4791000000.0 1.111 0.119
4794000000.0 0.8229 -0.8107
4797000000.0 -0.0719 -1.129
4800000000.0 -0.952 -0.6796
4803000000.0 -1.145 0.2629
4806000000.0 -0.5305 1.055
4809000000.0 0.4584 1.111
4812000000.0 1.141 0.3694
4816000000.0 1.011 -0.668
4819000000.0 0.162 -1.218
4822000000.0 -0.8822 -0.9176
4825000000.0 -1.302 0.09243
4828000000.0 -0.7642 1.066
4831000000.0 0.3335 1.274
4834000000.0 1.202 0.5748
4838000000.0 1.232 -0.5943
4841000000.0 0.3221 -1.334
4844000000.0 -0.844 -1.077
4847000000.0 -1.377 -0.05921
4850000000.0 -0.9304 1.031
4853000000.0 0.2082 1.353
4856000000.0 1.175 0.7097
4859000000.0 1.283 -0.4816
4862000000.0 0.4592 -1.304
4866000000.0 -0.7137 -1.139
4869000000.0 -1.348 -0.1942
4872000000.0 -0.9813 0.9421
4875000000.0 0.1166 1.353
4878000000.0 1.094 0.7713
4881000000.0 1.284 -0.3624
4884000000.0 0.5145 -1.247
4888000000.0 -0.6691 -1.098
4891000000.0 -1.263 -0.2251
4894000000.0 -0.9688 0.83
4897000000.0 0.0467 1.273
4900000000.0 0.9888 0.7342
4903000000.0 1.152 -0.2929
4906000000.0 0.4766 -1.063
4909000000.0 -0.5139 -1.006
4912000000.0 -1.109 -0.2333
4916000000.0 -0.86 0.6704
4919000000.0 -0.01496 1.065
4922000000.0 0.7844 0.6748
4925000000.0 0.9935 -0.1844
4928000000.0 0.4791 -0.8815
4931000000.0 -0.3749 -0.8947
4934000000.0 -0.9251 -0.2692
4938000000.0 -0.8024 0.5251
4941000000.0 -0.07684 0.9637
4944000000.0 0.6781 0.6815
4947000000.0 0.9548 -0.1013
4950000000.0 0.5141 -0.815
4953000000.0 -0.2797 -0.9188
4956000000.0 -0.8788 -0.3388
4959000000.0 -0.8259 0.481
4962000000.0 -0.1315 0.9473
4966000000.0 0.6548 0.693
4969000000.0 0.9569 -0.08172
4972000000.0 0.5495 -0.754
4975000000.0 -0.2343 -0.9271
4978000000.0 -0.8821 -0.4054
4981000000.0 -0.8865 0.4547
4984000000.0 -0.2291 0.9728
4988000000.0 0.5916 0.7913
4991000000.0 0.9887 0.03402
4994000000.0 0.6888 -0.7684
4997000000.0 -0.1507 -1.039
5000000000.0 -0.927 -0.548
5003000000.0 -1.022 0.3516
5006000000.0 -0.3675 1.034
5009000000.0 0.5655 0.9451
5012000000.0 1.143 0.2164
5016000000.0 0.8748 -0.7637
5019000000.0 -0.03326 -1.194
5022000000.0 -0.9527 -0.7299
5025000000.0 -1.18 0.2795
5028000000.0 -0.5196 1.096
5031000000.0 0.5278 1.133
5034000000.0 1.202 0.329
5038000000.0 1.063 -0.6973
5041000000.0 0.09739 -1.247
5044000000.0 -0.9205 -0.8985
5047000000.0 -1.264 0.1165
5050000000.0 -0.7306 1.071
5053000000.0 0.3118 1.249
5056000000.0 1.161 0.5477
5059000000.0 1.141 -0.5772
5062000000.0 0.3365 -1.272
5066000000.0 -0.7862 -1.051
5069000000.0 -1.299 -0.07466
5072000000.0 -0.8685 0.9355
5075000000.0 0.1695 1.288
5078000000.0 1.114 0.683
5081000000.0 1.248 -0.3886
5084000000.0 0.4674 -1.209
5088000000.0 -0.6112 -1.106
5091000000.0 -1.223 -0.2502
5094000000.0 -1.005 0.7877
5097000000.0 -0.003072 1.186
5100000000.0 0.8764 0.7967
5103000000.0 1.178 -0.2151
5106000000.0 0.5826 -1.022
5109000000.0 -0.3456 -1.051
5112000000.0 -1.045 -0.3945
5116000000.0 -1.006 0.5171
5119000000.0 -0.1839 1.121
5122000000.0 0.7382 0.8646
5125000000.0 1.052 0.0004889
5128000000.0 0.6844 -0.792
5131000000.0 -0.1724 -1.028
5134000000.0 -0.8927 -0.561
5138000000.0 -0.9974 0.34
5141000000.0 -0.3407 0.9497
5144000000.0 0.4731 0.8556
5147000000.0 1.001 0.1171
5150000000.0 0.718 -0.6018
5153000000.0 -0.0489 -0.9419
5156000000.0 -0.7457 -0.5612
5159000000.0 -0.918 0.2041
5162000000.0 -0.379 0.8227
5166000000.0 0.363 0.8236
5169000000.0 0.8543 0.268
5172000000.0 0.7541 -0.5305
5175000000.0 0.06933 -0.9192
5178000000.0 -0.6393 -0.636
5181000000.0 -0.9616 0.1284
5184000000.0 -0.4531 0.8344
5188000000.0 0.3344 0.8562
5191000000.0 0.8853 0.2923
5194000000.0 0.7729 -0.5562
5197000000.0 0.0661 -0.9398
5200000000.0 -0.6597 -0.647
5203000000.0 -0.9113 0.1169
5206000000.0 -0.4631 0.8152
5209000000.0 0.3532 0.8825
5212000000.0 0.8999 0.3031
5216000000.0 0.8076 -0.5258
5219000000.0 0.09041 -0.9558
5222000000.0 -0.6939 -0.6708
5225000000.0 -0.9868 0.113
5228000000.0 -0.5263 0.8514
5231000000.0 0.3119 0.9475
5234000000.0 0.9436 0.343
5238000000.0 0.8771 -0.5053
5241000000.0 0.1534 -1.002
5244000000.0 -0.6915 -0.7464
5247000000.0 -1.013 0.02429
5250000000.0 -0.629 0.8603
5253000000.0 0.2395 1.019
5256000000.0 0.957 0.4397
5259000000.0 0.961 -0.4224
5262000000.0 0.2715 -1.023
5266000000.0 -0.6396 -0.8861
5269000000.0 -1.053 -0.09059
5272000000.0 -0.7618 0.7528
5275000000.0 0.08555 1.084
5278000000.0 0.8845 0.6279
5281000000.0 1.051 -0.2874
5284000000.0 0.4646 -1.006
5288000000.0 -0.4234 -0.9916
5291000000.0 -1.047 -0.3187
5294000000.0 -0.9282 0.6281
5297000000.0 -0.1356 1.097
5300000000.0 0.7847 0.8166
5303000000.0 1.103 -0.004833
5306000000.0 0.7145 -0.8777
5309000000.0 -0.238 -1.125
5312000000.0 -0.9782 -0.5637
5316000000.0 -1.07 0.4049
5319000000.0 -0.3721 1.094
5322000000.0 0.5927 0.9987
5325000000.0 1.128 0.164
5328000000.0 0.8599 -0.7382
5331000000.0 -0.01683 -1.127
5334000000.0 -0.9148 -0.7351
5338000000.0 -1.145 0.2201
5341000000.0 -0.567 1.001
5344000000.0 0.4054 1.062
5347000000.0 1.039 0.3397
5350000000.0 0.987 -0.6132
5353000000.0 0.1601 -1.112
5356000000.0 -0.767 -0.8318
5359000000.0 -1.101 0.0615
5362000000.0 -0.6583 0.9245
5366000000.0 0.2397 1.096
5369000000.0 1.045 0.4668
5372000000.0 0.9885 -0.4805
5375000000.0 0.2653 -1.027
5378000000.0 -0.6545 -0.8408
5381000000.0 -1.071 -0.02666
5384000000.0 -0.6759 0.8051
5388000000.0 0.1877 1.012
5391000000.0 0.9122 0.4473
5394000000.0 0.9058 -0.4168
5397000000.0 0.2163 -0.9709
5400000000.0 -0.6014 -0.8101
5403000000.0 -0.9703 -0.02538
5406000000.0 -0.6206 0.7137
5409000000.0 0.2204 0.9117
5412000000.0 0.8662 0.4179
5416000000.0 0.8016 -0.3983
5419000000.0 0.2055 -0.8738
5422000000.0 -0.5714 -0.7025
5425000000.0 -0.8752 0.001555
5428000000.0 -0.5642 0.6914
5431000000.0 0.207 0.8512
5434000000.0 0.7761 0.3724
5438000000.0 0.7909 -0.3599
5441000000.0 0.1842 -0.84
5444000000.0 -0.5594 -0.7094
5447000000.0 -0.8784 0.04788
5450000000.0 -0.5109 0.7231
5453000000.0 0.22 0.8451
5456000000.0 0.7674 0.3817
5459000000.0 0.7619 -0.3906
5462000000.0 0.1823 -0.8726
5466000000.0 -0.4934 -0.7075
5469000000.0 -0.8706 -0.009128
5472000000.0 -0.5992 0.6819
5475000000.0 0.1034 0.8641
5478000000.0 0.7595 0.4308
5481000000.0 0.8433 -0.3014
5484000000.0 0.2925 -0.8721
5488000000.0 -0.4423 -0.81
5491000000.0 -0.9368 -0.1533
5494000000.0 -0.7133 0.6479
5497000000.0 0.0002536 0.9853
5500000000.0 0.7654 0.6142
5503000000.0 0.9693 -0.1927
5506000000.0 0.4626 -0.8473
5509000000.0 -0.3449 -0.9182
5512000000.0 -0.9453 -0.3136
5516000000.0 -0.8471 0.4982
5519000000.0 -0.1724 0.9432
5522000000.0 0.6367 0.7652
5525000000.0 1.011 -0.01901
5528000000.0 0.639 -0.7751
5531000000.0 -0.1652 -1.034
5534000000.0 -0.8991 -0.5245
5538000000.0 -0.9924 0.3599
5541000000.0 -0.377 0.9872
5544000000.0 0.5237 0.9368
5547000000.0 1.046 0.196
5550000000.0 0.806 -0.6881
5553000000.0 0.01755 -1.065
5556000000.0 -0.7928 -0.7092
5559000000.0 -1.042 0.1986
5562000000.0 -0.5331 0.9118
5566000000.0 0.3577 0.965
5569000000.0 1.011 0.3501
5572000000.0 0.9298 -0.5302
5575000000.0 0.1834 -1.044
5578000000.0 -0.6823 -0.7522
5581000000.0 -1.032 0.01649
5584000000.0 -0.6344 0.788
5588000000.0 0.23 1.006
5591000000.0 0.866 0.4687
5594000000.0 0.9125 -0.3786
5597000000.0 0.3005 -0.9515
5600000000.0 -0.5463 -0.817
5603000000.0 -0.956 -0.0861
5606000000.0 -0.6544 0.68
5609000000.0 0.07552 0.9477
5612000000.0 0.762 0.5233
5616000000.0 0.8717 -0.2764
5619000000.0 0.3635 -0.8272
5622000000.0 -0.4225 -0.7813
5625000000.0 -0.8591 -0.1792
5628000000.0 -0.673 0.5757
5631000000.0 0.002193 0.8852
5634000000.0 0.7012 0.5517
5638000000.0 0.8323 -0.1948
5641000000.0 0.3639 -0.7895
5644000000.0 -0.3748 -0.7516
5647000000.0 -0.8281 -0.1927
5650000000.0 -0.6988 0.5367
5653000000.0 -0.0183 0.8514
5656000000.0 0.6415 0.5475
5659000000.0 0.8541 -0.1756
5662000000.0 0.3659 -0.7656
5666000000.0 -0.3581 -0.7933
5669000000.0 -0.8492 -0.2056
5672000000.0 -0.6836 0.5074
5675000000.0 -0.008743 0.8918
5678000000.0 0.6976 0.5513
5681000000.0 0.8612 -0.206
5684000000.0 0.4064 -0.8083
5688000000.0 -0.4176 -0.851
5691000000.0 -0.8779 -0.2394
5694000000.0 -0.7448 0.586
5697000000.0 0.001833 0.954
5700000000.0 0.7359 0.6049
5703000000.0 0.9295 -0.1871
5706000000.0 0.4644 -0.8823
5709000000.0 -0.3992 -0.9327
5712000000.0 -0.9411 -0.2694
5716000000.0 -0.8305 0.5748
5719000000.0 -0.09564 1.005
5722000000.0 0.7312 0.7241
5725000000.0 1.026 -0.1098
5728000000.0 0.5346 -0.8858
5731000000.0 -0.3013 -0.9982
5734000000.0 -1.007 -0.3857
5738000000.0 -0.9184 0.498
5741000000.0 -0.2017 1.052
5744000000.0 0.6755 0.8214
5747000000.0 1.044 0.0197
5750000000.0 0.6874 -0.8253
5753000000.0 -0.1975 -1.068
5756000000.0 -0.9678 -0.5718
5759000000.0 -1.033 0.3863
5762000000.0 -0.3606 1.041
5766000000.0 0.5545 0.9265
5769000000.0 1.118 0.1376
5772000000.0 0.7995 -0.7181
5775000000.0 -0.03521 -1.154
5778000000.0 -0.8853 -0.662
5781000000.0 -1.086 0.2049
5784000000.0 -0.5333 0.9466
5788000000.0 0.4119 1.042
5791000000.0 1.036 0.373
5794000000.0 0.9124 -0.5767
5797000000.0 0.13 -1.074
5800000000.0 -0.7253 -0.8418
5803000000.0 -1.071 0.0799
5806000000.0 -0.6597 0.8473
5809000000.0 0.2581 1.035
5812000000.0 0.9583 0.4797
5816000000.0 0.9831 -0.4131
5819000000.0 0.2966 -0.9823
5822000000.0 -0.602 -0.8723
5825000000.0 -1.034 -0.07813
5828000000.0 -0.715 0.7466
5831000000.0 0.1202 0.9998
5834000000.0 0.8372 0.5598
5838000000.0 0.9699 -0.2826
5841000000.0 0.3912 -0.916
5844000000.0 -0.4733 -0.8848
5847000000.0 -0.9631 -0.1946
5850000000.0 -0.7846 0.6341
5853000000.0 0.0292 0.9562
5856000000.0 0.7644 0.6394
5859000000.0 0.9258 -0.211
5862000000.0 0.4014 -0.8791
5866000000.0 -0.4196 -0.855
5869000000.0 -0.921 -0.1788
5872000000.0 -0.741 0.5769
5875000000.0 0.006156 0.94
5878000000.0 0.698 0.5655
5881000000.0 0.8762 -0.1441
5884000000.0 0.4043 -0.8022
5888000000.0 -0.3662 -0.7681
5891000000.0 -0.8564 -0.223
5894000000.0 -0.7084 0.5221
5897000000.0 -0.02345 0.8493
5900000000.0 0.6751 0.593
5903000000.0 0.8397 -0.1295
5906000000.0 0.4122 -0.772
5909000000.0 -0.3 -0.8171
5912000000.0 -0.8165 -0.2435
5916000000.0 -0.723 0.5
5919000000.0 -0.106 0.8618
5922000000.0 0.6046 0.5888
5925000000.0 0.8401 -0.09139
5928000000.0 0.4666 -0.7014
5931000000.0 -0.2238 -0.8358
5934000000.0 -0.8104 -0.3171
5938000000.0 -0.7845 0.3752
5941000000.0 -0.1752 0.8732
5944000000.0 0.5361 0.6565
5947000000.0 0.9132 0.03427
5950000000.0 0.5881 -0.679
5953000000.0 -0.1353 -0.8647
5956000000.0 -0.7674 -0.436
5959000000.0 -0.857 0.2889
5962000000.0 -0.3125 0.8227
5966000000.0 0.461 0.8012
5969000000.0 0.8976 0.1456
5972000000.0 0.6945 -0.5862
5975000000.0 -0.006028 -0.9248
5978000000.0 -0.7226 -0.6086
5981000000.0 -0.9276 0.1469
5984000000.0 -0.4824 0.8514
5988000000.0 0.3373 0.9186
5991000000.0 0.8855 0.3236
5994000000.0 0.8498 -0.4879
5997000000.0 0.1428 -0.9536
6000000000.0 -0.6336 -0.7835
6003000000.0 -1.013 0.03254
6006000000.0 -0.641 0.7814
6009000000.0 0.2256 0.9659
6012000000.0 0.8728 0.4713
6016000000.0 0.9044 -0.386
6019000000.0 0.2798 -0.9589
6022000000.0 -0.5511 -0.8418
6025000000.0 -0.9849 -0.1006
6028000000.0 -0.7323 0.6784
6031000000.0 0.09568 0.997
6034000000.0 0.8339 0.5446
6038000000.0 0.943 -0.2545
6041000000.0 0.4119 -0.8945
6044000000.0 -0.4554 -0.8426
6047000000.0 -0.9689 -0.2157
6050000000.0 -0.7477 0.6324
6053000000.0 0.01235 0.9773
6056000000.0 0.7901 0.6165
6059000000.0 0.9641 -0.2427
6062000000.0 0.415 -0.8416
6066000000.0 -0.3863 -0.8632
6069000000.0 -0.9126 -0.2455
6072000000.0 -0.7452 0.539
6075000000.0 -0.04413 0.9076
6078000000.0 0.6806 0.6271
6081000000.0 0.8893 -0.1914
6084000000.0 0.4439 -0.784
6088000000.0 -0.3366 -0.813
6091000000.0 -0.8753 -0.2852
6094000000.0 -0.731 0.4729
6097000000.0 -0.1027 0.861
6100000000.0 0.6183 0.6322
6103000000.0 0.8841 -0.1048
6106000000.0 0.4632 -0.71
6109000000.0 -0.263 -0.8001
6112000000.0 -0.7967 -0.2884
6116000000.0 -0.7351 0.4497
6119000000.0 -0.1356 0.8592
6122000000.0 0.6178 0.6289
6125000000.0 0.8587 -0.06563
6128000000.0 0.5025 -0.7009
6131000000.0 -0.249 -0.7927
6134000000.0 -0.812 -0.3231
6138000000.0 -0.7637 0.4036
6141000000.0 -0.133 0.8595
6144000000.0 0.538 0.6556
6147000000.0 0.8615 0.001423
6150000000.0 0.5191 -0.6856
6153000000.0 -0.1708 -0.8528
6156000000.0 -0.7648 -0.4148
6159000000.0 -0.7974 0.3427
6162000000.0 -0.2224 0.8644
6166000000.0 0.5141 0.708
6169000000.0 0.8882 0.02835
6172000000.0 0.5808 -0.6884
6175000000.0 -0.1216 -0.9094
6178000000.0 -0.7632 -0.4653
6181000000.0 -0.8754 0.3209
6184000000.0 -0.2902 0.8837
6188000000.0 0.4743 0.8111
6191000000.0 0.9262 0.108
6194000000.0 0.7169 -0.6113
6197000000.0 -0.06851 -0.8622
6200000000.0 -0.7322 -0.5171
6203000000.0 -0.8852 0.2416
6206000000.0 -0.3691 0.8528
6209000000.0 0.4054 0.82
6212000000.0 0.9391 0.2245
6216000000.0 0.7426 -0.5516
6219000000.0 0.06221 -0.9169
6222000000.0 -0.6691 -0.605
6225000000.0 -0.8905 0.121
6228000000.0 -0.4839 0.7645
6231000000.0 0.2827 0.8564
6234000000.0 0.8273 0.3285
6238000000.0 0.7775 -0.4737
6241000000.0 0.1408 -0.8903
6244000000.0 -0.5617 -0.6705
6247000000.0 -0.8433 0.0168
6250000000.0 -0.544 0.6923
6253000000.0 0.1586 0.8201
6256000000.0 0.7558 0.4186
6259000000.0 0.7803 -0.2663
6262000000.0 0.285 -0.7562
6266000000.0 -0.4331 -0.7
6269000000.0 -0.813 -0.1406
