! Created with skrf 1.8.0 (http://scikit-rf.org).
# Hz S RI R 50.0 
!freq ReS11 ImS11
4000000000.0 -0.2696 -1.512
4003000000.0 -1.291 -0.728
4006000000.0 -1.411 0.6125
4009000000.0 -0.3922 1.498
4012000000.0 0.8657 1.275
4016000000.0 1.548 0.09182
4019000000.0 1.027 -1.13
4022000000.0 -0.2617 -1.541
4025000000.0 -1.339 -0.7862
4028000000.0 -1.465 0.5764
4031000000.0 -0.4674 1.522
4034000000.0 0.8642 1.335
4038000000.0 1.615 0.1259
4041000000.0 1.161 -1.2
4044000000.0 -0.2337 -1.608
4047000000.0 -1.442 -0.7924
4050000000.0 -1.543 0.5673
4053000000.0 -0.5299 1.53
4056000000.0 0.8805 1.362
4059000000.0 1.612 0.2245
4062000000.0 1.18 -1.079
4066000000.0 -0.08386 -1.618
4069000000.0 -1.272 -0.9251
4072000000.0 -1.61 0.3668
4075000000.0 -0.708 1.52
4078000000.0 0.6491 1.502
4081000000.0 1.622 0.4572
4084000000.0 1.363 -0.9609
4088000000.0 0.09853 -1.64
4091000000.0 -1.169 -1.133
4094000000.0 -1.634 0.1944
4097000000.0 -0.8987 1.368
4100000000.0 0.4968 1.553
4103000000.0 1.467 0.6098
4106000000.0 1.39 -0.731
4109000000.0 0.3405 -1.521
4112000000.0 -0.9139 -1.232
4116000000.0 -1.503 -0.07668
4119000000.0 -1.042 1.072
4122000000.0 0.1465 1.466
4125000000.0 1.212 0.8407
4128000000.0 1.424 -0.3269
4131000000.0 0.661 -1.322
4134000000.0 -0.5233 -1.379
4138000000.0 -1.402 -0.5017
4141000000.0 -1.282 0.7341
4144000000.0 -0.268 1.475
4147000000.0 0.9411 1.185
4150000000.0 1.535 -0.009863
4153000000.0 0.9679 -1.136
4156000000.0 -0.2517 -1.478
4159000000.0 -1.274 -0.7865
4162000000.0 -1.424 0.4965
4166000000.0 -0.5447 1.38
4169000000.0 0.7289 1.314
4172000000.0 1.447 0.2844
4175000000.0 1.175 -0.9658
4178000000.0 0.02613 -1.479
4181000000.0 -1.149 -0.949
4184000000.0 -1.494 0.2984
4188000000.0 -0.7397 1.336
4191000000.0 0.5053 1.426
4194000000.0 1.428 0.5041
4197000000.0 1.33 -0.8315
4200000000.0 0.182 -1.6
4203000000.0 -1.098 -1.146
4206000000.0 -1.611 0.1854
4209000000.0 -0.8593 1.386
4212000000.0 0.5746 1.546
4216000000.0 1.603 0.506
4219000000.0 1.335 -0.9301
4222000000.0 0.08575 -1.676
4225000000.0 -1.298 -1.062
4228000000.0 -1.606 0.3868
4231000000.0 -0.6535 1.511
4234000000.0 0.7901 1.436
4238000000.0 1.602 0.2308
4241000000.0 1.146 -1.143
4244000000.0 -0.2104 -1.527
4247000000.0 -1.326 -0.7844
4250000000.0 -1.437 0.5678
4253000000.0 -0.4398 1.473
4256000000.0 0.8962 1.178
4259000000.0 1.506 -0.02614
4262000000.0 0.9476 -1.208
4266000000.0 -0.3223 -1.474
4269000000.0 -1.3 -0.6501
4272000000.0 -1.339 0.6535
4275000000.0 -0.2437 1.404
4278000000.0 0.952 1.079
4281000000.0 1.365 -0.0784
4284000000.0 0.8386 -1.109
4288000000.0 -0.3501 -1.3
4291000000.0 -1.242 -0.5512
4294000000.0 -1.182 0.6339
4297000000.0 -0.2813 1.295
4300000000.0 0.8198 0.9951
4303000000.0 1.299 0.02501
4306000000.0 0.8338 -0.9732
4309000000.0 -0.1633 -1.282
4312000000.0 -1.088 -0.6652
4316000000.0 -1.241 0.3794
4319000000.0 -0.4916 1.201
4322000000.0 0.5956 1.153
4325000000.0 1.298 0.2978
4328000000.0 1.066 -0.8133
4331000000.0 0.08037 -1.405
4334000000.0 -0.9645 -0.9326
4338000000.0 -1.377 0.1874
4341000000.0 -0.759 1.197
4344000000.0 0.4326 1.346
4347000000.0 1.337 0.5615
4350000000.0 1.284 -0.6738
4353000000.0 0.2506 -1.406
4356000000.0 -0.9336 -1.134
4359000000.0 -1.46 0.0171
4362000000.0 -0.8973 1.128
4366000000.0 0.3081 1.426
4369000000.0 1.28 0.7095
4372000000.0 1.407 -0.522
4375000000.0 0.4705 -1.408
4378000000.0 -0.8183 -1.293
4381000000.0 -1.544 -0.2116
4384000000.0 -1.154 1.08
4388000000.0 0.1513 1.544
4391000000.0 1.332 0.8674
4394000000.0 1.477 -0.4824
4397000000.0 0.5404 -1.497
4400000000.0 -0.8466 -1.343
4403000000.0 -1.601 -0.1883
4406000000.0 -1.085 1.114
4409000000.0 0.1796 1.54
4412000000.0 1.286 0.7605
4416000000.0 1.379 -0.5968
4419000000.0 0.389 -1.438
4422000000.0 -0.8903 -1.192
4425000000.0 -1.483 -0.05358
4428000000.0 -0.9288 1.122
4431000000.0 0.32 1.39
4434000000.0 1.231 0.6114
4438000000.0 1.198 -0.6303
4441000000.0 0.2506 -1.33
4444000000.0 -0.8684 -1.005
4447000000.0 -1.293 0.06499
4450000000.0 -0.7489 1.012
4453000000.0 0.3819 1.223
4456000000.0 1.173 0.4171
4459000000.0 1.04 -0.6895
4462000000.0 0.08612 -1.231
4466000000.0 -0.908 -0.8303
4469000000.0 -1.199 0.2155
4472000000.0 -0.5626 1.036
4475000000.0 0.4747 1.084
4478000000.0 1.145 0.2936
4481000000.0 0.9248 -0.7224
4484000000.0 0.03465 -1.161
4488000000.0 -0.9089 -0.7189
4491000000.0 -1.119 0.2658
4494000000.0 -0.526 1.032
4497000000.0 0.4842 1.067
4500000000.0 1.111 0.2791
4503000000.0 0.912 -0.6491
4506000000.0 0.05379 -1.106
4509000000.0 -0.8185 -0.757
4512000000.0 -1.132 0.1754
4516000000.0 -0.5842 0.9945
4519000000.0 0.3756 1.078
4522000000.0 1.098 0.3923
4525000000.0 0.99 -0.5916
4528000000.0 0.1609 -1.153
4531000000.0 -0.8021 -0.8905
4534000000.0 -1.187 0.04789
4538000000.0 -0.7146 0.9786
4541000000.0 0.2943 1.193
4544000000.0 1.136 0.5577
4547000000.0 1.142 -0.5046
4550000000.0 0.3134 -1.192
4553000000.0 -0.6977 -1.014
4556000000.0 -1.224 -0.1227
4559000000.0 -0.8966 0.905
4562000000.0 0.08759 1.285
4566000000.0 1.012 0.7706
4569000000.0 1.274 -0.3271
4572000000.0 0.549 -1.166
4575000000.0 -0.5515 -1.23
4578000000.0 -1.328 -0.3504
4581000000.0 -1.13 0.7647
4584000000.0 -0.1387 1.385
4588000000.0 0.9935 0.9663
4591000000.0 1.377 -0.1464
4594000000.0 0.7844 -1.192
4597000000.0 -0.3974 -1.348
4600000000.0 -1.32 -0.5206
4603000000.0 -1.252 0.6722
4606000000.0 -0.2628 1.401
4609000000.0 0.9079 1.053
4612000000.0 1.408 -0.0375
4616000000.0 0.8481 -1.121
4619000000.0 -0.3327 -1.368
4622000000.0 -1.296 -0.5977
4625000000.0 -1.228 0.5894
4628000000.0 -0.3455 1.352
4631000000.0 0.8396 1.102
4634000000.0 1.356 0.04802
4638000000.0 0.8451 -1.043
4641000000.0 -0.2797 -1.332
4644000000.0 -1.177 -0.5756
4647000000.0 -1.185 0.5365
4650000000.0 -0.303 1.247
4653000000.0 0.7789 0.986
4656000000.0 1.275 -0.01179
4659000000.0 0.779 -0.965
4662000000.0 -0.269 -1.194
4666000000.0 -1.072 -0.5068
4669000000.0 -1.054 0.5186
4672000000.0 -0.252 1.155
4675000000.0 0.7164 0.886
4678000000.0 1.133 -0.04006
4681000000.0 0.6889 -0.89
4684000000.0 -0.2456 -1.08
4688000000.0 -0.9992 -0.4957
4691000000.0 -0.9775 0.452
4694000000.0 -0.2251 1.047
4697000000.0 0.6876 0.8595
4700000000.0 1.101 -0.01315
4703000000.0 0.6922 -0.8539
4706000000.0 -0.2657 -1.059
4709000000.0 -0.9753 -0.4571
4712000000.0 -0.9846 0.4848
4716000000.0 -0.2342 1.053
4719000000.0 0.6785 0.8399
4722000000.0 1.07 0.01646
4725000000.0 0.6448 -0.829
4728000000.0 -0.2251 -1.093
4731000000.0 -0.9417 -0.4955
4734000000.0 -0.973 0.4166
4738000000.0 -0.3036 1.058
4741000000.0 0.6258 0.8656
4744000000.0 1.076 0.09339
4747000000.0 0.7859 -0.7382
4750000000.0 -0.0577 -1.108
4753000000.0 -0.9119 -0.6513
4756000000.0 -1.091 0.3105
4759000000.0 -0.5003 1.022
4762000000.0 0.4636 1.03
4766000000.0 1.147 0.3151
4769000000.0 0.9749 -0.6918
4772000000.0 0.104 -1.185
4775000000.0 -0.8642 -0.8698
4778000000.0 -1.221 0.09873
4781000000.0 -0.7016 0.9788
4784000000.0 0.3077 1.182
4788000000.0 1.132 0.5409
4791000000.0 1.146 -0.5107
4794000000.0 0.3327 -1.213
4797000000.0 -0.7155 -1.069
4800000000.0 -1.317 -0.1208
4803000000.0 -0.9399 0.8877
4806000000.0 0.09066 1.287
4809000000.0 1.057 0.7772
4812000000.0 1.295 -0.3293
4816000000.0 0.5897 -1.19
4819000000.0 -0.5604 -1.251
4822000000.0 -1.341 -0.3816
4825000000.0 -1.135 0.7936
4828000000.0 -0.0987 1.384
4831000000.0 1.025 0.9703
4834000000.0 1.404 -0.1476
4838000000.0 0.7614 -1.186
4841000000.0 -0.4636 -1.324
4844000000.0 -1.309 -0.4805
4847000000.0 -1.192 0.6883
4850000000.0 -0.2023 1.363
4853000000.0 0.9514 1.009
4856000000.0 1.352 -0.08786
4859000000.0 0.7929 -1.103
4862000000.0 -0.3222 -1.282
4866000000.0 -1.179 -0.5417
4869000000.0 -1.166 0.5935
4872000000.0 -0.2703 1.235
4875000000.0 0.7672 0.9654
4878000000.0 1.257 0.007952
4881000000.0 0.7672 -0.9641
4884000000.0 -0.24 -1.172
4888000000.0 -1.043 -0.5458
4891000000.0 -1.063 0.4858
4894000000.0 -0.2827 1.14
4897000000.0 0.6841 0.8911
4900000000.0 1.092 0.008867
4903000000.0 0.7077 -0.8197
4906000000.0 -0.1752 -1.041
4909000000.0 -0.9113 -0.4933
4912000000.0 -0.9546 0.3787
4916000000.0 -0.2803 0.9652
4919000000.0 0.5514 0.8223
4922000000.0 0.9687 0.09893
4925000000.0 0.6758 -0.6644
4928000000.0 -0.0879 -0.9398
4931000000.0 -0.7659 -0.534
4934000000.0 -0.8826 0.257
4938000000.0 -0.3916 0.868
4941000000.0 0.4345 0.829
4944000000.0 0.915 0.1568
4947000000.0 0.7232 -0.6233
4950000000.0 -0.004913 -0.9653
4953000000.0 -0.7346 -0.5976
4956000000.0 -0.9627 0.2012
4959000000.0 -0.4338 0.884
4962000000.0 0.3875 0.9162
4966000000.0 0.9911 0.2754
4969000000.0 0.8681 -0.5902
4972000000.0 0.07407 -1.036
4975000000.0 -0.7339 -0.7247
4978000000.0 -1.051 0.1225
4981000000.0 -0.581 0.9052
4984000000.0 0.3281 1.005
4988000000.0 1.005 0.4166
4991000000.0 0.9992 -0.5176
4994000000.0 0.2025 -1.104
4997000000.0 -0.6938 -0.9162
5000000000.0 -1.164 -0.0139
5003000000.0 -0.7818 0.8735
5006000000.0 0.2038 1.194
5009000000.0 1.068 0.642
5012000000.0 1.178 -0.4409
5016000000.0 0.4367 -1.177
5019000000.0 -0.6522 -1.088
5022000000.0 -1.268 -0.1592
5025000000.0 -0.973 0.8686
5028000000.0 0.07063 1.314
5031000000.0 1.055 0.7686
5034000000.0 1.302 -0.307
5038000000.0 0.546 -1.179
5041000000.0 -0.5578 -1.181
5044000000.0 -1.236 -0.348
5047000000.0 -1.07 0.712
5050000000.0 -0.1032 1.265
5053000000.0 0.9037 0.9386
5056000000.0 1.281 -0.09956
5059000000.0 0.729 -1.072
5062000000.0 -0.3388 -1.272
5066000000.0 -1.159 -0.511
5069000000.0 -1.141 0.5491
5072000000.0 -0.2757 1.227
5075000000.0 0.6996 0.9821
5078000000.0 1.219 0.1233
5081000000.0 0.8189 -0.9207
5084000000.0 -0.1617 -1.193
5088000000.0 -0.9739 -0.6213
5091000000.0 -1.089 0.3731
5094000000.0 -0.4338 1.084
5097000000.0 0.532 0.9762
5100000000.0 1.073 0.2047
5103000000.0 0.8437 -0.6778
5106000000.0 0.0133 -1.077
5109000000.0 -0.7931 -0.7244
5112000000.0 -1.052 0.1711
5116000000.0 -0.5125 0.9023
5119000000.0 0.3276 0.9987
5122000000.0 0.9711 0.3272
5125000000.0 0.8593 -0.4783
5128000000.0 0.1496 -0.9956
5131000000.0 -0.6564 -0.7415
5134000000.0 -0.9335 0.01328
5138000000.0 -0.6128 0.771
5141000000.0 0.2391 0.923
5144000000.0 0.8154 0.408
5147000000.0 0.8394 -0.406
5150000000.0 0.1965 -0.8846
5153000000.0 -0.5569 -0.7228
5156000000.0 -0.8939 -0.03019
5159000000.0 -0.5987 0.6813
5162000000.0 0.1857 0.8604
5166000000.0 0.7913 0.4039
5169000000.0 0.8417 -0.3524
5172000000.0 0.2198 -0.8645
5175000000.0 -0.5031 -0.7096
5178000000.0 -0.8948 -0.07211
5181000000.0 -0.6046 0.6809
5184000000.0 0.1551 0.9189
5188000000.0 0.8348 0.4514
5191000000.0 0.8524 -0.3706
5194000000.0 0.2681 -0.9195
5197000000.0 -0.5356 -0.7688
5200000000.0 -0.955 -0.03768
5203000000.0 -0.6546 0.7055
5206000000.0 0.1825 0.9566
5209000000.0 0.8365 0.4712
5212000000.0 0.9221 -0.3607
5216000000.0 0.295 -0.9605
5219000000.0 -0.5411 -0.8373
5222000000.0 -1.017 -0.1015
5225000000.0 -0.7347 0.6958
5228000000.0 0.07219 1.018
5231000000.0 0.8461 0.5839
5234000000.0 1.009 -0.3076
5238000000.0 0.4448 -0.9567
5241000000.0 -0.4808 -0.964
5244000000.0 -1.026 -0.2465
5247000000.0 -0.8728 0.6357
5250000000.0 -0.04246 1.09
5253000000.0 0.8066 0.753
5256000000.0 1.064 -0.1412
5259000000.0 0.5868 -0.9114
5262000000.0 -0.3331 -1.026
5266000000.0 -1.034 -0.4143
5269000000.0 -0.9734 0.5146
5272000000.0 -0.239 1.085
5275000000.0 0.6653 0.8881
5278000000.0 1.101 0.05574
5281000000.0 0.757 -0.8062
5284000000.0 -0.1334 -1.096
5288000000.0 -0.9485 -0.6094
5291000000.0 -1.055 0.2964
5294000000.0 -0.4993 1.027
5297000000.0 0.4967 1.059
5300000000.0 1.112 0.2912
5303000000.0 0.9231 -0.662
5306000000.0 0.07794 -1.113
5309000000.0 -0.7811 -0.7972
5312000000.0 -1.105 0.1075
5316000000.0 -0.6617 0.9436
5319000000.0 0.3313 1.069
5322000000.0 1.03 0.4527
5325000000.0 0.9676 -0.5084
5328000000.0 0.2031 -1.085
5331000000.0 -0.7037 -0.8713
5334000000.0 -1.133 -0.002697
5338000000.0 -0.6942 0.8499
5341000000.0 0.2295 1.04
5344000000.0 0.9836 0.4942
5347000000.0 0.9714 -0.4421
5350000000.0 0.256 -1.044
5353000000.0 -0.6227 -0.8347
5356000000.0 -1.058 -0.0345
5359000000.0 -0.6676 0.7613
5362000000.0 0.1953 0.9991
5366000000.0 0.903 0.5001
5369000000.0 0.8969 -0.4052
5372000000.0 0.2362 -0.9567
5375000000.0 -0.5999 -0.7498
5378000000.0 -0.9653 0.003115
5381000000.0 -0.6031 0.7218
5384000000.0 0.2249 0.9194
5388000000.0 0.8728 0.363
5391000000.0 0.7857 -0.4544
5394000000.0 0.1602 -0.8876
5397000000.0 -0.6043 -0.6664
5400000000.0 -0.8713 0.07126
5403000000.0 -0.4769 0.6954
5406000000.0 0.2395 0.8341
5409000000.0 0.7901 0.3153
5412000000.0 0.6923 -0.4198
5416000000.0 0.1145 -0.8288
5419000000.0 -0.5796 -0.645
5422000000.0 -0.8662 0.04294
5425000000.0 -0.5302 0.715
5428000000.0 0.2195 0.8512
5431000000.0 0.8214 0.3263
5434000000.0 0.814 -0.4314
5438000000.0 0.1289 -0.8719
5441000000.0 -0.5956 -0.6847
5444000000.0 -0.9121 0.02021
5447000000.0 -0.5422 0.7285
5450000000.0 0.2143 0.9036
5453000000.0 0.845 0.4314
5456000000.0 0.8719 -0.3752
5459000000.0 0.2335 -0.9124
5462000000.0 -0.5635 -0.7849
5466000000.0 -0.972 -0.09923
5469000000.0 -0.673 0.6974
5472000000.0 0.1066 0.9628
5475000000.0 0.811 0.5813
5478000000.0 0.9528 -0.2592
5481000000.0 0.3926 -0.9597
5484000000.0 -0.4466 -0.9056
5488000000.0 -1.003 -0.2245
5491000000.0 -0.8381 0.6102
5494000000.0 -0.04312 1.056
5497000000.0 0.7772 0.7352
5500000000.0 1.038 -0.1263
5503000000.0 0.5926 -0.9085
5506000000.0 -0.3224 -1.018
5509000000.0 -0.9919 -0.4148
5512000000.0 -0.9754 0.5119
5516000000.0 -0.2261 1.054
5519000000.0 0.6985 0.8374
5522000000.0 1.077 0.01245
5525000000.0 0.6963 -0.8094
5528000000.0 -0.1653 -1.063
5531000000.0 -0.9375 -0.5354
5534000000.0 -1.023 0.364
5538000000.0 -0.3667 0.9804
5541000000.0 0.5606 0.9151
5544000000.0 1.02 0.164
5547000000.0 0.7792 -0.7248
5550000000.0 -0.04078 -1.041
5553000000.0 -0.8389 -0.5791
5556000000.0 -0.958 0.2676
5559000000.0 -0.4307 0.8995
5562000000.0 0.446 0.9096
5566000000.0 0.93 0.187
5569000000.0 0.7506 -0.6008
5572000000.0 0.003053 -0.9398
5575000000.0 -0.7173 -0.5968
5578000000.0 -0.8921 0.2008
5581000000.0 -0.4023 0.7948
5584000000.0 0.3594 0.83
5588000000.0 0.8803 0.2419
5591000000.0 0.705 -0.5274
5594000000.0 0.007938 -0.8593
5597000000.0 -0.6404 -0.5486
5600000000.0 -0.8255 0.1714
5603000000.0 -0.3873 0.7269
5606000000.0 0.3313 0.7571
5609000000.0 0.7941 0.2226
5612000000.0 0.6461 -0.4788
5616000000.0 0.01376 -0.7853
5619000000.0 -0.6091 -0.5132
5622000000.0 -0.8012 0.1627
5625000000.0 -0.3621 0.7274
5628000000.0 0.3422 0.7525
5631000000.0 0.7889 0.2147
5634000000.0 0.6495 -0.512
5638000000.0 -0.02032 -0.8461
5641000000.0 -0.6355 -0.5318
5644000000.0 -0.8512 0.1946
5647000000.0 -0.3931 0.7761
5650000000.0 0.3528 0.801
5653000000.0 0.8732 0.2299
5656000000.0 0.7022 -0.5666
5659000000.0 0.02761 -0.925
5662000000.0 -0.6842 -0.5815
5666000000.0 -0.9333 0.1717
5669000000.0 -0.4645 0.86
5672000000.0 0.3895 0.9015
5675000000.0 0.9555 0.2849
5678000000.0 0.8007 -0.5719
5681000000.0 0.08477 -1.027
5684000000.0 -0.7528 -0.6856
5688000000.0 -1.068 0.165
5691000000.0 -0.5341 0.947
5694000000.0 0.3904 1.01
5697000000.0 1.045 0.3544
5700000000.0 0.9347 -0.5507
5703000000.0 0.1231 -1.104
5706000000.0 -0.7646 -0.8081
5709000000.0 -1.124 0.09421
5712000000.0 -0.6424 0.9296
5716000000.0 0.3109 1.036
5719000000.0 1.045 0.4564
5722000000.0 1.013 -0.516
5725000000.0 0.224 -1.128
5728000000.0 -0.6872 -0.8856
5731000000.0 -1.11 -0.006774
5734000000.0 -0.7546 0.849
5738000000.0 0.1916 1.108
5741000000.0 0.9576 0.5517
5744000000.0 1.058 -0.3941
5747000000.0 0.2941 -1.043
5750000000.0 -0.6617 -0.9325
5753000000.0 -1.129 -0.1059
5756000000.0 -0.7668 0.7593
5759000000.0 0.1332 1.114
5762000000.0 0.916 0.6172
5766000000.0 1.002 -0.319
5769000000.0 0.3712 -0.9887
5772000000.0 -0.5309 -0.8994
5775000000.0 -1.049 -0.1713
5778000000.0 -0.7584 0.6834
5781000000.0 0.08833 1.058
5784000000.0 0.8582 0.5658
5788000000.0 0.9406 -0.3056
5791000000.0 0.3425 -0.9178
5794000000.0 -0.4974 -0.832
5797000000.0 -0.9548 -0.1059
5800000000.0 -0.6848 0.6745
5803000000.0 0.138 0.9478
5806000000.0 0.8307 0.4629
5809000000.0 0.8679 -0.3132
5812000000.0 0.2605 -0.9026
5816000000.0 -0.5647 -0.7282
5819000000.0 -0.8925 -0.01744
5822000000.0 -0.5882 0.6933
5825000000.0 0.2101 0.8607
5828000000.0 0.8182 0.3812
5831000000.0 0.8188 -0.3895
5834000000.0 0.1839 -0.8766
5838000000.0 -0.5865 -0.6832
5841000000.0 -0.8797 0.05751
5844000000.0 -0.5301 0.7349
5847000000.0 0.3021 0.8248
5850000000.0 0.85 0.2657
5853000000.0 0.7535 -0.4369
5856000000.0 0.104 -0.8906
5859000000.0 -0.6439 -0.6065
5862000000.0 -0.9019 0.1132
5866000000.0 -0.4796 0.8116
5869000000.0 0.3136 0.8579
5872000000.0 0.9178 0.2892
5875000000.0 0.7724 -0.5401
5878000000.0 0.08335 -0.9129
5881000000.0 -0.685 -0.668
5884000000.0 -0.905 0.1433
5888000000.0 -0.4854 0.8232
5891000000.0 0.319 0.8934
5894000000.0 0.9414 0.3331
5897000000.0 0.8436 -0.5683
5900000000.0 0.09578 -0.9807
5903000000.0 -0.7419 -0.6881
5906000000.0 -1.005 0.131
5909000000.0 -0.529 0.8812
5912000000.0 0.3527 0.9551
5916000000.0 0.9954 0.3099
5919000000.0 0.8756 -0.5683
5922000000.0 0.0893 -1.011
5925000000.0 -0.7726 -0.7065
5928000000.0 -1.037 0.1439
5931000000.0 -0.5082 0.889
5934000000.0 0.3497 0.9878
5938000000.0 0.9665 0.3071
5941000000.0 0.862 -0.5956
5944000000.0 0.07101 -1.036
5947000000.0 -0.7913 -0.6973
5950000000.0 -1.027 0.1849
5953000000.0 -0.4654 0.8749
5956000000.0 0.4245 0.9526
5959000000.0 0.9797 0.2022
5962000000.0 0.7721 -0.6303
5966000000.0 -0.02213 -0.9832
5969000000.0 -0.8187 -0.5801
5972000000.0 -0.9113 0.2984
5975000000.0 -0.3536 0.9149
5978000000.0 0.5308 0.7801
5981000000.0 0.9459 0.09686
5984000000.0 0.6048 -0.6804
5988000000.0 -0.1902 -0.8671
5991000000.0 -0.7568 -0.4032
5994000000.0 -0.7974 0.4151
5997000000.0 -0.1537 0.8546
6000000000.0 0.5971 0.6585
6003000000.0 0.857 -0.08744
6006000000.0 0.4281 -0.7136
6009000000.0 -0.2958 -0.761
6012000000.0 -0.7934 -0.2335
6016000000.0 -0.6455 0.5007
6019000000.0 -0.02397 0.7945
6022000000.0 0.6264 0.5175
6025000000.0 0.7924 -0.1456
6028000000.0 0.3651 -0.7291
6031000000.0 -0.3614 -0.7798
6034000000.0 -0.8091 -0.1768
6038000000.0 -0.678 0.5421
6041000000.0 0.01097 0.8475
6044000000.0 0.7045 0.5175
6047000000.0 0.8759 -0.2027
6050000000.0 0.358 -0.8165
6053000000.0 -0.4106 -0.7939
6056000000.0 -0.9209 -0.1523
6059000000.0 -0.6763 0.6102
6062000000.0 0.05582 0.9287
6066000000.0 0.786 0.5246
6069000000.0 0.9161 -0.29
6072000000.0 0.3235 -0.9227
6075000000.0 -0.5381 -0.8517
6078000000.0 -1.02 -0.11
6081000000.0 -0.6996 0.7121
6084000000.0 0.1157 0.9887
6088000000.0 0.9095 0.5325
6091000000.0 0.9837 -0.3737
6094000000.0 0.3195 -1.032
6097000000.0 -0.5535 -0.8812
6100000000.0 -1.033 -0.06549
6103000000.0 -0.6985 0.7845
6106000000.0 0.2233 1.059
6109000000.0 0.9467 0.4598
6112000000.0 0.9477 -0.4553
6116000000.0 0.2001 -1.014
6119000000.0 -0.6505 -0.8184
6122000000.0 -1.016 0.05568
6125000000.0 -0.5589 0.8356
6128000000.0 0.2588 0.9465
6131000000.0 0.9302 0.3388
6134000000.0 0.7973 -0.4988
6138000000.0 0.07188 -0.9524
6141000000.0 -0.687 -0.6558
6144000000.0 -0.9598 0.1347
6147000000.0 -0.4284 0.7889
6150000000.0 0.3606 0.8543
6153000000.0 0.8549 0.2229
6156000000.0 0.7053 -0.5251
6159000000.0 -0.0004866 -0.8803
6162000000.0 -0.6629 -0.5219
6166000000.0 -0.8782 0.1784
6169000000.0 -0.3412 0.7493
6172000000.0 0.3611 0.7355
6175000000.0 0.8209 0.133
6178000000.0 0.6166 -0.5399
6181000000.0 -0.04263 -0.8084
6184000000.0 -0.7121 -0.4789
6188000000.0 -0.7884 0.2568
6191000000.0 -0.2934 0.7673
6194000000.0 0.4191 0.7057
6197000000.0 0.7749 0.04514
6200000000.0 0.5858 -0.5793
6203000000.0 -0.1167 -0.7823
6206000000.0 -0.7298 -0.419
6209000000.0 -0.7561 0.3327
6212000000.0 -0.2171 0.7891
6216000000.0 0.4998 0.6391
6219000000.0 0.8304 0.02593
6222000000.0 0.484 -0.6399
6225000000.0 -0.15 -0.8057
6228000000.0 -0.726 -0.3671
6231000000.0 -0.7615 0.3501
6234000000.0 -0.1934 0.8106
6238000000.0 0.5325 0.696
6241000000.0 0.8504 0.02412
6244000000.0 0.5609 -0.654
6247000000.0 -0.224 -0.8
6250000000.0 -0.7646 -0.3796
6253000000.0 -0.7347 0.3576
6256000000.0 -0.2126 0.794
6259000000.0 0.5118 0.6374
6262000000.0 0.8055 0.00815
6266000000.0 0.5267 -0.5971
6269000000.0 -0.1452 -0.8251
