! Created with skrf 1.8.0 (http://scikit-rf.org).
# Hz S RI R 50.0 
!freq ReS11 ImS11
4000000000.0 -0.2321 -1.441
4003000000.0 -1.249 -0.7354
4006000000.0 -1.356 0.4924
4009000000.0 -0.4339 1.386
4012000000.0 0.7912 1.294
4016000000.0 1.54 0.1184
4019000000.0 1.116 -1.121
4022000000.0 -0.19 -1.555
4025000000.0 -1.306 -0.8312
4028000000.0 -1.488 0.5194
4031000000.0 -0.5405 1.54
4034000000.0 0.8351 1.366
4038000000.0 1.637 0.1748
4041000000.0 1.167 -1.152
4044000000.0 -0.1765 -1.603
4047000000.0 -1.359 -0.8613
4050000000.0 -1.534 0.5347
4053000000.0 -0.5715 1.513
4056000000.0 0.839 1.375
4059000000.0 1.615 0.3001
4062000000.0 1.235 -1.03
4066000000.0 -0.06469 -1.53
4069000000.0 -1.28 -1.024
4072000000.0 -1.586 0.3143
4075000000.0 -0.7492 1.395
4078000000.0 0.6148 1.507
4081000000.0 1.584 0.5104
4084000000.0 1.392 -0.8892
4088000000.0 0.17 -1.638
4091000000.0 -1.154 -1.192
4094000000.0 -1.644 0.1447
4097000000.0 -0.9222 1.344
4100000000.0 0.4079 1.579
4103000000.0 1.476 0.6646
4106000000.0 1.383 -0.6827
4109000000.0 0.405 -1.5
4112000000.0 -0.8757 -1.266
4116000000.0 -1.512 -0.1295
4119000000.0 -1.063 1.033
4122000000.0 0.08319 1.487
4125000000.0 1.16 0.8445
4128000000.0 1.419 -0.2702
4131000000.0 0.7472 -1.261
4134000000.0 -0.4932 -1.393
4138000000.0 -1.375 -0.5414
4141000000.0 -1.312 0.694
4144000000.0 -0.3562 1.446
4147000000.0 0.9133 1.211
4150000000.0 1.524 0.08543
4153000000.0 1.021 -1.106
4156000000.0 -0.2079 -1.485
4159000000.0 -1.294 -0.8229
4162000000.0 -1.442 0.4119
4166000000.0 -0.5845 1.432
4169000000.0 0.6694 1.309
4172000000.0 1.436 0.3504
4175000000.0 1.199 -0.8841
4178000000.0 0.107 -1.472
4181000000.0 -1.076 -1.029
4184000000.0 -1.465 0.198
4188000000.0 -0.8135 1.289
4191000000.0 0.4575 1.431
4194000000.0 1.423 0.5519
4197000000.0 1.38 -0.7701
4200000000.0 0.32 -1.53
4203000000.0 -1.034 -1.191
4206000000.0 -1.621 0.06177
4209000000.0 -0.9492 1.32
4212000000.0 0.4876 1.578
4216000000.0 1.539 0.5916
4219000000.0 1.418 -0.8251
4222000000.0 0.1707 -1.67
4225000000.0 -1.213 -1.142
4228000000.0 -1.657 0.2536
4231000000.0 -0.7938 1.442
4234000000.0 0.6829 1.489
4238000000.0 1.604 0.325
4241000000.0 1.198 -1.014
4244000000.0 -0.05923 -1.571
4247000000.0 -1.279 -0.8628
4250000000.0 -1.47 0.4858
4253000000.0 -0.5411 1.463
4256000000.0 0.8152 1.296
4259000000.0 1.512 0.1657
4262000000.0 1.033 -1.098
4266000000.0 -0.2188 -1.449
4269000000.0 -1.29 -0.6964
4272000000.0 -1.348 0.557
4275000000.0 -0.3893 1.398
4278000000.0 0.8438 1.162
4281000000.0 1.426 0.04354
4284000000.0 0.9207 -1.076
4288000000.0 -0.2582 -1.36
4291000000.0 -1.222 -0.6405
4294000000.0 -1.239 0.5173
4297000000.0 -0.3797 1.245
4300000000.0 0.7348 1.089
4303000000.0 1.291 0.1735
4306000000.0 0.8992 -0.884
4309000000.0 -0.08458 -1.269
4312000000.0 -1.006 -0.762
4316000000.0 -1.249 0.2998
4319000000.0 -0.5732 1.136
4322000000.0 0.4692 1.19
4325000000.0 1.242 0.4213
4328000000.0 1.118 -0.7014
4331000000.0 0.1429 -1.324
4334000000.0 -0.9312 -1.022
4338000000.0 -1.371 0.07712
4341000000.0 -0.8309 1.131
4344000000.0 0.3217 1.365
4347000000.0 1.28 0.6649
4350000000.0 1.277 -0.5772
4353000000.0 0.3703 -1.415
4356000000.0 -0.8138 -1.177
4359000000.0 -1.461 -0.1515
4362000000.0 -0.9792 1.046
4366000000.0 0.1422 1.458
4369000000.0 1.221 0.8173
4372000000.0 1.409 -0.3631
4375000000.0 0.5922 -1.359
4378000000.0 -0.7178 -1.338
4381000000.0 -1.455 -0.3438
4384000000.0 -1.207 0.9612
4388000000.0 -0.004391 1.562
4391000000.0 1.2 0.9975
4394000000.0 1.554 -0.3223
4397000000.0 0.7045 -1.382
4400000000.0 -0.6869 -1.419
4403000000.0 -1.544 -0.3652
4406000000.0 -1.251 0.9987
4409000000.0 0.004051 1.558
4412000000.0 1.198 0.9453
4416000000.0 1.483 -0.363
4419000000.0 0.6554 -1.383
4422000000.0 -0.7078 -1.298
4425000000.0 -1.45 -0.2301
4428000000.0 -1.085 0.9712
4431000000.0 0.1074 1.426
4434000000.0 1.182 0.7697
4438000000.0 1.351 -0.4299
4441000000.0 0.4316 -1.27
4444000000.0 -0.7293 -1.114
4447000000.0 -1.324 -0.09742
4450000000.0 -0.9054 0.9729
4453000000.0 0.2496 1.249
4456000000.0 1.137 0.6107
4459000000.0 1.153 -0.5212
4462000000.0 0.2992 -1.217
4466000000.0 -0.7686 -0.9429
4469000000.0 -1.189 0.04184
4472000000.0 -0.7186 0.9886
4475000000.0 0.3089 1.136
4478000000.0 1.068 0.4625
4481000000.0 1.011 -0.5875
4484000000.0 0.1508 -1.147
4488000000.0 -0.7712 -0.8237
4491000000.0 -1.158 0.08415
4494000000.0 -0.6267 0.9649
4497000000.0 0.3196 1.082
4500000000.0 1.08 0.4012
4503000000.0 0.95 -0.5681
4506000000.0 0.1953 -1.07
4509000000.0 -0.7323 -0.8299
4512000000.0 -1.113 0.03923
4516000000.0 -0.685 0.8928
4519000000.0 0.2582 1.099
4522000000.0 1.017 0.4933
4525000000.0 1.025 -0.489
4528000000.0 0.2904 -1.146
4531000000.0 -0.6936 -0.9373
4534000000.0 -1.185 -0.07385
4538000000.0 -0.8022 0.9018
4541000000.0 0.1513 1.18
4544000000.0 0.997 0.6456
4547000000.0 1.173 -0.377
4550000000.0 0.4623 -1.129
4553000000.0 -0.5836 -1.077
4556000000.0 -1.216 -0.2549
4559000000.0 -0.947 0.7738
4562000000.0 -0.0172 1.259
4566000000.0 0.9862 0.8445
4569000000.0 1.243 -0.1926
4572000000.0 0.6868 -1.117
4575000000.0 -0.4114 -1.222
4578000000.0 -1.195 -0.4747
4581000000.0 -1.186 0.6208
4584000000.0 -0.2543 1.319
4588000000.0 0.8692 1.027
4591000000.0 1.371 -0.0079
4594000000.0 0.8581 -1.077
4597000000.0 -0.2771 -1.33
4600000000.0 -1.203 -0.6404
4603000000.0 -1.277 0.5495
4606000000.0 -0.3981 1.343
4609000000.0 0.7809 1.145
4612000000.0 1.404 0.145
4616000000.0 1.0 -0.9995
4619000000.0 -0.1529 -1.401
4622000000.0 -1.178 -0.7335
4625000000.0 -1.319 0.4061
4628000000.0 -0.4997 1.284
4631000000.0 0.6736 1.175
4634000000.0 1.348 0.2087
4638000000.0 0.9951 -0.8759
4641000000.0 -0.08192 -1.312
4644000000.0 -1.094 -0.793
4647000000.0 -1.245 0.3613
4650000000.0 -0.4811 1.235
4653000000.0 0.6396 1.14
4656000000.0 1.268 0.2023
4659000000.0 0.9305 -0.8521
4662000000.0 -0.1364 -1.209
4666000000.0 -1.023 -0.6705
4669000000.0 -1.123 0.3941
4672000000.0 -0.4073 1.096
4675000000.0 0.6033 0.9832
4678000000.0 1.137 0.1279
4681000000.0 0.8376 -0.7767
4684000000.0 -0.07744 -1.115
4688000000.0 -0.8989 -0.6181
4691000000.0 -1.056 0.3375
4694000000.0 -0.3861 1.031
4697000000.0 0.565 0.8963
4700000000.0 1.087 0.1262
4703000000.0 0.7889 -0.7536
4706000000.0 -0.09609 -1.082
4709000000.0 -0.8793 -0.6177
4712000000.0 -1.007 0.3621
4716000000.0 -0.3541 1.013
4719000000.0 0.5667 0.9064
4722000000.0 1.063 0.1145
4725000000.0 0.7766 -0.7412
4728000000.0 -0.08509 -1.039
4731000000.0 -0.8818 -0.5933
4734000000.0 -0.9895 0.2864
4738000000.0 -0.412 0.9988
4741000000.0 0.4889 0.9489
4744000000.0 0.9935 0.2268
4747000000.0 0.8283 -0.6669
4750000000.0 0.05903 -1.056
4753000000.0 -0.7988 -0.7249
4756000000.0 -1.079 0.1585
4759000000.0 -0.5989 0.9616
4762000000.0 0.3736 1.069
4766000000.0 1.069 0.4327
4769000000.0 0.9925 -0.5896
4772000000.0 0.2126 -1.163
4775000000.0 -0.7682 -0.9112
4778000000.0 -1.199 -0.003651
4781000000.0 -0.7903 0.9247
4784000000.0 0.1751 1.21
4788000000.0 1.055 0.6347
4791000000.0 1.176 -0.3964
4794000000.0 0.4835 -1.118
4797000000.0 -0.605 -1.091
4800000000.0 -1.26 -0.2477
4803000000.0 -0.9774 0.7601
4806000000.0 -0.06662 1.263
4809000000.0 0.933 0.8784
4812000000.0 1.281 -0.1665
4816000000.0 0.6836 -1.108
4819000000.0 -0.4064 -1.264
4822000000.0 -1.235 -0.4935
4825000000.0 -1.19 0.6715
4828000000.0 -0.2579 1.337
4831000000.0 0.9144 1.032
4834000000.0 1.378 -0.0134
4838000000.0 0.8679 -1.101
4841000000.0 -0.3096 -1.373
4844000000.0 -1.214 -0.6506
4847000000.0 -1.274 0.5608
4850000000.0 -0.3692 1.333
4853000000.0 0.7988 1.111
4856000000.0 1.348 0.08775
4859000000.0 0.9258 -0.9843
4862000000.0 -0.1982 -1.323
4866000000.0 -1.121 -0.6867
4869000000.0 -1.222 0.402
4872000000.0 -0.4391 1.226
4875000000.0 0.6688 1.097
4878000000.0 1.254 0.1638
4881000000.0 0.9254 -0.852
4884000000.0 -0.08412 -1.202
4888000000.0 -0.983 -0.6962
4891000000.0 -1.133 0.3201
4894000000.0 -0.4131 1.062
4897000000.0 0.5273 1.005
4900000000.0 1.088 0.1818
4903000000.0 0.8224 -0.7292
4906000000.0 -0.04572 -1.067
4909000000.0 -0.8434 -0.6366
4912000000.0 -0.9637 0.2475
4916000000.0 -0.4291 0.9167
4919000000.0 0.4146 0.8874
4922000000.0 0.9319 0.2356
4925000000.0 0.7779 -0.5814
4928000000.0 0.02424 -0.9527
4931000000.0 -0.6711 -0.6183
4934000000.0 -0.9193 0.1397
4938000000.0 -0.4578 0.8113
4941000000.0 0.3502 0.8958
4944000000.0 0.8784 0.313
4947000000.0 0.8019 -0.4763
4950000000.0 0.1465 -0.9461
4953000000.0 -0.6432 -0.6985
4956000000.0 -0.9675 0.08591
4959000000.0 -0.563 0.7956
4962000000.0 0.2269 0.9386
4966000000.0 0.8846 0.3926
4969000000.0 0.8761 -0.4478
4972000000.0 0.209 -0.9703
4975000000.0 -0.6418 -0.7897
4978000000.0 -1.01 0.0008003
4981000000.0 -0.66 0.8193
4984000000.0 0.1588 1.025
4988000000.0 0.9027 0.5097
4991000000.0 1.021 -0.3705
4994000000.0 0.3402 -1.038
4997000000.0 -0.5722 -0.9282
5000000000.0 -1.139 -0.1683
5003000000.0 -0.8817 0.7648
5006000000.0 0.03932 1.162
5009000000.0 0.9671 0.7135
5012000000.0 1.205 -0.2817
5016000000.0 0.5268 -1.079
5019000000.0 -0.5045 -1.139
5022000000.0 -1.226 -0.3422
5025000000.0 -1.051 0.7381
5028000000.0 -0.1007 1.263
5031000000.0 0.9236 0.8949
5034000000.0 1.289 -0.1196
5038000000.0 0.7003 -1.086
5041000000.0 -0.3802 -1.237
5044000000.0 -1.159 -0.4796
5047000000.0 -1.182 0.59
5050000000.0 -0.2857 1.223
5053000000.0 0.7557 1.043
5056000000.0 1.332 0.04385
5059000000.0 0.8607 -0.968
5062000000.0 -0.1661 -1.279
5066000000.0 -1.085 -0.6684
5069000000.0 -1.229 0.4222
5072000000.0 -0.4788 1.157
5075000000.0 0.6268 1.084
5078000000.0 1.21 0.243
5081000000.0 0.968 -0.7981
5084000000.0 0.02941 -1.206
5088000000.0 -0.9151 -0.7485
5091000000.0 -1.184 0.1987
5094000000.0 -0.5593 0.9997
5097000000.0 0.3933 1.091
5100000000.0 1.067 0.3876
5103000000.0 0.9768 -0.5613
5106000000.0 0.1914 -1.062
5109000000.0 -0.7017 -0.8424
5112000000.0 -1.085 0.01206
5116000000.0 -0.6937 0.7925
5119000000.0 0.1816 1.017
5122000000.0 0.9174 0.5045
5125000000.0 0.9454 -0.3622
5128000000.0 0.3175 -0.9569
5131000000.0 -0.5194 -0.8221
5134000000.0 -0.9476 -0.1531
5138000000.0 -0.7272 0.6883
5141000000.0 0.06384 0.9683
5144000000.0 0.7687 0.5443
5147000000.0 0.9255 -0.2674
5150000000.0 0.3808 -0.8289
5153000000.0 -0.441 -0.8262
5156000000.0 -0.9126 -0.2031
5159000000.0 -0.7155 0.6131
5162000000.0 -0.02509 0.9153
5166000000.0 0.6916 0.5677
5169000000.0 0.87 -0.2121
5172000000.0 0.4006 -0.7769
5175000000.0 -0.3618 -0.8414
5178000000.0 -0.8561 -0.2411
5181000000.0 -0.7229 0.5315
5184000000.0 -0.03374 0.919
5188000000.0 0.7071 0.6322
5191000000.0 0.9165 -0.1664
5194000000.0 0.4329 -0.8288
5197000000.0 -0.3574 -0.8722
5200000000.0 -0.8963 -0.2727
5203000000.0 -0.7553 0.5715
5206000000.0 -0.04768 0.9369
5209000000.0 0.7057 0.6637
5212000000.0 0.9677 -0.1772
5216000000.0 0.4743 -0.8505
5219000000.0 -0.3622 -0.9023
5222000000.0 -0.9221 -0.296
5225000000.0 -0.8669 0.5365
5228000000.0 -0.1077 0.9793
5231000000.0 0.7019 0.7416
5234000000.0 1.012 -0.05991
5238000000.0 0.6081 -0.8433
5241000000.0 -0.2699 -0.999
5244000000.0 -0.9583 -0.4342
5247000000.0 -0.9615 0.4665
5250000000.0 -0.2405 1.061
5253000000.0 0.611 0.8533
5256000000.0 1.101 0.05925
5259000000.0 0.7581 -0.7872
5262000000.0 -0.1319 -1.097
5266000000.0 -0.8887 -0.5914
5269000000.0 -1.049 0.2784
5272000000.0 -0.4281 0.9911
5275000000.0 0.4878 0.9839
5278000000.0 1.063 0.2791
5281000000.0 0.8913 -0.6561
5284000000.0 0.102 -1.1
5288000000.0 -0.7876 -0.7676
5291000000.0 -1.12 0.0771
5294000000.0 -0.6136 0.87
5297000000.0 0.2627 1.113
5300000000.0 1.014 0.5135
5303000000.0 1.008 -0.4623
5306000000.0 0.2962 -1.063
5309000000.0 -0.6138 -0.9746
5312000000.0 -1.105 -0.1393
5316000000.0 -0.8189 0.78
5319000000.0 0.0546 1.132
5322000000.0 0.9129 0.6668
5325000000.0 1.11 -0.277
5328000000.0 0.509 -1.005
5331000000.0 -0.4301 -1.036
5334000000.0 -1.097 -0.2788
5338000000.0 -0.938 0.6519
5341000000.0 -0.07548 1.122
5344000000.0 0.8209 0.7816
5347000000.0 1.09 -0.1481
5350000000.0 0.5976 -0.9212
5353000000.0 -0.368 -1.034
5356000000.0 -1.025 -0.355
5359000000.0 -0.9015 0.5466
5362000000.0 -0.1432 1.066
5366000000.0 0.7177 0.7639
5369000000.0 1.022 -0.06855
5372000000.0 0.5765 -0.838
5375000000.0 -0.3226 -0.9694
5378000000.0 -0.9428 -0.3424
5381000000.0 -0.8061 0.5046
5384000000.0 -0.09649 0.9774
5388000000.0 0.6635 0.6777
5391000000.0 0.938 -0.1272
5394000000.0 0.472 -0.7848
5397000000.0 -0.2765 -0.8561
5400000000.0 -0.8493 -0.2714
5403000000.0 -0.7437 0.4961
5406000000.0 -0.06516 0.8778
5409000000.0 0.6171 0.5929
5412000000.0 0.8504 -0.1251
5416000000.0 0.4605 -0.7265
5419000000.0 -0.303 -0.7697
5422000000.0 -0.7872 -0.2624
5425000000.0 -0.7429 0.4608
5428000000.0 -0.05136 0.8756
5431000000.0 0.6491 0.5901
5434000000.0 0.8532 -0.1042
5438000000.0 0.4734 -0.7456
5441000000.0 -0.3216 -0.8048
5444000000.0 -0.8501 -0.299
5447000000.0 -0.7318 0.4699
5450000000.0 -0.09756 0.8937
5453000000.0 0.6062 0.6438
5456000000.0 0.8826 -0.1052
5459000000.0 0.5134 -0.759
5462000000.0 -0.2339 -0.9023
5466000000.0 -0.8662 -0.3714
5469000000.0 -0.8122 0.4296
5472000000.0 -0.2202 0.9271
5475000000.0 0.5809 0.7377
5478000000.0 0.9132 0.04846
5481000000.0 0.6409 -0.7018
5484000000.0 -0.08647 -0.9543
5488000000.0 -0.8118 -0.5309
5491000000.0 -0.9505 0.2836
5494000000.0 -0.3988 0.9185
5497000000.0 0.4738 0.8812
5500000000.0 0.9652 0.2102
5503000000.0 0.8199 -0.6324
5506000000.0 0.08578 -1.022
5509000000.0 -0.7467 -0.7259
5512000000.0 -1.043 0.1209
5516000000.0 -0.5584 0.8696
5519000000.0 0.2989 1.036
5522000000.0 0.9685 0.4022
5525000000.0 0.9384 -0.5094
5528000000.0 0.2576 -1.05
5531000000.0 -0.6069 -0.874
5534000000.0 -1.073 -0.06685
5538000000.0 -0.7569 0.7598
5541000000.0 0.1211 1.069
5544000000.0 0.9314 0.5985
5547000000.0 1.011 -0.3574
5550000000.0 0.4056 -0.9914
5553000000.0 -0.5238 -0.9337
5556000000.0 -1.029 -0.2212
5559000000.0 -0.7751 0.6447
5562000000.0 0.005548 1.012
5566000000.0 0.804 0.6437
5569000000.0 1.005 -0.184
5572000000.0 0.5003 -0.8791
5575000000.0 -0.3444 -0.9086
5578000000.0 -0.9209 -0.2893
5581000000.0 -0.8143 0.5289
5584000000.0 -0.07615 0.9518
5588000000.0 0.6563 0.6522
5591000000.0 0.9145 -0.06605
5594000000.0 0.4858 -0.7795
5597000000.0 -0.2558 -0.8607
5600000000.0 -0.8376 -0.3233
5603000000.0 -0.7918 0.3934
5606000000.0 -0.1731 0.8661
5609000000.0 0.5405 0.6469
5612000000.0 0.8385 -0.02161
5616000000.0 0.5196 -0.6674
5619000000.0 -0.1812 -0.8252
5622000000.0 -0.7475 -0.3869
5625000000.0 -0.7205 0.344
5628000000.0 -0.2086 0.7924
5631000000.0 0.5196 0.6576
5634000000.0 0.8145 0.0156
5638000000.0 0.5234 -0.5834
5641000000.0 -0.176 -0.8028
5644000000.0 -0.7424 -0.3731
5647000000.0 -0.7386 0.3559
5650000000.0 -0.1752 0.818
5653000000.0 0.5119 0.6773
5656000000.0 0.8482 0.02304
5659000000.0 0.5614 -0.6788
5662000000.0 -0.1795 -0.8683
5666000000.0 -0.7889 -0.4063
5669000000.0 -0.8098 0.3533
5672000000.0 -0.2301 0.8787
5675000000.0 0.5363 0.7484
5678000000.0 0.9494 0.03673
5681000000.0 0.6012 -0.7206
5684000000.0 -0.1654 -0.9508
5688000000.0 -0.8344 -0.4866
5691000000.0 -0.9069 0.3573
5694000000.0 -0.296 0.9294
5697000000.0 0.5695 0.8216
5700000000.0 1.009 0.1206
5703000000.0 0.7074 -0.7244
5706000000.0 -0.07812 -1.031
5709000000.0 -0.8851 -0.5632
5712000000.0 -1.011 0.2918
5716000000.0 -0.4157 1.008
5719000000.0 0.4787 0.9283
5722000000.0 1.044 0.1981
5725000000.0 0.8405 -0.6457
5728000000.0 0.003093 -1.079
5731000000.0 -0.8018 -0.7092
5734000000.0 -1.07 0.1883
5738000000.0 -0.5456 0.9509
5741000000.0 0.3267 1.092
5744000000.0 1.056 0.3716
5747000000.0 0.9766 -0.558
5750000000.0 0.1952 -1.09
5753000000.0 -0.7289 -0.8293
5756000000.0 -1.106 0.04348
5759000000.0 -0.6745 0.8811
5762000000.0 0.2019 1.088
5766000000.0 0.9608 0.5242
5769000000.0 1.024 -0.4179
5772000000.0 0.35 -1.031
5775000000.0 -0.5731 -0.8996
5778000000.0 -1.095 -0.1481
5781000000.0 -0.778 0.7177
5784000000.0 0.07104 1.101
5788000000.0 0.8815 0.6252
5791000000.0 1.044 -0.2532
5794000000.0 0.4497 -0.9855
5797000000.0 -0.4405 -0.958
5800000000.0 -1.009 -0.2372
5803000000.0 -0.8359 0.6129
5806000000.0 -0.05227 1.058
5809000000.0 0.7674 0.7007
5812000000.0 1.011 -0.1548
5816000000.0 0.4986 -0.8742
5819000000.0 -0.3695 -0.9175
5822000000.0 -0.9473 -0.3188
5825000000.0 -0.821 0.5011
5828000000.0 -0.1189 0.9432
5831000000.0 0.6406 0.6823
5834000000.0 0.9453 -0.1035
5838000000.0 0.5173 -0.8245
5841000000.0 -0.264 -0.8835
5844000000.0 -0.8644 -0.3187
5847000000.0 -0.7817 0.4429
5850000000.0 -0.1299 0.8868
5853000000.0 0.5967 0.6648
5856000000.0 0.9044 -0.04584
5859000000.0 0.5354 -0.7045
5862000000.0 -0.26 -0.8604
5866000000.0 -0.819 -0.35
5869000000.0 -0.7717 0.4375
5872000000.0 -0.1614 0.8892
5875000000.0 0.579 0.6517
5878000000.0 0.883 -0.03949
5881000000.0 0.5156 -0.7197
5884000000.0 -0.2327 -0.8282
5888000000.0 -0.7984 -0.3599
5891000000.0 -0.7642 0.3953
5894000000.0 -0.1964 0.8355
5897000000.0 0.5431 0.6356
5900000000.0 0.8863 -0.03581
5903000000.0 0.5308 -0.6969
5906000000.0 -0.174 -0.8523
5909000000.0 -0.7661 -0.3998
5912000000.0 -0.8183 0.3581
5916000000.0 -0.2423 0.8652
5919000000.0 0.482 0.7449
5922000000.0 0.8763 0.08236
5925000000.0 0.6186 -0.5975
5928000000.0 -0.09203 -0.8993
5931000000.0 -0.7794 -0.509
5934000000.0 -0.8756 0.2855
5938000000.0 -0.3548 0.8255
5941000000.0 0.4147 0.8362
5944000000.0 0.9426 0.1972
5947000000.0 0.7363 -0.5814
5950000000.0 0.03911 -0.9306
5953000000.0 -0.7189 -0.622
5956000000.0 -0.9579 0.165
5959000000.0 -0.4908 0.8372
5962000000.0 0.3307 0.9062
5966000000.0 0.9165 0.3464
5969000000.0 0.8663 -0.4857
5972000000.0 0.1978 -0.9632
5975000000.0 -0.6055 -0.7558
5978000000.0 -1.01 0.04416
5981000000.0 -0.6306 0.7741
5984000000.0 0.1995 0.9823
5988000000.0 0.8897 0.4748
5991000000.0 0.8952 -0.365
5994000000.0 0.3211 -0.9516
5997000000.0 -0.5489 -0.8169
6000000000.0 -1.035 -0.1042
6003000000.0 -0.7181 0.7357
6006000000.0 0.0864 0.9766
6009000000.0 0.817 0.5181
6012000000.0 0.9442 -0.3069
6016000000.0 0.341 -0.9082
6019000000.0 -0.4746 -0.8627
6022000000.0 -0.9531 -0.1632
6025000000.0 -0.7013 0.6391
6028000000.0 0.02941 0.9581
6031000000.0 0.7639 0.5559
6034000000.0 0.898 -0.2114
6038000000.0 0.3593 -0.8452
6041000000.0 -0.4278 -0.8264
6044000000.0 -0.9145 -0.1818
6047000000.0 -0.7247 0.5744
6050000000.0 0.01226 0.9127
6053000000.0 0.7164 0.5525
6056000000.0 0.8734 -0.2097
6059000000.0 0.3649 -0.7799
6062000000.0 -0.3692 -0.785
6066000000.0 -0.8217 -0.2219
6069000000.0 -0.7047 0.4891
6072000000.0 0.0095 0.8499
6075000000.0 0.6435 0.5365
6078000000.0 0.8168 -0.1589
6081000000.0 0.3833 -0.7443
6084000000.0 -0.3543 -0.7603
6088000000.0 -0.833 -0.2194
6091000000.0 -0.6873 0.5029
6094000000.0 -0.03548 0.8505
6097000000.0 0.639 0.5634
6100000000.0 0.8405 -0.1366
6103000000.0 0.4295 -0.7091
6106000000.0 -0.3088 -0.8224
6109000000.0 -0.8205 -0.2669
6112000000.0 -0.7463 0.493
6116000000.0 -0.06689 0.8724
6119000000.0 0.649 0.6188
6122000000.0 0.9152 -0.1499
6125000000.0 0.4705 -0.779
6128000000.0 -0.3255 -0.8596
6131000000.0 -0.8602 -0.2992
6134000000.0 -0.7925 0.4779
6138000000.0 -0.1141 0.9019
6141000000.0 0.6156 0.6471
6144000000.0 0.9139 -0.09467
6147000000.0 0.5187 -0.7788
6150000000.0 -0.2699 -0.9202
6153000000.0 -0.8652 -0.3777
6156000000.0 -0.8616 0.428
6159000000.0 -0.1804 0.9702
6162000000.0 0.613 0.7704
6166000000.0 0.9756 -0.0005414
6169000000.0 0.619 -0.7501
6172000000.0 -0.1968 -0.9742
6175000000.0 -0.8869 -0.4423
6178000000.0 -0.8841 0.4182
6181000000.0 -0.2435 0.9673
6184000000.0 0.5856 0.7891
6188000000.0 0.9614 0.06123
6191000000.0 0.6655 -0.7494
6194000000.0 -0.1586 -0.9196
6197000000.0 -0.8398 -0.5054
6200000000.0 -0.8997 0.3244
6203000000.0 -0.3061 0.8851
6206000000.0 0.5117 0.8016
6209000000.0 0.9507 0.1483
6212000000.0 0.6968 -0.6438
6216000000.0 -0.0421 -0.93
6219000000.0 -0.7609 -0.5357
6222000000.0 -0.8715 0.2416
6225000000.0 -0.4115 0.8176
6228000000.0 0.3546 0.7981
6231000000.0 0.8858 0.1953
6234000000.0 0.681 -0.5355
6238000000.0 0.04221 -0.8997
6241000000.0 -0.644 -0.5818
6244000000.0 -0.8607 0.1522
6247000000.0 -0.4503 0.7269
6250000000.0 0.2851 0.8222
6253000000.0 0.787 0.261
6256000000.0 0.7238 -0.402
6259000000.0 0.1316 -0.8106
6262000000.0 -0.5169 -0.5935
