! Created with skrf 1.8.0 (http://scikit-rf.org).
# Hz S RI R 50.0 
!freq ReS11 ImS11
4000000000.0 -0.1385 -1.502
4003000000.0 -1.263 -0.8342
4006000000.0 -1.412 0.4727
4009000000.0 -0.5071 1.414
4012000000.0 0.7705 1.307
4016000000.0 1.499 0.2448
4019000000.0 1.175 -1.057
4022000000.0 -0.1397 -1.56
4025000000.0 -1.312 -0.8699
4028000000.0 -1.522 0.467
4031000000.0 -0.5702 1.445
4034000000.0 0.8392 1.401
4038000000.0 1.618 0.2703
4041000000.0 1.212 -1.119
4044000000.0 -0.1088 -1.667
4047000000.0 -1.355 -0.9512
4050000000.0 -1.556 0.4605
4053000000.0 -0.6068 1.494
4056000000.0 0.7499 1.44
4059000000.0 1.606 0.3334
4062000000.0 1.247 -1.007
4066000000.0 0.01639 -1.638
4069000000.0 -1.212 -1.06
4072000000.0 -1.582 0.2873
4075000000.0 -0.8439 1.448
4078000000.0 0.5585 1.524
4081000000.0 1.555 0.6045
4084000000.0 1.396 -0.8283
4088000000.0 0.2615 -1.641
4091000000.0 -1.099 -1.215
4094000000.0 -1.65 0.05058
4097000000.0 -0.9809 1.307
4100000000.0 0.3721 1.574
4103000000.0 1.435 0.6983
4106000000.0 1.428 -0.6348
4109000000.0 0.4296 -1.522
4112000000.0 -0.823 -1.308
4116000000.0 -1.526 -0.2054
4119000000.0 -1.133 0.9658
4122000000.0 0.04758 1.488
4125000000.0 1.143 0.9154
4128000000.0 1.493 -0.2282
4131000000.0 0.7878 -1.249
4134000000.0 -0.47 -1.383
4138000000.0 -1.36 -0.6297
4141000000.0 -1.351 0.6278
4144000000.0 -0.4101 1.434
4147000000.0 0.8501 1.242
4150000000.0 1.534 0.126
4153000000.0 1.096 -1.087
4156000000.0 -0.1362 -1.51
4159000000.0 -1.224 -0.8732
4162000000.0 -1.5 0.3585
4166000000.0 -0.6545 1.371
4169000000.0 0.6052 1.337
4172000000.0 1.427 0.4337
4175000000.0 1.275 -0.836
4178000000.0 0.1755 -1.51
4181000000.0 -1.065 -1.073
4184000000.0 -1.525 0.1128
4188000000.0 -0.8796 1.207
4191000000.0 0.3545 1.491
4194000000.0 1.409 0.6956
4197000000.0 1.443 -0.6391
4200000000.0 0.3967 -1.565
4203000000.0 -0.9412 -1.278
4206000000.0 -1.613 -0.04578
4209000000.0 -1.073 1.24
4212000000.0 0.3522 1.649
4216000000.0 1.481 0.754
4219000000.0 1.508 -0.7625
4222000000.0 0.3404 -1.632
4225000000.0 -1.106 -1.267
4228000000.0 -1.673 0.1021
4231000000.0 -0.9431 1.411
4234000000.0 0.5244 1.569
4238000000.0 1.557 0.5231
4241000000.0 1.363 -0.9051
4244000000.0 0.1098 -1.6
4247000000.0 -1.24 -1.057
4250000000.0 -1.566 0.3163
4253000000.0 -0.6824 1.439
4256000000.0 0.6614 1.406
4259000000.0 1.477 0.2894
4262000000.0 1.129 -1.038
4266000000.0 -0.09772 -1.528
4269000000.0 -1.23 -0.8911
4272000000.0 -1.425 0.4038
4275000000.0 -0.5115 1.385
4278000000.0 0.7624 1.245
4281000000.0 1.424 0.178
4284000000.0 1.058 -1.023
4288000000.0 -0.1436 -1.437
4291000000.0 -1.149 -0.7834
4294000000.0 -1.285 0.4192
4297000000.0 -0.496 1.266
4300000000.0 0.6298 1.134
4303000000.0 1.275 0.2131
4306000000.0 1.026 -0.8069
4309000000.0 -0.01547 -1.333
4312000000.0 -0.9817 -0.8269
4316000000.0 -1.269 0.1664
4319000000.0 -0.6902 1.123
4322000000.0 0.4416 1.265
4325000000.0 1.189 0.4748
4328000000.0 1.182 -0.62
4331000000.0 0.2663 -1.333
4334000000.0 -0.8527 -1.088
4338000000.0 -1.356 -0.06254
4341000000.0 -0.9105 1.065
4344000000.0 0.2307 1.378
4347000000.0 1.186 0.7468
4350000000.0 1.33 -0.4804
4353000000.0 0.4903 -1.343
4356000000.0 -0.706 -1.246
4359000000.0 -1.426 -0.2404
4362000000.0 -1.114 0.9552
4366000000.0 0.01188 1.489
4369000000.0 1.135 0.939
4372000000.0 1.453 -0.2838
4375000000.0 0.7096 -1.301
4378000000.0 -0.5498 -1.377
4381000000.0 -1.478 -0.4685
4384000000.0 -1.28 0.8146
4388000000.0 -0.2014 1.542
4391000000.0 1.044 1.136
4394000000.0 1.584 -0.1457
4397000000.0 0.8467 -1.338
4400000000.0 -0.4682 -1.534
4403000000.0 -1.497 -0.589
4406000000.0 -1.378 0.8288
4409000000.0 -0.1745 1.597
4412000000.0 1.115 1.088
4416000000.0 1.558 -0.2091
4419000000.0 0.8249 -1.329
4422000000.0 -0.5528 -1.463
4425000000.0 -1.461 -0.4581
4428000000.0 -1.188 0.8635
4431000000.0 -0.1001 1.458
4434000000.0 1.087 0.9735
4438000000.0 1.392 -0.2433
4441000000.0 0.6484 -1.267
4444000000.0 -0.5774 -1.252
4447000000.0 -1.34 -0.3362
4450000000.0 -1.038 0.8685
4453000000.0 0.05133 1.343
4456000000.0 1.041 0.7778
4459000000.0 1.243 -0.3696
4462000000.0 0.4758 -1.196
4466000000.0 -0.6374 -1.074
4469000000.0 -1.223 -0.1808
4472000000.0 -0.8611 0.8457
4475000000.0 0.1597 1.186
4478000000.0 1.004 0.6162
4481000000.0 1.081 -0.4147
4484000000.0 0.3523 -1.11
4488000000.0 -0.6683 -0.9312
4491000000.0 -1.112 -0.07669
4494000000.0 -0.7623 0.845
4497000000.0 0.178 1.134
4500000000.0 0.9553 0.5762
4503000000.0 1.018 -0.4134
4506000000.0 0.3258 -1.053
4509000000.0 -0.5901 -0.9558
4512000000.0 -1.097 -0.1023
4516000000.0 -0.7595 0.7968
4519000000.0 0.1111 1.139
4522000000.0 0.9729 0.6028
4525000000.0 1.078 -0.3129
4528000000.0 0.4178 -1.072
4531000000.0 -0.5531 -0.9946
4534000000.0 -1.168 -0.1863
4538000000.0 -0.8796 0.7666
4541000000.0 0.01564 1.167
4544000000.0 0.9204 0.7305
4547000000.0 1.168 -0.2372
4550000000.0 0.5688 -1.058
4553000000.0 -0.4453 -1.126
4556000000.0 -1.155 -0.3836
4559000000.0 -1.062 0.6489
4562000000.0 -0.1598 1.228
4566000000.0 0.8539 0.9143
4569000000.0 1.271 -0.03683
4572000000.0 0.7948 -1.03
4575000000.0 -0.2533 -1.245
4578000000.0 -1.172 -0.6442
4581000000.0 -1.209 0.5177
4584000000.0 -0.3942 1.285
4588000000.0 0.7238 1.119
4591000000.0 1.362 0.1585
4594000000.0 0.975 -0.9599
4597000000.0 -0.1009 -1.392
4600000000.0 -1.137 -0.7781
4603000000.0 -1.349 0.3514
4606000000.0 -0.5663 1.262
4609000000.0 0.6377 1.241
4612000000.0 1.391 0.2956
4616000000.0 1.099 -0.8906
4619000000.0 0.03998 -1.374
4622000000.0 -1.046 -0.9021
4625000000.0 -1.37 0.2642
4628000000.0 -0.647 1.203
4631000000.0 0.539 1.281
4634000000.0 1.325 0.3971
4638000000.0 1.116 -0.7831
4641000000.0 0.1204 -1.358
4644000000.0 -0.996 -0.9359
4647000000.0 -1.314 0.1965
4650000000.0 -0.6779 1.15
4653000000.0 0.4919 1.233
4656000000.0 1.255 0.3623
4659000000.0 1.062 -0.738
4662000000.0 0.0564 -1.262
4666000000.0 -0.9408 -0.8092
4669000000.0 -1.199 0.2238
4672000000.0 -0.5747 1.035
4675000000.0 0.4603 1.09
4678000000.0 1.158 0.3058
4681000000.0 0.9271 -0.6693
4684000000.0 0.08743 -1.125
4688000000.0 -0.8205 -0.754
4691000000.0 -1.114 0.1771
4694000000.0 -0.5197 0.9825
4697000000.0 0.4447 1.021
4700000000.0 1.087 0.2802
4703000000.0 0.847 -0.6668
4706000000.0 0.06557 -1.079
4709000000.0 -0.8603 -0.7235
4712000000.0 -1.068 0.2081
4716000000.0 -0.4711 0.9777
4719000000.0 0.4513 0.955
4722000000.0 1.022 0.2614
4725000000.0 0.8152 -0.6505
4728000000.0 0.02579 -1.059
4731000000.0 -0.7697 -0.6614
4734000000.0 -1.033 0.1795
4738000000.0 -0.48 0.8851
4741000000.0 0.3787 0.98
4744000000.0 0.9994 0.3511
4747000000.0 0.9016 -0.5429
4750000000.0 0.1759 -1.063
4753000000.0 -0.7412 -0.8231
4756000000.0 -1.095 0.06049
4759000000.0 -0.6653 0.8721
4762000000.0 0.2625 1.101
4766000000.0 0.9964 0.4918
4769000000.0 1.06 -0.4571
4772000000.0 0.3427 -1.119
4775000000.0 -0.6488 -0.9795
4778000000.0 -1.185 -0.1309
4781000000.0 -0.8589 0.8302
4784000000.0 0.05896 1.17
4788000000.0 1.0 0.7135
4791000000.0 1.173 -0.2564
4794000000.0 0.5594 -1.084
4797000000.0 -0.4649 -1.139
4800000000.0 -1.222 -0.3616
4803000000.0 -1.069 0.6581
4806000000.0 -0.1708 1.233
4809000000.0 0.8356 0.9723
4812000000.0 1.294 -0.03767
4816000000.0 0.8292 -1.053
4819000000.0 -0.2874 -1.275
4822000000.0 -1.201 -0.6245
4825000000.0 -1.284 0.5033
4828000000.0 -0.4062 1.301
4831000000.0 0.79 1.16
4834000000.0 1.391 0.1483
4838000000.0 0.9885 -0.9679
4841000000.0 -0.1381 -1.383
4844000000.0 -1.161 -0.7709
4847000000.0 -1.336 0.4241
4850000000.0 -0.5193 1.272
4853000000.0 0.6622 1.247
4856000000.0 1.379 0.256
4859000000.0 1.073 -0.9028
4862000000.0 -0.01722 -1.364
4866000000.0 -1.055 -0.8263
4869000000.0 -1.286 0.3021
4872000000.0 -0.5769 1.187
4875000000.0 0.5194 1.207
4878000000.0 1.251 0.3302
4881000000.0 1.047 -0.7511
4884000000.0 0.06696 -1.247
4888000000.0 -0.935 -0.8124
4891000000.0 -1.19 0.219
4894000000.0 -0.5819 1.066
4897000000.0 0.4607 1.088
4900000000.0 1.109 0.322
4903000000.0 0.9519 -0.6269
4906000000.0 0.07018 -1.078
4909000000.0 -0.7751 -0.7229
4912000000.0 -1.038 0.1262
4916000000.0 -0.5416 0.8657
4919000000.0 0.345 0.9589
4922000000.0 0.9347 0.3548
4925000000.0 0.8347 -0.4973
4928000000.0 0.1659 -0.9641
4931000000.0 -0.6788 -0.6958
4934000000.0 -0.95 0.03714
4938000000.0 -0.5855 0.7526
4941000000.0 0.2138 0.9356
4944000000.0 0.864 0.3995
4947000000.0 0.8822 -0.3818
4950000000.0 0.207 -0.9148
4953000000.0 -0.5924 -0.7591
4956000000.0 -0.9595 -0.05812
4959000000.0 -0.6665 0.7345
4962000000.0 0.1222 0.9579
4966000000.0 0.8529 0.462
4969000000.0 0.9479 -0.3386
4972000000.0 0.3286 -0.9326
4975000000.0 -0.5193 -0.8723
4978000000.0 -1.015 -0.1587
4981000000.0 -0.76 0.7083
4984000000.0 0.03334 1.025
4988000000.0 0.8432 0.626
4991000000.0 1.034 -0.2629
4994000000.0 0.4529 -0.9853
4997000000.0 -0.4635 -1.001
5000000000.0 -1.098 -0.2831
5003000000.0 -0.9548 0.6374
5006000000.0 -0.08234 1.129
5009000000.0 0.8768 0.805
5012000000.0 1.188 -0.1503
5016000000.0 0.6655 -1.047
5019000000.0 -0.3817 -1.197
5022000000.0 -1.161 -0.4708
5025000000.0 -1.117 0.6228
5028000000.0 -0.2456 1.258
5031000000.0 0.8083 0.9825
5034000000.0 1.291 -0.04409
5038000000.0 0.8164 -1.023
5041000000.0 -0.2567 -1.275
5044000000.0 -1.12 -0.6231
5047000000.0 -1.212 0.4714
5050000000.0 -0.3936 1.179
5053000000.0 0.6555 1.09
5056000000.0 1.301 0.2217
5059000000.0 1.014 -0.8803
5062000000.0 -0.009507 -1.293
5066000000.0 -1.031 -0.8233
5069000000.0 -1.259 0.2657
5072000000.0 -0.6095 1.11
5075000000.0 0.4798 1.19
5078000000.0 1.231 0.3826
5081000000.0 1.051 -0.6816
5084000000.0 0.1318 -1.26
5088000000.0 -0.8821 -0.8953
5091000000.0 -1.214 0.0467
5094000000.0 -0.7174 0.9674
5097000000.0 0.275 1.135
5100000000.0 1.02 0.4973
5103000000.0 1.012 -0.452
5106000000.0 0.3228 -1.067
5109000000.0 -0.6091 -0.9104
5112000000.0 -1.053 -0.1245
5116000000.0 -0.7838 0.74
5119000000.0 0.04276 1.079
5122000000.0 0.8303 0.5962
5125000000.0 0.9866 -0.2669
5128000000.0 0.4519 -0.9536
5131000000.0 -0.4534 -0.923
5134000000.0 -0.9895 -0.2674
5138000000.0 -0.781 0.565
5141000000.0 -0.06954 0.9783
5144000000.0 0.7169 0.6304
5147000000.0 0.9641 -0.1424
5150000000.0 0.4825 -0.8224
5153000000.0 -0.2901 -0.9169
5156000000.0 -0.8591 -0.3
5159000000.0 -0.8077 0.5015
5162000000.0 -0.1477 0.8887
5166000000.0 0.613 0.6373
5169000000.0 0.8684 -0.04908
5172000000.0 0.5378 -0.7304
5175000000.0 -0.211 -0.8812
5178000000.0 -0.8157 -0.3809
5181000000.0 -0.817 0.4218
5184000000.0 -0.1726 0.9192
5188000000.0 0.5821 0.6692
5191000000.0 0.9178 -0.02268
5194000000.0 0.5828 -0.7513
5197000000.0 -0.2274 -0.9446
5200000000.0 -0.8657 -0.3881
5203000000.0 -0.8349 0.4183
5206000000.0 -0.1993 0.9243
5209000000.0 0.581 0.7362
5212000000.0 0.9645 -0.005019
5216000000.0 0.6174 -0.7419
5219000000.0 -0.2238 -0.9621
5222000000.0 -0.8639 -0.4453
5225000000.0 -0.9059 0.4011
5228000000.0 -0.2657 0.9617
5231000000.0 0.5982 0.8119
5234000000.0 1.025 0.08115
5238000000.0 0.6983 -0.7481
5241000000.0 -0.1305 -1.047
5244000000.0 -0.8877 -0.5555
5247000000.0 -1.004 0.3122
5250000000.0 -0.3941 1.006
5253000000.0 0.515 0.9396
5256000000.0 1.062 0.1999
5259000000.0 0.8362 -0.6939
5262000000.0 -0.01239 -1.084
5266000000.0 -0.8182 -0.6985
5269000000.0 -1.081 0.1596
5272000000.0 -0.5349 0.9479
5275000000.0 0.3317 1.037
5278000000.0 1.028 0.4109
5281000000.0 0.9746 -0.5082
5284000000.0 0.2479 -1.089
5288000000.0 -0.6849 -0.8828
5291000000.0 -1.132 -0.03696
5294000000.0 -0.7537 0.803
5297000000.0 0.1156 1.108
5300000000.0 0.9281 0.6241
5303000000.0 1.1 -0.315
5306000000.0 0.4253 -1.025
5309000000.0 -0.4678 -1.044
5312000000.0 -1.132 -0.2708
5316000000.0 -0.9327 0.6834
5319000000.0 -0.07603 1.155
5322000000.0 0.8115 0.8245
5325000000.0 1.162 -0.08293
5328000000.0 0.6329 -0.9625
5331000000.0 -0.3202 -1.117
5334000000.0 -1.052 -0.4479
5338000000.0 -1.046 0.4743
5341000000.0 -0.2635 1.119
5344000000.0 0.6851 0.8938
5347000000.0 1.128 0.01652
5350000000.0 0.7513 -0.8133
5353000000.0 -0.1673 -1.105
5356000000.0 -0.9663 -0.5694
5359000000.0 -1.012 0.362
5362000000.0 -0.3307 1.006
5366000000.0 0.5527 0.8974
5369000000.0 1.068 0.1298
5372000000.0 0.7451 -0.7365
5375000000.0 -0.08898 -1.049
5378000000.0 -0.8621 -0.5079
5381000000.0 -0.9805 0.3306
5384000000.0 -0.3428 0.961
5388000000.0 0.5235 0.8701
5391000000.0 0.9551 0.09266
5394000000.0 0.6852 -0.6745
5397000000.0 -0.1125 -0.9474
5400000000.0 -0.7779 -0.4981
5403000000.0 -0.84 0.3128
5406000000.0 -0.2978 0.866
5409000000.0 0.4907 0.7383
5412000000.0 0.8769 0.06443
5416000000.0 0.5799 -0.6337
5419000000.0 -0.1292 -0.8577
5422000000.0 -0.7411 -0.4383
5425000000.0 -0.8079 0.3048
5428000000.0 -0.2685 0.8351
5431000000.0 0.489 0.7275
5434000000.0 0.8364 0.06761
5438000000.0 0.6134 -0.6377
5441000000.0 -0.1412 -0.8639
5444000000.0 -0.7812 -0.4409
5447000000.0 -0.8249 0.305
5450000000.0 -0.263 0.8393
5453000000.0 0.4918 0.7667
5456000000.0 0.8822 0.09254
5459000000.0 0.6102 -0.5925
5462000000.0 -0.08117 -0.9224
5466000000.0 -0.7504 -0.5287
5469000000.0 -0.8736 0.2435
5472000000.0 -0.396 0.8509
5475000000.0 0.3847 0.807
5478000000.0 0.9041 0.2167
5481000000.0 0.7719 -0.5528
5484000000.0 0.03835 -0.973
5488000000.0 -0.7119 -0.6991
5491000000.0 -0.9902 0.1167
5494000000.0 -0.5018 0.8111
5497000000.0 0.3027 0.955
5500000000.0 0.9311 0.393
5503000000.0 0.8994 -0.471
5506000000.0 0.2465 -1.0
5509000000.0 -0.5993 -0.8269
5512000000.0 -1.026 -0.07747
5516000000.0 -0.7171 0.7442
5519000000.0 0.1087 1.033
5522000000.0 0.8722 0.5911
5525000000.0 1.014 -0.2784
5528000000.0 0.4133 -0.9594
5531000000.0 -0.4308 -0.9125
5534000000.0 -1.06 -0.2778
5538000000.0 -0.8692 0.5852
5541000000.0 -0.1231 1.08
5544000000.0 0.7692 0.742
5547000000.0 1.072 -0.1209
5550000000.0 0.5864 -0.8798
5553000000.0 -0.3221 -1.027
5556000000.0 -0.9804 -0.4115
5559000000.0 -0.9621 0.4886
5562000000.0 -0.2421 1.007
5566000000.0 0.6441 0.7917
5569000000.0 1.066 0.04125
5572000000.0 0.7103 -0.7518
5575000000.0 -0.1287 -0.9948
5578000000.0 -0.873 -0.5405
5581000000.0 -0.9416 0.3299
5584000000.0 -0.3185 0.9475
5588000000.0 0.5014 0.8562
5591000000.0 0.967 0.1773
5594000000.0 0.7362 -0.6172
5597000000.0 -0.009856 -0.961
5600000000.0 -0.7461 -0.5804
5603000000.0 -0.9064 0.1844
5606000000.0 -0.3696 0.8123
5609000000.0 0.3909 0.8145
5612000000.0 0.8478 0.2039
5616000000.0 0.7146 -0.5295
5619000000.0 0.05732 -0.8643
5622000000.0 -0.6471 -0.5784
5625000000.0 -0.8546 0.1557
5628000000.0 -0.4039 0.7389
5631000000.0 0.3196 0.7826
5634000000.0 0.7812 0.2476
5638000000.0 0.6954 -0.442
5641000000.0 0.05979 -0.8377
5644000000.0 -0.5927 -0.5904
5647000000.0 -0.816 0.08127
5650000000.0 -0.4388 0.7058
5653000000.0 0.288 0.8064
5656000000.0 0.8008 0.2664
5659000000.0 0.7023 -0.4688
5662000000.0 0.07965 -0.8646
5666000000.0 -0.6014 -0.6016
5669000000.0 -0.8868 0.1262
5672000000.0 -0.4424 0.7654
5675000000.0 0.3365 0.8445
5678000000.0 0.8586 0.3017
5681000000.0 0.7825 -0.5047
5684000000.0 0.09554 -0.9271
5688000000.0 -0.67 -0.6802
5691000000.0 -0.9561 0.09518
5694000000.0 -0.4985 0.8222
5697000000.0 0.2952 0.9202
5700000000.0 0.9199 0.3424
5703000000.0 0.8701 -0.5049
5706000000.0 0.1762 -0.9774
5709000000.0 -0.666 -0.7625
5712000000.0 -1.021 0.03385
5716000000.0 -0.6129 0.8388
5719000000.0 0.2332 0.9876
5722000000.0 0.9295 0.5026
5725000000.0 0.9614 -0.4372
5728000000.0 0.3042 -1.032
5731000000.0 -0.5755 -0.8611
5734000000.0 -1.138 -0.1095
5738000000.0 -0.7568 0.7643
5741000000.0 0.09143 1.061
5744000000.0 0.901 0.63
5747000000.0 1.064 -0.3018
5750000000.0 0.4383 -0.9976
5753000000.0 -0.5077 -1.007
5756000000.0 -1.063 -0.2886
5759000000.0 -0.8673 0.6408
5762000000.0 -0.08267 1.097
5766000000.0 0.7884 0.7737
5769000000.0 1.104 -0.1599
5772000000.0 0.5849 -0.922
5775000000.0 -0.3234 -1.04
5778000000.0 -1.012 -0.4435
5781000000.0 -0.9528 0.5089
5784000000.0 -0.2098 1.065
5788000000.0 0.6895 0.8569
5791000000.0 1.058 0.03646
5794000000.0 0.7383 -0.819
5797000000.0 -0.1517 -1.081
5800000000.0 -0.9143 -0.5512
5803000000.0 -1.013 0.3441
5806000000.0 -0.403 0.9683
5809000000.0 0.5059 0.9425
5812000000.0 1.064 0.1662
5816000000.0 0.8007 -0.6549
5819000000.0 -0.04996 -1.01
5822000000.0 -0.8007 -0.6409
5825000000.0 -1.002 0.22
5828000000.0 -0.4706 0.9136
5831000000.0 0.3868 0.9165
5834000000.0 0.9313 0.2329
5838000000.0 0.8121 -0.5639
5841000000.0 0.06803 -0.9636
5844000000.0 -0.7095 -0.6466
5847000000.0 -0.9747 0.1435
5850000000.0 -0.4825 0.8273
5853000000.0 0.3395 0.8927
5856000000.0 0.8942 0.3268
5859000000.0 0.7931 -0.5338
5862000000.0 0.08024 -0.9357
5866000000.0 -0.6819 -0.6201
5869000000.0 -0.9317 0.08421
5872000000.0 -0.4503 0.7785
5875000000.0 0.2992 0.8456
5878000000.0 0.8465 0.2938
5881000000.0 0.7535 -0.4646
5884000000.0 0.09686 -0.8689
5888000000.0 -0.6222 -0.6316
5891000000.0 -0.8538 0.05257
5894000000.0 -0.5027 0.706
5897000000.0 0.2328 0.7924
5900000000.0 0.7912 0.32
5903000000.0 0.7674 -0.4122
5906000000.0 0.1486 -0.8521
5909000000.0 -0.5782 -0.6596
5912000000.0 -0.8633 0.02677
5916000000.0 -0.5433 0.6644
5919000000.0 0.1843 0.8436
5922000000.0 0.7725 0.394
5925000000.0 0.8094 -0.3661
5928000000.0 0.2585 -0.8402
5931000000.0 -0.4792 -0.7174
5934000000.0 -0.8959 -0.1003
5938000000.0 -0.6429 0.6218
5941000000.0 0.06287 0.8631
5944000000.0 0.7507 0.5177
5947000000.0 0.873 -0.2275
5950000000.0 0.3792 -0.8299
5953000000.0 -0.4167 -0.8043
5956000000.0 -0.9032 -0.2349
5959000000.0 -0.7646 0.5795
5962000000.0 -0.07697 0.9328
5966000000.0 0.6808 0.6437
5969000000.0 0.9165 -0.1094
5972000000.0 0.5339 -0.8267
5975000000.0 -0.2708 -0.9261
5978000000.0 -0.882 -0.3826
5981000000.0 -0.8758 0.4377
5984000000.0 -0.2417 0.9453
5988000000.0 0.6031 0.796
5991000000.0 0.987 0.03026
5994000000.0 0.6433 -0.7351
5997000000.0 -0.1404 -0.9956
6000000000.0 -0.8495 -0.5181
6003000000.0 -0.9395 0.3139
6006000000.0 -0.3584 0.9163
6009000000.0 0.5129 0.8502
6012000000.0 0.9975 0.1449
6016000000.0 0.7429 -0.6873
6019000000.0 -0.06341 -1.001
6022000000.0 -0.7674 -0.5873
6025000000.0 -0.9737 0.2232
6028000000.0 -0.4548 0.8878
6031000000.0 0.3828 0.8999
6034000000.0 0.9107 0.261
6038000000.0 0.8013 -0.5791
6041000000.0 0.03729 -0.9724
6044000000.0 -0.7341 -0.6344
6047000000.0 -0.9507 0.1161
6050000000.0 -0.4867 0.8242
6053000000.0 0.3253 0.8831
6056000000.0 0.8888 0.2979
6059000000.0 0.7961 -0.4862
6062000000.0 0.1112 -0.9239
6066000000.0 -0.6518 -0.6643
6069000000.0 -0.8899 0.05435
6072000000.0 -0.5102 0.7571
6075000000.0 0.2645 0.8566
6078000000.0 0.8381 0.3146
6081000000.0 0.7404 -0.4283
6084000000.0 0.1377 -0.8457
6088000000.0 -0.5749 -0.6608
6091000000.0 -0.853 0.03321
6094000000.0 -0.5026 0.6953
6097000000.0 0.2293 0.8223
6100000000.0 0.7924 0.3708
6103000000.0 0.7855 -0.3535
6106000000.0 0.1579 -0.8254
6109000000.0 -0.5672 -0.6774
6112000000.0 -0.8572 -0.05232
6116000000.0 -0.5595 0.6705
6119000000.0 0.1736 0.8638
6122000000.0 0.7802 0.3731
6125000000.0 0.7916 -0.3351
6128000000.0 0.22 -0.8061
6131000000.0 -0.5144 -0.7059
6134000000.0 -0.8441 -0.04086
6138000000.0 -0.6022 0.6515
6141000000.0 0.1298 0.8878
6144000000.0 0.7915 0.4628
6147000000.0 0.8247 -0.2937
6150000000.0 0.278 -0.8295
6153000000.0 -0.4645 -0.7603
6156000000.0 -0.879 -0.09945
6159000000.0 -0.6605 0.6212
6162000000.0 0.1068 0.9236
6166000000.0 0.7371 0.5561
6169000000.0 0.8736 -0.2315
6172000000.0 0.3651 -0.8443
6175000000.0 -0.427 -0.8617
6178000000.0 -0.922 -0.2089
6181000000.0 -0.7589 0.573
6184000000.0 0.01768 0.9205
6188000000.0 0.7405 0.6149
6191000000.0 0.9519 -0.1668
6194000000.0 0.4705 -0.85
6197000000.0 -0.3419 -0.8881
6200000000.0 -0.8847 -0.2838
6203000000.0 -0.8087 0.5137
6206000000.0 -0.09712 0.939
6209000000.0 0.6211 0.6644
6212000000.0 0.9179 -0.07077
6216000000.0 0.4699 -0.7675
6219000000.0 -0.2409 -0.9342
6222000000.0 -0.8361 -0.3804
6225000000.0 -0.7985 0.3915
6228000000.0 -0.1746 0.8969
6231000000.0 0.5397 0.6944
6234000000.0 0.8781 0.05471
6238000000.0 0.6223 -0.6355
6241000000.0 -0.1192 -0.8691
6244000000.0 -0.7615 -0.4344
6247000000.0 -0.819 0.2751
6250000000.0 -0.3058 0.7888
6253000000.0 0.4178 0.7835
6256000000.0 0.8375 0.1553
6259000000.0 0.6838 -0.5399
6262000000.0 0.02909 -0.801
6266000000.0 -0.5999 -0.5381
6269000000.0 -0.8092 0.1244
