! Created with skrf 1.8.0 (http://scikit-rf.org).
# Hz S RI R 50.0 
!freq ReS11 ImS11
4000000000.0 0.466 1.721
4003000000.0 1.613 0.6289
4006000000.0 1.482 -0.9415
4009000000.0 0.1194 -1.713
4012000000.0 -1.271 -1.097
4016000000.0 -1.61 0.3752
4019000000.0 -0.69 1.496
4022000000.0 0.8087 1.473
4025000000.0 1.57 0.2438
4028000000.0 1.095 -1.14
4031000000.0 -0.2315 -1.564
4034000000.0 -1.349 -0.7064
4038000000.0 -1.305 0.6258
4041000000.0 -0.2699 1.431
4044000000.0 0.9506 1.032
4047000000.0 1.444 -0.09852
4050000000.0 0.7168 -1.145
4053000000.0 -0.4845 -1.259
4056000000.0 -1.291 -0.3785
4059000000.0 -1.051 0.8167
4062000000.0 -0.007451 1.358
4066000000.0 1.075 0.8235
4069000000.0 1.305 -0.3753
4072000000.0 0.4605 -1.283
4075000000.0 -0.7287 -1.191
4078000000.0 -1.409 -0.09854
4081000000.0 -0.9548 1.06
4084000000.0 0.3122 1.411
4088000000.0 1.358 0.6216
4091000000.0 1.296 -0.7422
4094000000.0 0.2093 -1.477
4097000000.0 -1.083 -1.074
4100000000.0 -1.486 0.2004
4103000000.0 -0.7645 1.34
4106000000.0 0.6261 1.418
4109000000.0 1.474 0.3529
4112000000.0 1.159 -0.9637
4116000000.0 0.00757 -1.529
4119000000.0 -1.195 -0.9428
4122000000.0 -1.46 0.3587
4125000000.0 -0.6591 1.365
4128000000.0 0.639 1.367
4131000000.0 1.474 0.3544
4134000000.0 1.247 -0.9504
4138000000.0 0.09905 -1.513
4141000000.0 -1.15 -1.008
4144000000.0 -1.523 0.2698
4147000000.0 -0.7851 1.34
4150000000.0 0.5412 1.427
4153000000.0 1.443 0.5207
4156000000.0 1.307 -0.8152
4159000000.0 0.2147 -1.526
4162000000.0 -1.055 -1.122
4166000000.0 -1.523 0.04845
4169000000.0 -0.9298 1.193
4172000000.0 0.3077 1.483
4175000000.0 1.318 0.7006
4178000000.0 1.41 -0.5612
4181000000.0 0.4826 -1.413
4184000000.0 -0.7657 -1.286
4188000000.0 -1.457 -0.2916
4191000000.0 -1.199 0.9586
4194000000.0 -0.05765 1.504
4197000000.0 1.182 1.006
4200000000.0 1.518 -0.2288
4203000000.0 0.8136 -1.349
4206000000.0 -0.4931 -1.484
4209000000.0 -1.492 -0.6216
4212000000.0 -1.405 0.7651
4216000000.0 -0.3214 1.617
4219000000.0 1.101 1.271
4222000000.0 1.695 -0.008069
4225000000.0 1.037 -1.317
4228000000.0 -0.3585 -1.664
4231000000.0 -1.463 -0.781
4234000000.0 -1.535 0.698
4238000000.0 -0.4639 1.665
4241000000.0 1.014 1.356
4244000000.0 1.741 0.0741
4247000000.0 1.164 -1.267
4250000000.0 -0.2646 -1.693
4253000000.0 -1.515 -0.8203
4256000000.0 -1.59 0.6685
4259000000.0 -0.4913 1.724
4262000000.0 1.067 1.387
4266000000.0 1.775 0.004647
4269000000.0 1.077 -1.375
4272000000.0 -0.437 -1.698
4275000000.0 -1.604 -0.6627
4278000000.0 -1.504 0.8802
4281000000.0 -0.2113 1.743
4284000000.0 1.245 1.171
4288000000.0 1.661 -0.2717
4291000000.0 0.7602 -1.429
4294000000.0 -0.6317 -1.458
4297000000.0 -1.522 -0.3621
4300000000.0 -1.181 0.9591
4303000000.0 0.005792 1.49
4306000000.0 1.153 0.9445
4309000000.0 1.415 -0.3419
4312000000.0 0.6131 -1.3
4316000000.0 -0.589 -1.264
4319000000.0 -1.376 -0.3314
4322000000.0 -1.097 0.8784
4325000000.0 -0.03882 1.384
4328000000.0 1.083 0.9353
4331000000.0 1.349 -0.2347
4334000000.0 0.6824 -1.201
4338000000.0 -0.5157 -1.269
4341000000.0 -1.348 -0.378
4344000000.0 -1.141 0.7468
4347000000.0 -0.1279 1.361
4350000000.0 0.9713 0.9824
4353000000.0 1.345 -0.1577
4356000000.0 0.7266 -1.152
4359000000.0 -0.3864 -1.319
4362000000.0 -1.237 -0.5168
4366000000.0 -1.202 0.6042
4369000000.0 -0.3075 1.311
4372000000.0 0.8438 1.125
4375000000.0 1.372 0.07549
4378000000.0 0.9256 -1.004
4381000000.0 -0.1637 -1.392
4384000000.0 -1.144 -0.793
4388000000.0 -1.39 0.399
4391000000.0 -0.5514 1.358
4394000000.0 0.6734 1.325
4397000000.0 1.442 0.3231
4400000000.0 1.18 -0.9256
4403000000.0 0.06222 -1.516
4406000000.0 -1.147 -0.9968
4409000000.0 -1.506 0.2109
4412000000.0 -0.8011 1.301
4416000000.0 0.5241 1.439
4419000000.0 1.451 0.5104
4422000000.0 1.341 -0.7797
4425000000.0 0.2231 -1.545
4428000000.0 -1.023 -1.148
4431000000.0 -1.561 0.03724
4434000000.0 -0.9261 1.25
4438000000.0 0.3872 1.568
4441000000.0 1.412 0.7347
4444000000.0 1.457 -0.6332
4447000000.0 0.3876 -1.573
4450000000.0 -0.9758 -1.286
4453000000.0 -1.589 -0.05548
4456000000.0 -1.052 1.236
4459000000.0 0.3096 1.575
4462000000.0 1.428 0.6986
4466000000.0 1.418 -0.6802
4469000000.0 0.3472 -1.532
4472000000.0 -0.952 -1.184
4475000000.0 -1.54 0.04955
4478000000.0 -0.9024 1.206
4481000000.0 0.3825 1.416
4484000000.0 1.306 0.5665
4488000000.0 1.231 -0.6924
4491000000.0 0.2059 -1.348
4494000000.0 -0.9333 -0.9731
4497000000.0 -1.33 0.141
4500000000.0 -0.6884 1.164
4503000000.0 0.4054 1.179
4506000000.0 1.151 0.3532
4509000000.0 0.9981 -0.651
4512000000.0 0.1151 -1.18
4516000000.0 -0.8515 -0.7821
4519000000.0 -1.13 0.1955
4522000000.0 -0.5031 0.9813
4525000000.0 0.4851 1.004
4528000000.0 1.067 0.2837
4531000000.0 0.8659 -0.6705
4534000000.0 -0.005863 -1.074
4538000000.0 -0.8479 -0.6679
4541000000.0 -1.03 0.2188
4544000000.0 -0.4369 0.962
4547000000.0 0.4858 0.956
4550000000.0 1.02 0.2295
4553000000.0 0.8245 -0.6678
4556000000.0 -0.01826 -1.042
4559000000.0 -0.8381 -0.6925
4562000000.0 -1.028 0.2524
4566000000.0 -0.4448 0.9456
4569000000.0 0.4586 1.005
4572000000.0 1.046 0.2667
4575000000.0 0.9084 -0.6396
4578000000.0 0.04479 -1.103
4581000000.0 -0.8181 -0.7659
4584000000.0 -1.139 0.1514
4588000000.0 -0.5907 0.9838
4591000000.0 0.3703 1.103
4594000000.0 1.116 0.4347
4597000000.0 1.028 -0.5788
4600000000.0 0.1843 -1.216
4603000000.0 -0.7857 -0.9363
4606000000.0 -1.215 0.03339
4609000000.0 -0.7671 1.009
4612000000.0 0.2856 1.247
4616000000.0 1.138 0.5762
4619000000.0 1.163 -0.4823
4622000000.0 0.3533 -1.222
4625000000.0 -0.7337 -1.084
4628000000.0 -1.315 -0.09867
4631000000.0 -0.9134 0.9045
4634000000.0 0.1601 1.326
4638000000.0 1.103 0.7267
4641000000.0 1.3 -0.401
4644000000.0 0.5229 -1.259
4647000000.0 -0.6762 -1.137
4650000000.0 -1.342 -0.1984
4653000000.0 -1.064 0.9072
4656000000.0 0.05032 1.374
4659000000.0 1.101 0.8064
4662000000.0 1.301 -0.3655
4666000000.0 0.5382 -1.251
4669000000.0 -0.6126 -1.198
4672000000.0 -1.327 -0.2463
4675000000.0 -1.009 0.8719
4678000000.0 0.0191 1.324
4681000000.0 1.066 0.7854
4684000000.0 1.233 -0.2876
4688000000.0 0.5283 -1.17
4691000000.0 -0.5615 -1.17
4694000000.0 -1.28 -0.2642
4697000000.0 -0.9327 0.8574
4700000000.0 0.03575 1.226
4703000000.0 1.035 0.6796
4706000000.0 1.172 -0.3496
4709000000.0 0.453 -1.13
4712000000.0 -0.6139 -0.9554
4716000000.0 -1.177 -0.1463
4719000000.0 -0.7938 0.8352
4722000000.0 0.2291 1.102
4725000000.0 0.9772 0.527
4728000000.0 1.009 -0.4326
4731000000.0 0.2531 -1.008
4734000000.0 -0.6278 -0.8247
4738000000.0 -0.9815 -0.04961
4741000000.0 -0.6159 0.773
4744000000.0 0.1969 0.973
4747000000.0 0.8796 0.4234
4750000000.0 0.8881 -0.3932
4753000000.0 0.246 -0.9474
4756000000.0 -0.6118 -0.757
4759000000.0 -0.9669 0.02228
4762000000.0 -0.6094 0.7685
4766000000.0 0.2154 0.9804
4769000000.0 0.8855 0.4409
4772000000.0 0.9171 -0.401
4775000000.0 0.2202 -0.977
4778000000.0 -0.6035 -0.8113
4781000000.0 -1.014 -0.02385
4784000000.0 -0.6936 0.7804
4788000000.0 0.1805 1.02
4791000000.0 0.8929 0.5195
4794000000.0 0.9807 -0.3582
4797000000.0 0.3707 -0.9773
4800000000.0 -0.5179 -0.9395
4803000000.0 -1.024 -0.201
4806000000.0 -0.8037 0.6881
4809000000.0 0.04556 1.094
4812000000.0 0.8818 0.7003
4816000000.0 1.11 -0.2238
4819000000.0 0.549 -1.005
4822000000.0 -0.3975 -1.096
4825000000.0 -1.114 -0.3798
4828000000.0 -1.024 0.6521
4831000000.0 -0.137 1.214
4834000000.0 0.8887 0.9259
4838000000.0 1.275 -0.07905
4841000000.0 0.7644 -1.054
4844000000.0 -0.3388 -1.252
4847000000.0 -1.165 -0.5758
4850000000.0 -1.21 0.5387
4853000000.0 -0.3302 1.276
4856000000.0 0.792 1.075
4859000000.0 1.339 0.07655
4862000000.0 0.9174 -1.01
4866000000.0 -0.2171 -1.329
4869000000.0 -1.184 -0.688
4872000000.0 -1.298 0.4896
4875000000.0 -0.4223 1.306
4878000000.0 0.7643 1.163
4881000000.0 1.386 0.1726
4884000000.0 0.9687 -0.964
4888000000.0 -0.1623 -1.363
4891000000.0 -1.148 -0.7033
4894000000.0 -1.246 0.4752
4897000000.0 -0.4026 1.243
4900000000.0 0.6912 1.075
4903000000.0 1.24 0.156
4906000000.0 0.8769 -0.8487
4909000000.0 -0.1026 -1.212
4912000000.0 -0.9812 -0.6326
4916000000.0 -1.116 0.3406
4919000000.0 -0.3961 1.079
4922000000.0 0.5763 0.9644
4925000000.0 1.056 0.1569
4928000000.0 0.7776 -0.7074
4931000000.0 -0.03174 -1.028
4934000000.0 -0.8268 -0.6071
4938000000.0 -0.9562 0.2384
4941000000.0 -0.424 0.9009
4944000000.0 0.4188 0.8679
4947000000.0 0.9475 0.2235
4950000000.0 0.758 -0.5844
4953000000.0 0.01541 -0.9507
4956000000.0 -0.7346 -0.5989
4959000000.0 -0.9118 0.1967
4962000000.0 -0.4283 0.8573
4966000000.0 0.3921 0.8649
4969000000.0 0.904 0.2432
4972000000.0 0.7527 -0.5515
4975000000.0 0.05132 -0.9154
4978000000.0 -0.7061 -0.6318
4981000000.0 -0.9168 0.1507
4984000000.0 -0.4646 0.8446
4988000000.0 0.373 0.897
4991000000.0 0.9058 0.3263
4994000000.0 0.8239 -0.5246
4997000000.0 0.1264 -1.017
5000000000.0 -0.6885 -0.7392
5003000000.0 -1.039 0.06272
5006000000.0 -0.6103 0.8678
5009000000.0 0.2681 1.02
5012000000.0 1.0 0.4309
5016000000.0 0.9893 -0.5027
5019000000.0 0.2492 -1.088
5022000000.0 -0.6917 -0.9055
5025000000.0 -1.152 -0.0004092
5028000000.0 -0.7703 0.8748
5031000000.0 0.2252 1.154
5034000000.0 1.027 0.5908
5038000000.0 1.115 -0.4406
5041000000.0 0.3819 -1.124
5044000000.0 -0.6353 -1.058
5047000000.0 -1.208 -0.187
5050000000.0 -0.9198 0.8437
5053000000.0 0.0686 1.264
5056000000.0 1.045 0.7703
5059000000.0 1.25 -0.2554
5062000000.0 0.5262 -1.147
5066000000.0 -0.5429 -1.167
5069000000.0 -1.257 -0.3118
5072000000.0 -1.077 0.7317
5075000000.0 -0.119 1.313
5078000000.0 0.9518 0.9052
5081000000.0 1.297 -0.1428
5084000000.0 0.7019 -1.108
5088000000.0 -0.3862 -1.19
5091000000.0 -1.137 -0.5155
5094000000.0 -1.106 0.5903
5097000000.0 -0.2544 1.206
5100000000.0 0.7402 0.9571
5103000000.0 1.157 0.04688
5106000000.0 0.8048 -0.8802
5109000000.0 -0.1825 -1.166
5112000000.0 -0.9794 -0.6471
5116000000.0 -1.097 0.3424
5119000000.0 -0.4593 1.015
5122000000.0 0.5149 1.008
5125000000.0 1.029 0.2189
5128000000.0 0.8746 -0.6604
5131000000.0 0.02168 -1.092
5134000000.0 -0.7745 -0.7058
5138000000.0 -1.033 0.1443
5141000000.0 -0.5383 0.8958
5144000000.0 0.3526 0.9562
5147000000.0 0.9526 0.3416
5150000000.0 0.8497 -0.5036
5153000000.0 0.1474 -0.9384
5156000000.0 -0.6365 -0.7513
5159000000.0 -0.9372 -0.01279
5162000000.0 -0.5892 0.7558
5166000000.0 0.1984 0.912
5169000000.0 0.8448 0.43
5172000000.0 0.864 -0.361
5175000000.0 0.2904 -0.9109
5178000000.0 -0.4838 -0.7781
5181000000.0 -0.9162 -0.05864
5184000000.0 -0.6505 0.6658
5188000000.0 0.1309 0.951
5191000000.0 0.7976 0.4829
5194000000.0 0.8576 -0.319
5197000000.0 0.2777 -0.8784
5200000000.0 -0.5138 -0.7794
5203000000.0 -0.9241 -0.04958
5206000000.0 -0.6505 0.668
5209000000.0 0.133 0.8998
5212000000.0 0.8249 0.4747
5216000000.0 0.8999 -0.3375
5219000000.0 0.2972 -0.9091
5222000000.0 -0.535 -0.795
5225000000.0 -0.9677 -0.08185
5228000000.0 -0.6793 0.6899
5231000000.0 0.1046 0.9813
5234000000.0 0.8634 0.5132
5238000000.0 0.9204 -0.3232
5241000000.0 0.3389 -0.9409
5244000000.0 -0.5239 -0.8586
5247000000.0 -0.9915 -0.1232
5250000000.0 -0.7606 0.7267
5253000000.0 0.07565 1.027
5256000000.0 0.8462 0.6156
5259000000.0 1.021 -0.2637
5262000000.0 0.4307 -0.9562
5266000000.0 -0.4603 -0.9345
5269000000.0 -1.032 -0.274
5272000000.0 -0.8461 0.6566
5275000000.0 -0.05855 1.042
5278000000.0 0.7737 0.7407
5281000000.0 1.083 -0.126
5284000000.0 0.6234 -0.8928
5288000000.0 -0.3033 -1.071
5291000000.0 -0.9866 -0.4072
5294000000.0 -0.9941 0.4757
5297000000.0 -0.2979 1.063
5300000000.0 0.6288 0.8895
5303000000.0 1.097 0.1151
5306000000.0 0.8232 -0.7764
5309000000.0 -0.08255 -1.121
5312000000.0 -0.9148 -0.6938
5316000000.0 -1.101 0.2446
5319000000.0 -0.503 1.034
5322000000.0 0.4333 1.064
5325000000.0 1.067 0.3556
5328000000.0 0.9515 -0.6424
5331000000.0 0.1598 -1.123
5334000000.0 -0.7776 -0.8549
5338000000.0 -1.172 0.05599
5341000000.0 -0.6783 0.9379
5344000000.0 0.2529 1.143
5347000000.0 1.028 0.5199
5350000000.0 1.035 -0.4304
5353000000.0 0.3543 -1.075
5356000000.0 -0.6126 -0.9907
5359000000.0 -1.121 -0.09795
5362000000.0 -0.8005 0.8072
5366000000.0 0.0842 1.119
5369000000.0 0.9334 0.6206
5372000000.0 1.089 -0.2936
5375000000.0 0.4746 -1.024
5378000000.0 -0.5412 -0.997
5381000000.0 -1.058 -0.1911
5384000000.0 -0.8175 0.6841
5388000000.0 0.01441 1.049
5391000000.0 0.8576 0.6236
5394000000.0 0.9774 -0.2356
5397000000.0 0.4162 -0.9196
5400000000.0 -0.458 -0.925
5403000000.0 -0.9633 -0.2076
5406000000.0 -0.759 0.6371
5409000000.0 0.002417 0.9445
5412000000.0 0.7281 0.5693
5416000000.0 0.8814 -0.2181
5419000000.0 0.408 -0.8174
5422000000.0 -0.4282 -0.7948
5425000000.0 -0.8681 -0.1556
5428000000.0 -0.6788 0.5931
5431000000.0 0.02533 0.8861
5434000000.0 0.7178 0.5542
5438000000.0 0.8787 -0.2357
5441000000.0 0.3595 -0.8017
5444000000.0 -0.4453 -0.776
5447000000.0 -0.864 -0.1297
5450000000.0 -0.6657 0.5731
5453000000.0 0.08929 0.8827
5456000000.0 0.7082 0.5074
5459000000.0 0.8118 -0.2541
5462000000.0 0.3108 -0.7921
5466000000.0 -0.4103 -0.7333
5469000000.0 -0.829 -0.1656
5472000000.0 -0.6613 0.5515
5475000000.0 0.01175 0.8821
5478000000.0 0.7038 0.5508
5481000000.0 0.8746 -0.1613
5484000000.0 0.4542 -0.8319
5488000000.0 -0.3347 -0.8382
5491000000.0 -0.9216 -0.2932
5494000000.0 -0.8004 0.5412
5497000000.0 -0.1192 0.9505
5500000000.0 0.6751 0.6887
5503000000.0 0.9632 -0.06153
5506000000.0 0.5472 -0.7788
5509000000.0 -0.2445 -0.9526
5512000000.0 -0.8702 -0.4023
5516000000.0 -0.8822 0.3829
5519000000.0 -0.2415 0.9486
5522000000.0 0.531 0.829
5525000000.0 0.9789 0.1105
5528000000.0 0.7259 -0.6796
5531000000.0 -0.07647 -1.02
5534000000.0 -0.8004 -0.6183
5538000000.0 -1.001 0.2119
5541000000.0 -0.4381 0.9396
5544000000.0 0.3982 0.9913
5547000000.0 1.0 0.3173
5550000000.0 0.8447 -0.5434
5553000000.0 0.1464 -1.024
5556000000.0 -0.7175 -0.7852
5559000000.0 -1.068 0.03693
5562000000.0 -0.6805 0.8684
5566000000.0 0.2227 1.008
5569000000.0 0.9434 0.4779
5572000000.0 0.989 -0.3948
5575000000.0 0.3021 -1.017
5578000000.0 -0.5759 -0.8644
5581000000.0 -1.038 -0.1229
5584000000.0 -0.7501 0.7325
5588000000.0 0.07595 0.9978
5591000000.0 0.8245 0.6047
5594000000.0 0.9948 -0.2555
5597000000.0 0.4307 -0.8949
5600000000.0 -0.4208 -0.8956
5603000000.0 -0.959 -0.2422
5606000000.0 -0.7666 0.571
5609000000.0 -0.0378 0.9573
5612000000.0 0.723 0.6516
5616000000.0 0.8887 -0.1462
5619000000.0 0.4664 -0.8194
5622000000.0 -0.2801 -0.8444
5625000000.0 -0.8654 -0.3067
5628000000.0 -0.7482 0.4619
5631000000.0 -0.1275 0.8752
5634000000.0 0.5915 0.6551
5638000000.0 0.877 -0.05216
5641000000.0 0.5017 -0.7278
5644000000.0 -0.256 -0.8388
5647000000.0 -0.797 -0.3444
5650000000.0 -0.7472 0.4315
5653000000.0 -0.1406 0.8467
5656000000.0 0.5708 0.6299
5659000000.0 0.8446 -0.06811
5662000000.0 0.4828 -0.6983
5666000000.0 -0.2353 -0.7971
5669000000.0 -0.7905 -0.3026
5672000000.0 -0.7594 0.4536
5675000000.0 -0.1067 0.867
5678000000.0 0.5989 0.6506
5681000000.0 0.907 -0.08715
5684000000.0 0.5143 -0.756
5688000000.0 -0.2935 -0.8755
5691000000.0 -0.8432 -0.3111
5694000000.0 -0.8122 0.4759
5697000000.0 -0.1141 0.9363
5700000000.0 0.6585 0.6866
5703000000.0 0.9532 -0.08659
5706000000.0 0.5535 -0.8083
5709000000.0 -0.2923 -0.951
5712000000.0 -0.9072 -0.3841
5716000000.0 -0.8616 0.4589
5719000000.0 -0.1956 0.9992
5722000000.0 0.6402 0.7717
5725000000.0 1.007 -0.005157
5728000000.0 0.6186 -0.7689
5731000000.0 -0.1935 -1.017
5734000000.0 -0.929 -0.4795
5738000000.0 -0.9677 0.4152
5741000000.0 -0.3169 1.008
5744000000.0 0.58 0.8939
5747000000.0 1.063 0.1073
5750000000.0 0.7653 -0.7305
5753000000.0 -0.06871 -1.097
5756000000.0 -0.8662 -0.6264
5759000000.0 -1.066 0.274
5762000000.0 -0.4639 1.013
5766000000.0 0.4807 0.9893
5769000000.0 1.085 0.2607
5772000000.0 0.884 -0.6082
5775000000.0 0.09269 -1.076
5778000000.0 -0.7761 -0.7481
5781000000.0 -1.112 0.1081
5784000000.0 -0.5994 0.9255
5788000000.0 0.3126 1.041
5791000000.0 1.04 0.4707
5794000000.0 1.011 -0.4869
5797000000.0 0.2792 -1.082
5800000000.0 -0.6428 -0.8654
5803000000.0 -1.081 -0.09892
5806000000.0 -0.725 0.7983
5809000000.0 0.1411 1.046
5812000000.0 0.879 0.5776
5816000000.0 1.011 -0.3207
5819000000.0 0.4055 -0.9564
5822000000.0 -0.4932 -0.9256
5825000000.0 -1.017 -0.182
5828000000.0 -0.801 0.651
5831000000.0 -0.01172 1.023
5834000000.0 0.7795 0.6267
5838000000.0 0.9775 -0.1706
5841000000.0 0.4862 -0.8725
5844000000.0 -0.3895 -0.9262
5847000000.0 -0.9253 -0.2993
5850000000.0 -0.8075 0.5645
5853000000.0 -0.09315 0.9866
5856000000.0 0.7104 0.6604
5859000000.0 0.9636 -0.114
5862000000.0 0.4897 -0.8011
5866000000.0 -0.343 -0.9008
5869000000.0 -0.849 -0.3186
5872000000.0 -0.8206 0.4859
5875000000.0 -0.1002 0.897
5878000000.0 0.6466 0.6888
5881000000.0 0.9003 -0.09682
5884000000.0 0.4936 -0.7423
5888000000.0 -0.2743 -0.8674
5891000000.0 -0.828 -0.3333
5894000000.0 -0.7676 0.4101
5897000000.0 -0.09798 0.8695
5900000000.0 0.5525 0.6419
5903000000.0 0.8519 -0.0566
5906000000.0 0.5171 -0.6694
5909000000.0 -0.2111 -0.8363
5912000000.0 -0.782 -0.3144
5916000000.0 -0.7503 0.4062
5919000000.0 -0.1619 0.816
5922000000.0 0.5345 0.6769
5925000000.0 0.8621 -0.02251
5928000000.0 0.5282 -0.6676
5931000000.0 -0.1824 -0.8556
5934000000.0 -0.7901 -0.4163
5938000000.0 -0.7811 0.3191
5941000000.0 -0.2574 0.8096
5944000000.0 0.4718 0.7065
5947000000.0 0.8443 0.1065
5950000000.0 0.6422 -0.5946
5953000000.0 -0.05906 -0.8571
5956000000.0 -0.7353 -0.5131
5959000000.0 -0.8653 0.2077
5962000000.0 -0.3958 0.8064
5966000000.0 0.386 0.8111
5969000000.0 0.868 0.2355
5972000000.0 0.7397 -0.5264
5975000000.0 0.08681 -0.9364
5978000000.0 -0.6486 -0.6669
5981000000.0 -0.9328 0.08725
5984000000.0 -0.5139 0.7948
5988000000.0 0.2625 0.9079
5991000000.0 0.8948 0.4233
5994000000.0 0.8619 -0.3813
5997000000.0 0.2547 -0.9347
6000000000.0 -0.5697 -0.822
6003000000.0 -0.9746 -0.07944
6006000000.0 -0.6674 0.6948
6009000000.0 0.1131 0.9616
6012000000.0 0.8321 0.5199
6016000000.0 0.9662 -0.3048
6019000000.0 0.3749 -0.913
6022000000.0 -0.4912 -0.8511
6025000000.0 -0.9706 -0.1688
6028000000.0 -0.7644 0.6342
6031000000.0 -0.006954 0.984
6034000000.0 0.7723 0.6268
6038000000.0 0.951 -0.1835
6041000000.0 0.4521 -0.8806
6044000000.0 -0.371 -0.9072
6047000000.0 -0.9576 -0.2977
6050000000.0 -0.8018 0.5431
6053000000.0 -0.07885 0.9796
6056000000.0 0.7035 0.6985
6059000000.0 0.9639 -0.1054
6062000000.0 0.5181 -0.8398
6066000000.0 -0.2898 -0.9246
6069000000.0 -0.9194 -0.3282
6072000000.0 -0.8066 0.4869
6075000000.0 -0.1276 0.9172
6078000000.0 0.6404 0.6781
6081000000.0 0.9006 -0.07237
6084000000.0 0.5281 -0.7591
6088000000.0 -0.2342 -0.8874
6091000000.0 -0.7872 -0.3454
6094000000.0 -0.7958 0.3952
6097000000.0 -0.1545 0.8499
6100000000.0 0.5668 0.6832
6103000000.0 0.8705 -0.02398
6106000000.0 0.5237 -0.6852
6109000000.0 -0.2008 -0.8676
6112000000.0 -0.7774 -0.3822
6116000000.0 -0.7897 0.3803
6119000000.0 -0.1727 0.856
6122000000.0 0.546 0.6665
6125000000.0 0.8256 0.025
6128000000.0 0.5341 -0.6513
6131000000.0 -0.1573 -0.8297
6134000000.0 -0.7382 -0.3967
6138000000.0 -0.7705 0.3358
6141000000.0 -0.2246 0.8061
6144000000.0 0.5246 0.7117
6147000000.0 0.8302 0.05034
6150000000.0 0.6017 -0.621
6153000000.0 -0.132 -0.862
6156000000.0 -0.7377 -0.4316
6159000000.0 -0.8173 0.2963
6162000000.0 -0.2853 0.8185
6166000000.0 0.4506 0.7193
6169000000.0 0.8698 0.1073
6172000000.0 0.6716 -0.5939
6175000000.0 -0.0765 -0.8521
6178000000.0 -0.7379 -0.5267
6181000000.0 -0.8749 0.2213
6184000000.0 -0.3536 0.8252
6188000000.0 0.3874 0.8181
6191000000.0 0.9043 0.1985
6194000000.0 0.7313 -0.5779
6197000000.0 0.03645 -0.9147
6200000000.0 -0.7191 -0.5734
6203000000.0 -0.8787 0.1659
6206000000.0 -0.4564 0.7884
6209000000.0 0.3318 0.8595
6212000000.0 0.8587 0.3078
6216000000.0 0.741 -0.4832
6219000000.0 0.1384 -0.8993
6222000000.0 -0.6346 -0.6589
6225000000.0 -0.9034 0.0607
6228000000.0 -0.5153 0.7253
6231000000.0 0.2196 0.8649
6234000000.0 0.7747 0.3593
6238000000.0 0.7849 -0.4126
6241000000.0 0.2065 -0.8386
6244000000.0 -0.5142 -0.7137
6247000000.0 -0.8597 -0.02565
6250000000.0 -0.57 0.6183
6253000000.0 0.07394 0.8549
6256000000.0 0.6822 0.468
6259000000.0 0.7884 -0.2677
6262000000.0 0.2795 -0.7466
