! Created with skrf 1.8.0 (http://scikit-rf.org).
# Hz S RI R 50.0 
!freq ReS11 ImS11
4000000000.0 -0.1724 -1.518
4003000000.0 -1.278 -0.8369
4006000000.0 -1.379 0.453
4009000000.0 -0.5397 1.381
4012000000.0 0.7437 1.266
4016000000.0 1.499 0.2197
4019000000.0 1.141 -1.018
4022000000.0 -0.101 -1.529
4025000000.0 -1.313 -0.8922
4028000000.0 -1.479 0.4436
4031000000.0 -0.6075 1.481
4034000000.0 0.7908 1.422
4038000000.0 1.613 0.2748
4041000000.0 1.208 -1.068
4044000000.0 -0.1279 -1.608
4047000000.0 -1.306 -0.9363
4050000000.0 -1.555 0.4809
4053000000.0 -0.6529 1.427
4056000000.0 0.7745 1.412
4059000000.0 1.578 0.3388
4062000000.0 1.28 -0.9798
4066000000.0 0.017 -1.624
4069000000.0 -1.192 -1.06
4072000000.0 -1.624 0.2384
4075000000.0 -0.8444 1.391
4078000000.0 0.5483 1.541
4081000000.0 1.551 0.5438
4084000000.0 1.393 -0.8311
4088000000.0 0.2478 -1.633
4091000000.0 -1.109 -1.224
4094000000.0 -1.619 0.06964
4097000000.0 -1.012 1.286
4100000000.0 0.377 1.584
4103000000.0 1.45 0.7027
4106000000.0 1.465 -0.6121
4109000000.0 0.4889 -1.517
4112000000.0 -0.83 -1.271
4116000000.0 -1.51 -0.2056
4119000000.0 -1.141 0.9596
4122000000.0 0.02613 1.484
4125000000.0 1.156 0.9545
4128000000.0 1.461 -0.2234
4131000000.0 0.799 -1.245
4134000000.0 -0.4277 -1.418
4138000000.0 -1.359 -0.5662
4141000000.0 -1.344 0.636
4144000000.0 -0.3918 1.453
4147000000.0 0.859 1.208
4150000000.0 1.493 0.1668
4153000000.0 1.075 -1.047
4156000000.0 -0.115 -1.47
4159000000.0 -1.23 -0.8812
4162000000.0 -1.48 0.3626
4166000000.0 -0.6455 1.332
4169000000.0 0.5725 1.333
4172000000.0 1.443 0.4119
4175000000.0 1.226 -0.8724
4178000000.0 0.1699 -1.446
4181000000.0 -1.022 -1.058
4184000000.0 -1.501 0.0693
4188000000.0 -0.892 1.219
4191000000.0 0.3848 1.481
4194000000.0 1.407 0.673
4197000000.0 1.398 -0.6605
4200000000.0 0.3829 -1.51
4203000000.0 -0.9384 -1.272
4206000000.0 -1.628 -0.08293
4209000000.0 -1.06 1.245
4212000000.0 0.296 1.636
4216000000.0 1.464 0.7566
4219000000.0 1.512 -0.7319
4222000000.0 0.3256 -1.665
4225000000.0 -1.1 -1.258
4228000000.0 -1.65 0.09371
4231000000.0 -0.9014 1.402
4234000000.0 0.5038 1.585
4238000000.0 1.532 0.5138
4241000000.0 1.354 -0.9111
4244000000.0 0.1124 -1.623
4247000000.0 -1.203 -1.074
4250000000.0 -1.542 0.2939
4253000000.0 -0.6972 1.4
4256000000.0 0.666 1.383
4259000000.0 1.481 0.3021
4262000000.0 1.174 -0.9565
4266000000.0 -0.05596 -1.508
4269000000.0 -1.231 -0.8286
4272000000.0 -1.417 0.3856
4275000000.0 -0.5336 1.372
4278000000.0 0.6981 1.244
4281000000.0 1.412 0.1884
4284000000.0 1.041 -1.009
4288000000.0 -0.1283 -1.383
4291000000.0 -1.161 -0.7641
4294000000.0 -1.28 0.4083
4297000000.0 -0.5069 1.208
4300000000.0 0.6053 1.188
4303000000.0 1.266 0.2168
4306000000.0 1.012 -0.848
4309000000.0 0.01985 -1.275
4312000000.0 -0.9939 -0.8323
4316000000.0 -1.303 0.1932
4319000000.0 -0.6742 1.078
4322000000.0 0.4088 1.225
4325000000.0 1.213 0.4802
4328000000.0 1.172 -0.5983
4331000000.0 0.3269 -1.31
4334000000.0 -0.8513 -1.088
4338000000.0 -1.4 -0.03656
4341000000.0 -0.8883 1.013
4344000000.0 0.219 1.42
4347000000.0 1.2 0.7263
4350000000.0 1.337 -0.4699
4353000000.0 0.5061 -1.364
4356000000.0 -0.7101 -1.272
4359000000.0 -1.398 -0.2317
4362000000.0 -1.118 0.9342
4366000000.0 -0.004267 1.478
4369000000.0 1.129 0.915
4372000000.0 1.405 -0.2724
4375000000.0 0.7128 -1.307
4378000000.0 -0.5588 -1.407
4381000000.0 -1.426 -0.4809
4384000000.0 -1.284 0.8296
4388000000.0 -0.1731 1.493
4391000000.0 1.084 1.11
4394000000.0 1.548 -0.1268
4397000000.0 0.8827 -1.281
4400000000.0 -0.4675 -1.477
4403000000.0 -1.439 -0.546
4406000000.0 -1.357 0.794
4409000000.0 -0.1937 1.56
4412000000.0 1.104 1.111
4416000000.0 1.529 -0.1567
4419000000.0 0.7915 -1.293
4422000000.0 -0.5441 -1.386
4425000000.0 -1.422 -0.4614
4428000000.0 -1.214 0.8094
4431000000.0 -0.1078 1.462
4434000000.0 1.047 0.973
4438000000.0 1.368 -0.2576
4441000000.0 0.6282 -1.227
4444000000.0 -0.5657 -1.287
4447000000.0 -1.333 -0.3176
4450000000.0 -1.069 0.8075
4453000000.0 0.008499 1.332
4456000000.0 1.014 0.7578
4459000000.0 1.212 -0.354
4462000000.0 0.4761 -1.145
4466000000.0 -0.6431 -1.061
4469000000.0 -1.24 -0.1814
4472000000.0 -0.8712 0.8442
4475000000.0 0.1405 1.186
4478000000.0 1.023 0.64
4481000000.0 1.085 -0.3868
4484000000.0 0.318 -1.115
4488000000.0 -0.6433 -0.9404
4491000000.0 -1.136 -0.08943
4494000000.0 -0.7768 0.8085
4497000000.0 0.1369 1.094
4500000000.0 0.9877 0.5872
4503000000.0 1.024 -0.3833
4506000000.0 0.3519 -1.051
4509000000.0 -0.5951 -0.9196
4512000000.0 -1.1 -0.1151
4516000000.0 -0.782 0.7964
4519000000.0 0.1159 1.096
4522000000.0 0.9453 0.6341
4525000000.0 1.063 -0.3672
4528000000.0 0.4166 -1.067
4531000000.0 -0.5478 -0.993
4534000000.0 -1.131 -0.2188
4538000000.0 -0.8682 0.7378
4541000000.0 -0.003351 1.137
4544000000.0 0.9323 0.7411
4547000000.0 1.154 -0.2092
4550000000.0 0.5716 -1.045
4553000000.0 -0.436 -1.114
4556000000.0 -1.152 -0.4117
4559000000.0 -1.007 0.6626
4562000000.0 -0.179 1.223
4566000000.0 0.8438 0.9376
4569000000.0 1.242 -0.01859
4572000000.0 0.7785 -0.9859
4575000000.0 -0.2575 -1.244
4578000000.0 -1.154 -0.6074
4581000000.0 -1.233 0.487
4584000000.0 -0.4221 1.248
4588000000.0 0.7018 1.097
4591000000.0 1.334 0.169
4594000000.0 1.001 -0.9242
4597000000.0 -0.1076 -1.372
4600000000.0 -1.102 -0.8041
4603000000.0 -1.322 0.3374
4606000000.0 -0.5606 1.267
4609000000.0 0.5998 1.265
4612000000.0 1.348 0.3213
4616000000.0 1.103 -0.8423
4619000000.0 0.03988 -1.403
4622000000.0 -1.055 -0.8945
4625000000.0 -1.344 0.2361
4628000000.0 -0.6533 1.199
4631000000.0 0.5017 1.243
4634000000.0 1.317 0.4216
4638000000.0 1.125 -0.7363
4641000000.0 0.1041 -1.34
4644000000.0 -0.9809 -0.9272
4647000000.0 -1.326 0.2019
4650000000.0 -0.678 1.138
4653000000.0 0.4798 1.226
4656000000.0 1.244 0.4219
4659000000.0 1.04 -0.7331
4662000000.0 0.09767 -1.239
4666000000.0 -0.9442 -0.8192
4669000000.0 -1.212 0.173
4672000000.0 -0.5697 1.043
4675000000.0 0.4731 1.096
4678000000.0 1.093 0.3302
4681000000.0 0.9219 -0.6553
4684000000.0 0.09005 -1.129
4688000000.0 -0.8176 -0.7159
4691000000.0 -1.121 0.1998
4694000000.0 -0.5147 0.9603
4697000000.0 0.3911 1.02
4700000000.0 1.055 0.339
4703000000.0 0.8888 -0.6581
4706000000.0 0.03 -1.086
4709000000.0 -0.8136 -0.6914
4712000000.0 -1.016 0.2279
4716000000.0 -0.46 0.9588
4719000000.0 0.4512 0.9568
4722000000.0 1.022 0.2517
4725000000.0 0.8183 -0.6368
4728000000.0 0.0583 -1.025
4731000000.0 -0.7604 -0.6948
4734000000.0 -1.003 0.1712
4738000000.0 -0.5087 0.9021
4741000000.0 0.3864 0.9656
4744000000.0 1.006 0.3505
4747000000.0 0.8697 -0.5347
4750000000.0 0.1381 -1.02
4753000000.0 -0.7312 -0.8384
4756000000.0 -1.091 0.03912
4759000000.0 -0.6795 0.8619
4762000000.0 0.2285 1.082
4766000000.0 1.016 0.5067
4769000000.0 1.035 -0.4225
4772000000.0 0.3297 -1.079
4775000000.0 -0.6308 -0.965
4778000000.0 -1.142 -0.1371
4781000000.0 -0.867 0.7985
4784000000.0 0.05622 1.143
4788000000.0 0.9238 0.7365
4791000000.0 1.152 -0.2419
4794000000.0 0.5393 -1.109
4797000000.0 -0.4448 -1.125
4800000000.0 -1.189 -0.3997
4803000000.0 -1.048 0.6509
4806000000.0 -0.2051 1.21
4809000000.0 0.8175 0.9427
4812000000.0 1.255 -0.01817
4816000000.0 0.8127 -0.9896
4819000000.0 -0.2684 -1.292
4822000000.0 -1.195 -0.6149
4825000000.0 -1.242 0.5188
4828000000.0 -0.403 1.283
4831000000.0 0.778 1.151
4834000000.0 1.392 0.1474
4838000000.0 0.9954 -0.9722
4841000000.0 -0.1417 -1.387
4844000000.0 -1.164 -0.7911
4847000000.0 -1.324 0.4066
4850000000.0 -0.5484 1.29
4853000000.0 0.647 1.209
4856000000.0 1.326 0.2729
4859000000.0 1.048 -0.8843
4862000000.0 0.00124 -1.327
4866000000.0 -1.046 -0.8572
4869000000.0 -1.304 0.2901
4872000000.0 -0.589 1.171
4875000000.0 0.5361 1.198
4878000000.0 1.278 0.3423
4881000000.0 1.03 -0.7661
4884000000.0 0.04935 -1.253
4888000000.0 -0.9532 -0.8262
4891000000.0 -1.182 0.2105
4894000000.0 -0.5576 1.027
4897000000.0 0.4379 1.075
4900000000.0 1.112 0.3506
4903000000.0 0.9095 -0.6485
4906000000.0 0.09133 -1.066
4909000000.0 -0.7857 -0.7167
4912000000.0 -1.026 0.1297
4916000000.0 -0.5371 0.8452
4919000000.0 0.338 0.9178
4922000000.0 0.9072 0.3458
4925000000.0 0.8413 -0.4933
4928000000.0 0.1526 -0.9519
4931000000.0 -0.628 -0.7029
4934000000.0 -0.9419 0.02828
4938000000.0 -0.5554 0.7328
4941000000.0 0.2167 0.9266
4944000000.0 0.8435 0.437
4947000000.0 0.864 -0.3777
4950000000.0 0.2549 -0.9177
4953000000.0 -0.5706 -0.7656
4956000000.0 -0.9685 -0.04096
4959000000.0 -0.6352 0.7253
4962000000.0 0.1672 0.955
4966000000.0 0.8332 0.4889
4969000000.0 0.934 -0.3456
4972000000.0 0.3084 -0.952
4975000000.0 -0.5309 -0.835
4978000000.0 -0.9962 -0.1329
4981000000.0 -0.7346 0.6828
4984000000.0 0.06068 1.045
4988000000.0 0.8239 0.6077
4991000000.0 1.035 -0.2581
4994000000.0 0.4652 -0.9489
4997000000.0 -0.4437 -1.002
5000000000.0 -1.066 -0.2905
5003000000.0 -0.9414 0.6606
5006000000.0 -0.1132 1.163
5009000000.0 0.8189 0.8228
5012000000.0 1.181 -0.1487
5016000000.0 0.6734 -1.031
5019000000.0 -0.3689 -1.172
5022000000.0 -1.139 -0.4596
5025000000.0 -1.118 0.6043
5028000000.0 -0.2486 1.222
5031000000.0 0.7959 0.9674
5034000000.0 1.267 -0.001128
5038000000.0 0.8011 -0.9946
5041000000.0 -0.2556 -1.264
5044000000.0 -1.128 -0.6333
5047000000.0 -1.235 0.45
5050000000.0 -0.4388 1.196
5053000000.0 0.6636 1.092
5056000000.0 1.286 0.2162
5059000000.0 0.9543 -0.8565
5062000000.0 -0.01787 -1.304
5066000000.0 -0.9871 -0.8065
5069000000.0 -1.296 0.2465
5072000000.0 -0.6229 1.123
5075000000.0 0.4396 1.206
5078000000.0 1.206 0.3784
5081000000.0 1.06 -0.6533
5084000000.0 0.128 -1.227
5088000000.0 -0.845 -0.8892
5091000000.0 -1.221 0.06219
5094000000.0 -0.7008 0.9852
5097000000.0 0.2626 1.132
5100000000.0 0.9872 0.5171
5103000000.0 1.026 -0.4859
5106000000.0 0.3059 -1.047
5109000000.0 -0.5924 -0.9143
5112000000.0 -1.052 -0.1443
5116000000.0 -0.7686 0.7242
5119000000.0 0.05178 1.052
5122000000.0 0.8318 0.606
5125000000.0 0.9986 -0.236
5128000000.0 0.4383 -0.9512
5131000000.0 -0.4383 -0.9509
5134000000.0 -0.9611 -0.2595
5138000000.0 -0.7779 0.5908
5141000000.0 -0.07887 0.9755
5144000000.0 0.6486 0.6744
5147000000.0 0.9131 -0.1068
5150000000.0 0.4855 -0.7821
5153000000.0 -0.272 -0.8948
5156000000.0 -0.8462 -0.335
5159000000.0 -0.8216 0.4978
5162000000.0 -0.1256 0.9039
5166000000.0 0.5959 0.679
5169000000.0 0.8924 -0.05517
5172000000.0 0.5293 -0.7225
5175000000.0 -0.2311 -0.8694
5178000000.0 -0.8376 -0.3888
5181000000.0 -0.8035 0.4414
5184000000.0 -0.1762 0.8916
5188000000.0 0.5638 0.7402
5191000000.0 0.9034 -0.01757
5194000000.0 0.5746 -0.732
5197000000.0 -0.2318 -0.9189
5200000000.0 -0.8648 -0.4052
5203000000.0 -0.8416 0.421
5206000000.0 -0.2363 0.9504
5209000000.0 0.6021 0.7258
5212000000.0 0.9351 -0.01619
5216000000.0 0.5861 -0.7647
5219000000.0 -0.2061 -0.9599
5222000000.0 -0.8563 -0.4701
5225000000.0 -0.9153 0.3912
5228000000.0 -0.2714 0.947
5231000000.0 0.5505 0.8416
5234000000.0 1.02 0.06333
5238000000.0 0.7221 -0.7283
5241000000.0 -0.1387 -1.027
5244000000.0 -0.8587 -0.5627
5247000000.0 -1.007 0.338
5250000000.0 -0.3862 0.9912
5253000000.0 0.49 0.9414
5256000000.0 1.026 0.2083
5259000000.0 0.8221 -0.6995
5262000000.0 0.03701 -1.092
5266000000.0 -0.8298 -0.6753
5269000000.0 -1.076 0.1546
5272000000.0 -0.5536 0.9154
5275000000.0 0.3631 1.048
5278000000.0 1.015 0.4006
5281000000.0 0.9717 -0.5317
5284000000.0 0.2229 -1.054
5288000000.0 -0.6472 -0.8496
5291000000.0 -1.11 -0.04704
5294000000.0 -0.7558 0.7882
5297000000.0 0.115 1.119
5300000000.0 0.9275 0.614
5303000000.0 1.084 -0.2705
5306000000.0 0.4719 -1.029
5309000000.0 -0.4556 -0.9933
5312000000.0 -1.087 -0.299
5316000000.0 -0.9378 0.6729
5319000000.0 -0.09587 1.156
5322000000.0 0.8119 0.8221
5325000000.0 1.136 -0.1119
5328000000.0 0.6361 -0.9462
5331000000.0 -0.2923 -1.105
5334000000.0 -1.038 -0.4872
5338000000.0 -1.018 0.4947
5341000000.0 -0.2762 1.117
5344000000.0 0.6638 0.9203
5347000000.0 1.119 0.04521
5350000000.0 0.7373 -0.8025
5353000000.0 -0.1556 -1.068
5356000000.0 -0.9557 -0.5702
5359000000.0 -1.008 0.3626
5362000000.0 -0.3433 0.9952
5366000000.0 0.5442 0.8959
5369000000.0 1.081 0.1605
5372000000.0 0.7465 -0.7297
5375000000.0 -0.1082 -1.041
5378000000.0 -0.8667 -0.5587
5381000000.0 -0.9645 0.3092
5384000000.0 -0.3428 0.9556
5388000000.0 0.5154 0.853
5391000000.0 0.9535 0.1093
5394000000.0 0.6675 -0.6728
5397000000.0 -0.07582 -0.9203
5400000000.0 -0.7656 -0.4858
5403000000.0 -0.8486 0.3025
5406000000.0 -0.2822 0.8382
5409000000.0 0.4893 0.7414
5412000000.0 0.884 0.09379
5416000000.0 0.6091 -0.6147
5419000000.0 -0.1108 -0.8648
5422000000.0 -0.7475 -0.4512
5425000000.0 -0.8146 0.2889
5428000000.0 -0.2812 0.8159
5431000000.0 0.4873 0.7306
5434000000.0 0.873 0.09817
5438000000.0 0.5997 -0.6327
5441000000.0 -0.1101 -0.8758
5444000000.0 -0.7446 -0.4784
5447000000.0 -0.8367 0.2817
5450000000.0 -0.293 0.8324
5453000000.0 0.4565 0.7328
5456000000.0 0.8751 0.1031
5459000000.0 0.6296 -0.6161
5462000000.0 -0.05435 -0.913
5466000000.0 -0.7632 -0.5128
5469000000.0 -0.8732 0.2351
5472000000.0 -0.3817 0.8244
5475000000.0 0.3841 0.8269
5478000000.0 0.8743 0.2292
5481000000.0 0.7903 -0.5554
5484000000.0 0.07226 -0.9608
5488000000.0 -0.7002 -0.6574
5491000000.0 -0.9609 0.08589
5494000000.0 -0.5386 0.8337
5497000000.0 0.276 0.9347
5500000000.0 0.9114 0.3669
5503000000.0 0.8944 -0.4308
5506000000.0 0.2559 -0.9873
5509000000.0 -0.6097 -0.8313
5512000000.0 -1.02 -0.07684
5516000000.0 -0.6916 0.7374
5519000000.0 0.125 1.007
5522000000.0 0.8522 0.5637
5525000000.0 1.023 -0.2736
5528000000.0 0.4266 -0.9468
5531000000.0 -0.4392 -0.9311
5534000000.0 -1.018 -0.2911
5538000000.0 -0.8333 0.6047
5541000000.0 -0.07905 1.057
5544000000.0 0.7472 0.7491
5547000000.0 1.055 -0.1037
5550000000.0 0.6128 -0.8616
5553000000.0 -0.3045 -1.02
5556000000.0 -0.995 -0.4555
5559000000.0 -0.9598 0.4754
5562000000.0 -0.2644 1.012
5566000000.0 0.6234 0.8776
5569000000.0 1.023 0.06076
5572000000.0 0.7007 -0.7698
5575000000.0 -0.123 -1.03
5578000000.0 -0.8565 -0.5262
5581000000.0 -0.923 0.3297
5584000000.0 -0.3488 0.9147
5588000000.0 0.4611 0.8626
5591000000.0 0.9324 0.1864
5594000000.0 0.7423 -0.6092
5597000000.0 -0.03222 -0.9566
5600000000.0 -0.721 -0.566
5603000000.0 -0.8768 0.1906
5606000000.0 -0.417 0.7919
5609000000.0 0.3689 0.8204
5612000000.0 0.8404 0.2385
5616000000.0 0.7065 -0.4885
5619000000.0 0.08333 -0.8639
5622000000.0 -0.6346 -0.5936
5625000000.0 -0.8522 0.1335
5628000000.0 -0.4339 0.7065
5631000000.0 0.3118 0.7961
5634000000.0 0.8127 0.2528
5638000000.0 0.6907 -0.4631
5641000000.0 0.07028 -0.7934
5644000000.0 -0.6144 -0.5889
5647000000.0 -0.8148 0.1192
5650000000.0 -0.4329 0.6993
5653000000.0 0.2723 0.7956
5656000000.0 0.7768 0.2713
5659000000.0 0.7294 -0.4546
5662000000.0 0.1058 -0.8458
5666000000.0 -0.605 -0.6273
5669000000.0 -0.8699 0.1218
5672000000.0 -0.4725 0.7488
5675000000.0 0.2939 0.8368
5678000000.0 0.8427 0.2883
5681000000.0 0.7852 -0.4753
5684000000.0 0.1226 -0.9061
5688000000.0 -0.6476 -0.6618
5691000000.0 -0.9389 0.08667
5694000000.0 -0.5286 0.7942
5697000000.0 0.3018 0.9198
5700000000.0 0.9362 0.3787
5703000000.0 0.8579 -0.4836
5706000000.0 0.1799 -0.9813
5709000000.0 -0.6505 -0.7778
5712000000.0 -1.034 0.01502
5716000000.0 -0.6364 0.7997
5719000000.0 0.2149 1.01
5722000000.0 0.9476 0.487
5725000000.0 0.9576 -0.4109
5728000000.0 0.3043 -1.011
5731000000.0 -0.5817 -0.9074
5734000000.0 -1.067 -0.1193
5738000000.0 -0.7872 0.7651
5741000000.0 0.1046 1.066
5744000000.0 0.9057 0.594
5747000000.0 1.057 -0.2611
5750000000.0 0.4655 -0.9773
5753000000.0 -0.5027 -1.013
5756000000.0 -1.076 -0.2538
5759000000.0 -0.9459 0.6655
5762000000.0 -0.06694 1.115
5766000000.0 0.7742 0.7536
5769000000.0 1.057 -0.1289
5772000000.0 0.6089 -0.9235
5775000000.0 -0.3029 -1.064
5778000000.0 -1.026 -0.4274
5781000000.0 -0.9848 0.458
5784000000.0 -0.2475 1.074
5788000000.0 0.6452 0.8885
5791000000.0 1.079 0.05055
5794000000.0 0.7226 -0.7859
5797000000.0 -0.1339 -1.016
5800000000.0 -0.921 -0.5812
5803000000.0 -0.9628 0.3467
5806000000.0 -0.3887 0.9496
5809000000.0 0.5059 0.9261
5812000000.0 1.034 0.1975
5816000000.0 0.792 -0.6821
5819000000.0 -0.002386 -1.013
5822000000.0 -0.7918 -0.642
5825000000.0 -0.9699 0.2
5828000000.0 -0.4367 0.8971
5831000000.0 0.3714 0.9285
5834000000.0 0.9584 0.2663
5838000000.0 0.7869 -0.5764
5841000000.0 0.07531 -0.9692
5844000000.0 -0.6816 -0.6608
5847000000.0 -0.9633 0.1019
5850000000.0 -0.5217 0.7806
5853000000.0 0.2694 0.884
5856000000.0 0.8582 0.2764
5859000000.0 0.7858 -0.4739
5862000000.0 0.1122 -0.9081
5866000000.0 -0.63 -0.6294
5869000000.0 -0.9174 0.1051
5872000000.0 -0.4945 0.7647
5875000000.0 0.2621 0.8463
5878000000.0 0.8436 0.2841
5881000000.0 0.7293 -0.4522
5884000000.0 0.1079 -0.8709
5888000000.0 -0.6007 -0.6472
5891000000.0 -0.8785 0.07593
5894000000.0 -0.4922 0.6801
5897000000.0 0.2484 0.8433
5900000000.0 0.8128 0.3241
5903000000.0 0.7577 -0.3909
5906000000.0 0.1969 -0.843
5909000000.0 -0.5497 -0.6645
5912000000.0 -0.8621 0.002543
5916000000.0 -0.5212 0.69
5919000000.0 0.1733 0.8385
5922000000.0 0.7818 0.3653
5925000000.0 0.8068 -0.3244
5928000000.0 0.2479 -0.8343
5931000000.0 -0.4772 -0.745
5934000000.0 -0.8637 -0.0847
5938000000.0 -0.6715 0.5978
5941000000.0 0.08062 0.8859
5944000000.0 0.7279 0.5375
5947000000.0 0.8565 -0.2284
5950000000.0 0.3813 -0.8008
5953000000.0 -0.3673 -0.8343
5956000000.0 -0.854 -0.2286
5959000000.0 -0.7698 0.5131
5962000000.0 -0.08401 0.9034
5966000000.0 0.6592 0.6582
5969000000.0 0.9226 -0.0967
5972000000.0 0.5341 -0.777
5975000000.0 -0.2662 -0.9019
5978000000.0 -0.8665 -0.3751
5981000000.0 -0.8438 0.4106
5984000000.0 -0.2455 0.9215
5988000000.0 0.594 0.7636
5991000000.0 0.987 0.03653
5994000000.0 0.7119 -0.729
5997000000.0 -0.1038 -0.9788
6000000000.0 -0.8364 -0.5317
6003000000.0 -0.9313 0.2928
6006000000.0 -0.3448 0.9252
6009000000.0 0.476 0.8784
6012000000.0 0.9699 0.1823
6016000000.0 0.7593 -0.6381
6019000000.0 -0.005803 -1.002
6022000000.0 -0.7819 -0.636
6025000000.0 -0.9564 0.2097
6028000000.0 -0.4511 0.8776
6031000000.0 0.3932 0.9
6034000000.0 0.9296 0.2748
6038000000.0 0.7762 -0.558
6041000000.0 0.08084 -0.9489
6044000000.0 -0.7148 -0.6674
6047000000.0 -0.9571 0.127
6050000000.0 -0.4983 0.7979
6053000000.0 0.35 0.888
6056000000.0 0.8854 0.3214
6059000000.0 0.8043 -0.4703
6062000000.0 0.131 -0.9307
6066000000.0 -0.6331 -0.6667
6069000000.0 -0.914 0.07395
6072000000.0 -0.5059 0.7404
6075000000.0 0.2655 0.8711
6078000000.0 0.8248 0.3299
6081000000.0 0.7663 -0.4275
6084000000.0 0.1708 -0.8368
6088000000.0 -0.5511 -0.6306
6091000000.0 -0.8689 0.05051
6094000000.0 -0.5226 0.6784
6097000000.0 0.2009 0.8325
6100000000.0 0.7796 0.3718
6103000000.0 0.7452 -0.4111
6106000000.0 0.2239 -0.8487
6109000000.0 -0.5277 -0.6837
6112000000.0 -0.851 -0.02366
6116000000.0 -0.5624 0.6565
6119000000.0 0.1764 0.8534
6122000000.0 0.765 0.3929
6125000000.0 0.7978 -0.334
6128000000.0 0.221 -0.8244
6131000000.0 -0.5068 -0.6839
6134000000.0 -0.8567 -0.05234
6138000000.0 -0.5641 0.6274
6141000000.0 0.1186 0.8387
6144000000.0 0.731 0.473
6147000000.0 0.8438 -0.2969
6150000000.0 0.2921 -0.8512
6153000000.0 -0.4598 -0.7564
6156000000.0 -0.8848 -0.1332
6159000000.0 -0.6494 0.6169
6162000000.0 0.071 0.9139
6166000000.0 0.7401 0.5336
6169000000.0 0.8805 -0.2246
6172000000.0 0.4027 -0.8548
6175000000.0 -0.4119 -0.8281
6178000000.0 -0.8851 -0.1843
6181000000.0 -0.7685 0.5464
6184000000.0 -0.03397 0.93
6188000000.0 0.7165 0.5882
6191000000.0 0.9279 -0.1496
6194000000.0 0.4309 -0.8149
6197000000.0 -0.3517 -0.8515
6200000000.0 -0.8404 -0.3041
6203000000.0 -0.7655 0.5062
6206000000.0 -0.112 0.9265
6209000000.0 0.62 0.6784
6212000000.0 0.929 -0.04479
6216000000.0 0.5653 -0.724
6219000000.0 -0.2054 -0.9253
6222000000.0 -0.8261 -0.4119
6225000000.0 -0.8586 0.3751
6228000000.0 -0.2013 0.8815
6231000000.0 0.5391 0.7115
6234000000.0 0.8833 0.0856
6238000000.0 0.6209 -0.6375
6241000000.0 -0.132 -0.8493
6244000000.0 -0.7155 -0.4937
6247000000.0 -0.829 0.2765
6250000000.0 -0.345 0.7839
6253000000.0 0.4174 0.7474
6256000000.0 0.7827 0.1947
6259000000.0 0.6423 -0.4997
6262000000.0 0.01911 -0.808
6266000000.0 -0.5648 -0.571
6269000000.0 -0.7777 0.1114
