! Created with skrf 1.8.0 (http://scikit-rf.org).
# Hz S RI R 50.0 
!freq ReS11 ImS11
4000000000.0 -0.1771 -1.463
4003000000.0 -1.306 -0.8281
4006000000.0 -1.433 0.4853
4009000000.0 -0.5008 1.444
4012000000.0 0.7673 1.245
4016000000.0 1.525 0.1424
4019000000.0 1.12 -1.042
4022000000.0 -0.1269 -1.499
4025000000.0 -1.324 -0.885
4028000000.0 -1.525 0.5075
4031000000.0 -0.5663 1.536
4034000000.0 0.8202 1.371
4038000000.0 1.625 0.1785
4041000000.0 1.192 -1.118
4044000000.0 -0.1286 -1.612
4047000000.0 -1.32 -0.8987
4050000000.0 -1.548 0.4963
4053000000.0 -0.5804 1.501
4056000000.0 0.7752 1.406
4059000000.0 1.583 0.3064
4062000000.0 1.202 -1.024
4066000000.0 -0.03177 -1.623
4069000000.0 -1.253 -1.035
4072000000.0 -1.572 0.311
4075000000.0 -0.7957 1.438
4078000000.0 0.6089 1.524
4081000000.0 1.589 0.5254
4084000000.0 1.336 -0.8751
4088000000.0 0.2049 -1.644
4091000000.0 -1.139 -1.204
4094000000.0 -1.648 0.1571
4097000000.0 -0.9557 1.34
4100000000.0 0.4611 1.542
4103000000.0 1.424 0.6891
4106000000.0 1.404 -0.6471
4109000000.0 0.4227 -1.484
4112000000.0 -0.8402 -1.255
4116000000.0 -1.501 -0.1464
4119000000.0 -1.103 1.046
4122000000.0 0.03628 1.468
4125000000.0 1.171 0.9349
4128000000.0 1.467 -0.2531
4131000000.0 0.7211 -1.26
4134000000.0 -0.484 -1.425
4138000000.0 -1.364 -0.5535
4141000000.0 -1.308 0.6574
4144000000.0 -0.3388 1.448
4147000000.0 0.8784 1.23
4150000000.0 1.472 0.1236
4153000000.0 1.055 -1.086
4156000000.0 -0.1631 -1.512
4159000000.0 -1.238 -0.8424
4162000000.0 -1.449 0.3799
4166000000.0 -0.6244 1.372
4169000000.0 0.6747 1.362
4172000000.0 1.432 0.3434
4175000000.0 1.189 -0.8934
4178000000.0 0.08597 -1.482
4181000000.0 -1.075 -1.024
4184000000.0 -1.493 0.1805
4188000000.0 -0.8498 1.246
4191000000.0 0.4171 1.451
4194000000.0 1.41 0.6091
4197000000.0 1.362 -0.7647
4200000000.0 0.288 -1.536
4203000000.0 -1.006 -1.236
4206000000.0 -1.612 0.02543
4209000000.0 -0.9647 1.286
4212000000.0 0.4108 1.622
4216000000.0 1.51 0.672
4219000000.0 1.479 -0.8168
4222000000.0 0.226 -1.624
4225000000.0 -1.193 -1.16
4228000000.0 -1.675 0.1826
4231000000.0 -0.8448 1.43
4234000000.0 0.6201 1.52
4238000000.0 1.585 0.4103
4241000000.0 1.289 -0.9722
4244000000.0 -0.008166 -1.589
4247000000.0 -1.276 -0.9224
4250000000.0 -1.507 0.4232
4253000000.0 -0.5708 1.408
4256000000.0 0.723 1.324
4259000000.0 1.483 0.2466
4262000000.0 1.103 -1.024
4266000000.0 -0.1521 -1.474
4269000000.0 -1.265 -0.8079
4272000000.0 -1.356 0.5097
4275000000.0 -0.4534 1.362
4278000000.0 0.8244 1.175
4281000000.0 1.449 0.1414
4284000000.0 0.9636 -1.03
4288000000.0 -0.2501 -1.399
4291000000.0 -1.178 -0.7137
4294000000.0 -1.243 0.4548
4297000000.0 -0.4017 1.251
4300000000.0 0.6848 1.13
4303000000.0 1.288 0.2013
4306000000.0 0.9366 -0.8626
4309000000.0 -0.04437 -1.289
4312000000.0 -0.98 -0.7996
4316000000.0 -1.229 0.2575
4319000000.0 -0.6126 1.145
4322000000.0 0.4578 1.226
4325000000.0 1.254 0.3872
4328000000.0 1.126 -0.6881
4331000000.0 0.1969 -1.346
4334000000.0 -0.8722 -1.02
4338000000.0 -1.371 0.02839
4341000000.0 -0.8725 1.071
4344000000.0 0.2885 1.361
4347000000.0 1.245 0.6573
4350000000.0 1.323 -0.5441
4353000000.0 0.399 -1.389
4356000000.0 -0.8078 -1.2
4359000000.0 -1.437 -0.1808
4362000000.0 -1.032 1.006
4366000000.0 0.1051 1.446
4369000000.0 1.164 0.8741
4372000000.0 1.41 -0.3704
4375000000.0 0.6458 -1.327
4378000000.0 -0.6357 -1.378
4381000000.0 -1.47 -0.3617
4384000000.0 -1.245 0.908
4388000000.0 -0.07215 1.557
4391000000.0 1.146 1.045
4394000000.0 1.56 -0.232
4397000000.0 0.75 -1.377
4400000000.0 -0.5919 -1.489
4403000000.0 -1.5 -0.4337
4406000000.0 -1.28 0.9225
4409000000.0 -0.06822 1.544
4412000000.0 1.197 1.009
4416000000.0 1.492 -0.3097
4419000000.0 0.6758 -1.356
4422000000.0 -0.634 -1.371
4425000000.0 -1.444 -0.3499
4428000000.0 -1.127 0.9438
4431000000.0 -0.007937 1.403
4434000000.0 1.137 0.8409
4438000000.0 1.377 -0.3672
4441000000.0 0.5091 -1.236
4444000000.0 -0.6915 -1.178
4447000000.0 -1.318 -0.1969
4450000000.0 -0.9628 0.91
4453000000.0 0.1849 1.303
4456000000.0 1.098 0.6525
4459000000.0 1.184 -0.4667
4462000000.0 0.3701 -1.193
4466000000.0 -0.7385 -1.005
4469000000.0 -1.224 -0.04275
4472000000.0 -0.7533 0.964
4475000000.0 0.2367 1.136
4478000000.0 1.057 0.5026
4481000000.0 1.047 -0.5081
4484000000.0 0.258 -1.142
4488000000.0 -0.7345 -0.8662
4491000000.0 -1.139 0.008297
4494000000.0 -0.7001 0.9213
4497000000.0 0.264 1.083
4500000000.0 1.021 0.4626
4503000000.0 0.9641 -0.4944
4506000000.0 0.2165 -1.088
4509000000.0 -0.6779 -0.8656
4512000000.0 -1.112 0.01828
4516000000.0 -0.7221 0.8546
4519000000.0 0.1814 1.104
4522000000.0 1.029 0.5411
4525000000.0 1.087 -0.4766
4528000000.0 0.3445 -1.111
4531000000.0 -0.6581 -0.9713
4534000000.0 -1.191 -0.1047
4538000000.0 -0.8319 0.8367
4541000000.0 0.1107 1.192
4544000000.0 0.9783 0.6936
4547000000.0 1.168 -0.323
4550000000.0 0.4768 -1.088
4553000000.0 -0.5279 -1.065
4556000000.0 -1.199 -0.3001
4559000000.0 -0.9926 0.7406
4562000000.0 -0.07448 1.245
4566000000.0 0.915 0.8662
4569000000.0 1.259 -0.1406
4572000000.0 0.6836 -1.071
4575000000.0 -0.3529 -1.241
4578000000.0 -1.196 -0.5151
4581000000.0 -1.18 0.573
4584000000.0 -0.3073 1.302
4588000000.0 0.7948 1.062
4591000000.0 1.375 0.03567
4594000000.0 0.9082 -1.046
4597000000.0 -0.2064 -1.356
4600000000.0 -1.184 -0.7016
4603000000.0 -1.3 0.4802
4606000000.0 -0.4691 1.33
4609000000.0 0.7245 1.199
4612000000.0 1.391 0.1941
4616000000.0 1.027 -0.9688
4619000000.0 -0.09794 -1.385
4622000000.0 -1.113 -0.8316
4625000000.0 -1.323 0.3914
4628000000.0 -0.5481 1.252
4631000000.0 0.614 1.207
4634000000.0 1.334 0.2637
4638000000.0 1.036 -0.8722
4641000000.0 -0.03116 -1.371
4644000000.0 -1.11 -0.8547
4647000000.0 -1.322 0.3186
4650000000.0 -0.5718 1.185
4653000000.0 0.5609 1.165
4656000000.0 1.279 0.243
4659000000.0 0.9719 -0.8266
4662000000.0 -0.007196 -1.243
4666000000.0 -0.9733 -0.7235
4669000000.0 -1.177 0.3056
4672000000.0 -0.4576 1.104
4675000000.0 0.5786 1.025
4678000000.0 1.121 0.1946
4681000000.0 0.8105 -0.7167
4684000000.0 -0.02843 -1.147
4688000000.0 -0.8943 -0.6725
4691000000.0 -1.069 0.2903
4694000000.0 -0.4292 1.004
4697000000.0 0.5156 0.9923
4700000000.0 1.052 0.194
4703000000.0 0.8013 -0.7242
4706000000.0 -0.05754 -1.053
4709000000.0 -0.8659 -0.6473
4712000000.0 -1.043 0.278
4716000000.0 -0.391 0.9988
4719000000.0 0.5299 0.9248
4722000000.0 1.053 0.2087
4725000000.0 0.7975 -0.6778
4728000000.0 -0.01513 -1.077
4731000000.0 -0.8421 -0.626
4734000000.0 -1.038 0.2469
4738000000.0 -0.4531 0.9388
4741000000.0 0.4222 0.9605
4744000000.0 1.014 0.273
4747000000.0 0.8595 -0.6371
4750000000.0 0.08544 -1.067
4753000000.0 -0.7621 -0.7557
4756000000.0 -1.095 0.1069
4759000000.0 -0.6118 0.9182
4762000000.0 0.3158 1.083
4766000000.0 1.009 0.435
4769000000.0 1.031 -0.5167
4772000000.0 0.263 -1.157
4775000000.0 -0.719 -0.9478
4778000000.0 -1.173 -0.07374
4781000000.0 -0.8249 0.8499
4784000000.0 0.1366 1.226
4788000000.0 1.031 0.6578
4791000000.0 1.173 -0.3652
4794000000.0 0.4827 -1.144
4797000000.0 -0.5506 -1.157
4800000000.0 -1.214 -0.3059
4803000000.0 -1.017 0.7183
4806000000.0 -0.1005 1.237
4809000000.0 0.9117 0.8883
4812000000.0 1.267 -0.1046
4816000000.0 0.7635 -1.088
4819000000.0 -0.3589 -1.266
4822000000.0 -1.232 -0.5501
4825000000.0 -1.2 0.6143
4828000000.0 -0.3013 1.325
4831000000.0 0.8436 1.098
4834000000.0 1.407 0.03435
4838000000.0 0.9015 -1.066
4841000000.0 -0.2346 -1.385
4844000000.0 -1.196 -0.6755
4847000000.0 -1.289 0.5104
4850000000.0 -0.4298 1.307
4853000000.0 0.7441 1.181
4856000000.0 1.343 0.1595
4859000000.0 0.9653 -0.9445
4862000000.0 -0.1157 -1.354
4866000000.0 -1.136 -0.7635
4869000000.0 -1.276 0.3831
4872000000.0 -0.502 1.183
4875000000.0 0.6207 1.125
4878000000.0 1.258 0.248
4881000000.0 0.9644 -0.8174
4884000000.0 -0.03445 -1.237
4888000000.0 -0.9577 -0.7219
4891000000.0 -1.177 0.2864
4894000000.0 -0.4689 1.047
4897000000.0 0.4985 1.039
4900000000.0 1.084 0.2377
4903000000.0 0.8636 -0.6607
4906000000.0 0.007238 -1.076
4909000000.0 -0.8133 -0.7
4912000000.0 -1.006 0.189
4916000000.0 -0.4664 0.8944
4919000000.0 0.3926 0.931
4922000000.0 0.9449 0.2535
4925000000.0 0.7925 -0.4983
4928000000.0 0.0955 -0.9356
4931000000.0 -0.7025 -0.6783
4934000000.0 -0.9475 0.1295
4938000000.0 -0.496 0.8117
4941000000.0 0.2668 0.908
4944000000.0 0.9145 0.3639
4947000000.0 0.8147 -0.4696
4950000000.0 0.1622 -0.9346
4953000000.0 -0.6015 -0.733
4956000000.0 -0.9609 0.03664
4959000000.0 -0.5862 0.7889
4962000000.0 0.229 0.9557
4966000000.0 0.8871 0.4307
4969000000.0 0.8945 -0.397
4972000000.0 0.2462 -0.9727
4975000000.0 -0.5771 -0.7933
4978000000.0 -0.9949 -0.0545
4981000000.0 -0.718 0.7781
4984000000.0 0.1337 1.034
4988000000.0 0.9093 0.55
4991000000.0 1.038 -0.3349
4994000000.0 0.4065 -1.003
4997000000.0 -0.5054 -0.9949
5000000000.0 -1.093 -0.2183
5003000000.0 -0.8992 0.7402
5006000000.0 -0.01908 1.193
5009000000.0 0.8954 0.8053
5012000000.0 1.2 -0.2128
5016000000.0 0.5612 -1.075
5019000000.0 -0.4432 -1.169
5022000000.0 -1.19 -0.3827
5025000000.0 -1.056 0.7055
5028000000.0 -0.1443 1.245
5031000000.0 0.8868 0.9175
5034000000.0 1.298 -0.06265
5038000000.0 0.7691 -1.049
5041000000.0 -0.312 -1.259
5044000000.0 -1.134 -0.5718
5047000000.0 -1.169 0.5552
5050000000.0 -0.3182 1.212
5053000000.0 0.766 1.064
5056000000.0 1.31 0.1168
5059000000.0 0.9424 -0.921
5062000000.0 -0.1108 -1.27
5066000000.0 -1.068 -0.7434
5069000000.0 -1.249 0.3797
5072000000.0 -0.5205 1.171
5075000000.0 0.5769 1.13
5078000000.0 1.186 0.3179
5081000000.0 0.9826 -0.7125
5084000000.0 0.05784 -1.238
5088000000.0 -0.8929 -0.8007
5091000000.0 -1.187 0.1807
5094000000.0 -0.5945 0.993
5097000000.0 0.3385 1.102
5100000000.0 1.037 0.4407
5103000000.0 0.9495 -0.5317
5106000000.0 0.2282 -1.073
5109000000.0 -0.6689 -0.8742
5112000000.0 -1.07 -0.04687
5116000000.0 -0.7138 0.7732
5119000000.0 0.1462 1.051
5122000000.0 0.8914 0.544
5125000000.0 1.027 -0.3126
5128000000.0 0.3554 -0.9214
5131000000.0 -0.4536 -0.8781
5134000000.0 -0.9872 -0.193
5138000000.0 -0.7518 0.6159
5141000000.0 0.01294 0.9732
5144000000.0 0.7914 0.5841
5147000000.0 0.9306 -0.2177
5150000000.0 0.4546 -0.8229
5153000000.0 -0.3543 -0.8307
5156000000.0 -0.8655 -0.2147
5159000000.0 -0.738 0.5379
5162000000.0 -0.07583 0.9053
5166000000.0 0.6275 0.6043
5169000000.0 0.8708 -0.1363
5172000000.0 0.4582 -0.769
5175000000.0 -0.3147 -0.81
5178000000.0 -0.8289 -0.2734
5181000000.0 -0.7681 0.5102
5184000000.0 -0.06962 0.9105
5188000000.0 0.6538 0.6216
5191000000.0 0.8928 -0.1042
5194000000.0 0.4794 -0.7838
5197000000.0 -0.2865 -0.8886
5200000000.0 -0.8969 -0.2786
5203000000.0 -0.7897 0.486
5206000000.0 -0.09739 0.9415
5209000000.0 0.6888 0.6688
5212000000.0 0.9516 -0.08555
5216000000.0 0.5474 -0.8113
5219000000.0 -0.3086 -0.9415
5222000000.0 -0.9045 -0.3787
5225000000.0 -0.8642 0.4889
5228000000.0 -0.1788 0.9972
5231000000.0 0.668 0.7854
5234000000.0 1.022 -0.00965
5238000000.0 0.6507 -0.798
5241000000.0 -0.2365 -1.02
5244000000.0 -0.9371 -0.4839
5247000000.0 -0.9595 0.4154
5250000000.0 -0.3099 1.002
5253000000.0 0.5835 0.921
5256000000.0 1.038 0.1103
5259000000.0 0.7647 -0.754
5262000000.0 -0.07761 -1.081
5266000000.0 -0.8662 -0.641
5269000000.0 -1.076 0.2608
5272000000.0 -0.4779 0.9482
5275000000.0 0.428 1.006
5278000000.0 1.039 0.3074
5281000000.0 0.9231 -0.5953
5284000000.0 0.185 -1.087
5288000000.0 -0.7388 -0.7873
5291000000.0 -1.067 0.04757
5294000000.0 -0.7208 0.846
5297000000.0 0.2056 1.089
5300000000.0 0.9579 0.5585
5303000000.0 1.07 -0.3799
5306000000.0 0.382 -1.067
5309000000.0 -0.5727 -0.9557
5312000000.0 -1.1 -0.2061
5316000000.0 -0.8719 0.6853
5319000000.0 0.005059 1.097
5322000000.0 0.8533 0.7396
5325000000.0 1.119 -0.2209
5328000000.0 0.552 -0.9988
5331000000.0 -0.4365 -1.077
5334000000.0 -1.088 -0.3131
5338000000.0 -0.9621 0.6072
5341000000.0 -0.1637 1.106
5344000000.0 0.7495 0.8038
5347000000.0 1.088 -0.0368
5350000000.0 0.6493 -0.898
5353000000.0 -0.2515 -1.046
5356000000.0 -1.006 -0.4475
5359000000.0 -0.9693 0.4697
5362000000.0 -0.2131 1.022
5366000000.0 0.6564 0.8209
5369000000.0 1.044 0.03872
5372000000.0 0.632 -0.8236
5375000000.0 -0.222 -1.002
5378000000.0 -0.8964 -0.4649
5381000000.0 -0.914 0.4221
5384000000.0 -0.2424 0.9389
5388000000.0 0.647 0.7535
5391000000.0 0.9475 -0.02169
5394000000.0 0.5578 -0.7288
5397000000.0 -0.2214 -0.9123
5400000000.0 -0.8056 -0.3765
5403000000.0 -0.7727 0.4381
5406000000.0 -0.1413 0.8659
5409000000.0 0.578 0.6583
5412000000.0 0.8678 -0.05176
5416000000.0 0.521 -0.6767
5419000000.0 -0.2251 -0.8179
5422000000.0 -0.7686 -0.3429
5425000000.0 -0.802 0.4038
5428000000.0 -0.1591 0.8322
5431000000.0 0.5793 0.6576
5434000000.0 0.8731 -0.01325
5438000000.0 0.5358 -0.7443
5441000000.0 -0.2097 -0.8283
5444000000.0 -0.7793 -0.3488
5447000000.0 -0.7805 0.4324
5450000000.0 -0.1709 0.8606
5453000000.0 0.5515 0.6485
5456000000.0 0.9281 0.01021
5459000000.0 0.5509 -0.7099
5462000000.0 -0.1529 -0.9018
5466000000.0 -0.8049 -0.4401
5469000000.0 -0.8215 0.3588
5472000000.0 -0.2638 0.8786
5475000000.0 0.4825 0.7776
5478000000.0 0.9268 0.1375
5481000000.0 0.688 -0.6201
5484000000.0 -0.02474 -0.9476
5488000000.0 -0.7681 -0.5909
5491000000.0 -0.9727 0.2115
5494000000.0 -0.4719 0.8929
5497000000.0 0.3806 0.9372
5500000000.0 0.9679 0.3419
5503000000.0 0.8785 -0.5476
5506000000.0 0.09284 -1.03
5509000000.0 -0.7072 -0.7746
5512000000.0 -1.047 0.06924
5516000000.0 -0.65 0.8238
5519000000.0 0.2274 1.004
5522000000.0 0.9085 0.4904
5525000000.0 0.9613 -0.3895
5528000000.0 0.3497 -0.9881
5531000000.0 -0.5382 -0.9181
5534000000.0 -1.037 -0.1518
5538000000.0 -0.7728 0.6811
5541000000.0 0.04671 1.053
5544000000.0 0.8317 0.696
5547000000.0 1.048 -0.2232
5550000000.0 0.4754 -0.9384
5553000000.0 -0.425 -1.02
5556000000.0 -1.015 -0.3251
5559000000.0 -0.8839 0.5743
5562000000.0 -0.1118 1.021
5566000000.0 0.7339 0.7398
5569000000.0 1.031 -0.05574
5572000000.0 0.5708 -0.8393
5575000000.0 -0.2614 -0.9575
5578000000.0 -0.8748 -0.3977
5581000000.0 -0.8587 0.4446
5584000000.0 -0.2205 0.9604
5588000000.0 0.543 0.7545
5591000000.0 0.9437 0.03345
5594000000.0 0.6306 -0.6957
5597000000.0 -0.1568 -0.9219
5600000000.0 -0.7976 -0.4776
5603000000.0 -0.8537 0.3223
5606000000.0 -0.2863 0.7941
5609000000.0 0.478 0.7266
5612000000.0 0.8698 0.0853
5616000000.0 0.6075 -0.5916
5619000000.0 -0.0794 -0.839
5622000000.0 -0.7112 -0.4705
5625000000.0 -0.7818 0.2501
5628000000.0 -0.2921 0.7978
5631000000.0 0.4138 0.7237
5634000000.0 0.8227 0.1237
5638000000.0 0.6254 -0.5454
5641000000.0 -0.05307 -0.8224
5644000000.0 -0.6892 -0.4797
5647000000.0 -0.797 0.2416
5650000000.0 -0.3025 0.7597
5653000000.0 0.3941 0.7308
5656000000.0 0.8629 0.1647
5659000000.0 0.6325 -0.5694
5662000000.0 -0.0665 -0.8607
5666000000.0 -0.7075 -0.5105
5669000000.0 -0.8432 0.2583
5672000000.0 -0.3567 0.8373
5675000000.0 0.41 0.8041
5678000000.0 0.9148 0.1684
5681000000.0 0.6777 -0.6114
5684000000.0 -0.002255 -0.9417
5688000000.0 -0.7746 -0.5496
5691000000.0 -0.934 0.2504
5694000000.0 -0.4146 0.9002
5697000000.0 0.4419 0.8987
5700000000.0 0.9707 0.224
5703000000.0 0.793 -0.5993
5706000000.0 0.03869 -1.026
5709000000.0 -0.743 -0.6679
5712000000.0 -1.024 0.1959
5716000000.0 -0.5441 0.9004
5719000000.0 0.3527 0.9897
5722000000.0 0.97 0.3563
5725000000.0 0.8766 -0.5491
5728000000.0 0.1531 -1.045
5731000000.0 -0.7143 -0.7803
5734000000.0 -1.07 0.05407
5738000000.0 -0.63 0.8571
5741000000.0 0.2626 1.054
5744000000.0 0.9691 0.5241
5747000000.0 1.025 -0.4269
5750000000.0 0.3124 -1.084
5753000000.0 -0.6153 -0.941
5756000000.0 -1.086 -0.1232
5759000000.0 -0.8222 0.7699
5762000000.0 0.08876 1.113
5766000000.0 0.906 0.6245
5769000000.0 1.07 -0.2929
5772000000.0 0.4579 -0.995
5775000000.0 -0.4853 -1.036
5778000000.0 -1.041 -0.2731
5781000000.0 -0.929 0.6241
5784000000.0 -0.1105 1.094
5788000000.0 0.7655 0.7571
5791000000.0 1.072 -0.1135
5794000000.0 0.62 -0.8899
5797000000.0 -0.3194 -1.05
5800000000.0 -0.9694 -0.466
5803000000.0 -0.9564 0.5139
5806000000.0 -0.2372 1.025
5809000000.0 0.6559 0.8374
5812000000.0 1.035 0.004075
5816000000.0 0.6532 -0.7995
5819000000.0 -0.1885 -1.042
5822000000.0 -0.8617 -0.4637
5825000000.0 -0.9177 0.3949
5828000000.0 -0.2447 0.9419
5831000000.0 0.5369 0.7942
5834000000.0 0.9787 0.0607
5838000000.0 0.6732 -0.7284
5841000000.0 -0.08362 -0.9803
5844000000.0 -0.822 -0.4993
5847000000.0 -0.8698 0.3121
5850000000.0 -0.3235 0.8697
5853000000.0 0.4779 0.7943
5856000000.0 0.926 0.1183
5859000000.0 0.6627 -0.6594
5862000000.0 -0.07058 -0.8749
5866000000.0 -0.761 -0.5029
5869000000.0 -0.8847 0.2664
5872000000.0 -0.3118 0.8393
5875000000.0 0.4394 0.786
5878000000.0 0.8869 0.115
5881000000.0 0.6527 -0.5824
5884000000.0 -0.06861 -0.8595
5888000000.0 -0.7335 -0.5022
5891000000.0 -0.8382 0.2445
5894000000.0 -0.3575 0.82
5897000000.0 0.4186 0.7491
5900000000.0 0.8641 0.1641
5903000000.0 0.6696 -0.5295
5906000000.0 0.008362 -0.8626
5909000000.0 -0.6837 -0.5427
5912000000.0 -0.8513 0.2107
5916000000.0 -0.4108 0.7497
5919000000.0 0.3474 0.7805
5922000000.0 0.8439 0.2293
5925000000.0 0.7523 -0.5205
5928000000.0 0.06186 -0.8927
5931000000.0 -0.6126 -0.6121
5934000000.0 -0.9105 0.07969
5938000000.0 -0.4859 0.7786
5941000000.0 0.2457 0.9038
5944000000.0 0.8084 0.3797
5947000000.0 0.8357 -0.3995
5950000000.0 0.2342 -0.8679
5953000000.0 -0.5633 -0.7392
5956000000.0 -0.9539 -0.04523
5959000000.0 -0.6505 0.6747
5962000000.0 0.1061 0.9293
5966000000.0 0.8122 0.4901
5969000000.0 0.9174 -0.2394
5972000000.0 0.3581 -0.9037
5975000000.0 -0.4568 -0.8643
5978000000.0 -0.9764 -0.199
5981000000.0 -0.7803 0.6025
5984000000.0 -0.02107 1.003
5988000000.0 0.7259 0.6431
5991000000.0 0.9797 -0.1597
5994000000.0 0.5079 -0.8733
5997000000.0 -0.3254 -0.9356
6000000000.0 -0.9339 -0.3459
6003000000.0 -0.8349 0.5172
6006000000.0 -0.1658 0.9602
6009000000.0 0.6569 0.7183
6012000000.0 1.015 -0.05959
6016000000.0 0.5716 -0.7939
6019000000.0 -0.2444 -0.9837
6022000000.0 -0.8899 -0.4308
6025000000.0 -0.8937 0.4412
6028000000.0 -0.2163 0.9729
6031000000.0 0.5844 0.7573
6034000000.0 0.9665 0.03149
6038000000.0 0.6337 -0.7166
6041000000.0 -0.1672 -0.9396
6044000000.0 -0.8514 -0.4411
6047000000.0 -0.8696 0.3351
6050000000.0 -0.2754 0.899
6053000000.0 0.5146 0.7553
6056000000.0 0.9105 0.07283
6059000000.0 0.6366 -0.6521
6062000000.0 -0.1094 -0.9106
6066000000.0 -0.7497 -0.4726
6069000000.0 -0.8313 0.3018
6072000000.0 -0.305 0.8252
6075000000.0 0.4764 0.7216
6078000000.0 0.8599 0.09607
6081000000.0 0.6258 -0.6076
6084000000.0 -0.08425 -0.8543
6088000000.0 -0.6919 -0.4667
6091000000.0 -0.8367 0.2283
6094000000.0 -0.3167 0.7774
6097000000.0 0.4018 0.7429
6100000000.0 0.8565 0.1381
6103000000.0 0.632 -0.5377
6106000000.0 -0.04917 -0.8354
6109000000.0 -0.6598 -0.5275
6112000000.0 -0.829 0.2078
6116000000.0 -0.3595 0.761
6119000000.0 0.4022 0.7717
6122000000.0 0.857 0.1733
6125000000.0 0.6865 -0.5584
6128000000.0 -0.00497 -0.8695
6131000000.0 -0.6985 -0.5456
6134000000.0 -0.8619 0.1911
6138000000.0 -0.4016 0.8119
6141000000.0 0.3583 0.8419
6144000000.0 0.8648 0.2183
6147000000.0 0.742 -0.5317
6150000000.0 0.03244 -0.9184
6153000000.0 -0.665 -0.6078
6156000000.0 -0.9242 0.1048
6159000000.0 -0.5232 0.7672
6162000000.0 0.3105 0.888
6166000000.0 0.8901 0.319
6169000000.0 0.8139 -0.4609
6172000000.0 0.1388 -0.9509
6175000000.0 -0.639 -0.7356
6178000000.0 -0.9733 0.06567
6181000000.0 -0.5579 0.7771
6184000000.0 0.2348 0.9279
6188000000.0 0.8902 0.4016
6191000000.0 0.8327 -0.4388
6194000000.0 0.2179 -0.9155
6197000000.0 -0.5836 -0.7602
6200000000.0 -0.9484 -0.03418
6203000000.0 -0.6315 0.722
6206000000.0 0.1614 0.9272
6209000000.0 0.8337 0.4997
6212000000.0 0.8777 -0.3003
6216000000.0 0.3316 -0.8382
6219000000.0 -0.4663 -0.7553
6222000000.0 -0.9077 -0.1284
6225000000.0 -0.696 0.5994
6228000000.0 0.06647 0.9175
6231000000.0 0.694 0.5547
6234000000.0 0.8725 -0.1874
6238000000.0 0.3793 -0.7933
6241000000.0 -0.3639 -0.8238
6244000000.0 -0.7772 -0.2238
6247000000.0 -0.7054 0.4616
6250000000.0 -0.07508 0.8605
6253000000.0 0.6204 0.6169
6256000000.0 0.8318 -0.06037
6259000000.0 0.5004 -0.6841
6262000000.0 -0.2147 -0.7904
6266000000.0 -0.7401 -0.3549
