! Created with skrf 1.8.0 (http://scikit-rf.org).
# Hz S RI R 50.0 
!freq ReS11 ImS11
4000000000.0 -0.3104 -1.463
4003000000.0 -1.367 -0.665
4006000000.0 -1.407 0.608
4009000000.0 -0.4383 1.467
4012000000.0 0.8968 1.23
4016000000.0 1.555 0.07625
4019000000.0 1.004 -1.164
4022000000.0 -0.2596 -1.53
4025000000.0 -1.402 -0.75
4028000000.0 -1.462 0.6017
4031000000.0 -0.4497 1.556
4034000000.0 0.9488 1.31
4038000000.0 1.623 0.01998
4041000000.0 1.063 -1.257
4044000000.0 -0.2249 -1.665
4047000000.0 -1.444 -0.7632
4050000000.0 -1.506 0.5904
4053000000.0 -0.4655 1.505
4056000000.0 0.8704 1.349
4059000000.0 1.6 0.1438
4062000000.0 1.145 -1.095
4066000000.0 -0.08658 -1.614
4069000000.0 -1.3 -0.9347
4072000000.0 -1.576 0.4095
4075000000.0 -0.7042 1.461
4078000000.0 0.7016 1.452
4081000000.0 1.582 0.4543
4084000000.0 1.298 -0.9613
4088000000.0 0.09118 -1.649
4091000000.0 -1.227 -1.111
4094000000.0 -1.65 0.2454
4097000000.0 -0.8578 1.375
4100000000.0 0.5183 1.516
4103000000.0 1.457 0.5756
4106000000.0 1.367 -0.7867
4109000000.0 0.3031 -1.522
4112000000.0 -0.942 -1.188
4116000000.0 -1.509 -0.04753
4119000000.0 -1.032 1.063
4122000000.0 0.1773 1.463
4125000000.0 1.221 0.8306
4128000000.0 1.425 -0.3312
4131000000.0 0.6469 -1.314
4134000000.0 -0.5658 -1.337
4138000000.0 -1.403 -0.4622
4141000000.0 -1.251 0.7802
4144000000.0 -0.2357 1.461
4147000000.0 0.9896 1.151
4150000000.0 1.498 -0.04297
4153000000.0 0.9514 -1.15
4156000000.0 -0.2494 -1.463
4159000000.0 -1.344 -0.7612
4162000000.0 -1.403 0.5235
4166000000.0 -0.4818 1.419
4169000000.0 0.7553 1.264
4172000000.0 1.475 0.2324
4175000000.0 1.112 -0.989
4178000000.0 -0.03622 -1.467
4181000000.0 -1.186 -0.9088
4184000000.0 -1.458 0.3042
4188000000.0 -0.6946 1.355
4191000000.0 0.5732 1.4
4194000000.0 1.472 0.4221
4197000000.0 1.255 -0.8799
4200000000.0 0.1132 -1.55
4203000000.0 -1.15 -1.071
4206000000.0 -1.582 0.2562
4209000000.0 -0.8156 1.46
4212000000.0 0.6561 1.463
4216000000.0 1.602 0.4471
4219000000.0 1.294 -1.007
4222000000.0 -0.03171 -1.678
4225000000.0 -1.376 -0.9552
4228000000.0 -1.566 0.5023
4231000000.0 -0.531 1.553
4234000000.0 0.9048 1.395
4238000000.0 1.563 0.1192
4241000000.0 1.046 -1.229
4244000000.0 -0.309 -1.524
4247000000.0 -1.404 -0.6497
4250000000.0 -1.37 0.652
4253000000.0 -0.2905 1.474
4256000000.0 0.9473 1.11
4259000000.0 1.502 -0.0573
4262000000.0 0.8341 -1.226
4266000000.0 -0.4054 -1.401
4269000000.0 -1.364 -0.5032
4272000000.0 -1.18 0.7533
4275000000.0 -0.1703 1.445
4278000000.0 0.9864 0.9979
4281000000.0 1.402 -0.1624
4284000000.0 0.7362 -1.171
4288000000.0 -0.4246 -1.313
4291000000.0 -1.243 -0.4773
4294000000.0 -1.128 0.6976
4297000000.0 -0.1624 1.333
4300000000.0 0.8506 0.9465
4303000000.0 1.291 -0.02719
4306000000.0 0.7987 -1.006
4309000000.0 -0.2402 -1.267
4312000000.0 -1.118 -0.6027
4316000000.0 -1.188 0.407
4319000000.0 -0.414 1.213
4322000000.0 0.6959 1.137
4325000000.0 1.301 0.2357
4328000000.0 1.046 -0.8787
4331000000.0 -0.02418 -1.33
4334000000.0 -1.062 -0.8782
4338000000.0 -1.354 0.2662
4341000000.0 -0.671 1.247
4344000000.0 0.5085 1.309
4347000000.0 1.389 0.4748
4350000000.0 1.206 -0.8073
4353000000.0 0.1661 -1.43
4356000000.0 -0.9894 -1.058
4359000000.0 -1.479 0.09295
4362000000.0 -0.8581 1.198
4366000000.0 0.38 1.445
4369000000.0 1.35 0.6477
4372000000.0 1.332 -0.6465
4375000000.0 0.3386 -1.501
4378000000.0 -0.9471 -1.164
4381000000.0 -1.512 -0.03911
4384000000.0 -0.9933 1.182
4388000000.0 0.266 1.539
4391000000.0 1.382 0.7423
4394000000.0 1.438 -0.6067
4397000000.0 0.4016 -1.508
4400000000.0 -0.9762 -1.272
4403000000.0 -1.561 -0.01542
4406000000.0 -0.9993 1.239
4409000000.0 0.3839 1.511
4412000000.0 1.395 0.6336
4416000000.0 1.328 -0.7039
4419000000.0 0.2392 -1.438
4422000000.0 -1.014 -1.063
4425000000.0 -1.439 0.1419
4428000000.0 -0.7565 1.199
4431000000.0 0.4693 1.28
4434000000.0 1.314 0.4413
4438000000.0 1.098 -0.7275
4441000000.0 0.08808 -1.32
4444000000.0 -0.9951 -0.8354
4447000000.0 -1.257 0.2104
4450000000.0 -0.5795 1.121
4453000000.0 0.5497 1.138
4456000000.0 1.224 0.2563
4459000000.0 0.9343 -0.7718
4462000000.0 -0.03699 -1.199
4466000000.0 -0.9645 -0.7119
4469000000.0 -1.142 0.3215
4472000000.0 -0.4231 1.077
4475000000.0 0.5854 1.014
4478000000.0 1.149 0.1589
4481000000.0 0.8343 -0.8375
4484000000.0 -0.1118 -1.155
4488000000.0 -0.9646 -0.6524
4491000000.0 -1.096 0.3649
4494000000.0 -0.423 1.077
4497000000.0 0.5778 0.9641
4500000000.0 1.139 0.1756
4503000000.0 0.8304 -0.7539
4506000000.0 -0.05971 -1.121
4509000000.0 -0.8964 -0.6574
4512000000.0 -1.078 0.2739
4516000000.0 -0.4799 1.047
4519000000.0 0.5189 1.067
4522000000.0 1.171 0.2727
4525000000.0 0.9523 -0.6773
4528000000.0 0.04697 -1.217
4531000000.0 -0.8923 -0.8278
4534000000.0 -1.208 0.1837
4538000000.0 -0.6469 1.065
4541000000.0 0.4033 1.199
4544000000.0 1.142 0.4513
4547000000.0 1.093 -0.5959
4550000000.0 0.2197 -1.247
4553000000.0 -0.8175 -0.9658
4556000000.0 -1.258 -0.009532
4559000000.0 -0.8028 0.9656
4562000000.0 0.2098 1.269
4566000000.0 1.119 0.6731
4569000000.0 1.235 -0.4483
4572000000.0 0.4815 -1.239
4575000000.0 -0.671 -1.149
4578000000.0 -1.327 -0.2123
4581000000.0 -1.035 0.8873
4584000000.0 0.001669 1.362
4588000000.0 1.065 0.8769
4591000000.0 1.365 -0.2982
4594000000.0 0.6324 -1.236
4597000000.0 -0.5476 -1.282
4600000000.0 -1.36 -0.4008
4603000000.0 -1.143 0.7946
4606000000.0 -0.1074 1.394
4609000000.0 1.032 0.9592
4612000000.0 1.376 -0.1889
4616000000.0 0.7303 -1.196
4619000000.0 -0.4732 -1.285
4622000000.0 -1.322 -0.4366
4625000000.0 -1.187 0.7233
4628000000.0 -0.1642 1.361
4631000000.0 0.9339 0.9776
4634000000.0 1.344 -0.13
4638000000.0 0.756 -1.122
4641000000.0 -0.3947 -1.248
4644000000.0 -1.22 -0.4612
4647000000.0 -1.116 0.6598
4650000000.0 -0.1523 1.25
4653000000.0 0.8901 0.914
4656000000.0 1.229 -0.144
4659000000.0 0.629 -1.079
4662000000.0 -0.4214 -1.161
4666000000.0 -1.11 -0.3646
4669000000.0 -0.9932 0.6341
4672000000.0 -0.1119 1.166
4675000000.0 0.8228 0.7751
4678000000.0 1.108 -0.1762
4681000000.0 0.5841 -0.9347
4684000000.0 -0.3853 -1.032
4688000000.0 -1.047 -0.3379
4691000000.0 -0.9304 0.5767
4694000000.0 -0.1035 1.051
4697000000.0 0.749 0.7251
4700000000.0 1.113 -0.1432
4703000000.0 0.543 -0.9351
4706000000.0 -0.3778 -1.029
4709000000.0 -1.032 -0.3453
4712000000.0 -0.889 0.6145
4716000000.0 -0.121 1.1
4719000000.0 0.794 0.7929
4722000000.0 1.033 -0.142
4725000000.0 0.5637 -0.9061
4728000000.0 -0.3594 -1.006
4731000000.0 -0.9961 -0.3999
4734000000.0 -0.9711 0.522
4738000000.0 -0.2313 1.073
4741000000.0 0.6782 0.8322
4744000000.0 1.108 0.005516
4747000000.0 0.7075 -0.8122
4750000000.0 -0.176 -1.088
4753000000.0 -0.9683 -0.5769
4756000000.0 -1.091 0.3564
4759000000.0 -0.4185 1.101
4762000000.0 0.6089 1.006
4766000000.0 1.179 0.2091
4769000000.0 0.909 -0.773
4772000000.0 -0.005252 -1.227
4775000000.0 -0.944 -0.7925
4778000000.0 -1.212 0.2114
4781000000.0 -0.5987 1.113
4784000000.0 0.4331 1.178
4788000000.0 1.2 0.4356
4791000000.0 1.109 -0.6331
4794000000.0 0.2559 -1.28
4797000000.0 -0.8309 -0.9968
4800000000.0 -1.312 -0.0214
4803000000.0 -0.8492 0.9757
4806000000.0 0.1782 1.269
4809000000.0 1.133 0.6599
4812000000.0 1.25 -0.4284
4816000000.0 0.484 -1.279
4819000000.0 -0.6787 -1.171
4822000000.0 -1.352 -0.2101
4825000000.0 -1.05 0.9304
4828000000.0 0.05753 1.394
4831000000.0 1.119 0.8346
4834000000.0 1.36 -0.3418
4838000000.0 0.605 -1.267
4841000000.0 -0.5614 -1.248
4844000000.0 -1.359 -0.3288
4847000000.0 -1.103 0.8215
4850000000.0 -0.03208 1.355
4853000000.0 1.031 0.8753
4856000000.0 1.316 -0.2232
4859000000.0 0.6648 -1.146
4862000000.0 -0.4967 -1.204
4866000000.0 -1.228 -0.3944
4869000000.0 -1.05 0.7126
4872000000.0 -0.08286 1.236
4875000000.0 0.8877 0.8388
4878000000.0 1.207 -0.1468
4881000000.0 0.6356 -1.004
4884000000.0 -0.4012 -1.083
4888000000.0 -1.063 -0.3967
4891000000.0 -0.9582 0.5906
4894000000.0 -0.1456 1.086
4897000000.0 0.7741 0.7596
4900000000.0 1.064 -0.1113
4903000000.0 0.5521 -0.887
4906000000.0 -0.2997 -0.9874
4909000000.0 -0.9329 -0.3674
4912000000.0 -0.8634 0.4886
4916000000.0 -0.1462 0.9665
4919000000.0 0.6322 0.7297
4922000000.0 0.9492 -0.02567
4925000000.0 0.5672 -0.7465
4928000000.0 -0.1946 -0.8877
4931000000.0 -0.8431 -0.429
4934000000.0 -0.8595 0.3807
4938000000.0 -0.2796 0.901
4941000000.0 0.5214 0.7803
4944000000.0 0.9573 0.04864
4947000000.0 0.6497 -0.6852
4950000000.0 -0.1187 -0.9531
4953000000.0 -0.8371 -0.5156
4956000000.0 -0.9592 0.2975
4959000000.0 -0.3499 0.9382
4962000000.0 0.5291 0.8526
4966000000.0 1.015 0.1728
4969000000.0 0.7764 -0.6719
4972000000.0 -0.06046 -1.04
4975000000.0 -0.8576 -0.624
4978000000.0 -1.047 0.2665
4981000000.0 -0.4653 0.9562
4984000000.0 0.449 1.006
4988000000.0 1.079 0.3125
4991000000.0 0.9099 -0.6536
4994000000.0 0.0892 -1.14
4997000000.0 -0.8197 -0.8158
5000000000.0 -1.181 0.1006
5003000000.0 -0.6638 1.014
5006000000.0 0.3529 1.165
5009000000.0 1.157 0.4736
5012000000.0 1.124 -0.6008
5016000000.0 0.2662 -1.263
5019000000.0 -0.8185 -1.008
5022000000.0 -1.275 0.001168
5025000000.0 -0.8422 1.013
5028000000.0 0.218 1.269
5031000000.0 1.144 0.64
5034000000.0 1.221 -0.4988
5038000000.0 0.3946 -1.23
5041000000.0 -0.6969 -1.105
5044000000.0 -1.28 -0.1469
5047000000.0 -0.937 0.8604
5050000000.0 0.04674 1.279
5053000000.0 1.01 0.7535
5056000000.0 1.224 -0.2879
5059000000.0 0.5475 -1.134
5062000000.0 -0.5052 -1.163
5066000000.0 -1.204 -0.3738
5069000000.0 -1.037 0.6984
5072000000.0 -0.112 1.223
5075000000.0 0.8646 0.8789
5078000000.0 1.195 -0.09289
5081000000.0 0.6304 -0.9995
5084000000.0 -0.3049 -1.11
5088000000.0 -1.053 -0.4362
5091000000.0 -0.9989 0.4962
5094000000.0 -0.2726 1.079
5097000000.0 0.6413 0.8774
5100000000.0 1.072 0.02732
5103000000.0 0.7222 -0.7796
5106000000.0 -0.1573 -1.054
5109000000.0 -0.8683 -0.5318
5112000000.0 -0.9263 0.3208
5116000000.0 -0.3618 0.9265
5119000000.0 0.4818 0.879
5122000000.0 1.008 0.1959
5125000000.0 0.7303 -0.688
5128000000.0 -0.04908 -0.9525
5131000000.0 -0.7465 -0.5686
5134000000.0 -0.938 0.2231
5138000000.0 -0.4063 0.8468
5141000000.0 0.3948 0.8201
5144000000.0 0.8741 0.1849
5147000000.0 0.7264 -0.5658
5150000000.0 -0.009865 -0.8842
5153000000.0 -0.6826 -0.5612
5156000000.0 -0.8767 0.1949
5159000000.0 -0.4124 0.8005
5162000000.0 0.3705 0.8058
5166000000.0 0.897 0.2017
5169000000.0 0.7038 -0.5316
5172000000.0 0.01571 -0.8917
5175000000.0 -0.7219 -0.5836
5178000000.0 -0.9003 0.2012
5181000000.0 -0.4085 0.8278
5184000000.0 0.4008 0.8524
5188000000.0 0.9282 0.2529
5191000000.0 0.7491 -0.5928
5194000000.0 0.04042 -0.9603
5197000000.0 -0.745 -0.579
5200000000.0 -0.9374 0.1788
5203000000.0 -0.4535 0.8965
5206000000.0 0.3813 0.9114
5209000000.0 0.9612 0.2553
5212000000.0 0.8152 -0.6181
5216000000.0 0.06883 -0.9918
5219000000.0 -0.7368 -0.7099
5222000000.0 -1.02 0.14
5225000000.0 -0.565 0.8736
5228000000.0 0.335 0.9886
5231000000.0 0.9814 0.3924
5234000000.0 0.8959 -0.5212
5238000000.0 0.2149 -1.057
5241000000.0 -0.6948 -0.8213
5244000000.0 -1.089 -0.02689
5247000000.0 -0.6655 0.8579
5250000000.0 0.2127 1.062
5253000000.0 0.9638 0.5128
5256000000.0 1.038 -0.4109
5259000000.0 0.3434 -1.047
5262000000.0 -0.5951 -0.9289
5266000000.0 -1.104 -0.1756
5269000000.0 -0.8211 0.72
5272000000.0 0.04295 1.128
5275000000.0 0.8471 0.6924
5278000000.0 1.112 -0.2426
5281000000.0 0.5134 -0.9797
5284000000.0 -0.4023 -1.02
5288000000.0 -1.062 -0.378
5291000000.0 -0.964 0.5795
5294000000.0 -0.1459 1.079
5297000000.0 0.7594 0.8388
5300000000.0 1.124 -0.0434
5303000000.0 0.6761 -0.8784
5306000000.0 -0.2626 -1.056
5309000000.0 -0.9821 -0.4903
5312000000.0 -0.9973 0.4772
5316000000.0 -0.2767 1.07
5319000000.0 0.6507 0.884
5322000000.0 1.06 0.07776
5325000000.0 0.7385 -0.8182
5328000000.0 -0.1978 -1.07
5331000000.0 -0.9466 -0.5376
5334000000.0 -0.9734 0.3948
5338000000.0 -0.2604 1.03
5341000000.0 0.6215 0.813
5344000000.0 1.044 0.04931
5347000000.0 0.6371 -0.7646
5350000000.0 -0.2165 -0.9879
5353000000.0 -0.8711 -0.429
5356000000.0 -0.863 0.4613
5359000000.0 -0.2303 0.9111
5362000000.0 0.6157 0.7226
5366000000.0 0.907 -0.0207
5369000000.0 0.5204 -0.7555
5372000000.0 -0.2799 -0.8757
5375000000.0 -0.8581 -0.3147
5378000000.0 -0.7466 0.4581
5381000000.0 -0.06307 0.9029
5384000000.0 0.6646 0.5937
5388000000.0 0.8449 -0.1563
5391000000.0 0.3761 -0.7489
5394000000.0 -0.3536 -0.7808
5397000000.0 -0.8499 -0.2153
5400000000.0 -0.6718 0.5052
5403000000.0 -0.01467 0.8485
5406000000.0 0.6568 0.5302
5409000000.0 0.8625 -0.1728
5412000000.0 0.3591 -0.772
5416000000.0 -0.3541 -0.7921
5419000000.0 -0.8477 -0.2299
5422000000.0 -0.7425 0.5209
5425000000.0 -0.07258 0.9124
5428000000.0 0.7073 0.6164
5431000000.0 0.936 -0.1519
5434000000.0 0.4821 -0.8132
5438000000.0 -0.3809 -0.9071
5441000000.0 -0.9388 -0.3003
5444000000.0 -0.8498 0.5193
5447000000.0 -0.09464 1.006
5450000000.0 0.7258 0.7142
5453000000.0 0.9984 -0.1012
5456000000.0 0.577 -0.8538
5459000000.0 -0.2772 -0.9883
5462000000.0 -0.9463 -0.415
5466000000.0 -0.968 0.5045
5469000000.0 -0.2243 1.018
5472000000.0 0.6537 0.8159
5475000000.0 1.06 0.03082
5478000000.0 0.6783 -0.8258
5481000000.0 -0.2002 -1.093
5484000000.0 -0.9527 -0.5509
5488000000.0 -1.034 0.4084
5491000000.0 -0.3532 1.045
5494000000.0 0.5966 0.9247
5497000000.0 1.119 0.1455
5500000000.0 0.7943 -0.7911
5503000000.0 -0.1268 -1.096
5506000000.0 -0.9329 -0.6371
5509000000.0 -1.024 0.361
5512000000.0 -0.4006 1.051
5516000000.0 0.565 0.9286
5519000000.0 1.037 0.1931
5522000000.0 0.7426 -0.7398
5525000000.0 -0.05465 -1.031
5528000000.0 -0.8398 -0.5595
5531000000.0 -0.9885 0.2634
5534000000.0 -0.3566 0.9385
5538000000.0 0.5114 0.8596
5541000000.0 0.9527 0.1148
5544000000.0 0.7252 -0.661
5547000000.0 -0.1106 -0.9147
5550000000.0 -0.7935 -0.4652
5553000000.0 -0.8619 0.3194
5556000000.0 -0.2453 0.8244
5559000000.0 0.4974 0.7024
5562000000.0 0.8267 0.02862
5566000000.0 0.5721 -0.6471
5569000000.0 -0.1892 -0.841
5572000000.0 -0.7587 -0.3427
5575000000.0 -0.7312 0.3883
5578000000.0 -0.1265 0.8011
5581000000.0 0.5425 0.5829
5584000000.0 0.8088 -0.03783
5588000000.0 0.4301 -0.6679
5591000000.0 -0.2913 -0.7792
5594000000.0 -0.7529 -0.2567
5597000000.0 -0.6697 0.4459
5600000000.0 -0.05076 0.8075
5603000000.0 0.6101 0.5526
5606000000.0 0.8188 -0.1375
5609000000.0 0.3823 -0.7336
5612000000.0 -0.3424 -0.7641
5616000000.0 -0.8565 -0.2353
5619000000.0 -0.6661 0.5387
5622000000.0 -0.0006947 0.881
5625000000.0 0.6989 0.5575
5628000000.0 0.8716 -0.2287
5631000000.0 0.3857 -0.8573
5634000000.0 -0.4011 -0.8435
5638000000.0 -0.9515 -0.2008
5641000000.0 -0.7781 0.5962
5644000000.0 0.002301 0.9995
5647000000.0 0.7975 0.6341
5650000000.0 0.9976 -0.229
5653000000.0 0.4421 -0.9333
5656000000.0 -0.4565 -0.9338
5659000000.0 -1.021 -0.2647
5662000000.0 -0.8412 0.6837
5666000000.0 -0.01784 1.11
5669000000.0 0.8383 0.6847
5672000000.0 1.091 -0.2454
5675000000.0 0.5023 -1.0
5678000000.0 -0.4821 -1.04
5681000000.0 -1.11 -0.2531
5684000000.0 -0.8953 0.7066
5688000000.0 0.05317 1.124
5691000000.0 0.9027 0.676
5694000000.0 1.107 -0.2964
5697000000.0 0.4673 -1.036
5700000000.0 -0.5385 -0.981
5703000000.0 -1.093 -0.1711
5706000000.0 -0.8029 0.7469
5709000000.0 0.1069 1.115
5712000000.0 0.9057 0.5618
5716000000.0 1.033 -0.404
5719000000.0 0.3314 -1.004
5722000000.0 -0.5815 -0.8609
5725000000.0 -1.015 -0.0178
5728000000.0 -0.6532 0.7666
5731000000.0 0.2257 0.9675
5734000000.0 0.8977 0.3865
5738000000.0 0.856 -0.4503
5741000000.0 0.1576 -0.956
5744000000.0 -0.6568 -0.6705
5747000000.0 -0.9716 0.1206
5750000000.0 -0.4293 0.8294
5753000000.0 0.4288 0.8717
5756000000.0 0.9523 0.1757
5759000000.0 0.6818 -0.6197
5762000000.0 -0.08132 -0.9025
5766000000.0 -0.7902 -0.5057
5769000000.0 -0.8169 0.3324
5772000000.0 -0.2465 0.8974
5775000000.0 0.5407 0.735
5778000000.0 0.9094 -0.05121
5781000000.0 0.5142 -0.7585
5784000000.0 -0.3085 -0.8628
5788000000.0 -0.8812 -0.3217
5791000000.0 -0.8079 0.4877
5794000000.0 -0.0816 0.9308
5797000000.0 0.6605 0.6672
5800000000.0 0.948 -0.1478
5803000000.0 0.4388 -0.8491
5806000000.0 -0.3756 -0.8846
5809000000.0 -0.9597 -0.2559
5812000000.0 -0.7512 0.5652
5816000000.0 -0.04318 1.036
5819000000.0 0.7807 0.597
5822000000.0 0.9664 -0.1885
5825000000.0 0.4117 -0.893
5828000000.0 -0.4461 -0.9266
5831000000.0 -1.009 -0.243
5834000000.0 -0.8187 0.6576
5838000000.0 -0.04199 1.024
5841000000.0 0.7731 0.694
5844000000.0 1.032 -0.2196
5847000000.0 0.4776 -0.8927
5850000000.0 -0.3836 -0.976
5853000000.0 -1.03 -0.2576
5856000000.0 -0.86 0.6394
5859000000.0 -0.06889 1.033
5862000000.0 0.7578 0.7012
5866000000.0 1.035 -0.1765
5869000000.0 0.5221 -0.9271
5872000000.0 -0.4267 -0.9703
5875000000.0 -1.011 -0.2966
5878000000.0 -0.8618 0.6351
5881000000.0 -0.05268 1.029
5884000000.0 0.7776 0.679
5888000000.0 1.027 -0.2235
5891000000.0 0.4908 -0.8789
5894000000.0 -0.4575 -0.919
5897000000.0 -0.9636 -0.217
5900000000.0 -0.7729 0.5963
5903000000.0 -0.01584 0.9509
5906000000.0 0.7492 0.5932
5909000000.0 0.916 -0.2369
5912000000.0 0.3859 -0.8661
5916000000.0 -0.4435 -0.799
5919000000.0 -0.9169 -0.1469
5922000000.0 -0.6342 0.623
5925000000.0 0.1012 0.9064
5928000000.0 0.7708 0.475
5931000000.0 0.8557 -0.2563
5934000000.0 0.2724 -0.8237
5938000000.0 -0.4604 -0.731
5941000000.0 -0.8291 -0.09882
5944000000.0 -0.5827 0.6224
5947000000.0 0.1065 0.8401
5950000000.0 0.7269 0.4414
5953000000.0 0.7743 -0.3122
5956000000.0 0.2435 -0.7808
5959000000.0 -0.4627 -0.6766
5962000000.0 -0.8038 -0.04706
5966000000.0 -0.5894 0.6074
5969000000.0 0.1115 0.8168
5972000000.0 0.7173 0.4419
5975000000.0 0.7935 -0.312
5978000000.0 0.287 -0.782
5981000000.0 -0.4789 -0.7319
5984000000.0 -0.8483 -0.08467
5988000000.0 -0.5991 0.6036
5991000000.0 0.06528 0.876
5994000000.0 0.7315 0.5027
5997000000.0 0.8454 -0.2605
6000000000.0 0.3478 -0.8226
6003000000.0 -0.4336 -0.7638
6006000000.0 -0.8778 -0.1499
6009000000.0 -0.6711 0.5639
6012000000.0 0.002328 0.9004
6016000000.0 0.7143 0.5889
6019000000.0 0.9233 -0.1991
6022000000.0 0.437 -0.8197
6025000000.0 -0.3701 -0.8815
6028000000.0 -0.9084 -0.2715
6031000000.0 -0.757 0.559
6034000000.0 -0.07304 0.9602
6038000000.0 0.7019 0.679
6041000000.0 0.9742 -0.1147
6044000000.0 0.5079 -0.8171
6047000000.0 -0.295 -0.9467
6050000000.0 -0.9369 -0.358
6053000000.0 -0.8804 0.5062
6056000000.0 -0.1466 0.9945
6059000000.0 0.6846 0.7381
6062000000.0 0.9848 -0.05809
6066000000.0 0.5853 -0.8323
6069000000.0 -0.3013 -0.9808
6072000000.0 -0.9208 -0.3736
6075000000.0 -0.8501 0.4833
6078000000.0 -0.1732 0.97
6081000000.0 0.6725 0.7433
6084000000.0 1.012 -0.026
6088000000.0 0.5875 -0.78
6091000000.0 -0.2503 -0.9534
6094000000.0 -0.8878 -0.3711
6097000000.0 -0.8427 0.4489
6100000000.0 -0.1848 0.9105
6103000000.0 0.6284 0.7044
6106000000.0 0.9177 -0.01703
6109000000.0 0.5423 -0.7217
6112000000.0 -0.2202 -0.887
6116000000.0 -0.8479 -0.3471
6119000000.0 -0.8083 0.4535
6122000000.0 -0.1692 0.8465
6125000000.0 0.6089 0.6684
6128000000.0 0.8757 -0.04628
6131000000.0 0.4928 -0.689
6134000000.0 -0.2493 -0.8286
6138000000.0 -0.7853 -0.3186
6141000000.0 -0.7427 0.4074
6144000000.0 -0.1594 0.8249
6147000000.0 0.5642 0.6349
6150000000.0 0.8373 -0.03754
6153000000.0 0.4939 -0.6705
6156000000.0 -0.2533 -0.7795
6159000000.0 -0.7441 -0.315
6162000000.0 -0.7247 0.4166
6166000000.0 -0.1564 0.8009
6169000000.0 0.5756 0.6112
6172000000.0 0.8494 -0.02186
6175000000.0 0.4928 -0.6635
6178000000.0 -0.2158 -0.7844
6181000000.0 -0.7902 -0.323
6184000000.0 -0.7959 0.4149
6188000000.0 -0.1358 0.8222
6191000000.0 0.5271 0.6485
6194000000.0 0.8625 -0.03373
6197000000.0 0.5338 -0.7024
6200000000.0 -0.1764 -0.815
6203000000.0 -0.7906 -0.3564
6206000000.0 -0.7989 0.3783
6209000000.0 -0.2072 0.8816
6212000000.0 0.5119 0.7045
6216000000.0 0.9195 0.03269
6219000000.0 0.5841 -0.6862
6222000000.0 -0.1214 -0.8569
6225000000.0 -0.7672 -0.458
6228000000.0 -0.7902 0.3028
6231000000.0 -0.2218 0.8107
6234000000.0 0.4923 0.7298
6238000000.0 0.8825 0.1189
6241000000.0 0.5925 -0.6151
6244000000.0 -0.06195 -0.8864
6247000000.0 -0.7394 -0.4772
6250000000.0 -0.839 0.2307
6253000000.0 -0.3063 0.7874
6256000000.0 0.3588 0.7136
6259000000.0 0.817 0.1645
6262000000.0 0.6763 -0.4921
6266000000.0 0.03692 -0.79
