! Created with skrf 1.8.0 (http://scikit-rf.org).
# Hz S RI R 50.0 
!freq ReS11 ImS11
4000000000.0 -0.1518 -1.459
4003000000.0 -1.254 -0.7739
4006000000.0 -1.411 0.4641
4009000000.0 -0.4954 1.429
4012000000.0 0.7744 1.313
4016000000.0 1.527 0.1794
4019000000.0 1.15 -1.075
4022000000.0 -0.09588 -1.616
4025000000.0 -1.346 -0.9274
4028000000.0 -1.54 0.4976
4031000000.0 -0.6051 1.531
4034000000.0 0.8344 1.425
4038000000.0 1.607 0.2471
4041000000.0 1.192 -1.108
4044000000.0 -0.1245 -1.626
4047000000.0 -1.372 -0.9557
4050000000.0 -1.584 0.4538
4053000000.0 -0.6442 1.468
4056000000.0 0.7749 1.424
4059000000.0 1.569 0.3128
4062000000.0 1.262 -0.9957
4066000000.0 0.03785 -1.596
4069000000.0 -1.196 -1.053
4072000000.0 -1.594 0.2823
4075000000.0 -0.8179 1.38
4078000000.0 0.5729 1.501
4081000000.0 1.59 0.547
4084000000.0 1.385 -0.8596
4088000000.0 0.2264 -1.689
4091000000.0 -1.084 -1.206
4094000000.0 -1.652 0.06194
4097000000.0 -1.0 1.323
4100000000.0 0.3914 1.587
4103000000.0 1.44 0.7169
4106000000.0 1.474 -0.619
4109000000.0 0.4441 -1.496
4112000000.0 -0.8767 -1.285
4116000000.0 -1.492 -0.1912
4119000000.0 -1.097 0.9851
4122000000.0 0.03536 1.484
4125000000.0 1.146 0.9464
4128000000.0 1.484 -0.2384
4131000000.0 0.7689 -1.223
4134000000.0 -0.4555 -1.388
4138000000.0 -1.358 -0.5805
4141000000.0 -1.353 0.6836
4144000000.0 -0.3917 1.431
4147000000.0 0.8604 1.243
4150000000.0 1.483 0.12
4153000000.0 1.072 -1.08
4156000000.0 -0.1368 -1.515
4159000000.0 -1.241 -0.9024
4162000000.0 -1.448 0.3837
4166000000.0 -0.642 1.386
4169000000.0 0.6402 1.368
4172000000.0 1.432 0.4163
4175000000.0 1.245 -0.8408
4178000000.0 0.13 -1.489
4181000000.0 -1.0 -1.111
4184000000.0 -1.497 0.09323
4188000000.0 -0.8687 1.192
4191000000.0 0.3691 1.458
4194000000.0 1.407 0.6323
4197000000.0 1.383 -0.6871
4200000000.0 0.3729 -1.502
4203000000.0 -0.9979 -1.266
4206000000.0 -1.638 -0.04178
4209000000.0 -1.046 1.275
4212000000.0 0.338 1.613
4216000000.0 1.51 0.7122
4219000000.0 1.534 -0.7468
4222000000.0 0.3537 -1.671
4225000000.0 -1.125 -1.242
4228000000.0 -1.68 0.1368
4231000000.0 -0.8867 1.434
4234000000.0 0.585 1.573
4238000000.0 1.612 0.4687
4241000000.0 1.324 -0.9616
4244000000.0 0.08417 -1.609
4247000000.0 -1.234 -1.028
4250000000.0 -1.505 0.3651
4253000000.0 -0.6453 1.398
4256000000.0 0.6808 1.416
4259000000.0 1.506 0.3377
4262000000.0 1.145 -1.031
4266000000.0 -0.07964 -1.543
4269000000.0 -1.25 -0.8346
4272000000.0 -1.389 0.4708
4275000000.0 -0.4976 1.378
4278000000.0 0.7644 1.268
4281000000.0 1.428 0.1687
4284000000.0 1.016 -0.993
4288000000.0 -0.1455 -1.38
4291000000.0 -1.194 -0.7133
4294000000.0 -1.284 0.4081
4297000000.0 -0.4582 1.256
4300000000.0 0.6458 1.17
4303000000.0 1.285 0.1968
4306000000.0 0.9928 -0.7946
4309000000.0 0.009111 -1.286
4312000000.0 -1.01 -0.8181
4316000000.0 -1.265 0.2254
4319000000.0 -0.6493 1.133
4322000000.0 0.4352 1.216
4325000000.0 1.203 0.4799
4328000000.0 1.196 -0.6317
4331000000.0 0.2726 -1.332
4334000000.0 -0.8473 -1.038
4338000000.0 -1.373 -0.02433
4341000000.0 -0.9379 1.05
4344000000.0 0.2468 1.388
4347000000.0 1.22 0.7351
4350000000.0 1.376 -0.4767
4353000000.0 0.5054 -1.376
4356000000.0 -0.7053 -1.25
4359000000.0 -1.428 -0.2097
4362000000.0 -1.101 0.9605
4366000000.0 0.0536 1.465
4369000000.0 1.166 0.9294
4372000000.0 1.447 -0.3157
4375000000.0 0.6976 -1.297
4378000000.0 -0.5663 -1.393
4381000000.0 -1.44 -0.4523
4384000000.0 -1.28 0.8608
4388000000.0 -0.1553 1.535
4391000000.0 1.122 1.087
4394000000.0 1.576 -0.1703
4397000000.0 0.8515 -1.333
4400000000.0 -0.5231 -1.486
4403000000.0 -1.492 -0.4882
4406000000.0 -1.327 0.8494
4409000000.0 -0.1515 1.568
4412000000.0 1.09 1.099
4416000000.0 1.536 -0.2014
4419000000.0 0.7726 -1.319
4422000000.0 -0.5576 -1.438
4425000000.0 -1.446 -0.4115
4428000000.0 -1.17 0.8759
4431000000.0 -0.04612 1.437
4434000000.0 1.102 0.9316
4438000000.0 1.376 -0.2598
4441000000.0 0.6099 -1.266
4444000000.0 -0.5948 -1.247
4447000000.0 -1.311 -0.2786
4450000000.0 -1.049 0.8589
4453000000.0 0.03351 1.321
4456000000.0 1.064 0.7411
4459000000.0 1.233 -0.36
4462000000.0 0.4255 -1.197
4466000000.0 -0.6447 -1.051
4469000000.0 -1.209 -0.1324
4472000000.0 -0.8493 0.8831
4475000000.0 0.2007 1.185
4478000000.0 1.036 0.5521
4481000000.0 1.081 -0.4446
4484000000.0 0.3318 -1.114
4488000000.0 -0.6647 -0.9481
4491000000.0 -1.135 -0.03352
4494000000.0 -0.7462 0.8645
4497000000.0 0.2057 1.119
4500000000.0 0.9827 0.5709
4503000000.0 1.038 -0.4378
4506000000.0 0.3053 -1.054
4509000000.0 -0.6314 -0.9
4512000000.0 -1.1 -0.09979
4516000000.0 -0.759 0.8176
4519000000.0 0.1436 1.119
4522000000.0 0.9408 0.5783
4525000000.0 1.099 -0.3592
4528000000.0 0.4089 -1.082
4531000000.0 -0.5801 -1.019
4534000000.0 -1.152 -0.1956
4538000000.0 -0.8738 0.7958
4541000000.0 0.05311 1.163
4544000000.0 0.9359 0.7163
4547000000.0 1.121 -0.2614
4550000000.0 0.5322 -1.093
4553000000.0 -0.4787 -1.132
4556000000.0 -1.176 -0.3378
4559000000.0 -1.014 0.6904
4562000000.0 -0.1613 1.249
4566000000.0 0.8508 0.9163
4569000000.0 1.259 -0.09032
4572000000.0 0.8026 -1.016
4575000000.0 -0.2936 -1.272
4578000000.0 -1.155 -0.5943
4581000000.0 -1.211 0.524
4584000000.0 -0.3693 1.298
4588000000.0 0.7647 1.116
4591000000.0 1.35 0.1203
4594000000.0 0.9941 -0.9789
4597000000.0 -0.1256 -1.393
4600000000.0 -1.142 -0.7901
4603000000.0 -1.309 0.3864
4606000000.0 -0.5457 1.26
4609000000.0 0.6465 1.224
4612000000.0 1.381 0.2718
4616000000.0 1.096 -0.8927
4619000000.0 0.04624 -1.389
4622000000.0 -1.087 -0.8599
4625000000.0 -1.359 0.2836
4628000000.0 -0.6435 1.24
4631000000.0 0.5312 1.277
4634000000.0 1.339 0.3921
4638000000.0 1.093 -0.8002
4641000000.0 0.08952 -1.384
4644000000.0 -1.064 -0.9001
4647000000.0 -1.318 0.2198
4650000000.0 -0.6242 1.169
4653000000.0 0.5349 1.198
4656000000.0 1.268 0.3524
4659000000.0 1.01 -0.7561
4662000000.0 0.0786 -1.234
4666000000.0 -0.9359 -0.817
4669000000.0 -1.209 0.1835
4672000000.0 -0.5623 1.085
4675000000.0 0.4876 1.053
4678000000.0 1.135 0.2918
4681000000.0 0.9315 -0.6729
4684000000.0 0.04173 -1.142
4688000000.0 -0.8741 -0.734
4691000000.0 -1.103 0.2198
4694000000.0 -0.4675 0.9879
4697000000.0 0.4604 1.008
4700000000.0 1.09 0.2778
4703000000.0 0.8635 -0.6666
4706000000.0 0.03568 -1.066
4709000000.0 -0.8615 -0.6914
4712000000.0 -1.057 0.2315
4716000000.0 -0.4763 0.9573
4719000000.0 0.4558 0.9574
4722000000.0 1.004 0.2825
4725000000.0 0.823 -0.6254
4728000000.0 0.02959 -1.078
4731000000.0 -0.8172 -0.6718
4734000000.0 -1.011 0.1878
4738000000.0 -0.4994 0.9128
4741000000.0 0.3783 0.9467
4744000000.0 0.9923 0.3275
4747000000.0 0.8619 -0.6004
4750000000.0 0.1371 -1.049
4753000000.0 -0.7138 -0.7862
4756000000.0 -1.095 0.07676
4759000000.0 -0.661 0.9075
4762000000.0 0.2358 1.074
4766000000.0 0.983 0.4955
4769000000.0 1.051 -0.463
4772000000.0 0.3225 -1.102
4775000000.0 -0.6504 -0.9668
4778000000.0 -1.157 -0.117
4781000000.0 -0.8347 0.8456
4784000000.0 0.08977 1.189
4788000000.0 0.9701 0.7
4791000000.0 1.204 -0.2882
4794000000.0 0.5537 -1.095
4797000000.0 -0.5167 -1.124
4800000000.0 -1.219 -0.3532
4803000000.0 -1.027 0.6594
4806000000.0 -0.1584 1.224
4809000000.0 0.8459 0.935
4812000000.0 1.287 -0.09428
4816000000.0 0.7924 -1.042
4819000000.0 -0.3042 -1.298
4822000000.0 -1.197 -0.5855
4825000000.0 -1.231 0.5543
4828000000.0 -0.3645 1.338
4831000000.0 0.7855 1.122
4834000000.0 1.38 0.1005
4838000000.0 0.9562 -0.9914
4841000000.0 -0.1861 -1.393
4844000000.0 -1.176 -0.754
4847000000.0 -1.306 0.439
4850000000.0 -0.5158 1.279
4853000000.0 0.6698 1.222
4856000000.0 1.354 0.2276
4859000000.0 1.049 -0.89
4862000000.0 -0.02775 -1.343
4866000000.0 -1.077 -0.8157
4869000000.0 -1.3 0.3075
4872000000.0 -0.5781 1.196
4875000000.0 0.5297 1.205
4878000000.0 1.237 0.3088
4881000000.0 0.9901 -0.7884
4884000000.0 0.02292 -1.258
4888000000.0 -0.9172 -0.7951
4891000000.0 -1.182 0.2336
4894000000.0 -0.5528 1.05
4897000000.0 0.4583 1.064
4900000000.0 1.079 0.3104
4903000000.0 0.9309 -0.6595
4906000000.0 0.05479 -1.082
4909000000.0 -0.7845 -0.7393
4912000000.0 -1.018 0.1896
4916000000.0 -0.5295 0.8808
4919000000.0 0.3489 0.9452
4922000000.0 0.9378 0.314
4925000000.0 0.8458 -0.5059
4928000000.0 0.1137 -0.9723
4931000000.0 -0.6306 -0.724
4934000000.0 -0.9315 0.05057
4938000000.0 -0.5609 0.7862
4941000000.0 0.2451 0.9119
4944000000.0 0.8603 0.402
4947000000.0 0.8558 -0.4394
4950000000.0 0.2164 -0.9339
4953000000.0 -0.5934 -0.7598
4956000000.0 -0.9738 -0.01118
4959000000.0 -0.6419 0.7436
4962000000.0 0.1632 0.9805
4966000000.0 0.8577 0.4664
4969000000.0 0.8932 -0.3587
4972000000.0 0.3232 -0.9443
4975000000.0 -0.5383 -0.8296
4978000000.0 -1.015 -0.1199
4981000000.0 -0.7329 0.7202
4984000000.0 0.09252 1.007
4988000000.0 0.8665 0.6142
4991000000.0 1.019 -0.2716
4994000000.0 0.4521 -0.9922
4997000000.0 -0.4565 -1.004
5000000000.0 -1.107 -0.2804
5003000000.0 -0.9229 0.68
5006000000.0 -0.06568 1.166
5009000000.0 0.8579 0.8261
5012000000.0 1.212 -0.1758
5016000000.0 0.6536 -1.042
5019000000.0 -0.3991 -1.2
5022000000.0 -1.174 -0.4417
5025000000.0 -1.098 0.6103
5028000000.0 -0.2175 1.268
5031000000.0 0.8246 0.9439
5034000000.0 1.293 -0.03892
5038000000.0 0.7965 -1.011
5041000000.0 -0.2691 -1.23
5044000000.0 -1.145 -0.6053
5047000000.0 -1.201 0.462
5050000000.0 -0.4173 1.232
5053000000.0 0.6917 1.095
5056000000.0 1.287 0.2073
5059000000.0 0.9528 -0.8776
5062000000.0 -0.05988 -1.318
5066000000.0 -1.036 -0.8056
5069000000.0 -1.241 0.2476
5072000000.0 -0.5825 1.151
5075000000.0 0.5313 1.204
5078000000.0 1.222 0.3834
5081000000.0 1.016 -0.6835
5084000000.0 0.1363 -1.237
5088000000.0 -0.8713 -0.8495
5091000000.0 -1.182 0.08135
5094000000.0 -0.6665 0.9642
5097000000.0 0.27 1.138
5100000000.0 1.047 0.5037
5103000000.0 1.053 -0.4718
5106000000.0 0.3052 -1.062
5109000000.0 -0.6105 -0.9107
5112000000.0 -1.099 -0.1398
5116000000.0 -0.7436 0.7466
5119000000.0 0.07419 1.052
5122000000.0 0.8713 0.6069
5125000000.0 1.011 -0.2983
5128000000.0 0.3965 -0.9296
5131000000.0 -0.4345 -0.9255
5134000000.0 -0.9859 -0.2687
5138000000.0 -0.7795 0.6453
5141000000.0 -0.0162 0.9803
5144000000.0 0.7258 0.6368
5147000000.0 0.9211 -0.1475
5150000000.0 0.4667 -0.8276
5153000000.0 -0.3449 -0.8665
5156000000.0 -0.8923 -0.3111
5159000000.0 -0.7722 0.464
5162000000.0 -0.1307 0.9112
5166000000.0 0.6266 0.6588
5169000000.0 0.9041 -0.06076
5172000000.0 0.5392 -0.7437
5175000000.0 -0.2256 -0.8768
5178000000.0 -0.83 -0.3558
5181000000.0 -0.7997 0.4269
5184000000.0 -0.1633 0.8941
5188000000.0 0.5913 0.7013
5191000000.0 0.9082 -0.05147
5194000000.0 0.5374 -0.7562
5197000000.0 -0.2516 -0.9139
5200000000.0 -0.8695 -0.3744
5203000000.0 -0.8409 0.4547
5206000000.0 -0.1823 0.9544
5209000000.0 0.6344 0.7286
5212000000.0 0.9685 -0.004378
5216000000.0 0.5973 -0.7669
5219000000.0 -0.2155 -0.9497
5222000000.0 -0.8643 -0.4411
5225000000.0 -0.9039 0.4305
5228000000.0 -0.2409 0.9772
5231000000.0 0.6035 0.8268
5234000000.0 1.015 0.04863
5238000000.0 0.6998 -0.7405
5241000000.0 -0.1486 -1.047
5244000000.0 -0.8957 -0.5412
5247000000.0 -0.9903 0.3363
5250000000.0 -0.3703 1.002
5253000000.0 0.5631 0.9405
5256000000.0 1.061 0.2009
5259000000.0 0.863 -0.696
5262000000.0 -0.007082 -1.113
5266000000.0 -0.8097 -0.6914
5269000000.0 -1.093 0.1837
5272000000.0 -0.5418 0.9594
5275000000.0 0.3631 1.052
5278000000.0 1.007 0.4033
5281000000.0 0.9911 -0.539
5284000000.0 0.2053 -1.062
5288000000.0 -0.6906 -0.8693
5291000000.0 -1.118 -0.03969
5294000000.0 -0.7388 0.8144
5297000000.0 0.1399 1.145
5300000000.0 0.9323 0.5911
5303000000.0 1.093 -0.3319
5306000000.0 0.4435 -1.057
5309000000.0 -0.4639 -1.01
5312000000.0 -1.099 -0.2797
5316000000.0 -0.9412 0.6604
5319000000.0 -0.1008 1.164
5322000000.0 0.829 0.8096
5325000000.0 1.144 -0.1325
5328000000.0 0.6193 -0.9613
5331000000.0 -0.3276 -1.085
5334000000.0 -1.055 -0.4306
5338000000.0 -1.028 0.5403
5341000000.0 -0.2484 1.1
5344000000.0 0.7022 0.8926
5347000000.0 1.105 0.01801
5350000000.0 0.7435 -0.8712
5353000000.0 -0.2049 -1.096
5356000000.0 -0.9649 -0.541
5359000000.0 -1.021 0.4267
5362000000.0 -0.3474 1.035
5366000000.0 0.6046 0.9292
5369000000.0 1.076 0.1271
5372000000.0 0.7455 -0.7656
5375000000.0 -0.1359 -1.047
5378000000.0 -0.8797 -0.5405
5381000000.0 -0.933 0.3631
5384000000.0 -0.3297 0.9464
5388000000.0 0.545 0.822
5391000000.0 0.9667 0.1054
5394000000.0 0.6301 -0.6826
5397000000.0 -0.1538 -0.931
5400000000.0 -0.7986 -0.4488
5403000000.0 -0.8339 0.3318
5406000000.0 -0.2624 0.8786
5409000000.0 0.5081 0.7185
5412000000.0 0.8681 0.04988
5416000000.0 0.5961 -0.6405
5419000000.0 -0.1152 -0.8313
5422000000.0 -0.7696 -0.4113
5425000000.0 -0.8056 0.3002
5428000000.0 -0.2588 0.8314
5431000000.0 0.4808 0.7004
5434000000.0 0.8908 0.03665
5438000000.0 0.5984 -0.6696
5441000000.0 -0.1431 -0.8829
5444000000.0 -0.7892 -0.4191
5447000000.0 -0.7919 0.3445
5450000000.0 -0.2642 0.861
5453000000.0 0.4783 0.7092
5456000000.0 0.8963 0.08731
5459000000.0 0.5949 -0.6298
5462000000.0 -0.1035 -0.8743
5466000000.0 -0.7439 -0.4782
5469000000.0 -0.8539 0.2871
5472000000.0 -0.3651 0.8555
5475000000.0 0.4314 0.8427
5478000000.0 0.9327 0.2083
5481000000.0 0.7622 -0.5361
5484000000.0 0.07108 -0.9675
5488000000.0 -0.7095 -0.6464
5491000000.0 -0.9512 0.1722
5494000000.0 -0.5243 0.859
5497000000.0 0.2886 0.9503
5500000000.0 0.9538 0.3634
5503000000.0 0.9174 -0.4941
5506000000.0 0.1938 -0.9704
5509000000.0 -0.6556 -0.8081
5512000000.0 -1.009 -0.02097
5516000000.0 -0.7239 0.762
5519000000.0 0.1219 1.043
5522000000.0 0.8814 0.5571
5525000000.0 1.009 -0.312
5528000000.0 0.4001 -0.9816
5531000000.0 -0.4629 -0.9344
5534000000.0 -1.029 -0.2472
5538000000.0 -0.8739 0.6173
5541000000.0 -0.03254 1.051
5544000000.0 0.7685 0.7568
5547000000.0 1.077 -0.07882
5550000000.0 0.5466 -0.8805
5553000000.0 -0.3291 -1.03
5556000000.0 -0.9804 -0.3893
5559000000.0 -0.9744 0.4784
5562000000.0 -0.2111 1.064
5566000000.0 0.6857 0.8041
5569000000.0 1.055 0.03177
5572000000.0 0.6634 -0.7762
5575000000.0 -0.1538 -1.019
5578000000.0 -0.864 -0.5064
5581000000.0 -0.9303 0.3373
5584000000.0 -0.3229 0.9379
5588000000.0 0.534 0.8205
5591000000.0 0.9645 0.1283
5594000000.0 0.7242 -0.6282
5597000000.0 -0.05164 -0.9361
5600000000.0 -0.743 -0.5634
5603000000.0 -0.8821 0.2394
5606000000.0 -0.3876 0.8123
5609000000.0 0.3982 0.8195
5612000000.0 0.8647 0.173
5616000000.0 0.693 -0.5351
5619000000.0 0.004899 -0.8625
5622000000.0 -0.6805 -0.5402
5625000000.0 -0.841 0.1692
5628000000.0 -0.405 0.7461
5631000000.0 0.3282 0.7725
5634000000.0 0.8032 0.2172
5638000000.0 0.7025 -0.4909
5641000000.0 0.05847 -0.8114
5644000000.0 -0.6447 -0.5621
5647000000.0 -0.8097 0.163
5650000000.0 -0.4431 0.755
5653000000.0 0.3483 0.7693
5656000000.0 0.8337 0.2501
5659000000.0 0.7265 -0.5028
5662000000.0 0.03956 -0.859
5666000000.0 -0.6541 -0.5821
5669000000.0 -0.8691 0.1335
5672000000.0 -0.4629 0.7709
5675000000.0 0.3562 0.8394
5678000000.0 0.8657 0.2655
5681000000.0 0.7697 -0.5025
5684000000.0 0.07808 -0.9193
5688000000.0 -0.7178 -0.6338
5691000000.0 -0.9284 0.1432
5694000000.0 -0.5388 0.8259
5697000000.0 0.3252 0.9414
5700000000.0 0.9699 0.3155
5703000000.0 0.8459 -0.5132
5706000000.0 0.13 -0.9962
5709000000.0 -0.7156 -0.7488
5712000000.0 -1.057 0.07404
5716000000.0 -0.5852 0.832
5719000000.0 0.2768 0.9879
5722000000.0 0.9777 0.4296
5725000000.0 0.9612 -0.451
5728000000.0 0.2785 -1.042
5731000000.0 -0.6397 -0.8812
5734000000.0 -1.065 -0.08972
5738000000.0 -0.7256 0.8059
5741000000.0 0.1491 1.07
5744000000.0 0.8991 0.605
5747000000.0 1.038 -0.3364
5750000000.0 0.4079 -1.03
5753000000.0 -0.5047 -0.9746
5756000000.0 -1.094 -0.2067
5759000000.0 -0.859 0.6784
5762000000.0 -0.01843 1.119
5766000000.0 0.8174 0.7535
5769000000.0 1.094 -0.1495
5772000000.0 0.5676 -0.9221
5775000000.0 -0.3662 -1.032
5778000000.0 -1.031 -0.4063
5781000000.0 -0.9379 0.5618
5784000000.0 -0.2343 1.081
5788000000.0 0.6946 0.8176
5791000000.0 1.119 0.03565
5794000000.0 0.7232 -0.8195
5797000000.0 -0.1783 -1.051
5800000000.0 -0.9492 -0.5306
5803000000.0 -1.018 0.3518
5806000000.0 -0.3814 0.9606
5809000000.0 0.5469 0.8993
5812000000.0 1.019 0.1378
5816000000.0 0.7542 -0.7211
5819000000.0 -0.08356 -1.044
5822000000.0 -0.8166 -0.6073
5825000000.0 -0.9802 0.2503
5828000000.0 -0.4389 0.8796
5831000000.0 0.4315 0.8987
5834000000.0 0.9784 0.2155
5838000000.0 0.789 -0.5973
5841000000.0 0.0472 -0.953
5844000000.0 -0.7077 -0.6436
5847000000.0 -0.9496 0.1772
5850000000.0 -0.4617 0.8613
5853000000.0 0.3594 0.8799
5856000000.0 0.9135 0.2921
5859000000.0 0.7995 -0.5526
5862000000.0 0.05569 -0.9033
5866000000.0 -0.7011 -0.5965
5869000000.0 -0.91 0.1459
5872000000.0 -0.4261 0.7995
5875000000.0 0.3494 0.8269
5878000000.0 0.8532 0.2569
5881000000.0 0.71 -0.4963
5884000000.0 0.05151 -0.8719
5888000000.0 -0.6014 -0.5977
5891000000.0 -0.8435 0.1123
5894000000.0 -0.4491 0.7288
5897000000.0 0.2775 0.8279
5900000000.0 0.7898 0.2901
5903000000.0 0.7481 -0.4459
5906000000.0 0.1548 -0.8332
5909000000.0 -0.5768 -0.6492
5912000000.0 -0.8512 0.05384
5916000000.0 -0.5 0.7299
5919000000.0 0.214 0.8677
5922000000.0 0.7848 0.3526
5925000000.0 0.8107 -0.4206
5928000000.0 0.199 -0.8593
5931000000.0 -0.5499 -0.6854
5934000000.0 -0.8987 -0.03632
5938000000.0 -0.6415 0.6749
5941000000.0 0.133 0.8903
5944000000.0 0.7495 0.4829
5947000000.0 0.8745 -0.29
5950000000.0 0.3265 -0.8532
5953000000.0 -0.4486 -0.8091
5956000000.0 -0.9241 -0.1673
5959000000.0 -0.726 0.5916
5962000000.0 -0.01152 0.9329
5966000000.0 0.7179 0.6138
5969000000.0 0.9302 -0.1593
5972000000.0 0.5169 -0.8228
5975000000.0 -0.295 -0.9097
5978000000.0 -0.9019 -0.3614
5981000000.0 -0.8428 0.4609
5984000000.0 -0.1797 0.9722
5988000000.0 0.6202 0.7579
5991000000.0 1.007 0.02148
5994000000.0 0.6358 -0.7812
5997000000.0 -0.171 -1.003
6000000000.0 -0.8731 -0.4919
6003000000.0 -0.9397 0.359
6006000000.0 -0.3245 0.9295
6009000000.0 0.5473 0.8536
6012000000.0 0.9825 0.08585
6016000000.0 0.7206 -0.7133
6019000000.0 -0.09318 -1.0
6022000000.0 -0.8055 -0.5655
6025000000.0 -0.9548 0.2535
6028000000.0 -0.42 0.9004
6031000000.0 0.4468 0.8856
6034000000.0 0.9497 0.1956
6038000000.0 0.7639 -0.5984
6041000000.0 0.04679 -0.9585
6044000000.0 -0.7217 -0.6362
6047000000.0 -0.9454 0.1701
6050000000.0 -0.4671 0.8196
6053000000.0 0.3485 0.8773
6056000000.0 0.869 0.236
6059000000.0 0.747 -0.5487
6062000000.0 0.07034 -0.9114
6066000000.0 -0.6595 -0.6223
6069000000.0 -0.8991 0.1433
6072000000.0 -0.4596 0.7751
6075000000.0 0.3023 0.8368
6078000000.0 0.8359 0.2897
6081000000.0 0.7432 -0.486
6084000000.0 0.1143 -0.8419
6088000000.0 -0.6045 -0.6233
6091000000.0 -0.8439 0.09106
6094000000.0 -0.4922 0.7138
6097000000.0 0.2666 0.8066
6100000000.0 0.8077 0.3324
6103000000.0 0.7639 -0.4191
6106000000.0 0.1486 -0.8223
6109000000.0 -0.5541 -0.6364
6112000000.0 -0.8505 0.02983
6116000000.0 -0.4965 0.696
6119000000.0 0.2026 0.8357
6122000000.0 0.7802 0.3346
6125000000.0 0.7782 -0.3816
6128000000.0 0.1704 -0.8534
6131000000.0 -0.5538 -0.6876
6134000000.0 -0.8858 -0.01898
6138000000.0 -0.5599 0.6898
6141000000.0 0.151 0.8561
6144000000.0 0.762 0.4085
6147000000.0 0.8235 -0.3433
6150000000.0 0.2784 -0.8498
6153000000.0 -0.4918 -0.7494
6156000000.0 -0.8797 -0.07707
6159000000.0 -0.6333 0.6762
6162000000.0 0.1277 0.9389
6166000000.0 0.7605 0.4993
6169000000.0 0.8891 -0.3044
6172000000.0 0.3381 -0.8864
6175000000.0 -0.467 -0.8198
6178000000.0 -0.928 -0.148
6181000000.0 -0.7099 0.628
6184000000.0 0.01415 0.9442
6188000000.0 0.7635 0.5856
6191000000.0 0.9447 -0.2455
6194000000.0 0.4477 -0.8513
6197000000.0 -0.3729 -0.8553
6200000000.0 -0.8926 -0.2474
6203000000.0 -0.7841 0.5392
6206000000.0 -0.0721 0.8927
6209000000.0 0.6688 0.662
6212000000.0 0.9211 -0.1145
6216000000.0 0.4821 -0.814
6219000000.0 -0.2844 -0.8859
6222000000.0 -0.8106 -0.3581
6225000000.0 -0.7926 0.3973
6228000000.0 -0.1633 0.9107
6231000000.0 0.5823 0.7059
6234000000.0 0.887 0.01027
6238000000.0 0.5811 -0.7011
6241000000.0 -0.1546 -0.8481
6244000000.0 -0.7475 -0.4216
6247000000.0 -0.8186 0.3268
6250000000.0 -0.271 0.8343
6253000000.0 0.462 0.7215
6256000000.0 0.8526 0.1519
6259000000.0 0.6109 -0.5355
6262000000.0 0.004949 -0.8239
6266000000.0 -0.6351 -0.5087
6269000000.0 -0.7863 0.1459
