! Created with skrf 1.8.0 (http://scikit-rf.org).
# Hz S RI R 50.0 
!freq ReS11 ImS11
4000000000.0 -0.1822 -1.53
4003000000.0 -1.292 -0.831
4006000000.0 -1.417 0.4707
4009000000.0 -0.536 1.489
4012000000.0 0.7887 1.286
4016000000.0 1.54 0.2661
4019000000.0 1.14 -1.04
4022000000.0 -0.06222 -1.571
4025000000.0 -1.382 -0.9025
4028000000.0 -1.587 0.4095
4031000000.0 -0.5795 1.484
4034000000.0 0.8122 1.43
4038000000.0 1.628 0.2669
4041000000.0 1.2 -1.104
4044000000.0 -0.1132 -1.644
4047000000.0 -1.305 -0.9185
4050000000.0 -1.624 0.4676
4053000000.0 -0.583 1.505
4056000000.0 0.7495 1.451
4059000000.0 1.581 0.3484
4062000000.0 1.278 -1.028
4066000000.0 0.05977 -1.659
4069000000.0 -1.226 -1.101
4072000000.0 -1.615 0.287
4075000000.0 -0.8143 1.436
4078000000.0 0.5763 1.544
4081000000.0 1.553 0.5624
4084000000.0 1.411 -0.8751
4088000000.0 0.2641 -1.643
4091000000.0 -1.152 -1.289
4094000000.0 -1.66 0.05532
4097000000.0 -1.021 1.346
4100000000.0 0.3913 1.608
4103000000.0 1.441 0.7372
4106000000.0 1.462 -0.6282
4109000000.0 0.4632 -1.488
4112000000.0 -0.8531 -1.312
4116000000.0 -1.547 -0.1995
4119000000.0 -1.131 1.004
4122000000.0 0.01467 1.494
4125000000.0 1.136 0.9785
4128000000.0 1.491 -0.2289
4131000000.0 0.816 -1.264
4134000000.0 -0.4337 -1.44
4138000000.0 -1.362 -0.577
4141000000.0 -1.396 0.6708
4144000000.0 -0.3787 1.474
4147000000.0 0.907 1.238
4150000000.0 1.553 0.142
4153000000.0 1.112 -1.097
4156000000.0 -0.1263 -1.523
4159000000.0 -1.245 -0.8961
4162000000.0 -1.486 0.3813
4166000000.0 -0.6598 1.353
4169000000.0 0.6295 1.397
4172000000.0 1.451 0.3843
4175000000.0 1.272 -0.839
4178000000.0 0.1177 -1.508
4181000000.0 -1.049 -1.122
4184000000.0 -1.514 0.08919
4188000000.0 -0.8948 1.215
4191000000.0 0.3867 1.485
4194000000.0 1.388 0.6713
4197000000.0 1.419 -0.6651
4200000000.0 0.4003 -1.576
4203000000.0 -0.9538 -1.287
4206000000.0 -1.647 -0.04697
4209000000.0 -1.074 1.253
4212000000.0 0.2919 1.639
4216000000.0 1.535 0.7619
4219000000.0 1.534 -0.7
4222000000.0 0.3596 -1.682
4225000000.0 -1.102 -1.286
4228000000.0 -1.722 0.07801
4231000000.0 -0.9241 1.407
4234000000.0 0.5766 1.57
4238000000.0 1.561 0.5229
4241000000.0 1.42 -0.9513
4244000000.0 0.07695 -1.606
4247000000.0 -1.197 -1.069
4250000000.0 -1.587 0.3259
4253000000.0 -0.7037 1.42
4256000000.0 0.695 1.4
4259000000.0 1.52 0.2889
4262000000.0 1.185 -0.9987
4266000000.0 -0.06018 -1.501
4269000000.0 -1.235 -0.8576
4272000000.0 -1.434 0.442
4275000000.0 -0.524 1.421
4278000000.0 0.7632 1.233
4281000000.0 1.455 0.1851
4284000000.0 1.021 -0.9724
4288000000.0 -0.132 -1.372
4291000000.0 -1.165 -0.7685
4294000000.0 -1.311 0.4224
4297000000.0 -0.5155 1.274
4300000000.0 0.6273 1.177
4303000000.0 1.297 0.2623
4306000000.0 0.9686 -0.8107
4309000000.0 0.05317 -1.291
4312000000.0 -0.9778 -0.8738
4316000000.0 -1.272 0.2286
4319000000.0 -0.6965 1.107
4322000000.0 0.3679 1.269
4325000000.0 1.232 0.4881
4328000000.0 1.177 -0.6065
4331000000.0 0.2638 -1.337
4334000000.0 -0.8599 -1.063
4338000000.0 -1.383 -0.04126
4341000000.0 -0.9457 1.045
4344000000.0 0.2227 1.456
4347000000.0 1.204 0.724
4350000000.0 1.332 -0.4647
4353000000.0 0.4956 -1.346
4356000000.0 -0.7405 -1.232
4359000000.0 -1.42 -0.2596
4362000000.0 -1.119 0.9154
4366000000.0 0.0132 1.48
4369000000.0 1.155 0.9332
4372000000.0 1.451 -0.2739
4375000000.0 0.7256 -1.317
4378000000.0 -0.5099 -1.431
4381000000.0 -1.48 -0.4566
4384000000.0 -1.295 0.8197
4388000000.0 -0.1961 1.569
4391000000.0 1.115 1.144
4394000000.0 1.606 -0.1268
4397000000.0 0.8889 -1.305
4400000000.0 -0.4946 -1.505
4403000000.0 -1.525 -0.5553
4406000000.0 -1.338 0.8134
4409000000.0 -0.1867 1.614
4412000000.0 1.124 1.136
4416000000.0 1.557 -0.1661
4419000000.0 0.8147 -1.323
4422000000.0 -0.5194 -1.405
4425000000.0 -1.433 -0.4704
4428000000.0 -1.228 0.8588
4431000000.0 -0.08238 1.469
4434000000.0 1.061 1.018
4438000000.0 1.375 -0.2389
4441000000.0 0.6781 -1.252
4444000000.0 -0.5352 -1.269
4447000000.0 -1.313 -0.3279
4450000000.0 -1.049 0.8176
4453000000.0 0.03888 1.329
4456000000.0 1.071 0.7876
4459000000.0 1.265 -0.3448
4462000000.0 0.477 -1.2
4466000000.0 -0.6231 -1.083
4469000000.0 -1.25 -0.1627
4472000000.0 -0.8979 0.8768
4475000000.0 0.1409 1.225
4478000000.0 1.009 0.6277
4481000000.0 1.099 -0.4041
4484000000.0 0.3681 -1.137
4488000000.0 -0.6245 -0.9824
4491000000.0 -1.155 -0.07305
4494000000.0 -0.7693 0.8357
4497000000.0 0.1269 1.116
4500000000.0 0.9875 0.5706
4503000000.0 1.024 -0.4053
4506000000.0 0.319 -1.044
4509000000.0 -0.6025 -0.9473
4512000000.0 -1.122 -0.09611
4516000000.0 -0.8263 0.8025
4519000000.0 0.1268 1.125
4522000000.0 0.9686 0.6352
4525000000.0 1.068 -0.3617
4528000000.0 0.4358 -1.06
4531000000.0 -0.5804 -0.9988
4534000000.0 -1.156 -0.2035
4538000000.0 -0.9017 0.7546
4541000000.0 0.0302 1.177
4544000000.0 0.9478 0.7584
4547000000.0 1.188 -0.2514
4550000000.0 0.5758 -1.053
4553000000.0 -0.4471 -1.15
4556000000.0 -1.171 -0.384
4559000000.0 -1.072 0.643
4562000000.0 -0.1867 1.246
4566000000.0 0.8359 0.9215
4569000000.0 1.269 -0.03828
4572000000.0 0.771 -1.013
4575000000.0 -0.2617 -1.255
4578000000.0 -1.149 -0.6325
4581000000.0 -1.224 0.5225
4584000000.0 -0.4348 1.285
4588000000.0 0.7325 1.136
4591000000.0 1.363 0.1604
4594000000.0 0.9846 -0.9802
4597000000.0 -0.09385 -1.403
4600000000.0 -1.158 -0.8039
4603000000.0 -1.355 0.3859
4606000000.0 -0.5844 1.264
4609000000.0 0.6227 1.267
4612000000.0 1.362 0.3255
4616000000.0 1.099 -0.8629
4619000000.0 0.03649 -1.428
4622000000.0 -1.077 -0.9125
4625000000.0 -1.376 0.2531
4628000000.0 -0.6854 1.232
4631000000.0 0.5249 1.313
4634000000.0 1.349 0.4149
4638000000.0 1.15 -0.7672
4641000000.0 0.1188 -1.378
4644000000.0 -0.9643 -0.972
4647000000.0 -1.364 0.1724
4650000000.0 -0.7082 1.174
4653000000.0 0.4836 1.239
4656000000.0 1.271 0.3944
4659000000.0 1.059 -0.7278
4662000000.0 0.07312 -1.264
4666000000.0 -0.959 -0.8443
4669000000.0 -1.231 0.197
4672000000.0 -0.5889 1.049
4675000000.0 0.4855 1.117
4678000000.0 1.13 0.3348
4681000000.0 0.919 -0.6543
4684000000.0 0.07179 -1.152
4688000000.0 -0.8346 -0.7836
4691000000.0 -1.132 0.1805
4694000000.0 -0.5178 0.9913
4697000000.0 0.3959 1.037
4700000000.0 1.074 0.3148
4703000000.0 0.8859 -0.6517
4706000000.0 0.04216 -1.126
4709000000.0 -0.8168 -0.716
4712000000.0 -1.072 0.1992
4716000000.0 -0.4713 0.9678
4719000000.0 0.4488 0.9662
4722000000.0 1.03 0.2664
4725000000.0 0.8383 -0.6629
4728000000.0 0.05496 -1.066
4731000000.0 -0.8014 -0.7136
4734000000.0 -1.02 0.1848
4738000000.0 -0.4902 0.9251
4741000000.0 0.3691 0.9654
4744000000.0 1.001 0.3628
4747000000.0 0.9035 -0.5764
4750000000.0 0.1395 -1.064
4753000000.0 -0.7172 -0.8017
4756000000.0 -1.127 0.06448
4759000000.0 -0.6811 0.8564
4762000000.0 0.2338 1.111
4766000000.0 1.01 0.5321
4769000000.0 1.049 -0.4434
4772000000.0 0.3529 -1.105
4775000000.0 -0.6137 -1.013
4778000000.0 -1.173 -0.1627
4781000000.0 -0.8619 0.8408
4784000000.0 0.06713 1.219
4788000000.0 0.9832 0.7198
4791000000.0 1.188 -0.2565
4794000000.0 0.5524 -1.09
4797000000.0 -0.4894 -1.146
4800000000.0 -1.218 -0.384
4803000000.0 -1.038 0.6656
4806000000.0 -0.1909 1.239
4809000000.0 0.8538 0.9597
4812000000.0 1.313 -0.02688
4816000000.0 0.8115 -1.041
4819000000.0 -0.2679 -1.292
4822000000.0 -1.195 -0.6436
4825000000.0 -1.268 0.5316
4828000000.0 -0.409 1.338
4831000000.0 0.7854 1.187
4834000000.0 1.36 0.147
4838000000.0 0.9836 -0.9856
4841000000.0 -0.1258 -1.407
4844000000.0 -1.166 -0.7685
4847000000.0 -1.346 0.4062
4850000000.0 -0.5312 1.3
4853000000.0 0.6867 1.265
4856000000.0 1.353 0.2547
4859000000.0 1.056 -0.8616
4862000000.0 -0.03156 -1.367
4866000000.0 -1.042 -0.8463
4869000000.0 -1.322 0.2835
4872000000.0 -0.618 1.227
4875000000.0 0.5298 1.181
4878000000.0 1.264 0.3366
4881000000.0 1.04 -0.7672
4884000000.0 0.04698 -1.288
4888000000.0 -0.9546 -0.8631
4891000000.0 -1.224 0.2083
4894000000.0 -0.5791 1.049
4897000000.0 0.4812 1.115
4900000000.0 1.104 0.3176
4903000000.0 0.9117 -0.6628
4906000000.0 0.0912 -1.111
4909000000.0 -0.7868 -0.7442
4912000000.0 -1.024 0.1312
4916000000.0 -0.5354 0.8726
4919000000.0 0.307 0.9365
4922000000.0 0.9617 0.3561
4925000000.0 0.8368 -0.4926
4928000000.0 0.1682 -0.9818
4931000000.0 -0.6613 -0.6995
4934000000.0 -0.9412 0.03085
4938000000.0 -0.5642 0.7609
4941000000.0 0.2203 0.9205
4944000000.0 0.8517 0.4232
4947000000.0 0.8404 -0.3991
4950000000.0 0.2727 -0.9294
4953000000.0 -0.5527 -0.7846
4956000000.0 -0.9642 -0.03693
4959000000.0 -0.6592 0.7243
4962000000.0 0.1448 0.9548
4966000000.0 0.8047 0.5089
4969000000.0 0.9135 -0.3389
4972000000.0 0.316 -0.966
4975000000.0 -0.5352 -0.8345
4978000000.0 -1.028 -0.1368
4981000000.0 -0.7738 0.7095
4984000000.0 0.05165 1.044
4988000000.0 0.8693 0.6263
4991000000.0 1.039 -0.2659
4994000000.0 0.4715 -0.9765
4997000000.0 -0.4802 -1.031
5000000000.0 -1.095 -0.313
5003000000.0 -0.9196 0.6631
5006000000.0 -0.1207 1.188
5009000000.0 0.8696 0.8407
5012000000.0 1.204 -0.1437
5016000000.0 0.6655 -1.038
5019000000.0 -0.3948 -1.192
5022000000.0 -1.199 -0.4589
5025000000.0 -1.11 0.662
5028000000.0 -0.2315 1.246
5031000000.0 0.8221 0.9778
5034000000.0 1.28 -0.01924
5038000000.0 0.8163 -0.9787
5041000000.0 -0.2558 -1.281
5044000000.0 -1.139 -0.6266
5047000000.0 -1.198 0.4551
5050000000.0 -0.4414 1.214
5053000000.0 0.6635 1.129
5056000000.0 1.285 0.2411
5059000000.0 1.007 -0.8533
5062000000.0 -0.02724 -1.321
5066000000.0 -1.024 -0.826
5069000000.0 -1.295 0.2465
5072000000.0 -0.5896 1.133
5075000000.0 0.4989 1.225
5078000000.0 1.219 0.4132
5081000000.0 1.114 -0.7006
5084000000.0 0.1288 -1.257
5088000000.0 -0.8335 -0.8984
5091000000.0 -1.219 0.1001
5094000000.0 -0.7515 0.9654
5097000000.0 0.3002 1.167
5100000000.0 1.069 0.5282
5103000000.0 1.046 -0.4716
5106000000.0 0.3176 -1.076
5109000000.0 -0.5751 -0.9089
5112000000.0 -1.064 -0.1492
5116000000.0 -0.7698 0.7324
5119000000.0 0.06907 1.09
5122000000.0 0.8573 0.6526
5125000000.0 1.035 -0.2657
5128000000.0 0.4622 -0.9187
5131000000.0 -0.4375 -0.9329
5134000000.0 -0.9955 -0.264
5138000000.0 -0.8025 0.5935
5141000000.0 -0.05126 1.015
5144000000.0 0.6981 0.6325
5147000000.0 0.9546 -0.15
5150000000.0 0.5221 -0.7869
5153000000.0 -0.2934 -0.8745
5156000000.0 -0.8785 -0.3167
5159000000.0 -0.7862 0.4589
5162000000.0 -0.1516 0.9137
5166000000.0 0.5967 0.6944
5169000000.0 0.918 -0.05732
5172000000.0 0.5384 -0.7538
5175000000.0 -0.2203 -0.8855
5178000000.0 -0.8596 -0.3859
5181000000.0 -0.8308 0.4194
5184000000.0 -0.1853 0.8964
5188000000.0 0.562 0.7054
5191000000.0 0.976 0.01028
5194000000.0 0.5697 -0.7255
5197000000.0 -0.2142 -0.9108
5200000000.0 -0.873 -0.3922
5203000000.0 -0.8471 0.4101
5206000000.0 -0.2062 0.9297
5209000000.0 0.5772 0.757
5212000000.0 0.9704 0.005539
5216000000.0 0.6363 -0.7808
5219000000.0 -0.1984 -0.9807
5222000000.0 -0.8726 -0.4652
5225000000.0 -0.9303 0.4049
5228000000.0 -0.2584 0.9763
5231000000.0 0.5775 0.8501
5234000000.0 1.05 0.07568
5238000000.0 0.7325 -0.7487
5241000000.0 -0.1432 -1.045
5244000000.0 -0.8963 -0.5617
5247000000.0 -1.007 0.3187
5250000000.0 -0.403 0.9864
5253000000.0 0.506 0.9533
5256000000.0 1.064 0.2133
5259000000.0 0.88 -0.7046
5262000000.0 0.02732 -1.087
5266000000.0 -0.819 -0.7507
5269000000.0 -1.052 0.1916
5272000000.0 -0.5395 0.9262
5275000000.0 0.3713 1.046
5278000000.0 1.01 0.3972
5281000000.0 0.9748 -0.5217
5284000000.0 0.2372 -1.095
5288000000.0 -0.6769 -0.8818
5291000000.0 -1.111 -0.06805
5294000000.0 -0.7631 0.8255
5297000000.0 0.1428 1.117
5300000000.0 0.9641 0.6111
5303000000.0 1.095 -0.3189
5306000000.0 0.4688 -1.054
5309000000.0 -0.5157 -1.014
5312000000.0 -1.118 -0.2845
5316000000.0 -0.9608 0.7
5319000000.0 -0.1101 1.178
5322000000.0 0.8371 0.8018
5325000000.0 1.151 -0.1142
5328000000.0 0.6616 -0.9745
5331000000.0 -0.2922 -1.106
5334000000.0 -1.061 -0.4869
5338000000.0 -1.019 0.4938
5341000000.0 -0.2801 1.115
5344000000.0 0.6921 0.8985
5347000000.0 1.118 0.04574
5350000000.0 0.7675 -0.8333
5353000000.0 -0.1615 -1.087
5356000000.0 -0.9663 -0.5811
5359000000.0 -1.036 0.3707
5362000000.0 -0.3788 1.038
5366000000.0 0.5689 0.9332
5369000000.0 1.097 0.1429
5372000000.0 0.7703 -0.754
5375000000.0 -0.1082 -1.053
5378000000.0 -0.8945 -0.5802
5381000000.0 -0.9959 0.3307
5384000000.0 -0.3407 0.9521
5388000000.0 0.5035 0.8475
5391000000.0 1.002 0.1148
5394000000.0 0.7054 -0.6699
5397000000.0 -0.1138 -0.9204
5400000000.0 -0.7714 -0.4909
5403000000.0 -0.9027 0.3196
5406000000.0 -0.2805 0.847
5409000000.0 0.4967 0.7695
5412000000.0 0.8827 0.09186
5416000000.0 0.6167 -0.6569
5419000000.0 -0.1157 -0.8826
5422000000.0 -0.7528 -0.4743
5425000000.0 -0.8136 0.278
5428000000.0 -0.3171 0.8228
5431000000.0 0.4656 0.7663
5434000000.0 0.8768 0.07992
5438000000.0 0.6105 -0.629
5441000000.0 -0.1223 -0.8871
5444000000.0 -0.7839 -0.4461
5447000000.0 -0.8327 0.3217
5450000000.0 -0.2937 0.8617
5453000000.0 0.483 0.7718
5456000000.0 0.8887 0.1144
5459000000.0 0.6499 -0.6174
5462000000.0 -0.06155 -0.8908
5466000000.0 -0.7409 -0.5222
5469000000.0 -0.9013 0.251
5472000000.0 -0.3537 0.8693
5475000000.0 0.4203 0.843
5478000000.0 0.9234 0.2508
5481000000.0 0.783 -0.5718
5484000000.0 0.08135 -0.9878
5488000000.0 -0.6998 -0.6994
5491000000.0 -0.9477 0.1213
5494000000.0 -0.5463 0.8089
5497000000.0 0.266 0.9519
5500000000.0 0.9194 0.4394
5503000000.0 0.9273 -0.4352
5506000000.0 0.2293 -0.9864
5509000000.0 -0.6235 -0.8243
5512000000.0 -1.057 -0.09421
5516000000.0 -0.7043 0.7324
5519000000.0 0.09996 1.035
5522000000.0 0.8545 0.578
5525000000.0 1.042 -0.2747
5528000000.0 0.3966 -0.9443
5531000000.0 -0.4511 -0.9488
5534000000.0 -1.018 -0.2749
5538000000.0 -0.8926 0.5881
5541000000.0 -0.1041 1.061
5544000000.0 0.795 0.7479
5547000000.0 1.078 -0.1131
5550000000.0 0.6081 -0.8919
5553000000.0 -0.3123 -1.049
5556000000.0 -1.009 -0.4299
5559000000.0 -0.9773 0.5025
5562000000.0 -0.2595 1.042
5566000000.0 0.6086 0.8518
5569000000.0 1.027 0.07016
5572000000.0 0.6957 -0.7616
5575000000.0 -0.1377 -1.019
5578000000.0 -0.8787 -0.5344
5581000000.0 -0.9646 0.3067
5584000000.0 -0.3874 0.9264
5588000000.0 0.4912 0.8531
5591000000.0 0.9379 0.1513
5594000000.0 0.7272 -0.6254
5597000000.0 -0.007965 -0.9813
5600000000.0 -0.734 -0.6006
5603000000.0 -0.9211 0.193
5606000000.0 -0.405 0.8227
5609000000.0 0.384 0.8557
5612000000.0 0.8486 0.2092
5616000000.0 0.7038 -0.5238
5619000000.0 0.06918 -0.878
5622000000.0 -0.6439 -0.5916
5625000000.0 -0.8616 0.1166
5628000000.0 -0.4266 0.7451
5631000000.0 0.296 0.8061
5634000000.0 0.7849 0.231
5638000000.0 0.7067 -0.47
5641000000.0 0.08774 -0.8351
5644000000.0 -0.6018 -0.5828
5647000000.0 -0.8529 0.09153
5650000000.0 -0.4612 0.7167
5653000000.0 0.2727 0.796
5656000000.0 0.8148 0.2985
5659000000.0 0.7402 -0.4486
5662000000.0 0.08258 -0.873
5666000000.0 -0.6156 -0.6261
5669000000.0 -0.8844 0.1005
5672000000.0 -0.4686 0.7678
5675000000.0 0.2854 0.8617
5678000000.0 0.8681 0.3205
5681000000.0 0.7579 -0.4996
5684000000.0 0.1195 -0.9416
5688000000.0 -0.6543 -0.6733
5691000000.0 -0.9434 0.0631
5694000000.0 -0.557 0.8038
5697000000.0 0.2857 0.9425
5700000000.0 0.9169 0.3752
5703000000.0 0.873 -0.492
5706000000.0 0.1641 -0.999
5709000000.0 -0.6884 -0.7852
5712000000.0 -1.017 0.03566
5716000000.0 -0.6644 0.835
5719000000.0 0.2248 1.018
5722000000.0 0.9284 0.4644
5725000000.0 0.9483 -0.4072
5728000000.0 0.3178 -1.02
5731000000.0 -0.579 -0.8976
5734000000.0 -1.096 -0.1188
5738000000.0 -0.7929 0.7757
5741000000.0 0.09151 1.096
5744000000.0 0.8928 0.6401
5747000000.0 1.093 -0.2778
5750000000.0 0.4581 -1.019
5753000000.0 -0.4834 -1.006
5756000000.0 -1.077 -0.2805
5759000000.0 -0.9038 0.6548
5762000000.0 -0.04666 1.119
5766000000.0 0.838 0.7727
5769000000.0 1.105 -0.1178
5772000000.0 0.6524 -0.9244
5775000000.0 -0.3251 -1.056
5778000000.0 -1.017 -0.4376
5781000000.0 -0.9903 0.5024
5784000000.0 -0.2475 1.114
5788000000.0 0.6374 0.8889
5791000000.0 1.145 0.06086
5794000000.0 0.7154 -0.7858
5797000000.0 -0.1394 -1.101
5800000000.0 -0.9173 -0.5681
5803000000.0 -1.039 0.3618
5806000000.0 -0.3979 1.01
5809000000.0 0.5643 0.9303
5812000000.0 1.05 0.2118
5816000000.0 0.7848 -0.6889
5819000000.0 0.01643 -1.064
5822000000.0 -0.7989 -0.6579
5825000000.0 -0.9948 0.2178
5828000000.0 -0.4448 0.9058
5831000000.0 0.3875 0.9252
5834000000.0 0.9414 0.2634
5838000000.0 0.8104 -0.5866
5841000000.0 0.07396 -1.018
5844000000.0 -0.7237 -0.7075
5847000000.0 -0.9752 0.1514
5850000000.0 -0.5159 0.8287
5853000000.0 0.3148 0.9212
5856000000.0 0.9097 0.317
5859000000.0 0.8042 -0.5045
5862000000.0 0.1301 -0.9258
5866000000.0 -0.6646 -0.6728
5869000000.0 -0.9089 0.07065
5872000000.0 -0.4944 0.7633
5875000000.0 0.2998 0.8457
5878000000.0 0.8492 0.2935
5881000000.0 0.7456 -0.487
5884000000.0 0.08786 -0.8983
5888000000.0 -0.6225 -0.6312
5891000000.0 -0.896 0.06504
5894000000.0 -0.5444 0.7232
5897000000.0 0.259 0.8348
5900000000.0 0.7901 0.323
5903000000.0 0.7731 -0.4151
5906000000.0 0.17 -0.8699
5909000000.0 -0.5679 -0.6828
5912000000.0 -0.8579 0.01915
5916000000.0 -0.5497 0.6701
5919000000.0 0.1453 0.8734
5922000000.0 0.8005 0.424
5925000000.0 0.814 -0.3169
5928000000.0 0.2697 -0.8586
5931000000.0 -0.475 -0.7566
5934000000.0 -0.8754 -0.0806
5938000000.0 -0.6368 0.6297
5941000000.0 0.08497 0.9321
5944000000.0 0.7366 0.5231
5947000000.0 0.886 -0.1973
5950000000.0 0.4282 -0.8353
5953000000.0 -0.4125 -0.837
5956000000.0 -0.8903 -0.2154
5959000000.0 -0.7612 0.557
5962000000.0 -0.02938 0.9349
5966000000.0 0.6731 0.6803
5969000000.0 0.9458 -0.1096
5972000000.0 0.5462 -0.7827
5975000000.0 -0.2679 -0.9532
5978000000.0 -0.9109 -0.3951
5981000000.0 -0.9035 0.4481
5984000000.0 -0.226 0.9287
5988000000.0 0.5819 0.7851
5991000000.0 1.015 0.05025
5994000000.0 0.6932 -0.7453
5997000000.0 -0.1159 -1.02
6000000000.0 -0.876 -0.5361
6003000000.0 -0.9646 0.3294
6006000000.0 -0.3673 0.9225
6009000000.0 0.4894 0.876
6012000000.0 0.9665 0.1719
6016000000.0 0.7883 -0.6462
6019000000.0 -0.01111 -1.001
6022000000.0 -0.7781 -0.6351
6025000000.0 -0.9837 0.2237
6028000000.0 -0.4588 0.8888
6031000000.0 0.4193 0.9026
6034000000.0 0.9523 0.285
6038000000.0 0.8085 -0.5656
6041000000.0 0.07112 -0.9843
6044000000.0 -0.6992 -0.658
6047000000.0 -0.9827 0.1287
6050000000.0 -0.494 0.839
6053000000.0 0.3396 0.9157
6056000000.0 0.9081 0.3248
6059000000.0 0.7919 -0.4803
6062000000.0 0.1337 -0.944
6066000000.0 -0.6469 -0.68
6069000000.0 -0.9245 0.06746
6072000000.0 -0.4923 0.7776
6075000000.0 0.2587 0.869
6078000000.0 0.8285 0.3316
6081000000.0 0.795 -0.4242
6084000000.0 0.1447 -0.8633
6088000000.0 -0.5508 -0.6552
6091000000.0 -0.8462 -0.0005013
6094000000.0 -0.5093 0.6884
6097000000.0 0.1887 0.8268
6100000000.0 0.7747 0.382
6103000000.0 0.7984 -0.3724
6106000000.0 0.1921 -0.8567
6109000000.0 -0.5345 -0.6653
6112000000.0 -0.8853 -0.01603
6116000000.0 -0.5703 0.6437
6119000000.0 0.1597 0.8495
6122000000.0 0.7915 0.4097
6125000000.0 0.8056 -0.3299
6128000000.0 0.28 -0.8584
6131000000.0 -0.5184 -0.7054
6134000000.0 -0.8738 -0.04964
6138000000.0 -0.5924 0.6284
6141000000.0 0.09922 0.8724
6144000000.0 0.7862 0.4455
6147000000.0 0.8561 -0.2866
6150000000.0 0.3064 -0.8492
6153000000.0 -0.4861 -0.7755
6156000000.0 -0.9134 -0.1133
6159000000.0 -0.6573 0.5992
6162000000.0 0.03342 0.8961
6166000000.0 0.7571 0.5657
6169000000.0 0.876 -0.2405
6172000000.0 0.3832 -0.8757
6175000000.0 -0.3836 -0.8809
6178000000.0 -0.9181 -0.2208
6181000000.0 -0.7612 0.5834
6184000000.0 -0.01106 0.9538
6188000000.0 0.7096 0.6334
6191000000.0 0.953 -0.1539
6194000000.0 0.4462 -0.8143
6197000000.0 -0.3362 -0.892
6200000000.0 -0.8778 -0.3115
6203000000.0 -0.8058 0.5234
6206000000.0 -0.157 0.9274
6209000000.0 0.622 0.6693
6212000000.0 0.8991 -0.05814
6216000000.0 0.5711 -0.7771
6219000000.0 -0.2697 -0.8961
6222000000.0 -0.8612 -0.4266
6225000000.0 -0.839 0.3949
6228000000.0 -0.2353 0.8925
6231000000.0 0.5323 0.7355
6234000000.0 0.8903 0.0377
6238000000.0 0.6199 -0.6523
6241000000.0 -0.1056 -0.887
6244000000.0 -0.731 -0.5003
6247000000.0 -0.8437 0.2992
6250000000.0 -0.3101 0.8174
6253000000.0 0.3726 0.7585
6256000000.0 0.8133 0.1754
6259000000.0 0.6591 -0.5035
6262000000.0 0.03692 -0.8538
6266000000.0 -0.6232 -0.5344
6269000000.0 -0.835 0.1054
