! Created with skrf 1.8.0 (http://scikit-rf.org).
# Hz S RI R 50.0 
!freq ReS11 ImS11
4000000000.0 0.407 -1.418
4003000000.0 -0.8625 -1.215
4006000000.0 -1.509 -0.04841
4009000000.0 -1.027 1.102
4012000000.0 0.2695 1.464
4016000000.0 1.317 0.7786
4019000000.0 1.421 -0.5192
4022000000.0 0.4306 -1.494
4025000000.0 -0.8942 -1.277
4028000000.0 -1.545 -0.1343
4031000000.0 -1.063 1.151
4034000000.0 0.2352 1.502
4038000000.0 1.36 0.7598
4041000000.0 1.463 -0.5653
4044000000.0 0.4562 -1.509
4047000000.0 -0.8752 -1.292
4050000000.0 -1.579 -0.1472
4053000000.0 -1.075 1.15
4056000000.0 0.165 1.551
4059000000.0 1.302 0.8371
4062000000.0 1.484 -0.4772
4066000000.0 0.6052 -1.487
4069000000.0 -0.7747 -1.433
4072000000.0 -1.571 -0.2776
4075000000.0 -1.219 1.022
4078000000.0 -0.02092 1.632
4081000000.0 1.291 1.024
4084000000.0 1.585 -0.3265
4088000000.0 0.7605 -1.441
4091000000.0 -0.6292 -1.534
4094000000.0 -1.596 -0.4336
4097000000.0 -1.33 0.9613
4100000000.0 -0.1246 1.624
4103000000.0 1.156 1.113
4106000000.0 1.593 -0.1368
4109000000.0 0.8887 -1.311
4112000000.0 -0.4267 -1.493
4116000000.0 -1.386 -0.6626
4119000000.0 -1.398 0.6108
4122000000.0 -0.4144 1.467
4125000000.0 0.8506 1.251
4128000000.0 1.502 0.2007
4131000000.0 1.114 -0.9828
4134000000.0 -0.02427 -1.505
4138000000.0 -1.151 -0.9929
4141000000.0 -1.484 0.2245
4144000000.0 -0.7802 1.29
4147000000.0 0.4819 1.455
4150000000.0 1.384 0.5966
4153000000.0 1.33 -0.7149
4156000000.0 0.3698 -1.492
4159000000.0 -0.9121 -1.192
4162000000.0 -1.509 -0.07735
4166000000.0 -1.02 1.079
4169000000.0 0.1495 1.501
4172000000.0 1.227 0.8583
4175000000.0 1.448 -0.3941
4178000000.0 0.6548 -1.35
4181000000.0 -0.5863 -1.361
4184000000.0 -1.443 -0.44
4188000000.0 -1.264 0.8289
4191000000.0 -0.2027 1.504
4194000000.0 1.027 1.13
4197000000.0 1.564 -0.04149
4200000000.0 0.9565 -1.23
4203000000.0 -0.3196 -1.562
4206000000.0 -1.467 -0.7415
4209000000.0 -1.511 0.672
4212000000.0 -0.4316 1.58
4216000000.0 0.9457 1.321
4219000000.0 1.689 0.07634
4222000000.0 1.083 -1.314
4225000000.0 -0.3153 -1.697
4228000000.0 -1.548 -0.7978
4231000000.0 -1.534 0.7362
4234000000.0 -0.3892 1.695
4238000000.0 1.078 1.317
4241000000.0 1.709 -0.004313
4244000000.0 1.021 -1.373
4247000000.0 -0.4115 -1.668
4250000000.0 -1.55 -0.6718
4253000000.0 -1.426 0.8001
4256000000.0 -0.258 1.605
4259000000.0 1.147 1.187
4262000000.0 1.641 -0.1665
4266000000.0 0.8326 -1.365
4269000000.0 -0.5893 -1.514
4272000000.0 -1.507 -0.4644
4275000000.0 -1.321 0.8777
4278000000.0 -0.03598 1.525
4281000000.0 1.159 0.9777
4284000000.0 1.442 -0.3337
4288000000.0 0.5929 -1.367
4291000000.0 -0.6292 -1.315
4294000000.0 -1.39 -0.3058
4297000000.0 -1.092 0.9105
4300000000.0 -0.01437 1.339
4303000000.0 1.063 0.8905
4306000000.0 1.29 -0.2366
4309000000.0 0.6609 -1.131
4312000000.0 -0.4806 -1.222
4316000000.0 -1.24 -0.4267
4319000000.0 -1.111 0.6855
4322000000.0 -0.2048 1.271
4325000000.0 0.8571 0.9741
4328000000.0 1.314 0.002814
4331000000.0 0.8198 -1.058
4334000000.0 -0.2794 -1.322
4338000000.0 -1.163 -0.6259
4341000000.0 -1.3 0.4927
4344000000.0 -0.4038 1.309
4347000000.0 0.7491 1.175
4350000000.0 1.39 0.1791
4353000000.0 1.013 -0.9485
4356000000.0 -0.07136 -1.4
4359000000.0 -1.133 -0.8544
4362000000.0 -1.332 0.3025
4366000000.0 -0.6401 1.257
4369000000.0 0.5834 1.296
4372000000.0 1.353 0.4141
4375000000.0 1.203 -0.7491
4378000000.0 0.1668 -1.434
4381000000.0 -0.9971 -1.088
4384000000.0 -1.505 0.05487
4388000000.0 -0.908 1.193
4391000000.0 0.3386 1.465
4394000000.0 1.347 0.6597
4397000000.0 1.428 -0.599
4400000000.0 0.3964 -1.48
4403000000.0 -0.9328 -1.256
4406000000.0 -1.581 -0.1012
4409000000.0 -1.079 1.155
4412000000.0 0.2521 1.57
4416000000.0 1.342 0.8296
4419000000.0 1.496 -0.539
4422000000.0 0.4812 -1.509
4425000000.0 -0.8575 -1.331
4428000000.0 -1.527 -0.1638
4431000000.0 -1.102 1.085
4434000000.0 0.1691 1.533
4438000000.0 1.311 0.8059
4441000000.0 1.425 -0.5069
4444000000.0 0.5126 -1.415
4447000000.0 -0.8132 -1.291
4450000000.0 -1.52 -0.1317
4453000000.0 -1.028 1.055
4456000000.0 0.216 1.448
4459000000.0 1.258 0.7241
4462000000.0 1.305 -0.548
4466000000.0 0.323 -1.351
4469000000.0 -0.8262 -1.117
4472000000.0 -1.346 0.002255
4475000000.0 -0.8246 1.053
4478000000.0 0.309 1.265
4481000000.0 1.171 0.5222
4484000000.0 1.073 -0.5931
4488000000.0 0.186 -1.177
4491000000.0 -0.7881 -0.871
4494000000.0 -1.154 0.09622
4497000000.0 -0.634 0.9685
4500000000.0 0.3336 1.073
4503000000.0 1.021 0.3765
4506000000.0 0.9284 -0.5517
4509000000.0 0.1106 -1.1
4512000000.0 -0.7502 -0.7604
4516000000.0 -1.057 0.1091
4519000000.0 -0.5701 0.9214
4522000000.0 0.3567 0.9995
4525000000.0 1.015 0.3729
4528000000.0 0.9199 -0.5862
4531000000.0 0.09921 -1.081
4534000000.0 -0.761 -0.793
4538000000.0 -1.089 0.09928
4541000000.0 -0.6171 0.9314
4544000000.0 0.3447 1.023
4547000000.0 1.002 0.4213
4550000000.0 0.985 -0.5062
4553000000.0 0.1963 -1.078
4556000000.0 -0.6929 -0.8616
4559000000.0 -1.146 -0.01352
4562000000.0 -0.732 0.8522
4566000000.0 0.2051 1.159
4569000000.0 1.018 0.5758
4572000000.0 1.083 -0.4082
4575000000.0 0.3838 -1.108
4578000000.0 -0.6428 -1.015
4581000000.0 -1.187 -0.1853
4584000000.0 -0.9032 0.817
4588000000.0 0.02257 1.252
4591000000.0 0.9995 0.7899
4594000000.0 1.264 -0.2681
4597000000.0 0.59 -1.144
4600000000.0 -0.5307 -1.192
4603000000.0 -1.28 -0.3598
4606000000.0 -1.085 0.7369
4609000000.0 -0.1337 1.305
4612000000.0 0.9483 0.9486
4616000000.0 1.329 -0.1288
4619000000.0 0.7842 -1.118
4622000000.0 -0.3533 -1.302
4625000000.0 -1.248 -0.5101
4628000000.0 -1.208 0.6013
4631000000.0 -0.3076 1.36
4634000000.0 0.8346 1.083
4638000000.0 1.365 0.02328
4641000000.0 0.8821 -1.077
4644000000.0 -0.2788 -1.369
4647000000.0 -1.232 -0.6399
4650000000.0 -1.267 0.5382
4653000000.0 -0.3448 1.3
4656000000.0 0.8468 1.096
4659000000.0 1.359 0.05386
4662000000.0 0.8707 -1.002
4666000000.0 -0.2479 -1.33
4669000000.0 -1.158 -0.5908
4672000000.0 -1.185 0.5187
4675000000.0 -0.2984 1.226
4678000000.0 0.75 1.012
4681000000.0 1.206 0.007687
4684000000.0 0.8095 -0.9288
4688000000.0 -0.2348 -1.179
4691000000.0 -1.084 -0.5225
4694000000.0 -1.046 0.501
4697000000.0 -0.2789 1.15
4700000000.0 0.684 0.9265
4703000000.0 1.117 -0.001593
4706000000.0 0.7077 -0.8741
4709000000.0 -0.2583 -1.061
4712000000.0 -1.019 -0.4509
4716000000.0 -0.9749 0.4992
4719000000.0 -0.1601 1.088
4722000000.0 0.7078 0.7761
4725000000.0 1.039 -0.06243
4728000000.0 0.6093 -0.8592
4731000000.0 -0.2928 -0.9431
4734000000.0 -0.9466 -0.3497
4738000000.0 -0.8618 0.4908
4741000000.0 -0.1647 0.9643
4744000000.0 0.6716 0.7609
4747000000.0 0.9997 -0.04338
4750000000.0 0.5927 -0.8089
4753000000.0 -0.2792 -0.9724
4756000000.0 -0.8856 -0.4137
4759000000.0 -0.9696 0.4521
4762000000.0 -0.2252 0.9727
4766000000.0 0.5827 0.827
4769000000.0 1.056 0.02106
4772000000.0 0.7225 -0.774
4775000000.0 -0.1717 -1.057
4778000000.0 -0.9088 -0.5388
4781000000.0 -1.026 0.3837
4784000000.0 -0.3856 1.024
4788000000.0 0.5675 0.9489
4791000000.0 1.097 0.1801
4794000000.0 0.8526 -0.7177
4797000000.0 -0.03075 -1.126
4800000000.0 -0.8599 -0.7414
4803000000.0 -1.141 0.1888
4806000000.0 -0.5777 0.9869
4809000000.0 0.3935 1.11
4812000000.0 1.096 0.4212
4816000000.0 1.065 -0.5819
4819000000.0 0.2469 -1.199
4822000000.0 -0.7706 -0.9575
4825000000.0 -1.262 -0.01449
4828000000.0 -0.8255 0.9881
4831000000.0 0.2136 1.285
4834000000.0 1.17 0.6421
4838000000.0 1.222 -0.4939
4841000000.0 0.4054 -1.273
4844000000.0 -0.7159 -1.142
4847000000.0 -1.328 -0.1705
4850000000.0 -0.9615 0.9448
4853000000.0 0.09748 1.366
4856000000.0 1.108 0.7758
4859000000.0 1.311 -0.3758
4862000000.0 0.5491 -1.259
4866000000.0 -0.5976 -1.241
4869000000.0 -1.359 -0.2807
4872000000.0 -1.057 0.8586
4875000000.0 -0.02494 1.371
4878000000.0 1.058 0.8659
4881000000.0 1.296 -0.2975
4884000000.0 0.5996 -1.186
4888000000.0 -0.5537 -1.217
4891000000.0 -1.246 -0.3319
4894000000.0 -1.046 0.7466
4897000000.0 -0.01266 1.234
4900000000.0 0.935 0.7863
4903000000.0 1.17 -0.2396
4906000000.0 0.5248 -1.054
4909000000.0 -0.4285 -1.04
4912000000.0 -1.065 -0.29
4916000000.0 -0.8928 0.6084
4919000000.0 -0.09466 1.09
4922000000.0 0.7635 0.7111
4925000000.0 1.02 -0.1165
4928000000.0 0.5561 -0.8489
4931000000.0 -0.3097 -0.9366
4934000000.0 -0.8994 -0.3613
4938000000.0 -0.8244 0.5054
4941000000.0 -0.1625 0.941
4944000000.0 0.6274 0.6972
4947000000.0 0.9523 -0.05445
4950000000.0 0.5503 -0.7845
4953000000.0 -0.2381 -0.9157
4956000000.0 -0.8602 -0.3949
4959000000.0 -0.8502 0.4293
4962000000.0 -0.2013 0.9069
4966000000.0 0.5836 0.7573
4969000000.0 0.9373 0.02723
4972000000.0 0.5895 -0.7342
4975000000.0 -0.1752 -0.9384
4978000000.0 -0.8667 -0.4547
4981000000.0 -0.8751 0.3784
4984000000.0 -0.2941 0.9101
4988000000.0 0.555 0.8119
4991000000.0 0.997 0.07724
4994000000.0 0.7063 -0.7189
4997000000.0 -0.09513 -1.04
5000000000.0 -0.8657 -0.6305
5003000000.0 -1.043 0.3016
5006000000.0 -0.4098 1.032
5009000000.0 0.4931 0.9937
5012000000.0 1.108 0.2384
5016000000.0 0.893 -0.7128
5019000000.0 -0.01167 -1.173
5022000000.0 -0.9068 -0.7577
5025000000.0 -1.159 0.2231
5028000000.0 -0.6074 1.066
5031000000.0 0.4557 1.14
5034000000.0 1.163 0.4152
5038000000.0 1.058 -0.6726
5041000000.0 0.1578 -1.218
5044000000.0 -0.84 -0.9127
5047000000.0 -1.244 0.07133
5050000000.0 -0.8061 1.061
5053000000.0 0.2704 1.237
5056000000.0 1.141 0.5524
5059000000.0 1.197 -0.4845
5062000000.0 0.3385 -1.232
5066000000.0 -0.7387 -1.078
5069000000.0 -1.294 -0.1122
5072000000.0 -0.9407 0.9228
5075000000.0 0.1022 1.296
5078000000.0 1.055 0.7496
5081000000.0 1.258 -0.3693
5084000000.0 0.5215 -1.149
5088000000.0 -0.5772 -1.146
5091000000.0 -1.224 -0.2655
5094000000.0 -0.9721 0.7616
5097000000.0 -0.06487 1.207
5100000000.0 0.8715 0.8053
5103000000.0 1.187 -0.1593
5106000000.0 0.6167 -0.9631
5109000000.0 -0.3247 -1.097
5112000000.0 -1.054 -0.4475
5116000000.0 -0.9733 0.4993
5119000000.0 -0.2541 1.102
5122000000.0 0.6531 0.8582
5125000000.0 1.063 0.03852
5128000000.0 0.7689 -0.7417
5131000000.0 -0.1396 -1.08
5134000000.0 -0.8845 -0.5518
5138000000.0 -0.9608 0.3367
5141000000.0 -0.3739 0.9704
5144000000.0 0.5032 0.8546
5147000000.0 0.9741 0.1899
5150000000.0 0.7371 -0.5992
5153000000.0 0.02692 -0.9556
5156000000.0 -0.7303 -0.593
5159000000.0 -0.9203 0.1704
5162000000.0 -0.4398 0.7976
5166000000.0 0.3469 0.865
5169000000.0 0.8481 0.2921
5172000000.0 0.7812 -0.4838
5175000000.0 0.09168 -0.8939
5178000000.0 -0.6609 -0.6691
5181000000.0 -0.9123 0.098
5184000000.0 -0.5108 0.7805
5188000000.0 0.29 0.8604
5191000000.0 0.8805 0.32
5194000000.0 0.8075 -0.4892
5197000000.0 0.1212 -0.9404
5200000000.0 -0.635 -0.6891
5203000000.0 -0.9208 0.08041
5206000000.0 -0.5099 0.7903
5209000000.0 0.2865 0.8968
5212000000.0 0.8783 0.3054
5216000000.0 0.8001 -0.4871
5219000000.0 0.1232 -0.9233
5222000000.0 -0.6618 -0.7037
5225000000.0 -0.9756 0.05598
5228000000.0 -0.5723 0.8218
5231000000.0 0.2752 0.9429
5234000000.0 0.9262 0.4088
5238000000.0 0.8898 -0.472
5241000000.0 0.1837 -1.001
5244000000.0 -0.6739 -0.7807
5247000000.0 -1.042 0.01513
5250000000.0 -0.62 0.8091
5253000000.0 0.2177 1.007
5256000000.0 0.9214 0.4856
5259000000.0 0.9774 -0.4058
5262000000.0 0.3312 -0.989
5266000000.0 -0.593 -0.9026
5269000000.0 -1.051 -0.15
5272000000.0 -0.7984 0.7303
5275000000.0 0.04663 1.086
5278000000.0 0.8577 0.658
5281000000.0 1.057 -0.2203
5284000000.0 0.5036 -0.9748
5288000000.0 -0.3762 -0.9919
5291000000.0 -1.07 -0.3591
5294000000.0 -0.9518 0.5444
5297000000.0 -0.1649 1.099
5300000000.0 0.7356 0.8408
5303000000.0 1.116 0.02309
5306000000.0 0.7074 -0.8543
5309000000.0 -0.206 -1.104
5312000000.0 -0.9751 -0.5936
5316000000.0 -1.069 0.3591
5319000000.0 -0.4056 1.08
5322000000.0 0.5552 0.985
5325000000.0 1.115 0.2087
5328000000.0 0.8954 -0.7293
5331000000.0 0.03953 -1.16
5334000000.0 -0.8531 -0.7767
5338000000.0 -1.16 0.1686
5341000000.0 -0.5995 0.9868
5344000000.0 0.38 1.057
5347000000.0 1.068 0.4087
5350000000.0 1.007 -0.5434
5353000000.0 0.1906 -1.105
5356000000.0 -0.7214 -0.8764
5359000000.0 -1.111 -0.0007926
5362000000.0 -0.7156 0.8784
5366000000.0 0.2518 1.066
5369000000.0 1.007 0.5008
5372000000.0 1.04 -0.4527
5375000000.0 0.2822 -1.043
5378000000.0 -0.6177 -0.89
5381000000.0 -1.071 -0.04677
5384000000.0 -0.7054 0.7803
5388000000.0 0.1753 1.049
5391000000.0 0.922 0.5008
5394000000.0 0.937 -0.4002
5397000000.0 0.2649 -0.9234
5400000000.0 -0.5701 -0.7802
5403000000.0 -0.9699 -0.05897
5406000000.0 -0.6323 0.6991
5409000000.0 0.1429 0.9231
5412000000.0 0.8266 0.4434
5416000000.0 0.8395 -0.328
5419000000.0 0.2537 -0.8723
5422000000.0 -0.5416 -0.7388
5425000000.0 -0.9071 -0.04358
5428000000.0 -0.603 0.6603
5431000000.0 0.1547 0.8518
5434000000.0 0.7833 0.4004
5438000000.0 0.8364 -0.3323
5441000000.0 0.2243 -0.8405
5444000000.0 -0.5215 -0.6611
5447000000.0 -0.8694 -0.02514
5450000000.0 -0.5396 0.6592
5453000000.0 0.1708 0.86
5456000000.0 0.744 0.3805
5459000000.0 0.7934 -0.3419
5462000000.0 0.2132 -0.8488
5466000000.0 -0.4985 -0.6883
5469000000.0 -0.8519 -0.06726
5472000000.0 -0.6222 0.638
5475000000.0 0.1208 0.8911
5478000000.0 0.7505 0.4724
5481000000.0 0.8752 -0.2951
5484000000.0 0.3325 -0.8004
5488000000.0 -0.4254 -0.8296
5491000000.0 -0.926 -0.1897
5494000000.0 -0.7461 0.5503
5497000000.0 -0.0396 0.943
5500000000.0 0.7033 0.6273
5503000000.0 0.9113 -0.137
5506000000.0 0.4927 -0.8334
5509000000.0 -0.3203 -0.8995
5512000000.0 -0.9211 -0.3442
5516000000.0 -0.8589 0.4737
5519000000.0 -0.1995 0.9816
5522000000.0 0.6237 0.7775
5525000000.0 1.003 0.02591
5528000000.0 0.6535 -0.7504
5531000000.0 -0.1223 -1.024
5534000000.0 -0.8594 -0.5408
5538000000.0 -1.016 0.3369
5541000000.0 -0.396 0.9273
5544000000.0 0.477 0.8999
5547000000.0 1.018 0.2273
5550000000.0 0.8486 -0.6529
5553000000.0 0.04794 -1.067
5556000000.0 -0.7766 -0.7175
5559000000.0 -1.035 0.1714
5562000000.0 -0.549 0.8988
5566000000.0 0.3474 1.006
5569000000.0 1.016 0.3467
5572000000.0 0.9191 -0.4875
5575000000.0 0.1479 -1.0
5578000000.0 -0.6471 -0.8178
5581000000.0 -1.044 -0.02137
5584000000.0 -0.6297 0.7597
5588000000.0 0.1822 0.9946
5591000000.0 0.8641 0.4626
5594000000.0 0.9377 -0.3443
5597000000.0 0.3168 -0.9373
5600000000.0 -0.5017 -0.8357
5603000000.0 -0.9392 -0.1448
5606000000.0 -0.7223 0.6287
5609000000.0 0.07015 0.9434
5612000000.0 0.7345 0.5512
5616000000.0 0.8844 -0.2275
5619000000.0 0.3667 -0.8251
5622000000.0 -0.3821 -0.8058
5625000000.0 -0.9006 -0.1991
5628000000.0 -0.7102 0.538
5631000000.0 -0.02592 0.8878
5634000000.0 0.6639 0.5674
5638000000.0 0.8218 -0.1488
5641000000.0 0.3874 -0.774
5644000000.0 -0.3386 -0.7961
5647000000.0 -0.8157 -0.2251
5650000000.0 -0.7026 0.4877
5653000000.0 -0.04127 0.8809
5656000000.0 0.6367 0.5752
5659000000.0 0.8364 -0.1576
5662000000.0 0.4067 -0.7567
5666000000.0 -0.3438 -0.7801
5669000000.0 -0.83 -0.2182
5672000000.0 -0.6827 0.5007
5675000000.0 -0.03593 0.879
5678000000.0 0.6696 0.5425
5681000000.0 0.879 -0.1862
5684000000.0 0.4299 -0.79
5688000000.0 -0.3671 -0.8536
5691000000.0 -0.872 -0.2414
5694000000.0 -0.7663 0.5681
5697000000.0 -0.02537 0.96
5700000000.0 0.7004 0.6021
5703000000.0 0.9332 -0.1606
5706000000.0 0.4613 -0.8376
5709000000.0 -0.3381 -0.9221
5712000000.0 -0.9418 -0.2948
5716000000.0 -0.8504 0.545
5719000000.0 -0.1175 0.9861
5722000000.0 0.6918 0.7103
5725000000.0 1.013 -0.108
5728000000.0 0.5836 -0.8467
5731000000.0 -0.2863 -1.001
5734000000.0 -0.9625 -0.3964
5738000000.0 -0.909 0.4961
5741000000.0 -0.2412 1.035
5744000000.0 0.6426 0.8415
5747000000.0 1.037 0.02271
5750000000.0 0.7369 -0.8118
5753000000.0 -0.157 -1.061
5756000000.0 -0.9026 -0.5621
5759000000.0 -1.043 0.3794
5762000000.0 -0.4105 1.029
5766000000.0 0.5367 0.9335
5769000000.0 1.045 0.1646
5772000000.0 0.8444 -0.6762
5775000000.0 0.006761 -1.103
5778000000.0 -0.8423 -0.6637
5781000000.0 -1.054 0.1643
5784000000.0 -0.5248 0.9334
5788000000.0 0.3644 0.9932
5791000000.0 0.9715 0.335
5794000000.0 0.9458 -0.5368
5797000000.0 0.195 -1.084
5800000000.0 -0.713 -0.7904
5803000000.0 -1.073 0.01204
5806000000.0 -0.6474 0.8047
5809000000.0 0.1976 1.047
5812000000.0 0.9365 0.4985
5816000000.0 0.967 -0.4299
5819000000.0 0.3229 -1.014
5822000000.0 -0.5741 -0.8912
5825000000.0 -1.024 -0.1152
5828000000.0 -0.7301 0.6812
5831000000.0 0.08098 0.9914
5834000000.0 0.8038 0.5663
5838000000.0 0.9549 -0.2775
5841000000.0 0.4127 -0.896
5844000000.0 -0.4508 -0.8974
5847000000.0 -0.9431 -0.2286
5850000000.0 -0.7492 0.5745
5853000000.0 -0.02664 0.9657
5856000000.0 0.767 0.6145
5859000000.0 0.9438 -0.2137
5862000000.0 0.4486 -0.8583
5866000000.0 -0.3919 -0.857
5869000000.0 -0.9261 -0.2081
5872000000.0 -0.7328 0.5564
5875000000.0 -0.03636 0.9299
5878000000.0 0.6774 0.5889
5881000000.0 0.8595 -0.1444
5884000000.0 0.4157 -0.7729
5888000000.0 -0.3131 -0.8314
5891000000.0 -0.8476 -0.2581
5894000000.0 -0.7066 0.5049
5897000000.0 -0.09922 0.8782
5900000000.0 0.6348 0.5851
5903000000.0 0.8602 -0.1135
5906000000.0 0.4326 -0.743
5909000000.0 -0.2669 -0.785
5912000000.0 -0.7945 -0.2642
5916000000.0 -0.7363 0.4631
5919000000.0 -0.1097 0.8439
5922000000.0 0.5767 0.641
5925000000.0 0.8481 -0.06311
5928000000.0 0.5312 -0.6631
5931000000.0 -0.1866 -0.8225
5934000000.0 -0.7824 -0.3617
5938000000.0 -0.7442 0.3645
5941000000.0 -0.1892 0.8434
5944000000.0 0.5346 0.6808
5947000000.0 0.8633 0.06513
5950000000.0 0.5856 -0.6589
5953000000.0 -0.115 -0.9039
5956000000.0 -0.7428 -0.4996
5959000000.0 -0.8684 0.2783
5962000000.0 -0.3516 0.8432
5966000000.0 0.4203 0.8231
5969000000.0 0.8873 0.2051
5972000000.0 0.7319 -0.591
5975000000.0 0.01779 -0.9205
5978000000.0 -0.7076 -0.6207
5981000000.0 -0.9136 0.1605
5984000000.0 -0.4724 0.8068
5988000000.0 0.3173 0.9156
5991000000.0 0.9024 0.3643
5994000000.0 0.8288 -0.4626
5997000000.0 0.2114 -0.958
6000000000.0 -0.6307 -0.7772
6003000000.0 -0.9884 -0.002978
6006000000.0 -0.6031 0.7238
6009000000.0 0.1733 0.9516
6012000000.0 0.8384 0.4702
6016000000.0 0.911 -0.3591
6019000000.0 0.316 -0.9298
6022000000.0 -0.5291 -0.8206
6025000000.0 -0.9743 -0.1119
6028000000.0 -0.7281 0.6854
6031000000.0 0.04286 0.9983
6034000000.0 0.8009 0.5634
6038000000.0 0.9588 -0.2272
6041000000.0 0.4099 -0.8881
6044000000.0 -0.435 -0.8873
6047000000.0 -0.9625 -0.2231
6050000000.0 -0.7773 0.5918
6053000000.0 -0.003818 0.9573
6056000000.0 0.7447 0.6322
6059000000.0 0.9527 -0.1762
6062000000.0 0.4561 -0.847
6066000000.0 -0.3658 -0.8956
6069000000.0 -0.8759 -0.2692
6072000000.0 -0.7565 0.5263
6075000000.0 -0.0442 0.9058
6078000000.0 0.6834 0.6312
6081000000.0 0.9021 -0.1175
6084000000.0 0.4931 -0.7754
6088000000.0 -0.2728 -0.8082
6091000000.0 -0.8252 -0.2876
6094000000.0 -0.7466 0.4523
6097000000.0 -0.1216 0.8626
6100000000.0 0.5891 0.6364
6103000000.0 0.8585 -0.11
6106000000.0 0.4571 -0.7018
6109000000.0 -0.2352 -0.8443
6112000000.0 -0.7865 -0.3261
6116000000.0 -0.7495 0.41
6119000000.0 -0.1194 0.8402
6122000000.0 0.5405 0.6403
6125000000.0 0.8524 -0.02601
6128000000.0 0.502 -0.6714
6131000000.0 -0.2079 -0.8331
6134000000.0 -0.7777 -0.3559
6138000000.0 -0.7592 0.3795
6141000000.0 -0.1779 0.8388
6144000000.0 0.5273 0.6581
6147000000.0 0.8403 -0.009761
6150000000.0 0.5633 -0.6505
6153000000.0 -0.1448 -0.8391
6156000000.0 -0.7614 -0.3632
6159000000.0 -0.7862 0.3428
6162000000.0 -0.252 0.8431
6166000000.0 0.5058 0.7205
6169000000.0 0.8998 0.05312
6172000000.0 0.6072 -0.6661
6175000000.0 -0.1251 -0.8953
6178000000.0 -0.7492 -0.4956
6181000000.0 -0.8553 0.3168
6184000000.0 -0.3124 0.8356
6188000000.0 0.4499 0.7591
6191000000.0 0.9195 0.1631
6194000000.0 0.6735 -0.5975
6197000000.0 -0.03257 -0.9254
6200000000.0 -0.7501 -0.5472
6203000000.0 -0.8826 0.2268
6206000000.0 -0.4006 0.8057
6209000000.0 0.3558 0.8224
6212000000.0 0.8933 0.2511
6216000000.0 0.733 -0.5227
6219000000.0 0.1007 -0.8845
6222000000.0 -0.6416 -0.6067
6225000000.0 -0.8967 0.1186
6228000000.0 -0.4772 0.7818
6231000000.0 0.2691 0.853
6234000000.0 0.8468 0.3218
6238000000.0 0.7794 -0.4082
6241000000.0 0.157 -0.8654
6244000000.0 -0.582 -0.6592
6247000000.0 -0.8733 -0.02228
6250000000.0 -0.5289 0.6592
6253000000.0 0.1546 0.8452
6256000000.0 0.7255 0.3959
6259000000.0 0.7629 -0.2674
6262000000.0 0.2871 -0.7273
