! Created with skrf 1.8.0 (http://scikit-rf.org).
# Hz S RI R 50.0 
!freq ReS11 ImS11
4000000000.0 -0.1775 -1.495
4003000000.0 -1.274 -0.8221
4006000000.0 -1.446 0.4635
4009000000.0 -0.5698 1.413
4012000000.0 0.7888 1.31
4016000000.0 1.548 0.2416
4019000000.0 1.126 -1.085
4022000000.0 -0.1094 -1.618
4025000000.0 -1.312 -0.9113
4028000000.0 -1.476 0.4355
4031000000.0 -0.5805 1.452
4034000000.0 0.8344 1.463
4038000000.0 1.635 0.2843
4041000000.0 1.211 -1.124
4044000000.0 -0.1251 -1.589
4047000000.0 -1.291 -0.9378
4050000000.0 -1.559 0.4198
4053000000.0 -0.628 1.482
4056000000.0 0.7714 1.457
4059000000.0 1.571 0.3451
4062000000.0 1.286 -0.9575
4066000000.0 0.001087 -1.601
4069000000.0 -1.274 -1.114
4072000000.0 -1.616 0.2813
4075000000.0 -0.8428 1.428
4078000000.0 0.5738 1.528
4081000000.0 1.572 0.5776
4084000000.0 1.436 -0.8529
4088000000.0 0.273 -1.604
4091000000.0 -1.146 -1.25
4094000000.0 -1.651 0.09465
4097000000.0 -0.9681 1.289
4100000000.0 0.3678 1.573
4103000000.0 1.409 0.7493
4106000000.0 1.459 -0.6179
4109000000.0 0.4709 -1.492
4112000000.0 -0.8022 -1.287
4116000000.0 -1.529 -0.237
4119000000.0 -1.111 0.999
4122000000.0 0.01116 1.486
4125000000.0 1.149 0.9711
4128000000.0 1.505 -0.2443
4131000000.0 0.7762 -1.226
4134000000.0 -0.4037 -1.433
4138000000.0 -1.386 -0.6003
4141000000.0 -1.357 0.6484
4144000000.0 -0.3957 1.456
4147000000.0 0.8547 1.235
4150000000.0 1.504 0.1378
4153000000.0 1.074 -1.076
4156000000.0 -0.1014 -1.502
4159000000.0 -1.257 -0.9011
4162000000.0 -1.487 0.3818
4166000000.0 -0.6358 1.39
4169000000.0 0.6352 1.417
4172000000.0 1.445 0.4212
4175000000.0 1.235 -0.8219
4178000000.0 0.1758 -1.491
4181000000.0 -1.013 -1.093
4184000000.0 -1.502 0.06372
4188000000.0 -0.9076 1.221
4191000000.0 0.3457 1.498
4194000000.0 1.369 0.6915
4197000000.0 1.402 -0.6804
4200000000.0 0.388 -1.552
4203000000.0 -0.9257 -1.296
4206000000.0 -1.6 -0.08285
4209000000.0 -1.073 1.222
4212000000.0 0.3172 1.633
4216000000.0 1.497 0.7636
4219000000.0 1.523 -0.7537
4222000000.0 0.3258 -1.654
4225000000.0 -1.102 -1.301
4228000000.0 -1.67 0.1015
4231000000.0 -0.9469 1.413
4234000000.0 0.5144 1.606
4238000000.0 1.558 0.5101
4241000000.0 1.344 -0.8942
4244000000.0 0.1101 -1.603
4247000000.0 -1.211 -1.074
4250000000.0 -1.561 0.2964
4253000000.0 -0.69 1.373
4256000000.0 0.7002 1.377
4259000000.0 1.47 0.3164
4262000000.0 1.186 -0.9903
4266000000.0 -0.0606 -1.462
4269000000.0 -1.234 -0.8856
4272000000.0 -1.41 0.4109
4275000000.0 -0.5434 1.372
4278000000.0 0.7774 1.25
4281000000.0 1.428 0.2041
4284000000.0 1.017 -0.9831
4288000000.0 -0.1347 -1.397
4291000000.0 -1.145 -0.742
4294000000.0 -1.318 0.4152
4297000000.0 -0.4826 1.241
4300000000.0 0.6152 1.152
4303000000.0 1.273 0.2592
4306000000.0 1.017 -0.7952
4309000000.0 0.01971 -1.268
4312000000.0 -0.9727 -0.8692
4316000000.0 -1.271 0.1952
4319000000.0 -0.6915 1.114
4322000000.0 0.3973 1.222
4325000000.0 1.217 0.513
4328000000.0 1.205 -0.6205
4331000000.0 0.3012 -1.33
4334000000.0 -0.8106 -1.098
4338000000.0 -1.416 -0.01197
4341000000.0 -0.9333 1.058
4344000000.0 0.2114 1.409
4347000000.0 1.244 0.7491
4350000000.0 1.335 -0.4568
4353000000.0 0.5003 -1.338
4356000000.0 -0.7046 -1.321
4359000000.0 -1.426 -0.2398
4362000000.0 -1.126 0.9432
4366000000.0 0.006527 1.427
4369000000.0 1.13 0.9739
4372000000.0 1.442 -0.2788
4375000000.0 0.7375 -1.292
4378000000.0 -0.5476 -1.398
4381000000.0 -1.439 -0.4723
4384000000.0 -1.304 0.8296
4388000000.0 -0.1851 1.531
4391000000.0 1.062 1.123
4394000000.0 1.57 -0.1445
4397000000.0 0.8841 -1.336
4400000000.0 -0.4973 -1.52
4403000000.0 -1.511 -0.541
4406000000.0 -1.354 0.8079
4409000000.0 -0.2069 1.6
4412000000.0 1.08 1.115
4416000000.0 1.55 -0.1913
4419000000.0 0.8239 -1.286
4422000000.0 -0.5199 -1.443
4425000000.0 -1.453 -0.4513
4428000000.0 -1.243 0.8384
4431000000.0 -0.09119 1.45
4434000000.0 1.088 0.9811
4438000000.0 1.402 -0.2568
4441000000.0 0.647 -1.237
4444000000.0 -0.5744 -1.254
4447000000.0 -1.328 -0.3365
4450000000.0 -1.03 0.8131
4453000000.0 0.0115 1.33
4456000000.0 1.032 0.7808
4459000000.0 1.277 -0.3475
4462000000.0 0.509 -1.191
4466000000.0 -0.6155 -1.077
4469000000.0 -1.229 -0.1755
4472000000.0 -0.8581 0.8276
4475000000.0 0.1039 1.174
4478000000.0 1.056 0.6484
4481000000.0 1.114 -0.4123
4484000000.0 0.3854 -1.111
4488000000.0 -0.646 -0.9505
4491000000.0 -1.142 -0.07845
4494000000.0 -0.7815 0.868
4497000000.0 0.1445 1.117
4500000000.0 1.011 0.5745
4503000000.0 1.026 -0.3749
4506000000.0 0.3367 -1.032
4509000000.0 -0.5761 -0.9212
4512000000.0 -1.116 -0.1234
4516000000.0 -0.801 0.7769
4519000000.0 0.1125 1.097
4522000000.0 0.9652 0.6278
4525000000.0 1.1 -0.3496
4528000000.0 0.4494 -1.091
4531000000.0 -0.5813 -1.022
4534000000.0 -1.158 -0.2091
4538000000.0 -0.9139 0.7394
4541000000.0 0.007541 1.184
4544000000.0 0.9166 0.7386
4547000000.0 1.151 -0.2365
4550000000.0 0.56 -1.027
4553000000.0 -0.4313 -1.115
4556000000.0 -1.155 -0.3882
4559000000.0 -1.049 0.6624
4562000000.0 -0.1783 1.234
4566000000.0 0.8355 0.9527
4569000000.0 1.253 -0.042
4572000000.0 0.7831 -1.0
4575000000.0 -0.2851 -1.262
4578000000.0 -1.168 -0.6058
4581000000.0 -1.256 0.4822
4584000000.0 -0.3843 1.285
4588000000.0 0.7405 1.146
4591000000.0 1.348 0.1466
4594000000.0 1.006 -0.946
4597000000.0 -0.06652 -1.396
4600000000.0 -1.113 -0.8187
4603000000.0 -1.341 0.3636
4606000000.0 -0.5848 1.282
4609000000.0 0.6197 1.282
4612000000.0 1.382 0.3159
4616000000.0 1.107 -0.845
4619000000.0 0.05221 -1.394
4622000000.0 -1.059 -0.9291
4625000000.0 -1.377 0.2652
4628000000.0 -0.7142 1.242
4631000000.0 0.5337 1.294
4634000000.0 1.311 0.4324
4638000000.0 1.118 -0.7644
4641000000.0 0.1125 -1.375
4644000000.0 -0.9956 -0.95
4647000000.0 -1.381 0.1708
4650000000.0 -0.684 1.127
4653000000.0 0.4723 1.212
4656000000.0 1.251 0.4028
4659000000.0 1.092 -0.7081
4662000000.0 0.09786 -1.272
4666000000.0 -0.9045 -0.8322
4669000000.0 -1.223 0.2078
4672000000.0 -0.5737 1.047
4675000000.0 0.4266 1.109
4678000000.0 1.129 0.2965
4681000000.0 0.9382 -0.6417
4684000000.0 0.06989 -1.135
4688000000.0 -0.814 -0.7585
4691000000.0 -1.064 0.2069
4694000000.0 -0.5485 0.9654
4697000000.0 0.4371 1.026
4700000000.0 1.069 0.3116
4703000000.0 0.8932 -0.652
4706000000.0 0.03916 -1.061
4709000000.0 -0.8074 -0.7014
4712000000.0 -1.062 0.2039
4716000000.0 -0.493 0.9663
4719000000.0 0.435 0.953
4722000000.0 1.037 0.2738
4725000000.0 0.8475 -0.6257
4728000000.0 0.03112 -1.031
4731000000.0 -0.7694 -0.6686
4734000000.0 -1.062 0.2023
4738000000.0 -0.5364 0.8907
4741000000.0 0.4016 0.9738
4744000000.0 1.02 0.3505
4747000000.0 0.9179 -0.5345
4750000000.0 0.1743 -1.04
4753000000.0 -0.7362 -0.808
4756000000.0 -1.042 0.06388
4759000000.0 -0.6454 0.8652
4762000000.0 0.2244 1.09
4766000000.0 0.9803 0.5231
4769000000.0 1.032 -0.4383
4772000000.0 0.3433 -1.094
4775000000.0 -0.6087 -0.9884
4778000000.0 -1.169 -0.1592
4781000000.0 -0.8636 0.799
4784000000.0 0.05974 1.216
4788000000.0 0.9478 0.6893
4791000000.0 1.196 -0.2691
4794000000.0 0.5668 -1.099
4797000000.0 -0.481 -1.163
4800000000.0 -1.186 -0.3911
4803000000.0 -1.04 0.6365
4806000000.0 -0.1832 1.258
4809000000.0 0.8444 0.9441
4812000000.0 1.255 -0.008017
4816000000.0 0.803 -1.008
4819000000.0 -0.2743 -1.305
4822000000.0 -1.173 -0.6412
4825000000.0 -1.259 0.5192
4828000000.0 -0.3884 1.315
4831000000.0 0.7584 1.176
4834000000.0 1.384 0.1447
4838000000.0 0.9705 -0.9768
4841000000.0 -0.1189 -1.407
4844000000.0 -1.154 -0.7941
4847000000.0 -1.326 0.422
4850000000.0 -0.5395 1.303
4853000000.0 0.6686 1.201
4856000000.0 1.344 0.2738
4859000000.0 1.047 -0.8762
4862000000.0 -0.01128 -1.378
4866000000.0 -1.068 -0.83
4869000000.0 -1.328 0.2834
4872000000.0 -0.6079 1.173
4875000000.0 0.5331 1.196
4878000000.0 1.261 0.3551
4881000000.0 1.057 -0.7506
4884000000.0 0.06546 -1.243
4888000000.0 -0.9518 -0.8367
4891000000.0 -1.197 0.2417
4894000000.0 -0.6068 1.056
4897000000.0 0.4443 1.099
4900000000.0 1.127 0.3269
4903000000.0 0.946 -0.6443
4906000000.0 0.1021 -1.087
4909000000.0 -0.7805 -0.7299
4912000000.0 -1.051 0.1387
4916000000.0 -0.5135 0.8714
4919000000.0 0.3354 0.951
4922000000.0 0.934 0.3846
4925000000.0 0.8583 -0.5089
4928000000.0 0.1754 -0.9694
4931000000.0 -0.655 -0.6952
4934000000.0 -0.9514 0.01999
4938000000.0 -0.5822 0.7504
4941000000.0 0.2162 0.9013
4944000000.0 0.8305 0.4207
4947000000.0 0.8638 -0.421
4950000000.0 0.2585 -0.9111
4953000000.0 -0.5725 -0.7648
4956000000.0 -0.9825 -0.04313
4959000000.0 -0.6522 0.6972
4962000000.0 0.1619 0.983
4966000000.0 0.826 0.4708
4969000000.0 0.9371 -0.3384
4972000000.0 0.3262 -0.9417
4975000000.0 -0.5134 -0.8568
4978000000.0 -1.013 -0.1371
4981000000.0 -0.7447 0.6868
4984000000.0 0.06052 1.027
4988000000.0 0.8532 0.5945
4991000000.0 1.054 -0.2555
4994000000.0 0.4682 -0.9529
4997000000.0 -0.4625 -1.005
5000000000.0 -1.082 -0.287
5003000000.0 -0.9211 0.6365
5006000000.0 -0.0844 1.175
5009000000.0 0.8334 0.8418
5012000000.0 1.202 -0.1605
5016000000.0 0.6725 -1.038
5019000000.0 -0.3807 -1.192
5022000000.0 -1.176 -0.465
5025000000.0 -1.124 0.6
5028000000.0 -0.2559 1.239
5031000000.0 0.7864 0.9671
5034000000.0 1.294 -0.02899
5038000000.0 0.8227 -0.9957
5041000000.0 -0.2211 -1.286
5044000000.0 -1.127 -0.6242
5047000000.0 -1.201 0.4599
5050000000.0 -0.3972 1.193
5053000000.0 0.6424 1.107
5056000000.0 1.292 0.1958
5059000000.0 0.9894 -0.8741
5062000000.0 -0.0034 -1.325
5066000000.0 -1.029 -0.7826
5069000000.0 -1.265 0.2815
5072000000.0 -0.5772 1.141
5075000000.0 0.4607 1.195
5078000000.0 1.224 0.3757
5081000000.0 1.072 -0.7094
5084000000.0 0.1629 -1.245
5088000000.0 -0.8508 -0.9101
5091000000.0 -1.217 0.1095
5094000000.0 -0.6963 0.9374
5097000000.0 0.294 1.122
5100000000.0 1.018 0.5061
5103000000.0 1.04 -0.4464
5106000000.0 0.3115 -1.04
5109000000.0 -0.6418 -0.9517
5112000000.0 -1.063 -0.1469
5116000000.0 -0.7808 0.738
5119000000.0 0.08273 1.075
5122000000.0 0.8392 0.6579
5125000000.0 1.017 -0.2466
5128000000.0 0.4585 -0.9344
5131000000.0 -0.4311 -0.9228
5134000000.0 -0.9801 -0.2721
5138000000.0 -0.7858 0.5736
5141000000.0 -0.06767 0.9598
5144000000.0 0.6976 0.6561
5147000000.0 0.9442 -0.1487
5150000000.0 0.4788 -0.8257
5153000000.0 -0.2971 -0.891
5156000000.0 -0.8443 -0.3382
5159000000.0 -0.7879 0.4552
5162000000.0 -0.1248 0.9044
5166000000.0 0.6194 0.6778
5169000000.0 0.8994 -0.03431
5172000000.0 0.5537 -0.7443
5175000000.0 -0.2499 -0.8646
5178000000.0 -0.832 -0.386
5181000000.0 -0.7999 0.4121
5184000000.0 -0.1757 0.8927
5188000000.0 0.589 0.714
5191000000.0 0.9281 -0.0108
5194000000.0 0.5389 -0.7564
5197000000.0 -0.2379 -0.8914
5200000000.0 -0.8599 -0.403
5203000000.0 -0.849 0.4106
5206000000.0 -0.1962 0.9307
5209000000.0 0.5957 0.7579
5212000000.0 0.9473 0.01003
5216000000.0 0.6052 -0.7631
5219000000.0 -0.1931 -0.9785
5222000000.0 -0.8626 -0.4403
5225000000.0 -0.9026 0.4042
5228000000.0 -0.268 0.9592
5231000000.0 0.578 0.8175
5234000000.0 1.009 0.07045
5238000000.0 0.7312 -0.7681
5241000000.0 -0.1053 -1.048
5244000000.0 -0.898 -0.5371
5247000000.0 -1.042 0.3236
5250000000.0 -0.4013 1.009
5253000000.0 0.5349 0.9352
5256000000.0 1.061 0.228
5259000000.0 0.8412 -0.6868
5262000000.0 0.02252 -1.062
5266000000.0 -0.8372 -0.7278
5269000000.0 -1.067 0.1661
5272000000.0 -0.5556 0.933
5275000000.0 0.3425 1.031
5278000000.0 1.033 0.4037
5281000000.0 0.9664 -0.5392
5284000000.0 0.2422 -1.101
5288000000.0 -0.6635 -0.892
5291000000.0 -1.127 -0.09457
5294000000.0 -0.7851 0.8019
5297000000.0 0.1251 1.128
5300000000.0 0.916 0.612
5303000000.0 1.101 -0.2692
5306000000.0 0.481 -1.023
5309000000.0 -0.4408 -1.064
5312000000.0 -1.116 -0.2769
5316000000.0 -0.901 0.6565
5319000000.0 -0.1128 1.151
5322000000.0 0.778 0.8412
5325000000.0 1.145 -0.07948
5328000000.0 0.6545 -0.9281
5331000000.0 -0.3122 -1.109
5334000000.0 -1.054 -0.4884
5338000000.0 -1.019 0.5251
5341000000.0 -0.2731 1.134
5344000000.0 0.6702 0.9089
5347000000.0 1.135 0.0648
5350000000.0 0.7601 -0.8513
5353000000.0 -0.1842 -1.085
5356000000.0 -0.956 -0.5446
5359000000.0 -1.029 0.3674
5362000000.0 -0.3651 1.015
5366000000.0 0.5561 0.9284
5369000000.0 1.061 0.1364
5372000000.0 0.7471 -0.7101
5375000000.0 -0.1205 -1.063
5378000000.0 -0.8758 -0.5565
5381000000.0 -0.9884 0.3381
5384000000.0 -0.3473 0.9271
5388000000.0 0.5133 0.8661
5391000000.0 0.9909 0.1081
5394000000.0 0.6785 -0.6518
5397000000.0 -0.1299 -0.9127
5400000000.0 -0.7874 -0.5139
5403000000.0 -0.8664 0.2741
5406000000.0 -0.3043 0.8768
5409000000.0 0.4992 0.7619
5412000000.0 0.9015 0.09798
5416000000.0 0.582 -0.6161
5419000000.0 -0.09855 -0.8517
5422000000.0 -0.7478 -0.4562
5425000000.0 -0.8125 0.2945
5428000000.0 -0.301 0.8295
5431000000.0 0.4867 0.7451
5434000000.0 0.8806 0.08558
5438000000.0 0.6261 -0.636
5441000000.0 -0.1061 -0.8538
5444000000.0 -0.7771 -0.4384
5447000000.0 -0.8438 0.3002
5450000000.0 -0.2588 0.8617
5453000000.0 0.4791 0.7239
5456000000.0 0.8953 0.07665
5459000000.0 0.6563 -0.6122
5462000000.0 -0.06778 -0.905
5466000000.0 -0.7328 -0.5466
5469000000.0 -0.8675 0.2517
5472000000.0 -0.3848 0.8186
5475000000.0 0.4142 0.8259
5478000000.0 0.9305 0.2053
5481000000.0 0.7863 -0.5735
5484000000.0 0.08054 -0.941
5488000000.0 -0.6928 -0.6767
5491000000.0 -0.9511 0.1109
5494000000.0 -0.5193 0.8407
5497000000.0 0.2749 0.9648
5500000000.0 0.9022 0.4135
5503000000.0 0.8839 -0.4671
5506000000.0 0.2363 -1.013
5509000000.0 -0.5837 -0.8206
5512000000.0 -1.058 -0.05203
5516000000.0 -0.7028 0.7495
5519000000.0 0.1239 1.042
5522000000.0 0.8617 0.611
5525000000.0 1.016 -0.2839
5528000000.0 0.4674 -0.956
5531000000.0 -0.4285 -0.9569
5534000000.0 -0.9949 -0.2786
5538000000.0 -0.8692 0.5714
5541000000.0 -0.1197 1.081
5544000000.0 0.7721 0.7487
5547000000.0 1.08 -0.06971
5550000000.0 0.5864 -0.8561
5553000000.0 -0.2772 -1.049
5556000000.0 -0.9749 -0.4714
5559000000.0 -0.9647 0.4741
5562000000.0 -0.2288 1.009
5566000000.0 0.6119 0.8222
5569000000.0 1.028 0.06778
5572000000.0 0.7018 -0.7121
5575000000.0 -0.1407 -1.024
5578000000.0 -0.8734 -0.5388
5581000000.0 -0.9417 0.3378
5584000000.0 -0.3595 0.938
5588000000.0 0.4838 0.8466
5591000000.0 0.947 0.1851
5594000000.0 0.7431 -0.6118
5597000000.0 -0.03052 -0.9705
5600000000.0 -0.7102 -0.5876
5603000000.0 -0.8731 0.1776
5606000000.0 -0.431 0.8173
5609000000.0 0.3426 0.8329
5612000000.0 0.8335 0.2142
5616000000.0 0.7248 -0.509
5619000000.0 0.0818 -0.8754
5622000000.0 -0.6392 -0.573
5625000000.0 -0.8556 0.1382
5628000000.0 -0.4455 0.7215
5631000000.0 0.2821 0.7725
5634000000.0 0.7957 0.2526
5638000000.0 0.7304 -0.4879
5641000000.0 0.09769 -0.824
5644000000.0 -0.6008 -0.5931
5647000000.0 -0.8317 0.09916
5650000000.0 -0.4463 0.7087
5653000000.0 0.2987 0.7841
5656000000.0 0.8115 0.2907
5659000000.0 0.7483 -0.4499
5662000000.0 0.0699 -0.8429
5666000000.0 -0.6127 -0.6001
5669000000.0 -0.8822 0.08287
5672000000.0 -0.4613 0.7419
5675000000.0 0.2866 0.866
5678000000.0 0.844 0.3146
5681000000.0 0.7788 -0.4985
5684000000.0 0.1265 -0.9182
5688000000.0 -0.6686 -0.6832
5691000000.0 -0.9218 0.06963
5694000000.0 -0.5067 0.8007
5697000000.0 0.2757 0.9291
5700000000.0 0.9379 0.3802
5703000000.0 0.8511 -0.4497
5706000000.0 0.1637 -0.9933
5709000000.0 -0.6675 -0.8035
5712000000.0 -1.017 0.01589
5716000000.0 -0.6607 0.838
5719000000.0 0.235 1.023
5722000000.0 0.9306 0.4866
5725000000.0 0.9711 -0.4095
5728000000.0 0.3144 -1.025
5731000000.0 -0.5945 -0.9413
5734000000.0 -1.096 -0.1106
5738000000.0 -0.7969 0.7667
5741000000.0 0.09054 1.084
5744000000.0 0.8936 0.6211
5747000000.0 1.058 -0.2911
5750000000.0 0.4553 -1.009
5753000000.0 -0.5019 -1.021
5756000000.0 -1.088 -0.2681
5759000000.0 -0.8959 0.6073
5762000000.0 -0.1073 1.104
5766000000.0 0.7801 0.7586
5769000000.0 1.109 -0.1322
5772000000.0 0.5745 -0.9081
5775000000.0 -0.2948 -1.052
5778000000.0 -0.9936 -0.4613
5781000000.0 -0.9805 0.4945
5784000000.0 -0.2625 1.024
5788000000.0 0.6602 0.8988
5791000000.0 1.111 0.04732
5794000000.0 0.763 -0.8056
5797000000.0 -0.1581 -1.05
5800000000.0 -0.9257 -0.5473
5803000000.0 -1.046 0.3084
5806000000.0 -0.3654 0.9982
5809000000.0 0.5397 0.9432
5812000000.0 1.02 0.2135
5816000000.0 0.7763 -0.6962
5819000000.0 -0.007636 -1.074
5822000000.0 -0.785 -0.6583
5825000000.0 -0.9709 0.1927
5828000000.0 -0.4793 0.9127
5831000000.0 0.3777 0.9119
5834000000.0 0.9699 0.2894
5838000000.0 0.8393 -0.5494
5841000000.0 0.07325 -0.9992
5844000000.0 -0.7167 -0.6604
5847000000.0 -0.9521 0.1399
5850000000.0 -0.478 0.7972
5853000000.0 0.3197 0.9014
5856000000.0 0.8687 0.3162
5859000000.0 0.7937 -0.4987
5862000000.0 0.1078 -0.9471
5866000000.0 -0.6455 -0.6652
5869000000.0 -0.9118 0.06767
5872000000.0 -0.5033 0.7365
5875000000.0 0.2563 0.8661
5878000000.0 0.8298 0.3006
5881000000.0 0.7436 -0.4706
5884000000.0 0.1278 -0.8607
5888000000.0 -0.5828 -0.6416
5891000000.0 -0.8491 0.0877
5894000000.0 -0.4847 0.7145
5897000000.0 0.1997 0.8098
5900000000.0 0.7764 0.3413
5903000000.0 0.7907 -0.3896
5906000000.0 0.1734 -0.8574
5909000000.0 -0.5514 -0.651
5912000000.0 -0.854 -0.03441
5916000000.0 -0.4953 0.6929
5919000000.0 0.221 0.8612
5922000000.0 0.7683 0.4289
5925000000.0 0.8129 -0.3167
5928000000.0 0.234 -0.8387
5931000000.0 -0.4787 -0.7435
5934000000.0 -0.8895 -0.06592
5938000000.0 -0.6304 0.6183
5941000000.0 0.06054 0.8862
5944000000.0 0.7325 0.5188
5947000000.0 0.861 -0.2251
5950000000.0 0.3796 -0.8264
5953000000.0 -0.411 -0.8258
5956000000.0 -0.8717 -0.2476
5959000000.0 -0.7427 0.5185
5962000000.0 -0.1022 0.9296
5966000000.0 0.6653 0.6489
5969000000.0 0.9224 -0.07927
5972000000.0 0.5231 -0.78
5975000000.0 -0.2607 -0.9124
5978000000.0 -0.8927 -0.4162
5981000000.0 -0.8699 0.4357
5984000000.0 -0.2271 0.9458
5988000000.0 0.5923 0.7938
5991000000.0 0.9773 0.07446
5994000000.0 0.6955 -0.7696
5997000000.0 -0.1337 -0.9933
6000000000.0 -0.8378 -0.57
6003000000.0 -0.9536 0.3111
6006000000.0 -0.3418 0.9433
6009000000.0 0.4959 0.8696
6012000000.0 1.01 0.1721
6016000000.0 0.7727 -0.5996
6019000000.0 -0.009728 -0.9712
6022000000.0 -0.756 -0.6284
6025000000.0 -0.9771 0.2187
6028000000.0 -0.4301 0.8885
6031000000.0 0.373 0.9164
6034000000.0 0.9388 0.2682
6038000000.0 0.8164 -0.5635
6041000000.0 0.09002 -0.979
6044000000.0 -0.6891 -0.6567
6047000000.0 -0.9679 0.09869
6050000000.0 -0.4744 0.7864
6053000000.0 0.3173 0.8916
6056000000.0 0.8911 0.336
6059000000.0 0.8317 -0.4838
6062000000.0 0.1011 -0.8894
6066000000.0 -0.6197 -0.682
6069000000.0 -0.9075 0.07909
6072000000.0 -0.5155 0.7642
6075000000.0 0.2554 0.86
6078000000.0 0.812 0.3318
6081000000.0 0.7672 -0.4405
6084000000.0 0.1575 -0.8349
6088000000.0 -0.5575 -0.6629
6091000000.0 -0.8494 0.00579
6094000000.0 -0.5304 0.6874
6097000000.0 0.2167 0.8489
6100000000.0 0.7665 0.3544
6103000000.0 0.7967 -0.359
6106000000.0 0.1921 -0.8438
6109000000.0 -0.505 -0.694
6112000000.0 -0.8743 -0.0124
6116000000.0 -0.5622 0.6668
6119000000.0 0.1546 0.8321
6122000000.0 0.7817 0.4057
6125000000.0 0.7852 -0.346
6128000000.0 0.2381 -0.8492
6131000000.0 -0.5209 -0.6826
6134000000.0 -0.8411 -0.06948
6138000000.0 -0.5744 0.6133
6141000000.0 0.106 0.8696
6144000000.0 0.78 0.4701
6147000000.0 0.8288 -0.2878
6150000000.0 0.2951 -0.8287
6153000000.0 -0.4724 -0.7533
6156000000.0 -0.8907 -0.1482
6159000000.0 -0.6674 0.6155
6162000000.0 0.04375 0.9143
6166000000.0 0.6962 0.5351
6169000000.0 0.8886 -0.2172
6172000000.0 0.3782 -0.8223
6175000000.0 -0.3937 -0.8331
6178000000.0 -0.9444 -0.1989
6181000000.0 -0.7656 0.571
6184000000.0 -0.01668 0.9344
6188000000.0 0.6939 0.5975
6191000000.0 0.9124 -0.1581
6194000000.0 0.469 -0.825
6197000000.0 -0.3448 -0.9097
6200000000.0 -0.8844 -0.304
6203000000.0 -0.8059 0.49
6206000000.0 -0.1215 0.9324
6209000000.0 0.6209 0.6918
6212000000.0 0.909 -0.07711
6216000000.0 0.5223 -0.736
6219000000.0 -0.2227 -0.9133
6222000000.0 -0.8542 -0.3856
6225000000.0 -0.8326 0.3671
6228000000.0 -0.2236 0.8988
6231000000.0 0.5171 0.7551
6234000000.0 0.9294 0.05295
6238000000.0 0.6217 -0.6659
6241000000.0 -0.1154 -0.8651
6244000000.0 -0.6974 -0.4636
6247000000.0 -0.8325 0.2828
6250000000.0 -0.3238 0.7745
6253000000.0 0.3915 0.7287
6256000000.0 0.82 0.1835
6259000000.0 0.6551 -0.4914
6262000000.0 0.03504 -0.8283
6266000000.0 -0.6193 -0.5669
6269000000.0 -0.808 0.1178
