! Created with skrf 1.8.0 (http://scikit-rf.org).
# Hz S RI R 50.0 
!freq ReS11 ImS11
4000000000.0 -0.1771 -1.493
4003000000.0 -1.239 -0.764
4006000000.0 -1.42 0.4892
4009000000.0 -0.5388 1.412
4012000000.0 0.7818 1.256
4016000000.0 1.503 0.2244
4019000000.0 1.125 -1.047
4022000000.0 -0.07016 -1.571
4025000000.0 -1.308 -0.931
4028000000.0 -1.508 0.4607
4031000000.0 -0.578 1.447
4034000000.0 0.8361 1.361
4038000000.0 1.649 0.2647
4041000000.0 1.185 -1.158
4044000000.0 -0.11 -1.619
4047000000.0 -1.334 -0.9233
4050000000.0 -1.571 0.457
4053000000.0 -0.6011 1.473
4056000000.0 0.7573 1.411
4059000000.0 1.559 0.3391
4062000000.0 1.242 -1.003
4066000000.0 0.05071 -1.593
4069000000.0 -1.212 -1.054
4072000000.0 -1.561 0.2843
4075000000.0 -0.8055 1.403
4078000000.0 0.5703 1.505
4081000000.0 1.572 0.5539
4084000000.0 1.402 -0.8355
4088000000.0 0.2346 -1.61
4091000000.0 -1.091 -1.235
4094000000.0 -1.642 0.05334
4097000000.0 -0.9455 1.325
4100000000.0 0.3727 1.6
4103000000.0 1.439 0.698
4106000000.0 1.432 -0.6506
4109000000.0 0.4655 -1.477
4112000000.0 -0.836 -1.262
4116000000.0 -1.463 -0.2303
4119000000.0 -1.1 0.9985
4122000000.0 0.02174 1.471
4125000000.0 1.125 0.9336
4128000000.0 1.448 -0.2004
4131000000.0 0.7524 -1.221
4134000000.0 -0.4345 -1.403
4138000000.0 -1.354 -0.6271
4141000000.0 -1.368 0.6412
4144000000.0 -0.3933 1.452
4147000000.0 0.8557 1.188
4150000000.0 1.507 0.1169
4153000000.0 1.109 -1.059
4156000000.0 -0.145 -1.514
4159000000.0 -1.255 -0.867
4162000000.0 -1.441 0.3943
4166000000.0 -0.6644 1.362
4169000000.0 0.622 1.367
4172000000.0 1.457 0.3981
4175000000.0 1.224 -0.8524
4178000000.0 0.1538 -1.501
4181000000.0 -1.018 -1.072
4184000000.0 -1.511 0.08983
4188000000.0 -0.8815 1.235
4191000000.0 0.3582 1.465
4194000000.0 1.387 0.6495
4197000000.0 1.386 -0.6758
4200000000.0 0.37 -1.556
4203000000.0 -0.9586 -1.274
4206000000.0 -1.631 -0.0549
4209000000.0 -1.021 1.246
4212000000.0 0.3585 1.598
4216000000.0 1.498 0.7116
4219000000.0 1.472 -0.7289
4222000000.0 0.3154 -1.651
4225000000.0 -1.113 -1.265
4228000000.0 -1.654 0.106
4231000000.0 -0.9115 1.398
4234000000.0 0.5676 1.551
4238000000.0 1.568 0.5169
4241000000.0 1.328 -0.9382
4244000000.0 0.09649 -1.647
4247000000.0 -1.223 -0.9911
4250000000.0 -1.566 0.3173
4253000000.0 -0.6945 1.384
4256000000.0 0.7077 1.38
4259000000.0 1.515 0.2898
4262000000.0 1.133 -0.9581
4266000000.0 -0.07262 -1.485
4269000000.0 -1.222 -0.828
4272000000.0 -1.404 0.4312
4275000000.0 -0.5243 1.371
4278000000.0 0.7397 1.226
4281000000.0 1.409 0.202
4284000000.0 0.9871 -0.9984
4288000000.0 -0.1754 -1.375
4291000000.0 -1.15 -0.7317
4294000000.0 -1.26 0.4041
4297000000.0 -0.4856 1.237
4300000000.0 0.6402 1.113
4303000000.0 1.262 0.2182
4306000000.0 0.9986 -0.8055
4309000000.0 -0.01037 -1.274
4312000000.0 -0.98 -0.8563
4316000000.0 -1.27 0.2056
4319000000.0 -0.6515 1.083
4322000000.0 0.4329 1.215
4325000000.0 1.224 0.4523
4328000000.0 1.14 -0.6234
4331000000.0 0.2868 -1.321
4334000000.0 -0.827 -1.057
4338000000.0 -1.395 -0.007036
4341000000.0 -0.9042 1.075
4344000000.0 0.2602 1.359
4347000000.0 1.209 0.7142
4350000000.0 1.331 -0.4853
4353000000.0 0.4747 -1.359
4356000000.0 -0.7123 -1.249
4359000000.0 -1.444 -0.2357
4362000000.0 -1.114 0.9279
4366000000.0 0.007245 1.478
4369000000.0 1.147 0.9124
4372000000.0 1.44 -0.2875
4375000000.0 0.7094 -1.266
4378000000.0 -0.5643 -1.365
4381000000.0 -1.444 -0.4311
4384000000.0 -1.295 0.8152
4388000000.0 -0.1556 1.544
4391000000.0 1.092 1.084
4394000000.0 1.569 -0.1578
4397000000.0 0.8425 -1.311
4400000000.0 -0.519 -1.509
4403000000.0 -1.48 -0.5462
4406000000.0 -1.325 0.8405
4409000000.0 -0.1476 1.548
4412000000.0 1.136 1.134
4416000000.0 1.528 -0.177
4419000000.0 0.7882 -1.33
4422000000.0 -0.5849 -1.419
4425000000.0 -1.457 -0.4028
4428000000.0 -1.228 0.8347
4431000000.0 -0.08421 1.447
4434000000.0 1.094 0.8972
4438000000.0 1.383 -0.2779
4441000000.0 0.6154 -1.267
4444000000.0 -0.5941 -1.208
4447000000.0 -1.321 -0.2776
4450000000.0 -1.02 0.8413
4453000000.0 0.05902 1.338
4456000000.0 1.05 0.7461
4459000000.0 1.239 -0.333
4462000000.0 0.4584 -1.162
4466000000.0 -0.6326 -1.028
4469000000.0 -1.229 -0.109
4472000000.0 -0.8379 0.8715
4475000000.0 0.1687 1.191
4478000000.0 1.026 0.6378
4481000000.0 1.073 -0.4424
4484000000.0 0.3161 -1.091
4488000000.0 -0.6686 -0.9422
4491000000.0 -1.168 -0.0749
4494000000.0 -0.7373 0.8328
4497000000.0 0.2235 1.11
4500000000.0 0.9705 0.5393
4503000000.0 0.9967 -0.4283
4506000000.0 0.3231 -1.072
4509000000.0 -0.6171 -0.8933
4512000000.0 -1.08 -0.08172
4516000000.0 -0.7526 0.7959
4519000000.0 0.09468 1.104
4522000000.0 0.9422 0.5783
4525000000.0 1.06 -0.3745
4528000000.0 0.4056 -1.071
4531000000.0 -0.6101 -0.9893
4534000000.0 -1.135 -0.1927
4538000000.0 -0.8597 0.7683
4541000000.0 0.03528 1.19
4544000000.0 0.9361 0.7131
4547000000.0 1.139 -0.2685
4550000000.0 0.547 -1.06
4553000000.0 -0.4765 -1.123
4556000000.0 -1.167 -0.3589
4559000000.0 -1.035 0.6547
4562000000.0 -0.1458 1.224
4566000000.0 0.8601 0.8863
4569000000.0 1.248 -0.05045
4572000000.0 0.7604 -1.03
4575000000.0 -0.2974 -1.266
4578000000.0 -1.178 -0.5697
4581000000.0 -1.195 0.5128
4584000000.0 -0.3777 1.282
4588000000.0 0.7389 1.136
4591000000.0 1.359 0.1526
4594000000.0 0.9671 -0.9703
4597000000.0 -0.115 -1.37
4600000000.0 -1.12 -0.7829
4603000000.0 -1.322 0.3891
4606000000.0 -0.5584 1.285
4609000000.0 0.6461 1.241
4612000000.0 1.36 0.2648
4616000000.0 1.07 -0.8828
4619000000.0 0.004767 -1.368
4622000000.0 -1.062 -0.867
4625000000.0 -1.338 0.2899
4628000000.0 -0.636 1.228
4631000000.0 0.5145 1.281
4634000000.0 1.322 0.3894
4638000000.0 1.123 -0.7534
4641000000.0 0.07432 -1.355
4644000000.0 -1.019 -0.8879
4647000000.0 -1.328 0.2226
4650000000.0 -0.6293 1.166
4653000000.0 0.4785 1.233
4656000000.0 1.248 0.379
4659000000.0 1.024 -0.7416
4662000000.0 0.05917 -1.276
4666000000.0 -0.9363 -0.8056
4669000000.0 -1.181 0.2123
4672000000.0 -0.5873 1.052
4675000000.0 0.4855 1.076
4678000000.0 1.115 0.3016
4681000000.0 0.9147 -0.6775
4684000000.0 0.03748 -1.124
4688000000.0 -0.8399 -0.7141
4691000000.0 -1.081 0.2105
4694000000.0 -0.5089 0.9849
4697000000.0 0.4712 0.9989
4700000000.0 1.057 0.2569
4703000000.0 0.8648 -0.6225
4706000000.0 0.04832 -1.08
4709000000.0 -0.8529 -0.7056
4712000000.0 -1.056 0.2235
4716000000.0 -0.4705 0.961
4719000000.0 0.4688 0.9605
4722000000.0 1.022 0.2492
4725000000.0 0.8402 -0.6467
4728000000.0 0.03385 -1.042
4731000000.0 -0.7986 -0.6809
4734000000.0 -1.024 0.181
4738000000.0 -0.5086 0.9086
4741000000.0 0.3817 0.961
4744000000.0 0.9994 0.3475
4747000000.0 0.8856 -0.5499
4750000000.0 0.163 -1.056
4753000000.0 -0.7012 -0.8014
4756000000.0 -1.07 0.02523
4759000000.0 -0.6524 0.8753
4762000000.0 0.2669 1.07
4766000000.0 0.9961 0.4897
4769000000.0 1.065 -0.4377
4772000000.0 0.3324 -1.089
4775000000.0 -0.652 -0.948
4778000000.0 -1.144 -0.1218
4781000000.0 -0.8709 0.8259
4784000000.0 0.08637 1.173
4788000000.0 0.979 0.7266
4791000000.0 1.188 -0.2865
4794000000.0 0.5698 -1.077
4797000000.0 -0.4936 -1.149
4800000000.0 -1.194 -0.356
4803000000.0 -1.046 0.6575
4806000000.0 -0.1506 1.229
4809000000.0 0.8448 0.9345
4812000000.0 1.282 -0.05
4816000000.0 0.7828 -1.048
4819000000.0 -0.2696 -1.27
4822000000.0 -1.188 -0.6052
4825000000.0 -1.26 0.5257
4828000000.0 -0.3765 1.316
4831000000.0 0.7829 1.105
4834000000.0 1.369 0.1084
4838000000.0 0.9942 -0.9809
4841000000.0 -0.1544 -1.375
4844000000.0 -1.168 -0.7553
4847000000.0 -1.315 0.4228
4850000000.0 -0.5064 1.268
4853000000.0 0.6761 1.181
4856000000.0 1.338 0.2465
4859000000.0 0.9839 -0.8839
4862000000.0 -0.02384 -1.365
4866000000.0 -1.057 -0.8186
4869000000.0 -1.26 0.2944
4872000000.0 -0.5672 1.161
4875000000.0 0.5457 1.17
4878000000.0 1.245 0.3178
4881000000.0 0.9824 -0.7588
4884000000.0 0.05239 -1.237
4888000000.0 -0.9221 -0.7892
4891000000.0 -1.18 0.237
4894000000.0 -0.563 1.042
4897000000.0 0.4758 1.052
4900000000.0 1.105 0.2849
4903000000.0 0.8895 -0.6285
4906000000.0 0.0651 -1.09
4909000000.0 -0.7935 -0.7196
4912000000.0 -1.044 0.1899
4916000000.0 -0.5348 0.8599
4919000000.0 0.3395 0.9532
4922000000.0 0.9303 0.333
4925000000.0 0.8271 -0.4829
4928000000.0 0.1609 -0.9399
4931000000.0 -0.6367 -0.7143
4934000000.0 -0.9651 0.05713
4938000000.0 -0.5595 0.7416
4941000000.0 0.219 0.9196
4944000000.0 0.8353 0.4095
4947000000.0 0.8579 -0.4276
4950000000.0 0.1945 -0.9254
4953000000.0 -0.5798 -0.7415
4956000000.0 -0.9604 -0.03771
4959000000.0 -0.6238 0.7389
4962000000.0 0.144 0.9466
4966000000.0 0.8423 0.514
4969000000.0 0.9139 -0.3758
4972000000.0 0.2822 -0.9613
4975000000.0 -0.5359 -0.8309
4978000000.0 -0.9846 -0.1214
4981000000.0 -0.7268 0.6843
4984000000.0 0.07524 1.019
4988000000.0 0.8298 0.6122
4991000000.0 1.016 -0.282
4994000000.0 0.4469 -0.9846
4997000000.0 -0.4948 -0.9953
5000000000.0 -1.073 -0.2815
5003000000.0 -0.909 0.668
5006000000.0 -0.06621 1.168
5009000000.0 0.8451 0.812
5012000000.0 1.205 -0.1499
5016000000.0 0.6277 -1.038
5019000000.0 -0.3713 -1.175
5022000000.0 -1.165 -0.4658
5025000000.0 -1.089 0.6022
5028000000.0 -0.2304 1.272
5031000000.0 0.8146 0.9435
5034000000.0 1.295 0.007707
5038000000.0 0.7864 -0.986
5041000000.0 -0.2532 -1.259
5044000000.0 -1.149 -0.6106
5047000000.0 -1.198 0.4642
5050000000.0 -0.3886 1.241
5053000000.0 0.6845 1.119
5056000000.0 1.275 0.2056
5059000000.0 0.9831 -0.8483
5062000000.0 -0.04826 -1.297
5066000000.0 -1.04 -0.8023
5069000000.0 -1.268 0.2474
5072000000.0 -0.6143 1.159
5075000000.0 0.4899 1.163
5078000000.0 1.216 0.3524
5081000000.0 1.041 -0.7341
5084000000.0 0.1265 -1.24
5088000000.0 -0.8561 -0.8643
5091000000.0 -1.19 0.09043
5094000000.0 -0.6753 0.9571
5097000000.0 0.291 1.141
5100000000.0 1.025 0.471
5103000000.0 1.038 -0.5025
5106000000.0 0.3213 -1.074
5109000000.0 -0.6144 -0.9015
5112000000.0 -1.086 -0.1282
5116000000.0 -0.7522 0.7477
5119000000.0 0.09941 1.05
5122000000.0 0.8809 0.6025
5125000000.0 1.002 -0.2803
5128000000.0 0.411 -0.9309
5131000000.0 -0.437 -0.9318
5134000000.0 -0.9786 -0.2084
5138000000.0 -0.7834 0.6
5141000000.0 -0.01711 0.972
5144000000.0 0.7465 0.6379
5147000000.0 0.9511 -0.1108
5150000000.0 0.4717 -0.7928
5153000000.0 -0.3166 -0.8442
5156000000.0 -0.848 -0.3025
5159000000.0 -0.7844 0.4659
5162000000.0 -0.1135 0.8747
5166000000.0 0.6184 0.6415
5169000000.0 0.8815 -0.05092
5172000000.0 0.5489 -0.7305
5175000000.0 -0.2404 -0.8256
5178000000.0 -0.8329 -0.3713
5181000000.0 -0.8077 0.4061
5184000000.0 -0.1641 0.9134
5188000000.0 0.5684 0.6915
5191000000.0 0.9176 -0.05647
5194000000.0 0.5437 -0.7507
5197000000.0 -0.2402 -0.9273
5200000000.0 -0.8614 -0.373
5203000000.0 -0.8253 0.4444
5206000000.0 -0.1829 0.9271
5209000000.0 0.6441 0.74
5212000000.0 0.9531 -0.008364
5216000000.0 0.5762 -0.7706
5219000000.0 -0.1998 -0.9251
5222000000.0 -0.8859 -0.4322
5225000000.0 -0.9103 0.427
5228000000.0 -0.2675 0.9698
5231000000.0 0.6188 0.8238
5234000000.0 1.005 0.06498
5238000000.0 0.6967 -0.7631
5241000000.0 -0.1531 -1.033
5244000000.0 -0.8913 -0.548
5247000000.0 -1.02 0.357
5250000000.0 -0.3904 0.9746
5253000000.0 0.545 0.9269
5256000000.0 1.058 0.1987
5259000000.0 0.8232 -0.685
5262000000.0 -0.01361 -1.106
5266000000.0 -0.8457 -0.6805
5269000000.0 -1.094 0.1747
5272000000.0 -0.5834 0.9481
5275000000.0 0.3602 1.017
5278000000.0 1.013 0.3726
5281000000.0 0.9559 -0.5382
5284000000.0 0.1985 -1.083
5288000000.0 -0.6783 -0.863
5291000000.0 -1.131 -0.05528
5294000000.0 -0.7379 0.8165
5297000000.0 0.1366 1.087
5300000000.0 0.935 0.6142
5303000000.0 1.089 -0.326
5306000000.0 0.4337 -1.03
5309000000.0 -0.5171 -1.043
5312000000.0 -1.072 -0.2866
5316000000.0 -0.9239 0.6755
5319000000.0 -0.09176 1.122
5322000000.0 0.8065 0.827
5325000000.0 1.144 -0.1533
5328000000.0 0.6419 -0.9256
5331000000.0 -0.34 -1.089
5334000000.0 -1.075 -0.4424
5338000000.0 -0.9966 0.5077
5341000000.0 -0.2471 1.12
5344000000.0 0.6964 0.8771
5347000000.0 1.123 0.01664
5350000000.0 0.7221 -0.8288
5353000000.0 -0.2052 -1.076
5356000000.0 -0.9416 -0.5413
5359000000.0 -1.036 0.37
5362000000.0 -0.3171 1.032
5366000000.0 0.5849 0.8799
5369000000.0 1.064 0.1115
5372000000.0 0.7353 -0.7321
5375000000.0 -0.1159 -1.036
5378000000.0 -0.8888 -0.5341
5381000000.0 -0.9241 0.3101
5384000000.0 -0.3184 0.9405
5388000000.0 0.5482 0.8206
5391000000.0 0.9368 0.07042
5394000000.0 0.6318 -0.6798
5397000000.0 -0.1379 -0.9266
5400000000.0 -0.7834 -0.4588
5403000000.0 -0.8477 0.3325
5406000000.0 -0.2907 0.8377
5409000000.0 0.5041 0.729
5412000000.0 0.8561 0.06698
5416000000.0 0.5822 -0.655
5419000000.0 -0.1364 -0.8532
5422000000.0 -0.7455 -0.4361
5425000000.0 -0.8147 0.3053
5428000000.0 -0.2448 0.8151
5431000000.0 0.5111 0.7174
5434000000.0 0.8768 0.05792
5438000000.0 0.601 -0.6702
5441000000.0 -0.149 -0.8487
5444000000.0 -0.7558 -0.4423
5447000000.0 -0.7942 0.3416
5450000000.0 -0.2752 0.8781
5453000000.0 0.5078 0.7245
5456000000.0 0.9019 0.09531
5459000000.0 0.6366 -0.6282
5462000000.0 -0.088 -0.9108
5466000000.0 -0.7532 -0.4944
5469000000.0 -0.8598 0.2053
5472000000.0 -0.3673 0.8346
5475000000.0 0.403 0.8126
5478000000.0 0.9089 0.2117
5481000000.0 0.7614 -0.5409
5484000000.0 0.04442 -0.9434
5488000000.0 -0.7128 -0.6692
5491000000.0 -0.9421 0.1
5494000000.0 -0.5239 0.856
5497000000.0 0.2922 0.9631
5500000000.0 0.9409 0.3714
5503000000.0 0.89 -0.4817
5506000000.0 0.2231 -0.9856
5509000000.0 -0.6207 -0.8201
5512000000.0 -1.005 -0.06504
5516000000.0 -0.6918 0.7292
5519000000.0 0.1152 1.067
5522000000.0 0.8585 0.5792
5525000000.0 1.006 -0.2959
5528000000.0 0.4153 -0.9455
5531000000.0 -0.4745 -0.9595
5534000000.0 -1.026 -0.2205
5538000000.0 -0.8403 0.6373
5541000000.0 -0.06967 1.086
5544000000.0 0.7697 0.745
5547000000.0 1.08 -0.1235
5550000000.0 0.583 -0.8731
5553000000.0 -0.3246 -1.013
5556000000.0 -0.9885 -0.419
5559000000.0 -0.9532 0.4769
5562000000.0 -0.2069 1.06
5566000000.0 0.671 0.8055
5569000000.0 1.04 0.06737
5572000000.0 0.6854 -0.7818
5575000000.0 -0.1538 -1.025
5578000000.0 -0.8595 -0.5322
5581000000.0 -0.9438 0.3464
5584000000.0 -0.3352 0.9118
5588000000.0 0.4731 0.8114
5591000000.0 0.9479 0.1289
5594000000.0 0.6901 -0.6286
5597000000.0 -0.0329 -0.9639
5600000000.0 -0.722 -0.5366
5603000000.0 -0.8903 0.19
5606000000.0 -0.4075 0.8023
5609000000.0 0.3696 0.814
5612000000.0 0.8567 0.1959
5616000000.0 0.6802 -0.519
5619000000.0 0.01793 -0.8555
5622000000.0 -0.6484 -0.5491
5625000000.0 -0.8637 0.1339
5628000000.0 -0.4114 0.7216
5631000000.0 0.3091 0.7539
5634000000.0 0.8009 0.2403
5638000000.0 0.6956 -0.4492
5641000000.0 0.05075 -0.8468
5644000000.0 -0.5996 -0.5716
5647000000.0 -0.8247 0.142
5650000000.0 -0.4184 0.7672
5653000000.0 0.2987 0.7673
5656000000.0 0.8282 0.2534
5659000000.0 0.7186 -0.4672
5662000000.0 0.06027 -0.8761
5666000000.0 -0.6202 -0.599
5669000000.0 -0.8775 0.134
5672000000.0 -0.4461 0.7583
5675000000.0 0.3327 0.8284
5678000000.0 0.8368 0.2796
5681000000.0 0.7552 -0.5079
5684000000.0 0.06854 -0.9624
5688000000.0 -0.6921 -0.6401
5691000000.0 -0.944 0.1337
5694000000.0 -0.5217 0.8218
5697000000.0 0.3053 0.9
5700000000.0 0.9047 0.3405
5703000000.0 0.8319 -0.5131
5706000000.0 0.1315 -0.9774
5709000000.0 -0.6831 -0.746
5712000000.0 -1.008 0.07787
5716000000.0 -0.6018 0.8249
5719000000.0 0.2227 1.012
5722000000.0 0.9529 0.4443
5725000000.0 0.9303 -0.4212
5728000000.0 0.2785 -1.036
5731000000.0 -0.6049 -0.8951
5734000000.0 -1.069 -0.08667
5738000000.0 -0.7432 0.7683
5741000000.0 0.116 1.062
5744000000.0 0.8921 0.6226
5747000000.0 1.045 -0.2773
5750000000.0 0.4364 -1.028
5753000000.0 -0.533 -0.991
5756000000.0 -1.075 -0.233
5759000000.0 -0.876 0.6956
5762000000.0 -0.05391 1.092
5766000000.0 0.845 0.7563
5769000000.0 1.119 -0.1208
5772000000.0 0.5835 -0.9471
5775000000.0 -0.342 -1.063
5778000000.0 -1.011 -0.4112
5781000000.0 -0.9362 0.509
5784000000.0 -0.2279 1.076
5788000000.0 0.6718 0.862
5791000000.0 1.083 0.03837
5794000000.0 0.6678 -0.7926
5797000000.0 -0.164 -1.07
5800000000.0 -0.9464 -0.5511
5803000000.0 -1.02 0.3687
5806000000.0 -0.3497 0.9797
5809000000.0 0.5108 0.8997
5812000000.0 1.039 0.1365
5816000000.0 0.7667 -0.6585
5819000000.0 -0.0648 -1.009
5822000000.0 -0.7912 -0.6053
5825000000.0 -0.9777 0.1858
5828000000.0 -0.4054 0.8786
5831000000.0 0.4237 0.9347
5834000000.0 0.9408 0.2143
5838000000.0 0.7983 -0.5589
5841000000.0 0.02985 -0.9626
5844000000.0 -0.7196 -0.6663
5847000000.0 -0.9534 0.1488
5850000000.0 -0.453 0.8465
5853000000.0 0.3415 0.8329
5856000000.0 0.8728 0.2758
5859000000.0 0.7637 -0.4925
5862000000.0 0.08689 -0.8994
5866000000.0 -0.6615 -0.6042
5869000000.0 -0.9001 0.1348
5872000000.0 -0.4402 0.7795
5875000000.0 0.3156 0.8373
5878000000.0 0.8257 0.2813
5881000000.0 0.728 -0.5138
5884000000.0 0.06898 -0.8805
5888000000.0 -0.663 -0.5866
5891000000.0 -0.8496 0.1349
5894000000.0 -0.4629 0.7568
5897000000.0 0.2725 0.8141
5900000000.0 0.7769 0.3063
5903000000.0 0.7341 -0.3967
5906000000.0 0.1517 -0.8584
5909000000.0 -0.5938 -0.6384
5912000000.0 -0.8424 0.02686
5916000000.0 -0.5192 0.6769
5919000000.0 0.2072 0.8071
5922000000.0 0.7646 0.3599
5925000000.0 0.7682 -0.3446
5928000000.0 0.2189 -0.8672
5931000000.0 -0.5302 -0.6826
5934000000.0 -0.8466 -0.05162
5938000000.0 -0.6268 0.6376
5941000000.0 0.1511 0.866
5944000000.0 0.751 0.4793
5947000000.0 0.8546 -0.2564
5950000000.0 0.3306 -0.8188
5953000000.0 -0.4249 -0.8102
5956000000.0 -0.9002 -0.1997
5959000000.0 -0.7273 0.5822
5962000000.0 -0.02019 0.9658
5966000000.0 0.6937 0.6143
5969000000.0 0.9146 -0.1306
5972000000.0 0.5017 -0.8221
5975000000.0 -0.3011 -0.9074
5978000000.0 -0.9104 -0.3789
5981000000.0 -0.8522 0.476
5984000000.0 -0.1952 0.9564
5988000000.0 0.6155 0.7677
5991000000.0 1.018 0.03919
5994000000.0 0.6246 -0.741
5997000000.0 -0.1946 -1.003
6000000000.0 -0.8676 -0.4932
6003000000.0 -0.9041 0.33
6006000000.0 -0.3187 0.9424
6009000000.0 0.5346 0.8204
6012000000.0 0.9886 0.1192
6016000000.0 0.7582 -0.6753
6019000000.0 -0.06585 -0.9813
6022000000.0 -0.7987 -0.5813
6025000000.0 -0.9713 0.261
6028000000.0 -0.4105 0.8938
6031000000.0 0.4345 0.8799
6034000000.0 0.9453 0.2053
6038000000.0 0.7738 -0.581
6041000000.0 0.04695 -0.9775
6044000000.0 -0.7114 -0.6433
6047000000.0 -0.9332 0.1384
6050000000.0 -0.49 0.8084
6053000000.0 0.3657 0.874
6056000000.0 0.8932 0.2758
6059000000.0 0.7806 -0.5308
6062000000.0 0.07336 -0.9094
6066000000.0 -0.6321 -0.6518
6069000000.0 -0.8811 0.1048
6072000000.0 -0.4618 0.7465
6075000000.0 0.288 0.8241
6078000000.0 0.804 0.2767
6081000000.0 0.7675 -0.4254
6084000000.0 0.1346 -0.8744
6088000000.0 -0.5971 -0.6171
6091000000.0 -0.8722 0.04747
6094000000.0 -0.49 0.6901
6097000000.0 0.2555 0.804
6100000000.0 0.8021 0.3138
6103000000.0 0.7453 -0.4056
6106000000.0 0.1664 -0.8137
6109000000.0 -0.5551 -0.6486
6112000000.0 -0.8333 0.01959
6116000000.0 -0.5323 0.6858
6119000000.0 0.1962 0.8623
6122000000.0 0.7595 0.3561
6125000000.0 0.774 -0.39
6128000000.0 0.2149 -0.8528
6131000000.0 -0.5397 -0.681
6134000000.0 -0.862 -0.02423
6138000000.0 -0.5544 0.6547
6141000000.0 0.1528 0.8475
6144000000.0 0.7625 0.401
6147000000.0 0.82 -0.3331
6150000000.0 0.2799 -0.8353
6153000000.0 -0.4798 -0.7275
6156000000.0 -0.8966 -0.1028
6159000000.0 -0.6313 0.6648
6162000000.0 0.1092 0.9218
6166000000.0 0.7662 0.4827
6169000000.0 0.8983 -0.2858
6172000000.0 0.3637 -0.863
6175000000.0 -0.4581 -0.7888
6178000000.0 -0.9379 -0.1801
6181000000.0 -0.735 0.607
6184000000.0 0.04452 0.9317
6188000000.0 0.7299 0.6056
6191000000.0 0.8954 -0.208
6194000000.0 0.423 -0.8088
6197000000.0 -0.3804 -0.8683
6200000000.0 -0.8918 -0.2399
6203000000.0 -0.7691 0.5127
6206000000.0 -0.0714 0.9539
6209000000.0 0.6501 0.6276
6212000000.0 0.8922 -0.09752
6216000000.0 0.4795 -0.7842
6219000000.0 -0.2435 -0.8711
6222000000.0 -0.8152 -0.3397
6225000000.0 -0.78 0.4597
6228000000.0 -0.2082 0.8668
6231000000.0 0.5718 0.7322
6234000000.0 0.9088 0.01707
6238000000.0 0.5679 -0.6715
6241000000.0 -0.1191 -0.8537
6244000000.0 -0.7341 -0.445
6247000000.0 -0.8243 0.2896
6250000000.0 -0.2635 0.7848
6253000000.0 0.3802 0.7179
6256000000.0 0.8322 0.1366
6259000000.0 0.61 -0.5166
6262000000.0 -0.00852 -0.8106
6266000000.0 -0.6004 -0.5226
6269000000.0 -0.8169 0.1575
6272000000.0 -0.3763 0.694
