! Created with skrf 1.8.0 (http://scikit-rf.org).
# Hz S RI R 50.0 
!freq ReS11 ImS11
4000000000.0 -0.2074 -1.497
4003000000.0 -1.333 -0.7992
4006000000.0 -1.408 0.4746
4009000000.0 -0.4852 1.417
4012000000.0 0.8194 1.272
4016000000.0 1.527 0.2019
4019000000.0 1.126 -1.075
4022000000.0 -0.1397 -1.547
4025000000.0 -1.343 -0.8765
4028000000.0 -1.5 0.4994
4031000000.0 -0.5815 1.521
4034000000.0 0.8502 1.363
4038000000.0 1.642 0.2489
4041000000.0 1.175 -1.167
4044000000.0 -0.1252 -1.654
4047000000.0 -1.381 -0.8684
4050000000.0 -1.582 0.5106
4053000000.0 -0.5657 1.504
4056000000.0 0.7944 1.408
4059000000.0 1.581 0.2904
4062000000.0 1.192 -1.052
4066000000.0 0.01583 -1.658
4069000000.0 -1.236 -1.03
4072000000.0 -1.616 0.3566
4075000000.0 -0.8027 1.43
4078000000.0 0.6113 1.485
4081000000.0 1.556 0.5117
4084000000.0 1.401 -0.8759
4088000000.0 0.1891 -1.641
4091000000.0 -1.141 -1.194
4094000000.0 -1.658 0.1068
4097000000.0 -0.944 1.34
4100000000.0 0.4122 1.576
4103000000.0 1.474 0.7298
4106000000.0 1.405 -0.6811
4109000000.0 0.4123 -1.513
4112000000.0 -0.8459 -1.27
4116000000.0 -1.477 -0.1772
4119000000.0 -1.079 0.9986
4122000000.0 0.06101 1.502
4125000000.0 1.16 0.9557
4128000000.0 1.495 -0.2573
4131000000.0 0.7424 -1.282
4134000000.0 -0.4947 -1.395
4138000000.0 -1.362 -0.5419
4141000000.0 -1.307 0.7006
4144000000.0 -0.3494 1.477
4147000000.0 0.8966 1.209
4150000000.0 1.506 0.1067
4153000000.0 1.074 -1.107
4156000000.0 -0.1386 -1.522
4159000000.0 -1.252 -0.8344
4162000000.0 -1.459 0.3817
4166000000.0 -0.6129 1.396
4169000000.0 0.6716 1.365
4172000000.0 1.465 0.3569
4175000000.0 1.226 -0.8695
4178000000.0 0.1068 -1.495
4181000000.0 -1.083 -1.065
4184000000.0 -1.514 0.1674
4188000000.0 -0.8762 1.246
4191000000.0 0.4367 1.461
4194000000.0 1.426 0.6266
4197000000.0 1.397 -0.7266
4200000000.0 0.3266 -1.515
4203000000.0 -1.0 -1.253
4206000000.0 -1.592 0.02833
4209000000.0 -0.9861 1.337
4212000000.0 0.4007 1.629
4216000000.0 1.518 0.6574
4219000000.0 1.452 -0.8229
4222000000.0 0.2179 -1.708
4225000000.0 -1.187 -1.179
4228000000.0 -1.673 0.2015
4231000000.0 -0.8401 1.434
4234000000.0 0.6196 1.51
4238000000.0 1.576 0.4308
4241000000.0 1.301 -1.005
4244000000.0 -0.02372 -1.552
4247000000.0 -1.246 -0.9501
4250000000.0 -1.534 0.4352
4253000000.0 -0.5738 1.401
4256000000.0 0.756 1.366
4259000000.0 1.525 0.2358
4262000000.0 1.077 -1.005
4266000000.0 -0.1367 -1.536
4269000000.0 -1.273 -0.7995
4272000000.0 -1.373 0.5529
4275000000.0 -0.4811 1.435
4278000000.0 0.8062 1.197
4281000000.0 1.433 0.09876
4284000000.0 0.9538 -1.024
4288000000.0 -0.2559 -1.367
4291000000.0 -1.221 -0.6956
4294000000.0 -1.238 0.4771
4297000000.0 -0.4237 1.289
4300000000.0 0.7435 1.111
4303000000.0 1.296 0.1934
4306000000.0 0.9501 -0.9081
4309000000.0 -0.0459 -1.311
4312000000.0 -1.025 -0.7993
4316000000.0 -1.282 0.2866
4319000000.0 -0.6245 1.156
4322000000.0 0.4537 1.229
4325000000.0 1.239 0.4186
4328000000.0 1.105 -0.6862
4331000000.0 0.2113 -1.339
4334000000.0 -0.8858 -1.027
4338000000.0 -1.4 0.003958
4341000000.0 -0.8885 1.1
4344000000.0 0.306 1.391
4347000000.0 1.249 0.6756
4350000000.0 1.339 -0.5502
4353000000.0 0.4181 -1.371
4356000000.0 -0.7933 -1.187
4359000000.0 -1.471 -0.1771
4362000000.0 -1.042 1.058
4366000000.0 0.09662 1.489
4369000000.0 1.197 0.8313
4372000000.0 1.416 -0.3382
4375000000.0 0.6497 -1.375
4378000000.0 -0.6634 -1.355
4381000000.0 -1.482 -0.3759
4384000000.0 -1.223 0.9424
4388000000.0 -0.04681 1.562
4391000000.0 1.147 1.028
4394000000.0 1.535 -0.2475
4397000000.0 0.798 -1.357
4400000000.0 -0.63 -1.473
4403000000.0 -1.528 -0.4274
4406000000.0 -1.297 0.9614
4409000000.0 -0.04941 1.601
4412000000.0 1.233 0.9802
4416000000.0 1.515 -0.2679
4419000000.0 0.666 -1.403
4422000000.0 -0.6689 -1.351
4425000000.0 -1.415 -0.3021
4428000000.0 -1.116 0.9304
4431000000.0 0.06176 1.432
4434000000.0 1.143 0.8333
4438000000.0 1.339 -0.403
4441000000.0 0.5029 -1.27
4444000000.0 -0.727 -1.17
4447000000.0 -1.345 -0.1444
4450000000.0 -0.9125 0.9114
4453000000.0 0.1527 1.286
4456000000.0 1.109 0.7005
4459000000.0 1.186 -0.4736
4462000000.0 0.3489 -1.213
4466000000.0 -0.7496 -1.038
4469000000.0 -1.215 -0.05107
4472000000.0 -0.7698 0.9325
4475000000.0 0.2676 1.157
4478000000.0 1.076 0.5078
4481000000.0 1.023 -0.5208
4484000000.0 0.2164 -1.148
4488000000.0 -0.7533 -0.8403
4491000000.0 -1.151 0.058
4494000000.0 -0.7012 0.9118
4497000000.0 0.2666 1.1
4500000000.0 1.029 0.4365
4503000000.0 1.037 -0.5147
4506000000.0 0.2275 -1.067
4509000000.0 -0.6779 -0.8428
4512000000.0 -1.114 -0.03479
4516000000.0 -0.7183 0.8946
4519000000.0 0.2315 1.122
4522000000.0 1.006 0.514
4525000000.0 1.073 -0.4152
4528000000.0 0.3305 -1.11
4531000000.0 -0.6587 -0.9614
4534000000.0 -1.187 -0.1002
4538000000.0 -0.8826 0.8442
4541000000.0 0.09807 1.172
4544000000.0 0.9695 0.6505
4547000000.0 1.159 -0.3419
4550000000.0 0.4967 -1.106
4553000000.0 -0.5558 -1.099
4556000000.0 -1.206 -0.2857
4559000000.0 -0.9946 0.7483
4562000000.0 -0.07011 1.259
4566000000.0 0.9183 0.8725
4569000000.0 1.285 -0.1542
4572000000.0 0.7358 -1.086
4575000000.0 -0.371 -1.252
4578000000.0 -1.204 -0.5282
4581000000.0 -1.171 0.6088
4584000000.0 -0.2774 1.329
4588000000.0 0.8314 1.08
4591000000.0 1.391 0.07044
4594000000.0 0.9097 -1.027
4597000000.0 -0.2088 -1.379
4600000000.0 -1.207 -0.7246
4603000000.0 -1.311 0.4859
4606000000.0 -0.4552 1.313
4609000000.0 0.7475 1.201
4612000000.0 1.404 0.1976
4616000000.0 1.054 -0.974
4619000000.0 -0.1024 -1.418
4622000000.0 -1.171 -0.8099
4625000000.0 -1.317 0.3611
4628000000.0 -0.56 1.305
4631000000.0 0.669 1.208
4634000000.0 1.353 0.2994
4638000000.0 1.056 -0.8871
4641000000.0 -0.0379 -1.339
4644000000.0 -1.058 -0.7939
4647000000.0 -1.316 0.371
4650000000.0 -0.5528 1.209
4653000000.0 0.6047 1.15
4656000000.0 1.252 0.2555
4659000000.0 0.942 -0.8446
4662000000.0 -0.05007 -1.26
4666000000.0 -0.9957 -0.7261
4669000000.0 -1.147 0.3037
4672000000.0 -0.4651 1.108
4675000000.0 0.5255 1.032
4678000000.0 1.157 0.2168
4681000000.0 0.8737 -0.7499
4684000000.0 -0.03566 -1.118
4688000000.0 -0.9225 -0.6547
4691000000.0 -1.056 0.2898
4694000000.0 -0.4296 1.029
4697000000.0 0.513 0.9599
4700000000.0 1.072 0.1751
4703000000.0 0.8222 -0.717
4706000000.0 -0.07465 -1.075
4709000000.0 -0.9003 -0.6341
4712000000.0 -1.03 0.3177
4716000000.0 -0.3999 0.9893
4719000000.0 0.5667 0.9139
4722000000.0 1.044 0.1684
4725000000.0 0.8174 -0.7209
4728000000.0 -0.06027 -1.024
4731000000.0 -0.853 -0.6385
4734000000.0 -1.037 0.2892
4738000000.0 -0.4505 0.9186
4741000000.0 0.46 0.9592
4744000000.0 1.003 0.2672
4747000000.0 0.8795 -0.5962
4750000000.0 0.07676 -1.069
4753000000.0 -0.7859 -0.7532
4756000000.0 -1.075 0.1533
4759000000.0 -0.6163 0.9579
4762000000.0 0.3149 1.102
4766000000.0 1.079 0.4593
4769000000.0 1.024 -0.5426
4772000000.0 0.2755 -1.121
4775000000.0 -0.7287 -0.9319
4778000000.0 -1.212 -0.08444
4781000000.0 -0.7967 0.8641
4784000000.0 0.1507 1.202
4788000000.0 1.024 0.6688
4791000000.0 1.178 -0.3696
4794000000.0 0.4966 -1.172
4797000000.0 -0.5775 -1.155
4800000000.0 -1.225 -0.301
4803000000.0 -1.005 0.7213
4806000000.0 -0.09682 1.274
4809000000.0 0.8789 0.9234
4812000000.0 1.297 -0.1332
4816000000.0 0.7337 -1.082
4819000000.0 -0.3769 -1.273
4822000000.0 -1.241 -0.5444
4825000000.0 -1.229 0.6353
4828000000.0 -0.3124 1.382
4831000000.0 0.8732 1.114
4834000000.0 1.379 0.05215
4838000000.0 0.9023 -1.054
4841000000.0 -0.2412 -1.362
4844000000.0 -1.224 -0.6742
4847000000.0 -1.278 0.4699
4850000000.0 -0.4331 1.328
4853000000.0 0.7283 1.171
4856000000.0 1.386 0.1591
4859000000.0 0.9499 -0.9659
4862000000.0 -0.1269 -1.347
4866000000.0 -1.141 -0.7506
4869000000.0 -1.261 0.4035
4872000000.0 -0.4949 1.205
4875000000.0 0.6284 1.13
4878000000.0 1.264 0.2265
4881000000.0 0.9522 -0.7998
4884000000.0 -0.06865 -1.252
4888000000.0 -0.9932 -0.7468
4891000000.0 -1.168 0.2909
4894000000.0 -0.4922 1.064
4897000000.0 0.5395 1.034
4900000000.0 1.133 0.2255
4903000000.0 0.8811 -0.7051
4906000000.0 0.01008 -1.109
4909000000.0 -0.8255 -0.6812
4912000000.0 -1.002 0.2096
4916000000.0 -0.4667 0.9036
4919000000.0 0.4071 0.9146
4922000000.0 0.9299 0.2686
4925000000.0 0.8027 -0.5632
4928000000.0 0.08523 -0.979
4931000000.0 -0.6849 -0.6434
4934000000.0 -0.9104 0.1187
4938000000.0 -0.5073 0.7791
4941000000.0 0.298 0.9174
4944000000.0 0.9103 0.3618
4947000000.0 0.8481 -0.4688
4950000000.0 0.1574 -0.9371
4953000000.0 -0.6495 -0.7341
4956000000.0 -0.9537 0.02957
4959000000.0 -0.5807 0.7703
4962000000.0 0.2291 0.961
4966000000.0 0.8789 0.4114
4969000000.0 0.908 -0.426
4972000000.0 0.2605 -1.001
4975000000.0 -0.5954 -0.833
4978000000.0 -1.008 -0.07011
4981000000.0 -0.7032 0.757
4984000000.0 0.1505 1.021
4988000000.0 0.9152 0.5662
4991000000.0 0.9978 -0.3485
4994000000.0 0.4233 -1.044
4997000000.0 -0.5394 -0.948
5000000000.0 -1.104 -0.2268
5003000000.0 -0.8967 0.7303
5006000000.0 0.003028 1.177
5009000000.0 0.9365 0.7774
5012000000.0 1.179 -0.2388
5016000000.0 0.6031 -1.071
5019000000.0 -0.482 -1.183
5022000000.0 -1.203 -0.4119
5025000000.0 -1.077 0.6683
5028000000.0 -0.1517 1.287
5031000000.0 0.8997 0.9373
5034000000.0 1.292 -0.1272
5038000000.0 0.7525 -1.097
5041000000.0 -0.3285 -1.268
5044000000.0 -1.199 -0.5437
5047000000.0 -1.182 0.5613
5050000000.0 -0.3157 1.236
5053000000.0 0.7156 1.064
5056000000.0 1.294 0.114
5059000000.0 0.8824 -0.9136
5062000000.0 -0.1299 -1.294
5066000000.0 -1.073 -0.7239
5069000000.0 -1.268 0.352
5072000000.0 -0.5031 1.189
5075000000.0 0.557 1.138
5078000000.0 1.252 0.2604
5081000000.0 0.9946 -0.8251
5084000000.0 0.05472 -1.227
5088000000.0 -0.9128 -0.8213
5091000000.0 -1.169 0.2045
5094000000.0 -0.6053 1.008
5097000000.0 0.349 1.119
5100000000.0 1.045 0.4138
5103000000.0 0.9827 -0.5628
5106000000.0 0.2452 -1.076
5109000000.0 -0.6457 -0.8354
5112000000.0 -1.085 -0.05024
5116000000.0 -0.7157 0.7719
5119000000.0 0.1376 1.063
5122000000.0 0.8696 0.5287
5125000000.0 0.9447 -0.3137
5128000000.0 0.3457 -0.9523
5131000000.0 -0.5174 -0.9144
5134000000.0 -0.992 -0.1583
5138000000.0 -0.7116 0.649
5141000000.0 0.01452 0.9692
5144000000.0 0.7869 0.5637
5147000000.0 0.9165 -0.2122
5150000000.0 0.395 -0.8298
5153000000.0 -0.4004 -0.8836
5156000000.0 -0.8907 -0.2284
5159000000.0 -0.7277 0.5345
5162000000.0 -0.02441 0.8973
5166000000.0 0.674 0.5883
5169000000.0 0.8908 -0.1221
5172000000.0 0.4441 -0.7857
5175000000.0 -0.3179 -0.8705
5178000000.0 -0.8623 -0.2953
5181000000.0 -0.766 0.5138
5184000000.0 -0.07224 0.9187
5188000000.0 0.6449 0.6175
5191000000.0 0.9246 -0.1245
5194000000.0 0.497 -0.8168
5197000000.0 -0.3078 -0.8901
5200000000.0 -0.9116 -0.2868
5203000000.0 -0.7856 0.522
5206000000.0 -0.12 0.9448
5209000000.0 0.6616 0.6816
5212000000.0 0.9677 -0.1098
5216000000.0 0.5186 -0.7966
5219000000.0 -0.3039 -0.9389
5222000000.0 -0.9239 -0.3371
5225000000.0 -0.8711 0.4971
5228000000.0 -0.1701 1.047
5231000000.0 0.6741 0.7852
5234000000.0 1.027 -0.0102
5238000000.0 0.653 -0.8239
5241000000.0 -0.2236 -1.035
5244000000.0 -0.9546 -0.4795
5247000000.0 -0.9867 0.4017
5250000000.0 -0.3063 1.018
5253000000.0 0.6136 0.9114
5256000000.0 1.082 0.107
5259000000.0 0.7574 -0.7476
5262000000.0 -0.07048 -1.081
5266000000.0 -0.873 -0.6371
5269000000.0 -1.081 0.2787
5272000000.0 -0.4717 1.004
5275000000.0 0.4253 0.9905
5278000000.0 1.074 0.3285
5281000000.0 0.9304 -0.6219
5284000000.0 0.1356 -1.114
5288000000.0 -0.7374 -0.8157
5291000000.0 -1.093 0.03682
5294000000.0 -0.6927 0.8711
5297000000.0 0.2179 1.097
5300000000.0 1.003 0.5524
5303000000.0 1.096 -0.3952
5306000000.0 0.3843 -1.088
5309000000.0 -0.5851 -0.997
5312000000.0 -1.134 -0.1972
5316000000.0 -0.8702 0.7614
5319000000.0 -0.01222 1.158
5322000000.0 0.8995 0.7277
5325000000.0 1.113 -0.1946
5328000000.0 0.5595 -0.9911
5331000000.0 -0.4147 -1.067
5334000000.0 -1.082 -0.3601
5338000000.0 -0.958 0.6106
5341000000.0 -0.1234 1.12
5344000000.0 0.7807 0.8008
5347000000.0 1.088 -0.1099
5350000000.0 0.6232 -0.8842
5353000000.0 -0.2775 -1.041
5356000000.0 -0.9847 -0.4223
5359000000.0 -0.9695 0.4725
5362000000.0 -0.2272 1.023
5366000000.0 0.6893 0.8324
5369000000.0 1.047 -0.02609
5372000000.0 0.6692 -0.8344
5375000000.0 -0.2152 -0.9793
5378000000.0 -0.9179 -0.4346
5381000000.0 -0.8786 0.4616
5384000000.0 -0.1996 0.9572
5388000000.0 0.6035 0.7362
5391000000.0 0.9617 -0.01794
5394000000.0 0.5826 -0.7861
5397000000.0 -0.2391 -0.911
5400000000.0 -0.8231 -0.3592
5403000000.0 -0.7841 0.43
5406000000.0 -0.1368 0.8659
5409000000.0 0.5818 0.6764
5412000000.0 0.8859 -0.07356
5416000000.0 0.4816 -0.701
5419000000.0 -0.2458 -0.8409
5422000000.0 -0.7904 -0.3333
5425000000.0 -0.7577 0.4127
5428000000.0 -0.169 0.8589
5431000000.0 0.5904 0.6433
5434000000.0 0.8617 -0.04991
5438000000.0 0.5424 -0.717
5441000000.0 -0.2426 -0.8493
5444000000.0 -0.8177 -0.3378
5447000000.0 -0.7857 0.445
5450000000.0 -0.1682 0.9134
5453000000.0 0.5726 0.6729
5456000000.0 0.8965 -0.01151
5459000000.0 0.5533 -0.6951
5462000000.0 -0.1886 -0.8823
5466000000.0 -0.8192 -0.4487
5469000000.0 -0.8567 0.3666
5472000000.0 -0.2714 0.8745
5475000000.0 0.508 0.7978
5478000000.0 0.9283 0.1238
5481000000.0 0.7227 -0.6745
5484000000.0 -0.03894 -0.9605
5488000000.0 -0.7681 -0.5999
5491000000.0 -0.9958 0.211
5494000000.0 -0.4687 0.9098
5497000000.0 0.4149 0.9426
5500000000.0 0.9753 0.2871
5503000000.0 0.8646 -0.5461
5506000000.0 0.1154 -0.989
5509000000.0 -0.6966 -0.7546
5512000000.0 -1.044 0.03199
5516000000.0 -0.6242 0.8422
5519000000.0 0.2595 1.041
5522000000.0 0.9096 0.4858
5525000000.0 1.003 -0.4076
5528000000.0 0.3176 -0.9978
5531000000.0 -0.5536 -0.9097
5534000000.0 -1.045 -0.1563
5538000000.0 -0.7791 0.7071
5541000000.0 0.04915 1.074
5544000000.0 0.8473 0.6532
5547000000.0 1.065 -0.225
5550000000.0 0.4659 -0.9641
5553000000.0 -0.4157 -0.9786
5556000000.0 -0.9994 -0.3107
5559000000.0 -0.8626 0.5994
5562000000.0 -0.1117 1.045
5566000000.0 0.7066 0.7375
5569000000.0 1.02 -0.07668
5572000000.0 0.5695 -0.8623
5575000000.0 -0.2963 -0.9658
5578000000.0 -0.9091 -0.3813
5581000000.0 -0.8676 0.4337
5584000000.0 -0.2196 0.9496
5588000000.0 0.5667 0.7755
5591000000.0 0.9227 0.0177
5594000000.0 0.5992 -0.685
5597000000.0 -0.1816 -0.9315
5600000000.0 -0.8015 -0.4333
5603000000.0 -0.8311 0.3166
5606000000.0 -0.2618 0.8467
5609000000.0 0.4966 0.7237
5612000000.0 0.8843 0.05054
5616000000.0 0.5972 -0.6058
5619000000.0 -0.1121 -0.836
5622000000.0 -0.7045 -0.456
5625000000.0 -0.7871 0.2622
5628000000.0 -0.3067 0.7855
5631000000.0 0.4555 0.7283
5634000000.0 0.8512 0.09662
5638000000.0 0.5908 -0.5868
5641000000.0 -0.04348 -0.8312
5644000000.0 -0.6977 -0.4624
5647000000.0 -0.7978 0.268
5650000000.0 -0.2959 0.7818
5653000000.0 0.4311 0.7346
5656000000.0 0.8581 0.1097
5659000000.0 0.614 -0.6001
5662000000.0 -0.08026 -0.8661
5666000000.0 -0.7426 -0.4917
5669000000.0 -0.8331 0.2452
5672000000.0 -0.3162 0.8494
5675000000.0 0.4504 0.7881
5678000000.0 0.912 0.1698
5681000000.0 0.7058 -0.6273
5684000000.0 -0.04298 -0.9291
5688000000.0 -0.7721 -0.544
5691000000.0 -0.9532 0.268
5694000000.0 -0.3952 0.8941
5697000000.0 0.4596 0.892
5700000000.0 0.9802 0.2102
5703000000.0 0.7887 -0.6172
5706000000.0 0.02537 -1.032
5709000000.0 -0.7849 -0.6762
5712000000.0 -1.04 0.1929
5716000000.0 -0.5097 0.9156
5719000000.0 0.3931 0.988
5722000000.0 1.028 0.3304
5725000000.0 0.8957 -0.5894
5728000000.0 0.1251 -1.12
5731000000.0 -0.7401 -0.8019
5734000000.0 -1.089 0.06994
5738000000.0 -0.6626 0.9087
5741000000.0 0.2371 1.077
5744000000.0 0.9923 0.5001
5747000000.0 1.005 -0.4925
5750000000.0 0.3074 -1.075
5753000000.0 -0.6151 -0.9126
5756000000.0 -1.122 -0.1437
5759000000.0 -0.7825 0.7404
5762000000.0 0.1031 1.083
5766000000.0 0.9129 0.6352
5769000000.0 1.086 -0.3162
5772000000.0 0.4459 -1.005
5775000000.0 -0.5032 -0.9928
5778000000.0 -1.056 -0.2669
5781000000.0 -0.8755 0.6676
5784000000.0 -0.05649 1.118
5788000000.0 0.7863 0.7416
5791000000.0 1.056 -0.1313
5794000000.0 0.6085 -0.8684
5797000000.0 -0.3359 -1.039
5800000000.0 -0.9791 -0.383
5803000000.0 -0.9143 0.5075
5806000000.0 -0.2061 1.032
5809000000.0 0.6763 0.796
5812000000.0 1.065 -0.03489
5816000000.0 0.6206 -0.8313
5819000000.0 -0.2529 -0.9898
5822000000.0 -0.9136 -0.4532
5825000000.0 -0.9135 0.4226
5828000000.0 -0.2448 0.9435
5831000000.0 0.5951 0.7786
5834000000.0 0.9414 0.03807
5838000000.0 0.6413 -0.7127
5841000000.0 -0.1375 -0.9179
5844000000.0 -0.8187 -0.4911
5847000000.0 -0.8857 0.3341
5850000000.0 -0.2759 0.8851
5853000000.0 0.503 0.7846
5856000000.0 0.9418 0.1208
5859000000.0 0.6156 -0.6463
5862000000.0 -0.1168 -0.892
5866000000.0 -0.7575 -0.4541
5869000000.0 -0.8658 0.295
5872000000.0 -0.2797 0.8333
5875000000.0 0.4867 0.729
5878000000.0 0.8817 0.1101
5881000000.0 0.6133 -0.6009
5884000000.0 -0.1048 -0.88
5888000000.0 -0.6996 -0.4583
5891000000.0 -0.8268 0.2533
5894000000.0 -0.3315 0.8412
5897000000.0 0.4281 0.7562
5900000000.0 0.8344 0.1415
5903000000.0 0.6741 -0.6001
5906000000.0 -0.01471 -0.8761
5909000000.0 -0.6979 -0.5349
5912000000.0 -0.8357 0.2063
5916000000.0 -0.4094 0.7901
5919000000.0 0.371 0.8169
5922000000.0 0.8703 0.2654
5925000000.0 0.7144 -0.5083
5928000000.0 0.0418 -0.8879
5931000000.0 -0.6297 -0.6428
5934000000.0 -0.9052 0.1169
5938000000.0 -0.4935 0.7662
5941000000.0 0.2387 0.8754
5944000000.0 0.8505 0.3723
5947000000.0 0.8156 -0.4619
5950000000.0 0.1838 -0.9052
5953000000.0 -0.5592 -0.7383
5956000000.0 -0.9476 -0.01546
5959000000.0 -0.6353 0.697
5962000000.0 0.1245 0.9304
5966000000.0 0.8396 0.4999
5969000000.0 0.8791 -0.3087
5972000000.0 0.3689 -0.9191
5975000000.0 -0.4763 -0.8468
5978000000.0 -0.98 -0.1809
5981000000.0 -0.744 0.6349
5984000000.0 -0.003313 1.015
5988000000.0 0.7852 0.6305
5991000000.0 1.011 -0.2015
5994000000.0 0.4899 -0.865
5997000000.0 -0.3635 -0.942
6000000000.0 -0.9585 -0.3139
6003000000.0 -0.8286 0.526
6006000000.0 -0.1121 0.9861
6009000000.0 0.6877 0.7402
6012000000.0 0.9857 -0.05875
6016000000.0 0.5748 -0.8253
6019000000.0 -0.2908 -0.9624
6022000000.0 -0.9457 -0.4037
6025000000.0 -0.8676 0.4595
6028000000.0 -0.1895 0.9281
6031000000.0 0.6011 0.7715
6034000000.0 0.9653 -0.004976
6038000000.0 0.6139 -0.7363
6041000000.0 -0.1889 -0.9509
6044000000.0 -0.8187 -0.4491
6047000000.0 -0.8572 0.365
6050000000.0 -0.1883 0.8985
6053000000.0 0.5366 0.7498
6056000000.0 0.9133 0.05579
6059000000.0 0.6048 -0.6728
6062000000.0 -0.1728 -0.8811
6066000000.0 -0.8004 -0.4641
6069000000.0 -0.8263 0.317
6072000000.0 -0.2542 0.8371
6075000000.0 0.4661 0.7253
6078000000.0 0.8574 0.0642
6081000000.0 0.6104 -0.6125
6084000000.0 -0.1104 -0.8579
6088000000.0 -0.7191 -0.4601
6091000000.0 -0.7871 0.3072
6094000000.0 -0.3046 0.832
6097000000.0 0.4706 0.7405
6100000000.0 0.8292 0.1028
6103000000.0 0.6012 -0.5894
6106000000.0 -0.08646 -0.8471
6109000000.0 -0.6752 -0.5014
6112000000.0 -0.8281 0.2239
6116000000.0 -0.339 0.7814
6119000000.0 0.4471 0.7692
6122000000.0 0.855 0.1709
6125000000.0 0.6362 -0.5732
6128000000.0 -0.03096 -0.8853
6131000000.0 -0.6935 -0.5313
6134000000.0 -0.8796 0.2422
6138000000.0 -0.3893 0.7843
6141000000.0 0.3978 0.7914
6144000000.0 0.869 0.2225
6147000000.0 0.7374 -0.5308
6150000000.0 0.01528 -0.9253
6153000000.0 -0.6741 -0.6047
6156000000.0 -0.9065 0.1708
6159000000.0 -0.4513 0.8208
6162000000.0 0.3291 0.897
6166000000.0 0.9039 0.2506
6169000000.0 0.8051 -0.4908
6172000000.0 0.09194 -0.9544
6175000000.0 -0.7009 -0.7011
6178000000.0 -0.9565 0.0844
6181000000.0 -0.5472 0.8083
6184000000.0 0.274 0.9299
6188000000.0 0.9139 0.3959
6191000000.0 0.8752 -0.432
6194000000.0 0.1892 -0.9652
6197000000.0 -0.588 -0.7276
6200000000.0 -0.9831 -0.004207
6203000000.0 -0.5788 0.7284
6206000000.0 0.211 0.9329
6209000000.0 0.8199 0.4268
6212000000.0 0.8776 -0.3329
6216000000.0 0.2596 -0.8962
6219000000.0 -0.4873 -0.7759
6222000000.0 -0.9011 -0.123
6225000000.0 -0.685 0.5961
6228000000.0 0.05062 0.8959
6231000000.0 0.7304 0.5104
6234000000.0 0.8522 -0.2421
6238000000.0 0.3702 -0.797
6241000000.0 -0.3922 -0.7726
6244000000.0 -0.8224 -0.1765
6247000000.0 -0.6983 0.4996
6250000000.0 -0.05572 0.8613
6253000000.0 0.5826 0.5817
6256000000.0 0.814 -0.1292
6259000000.0 0.4423 -0.6938
6262000000.0 -0.2387 -0.795
