! Created with skrf 1.8.0 (http://scikit-rf.org).
# Hz S RI R 50.0 
!freq ReS11 ImS11
4000000000.0 -0.2546 -1.49
4003000000.0 -1.254 -0.7431
4006000000.0 -1.405 0.5586
4009000000.0 -0.4533 1.399
4012000000.0 0.823 1.255
4016000000.0 1.526 0.1253
4019000000.0 1.05 -1.124
4022000000.0 -0.2316 -1.561
4025000000.0 -1.351 -0.7785
4028000000.0 -1.546 0.545
4031000000.0 -0.5269 1.51
4034000000.0 0.8761 1.368
4038000000.0 1.643 0.1168
4041000000.0 1.184 -1.141
4044000000.0 -0.2569 -1.61
4047000000.0 -1.408 -0.8665
4050000000.0 -1.542 0.562
4053000000.0 -0.5887 1.539
4056000000.0 0.8721 1.407
4059000000.0 1.605 0.2775
4062000000.0 1.185 -1.078
4066000000.0 -0.08785 -1.655
4069000000.0 -1.283 -0.9958
4072000000.0 -1.57 0.3866
4075000000.0 -0.7478 1.45
4078000000.0 0.6121 1.489
4081000000.0 1.544 0.4658
4084000000.0 1.366 -0.9458
4088000000.0 0.1386 -1.651
4091000000.0 -1.174 -1.185
4094000000.0 -1.664 0.1701
4097000000.0 -0.9112 1.384
4100000000.0 0.4689 1.555
4103000000.0 1.461 0.6531
4106000000.0 1.406 -0.7108
4109000000.0 0.3879 -1.528
4112000000.0 -0.9103 -1.233
4116000000.0 -1.511 -0.09923
4119000000.0 -1.09 1.065
4122000000.0 0.08817 1.481
4125000000.0 1.188 0.8995
4128000000.0 1.434 -0.328
4131000000.0 0.7228 -1.304
4134000000.0 -0.5025 -1.403
4138000000.0 -1.402 -0.5324
4141000000.0 -1.309 0.7175
4144000000.0 -0.3374 1.456
4147000000.0 0.9302 1.189
4150000000.0 1.511 0.08638
4153000000.0 1.025 -1.137
4156000000.0 -0.1977 -1.511
4159000000.0 -1.281 -0.7871
4162000000.0 -1.431 0.4627
4166000000.0 -0.5609 1.391
4169000000.0 0.7146 1.335
4172000000.0 1.454 0.329
4175000000.0 1.189 -0.9354
4178000000.0 0.07684 -1.524
4181000000.0 -1.132 -0.9964
4184000000.0 -1.503 0.1889
4188000000.0 -0.821 1.302
4191000000.0 0.5049 1.45
4194000000.0 1.445 0.561
4197000000.0 1.335 -0.7994
4200000000.0 0.2527 -1.555
4203000000.0 -1.077 -1.189
4206000000.0 -1.59 0.1122
4209000000.0 -0.9572 1.358
4212000000.0 0.5272 1.592
4216000000.0 1.547 0.5605
4219000000.0 1.409 -0.9075
4222000000.0 0.1273 -1.677
4225000000.0 -1.233 -1.126
4228000000.0 -1.654 0.2797
4231000000.0 -0.7533 1.493
4234000000.0 0.7348 1.477
4238000000.0 1.603 0.3083
4241000000.0 1.192 -1.071
4244000000.0 -0.1068 -1.601
4247000000.0 -1.301 -0.8661
4250000000.0 -1.475 0.5254
4253000000.0 -0.4781 1.467
4256000000.0 0.8807 1.273
4259000000.0 1.502 0.1136
4262000000.0 1.036 -1.142
4266000000.0 -0.2555 -1.453
4269000000.0 -1.292 -0.7319
4272000000.0 -1.294 0.5613
4275000000.0 -0.3693 1.453
4278000000.0 0.896 1.122
4281000000.0 1.441 0.02735
4284000000.0 0.8649 -1.069
4288000000.0 -0.2771 -1.355
4291000000.0 -1.232 -0.6072
4294000000.0 -1.215 0.5208
4297000000.0 -0.3388 1.278
4300000000.0 0.7744 1.065
4303000000.0 1.285 0.1013
4306000000.0 0.9225 -0.8916
4309000000.0 -0.09961 -1.273
4312000000.0 -1.068 -0.7131
4316000000.0 -1.245 0.3441
4319000000.0 -0.5588 1.177
4322000000.0 0.5311 1.195
4325000000.0 1.264 0.3574
4328000000.0 1.109 -0.7195
4331000000.0 0.1332 -1.355
4334000000.0 -0.9709 -1.001
4338000000.0 -1.382 0.1039
4341000000.0 -0.8237 1.16
4344000000.0 0.3878 1.376
4347000000.0 1.292 0.6025
4350000000.0 1.287 -0.6091
4353000000.0 0.3896 -1.377
4356000000.0 -0.8883 -1.177
4359000000.0 -1.466 -0.07524
4362000000.0 -0.9961 1.059
4366000000.0 0.1696 1.517
4369000000.0 1.278 0.7892
4372000000.0 1.436 -0.4751
4375000000.0 0.558 -1.399
4378000000.0 -0.7528 -1.329
4381000000.0 -1.5 -0.2917
4384000000.0 -1.149 1.036
4388000000.0 0.0487 1.56
4391000000.0 1.227 0.9198
4394000000.0 1.533 -0.3833
4397000000.0 0.6323 -1.449
4400000000.0 -0.749 -1.407
4403000000.0 -1.52 -0.3088
4406000000.0 -1.194 1.048
4409000000.0 0.09153 1.576
4412000000.0 1.258 0.8788
4416000000.0 1.464 -0.4418
4419000000.0 0.5423 -1.44
4422000000.0 -0.7781 -1.294
4425000000.0 -1.461 -0.191
4428000000.0 -1.04 1.027
4431000000.0 0.2117 1.455
4434000000.0 1.238 0.7118
4438000000.0 1.312 -0.4883
4441000000.0 0.3888 -1.312
4444000000.0 -0.8029 -1.116
4447000000.0 -1.321 -0.01503
4450000000.0 -0.8054 1.034
4453000000.0 0.2691 1.283
4456000000.0 1.188 0.5144
4459000000.0 1.104 -0.5859
4462000000.0 0.2187 -1.238
4466000000.0 -0.8167 -0.9308
4469000000.0 -1.189 0.07138
4472000000.0 -0.6768 1.022
4475000000.0 0.3883 1.128
4478000000.0 1.123 0.3772
4481000000.0 0.9874 -0.6498
4484000000.0 0.1135 -1.131
4488000000.0 -0.8198 -0.8376
4491000000.0 -1.131 0.1183
4494000000.0 -0.6255 0.9815
4497000000.0 0.3974 1.085
4500000000.0 1.066 0.395
4503000000.0 0.9557 -0.5772
4506000000.0 0.1523 -1.105
4509000000.0 -0.8046 -0.8246
4512000000.0 -1.093 0.1145
4516000000.0 -0.6334 0.9421
4519000000.0 0.3157 1.089
4522000000.0 1.083 0.4432
4525000000.0 1.022 -0.5287
4528000000.0 0.2682 -1.126
4531000000.0 -0.7302 -0.898
4534000000.0 -1.201 -0.03669
4538000000.0 -0.7622 0.9212
4541000000.0 0.2042 1.186
4544000000.0 1.057 0.5875
4547000000.0 1.144 -0.4268
4550000000.0 0.4007 -1.167
4553000000.0 -0.6359 -1.086
4556000000.0 -1.213 -0.2149
4559000000.0 -0.9401 0.8101
4562000000.0 0.02362 1.262
4566000000.0 0.9953 0.8093
4569000000.0 1.271 -0.2302
4572000000.0 0.6233 -1.125
4575000000.0 -0.452 -1.242
4578000000.0 -1.257 -0.4264
4581000000.0 -1.142 0.7162
4584000000.0 -0.1933 1.366
4588000000.0 0.9079 1.006
4591000000.0 1.405 -0.07735
4594000000.0 0.821 -1.12
4597000000.0 -0.3176 -1.367
4600000000.0 -1.253 -0.6371
4603000000.0 -1.292 0.5892
4606000000.0 -0.3505 1.352
4609000000.0 0.8566 1.174
4612000000.0 1.423 0.05768
4616000000.0 0.966 -1.032
4619000000.0 -0.2145 -1.397
4622000000.0 -1.179 -0.7061
4625000000.0 -1.313 0.5189
4628000000.0 -0.4475 1.315
4631000000.0 0.7556 1.148
4634000000.0 1.328 0.1054
4638000000.0 0.9815 -0.9655
4641000000.0 -0.1668 -1.327
4644000000.0 -1.098 -0.7344
4647000000.0 -1.247 0.4045
4650000000.0 -0.4385 1.268
4653000000.0 0.6916 1.091
4656000000.0 1.267 0.127
4659000000.0 0.8852 -0.9085
4662000000.0 -0.1509 -1.236
4666000000.0 -1.061 -0.5985
4669000000.0 -1.1 0.4418
4672000000.0 -0.3605 1.165
4675000000.0 0.6551 0.973
4678000000.0 1.168 0.08024
4681000000.0 0.7561 -0.8235
4684000000.0 -0.155 -1.115
4688000000.0 -0.93 -0.563
4691000000.0 -1.03 0.3846
4694000000.0 -0.3461 1.025
4697000000.0 0.6033 0.9248
4700000000.0 1.102 0.09736
4703000000.0 0.7039 -0.8077
4706000000.0 -0.1671 -1.052
4709000000.0 -0.9573 -0.5386
4712000000.0 -1.011 0.4083
4716000000.0 -0.2945 1.044
4719000000.0 0.5788 0.8736
4722000000.0 1.071 0.07643
4725000000.0 0.7385 -0.7933
4728000000.0 -0.1469 -1.068
4731000000.0 -0.895 -0.5515
4734000000.0 -1.02 0.3425
4738000000.0 -0.3777 1.013
4741000000.0 0.5396 0.9651
4744000000.0 1.053 0.1884
4747000000.0 0.8231 -0.696
4750000000.0 0.005644 -1.115
4753000000.0 -0.8362 -0.7195
4756000000.0 -1.132 0.1923
4759000000.0 -0.5626 0.9937
4762000000.0 0.3881 1.057
4766000000.0 1.087 0.3788
4769000000.0 1.013 -0.6177
4772000000.0 0.172 -1.169
4775000000.0 -0.7783 -0.9225
4778000000.0 -1.202 0.009323
4781000000.0 -0.7763 0.9444
4784000000.0 0.2359 1.183
4788000000.0 1.074 0.5791
4791000000.0 1.169 -0.4431
4794000000.0 0.4127 -1.225
4797000000.0 -0.6448 -1.085
4800000000.0 -1.275 -0.2021
4803000000.0 -0.9691 0.8104
4806000000.0 -0.01644 1.274
4809000000.0 0.9868 0.8684
4812000000.0 1.314 -0.2209
4816000000.0 0.6574 -1.165
4819000000.0 -0.4889 -1.265
4822000000.0 -1.298 -0.4453
4825000000.0 -1.188 0.696
4828000000.0 -0.227 1.356
4831000000.0 0.9344 1.033
4834000000.0 1.415 -0.07832
4838000000.0 0.839 -1.14
4841000000.0 -0.3741 -1.359
4844000000.0 -1.264 -0.5966
4847000000.0 -1.248 0.6474
4850000000.0 -0.301 1.345
4853000000.0 0.8396 1.094
4856000000.0 1.359 0.01821
4859000000.0 0.8621 -1.016
4862000000.0 -0.2609 -1.313
4866000000.0 -1.149 -0.6547
4869000000.0 -1.24 0.4866
4872000000.0 -0.3687 1.242
4875000000.0 0.7272 1.052
4878000000.0 1.261 0.1282
4881000000.0 0.856 -0.909
4884000000.0 -0.1319 -1.212
4888000000.0 -1.02 -0.6131
4891000000.0 -1.11 0.4025
4894000000.0 -0.3988 1.091
4897000000.0 0.6153 0.9651
4900000000.0 1.13 0.154
4903000000.0 0.7656 -0.7763
4906000000.0 -0.1106 -1.057
4909000000.0 -0.8878 -0.6035
4912000000.0 -0.9772 0.29
4916000000.0 -0.3603 0.9311
4919000000.0 0.4937 0.8575
4922000000.0 0.9755 0.1707
4925000000.0 0.7298 -0.6416
4928000000.0 0.009077 -0.9175
4931000000.0 -0.729 -0.5777
4934000000.0 -0.8956 0.1736
4938000000.0 -0.4325 0.8219
4941000000.0 0.381 0.8714
4944000000.0 0.8856 0.253
4947000000.0 0.7843 -0.5325
4950000000.0 0.08883 -0.9869
4953000000.0 -0.6963 -0.6853
4956000000.0 -0.9724 0.1121
4959000000.0 -0.5313 0.8249
4962000000.0 0.3087 0.9474
4966000000.0 0.9403 0.3854
4969000000.0 0.8702 -0.4953
4972000000.0 0.1745 -1.009
4975000000.0 -0.6768 -0.7851
4978000000.0 -1.024 0.03671
4981000000.0 -0.6454 0.8434
4984000000.0 0.2241 1.014
4988000000.0 0.9712 0.5058
4991000000.0 1.005 -0.4516
4994000000.0 0.3285 -1.067
4997000000.0 -0.618 -0.9569
5000000000.0 -1.144 -0.1171
5003000000.0 -0.8319 0.8219
5006000000.0 0.07836 1.198
5009000000.0 0.9722 0.708
5012000000.0 1.199 -0.3236
5016000000.0 0.5179 -1.172
5019000000.0 -0.5588 -1.138
5022000000.0 -1.237 -0.2669
5025000000.0 -1.014 0.7836
5028000000.0 -0.05868 1.303
5031000000.0 0.9515 0.8731
5034000000.0 1.312 -0.2071
5038000000.0 0.6501 -1.141
5041000000.0 -0.4538 -1.232
5044000000.0 -1.226 -0.4856
5047000000.0 -1.104 0.6078
5050000000.0 -0.2534 1.251
5053000000.0 0.8385 0.9792
5056000000.0 1.291 0.01347
5059000000.0 0.859 -1.013
5062000000.0 -0.1894 -1.285
5066000000.0 -1.141 -0.6362
5069000000.0 -1.215 0.4729
5072000000.0 -0.4282 1.226
5075000000.0 0.6488 1.081
5078000000.0 1.233 0.1582
5081000000.0 0.9502 -0.8445
5084000000.0 -0.03972 -1.199
5088000000.0 -0.9628 -0.7415
5091000000.0 -1.151 0.2533
5094000000.0 -0.5214 1.042
5097000000.0 0.4412 1.065
5100000000.0 1.119 0.3287
5103000000.0 0.9018 -0.5943
5106000000.0 0.157 -1.097
5109000000.0 -0.7124 -0.8053
5112000000.0 -1.095 0.03582
5116000000.0 -0.6742 0.8385
5119000000.0 0.2499 1.001
5122000000.0 0.9021 0.4459
5125000000.0 0.9162 -0.4015
5128000000.0 0.2352 -0.9694
5131000000.0 -0.5876 -0.8271
5134000000.0 -0.9677 -0.0651
5138000000.0 -0.6518 0.6858
5141000000.0 0.1004 0.935
5144000000.0 0.8098 0.4814
5147000000.0 0.8773 -0.2959
5150000000.0 0.3183 -0.8743
5153000000.0 -0.4803 -0.7747
5156000000.0 -0.8966 -0.1375
5159000000.0 -0.6345 0.6172
5162000000.0 0.06445 0.885
5166000000.0 0.7193 0.556
5169000000.0 0.8567 -0.2482
5172000000.0 0.378 -0.8342
5175000000.0 -0.3991 -0.7916
5178000000.0 -0.8853 -0.2
5181000000.0 -0.6923 0.5782
5184000000.0 0.03444 0.9152
5188000000.0 0.7354 0.5529
5191000000.0 0.9125 -0.2318
5194000000.0 0.4001 -0.8517
5197000000.0 -0.4393 -0.8464
5200000000.0 -0.9574 -0.1922
5203000000.0 -0.7231 0.6078
5206000000.0 0.01217 0.9946
5209000000.0 0.7677 0.5987
5212000000.0 0.9651 -0.2224
5216000000.0 0.4486 -0.9094
5219000000.0 -0.4196 -0.9099
5222000000.0 -0.962 -0.2397
5225000000.0 -0.7918 0.5781
5228000000.0 -0.06601 0.9867
5231000000.0 0.7589 0.697
5234000000.0 1.017 -0.1567
5238000000.0 0.5599 -0.9013
5241000000.0 -0.334 -1.006
5244000000.0 -0.9888 -0.3693
5247000000.0 -0.9495 0.5257
5250000000.0 -0.1932 1.067
5253000000.0 0.6931 0.833
5256000000.0 1.083 0.02524
5259000000.0 0.7103 -0.8483
5262000000.0 -0.1815 -1.074
5266000000.0 -0.941 -0.5554
5269000000.0 -1.035 0.3803
5272000000.0 -0.379 1.035
5275000000.0 0.5607 0.9584
5278000000.0 1.07 0.199
5281000000.0 0.859 -0.6856
5284000000.0 0.02267 -1.106
5288000000.0 -0.8154 -0.7189
5291000000.0 -1.118 0.1415
5294000000.0 -0.6001 0.944
5297000000.0 0.3407 1.073
5300000000.0 1.048 0.4269
5303000000.0 0.9941 -0.5163
5306000000.0 0.2765 -1.087
5309000000.0 -0.7243 -0.8891
5312000000.0 -1.147 -0.05364
5316000000.0 -0.7763 0.8016
5319000000.0 0.1287 1.144
5322000000.0 0.9723 0.619
5325000000.0 1.1 -0.3421
5328000000.0 0.4183 -1.041
5331000000.0 -0.5423 -0.9733
5334000000.0 -1.085 -0.2419
5338000000.0 -0.85 0.7334
5341000000.0 0.004684 1.139
5344000000.0 0.8704 0.6752
5347000000.0 1.071 -0.233
5350000000.0 0.5197 -0.9568
5353000000.0 -0.4261 -0.9532
5356000000.0 -1.008 -0.2702
5359000000.0 -0.865 0.6088
5362000000.0 -0.03626 1.032
5366000000.0 0.7409 0.6929
5369000000.0 1.007 -0.1559
5372000000.0 0.4891 -0.9073
5375000000.0 -0.4045 -0.904
5378000000.0 -0.9645 -0.2415
5381000000.0 -0.798 0.5862
5384000000.0 0.001064 0.9707
5388000000.0 0.7442 0.5677
5391000000.0 0.9167 -0.2046
5394000000.0 0.3947 -0.8054
5397000000.0 -0.3985 -0.7872
5400000000.0 -0.9117 -0.1899
5403000000.0 -0.6821 0.546
5406000000.0 0.02137 0.863
5409000000.0 0.6779 0.5216
5412000000.0 0.8592 -0.2243
5416000000.0 0.3574 -0.7723
5419000000.0 -0.4068 -0.795
5422000000.0 -0.8451 -0.1555
5425000000.0 -0.6844 0.5509
5428000000.0 0.01041 0.8523
5431000000.0 0.722 0.522
5434000000.0 0.8254 -0.2137
5438000000.0 0.3565 -0.7898
5441000000.0 -0.3911 -0.7918
5444000000.0 -0.8594 -0.2001
5447000000.0 -0.7269 0.5429
5450000000.0 -0.03705 0.9094
5453000000.0 0.6613 0.5873
5456000000.0 0.9112 -0.1609
5459000000.0 0.4705 -0.8259
5462000000.0 -0.3363 -0.8832
5466000000.0 -0.8892 -0.3016
5469000000.0 -0.8347 0.4819
5472000000.0 -0.09284 0.9534
5475000000.0 0.6638 0.7134
5478000000.0 0.98 -0.04503
5481000000.0 0.5985 -0.7865
5484000000.0 -0.1803 -1.026
5488000000.0 -0.8917 -0.4884
5491000000.0 -0.9221 0.4074
5494000000.0 -0.3327 0.9512
5497000000.0 0.5619 0.8783
5500000000.0 1.047 0.129
5503000000.0 0.7863 -0.6904
5506000000.0 -0.08518 -1.05
5509000000.0 -0.849 -0.6673
5512000000.0 -1.023 0.2394
5516000000.0 -0.4683 0.9664
5519000000.0 0.4063 0.9848
5522000000.0 1.014 0.289
5525000000.0 0.8795 -0.5909
5528000000.0 0.1274 -1.057
5531000000.0 -0.7192 -0.7803
5534000000.0 -1.082 0.02633
5538000000.0 -0.6611 0.8631
5541000000.0 0.2415 1.04
5544000000.0 0.9585 0.4857
5547000000.0 0.9901 -0.4403
5550000000.0 0.2957 -1.023
5553000000.0 -0.6124 -0.8592
5556000000.0 -1.065 -0.09658
5559000000.0 -0.7159 0.7506
5562000000.0 0.1159 1.04
5566000000.0 0.8795 0.5871
5569000000.0 0.9574 -0.3014
5572000000.0 0.3721 -0.9189
5575000000.0 -0.4409 -0.8698
5578000000.0 -0.9319 -0.1785
5581000000.0 -0.7168 0.6422
5584000000.0 0.02869 0.9131
5588000000.0 0.7371 0.5466
5591000000.0 0.8911 -0.1993
5594000000.0 0.3977 -0.8161
5597000000.0 -0.395 -0.8112
5600000000.0 -0.852 -0.2333
5603000000.0 -0.7148 0.5434
5606000000.0 -0.05102 0.877
5609000000.0 0.6626 0.556
5612000000.0 0.8203 -0.1277
5616000000.0 0.3743 -0.7299
5619000000.0 -0.3083 -0.7456
5622000000.0 -0.7816 -0.2276
5625000000.0 -0.6533 0.4591
5628000000.0 -0.06236 0.7963
5631000000.0 0.5981 0.5464
5634000000.0 0.816 -0.118
5638000000.0 0.4164 -0.7218
5641000000.0 -0.3113 -0.755
5644000000.0 -0.8057 -0.2301
5647000000.0 -0.6805 0.4748
5650000000.0 -0.05121 0.8335
5653000000.0 0.6211 0.5983
5656000000.0 0.8845 -0.1273
5659000000.0 0.4253 -0.7393
5662000000.0 -0.3087 -0.8031
5666000000.0 -0.8391 -0.2784
5669000000.0 -0.7776 0.4852
5672000000.0 -0.06393 0.9162
5675000000.0 0.6831 0.638
5678000000.0 0.9593 -0.1044
5681000000.0 0.5261 -0.8477
5684000000.0 -0.3037 -0.8925
5688000000.0 -0.9229 -0.3431
5691000000.0 -0.8541 0.5308
5694000000.0 -0.1615 1.019
5697000000.0 0.6979 0.7438
5700000000.0 1.036 -0.07993
5703000000.0 0.6085 -0.8917
5706000000.0 -0.2724 -1.02
5709000000.0 -0.9585 -0.4646
5712000000.0 -0.9793 0.4331
5716000000.0 -0.249 1.043
5719000000.0 0.6329 0.8817
5722000000.0 1.128 0.02981
5725000000.0 0.7634 -0.8255
5728000000.0 -0.1537 -1.103
5731000000.0 -0.9375 -0.5729
5734000000.0 -1.081 0.3303
5738000000.0 -0.4361 1.041
5741000000.0 0.5508 1.006
5744000000.0 1.13 0.2017
5747000000.0 0.8434 -0.7088
5750000000.0 -0.02336 -1.116
5753000000.0 -0.8513 -0.7325
5756000000.0 -1.106 0.2331
5759000000.0 -0.5645 0.9912
5762000000.0 0.4051 1.03
5766000000.0 1.056 0.3553
5769000000.0 0.9732 -0.6275
5772000000.0 0.1678 -1.082
5775000000.0 -0.7694 -0.7795
5778000000.0 -1.11 0.04799
5781000000.0 -0.6623 0.8697
5784000000.0 0.2625 1.04
5788000000.0 0.9729 0.4822
5791000000.0 0.9675 -0.4228
5794000000.0 0.2379 -1.031
5797000000.0 -0.6013 -0.8444
5800000000.0 -1.024 -0.07783
5803000000.0 -0.7014 0.7956
5806000000.0 0.1954 1.016
5809000000.0 0.8899 0.5286
5812000000.0 0.9699 -0.3339
5816000000.0 0.279 -0.9482
5819000000.0 -0.537 -0.8171
5822000000.0 -0.9498 -0.0951
5825000000.0 -0.6629 0.7004
5828000000.0 0.1183 0.933
5831000000.0 0.775 0.4589
5834000000.0 0.8683 -0.3241
5838000000.0 0.3006 -0.8747
5841000000.0 -0.4786 -0.7763
5844000000.0 -0.9146 -0.1204
5847000000.0 -0.6211 0.6442
5850000000.0 0.1124 0.9004
5853000000.0 0.7563 0.4607
5856000000.0 0.8675 -0.3099
5859000000.0 0.2886 -0.8448
5862000000.0 -0.4755 -0.7396
5866000000.0 -0.8805 -0.07001
5869000000.0 -0.6252 0.629
5872000000.0 0.1362 0.8697
5875000000.0 0.7588 0.4681
5878000000.0 0.8317 -0.3252
5881000000.0 0.2949 -0.785
5884000000.0 -0.4563 -0.7717
5888000000.0 -0.8685 -0.1192
5891000000.0 -0.6563 0.6275
5894000000.0 0.06377 0.91
5897000000.0 0.7504 0.5271
5900000000.0 0.852 -0.2733
5903000000.0 0.3589 -0.8171
5906000000.0 -0.4125 -0.7764
5909000000.0 -0.8575 -0.1802
5912000000.0 -0.7104 0.5824
5916000000.0 0.001475 0.9127
5919000000.0 0.7153 0.5487
5922000000.0 0.9301 -0.1991
5925000000.0 0.4238 -0.8142
5928000000.0 -0.333 -0.8447
5931000000.0 -0.8882 -0.2739
5934000000.0 -0.8012 0.5307
5938000000.0 -0.1259 0.9287
5941000000.0 0.6777 0.6974
5944000000.0 1.002 -0.06739
5947000000.0 0.5572 -0.8181
5950000000.0 -0.237 -0.9136
5953000000.0 -0.8785 -0.3868
5956000000.0 -0.8871 0.4237
5959000000.0 -0.2252 0.9674
5962000000.0 0.6202 0.8079
5966000000.0 0.9958 0.05809
5969000000.0 0.677 -0.7227
5972000000.0 -0.1671 -1.003
5975000000.0 -0.8902 -0.5244
5978000000.0 -0.9478 0.3431
5981000000.0 -0.3716 0.9196
5984000000.0 0.5922 0.8612
5988000000.0 0.9995 0.1214
5991000000.0 0.7376 -0.712
5994000000.0 -0.08432 -1.014
5997000000.0 -0.8482 -0.5834
6000000000.0 -0.9928 0.3042
6003000000.0 -0.3816 0.9302
6006000000.0 0.5105 0.8532
6009000000.0 0.9621 0.1366
6012000000.0 0.7108 -0.6442
6016000000.0 -0.04723 -0.9789
6019000000.0 -0.7738 -0.5605
6022000000.0 -0.9075 0.2679
6025000000.0 -0.3666 0.8353
6028000000.0 0.4396 0.8256
6031000000.0 0.9178 0.1566
6034000000.0 0.6897 -0.5746
6038000000.0 -0.05069 -0.8991
6041000000.0 -0.7142 -0.5079
6044000000.0 -0.8425 0.2454
6047000000.0 -0.3402 0.7855
6050000000.0 0.3949 0.7732
6053000000.0 0.8285 0.1435
6056000000.0 0.6517 -0.5779
6059000000.0 -0.04063 -0.853
6062000000.0 -0.7076 -0.4968
6066000000.0 -0.8136 0.2316
6069000000.0 -0.3162 0.7833
6072000000.0 0.4159 0.7431
6075000000.0 0.8291 0.1246
6078000000.0 0.6211 -0.5578
6081000000.0 -0.03079 -0.858
6084000000.0 -0.7014 -0.4974
6088000000.0 -0.845 0.2228
6091000000.0 -0.3605 0.7806
6094000000.0 0.3975 0.7476
6097000000.0 0.8494 0.1783
6100000000.0 0.6526 -0.5794
6103000000.0 -0.03846 -0.8936
6106000000.0 -0.7147 -0.5571
6109000000.0 -0.8893 0.2196
6112000000.0 -0.3559 0.8451
6116000000.0 0.4324 0.8414
6119000000.0 0.9273 0.1711
6122000000.0 0.7039 -0.639
6125000000.0 -0.04887 -0.9706
6128000000.0 -0.777 -0.6038
6131000000.0 -0.9589 0.2423
6134000000.0 -0.3929 0.909
6138000000.0 0.4692 0.9111
6141000000.0 0.9724 0.2297
6144000000.0 0.7808 -0.6588
6147000000.0 -0.04126 -1.002
6150000000.0 -0.8139 -0.6024
6153000000.0 -0.9977 0.2658
6156000000.0 -0.4384 0.892
6159000000.0 0.4497 0.8979
6162000000.0 1.001 0.2107
6166000000.0 0.7581 -0.6642
6169000000.0 -0.04168 -1.03
6172000000.0 -0.7874 -0.6273
6175000000.0 -0.9929 0.2297
6178000000.0 -0.4461 0.9245
6181000000.0 0.4262 0.8967
6184000000.0 0.9586 0.1718
6188000000.0 0.7307 -0.6398
6191000000.0 -0.01068 -0.9957
6194000000.0 -0.7599 -0.6031
6197000000.0 -0.9129 0.2362
6200000000.0 -0.4049 0.8553
6203000000.0 0.3879 0.8609
6206000000.0 0.9151 0.1788
6209000000.0 0.7464 -0.576
6212000000.0 0.02422 -0.9252
6216000000.0 -0.6751 -0.5837
6219000000.0 -0.8749 0.1782
6222000000.0 -0.3752 0.7523
6225000000.0 0.3613 0.7725
6228000000.0 0.8587 0.1757
6231000000.0 0.7079 -0.495
6234000000.0 0.02374 -0.865
6238000000.0 -0.6732 -0.5313
6241000000.0 -0.8162 0.1641
6244000000.0 -0.3591 0.7028
6247000000.0 0.341 0.7559
6250000000.0 0.8005 0.207
6253000000.0 0.6602 -0.5198
6256000000.0 -0.008111 -0.807
6259000000.0 -0.6933 -0.51
6262000000.0 -0.786 0.2156
6266000000.0 -0.328 0.7499
