! Created with skrf 1.8.0 (http://scikit-rf.org).
# Hz S RI R 50.0 
!freq ReS11 ImS11
4000000000.0 -0.6618 -1.378
4003000000.0 -1.485 -0.3715
4006000000.0 -1.231 0.8943
4009000000.0 -0.0243 1.559
4012000000.0 1.14 0.9846
4016000000.0 1.607 -0.3218
4019000000.0 0.7669 -1.42
4022000000.0 -0.6613 -1.463
4025000000.0 -1.586 -0.4057
4028000000.0 -1.339 1.033
4031000000.0 -0.04156 1.647
4034000000.0 1.244 1.093
4038000000.0 1.685 -0.3095
4041000000.0 0.779 -1.513
4044000000.0 -0.6951 -1.517
4047000000.0 -1.604 -0.4233
4050000000.0 -1.323 0.9441
4053000000.0 -0.02395 1.619
4056000000.0 1.245 1.086
4059000000.0 1.598 -0.2688
4062000000.0 0.8813 -1.403
4066000000.0 -0.5585 -1.509
4069000000.0 -1.513 -0.5369
4072000000.0 -1.42 0.8109
4075000000.0 -0.266 1.633
4078000000.0 1.049 1.213
4081000000.0 1.648 -0.02657
4084000000.0 1.008 -1.265
4088000000.0 -0.3022 -1.583
4091000000.0 -1.454 -0.7618
4094000000.0 -1.51 0.6376
4097000000.0 -0.4744 1.534
4100000000.0 0.8859 1.346
4103000000.0 1.556 0.1545
4106000000.0 1.144 -1.088
4109000000.0 -0.08474 -1.533
4112000000.0 -1.207 -0.872
4116000000.0 -1.424 0.3288
4119000000.0 -0.7025 1.32
4122000000.0 0.5474 1.34
4125000000.0 1.338 0.4577
4128000000.0 1.255 -0.7538
4131000000.0 0.2553 -1.405
4134000000.0 -0.9195 -1.114
4138000000.0 -1.438 -0.04816
4141000000.0 -0.9619 1.12
4144000000.0 0.2364 1.456
4147000000.0 1.291 0.7698
4150000000.0 1.393 -0.4969
4153000000.0 0.507 -1.408
4156000000.0 -0.7943 -1.286
4159000000.0 -1.475 -0.2
4162000000.0 -1.106 1.042
4166000000.0 0.08995 1.492
4169000000.0 1.208 0.8944
4172000000.0 1.435 -0.3801
4175000000.0 0.5866 -1.337
4178000000.0 -0.6808 -1.319
4181000000.0 -1.461 -0.2858
4184000000.0 -1.151 0.9336
4188000000.0 0.07081 1.525
4191000000.0 1.22 0.9083
4194000000.0 1.444 -0.4122
4197000000.0 0.5445 -1.418
4200000000.0 -0.7796 -1.317
4203000000.0 -1.551 -0.1531
4206000000.0 -1.095 1.155
4209000000.0 0.2773 1.6
4212000000.0 1.4 0.6901
4216000000.0 1.415 -0.7208
4219000000.0 0.2409 -1.552
4222000000.0 -1.12 -1.123
4225000000.0 -1.568 0.2445
4228000000.0 -0.724 1.377
4231000000.0 0.6179 1.377
4234000000.0 1.496 0.2841
4238000000.0 1.123 -1.002
4241000000.0 -0.1499 -1.444
4244000000.0 -1.205 -0.8084
4247000000.0 -1.355 0.4767
4250000000.0 -0.4175 1.354
4253000000.0 0.7993 1.193
4256000000.0 1.389 0.07642
4259000000.0 0.9555 -1.041
4262000000.0 -0.2143 -1.353
4266000000.0 -1.21 -0.6649
4269000000.0 -1.275 0.5308
4272000000.0 -0.3874 1.34
4275000000.0 0.7643 1.12
4278000000.0 1.386 0.08089
4281000000.0 0.9272 -1.028
4284000000.0 -0.2422 -1.362
4288000000.0 -1.177 -0.6998
4291000000.0 -1.273 0.5018
4294000000.0 -0.4108 1.3
4297000000.0 0.7014 1.123
4300000000.0 1.319 0.1628
4303000000.0 0.989 -0.9216
4306000000.0 -0.036 -1.343
4309000000.0 -1.037 -0.7919
4312000000.0 -1.284 0.3031
4316000000.0 -0.6213 1.22
4319000000.0 0.5434 1.254
4322000000.0 1.349 0.4287
4325000000.0 1.193 -0.7738
4328000000.0 0.1539 -1.411
4331000000.0 -1.04 -1.028
4334000000.0 -1.452 0.1282
4338000000.0 -0.8329 1.238
4341000000.0 0.4802 1.459
4344000000.0 1.47 0.5393
4347000000.0 1.349 -0.8109
4350000000.0 0.1815 -1.569
4353000000.0 -1.118 -1.108
4356000000.0 -1.569 0.1919
4359000000.0 -0.7822 1.336
4362000000.0 0.5898 1.501
4366000000.0 1.516 0.4451
4369000000.0 1.263 -0.9628
4372000000.0 0.04774 -1.573
4375000000.0 -1.2 -0.95
4378000000.0 -1.503 0.3581
4381000000.0 -0.6089 1.402
4384000000.0 0.7174 1.307
4388000000.0 1.473 0.1727
4391000000.0 1.046 -1.102
4394000000.0 -0.2252 -1.47
4397000000.0 -1.301 -0.6865
4400000000.0 -1.317 0.6136
4403000000.0 -0.3019 1.389
4406000000.0 0.9318 1.03
4409000000.0 1.371 -0.1084
4412000000.0 0.7029 -1.108
4416000000.0 -0.4402 -1.229
4419000000.0 -1.234 -0.3416
4422000000.0 -1.023 0.7642
4425000000.0 -0.07092 1.247
4428000000.0 0.9507 0.7774
4431000000.0 1.232 -0.256
4434000000.0 0.5385 -1.12
4438000000.0 -0.5091 -1.103
4441000000.0 -1.189 -0.2313
4444000000.0 -0.9477 0.7567
4447000000.0 0.06374 1.23
4450000000.0 0.9766 0.7412
4453000000.0 1.19 -0.3195
4456000000.0 0.4871 -1.158
4459000000.0 -0.5751 -1.128
4462000000.0 -1.258 -0.2647
4466000000.0 -0.982 0.8017
4469000000.0 0.007376 1.298
4472000000.0 0.9999 0.8059
4475000000.0 1.272 -0.3098
4478000000.0 0.566 -1.165
4481000000.0 -0.57 -1.198
4484000000.0 -1.284 -0.3369
4488000000.0 -1.101 0.7819
4491000000.0 -0.09679 1.368
4494000000.0 0.988 0.9463
4497000000.0 1.347 -0.1727
4500000000.0 0.7184 -1.167
4503000000.0 -0.4259 -1.289
4506000000.0 -1.253 -0.4829
4509000000.0 -1.198 0.6686
4512000000.0 -0.2837 1.347
4516000000.0 0.8879 1.092
4519000000.0 1.423 -0.04079
4522000000.0 0.8784 -1.099
4525000000.0 -0.3205 -1.403
4528000000.0 -1.311 -0.647
4531000000.0 -1.326 0.5841
4534000000.0 -0.3877 1.408
4538000000.0 0.826 1.178
4541000000.0 1.479 0.09275
4544000000.0 0.9883 -1.061
4547000000.0 -0.2039 -1.452
4550000000.0 -1.248 -0.7661
4553000000.0 -1.36 0.4877
4556000000.0 -0.5038 1.364
4559000000.0 0.7816 1.222
4562000000.0 1.431 0.1856
4566000000.0 1.025 -1.007
4569000000.0 -0.1482 -1.442
4572000000.0 -1.191 -0.8435
4575000000.0 -1.332 0.4161
4578000000.0 -0.5188 1.312
4581000000.0 0.6891 1.214
4584000000.0 1.422 0.2044
4588000000.0 1.008 -0.9459
4591000000.0 -0.1346 -1.361
4594000000.0 -1.165 -0.7163
4597000000.0 -1.28 0.4562
4600000000.0 -0.368 1.256
4603000000.0 0.7385 1.086
4606000000.0 1.29 0.08704
4609000000.0 0.8129 -0.9596
4612000000.0 -0.2179 -1.231
4616000000.0 -1.062 -0.5728
4619000000.0 -1.115 0.5016
4622000000.0 -0.2594 1.181
4625000000.0 0.745 0.9168
4628000000.0 1.124 -0.02206
4631000000.0 0.6935 -0.9083
4634000000.0 -0.2692 -1.095
4638000000.0 -1.056 -0.4634
4641000000.0 -0.9989 0.5161
4644000000.0 -0.1721 1.13
4647000000.0 0.7688 0.8455
4650000000.0 1.111 -0.08948
4653000000.0 0.6361 -0.9248
4656000000.0 -0.3476 -1.092
4659000000.0 -1.086 -0.4097
4662000000.0 -0.9655 0.5663
4666000000.0 -0.1503 1.128
4669000000.0 0.7876 0.8138
4672000000.0 1.142 -0.1114
4675000000.0 0.6382 -0.9813
4678000000.0 -0.3168 -1.084
4681000000.0 -1.061 -0.4524
4684000000.0 -1.002 0.5038
4688000000.0 -0.218 1.139
4691000000.0 0.7527 0.9291
4694000000.0 1.218 -0.005654
4697000000.0 0.7966 -0.9537
4700000000.0 -0.234 -1.235
4703000000.0 -1.132 -0.6002
4706000000.0 -1.157 0.5089
4709000000.0 -0.382 1.264
4712000000.0 0.7549 1.079
4716000000.0 1.309 0.08756
4719000000.0 0.8922 -0.9789
4722000000.0 -0.2162 -1.35
4725000000.0 -1.154 -0.7
4728000000.0 -1.266 0.4558
4731000000.0 -0.454 1.245
4734000000.0 0.6924 1.184
4738000000.0 1.355 0.1686
4741000000.0 1.0 -0.9211
4744000000.0 -0.09676 -1.362
4747000000.0 -1.134 -0.8025
4750000000.0 -1.367 0.3765
4753000000.0 -0.5582 1.281
4756000000.0 0.6721 1.268
4759000000.0 1.398 0.267
4762000000.0 1.074 -0.9389
4766000000.0 -0.07636 -1.432
4769000000.0 -1.185 -0.813
4772000000.0 -1.323 0.3994
4775000000.0 -0.4623 1.307
4778000000.0 0.7347 1.153
4781000000.0 1.324 0.1212
4784000000.0 0.8784 -1.002
4788000000.0 -0.1899 -1.273
4791000000.0 -1.127 -0.6067
4794000000.0 -1.122 0.5038
4797000000.0 -0.2641 1.188
4800000000.0 0.7538 0.9226
4803000000.0 1.147 -0.01814
4806000000.0 0.6489 -0.9074
4809000000.0 -0.3163 -1.02
4812000000.0 -0.9758 -0.356
4816000000.0 -0.8368 0.5553
4819000000.0 -0.07971 0.9843
4822000000.0 0.7325 0.6522
4825000000.0 0.9555 -0.1552
4828000000.0 0.4093 -0.8483
4831000000.0 -0.4323 -0.8406
4834000000.0 -0.9166 -0.1772
4838000000.0 -0.655 0.6283
4841000000.0 0.06958 0.9184
4844000000.0 0.7913 0.4705
4847000000.0 0.8484 -0.3081
4850000000.0 0.2626 -0.8776
4853000000.0 -0.4975 -0.7515
4856000000.0 -0.9178 -0.03727
4859000000.0 -0.5989 0.7407
4862000000.0 0.1756 0.9236
4866000000.0 0.872 0.4424
4869000000.0 0.8686 -0.4232
4872000000.0 0.236 -1.0
4875000000.0 -0.6439 -0.7975
4878000000.0 -1.06 -0.005631
4881000000.0 -0.6604 0.8292
4884000000.0 0.2769 1.038
4888000000.0 1.012 0.455
4891000000.0 1.025 -0.5488
4894000000.0 0.189 -1.133
4897000000.0 -0.805 -0.9207
4900000000.0 -1.201 0.1182
4903000000.0 -0.6827 1.029
4906000000.0 0.3853 1.192
4909000000.0 1.169 0.4116
4912000000.0 1.082 -0.6993
4916000000.0 0.1276 -1.266
4919000000.0 -0.935 -0.8974
4922000000.0 -1.268 0.1825
4925000000.0 -0.6345 1.126
4928000000.0 0.4639 1.196
4931000000.0 1.256 0.3313
4934000000.0 1.015 -0.8035
4938000000.0 0.0171 -1.239
4941000000.0 -0.9897 -0.8163
4944000000.0 -1.247 0.308
4947000000.0 -0.5053 1.153
4950000000.0 0.6035 1.097
4953000000.0 1.206 0.1525
4956000000.0 0.8641 -0.8135
4959000000.0 -0.1348 -1.16
4962000000.0 -0.9683 -0.5818
4966000000.0 -1.042 0.3865
4969000000.0 -0.3183 1.045
4972000000.0 0.6129 0.8877
4975000000.0 1.047 0.007032
4978000000.0 0.6486 -0.7999
4981000000.0 -0.2017 -0.974
4984000000.0 -0.8769 -0.3826
4988000000.0 -0.866 0.4289
4991000000.0 -0.1782 0.8778
4994000000.0 0.603 0.6884
4997000000.0 0.9165 -0.03679
5000000000.0 0.5124 -0.7323
5003000000.0 -0.2895 -0.8558
5006000000.0 -0.8499 -0.2984
5009000000.0 -0.7505 0.4705
5012000000.0 -0.1098 0.9333
5016000000.0 0.6363 0.6254
5019000000.0 0.9002 -0.1452
5022000000.0 0.4678 -0.8206
5025000000.0 -0.3703 -0.8759
5028000000.0 -0.9275 -0.2427
5031000000.0 -0.7413 0.5801
5034000000.0 -0.01603 0.995
5038000000.0 0.76 0.6338
5041000000.0 0.9753 -0.2324
5044000000.0 0.4522 -0.9165
5047000000.0 -0.4241 -0.9432
5050000000.0 -1.042 -0.2527
5053000000.0 -0.8471 0.6776
5056000000.0 -0.04582 1.125
5059000000.0 0.8779 0.719
5062000000.0 1.143 -0.2512
5066000000.0 0.5449 -1.063
5069000000.0 -0.5312 -1.06
5072000000.0 -1.198 -0.2801
5075000000.0 -0.9531 0.7706
5078000000.0 0.02533 1.264
5081000000.0 0.9719 0.8053
5084000000.0 1.234 -0.2405
5088000000.0 0.5843 -1.159
5091000000.0 -0.536 -1.173
5094000000.0 -1.233 -0.3136
5097000000.0 -1.004 0.753
5100000000.0 -0.03018 1.251
5103000000.0 0.8949 0.8209
5106000000.0 1.244 -0.1897
5109000000.0 0.6508 -1.029
5112000000.0 -0.3746 -1.152
5116000000.0 -1.124 -0.4092
5119000000.0 -1.058 0.6186
5122000000.0 -0.1792 1.188
5125000000.0 0.7594 0.8838
5128000000.0 1.126 -0.02587
5131000000.0 0.7302 -0.9068
5134000000.0 -0.2583 -1.125
5138000000.0 -1.01 -0.5579
5141000000.0 -1.009 0.4552
5144000000.0 -0.2908 1.086
5147000000.0 0.5723 0.9034
5150000000.0 1.062 0.1035
5153000000.0 0.7389 -0.729
5156000000.0 -0.08457 -1.03
5159000000.0 -0.8477 -0.5722
5162000000.0 -0.9865 0.2894
5166000000.0 -0.4064 0.9041
5169000000.0 0.4108 0.9222
5172000000.0 0.9947 0.2157
5175000000.0 0.7981 -0.5951
5178000000.0 0.04182 -0.9625
5181000000.0 -0.7438 -0.614
5184000000.0 -0.9554 0.156
5188000000.0 -0.4783 0.8319
5191000000.0 0.3563 0.8833
5194000000.0 0.9278 0.2332
5197000000.0 0.783 -0.5333
5200000000.0 0.04204 -0.93
5203000000.0 -0.727 -0.6169
5206000000.0 -0.9465 0.1596
5209000000.0 -0.4513 0.8239
5212000000.0 0.4074 0.8614
5216000000.0 0.899 0.2174
5219000000.0 0.7562 -0.5974
5222000000.0 0.002252 -0.9553
5225000000.0 -0.7528 -0.617
5228000000.0 -0.9418 0.223
5231000000.0 -0.4168 0.847
5234000000.0 0.4517 0.8445
5238000000.0 0.973 0.1912
5241000000.0 0.7551 -0.5969
5244000000.0 -0.01072 -0.9873
5247000000.0 -0.7779 -0.6031
5250000000.0 -0.9523 0.2531
5253000000.0 -0.3884 0.9333
5256000000.0 0.4483 0.918
5259000000.0 0.9893 0.2
5262000000.0 0.7764 -0.6699
5266000000.0 0.01184 -1.022
5269000000.0 -0.808 -0.6324
5272000000.0 -1.003 0.2385
5275000000.0 -0.4632 0.9417
5278000000.0 0.4017 0.9499
5281000000.0 1.022 0.2918
5284000000.0 0.837 -0.5863
5288000000.0 0.09748 -1.059
5291000000.0 -0.7649 -0.7613
5294000000.0 -1.075 0.09925
5297000000.0 -0.6223 0.8816
5300000000.0 0.254 1.067
5303000000.0 1.004 0.4932
5306000000.0 1.001 -0.4594
5309000000.0 0.2816 -1.073
5312000000.0 -0.6462 -0.9474
5316000000.0 -1.105 -0.1263
5319000000.0 -0.8254 0.7771
5322000000.0 0.08345 1.118
5325000000.0 0.9283 0.6666
5328000000.0 1.088 -0.2528
5331000000.0 0.5107 -1.039
5334000000.0 -0.4783 -1.066
5338000000.0 -1.094 -0.3236
5341000000.0 -0.958 0.6403
5344000000.0 -0.1251 1.161
5347000000.0 0.8046 0.851
5350000000.0 1.145 -0.04624
5353000000.0 0.6982 -0.9006
5356000000.0 -0.2819 -1.116
5359000000.0 -1.057 -0.4959
5362000000.0 -1.05 0.4858
5366000000.0 -0.3197 1.109
5369000000.0 0.6615 0.9215
5372000000.0 1.172 0.1115
5375000000.0 0.8053 -0.8543
5378000000.0 -0.1486 -1.111
5381000000.0 -0.9823 -0.5916
5384000000.0 -1.069 0.3525
5388000000.0 -0.3709 1.056
5391000000.0 0.5649 0.9405
5394000000.0 1.082 0.1378
5397000000.0 0.7841 -0.6988
5400000000.0 -0.08937 -1.072
5403000000.0 -0.8567 -0.5938
5406000000.0 -0.992 0.3138
5409000000.0 -0.3901 0.9329
5412000000.0 0.481 0.8545
5416000000.0 0.987 0.1547
5419000000.0 0.7149 -0.6597
5422000000.0 -0.09036 -0.9517
5425000000.0 -0.8124 -0.5386
5428000000.0 -0.8963 0.2809
5431000000.0 -0.3187 0.9009
5434000000.0 0.5137 0.7621
5438000000.0 0.9058 0.1122
5441000000.0 0.6104 -0.6535
5444000000.0 -0.1651 -0.906
5447000000.0 -0.7744 -0.4584
5450000000.0 -0.8191 0.3477
5453000000.0 -0.2587 0.824
5456000000.0 0.4981 0.7001
5459000000.0 0.8693 0.03777
5462000000.0 0.5498 -0.6536
5466000000.0 -0.1661 -0.874
5469000000.0 -0.7676 -0.388
5472000000.0 -0.8339 0.3434
5475000000.0 -0.2453 0.8241
5478000000.0 0.4951 0.7285
5481000000.0 0.877 0.08261
5484000000.0 0.6046 -0.6361
5488000000.0 -0.1228 -0.9098
5491000000.0 -0.7668 -0.4737
5494000000.0 -0.8699 0.2553
5497000000.0 -0.3477 0.8314
5500000000.0 0.423 0.8098
5503000000.0 0.9016 0.1653
5506000000.0 0.7177 -0.621
5509000000.0 -0.02061 -0.9156
5512000000.0 -0.7294 -0.5791
5516000000.0 -0.9577 0.1712
5519000000.0 -0.4763 0.8267
5522000000.0 0.3365 0.8938
5525000000.0 0.9286 0.3598
5528000000.0 0.8464 -0.491
5531000000.0 0.2015 -0.9527
5534000000.0 -0.6288 -0.747
5538000000.0 -1.011 -0.02411
5541000000.0 -0.7034 0.7748
5544000000.0 0.1385 0.9977
5547000000.0 0.8854 0.5526
5550000000.0 0.9775 -0.3491
5553000000.0 0.3856 -0.9796
5556000000.0 -0.5281 -0.9198
5559000000.0 -1.057 -0.185
5562000000.0 -0.8176 0.6973
5566000000.0 -0.01832 1.055
5569000000.0 0.8146 0.673
5572000000.0 1.051 -0.2176
5575000000.0 0.5262 -0.8978
5578000000.0 -0.3914 -0.9735
5581000000.0 -0.9995 -0.3518
5584000000.0 -0.8997 0.5389
5588000000.0 -0.1521 1.06
5591000000.0 0.6725 0.7919
5594000000.0 1.02 -0.02385
5597000000.0 0.6449 -0.8473
5600000000.0 -0.199 -0.9847
5603000000.0 -0.9115 -0.4663
5606000000.0 -0.9315 0.3754
5609000000.0 -0.2761 0.9483
5612000000.0 0.5618 0.8221
5616000000.0 0.9778 0.0832
5619000000.0 0.6695 -0.6908
5622000000.0 -0.08547 -0.9568
5625000000.0 -0.7804 -0.5158
5628000000.0 -0.8839 0.2762
5631000000.0 -0.3324 0.859
5634000000.0 0.4556 0.7838
5638000000.0 0.8907 0.1621
5641000000.0 0.6934 -0.6074
5644000000.0 -0.08126 -0.9086
5647000000.0 -0.7235 -0.539
5650000000.0 -0.8386 0.2365
5653000000.0 -0.343 0.8195
5656000000.0 0.4358 0.7954
5659000000.0 0.8424 0.1608
5662000000.0 0.6772 -0.5773
5666000000.0 -0.03273 -0.8795
5669000000.0 -0.7397 -0.515
5672000000.0 -0.8238 0.2518
5675000000.0 -0.3391 0.8333
5678000000.0 0.441 0.7668
5681000000.0 0.8849 0.1137
5684000000.0 0.6503 -0.6064
5688000000.0 -0.08911 -0.8826
5691000000.0 -0.7534 -0.5196
5694000000.0 -0.8809 0.28
5697000000.0 -0.2983 0.8542
5700000000.0 0.5042 0.8318
5703000000.0 0.9324 0.1547
5706000000.0 0.7089 -0.6811
5709000000.0 -0.08414 -0.9503
5712000000.0 -0.7949 -0.5527
5716000000.0 -0.9153 0.2755
5719000000.0 -0.3468 0.9288
5722000000.0 0.4866 0.861
5725000000.0 0.9578 0.1642
5728000000.0 0.7701 -0.6704
5731000000.0 -0.03252 -0.9934
5734000000.0 -0.8298 -0.6228
5738000000.0 -0.9967 0.2254
5741000000.0 -0.4709 0.9139
5744000000.0 0.417 0.992
5747000000.0 1.01 0.261
5750000000.0 0.8716 -0.5922
5753000000.0 0.09288 -1.077
5756000000.0 -0.7859 -0.7686
5759000000.0 -1.091 0.1161
5762000000.0 -0.5769 0.9037
5766000000.0 0.3019 1.02
5769000000.0 0.9921 0.4278
5772000000.0 0.9826 -0.498
5775000000.0 0.2415 -1.057
5778000000.0 -0.6645 -0.8614
5781000000.0 -1.1 -0.04252
5784000000.0 -0.7173 0.8136
5788000000.0 0.1188 1.095
5791000000.0 0.903 0.6001
5794000000.0 1.04 -0.3127
5797000000.0 0.4237 -1.006
5800000000.0 -0.5011 -0.9442
5803000000.0 -1.05 -0.2079
5806000000.0 -0.8345 0.6432
5809000000.0 -0.02191 1.096
5812000000.0 0.8012 0.7077
5816000000.0 1.07 -0.1885
5819000000.0 0.5245 -0.949
5822000000.0 -0.3788 -0.9862
5825000000.0 -0.9976 -0.3609
5828000000.0 -0.8557 0.545
5831000000.0 -0.1386 1.018
5834000000.0 0.656 0.8075
5838000000.0 1.048 -0.02686
5841000000.0 0.6415 -0.8096
5844000000.0 -0.2397 -1.021
5847000000.0 -0.9292 -0.4181
5850000000.0 -0.8825 0.4125
5853000000.0 -0.2232 1.003
5856000000.0 0.586 0.7805
5859000000.0 0.9977 0.033
5862000000.0 0.625 -0.7219
5866000000.0 -0.1893 -0.961
5869000000.0 -0.8407 -0.473
5872000000.0 -0.8949 0.3684
5875000000.0 -0.276 0.9219
5878000000.0 0.5198 0.7626
5881000000.0 0.9387 0.04398
5884000000.0 0.6166 -0.6927
5888000000.0 -0.1146 -0.9101
5891000000.0 -0.7851 -0.4634
5894000000.0 -0.8184 0.3278
5897000000.0 -0.249 0.863
5900000000.0 0.5159 0.7557
5903000000.0 0.8692 0.07938
5906000000.0 0.6249 -0.6116
5909000000.0 -0.07919 -0.8375
5912000000.0 -0.7107 -0.4744
5916000000.0 -0.8151 0.3424
5919000000.0 -0.3142 0.8313
5922000000.0 0.4308 0.7142
5925000000.0 0.8485 0.107
5928000000.0 0.6086 -0.5925
5931000000.0 -0.04358 -0.8337
5934000000.0 -0.6827 -0.4973
5938000000.0 -0.8518 0.208
5941000000.0 -0.3992 0.7769
5944000000.0 0.3662 0.7556
5947000000.0 0.8224 0.2027
5950000000.0 0.7016 -0.5094
5953000000.0 0.04247 -0.8676
5956000000.0 -0.6497 -0.6013
5959000000.0 -0.8936 0.1099
5962000000.0 -0.4797 0.7478
5966000000.0 0.2537 0.8382
5969000000.0 0.8247 0.3391
5972000000.0 0.7885 -0.4287
5975000000.0 0.2068 -0.8993
5978000000.0 -0.5631 -0.7219
5981000000.0 -0.9418 -0.02546
5984000000.0 -0.6375 0.7051
5988000000.0 0.1505 0.9359
5991000000.0 0.7988 0.497
5994000000.0 0.9073 -0.3187
5997000000.0 0.3694 -0.8856
6000000000.0 -0.4812 -0.8613
6003000000.0 -0.9517 -0.1691
6006000000.0 -0.7262 0.6299
6009000000.0 0.001831 0.9827
6012000000.0 0.7491 0.63
6016000000.0 0.9857 -0.1888
6019000000.0 0.4908 -0.882
6022000000.0 -0.3477 -0.9323
6025000000.0 -0.9459 -0.3021
6028000000.0 -0.8289 0.5345
6031000000.0 -0.1346 0.9805
6034000000.0 0.6993 0.7428
6038000000.0 0.9989 -0.06684
6041000000.0 0.5722 -0.801
6044000000.0 -0.265 -0.9479
6047000000.0 -0.8926 -0.4164
6050000000.0 -0.8793 0.4406
6053000000.0 -0.2079 0.9671
6056000000.0 0.5966 0.7806
6059000000.0 1.002 -0.01472
6062000000.0 0.6217 -0.7547
6066000000.0 -0.2062 -0.9621
6069000000.0 -0.8567 -0.4334
6072000000.0 -0.8839 0.3786
6075000000.0 -0.2387 0.912
6078000000.0 0.5371 0.7613
6081000000.0 0.9369 0.04834
6084000000.0 0.6147 -0.6867
6088000000.0 -0.1393 -0.9109
6091000000.0 -0.7953 -0.4725
6094000000.0 -0.8198 0.3131
6097000000.0 -0.2878 0.8454
6100000000.0 0.4975 0.7553
6103000000.0 0.897 0.1
6106000000.0 0.6201 -0.6128
6109000000.0 -0.09715 -0.8495
6112000000.0 -0.7437 -0.4571
6116000000.0 -0.8534 0.266
6119000000.0 -0.2845 0.8084
6122000000.0 0.4863 0.719
6125000000.0 0.8546 0.08903
6128000000.0 0.6267 -0.6256
6131000000.0 -0.06607 -0.8734
6134000000.0 -0.7034 -0.4591
6138000000.0 -0.7928 0.2522
6141000000.0 -0.3103 0.816
6144000000.0 0.4332 0.7416
6147000000.0 0.816 0.15
6150000000.0 0.6604 -0.5372
6153000000.0 0.002503 -0.8603
6156000000.0 -0.6793 -0.516
6159000000.0 -0.8283 0.1645
6162000000.0 -0.4029 0.7913
6166000000.0 0.3707 0.8123
6169000000.0 0.8581 0.2217
6172000000.0 0.6966 -0.521
6175000000.0 -0.00185 -0.91
6178000000.0 -0.6948 -0.5808
6181000000.0 -0.8767 0.1325
6184000000.0 -0.4592 0.7617
6188000000.0 0.3325 0.8471
6191000000.0 0.8589 0.2332
6194000000.0 0.7704 -0.5101
6197000000.0 0.09502 -0.9178
6200000000.0 -0.6672 -0.6594
6203000000.0 -0.9456 0.08725
6206000000.0 -0.5237 0.7451
6209000000.0 0.2639 0.8906
6212000000.0 0.8563 0.3622
6216000000.0 0.8315 -0.4222
6219000000.0 0.1854 -0.8769
6222000000.0 -0.5731 -0.7041
6225000000.0 -0.8821 -0.05719
6228000000.0 -0.6322 0.6758
6231000000.0 0.1341 0.884
6234000000.0 0.8027 0.4445
6238000000.0 0.8081 -0.313
6241000000.0 0.3017 -0.8309
6244000000.0 -0.4596 -0.7427
6247000000.0 -0.8704 -0.1398
6250000000.0 -0.6331 0.598
6253000000.0 0.03977 0.8338
6256000000.0 0.6677 0.5098
6259000000.0 0.7959 -0.1783
6262000000.0 0.3773 -0.7251
6266000000.0 -0.3344 -0.7539
