! Created with skrf 1.8.0 (http://scikit-rf.org).
# Hz S RI R 50.0 
!freq ReS11 ImS11
4000000000.0 -0.2163 -1.473
4003000000.0 -1.288 -0.7234
4006000000.0 -1.377 0.5444
4009000000.0 -0.4836 1.401
4012000000.0 0.8225 1.22
4016000000.0 1.52 0.1813
4019000000.0 1.081 -1.027
4022000000.0 -0.1649 -1.578
4025000000.0 -1.362 -0.8171
4028000000.0 -1.491 0.4925
4031000000.0 -0.5524 1.509
4034000000.0 0.8702 1.342
4038000000.0 1.602 0.164
4041000000.0 1.186 -1.163
4044000000.0 -0.2037 -1.641
4047000000.0 -1.379 -0.903
4050000000.0 -1.552 0.5189
4053000000.0 -0.5857 1.504
4056000000.0 0.7829 1.378
4059000000.0 1.59 0.2728
4062000000.0 1.237 -1.071
4066000000.0 -0.04474 -1.62
4069000000.0 -1.259 -0.9951
4072000000.0 -1.599 0.2657
4075000000.0 -0.7814 1.43
4078000000.0 0.5789 1.442
4081000000.0 1.563 0.5002
4084000000.0 1.392 -0.8853
4088000000.0 0.1745 -1.613
4091000000.0 -1.143 -1.195
4094000000.0 -1.64 0.1629
4097000000.0 -0.9554 1.36
4100000000.0 0.4159 1.574
4103000000.0 1.444 0.6668
4106000000.0 1.431 -0.6793
4109000000.0 0.3886 -1.495
4112000000.0 -0.8819 -1.247
4116000000.0 -1.483 -0.1673
4119000000.0 -1.085 1.031
4122000000.0 0.08434 1.473
4125000000.0 1.167 0.9357
4128000000.0 1.453 -0.2759
4131000000.0 0.725 -1.262
4134000000.0 -0.4689 -1.398
4138000000.0 -1.372 -0.5453
4141000000.0 -1.315 0.6798
4144000000.0 -0.3354 1.469
4147000000.0 0.9199 1.183
4150000000.0 1.511 0.08066
4153000000.0 1.024 -1.118
4156000000.0 -0.1567 -1.474
4159000000.0 -1.256 -0.8344
4162000000.0 -1.448 0.4532
4166000000.0 -0.5897 1.359
4169000000.0 0.6963 1.333
4172000000.0 1.473 0.341
4175000000.0 1.176 -0.8984
4178000000.0 0.08209 -1.486
4181000000.0 -1.056 -1.025
4184000000.0 -1.507 0.1915
4188000000.0 -0.8359 1.24
4191000000.0 0.4256 1.409
4194000000.0 1.433 0.5965
4197000000.0 1.383 -0.7187
4200000000.0 0.3016 -1.551
4203000000.0 -1.014 -1.227
4206000000.0 -1.617 0.03231
4209000000.0 -0.9448 1.283
4212000000.0 0.422 1.591
4216000000.0 1.55 0.6198
4219000000.0 1.462 -0.8418
4222000000.0 0.2317 -1.65
4225000000.0 -1.207 -1.216
4228000000.0 -1.629 0.2231
4231000000.0 -0.802 1.419
4234000000.0 0.6286 1.508
4238000000.0 1.589 0.3852
4241000000.0 1.223 -1.017
4244000000.0 -0.04698 -1.585
4247000000.0 -1.266 -0.8946
4250000000.0 -1.474 0.4306
4253000000.0 -0.5753 1.441
4256000000.0 0.7852 1.293
4259000000.0 1.517 0.1816
4262000000.0 1.042 -1.069
4266000000.0 -0.2045 -1.424
4269000000.0 -1.299 -0.7454
4272000000.0 -1.344 0.528
4275000000.0 -0.4127 1.434
4278000000.0 0.8439 1.192
4281000000.0 1.416 0.07084
4284000000.0 0.932 -1.033
4288000000.0 -0.2416 -1.378
4291000000.0 -1.187 -0.645
4294000000.0 -1.256 0.5102
4297000000.0 -0.3731 1.282
4300000000.0 0.6927 1.089
4303000000.0 1.268 0.1551
4306000000.0 0.9667 -0.8882
4309000000.0 -0.0843 -1.291
4312000000.0 -1.035 -0.794
4316000000.0 -1.238 0.2923
4319000000.0 -0.5985 1.111
4322000000.0 0.4519 1.207
4325000000.0 1.241 0.3648
4328000000.0 1.107 -0.6993
4331000000.0 0.1916 -1.368
4334000000.0 -0.9257 -0.9846
4338000000.0 -1.377 0.04148
4341000000.0 -0.8278 1.113
4344000000.0 0.3008 1.382
4347000000.0 1.279 0.6674
4350000000.0 1.305 -0.5707
4353000000.0 0.3941 -1.4
4356000000.0 -0.7936 -1.212
4359000000.0 -1.438 -0.1441
4362000000.0 -1.013 1.016
4366000000.0 0.1292 1.448
4369000000.0 1.217 0.8193
4372000000.0 1.448 -0.3991
4375000000.0 0.6038 -1.352
4378000000.0 -0.7064 -1.353
4381000000.0 -1.483 -0.3268
4384000000.0 -1.175 0.931
4388000000.0 -0.02347 1.539
4391000000.0 1.168 0.9854
4394000000.0 1.524 -0.298
4397000000.0 0.7117 -1.365
4400000000.0 -0.6075 -1.453
4403000000.0 -1.52 -0.3807
4406000000.0 -1.251 0.9669
4409000000.0 -0.01336 1.559
4412000000.0 1.186 0.9638
4416000000.0 1.489 -0.3324
4419000000.0 0.615 -1.368
4422000000.0 -0.6507 -1.302
4425000000.0 -1.44 -0.2756
4428000000.0 -1.107 0.9934
4431000000.0 0.1043 1.41
4434000000.0 1.162 0.785
4438000000.0 1.329 -0.4103
4441000000.0 0.486 -1.278
4444000000.0 -0.7476 -1.174
4447000000.0 -1.325 -0.1393
4450000000.0 -0.9032 0.9578
4453000000.0 0.1949 1.249
4456000000.0 1.094 0.6091
4459000000.0 1.141 -0.4846
4462000000.0 0.2981 -1.195
4466000000.0 -0.7758 -0.9191
4469000000.0 -1.212 -0.01982
4472000000.0 -0.7394 0.9524
4475000000.0 0.3015 1.17
4478000000.0 1.058 0.4877
4481000000.0 1.019 -0.5327
4484000000.0 0.206 -1.145
4488000000.0 -0.7877 -0.8552
4491000000.0 -1.153 0.04869
4494000000.0 -0.6329 0.9381
4497000000.0 0.309 1.079
4500000000.0 1.059 0.4239
4503000000.0 0.9643 -0.5124
4506000000.0 0.2157 -1.094
4509000000.0 -0.7081 -0.8043
4512000000.0 -1.125 0.02068
4516000000.0 -0.6752 0.8832
4519000000.0 0.2421 1.112
4522000000.0 1.001 0.5329
4525000000.0 1.067 -0.4475
4528000000.0 0.3092 -1.117
4531000000.0 -0.6553 -0.9288
4534000000.0 -1.183 -0.06948
4538000000.0 -0.8234 0.8612
4541000000.0 0.1539 1.173
4544000000.0 1.0 0.6761
4547000000.0 1.146 -0.356
4550000000.0 0.4643 -1.129
4553000000.0 -0.5777 -1.077
4556000000.0 -1.212 -0.2377
4559000000.0 -0.9867 0.7502
4562000000.0 -0.06103 1.226
4566000000.0 0.9403 0.8626
4569000000.0 1.243 -0.1676
4572000000.0 0.6814 -1.078
4575000000.0 -0.3571 -1.228
4578000000.0 -1.24 -0.5139
4581000000.0 -1.169 0.6147
4584000000.0 -0.2757 1.306
4588000000.0 0.8244 1.079
4591000000.0 1.358 0.02273
4594000000.0 0.8782 -1.052
4597000000.0 -0.2373 -1.351
4600000000.0 -1.181 -0.6674
4603000000.0 -1.282 0.5197
4606000000.0 -0.4247 1.345
4609000000.0 0.7489 1.185
4612000000.0 1.363 0.1516
4616000000.0 0.9853 -0.9825
4619000000.0 -0.137 -1.384
4622000000.0 -1.177 -0.7939
4625000000.0 -1.334 0.3991
4628000000.0 -0.508 1.277
4631000000.0 0.6594 1.198
4634000000.0 1.32 0.2593
4638000000.0 0.987 -0.9206
4641000000.0 -0.08119 -1.304
4644000000.0 -1.106 -0.7625
4647000000.0 -1.286 0.3538
4650000000.0 -0.5261 1.203
4653000000.0 0.6289 1.12
4656000000.0 1.241 0.2114
4659000000.0 0.9299 -0.8083
4662000000.0 -0.08458 -1.235
4666000000.0 -1.003 -0.7128
4669000000.0 -1.134 0.3401
4672000000.0 -0.4319 1.093
4675000000.0 0.5765 1.023
4678000000.0 1.132 0.1963
4681000000.0 0.802 -0.7721
4684000000.0 -0.06698 -1.098
4688000000.0 -0.8896 -0.6205
4691000000.0 -1.062 0.2692
4694000000.0 -0.3956 0.9974
4697000000.0 0.5248 0.9371
4700000000.0 1.026 0.1842
4703000000.0 0.8149 -0.7373
4706000000.0 -0.089 -1.09
4709000000.0 -0.9107 -0.5826
4712000000.0 -1.001 0.3448
4716000000.0 -0.366 1.017
4719000000.0 0.5684 0.9319
4722000000.0 1.059 0.1463
4725000000.0 0.7874 -0.7177
4728000000.0 -0.06615 -1.073
4731000000.0 -0.8492 -0.5983
4734000000.0 -1.013 0.2815
4738000000.0 -0.4367 0.9814
4741000000.0 0.4548 0.8994
4744000000.0 1.033 0.2622
4747000000.0 0.8415 -0.632
4750000000.0 0.06432 -1.081
4753000000.0 -0.7809 -0.71
4756000000.0 -1.099 0.1697
4759000000.0 -0.6287 0.9305
4762000000.0 0.3333 1.07
4766000000.0 1.046 0.4464
4769000000.0 1.014 -0.5307
4772000000.0 0.2608 -1.153
4775000000.0 -0.7359 -0.9162
4778000000.0 -1.168 -0.06355
4781000000.0 -0.7809 0.8787
4784000000.0 0.1811 1.2
4788000000.0 1.03 0.6625
4791000000.0 1.157 -0.3681
4794000000.0 0.4815 -1.139
4797000000.0 -0.5701 -1.108
4800000000.0 -1.235 -0.2874
4803000000.0 -0.9971 0.7448
4806000000.0 -0.08867 1.25
4809000000.0 0.9254 0.8748
4812000000.0 1.278 -0.1362
4816000000.0 0.6957 -1.1
4819000000.0 -0.3872 -1.254
4822000000.0 -1.262 -0.5251
4825000000.0 -1.206 0.6152
4828000000.0 -0.2769 1.348
4831000000.0 0.8757 1.087
4834000000.0 1.386 0.0376
4838000000.0 0.8881 -1.07
4841000000.0 -0.2644 -1.361
4844000000.0 -1.226 -0.6387
4847000000.0 -1.267 0.5269
4850000000.0 -0.3802 1.314
4853000000.0 0.7724 1.14
4856000000.0 1.374 0.1282
4859000000.0 0.9415 -0.9613
4862000000.0 -0.1469 -1.314
4866000000.0 -1.128 -0.729
4869000000.0 -1.262 0.4137
4872000000.0 -0.4526 1.2
4875000000.0 0.6347 1.113
4878000000.0 1.261 0.2026
4881000000.0 0.9076 -0.8286
4884000000.0 -0.1195 -1.224
4888000000.0 -0.979 -0.6825
4891000000.0 -1.13 0.3341
4894000000.0 -0.432 1.079
4897000000.0 0.5489 1.006
4900000000.0 1.084 0.2272
4903000000.0 0.8558 -0.7118
4906000000.0 -0.0001457 -1.077
4909000000.0 -0.8242 -0.6476
4912000000.0 -1.018 0.2332
4916000000.0 -0.4443 0.8808
4919000000.0 0.407 0.8573
4922000000.0 0.9494 0.2697
4925000000.0 0.7838 -0.5644
4928000000.0 0.05324 -0.9605
4931000000.0 -0.6787 -0.6461
4934000000.0 -0.915 0.09218
4938000000.0 -0.497 0.7743
4941000000.0 0.3405 0.8717
4944000000.0 0.8707 0.3384
4947000000.0 0.7891 -0.5011
4950000000.0 0.1333 -0.9463
4953000000.0 -0.6291 -0.7176
4956000000.0 -0.9534 0.03803
4959000000.0 -0.5756 0.8025
4962000000.0 0.2545 0.9492
4966000000.0 0.8945 0.4396
4969000000.0 0.8739 -0.4581
4972000000.0 0.218 -0.9861
4975000000.0 -0.6239 -0.7919
4978000000.0 -1.008 -0.01723
4981000000.0 -0.6867 0.7749
4984000000.0 0.1583 1.02
4988000000.0 0.9238 0.542
4991000000.0 1.029 -0.3601
4994000000.0 0.3787 -1.003
4997000000.0 -0.5538 -0.9623
5000000000.0 -1.125 -0.2004
5003000000.0 -0.8804 0.7613
5006000000.0 -0.009512 1.171
5009000000.0 0.9552 0.745
5012000000.0 1.199 -0.2208
5016000000.0 0.5845 -1.121
5019000000.0 -0.4745 -1.152
5022000000.0 -1.186 -0.3574
5025000000.0 -1.048 0.7024
5028000000.0 -0.0865 1.268
5031000000.0 0.9067 0.8856
5034000000.0 1.256 -0.102
5038000000.0 0.7029 -1.107
5041000000.0 -0.3563 -1.245
5044000000.0 -1.21 -0.5346
5047000000.0 -1.145 0.5647
5050000000.0 -0.3368 1.23
5053000000.0 0.7403 1.058
5056000000.0 1.274 0.09487
5059000000.0 0.8839 -0.9044
5062000000.0 -0.1532 -1.297
5066000000.0 -1.052 -0.7022
5069000000.0 -1.247 0.3881
5072000000.0 -0.4897 1.203
5075000000.0 0.5665 1.076
5078000000.0 1.247 0.2745
5081000000.0 0.9883 -0.7615
5084000000.0 0.05352 -1.23
5088000000.0 -0.8981 -0.8185
5091000000.0 -1.156 0.1733
5094000000.0 -0.5764 1.003
5097000000.0 0.3954 1.082
5100000000.0 1.029 0.3928
5103000000.0 0.9349 -0.5477
5106000000.0 0.2141 -1.079
5109000000.0 -0.7101 -0.8227
5112000000.0 -1.091 -0.033
5116000000.0 -0.7045 0.7961
5119000000.0 0.1685 1.012
5122000000.0 0.8966 0.5422
5125000000.0 0.9529 -0.3367
5128000000.0 0.334 -0.9466
5131000000.0 -0.5289 -0.8397
5134000000.0 -0.9852 -0.1596
5138000000.0 -0.7159 0.6566
5141000000.0 0.01897 0.9742
5144000000.0 0.7773 0.5956
5147000000.0 0.9157 -0.215
5150000000.0 0.3945 -0.8408
5153000000.0 -0.3557 -0.8352
5156000000.0 -0.8748 -0.2081
5159000000.0 -0.7164 0.5388
5162000000.0 -0.0267 0.9179
5166000000.0 0.6587 0.5646
5169000000.0 0.8873 -0.1378
5172000000.0 0.4545 -0.787
5175000000.0 -0.3149 -0.8392
5178000000.0 -0.8843 -0.2764
5181000000.0 -0.7296 0.5069
5184000000.0 -0.02865 0.9002
5188000000.0 0.6566 0.6214
5191000000.0 0.8999 -0.1278
5194000000.0 0.451 -0.8132
5197000000.0 -0.3423 -0.8661
5200000000.0 -0.9219 -0.2626
5203000000.0 -0.8003 0.5317
5206000000.0 -0.05692 0.9638
5209000000.0 0.7067 0.642
5212000000.0 0.9711 -0.1444
5216000000.0 0.4966 -0.8297
5219000000.0 -0.3637 -0.9244
5222000000.0 -0.9169 -0.3497
5225000000.0 -0.8251 0.5156
5228000000.0 -0.1554 0.9876
5231000000.0 0.6944 0.7665
5234000000.0 1.031 -0.04305
5238000000.0 0.6207 -0.8228
5241000000.0 -0.2586 -1.017
5244000000.0 -0.9648 -0.4765
5247000000.0 -0.9301 0.434
5250000000.0 -0.2866 1.035
5253000000.0 0.6144 0.8729
5256000000.0 1.09 0.06515
5259000000.0 0.7368 -0.7928
5262000000.0 -0.1083 -1.079
5266000000.0 -0.8877 -0.578
5269000000.0 -1.066 0.2865
5272000000.0 -0.462 0.985
5275000000.0 0.435 0.9797
5278000000.0 1.046 0.259
5281000000.0 0.8996 -0.6245
5284000000.0 0.09504 -1.081
5288000000.0 -0.7889 -0.8065
5291000000.0 -1.102 0.06506
5294000000.0 -0.6418 0.8913
5297000000.0 0.2543 1.082
5300000000.0 0.9838 0.5382
5303000000.0 1.046 -0.4127
5306000000.0 0.3643 -1.091
5309000000.0 -0.5987 -0.9555
5312000000.0 -1.114 -0.1585
5316000000.0 -0.8481 0.7532
5319000000.0 0.06699 1.125
5322000000.0 0.892 0.7228
5325000000.0 1.119 -0.2387
5328000000.0 0.5223 -0.9996
5331000000.0 -0.4328 -1.062
5334000000.0 -1.073 -0.3105
5338000000.0 -0.8798 0.6213
5341000000.0 -0.1135 1.108
5344000000.0 0.7745 0.758
5347000000.0 1.1 -0.08793
5350000000.0 0.5998 -0.889
5353000000.0 -0.3425 -1.032
5356000000.0 -0.9716 -0.4201
5359000000.0 -0.9339 0.5174
5362000000.0 -0.1755 1.031
5366000000.0 0.6877 0.7788
5369000000.0 1.023 -0.05326
5372000000.0 0.6174 -0.8547
5375000000.0 -0.3102 -0.9931
5378000000.0 -0.9174 -0.3995
5381000000.0 -0.8578 0.499
5384000000.0 -0.1655 0.9516
5388000000.0 0.6702 0.6993
5391000000.0 0.9422 -0.06803
5394000000.0 0.5046 -0.7611
5397000000.0 -0.2852 -0.8649
5400000000.0 -0.8261 -0.2925
5403000000.0 -0.7412 0.4733
5406000000.0 -0.09849 0.8562
5409000000.0 0.5983 0.6213
5412000000.0 0.8657 -0.07125
5416000000.0 0.4694 -0.7284
5419000000.0 -0.2841 -0.8145
5422000000.0 -0.8069 -0.2935
5425000000.0 -0.7445 0.4635
5428000000.0 -0.1213 0.8576
5431000000.0 0.5973 0.644
5434000000.0 0.8509 -0.07801
5438000000.0 0.438 -0.6986
5441000000.0 -0.2759 -0.8429
5444000000.0 -0.8408 -0.3156
5447000000.0 -0.7646 0.4729
5450000000.0 -0.1567 0.8906
5453000000.0 0.6078 0.6369
5456000000.0 0.8996 -0.03029
5459000000.0 0.5228 -0.7303
5462000000.0 -0.2176 -0.8671
5466000000.0 -0.8449 -0.3967
5469000000.0 -0.8279 0.3865
5472000000.0 -0.2465 0.9325
5475000000.0 0.5439 0.7977
5478000000.0 0.9614 0.09574
5481000000.0 0.6979 -0.6663
5484000000.0 -0.07866 -0.9631
5488000000.0 -0.7679 -0.5538
5491000000.0 -0.9699 0.252
5494000000.0 -0.4091 0.9041
5497000000.0 0.4094 0.9358
5500000000.0 1.017 0.2845
5503000000.0 0.8549 -0.5883
5506000000.0 0.06479 -1.024
5509000000.0 -0.715 -0.733
5512000000.0 -1.027 0.07681
5516000000.0 -0.5757 0.8541
5519000000.0 0.2861 1.019
5522000000.0 0.9485 0.434
5525000000.0 0.9488 -0.461
5528000000.0 0.2639 -1.05
5531000000.0 -0.5994 -0.8813
5534000000.0 -1.062 -0.1047
5538000000.0 -0.7465 0.7398
5541000000.0 0.1003 1.061
5544000000.0 0.8452 0.6338
5547000000.0 1.008 -0.2439
5550000000.0 0.4741 -0.9857
5553000000.0 -0.455 -0.9338
5556000000.0 -1.021 -0.2504
5559000000.0 -0.8689 0.6091
5562000000.0 -0.05034 1.031
5566000000.0 0.7659 0.6805
5569000000.0 1.021 -0.1823
5572000000.0 0.532 -0.8488
5575000000.0 -0.3484 -0.959
5578000000.0 -0.948 -0.334
5581000000.0 -0.8531 0.5073
5584000000.0 -0.1665 0.9568
5588000000.0 0.6296 0.7001
5591000000.0 0.9288 -0.05273
5594000000.0 0.5562 -0.7499
5597000000.0 -0.193 -0.9125
5600000000.0 -0.834 -0.3937
5603000000.0 -0.7966 0.3901
5606000000.0 -0.206 0.8758
5609000000.0 0.529 0.6907
5612000000.0 0.8529 0.04771
5616000000.0 0.5594 -0.622
5619000000.0 -0.1368 -0.8519
5622000000.0 -0.75 -0.4264
5625000000.0 -0.7769 0.2839
5628000000.0 -0.2603 0.8124
5631000000.0 0.4843 0.6635
5634000000.0 0.8354 0.05643
5638000000.0 0.5628 -0.6013
5641000000.0 -0.1077 -0.8125
5644000000.0 -0.6963 -0.3904
5647000000.0 -0.7785 0.3176
5650000000.0 -0.2347 0.7996
5653000000.0 0.4444 0.6936
5656000000.0 0.856 0.06249
5659000000.0 0.5785 -0.6525
5662000000.0 -0.1278 -0.8343
5666000000.0 -0.7687 -0.4517
5669000000.0 -0.8274 0.32
5672000000.0 -0.2772 0.8234
5675000000.0 0.4936 0.7732
5678000000.0 0.9144 0.09299
5681000000.0 0.6461 -0.6988
5684000000.0 -0.09612 -0.958
5688000000.0 -0.8303 -0.5207
5691000000.0 -0.9356 0.3098
5694000000.0 -0.3154 0.9042
5697000000.0 0.4994 0.8645
5700000000.0 0.9957 0.1634
5703000000.0 0.7315 -0.6653
5706000000.0 -0.03906 -1.023
5709000000.0 -0.8123 -0.6202
5712000000.0 -0.9774 0.2842
5716000000.0 -0.4667 0.975
5719000000.0 0.4762 0.9611
5722000000.0 1.049 0.2804
5725000000.0 0.8684 -0.6246
5728000000.0 0.09223 -1.075
5731000000.0 -0.7836 -0.7287
5734000000.0 -1.059 0.1523
5738000000.0 -0.6132 0.9204
5741000000.0 0.3357 1.054
5744000000.0 1.02 0.4446
5747000000.0 0.9738 -0.5174
5750000000.0 0.2345 -1.086
5753000000.0 -0.6961 -0.8905
5756000000.0 -1.107 -0.04565
5759000000.0 -0.7535 0.805
5762000000.0 0.1565 1.097
5766000000.0 0.9594 0.5909
5769000000.0 1.07 -0.3526
5772000000.0 0.3667 -1.032
5775000000.0 -0.5419 -0.9789
5778000000.0 -1.059 -0.2107
5781000000.0 -0.8359 0.734
5784000000.0 0.03549 1.074
5788000000.0 0.8226 0.6873
5791000000.0 1.062 -0.2159
5794000000.0 0.5027 -0.9371
5797000000.0 -0.3716 -0.9852
5800000000.0 -1.011 -0.3242
5803000000.0 -0.8813 0.5734
5806000000.0 -0.1391 1.04
5809000000.0 0.7145 0.774
5812000000.0 1.001 -0.09566
5816000000.0 0.5768 -0.868
5819000000.0 -0.2985 -0.9359
5822000000.0 -0.8981 -0.391
5825000000.0 -0.8819 0.4531
5828000000.0 -0.1919 0.9433
5831000000.0 0.6455 0.7224
5834000000.0 0.9457 0.00156
5838000000.0 0.5988 -0.7466
5841000000.0 -0.2286 -0.9271
5844000000.0 -0.8394 -0.4385
5847000000.0 -0.8381 0.404
5850000000.0 -0.2083 0.917
5853000000.0 0.5259 0.7178
5856000000.0 0.9569 0.006217
5859000000.0 0.5507 -0.7067
5862000000.0 -0.1988 -0.8898
5866000000.0 -0.8025 -0.3806
5869000000.0 -0.8184 0.3922
5872000000.0 -0.2047 0.872
5875000000.0 0.4938 0.694
5878000000.0 0.8347 0.02991
5881000000.0 0.5801 -0.6556
5884000000.0 -0.1372 -0.8607
5888000000.0 -0.7654 -0.3957
5891000000.0 -0.7975 0.3566
5894000000.0 -0.2574 0.8036
5897000000.0 0.4948 0.7161
5900000000.0 0.8726 0.07371
5903000000.0 0.6034 -0.6493
5906000000.0 -0.09945 -0.894
5909000000.0 -0.7432 -0.4626
5912000000.0 -0.802 0.2622
5916000000.0 -0.3353 0.8252
5919000000.0 0.4268 0.7439
5922000000.0 0.8619 0.1582
5925000000.0 0.6784 -0.5836
5928000000.0 -0.02619 -0.9263
5931000000.0 -0.7377 -0.5533
5934000000.0 -0.869 0.2118
5938000000.0 -0.4358 0.7955
5941000000.0 0.3532 0.8395
5944000000.0 0.8767 0.2594
5947000000.0 0.7526 -0.4999
5950000000.0 0.1256 -0.9357
5953000000.0 -0.6533 -0.6764
5956000000.0 -0.9658 0.0531
5959000000.0 -0.5571 0.7767
5962000000.0 0.2295 0.9016
5966000000.0 0.8718 0.4376
5969000000.0 0.8721 -0.369
5972000000.0 0.2715 -0.9185
5975000000.0 -0.5672 -0.8198
5978000000.0 -0.9859 -0.1035
5981000000.0 -0.6857 0.6905
5984000000.0 0.0979 0.984
5988000000.0 0.8211 0.5885
5991000000.0 0.9728 -0.2771
5994000000.0 0.3976 -0.9139
5997000000.0 -0.4781 -0.8961
6000000000.0 -0.9677 -0.2089
6003000000.0 -0.7756 0.6198
6006000000.0 0.000193 0.9893
6009000000.0 0.761 0.6336
6012000000.0 0.9559 -0.1951
6016000000.0 0.4707 -0.8849
6019000000.0 -0.3868 -0.9063
6022000000.0 -0.9313 -0.291
6025000000.0 -0.7974 0.537
6028000000.0 -0.05884 0.962
6031000000.0 0.6936 0.6657
6034000000.0 0.9382 -0.1412
6038000000.0 0.4933 -0.7864
6041000000.0 -0.3365 -0.9096
6044000000.0 -0.8623 -0.3281
6047000000.0 -0.7974 0.4823
6050000000.0 -0.1477 0.8985
6053000000.0 0.6244 0.6503
6056000000.0 0.8908 -0.05524
6059000000.0 0.5142 -0.7249
6062000000.0 -0.2501 -0.8532
6066000000.0 -0.8254 -0.3104
6069000000.0 -0.7634 0.4364
6072000000.0 -0.1456 0.8525
6075000000.0 0.562 0.6579
6078000000.0 0.8627 -0.02992
6081000000.0 0.4927 -0.6846
6084000000.0 -0.2159 -0.8144
6088000000.0 -0.7647 -0.3372
6091000000.0 -0.7274 0.3814
6094000000.0 -0.1829 0.8342
6097000000.0 0.5151 0.6482
6100000000.0 0.8436 -0.02048
6103000000.0 0.53 -0.6546
6106000000.0 -0.1646 -0.8497
6109000000.0 -0.7951 -0.3701
6112000000.0 -0.7735 0.3273
6116000000.0 -0.2381 0.8372
6119000000.0 0.5518 0.7021
6122000000.0 0.8829 0.03946
6125000000.0 0.5752 -0.6807
6128000000.0 -0.1824 -0.894
6131000000.0 -0.785 -0.4352
6134000000.0 -0.8827 0.3335
6138000000.0 -0.2553 0.8704
6141000000.0 0.4987 0.7568
6144000000.0 0.8946 0.06038
6147000000.0 0.6337 -0.6601
6150000000.0 -0.09782 -0.9483
6153000000.0 -0.7841 -0.5069
6156000000.0 -0.9122 0.2907
6159000000.0 -0.3221 0.8766
6162000000.0 0.493 0.8211
6166000000.0 0.9479 0.139
6169000000.0 0.7568 -0.6341
6172000000.0 -0.05957 -0.9625
6175000000.0 -0.774 -0.5565
6178000000.0 -0.9603 0.2341
6181000000.0 -0.4184 0.9013
6184000000.0 0.4149 0.8687
6188000000.0 0.9518 0.2123
6191000000.0 0.7517 -0.5866
6194000000.0 0.07112 -0.9572
6197000000.0 -0.6915 -0.6561
6200000000.0 -0.9092 0.1014
6203000000.0 -0.4558 0.8366
6206000000.0 0.341 0.8665
6209000000.0 0.9161 0.292
6212000000.0 0.798 -0.445
6216000000.0 0.1292 -0.9342
6219000000.0 -0.5959 -0.6687
6222000000.0 -0.8905 0.04142
6225000000.0 -0.5623 0.7139
6228000000.0 0.2631 0.8673
6231000000.0 0.8009 0.4013
6234000000.0 0.7992 -0.3559
6238000000.0 0.2329 -0.8329
6241000000.0 -0.5172 -0.7279
6244000000.0 -0.8655 -0.07865
6247000000.0 -0.5938 0.6088
6250000000.0 0.08741 0.8535
6253000000.0 0.7172 0.4624
6256000000.0 0.8127 -0.2495
6259000000.0 0.3109 -0.7506
6262000000.0 -0.3698 -0.7436
