! Created with skrf 1.8.0 (http://scikit-rf.org).
# Hz S RI R 50.0 
!freq ReS11 ImS11
4000000000.0 -0.1594 -1.489
4003000000.0 -1.275 -0.8019
4006000000.0 -1.429 0.5155
4009000000.0 -0.4112 1.451
4012000000.0 0.8059 1.271
4016000000.0 1.493 0.163
4019000000.0 1.09 -1.078
4022000000.0 -0.1428 -1.601
4025000000.0 -1.281 -0.854
4028000000.0 -1.46 0.5202
4031000000.0 -0.5477 1.537
4034000000.0 0.882 1.42
4038000000.0 1.618 0.1866
4041000000.0 1.157 -1.154
4044000000.0 -0.1659 -1.623
4047000000.0 -1.329 -0.8727
4050000000.0 -1.527 0.5023
4053000000.0 -0.5807 1.488
4056000000.0 0.7755 1.408
4059000000.0 1.563 0.2713
4062000000.0 1.235 -1.017
4066000000.0 -0.04217 -1.588
4069000000.0 -1.254 -1.01
4072000000.0 -1.61 0.3481
4075000000.0 -0.7902 1.405
4078000000.0 0.5899 1.535
4081000000.0 1.555 0.5038
4084000000.0 1.366 -0.8669
4088000000.0 0.2044 -1.639
4091000000.0 -1.142 -1.197
4094000000.0 -1.634 0.1415
4097000000.0 -0.9596 1.325
4100000000.0 0.4151 1.565
4103000000.0 1.425 0.636
4106000000.0 1.408 -0.631
4109000000.0 0.3795 -1.469
4112000000.0 -0.8487 -1.246
4116000000.0 -1.483 -0.126
4119000000.0 -1.103 1.026
4122000000.0 0.06436 1.47
4125000000.0 1.146 0.9398
4128000000.0 1.45 -0.2799
4131000000.0 0.7744 -1.28
4134000000.0 -0.4772 -1.412
4138000000.0 -1.358 -0.5534
4141000000.0 -1.308 0.6609
4144000000.0 -0.3251 1.467
4147000000.0 0.8843 1.195
4150000000.0 1.485 0.08695
4153000000.0 1.018 -1.091
4156000000.0 -0.1574 -1.491
4159000000.0 -1.233 -0.8415
4162000000.0 -1.465 0.4327
4166000000.0 -0.6374 1.366
4169000000.0 0.6422 1.331
4172000000.0 1.45 0.361
4175000000.0 1.203 -0.8783
4178000000.0 0.123 -1.499
4181000000.0 -1.05 -1.034
4184000000.0 -1.476 0.1695
4188000000.0 -0.8333 1.258
4191000000.0 0.4151 1.443
4194000000.0 1.421 0.5896
4197000000.0 1.384 -0.7291
4200000000.0 0.3086 -1.58
4203000000.0 -1.022 -1.218
4206000000.0 -1.593 0.0139
4209000000.0 -0.965 1.337
4212000000.0 0.4527 1.607
4216000000.0 1.512 0.6234
4219000000.0 1.458 -0.8433
4222000000.0 0.2314 -1.657
4225000000.0 -1.196 -1.184
4228000000.0 -1.659 0.2269
4231000000.0 -0.7912 1.436
4234000000.0 0.6813 1.513
4238000000.0 1.587 0.3801
4241000000.0 1.254 -1.017
4244000000.0 -0.05275 -1.566
4247000000.0 -1.269 -0.9368
4250000000.0 -1.506 0.4551
4253000000.0 -0.5902 1.476
4256000000.0 0.7598 1.319
4259000000.0 1.51 0.2037
4262000000.0 1.066 -1.073
4266000000.0 -0.1881 -1.479
4269000000.0 -1.258 -0.7636
4272000000.0 -1.359 0.55
4275000000.0 -0.4496 1.425
4278000000.0 0.8001 1.187
4281000000.0 1.467 0.07254
4284000000.0 0.9257 -1.056
4288000000.0 -0.2553 -1.345
4291000000.0 -1.185 -0.646
4294000000.0 -1.247 0.501
4297000000.0 -0.4061 1.249
4300000000.0 0.7307 1.062
4303000000.0 1.273 0.1421
4306000000.0 0.9578 -0.8474
4309000000.0 -0.05181 -1.305
4312000000.0 -1.034 -0.7842
4316000000.0 -1.252 0.2502
4319000000.0 -0.6041 1.108
4322000000.0 0.5061 1.169
4325000000.0 1.237 0.428
4328000000.0 1.136 -0.7066
4331000000.0 0.2144 -1.326
4334000000.0 -0.8742 -1.003
4338000000.0 -1.381 0.04365
4341000000.0 -0.8602 1.076
4344000000.0 0.2773 1.366
4347000000.0 1.271 0.645
4350000000.0 1.325 -0.5814
4353000000.0 0.4311 -1.349
4356000000.0 -0.8149 -1.199
4359000000.0 -1.428 -0.1453
4362000000.0 -1.038 1.035
4366000000.0 0.09192 1.451
4369000000.0 1.225 0.8729
4372000000.0 1.387 -0.37
4375000000.0 0.5978 -1.36
4378000000.0 -0.6314 -1.339
4381000000.0 -1.476 -0.3584
4384000000.0 -1.199 0.9386
4388000000.0 -0.06 1.554
4391000000.0 1.207 1.02
4394000000.0 1.568 -0.3047
4397000000.0 0.7358 -1.395
4400000000.0 -0.5926 -1.454
4403000000.0 -1.549 -0.4355
4406000000.0 -1.235 0.9635
4409000000.0 -0.0303 1.575
4412000000.0 1.238 0.9545
4416000000.0 1.478 -0.3427
4419000000.0 0.6453 -1.352
4422000000.0 -0.6915 -1.335
4425000000.0 -1.44 -0.284
4428000000.0 -1.093 0.9381
4431000000.0 0.09024 1.413
4434000000.0 1.138 0.7992
4438000000.0 1.32 -0.3748
4441000000.0 0.4748 -1.292
4444000000.0 -0.7288 -1.135
4447000000.0 -1.31 -0.1556
4450000000.0 -0.897 0.9866
4453000000.0 0.1586 1.309
4456000000.0 1.11 0.6324
4459000000.0 1.188 -0.4961
4462000000.0 0.3335 -1.183
4466000000.0 -0.7747 -0.9759
4469000000.0 -1.217 -0.002171
4472000000.0 -0.7413 0.9195
4475000000.0 0.3057 1.124
4478000000.0 1.043 0.4817
4481000000.0 1.034 -0.5434
4484000000.0 0.1908 -1.131
4488000000.0 -0.7648 -0.8334
4491000000.0 -1.142 0.06098
4494000000.0 -0.6591 0.9033
4497000000.0 0.3014 1.105
4500000000.0 1.047 0.4494
4503000000.0 0.9702 -0.5118
4506000000.0 0.2276 -1.073
4509000000.0 -0.6999 -0.8676
4512000000.0 -1.133 -0.0003072
4516000000.0 -0.702 0.8876
4519000000.0 0.2248 1.114
4522000000.0 1.011 0.5013
4525000000.0 1.076 -0.4565
4528000000.0 0.3004 -1.113
4531000000.0 -0.6745 -0.9627
4534000000.0 -1.171 -0.1064
4538000000.0 -0.8181 0.8715
4541000000.0 0.1287 1.209
4544000000.0 0.9937 0.6556
4547000000.0 1.156 -0.3404
4550000000.0 0.463 -1.131
4553000000.0 -0.5726 -1.107
4556000000.0 -1.183 -0.2877
4559000000.0 -0.9768 0.7281
4562000000.0 -0.05585 1.238
4566000000.0 0.9335 0.8636
4569000000.0 1.284 -0.1608
4572000000.0 0.6883 -1.093
4575000000.0 -0.3691 -1.252
4578000000.0 -1.212 -0.4959
4581000000.0 -1.182 0.6199
4584000000.0 -0.2798 1.315
4588000000.0 0.8356 1.065
4591000000.0 1.365 0.03645
4594000000.0 0.9052 -1.057
4597000000.0 -0.2281 -1.363
4600000000.0 -1.203 -0.6806
4603000000.0 -1.294 0.4976
4606000000.0 -0.4482 1.319
4609000000.0 0.7409 1.182
4612000000.0 1.406 0.1584
4616000000.0 1.027 -0.9611
4619000000.0 -0.1315 -1.396
4622000000.0 -1.132 -0.7665
4625000000.0 -1.32 0.3699
4628000000.0 -0.5381 1.249
4631000000.0 0.6484 1.21
4634000000.0 1.333 0.2582
4638000000.0 1.049 -0.8721
4641000000.0 -0.04587 -1.343
4644000000.0 -1.066 -0.7997
4647000000.0 -1.276 0.3592
4650000000.0 -0.5393 1.209
4653000000.0 0.6022 1.151
4656000000.0 1.234 0.2408
4659000000.0 0.9555 -0.8272
4662000000.0 -0.07103 -1.25
4666000000.0 -0.9834 -0.7185
4669000000.0 -1.122 0.3447
4672000000.0 -0.4328 1.063
4675000000.0 0.5582 0.9996
4678000000.0 1.144 0.1839
4681000000.0 0.8283 -0.7577
4684000000.0 -0.05914 -1.113
4688000000.0 -0.9088 -0.6624
4691000000.0 -1.082 0.3357
4694000000.0 -0.3974 1.01
4697000000.0 0.5087 0.9312
4700000000.0 1.085 0.1641
4703000000.0 0.7967 -0.7482
4706000000.0 -0.07915 -1.048
4709000000.0 -0.9033 -0.6052
4712000000.0 -1.008 0.3313
4716000000.0 -0.3565 0.9709
4719000000.0 0.555 0.9099
4722000000.0 1.042 0.1707
4725000000.0 0.7652 -0.6962
4728000000.0 -0.0723 -1.045
4731000000.0 -0.8355 -0.6146
4734000000.0 -1.007 0.2997
4738000000.0 -0.4507 0.9538
4741000000.0 0.483 0.9343
4744000000.0 1.007 0.2911
4747000000.0 0.8694 -0.6189
4750000000.0 0.0557 -1.081
4753000000.0 -0.791 -0.7483
4756000000.0 -1.081 0.1326
4759000000.0 -0.5861 0.9074
4762000000.0 0.3013 1.06
4766000000.0 1.051 0.4308
4769000000.0 1.033 -0.5381
4772000000.0 0.2461 -1.151
4775000000.0 -0.7083 -0.907
4778000000.0 -1.182 -0.0756
4781000000.0 -0.8052 0.8944
4784000000.0 0.1695 1.192
4788000000.0 1.039 0.6572
4791000000.0 1.164 -0.371
4794000000.0 0.4908 -1.156
4797000000.0 -0.5541 -1.123
4800000000.0 -1.233 -0.3094
4803000000.0 -0.9951 0.7461
4806000000.0 -0.06972 1.24
4809000000.0 0.9415 0.879
4812000000.0 1.266 -0.1441
4816000000.0 0.7371 -1.081
4819000000.0 -0.3851 -1.286
4822000000.0 -1.238 -0.5252
4825000000.0 -1.191 0.6183
4828000000.0 -0.2991 1.336
4831000000.0 0.8791 1.072
4834000000.0 1.37 0.0435
4838000000.0 0.89 -1.095
4841000000.0 -0.245 -1.361
4844000000.0 -1.232 -0.6567
4847000000.0 -1.304 0.5361
4850000000.0 -0.4176 1.306
4853000000.0 0.75 1.12
4856000000.0 1.368 0.1424
4859000000.0 0.9367 -0.962
4862000000.0 -0.1542 -1.322
4866000000.0 -1.126 -0.7159
4869000000.0 -1.243 0.3959
4872000000.0 -0.4652 1.227
4875000000.0 0.6511 1.117
4878000000.0 1.259 0.2013
4881000000.0 0.9533 -0.8586
4884000000.0 -0.06419 -1.233
4888000000.0 -0.9992 -0.7004
4891000000.0 -1.147 0.3447
4894000000.0 -0.4669 1.068
4897000000.0 0.5206 1.004
4900000000.0 1.081 0.2068
4903000000.0 0.8482 -0.6863
4906000000.0 -0.009239 -1.087
4909000000.0 -0.8258 -0.6572
4912000000.0 -0.9745 0.2372
4916000000.0 -0.4657 0.9065
4919000000.0 0.4278 0.9051
4922000000.0 0.953 0.2664
4925000000.0 0.7848 -0.5544
4928000000.0 0.03346 -0.9618
4931000000.0 -0.6783 -0.6647
4934000000.0 -0.9204 0.101
4938000000.0 -0.5073 0.8065
4941000000.0 0.2842 0.9043
4944000000.0 0.8909 0.3295
4947000000.0 0.8135 -0.4797
4950000000.0 0.1832 -0.9667
4953000000.0 -0.6362 -0.6843
4956000000.0 -0.9694 0.03833
4959000000.0 -0.5647 0.7505
4962000000.0 0.2584 0.957
4966000000.0 0.9102 0.4102
4969000000.0 0.8878 -0.4311
4972000000.0 0.2352 -0.9796
4975000000.0 -0.5983 -0.7915
4978000000.0 -1.027 -0.04456
4981000000.0 -0.6837 0.7863
4984000000.0 0.1498 1.033
4988000000.0 0.9064 0.5421
4991000000.0 1.014 -0.3479
4994000000.0 0.3853 -1.013
4997000000.0 -0.5378 -0.9668
5000000000.0 -1.087 -0.2025
5003000000.0 -0.8886 0.7376
5006000000.0 -0.004366 1.155
5009000000.0 0.9116 0.7561
5012000000.0 1.174 -0.2316
5016000000.0 0.5674 -1.109
5019000000.0 -0.4717 -1.149
5022000000.0 -1.226 -0.3912
5025000000.0 -1.063 0.6902
5028000000.0 -0.1281 1.273
5031000000.0 0.8861 0.919
5034000000.0 1.271 -0.1224
5038000000.0 0.741 -1.082
5041000000.0 -0.3693 -1.237
5044000000.0 -1.187 -0.5266
5047000000.0 -1.156 0.5459
5050000000.0 -0.2932 1.234
5053000000.0 0.7486 1.035
5056000000.0 1.275 0.09759
5059000000.0 0.8932 -0.9296
5062000000.0 -0.1368 -1.32
5066000000.0 -1.089 -0.7157
5069000000.0 -1.245 0.3747
5072000000.0 -0.4939 1.166
5075000000.0 0.6016 1.143
5078000000.0 1.208 0.2558
5081000000.0 0.9753 -0.7793
5084000000.0 0.02965 -1.204
5088000000.0 -0.902 -0.8052
5091000000.0 -1.212 0.1721
5094000000.0 -0.6094 1.016
5097000000.0 0.369 1.081
5100000000.0 1.051 0.3803
5103000000.0 0.9748 -0.5469
5106000000.0 0.23 -1.098
5109000000.0 -0.6862 -0.8721
5112000000.0 -1.05 0.005008
5116000000.0 -0.6889 0.7863
5119000000.0 0.1756 1.027
5122000000.0 0.8749 0.5264
5125000000.0 0.9364 -0.3243
5128000000.0 0.3394 -0.9561
5131000000.0 -0.481 -0.8534
5134000000.0 -0.9855 -0.142
5138000000.0 -0.7191 0.6628
5141000000.0 0.02678 0.9587
5144000000.0 0.746 0.5626
5147000000.0 0.916 -0.241
5150000000.0 0.4164 -0.8184
5153000000.0 -0.3897 -0.8328
5156000000.0 -0.8985 -0.1824
5159000000.0 -0.725 0.5501
5162000000.0 -0.03405 0.8877
5166000000.0 0.6997 0.6041
5169000000.0 0.8712 -0.1593
5172000000.0 0.4127 -0.7795
5175000000.0 -0.3341 -0.8376
5178000000.0 -0.8381 -0.2731
5181000000.0 -0.7526 0.5379
5184000000.0 -0.06196 0.9307
5188000000.0 0.657 0.6329
5191000000.0 0.8891 -0.1398
5194000000.0 0.4586 -0.7972
5197000000.0 -0.3236 -0.8321
5200000000.0 -0.8781 -0.303
5203000000.0 -0.7811 0.534
5206000000.0 -0.08676 0.9326
5209000000.0 0.6707 0.644
5212000000.0 0.9802 -0.1159
5216000000.0 0.5061 -0.7996
5219000000.0 -0.3243 -0.9354
5222000000.0 -0.9512 -0.3511
5225000000.0 -0.8573 0.5125
5228000000.0 -0.1626 0.9877
5231000000.0 0.6733 0.7642
5234000000.0 1.025 -0.06425
5238000000.0 0.6162 -0.8243
5241000000.0 -0.2493 -0.9933
5244000000.0 -0.9428 -0.4522
5247000000.0 -0.9725 0.4473
5250000000.0 -0.2836 1.03
5253000000.0 0.6183 0.8725
5256000000.0 1.081 0.1052
5259000000.0 0.7581 -0.7618
5262000000.0 -0.1029 -1.087
5266000000.0 -0.8926 -0.6297
5269000000.0 -1.065 0.2605
5272000000.0 -0.4758 0.9862
5275000000.0 0.469 1.014
5278000000.0 1.045 0.2963
5281000000.0 0.8993 -0.6056
5284000000.0 0.131 -1.101
5288000000.0 -0.7494 -0.8106
5291000000.0 -1.089 0.07361
5294000000.0 -0.6648 0.8972
5297000000.0 0.2208 1.061
5300000000.0 0.9642 0.5065
5303000000.0 1.05 -0.4059
5306000000.0 0.3672 -1.076
5309000000.0 -0.5915 -0.9342
5312000000.0 -1.122 -0.1597
5316000000.0 -0.8177 0.7513
5319000000.0 0.04131 1.153
5322000000.0 0.9049 0.6953
5325000000.0 1.099 -0.2322
5328000000.0 0.5319 -1.003
5331000000.0 -0.4326 -1.05
5334000000.0 -1.066 -0.3438
5338000000.0 -0.9739 0.6093
5341000000.0 -0.1116 1.119
5344000000.0 0.7495 0.8025
5347000000.0 1.101 -0.08787
5350000000.0 0.6193 -0.8735
5353000000.0 -0.2972 -1.058
5356000000.0 -0.9892 -0.4288
5359000000.0 -0.9482 0.5263
5362000000.0 -0.2057 1.066
5366000000.0 0.6738 0.7796
5369000000.0 1.059 -0.009731
5372000000.0 0.6097 -0.8473
5375000000.0 -0.2634 -1.02
5378000000.0 -0.8977 -0.4253
5381000000.0 -0.8428 0.4854
5384000000.0 -0.1727 0.9701
5388000000.0 0.6537 0.7347
5391000000.0 0.9399 -0.03481
5394000000.0 0.5298 -0.7885
5397000000.0 -0.2775 -0.8968
5400000000.0 -0.8495 -0.3408
5403000000.0 -0.761 0.4482
5406000000.0 -0.1375 0.8642
5409000000.0 0.5981 0.6511
5412000000.0 0.8878 -0.08019
5416000000.0 0.472 -0.7094
5419000000.0 -0.2713 -0.791
5422000000.0 -0.8082 -0.2955
5425000000.0 -0.714 0.437
5428000000.0 -0.1238 0.8599
5431000000.0 0.6028 0.6312
5434000000.0 0.8401 -0.06794
5438000000.0 0.5007 -0.7449
5441000000.0 -0.2492 -0.8429
5444000000.0 -0.8264 -0.3412
5447000000.0 -0.7732 0.4617
5450000000.0 -0.09953 0.9187
5453000000.0 0.6085 0.6531
5456000000.0 0.9001 -0.02333
5459000000.0 0.5425 -0.7505
5462000000.0 -0.1868 -0.8631
5466000000.0 -0.8136 -0.4081
5469000000.0 -0.8434 0.3734
5472000000.0 -0.2561 0.9014
5475000000.0 0.5098 0.8104
5478000000.0 0.9484 0.09854
5481000000.0 0.694 -0.6337
5484000000.0 -0.06553 -0.9624
5488000000.0 -0.8139 -0.5789
5491000000.0 -0.956 0.2283
5494000000.0 -0.4421 0.8835
5497000000.0 0.4206 0.9075
5500000000.0 0.9735 0.249
5503000000.0 0.852 -0.5642
5506000000.0 0.1118 -0.9986
5509000000.0 -0.7387 -0.7466
5512000000.0 -1.031 0.08672
5516000000.0 -0.6113 0.8553
5519000000.0 0.2535 0.9946
5522000000.0 0.9793 0.4546
5525000000.0 0.9632 -0.4525
5528000000.0 0.2934 -1.007
5531000000.0 -0.5455 -0.8689
5534000000.0 -1.042 -0.1083
5538000000.0 -0.7411 0.708
5541000000.0 0.04918 1.038
5544000000.0 0.8543 0.6136
5547000000.0 1.043 -0.2854
5550000000.0 0.44 -0.9761
5553000000.0 -0.4298 -0.9456
5556000000.0 -1.028 -0.2899
5559000000.0 -0.847 0.6168
5562000000.0 -0.07923 1.044
5566000000.0 0.7578 0.7025
5569000000.0 1.024 -0.1034
5572000000.0 0.539 -0.8738
5575000000.0 -0.3057 -0.9494
5578000000.0 -0.8921 -0.3704
5581000000.0 -0.8701 0.4773
5584000000.0 -0.167 0.9602
5588000000.0 0.639 0.7141
5591000000.0 0.9358 -0.02893
5594000000.0 0.5867 -0.734
5597000000.0 -0.1837 -0.8871
5600000000.0 -0.7979 -0.4085
5603000000.0 -0.8204 0.3438
5606000000.0 -0.2393 0.8326
5609000000.0 0.5103 0.7177
5612000000.0 0.9026 0.05289
5616000000.0 0.5589 -0.611
5619000000.0 -0.1195 -0.8099
5622000000.0 -0.7373 -0.4055
5625000000.0 -0.772 0.3137
5628000000.0 -0.2432 0.7844
5631000000.0 0.4603 0.6723
5634000000.0 0.8247 0.08376
5638000000.0 0.5579 -0.5927
5641000000.0 -0.11 -0.7995
5644000000.0 -0.6775 -0.3905
5647000000.0 -0.7893 0.2841
5650000000.0 -0.2685 0.8108
5653000000.0 0.4614 0.7211
5656000000.0 0.8388 0.09568
5659000000.0 0.5826 -0.615
5662000000.0 -0.1258 -0.875
5666000000.0 -0.7519 -0.4858
5669000000.0 -0.8143 0.3113
5672000000.0 -0.2814 0.8588
5675000000.0 0.462 0.768
5678000000.0 0.9255 0.1431
5681000000.0 0.6756 -0.6545
5684000000.0 -0.103 -0.9421
5688000000.0 -0.7872 -0.5498
5691000000.0 -0.909 0.2905
5694000000.0 -0.3458 0.9034
5697000000.0 0.4681 0.8528
5700000000.0 0.9847 0.1623
5703000000.0 0.7619 -0.6596
5706000000.0 -0.03581 -1.027
5709000000.0 -0.8147 -0.6375
5712000000.0 -1.024 0.2435
5716000000.0 -0.4728 0.9264
5719000000.0 0.4394 0.9758
5722000000.0 1.043 0.291
5725000000.0 0.8705 -0.6326
5728000000.0 0.07748 -1.067
5731000000.0 -0.7523 -0.7676
5734000000.0 -1.064 0.118
5738000000.0 -0.595 0.9117
5741000000.0 0.2845 1.089
5744000000.0 1.011 0.4344
5747000000.0 1.005 -0.5233
5750000000.0 0.2693 -1.081
5753000000.0 -0.6717 -0.9029
5756000000.0 -1.134 -0.06074
5759000000.0 -0.7753 0.8063
5762000000.0 0.1849 1.083
5766000000.0 0.9478 0.5851
5769000000.0 1.047 -0.3395
5772000000.0 0.4025 -1.027
5775000000.0 -0.4959 -0.9812
5778000000.0 -1.078 -0.2102
5781000000.0 -0.8422 0.6514
5784000000.0 -0.03166 1.103
5788000000.0 0.8266 0.7108
5791000000.0 1.071 -0.1753
5794000000.0 0.5414 -0.9023
5797000000.0 -0.3925 -1.002
5800000000.0 -1.034 -0.3264
5803000000.0 -0.879 0.5479
5806000000.0 -0.158 1.018
5809000000.0 0.6799 0.7618
5812000000.0 1.037 -0.0752
5816000000.0 0.6095 -0.8192
5819000000.0 -0.2648 -0.9815
5822000000.0 -0.926 -0.4213
5825000000.0 -0.8987 0.425
5828000000.0 -0.1866 0.9444
5831000000.0 0.624 0.7625
5834000000.0 0.9531 -0.005234
5838000000.0 0.6052 -0.7282
5841000000.0 -0.1881 -0.9365
5844000000.0 -0.8285 -0.4391
5847000000.0 -0.8549 0.375
5850000000.0 -0.2342 0.8912
5853000000.0 0.5364 0.7265
5856000000.0 0.8973 0.05611
5859000000.0 0.593 -0.6725
5862000000.0 -0.182 -0.9044
5866000000.0 -0.7862 -0.4263
5869000000.0 -0.8189 0.3225
5872000000.0 -0.2312 0.8782
5875000000.0 0.4995 0.75
5878000000.0 0.8798 0.03071
5881000000.0 0.5612 -0.6343
5884000000.0 -0.13 -0.8614
5888000000.0 -0.7408 -0.3971
5891000000.0 -0.8032 0.2817
5894000000.0 -0.2449 0.8208
5897000000.0 0.4825 0.7294
5900000000.0 0.8895 0.08999
5903000000.0 0.5983 -0.5929
5906000000.0 -0.0552 -0.8857
5909000000.0 -0.7271 -0.4975
5912000000.0 -0.8443 0.2209
5916000000.0 -0.3547 0.8009
5919000000.0 0.3858 0.7793
5922000000.0 0.877 0.2071
5925000000.0 0.6801 -0.5515
5928000000.0 0.001601 -0.8883
5931000000.0 -0.7105 -0.5886
5934000000.0 -0.8973 0.1744
5938000000.0 -0.437 0.7566
5941000000.0 0.2914 0.8243
5944000000.0 0.8253 0.3265
5947000000.0 0.7906 -0.4599
5950000000.0 0.1485 -0.9025
5953000000.0 -0.6506 -0.7105
5956000000.0 -0.9448 0.02688
5959000000.0 -0.5989 0.7335
5962000000.0 0.1793 0.9301
5966000000.0 0.8427 0.4796
5969000000.0 0.8842 -0.3506
5972000000.0 0.2633 -0.9533
5975000000.0 -0.4868 -0.8482
5978000000.0 -0.96 -0.1009
5981000000.0 -0.7375 0.6965
5984000000.0 0.05989 0.985
5988000000.0 0.8054 0.5794
5991000000.0 0.9711 -0.2566
5994000000.0 0.4205 -0.9437
5997000000.0 -0.4453 -0.8886
6000000000.0 -0.9897 -0.2473
6003000000.0 -0.7749 0.5943
6006000000.0 -0.0415 0.9851
6009000000.0 0.7041 0.6419
6012000000.0 0.9827 -0.1161
6016000000.0 0.4958 -0.8588
6019000000.0 -0.3381 -0.9088
6022000000.0 -0.8938 -0.3024
6025000000.0 -0.8384 0.5217
6028000000.0 -0.1089 0.936
6031000000.0 0.6413 0.6875
6034000000.0 0.9581 -0.09892
6038000000.0 0.5208 -0.7875
6041000000.0 -0.2736 -0.8741
6044000000.0 -0.8649 -0.3386
6047000000.0 -0.8023 0.4543
6050000000.0 -0.1419 0.9091
6053000000.0 0.5749 0.6765
6056000000.0 0.8801 -0.01087
6059000000.0 0.5241 -0.7295
6062000000.0 -0.2044 -0.8485
6066000000.0 -0.8282 -0.3757
6069000000.0 -0.7745 0.3894
6072000000.0 -0.1952 0.8505
6075000000.0 0.5455 0.6698
6078000000.0 0.8503 0.00343
6081000000.0 0.5316 -0.6591
6084000000.0 -0.193 -0.8205
6088000000.0 -0.7675 -0.4066
6091000000.0 -0.7584 0.349
6094000000.0 -0.1949 0.8278
6097000000.0 0.481 0.6692
6100000000.0 0.8391 0.02333
6103000000.0 0.5828 -0.6414
6106000000.0 -0.1798 -0.8597
6109000000.0 -0.7454 -0.4152
6112000000.0 -0.7931 0.3283
6116000000.0 -0.2858 0.8356
6119000000.0 0.483 0.7214
6122000000.0 0.8722 0.07741
6125000000.0 0.6164 -0.6445
6128000000.0 -0.1354 -0.8491
6131000000.0 -0.7719 -0.4751
6134000000.0 -0.8475 0.2997
6138000000.0 -0.2994 0.8288
6141000000.0 0.483 0.8028
6144000000.0 0.8981 0.141
6147000000.0 0.6941 -0.6202
6150000000.0 -0.04493 -0.8913
6153000000.0 -0.7654 -0.5487
6156000000.0 -0.921 0.2606
6159000000.0 -0.3595 0.8964
6162000000.0 0.4354 0.845
6166000000.0 0.9508 0.2263
6169000000.0 0.7119 -0.6526
6172000000.0 0.008124 -0.9715
6175000000.0 -0.7389 -0.6135
6178000000.0 -0.9445 0.2053
6181000000.0 -0.4226 0.8793
6184000000.0 0.3588 0.9092
6188000000.0 0.9185 0.2842
6191000000.0 0.7877 -0.5453
6194000000.0 0.1138 -0.9511
6197000000.0 -0.6988 -0.6607
6200000000.0 -0.9663 0.07612
6203000000.0 -0.5085 0.8001
6206000000.0 0.233 0.9176
6209000000.0 0.877 0.3429
6212000000.0 0.8143 -0.4602
6216000000.0 0.1911 -0.9195
6219000000.0 -0.5938 -0.6954
6222000000.0 -0.9203 -0.02487
6225000000.0 -0.5892 0.6855
6228000000.0 0.1588 0.8662
6231000000.0 0.7996 0.3983
6234000000.0 0.8487 -0.3166
6238000000.0 0.2546 -0.8361
6241000000.0 -0.4541 -0.7159
6244000000.0 -0.8421 -0.1001
6247000000.0 -0.5905 0.5664
6250000000.0 0.04834 0.8357
6253000000.0 0.6912 0.4763
6256000000.0 0.809 -0.1824
6259000000.0 0.334 -0.7269
6262000000.0 -0.3634 -0.7668
