! Created with skrf 1.8.0 (http://scikit-rf.org).
# Hz S RI R 50.0 
!freq ReS11 ImS11
4000000000.0 -0.2748 -1.505
4003000000.0 -1.321 -0.7276
4006000000.0 -1.371 0.5995
4009000000.0 -0.4268 1.446
4012000000.0 0.8938 1.302
4016000000.0 1.565 0.08076
4019000000.0 1.038 -1.191
4022000000.0 -0.213 -1.546
4025000000.0 -1.379 -0.8074
4028000000.0 -1.454 0.6228
4031000000.0 -0.4435 1.556
4034000000.0 0.9645 1.308
4038000000.0 1.63 0.1061
4041000000.0 1.122 -1.25
4044000000.0 -0.2898 -1.626
4047000000.0 -1.445 -0.8376
4050000000.0 -1.509 0.6072
4053000000.0 -0.4926 1.526
4056000000.0 0.898 1.325
4059000000.0 1.619 0.1819
4062000000.0 1.16 -1.145
4066000000.0 -0.1225 -1.582
4069000000.0 -1.325 -0.9372
4072000000.0 -1.576 0.4098
4075000000.0 -0.7051 1.466
4078000000.0 0.6831 1.469
4081000000.0 1.559 0.3883
4084000000.0 1.302 -0.9608
4088000000.0 0.1328 -1.664
4091000000.0 -1.206 -1.129
4094000000.0 -1.633 0.2091
4097000000.0 -0.8966 1.403
4100000000.0 0.5035 1.516
4103000000.0 1.499 0.566
4106000000.0 1.393 -0.7474
4109000000.0 0.3202 -1.51
4112000000.0 -0.9407 -1.223
4116000000.0 -1.52 -0.06736
4119000000.0 -1.066 1.111
4122000000.0 0.1691 1.49
4125000000.0 1.196 0.8726
4128000000.0 1.448 -0.3497
4131000000.0 0.6547 -1.316
4134000000.0 -0.5687 -1.346
4138000000.0 -1.42 -0.4638
4141000000.0 -1.25 0.7686
4144000000.0 -0.2357 1.474
4147000000.0 0.9765 1.141
4150000000.0 1.486 0.01137
4153000000.0 0.9519 -1.169
4156000000.0 -0.2664 -1.5
4159000000.0 -1.3 -0.7493
4162000000.0 -1.408 0.5411
4166000000.0 -0.4821 1.419
4169000000.0 0.7486 1.283
4172000000.0 1.473 0.2627
4175000000.0 1.138 -0.9781
4178000000.0 -0.03146 -1.503
4181000000.0 -1.184 -0.9594
4184000000.0 -1.486 0.3014
4188000000.0 -0.6997 1.332
4191000000.0 0.5635 1.372
4194000000.0 1.447 0.4804
4197000000.0 1.308 -0.8782
4200000000.0 0.1452 -1.563
4203000000.0 -1.173 -1.126
4206000000.0 -1.592 0.2543
4209000000.0 -0.8157 1.441
4212000000.0 0.6211 1.548
4216000000.0 1.621 0.4647
4219000000.0 1.322 -0.9972
4222000000.0 -0.02168 -1.671
4225000000.0 -1.335 -1.05
4228000000.0 -1.613 0.4592
4231000000.0 -0.6192 1.528
4234000000.0 0.8687 1.391
4238000000.0 1.591 0.1428
4241000000.0 1.096 -1.174
4244000000.0 -0.2459 -1.556
4247000000.0 -1.369 -0.7109
4250000000.0 -1.368 0.6355
4253000000.0 -0.3628 1.453
4256000000.0 0.9639 1.175
4259000000.0 1.483 -0.03505
4262000000.0 0.8745 -1.219
4266000000.0 -0.4385 -1.409
4269000000.0 -1.339 -0.5625
4272000000.0 -1.27 0.6674
4275000000.0 -0.2024 1.42
4278000000.0 0.978 1.1
4281000000.0 1.388 -0.126
4284000000.0 0.7357 -1.187
4288000000.0 -0.4444 -1.318
4291000000.0 -1.256 -0.4834
4294000000.0 -1.179 0.6681
4297000000.0 -0.2364 1.339
4300000000.0 0.844 1.007
4303000000.0 1.286 0.01564
4306000000.0 0.8035 -0.9625
4309000000.0 -0.2479 -1.279
4312000000.0 -1.101 -0.6653
4316000000.0 -1.254 0.4286
4319000000.0 -0.4376 1.204
4322000000.0 0.6081 1.171
4325000000.0 1.297 0.2679
4328000000.0 1.028 -0.8416
4331000000.0 0.01163 -1.357
4334000000.0 -1.081 -0.901
4338000000.0 -1.375 0.2449
4341000000.0 -0.7225 1.167
4344000000.0 0.4418 1.332
4347000000.0 1.35 0.4903
4350000000.0 1.236 -0.715
4353000000.0 0.1968 -1.453
4356000000.0 -1.02 -1.125
4359000000.0 -1.477 0.06543
4362000000.0 -0.9237 1.172
4366000000.0 0.3443 1.468
4369000000.0 1.351 0.6723
4372000000.0 1.362 -0.5916
4375000000.0 0.4221 -1.439
4378000000.0 -0.8909 -1.239
4381000000.0 -1.533 -0.1306
4384000000.0 -1.091 1.167
4388000000.0 0.2104 1.558
4391000000.0 1.367 0.7645
4394000000.0 1.482 -0.5865
4397000000.0 0.4779 -1.514
4400000000.0 -0.9381 -1.286
4403000000.0 -1.569 -0.08188
4406000000.0 -1.062 1.158
4409000000.0 0.285 1.532
4412000000.0 1.374 0.6875
4416000000.0 1.397 -0.6628
4419000000.0 0.3234 -1.469
4422000000.0 -0.9752 -1.14
4425000000.0 -1.464 0.04319
4428000000.0 -0.8498 1.169
4431000000.0 0.4018 1.336
4434000000.0 1.29 0.5217
4438000000.0 1.183 -0.7063
4441000000.0 0.1591 -1.349
4444000000.0 -0.9638 -0.9218
4447000000.0 -1.258 0.1733
4450000000.0 -0.673 1.109
4453000000.0 0.477 1.152
4456000000.0 1.23 0.326
4459000000.0 1.006 -0.741
4462000000.0 0.02932 -1.194
4466000000.0 -0.9755 -0.7708
4469000000.0 -1.163 0.2534
4472000000.0 -0.5127 1.069
4475000000.0 0.5405 1.04
4478000000.0 1.169 0.2002
4481000000.0 0.8947 -0.7639
4484000000.0 -0.03706 -1.167
4488000000.0 -0.9102 -0.6785
4491000000.0 -1.133 0.2762
4494000000.0 -0.4599 1.016
4497000000.0 0.5436 1.016
4500000000.0 1.141 0.2464
4503000000.0 0.8925 -0.7052
4506000000.0 0.01126 -1.097
4509000000.0 -0.8777 -0.7241
4512000000.0 -1.13 0.2334
4516000000.0 -0.5395 1.008
4519000000.0 0.4559 1.086
4522000000.0 1.146 0.3121
4525000000.0 0.9937 -0.6889
4528000000.0 0.1254 -1.203
4531000000.0 -0.8614 -0.8498
4534000000.0 -1.216 0.117
4538000000.0 -0.661 1.03
4541000000.0 0.337 1.168
4544000000.0 1.126 0.4855
4547000000.0 1.116 -0.5451
4550000000.0 0.2824 -1.231
4553000000.0 -0.7517 -1.004
4556000000.0 -1.255 -0.07912
4559000000.0 -0.8513 0.9511
4562000000.0 0.1508 1.292
4566000000.0 1.088 0.6808
4569000000.0 1.263 -0.3926
4572000000.0 0.5147 -1.216
4575000000.0 -0.6307 -1.189
4578000000.0 -1.326 -0.295
4581000000.0 -1.074 0.8508
4584000000.0 -0.03146 1.359
4588000000.0 1.051 0.919
4591000000.0 1.387 -0.2463
4594000000.0 0.7234 -1.215
4597000000.0 -0.4934 -1.321
4600000000.0 -1.344 -0.4746
4603000000.0 -1.203 0.7532
4606000000.0 -0.1777 1.41
4609000000.0 1.002 1.053
4612000000.0 1.395 -0.1397
4616000000.0 0.7672 -1.146
4619000000.0 -0.3934 -1.359
4622000000.0 -1.3 -0.5256
4625000000.0 -1.201 0.6825
4628000000.0 -0.2546 1.347
4631000000.0 0.8966 1.02
4634000000.0 1.341 -0.05383
4638000000.0 0.7932 -1.096
4641000000.0 -0.3547 -1.27
4644000000.0 -1.241 -0.5408
4647000000.0 -1.142 0.6298
4650000000.0 -0.2618 1.282
4653000000.0 0.848 0.9511
4656000000.0 1.263 -0.0601
4659000000.0 0.6803 -1.016
4662000000.0 -0.3771 -1.165
4666000000.0 -1.133 -0.4661
4669000000.0 -1.028 0.5764
4672000000.0 -0.1676 1.129
4675000000.0 0.7862 0.8341
4678000000.0 1.119 -0.08042
4681000000.0 0.6161 -0.9073
4684000000.0 -0.3165 -1.032
4688000000.0 -1.03 -0.3998
4691000000.0 -0.9175 0.5651
4694000000.0 -0.149 1.045
4697000000.0 0.7163 0.7962
4700000000.0 1.079 -0.04933
4703000000.0 0.6173 -0.8976
4706000000.0 -0.2984 -1.064
4709000000.0 -1.033 -0.3858
4712000000.0 -0.9202 0.5404
4716000000.0 -0.1707 1.048
4719000000.0 0.7046 0.79
4722000000.0 1.067 -0.06997
4725000000.0 0.6101 -0.8843
4728000000.0 -0.2855 -1.044
4731000000.0 -0.9895 -0.4069
4734000000.0 -0.9843 0.478
4738000000.0 -0.2469 1.031
4741000000.0 0.6629 0.8584
4744000000.0 1.083 0.0415
4747000000.0 0.7477 -0.7971
4750000000.0 -0.131 -1.103
4753000000.0 -0.9102 -0.6052
4756000000.0 -1.086 0.3395
4759000000.0 -0.457 1.082
4762000000.0 0.5309 1.013
4766000000.0 1.154 0.2465
4769000000.0 0.9332 -0.7266
4772000000.0 0.07292 -1.201
4775000000.0 -0.9334 -0.8187
4778000000.0 -1.197 0.1884
4781000000.0 -0.6464 1.053
4784000000.0 0.3808 1.175
4788000000.0 1.153 0.4744
4791000000.0 1.108 -0.5748
4794000000.0 0.287 -1.279
4797000000.0 -0.772 -1.066
4800000000.0 -1.303 -0.09958
4803000000.0 -0.8732 0.9136
4806000000.0 0.1494 1.285
4809000000.0 1.108 0.716
4812000000.0 1.277 -0.3806
4816000000.0 0.5553 -1.216
4819000000.0 -0.6306 -1.23
4822000000.0 -1.337 -0.3002
4825000000.0 -1.094 0.8865
4828000000.0 -0.04552 1.409
4831000000.0 1.091 0.9218
4834000000.0 1.39 -0.2711
4838000000.0 0.6673 -1.229
4841000000.0 -0.5447 -1.286
4844000000.0 -1.331 -0.4242
4847000000.0 -1.158 0.7907
4850000000.0 -0.1304 1.365
4853000000.0 0.9845 0.9524
4856000000.0 1.348 -0.1929
4859000000.0 0.72 -1.127
4862000000.0 -0.4306 -1.28
4866000000.0 -1.21 -0.4464
4869000000.0 -1.107 0.6436
4872000000.0 -0.1778 1.253
4875000000.0 0.85 0.903
4878000000.0 1.234 -0.08119
4881000000.0 0.7086 -0.9711
4884000000.0 -0.3235 -1.14
4888000000.0 -1.074 -0.4533
4891000000.0 -1.037 0.5422
4894000000.0 -0.197 1.1
4897000000.0 0.7243 0.8739
4900000000.0 1.073 0.004951
4903000000.0 0.6561 -0.8818
4906000000.0 -0.2656 -1.009
4909000000.0 -0.9273 -0.4308
4912000000.0 -0.8819 0.4584
4916000000.0 -0.2158 0.98
4919000000.0 0.5964 0.7973
4922000000.0 0.9558 0.04158
4925000000.0 0.6137 -0.6896
4928000000.0 -0.158 -0.9572
4931000000.0 -0.8128 -0.4692
4934000000.0 -0.8735 0.3312
4938000000.0 -0.2986 0.9164
4941000000.0 0.5177 0.821
4944000000.0 0.9329 0.1121
4947000000.0 0.7401 -0.6388
4950000000.0 -0.09009 -0.9412
4953000000.0 -0.7699 -0.5913
4956000000.0 -0.9187 0.2769
4959000000.0 -0.3975 0.9166
4962000000.0 0.479 0.8923
4966000000.0 0.9994 0.2075
4969000000.0 0.8183 -0.6343
4972000000.0 0.01166 -1.061
4975000000.0 -0.826 -0.6636
4978000000.0 -1.048 0.1937
4981000000.0 -0.5473 0.9347
4984000000.0 0.3767 1.024
4988000000.0 1.056 0.3481
4991000000.0 0.962 -0.6177
4994000000.0 0.1735 -1.13
4997000000.0 -0.7913 -0.867
5000000000.0 -1.202 0.0513
5003000000.0 -0.7425 0.9646
5006000000.0 0.2633 1.184
5009000000.0 1.116 0.5564
5012000000.0 1.167 -0.5265
5016000000.0 0.3289 -1.244
5019000000.0 -0.7654 -1.057
5022000000.0 -1.285 -0.1075
5025000000.0 -0.9177 0.931
5028000000.0 0.159 1.296
5031000000.0 1.105 0.7283
5034000000.0 1.281 -0.4057
5038000000.0 0.4732 -1.211
5041000000.0 -0.6276 -1.154
5044000000.0 -1.285 -0.2599
5047000000.0 -1.007 0.8208
5050000000.0 -0.0146 1.3
5053000000.0 1.003 0.8711
5056000000.0 1.268 -0.199
5059000000.0 0.6573 -1.118
5062000000.0 -0.3968 -1.22
5066000000.0 -1.192 -0.4814
5069000000.0 -1.109 0.6366
5072000000.0 -0.2187 1.204
5075000000.0 0.8203 0.9425
5078000000.0 1.258 0.009541
5081000000.0 0.7434 -0.987
5084000000.0 -0.2606 -1.172
5088000000.0 -1.056 -0.5483
5091000000.0 -1.053 0.4653
5094000000.0 -0.3339 1.059
5097000000.0 0.608 0.9517
5100000000.0 1.095 0.124
5103000000.0 0.7744 -0.7345
5106000000.0 -0.06068 -1.053
5109000000.0 -0.8243 -0.6303
5112000000.0 -1.037 0.2561
5116000000.0 -0.4276 0.9245
5119000000.0 0.4142 0.9273
5122000000.0 0.9518 0.2376
5125000000.0 0.8018 -0.5413
5128000000.0 0.1047 -0.9513
5131000000.0 -0.6767 -0.6558
5134000000.0 -0.9447 0.133
5138000000.0 -0.4709 0.8064
5141000000.0 0.3261 0.8805
5144000000.0 0.8831 0.2966
5147000000.0 0.7601 -0.4916
5150000000.0 0.1146 -0.9288
5153000000.0 -0.6512 -0.622
5156000000.0 -0.8652 0.09667
5159000000.0 -0.4855 0.7613
5162000000.0 0.2341 0.8586
5166000000.0 0.8239 0.3295
5169000000.0 0.7912 -0.474
5172000000.0 0.1537 -0.911
5175000000.0 -0.6082 -0.6999
5178000000.0 -0.9244 0.08191
5181000000.0 -0.5496 0.7585
5184000000.0 0.2583 0.8754
5188000000.0 0.8786 0.3615
5191000000.0 0.8232 -0.4808
5194000000.0 0.137 -0.9485
5197000000.0 -0.6385 -0.7091
5200000000.0 -0.9908 0.06379
5203000000.0 -0.5367 0.8104
5206000000.0 0.2642 0.9264
5209000000.0 0.919 0.3737
5212000000.0 0.8801 -0.4776
5216000000.0 0.1715 -0.9767
5219000000.0 -0.639 -0.7576
5222000000.0 -1.038 0.01488
5225000000.0 -0.6676 0.822
5228000000.0 0.1833 0.9946
5231000000.0 0.9396 0.4937
5234000000.0 0.9954 -0.3975
5238000000.0 0.3227 -1.027
5241000000.0 -0.5885 -0.9022
5244000000.0 -1.098 -0.119
5247000000.0 -0.7864 0.7342
5250000000.0 0.07014 1.066
5253000000.0 0.8858 0.6671
5256000000.0 1.063 -0.264
5259000000.0 0.5045 -1.005
5262000000.0 -0.4544 -0.999
5266000000.0 -1.075 -0.298
5269000000.0 -0.9163 0.6381
5272000000.0 -0.1216 1.108
5275000000.0 0.7614 0.7925
5278000000.0 1.136 -0.06182
5281000000.0 0.6563 -0.9187
5284000000.0 -0.2575 -1.076
5288000000.0 -0.9903 -0.4821
5291000000.0 -1.031 0.474
5294000000.0 -0.3334 1.092
5297000000.0 0.6187 0.9432
5300000000.0 1.11 0.1452
5303000000.0 0.8317 -0.7837
5306000000.0 -0.06678 -1.121
5309000000.0 -0.8886 -0.6534
5312000000.0 -1.099 0.288
5316000000.0 -0.4819 1.027
5319000000.0 0.4786 1.034
5322000000.0 1.059 0.2744
5325000000.0 0.9125 -0.6403
5328000000.0 0.03608 -1.11
5331000000.0 -0.8459 -0.7315
5334000000.0 -1.086 0.2064
5338000000.0 -0.5027 0.9228
5341000000.0 0.431 0.9863
5344000000.0 1.044 0.3019
5347000000.0 0.816 -0.6253
5350000000.0 0.08603 -1.035
5353000000.0 -0.7629 -0.6646
5356000000.0 -0.9868 0.1893
5359000000.0 -0.4715 0.8901
5362000000.0 0.4121 0.9069
5366000000.0 0.9421 0.2429
5369000000.0 0.7345 -0.5998
5372000000.0 0.02826 -0.9534
5375000000.0 -0.7525 -0.6155
5378000000.0 -0.901 0.2396
5381000000.0 -0.3719 0.834
5384000000.0 0.4484 0.7849
5388000000.0 0.8927 0.1288
5391000000.0 0.6281 -0.614
5394000000.0 -0.07515 -0.8337
5397000000.0 -0.7458 -0.4834
5400000000.0 -0.8284 0.2927
5403000000.0 -0.2813 0.8187
5406000000.0 0.4786 0.7116
5409000000.0 0.848 0.06317
5412000000.0 0.5917 -0.6071
5416000000.0 -0.1043 -0.8664
5419000000.0 -0.7622 -0.4706
5422000000.0 -0.8019 0.2975
5425000000.0 -0.3055 0.839
5428000000.0 0.4566 0.7801
5431000000.0 0.9218 0.1127
5434000000.0 0.6889 -0.6124
5438000000.0 -0.05899 -0.9244
5441000000.0 -0.7539 -0.5368
5444000000.0 -0.9153 0.2463
5447000000.0 -0.3585 0.88
5450000000.0 0.4536 0.8563
5453000000.0 0.9508 0.1903
5456000000.0 0.7467 -0.6111
5459000000.0 0.04449 -1.002
5462000000.0 -0.7583 -0.6285
5466000000.0 -0.9512 0.1697
5469000000.0 -0.5097 0.8702
5472000000.0 0.37 0.9871
5475000000.0 0.956 0.359
5478000000.0 0.9108 -0.5204
5481000000.0 0.1649 -1.037
5484000000.0 -0.6766 -0.8603
5488000000.0 -1.121 0.01854
5491000000.0 -0.6513 0.8755
5494000000.0 0.2057 1.059
5497000000.0 0.9942 0.4958
5500000000.0 1.007 -0.4454
5503000000.0 0.3177 -1.038
5506000000.0 -0.6371 -0.906
5509000000.0 -1.089 -0.07273
5512000000.0 -0.7844 0.7919
5516000000.0 0.1395 1.092
5519000000.0 0.924 0.5905
5522000000.0 0.9989 -0.32
5525000000.0 0.3906 -1.01
5528000000.0 -0.5043 -0.9345
5531000000.0 -1.057 -0.2139
5534000000.0 -0.8121 0.6671
5538000000.0 0.05167 1.03
5541000000.0 0.8358 0.628
5544000000.0 0.9981 -0.2564
5547000000.0 0.3905 -0.9336
5550000000.0 -0.4249 -0.9126
5553000000.0 -0.9549 -0.2355
5556000000.0 -0.7526 0.5749
5559000000.0 -0.007075 0.9603
5562000000.0 0.7653 0.561
5566000000.0 0.877 -0.2243
5569000000.0 0.3706 -0.8041
5572000000.0 -0.3791 -0.7732
5575000000.0 -0.8452 -0.1712
5578000000.0 -0.6344 0.5693
5581000000.0 0.01954 0.8553
5584000000.0 0.6757 0.4955
5588000000.0 0.7764 -0.2134
5591000000.0 0.319 -0.7496
5594000000.0 -0.4 -0.7347
5597000000.0 -0.8068 -0.1359
5600000000.0 -0.5862 0.5163
5603000000.0 0.06628 0.7881
5606000000.0 0.6818 0.4412
5609000000.0 0.7619 -0.2788
5612000000.0 0.3011 -0.7373
5616000000.0 -0.4183 -0.6835
5619000000.0 -0.8327 -0.08213
5622000000.0 -0.5526 0.595
5625000000.0 0.09975 0.8197
5628000000.0 0.7007 0.4157
5631000000.0 0.7997 -0.287
5634000000.0 0.2705 -0.8173
5638000000.0 -0.4977 -0.7499
5641000000.0 -0.8933 -0.08004
5644000000.0 -0.628 0.6471
5647000000.0 0.1118 0.94
5650000000.0 0.8115 0.4809
5653000000.0 0.8607 -0.3492
5656000000.0 0.3067 -0.9227
5659000000.0 -0.5516 -0.8399
5662000000.0 -1.028 -0.1087
5666000000.0 -0.7472 0.7301
5669000000.0 0.124 1.048
5672000000.0 0.9081 0.5649
5675000000.0 1.008 -0.3502
5678000000.0 0.368 -1.009
5681000000.0 -0.5906 -0.9139
5684000000.0 -1.111 -0.112
5688000000.0 -0.823 0.7511
5691000000.0 0.09351 1.129
5694000000.0 0.9454 0.6469
5697000000.0 1.082 -0.3437
5700000000.0 0.4379 -1.089
5703000000.0 -0.5864 -0.9772
5706000000.0 -1.156 -0.2023
5709000000.0 -0.8384 0.7953
5712000000.0 0.07875 1.181
5716000000.0 0.9728 0.6561
5719000000.0 1.101 -0.3157
5722000000.0 0.4204 -1.039
5725000000.0 -0.5447 -1.012
5728000000.0 -1.113 -0.1841
5731000000.0 -0.8294 0.7363
5734000000.0 0.07929 1.105
5738000000.0 0.9079 0.6188
5741000000.0 1.077 -0.3377
5744000000.0 0.3505 -1.028
5747000000.0 -0.5219 -0.9441
5750000000.0 -1.02 -0.1375
5753000000.0 -0.7645 0.7174
5756000000.0 0.1839 1.023
5759000000.0 0.9394 0.4756
5762000000.0 0.9265 -0.371
5766000000.0 0.2638 -0.987
5769000000.0 -0.5822 -0.7727
5772000000.0 -0.9596 0.03494
5775000000.0 -0.5389 0.8124
5778000000.0 0.2874 0.8936
5781000000.0 0.9025 0.3449
5784000000.0 0.8027 -0.5361
5788000000.0 0.03356 -0.9913
5791000000.0 -0.6924 -0.6161
5794000000.0 -0.8868 0.2132
5797000000.0 -0.3813 0.8277
5800000000.0 0.458 0.8051
5803000000.0 0.8802 0.09398
5806000000.0 0.6619 -0.6348
5809000000.0 -0.1415 -0.8966
5812000000.0 -0.7898 -0.4302
5816000000.0 -0.8502 0.3769
5819000000.0 -0.1785 0.8909
5822000000.0 0.5829 0.7492
5825000000.0 0.9075 -0.02165
5828000000.0 0.5561 -0.7575
5831000000.0 -0.2569 -0.9082
5834000000.0 -0.8719 -0.3295
5838000000.0 -0.8279 0.4763
5841000000.0 -0.1288 0.9632
5844000000.0 0.6836 0.6771
5847000000.0 0.967 -0.09733
5850000000.0 0.5307 -0.8397
5853000000.0 -0.3312 -0.9216
5856000000.0 -0.9708 -0.2981
5859000000.0 -0.8681 0.5535
5862000000.0 -0.1069 1.022
5866000000.0 0.745 0.6881
5869000000.0 1.027 -0.1557
5872000000.0 0.5212 -0.897
5875000000.0 -0.3971 -0.9885
5878000000.0 -1.018 -0.2962
5881000000.0 -0.891 0.5982
5884000000.0 -0.07087 1.082
5888000000.0 0.7812 0.7149
5891000000.0 1.045 -0.1857
5894000000.0 0.5152 -0.9119
5897000000.0 -0.4521 -0.9446
5900000000.0 -1.021 -0.264
5903000000.0 -0.8171 0.6582
5906000000.0 0.0007425 1.022
5909000000.0 0.8281 0.6633
5912000000.0 1.003 -0.252
5916000000.0 0.4176 -0.9487
5919000000.0 -0.5156 -0.8956
5922000000.0 -1.023 -0.134
5925000000.0 -0.7125 0.6822
5928000000.0 0.1194 0.9834
5931000000.0 0.7941 0.4848
5934000000.0 0.8511 -0.3497
5938000000.0 0.2663 -0.8845
5941000000.0 -0.5399 -0.7632
5944000000.0 -0.8966 -0.02792
5947000000.0 -0.5626 0.7271
5950000000.0 0.2055 0.8651
5953000000.0 0.8023 0.3573
5956000000.0 0.7645 -0.3945
5959000000.0 0.1337 -0.8479
5962000000.0 -0.579 -0.6055
5966000000.0 -0.8771 0.07445
5969000000.0 -0.4282 0.7245
5972000000.0 0.3278 0.77
5975000000.0 0.8138 0.2586
5978000000.0 0.6918 -0.4862
5981000000.0 0.05126 -0.8279
5984000000.0 -0.618 -0.5954
5988000000.0 -0.8598 0.1201
5991000000.0 -0.4058 0.7534
5994000000.0 0.3363 0.7882
5997000000.0 0.8151 0.2416
6000000000.0 0.7046 -0.4883
6003000000.0 0.02446 -0.8214
6006000000.0 -0.6183 -0.5597
6009000000.0 -0.8565 0.1511
6012000000.0 -0.3996 0.7553
6016000000.0 0.3337 0.8392
6019000000.0 0.8587 0.2719
6022000000.0 0.7488 -0.5113
6025000000.0 0.04703 -0.9042
6028000000.0 -0.6732 -0.6236
6031000000.0 -0.9347 0.09559
6034000000.0 -0.5138 0.8014
6038000000.0 0.322 0.8859
6041000000.0 0.9235 0.3059
6044000000.0 0.8171 -0.5011
6047000000.0 0.1101 -0.9668
6050000000.0 -0.6589 -0.7269
6053000000.0 -1.005 0.08965
6056000000.0 -0.5755 0.837
6059000000.0 0.2792 0.9453
6062000000.0 0.9377 0.3654
6066000000.0 0.8788 -0.5164
6069000000.0 0.1679 -1.017
6072000000.0 -0.6749 -0.7363
6075000000.0 -1.018 0.08279
6078000000.0 -0.5726 0.8506
6081000000.0 0.3202 0.9978
6084000000.0 0.9667 0.3738
6088000000.0 0.888 -0.5131
6091000000.0 0.1398 -1.029
6094000000.0 -0.6675 -0.7125
6097000000.0 -1.005 0.09798
6100000000.0 -0.5125 0.8431
6103000000.0 0.3206 0.9373
6106000000.0 0.9307 0.2997
6109000000.0 0.796 -0.4931
6112000000.0 0.1351 -0.9594
6116000000.0 -0.6636 -0.6387
6119000000.0 -0.9296 0.09402
6122000000.0 -0.4958 0.806
6125000000.0 0.3355 0.8277
6128000000.0 0.8642 0.2847
6131000000.0 0.7382 -0.5079
6134000000.0 0.06175 -0.878
6138000000.0 -0.6246 -0.5981
6141000000.0 -0.8461 0.1505
6144000000.0 -0.392 0.7664
6147000000.0 0.322 0.7917
6150000000.0 0.793 0.2478
6153000000.0 0.6629 -0.484
6156000000.0 0.04277 -0.8283
6159000000.0 -0.6171 -0.5053
6162000000.0 -0.8244 0.1566
6166000000.0 -0.4072 0.7446
6169000000.0 0.311 0.7716
6172000000.0 0.8217 0.1887
6175000000.0 0.6528 -0.501
6178000000.0 0.003069 -0.838
6181000000.0 -0.6277 -0.5452
6184000000.0 -0.8237 0.1523
6188000000.0 -0.3621 0.7023
6191000000.0 0.3516 0.7684
6194000000.0 0.8027 0.2446
6197000000.0 0.6798 -0.4949
6200000000.0 0.02318 -0.8323
6203000000.0 -0.6626 -0.5587
6206000000.0 -0.8693 0.1556
6209000000.0 -0.3972 0.7845
6212000000.0 0.3403 0.7737
6216000000.0 0.8546 0.2172
6219000000.0 0.6912 -0.4916
6222000000.0 0.01892 -0.856
6225000000.0 -0.6601 -0.5815
6228000000.0 -0.8606 0.1244
6231000000.0 -0.4619 0.7427
6234000000.0 0.2874 0.8068
6238000000.0 0.8377 0.272
6241000000.0 0.7111 -0.4836
6244000000.0 0.09458 -0.88
6247000000.0 -0.5895 -0.6045
6250000000.0 -0.841 0.08996
6253000000.0 -0.4784 0.7139
6256000000.0 0.2257 0.8149
6259000000.0 0.7564 0.3288
6262000000.0 0.7999 -0.3582
6266000000.0 0.2237 -0.7688
6269000000.0 -0.5039 -0.6378
6272000000.0 -0.7819 -0.04836
