! Created with skrf 1.8.0 (http://scikit-rf.org).
# Hz S RI R 50.0 
!freq ReS11 ImS11
4000000000.0 -0.2126 -1.514
4003000000.0 -1.316 -0.7936
4006000000.0 -1.388 0.5009
4009000000.0 -0.4866 1.454
4012000000.0 0.8242 1.293
4016000000.0 1.541 0.1778
4019000000.0 1.107 -1.109
4022000000.0 -0.1564 -1.546
4025000000.0 -1.34 -0.8651
4028000000.0 -1.515 0.4989
4031000000.0 -0.5931 1.513
4034000000.0 0.8127 1.433
4038000000.0 1.643 0.2635
4041000000.0 1.199 -1.149
4044000000.0 -0.1603 -1.635
4047000000.0 -1.346 -0.9114
4050000000.0 -1.56 0.4608
4053000000.0 -0.5632 1.477
4056000000.0 0.7859 1.394
4059000000.0 1.563 0.2308
4062000000.0 1.207 -1.062
4066000000.0 -0.02924 -1.602
4069000000.0 -1.261 -1.059
4072000000.0 -1.599 0.3135
4075000000.0 -0.7816 1.431
4078000000.0 0.6148 1.502
4081000000.0 1.561 0.539
4084000000.0 1.4 -0.8704
4088000000.0 0.2201 -1.605
4091000000.0 -1.139 -1.236
4094000000.0 -1.622 0.09232
4097000000.0 -0.9518 1.311
4100000000.0 0.4091 1.563
4103000000.0 1.418 0.6527
4106000000.0 1.427 -0.6582
4109000000.0 0.3963 -1.494
4112000000.0 -0.8512 -1.277
4116000000.0 -1.491 -0.1676
4119000000.0 -1.089 1.013
4122000000.0 0.04966 1.531
4125000000.0 1.153 0.9135
4128000000.0 1.456 -0.2671
4131000000.0 0.7507 -1.28
4134000000.0 -0.4816 -1.399
4138000000.0 -1.377 -0.5553
4141000000.0 -1.312 0.6637
4144000000.0 -0.361 1.435
4147000000.0 0.8572 1.227
4150000000.0 1.509 0.1121
4153000000.0 1.055 -1.09
4156000000.0 -0.1554 -1.531
4159000000.0 -1.268 -0.8689
4162000000.0 -1.473 0.4144
4166000000.0 -0.6221 1.382
4169000000.0 0.6664 1.38
4172000000.0 1.413 0.3589
4175000000.0 1.239 -0.8888
4178000000.0 0.1127 -1.492
4181000000.0 -1.067 -1.047
4184000000.0 -1.493 0.1527
4188000000.0 -0.8636 1.223
4191000000.0 0.436 1.478
4194000000.0 1.387 0.6016
4197000000.0 1.383 -0.7259
4200000000.0 0.3489 -1.518
4203000000.0 -0.9846 -1.236
4206000000.0 -1.628 0.0146
4209000000.0 -0.9839 1.274
4212000000.0 0.4061 1.647
4216000000.0 1.536 0.6763
4219000000.0 1.486 -0.7839
4222000000.0 0.2317 -1.63
4225000000.0 -1.183 -1.251
4228000000.0 -1.657 0.1926
4231000000.0 -0.8634 1.445
4234000000.0 0.6178 1.551
4238000000.0 1.6 0.4481
4241000000.0 1.298 -0.9931
4244000000.0 0.02035 -1.615
4247000000.0 -1.247 -0.9718
4250000000.0 -1.534 0.3763
4253000000.0 -0.6226 1.441
4256000000.0 0.7541 1.356
4259000000.0 1.513 0.2408
4262000000.0 1.12 -1.064
4266000000.0 -0.1483 -1.517
4269000000.0 -1.241 -0.7788
4272000000.0 -1.383 0.512
4275000000.0 -0.4449 1.399
4278000000.0 0.8093 1.236
4281000000.0 1.436 0.08589
4284000000.0 0.9521 -1.038
4288000000.0 -0.1978 -1.4
4291000000.0 -1.206 -0.6925
4294000000.0 -1.289 0.5011
4297000000.0 -0.4207 1.249
4300000000.0 0.6636 1.136
4303000000.0 1.291 0.1586
4306000000.0 0.9659 -0.879
4309000000.0 -0.03524 -1.302
4312000000.0 -1.045 -0.787
4316000000.0 -1.242 0.2679
4319000000.0 -0.6066 1.137
4322000000.0 0.4476 1.199
4325000000.0 1.237 0.4484
4328000000.0 1.193 -0.6632
4331000000.0 0.1931 -1.361
4334000000.0 -0.9048 -0.9982
4338000000.0 -1.387 0.009501
4341000000.0 -0.8387 1.066
4344000000.0 0.2571 1.386
4347000000.0 1.238 0.6737
4350000000.0 1.332 -0.5376
4353000000.0 0.4505 -1.343
4356000000.0 -0.7611 -1.194
4359000000.0 -1.431 -0.1595
4362000000.0 -1.085 0.9801
4366000000.0 0.09721 1.468
4369000000.0 1.202 0.8592
4372000000.0 1.458 -0.3397
4375000000.0 0.6723 -1.325
4378000000.0 -0.6082 -1.377
4381000000.0 -1.446 -0.3757
4384000000.0 -1.233 0.9163
4388000000.0 -0.1014 1.559
4391000000.0 1.176 1.051
4394000000.0 1.57 -0.2128
4397000000.0 0.7961 -1.368
4400000000.0 -0.6101 -1.489
4403000000.0 -1.532 -0.4477
4406000000.0 -1.309 0.9581
4409000000.0 -0.09829 1.573
4412000000.0 1.216 1.021
4416000000.0 1.497 -0.3022
4419000000.0 0.6988 -1.37
4422000000.0 -0.6525 -1.368
4425000000.0 -1.456 -0.3116
4428000000.0 -1.117 0.9031
4431000000.0 0.02778 1.425
4434000000.0 1.166 0.8537
4438000000.0 1.376 -0.3693
4441000000.0 0.539 -1.29
4444000000.0 -0.6697 -1.168
4447000000.0 -1.339 -0.1781
4450000000.0 -0.9788 0.9156
4453000000.0 0.1021 1.31
4456000000.0 1.091 0.6564
4459000000.0 1.189 -0.4612
4462000000.0 0.3886 -1.175
4466000000.0 -0.7302 -1.004
4469000000.0 -1.262 -0.003645
4472000000.0 -0.7968 0.9535
4475000000.0 0.2405 1.173
4478000000.0 1.073 0.5217
4481000000.0 1.023 -0.5096
4484000000.0 0.2657 -1.136
4488000000.0 -0.7452 -0.8667
4491000000.0 -1.136 0.006495
4494000000.0 -0.6974 0.9051
4497000000.0 0.242 1.076
4500000000.0 1.021 0.4923
4503000000.0 0.9628 -0.4842
4506000000.0 0.2648 -1.06
4509000000.0 -0.6851 -0.8789
4512000000.0 -1.113 -0.03143
4516000000.0 -0.7222 0.8781
4519000000.0 0.2003 1.123
4522000000.0 1.022 0.5463
4525000000.0 1.053 -0.4295
4528000000.0 0.3317 -1.116
4531000000.0 -0.6603 -0.9761
4534000000.0 -1.167 -0.1168
4538000000.0 -0.8408 0.8296
4541000000.0 0.1197 1.182
4544000000.0 0.9806 0.6823
4547000000.0 1.153 -0.3292
4550000000.0 0.4804 -1.116
4553000000.0 -0.5237 -1.106
4556000000.0 -1.19 -0.3165
4559000000.0 -1.005 0.7278
4562000000.0 -0.09342 1.236
4566000000.0 0.8928 0.8634
4569000000.0 1.287 -0.1297
4572000000.0 0.7095 -1.078
4575000000.0 -0.3508 -1.264
4578000000.0 -1.213 -0.5261
4581000000.0 -1.221 0.5659
4584000000.0 -0.3313 1.312
4588000000.0 0.8155 1.094
4591000000.0 1.368 0.06504
4594000000.0 0.9167 -0.9933
4597000000.0 -0.2258 -1.369
4600000000.0 -1.183 -0.7271
4603000000.0 -1.328 0.4767
4606000000.0 -0.4464 1.324
4609000000.0 0.7366 1.195
4612000000.0 1.389 0.2089
4616000000.0 1.046 -0.9579
4619000000.0 -0.07194 -1.4
4622000000.0 -1.136 -0.8132
4625000000.0 -1.358 0.3598
4628000000.0 -0.5751 1.278
4631000000.0 0.6339 1.229
4634000000.0 1.353 0.2848
4638000000.0 1.065 -0.859
4641000000.0 -0.00671 -1.348
4644000000.0 -1.064 -0.8138
4647000000.0 -1.323 0.3013
4650000000.0 -0.5618 1.196
4653000000.0 0.5815 1.184
4656000000.0 1.279 0.2538
4659000000.0 0.9887 -0.8102
4662000000.0 -0.004306 -1.255
4666000000.0 -0.9892 -0.7331
4669000000.0 -1.162 0.2932
4672000000.0 -0.4942 1.108
4675000000.0 0.556 1.054
4678000000.0 1.111 0.1722
4681000000.0 0.8436 -0.7128
4684000000.0 -0.06404 -1.101
4688000000.0 -0.8734 -0.6601
4691000000.0 -1.099 0.2836
4694000000.0 -0.4571 0.9941
4697000000.0 0.5161 1.009
4700000000.0 1.09 0.232
4703000000.0 0.8285 -0.706
4706000000.0 -0.03798 -1.072
4709000000.0 -0.8637 -0.6075
4712000000.0 -1.04 0.2924
4716000000.0 -0.3958 1.02
4719000000.0 0.5343 0.9
4722000000.0 1.065 0.2023
4725000000.0 0.7786 -0.7079
4728000000.0 -0.03056 -1.027
4731000000.0 -0.8437 -0.6334
4734000000.0 -1.015 0.1976
4738000000.0 -0.443 0.9401
4741000000.0 0.4387 0.9489
4744000000.0 1.058 0.2752
4747000000.0 0.8372 -0.6093
4750000000.0 0.1031 -1.072
4753000000.0 -0.7728 -0.7602
4756000000.0 -1.096 0.116
4759000000.0 -0.6142 0.9385
4762000000.0 0.3203 1.058
4766000000.0 1.027 0.4319
4769000000.0 1.038 -0.5145
4772000000.0 0.2574 -1.133
4775000000.0 -0.6521 -0.9261
4778000000.0 -1.172 -0.03843
4781000000.0 -0.7862 0.862
4784000000.0 0.1339 1.213
4788000000.0 1.045 0.7114
4791000000.0 1.178 -0.3531
4794000000.0 0.5352 -1.166
4797000000.0 -0.543 -1.139
4800000000.0 -1.228 -0.308
4803000000.0 -1.039 0.7188
4806000000.0 -0.1144 1.268
4809000000.0 0.883 0.8848
4812000000.0 1.303 -0.08647
4816000000.0 0.768 -1.05
4819000000.0 -0.3639 -1.295
4822000000.0 -1.234 -0.5659
4825000000.0 -1.224 0.5821
4828000000.0 -0.3441 1.332
4831000000.0 0.8534 1.118
4834000000.0 1.409 0.0704
4838000000.0 0.9294 -1.063
4841000000.0 -0.2275 -1.375
4844000000.0 -1.215 -0.6959
4847000000.0 -1.294 0.4882
4850000000.0 -0.4462 1.308
4853000000.0 0.7448 1.178
4856000000.0 1.361 0.1889
4859000000.0 0.9746 -0.9706
4862000000.0 -0.09323 -1.351
4866000000.0 -1.088 -0.7494
4869000000.0 -1.286 0.3615
4872000000.0 -0.4974 1.218
4875000000.0 0.6084 1.149
4878000000.0 1.263 0.2306
4881000000.0 0.9418 -0.8195
4884000000.0 -0.05352 -1.265
4888000000.0 -0.9599 -0.7168
4891000000.0 -1.163 0.2967
4894000000.0 -0.4783 1.062
4897000000.0 0.5111 1.056
4900000000.0 1.119 0.2331
4903000000.0 0.8448 -0.6854
4906000000.0 0.01858 -1.082
4909000000.0 -0.8394 -0.6702
4912000000.0 -1.03 0.1957
4916000000.0 -0.4988 0.8981
4919000000.0 0.387 0.9343
4922000000.0 0.9423 0.2901
4925000000.0 0.8106 -0.5393
4928000000.0 0.1066 -0.952
4931000000.0 -0.6589 -0.6721
4934000000.0 -0.9658 0.0996
4938000000.0 -0.5376 0.7918
4941000000.0 0.2773 0.9079
4944000000.0 0.8906 0.3596
4947000000.0 0.8087 -0.4624
4950000000.0 0.1675 -0.9244
4953000000.0 -0.6351 -0.7366
4956000000.0 -0.9612 0.004956
4959000000.0 -0.6041 0.7914
4962000000.0 0.1995 0.9674
4966000000.0 0.8637 0.4516
4969000000.0 0.8949 -0.4389
4972000000.0 0.2609 -0.9782
4975000000.0 -0.603 -0.8437
4978000000.0 -1.015 -0.05524
4981000000.0 -0.7183 0.7773
4984000000.0 0.1305 1.034
4988000000.0 0.9026 0.5897
4991000000.0 1.02 -0.3194
4994000000.0 0.4135 -0.9896
4997000000.0 -0.5176 -0.971
5000000000.0 -1.107 -0.2223
5003000000.0 -0.8831 0.7203
5006000000.0 -0.02408 1.204
5009000000.0 0.889 0.8027
5012000000.0 1.206 -0.2138
5016000000.0 0.5952 -1.077
5019000000.0 -0.4429 -1.152
5022000000.0 -1.234 -0.4095
5025000000.0 -1.065 0.685
5028000000.0 -0.1575 1.261
5031000000.0 0.8829 0.927
5034000000.0 1.264 -0.07956
5038000000.0 0.7413 -1.038
5041000000.0 -0.3386 -1.248
5044000000.0 -1.169 -0.5402
5047000000.0 -1.183 0.5207
5050000000.0 -0.3464 1.217
5053000000.0 0.7308 1.069
5056000000.0 1.302 0.1669
5059000000.0 0.8764 -0.9164
5062000000.0 -0.09281 -1.313
5066000000.0 -1.065 -0.734
5069000000.0 -1.223 0.347
5072000000.0 -0.494 1.174
5075000000.0 0.5017 1.146
5078000000.0 1.249 0.3162
5081000000.0 1.047 -0.7607
5084000000.0 0.03553 -1.254
5088000000.0 -0.8982 -0.8378
5091000000.0 -1.197 0.1822
5094000000.0 -0.6416 0.9945
5097000000.0 0.3524 1.108
5100000000.0 1.033 0.4478
5103000000.0 0.9784 -0.5205
5106000000.0 0.2639 -1.068
5109000000.0 -0.6818 -0.8767
5112000000.0 -1.1 -0.04224
5116000000.0 -0.7189 0.8082
5119000000.0 0.1615 1.042
5122000000.0 0.8649 0.5504
5125000000.0 0.9846 -0.3267
5128000000.0 0.3552 -0.9606
5131000000.0 -0.4891 -0.8907
5134000000.0 -0.9945 -0.192
5138000000.0 -0.7376 0.6224
5141000000.0 -0.01082 1.0
5144000000.0 0.7461 0.5881
5147000000.0 0.9198 -0.2372
5150000000.0 0.4369 -0.8414
5153000000.0 -0.3615 -0.8901
5156000000.0 -0.8849 -0.2558
5159000000.0 -0.7311 0.5553
5162000000.0 -0.0647 0.8954
5166000000.0 0.6567 0.6222
5169000000.0 0.8774 -0.1293
5172000000.0 0.4756 -0.7615
5175000000.0 -0.3011 -0.8511
5178000000.0 -0.8345 -0.3059
5181000000.0 -0.7555 0.4859
5184000000.0 -0.09186 0.9219
5188000000.0 0.6421 0.6557
5191000000.0 0.9265 -0.1054
5194000000.0 0.5242 -0.7968
5197000000.0 -0.2845 -0.8596
5200000000.0 -0.9135 -0.3233
5203000000.0 -0.8165 0.4953
5206000000.0 -0.1212 0.9541
5209000000.0 0.6904 0.6941
5212000000.0 0.9824 -0.1127
5216000000.0 0.5308 -0.8337
5219000000.0 -0.2975 -0.9603
5222000000.0 -0.914 -0.3481
5225000000.0 -0.873 0.4887
5228000000.0 -0.1698 1.007
5231000000.0 0.6249 0.7764
5234000000.0 1.043 -0.01733
5238000000.0 0.6563 -0.7907
5241000000.0 -0.1941 -1.02
5244000000.0 -0.8849 -0.5058
5247000000.0 -0.9415 0.3816
5250000000.0 -0.2978 1.049
5253000000.0 0.6079 0.9095
5256000000.0 1.087 0.1603
5259000000.0 0.789 -0.7284
5262000000.0 -0.06943 -1.097
5266000000.0 -0.8906 -0.647
5269000000.0 -1.065 0.2471
5272000000.0 -0.5102 0.9749
5275000000.0 0.4221 1.013
5278000000.0 1.041 0.3466
5281000000.0 0.9565 -0.5703
5284000000.0 0.1352 -1.099
5288000000.0 -0.7484 -0.8298
5291000000.0 -1.11 0.0221
5294000000.0 -0.7166 0.8748
5297000000.0 0.2053 1.119
5300000000.0 0.9791 0.5806
5303000000.0 1.063 -0.3968
5306000000.0 0.3866 -1.058
5309000000.0 -0.5616 -0.9949
5312000000.0 -1.143 -0.2162
5316000000.0 -0.8828 0.718
5319000000.0 0.007035 1.156
5322000000.0 0.885 0.763
5325000000.0 1.167 -0.1681
5328000000.0 0.5658 -0.9638
5331000000.0 -0.3982 -1.074
5334000000.0 -1.083 -0.3884
5338000000.0 -0.9844 0.5973
5341000000.0 -0.1822 1.114
5344000000.0 0.7782 0.832
5347000000.0 1.106 -0.03572
5350000000.0 0.6353 -0.9146
5353000000.0 -0.2485 -1.071
5356000000.0 -0.9837 -0.4404
5359000000.0 -0.9661 0.4755
5362000000.0 -0.2228 1.046
5366000000.0 0.679 0.835
5369000000.0 1.035 0.03075
5372000000.0 0.6422 -0.7701
5375000000.0 -0.2405 -1.003
5378000000.0 -0.8856 -0.4557
5381000000.0 -0.9108 0.4189
5384000000.0 -0.1954 0.9535
5388000000.0 0.6151 0.7758
5391000000.0 0.9695 -0.02052
5394000000.0 0.5887 -0.7263
5397000000.0 -0.2265 -0.9122
5400000000.0 -0.8377 -0.3639
5403000000.0 -0.8332 0.4092
5406000000.0 -0.1837 0.8536
5409000000.0 0.5746 0.6407
5412000000.0 0.8586 -0.03595
5416000000.0 0.5119 -0.6899
5419000000.0 -0.2067 -0.8447
5422000000.0 -0.7954 -0.3311
5425000000.0 -0.7588 0.3889
5428000000.0 -0.1609 0.8415
5431000000.0 0.5607 0.6827
5434000000.0 0.8847 -0.03651
5438000000.0 0.536 -0.7096
5441000000.0 -0.2523 -0.8471
5444000000.0 -0.8221 -0.3663
5447000000.0 -0.7762 0.3702
5450000000.0 -0.2018 0.8729
5453000000.0 0.5697 0.693
5456000000.0 0.9174 0.0173
5459000000.0 0.6023 -0.7169
5462000000.0 -0.147 -0.9004
5466000000.0 -0.8026 -0.4373
5469000000.0 -0.8603 0.3409
5472000000.0 -0.2915 0.9074
5475000000.0 0.4957 0.7742
5478000000.0 0.9472 0.1325
5481000000.0 0.7248 -0.6458
5484000000.0 -0.007524 -0.9349
5488000000.0 -0.7896 -0.6179
5491000000.0 -0.9748 0.2161
5494000000.0 -0.4692 0.888
5497000000.0 0.3865 0.9637
5500000000.0 0.9864 0.3164
5503000000.0 0.8815 -0.5166
5506000000.0 0.1348 -1.009
5509000000.0 -0.7317 -0.7898
5512000000.0 -1.017 0.01559
5516000000.0 -0.6293 0.8421
5519000000.0 0.2306 1.024
5522000000.0 0.9465 0.4902
5525000000.0 0.9933 -0.3797
5528000000.0 0.3616 -0.9694
5531000000.0 -0.5357 -0.8821
5534000000.0 -1.044 -0.1901
5538000000.0 -0.7949 0.6886
5541000000.0 0.05356 1.074
5544000000.0 0.8283 0.6685
5547000000.0 1.041 -0.2165
5550000000.0 0.4965 -0.9121
5553000000.0 -0.3926 -1.031
5556000000.0 -0.9924 -0.3258
5559000000.0 -0.898 0.562
5562000000.0 -0.1135 1.049
5566000000.0 0.7045 0.7705
5569000000.0 1.001 -0.07294
5572000000.0 0.6079 -0.8181
5575000000.0 -0.2389 -0.9919
5578000000.0 -0.9107 -0.4337
5581000000.0 -0.9142 0.4262
5584000000.0 -0.2179 0.9425
5588000000.0 0.5747 0.7687
5591000000.0 0.9296 0.05104
5594000000.0 0.6425 -0.6775
5597000000.0 -0.1721 -0.9008
5600000000.0 -0.8104 -0.4586
5603000000.0 -0.8468 0.3397
5606000000.0 -0.29 0.835
5609000000.0 0.4616 0.7491
5612000000.0 0.8774 0.09653
5616000000.0 0.6248 -0.5856
5619000000.0 -0.07712 -0.8127
5622000000.0 -0.7005 -0.4754
5625000000.0 -0.8095 0.2398
5628000000.0 -0.3049 0.7854
5631000000.0 0.4094 0.7236
5634000000.0 0.7957 0.1319
5638000000.0 0.608 -0.5583
5641000000.0 -0.06601 -0.8225
5644000000.0 -0.6722 -0.4729
5647000000.0 -0.8072 0.2127
5650000000.0 -0.348 0.7773
5653000000.0 0.3974 0.7489
5656000000.0 0.8139 0.16
5659000000.0 0.6154 -0.5654
5662000000.0 -0.03243 -0.8762
5666000000.0 -0.7076 -0.5268
5669000000.0 -0.8435 0.2604
5672000000.0 -0.3432 0.8617
5675000000.0 0.4271 0.8088
5678000000.0 0.9064 0.1727
5681000000.0 0.7166 -0.6055
5684000000.0 -0.009397 -0.9476
5688000000.0 -0.7568 -0.5591
5691000000.0 -0.9579 0.2151
5694000000.0 -0.4228 0.8779
5697000000.0 0.458 0.9116
5700000000.0 0.9882 0.2388
5703000000.0 0.8471 -0.5998
5706000000.0 0.007756 -1.031
5709000000.0 -0.7796 -0.7093
5712000000.0 -1.014 0.1793
5716000000.0 -0.5208 0.9247
5719000000.0 0.3565 0.9596
5722000000.0 0.9865 0.3642
5725000000.0 0.9119 -0.5709
5728000000.0 0.1495 -1.088
5731000000.0 -0.7158 -0.8143
5734000000.0 -1.095 0.05649
5738000000.0 -0.6735 0.8782
5741000000.0 0.2217 1.074
5744000000.0 0.9854 0.4951
5747000000.0 0.9912 -0.4227
5750000000.0 0.3034 -1.074
5753000000.0 -0.5768 -0.9202
5756000000.0 -1.11 -0.1718
5759000000.0 -0.8416 0.7436
5762000000.0 0.05331 1.106
5766000000.0 0.903 0.6501
5769000000.0 1.061 -0.2404
5772000000.0 0.481 -0.9877
5775000000.0 -0.4557 -1.004
5778000000.0 -1.043 -0.3134
5781000000.0 -0.9235 0.6198
5784000000.0 -0.109 1.103
5788000000.0 0.7505 0.8108
5791000000.0 1.09 -0.1035
5794000000.0 0.6264 -0.8619
5797000000.0 -0.309 -1.024
5800000000.0 -0.9898 -0.4271
5803000000.0 -0.9419 0.5001
5806000000.0 -0.2546 1.054
5809000000.0 0.6633 0.8125
5812000000.0 1.018 0.007662
5816000000.0 0.6903 -0.7807
5819000000.0 -0.1695 -0.9927
5822000000.0 -0.8772 -0.4643
5825000000.0 -0.9304 0.3682
5828000000.0 -0.3213 0.9579
5831000000.0 0.5054 0.8189
5834000000.0 0.9817 0.1257
5838000000.0 0.6659 -0.6824
5841000000.0 -0.08775 -0.9657
5844000000.0 -0.804 -0.54
5847000000.0 -0.8797 0.2937
5850000000.0 -0.3282 0.8575
5853000000.0 0.4486 0.7672
5856000000.0 0.9508 0.1322
5859000000.0 0.6627 -0.6422
5862000000.0 -0.08782 -0.929
5866000000.0 -0.7241 -0.5146
5869000000.0 -0.874 0.2546
5872000000.0 -0.3469 0.8092
5875000000.0 0.4409 0.7673
5878000000.0 0.8569 0.1631
5881000000.0 0.6882 -0.5567
5884000000.0 -0.06887 -0.8811
5888000000.0 -0.712 -0.5356
5891000000.0 -0.8695 0.209
5894000000.0 -0.355 0.8218
5897000000.0 0.4263 0.7673
5900000000.0 0.833 0.1717
5903000000.0 0.681 -0.5453
5906000000.0 -0.009075 -0.8623
5909000000.0 -0.6586 -0.5725
5912000000.0 -0.8525 0.148
5916000000.0 -0.4149 0.7689
5919000000.0 0.3104 0.8342
5922000000.0 0.8324 0.2776
5925000000.0 0.7718 -0.4907
5928000000.0 0.09307 -0.8865
5931000000.0 -0.6312 -0.6461
5934000000.0 -0.8912 0.04427
5938000000.0 -0.5338 0.7623
5941000000.0 0.2321 0.8657
5944000000.0 0.8435 0.3643
5947000000.0 0.8195 -0.394
5950000000.0 0.2352 -0.8898
5953000000.0 -0.5281 -0.7747
5956000000.0 -0.9071 -0.08227
5959000000.0 -0.6527 0.6823
5962000000.0 0.1089 0.9337
5966000000.0 0.7958 0.4991
5969000000.0 0.9238 -0.2852
5972000000.0 0.4091 -0.8813
5975000000.0 -0.4412 -0.8804
5978000000.0 -0.9496 -0.2039
5981000000.0 -0.7977 0.5673
5984000000.0 -0.03434 1.0
5988000000.0 0.722 0.6765
5991000000.0 1.005 -0.09496
5994000000.0 0.5273 -0.8758
5997000000.0 -0.3269 -0.9323
6000000000.0 -0.97 -0.3799
6003000000.0 -0.8536 0.4762
6006000000.0 -0.1753 1.009
6009000000.0 0.6552 0.7422
6012000000.0 1.021 -0.02386
6016000000.0 0.6201 -0.7868
6019000000.0 -0.2096 -0.9923
6022000000.0 -0.887 -0.4479
6025000000.0 -0.8995 0.4296
6028000000.0 -0.2394 0.953
6031000000.0 0.591 0.8002
6034000000.0 0.9785 0.05186
6038000000.0 0.6558 -0.7048
6041000000.0 -0.1639 -0.9501
6044000000.0 -0.843 -0.4533
6047000000.0 -0.9004 0.3569
6050000000.0 -0.2989 0.8956
6053000000.0 0.4917 0.7538
6056000000.0 0.8986 0.1123
6059000000.0 0.6599 -0.6672
6062000000.0 -0.07067 -0.9097
6066000000.0 -0.7719 -0.4817
6069000000.0 -0.8424 0.2867
6072000000.0 -0.3147 0.827
6075000000.0 0.4101 0.7765
6078000000.0 0.8634 0.1365
6081000000.0 0.6469 -0.5871
6084000000.0 -0.04799 -0.8328
6088000000.0 -0.705 -0.5111
6091000000.0 -0.8414 0.1919
6094000000.0 -0.3422 0.7732
6097000000.0 0.3925 0.7608
6100000000.0 0.819 0.1945
6103000000.0 0.6702 -0.5376
6106000000.0 -0.02175 -0.8517
6109000000.0 -0.6647 -0.5499
6112000000.0 -0.8523 0.1872
6116000000.0 -0.3824 0.7748
6119000000.0 0.3711 0.8183
6122000000.0 0.8525 0.2203
6125000000.0 0.6889 -0.5246
6128000000.0 0.03079 -0.8743
6131000000.0 -0.6723 -0.5781
6134000000.0 -0.857 0.1674
6138000000.0 -0.4638 0.7933
6141000000.0 0.336 0.8434
6144000000.0 0.875 0.2974
6147000000.0 0.7348 -0.5109
6150000000.0 0.09621 -0.9128
6153000000.0 -0.6599 -0.6339
6156000000.0 -0.9417 0.08153
6159000000.0 -0.4954 0.8052
6162000000.0 0.2576 0.9041
6166000000.0 0.883 0.3848
6169000000.0 0.8143 -0.4523
6172000000.0 0.1905 -0.9531
6175000000.0 -0.6407 -0.7619
6178000000.0 -0.982 0.02051
6181000000.0 -0.5586 0.7443
6184000000.0 0.217 0.9413
6188000000.0 0.8613 0.4621
6191000000.0 0.8925 -0.3846
6194000000.0 0.2592 -0.9375
6197000000.0 -0.5232 -0.7719
6200000000.0 -0.9724 -0.07326
6203000000.0 -0.6342 0.6842
6206000000.0 0.1058 0.957
6209000000.0 0.7584 0.5113
6212000000.0 0.9135 -0.3035
6216000000.0 0.3224 -0.8489
6219000000.0 -0.4585 -0.8451
6222000000.0 -0.9249 -0.1519
6225000000.0 -0.7314 0.5587
6228000000.0 -0.004041 0.892
6231000000.0 0.7154 0.5899
6234000000.0 0.887 -0.2038
6238000000.0 0.4572 -0.7899
6241000000.0 -0.3017 -0.8348
6244000000.0 -0.8225 -0.2632
6247000000.0 -0.7369 0.4584
6250000000.0 -0.1206 0.8623
6253000000.0 0.5587 0.6189
6256000000.0 0.831 -0.07684
6259000000.0 0.5133 -0.6688
6262000000.0 -0.1653 -0.8206
