! Created with skrf 1.8.0 (http://scikit-rf.org).
# Hz S RI R 50.0 
!freq ReS11 ImS11
4000000000.0 -0.1931 -1.465
4003000000.0 -1.259 -0.8123
4006000000.0 -1.43 0.4853
4009000000.0 -0.513 1.419
4012000000.0 0.8433 1.325
4016000000.0 1.515 0.2217
4019000000.0 1.122 -1.09
4022000000.0 -0.1514 -1.531
4025000000.0 -1.317 -0.8742
4028000000.0 -1.524 0.4359
4031000000.0 -0.5287 1.517
4034000000.0 0.8653 1.416
4038000000.0 1.656 0.2141
4041000000.0 1.201 -1.13
4044000000.0 -0.1865 -1.641
4047000000.0 -1.369 -0.8905
4050000000.0 -1.578 0.4823
4053000000.0 -0.6067 1.507
4056000000.0 0.7592 1.42
4059000000.0 1.579 0.3282
4062000000.0 1.262 -1.027
4066000000.0 -0.002578 -1.612
4069000000.0 -1.229 -1.003
4072000000.0 -1.606 0.2596
4075000000.0 -0.8148 1.425
4078000000.0 0.5615 1.544
4081000000.0 1.582 0.5344
4084000000.0 1.409 -0.8634
4088000000.0 0.2215 -1.644
4091000000.0 -1.122 -1.234
4094000000.0 -1.662 0.04535
4097000000.0 -1.002 1.301
4100000000.0 0.4066 1.555
4103000000.0 1.445 0.7079
4106000000.0 1.421 -0.6568
4109000000.0 0.4446 -1.422
4112000000.0 -0.8583 -1.31
4116000000.0 -1.511 -0.2216
4119000000.0 -1.127 1.027
4122000000.0 0.05435 1.499
4125000000.0 1.13 0.9412
4128000000.0 1.494 -0.2254
4131000000.0 0.7817 -1.237
4134000000.0 -0.5029 -1.406
4138000000.0 -1.373 -0.5723
4141000000.0 -1.371 0.6519
4144000000.0 -0.3637 1.436
4147000000.0 0.8766 1.251
4150000000.0 1.508 0.1146
4153000000.0 1.08 -1.078
4156000000.0 -0.1339 -1.493
4159000000.0 -1.224 -0.8666
4162000000.0 -1.46 0.392
4166000000.0 -0.6361 1.373
4169000000.0 0.6417 1.357
4172000000.0 1.464 0.3991
4175000000.0 1.238 -0.8833
4178000000.0 0.1441 -1.487
4181000000.0 -1.049 -1.052
4184000000.0 -1.506 0.1506
4188000000.0 -0.8824 1.223
4191000000.0 0.3901 1.476
4194000000.0 1.407 0.6253
4197000000.0 1.415 -0.6833
4200000000.0 0.3626 -1.576
4203000000.0 -0.9807 -1.228
4206000000.0 -1.644 -0.04954
4209000000.0 -1.019 1.252
4212000000.0 0.3788 1.6
4216000000.0 1.502 0.7016
4219000000.0 1.486 -0.7777
4222000000.0 0.3004 -1.651
4225000000.0 -1.147 -1.23
4228000000.0 -1.705 0.1153
4231000000.0 -0.9249 1.441
4234000000.0 0.5592 1.57
4238000000.0 1.573 0.449
4241000000.0 1.299 -0.9585
4244000000.0 0.01829 -1.583
4247000000.0 -1.205 -0.9893
4250000000.0 -1.565 0.3646
4253000000.0 -0.6315 1.376
4256000000.0 0.671 1.361
4259000000.0 1.537 0.2475
4262000000.0 1.154 -1.025
4266000000.0 -0.1102 -1.467
4269000000.0 -1.22 -0.7883
4272000000.0 -1.445 0.4935
4275000000.0 -0.4789 1.383
4278000000.0 0.7646 1.225
4281000000.0 1.461 0.1362
4284000000.0 1.024 -1.041
4288000000.0 -0.154 -1.396
4291000000.0 -1.174 -0.7418
4294000000.0 -1.271 0.4467
4297000000.0 -0.4583 1.282
4300000000.0 0.6658 1.104
4303000000.0 1.274 0.2275
4306000000.0 0.9704 -0.8589
4309000000.0 -0.01345 -1.264
4312000000.0 -0.9661 -0.8309
4316000000.0 -1.272 0.2286
4319000000.0 -0.6436 1.119
4322000000.0 0.4306 1.219
4325000000.0 1.218 0.4434
4328000000.0 1.149 -0.647
4331000000.0 0.2506 -1.342
4334000000.0 -0.8544 -1.043
4338000000.0 -1.419 -0.04718
4341000000.0 -0.8936 1.07
4344000000.0 0.2481 1.403
4347000000.0 1.248 0.7045
4350000000.0 1.334 -0.5329
4353000000.0 0.4669 -1.379
4356000000.0 -0.7604 -1.226
4359000000.0 -1.434 -0.2236
4362000000.0 -1.077 0.966
4366000000.0 0.03392 1.492
4369000000.0 1.173 0.8797
4372000000.0 1.427 -0.3683
4375000000.0 0.6822 -1.342
4378000000.0 -0.6254 -1.371
4381000000.0 -1.461 -0.4221
4384000000.0 -1.293 0.853
4388000000.0 -0.1337 1.527
4391000000.0 1.126 1.057
4394000000.0 1.567 -0.1972
4397000000.0 0.8585 -1.341
4400000000.0 -0.5534 -1.499
4403000000.0 -1.505 -0.4929
4406000000.0 -1.308 0.9116
4409000000.0 -0.1201 1.574
4412000000.0 1.162 1.055
4416000000.0 1.527 -0.2537
4419000000.0 0.7363 -1.357
4422000000.0 -0.6028 -1.41
4425000000.0 -1.463 -0.3731
4428000000.0 -1.174 0.8663
4431000000.0 -0.01765 1.448
4434000000.0 1.134 0.8918
4438000000.0 1.362 -0.3427
4441000000.0 0.6286 -1.257
4444000000.0 -0.6094 -1.235
4447000000.0 -1.335 -0.28
4450000000.0 -0.9723 0.8787
4453000000.0 0.09724 1.288
4456000000.0 1.078 0.7104
4459000000.0 1.21 -0.4191
4462000000.0 0.4305 -1.2
4466000000.0 -0.6753 -1.011
4469000000.0 -1.227 -0.06643
4472000000.0 -0.8264 0.8952
4475000000.0 0.2221 1.192
4478000000.0 1.022 0.5525
4481000000.0 1.062 -0.4809
4484000000.0 0.2826 -1.13
4488000000.0 -0.6924 -0.9394
4491000000.0 -1.126 -0.02745
4494000000.0 -0.7143 0.8655
4497000000.0 0.2084 1.131
4500000000.0 0.9887 0.5482
4503000000.0 1.012 -0.465
4506000000.0 0.3074 -1.071
4509000000.0 -0.633 -0.8797
4512000000.0 -1.128 -0.05707
4516000000.0 -0.7399 0.8112
4519000000.0 0.1889 1.124
4522000000.0 0.9787 0.5881
4525000000.0 1.079 -0.3847
4528000000.0 0.3846 -1.083
4531000000.0 -0.6113 -0.9836
4534000000.0 -1.171 -0.1387
4538000000.0 -0.8422 0.7972
4541000000.0 0.04909 1.184
4544000000.0 0.9576 0.7071
4547000000.0 1.149 -0.3071
4550000000.0 0.5231 -1.104
4553000000.0 -0.497 -1.111
4556000000.0 -1.173 -0.3328
4559000000.0 -1.018 0.6966
4562000000.0 -0.1235 1.251
4566000000.0 0.8895 0.8988
4569000000.0 1.267 -0.0799
4572000000.0 0.7403 -1.039
4575000000.0 -0.3192 -1.239
4578000000.0 -1.175 -0.5683
4581000000.0 -1.197 0.5264
4584000000.0 -0.3248 1.288
4588000000.0 0.7904 1.102
4591000000.0 1.35 0.1628
4594000000.0 0.954 -0.9876
4597000000.0 -0.145 -1.371
4600000000.0 -1.201 -0.7393
4603000000.0 -1.313 0.4171
4606000000.0 -0.51 1.288
4609000000.0 0.6817 1.22
4612000000.0 1.394 0.2572
4616000000.0 1.062 -0.904
4619000000.0 -0.0202 -1.415
4622000000.0 -1.097 -0.8445
4625000000.0 -1.354 0.2731
4628000000.0 -0.5797 1.216
4631000000.0 0.578 1.267
4634000000.0 1.325 0.3787
4638000000.0 1.105 -0.8277
4641000000.0 0.04486 -1.346
4644000000.0 -1.035 -0.8823
4647000000.0 -1.313 0.2361
4650000000.0 -0.6034 1.192
4653000000.0 0.5254 1.208
4656000000.0 1.248 0.3131
4659000000.0 0.9945 -0.7746
4662000000.0 -0.02251 -1.272
4666000000.0 -0.9769 -0.7948
4669000000.0 -1.171 0.2687
4672000000.0 -0.52 1.08
4675000000.0 0.4957 1.058
4678000000.0 1.137 0.2881
4681000000.0 0.9339 -0.7131
4684000000.0 0.03043 -1.104
4688000000.0 -0.8622 -0.7179
4691000000.0 -1.096 0.2167
4694000000.0 -0.4795 0.9756
4697000000.0 0.4537 0.9985
4700000000.0 1.04 0.2434
4703000000.0 0.8411 -0.6917
4706000000.0 -0.02341 -1.107
4709000000.0 -0.8785 -0.6626
4712000000.0 -1.043 0.2431
4716000000.0 -0.4608 0.9838
4719000000.0 0.4845 0.978
4722000000.0 1.036 0.2004
4725000000.0 0.8439 -0.6993
4728000000.0 -0.03133 -1.046
4731000000.0 -0.799 -0.6595
4734000000.0 -1.033 0.1994
4738000000.0 -0.4904 0.884
4741000000.0 0.4274 0.965
4744000000.0 1.039 0.309
4747000000.0 0.8711 -0.5566
4750000000.0 0.1104 -1.086
4753000000.0 -0.7691 -0.797
4756000000.0 -1.108 0.09403
4759000000.0 -0.6633 0.8876
4762000000.0 0.2614 1.078
4766000000.0 1.007 0.454
4769000000.0 1.023 -0.5082
4772000000.0 0.2771 -1.096
4775000000.0 -0.6751 -0.9504
4778000000.0 -1.151 -0.09747
4781000000.0 -0.8478 0.8539
4784000000.0 0.1122 1.192
4788000000.0 1.006 0.6926
4791000000.0 1.218 -0.3247
4794000000.0 0.5187 -1.106
4797000000.0 -0.5189 -1.118
4800000000.0 -1.21 -0.3372
4803000000.0 -1.031 0.6772
4806000000.0 -0.1385 1.268
4809000000.0 0.881 0.9179
4812000000.0 1.283 -0.06934
4816000000.0 0.7662 -1.065
4819000000.0 -0.3469 -1.314
4822000000.0 -1.222 -0.5649
4825000000.0 -1.248 0.5599
4828000000.0 -0.3487 1.336
4831000000.0 0.804 1.13
4834000000.0 1.374 0.1013
4838000000.0 0.9638 -1.022
4841000000.0 -0.1872 -1.378
4844000000.0 -1.194 -0.7402
4847000000.0 -1.324 0.472
4850000000.0 -0.4726 1.291
4853000000.0 0.7111 1.146
4856000000.0 1.37 0.2127
4859000000.0 1.018 -0.8841
4862000000.0 -0.08082 -1.341
4866000000.0 -1.068 -0.7901
4869000000.0 -1.291 0.3388
4872000000.0 -0.5256 1.221
4875000000.0 0.5852 1.17
4878000000.0 1.277 0.2933
4881000000.0 0.9775 -0.7725
4884000000.0 0.005002 -1.275
4888000000.0 -0.9581 -0.7651
4891000000.0 -1.182 0.2725
4894000000.0 -0.54 1.074
4897000000.0 0.4532 1.057
4900000000.0 1.095 0.2666
4903000000.0 0.9095 -0.6554
4906000000.0 0.03122 -1.089
4909000000.0 -0.7866 -0.6829
4912000000.0 -1.04 0.1575
4916000000.0 -0.4976 0.9029
4919000000.0 0.3717 0.9321
4922000000.0 0.9402 0.2978
4925000000.0 0.8253 -0.5206
4928000000.0 0.1182 -0.963
4931000000.0 -0.6446 -0.6995
4934000000.0 -0.9259 0.08064
4938000000.0 -0.525 0.7791
4941000000.0 0.2124 0.9352
4944000000.0 0.8434 0.4044
4947000000.0 0.8585 -0.4476
4950000000.0 0.2004 -0.9166
4953000000.0 -0.5968 -0.7473
4956000000.0 -0.9711 -0.02147
4959000000.0 -0.6049 0.7459
4962000000.0 0.1957 0.9861
4966000000.0 0.8729 0.4953
4969000000.0 0.9121 -0.3842
4972000000.0 0.2576 -0.9566
4975000000.0 -0.5485 -0.8289
4978000000.0 -1.021 -0.1241
4981000000.0 -0.7258 0.7227
4984000000.0 0.1079 1.025
4988000000.0 0.8943 0.6205
4991000000.0 1.025 -0.2959
4994000000.0 0.4235 -1.005
4997000000.0 -0.5008 -0.9872
5000000000.0 -1.111 -0.2651
5003000000.0 -0.9155 0.6971
5006000000.0 -0.07088 1.169
5009000000.0 0.8878 0.7833
5012000000.0 1.182 -0.1889
5016000000.0 0.6414 -1.075
5019000000.0 -0.4177 -1.178
5022000000.0 -1.162 -0.42
5025000000.0 -1.072 0.6276
5028000000.0 -0.2065 1.243
5031000000.0 0.8596 0.9656
5034000000.0 1.29 -0.04955
5038000000.0 0.7656 -1.039
5041000000.0 -0.2974 -1.259
5044000000.0 -1.133 -0.5967
5047000000.0 -1.167 0.4894
5050000000.0 -0.4036 1.231
5053000000.0 0.7116 1.109
5056000000.0 1.298 0.169
5059000000.0 0.9265 -0.8909
5062000000.0 -0.08453 -1.318
5066000000.0 -1.023 -0.7938
5069000000.0 -1.254 0.3173
5072000000.0 -0.5769 1.183
5075000000.0 0.5081 1.173
5078000000.0 1.235 0.3474
5081000000.0 1.03 -0.7331
5084000000.0 0.09689 -1.226
5088000000.0 -0.8622 -0.8529
5091000000.0 -1.19 0.1492
5094000000.0 -0.6784 0.9835
5097000000.0 0.3081 1.114
5100000000.0 1.045 0.466
5103000000.0 1.026 -0.518
5106000000.0 0.2987 -1.106
5109000000.0 -0.6352 -0.9098
5112000000.0 -1.064 -0.1186
5116000000.0 -0.7214 0.7897
5119000000.0 0.1136 1.085
5122000000.0 0.8582 0.5962
5125000000.0 0.9944 -0.2774
5128000000.0 0.4235 -0.9348
5131000000.0 -0.4456 -0.9103
5134000000.0 -0.9712 -0.238
5138000000.0 -0.7836 0.6193
5141000000.0 -0.02902 0.9834
5144000000.0 0.726 0.6289
5147000000.0 0.9615 -0.1832
5150000000.0 0.4327 -0.8119
5153000000.0 -0.34 -0.8287
5156000000.0 -0.901 -0.3102
5159000000.0 -0.7742 0.4958
5162000000.0 -0.1084 0.9192
5166000000.0 0.6365 0.6501
5169000000.0 0.8908 -0.09056
5172000000.0 0.503 -0.7504
5175000000.0 -0.2666 -0.8601
5178000000.0 -0.8407 -0.331
5181000000.0 -0.7672 0.4665
5184000000.0 -0.1295 0.9132
5188000000.0 0.6084 0.7065
5191000000.0 0.9014 -0.04904
5194000000.0 0.5343 -0.7689
5197000000.0 -0.2669 -0.8751
5200000000.0 -0.8849 -0.3456
5203000000.0 -0.8359 0.4652
5206000000.0 -0.1831 0.9156
5209000000.0 0.636 0.7168
5212000000.0 0.9454 -0.06147
5216000000.0 0.5766 -0.78
5219000000.0 -0.2389 -0.9366
5222000000.0 -0.8849 -0.4116
5225000000.0 -0.8754 0.4392
5228000000.0 -0.2184 0.982
5231000000.0 0.608 0.7878
5234000000.0 1.037 0.005057
5238000000.0 0.6587 -0.7611
5241000000.0 -0.1914 -1.055
5244000000.0 -0.9231 -0.5098
5247000000.0 -0.9697 0.364
5250000000.0 -0.3785 0.9948
5253000000.0 0.5351 0.9207
5256000000.0 1.09 0.1621
5259000000.0 0.8037 -0.6811
5262000000.0 -0.0226 -1.049
5266000000.0 -0.8521 -0.6685
5269000000.0 -1.088 0.2052
5272000000.0 -0.5547 0.9512
5275000000.0 0.3849 1.024
5278000000.0 1.031 0.3687
5281000000.0 0.9458 -0.537
5284000000.0 0.1909 -1.082
5288000000.0 -0.6891 -0.8621
5291000000.0 -1.126 -0.0275
5294000000.0 -0.7098 0.8036
5297000000.0 0.1566 1.101
5300000000.0 0.9556 0.5919
5303000000.0 1.094 -0.347
5306000000.0 0.4161 -1.072
5309000000.0 -0.5067 -1.001
5312000000.0 -1.11 -0.2686
5316000000.0 -0.9184 0.7147
5319000000.0 -0.07255 1.172
5322000000.0 0.8359 0.8098
5325000000.0 1.143 -0.162
5328000000.0 0.5875 -0.9829
5331000000.0 -0.3333 -1.126
5334000000.0 -1.073 -0.4125
5338000000.0 -1.03 0.5506
5341000000.0 -0.214 1.116
5344000000.0 0.7032 0.8766
5347000000.0 1.116 -0.005948
5350000000.0 0.6961 -0.853
5353000000.0 -0.2257 -1.076
5356000000.0 -0.9671 -0.5385
5359000000.0 -0.9877 0.3862
5362000000.0 -0.2973 1.058
5366000000.0 0.6451 0.8662
5369000000.0 1.043 0.06784
5372000000.0 0.7032 -0.7554
5375000000.0 -0.1559 -1.032
5378000000.0 -0.8848 -0.5084
5381000000.0 -0.9423 0.3918
5384000000.0 -0.2949 0.9557
5388000000.0 0.5491 0.8056
5391000000.0 0.9622 0.08484
5394000000.0 0.6095 -0.7037
5397000000.0 -0.1784 -0.8897
5400000000.0 -0.7981 -0.4457
5403000000.0 -0.8226 0.3505
5406000000.0 -0.2211 0.8413
5409000000.0 0.4968 0.7173
5412000000.0 0.8755 0.01063
5416000000.0 0.5631 -0.6744
5419000000.0 -0.1845 -0.8609
5422000000.0 -0.7837 -0.4122
5425000000.0 -0.7951 0.3489
5428000000.0 -0.2206 0.8425
5431000000.0 0.5409 0.7018
5434000000.0 0.9009 0.005146
5438000000.0 0.578 -0.6716
5441000000.0 -0.1579 -0.8389
5444000000.0 -0.8016 -0.4031
5447000000.0 -0.8155 0.3788
5450000000.0 -0.2171 0.8638
5453000000.0 0.536 0.7537
5456000000.0 0.9112 0.0332
5459000000.0 0.6011 -0.6232
5462000000.0 -0.1197 -0.9047
5466000000.0 -0.7655 -0.4524
5469000000.0 -0.8691 0.2999
5472000000.0 -0.3195 0.8573
5475000000.0 0.4463 0.7866
5478000000.0 0.9004 0.1998
5481000000.0 0.7125 -0.5957
5484000000.0 0.02283 -0.9651
5488000000.0 -0.7149 -0.627
5491000000.0 -0.9918 0.1428
5494000000.0 -0.4875 0.8302
5497000000.0 0.3376 0.9718
5500000000.0 0.9613 0.3563
5503000000.0 0.9117 -0.49
5506000000.0 0.195 -0.9958
5509000000.0 -0.625 -0.7888
5512000000.0 -1.019 -0.03277
5516000000.0 -0.6671 0.788
5519000000.0 0.1731 1.038
5522000000.0 0.8956 0.533
5525000000.0 0.9922 -0.3133
5528000000.0 0.3984 -0.9732
5531000000.0 -0.4685 -0.9612
5534000000.0 -1.048 -0.1843
5538000000.0 -0.7951 0.6559
5541000000.0 -0.04974 1.048
5544000000.0 0.7885 0.7242
5547000000.0 1.095 -0.161
5550000000.0 0.5596 -0.9412
5553000000.0 -0.3392 -0.9781
5556000000.0 -0.9804 -0.378
5559000000.0 -0.9179 0.5403
5562000000.0 -0.1953 1.046
5566000000.0 0.6922 0.781
5569000000.0 1.036 0.019
5572000000.0 0.635 -0.7845
5575000000.0 -0.1973 -1.017
5578000000.0 -0.8934 -0.4756
5581000000.0 -0.9132 0.3989
5584000000.0 -0.3114 0.9495
5588000000.0 0.5355 0.7842
5591000000.0 0.932 0.07876
5594000000.0 0.6693 -0.6553
5597000000.0 -0.08033 -0.9262
5600000000.0 -0.7645 -0.4878
5603000000.0 -0.8684 0.2472
5606000000.0 -0.3475 0.8173
5609000000.0 0.412 0.7756
5612000000.0 0.8564 0.1779
5616000000.0 0.6628 -0.5347
5619000000.0 -0.01656 -0.8395
5622000000.0 -0.6821 -0.5273
5625000000.0 -0.8303 0.1776
5628000000.0 -0.3604 0.7323
5631000000.0 0.3469 0.7626
5634000000.0 0.7686 0.1987
5638000000.0 0.6644 -0.5226
5641000000.0 0.01226 -0.8191
5644000000.0 -0.6499 -0.5473
5647000000.0 -0.7961 0.1717
5650000000.0 -0.3888 0.7607
5653000000.0 0.3476 0.7856
5656000000.0 0.8103 0.2315
5659000000.0 0.6839 -0.5313
5662000000.0 0.01337 -0.8568
5666000000.0 -0.6462 -0.5557
5669000000.0 -0.8505 0.1604
5672000000.0 -0.3931 0.7978
5675000000.0 0.3861 0.8485
5678000000.0 0.8974 0.2415
5681000000.0 0.7517 -0.5535
5684000000.0 0.05928 -0.9462
5688000000.0 -0.6928 -0.6417
5691000000.0 -0.9669 0.1652
5694000000.0 -0.4542 0.8334
5697000000.0 0.3605 0.9276
5700000000.0 0.9289 0.321
5703000000.0 0.8354 -0.5675
5706000000.0 0.1468 -0.9977
5709000000.0 -0.6968 -0.7314
5712000000.0 -1.049 0.09567
5716000000.0 -0.5885 0.8467
5719000000.0 0.2942 1.014
5722000000.0 0.9639 0.4308
5725000000.0 0.9543 -0.5002
5728000000.0 0.2509 -1.018
5731000000.0 -0.664 -0.8629
5734000000.0 -1.081 -0.03024
5738000000.0 -0.7065 0.8419
5741000000.0 0.1782 1.097
5744000000.0 0.9133 0.5888
5747000000.0 1.051 -0.3796
5750000000.0 0.3801 -1.059
5753000000.0 -0.5547 -0.9687
5756000000.0 -1.055 -0.1732
5759000000.0 -0.8539 0.693
5762000000.0 -0.02618 1.088
5766000000.0 0.8637 0.7235
5769000000.0 1.091 -0.2125
5772000000.0 0.5355 -0.9767
5775000000.0 -0.3626 -1.052
5778000000.0 -1.032 -0.3716
5781000000.0 -0.9734 0.5263
5784000000.0 -0.1768 1.069
5788000000.0 0.7048 0.8218
5791000000.0 1.086 0.01181
5794000000.0 0.6758 -0.888
5797000000.0 -0.2315 -1.08
5800000000.0 -0.9486 -0.4722
5803000000.0 -0.9736 0.4057
5806000000.0 -0.3149 1.017
5809000000.0 0.6098 0.8807
5812000000.0 1.053 0.131
5816000000.0 0.7417 -0.7325
5819000000.0 -0.1009 -1.014
5822000000.0 -0.8607 -0.5567
5825000000.0 -0.9456 0.2882
5828000000.0 -0.3651 0.9165
5831000000.0 0.461 0.8755
5834000000.0 1.011 0.1535
5838000000.0 0.719 -0.6092
5841000000.0 -0.02989 -1.01
5844000000.0 -0.763 -0.6023
5847000000.0 -0.9403 0.1897
5850000000.0 -0.3857 0.8928
5853000000.0 0.4018 0.8078
5856000000.0 0.9055 0.201
5859000000.0 0.7203 -0.5664
5862000000.0 0.0526 -0.9072
5866000000.0 -0.698 -0.5746
5869000000.0 -0.8802 0.1988
5872000000.0 -0.4103 0.7812
5875000000.0 0.3637 0.8254
5878000000.0 0.8779 0.2244
5881000000.0 0.7181 -0.5457
5884000000.0 0.04974 -0.8714
5888000000.0 -0.6816 -0.5774
5891000000.0 -0.845 0.1407
5894000000.0 -0.4194 0.7697
5897000000.0 0.3334 0.793
5900000000.0 0.8383 0.2717
5903000000.0 0.7066 -0.4838
5906000000.0 0.08788 -0.8746
5909000000.0 -0.6046 -0.5976
5912000000.0 -0.8517 0.06649
5916000000.0 -0.4574 0.7108
5919000000.0 0.2566 0.8186
5922000000.0 0.8041 0.3518
5925000000.0 0.7856 -0.4199
5928000000.0 0.1901 -0.8702
5931000000.0 -0.5872 -0.7003
5934000000.0 -0.8582 0.002132
5938000000.0 -0.6013 0.6948
5941000000.0 0.1439 0.8638
5944000000.0 0.7731 0.4607
5947000000.0 0.863 -0.3321
5950000000.0 0.3287 -0.8814
5953000000.0 -0.4656 -0.7939
5956000000.0 -0.8919 -0.1475
5959000000.0 -0.7004 0.5948
5962000000.0 0.02369 0.9195
5966000000.0 0.707 0.5911
5969000000.0 0.9307 -0.1586
5972000000.0 0.4433 -0.8485
5975000000.0 -0.3611 -0.8826
5978000000.0 -0.9384 -0.3041
5981000000.0 -0.879 0.5208
5984000000.0 -0.1318 0.9971
5988000000.0 0.6563 0.7396
5991000000.0 0.9854 -0.0265
5994000000.0 0.6161 -0.8205
5997000000.0 -0.2039 -0.9789
6000000000.0 -0.9299 -0.4482
6003000000.0 -0.9053 0.3941
6006000000.0 -0.2765 0.9576
6009000000.0 0.5756 0.8177
6012000000.0 0.994 0.07186
6016000000.0 0.6905 -0.7106
6019000000.0 -0.1115 -0.9852
6022000000.0 -0.8387 -0.5403
6025000000.0 -0.9469 0.294
6028000000.0 -0.3482 0.8989
6031000000.0 0.449 0.8461
6034000000.0 0.9818 0.1699
6038000000.0 0.7275 -0.6217
6041000000.0 -0.03233 -0.953
6044000000.0 -0.7708 -0.5643
6047000000.0 -0.9102 0.2405
6050000000.0 -0.4126 0.8472
6053000000.0 0.4115 0.8453
6056000000.0 0.9128 0.187
6059000000.0 0.7471 -0.5934
6062000000.0 -0.006503 -0.9119
6066000000.0 -0.6988 -0.5888
6069000000.0 -0.8884 0.1799
6072000000.0 -0.3977 0.798
6075000000.0 0.3491 0.8131
6078000000.0 0.8102 0.2275
6081000000.0 0.7144 -0.5012
6084000000.0 0.04723 -0.8786
6088000000.0 -0.6475 -0.6001
6091000000.0 -0.8468 0.1124
6094000000.0 -0.4332 0.7603
6097000000.0 0.3031 0.814
6100000000.0 0.8114 0.2716
6103000000.0 0.7529 -0.4489
6106000000.0 0.09979 -0.8583
6109000000.0 -0.6051 -0.6003
6112000000.0 -0.8395 0.08721
6116000000.0 -0.4978 0.7216
6119000000.0 0.2539 0.8342
6122000000.0 0.8008 0.3118
6125000000.0 0.7571 -0.4157
6128000000.0 0.1105 -0.8545
6131000000.0 -0.5767 -0.6586
6134000000.0 -0.8556 0.01913
6138000000.0 -0.5566 0.7019
6141000000.0 0.2238 0.8764
6144000000.0 0.7999 0.3868
6147000000.0 0.8058 -0.3787
6150000000.0 0.1915 -0.8567
6153000000.0 -0.5532 -0.7276
6156000000.0 -0.9047 -0.02214
6159000000.0 -0.6157 0.6731
6162000000.0 0.1398 0.9121
6166000000.0 0.8318 0.4851
6169000000.0 0.8874 -0.322
6172000000.0 0.2901 -0.899
6175000000.0 -0.4876 -0.792
6178000000.0 -0.9399 -0.1368
6181000000.0 -0.6609 0.6747
6184000000.0 0.04431 0.9529
6188000000.0 0.7758 0.5199
6191000000.0 0.9296 -0.2783
6194000000.0 0.3755 -0.8974
6197000000.0 -0.458 -0.8381
6200000000.0 -0.9207 -0.1961
6203000000.0 -0.7197 0.6099
6206000000.0 -0.002982 0.9741
6209000000.0 0.7102 0.6028
6212000000.0 0.9214 -0.1425
6216000000.0 0.4634 -0.7935
6219000000.0 -0.353 -0.8628
6222000000.0 -0.8506 -0.3037
6225000000.0 -0.7665 0.4964
6228000000.0 -0.1493 0.9102
6231000000.0 0.6119 0.6373
6234000000.0 0.8938 -0.04809
6238000000.0 0.5225 -0.7181
6241000000.0 -0.1803 -0.8356
6244000000.0 -0.801 -0.3895
6247000000.0 -0.7755 0.3341
6250000000.0 -0.2032 0.7862
6253000000.0 0.4662 0.6971
6256000000.0 0.8237 0.06044
6259000000.0 0.5877 -0.5853
6262000000.0 -0.08341 -0.8141
6266000000.0 -0.6512 -0.4964
