! Created with skrf 1.8.0 (http://scikit-rf.org).
# Hz S RI R 50.0 
!freq ReS11 ImS11
4000000000.0 -0.1503 -1.519
4003000000.0 -1.26 -0.7973
4006000000.0 -1.446 0.4568
4009000000.0 -0.5357 1.402
4012000000.0 0.7809 1.311
4016000000.0 1.521 0.2621
4019000000.0 1.124 -1.072
4022000000.0 -0.1095 -1.558
4025000000.0 -1.288 -0.8926
4028000000.0 -1.521 0.4649
4031000000.0 -0.5545 1.499
4034000000.0 0.8131 1.419
4038000000.0 1.591 0.2263
4041000000.0 1.199 -1.095
4044000000.0 -0.08696 -1.637
4047000000.0 -1.329 -0.9281
4050000000.0 -1.511 0.4541
4053000000.0 -0.5946 1.488
4056000000.0 0.7774 1.448
4059000000.0 1.626 0.3162
4062000000.0 1.262 -1.044
4066000000.0 0.01047 -1.636
4069000000.0 -1.219 -1.044
4072000000.0 -1.59 0.26
4075000000.0 -0.8203 1.384
4078000000.0 0.572 1.541
4081000000.0 1.563 0.5624
4084000000.0 1.421 -0.8474
4088000000.0 0.2144 -1.649
4091000000.0 -1.106 -1.218
4094000000.0 -1.644 0.09026
4097000000.0 -0.9408 1.298
4100000000.0 0.3887 1.557
4103000000.0 1.404 0.7146
4106000000.0 1.46 -0.639
4109000000.0 0.4421 -1.494
4112000000.0 -0.8504 -1.286
4116000000.0 -1.512 -0.1928
4119000000.0 -1.096 0.9994
4122000000.0 0.03331 1.508
4125000000.0 1.093 0.9398
4128000000.0 1.407 -0.2409
4131000000.0 0.7912 -1.278
4134000000.0 -0.4176 -1.416
4138000000.0 -1.338 -0.5915
4141000000.0 -1.371 0.6479
4144000000.0 -0.3729 1.448
4147000000.0 0.8775 1.239
4150000000.0 1.505 0.1294
4153000000.0 1.104 -1.051
4156000000.0 -0.1427 -1.532
4159000000.0 -1.23 -0.8814
4162000000.0 -1.477 0.3752
4166000000.0 -0.6192 1.342
4169000000.0 0.6197 1.356
4172000000.0 1.451 0.4103
4175000000.0 1.245 -0.877
4178000000.0 0.1502 -1.479
4181000000.0 -1.045 -1.101
4184000000.0 -1.521 0.1247
4188000000.0 -0.8816 1.218
4191000000.0 0.3753 1.465
4194000000.0 1.378 0.6434
4197000000.0 1.42 -0.6417
4200000000.0 0.3815 -1.547
4203000000.0 -0.9799 -1.258
4206000000.0 -1.634 -0.08099
4209000000.0 -1.074 1.255
4212000000.0 0.323 1.615
4216000000.0 1.506 0.7232
4219000000.0 1.515 -0.7556
4222000000.0 0.3219 -1.658
4225000000.0 -1.135 -1.291
4228000000.0 -1.661 0.154
4231000000.0 -0.8817 1.395
4234000000.0 0.5723 1.563
4238000000.0 1.563 0.4979
4241000000.0 1.326 -0.9171
4244000000.0 0.05609 -1.585
4247000000.0 -1.212 -1.029
4250000000.0 -1.498 0.3527
4253000000.0 -0.6753 1.428
4256000000.0 0.7104 1.408
4259000000.0 1.5 0.2957
4262000000.0 1.147 -0.9904
4266000000.0 -0.1295 -1.483
4269000000.0 -1.265 -0.827
4272000000.0 -1.45 0.4326
4275000000.0 -0.5092 1.354
4278000000.0 0.7668 1.232
4281000000.0 1.439 0.1586
4284000000.0 0.9993 -1.009
4288000000.0 -0.155 -1.402
4291000000.0 -1.139 -0.7397
4294000000.0 -1.291 0.4007
4297000000.0 -0.5191 1.262
4300000000.0 0.6546 1.19
4303000000.0 1.306 0.2232
4306000000.0 0.977 -0.8308
4309000000.0 -0.01341 -1.332
4312000000.0 -0.9797 -0.8199
4316000000.0 -1.285 0.2223
4319000000.0 -0.6649 1.109
4322000000.0 0.4248 1.267
4325000000.0 1.215 0.4815
4328000000.0 1.158 -0.6228
4331000000.0 0.2994 -1.296
4334000000.0 -0.8697 -1.087
4338000000.0 -1.359 -0.04971
4341000000.0 -0.9038 1.067
4344000000.0 0.2751 1.419
4347000000.0 1.194 0.741
4350000000.0 1.388 -0.4969
4353000000.0 0.4865 -1.341
4356000000.0 -0.7576 -1.209
4359000000.0 -1.427 -0.2315
4362000000.0 -1.091 0.9512
4366000000.0 0.03305 1.479
4369000000.0 1.122 0.9323
4372000000.0 1.452 -0.3265
4375000000.0 0.7297 -1.319
4378000000.0 -0.5739 -1.371
4381000000.0 -1.455 -0.4688
4384000000.0 -1.296 0.849
4388000000.0 -0.1669 1.539
4391000000.0 1.116 1.117
4394000000.0 1.568 -0.1626
4397000000.0 0.8315 -1.341
4400000000.0 -0.5063 -1.537
4403000000.0 -1.509 -0.5264
4406000000.0 -1.365 0.863
4409000000.0 -0.1672 1.572
4412000000.0 1.078 1.094
4416000000.0 1.515 -0.2193
4419000000.0 0.8099 -1.333
4422000000.0 -0.5544 -1.419
4425000000.0 -1.44 -0.4594
4428000000.0 -1.227 0.8605
4431000000.0 -0.06536 1.422
4434000000.0 1.055 0.9432
4438000000.0 1.387 -0.2941
4441000000.0 0.6474 -1.254
4444000000.0 -0.5914 -1.247
4447000000.0 -1.304 -0.2748
4450000000.0 -1.025 0.8718
4453000000.0 0.03837 1.361
4456000000.0 1.044 0.7572
4459000000.0 1.202 -0.4155
4462000000.0 0.4425 -1.154
4466000000.0 -0.6652 -1.054
4469000000.0 -1.219 -0.1357
4472000000.0 -0.8359 0.8895
4475000000.0 0.1797 1.198
4478000000.0 1.031 0.5952
4481000000.0 1.087 -0.4398
4484000000.0 0.3187 -1.136
4488000000.0 -0.6986 -0.9395
4491000000.0 -1.122 -0.06761
4494000000.0 -0.7359 0.8616
4497000000.0 0.2122 1.108
4500000000.0 1.006 0.531
4503000000.0 0.9917 -0.4173
4506000000.0 0.2828 -1.056
4509000000.0 -0.6194 -0.919
4512000000.0 -1.097 -0.08054
4516000000.0 -0.7806 0.8025
4519000000.0 0.1543 1.131
4522000000.0 0.9736 0.6056
4525000000.0 1.102 -0.3588
4528000000.0 0.4054 -1.087
4531000000.0 -0.5718 -1.032
4534000000.0 -1.134 -0.1717
4538000000.0 -0.8875 0.774
4541000000.0 0.02142 1.177
4544000000.0 0.934 0.7256
4547000000.0 1.18 -0.2672
4550000000.0 0.5656 -1.065
4553000000.0 -0.4626 -1.115
4556000000.0 -1.154 -0.3473
4559000000.0 -1.041 0.6589
4562000000.0 -0.1608 1.216
4566000000.0 0.8507 0.9333
4569000000.0 1.263 -0.05681
4572000000.0 0.7766 -1.016
4575000000.0 -0.2989 -1.246
4578000000.0 -1.174 -0.6065
4581000000.0 -1.209 0.5053
4584000000.0 -0.359 1.293
4588000000.0 0.755 1.13
4591000000.0 1.365 0.1622
4594000000.0 0.9908 -0.961
4597000000.0 -0.1501 -1.365
4600000000.0 -1.16 -0.7788
4603000000.0 -1.348 0.3759
4606000000.0 -0.5543 1.295
4609000000.0 0.6624 1.243
4612000000.0 1.375 0.2761
4616000000.0 1.08 -0.8937
4619000000.0 0.02494 -1.388
4622000000.0 -1.079 -0.903
4625000000.0 -1.348 0.2631
4628000000.0 -0.6342 1.234
4631000000.0 0.5581 1.297
4634000000.0 1.321 0.3849
4638000000.0 1.118 -0.7482
4641000000.0 0.09905 -1.357
4644000000.0 -1.041 -0.9287
4647000000.0 -1.347 0.2107
4650000000.0 -0.6303 1.173
4653000000.0 0.5231 1.217
4656000000.0 1.255 0.3525
4659000000.0 1.012 -0.7293
4662000000.0 0.07847 -1.253
4666000000.0 -0.9607 -0.8178
4669000000.0 -1.21 0.2075
4672000000.0 -0.5751 1.064
4675000000.0 0.4611 1.081
4678000000.0 1.12 0.2641
4681000000.0 0.9003 -0.6762
4684000000.0 0.02876 -1.111
4688000000.0 -0.8452 -0.73
4691000000.0 -1.107 0.1773
4694000000.0 -0.4907 0.9613
4697000000.0 0.4184 1.015
4700000000.0 1.046 0.2565
4703000000.0 0.8837 -0.6271
4706000000.0 0.001306 -1.085
4709000000.0 -0.8331 -0.6811
4712000000.0 -1.069 0.2218
4716000000.0 -0.4608 0.9758
4719000000.0 0.4503 0.9812
4722000000.0 1.026 0.2291
4725000000.0 0.8327 -0.6458
4728000000.0 0.01789 -1.05
4731000000.0 -0.7787 -0.6728
4734000000.0 -0.9834 0.2048
4738000000.0 -0.4752 0.9002
4741000000.0 0.3766 0.995
4744000000.0 1.017 0.3288
4747000000.0 0.8983 -0.5584
4750000000.0 0.1478 -1.06
4753000000.0 -0.7251 -0.8255
4756000000.0 -1.074 0.07982
4759000000.0 -0.6482 0.8701
4762000000.0 0.2675 1.09
4766000000.0 1.023 0.5149
4769000000.0 1.041 -0.4593
4772000000.0 0.3355 -1.111
4775000000.0 -0.6502 -0.9796
4778000000.0 -1.183 -0.1315
4781000000.0 -0.8451 0.8246
4784000000.0 0.0875 1.181
4788000000.0 0.9667 0.6975
4791000000.0 1.189 -0.286
4794000000.0 0.5553 -1.091
4797000000.0 -0.4655 -1.121
4800000000.0 -1.206 -0.3861
4803000000.0 -1.042 0.655
4806000000.0 -0.1725 1.252
4809000000.0 0.8434 0.9363
4812000000.0 1.292 -0.04816
4816000000.0 0.778 -1.029
4819000000.0 -0.3144 -1.279
4822000000.0 -1.179 -0.6227
4825000000.0 -1.237 0.5346
4828000000.0 -0.382 1.315
4831000000.0 0.7987 1.158
4834000000.0 1.387 0.118
4838000000.0 0.9588 -1.005
4841000000.0 -0.1542 -1.383
4844000000.0 -1.171 -0.735
4847000000.0 -1.322 0.4308
4850000000.0 -0.5038 1.297
4853000000.0 0.6892 1.198
4856000000.0 1.347 0.2429
4859000000.0 1.068 -0.8815
4862000000.0 -0.01378 -1.348
4866000000.0 -1.058 -0.8105
4869000000.0 -1.288 0.2921
4872000000.0 -0.5667 1.188
4875000000.0 0.5513 1.187
4878000000.0 1.268 0.3011
4881000000.0 1.012 -0.7701
4884000000.0 0.03853 -1.286
4888000000.0 -0.9452 -0.8122
4891000000.0 -1.19 0.2192
4894000000.0 -0.5365 1.046
4897000000.0 0.4888 1.05
4900000000.0 1.105 0.2929
4903000000.0 0.9313 -0.6504
4906000000.0 0.06292 -1.11
4909000000.0 -0.7953 -0.7088
4912000000.0 -1.017 0.1495
4916000000.0 -0.5238 0.8782
4919000000.0 0.3575 0.9535
4922000000.0 0.9232 0.3226
4925000000.0 0.8433 -0.5384
4928000000.0 0.1092 -0.9556
4931000000.0 -0.6636 -0.7218
4934000000.0 -0.9258 0.04882
4938000000.0 -0.5676 0.7639
4941000000.0 0.2487 0.9142
4944000000.0 0.8488 0.425
4947000000.0 0.8637 -0.4034
4950000000.0 0.2434 -0.9157
4953000000.0 -0.5805 -0.7599
4956000000.0 -0.9648 -0.02301
4959000000.0 -0.6257 0.7418
4962000000.0 0.1769 0.9573
4966000000.0 0.8413 0.4757
4969000000.0 0.9375 -0.3739
4972000000.0 0.3426 -0.947
4975000000.0 -0.5288 -0.8458
4978000000.0 -0.9972 -0.1293
4981000000.0 -0.751 0.7076
4984000000.0 0.07352 1.047
4988000000.0 0.8477 0.6052
4991000000.0 1.046 -0.2834
4994000000.0 0.4551 -0.9638
4997000000.0 -0.4818 -0.9851
5000000000.0 -1.086 -0.2775
5003000000.0 -0.9192 0.6773
5006000000.0 -0.07611 1.154
5009000000.0 0.8906 0.7999
5012000000.0 1.203 -0.1416
5016000000.0 0.6597 -1.068
5019000000.0 -0.3871 -1.153
5022000000.0 -1.183 -0.4501
5025000000.0 -1.115 0.6086
5028000000.0 -0.221 1.237
5031000000.0 0.8167 0.9584
5034000000.0 1.263 -0.009448
5038000000.0 0.8043 -0.9784
5041000000.0 -0.2577 -1.261
5044000000.0 -1.124 -0.6267
5047000000.0 -1.21 0.4883
5050000000.0 -0.4104 1.226
5053000000.0 0.6756 1.126
5056000000.0 1.266 0.1886
5059000000.0 0.9526 -0.8736
5062000000.0 -0.04051 -1.292
5066000000.0 -1.015 -0.7782
5069000000.0 -1.281 0.2755
5072000000.0 -0.59 1.149
5075000000.0 0.5334 1.188
5078000000.0 1.216 0.3698
5081000000.0 1.019 -0.687
5084000000.0 0.1512 -1.257
5088000000.0 -0.8687 -0.8633
5091000000.0 -1.21 0.0964
5094000000.0 -0.6636 0.9569
5097000000.0 0.3164 1.137
5100000000.0 1.012 0.4564
5103000000.0 1.056 -0.4546
5106000000.0 0.2784 -1.079
5109000000.0 -0.6151 -0.9379
5112000000.0 -1.076 -0.1352
5116000000.0 -0.7841 0.7524
5119000000.0 0.1096 1.059
5122000000.0 0.8262 0.5885
5125000000.0 1.013 -0.2901
5128000000.0 0.4342 -0.9425
5131000000.0 -0.4409 -0.904
5134000000.0 -0.9899 -0.2468
5138000000.0 -0.8318 0.5905
5141000000.0 -0.02773 0.977
5144000000.0 0.7449 0.6818
5147000000.0 0.9432 -0.1072
5150000000.0 0.4778 -0.8308
5153000000.0 -0.3242 -0.8408
5156000000.0 -0.8694 -0.3171
5159000000.0 -0.789 0.5081
5162000000.0 -0.1009 0.8908
5166000000.0 0.6244 0.6369
5169000000.0 0.9132 -0.05276
5172000000.0 0.4806 -0.7164
5175000000.0 -0.2618 -0.8678
5178000000.0 -0.8389 -0.3649
5181000000.0 -0.7798 0.4324
5184000000.0 -0.1727 0.8864
5188000000.0 0.6091 0.6823
5191000000.0 0.9491 -0.009806
5194000000.0 0.5663 -0.7412
5197000000.0 -0.2416 -0.9111
5200000000.0 -0.8666 -0.4111
5203000000.0 -0.8246 0.4112
5206000000.0 -0.1785 0.9547
5209000000.0 0.6168 0.7519
5212000000.0 0.9618 -0.02827
5216000000.0 0.5781 -0.7572
5219000000.0 -0.2265 -0.935
5222000000.0 -0.9027 -0.4202
5225000000.0 -0.8921 0.4292
5228000000.0 -0.2734 0.9471
5231000000.0 0.6153 0.8107
5234000000.0 1.024 0.06013
5238000000.0 0.7106 -0.7517
5241000000.0 -0.1332 -1.037
5244000000.0 -0.8996 -0.5704
5247000000.0 -1.008 0.3269
5250000000.0 -0.3872 1.001
5253000000.0 0.5107 0.9156
5256000000.0 1.052 0.2167
5259000000.0 0.8204 -0.6749
5262000000.0 -0.01425 -1.081
5266000000.0 -0.8382 -0.7095
5269000000.0 -1.057 0.1893
5272000000.0 -0.5632 0.9493
5275000000.0 0.3654 1.038
5278000000.0 1.017 0.3986
5281000000.0 0.9707 -0.5364
5284000000.0 0.2221 -1.101
5288000000.0 -0.6806 -0.8962
5291000000.0 -1.131 -0.03607
5294000000.0 -0.7574 0.8026
5297000000.0 0.1554 1.102
5300000000.0 0.9209 0.6346
5303000000.0 1.08 -0.3139
5306000000.0 0.4915 -1.032
5309000000.0 -0.4939 -1.01
5312000000.0 -1.132 -0.2967
5316000000.0 -0.9449 0.7006
5319000000.0 -0.06512 1.125
5322000000.0 0.7924 0.8031
5325000000.0 1.159 -0.08968
5328000000.0 0.6643 -0.9365
5331000000.0 -0.3189 -1.083
5334000000.0 -1.074 -0.4624
5338000000.0 -1.021 0.4919
5341000000.0 -0.2471 1.125
5344000000.0 0.6938 0.8912
5347000000.0 1.13 0.03566
5350000000.0 0.7206 -0.8213
5353000000.0 -0.144 -1.101
5356000000.0 -0.9364 -0.5568
5359000000.0 -1.029 0.3835
5362000000.0 -0.3524 1.053
5366000000.0 0.6007 0.9117
5369000000.0 1.054 0.1029
5372000000.0 0.7373 -0.7697
5375000000.0 -0.1234 -1.04
5378000000.0 -0.8956 -0.5681
5381000000.0 -0.9691 0.3545
5384000000.0 -0.3353 0.9986
5388000000.0 0.5207 0.8281
5391000000.0 0.9669 0.1097
5394000000.0 0.653 -0.6699
5397000000.0 -0.1589 -0.9329
5400000000.0 -0.8048 -0.4986
5403000000.0 -0.8368 0.3637
5406000000.0 -0.242 0.8559
5409000000.0 0.5034 0.7328
5412000000.0 0.8674 0.05576
5416000000.0 0.586 -0.615
5419000000.0 -0.1244 -0.8601
5422000000.0 -0.7273 -0.4362
5425000000.0 -0.819 0.3387
5428000000.0 -0.2609 0.8282
5431000000.0 0.4919 0.7142
5434000000.0 0.8646 0.05832
5438000000.0 0.5982 -0.662
5441000000.0 -0.1306 -0.859
5444000000.0 -0.7688 -0.453
5447000000.0 -0.799 0.351
5450000000.0 -0.2506 0.8176
5453000000.0 0.5085 0.7264
5456000000.0 0.9079 0.08546
5459000000.0 0.6565 -0.6417
5462000000.0 -0.09917 -0.9128
5466000000.0 -0.7179 -0.5351
5469000000.0 -0.8666 0.2666
5472000000.0 -0.3757 0.8389
5475000000.0 0.4145 0.8148
5478000000.0 0.9154 0.2386
5481000000.0 0.7564 -0.6008
5484000000.0 0.05061 -0.9492
5488000000.0 -0.6529 -0.6459
5491000000.0 -0.9532 0.1145
5494000000.0 -0.5218 0.8008
5497000000.0 0.3011 0.9765
5500000000.0 0.9274 0.3884
5503000000.0 0.8772 -0.4324
5506000000.0 0.214 -1.011
5509000000.0 -0.6313 -0.8188
5512000000.0 -1.01 -0.04302
5516000000.0 -0.7153 0.7644
5519000000.0 0.1305 1.05
5522000000.0 0.8627 0.6009
5525000000.0 0.9829 -0.3107
5528000000.0 0.4035 -0.9519
5531000000.0 -0.4677 -0.949
5534000000.0 -1.015 -0.2387
5538000000.0 -0.8599 0.6242
5541000000.0 -0.04424 1.064
5544000000.0 0.7515 0.7171
5547000000.0 1.068 -0.1331
5550000000.0 0.5662 -0.872
5553000000.0 -0.3118 -1.04
5556000000.0 -1.009 -0.424
5559000000.0 -0.9515 0.5026
5562000000.0 -0.2241 1.033
5566000000.0 0.6354 0.8092
5569000000.0 1.045 0.02119
5572000000.0 0.6479 -0.7606
5575000000.0 -0.1643 -0.9851
5578000000.0 -0.912 -0.546
5581000000.0 -0.9454 0.3759
5584000000.0 -0.3635 0.9342
5588000000.0 0.4891 0.8109
5591000000.0 0.9401 0.1408
5594000000.0 0.6717 -0.6422
5597000000.0 -0.0466 -0.9295
5600000000.0 -0.7135 -0.557
5603000000.0 -0.8812 0.2533
5606000000.0 -0.3915 0.8102
5609000000.0 0.3868 0.7933
5612000000.0 0.8484 0.1951
5616000000.0 0.7136 -0.5711
5619000000.0 0.03641 -0.857
5622000000.0 -0.6492 -0.5758
5625000000.0 -0.8395 0.1662
5628000000.0 -0.4369 0.7662
5631000000.0 0.3156 0.7836
5634000000.0 0.8185 0.2567
5638000000.0 0.6833 -0.4928
5641000000.0 0.04887 -0.8482
5644000000.0 -0.5991 -0.5682
5647000000.0 -0.8611 0.1205
5650000000.0 -0.412 0.7326
5653000000.0 0.2949 0.7796
5656000000.0 0.8129 0.2814
5659000000.0 0.7229 -0.5081
5662000000.0 0.06612 -0.8846
5666000000.0 -0.6228 -0.5851
5669000000.0 -0.8721 0.1424
5672000000.0 -0.4327 0.757
5675000000.0 0.3309 0.8144
5678000000.0 0.8554 0.2741
5681000000.0 0.7474 -0.5246
5684000000.0 0.09665 -0.9508
5688000000.0 -0.6767 -0.6533
5691000000.0 -0.957 0.1399
5694000000.0 -0.534 0.8081
5697000000.0 0.3132 0.9155
5700000000.0 0.9652 0.3163
5703000000.0 0.8477 -0.5279
5706000000.0 0.1318 -1.024
5709000000.0 -0.6964 -0.7703
5712000000.0 -1.046 0.05372
5716000000.0 -0.6109 0.8357
5719000000.0 0.2682 1.035
5722000000.0 0.9691 0.4518
5725000000.0 0.9492 -0.4161
5728000000.0 0.2536 -1.047
5731000000.0 -0.616 -0.8624
5734000000.0 -1.091 -0.1061
5738000000.0 -0.7565 0.7529
5741000000.0 0.128 1.084
5744000000.0 0.902 0.5994
5747000000.0 1.073 -0.3166
5750000000.0 0.431 -1.003
5753000000.0 -0.5069 -0.9559
5756000000.0 -1.075 -0.2412
5759000000.0 -0.89 0.664
5762000000.0 -0.07285 1.093
5766000000.0 0.8173 0.7429
5769000000.0 1.101 -0.1504
5772000000.0 0.5784 -0.9296
5775000000.0 -0.3413 -1.028
5778000000.0 -1.013 -0.4075
5781000000.0 -0.9938 0.5156
5784000000.0 -0.2146 1.087
5788000000.0 0.6693 0.8469
5791000000.0 1.079 0.03492
5794000000.0 0.7084 -0.8087
5797000000.0 -0.2046 -1.031
5800000000.0 -0.9467 -0.5223
5803000000.0 -1.004 0.3805
5806000000.0 -0.3548 1.02
5809000000.0 0.5404 0.9448
5812000000.0 1.049 0.1744
5816000000.0 0.742 -0.7178
5819000000.0 -0.06931 -1.053
5822000000.0 -0.8258 -0.6243
5825000000.0 -0.9933 0.2474
5828000000.0 -0.4229 0.9305
5831000000.0 0.4159 0.9069
5834000000.0 0.9458 0.2237
5838000000.0 0.788 -0.5827
5841000000.0 0.03035 -0.9787
5844000000.0 -0.7418 -0.6301
5847000000.0 -0.984 0.14
5850000000.0 -0.4891 0.8422
5853000000.0 0.3495 0.8657
5856000000.0 0.8822 0.2579
5859000000.0 0.7748 -0.5293
5862000000.0 0.06066 -0.9252
5866000000.0 -0.6661 -0.6049
5869000000.0 -0.92 0.1442
5872000000.0 -0.4273 0.8069
5875000000.0 0.3045 0.8308
5878000000.0 0.8268 0.265
5881000000.0 0.7197 -0.4618
5884000000.0 0.09052 -0.8735
5888000000.0 -0.647 -0.6298
5891000000.0 -0.8761 0.1223
5894000000.0 -0.4789 0.6903
5897000000.0 0.2656 0.808
5900000000.0 0.796 0.2899
5903000000.0 0.7563 -0.4242
5906000000.0 0.1224 -0.8438
5909000000.0 -0.5836 -0.6399
5912000000.0 -0.8717 0.03678
5916000000.0 -0.5191 0.6933
5919000000.0 0.2169 0.8491
5922000000.0 0.8024 0.4105
5925000000.0 0.8098 -0.384
5928000000.0 0.1907 -0.8746
5931000000.0 -0.485 -0.688
5934000000.0 -0.88 -0.05422
5938000000.0 -0.6173 0.6184
5941000000.0 0.1143 0.8987
5944000000.0 0.7355 0.4877
5947000000.0 0.8386 -0.2439
5950000000.0 0.3712 -0.8428
5953000000.0 -0.4162 -0.7877
5956000000.0 -0.906 -0.1919
5959000000.0 -0.7282 0.5781
5962000000.0 -0.044 0.906
5966000000.0 0.7186 0.6552
5969000000.0 0.9343 -0.1472
5972000000.0 0.5029 -0.7823
5975000000.0 -0.3126 -0.9301
5978000000.0 -0.8936 -0.3457
5981000000.0 -0.8477 0.4677
5984000000.0 -0.2047 0.9712
5988000000.0 0.5983 0.7779
5991000000.0 0.9796 0.03784
5994000000.0 0.6458 -0.7655
5997000000.0 -0.1836 -1.03
6000000000.0 -0.8709 -0.5263
6003000000.0 -0.9258 0.3441
6006000000.0 -0.3191 0.9562
6009000000.0 0.509 0.8603
6012000000.0 0.9903 0.1464
6016000000.0 0.7438 -0.6737
6019000000.0 -0.04856 -0.9988
6022000000.0 -0.7893 -0.5882
6025000000.0 -0.9559 0.2339
6028000000.0 -0.4248 0.9171
6031000000.0 0.4181 0.8858
6034000000.0 0.932 0.2249
6038000000.0 0.7859 -0.5996
6041000000.0 0.01778 -0.945
6044000000.0 -0.7487 -0.6344
6047000000.0 -0.9611 0.175
6050000000.0 -0.4549 0.8221
6053000000.0 0.32 0.8807
6056000000.0 0.8777 0.292
6059000000.0 0.7901 -0.4979
6062000000.0 0.05834 -0.9211
6066000000.0 -0.68 -0.6087
6069000000.0 -0.9129 0.1002
6072000000.0 -0.4669 0.7713
6075000000.0 0.304 0.826
6078000000.0 0.8222 0.2949
6081000000.0 0.7507 -0.4691
6084000000.0 0.1231 -0.8571
6088000000.0 -0.6038 -0.6041
6091000000.0 -0.8692 0.07987
6094000000.0 -0.498 0.7282
6097000000.0 0.2232 0.8218
6100000000.0 0.8114 0.3526
6103000000.0 0.779 -0.4253
6106000000.0 0.1742 -0.8352
6109000000.0 -0.5346 -0.6444
6112000000.0 -0.8388 -0.002027
6116000000.0 -0.4935 0.6785
6119000000.0 0.2107 0.8368
6122000000.0 0.808 0.3658
6125000000.0 0.7592 -0.4011
6128000000.0 0.1754 -0.8215
6131000000.0 -0.5641 -0.6981
6134000000.0 -0.8596 -0.02973
6138000000.0 -0.6124 0.6721
6141000000.0 0.1538 0.9036
6144000000.0 0.789 0.4177
6147000000.0 0.8528 -0.3517
6150000000.0 0.2781 -0.8554
6153000000.0 -0.5148 -0.7396
6156000000.0 -0.896 -0.09788
6159000000.0 -0.6229 0.6523
6162000000.0 0.0952 0.8981
6166000000.0 0.764 0.551
6169000000.0 0.8777 -0.2572
6172000000.0 0.3269 -0.8498
6175000000.0 -0.4542 -0.8368
6178000000.0 -0.9262 -0.1532
6181000000.0 -0.7356 0.6352
6184000000.0 0.01973 0.9576
6188000000.0 0.7701 0.5827
6191000000.0 0.9455 -0.1948
6194000000.0 0.4354 -0.855
6197000000.0 -0.4174 -0.8958
6200000000.0 -0.9504 -0.2625
6203000000.0 -0.8029 0.5202
6206000000.0 -0.1057 0.9679
6209000000.0 0.6559 0.6259
6212000000.0 0.9135 -0.09043
6216000000.0 0.5027 -0.7868
6219000000.0 -0.2678 -0.9081
6222000000.0 -0.8404 -0.3409
6225000000.0 -0.7975 0.4424
6228000000.0 -0.219 0.8493
6231000000.0 0.5718 0.7017
6234000000.0 0.8791 0.04551
6238000000.0 0.5993 -0.652
6241000000.0 -0.1264 -0.8511
6244000000.0 -0.7721 -0.4224
6247000000.0 -0.8247 0.2645
6250000000.0 -0.254 0.8082
6253000000.0 0.4573 0.7226
6256000000.0 0.8175 0.1233
6259000000.0 0.605 -0.5325
6262000000.0 -0.02003 -0.8463
6266000000.0 -0.6359 -0.5706
