! Created with skrf 1.8.0 (http://scikit-rf.org).
# Hz S RI R 50.0 
!freq ReS11 ImS11
4000000000.0 -0.1775 -1.539
4003000000.0 -1.248 -0.862
4006000000.0 -1.429 0.5075
4009000000.0 -0.4948 1.428
4012000000.0 0.7587 1.321
4016000000.0 1.52 0.2363
4019000000.0 1.138 -1.058
4022000000.0 -0.08844 -1.603
4025000000.0 -1.361 -0.9149
4028000000.0 -1.539 0.4265
4031000000.0 -0.6047 1.563
4034000000.0 0.7668 1.412
4038000000.0 1.622 0.3018
4041000000.0 1.213 -1.128
4044000000.0 -0.1233 -1.653
4047000000.0 -1.363 -0.895
4050000000.0 -1.533 0.4753
4053000000.0 -0.6156 1.528
4056000000.0 0.7923 1.427
4059000000.0 1.624 0.3511
4062000000.0 1.255 -1.026
4066000000.0 0.04654 -1.641
4069000000.0 -1.241 -1.079
4072000000.0 -1.602 0.2773
4075000000.0 -0.8594 1.456
4078000000.0 0.5485 1.571
4081000000.0 1.564 0.5787
4084000000.0 1.415 -0.8307
4088000000.0 0.2885 -1.655
4091000000.0 -1.115 -1.262
4094000000.0 -1.675 0.04371
4097000000.0 -1.013 1.338
4100000000.0 0.3835 1.591
4103000000.0 1.441 0.7066
4106000000.0 1.47 -0.636
4109000000.0 0.4712 -1.505
4112000000.0 -0.8224 -1.3
4116000000.0 -1.531 -0.2034
4119000000.0 -1.133 1.002
4122000000.0 0.04185 1.527
4125000000.0 1.129 0.9897
4128000000.0 1.482 -0.2177
4131000000.0 0.8048 -1.255
4134000000.0 -0.4453 -1.433
4138000000.0 -1.357 -0.602
4141000000.0 -1.386 0.6327
4144000000.0 -0.4314 1.474
4147000000.0 0.8647 1.255
4150000000.0 1.514 0.1458
4153000000.0 1.108 -1.095
4156000000.0 -0.1114 -1.56
4159000000.0 -1.256 -0.8922
4162000000.0 -1.505 0.3829
4166000000.0 -0.6581 1.352
4169000000.0 0.6427 1.404
4172000000.0 1.456 0.4379
4175000000.0 1.256 -0.8527
4178000000.0 0.1918 -1.503
4181000000.0 -1.05 -1.103
4184000000.0 -1.503 0.09407
4188000000.0 -0.9245 1.217
4191000000.0 0.392 1.537
4194000000.0 1.408 0.6977
4197000000.0 1.411 -0.6803
4200000000.0 0.3934 -1.535
4203000000.0 -0.9753 -1.323
4206000000.0 -1.639 -0.09648
4209000000.0 -1.088 1.252
4212000000.0 0.3251 1.642
4216000000.0 1.497 0.7545
4219000000.0 1.564 -0.7348
4222000000.0 0.3773 -1.697
4225000000.0 -1.095 -1.349
4228000000.0 -1.713 0.1409
4231000000.0 -0.9475 1.381
4234000000.0 0.586 1.615
4238000000.0 1.589 0.5219
4241000000.0 1.377 -0.9416
4244000000.0 0.1052 -1.621
4247000000.0 -1.222 -1.035
4250000000.0 -1.561 0.3096
4253000000.0 -0.7155 1.429
4256000000.0 0.6872 1.433
4259000000.0 1.512 0.3811
4262000000.0 1.174 -0.993
4266000000.0 -0.05668 -1.526
4269000000.0 -1.216 -0.8459
4272000000.0 -1.463 0.4567
4275000000.0 -0.5395 1.399
4278000000.0 0.7546 1.314
4281000000.0 1.457 0.1888
4284000000.0 1.014 -1.005
4288000000.0 -0.1382 -1.402
4291000000.0 -1.165 -0.7682
4294000000.0 -1.32 0.4452
4297000000.0 -0.481 1.269
4300000000.0 0.6285 1.186
4303000000.0 1.303 0.269
4306000000.0 1.045 -0.8357
4309000000.0 0.005623 -1.285
4312000000.0 -0.9659 -0.8783
4316000000.0 -1.301 0.1781
4319000000.0 -0.6998 1.128
4322000000.0 0.3882 1.236
4325000000.0 1.236 0.5105
4328000000.0 1.179 -0.6451
4331000000.0 0.2923 -1.323
4334000000.0 -0.8449 -1.139
4338000000.0 -1.393 -0.03777
4341000000.0 -0.9545 1.039
4344000000.0 0.2276 1.441
4347000000.0 1.211 0.7716
4350000000.0 1.384 -0.4597
4353000000.0 0.5419 -1.36
4356000000.0 -0.7114 -1.25
4359000000.0 -1.408 -0.267
4362000000.0 -1.13 0.8932
4366000000.0 0.01138 1.452
4369000000.0 1.141 0.9338
4372000000.0 1.507 -0.2618
4375000000.0 0.7587 -1.314
4378000000.0 -0.5815 -1.394
4381000000.0 -1.463 -0.487
4384000000.0 -1.321 0.8156
4388000000.0 -0.1737 1.54
4391000000.0 1.07 1.148
4394000000.0 1.541 -0.1558
4397000000.0 0.8977 -1.338
4400000000.0 -0.5161 -1.541
4403000000.0 -1.506 -0.5746
4406000000.0 -1.394 0.817
4409000000.0 -0.2026 1.603
4412000000.0 1.113 1.169
4416000000.0 1.528 -0.1717
4419000000.0 0.8494 -1.341
4422000000.0 -0.5178 -1.441
4425000000.0 -1.436 -0.4699
4428000000.0 -1.244 0.8343
4431000000.0 -0.1136 1.477
4434000000.0 1.082 0.9841
4438000000.0 1.408 -0.2261
4441000000.0 0.6457 -1.278
4444000000.0 -0.6108 -1.293
4447000000.0 -1.357 -0.3199
4450000000.0 -1.044 0.8637
4453000000.0 0.00173 1.344
4456000000.0 1.062 0.8043
4459000000.0 1.265 -0.3156
4462000000.0 0.505 -1.169
4466000000.0 -0.641 -1.085
4469000000.0 -1.226 -0.1715
4472000000.0 -0.8912 0.8479
4475000000.0 0.146 1.228
4478000000.0 1.032 0.5944
4481000000.0 1.145 -0.427
4484000000.0 0.3556 -1.113
4488000000.0 -0.633 -0.9526
4491000000.0 -1.148 -0.09076
4494000000.0 -0.7842 0.8719
4497000000.0 0.1761 1.141
4500000000.0 0.9918 0.5716
4503000000.0 1.033 -0.3761
4506000000.0 0.3128 -1.042
4509000000.0 -0.6429 -0.9535
4512000000.0 -1.117 -0.09109
4516000000.0 -0.8111 0.7905
4519000000.0 0.1295 1.119
4522000000.0 0.9505 0.6299
4525000000.0 1.087 -0.356
4528000000.0 0.4155 -1.074
4531000000.0 -0.5538 -1.01
4534000000.0 -1.146 -0.1875
4538000000.0 -0.9106 0.7423
4541000000.0 0.05015 1.164
4544000000.0 0.9285 0.7356
4547000000.0 1.188 -0.2342
4550000000.0 0.5714 -1.065
4553000000.0 -0.4365 -1.139
4556000000.0 -1.174 -0.3925
4559000000.0 -1.052 0.6796
4562000000.0 -0.199 1.252
4566000000.0 0.8516 0.9435
4569000000.0 1.256 -0.0657
4572000000.0 0.8109 -1.041
4575000000.0 -0.2914 -1.293
4578000000.0 -1.151 -0.6235
4581000000.0 -1.248 0.5048
4584000000.0 -0.4128 1.283
4588000000.0 0.7137 1.147
4591000000.0 1.375 0.1793
4594000000.0 1.008 -0.9633
4597000000.0 -0.09015 -1.393
4600000000.0 -1.139 -0.8155
4603000000.0 -1.351 0.3656
4606000000.0 -0.5787 1.281
4609000000.0 0.6407 1.265
4612000000.0 1.378 0.3075
4616000000.0 1.113 -0.8678
4619000000.0 0.03489 -1.408
4622000000.0 -1.073 -0.9133
4625000000.0 -1.388 0.2417
4628000000.0 -0.7027 1.237
4631000000.0 0.5151 1.319
4634000000.0 1.314 0.3856
4638000000.0 1.168 -0.7856
4641000000.0 0.1135 -1.406
4644000000.0 -0.9799 -0.9485
4647000000.0 -1.346 0.178
4650000000.0 -0.6923 1.163
4653000000.0 0.4869 1.237
4656000000.0 1.249 0.3821
4659000000.0 1.098 -0.7215
4662000000.0 0.1116 -1.329
4666000000.0 -0.9175 -0.8362
4669000000.0 -1.197 0.1959
4672000000.0 -0.5735 1.065
4675000000.0 0.4366 1.101
4678000000.0 1.118 0.3442
4681000000.0 0.961 -0.6613
4684000000.0 0.06266 -1.119
4688000000.0 -0.8547 -0.7491
4691000000.0 -1.118 0.1844
4694000000.0 -0.5178 0.9792
4697000000.0 0.4666 1.018
4700000000.0 1.079 0.3054
4703000000.0 0.8775 -0.6304
4706000000.0 0.08333 -1.116
4709000000.0 -0.8215 -0.7218
4712000000.0 -1.073 0.1976
4716000000.0 -0.4683 0.9892
4719000000.0 0.4567 0.95
4722000000.0 1.021 0.3011
4725000000.0 0.8693 -0.6342
4728000000.0 0.06265 -1.062
4731000000.0 -0.8001 -0.6608
4734000000.0 -1.038 0.1972
4738000000.0 -0.5134 0.9287
4741000000.0 0.36 0.9693
4744000000.0 1.016 0.3489
4747000000.0 0.9157 -0.5515
4750000000.0 0.1753 -1.086
4753000000.0 -0.731 -0.7957
4756000000.0 -1.084 0.04912
4759000000.0 -0.6969 0.8794
4762000000.0 0.2474 1.114
4766000000.0 1.014 0.535
4769000000.0 1.066 -0.4595
4772000000.0 0.3395 -1.147
4775000000.0 -0.6368 -1.002
4778000000.0 -1.173 -0.1351
4781000000.0 -0.8855 0.8227
4784000000.0 0.04823 1.218
4788000000.0 0.9759 0.7269
4791000000.0 1.174 -0.2526
4794000000.0 0.5702 -1.1
4797000000.0 -0.469 -1.157
4800000000.0 -1.212 -0.3781
4803000000.0 -1.07 0.6327
4806000000.0 -0.1792 1.249
4809000000.0 0.8356 0.9494
4812000000.0 1.301 -0.03257
4816000000.0 0.8156 -1.044
4819000000.0 -0.2749 -1.297
4822000000.0 -1.189 -0.6582
4825000000.0 -1.285 0.5258
4828000000.0 -0.412 1.334
4831000000.0 0.7548 1.155
4834000000.0 1.409 0.1559
4838000000.0 1.024 -0.9992
4841000000.0 -0.1357 -1.404
4844000000.0 -1.163 -0.7586
4847000000.0 -1.352 0.4059
4850000000.0 -0.5506 1.295
4853000000.0 0.6759 1.21
4856000000.0 1.377 0.2752
4859000000.0 1.072 -0.889
4862000000.0 0.001669 -1.38
4866000000.0 -1.053 -0.848
4869000000.0 -1.335 0.2989
4872000000.0 -0.5831 1.203
4875000000.0 0.533 1.214
4878000000.0 1.261 0.3423
4881000000.0 1.039 -0.7561
4884000000.0 0.06096 -1.29
4888000000.0 -0.9654 -0.8702
4891000000.0 -1.23 0.2092
4894000000.0 -0.5673 1.083
4897000000.0 0.4443 1.109
4900000000.0 1.128 0.3069
4903000000.0 0.9381 -0.6482
4906000000.0 0.09639 -1.111
4909000000.0 -0.7724 -0.737
4912000000.0 -1.041 0.1544
4916000000.0 -0.5424 0.8936
4919000000.0 0.3629 0.9522
4922000000.0 0.9395 0.3591
4925000000.0 0.856 -0.4851
4928000000.0 0.1865 -0.9531
4931000000.0 -0.6487 -0.705
4934000000.0 -0.9587 0.02202
4938000000.0 -0.5906 0.7498
4941000000.0 0.2254 0.9064
4944000000.0 0.8592 0.4123
4947000000.0 0.8628 -0.3928
4950000000.0 0.2556 -0.9068
4953000000.0 -0.5922 -0.7663
4956000000.0 -0.9967 -0.06716
4959000000.0 -0.6477 0.7249
4962000000.0 0.1442 0.9815
4966000000.0 0.8602 0.4962
4969000000.0 0.9325 -0.3669
4972000000.0 0.3311 -0.9389
4975000000.0 -0.5159 -0.8641
4978000000.0 -1.009 -0.1369
4981000000.0 -0.7692 0.7097
4984000000.0 0.06964 1.052
4988000000.0 0.8753 0.6373
4991000000.0 1.044 -0.2744
4994000000.0 0.4683 -1.0
4997000000.0 -0.4343 -1.0
5000000000.0 -1.086 -0.3124
5003000000.0 -0.9478 0.6801
5006000000.0 -0.1037 1.171
5009000000.0 0.869 0.8441
5012000000.0 1.186 -0.1624
5016000000.0 0.6937 -1.048
5019000000.0 -0.3999 -1.178
5022000000.0 -1.158 -0.4777
5025000000.0 -1.122 0.6204
5028000000.0 -0.2431 1.268
5031000000.0 0.8288 1.006
5034000000.0 1.28 -0.01228
5038000000.0 0.8165 -0.9972
5041000000.0 -0.2108 -1.284
5044000000.0 -1.146 -0.6095
5047000000.0 -1.203 0.4474
5050000000.0 -0.4338 1.246
5053000000.0 0.67 1.146
5056000000.0 1.338 0.2143
5059000000.0 1.011 -0.8648
5062000000.0 0.01163 -1.334
5066000000.0 -1.028 -0.8004
5069000000.0 -1.291 0.2657
5072000000.0 -0.5744 1.17
5075000000.0 0.487 1.181
5078000000.0 1.256 0.3915
5081000000.0 1.073 -0.6939
5084000000.0 0.1312 -1.217
5088000000.0 -0.8505 -0.9084
5091000000.0 -1.225 0.08056
5094000000.0 -0.7582 0.9386
5097000000.0 0.2973 1.15
5100000000.0 1.047 0.5264
5103000000.0 1.047 -0.4708
5106000000.0 0.3074 -1.069
5109000000.0 -0.5754 -0.9377
5112000000.0 -1.105 -0.1109
5116000000.0 -0.8226 0.7301
5119000000.0 0.04927 1.061
5122000000.0 0.8601 0.6397
5125000000.0 1.051 -0.2434
5128000000.0 0.4617 -0.9394
5131000000.0 -0.3913 -0.945
5134000000.0 -1.019 -0.2522
5138000000.0 -0.856 0.5833
5141000000.0 -0.04929 1.006
5144000000.0 0.7086 0.6403
5147000000.0 0.9556 -0.1245
5150000000.0 0.5061 -0.7944
5153000000.0 -0.3264 -0.907
5156000000.0 -0.8614 -0.3328
5159000000.0 -0.8121 0.4687
5162000000.0 -0.141 0.9023
5166000000.0 0.6085 0.6745
5169000000.0 0.9167 -0.0389
5172000000.0 0.5533 -0.73
5175000000.0 -0.2216 -0.8887
5178000000.0 -0.8435 -0.3821
5181000000.0 -0.7942 0.4358
5184000000.0 -0.1841 0.9178
5188000000.0 0.6112 0.7582
5191000000.0 0.9296 -0.01653
5194000000.0 0.576 -0.7466
5197000000.0 -0.2309 -0.9228
5200000000.0 -0.8681 -0.4086
5203000000.0 -0.8409 0.418
5206000000.0 -0.212 0.947
5209000000.0 0.6249 0.773
5212000000.0 0.957 -0.01843
5216000000.0 0.6171 -0.7798
5219000000.0 -0.1963 -0.9705
5222000000.0 -0.9018 -0.468
5225000000.0 -0.9218 0.4032
5228000000.0 -0.2725 1.003
5231000000.0 0.598 0.8398
5234000000.0 1.035 0.08209
5238000000.0 0.7155 -0.7573
5241000000.0 -0.1126 -1.044
5244000000.0 -0.913 -0.5672
5247000000.0 -1.022 0.3208
5250000000.0 -0.413 0.9813
5253000000.0 0.5221 0.9601
5256000000.0 1.039 0.2098
5259000000.0 0.8828 -0.6725
5262000000.0 0.01519 -1.108
5266000000.0 -0.8205 -0.7288
5269000000.0 -1.059 0.1632
5272000000.0 -0.5758 0.9537
5275000000.0 0.3615 1.037
5278000000.0 1.027 0.442
5281000000.0 0.9879 -0.5148
5284000000.0 0.2299 -1.09
5288000000.0 -0.6866 -0.8979
5291000000.0 -1.109 -0.0419
5294000000.0 -0.7837 0.7979
5297000000.0 0.1464 1.132
5300000000.0 0.9575 0.6224
5303000000.0 1.086 -0.316
5306000000.0 0.4881 -1.033
5309000000.0 -0.4738 -1.042
5312000000.0 -1.133 -0.2953
5316000000.0 -0.9532 0.6678
5319000000.0 -0.131 1.193
5322000000.0 0.7988 0.7831
5325000000.0 1.157 -0.09623
5328000000.0 0.6899 -0.9511
5331000000.0 -0.2924 -1.133
5334000000.0 -1.05 -0.4399
5338000000.0 -1.038 0.5248
5341000000.0 -0.2771 1.116
5344000000.0 0.6758 0.9263
5347000000.0 1.145 0.01938
5350000000.0 0.7586 -0.8212
5353000000.0 -0.1382 -1.111
5356000000.0 -0.959 -0.5552
5359000000.0 -1.031 0.3634
5362000000.0 -0.3669 1.018
5366000000.0 0.569 0.9278
5369000000.0 1.045 0.1521
5372000000.0 0.778 -0.7531
5375000000.0 -0.09576 -1.057
5378000000.0 -0.8567 -0.5793
5381000000.0 -0.9943 0.3455
5384000000.0 -0.356 0.9695
5388000000.0 0.5194 0.893
5391000000.0 0.9911 0.1079
5394000000.0 0.6797 -0.6908
5397000000.0 -0.09563 -0.9898
5400000000.0 -0.7989 -0.4978
5403000000.0 -0.8801 0.2963
5406000000.0 -0.2669 0.8361
5409000000.0 0.4544 0.7412
5412000000.0 0.8951 0.1351
5416000000.0 0.604 -0.6282
5419000000.0 -0.1142 -0.8672
5422000000.0 -0.7847 -0.4584
5425000000.0 -0.8313 0.3007
5428000000.0 -0.2967 0.8518
5431000000.0 0.4711 0.7041
5434000000.0 0.8747 0.09676
5438000000.0 0.642 -0.6523
5441000000.0 -0.1289 -0.9069
5444000000.0 -0.7323 -0.4782
5447000000.0 -0.8692 0.3267
5450000000.0 -0.2834 0.8712
5453000000.0 0.4847 0.7518
5456000000.0 0.9024 0.1078
5459000000.0 0.6658 -0.594
5462000000.0 -0.05411 -0.8994
5466000000.0 -0.7443 -0.5201
5469000000.0 -0.8856 0.234
5472000000.0 -0.4059 0.865
5475000000.0 0.3968 0.8273
5478000000.0 0.9211 0.2274
5481000000.0 0.7819 -0.5556
5484000000.0 0.08076 -0.9465
5488000000.0 -0.6989 -0.6827
5491000000.0 -0.9662 0.1161
5494000000.0 -0.5629 0.8434
5497000000.0 0.2742 0.9623
5500000000.0 0.9446 0.4075
5503000000.0 0.9045 -0.4352
5506000000.0 0.2445 -0.9913
5509000000.0 -0.5894 -0.8399
5512000000.0 -1.015 -0.1227
5516000000.0 -0.7305 0.7737
5519000000.0 0.1313 1.01
5522000000.0 0.8912 0.5997
5525000000.0 1.025 -0.2775
5528000000.0 0.456 -0.9462
5531000000.0 -0.4424 -0.9826
5534000000.0 -1.039 -0.262
5538000000.0 -0.9024 0.6228
5541000000.0 -0.0978 1.084
5544000000.0 0.7438 0.7946
5547000000.0 1.075 -0.1017
5550000000.0 0.6191 -0.8675
5553000000.0 -0.2767 -1.025
5556000000.0 -0.9881 -0.4435
5559000000.0 -0.9824 0.4646
5562000000.0 -0.2414 1.062
5566000000.0 0.6226 0.8702
5569000000.0 1.037 0.05067
5572000000.0 0.7161 -0.77
5575000000.0 -0.1445 -1.025
5578000000.0 -0.8838 -0.5419
5581000000.0 -0.9479 0.3194
5584000000.0 -0.3781 0.9215
5588000000.0 0.4794 0.8552
5591000000.0 0.9415 0.173
5594000000.0 0.735 -0.5879
5597000000.0 -0.04214 -0.9686
5600000000.0 -0.7533 -0.6208
5603000000.0 -0.9156 0.2048
5606000000.0 -0.4161 0.8012
5609000000.0 0.3504 0.8903
5612000000.0 0.8841 0.2504
5616000000.0 0.7369 -0.5091
5619000000.0 0.0567 -0.8967
5622000000.0 -0.6349 -0.5886
5625000000.0 -0.8794 0.1401
5628000000.0 -0.4416 0.7586
5631000000.0 0.2948 0.8029
5634000000.0 0.8086 0.2684
5638000000.0 0.7147 -0.465
5641000000.0 0.08285 -0.8715
5644000000.0 -0.6336 -0.5895
5647000000.0 -0.8516 0.1007
5650000000.0 -0.4172 0.7285
5653000000.0 0.2786 0.7865
5656000000.0 0.8058 0.2863
5659000000.0 0.7265 -0.4829
5662000000.0 0.1067 -0.8912
5666000000.0 -0.6277 -0.6135
5669000000.0 -0.8768 0.09324
5672000000.0 -0.4766 0.7647
5675000000.0 0.296 0.8418
5678000000.0 0.8804 0.295
5681000000.0 0.7738 -0.52
5684000000.0 0.1241 -0.9395
5688000000.0 -0.6539 -0.6602
5691000000.0 -0.9422 0.08516
5694000000.0 -0.5438 0.8109
5697000000.0 0.2706 0.9455
5700000000.0 0.8813 0.3826
5703000000.0 0.8959 -0.5072
5706000000.0 0.1568 -0.9779
5709000000.0 -0.6607 -0.8042
5712000000.0 -1.039 0.02997
5716000000.0 -0.6428 0.8235
5719000000.0 0.2372 1.038
5722000000.0 0.9369 0.4761
5725000000.0 0.9859 -0.4254
5728000000.0 0.3077 -1.03
5731000000.0 -0.612 -0.9007
5734000000.0 -1.071 -0.08837
5738000000.0 -0.7494 0.7961
5741000000.0 0.09462 1.09
5744000000.0 0.932 0.6331
5747000000.0 1.086 -0.2793
5750000000.0 0.4657 -1.05
5753000000.0 -0.4458 -1.015
5756000000.0 -1.082 -0.2621
5759000000.0 -0.8951 0.6647
5762000000.0 -0.08172 1.099
5766000000.0 0.7948 0.8028
5769000000.0 1.092 -0.1492
5772000000.0 0.6296 -0.9303
5775000000.0 -0.3222 -1.066
5778000000.0 -1.001 -0.4455
5781000000.0 -1.007 0.4684
5784000000.0 -0.2841 1.094
5788000000.0 0.6468 0.8651
5791000000.0 1.09 0.04262
5794000000.0 0.731 -0.7891
5797000000.0 -0.1153 -1.081
5800000000.0 -0.9296 -0.5995
5803000000.0 -1.007 0.3597
5806000000.0 -0.4077 1.021
5809000000.0 0.5393 0.9244
5812000000.0 1.053 0.1751
5816000000.0 0.8463 -0.6876
5819000000.0 -0.04725 -1.046
5822000000.0 -0.7942 -0.6348
5825000000.0 -0.9729 0.2289
5828000000.0 -0.4731 0.8663
5831000000.0 0.3848 0.9114
5834000000.0 0.9843 0.2617
5838000000.0 0.8248 -0.6041
5841000000.0 0.08621 -0.9796
5844000000.0 -0.712 -0.6646
5847000000.0 -0.9759 0.1317
5850000000.0 -0.4764 0.8233
5853000000.0 0.3225 0.8873
5856000000.0 0.9044 0.3051
5859000000.0 0.8166 -0.4725
5862000000.0 0.1191 -0.8925
5866000000.0 -0.6464 -0.6476
5869000000.0 -0.941 0.09614
5872000000.0 -0.4979 0.7533
5875000000.0 0.2742 0.8697
5878000000.0 0.8693 0.3416
5881000000.0 0.7592 -0.4364
5884000000.0 0.1367 -0.8823
5888000000.0 -0.5774 -0.6365
5891000000.0 -0.8887 0.08113
5894000000.0 -0.5119 0.7121
5897000000.0 0.2177 0.8466
5900000000.0 0.792 0.329
5903000000.0 0.7709 -0.4273
5906000000.0 0.1896 -0.8773
5909000000.0 -0.549 -0.6384
5912000000.0 -0.8936 0.02071
5916000000.0 -0.5716 0.6946
5919000000.0 0.1722 0.8382
5922000000.0 0.7848 0.361
5925000000.0 0.8319 -0.3431
5928000000.0 0.2622 -0.8416
5931000000.0 -0.4892 -0.7552
5934000000.0 -0.8687 -0.1031
5938000000.0 -0.6378 0.6179
5941000000.0 0.05085 0.9063
5944000000.0 0.7591 0.5292
5947000000.0 0.8642 -0.2269
5950000000.0 0.3757 -0.8502
5953000000.0 -0.3917 -0.8384
5956000000.0 -0.9144 -0.2395
5959000000.0 -0.7991 0.5366
5962000000.0 -0.07251 0.952
5966000000.0 0.6722 0.671
5969000000.0 0.9742 -0.0966
5972000000.0 0.5361 -0.8032
5975000000.0 -0.271 -0.9129
5978000000.0 -0.88 -0.4004
5981000000.0 -0.8828 0.4275
5984000000.0 -0.2233 0.9551
5988000000.0 0.5919 0.8165
5991000000.0 1.002 0.03828
5994000000.0 0.6639 -0.7533
5997000000.0 -0.1334 -0.9836
6000000000.0 -0.8679 -0.5424
6003000000.0 -0.9473 0.3345
6006000000.0 -0.3553 0.9194
6009000000.0 0.496 0.8812
6012000000.0 1.01 0.1896
6016000000.0 0.7741 -0.6415
6019000000.0 -0.01308 -1.001
6022000000.0 -0.815 -0.6555
6025000000.0 -0.9677 0.1957
6028000000.0 -0.4753 0.9269
6031000000.0 0.3732 0.9192
6034000000.0 0.9654 0.2748
6038000000.0 0.8181 -0.5653
6041000000.0 0.06419 -0.9814
6044000000.0 -0.7125 -0.6858
6047000000.0 -0.9832 0.116
6050000000.0 -0.5011 0.8165
6053000000.0 0.3055 0.9208
6056000000.0 0.9088 0.3418
6059000000.0 0.8292 -0.481
6062000000.0 0.1219 -0.9474
6066000000.0 -0.6223 -0.6646
6069000000.0 -0.9251 0.0715
6072000000.0 -0.5101 0.7392
6075000000.0 0.258 0.8794
6078000000.0 0.8242 0.336
6081000000.0 0.7899 -0.4154
6084000000.0 0.1864 -0.8689
6088000000.0 -0.5573 -0.6637
6091000000.0 -0.8572 0.0387
6094000000.0 -0.5305 0.6894
6097000000.0 0.189 0.8177
6100000000.0 0.7832 0.3735
6103000000.0 0.7906 -0.3815
6106000000.0 0.1911 -0.8465
6109000000.0 -0.5335 -0.6714
6112000000.0 -0.878 -0.02402
6116000000.0 -0.5623 0.6802
6119000000.0 0.1831 0.8325
6122000000.0 0.7652 0.4239
6125000000.0 0.8203 -0.347
6128000000.0 0.2267 -0.8538
6131000000.0 -0.499 -0.7211
6134000000.0 -0.895 -0.05565
6138000000.0 -0.6117 0.648
6141000000.0 0.1283 0.8679
6144000000.0 0.7723 0.4553
6147000000.0 0.8402 -0.2891
6150000000.0 0.298 -0.8364
6153000000.0 -0.4478 -0.7833
6156000000.0 -0.9065 -0.1285
6159000000.0 -0.6883 0.6007
6162000000.0 0.0535 0.9279
6166000000.0 0.7409 0.5328
6169000000.0 0.8951 -0.2576
6172000000.0 0.3789 -0.8381
6175000000.0 -0.4005 -0.8192
6178000000.0 -0.9062 -0.1968
6181000000.0 -0.7864 0.5861
6184000000.0 -0.01711 0.9424
6188000000.0 0.691 0.6314
6191000000.0 0.9309 -0.1345
6194000000.0 0.4713 -0.8192
6197000000.0 -0.3538 -0.8966
6200000000.0 -0.8942 -0.3186
6203000000.0 -0.8111 0.5212
6206000000.0 -0.1133 0.9394
6209000000.0 0.6446 0.6739
6212000000.0 0.9787 -0.05282
6216000000.0 0.5754 -0.7515
6219000000.0 -0.219 -0.9
6222000000.0 -0.805 -0.3858
6225000000.0 -0.8108 0.3817
6228000000.0 -0.1736 0.8755
6231000000.0 0.5243 0.7329
6234000000.0 0.8896 0.05362
6238000000.0 0.6151 -0.667
6241000000.0 -0.08801 -0.8578
6244000000.0 -0.7245 -0.4744
6247000000.0 -0.8275 0.2481
6250000000.0 -0.3468 0.7685
6253000000.0 0.3861 0.7499
6256000000.0 0.8426 0.1816
6259000000.0 0.6599 -0.5001
6262000000.0 0.04304 -0.853
6266000000.0 -0.5865 -0.5567
6269000000.0 -0.826 0.09863
