! Created with skrf 1.8.0 (http://scikit-rf.org).
# Hz S RI R 50.0 
!freq ReS11 ImS11
4000000000.0 -0.1583 -1.5
4003000000.0 -1.286 -0.839
4006000000.0 -1.376 0.473
4009000000.0 -0.5147 1.464
4012000000.0 0.7694 1.318
4016000000.0 1.499 0.173
4019000000.0 1.122 -1.072
4022000000.0 -0.1127 -1.553
4025000000.0 -1.266 -0.9237
4028000000.0 -1.502 0.4828
4031000000.0 -0.6274 1.508
4034000000.0 0.8131 1.391
4038000000.0 1.62 0.2612
4041000000.0 1.172 -1.076
4044000000.0 -0.09193 -1.64
4047000000.0 -1.333 -0.9303
4050000000.0 -1.565 0.4627
4053000000.0 -0.6557 1.507
4056000000.0 0.7534 1.427
4059000000.0 1.591 0.3138
4062000000.0 1.282 -1.025
4066000000.0 0.04738 -1.611
4069000000.0 -1.216 -1.054
4072000000.0 -1.571 0.307
4075000000.0 -0.8439 1.393
4078000000.0 0.5954 1.53
4081000000.0 1.551 0.5631
4084000000.0 1.404 -0.8972
4088000000.0 0.2431 -1.629
4091000000.0 -1.121 -1.223
4094000000.0 -1.642 0.1181
4097000000.0 -1.044 1.336
4100000000.0 0.3936 1.588
4103000000.0 1.408 0.7273
4106000000.0 1.472 -0.6316
4109000000.0 0.4127 -1.485
4112000000.0 -0.8494 -1.283
4116000000.0 -1.508 -0.204
4119000000.0 -1.119 1.001
4122000000.0 0.06054 1.51
4125000000.0 1.147 0.9131
4128000000.0 1.473 -0.2295
4131000000.0 0.8004 -1.246
4134000000.0 -0.4144 -1.422
4138000000.0 -1.394 -0.6123
4141000000.0 -1.338 0.6431
4144000000.0 -0.404 1.451
4147000000.0 0.8805 1.233
4150000000.0 1.512 0.1424
4153000000.0 1.066 -1.075
4156000000.0 -0.1019 -1.501
4159000000.0 -1.214 -0.8574
4162000000.0 -1.435 0.3697
4166000000.0 -0.6482 1.354
4169000000.0 0.619 1.364
4172000000.0 1.448 0.3877
4175000000.0 1.254 -0.8577
4178000000.0 0.1418 -1.484
4181000000.0 -1.064 -1.094
4184000000.0 -1.516 0.1056
4188000000.0 -0.9011 1.238
4191000000.0 0.396 1.494
4194000000.0 1.417 0.6613
4197000000.0 1.398 -0.7068
4200000000.0 0.3639 -1.533
4203000000.0 -0.9698 -1.272
4206000000.0 -1.609 -0.07935
4209000000.0 -1.073 1.268
4212000000.0 0.3282 1.622
4216000000.0 1.49 0.734
4219000000.0 1.48 -0.7664
4222000000.0 0.3022 -1.687
4225000000.0 -1.128 -1.202
4228000000.0 -1.671 0.1437
4231000000.0 -0.9472 1.4
4234000000.0 0.5548 1.555
4238000000.0 1.599 0.4988
4241000000.0 1.311 -0.9184
4244000000.0 0.124 -1.577
4247000000.0 -1.231 -1.023
4250000000.0 -1.529 0.311
4253000000.0 -0.6922 1.398
4256000000.0 0.6954 1.37
4259000000.0 1.494 0.2804
4262000000.0 1.103 -1.017
4266000000.0 -0.08875 -1.519
4269000000.0 -1.248 -0.8342
4272000000.0 -1.432 0.4408
4275000000.0 -0.5069 1.355
4278000000.0 0.7873 1.241
4281000000.0 1.405 0.1522
4284000000.0 1.017 -1.01
4288000000.0 -0.1553 -1.411
4291000000.0 -1.134 -0.7341
4294000000.0 -1.288 0.4184
4297000000.0 -0.4734 1.255
4300000000.0 0.6279 1.162
4303000000.0 1.277 0.2237
4306000000.0 0.9976 -0.7916
4309000000.0 0.01763 -1.269
4312000000.0 -0.9574 -0.8393
4316000000.0 -1.277 0.1887
4319000000.0 -0.6828 1.075
4322000000.0 0.4227 1.236
4325000000.0 1.24 0.4937
4328000000.0 1.186 -0.6604
4331000000.0 0.2661 -1.307
4334000000.0 -0.8836 -1.091
4338000000.0 -1.353 -0.0316
4341000000.0 -0.9527 1.039
4344000000.0 0.2299 1.377
4347000000.0 1.23 0.7377
4350000000.0 1.343 -0.5162
4353000000.0 0.4967 -1.381
4356000000.0 -0.7335 -1.223
4359000000.0 -1.427 -0.2199
4362000000.0 -1.075 0.9465
4366000000.0 0.03634 1.415
4369000000.0 1.164 0.9167
4372000000.0 1.433 -0.2977
4375000000.0 0.713 -1.319
4378000000.0 -0.5648 -1.413
4381000000.0 -1.423 -0.4667
4384000000.0 -1.249 0.8378
4388000000.0 -0.1748 1.535
4391000000.0 1.098 1.092
4394000000.0 1.569 -0.1606
4397000000.0 0.8599 -1.32
4400000000.0 -0.5256 -1.525
4403000000.0 -1.48 -0.5076
4406000000.0 -1.333 0.8283
4409000000.0 -0.1491 1.583
4412000000.0 1.102 1.083
4416000000.0 1.573 -0.2318
4419000000.0 0.7775 -1.363
4422000000.0 -0.5776 -1.418
4425000000.0 -1.421 -0.4203
4428000000.0 -1.251 0.8538
4431000000.0 -0.08717 1.459
4434000000.0 1.069 0.9588
4438000000.0 1.384 -0.24
4441000000.0 0.6165 -1.231
4444000000.0 -0.5779 -1.245
4447000000.0 -1.345 -0.2803
4450000000.0 -1.029 0.8603
4453000000.0 0.05658 1.315
4456000000.0 1.055 0.7641
4459000000.0 1.255 -0.3646
4462000000.0 0.4539 -1.172
4466000000.0 -0.6637 -1.056
4469000000.0 -1.246 -0.1474
4472000000.0 -0.8513 0.8481
4475000000.0 0.1363 1.16
4478000000.0 1.013 0.6047
4481000000.0 1.082 -0.4592
4484000000.0 0.317 -1.133
4488000000.0 -0.6705 -0.9384
4491000000.0 -1.119 -0.0666
4494000000.0 -0.7863 0.8423
4497000000.0 0.1624 1.114
4500000000.0 0.9717 0.5611
4503000000.0 1.003 -0.3631
4506000000.0 0.2995 -1.03
4509000000.0 -0.6183 -0.9087
4512000000.0 -1.135 -0.09053
4516000000.0 -0.7843 0.8156
4519000000.0 0.1403 1.097
4522000000.0 0.9623 0.6059
4525000000.0 1.082 -0.3855
4528000000.0 0.4009 -1.084
4531000000.0 -0.5857 -1.005
4534000000.0 -1.171 -0.1998
4538000000.0 -0.857 0.7977
4541000000.0 0.02194 1.162
4544000000.0 0.9253 0.7172
4547000000.0 1.194 -0.2694
4550000000.0 0.5425 -1.063
4553000000.0 -0.4336 -1.108
4556000000.0 -1.172 -0.3356
4559000000.0 -1.057 0.6553
4562000000.0 -0.1528 1.242
4566000000.0 0.8436 0.9356
4569000000.0 1.243 -0.05868
4572000000.0 0.7769 -1.029
4575000000.0 -0.297 -1.258
4578000000.0 -1.182 -0.6043
4581000000.0 -1.249 0.4827
4584000000.0 -0.373 1.281
4588000000.0 0.7394 1.11
4591000000.0 1.375 0.147
4594000000.0 0.9817 -0.9707
4597000000.0 -0.1189 -1.359
4600000000.0 -1.145 -0.7794
4603000000.0 -1.325 0.3848
4606000000.0 -0.5651 1.257
4609000000.0 0.6187 1.247
4612000000.0 1.381 0.2781
4616000000.0 1.064 -0.883
4619000000.0 0.03083 -1.4
4622000000.0 -1.046 -0.8788
4625000000.0 -1.374 0.2658
4628000000.0 -0.631 1.191
4631000000.0 0.5497 1.275
4634000000.0 1.303 0.387
4638000000.0 1.116 -0.8076
4641000000.0 0.07952 -1.355
4644000000.0 -0.9901 -0.9128
4647000000.0 -1.329 0.2003
4650000000.0 -0.6405 1.162
4653000000.0 0.5022 1.218
4656000000.0 1.283 0.3676
4659000000.0 1.045 -0.7576
4662000000.0 0.06308 -1.25
4666000000.0 -0.9177 -0.8169
4669000000.0 -1.234 0.2083
4672000000.0 -0.5702 1.049
4675000000.0 0.4753 1.081
4678000000.0 1.113 0.3253
4681000000.0 0.9294 -0.6906
4684000000.0 0.02579 -1.122
4688000000.0 -0.8566 -0.7439
4691000000.0 -1.107 0.214
4694000000.0 -0.5174 0.9725
4697000000.0 0.4556 1.018
4700000000.0 1.07 0.2828
4703000000.0 0.8658 -0.6513
4706000000.0 0.04449 -1.103
4709000000.0 -0.8142 -0.6896
4712000000.0 -1.075 0.2421
4716000000.0 -0.4838 0.974
4719000000.0 0.4857 0.9665
4722000000.0 1.038 0.224
4725000000.0 0.8206 -0.6467
4728000000.0 0.02131 -1.035
4731000000.0 -0.7867 -0.6768
4734000000.0 -1.056 0.1829
4738000000.0 -0.5225 0.8713
4741000000.0 0.3896 0.9467
4744000000.0 0.9629 0.3497
4747000000.0 0.8826 -0.5836
4750000000.0 0.1558 -1.048
4753000000.0 -0.7513 -0.78
4756000000.0 -1.097 0.04433
4759000000.0 -0.6537 0.87
4762000000.0 0.2475 1.099
4766000000.0 1.012 0.4942
4769000000.0 1.049 -0.4664
4772000000.0 0.3101 -1.096
4775000000.0 -0.6583 -0.9813
4778000000.0 -1.163 -0.1409
4781000000.0 -0.8593 0.7981
4784000000.0 0.09279 1.18
4788000000.0 0.9724 0.7034
4791000000.0 1.207 -0.272
4794000000.0 0.5876 -1.092
4797000000.0 -0.4706 -1.144
4800000000.0 -1.169 -0.4091
4803000000.0 -1.057 0.6716
4806000000.0 -0.1466 1.231
4809000000.0 0.8611 0.9388
4812000000.0 1.278 -0.04575
4816000000.0 0.8082 -1.044
4819000000.0 -0.2818 -1.275
4822000000.0 -1.201 -0.6082
4825000000.0 -1.242 0.5232
4828000000.0 -0.381 1.312
4831000000.0 0.7861 1.146
4834000000.0 1.414 0.134
4838000000.0 0.9527 -0.9919
4841000000.0 -0.1409 -1.4
4844000000.0 -1.164 -0.767
4847000000.0 -1.308 0.4346
4850000000.0 -0.5014 1.288
4853000000.0 0.6715 1.203
4856000000.0 1.337 0.2535
4859000000.0 1.02 -0.8859
4862000000.0 -0.05339 -1.359
4866000000.0 -1.081 -0.8043
4869000000.0 -1.296 0.3094
4872000000.0 -0.6015 1.183
4875000000.0 0.5502 1.174
4878000000.0 1.272 0.2913
4881000000.0 1.046 -0.7724
4884000000.0 0.01851 -1.238
4888000000.0 -0.9457 -0.8042
4891000000.0 -1.189 0.2239
4894000000.0 -0.5518 1.056
4897000000.0 0.4651 1.06
4900000000.0 1.112 0.2925
4903000000.0 0.8961 -0.6443
4906000000.0 0.0545 -1.083
4909000000.0 -0.7939 -0.7419
4912000000.0 -1.049 0.1342
4916000000.0 -0.5334 0.8903
4919000000.0 0.3187 0.9435
4922000000.0 0.953 0.3278
4925000000.0 0.8324 -0.5269
4928000000.0 0.1599 -0.9504
4931000000.0 -0.6484 -0.7067
4934000000.0 -0.93 0.04951
4938000000.0 -0.5541 0.7838
4941000000.0 0.2248 0.9139
4944000000.0 0.8385 0.4199
4947000000.0 0.8716 -0.4111
4950000000.0 0.2203 -0.9339
4953000000.0 -0.5411 -0.7619
4956000000.0 -0.9725 -0.02619
4959000000.0 -0.6371 0.761
4962000000.0 0.1757 0.9457
4966000000.0 0.8473 0.4944
4969000000.0 0.9215 -0.3537
4972000000.0 0.2761 -0.9526
4975000000.0 -0.546 -0.8423
4978000000.0 -1.012 -0.115
4981000000.0 -0.7399 0.7129
4984000000.0 0.08505 1.027
4988000000.0 0.8479 0.6145
4991000000.0 1.04 -0.2677
4994000000.0 0.4821 -0.9807
4997000000.0 -0.4856 -1.026
5000000000.0 -1.099 -0.2694
5003000000.0 -0.9387 0.6577
5006000000.0 -0.07846 1.17
5009000000.0 0.8594 0.8223
5012000000.0 1.183 -0.1718
5016000000.0 0.638 -1.032
5019000000.0 -0.3746 -1.185
5022000000.0 -1.19 -0.4482
5025000000.0 -1.102 0.6331
5028000000.0 -0.2144 1.231
5031000000.0 0.8431 0.979
5034000000.0 1.257 -0.02915
5038000000.0 0.7774 -1.014
5041000000.0 -0.2231 -1.293
5044000000.0 -1.14 -0.6061
5047000000.0 -1.184 0.4528
5050000000.0 -0.3839 1.233
5053000000.0 0.662 1.096
5056000000.0 1.266 0.1883
5059000000.0 0.9983 -0.867
5062000000.0 -0.04059 -1.324
5066000000.0 -1.051 -0.793
5069000000.0 -1.241 0.2644
5072000000.0 -0.606 1.133
5075000000.0 0.5016 1.191
5078000000.0 1.236 0.3303
5081000000.0 1.024 -0.741
5084000000.0 0.1436 -1.241
5088000000.0 -0.8525 -0.8704
5091000000.0 -1.195 0.1134
5094000000.0 -0.6897 0.9875
5097000000.0 0.2876 1.19
5100000000.0 1.056 0.5293
5103000000.0 1.047 -0.4694
5106000000.0 0.3026 -1.046
5109000000.0 -0.6073 -0.9053
5112000000.0 -1.092 -0.1037
5116000000.0 -0.7613 0.7493
5119000000.0 0.07441 1.057
5122000000.0 0.8671 0.5968
5125000000.0 0.9904 -0.2544
5128000000.0 0.4513 -0.9157
5131000000.0 -0.4365 -0.9119
5134000000.0 -0.9711 -0.2606
5138000000.0 -0.8134 0.6058
5141000000.0 -0.06182 0.9808
5144000000.0 0.7105 0.6417
5147000000.0 0.9411 -0.1596
5150000000.0 0.4773 -0.7988
5153000000.0 -0.3324 -0.8925
5156000000.0 -0.8762 -0.329
5159000000.0 -0.7901 0.4493
5162000000.0 -0.1362 0.8772
5166000000.0 0.6357 0.6614
5169000000.0 0.8896 -0.08119
5172000000.0 0.5139 -0.7255
5175000000.0 -0.2465 -0.8801
5178000000.0 -0.8408 -0.3765
5181000000.0 -0.7908 0.4358
5184000000.0 -0.1787 0.8946
5188000000.0 0.5917 0.7
5191000000.0 0.9023 -0.03123
5194000000.0 0.5647 -0.7689
5197000000.0 -0.2275 -0.9013
5200000000.0 -0.8473 -0.3703
5203000000.0 -0.8854 0.4289
5206000000.0 -0.1832 0.9621
5209000000.0 0.6384 0.7465
5212000000.0 0.9636 -0.02466
5216000000.0 0.5948 -0.7549
5219000000.0 -0.1904 -0.9686
5222000000.0 -0.8843 -0.4246
5225000000.0 -0.9035 0.3861
5228000000.0 -0.2391 0.9867
5231000000.0 0.5898 0.8196
5234000000.0 1.02 0.07186
5238000000.0 0.7118 -0.7841
5241000000.0 -0.1366 -1.027
5244000000.0 -0.878 -0.5457
5247000000.0 -1.004 0.3509
5250000000.0 -0.3783 0.9924
5253000000.0 0.5481 0.936
5256000000.0 1.076 0.1997
5259000000.0 0.835 -0.7011
5262000000.0 0.01446 -1.09
5266000000.0 -0.8453 -0.7034
5269000000.0 -1.077 0.1889
5272000000.0 -0.5596 0.9236
5275000000.0 0.3833 1.029
5278000000.0 1.015 0.3996
5281000000.0 0.964 -0.5365
5284000000.0 0.2447 -1.086
5288000000.0 -0.6587 -0.8886
5291000000.0 -1.115 -0.05511
5294000000.0 -0.732 0.7899
5297000000.0 0.1661 1.107
5300000000.0 0.9549 0.6263
5303000000.0 1.09 -0.3458
5306000000.0 0.4411 -1.023
5309000000.0 -0.4911 -1.001
5312000000.0 -1.098 -0.308
5316000000.0 -0.9277 0.6854
5319000000.0 -0.09428 1.16
5322000000.0 0.8196 0.7857
5325000000.0 1.163 -0.1776
5328000000.0 0.634 -0.9708
5331000000.0 -0.3383 -1.087
5334000000.0 -1.062 -0.4509
5338000000.0 -1.035 0.4912
5341000000.0 -0.2404 1.105
5344000000.0 0.6843 0.8873
5347000000.0 1.114 0.003036
5350000000.0 0.7464 -0.8357
5353000000.0 -0.1521 -1.077
5356000000.0 -0.9403 -0.5379
5359000000.0 -1.037 0.3904
5362000000.0 -0.3389 1.039
5366000000.0 0.6012 0.9254
5369000000.0 1.076 0.1089
5372000000.0 0.7503 -0.7396
5375000000.0 -0.119 -1.017
5378000000.0 -0.8798 -0.5183
5381000000.0 -0.9252 0.3494
5384000000.0 -0.3041 0.9608
5388000000.0 0.5493 0.8379
5391000000.0 0.9735 0.07643
5394000000.0 0.6591 -0.7132
5397000000.0 -0.1214 -0.9541
5400000000.0 -0.7687 -0.4675
5403000000.0 -0.8326 0.3355
5406000000.0 -0.26 0.8577
5409000000.0 0.5115 0.7442
5412000000.0 0.881 0.07073
5416000000.0 0.575 -0.6315
5419000000.0 -0.1286 -0.8674
5422000000.0 -0.7639 -0.4132
5425000000.0 -0.8002 0.3479
5428000000.0 -0.264 0.8404
5431000000.0 0.4816 0.7245
5434000000.0 0.8746 0.05975
5438000000.0 0.6143 -0.643
5441000000.0 -0.1535 -0.8733
5444000000.0 -0.7642 -0.4325
5447000000.0 -0.8243 0.3299
5450000000.0 -0.2655 0.8423
5453000000.0 0.5135 0.7572
5456000000.0 0.9035 0.1002
5459000000.0 0.6004 -0.6483
5462000000.0 -0.1043 -0.9215
5466000000.0 -0.7339 -0.5243
5469000000.0 -0.8921 0.2621
5472000000.0 -0.372 0.7999
5475000000.0 0.4234 0.848
5478000000.0 0.9088 0.2449
5481000000.0 0.775 -0.5663
5484000000.0 0.05563 -0.9757
5488000000.0 -0.6938 -0.6778
5491000000.0 -0.9842 0.08075
5494000000.0 -0.5443 0.8342
5497000000.0 0.319 0.9834
5500000000.0 0.9477 0.3973
5503000000.0 0.9164 -0.462
5506000000.0 0.2037 -0.9883
5509000000.0 -0.6275 -0.8028
5512000000.0 -0.9941 -0.07939
5516000000.0 -0.6836 0.7259
5519000000.0 0.1416 1.019
5522000000.0 0.8896 0.5596
5525000000.0 1.009 -0.3109
5528000000.0 0.4255 -0.9507
5531000000.0 -0.4898 -0.931
5534000000.0 -1.047 -0.2644
5538000000.0 -0.8723 0.6447
5541000000.0 -0.08358 1.033
5544000000.0 0.76 0.72
5547000000.0 1.029 -0.09006
5550000000.0 0.6004 -0.8944
5553000000.0 -0.313 -1.036
5556000000.0 -1.005 -0.4089
5559000000.0 -0.9412 0.4778
5562000000.0 -0.2253 1.024
5566000000.0 0.6493 0.8073
5569000000.0 1.035 0.0205
5572000000.0 0.6871 -0.7852
5575000000.0 -0.1664 -0.9992
5578000000.0 -0.8714 -0.5271
5581000000.0 -0.9276 0.3492
5584000000.0 -0.3226 0.9116
5588000000.0 0.5368 0.8275
5591000000.0 0.9497 0.1309
5594000000.0 0.7193 -0.6197
5597000000.0 -0.03958 -0.9421
5600000000.0 -0.7335 -0.5668
5603000000.0 -0.8992 0.2235
5606000000.0 -0.3766 0.8175
5609000000.0 0.3859 0.8
5612000000.0 0.8237 0.1925
5616000000.0 0.6946 -0.5573
5619000000.0 0.01346 -0.8488
5622000000.0 -0.6544 -0.5515
5625000000.0 -0.8194 0.1662
5628000000.0 -0.4222 0.7462
5631000000.0 0.3242 0.7721
5634000000.0 0.7913 0.2177
5638000000.0 0.6898 -0.469
5641000000.0 0.06681 -0.8128
5644000000.0 -0.6266 -0.5881
5647000000.0 -0.8605 0.138
5650000000.0 -0.4218 0.7277
5653000000.0 0.2999 0.7931
5656000000.0 0.7995 0.2653
5659000000.0 0.7178 -0.4868
5662000000.0 0.05634 -0.8773
5666000000.0 -0.6366 -0.5803
5669000000.0 -0.8919 0.1052
5672000000.0 -0.4484 0.7827
5675000000.0 0.3197 0.8383
5678000000.0 0.8591 0.2847
5681000000.0 0.7694 -0.5141
5684000000.0 0.07483 -0.9089
5688000000.0 -0.6802 -0.644
5691000000.0 -0.9523 0.08987
5694000000.0 -0.5197 0.8227
5697000000.0 0.292 0.9051
5700000000.0 0.9079 0.3057
5703000000.0 0.8717 -0.5096
5706000000.0 0.1469 -1.005
5709000000.0 -0.6682 -0.7797
5712000000.0 -1.039 0.04069
5716000000.0 -0.6394 0.8578
5719000000.0 0.2694 0.9893
5722000000.0 0.9282 0.4386
5725000000.0 0.9613 -0.4559
5728000000.0 0.296 -1.039
5731000000.0 -0.6314 -0.8396
5734000000.0 -1.059 -0.08206
5738000000.0 -0.7724 0.7937
5741000000.0 0.1047 1.05
5744000000.0 0.9211 0.6107
5747000000.0 1.043 -0.3188
5750000000.0 0.4309 -1.006
5753000000.0 -0.4623 -0.9941
5756000000.0 -1.075 -0.2723
5759000000.0 -0.8817 0.6866
5762000000.0 -0.07447 1.102
5766000000.0 0.8347 0.7428
5769000000.0 1.111 -0.1187
5772000000.0 0.5861 -0.927
5775000000.0 -0.355 -1.038
5778000000.0 -1.022 -0.4159
5781000000.0 -0.982 0.5366
5784000000.0 -0.2027 1.063
5788000000.0 0.6565 0.8464
5791000000.0 1.096 0.02455
5794000000.0 0.7231 -0.8249
5797000000.0 -0.1893 -1.075
5800000000.0 -0.9383 -0.5022
5803000000.0 -0.9908 0.329
5806000000.0 -0.3563 0.9877
5809000000.0 0.5336 0.897
5812000000.0 1.045 0.1418
5816000000.0 0.7829 -0.7208
5819000000.0 -0.04122 -1.048
5822000000.0 -0.8102 -0.6192
5825000000.0 -0.9991 0.2264
5828000000.0 -0.4321 0.8948
5831000000.0 0.4068 0.855
5834000000.0 0.9578 0.2174
5838000000.0 0.8171 -0.6193
5841000000.0 0.02015 -0.9843
5844000000.0 -0.7314 -0.6304
5847000000.0 -0.9281 0.1444
5850000000.0 -0.4873 0.8091
5853000000.0 0.3321 0.8585
5856000000.0 0.9063 0.2681
5859000000.0 0.7333 -0.4821
5862000000.0 0.0602 -0.9073
5866000000.0 -0.6433 -0.6455
5869000000.0 -0.8711 0.098
5872000000.0 -0.4444 0.7608
5875000000.0 0.3169 0.8297
5878000000.0 0.8629 0.2567
5881000000.0 0.754 -0.4938
5884000000.0 0.08461 -0.8905
5888000000.0 -0.6042 -0.5904
5891000000.0 -0.8511 0.08572
5894000000.0 -0.4649 0.7064
5897000000.0 0.266 0.82
5900000000.0 0.8027 0.2961
5903000000.0 0.7516 -0.4416
5906000000.0 0.1289 -0.8671
5909000000.0 -0.5416 -0.6608
5912000000.0 -0.8749 0.03929
5916000000.0 -0.5318 0.6971
5919000000.0 0.1529 0.8372
5922000000.0 0.8004 0.387
5925000000.0 0.7689 -0.3866
5928000000.0 0.2241 -0.8589
5931000000.0 -0.5143 -0.7103
5934000000.0 -0.8922 -0.08823
5938000000.0 -0.6236 0.6362
5941000000.0 0.1338 0.8834
5944000000.0 0.7182 0.4876
5947000000.0 0.8589 -0.2595
5950000000.0 0.379 -0.831
5953000000.0 -0.4257 -0.8117
5956000000.0 -0.8799 -0.1941
5959000000.0 -0.7305 0.5674
5962000000.0 -0.04127 0.9584
5966000000.0 0.6946 0.6155
5969000000.0 0.9152 -0.09424
5972000000.0 0.5119 -0.813
5975000000.0 -0.298 -0.9083
5978000000.0 -0.9114 -0.357
5981000000.0 -0.8614 0.4891
5984000000.0 -0.2081 0.9707
5988000000.0 0.5907 0.7748
5991000000.0 0.9797 0.009309
5994000000.0 0.6733 -0.734
5997000000.0 -0.1307 -1.012
6000000000.0 -0.8926 -0.4973
6003000000.0 -0.9238 0.3631
6006000000.0 -0.3389 0.9287
6009000000.0 0.5222 0.8702
6012000000.0 0.9961 0.138
6016000000.0 0.7023 -0.6813
6019000000.0 -0.02895 -0.9969
6022000000.0 -0.7884 -0.5963
6025000000.0 -0.9669 0.2503
6028000000.0 -0.4055 0.8844
6031000000.0 0.4161 0.8872
6034000000.0 0.9331 0.2221
6038000000.0 0.7893 -0.5819
6041000000.0 0.04745 -0.9781
6044000000.0 -0.7446 -0.6547
6047000000.0 -0.9406 0.1832
6050000000.0 -0.4711 0.8509
6053000000.0 0.3377 0.8843
6056000000.0 0.9135 0.2664
6059000000.0 0.7693 -0.5167
6062000000.0 0.09486 -0.8972
6066000000.0 -0.6667 -0.6436
6069000000.0 -0.9009 0.1005
6072000000.0 -0.4781 0.7384
6075000000.0 0.2911 0.8512
6078000000.0 0.8436 0.3237
6081000000.0 0.7534 -0.4351
6084000000.0 0.1421 -0.8702
6088000000.0 -0.5964 -0.6413
6091000000.0 -0.8653 0.05451
6094000000.0 -0.5202 0.6927
6097000000.0 0.2637 0.7934
6100000000.0 0.7529 0.3387
6103000000.0 0.7706 -0.4027
6106000000.0 0.1853 -0.8463
6109000000.0 -0.5456 -0.6268
6112000000.0 -0.8634 0.02336
6116000000.0 -0.5467 0.6851
6119000000.0 0.209 0.8051
6122000000.0 0.8059 0.4213
6125000000.0 0.7551 -0.378
6128000000.0 0.1974 -0.8685
6131000000.0 -0.5448 -0.677
6134000000.0 -0.8912 -0.009583
6138000000.0 -0.5693 0.6815
6141000000.0 0.166 0.8633
6144000000.0 0.7952 0.4274
6147000000.0 0.8258 -0.3577
6150000000.0 0.2729 -0.862
6153000000.0 -0.4836 -0.7573
6156000000.0 -0.8907 -0.1141
6159000000.0 -0.6528 0.6358
6162000000.0 0.05314 0.9369
6166000000.0 0.785 0.4827
6169000000.0 0.8935 -0.277
6172000000.0 0.323 -0.8598
6175000000.0 -0.4793 -0.815
6178000000.0 -0.9033 -0.1985
6181000000.0 -0.7354 0.614
6184000000.0 -0.004767 0.9466
6188000000.0 0.7627 0.6023
6191000000.0 0.9161 -0.2238
6194000000.0 0.433 -0.8067
6197000000.0 -0.3815 -0.8598
6200000000.0 -0.9071 -0.2635
6203000000.0 -0.7817 0.5278
6206000000.0 -0.09714 0.9225
6209000000.0 0.6633 0.6287
6212000000.0 0.8941 -0.09761
6216000000.0 0.5287 -0.7696
6219000000.0 -0.2648 -0.8878
6222000000.0 -0.8575 -0.3735
6225000000.0 -0.8105 0.3911
6228000000.0 -0.1972 0.8956
6231000000.0 0.5436 0.6942
6234000000.0 0.892 0.02715
6238000000.0 0.5927 -0.6803
6241000000.0 -0.1509 -0.8675
6244000000.0 -0.7713 -0.4368
6247000000.0 -0.8143 0.2745
6250000000.0 -0.2924 0.814
6253000000.0 0.4242 0.7492
6256000000.0 0.8104 0.1426
6259000000.0 0.643 -0.5309
6262000000.0 -0.02485 -0.8244
6266000000.0 -0.6353 -0.5206
6269000000.0 -0.7788 0.1216
