! Created with skrf 1.8.0 (http://scikit-rf.org).
# Hz S RI R 50.0 
!freq ReS11 ImS11
4000000000.0 1.277 1.22
4003000000.0 1.729 -0.2019
4006000000.0 0.8499 -1.496
4009000000.0 -0.6979 -1.521
4012000000.0 -1.626 -0.4112
4016000000.0 -1.227 1.033
4019000000.0 0.04004 1.575
4022000000.0 1.24 0.9189
4025000000.0 1.419 -0.486
4028000000.0 0.5037 -1.449
4031000000.0 -0.8924 -1.262
4034000000.0 -1.515 -0.07116
4038000000.0 -0.953 1.076
4041000000.0 0.34 1.438
4044000000.0 1.307 0.6076
4047000000.0 1.213 -0.6455
4050000000.0 0.1999 -1.318
4053000000.0 -0.9579 -1.009
4056000000.0 -1.368 0.1817
4059000000.0 -0.7055 1.151
4062000000.0 0.5302 1.251
4066000000.0 1.355 0.3576
4069000000.0 1.122 -0.8692
4072000000.0 0.008943 -1.365
4075000000.0 -1.103 -0.8736
4078000000.0 -1.394 0.3435
4081000000.0 -0.5511 1.36
4084000000.0 0.7481 1.336
4088000000.0 1.491 0.1588
4091000000.0 1.099 -1.106
4094000000.0 -0.2125 -1.516
4097000000.0 -1.361 -0.7597
4100000000.0 -1.443 0.6181
4103000000.0 -0.3976 1.517
4106000000.0 0.9614 1.24
4109000000.0 1.552 0.01352
4112000000.0 0.97 -1.182
4116000000.0 -0.3374 -1.527
4119000000.0 -1.368 -0.6968
4122000000.0 -1.382 0.6299
4125000000.0 -0.3783 1.463
4128000000.0 0.8765 1.228
4131000000.0 1.499 0.1185
4134000000.0 1.056 -1.117
4138000000.0 -0.186 -1.535
4141000000.0 -1.294 -0.8153
4144000000.0 -1.476 0.4516
4147000000.0 -0.5899 1.445
4150000000.0 0.7292 1.393
4153000000.0 1.552 0.3293
4156000000.0 1.228 -0.9727
4159000000.0 0.0275 -1.537
4162000000.0 -1.18 -1.002
4166000000.0 -1.524 0.2386
4169000000.0 -0.7902 1.297
4172000000.0 0.4504 1.425
4175000000.0 1.381 0.5229
4178000000.0 1.312 -0.7082
4181000000.0 0.3525 -1.423
4184000000.0 -0.8792 -1.206
4188000000.0 -1.483 -0.1192
4191000000.0 -1.104 1.047
4194000000.0 0.1068 1.517
4197000000.0 1.2 0.9086
4200000000.0 1.526 -0.3434
4203000000.0 0.6968 -1.404
4206000000.0 -0.6122 -1.447
4209000000.0 -1.545 -0.4537
4212000000.0 -1.359 0.889
4216000000.0 -0.1445 1.639
4219000000.0 1.171 1.186
4222000000.0 1.631 -0.1677
4225000000.0 0.9061 -1.426
4228000000.0 -0.5055 -1.623
4231000000.0 -1.59 -0.6485
4234000000.0 -1.472 0.8251
4238000000.0 -0.2571 1.688
4241000000.0 1.135 1.288
4244000000.0 1.717 -0.1295
4247000000.0 0.9756 -1.431
4250000000.0 -0.4533 -1.675
4253000000.0 -1.613 -0.6486
4256000000.0 -1.523 0.8332
4259000000.0 -0.2535 1.731
4262000000.0 1.21 1.239
4266000000.0 1.773 -0.1892
4269000000.0 0.9071 -1.522
4272000000.0 -0.6552 -1.637
4275000000.0 -1.699 -0.4536
4278000000.0 -1.375 1.055
4281000000.0 -0.02826 1.709
4284000000.0 1.339 1.024
4288000000.0 1.597 -0.4369
4291000000.0 0.5972 -1.504
4294000000.0 -0.8043 -1.381
4297000000.0 -1.532 -0.2362
4300000000.0 -1.088 1.046
4303000000.0 0.1582 1.455
4306000000.0 1.235 0.8142
4309000000.0 1.374 -0.4736
4312000000.0 0.5095 -1.293
4316000000.0 -0.7127 -1.194
4319000000.0 -1.394 -0.2019
4322000000.0 -1.027 0.9206
4325000000.0 0.07592 1.355
4328000000.0 1.128 0.7879
4331000000.0 1.335 -0.3589
4334000000.0 0.561 -1.23
4338000000.0 -0.6079 -1.227
4341000000.0 -1.319 -0.2827
4344000000.0 -1.08 0.847
4347000000.0 -0.007527 1.389
4350000000.0 1.073 0.9048
4353000000.0 1.349 -0.2245
4356000000.0 0.6542 -1.187
4359000000.0 -0.4789 -1.27
4362000000.0 -1.309 -0.4462
4366000000.0 -1.156 0.6728
4369000000.0 -0.2151 1.337
4372000000.0 0.8907 1.038
4375000000.0 1.372 -0.01783
4378000000.0 0.8647 -1.067
4381000000.0 -0.2706 -1.389
4384000000.0 -1.236 -0.6701
4388000000.0 -1.324 0.4801
4391000000.0 -0.4904 1.389
4394000000.0 0.7706 1.248
4397000000.0 1.47 0.2215
4400000000.0 1.122 -0.9782
4403000000.0 -0.05101 -1.532
4406000000.0 -1.162 -0.936
4409000000.0 -1.516 0.3277
4412000000.0 -0.7141 1.346
4416000000.0 0.6021 1.428
4419000000.0 1.51 0.458
4422000000.0 1.292 -0.8496
4425000000.0 0.1544 -1.583
4428000000.0 -1.102 -1.113
4431000000.0 -1.585 0.1598
4434000000.0 -0.8754 1.315
4438000000.0 0.4631 1.515
4441000000.0 1.474 0.5958
4444000000.0 1.443 -0.7646
4447000000.0 0.2834 -1.526
4450000000.0 -1.041 -1.203
4453000000.0 -1.619 0.05349
4456000000.0 -0.917 1.315
4459000000.0 0.4304 1.542
4462000000.0 1.471 0.5906
4466000000.0 1.364 -0.8055
4469000000.0 0.2343 -1.553
4472000000.0 -1.078 -1.1
4475000000.0 -1.504 0.1703
4478000000.0 -0.8094 1.241
4481000000.0 0.5015 1.364
4484000000.0 1.351 0.4442
4488000000.0 1.14 -0.817
4491000000.0 0.09858 -1.356
4494000000.0 -1.012 -0.9233
4497000000.0 -1.307 0.206
4500000000.0 -0.5983 1.123
4503000000.0 0.485 1.093
4506000000.0 1.137 0.287
4509000000.0 0.9424 -0.746
4512000000.0 0.01569 -1.15
4516000000.0 -0.8738 -0.7035
4519000000.0 -1.106 0.3022
4522000000.0 -0.4557 1.009
4525000000.0 0.5058 0.9796
4528000000.0 1.121 0.1751
4531000000.0 0.7756 -0.7202
4534000000.0 -0.0717 -1.073
4538000000.0 -0.8828 -0.6128
4541000000.0 -1.016 0.3386
4544000000.0 -0.3982 0.9875
4547000000.0 0.5628 0.9081
4550000000.0 1.087 0.1575
4553000000.0 0.7563 -0.7167
4556000000.0 -0.07899 -1.037
4559000000.0 -0.8903 -0.6055
4562000000.0 -1.041 0.2994
4566000000.0 -0.4058 0.9745
4569000000.0 0.4832 0.9622
4572000000.0 1.091 0.1981
4575000000.0 0.8425 -0.7037
4578000000.0 4.632e-05 -1.141
4581000000.0 -0.8908 -0.7123
4584000000.0 -1.128 0.2372
4588000000.0 -0.5499 1.021
4591000000.0 0.4394 1.091
4594000000.0 1.147 0.392
4597000000.0 1.02 -0.6773
4600000000.0 0.09527 -1.207
4603000000.0 -0.8848 -0.8818
4606000000.0 -1.23 0.09117
4609000000.0 -0.7034 1.021
4612000000.0 0.3634 1.226
4616000000.0 1.174 0.4931
4619000000.0 1.152 -0.5692
4622000000.0 0.291 -1.273
4625000000.0 -0.7917 -1.041
4628000000.0 -1.348 -0.008499
4631000000.0 -0.883 0.996
4634000000.0 0.2234 1.33
4638000000.0 1.189 0.6736
4641000000.0 1.302 -0.491
4644000000.0 0.4467 -1.281
4647000000.0 -0.7093 -1.16
4650000000.0 -1.38 -0.155
4653000000.0 -1.007 0.9596
4656000000.0 0.1352 1.348
4659000000.0 1.149 0.756
4662000000.0 1.3 -0.4164
4666000000.0 0.4692 -1.265
4669000000.0 -0.7025 -1.162
4672000000.0 -1.336 -0.1947
4675000000.0 -0.9605 0.9131
4678000000.0 0.07283 1.299
4681000000.0 1.075 0.7514
4684000000.0 1.211 -0.4037
4688000000.0 0.4413 -1.195
4691000000.0 -0.6463 -1.125
4694000000.0 -1.249 -0.1856
4697000000.0 -0.8933 0.8485
4700000000.0 0.1455 1.234
4703000000.0 1.023 0.6523
4706000000.0 1.167 -0.4051
4709000000.0 0.4017 -1.128
4712000000.0 -0.6642 -0.9463
4716000000.0 -1.156 -0.06646
4719000000.0 -0.7682 0.8407
4722000000.0 0.2625 1.074
4725000000.0 0.9474 0.4439
4728000000.0 0.9408 -0.4748
4731000000.0 0.1986 -1.033
4734000000.0 -0.6483 -0.7691
4738000000.0 -1.034 0.02409
4741000000.0 -0.5751 0.7646
4744000000.0 0.262 0.9451
4747000000.0 0.8841 0.4072
4750000000.0 0.8654 -0.447
4753000000.0 0.1837 -0.9132
4756000000.0 -0.6348 -0.7181
4759000000.0 -0.9765 0.01843
4762000000.0 -0.5988 0.787
4766000000.0 0.2599 0.9974
4769000000.0 0.9527 0.414
4772000000.0 0.8806 -0.4635
4775000000.0 0.1862 -1.01
4778000000.0 -0.6602 -0.8071
4781000000.0 -1.013 0.001462
4784000000.0 -0.6266 0.7673
4788000000.0 0.1907 1.03
4791000000.0 0.9277 0.5144
4794000000.0 0.968 -0.3777
4797000000.0 0.3381 -1.012
4800000000.0 -0.5779 -0.9049
4803000000.0 -1.021 -0.1512
4806000000.0 -0.7841 0.7223
4809000000.0 0.03093 1.105
4812000000.0 0.8813 0.6882
4816000000.0 1.115 -0.2393
4819000000.0 0.528 -0.9995
4822000000.0 -0.4709 -1.095
4825000000.0 -1.161 -0.3475
4828000000.0 -1.026 0.6859
4831000000.0 -0.1307 1.236
4834000000.0 0.8589 0.9042
4838000000.0 1.257 -0.1157
4841000000.0 0.7253 -1.047
4844000000.0 -0.3498 -1.253
4847000000.0 -1.211 -0.5221
4850000000.0 -1.171 0.5926
4853000000.0 -0.3003 1.273
4856000000.0 0.8254 1.066
4859000000.0 1.336 0.0484
4862000000.0 0.8619 -1.023
4866000000.0 -0.2379 -1.345
4869000000.0 -1.225 -0.6875
4872000000.0 -1.261 0.4979
4875000000.0 -0.387 1.331
4878000000.0 0.7744 1.136
4881000000.0 1.366 0.1011
4884000000.0 0.9422 -0.9938
4888000000.0 -0.1732 -1.342
4891000000.0 -1.15 -0.6909
4894000000.0 -1.228 0.47
4897000000.0 -0.4047 1.25
4900000000.0 0.7408 1.102
4903000000.0 1.265 0.1022
4906000000.0 0.8316 -0.9022
4909000000.0 -0.1592 -1.195
4912000000.0 -1.002 -0.6222
4916000000.0 -1.073 0.36
4919000000.0 -0.3695 1.053
4922000000.0 0.5566 0.9312
4925000000.0 1.052 0.1292
4928000000.0 0.7655 -0.7143
4931000000.0 -0.04815 -1.03
4934000000.0 -0.8396 -0.6002
4938000000.0 -0.9574 0.2508
4941000000.0 -0.3666 0.923
4944000000.0 0.4496 0.8636
4947000000.0 0.938 0.1867
4950000000.0 0.7229 -0.589
4953000000.0 -0.01792 -0.9611
4956000000.0 -0.7592 -0.5591
4959000000.0 -0.8899 0.2063
4962000000.0 -0.4187 0.8524
4966000000.0 0.4071 0.8711
4969000000.0 0.8985 0.1989
4972000000.0 0.7536 -0.5697
4975000000.0 -0.00336 -0.96
4978000000.0 -0.7074 -0.6198
4981000000.0 -0.9053 0.1772
4984000000.0 -0.4514 0.8553
4988000000.0 0.3715 0.881
4991000000.0 0.9125 0.3124
4994000000.0 0.8189 -0.5372
4997000000.0 0.09757 -0.9897
5000000000.0 -0.7095 -0.7283
5003000000.0 -1.045 0.0946
5006000000.0 -0.5768 0.8641
5009000000.0 0.3382 1.002
5012000000.0 1.004 0.3844
5016000000.0 0.9712 -0.533
5019000000.0 0.2205 -1.086
5022000000.0 -0.7167 -0.8613
5025000000.0 -1.166 0.001992
5028000000.0 -0.758 0.9042
5031000000.0 0.2381 1.154
5034000000.0 1.067 0.564
5038000000.0 1.119 -0.4478
5041000000.0 0.3916 -1.184
5044000000.0 -0.632 -1.033
5047000000.0 -1.246 -0.1736
5050000000.0 -0.9076 0.8439
5053000000.0 0.09398 1.271
5056000000.0 1.046 0.7809
5059000000.0 1.265 -0.3058
5062000000.0 0.595 -1.153
5066000000.0 -0.5471 -1.159
5069000000.0 -1.276 -0.3502
5072000000.0 -1.092 0.7613
5075000000.0 -0.08705 1.313
5078000000.0 0.9559 0.9067
5081000000.0 1.302 -0.1753
5084000000.0 0.72 -1.125
5088000000.0 -0.3971 -1.191
5091000000.0 -1.196 -0.4479
5094000000.0 -1.094 0.6078
5097000000.0 -0.2337 1.219
5100000000.0 0.7889 0.955
5103000000.0 1.232 0.03716
5106000000.0 0.7772 -0.888
5109000000.0 -0.1611 -1.177
5112000000.0 -0.9694 -0.5718
5116000000.0 -1.069 0.3614
5119000000.0 -0.4537 1.016
5122000000.0 0.507 1.017
5125000000.0 1.106 0.246
5128000000.0 0.8417 -0.6607
5131000000.0 0.04241 -1.08
5134000000.0 -0.7935 -0.675
5138000000.0 -1.031 0.1325
5141000000.0 -0.5383 0.88
5144000000.0 0.3364 0.9779
5147000000.0 0.9372 0.3484
5150000000.0 0.8531 -0.5058
5153000000.0 0.118 -0.9557
5156000000.0 -0.6344 -0.7395
5159000000.0 -0.9507 0.001114
5162000000.0 -0.6105 0.7436
5166000000.0 0.1938 0.935
5169000000.0 0.8445 0.4004
5172000000.0 0.8469 -0.3705
5175000000.0 0.2693 -0.8779
5178000000.0 -0.5402 -0.7792
5181000000.0 -0.8874 -0.06339
5184000000.0 -0.6205 0.6743
5188000000.0 0.1286 0.909
5191000000.0 0.7885 0.4596
5194000000.0 0.8667 -0.3256
5197000000.0 0.2723 -0.891
5200000000.0 -0.5305 -0.7654
5203000000.0 -0.924 -0.03825
5206000000.0 -0.6334 0.6646
5209000000.0 0.137 0.9311
5212000000.0 0.8138 0.4749
5216000000.0 0.8939 -0.3707
5219000000.0 0.2841 -0.9102
5222000000.0 -0.526 -0.7957
5225000000.0 -0.9706 -0.06089
5228000000.0 -0.6409 0.7024
5231000000.0 0.1363 0.9575
5234000000.0 0.8692 0.5193
5238000000.0 0.9098 -0.3477
5241000000.0 0.3193 -0.9557
5244000000.0 -0.5287 -0.8413
5247000000.0 -1.015 -0.1349
5250000000.0 -0.7561 0.694
5253000000.0 0.07263 1.057
5256000000.0 0.8761 0.6082
5259000000.0 1.011 -0.2871
5262000000.0 0.4331 -0.9651
5266000000.0 -0.471 -0.9311
5269000000.0 -1.032 -0.1996
5272000000.0 -0.8695 0.6252
5275000000.0 -0.03757 1.061
5278000000.0 0.7564 0.7276
5281000000.0 1.075 -0.1247
5284000000.0 0.5879 -0.9146
5288000000.0 -0.2889 -1.033
5291000000.0 -1.015 -0.4357
5294000000.0 -1.002 0.4739
5297000000.0 -0.3023 1.065
5300000000.0 0.6307 0.9032
5303000000.0 1.093 0.09055
5306000000.0 0.8024 -0.7828
5309000000.0 -0.1313 -1.131
5312000000.0 -0.912 -0.678
5316000000.0 -1.105 0.2603
5319000000.0 -0.5178 1.012
5322000000.0 0.4694 1.059
5325000000.0 1.11 0.3392
5328000000.0 0.9653 -0.6264
5331000000.0 0.1575 -1.186
5334000000.0 -0.7721 -0.8586
5338000000.0 -1.136 0.07171
5341000000.0 -0.6848 0.9042
5344000000.0 0.2564 1.142
5347000000.0 1.004 0.5264
5350000000.0 1.018 -0.4547
5353000000.0 0.3396 -1.123
5356000000.0 -0.6385 -0.9526
5359000000.0 -1.128 -0.08156
5362000000.0 -0.8297 0.8098
5366000000.0 0.1053 1.146
5369000000.0 0.932 0.6134
5372000000.0 1.067 -0.3003
5375000000.0 0.4103 -1.005
5378000000.0 -0.5283 -0.9594
5381000000.0 -1.077 -0.1926
5384000000.0 -0.8282 0.6964
5388000000.0 0.02328 1.067
5391000000.0 0.8261 0.6345
5394000000.0 1.008 -0.2831
5397000000.0 0.4305 -0.8999
5400000000.0 -0.4607 -0.9005
5403000000.0 -0.96 -0.1704
5406000000.0 -0.7374 0.6282
5409000000.0 0.04289 0.9566
5412000000.0 0.7413 0.5352
5416000000.0 0.8972 -0.2112
5419000000.0 0.3766 -0.8456
5422000000.0 -0.3998 -0.8227
5425000000.0 -0.9051 -0.1571
5428000000.0 -0.6933 0.5884
5431000000.0 0.01273 0.8604
5434000000.0 0.7265 0.5115
5438000000.0 0.8168 -0.2155
5441000000.0 0.3291 -0.7882
5444000000.0 -0.4258 -0.7575
5447000000.0 -0.85 -0.1235
5450000000.0 -0.6281 0.5867
5453000000.0 0.07117 0.864
5456000000.0 0.7179 0.4464
5459000000.0 0.807 -0.2555
5462000000.0 0.2987 -0.8243
5466000000.0 -0.4111 -0.7181
5469000000.0 -0.8437 -0.143
5472000000.0 -0.6709 0.5718
5475000000.0 0.007106 0.8653
5478000000.0 0.6987 0.5542
5481000000.0 0.8731 -0.167
5484000000.0 0.4436 -0.7762
5488000000.0 -0.3551 -0.8551
5491000000.0 -0.8701 -0.3085
5494000000.0 -0.7972 0.5231
5497000000.0 -0.0984 0.9328
5500000000.0 0.665 0.6815
5503000000.0 0.9677 -0.09242
5506000000.0 0.5783 -0.7752
5509000000.0 -0.2205 -0.9251
5512000000.0 -0.8824 -0.4336
5516000000.0 -0.8936 0.4154
5519000000.0 -0.2538 0.9419
5522000000.0 0.5949 0.8155
5525000000.0 1.013 0.1055
5528000000.0 0.7249 -0.7055
5531000000.0 -0.05619 -1.001
5534000000.0 -0.8028 -0.6352
5538000000.0 -1.007 0.2488
5541000000.0 -0.4419 0.9065
5544000000.0 0.4067 0.957
5547000000.0 1.008 0.304
5550000000.0 0.8672 -0.5685
5553000000.0 0.09767 -1.052
5556000000.0 -0.7193 -0.7957
5559000000.0 -1.065 0.04531
5562000000.0 -0.6572 0.8564
5566000000.0 0.261 1.017
5569000000.0 0.939 0.4528
5572000000.0 0.9631 -0.4246
5575000000.0 0.2829 -0.9997
5578000000.0 -0.5913 -0.8477
5581000000.0 -1.032 -0.1074
5584000000.0 -0.7433 0.6755
5588000000.0 0.09633 1.002
5591000000.0 0.7908 0.5643
5594000000.0 0.9674 -0.2881
5597000000.0 0.4094 -0.9086
5600000000.0 -0.4301 -0.905
5603000000.0 -0.9256 -0.2347
5606000000.0 -0.7607 0.6049
5609000000.0 -0.0462 0.9538
5612000000.0 0.7015 0.6501
5616000000.0 0.9226 -0.1497
5619000000.0 0.4784 -0.7867
5622000000.0 -0.2938 -0.8749
5625000000.0 -0.8528 -0.287
5628000000.0 -0.7701 0.4752
5631000000.0 -0.1029 0.9074
5634000000.0 0.6117 0.6378
5638000000.0 0.8762 -0.07834
5641000000.0 0.4665 -0.7144
5644000000.0 -0.258 -0.8149
5647000000.0 -0.8164 -0.3057
5650000000.0 -0.7322 0.4207
5653000000.0 -0.1559 0.8347
5656000000.0 0.5918 0.6219
5659000000.0 0.8664 -0.08797
5662000000.0 0.4678 -0.7312
5666000000.0 -0.2683 -0.8061
5669000000.0 -0.8025 -0.3296
5672000000.0 -0.737 0.436
5675000000.0 -0.09893 0.8857
5678000000.0 0.6005 0.6368
5681000000.0 0.8981 -0.0898
5684000000.0 0.5095 -0.7658
5688000000.0 -0.2828 -0.8601
5691000000.0 -0.8668 -0.3089
5694000000.0 -0.7616 0.4712
5697000000.0 -0.1349 0.9215
5700000000.0 0.6787 0.6585
5703000000.0 0.9449 -0.07441
5706000000.0 0.5452 -0.7584
5709000000.0 -0.3064 -0.9283
5712000000.0 -0.912 -0.3756
5716000000.0 -0.8574 0.4523
5719000000.0 -0.1814 0.9888
5722000000.0 0.6378 0.7558
5725000000.0 1.016 0.007641
5728000000.0 0.6409 -0.8363
5731000000.0 -0.2132 -0.9938
5734000000.0 -0.9122 -0.4554
5738000000.0 -0.9848 0.413
5741000000.0 -0.3067 1.006
5744000000.0 0.5969 0.9066
5747000000.0 1.047 0.1058
5750000000.0 0.7446 -0.7554
5753000000.0 -0.08684 -1.076
5756000000.0 -0.8997 -0.5977
5759000000.0 -1.064 0.2454
5762000000.0 -0.4451 0.9857
5766000000.0 0.4616 0.9743
5769000000.0 1.071 0.2952
5772000000.0 0.8961 -0.6248
5775000000.0 0.06049 -1.093
5778000000.0 -0.7704 -0.7473
5781000000.0 -1.062 0.1273
5784000000.0 -0.6199 0.9092
5788000000.0 0.3257 1.06
5791000000.0 1.002 0.4486
5794000000.0 0.9884 -0.515
5797000000.0 0.2768 -1.032
5800000000.0 -0.6321 -0.8445
5803000000.0 -1.076 -0.04086
5806000000.0 -0.7407 0.7697
5809000000.0 0.1627 1.059
5812000000.0 0.8615 0.6058
5816000000.0 0.9714 -0.3397
5819000000.0 0.3945 -0.9634
5822000000.0 -0.5184 -0.9116
5825000000.0 -1.003 -0.1926
5828000000.0 -0.8226 0.6456
5831000000.0 0.001628 1.011
5834000000.0 0.8094 0.642
5838000000.0 0.987 -0.1878
5841000000.0 0.4674 -0.8913
5844000000.0 -0.3733 -0.9146
5847000000.0 -0.946 -0.2914
5850000000.0 -0.8144 0.5605
5853000000.0 -0.04882 0.9659
5856000000.0 0.7061 0.6552
5859000000.0 0.9788 -0.1202
5862000000.0 0.5312 -0.8156
5866000000.0 -0.3286 -0.8836
5869000000.0 -0.8915 -0.3078
5872000000.0 -0.8179 0.5026
5875000000.0 -0.09699 0.888
5878000000.0 0.6079 0.6405
5881000000.0 0.8618 -0.1102
5884000000.0 0.4956 -0.7495
5888000000.0 -0.2622 -0.8514
5891000000.0 -0.8342 -0.3185
5894000000.0 -0.7369 0.4368
5897000000.0 -0.1248 0.8629
5900000000.0 0.5612 0.637
5903000000.0 0.8463 -0.07585
5906000000.0 0.4788 -0.7016
5909000000.0 -0.1963 -0.8064
5912000000.0 -0.7824 -0.3479
5916000000.0 -0.7555 0.3946
5919000000.0 -0.1742 0.8638
5922000000.0 0.5367 0.6855
5925000000.0 0.8818 0.03463
5928000000.0 0.5323 -0.6802
5931000000.0 -0.1582 -0.8359
5934000000.0 -0.7765 -0.389
5938000000.0 -0.7759 0.3057
5941000000.0 -0.2606 0.8201
5944000000.0 0.473 0.749
5947000000.0 0.869 0.1269
5950000000.0 0.6405 -0.6038
5953000000.0 -0.0865 -0.8951
5956000000.0 -0.7206 -0.4935
5959000000.0 -0.8629 0.2305
5962000000.0 -0.3759 0.8158
5966000000.0 0.3706 0.8026
5969000000.0 0.878 0.2413
5972000000.0 0.7645 -0.5135
5975000000.0 0.04954 -0.9091
5978000000.0 -0.6657 -0.6572
5981000000.0 -0.9241 0.06719
5984000000.0 -0.5516 0.7894
5988000000.0 0.2703 0.9085
5991000000.0 0.8542 0.3983
5994000000.0 0.8647 -0.3948
5997000000.0 0.2422 -0.9458
6000000000.0 -0.5658 -0.7876
6003000000.0 -0.9647 -0.0628
6006000000.0 -0.6801 0.7095
6009000000.0 0.1207 0.9606
6012000000.0 0.8359 0.5255
6016000000.0 0.9461 -0.3163
6019000000.0 0.3489 -0.92
6022000000.0 -0.46 -0.8596
6025000000.0 -0.9766 -0.1913
6028000000.0 -0.7854 0.6039
6031000000.0 -0.001936 0.9839
6034000000.0 0.7516 0.6305
6038000000.0 0.9587 -0.1859
6041000000.0 0.4369 -0.8617
6044000000.0 -0.3932 -0.9087
6047000000.0 -0.9271 -0.2771
6050000000.0 -0.8194 0.56
6053000000.0 -0.08542 0.9702
6056000000.0 0.6983 0.6682
6059000000.0 0.9402 -0.08969
6062000000.0 0.5156 -0.8123
6066000000.0 -0.3013 -0.9162
6069000000.0 -0.8775 -0.3426
6072000000.0 -0.7878 0.4824
6075000000.0 -0.1068 0.918
6078000000.0 0.6268 0.6824
6081000000.0 0.9041 -0.0542
6084000000.0 0.4984 -0.7548
6088000000.0 -0.2478 -0.8469
6091000000.0 -0.8075 -0.314
6094000000.0 -0.7911 0.409
6097000000.0 -0.162 0.8836
6100000000.0 0.5729 0.6734
6103000000.0 0.8807 -0.01184
6106000000.0 0.5258 -0.692
6109000000.0 -0.1593 -0.8278
6112000000.0 -0.7471 -0.3477
6116000000.0 -0.7688 0.3817
6119000000.0 -0.2442 0.8381
6122000000.0 0.5481 0.6532
6125000000.0 0.8575 0.003248
6128000000.0 0.5394 -0.6957
6131000000.0 -0.1622 -0.8493
6134000000.0 -0.7418 -0.3775
6138000000.0 -0.7637 0.339
6141000000.0 -0.2216 0.8231
6144000000.0 0.4725 0.6946
6147000000.0 0.8692 0.03063
6150000000.0 0.5706 -0.631
6153000000.0 -0.1424 -0.8301
6156000000.0 -0.7559 -0.4359
6159000000.0 -0.8332 0.2816
6162000000.0 -0.273 0.8416
6166000000.0 0.4728 0.7613
6169000000.0 0.8682 0.1224
6172000000.0 0.6524 -0.6505
6175000000.0 -0.05353 -0.8753
6178000000.0 -0.778 -0.5193
6181000000.0 -0.8741 0.2144
6184000000.0 -0.3695 0.8633
6188000000.0 0.3731 0.7956
6191000000.0 0.8896 0.2052
6194000000.0 0.6912 -0.5866
6197000000.0 0.01759 -0.9105
6200000000.0 -0.6978 -0.5999
6203000000.0 -0.8848 0.1682
6206000000.0 -0.4845 0.7838
6209000000.0 0.3434 0.8607
6212000000.0 0.8676 0.2643
6216000000.0 0.776 -0.4844
6219000000.0 0.1126 -0.8756
6222000000.0 -0.5852 -0.6742
6225000000.0 -0.902 0.05261
6228000000.0 -0.5374 0.7215
6231000000.0 0.2295 0.874
6234000000.0 0.8239 0.3469
6238000000.0 0.7798 -0.3909
6241000000.0 0.1841 -0.854
6244000000.0 -0.5201 -0.7064
6247000000.0 -0.8723 -0.07825
6250000000.0 -0.5666 0.6235
6253000000.0 0.1327 0.8442
6256000000.0 0.7194 0.419
6259000000.0 0.8211 -0.2493
6262000000.0 0.3434 -0.7571
6266000000.0 -0.3514 -0.6997
