! Created with skrf 1.8.0 (http://scikit-rf.org).
# Hz S RI R 50.0 
!freq ReS11 ImS11
4000000000.0 -0.1685 -1.506
4003000000.0 -1.253 -0.8306
4006000000.0 -1.443 0.4537
4009000000.0 -0.542 1.354
4012000000.0 0.7547 1.308
4016000000.0 1.526 0.2351
4019000000.0 1.132 -1.008
4022000000.0 -0.1192 -1.55
4025000000.0 -1.355 -0.8746
4028000000.0 -1.543 0.4808
4031000000.0 -0.5847 1.483
4034000000.0 0.8213 1.35
4038000000.0 1.607 0.1969
4041000000.0 1.194 -1.095
4044000000.0 -0.1217 -1.673
4047000000.0 -1.377 -0.9559
4050000000.0 -1.556 0.4149
4053000000.0 -0.6154 1.49
4056000000.0 0.7495 1.439
4059000000.0 1.592 0.3544
4062000000.0 1.297 -1.009
4066000000.0 0.02424 -1.619
4069000000.0 -1.229 -1.084
4072000000.0 -1.632 0.3314
4075000000.0 -0.8572 1.403
4078000000.0 0.6115 1.548
4081000000.0 1.484 0.5478
4084000000.0 1.439 -0.838
4088000000.0 0.2298 -1.648
4091000000.0 -1.08 -1.217
4094000000.0 -1.644 0.01652
4097000000.0 -0.9866 1.315
4100000000.0 0.3638 1.593
4103000000.0 1.397 0.7132
4106000000.0 1.426 -0.6136
4109000000.0 0.4507 -1.486
4112000000.0 -0.8166 -1.28
4116000000.0 -1.511 -0.2245
4119000000.0 -1.093 1.009
4122000000.0 0.003741 1.491
4125000000.0 1.126 0.9274
4128000000.0 1.43 -0.2178
4131000000.0 0.7908 -1.208
4134000000.0 -0.4176 -1.368
4138000000.0 -1.329 -0.6182
4141000000.0 -1.34 0.5932
4144000000.0 -0.3891 1.443
4147000000.0 0.8392 1.237
4150000000.0 1.495 0.1348
4153000000.0 1.055 -1.046
4156000000.0 -0.09452 -1.518
4159000000.0 -1.226 -0.8826
4162000000.0 -1.509 0.3636
4166000000.0 -0.6525 1.363
4169000000.0 0.6218 1.397
4172000000.0 1.413 0.4096
4175000000.0 1.224 -0.8048
4178000000.0 0.1676 -1.472
4181000000.0 -1.034 -1.082
4184000000.0 -1.493 0.06841
4188000000.0 -0.9036 1.21
4191000000.0 0.3747 1.491
4194000000.0 1.368 0.6675
4197000000.0 1.392 -0.6147
4200000000.0 0.3833 -1.514
4203000000.0 -0.942 -1.308
4206000000.0 -1.605 -0.08642
4209000000.0 -1.042 1.217
4212000000.0 0.3252 1.588
4216000000.0 1.483 0.7529
4219000000.0 1.539 -0.7252
4222000000.0 0.3419 -1.612
4225000000.0 -1.116 -1.244
4228000000.0 -1.666 0.1114
4231000000.0 -0.8996 1.364
4234000000.0 0.5215 1.551
4238000000.0 1.595 0.5303
4241000000.0 1.341 -0.914
4244000000.0 0.09452 -1.57
4247000000.0 -1.223 -1.01
4250000000.0 -1.546 0.2794
4253000000.0 -0.6917 1.351
4256000000.0 0.6637 1.406
4259000000.0 1.492 0.3125
4262000000.0 1.141 -0.9665
4266000000.0 -0.08748 -1.529
4269000000.0 -1.221 -0.8839
4272000000.0 -1.429 0.4299
4275000000.0 -0.5067 1.348
4278000000.0 0.7233 1.257
4281000000.0 1.423 0.2057
4284000000.0 1.01 -0.9754
4288000000.0 -0.1497 -1.412
4291000000.0 -1.149 -0.7736
4294000000.0 -1.323 0.394
4297000000.0 -0.5081 1.196
4300000000.0 0.5933 1.148
4303000000.0 1.268 0.2336
4306000000.0 0.9913 -0.8056
4309000000.0 0.03067 -1.278
4312000000.0 -0.9293 -0.8734
4316000000.0 -1.24 0.1429
4319000000.0 -0.6785 1.081
4322000000.0 0.3651 1.249
4325000000.0 1.206 0.4867
4328000000.0 1.172 -0.5939
4331000000.0 0.2869 -1.309
4334000000.0 -0.8247 -1.06
4338000000.0 -1.382 -0.07248
4341000000.0 -0.9593 1.023
4344000000.0 0.2115 1.362
4347000000.0 1.213 0.7028
4350000000.0 1.37 -0.4261
4353000000.0 0.5343 -1.357
4356000000.0 -0.7239 -1.244
4359000000.0 -1.44 -0.2502
4362000000.0 -1.095 0.924
4366000000.0 0.0004663 1.433
4369000000.0 1.129 0.9062
4372000000.0 1.454 -0.2959
4375000000.0 0.7257 -1.293
4378000000.0 -0.5495 -1.365
4381000000.0 -1.412 -0.4985
4384000000.0 -1.306 0.8348
4388000000.0 -0.1737 1.525
4391000000.0 1.057 1.109
4394000000.0 1.577 -0.139
4397000000.0 0.8727 -1.309
4400000000.0 -0.488 -1.482
4403000000.0 -1.491 -0.5629
4406000000.0 -1.394 0.8136
4409000000.0 -0.2171 1.554
4412000000.0 1.08 1.137
4416000000.0 1.539 -0.1408
4419000000.0 0.7832 -1.329
4422000000.0 -0.5269 -1.396
4425000000.0 -1.427 -0.4801
4428000000.0 -1.238 0.8291
4431000000.0 -0.1183 1.452
4434000000.0 1.058 0.9618
4438000000.0 1.374 -0.2339
4441000000.0 0.6765 -1.223
4444000000.0 -0.5408 -1.253
4447000000.0 -1.348 -0.3082
4450000000.0 -1.049 0.8384
4453000000.0 -0.005704 1.354
4456000000.0 1.029 0.787
4459000000.0 1.22 -0.326
4462000000.0 0.4472 -1.138
4466000000.0 -0.6152 -1.096
4469000000.0 -1.178 -0.1693
4472000000.0 -0.8441 0.8138
4475000000.0 0.1401 1.209
4478000000.0 0.9981 0.6104
4481000000.0 1.084 -0.3863
4484000000.0 0.3634 -1.113
4488000000.0 -0.6609 -0.9189
4491000000.0 -1.151 -0.09027
4494000000.0 -0.7502 0.8054
4497000000.0 0.1882 1.135
4500000000.0 0.9991 0.5732
4503000000.0 1.042 -0.3969
4506000000.0 0.3486 -1.047
4509000000.0 -0.5998 -0.9287
4512000000.0 -1.082 -0.1275
4516000000.0 -0.7616 0.7803
4519000000.0 0.1213 1.106
4522000000.0 0.9458 0.5897
4525000000.0 1.1 -0.338
4528000000.0 0.4294 -1.064
4531000000.0 -0.5798 -0.9829
4534000000.0 -1.147 -0.1873
4538000000.0 -0.9165 0.7579
4541000000.0 0.02396 1.17
4544000000.0 0.9101 0.7254
4547000000.0 1.174 -0.225
4550000000.0 0.5427 -1.054
4553000000.0 -0.4438 -1.123
4556000000.0 -1.158 -0.3873
4559000000.0 -1.026 0.6328
4562000000.0 -0.1735 1.227
4566000000.0 0.8209 0.9262
4569000000.0 1.274 -0.04091
4572000000.0 0.7955 -0.9455
4575000000.0 -0.2667 -1.254
4578000000.0 -1.163 -0.6122
4581000000.0 -1.195 0.4812
4584000000.0 -0.396 1.265
4588000000.0 0.6944 1.14
4591000000.0 1.33 0.1752
4594000000.0 0.9743 -0.9252
4597000000.0 -0.111 -1.386
4600000000.0 -1.123 -0.807
4603000000.0 -1.355 0.3629
4606000000.0 -0.5926 1.27
4609000000.0 0.6157 1.268
4612000000.0 1.35 0.3054
4616000000.0 1.092 -0.8346
4619000000.0 0.04273 -1.379
4622000000.0 -1.049 -0.9157
4625000000.0 -1.351 0.23
4628000000.0 -0.6926 1.165
4631000000.0 0.523 1.278
4634000000.0 1.324 0.4172
4638000000.0 1.136 -0.7679
4641000000.0 0.1356 -1.365
4644000000.0 -0.9759 -0.9273
4647000000.0 -1.341 0.1916
4650000000.0 -0.6872 1.14
4653000000.0 0.4943 1.219
4656000000.0 1.237 0.374
4659000000.0 1.033 -0.7053
4662000000.0 0.1132 -1.237
4666000000.0 -0.8749 -0.8401
4669000000.0 -1.183 0.192
4672000000.0 -0.5846 1.053
4675000000.0 0.4575 1.125
4678000000.0 1.108 0.3494
4681000000.0 0.9423 -0.6717
4684000000.0 0.06685 -1.104
4688000000.0 -0.8514 -0.7733
4691000000.0 -1.088 0.1767
4694000000.0 -0.5233 0.9265
4697000000.0 0.4486 1.037
4700000000.0 1.066 0.3021
4703000000.0 0.9037 -0.6224
4706000000.0 0.06346 -1.079
4709000000.0 -0.8445 -0.7241
4712000000.0 -1.083 0.1997
4716000000.0 -0.4903 0.9331
4719000000.0 0.4517 0.9723
4722000000.0 1.011 0.2267
4725000000.0 0.8705 -0.6318
4728000000.0 0.04954 -1.039
4731000000.0 -0.7562 -0.7015
4734000000.0 -0.9964 0.1504
4738000000.0 -0.4832 0.9038
4741000000.0 0.3594 0.9715
4744000000.0 0.9516 0.3268
4747000000.0 0.9039 -0.5392
4750000000.0 0.1474 -1.065
4753000000.0 -0.6746 -0.8018
4756000000.0 -1.083 0.02201
4759000000.0 -0.6398 0.8343
4762000000.0 0.214 1.065
4766000000.0 0.988 0.5364
4769000000.0 1.048 -0.4295
4772000000.0 0.3382 -1.093
4775000000.0 -0.6348 -0.9659
4778000000.0 -1.175 -0.1555
4781000000.0 -0.8594 0.8083
4784000000.0 0.06863 1.191
4788000000.0 0.9599 0.7082
4791000000.0 1.186 -0.2549
4794000000.0 0.5376 -1.085
4797000000.0 -0.4521 -1.152
4800000000.0 -1.18 -0.3825
4803000000.0 -1.045 0.6396
4806000000.0 -0.1926 1.204
4809000000.0 0.8335 0.9506
4812000000.0 1.266 -0.0006106
4816000000.0 0.8179 -1.043
4819000000.0 -0.2779 -1.3
4822000000.0 -1.163 -0.6527
4825000000.0 -1.229 0.5102
4828000000.0 -0.4279 1.285
4831000000.0 0.7682 1.132
4834000000.0 1.369 0.1249
4838000000.0 0.9677 -0.9701
4841000000.0 -0.1485 -1.363
4844000000.0 -1.165 -0.7691
4847000000.0 -1.337 0.3765
4850000000.0 -0.5258 1.297
4853000000.0 0.6346 1.217
4856000000.0 1.337 0.2855
4859000000.0 1.033 -0.8712
4862000000.0 -0.01292 -1.343
4866000000.0 -1.063 -0.8018
4869000000.0 -1.311 0.2962
4872000000.0 -0.5891 1.165
4875000000.0 0.522 1.194
4878000000.0 1.224 0.3289
4881000000.0 1.019 -0.7417
4884000000.0 0.07216 -1.272
4888000000.0 -0.9417 -0.8426
4891000000.0 -1.184 0.1979
4894000000.0 -0.564 1.032
4897000000.0 0.4271 1.069
4900000000.0 1.085 0.3348
4903000000.0 0.9258 -0.6398
4906000000.0 0.0748 -1.096
4909000000.0 -0.7697 -0.7475
4912000000.0 -1.011 0.1127
4916000000.0 -0.5369 0.8542
4919000000.0 0.3097 0.9589
4922000000.0 0.9292 0.32
4925000000.0 0.8529 -0.4934
4928000000.0 0.148 -0.9388
4931000000.0 -0.625 -0.7175
4934000000.0 -0.9272 0.02968
4938000000.0 -0.5669 0.7461
4941000000.0 0.2232 0.9312
4944000000.0 0.8482 0.4272
4947000000.0 0.8827 -0.3628
4950000000.0 0.2298 -0.8985
4953000000.0 -0.5453 -0.7926
4956000000.0 -0.9265 -0.06198
4959000000.0 -0.6414 0.7178
4962000000.0 0.1519 0.9628
4966000000.0 0.8671 0.491
4969000000.0 0.9345 -0.3291
4972000000.0 0.3045 -0.9155
4975000000.0 -0.5359 -0.8347
4978000000.0 -1.004 -0.1437
4981000000.0 -0.7422 0.69
4984000000.0 0.03499 1.017
4988000000.0 0.8227 0.6213
4991000000.0 1.012 -0.248
4994000000.0 0.4749 -0.9495
4997000000.0 -0.4102 -0.9947
5000000000.0 -1.097 -0.3092
5003000000.0 -0.9348 0.6412
5006000000.0 -0.08913 1.141
5009000000.0 0.8344 0.8026
5012000000.0 1.192 -0.1256
5016000000.0 0.6598 -0.9749
5019000000.0 -0.3637 -1.171
5022000000.0 -1.155 -0.4666
5025000000.0 -1.111 0.6054
5028000000.0 -0.2401 1.241
5031000000.0 0.806 0.9752
5034000000.0 1.283 -0.0203
5038000000.0 0.8159 -0.9806
5041000000.0 -0.2356 -1.262
5044000000.0 -1.123 -0.6469
5047000000.0 -1.217 0.439
5050000000.0 -0.4362 1.199
5053000000.0 0.6317 1.106
5056000000.0 1.283 0.2114
5059000000.0 0.9953 -0.8129
5062000000.0 -0.006249 -1.291
5066000000.0 -0.9929 -0.8098
5069000000.0 -1.255 0.2578
5072000000.0 -0.6022 1.121
5075000000.0 0.505 1.218
5078000000.0 1.224 0.3863
5081000000.0 1.087 -0.6737
5084000000.0 0.1566 -1.246
5088000000.0 -0.8495 -0.8588
5091000000.0 -1.222 0.05859
5094000000.0 -0.7095 0.9281
5097000000.0 0.2426 1.142
5100000000.0 0.9953 0.4932
5103000000.0 1.044 -0.4087
5106000000.0 0.3355 -1.064
5109000000.0 -0.5765 -0.9475
5112000000.0 -1.096 -0.0983
5116000000.0 -0.7691 0.7217
5119000000.0 0.06938 1.052
5122000000.0 0.8278 0.6359
5125000000.0 0.9935 -0.2172
5128000000.0 0.4588 -0.9042
5131000000.0 -0.3904 -0.8814
5134000000.0 -0.961 -0.2866
5138000000.0 -0.7842 0.5767
5141000000.0 -0.03268 0.9869
5144000000.0 0.6981 0.6523
5147000000.0 0.9735 -0.1536
5150000000.0 0.4933 -0.7822
5153000000.0 -0.316 -0.8809
5156000000.0 -0.8536 -0.294
5159000000.0 -0.7966 0.4679
5162000000.0 -0.1267 0.9006
5166000000.0 0.61 0.6789
5169000000.0 0.9003 -0.04471
5172000000.0 0.5212 -0.7269
5175000000.0 -0.2084 -0.8696
5178000000.0 -0.8142 -0.4065
5181000000.0 -0.8096 0.386
5184000000.0 -0.1805 0.8934
5188000000.0 0.5879 0.7275
5191000000.0 0.9364 -0.01647
5194000000.0 0.5904 -0.7477
5197000000.0 -0.2273 -0.8752
5200000000.0 -0.836 -0.3826
5203000000.0 -0.8559 0.3781
5206000000.0 -0.194 0.9178
5209000000.0 0.6036 0.7407
5212000000.0 0.9444 -0.01414
5216000000.0 0.6025 -0.7528
5219000000.0 -0.1804 -0.9425
5222000000.0 -0.8894 -0.4469
5225000000.0 -0.9203 0.4063
5228000000.0 -0.2733 0.9758
5231000000.0 0.5539 0.8372
5234000000.0 1.006 0.08358
5238000000.0 0.6934 -0.7566
5241000000.0 -0.133 -1.021
5244000000.0 -0.8841 -0.5921
5247000000.0 -1.001 0.3094
5250000000.0 -0.392 0.9795
5253000000.0 0.4926 0.9508
5256000000.0 1.02 0.2179
5259000000.0 0.8322 -0.6739
5262000000.0 0.008194 -1.092
5266000000.0 -0.8146 -0.6961
5269000000.0 -1.072 0.166
5272000000.0 -0.5653 0.9286
5275000000.0 0.3532 1.025
5278000000.0 1.01 0.3911
5281000000.0 0.9774 -0.514
5284000000.0 0.2404 -1.046
5288000000.0 -0.6713 -0.8475
5291000000.0 -1.102 -0.06995
5294000000.0 -0.7433 0.7804
5297000000.0 0.1107 1.097
5300000000.0 0.9469 0.6206
5303000000.0 1.081 -0.3184
5306000000.0 0.4707 -1.029
5309000000.0 -0.4581 -1.013
5312000000.0 -1.077 -0.3084
5316000000.0 -0.9489 0.6311
5319000000.0 -0.115 1.134
5322000000.0 0.8049 0.8016
5325000000.0 1.125 -0.1164
5328000000.0 0.6476 -0.932
5331000000.0 -0.2897 -1.083
5334000000.0 -1.051 -0.4944
5338000000.0 -1.002 0.49
5341000000.0 -0.2872 1.106
5344000000.0 0.6796 0.8856
5347000000.0 1.142 0.04131
5350000000.0 0.7459 -0.8236
5353000000.0 -0.1431 -1.098
5356000000.0 -0.9228 -0.5566
5359000000.0 -0.994 0.3539
5362000000.0 -0.364 1.008
5366000000.0 0.5341 0.9226
5369000000.0 1.07 0.1532
5372000000.0 0.7539 -0.7237
5375000000.0 -0.1026 -1.029
5378000000.0 -0.8354 -0.5803
5381000000.0 -0.9731 0.3174
5384000000.0 -0.3405 0.9244
5388000000.0 0.5287 0.8137
5391000000.0 0.9716 0.1267
5394000000.0 0.6896 -0.6562
5397000000.0 -0.07959 -0.952
5400000000.0 -0.8179 -0.4715
5403000000.0 -0.8744 0.3074
5406000000.0 -0.2663 0.8356
5409000000.0 0.4751 0.7577
5412000000.0 0.9025 0.1012
5416000000.0 0.6256 -0.6318
5419000000.0 -0.1046 -0.8966
5422000000.0 -0.7178 -0.4733
5425000000.0 -0.8113 0.2721
5428000000.0 -0.2796 0.8455
5431000000.0 0.4709 0.7134
5434000000.0 0.8864 0.08005
5438000000.0 0.6144 -0.6483
5441000000.0 -0.1253 -0.8799
5444000000.0 -0.7426 -0.4668
5447000000.0 -0.8177 0.3052
5450000000.0 -0.2997 0.8371
5453000000.0 0.4508 0.7411
5456000000.0 0.9034 0.114
5459000000.0 0.6259 -0.6336
5462000000.0 -0.07378 -0.8863
5466000000.0 -0.694 -0.5339
5469000000.0 -0.8731 0.2463
5472000000.0 -0.3863 0.8305
5475000000.0 0.3905 0.8614
5478000000.0 0.8953 0.2229
5481000000.0 0.7856 -0.5593
5484000000.0 0.07726 -0.9616
5488000000.0 -0.6817 -0.6914
5491000000.0 -0.9334 0.08017
5494000000.0 -0.5685 0.8017
5497000000.0 0.3053 0.9469
5500000000.0 0.8979 0.4203
5503000000.0 0.8916 -0.4278
5506000000.0 0.2658 -0.966
5509000000.0 -0.5669 -0.8067
5512000000.0 -1.032 -0.04803
5516000000.0 -0.7359 0.7429
5519000000.0 0.1049 1.023
5522000000.0 0.8332 0.5607
5525000000.0 0.9854 -0.307
5528000000.0 0.4488 -0.9138
5531000000.0 -0.4477 -0.9342
5534000000.0 -1.003 -0.3013
5538000000.0 -0.8655 0.5953
5541000000.0 -0.09473 1.034
5544000000.0 0.751 0.7386
5547000000.0 1.047 -0.1045
5550000000.0 0.5761 -0.8787
5553000000.0 -0.2699 -1.029
5556000000.0 -0.9446 -0.4365
5559000000.0 -0.9394 0.4587
5562000000.0 -0.259 1.022
5566000000.0 0.6102 0.8356
5569000000.0 1.035 0.07155
5572000000.0 0.684 -0.7681
5575000000.0 -0.1342 -1.057
5578000000.0 -0.8674 -0.5335
5581000000.0 -0.9173 0.3227
5584000000.0 -0.3712 0.9024
5588000000.0 0.4918 0.8464
5591000000.0 0.9458 0.2011
5594000000.0 0.7271 -0.6246
5597000000.0 -0.01477 -0.915
5600000000.0 -0.7178 -0.5664
5603000000.0 -0.91 0.217
5606000000.0 -0.4392 0.809
5609000000.0 0.337 0.8235
5612000000.0 0.8484 0.2438
5616000000.0 0.6959 -0.4925
5619000000.0 0.05252 -0.8336
5622000000.0 -0.6348 -0.5949
5625000000.0 -0.8272 0.1037
5628000000.0 -0.448 0.7509
5631000000.0 0.279 0.7987
5634000000.0 0.7806 0.2524
5638000000.0 0.7056 -0.4502
5641000000.0 0.08493 -0.8369
5644000000.0 -0.6184 -0.5868
5647000000.0 -0.8628 0.09729
5650000000.0 -0.4093 0.6993
5653000000.0 0.2654 0.7704
5656000000.0 0.7919 0.2891
5659000000.0 0.7187 -0.4616
5662000000.0 0.09295 -0.8528
5666000000.0 -0.6183 -0.5986
5669000000.0 -0.8643 0.08659
5672000000.0 -0.4648 0.7334
5675000000.0 0.286 0.8622
5678000000.0 0.8407 0.3019
5681000000.0 0.7859 -0.4842
5684000000.0 0.1508 -0.8923
5688000000.0 -0.6691 -0.6886
5691000000.0 -0.8996 0.09652
5694000000.0 -0.5091 0.7974
5697000000.0 0.2919 0.9443
5700000000.0 0.9145 0.3441
5703000000.0 0.8399 -0.49
5706000000.0 0.1785 -0.974
5709000000.0 -0.6375 -0.7584
5712000000.0 -1.018 0.005665
5716000000.0 -0.6593 0.8188
5719000000.0 0.2424 0.9987
5722000000.0 0.9281 0.4903
5725000000.0 0.9536 -0.4077
5728000000.0 0.2991 -1.038
5731000000.0 -0.5907 -0.8842
5734000000.0 -1.058 -0.1149
5738000000.0 -0.7624 0.7327
5741000000.0 0.06437 1.089
5744000000.0 0.9005 0.6335
5747000000.0 1.064 -0.2963
5750000000.0 0.4336 -0.9816
5753000000.0 -0.4683 -0.966
5756000000.0 -1.054 -0.3126
5759000000.0 -0.8766 0.5875
5762000000.0 -0.1004 1.102
5766000000.0 0.8139 0.7655
5769000000.0 1.093 -0.1098
5772000000.0 0.6186 -0.9081
5775000000.0 -0.3103 -1.059
5778000000.0 -1.005 -0.4201
5781000000.0 -0.9657 0.4786
5784000000.0 -0.2485 1.065
5788000000.0 0.6676 0.8814
5791000000.0 1.058 0.0716
5794000000.0 0.6965 -0.7742
5797000000.0 -0.1002 -1.047
5800000000.0 -0.88 -0.593
5803000000.0 -0.9949 0.3117
5806000000.0 -0.4267 0.9971
5809000000.0 0.526 0.9261
5812000000.0 1.033 0.1858
5816000000.0 0.8159 -0.6549
5819000000.0 -0.002567 -0.9904
5822000000.0 -0.7841 -0.6399
5825000000.0 -1.002 0.2205
5828000000.0 -0.4551 0.8714
5831000000.0 0.3831 0.9228
5834000000.0 0.9561 0.254
5838000000.0 0.8147 -0.5539
5841000000.0 0.07174 -0.9404
5844000000.0 -0.7269 -0.6592
5847000000.0 -0.9578 0.1005
5850000000.0 -0.471 0.7869
5853000000.0 0.2916 0.9031
5856000000.0 0.8759 0.3353
5859000000.0 0.8061 -0.471
5862000000.0 0.1106 -0.9086
5866000000.0 -0.6344 -0.6178
5869000000.0 -0.8933 0.09641
5872000000.0 -0.5112 0.7654
5875000000.0 0.2884 0.8453
5878000000.0 0.8156 0.285
5881000000.0 0.7641 -0.4259
5884000000.0 0.1163 -0.8483
5888000000.0 -0.5883 -0.6276
5891000000.0 -0.8346 0.07275
5894000000.0 -0.463 0.7022
5897000000.0 0.2596 0.8217
5900000000.0 0.7675 0.3522
5903000000.0 0.7753 -0.4147
5906000000.0 0.1793 -0.8305
5909000000.0 -0.528 -0.6836
5912000000.0 -0.8444 -0.006396
5916000000.0 -0.5512 0.7107
5919000000.0 0.1848 0.8615
5922000000.0 0.774 0.4199
5925000000.0 0.7823 -0.3401
5928000000.0 0.2427 -0.8296
5931000000.0 -0.4689 -0.711
5934000000.0 -0.8756 -0.07413
5938000000.0 -0.6393 0.5908
5941000000.0 0.08183 0.837
5944000000.0 0.6932 0.4839
5947000000.0 0.8312 -0.2467
5950000000.0 0.3879 -0.7958
5953000000.0 -0.4025 -0.8446
5956000000.0 -0.9065 -0.2351
5959000000.0 -0.7386 0.5489
5962000000.0 -0.08447 0.9105
5966000000.0 0.6749 0.6622
5969000000.0 0.9419 -0.09097
5972000000.0 0.5258 -0.7775
5975000000.0 -0.2513 -0.9204
5978000000.0 -0.8703 -0.387
5981000000.0 -0.8823 0.4159
5984000000.0 -0.231 0.9506
5988000000.0 0.5906 0.7933
5991000000.0 0.986 0.06215
5994000000.0 0.6897 -0.7127
5997000000.0 -0.1332 -1.017
6000000000.0 -0.8364 -0.5009
6003000000.0 -0.8919 0.3283
6006000000.0 -0.346 0.886
6009000000.0 0.4943 0.8387
6012000000.0 0.9838 0.183
6016000000.0 0.7388 -0.6502
6019000000.0 0.001778 -0.9966
6022000000.0 -0.781 -0.6044
6025000000.0 -0.9731 0.2008
6028000000.0 -0.4522 0.8526
6031000000.0 0.3772 0.9259
6034000000.0 0.9212 0.2787
6038000000.0 0.7939 -0.5582
6041000000.0 0.0843 -0.9847
6044000000.0 -0.6739 -0.6672
6047000000.0 -0.9648 0.1088
6050000000.0 -0.5001 0.8365
6053000000.0 0.3197 0.9058
6056000000.0 0.8902 0.3184
6059000000.0 0.7856 -0.4562
6062000000.0 0.1421 -0.9101
6066000000.0 -0.6244 -0.6553
6069000000.0 -0.9076 0.05676
6072000000.0 -0.5182 0.7232
6075000000.0 0.2736 0.8396
6078000000.0 0.8018 0.3321
6081000000.0 0.769 -0.422
6084000000.0 0.1573 -0.8556
6088000000.0 -0.5856 -0.6711
6091000000.0 -0.8526 0.03213
6094000000.0 -0.5519 0.6842
6097000000.0 0.1889 0.8172
6100000000.0 0.7539 0.3833
6103000000.0 0.7891 -0.3625
6106000000.0 0.2043 -0.827
6109000000.0 -0.5247 -0.715
6112000000.0 -0.8586 -0.03482
6116000000.0 -0.5653 0.6744
6119000000.0 0.1635 0.8504
6122000000.0 0.7549 0.4086
6125000000.0 0.7729 -0.3413
6128000000.0 0.243 -0.7886
6131000000.0 -0.5169 -0.7084
6134000000.0 -0.8663 -0.06463
6138000000.0 -0.5585 0.6148
6141000000.0 0.1103 0.8418
6144000000.0 0.7286 0.4487
6147000000.0 0.8548 -0.2708
6150000000.0 0.2916 -0.8529
6153000000.0 -0.4506 -0.7638
6156000000.0 -0.8997 -0.1318
6159000000.0 -0.6798 0.6208
6162000000.0 0.02664 0.921
6166000000.0 0.7418 0.5484
6169000000.0 0.8892 -0.2185
6172000000.0 0.4023 -0.8237
6175000000.0 -0.393 -0.8287
6178000000.0 -0.9103 -0.2162
6181000000.0 -0.7344 0.5542
6184000000.0 -0.04793 0.9156
6188000000.0 0.7323 0.6204
6191000000.0 0.9491 -0.1507
6194000000.0 0.4856 -0.7978
6197000000.0 -0.3357 -0.8803
6200000000.0 -0.8925 -0.294
6203000000.0 -0.806 0.5213
6206000000.0 -0.1292 0.9051
6209000000.0 0.652 0.6696
6212000000.0 0.8966 -0.04193
6216000000.0 0.5379 -0.7086
6219000000.0 -0.2302 -0.9005
6222000000.0 -0.8166 -0.3762
6225000000.0 -0.8174 0.3655
6228000000.0 -0.2279 0.8392
6231000000.0 0.478 0.772
6234000000.0 0.8759 0.02969
6238000000.0 0.6419 -0.6602
6241000000.0 -0.1035 -0.8638
6244000000.0 -0.7246 -0.4711
6247000000.0 -0.8055 0.2363
6250000000.0 -0.2969 0.7711
6253000000.0 0.3789 0.7771
6256000000.0 0.8245 0.2055
6259000000.0 0.6488 -0.4717
6262000000.0 0.02929 -0.8183
