! Created with skrf 1.8.0 (http://scikit-rf.org).
# Hz S RI R 50.0 
!freq ReS11 ImS11
4000000000.0 -0.201 -1.467
4003000000.0 -1.305 -0.7693
4006000000.0 -1.435 0.5017
4009000000.0 -0.4997 1.454
4012000000.0 0.844 1.291
4016000000.0 1.533 0.2056
4019000000.0 1.1 -1.129
4022000000.0 -0.1662 -1.502
4025000000.0 -1.325 -0.8695
4028000000.0 -1.494 0.4787
4031000000.0 -0.5638 1.526
4034000000.0 0.848 1.444
4038000000.0 1.628 0.2024
4041000000.0 1.155 -1.108
4044000000.0 -0.1219 -1.579
4047000000.0 -1.344 -0.8939
4050000000.0 -1.566 0.493
4053000000.0 -0.6102 1.529
4056000000.0 0.79 1.425
4059000000.0 1.618 0.2645
4062000000.0 1.26 -1.023
4066000000.0 0.02508 -1.63
4069000000.0 -1.239 -1.009
4072000000.0 -1.608 0.302
4075000000.0 -0.8003 1.438
4078000000.0 0.5562 1.518
4081000000.0 1.569 0.482
4084000000.0 1.426 -0.8941
4088000000.0 0.2244 -1.6
4091000000.0 -1.158 -1.217
4094000000.0 -1.639 0.1262
4097000000.0 -0.9626 1.33
4100000000.0 0.3838 1.555
4103000000.0 1.465 0.6813
4106000000.0 1.44 -0.6423
4109000000.0 0.4323 -1.544
4112000000.0 -0.8624 -1.304
4116000000.0 -1.525 -0.177
4119000000.0 -1.105 1.017
4122000000.0 0.008138 1.513
4125000000.0 1.15 0.9263
4128000000.0 1.481 -0.2722
4131000000.0 0.7536 -1.268
4134000000.0 -0.4603 -1.416
4138000000.0 -1.399 -0.5466
4141000000.0 -1.333 0.6927
4144000000.0 -0.3521 1.48
4147000000.0 0.8692 1.234
4150000000.0 1.525 0.1246
4153000000.0 1.052 -1.097
4156000000.0 -0.1436 -1.538
4159000000.0 -1.292 -0.8632
4162000000.0 -1.461 0.4004
4166000000.0 -0.6267 1.375
4169000000.0 0.6423 1.356
4172000000.0 1.479 0.3648
4175000000.0 1.218 -0.8506
4178000000.0 0.1123 -1.489
4181000000.0 -1.071 -1.066
4184000000.0 -1.536 0.1437
4188000000.0 -0.8722 1.259
4191000000.0 0.4245 1.474
4194000000.0 1.417 0.6451
4197000000.0 1.398 -0.711
4200000000.0 0.3521 -1.545
4203000000.0 -0.9766 -1.252
4206000000.0 -1.615 0.03173
4209000000.0 -1.027 1.287
4212000000.0 0.412 1.605
4216000000.0 1.538 0.6405
4219000000.0 1.48 -0.8065
4222000000.0 0.2282 -1.696
4225000000.0 -1.193 -1.231
4228000000.0 -1.652 0.1705
4231000000.0 -0.8865 1.422
4234000000.0 0.6094 1.555
4238000000.0 1.575 0.4496
4241000000.0 1.317 -0.9672
4244000000.0 0.009334 -1.586
4247000000.0 -1.243 -1.018
4250000000.0 -1.495 0.4005
4253000000.0 -0.628 1.442
4256000000.0 0.7404 1.377
4259000000.0 1.518 0.216
4262000000.0 1.12 -1.01
4266000000.0 -0.1286 -1.485
4269000000.0 -1.254 -0.8065
4272000000.0 -1.369 0.4959
4275000000.0 -0.4409 1.39
4278000000.0 0.8022 1.21
4281000000.0 1.418 0.1339
4284000000.0 0.9834 -1.051
4288000000.0 -0.2239 -1.398
4291000000.0 -1.193 -0.708
4294000000.0 -1.266 0.4899
4297000000.0 -0.4456 1.257
4300000000.0 0.7047 1.15
4303000000.0 1.331 0.1945
4306000000.0 0.9685 -0.8497
4309000000.0 -0.03397 -1.287
4312000000.0 -1.008 -0.8276
4316000000.0 -1.272 0.2208
4319000000.0 -0.6306 1.152
4322000000.0 0.4607 1.223
4325000000.0 1.225 0.4428
4328000000.0 1.145 -0.6653
4331000000.0 0.2065 -1.349
4334000000.0 -0.9117 -1.036
4338000000.0 -1.406 -0.02288
4341000000.0 -0.8829 1.085
4344000000.0 0.2495 1.382
4347000000.0 1.279 0.6945
4350000000.0 1.362 -0.5228
4353000000.0 0.4382 -1.387
4356000000.0 -0.7281 -1.236
4359000000.0 -1.43 -0.2006
4362000000.0 -1.068 1.002
4366000000.0 0.09312 1.466
4369000000.0 1.198 0.8861
4372000000.0 1.429 -0.3522
4375000000.0 0.6389 -1.358
4378000000.0 -0.6144 -1.356
4381000000.0 -1.472 -0.4106
4384000000.0 -1.247 0.8913
4388000000.0 -0.1217 1.531
4391000000.0 1.144 1.044
4394000000.0 1.549 -0.2195
4397000000.0 0.7837 -1.366
4400000000.0 -0.5831 -1.477
4403000000.0 -1.521 -0.4858
4406000000.0 -1.28 0.895
4409000000.0 -0.1153 1.561
4412000000.0 1.151 1.06
4416000000.0 1.531 -0.2854
4419000000.0 0.7387 -1.395
4422000000.0 -0.6267 -1.366
4425000000.0 -1.441 -0.362
4428000000.0 -1.143 0.9135
4431000000.0 0.01405 1.426
4434000000.0 1.098 0.8822
4438000000.0 1.367 -0.3454
4441000000.0 0.5508 -1.266
4444000000.0 -0.659 -1.192
4447000000.0 -1.336 -0.2159
4450000000.0 -0.9505 0.9214
4453000000.0 0.125 1.289
4456000000.0 1.094 0.6956
4459000000.0 1.201 -0.4469
4462000000.0 0.3906 -1.206
4466000000.0 -0.7334 -1.017
4469000000.0 -1.204 -0.06506
4472000000.0 -0.8239 0.8864
4475000000.0 0.2272 1.16
4478000000.0 1.067 0.5558
4481000000.0 1.041 -0.4942
4484000000.0 0.2849 -1.167
4488000000.0 -0.7208 -0.8913
4491000000.0 -1.149 0.001657
4494000000.0 -0.707 0.8946
4497000000.0 0.2666 1.102
4500000000.0 1.057 0.4975
4503000000.0 1.018 -0.4479
4506000000.0 0.2365 -1.075
4509000000.0 -0.6846 -0.9017
4512000000.0 -1.132 -0.05137
4516000000.0 -0.7355 0.8629
4519000000.0 0.2032 1.133
4522000000.0 0.984 0.5807
4525000000.0 1.072 -0.4321
4528000000.0 0.3728 -1.081
4531000000.0 -0.6256 -0.9981
4534000000.0 -1.178 -0.143
4538000000.0 -0.8403 0.8282
4541000000.0 0.122 1.191
4544000000.0 0.9412 0.6851
4547000000.0 1.179 -0.2952
4550000000.0 0.5219 -1.093
4553000000.0 -0.5113 -1.103
4556000000.0 -1.186 -0.3042
4559000000.0 -0.996 0.7076
4562000000.0 -0.1275 1.262
4566000000.0 0.903 0.9144
4569000000.0 1.246 -0.1104
4572000000.0 0.7145 -1.072
4575000000.0 -0.3281 -1.237
4578000000.0 -1.204 -0.5363
4581000000.0 -1.181 0.5641
4584000000.0 -0.3337 1.317
4588000000.0 0.7993 1.069
4591000000.0 1.371 0.08962
4594000000.0 0.9029 -1.003
4597000000.0 -0.1851 -1.354
4600000000.0 -1.177 -0.7478
4603000000.0 -1.321 0.4427
4606000000.0 -0.4702 1.363
4609000000.0 0.6697 1.21
4612000000.0 1.412 0.2107
4616000000.0 1.042 -0.925
4619000000.0 -0.03138 -1.39
4622000000.0 -1.134 -0.8421
4625000000.0 -1.362 0.3344
4628000000.0 -0.5899 1.261
4631000000.0 0.5965 1.223
4634000000.0 1.332 0.3092
4638000000.0 1.065 -0.8434
4641000000.0 -0.01326 -1.362
4644000000.0 -1.015 -0.866
4647000000.0 -1.313 0.312
4650000000.0 -0.5918 1.168
4653000000.0 0.5954 1.187
4656000000.0 1.277 0.2516
4659000000.0 0.9623 -0.8133
4662000000.0 0.0003276 -1.271
4666000000.0 -1.005 -0.7844
4669000000.0 -1.181 0.3003
4672000000.0 -0.5155 1.1
4675000000.0 0.5306 1.087
4678000000.0 1.134 0.2531
4681000000.0 0.8744 -0.7069
4684000000.0 -0.01644 -1.116
4688000000.0 -0.8864 -0.664
4691000000.0 -1.106 0.2636
4694000000.0 -0.4328 1.013
4697000000.0 0.5034 0.972
4700000000.0 1.076 0.1891
4703000000.0 0.8232 -0.7329
4706000000.0 -0.05539 -1.071
4709000000.0 -0.8844 -0.6287
4712000000.0 -1.024 0.2475
4716000000.0 -0.4263 1.016
4719000000.0 0.4632 0.9466
4722000000.0 1.043 0.1932
4725000000.0 0.817 -0.7033
4728000000.0 -0.02693 -1.033
4731000000.0 -0.8268 -0.665
4734000000.0 -1.035 0.2421
4738000000.0 -0.5023 0.9475
4741000000.0 0.423 0.9795
4744000000.0 1.024 0.2886
4747000000.0 0.8863 -0.6034
4750000000.0 0.0954 -1.093
4753000000.0 -0.766 -0.7949
4756000000.0 -1.091 0.1123
4759000000.0 -0.6665 0.9128
4762000000.0 0.2992 1.094
4766000000.0 1.054 0.4747
4769000000.0 1.04 -0.5035
4772000000.0 0.2787 -1.129
4775000000.0 -0.7171 -0.9357
4778000000.0 -1.184 -0.08319
4781000000.0 -0.8476 0.8697
4784000000.0 0.09587 1.179
4788000000.0 0.9776 0.6853
4791000000.0 1.201 -0.3205
4794000000.0 0.4972 -1.121
4797000000.0 -0.5284 -1.122
4800000000.0 -1.221 -0.3388
4803000000.0 -1.019 0.7181
4806000000.0 -0.1016 1.269
4809000000.0 0.9114 0.9143
4812000000.0 1.329 -0.1029
4816000000.0 0.7767 -1.093
4819000000.0 -0.3456 -1.27
4822000000.0 -1.249 -0.5722
4825000000.0 -1.209 0.5923
4828000000.0 -0.3414 1.318
4831000000.0 0.8342 1.1
4834000000.0 1.4 0.05509
4838000000.0 0.9392 -1.05
4841000000.0 -0.1898 -1.383
4844000000.0 -1.2 -0.7252
4847000000.0 -1.322 0.4978
4850000000.0 -0.4532 1.333
4853000000.0 0.7181 1.167
4856000000.0 1.379 0.2178
4859000000.0 1.03 -0.9454
4862000000.0 -0.09759 -1.329
4866000000.0 -1.096 -0.7858
4869000000.0 -1.267 0.3769
4872000000.0 -0.5143 1.213
4875000000.0 0.6191 1.148
4878000000.0 1.257 0.2634
4881000000.0 0.9473 -0.8157
4884000000.0 -0.01151 -1.25
4888000000.0 -0.975 -0.7406
4891000000.0 -1.193 0.3072
4894000000.0 -0.491 1.056
4897000000.0 0.525 1.024
4900000000.0 1.103 0.2555
4903000000.0 0.8822 -0.6629
4906000000.0 0.01989 -1.092
4909000000.0 -0.7934 -0.6927
4912000000.0 -1.053 0.1994
4916000000.0 -0.4771 0.9022
4919000000.0 0.3674 0.9545
4922000000.0 0.9435 0.2968
4925000000.0 0.7981 -0.5425
4928000000.0 0.09164 -0.9424
4931000000.0 -0.6664 -0.7031
4934000000.0 -0.9394 0.07863
4938000000.0 -0.51 0.8094
4941000000.0 0.268 0.9203
4944000000.0 0.8909 0.3704
4947000000.0 0.8277 -0.4452
4950000000.0 0.1889 -0.9372
4953000000.0 -0.6123 -0.7259
4956000000.0 -0.9652 -0.0004296
4959000000.0 -0.606 0.7779
4962000000.0 0.242 0.9746
4966000000.0 0.8587 0.4593
4969000000.0 0.9388 -0.4175
4972000000.0 0.2799 -0.9734
4975000000.0 -0.5781 -0.8512
4978000000.0 -1.027 -0.07507
4981000000.0 -0.7134 0.7627
4984000000.0 0.1455 1.04
4988000000.0 0.8695 0.5675
4991000000.0 1.007 -0.3193
4994000000.0 0.4282 -1.039
4997000000.0 -0.5381 -0.9652
5000000000.0 -1.108 -0.2386
5003000000.0 -0.9052 0.706
5006000000.0 -0.008095 1.166
5009000000.0 0.8865 0.8003
5012000000.0 1.183 -0.2217
5016000000.0 0.6168 -1.079
5019000000.0 -0.4231 -1.187
5022000000.0 -1.204 -0.3981
5025000000.0 -1.072 0.6704
5028000000.0 -0.1526 1.265
5031000000.0 0.8927 0.9537
5034000000.0 1.307 -0.05742
5038000000.0 0.7683 -1.058
5041000000.0 -0.317 -1.292
5044000000.0 -1.151 -0.5921
5047000000.0 -1.206 0.5582
5050000000.0 -0.3693 1.252
5053000000.0 0.7182 1.072
5056000000.0 1.276 0.108
5059000000.0 0.9444 -0.8991
5062000000.0 -0.09206 -1.303
5066000000.0 -1.07 -0.7615
5069000000.0 -1.24 0.2965
5072000000.0 -0.5278 1.157
5075000000.0 0.5386 1.148
5078000000.0 1.225 0.3085
5081000000.0 1.009 -0.7774
5084000000.0 0.082 -1.259
5088000000.0 -0.8714 -0.8197
5091000000.0 -1.197 0.108
5094000000.0 -0.6528 0.9886
5097000000.0 0.355 1.135
5100000000.0 1.034 0.4412
5103000000.0 1.039 -0.4871
5106000000.0 0.2604 -1.084
5109000000.0 -0.6437 -0.881
5112000000.0 -1.051 -0.02271
5116000000.0 -0.7556 0.7738
5119000000.0 0.1436 1.058
5122000000.0 0.8768 0.5858
5125000000.0 1.014 -0.2968
5128000000.0 0.3982 -0.9746
5131000000.0 -0.4797 -0.8962
5134000000.0 -1.002 -0.2139
5138000000.0 -0.7767 0.6299
5141000000.0 -0.009963 0.9808
5144000000.0 0.749 0.6261
5147000000.0 0.9261 -0.1995
5150000000.0 0.4376 -0.8557
5153000000.0 -0.3366 -0.8475
5156000000.0 -0.8865 -0.2508
5159000000.0 -0.7683 0.5332
5162000000.0 -0.07315 0.8783
5166000000.0 0.6622 0.6326
5169000000.0 0.8923 -0.09997
5172000000.0 0.4907 -0.7823
5175000000.0 -0.2785 -0.8786
5178000000.0 -0.8321 -0.2966
5181000000.0 -0.7715 0.474
5184000000.0 -0.1131 0.8744
5188000000.0 0.6206 0.6588
5191000000.0 0.9134 -0.1161
5194000000.0 0.506 -0.7633
5197000000.0 -0.2898 -0.9044
5200000000.0 -0.9004 -0.3278
5203000000.0 -0.8128 0.4797
5206000000.0 -0.1415 0.9591
5209000000.0 0.6689 0.6787
5212000000.0 0.9335 -0.06883
5216000000.0 0.5801 -0.7877
5219000000.0 -0.2837 -0.9618
5222000000.0 -0.8873 -0.3855
5225000000.0 -0.8819 0.4434
5228000000.0 -0.1828 0.9937
5231000000.0 0.6393 0.7868
5234000000.0 1.036 0.004571
5238000000.0 0.6742 -0.8258
5241000000.0 -0.1912 -1.008
5244000000.0 -0.9147 -0.517
5247000000.0 -0.9934 0.4061
5250000000.0 -0.3214 1.03
5253000000.0 0.5659 0.9131
5256000000.0 1.067 0.1316
5259000000.0 0.7939 -0.7098
5262000000.0 -0.0405 -1.104
5266000000.0 -0.8826 -0.6688
5269000000.0 -1.077 0.2436
5272000000.0 -0.5097 0.9708
5275000000.0 0.4229 1.016
5278000000.0 1.051 0.3379
5281000000.0 0.9447 -0.5958
5284000000.0 0.1699 -1.11
5288000000.0 -0.7299 -0.8214
5291000000.0 -1.109 0.004202
5294000000.0 -0.7133 0.8585
5297000000.0 0.1632 1.114
5300000000.0 0.9977 0.5871
5303000000.0 1.074 -0.3733
5306000000.0 0.3841 -1.037
5309000000.0 -0.5678 -1.01
5312000000.0 -1.12 -0.209
5316000000.0 -0.905 0.7287
5319000000.0 -0.0161 1.147
5322000000.0 0.8816 0.7664
5325000000.0 1.146 -0.1974
5328000000.0 0.5709 -0.9703
5331000000.0 -0.3836 -1.063
5334000000.0 -1.088 -0.387
5338000000.0 -0.973 0.5323
5341000000.0 -0.2047 1.13
5344000000.0 0.7352 0.8584
5347000000.0 1.112 -0.007327
5350000000.0 0.6594 -0.8853
5353000000.0 -0.2401 -1.068
5356000000.0 -0.9838 -0.4586
5359000000.0 -0.9665 0.4334
5362000000.0 -0.2373 1.054
5366000000.0 0.6372 0.8604
5369000000.0 1.082 0.008824
5372000000.0 0.6773 -0.7675
5375000000.0 -0.2234 -1.013
5378000000.0 -0.8951 -0.4778
5381000000.0 -0.883 0.4221
5384000000.0 -0.2522 0.9898
5388000000.0 0.5834 0.7582
5391000000.0 0.9457 0.004584
5394000000.0 0.6163 -0.7164
5397000000.0 -0.2195 -0.909
5400000000.0 -0.824 -0.4041
5403000000.0 -0.8238 0.3968
5406000000.0 -0.1879 0.8792
5409000000.0 0.5325 0.6918
5412000000.0 0.8909 -0.006907
5416000000.0 0.5431 -0.6777
5419000000.0 -0.191 -0.8537
5422000000.0 -0.7772 -0.3802
5425000000.0 -0.7717 0.3782
5428000000.0 -0.2155 0.842
5431000000.0 0.5676 0.687
5434000000.0 0.8758 -0.002198
5438000000.0 0.5276 -0.7055
5441000000.0 -0.237 -0.8345
5444000000.0 -0.7747 -0.389
5447000000.0 -0.7614 0.4167
5450000000.0 -0.2005 0.8456
5453000000.0 0.5857 0.7034
5456000000.0 0.8925 0.03487
5459000000.0 0.5949 -0.6704
5462000000.0 -0.1589 -0.9048
5466000000.0 -0.7784 -0.4635
5469000000.0 -0.8811 0.3467
5472000000.0 -0.3127 0.8607
5475000000.0 0.4593 0.8335
5478000000.0 0.9478 0.1337
5481000000.0 0.7065 -0.6221
5484000000.0 0.0008398 -0.9856
5488000000.0 -0.7406 -0.6344
5491000000.0 -0.9647 0.2006
5494000000.0 -0.4806 0.8422
5497000000.0 0.3357 0.9264
5500000000.0 0.9536 0.3392
5503000000.0 0.8365 -0.5526
5506000000.0 0.1581 -1.013
5509000000.0 -0.6906 -0.7807
5512000000.0 -1.031 0.005176
5516000000.0 -0.633 0.7945
5519000000.0 0.185 1.021
5522000000.0 0.932 0.5447
5525000000.0 0.9808 -0.3601
5528000000.0 0.3488 -0.9911
5531000000.0 -0.5186 -0.9269
5534000000.0 -1.032 -0.1645
5538000000.0 -0.8069 0.697
5541000000.0 -0.03083 1.07
5544000000.0 0.8094 0.696
5547000000.0 1.063 -0.1598
5550000000.0 0.5174 -0.9313
5553000000.0 -0.3874 -1.022
5556000000.0 -1.019 -0.3537
5559000000.0 -0.8846 0.5549
5562000000.0 -0.1578 0.9866
5566000000.0 0.6736 0.7825
5569000000.0 1.04 -0.06104
5572000000.0 0.5828 -0.8263
5575000000.0 -0.2248 -0.9781
5578000000.0 -0.9008 -0.4376
5581000000.0 -0.8708 0.4186
5584000000.0 -0.2279 0.9451
5588000000.0 0.5654 0.7819
5591000000.0 0.9667 0.0598
5594000000.0 0.6399 -0.6943
5597000000.0 -0.1255 -0.9201
5600000000.0 -0.7834 -0.4904
5603000000.0 -0.8512 0.2697
5606000000.0 -0.3027 0.8443
5609000000.0 0.4253 0.7593
5612000000.0 0.8623 0.1109
5616000000.0 0.6145 -0.572
5619000000.0 -0.03031 -0.8668
5622000000.0 -0.6874 -0.4607
5625000000.0 -0.8377 0.2297
5628000000.0 -0.3335 0.7732
5631000000.0 0.4052 0.7661
5634000000.0 0.8228 0.151
5638000000.0 0.6383 -0.552
5641000000.0 -0.004729 -0.8118
5644000000.0 -0.6788 -0.5086
5647000000.0 -0.8077 0.2137
5650000000.0 -0.3551 0.7479
5653000000.0 0.3959 0.7826
5656000000.0 0.8367 0.1656
5659000000.0 0.6687 -0.5318
5662000000.0 -0.01658 -0.861
5666000000.0 -0.6954 -0.5243
5669000000.0 -0.8586 0.2188
5672000000.0 -0.3869 0.8228
5675000000.0 0.4438 0.8108
5678000000.0 0.8953 0.2062
5681000000.0 0.7478 -0.5724
5684000000.0 0.006443 -0.9538
5688000000.0 -0.7583 -0.6196
5691000000.0 -0.9507 0.1923
5694000000.0 -0.4305 0.8862
5697000000.0 0.379 0.9011
5700000000.0 0.9763 0.2884
5703000000.0 0.8106 -0.593
5706000000.0 0.07945 -1.038
5709000000.0 -0.7666 -0.7037
5712000000.0 -1.052 0.1317
5716000000.0 -0.5417 0.8919
5719000000.0 0.3919 0.997
5722000000.0 1.002 0.3864
5725000000.0 0.9543 -0.5226
5728000000.0 0.2032 -1.053
5731000000.0 -0.6812 -0.8356
5734000000.0 -1.076 0.04211
5738000000.0 -0.6913 0.8275
5741000000.0 0.1902 1.088
5744000000.0 1.003 0.5442
5747000000.0 1.043 -0.3912
5750000000.0 0.3404 -1.06
5753000000.0 -0.5526 -0.9334
5756000000.0 -1.101 -0.1374
5759000000.0 -0.8443 0.7266
5762000000.0 0.01855 1.085
5766000000.0 0.8877 0.6864
5769000000.0 1.058 -0.2477
5772000000.0 0.4997 -0.9966
5775000000.0 -0.4451 -1.024
5778000000.0 -1.042 -0.3354
5781000000.0 -0.9101 0.6078
5784000000.0 -0.107 1.078
5788000000.0 0.7273 0.7882
5791000000.0 1.094 -0.08079
5794000000.0 0.6449 -0.8657
5797000000.0 -0.2778 -1.032
5800000000.0 -0.9858 -0.4726
5803000000.0 -0.9648 0.4659
5806000000.0 -0.2611 1.009
5809000000.0 0.5926 0.8255
5812000000.0 1.069 0.0607
5816000000.0 0.6633 -0.7527
5819000000.0 -0.1608 -1.024
5822000000.0 -0.881 -0.5351
5825000000.0 -0.964 0.343
5828000000.0 -0.3341 0.9497
5831000000.0 0.4941 0.8386
5834000000.0 0.9635 0.1284
5838000000.0 0.7138 -0.6944
5841000000.0 -0.07713 -0.9685
5844000000.0 -0.7787 -0.5969
5847000000.0 -0.9116 0.2921
5850000000.0 -0.3569 0.8614
5853000000.0 0.4442 0.8398
5856000000.0 0.898 0.1627
5859000000.0 0.7306 -0.6168
5862000000.0 -0.05576 -0.9545
5866000000.0 -0.7186 -0.535
5869000000.0 -0.8702 0.2225
5872000000.0 -0.3522 0.8489
5875000000.0 0.4151 0.8133
5878000000.0 0.8845 0.1844
5881000000.0 0.6518 -0.563
5884000000.0 -0.03487 -0.8429
5888000000.0 -0.6994 -0.5267
5891000000.0 -0.8236 0.1918
5894000000.0 -0.3891 0.7921
5897000000.0 0.4063 0.7904
5900000000.0 0.8276 0.2025
5903000000.0 0.69 -0.5217
5906000000.0 0.04071 -0.8787
5909000000.0 -0.666 -0.5691
5912000000.0 -0.8946 0.1652
5916000000.0 -0.4428 0.735
5919000000.0 0.2965 0.7969
5922000000.0 0.8535 0.2934
5925000000.0 0.7306 -0.4657
5928000000.0 0.1245 -0.8744
5931000000.0 -0.6074 -0.6503
5934000000.0 -0.8982 0.02938
5938000000.0 -0.5022 0.7304
5941000000.0 0.2212 0.8933
5944000000.0 0.827 0.4128
5947000000.0 0.8232 -0.3508
5950000000.0 0.268 -0.8851
5953000000.0 -0.5084 -0.8019
5956000000.0 -0.9261 -0.08273
5959000000.0 -0.6652 0.682
5962000000.0 0.07335 0.9389
5966000000.0 0.7674 0.5763
5969000000.0 0.9116 -0.2181
5972000000.0 0.4216 -0.878
5975000000.0 -0.4192 -0.8917
5978000000.0 -0.9733 -0.2351
5981000000.0 -0.8062 0.599
5984000000.0 -0.09607 0.9785
5988000000.0 0.7097 0.7056
5991000000.0 0.9888 -0.07926
5994000000.0 0.5689 -0.8236
5997000000.0 -0.2531 -0.9935
6000000000.0 -0.9441 -0.4099
6003000000.0 -0.8721 0.4613
6006000000.0 -0.2106 0.96
6009000000.0 0.6347 0.788
6012000000.0 1.011 0.001345
6016000000.0 0.6335 -0.7623
6019000000.0 -0.179 -0.9824
6022000000.0 -0.8502 -0.4809
6025000000.0 -0.9407 0.3529
6028000000.0 -0.2866 0.9548
6031000000.0 0.5665 0.7947
6034000000.0 0.9696 0.09624
6038000000.0 0.6814 -0.6945
6041000000.0 -0.1044 -0.9579
6044000000.0 -0.7906 -0.5303
6047000000.0 -0.9008 0.2871
6050000000.0 -0.326 0.8922
6053000000.0 0.4539 0.8143
6056000000.0 0.9058 0.1535
6059000000.0 0.7022 -0.607
6062000000.0 -0.04643 -0.9087
6066000000.0 -0.7507 -0.5313
6069000000.0 -0.8763 0.2498
6072000000.0 -0.3393 0.8043
6075000000.0 0.4053 0.7763
6078000000.0 0.8609 0.1868
6081000000.0 0.6452 -0.5579
6084000000.0 -0.01032 -0.8631
6088000000.0 -0.6678 -0.5134
6091000000.0 -0.838 0.1951
6094000000.0 -0.3673 0.7665
6097000000.0 0.3511 0.7895
6100000000.0 0.8213 0.2305
6103000000.0 0.6648 -0.5162
6106000000.0 0.03907 -0.8773
6109000000.0 -0.6467 -0.5828
6112000000.0 -0.8358 0.1339
6116000000.0 -0.4144 0.7544
6119000000.0 0.3503 0.8051
6122000000.0 0.8465 0.2604
6125000000.0 0.7136 -0.5046
6128000000.0 0.0591 -0.9132
6131000000.0 -0.6321 -0.5835
6134000000.0 -0.8616 0.1127
6138000000.0 -0.4759 0.7624
6141000000.0 0.2976 0.825
6144000000.0 0.8293 0.3053
6147000000.0 0.7736 -0.4615
6150000000.0 0.1474 -0.8883
6153000000.0 -0.6047 -0.7111
6156000000.0 -0.9102 0.08101
6159000000.0 -0.593 0.7515
6162000000.0 0.2625 0.8956
6166000000.0 0.8355 0.3897
6169000000.0 0.8433 -0.4323
6172000000.0 0.2056 -0.9324
6175000000.0 -0.5844 -0.7491
6178000000.0 -0.9538 -0.008859
6181000000.0 -0.6255 0.7215
6184000000.0 0.1595 0.9651
6188000000.0 0.8509 0.4673
6191000000.0 0.8532 -0.3633
6194000000.0 0.3123 -0.8989
6197000000.0 -0.4733 -0.817
6200000000.0 -0.96 -0.1306
6203000000.0 -0.7176 0.6677
6206000000.0 0.0396 0.9369
6209000000.0 0.7341 0.5718
6212000000.0 0.8918 -0.2466
6216000000.0 0.409 -0.8288
6219000000.0 -0.3755 -0.8027
6222000000.0 -0.9121 -0.2126
6225000000.0 -0.7485 0.5492
6228000000.0 -0.04207 0.9309
6231000000.0 0.6494 0.642
6234000000.0 0.8887 -0.1213
6238000000.0 0.4457 -0.7383
6241000000.0 -0.2662 -0.8448
6244000000.0 -0.8137 -0.2944
6247000000.0 -0.7682 0.4069
6250000000.0 -0.157 0.8214
6253000000.0 0.534 0.6633
6256000000.0 0.8526 -0.02217
6259000000.0 0.5329 -0.6144
6262000000.0 -0.1212 -0.7989
6266000000.0 -0.7184 -0.4238
