! Created with skrf 1.8.0 (http://scikit-rf.org).
# Hz S RI R 50.0 
!freq ReS11 ImS11
4000000000.0 -1.376 1.07
4003000000.0 0.01953 1.763
4006000000.0 1.435 1.001
4009000000.0 1.604 -0.5779
4012000000.0 0.5608 -1.648
4016000000.0 -1.054 -1.409
4019000000.0 -1.69 -0.0529
4022000000.0 -1.015 1.335
4025000000.0 0.4583 1.636
4028000000.0 1.605 0.6075
4031000000.0 1.381 -0.9218
4034000000.0 0.138 -1.649
4038000000.0 -1.202 -1.024
4041000000.0 -1.55 0.3174
4044000000.0 -0.6482 1.449
4047000000.0 0.706 1.3
4050000000.0 1.473 0.1942
4053000000.0 0.9617 -1.063
4056000000.0 -0.1951 -1.354
4059000000.0 -1.212 -0.6866
4062000000.0 -1.205 0.552
4066000000.0 -0.3099 1.272
4069000000.0 0.8461 1.032
4072000000.0 1.285 -0.07535
4075000000.0 0.7295 -1.081
4078000000.0 -0.4361 -1.216
4081000000.0 -1.261 -0.31
4084000000.0 -0.9972 0.8244
4088000000.0 0.09166 1.282
4091000000.0 1.13 0.71
4094000000.0 1.244 -0.5306
4097000000.0 0.2986 -1.336
4100000000.0 -0.9574 -1.074
4103000000.0 -1.36 0.1819
4106000000.0 -0.6321 1.198
4109000000.0 0.6379 1.239
4112000000.0 1.353 0.1779
4116000000.0 1.003 -1.014
4119000000.0 -0.1837 -1.389
4122000000.0 -1.242 -0.6528
4125000000.0 -1.291 0.6171
4128000000.0 -0.2757 1.419
4131000000.0 0.9056 1.113
4134000000.0 1.47 -0.08164
4138000000.0 0.8383 -1.195
4141000000.0 -0.4559 -1.43
4144000000.0 -1.407 -0.5377
4147000000.0 -1.29 0.7702
4150000000.0 -0.1575 1.517
4153000000.0 1.068 1.105
4156000000.0 1.547 -0.2069
4159000000.0 0.7604 -1.276
4162000000.0 -0.5404 -1.437
4166000000.0 -1.447 -0.5007
4169000000.0 -1.3 0.785
4172000000.0 -0.197 1.481
4175000000.0 0.9861 1.098
4178000000.0 1.467 -0.03454
4181000000.0 0.8818 -1.126
4184000000.0 -0.3076 -1.425
4188000000.0 -1.263 -0.6948
4191000000.0 -1.371 0.5752
4194000000.0 -0.4399 1.389
4197000000.0 0.7507 1.29
4200000000.0 1.455 0.2263
4203000000.0 1.152 -0.9888
4206000000.0 -0.007099 -1.509
4209000000.0 -1.217 -0.976
4212000000.0 -1.533 0.3032
4216000000.0 -0.7819 1.385
4219000000.0 0.5983 1.437
4222000000.0 1.534 0.4287
4225000000.0 1.39 -0.9202
4228000000.0 0.1278 -1.609
4231000000.0 -1.129 -1.128
4234000000.0 -1.625 0.2027
4238000000.0 -0.9012 1.386
4241000000.0 0.4774 1.587
4244000000.0 1.528 0.6033
4247000000.0 1.409 -0.8293
4250000000.0 0.2729 -1.663
4253000000.0 -1.153 -1.27
4256000000.0 -1.709 0.1462
4259000000.0 -0.9929 1.427
4262000000.0 0.4992 1.66
4266000000.0 1.632 0.6084
4269000000.0 1.49 -0.9606
4272000000.0 0.1774 -1.723
4275000000.0 -1.296 -1.201
4278000000.0 -1.751 0.3351
4281000000.0 -0.7749 1.568
4284000000.0 0.7779 1.534
4288000000.0 1.649 0.3028
4291000000.0 1.233 -1.106
4294000000.0 -0.1155 -1.621
4297000000.0 -1.339 -0.876
4300000000.0 -1.488 0.5285
4303000000.0 -0.4644 1.493
4306000000.0 0.7877 1.253
4309000000.0 1.492 0.1014
4312000000.0 0.9942 -1.069
4316000000.0 -0.2307 -1.4
4319000000.0 -1.216 -0.7227
4322000000.0 -1.295 0.5233
4325000000.0 -0.403 1.376
4328000000.0 0.7936 1.142
4331000000.0 1.358 0.1168
4334000000.0 0.9619 -1.033
4338000000.0 -0.2261 -1.368
4341000000.0 -1.19 -0.7026
4344000000.0 -1.26 0.4788
4347000000.0 -0.3952 1.321
4350000000.0 0.7634 1.127
4353000000.0 1.33 0.1637
4356000000.0 0.9574 -0.9712
4359000000.0 -0.09923 -1.348
4362000000.0 -1.129 -0.7436
4366000000.0 -1.298 0.3937
4369000000.0 -0.5431 1.211
4372000000.0 0.5782 1.208
4375000000.0 1.316 0.3079
4378000000.0 1.104 -0.8105
4381000000.0 0.08953 -1.323
4384000000.0 -0.9795 -0.962
4388000000.0 -1.383 0.1382
4391000000.0 -0.7941 1.147
4394000000.0 0.3812 1.372
4397000000.0 1.334 0.5399
4400000000.0 1.318 -0.6542
4403000000.0 0.301 -1.424
4406000000.0 -0.9177 -1.156
4409000000.0 -1.483 -0.02578
4412000000.0 -0.9802 1.103
4416000000.0 0.2326 1.46
4419000000.0 1.314 0.7533
4422000000.0 1.413 -0.5093
4425000000.0 0.5035 -1.448
4428000000.0 -0.7884 -1.327
4431000000.0 -1.501 -0.246
4434000000.0 -1.175 1.011
4438000000.0 0.04485 1.534
4441000000.0 1.257 0.9732
4444000000.0 1.534 -0.3572
4447000000.0 0.6895 -1.414
4450000000.0 -0.699 -1.436
4453000000.0 -1.591 -0.3794
4456000000.0 -1.271 0.9703
4459000000.0 -0.02211 1.586
4462000000.0 1.234 1.021
4466000000.0 1.541 -0.3512
4469000000.0 0.6795 -1.438
4472000000.0 -0.703 -1.438
4475000000.0 -1.526 -0.2963
4478000000.0 -1.182 0.9855
4481000000.0 0.04396 1.502
4484000000.0 1.171 0.8748
4488000000.0 1.405 -0.4245
4491000000.0 0.508 -1.307
4494000000.0 -0.7092 -1.216
4497000000.0 -1.353 -0.2008
4500000000.0 -0.9427 0.9429
4503000000.0 0.1315 1.276
4506000000.0 1.055 0.6616
4509000000.0 1.148 -0.3996
4512000000.0 0.3823 -1.16
4516000000.0 -0.6719 -0.9761
4519000000.0 -1.143 -0.06502
4522000000.0 -0.7632 0.8535
4525000000.0 0.1953 1.106
4528000000.0 1.01 0.4985
4531000000.0 0.9897 -0.5013
4534000000.0 0.2396 -1.064
4538000000.0 -0.6802 -0.8488
4541000000.0 -1.077 0.04867
4544000000.0 -0.6436 0.8372
4547000000.0 0.2938 1.039
4550000000.0 0.9594 0.4102
4553000000.0 0.9058 -0.4898
4556000000.0 0.1919 -1.038
4559000000.0 -0.6984 -0.7921
4562000000.0 -1.057 0.01691
4566000000.0 -0.6403 0.828
4569000000.0 0.2392 1.038
4572000000.0 0.9477 0.4483
4575000000.0 0.9804 -0.4687
4578000000.0 0.2513 -1.059
4581000000.0 -0.6662 -0.8699
4584000000.0 -1.131 -0.03508
4588000000.0 -0.725 0.8707
4591000000.0 0.2127 1.121
4594000000.0 1.004 0.5716
4597000000.0 1.061 -0.4236
4600000000.0 0.3527 -1.114
4603000000.0 -0.6427 -1.003
4606000000.0 -1.192 -0.1357
4609000000.0 -0.8782 0.8333
4612000000.0 0.08819 1.192
4616000000.0 0.9883 0.7152
4619000000.0 1.187 -0.3608
4622000000.0 0.5199 -1.133
4625000000.0 -0.5587 -1.156
4628000000.0 -1.269 -0.3367
4631000000.0 -1.027 0.7712
4634000000.0 -0.03535 1.303
4638000000.0 0.972 0.8689
4641000000.0 1.326 -0.2077
4644000000.0 0.6903 -1.139
4647000000.0 -0.4833 -1.258
4650000000.0 -1.27 -0.4269
4653000000.0 -1.163 0.7278
4656000000.0 -0.1172 1.368
4659000000.0 0.9551 0.9823
4662000000.0 1.324 -0.1746
4666000000.0 0.7187 -1.155
4669000000.0 -0.444 -1.292
4672000000.0 -1.256 -0.4448
4675000000.0 -1.138 0.7039
4678000000.0 -0.1728 1.299
4681000000.0 0.8954 0.8943
4684000000.0 1.25 -0.1157
4688000000.0 0.6928 -1.098
4691000000.0 -0.3832 -1.222
4694000000.0 -1.206 -0.4661
4697000000.0 -1.032 0.6606
4700000000.0 -0.1351 1.253
4703000000.0 0.8736 0.8785
4706000000.0 1.212 -0.1529
4709000000.0 0.5779 -1.054
4712000000.0 -0.4356 -1.071
4716000000.0 -1.116 -0.2797
4719000000.0 -0.9076 0.7197
4722000000.0 0.03193 1.121
4725000000.0 0.8927 0.653
4728000000.0 1.024 -0.2858
4731000000.0 0.3772 -0.9593
4734000000.0 -0.4992 -0.8747
4738000000.0 -0.9487 -0.1572
4741000000.0 -0.7306 0.6797
4744000000.0 0.08978 1.015
4747000000.0 0.7842 0.5438
4750000000.0 0.9221 -0.3297
4753000000.0 0.3634 -0.9324
4756000000.0 -0.5134 -0.8654
4759000000.0 -0.9329 -0.1308
4762000000.0 -0.673 0.6582
4766000000.0 0.07495 0.9443
4769000000.0 0.8134 0.5247
4772000000.0 0.9244 -0.2987
4775000000.0 0.312 -0.9134
4778000000.0 -0.5246 -0.826
4781000000.0 -0.9773 -0.1401
4784000000.0 -0.7316 0.6597
4788000000.0 0.08726 1.005
4791000000.0 0.8346 0.5658
4794000000.0 0.9999 -0.2311
4797000000.0 0.4116 -0.9373
4800000000.0 -0.4748 -0.917
4803000000.0 -0.9778 -0.2528
4806000000.0 -0.8497 0.5933
4809000000.0 -0.09155 1.049
4812000000.0 0.7694 0.75
4816000000.0 1.097 -0.112
4819000000.0 0.6111 -0.9479
4822000000.0 -0.3099 -1.096
4825000000.0 -1.076 -0.443
4828000000.0 -1.049 0.5286
4831000000.0 -0.2351 1.17
4834000000.0 0.758 0.9508
4838000000.0 1.267 0.02088
4841000000.0 0.8207 -0.9618
4844000000.0 -0.2147 -1.243
4847000000.0 -1.096 -0.648
4850000000.0 -1.229 0.4557
4853000000.0 -0.4032 1.223
4856000000.0 0.693 1.121
4859000000.0 1.337 0.1726
4862000000.0 0.9675 -0.9215
4866000000.0 -0.08628 -1.323
4869000000.0 -1.106 -0.7789
4872000000.0 -1.297 0.4031
4875000000.0 -0.5561 1.229
4878000000.0 0.6389 1.22
4881000000.0 1.35 0.2589
4884000000.0 1.042 -0.873
4888000000.0 -0.04313 -1.349
4891000000.0 -1.095 -0.7758
4894000000.0 -1.262 0.3441
4897000000.0 -0.5223 1.212
4900000000.0 0.5762 1.14
4903000000.0 1.222 0.2302
4906000000.0 0.9047 -0.8048
4909000000.0 -0.01419 -1.202
4912000000.0 -0.956 -0.7085
4916000000.0 -1.114 0.2386
4919000000.0 -0.5075 1.01
4922000000.0 0.4777 0.9902
4925000000.0 1.048 0.2273
4928000000.0 0.8334 -0.6692
4931000000.0 0.003602 -1.028
4934000000.0 -0.7653 -0.6693
4938000000.0 -0.9757 0.2026
4941000000.0 -0.482 0.8521
4944000000.0 0.3691 0.8989
4947000000.0 0.9131 0.2813
4950000000.0 0.8029 -0.5504
4953000000.0 0.06984 -0.9507
4956000000.0 -0.7115 -0.6641
4959000000.0 -0.9393 0.1444
4962000000.0 -0.4584 0.8027
4966000000.0 0.3184 0.8968
4969000000.0 0.8857 0.302
4972000000.0 0.7747 -0.5109
4975000000.0 0.09112 -0.9359
4978000000.0 -0.6479 -0.6453
4981000000.0 -0.9031 0.07971
4984000000.0 -0.4999 0.7693
4988000000.0 0.2988 0.8828
4991000000.0 0.8849 0.3441
4994000000.0 0.8553 -0.4493
4997000000.0 0.168 -0.935
5000000000.0 -0.6214 -0.7623
5003000000.0 -0.9941 0.0114
5006000000.0 -0.6261 0.8021
5009000000.0 0.2219 1.037
5012000000.0 0.9465 0.4799
5016000000.0 0.964 -0.4044
5019000000.0 0.2896 -1.039
5022000000.0 -0.6326 -0.8995
5025000000.0 -1.14 -0.08054
5028000000.0 -0.7715 0.8573
5031000000.0 0.1724 1.174
5034000000.0 1.008 0.6232
5038000000.0 1.115 -0.3864
5041000000.0 0.4227 -1.13
5044000000.0 -0.5953 -1.019
5047000000.0 -1.213 -0.2181
5050000000.0 -0.9486 0.783
5053000000.0 -0.01265 1.243
5056000000.0 0.9906 0.794
5059000000.0 1.242 -0.2416
5062000000.0 0.6175 -1.088
5066000000.0 -0.4657 -1.19
5069000000.0 -1.21 -0.3996
5072000000.0 -1.102 0.694
5075000000.0 -0.1654 1.297
5078000000.0 0.9292 0.9277
5081000000.0 1.272 -0.08092
5084000000.0 0.7236 -1.044
5088000000.0 -0.358 -1.234
5091000000.0 -1.164 -0.4917
5094000000.0 -1.081 0.5154
5097000000.0 -0.2815 1.188
5100000000.0 0.7108 0.9456
5103000000.0 1.192 0.06858
5106000000.0 0.8447 -0.8199
5109000000.0 -0.1243 -1.168
5112000000.0 -0.9125 -0.648
5116000000.0 -1.081 0.3021
5119000000.0 -0.4765 1.036
5122000000.0 0.4951 0.9916
5125000000.0 1.043 0.2295
5128000000.0 0.894 -0.6232
5131000000.0 0.06928 -1.067
5134000000.0 -0.7647 -0.7305
5138000000.0 -1.07 0.1261
5141000000.0 -0.5641 0.8547
5144000000.0 0.2986 0.9708
5147000000.0 0.9285 0.3641
5150000000.0 0.869 -0.4596
5153000000.0 0.158 -0.9692
5156000000.0 -0.6198 -0.7473
5159000000.0 -0.9675 -0.01469
5162000000.0 -0.6203 0.7467
5166000000.0 0.1865 0.9314
5169000000.0 0.8158 0.4797
5172000000.0 0.8567 -0.3315
5175000000.0 0.3018 -0.878
5178000000.0 -0.4958 -0.7922
5181000000.0 -0.89 -0.05989
5184000000.0 -0.6583 0.6602
5188000000.0 0.08849 0.9279
5191000000.0 0.7435 0.4814
5194000000.0 0.8502 -0.294
5197000000.0 0.2911 -0.8682
5200000000.0 -0.4582 -0.7797
5203000000.0 -0.9212 -0.1023
5206000000.0 -0.6369 0.6536
5209000000.0 0.1 0.9234
5212000000.0 0.7935 0.494
5216000000.0 0.901 -0.3228
5219000000.0 0.3297 -0.8768
5222000000.0 -0.4959 -0.8231
5225000000.0 -0.9774 -0.108
5228000000.0 -0.6836 0.6763
5231000000.0 0.09762 0.9829
5234000000.0 0.8227 0.5407
5238000000.0 0.9501 -0.2842
5241000000.0 0.3504 -0.9133
5244000000.0 -0.485 -0.8686
5247000000.0 -0.9739 -0.1492
5250000000.0 -0.7706 0.6845
5253000000.0 0.04421 1.032
5256000000.0 0.8124 0.6176
5259000000.0 1.009 -0.2505
5262000000.0 0.4955 -0.92
5266000000.0 -0.4134 -0.942
5269000000.0 -0.9911 -0.2796
5272000000.0 -0.86 0.6044
5275000000.0 -0.1107 1.068
5278000000.0 0.7531 0.7442
5281000000.0 1.053 -0.08848
5284000000.0 0.6052 -0.8542
5288000000.0 -0.239 -1.051
5291000000.0 -0.9288 -0.4972
5294000000.0 -0.9614 0.4459
5297000000.0 -0.3256 1.068
5300000000.0 0.5809 0.9108
5303000000.0 1.09 0.1433
5306000000.0 0.8123 -0.7499
5309000000.0 -0.02228 -1.101
5312000000.0 -0.9007 -0.7033
5316000000.0 -1.104 0.2159
5319000000.0 -0.5274 0.9964
5322000000.0 0.4259 1.024
5325000000.0 1.068 0.3743
5328000000.0 0.9773 -0.5957
5331000000.0 0.1863 -1.143
5334000000.0 -0.7586 -0.8755
5338000000.0 -1.134 0.01072
5341000000.0 -0.7439 0.9108
5344000000.0 0.217 1.137
5347000000.0 1.002 0.5381
5350000000.0 1.046 -0.4251
5353000000.0 0.3751 -1.073
5356000000.0 -0.5863 -0.9554
5359000000.0 -1.131 -0.1523
5362000000.0 -0.8198 0.7536
5366000000.0 0.02371 1.117
5369000000.0 0.9026 0.6675
5372000000.0 1.067 -0.2948
5375000000.0 0.4644 -1.006
5378000000.0 -0.4633 -0.9837
5381000000.0 -1.069 -0.2458
5384000000.0 -0.8385 0.6753
5388000000.0 -0.008655 1.068
5391000000.0 0.7927 0.6751
5394000000.0 0.9855 -0.2288
5397000000.0 0.4218 -0.9344
5400000000.0 -0.418 -0.9028
5403000000.0 -0.9447 -0.2145
5406000000.0 -0.7578 0.5988
5409000000.0 0.008357 0.9712
5412000000.0 0.7161 0.5884
5416000000.0 0.9111 -0.1626
5419000000.0 0.3915 -0.8432
5422000000.0 -0.366 -0.8039
5425000000.0 -0.8847 -0.2158
5428000000.0 -0.722 0.5617
5431000000.0 0.03545 0.9094
5434000000.0 0.7324 0.5301
5438000000.0 0.8279 -0.2505
5441000000.0 0.3483 -0.7947
5444000000.0 -0.4014 -0.796
5447000000.0 -0.874 -0.1683
5450000000.0 -0.6279 0.5805
5453000000.0 0.02356 0.8391
5456000000.0 0.6838 0.4604
5459000000.0 0.7821 -0.2192
5462000000.0 0.3352 -0.7822
5466000000.0 -0.3805 -0.7613
5469000000.0 -0.8175 -0.1908
5472000000.0 -0.665 0.5178
5475000000.0 -0.05288 0.8532
5478000000.0 0.6496 0.5685
5481000000.0 0.8465 -0.1404
5484000000.0 0.4313 -0.7784
5488000000.0 -0.3215 -0.806
5491000000.0 -0.8891 -0.3037
5494000000.0 -0.8025 0.4888
5497000000.0 -0.1439 0.9145
5500000000.0 0.6223 0.6822
5503000000.0 0.9443 -0.009838
5506000000.0 0.5727 -0.782
5509000000.0 -0.2058 -0.8995
5512000000.0 -0.8986 -0.4361
5516000000.0 -0.8874 0.393
5519000000.0 -0.2722 0.913
5522000000.0 0.5488 0.8115
5525000000.0 0.9848 0.1509
5528000000.0 0.728 -0.6983
5531000000.0 -0.04522 -0.9869
5534000000.0 -0.7856 -0.6204
5538000000.0 -0.9848 0.1676
5541000000.0 -0.5342 0.894
5544000000.0 0.359 0.9922
5547000000.0 0.9765 0.3398
5550000000.0 0.9027 -0.5734
5553000000.0 0.1638 -1.041
5556000000.0 -0.6815 -0.759
5559000000.0 -1.041 0.02771
5562000000.0 -0.6852 0.8371
5566000000.0 0.2142 1.033
5569000000.0 0.9268 0.4794
5572000000.0 0.9382 -0.3912
5575000000.0 0.3085 -0.9903
5578000000.0 -0.5474 -0.8628
5581000000.0 -1.015 -0.153
5584000000.0 -0.7798 0.6889
5588000000.0 0.05888 1.01
5591000000.0 0.8208 0.5668
5594000000.0 0.978 -0.2507
5597000000.0 0.4474 -0.8764
5600000000.0 -0.3946 -0.8868
5603000000.0 -0.9339 -0.254
5606000000.0 -0.8048 0.5621
5609000000.0 -0.0778 0.9511
5612000000.0 0.677 0.6478
5616000000.0 0.9102 -0.1317
5619000000.0 0.4892 -0.7869
5622000000.0 -0.3088 -0.8622
5625000000.0 -0.8509 -0.3146
5628000000.0 -0.7519 0.4694
5631000000.0 -0.1351 0.89
5634000000.0 0.5674 0.6835
5638000000.0 0.8769 -0.04687
5641000000.0 0.4796 -0.6979
5644000000.0 -0.2167 -0.8211
5647000000.0 -0.7866 -0.3048
5650000000.0 -0.7514 0.4204
5653000000.0 -0.1672 0.8348
5656000000.0 0.5651 0.6589
5659000000.0 0.8693 -0.03979
5662000000.0 0.5074 -0.6904
5666000000.0 -0.2553 -0.8154
5669000000.0 -0.782 -0.3578
5672000000.0 -0.7587 0.4297
5675000000.0 -0.1345 0.8363
5678000000.0 0.581 0.6493
5681000000.0 0.8707 -0.03301
5684000000.0 0.5145 -0.7351
5688000000.0 -0.2519 -0.859
5691000000.0 -0.855 -0.3339
5694000000.0 -0.7854 0.4629
5697000000.0 -0.1497 0.9097
5700000000.0 0.6261 0.7018
5703000000.0 0.9115 -0.05602
5706000000.0 0.5547 -0.7466
5709000000.0 -0.2595 -0.9126
5712000000.0 -0.8737 -0.3936
5716000000.0 -0.8726 0.4263
5719000000.0 -0.2333 0.9682
5722000000.0 0.5968 0.7661
5725000000.0 0.9802 -0.01628
5728000000.0 0.6458 -0.7777
5731000000.0 -0.1689 -0.9905
5734000000.0 -0.8965 -0.4801
5738000000.0 -0.9613 0.389
5741000000.0 -0.3136 0.9773
5744000000.0 0.5653 0.9044
5747000000.0 1.021 0.08778
5750000000.0 0.7965 -0.744
5753000000.0 -0.06257 -1.072
5756000000.0 -0.8534 -0.649
5759000000.0 -1.052 0.281
5762000000.0 -0.4749 0.9815
5766000000.0 0.4137 0.9963
5769000000.0 1.035 0.2986
5772000000.0 0.8613 -0.6136
5775000000.0 0.1118 -1.091
5778000000.0 -0.7865 -0.7587
5781000000.0 -1.089 0.09235
5784000000.0 -0.6354 0.8343
5788000000.0 0.2817 1.019
5791000000.0 0.9681 0.4543
5794000000.0 0.9185 -0.4602
5797000000.0 0.2668 -1.003
5800000000.0 -0.637 -0.8984
5803000000.0 -1.051 -0.07936
5806000000.0 -0.7442 0.7509
5809000000.0 0.1293 1.087
5812000000.0 0.8996 0.6158
5816000000.0 0.9853 -0.3149
5819000000.0 0.4241 -0.9844
5822000000.0 -0.4927 -0.9193
5825000000.0 -1.021 -0.204
5828000000.0 -0.8102 0.6234
5831000000.0 -0.03148 0.9923
5834000000.0 0.7708 0.6182
5838000000.0 1.021 -0.1895
5841000000.0 0.4947 -0.9141
5844000000.0 -0.3728 -0.9403
5847000000.0 -0.9621 -0.2754
5850000000.0 -0.8116 0.5307
5853000000.0 -0.1021 0.9665
5856000000.0 0.6884 0.6647
5859000000.0 0.9488 -0.1038
5862000000.0 0.5192 -0.7723
5866000000.0 -0.2867 -0.8855
5869000000.0 -0.8852 -0.3232
5872000000.0 -0.7918 0.4706
5875000000.0 -0.1069 0.8934
5878000000.0 0.6391 0.6358
5881000000.0 0.8913 -0.05451
5884000000.0 0.5179 -0.7175
5888000000.0 -0.2312 -0.8283
5891000000.0 -0.8192 -0.3188
5894000000.0 -0.7547 0.4355
5897000000.0 -0.1097 0.8537
5900000000.0 0.5633 0.662
5903000000.0 0.8584 -0.03823
5906000000.0 0.5288 -0.6872
5909000000.0 -0.1948 -0.8066
5912000000.0 -0.7716 -0.3746
5916000000.0 -0.7704 0.3728
5919000000.0 -0.2175 0.8311
5922000000.0 0.533 0.6689
5925000000.0 0.8364 0.0004204
5928000000.0 0.5729 -0.661
5931000000.0 -0.1479 -0.8065
5934000000.0 -0.7581 -0.3967
5938000000.0 -0.787 0.2919
5941000000.0 -0.3157 0.7881
5944000000.0 0.4895 0.7177
5947000000.0 0.8355 0.1199
5950000000.0 0.6157 -0.5987
5953000000.0 -0.03095 -0.8968
5956000000.0 -0.6957 -0.5308
5959000000.0 -0.8767 0.2017
5962000000.0 -0.4193 0.7682
5966000000.0 0.381 0.7971
5969000000.0 0.8621 0.253
5972000000.0 0.7357 -0.4812
5975000000.0 0.114 -0.9193
5978000000.0 -0.6571 -0.6637
5981000000.0 -0.9312 0.08215
5984000000.0 -0.5721 0.7616
5988000000.0 0.2252 0.913
5991000000.0 0.8426 0.3907
5994000000.0 0.9115 -0.3979
5997000000.0 0.2609 -0.8985
6000000000.0 -0.5631 -0.7875
6003000000.0 -0.9526 -0.04706
6006000000.0 -0.6678 0.7149
6009000000.0 0.0838 0.9474
6012000000.0 0.8175 0.535
6016000000.0 0.9433 -0.2658
6019000000.0 0.3715 -0.9106
6022000000.0 -0.4674 -0.8566
6025000000.0 -0.9879 -0.1938
6028000000.0 -0.7654 0.616
6031000000.0 -0.01723 0.9667
6034000000.0 0.7544 0.6283
6038000000.0 0.9582 -0.1956
6041000000.0 0.4621 -0.8462
6044000000.0 -0.3731 -0.9191
6047000000.0 -0.9292 -0.2733
6050000000.0 -0.8342 0.5517
6053000000.0 -0.1077 0.9628
6056000000.0 0.6764 0.6969
6059000000.0 0.9594 -0.08835
6062000000.0 0.5317 -0.8188
6066000000.0 -0.2761 -0.9162
6069000000.0 -0.8825 -0.3524
6072000000.0 -0.812 0.4619
6075000000.0 -0.1448 0.8977
6078000000.0 0.6304 0.6875
6081000000.0 0.9205 -0.04779
6084000000.0 0.5334 -0.7464
6088000000.0 -0.2266 -0.8428
6091000000.0 -0.8009 -0.3851
6094000000.0 -0.7756 0.368
6097000000.0 -0.1643 0.8523
6100000000.0 0.5506 0.6962
6103000000.0 0.8463 0.007647
6106000000.0 0.5295 -0.6894
6109000000.0 -0.1817 -0.8324
6112000000.0 -0.7569 -0.3804
6116000000.0 -0.7854 0.3586
6119000000.0 -0.2166 0.8031
6122000000.0 0.525 0.6774
6125000000.0 0.8265 0.02186
6128000000.0 0.5592 -0.6434
6131000000.0 -0.1345 -0.819
6134000000.0 -0.7507 -0.4107
6138000000.0 -0.7902 0.3374
6141000000.0 -0.2635 0.803
6144000000.0 0.4642 0.6983
6147000000.0 0.8374 0.06777
6150000000.0 0.6121 -0.6068
6153000000.0 -0.1045 -0.8397
6156000000.0 -0.7547 -0.425
6159000000.0 -0.8101 0.2806
6162000000.0 -0.3062 0.7826
6166000000.0 0.4401 0.7483
6169000000.0 0.8814 0.1594
6172000000.0 0.679 -0.5704
6175000000.0 -0.05246 -0.8903
6178000000.0 -0.7073 -0.4956
6181000000.0 -0.905 0.2398
6184000000.0 -0.3907 0.7848
6188000000.0 0.3884 0.8255
6191000000.0 0.8757 0.2166
6194000000.0 0.7422 -0.538
6197000000.0 0.006342 -0.92
6200000000.0 -0.6882 -0.6323
6203000000.0 -0.88 0.1359
6206000000.0 -0.4708 0.7798
6209000000.0 0.3147 0.8229
6212000000.0 0.8661 0.2463
6216000000.0 0.7256 -0.4824
6219000000.0 0.1209 -0.8683
6222000000.0 -0.6253 -0.6474
6225000000.0 -0.908 0.03287
6228000000.0 -0.5449 0.7022
6231000000.0 0.207 0.8633
6234000000.0 0.7797 0.3813
6238000000.0 0.7861 -0.4096
6241000000.0 0.2144 -0.8435
6244000000.0 -0.5234 -0.6955
6247000000.0 -0.8343 -0.04811
6250000000.0 -0.602 0.6086
6253000000.0 0.1108 0.8096
6256000000.0 0.7049 0.4554
6259000000.0 0.781 -0.2308
6262000000.0 0.3352 -0.7228
