! Created with skrf 1.8.0 (http://scikit-rf.org).
# Hz S RI R 50.0 
!freq ReS11 ImS11
4000000000.0 -0.1573 -1.502
4003000000.0 -1.221 -0.8247
4006000000.0 -1.4 0.4533
4009000000.0 -0.5328 1.406
4012000000.0 0.7822 1.326
4016000000.0 1.535 0.2696
4019000000.0 1.182 -1.056
4022000000.0 -0.08795 -1.59
4025000000.0 -1.271 -0.8506
4028000000.0 -1.544 0.4602
4031000000.0 -0.6184 1.457
4034000000.0 0.7804 1.389
4038000000.0 1.605 0.2315
4041000000.0 1.225 -1.109
4044000000.0 -0.1098 -1.619
4047000000.0 -1.359 -0.9139
4050000000.0 -1.567 0.4459
4053000000.0 -0.5866 1.487
4056000000.0 0.7433 1.418
4059000000.0 1.59 0.3449
4062000000.0 1.226 -0.993
4066000000.0 0.0283 -1.652
4069000000.0 -1.202 -1.036
4072000000.0 -1.614 0.2482
4075000000.0 -0.858 1.37
4078000000.0 0.569 1.504
4081000000.0 1.56 0.5738
4084000000.0 1.42 -0.8365
4088000000.0 0.2414 -1.63
4091000000.0 -1.084 -1.215
4094000000.0 -1.632 0.03357
4097000000.0 -0.9825 1.319
4100000000.0 0.3573 1.581
4103000000.0 1.426 0.6952
4106000000.0 1.457 -0.6319
4109000000.0 0.4646 -1.458
4112000000.0 -0.8095 -1.274
4116000000.0 -1.491 -0.2204
4119000000.0 -1.12 0.9833
4122000000.0 -0.006903 1.497
4125000000.0 1.135 0.9422
4128000000.0 1.473 -0.2405
4131000000.0 0.7905 -1.237
4134000000.0 -0.4188 -1.405
4138000000.0 -1.338 -0.6129
4141000000.0 -1.331 0.6201
4144000000.0 -0.3771 1.446
4147000000.0 0.8278 1.207
4150000000.0 1.473 0.156
4153000000.0 1.087 -1.013
4156000000.0 -0.1198 -1.512
4159000000.0 -1.227 -0.8915
4162000000.0 -1.447 0.3741
4166000000.0 -0.681 1.373
4169000000.0 0.6485 1.342
4172000000.0 1.453 0.4368
4175000000.0 1.272 -0.8529
4178000000.0 0.1833 -1.503
4181000000.0 -1.034 -1.099
4184000000.0 -1.492 0.07961
4188000000.0 -0.888 1.198
4191000000.0 0.3474 1.456
4194000000.0 1.392 0.6527
4197000000.0 1.399 -0.6406
4200000000.0 0.3877 -1.558
4203000000.0 -0.9393 -1.238
4206000000.0 -1.603 -0.03345
4209000000.0 -1.029 1.21
4212000000.0 0.317 1.647
4216000000.0 1.48 0.7319
4219000000.0 1.538 -0.726
4222000000.0 0.3386 -1.663
4225000000.0 -1.106 -1.277
4228000000.0 -1.686 0.1014
4231000000.0 -0.9406 1.359
4234000000.0 0.5642 1.55
4238000000.0 1.557 0.5379
4241000000.0 1.346 -0.9277
4244000000.0 0.115 -1.605
4247000000.0 -1.229 -1.046
4250000000.0 -1.537 0.3598
4253000000.0 -0.7266 1.368
4256000000.0 0.6578 1.4
4259000000.0 1.495 0.3375
4262000000.0 1.189 -0.9859
4266000000.0 -0.06656 -1.51
4269000000.0 -1.204 -0.9017
4272000000.0 -1.42 0.4299
4275000000.0 -0.5677 1.38
4278000000.0 0.7242 1.243
4281000000.0 1.385 0.1681
4284000000.0 1.038 -0.9809
4288000000.0 -0.1396 -1.366
4291000000.0 -1.161 -0.7857
4294000000.0 -1.267 0.4271
4297000000.0 -0.499 1.214
4300000000.0 0.632 1.149
4303000000.0 1.286 0.2313
4306000000.0 1.048 -0.7962
4309000000.0 0.01836 -1.286
4312000000.0 -1.01 -0.8354
4316000000.0 -1.264 0.1747
4319000000.0 -0.6967 1.099
4322000000.0 0.381 1.223
4325000000.0 1.225 0.486
4328000000.0 1.158 -0.6096
4331000000.0 0.2918 -1.307
4334000000.0 -0.8149 -1.034
4338000000.0 -1.364 -0.07071
4341000000.0 -0.9338 1.02
4344000000.0 0.2038 1.409
4347000000.0 1.19 0.7474
4350000000.0 1.326 -0.4489
4353000000.0 0.4951 -1.343
4356000000.0 -0.7222 -1.207
4359000000.0 -1.416 -0.2522
4362000000.0 -1.131 0.9437
4366000000.0 0.01286 1.453
4369000000.0 1.127 0.9452
4372000000.0 1.431 -0.2496
4375000000.0 0.7377 -1.289
4378000000.0 -0.5141 -1.38
4381000000.0 -1.421 -0.4992
4384000000.0 -1.284 0.8218
4388000000.0 -0.2009 1.546
4391000000.0 1.068 1.108
4394000000.0 1.489 -0.1541
4397000000.0 0.8877 -1.295
4400000000.0 -0.4954 -1.525
4403000000.0 -1.482 -0.5286
4406000000.0 -1.354 0.8173
4409000000.0 -0.2303 1.574
4412000000.0 1.071 1.109
4416000000.0 1.512 -0.1657
4419000000.0 0.7717 -1.32
4422000000.0 -0.5195 -1.435
4425000000.0 -1.397 -0.4863
4428000000.0 -1.208 0.8118
4431000000.0 -0.1129 1.435
4434000000.0 1.065 0.9512
4438000000.0 1.339 -0.2689
4441000000.0 0.6466 -1.224
4444000000.0 -0.5458 -1.248
4447000000.0 -1.313 -0.2904
4450000000.0 -1.054 0.8361
4453000000.0 -0.002558 1.321
4456000000.0 1.027 0.7678
4459000000.0 1.254 -0.3509
4462000000.0 0.4748 -1.18
4466000000.0 -0.6103 -1.092
4469000000.0 -1.209 -0.1829
4472000000.0 -0.8641 0.8568
4475000000.0 0.1546 1.164
4478000000.0 1.018 0.5976
4481000000.0 1.105 -0.4033
4484000000.0 0.3555 -1.081
4488000000.0 -0.6227 -0.9549
4491000000.0 -1.115 -0.08148
4494000000.0 -0.791 0.8458
4497000000.0 0.1955 1.089
4500000000.0 0.9718 0.5874
4503000000.0 1.005 -0.3827
4506000000.0 0.3477 -1.067
4509000000.0 -0.601 -0.9393
4512000000.0 -1.101 -0.1067
4516000000.0 -0.787 0.79
4519000000.0 0.128 1.096
4522000000.0 0.9482 0.6295
4525000000.0 1.099 -0.3534
4528000000.0 0.3965 -1.068
4531000000.0 -0.5549 -0.9817
4534000000.0 -1.14 -0.2297
4538000000.0 -0.8696 0.7426
4541000000.0 0.02061 1.148
4544000000.0 0.9368 0.7337
4547000000.0 1.151 -0.2432
4550000000.0 0.5932 -1.053
4553000000.0 -0.4319 -1.124
4556000000.0 -1.139 -0.3704
4559000000.0 -1.027 0.6234
4562000000.0 -0.1669 1.187
4566000000.0 0.8165 0.9345
4569000000.0 1.269 -0.02893
4572000000.0 0.7797 -1.01
4575000000.0 -0.2581 -1.285
4578000000.0 -1.136 -0.6176
4581000000.0 -1.219 0.4782
4584000000.0 -0.4179 1.259
4588000000.0 0.7142 1.134
4591000000.0 1.333 0.1373
4594000000.0 0.9796 -0.9491
4597000000.0 -0.08861 -1.372
4600000000.0 -1.128 -0.8245
4603000000.0 -1.341 0.3592
4606000000.0 -0.6109 1.243
4609000000.0 0.6163 1.251
4612000000.0 1.346 0.3226
4616000000.0 1.104 -0.8318
4619000000.0 0.03565 -1.402
4622000000.0 -1.024 -0.8909
4625000000.0 -1.353 0.2553
4628000000.0 -0.6783 1.211
4631000000.0 0.4942 1.287
4634000000.0 1.305 0.3954
4638000000.0 1.132 -0.7627
4641000000.0 0.1123 -1.344
4644000000.0 -0.9848 -0.9617
4647000000.0 -1.302 0.2013
4650000000.0 -0.6583 1.135
4653000000.0 0.4673 1.248
4656000000.0 1.237 0.393
4659000000.0 1.049 -0.7499
4662000000.0 0.07507 -1.257
4666000000.0 -0.8901 -0.8525
4669000000.0 -1.214 0.1717
4672000000.0 -0.5615 1.068
4675000000.0 0.4418 1.101
4678000000.0 1.121 0.3325
4681000000.0 0.96 -0.6374
4684000000.0 0.07618 -1.14
4688000000.0 -0.825 -0.7579
4691000000.0 -1.126 0.212
4694000000.0 -0.5342 0.9485
4697000000.0 0.426 1.022
4700000000.0 1.02 0.3112
4703000000.0 0.8436 -0.6124
4706000000.0 0.0625 -1.064
4709000000.0 -0.8185 -0.6866
4712000000.0 -1.033 0.2179
4716000000.0 -0.4836 0.9536
4719000000.0 0.4128 0.9541
4722000000.0 1.014 0.2665
4725000000.0 0.8728 -0.6481
4728000000.0 0.05368 -1.024
4731000000.0 -0.7716 -0.6743
4734000000.0 -0.9788 0.1446
4738000000.0 -0.5123 0.8887
4741000000.0 0.3543 0.9701
4744000000.0 0.9664 0.3701
4747000000.0 0.9198 -0.5501
4750000000.0 0.1544 -1.034
4753000000.0 -0.709 -0.8017
4756000000.0 -1.064 0.01911
4759000000.0 -0.6843 0.864
4762000000.0 0.2334 1.073
4766000000.0 0.9953 0.4902
4769000000.0 1.054 -0.4638
4772000000.0 0.3231 -1.098
4775000000.0 -0.6061 -0.9894
4778000000.0 -1.154 -0.1468
4781000000.0 -0.8494 0.8156
4784000000.0 0.08897 1.193
4788000000.0 0.9657 0.7098
4791000000.0 1.163 -0.2781
4794000000.0 0.5645 -1.093
4797000000.0 -0.4808 -1.129
4800000000.0 -1.189 -0.3835
4803000000.0 -1.037 0.6252
4806000000.0 -0.1936 1.222
4809000000.0 0.8236 0.9683
4812000000.0 1.264 -0.04275
4816000000.0 0.8164 -1.024
4819000000.0 -0.2893 -1.279
4822000000.0 -1.167 -0.6382
4825000000.0 -1.248 0.4943
4828000000.0 -0.4023 1.292
4831000000.0 0.7559 1.157
4834000000.0 1.374 0.15
4838000000.0 0.9891 -0.9869
4841000000.0 -0.119 -1.408
4844000000.0 -1.136 -0.7681
4847000000.0 -1.349 0.3734
4850000000.0 -0.5155 1.262
4853000000.0 0.6793 1.209
4856000000.0 1.36 0.2662
4859000000.0 1.044 -0.8563
4862000000.0 0.004913 -1.342
4866000000.0 -1.058 -0.8621
4869000000.0 -1.303 0.2745
4872000000.0 -0.5818 1.179
4875000000.0 0.5157 1.199
4878000000.0 1.245 0.305
4881000000.0 1.009 -0.7493
4884000000.0 0.05018 -1.24
4888000000.0 -0.9175 -0.832
4891000000.0 -1.213 0.2008
4894000000.0 -0.5708 1.034
4897000000.0 0.4408 1.069
4900000000.0 1.097 0.331
4903000000.0 0.9037 -0.6088
4906000000.0 0.08111 -1.088
4909000000.0 -0.7719 -0.7068
4912000000.0 -1.028 0.1427
4916000000.0 -0.5561 0.8737
4919000000.0 0.3186 0.9626
4922000000.0 0.9232 0.3181
4925000000.0 0.8509 -0.4947
4928000000.0 0.1691 -0.9327
4931000000.0 -0.6348 -0.7041
4934000000.0 -0.9509 0.01886
4938000000.0 -0.5586 0.727
4941000000.0 0.2344 0.9228
4944000000.0 0.8424 0.3965
4947000000.0 0.8561 -0.4004
4950000000.0 0.2307 -0.9207
4953000000.0 -0.5431 -0.7712
4956000000.0 -0.957 -0.01939
4959000000.0 -0.6457 0.6971
4962000000.0 0.1525 0.963
4966000000.0 0.837 0.5136
4969000000.0 0.9047 -0.3345
4972000000.0 0.3209 -0.9295
4975000000.0 -0.5326 -0.8488
4978000000.0 -1.002 -0.1465
4981000000.0 -0.7465 0.6798
4984000000.0 0.08236 1.03
4988000000.0 0.8463 0.6245
4991000000.0 1.015 -0.2395
4994000000.0 0.4623 -0.9589
4997000000.0 -0.4631 -0.9896
5000000000.0 -1.094 -0.2677
5003000000.0 -0.9052 0.6346
5006000000.0 -0.1027 1.142
5009000000.0 0.841 0.8341
5012000000.0 1.148 -0.1496
5016000000.0 0.6481 -1.015
5019000000.0 -0.3696 -1.171
5022000000.0 -1.151 -0.4872
5025000000.0 -1.101 0.6086
5028000000.0 -0.2416 1.246
5031000000.0 0.8033 0.9872
5034000000.0 1.255 0.01685
5038000000.0 0.8249 -0.9671
5041000000.0 -0.272 -1.259
5044000000.0 -1.128 -0.6306
5047000000.0 -1.188 0.4356
5050000000.0 -0.4428 1.206
5053000000.0 0.6558 1.113
5056000000.0 1.305 0.2121
5059000000.0 0.968 -0.8549
5062000000.0 -0.01117 -1.325
5066000000.0 -0.9947 -0.8334
5069000000.0 -1.235 0.2721
5072000000.0 -0.5869 1.158
5075000000.0 0.4685 1.173
5078000000.0 1.199 0.3816
5081000000.0 1.037 -0.6971
5084000000.0 0.1442 -1.244
5088000000.0 -0.8371 -0.893
5091000000.0 -1.202 0.04013
5094000000.0 -0.7107 0.972
5097000000.0 0.252 1.136
5100000000.0 1.049 0.5305
5103000000.0 1.049 -0.4669
5106000000.0 0.3105 -1.095
5109000000.0 -0.5838 -0.9121
5112000000.0 -1.101 -0.1279
5116000000.0 -0.7571 0.7102
5119000000.0 0.04489 1.056
5122000000.0 0.835 0.6605
5125000000.0 1.047 -0.2213
5128000000.0 0.4539 -0.8948
5131000000.0 -0.3847 -0.899
5134000000.0 -0.9726 -0.2722
5138000000.0 -0.803 0.5564
5141000000.0 -0.07172 0.9994
5144000000.0 0.6881 0.6807
5147000000.0 0.9155 -0.1233
5150000000.0 0.5087 -0.8115
5153000000.0 -0.2711 -0.8884
5156000000.0 -0.8459 -0.3027
5159000000.0 -0.7945 0.4435
5162000000.0 -0.162 0.8966
5166000000.0 0.5994 0.6485
5169000000.0 0.9081 -0.04002
5172000000.0 0.5325 -0.7183
5175000000.0 -0.2307 -0.8541
5178000000.0 -0.8404 -0.3824
5181000000.0 -0.8145 0.4101
5184000000.0 -0.1725 0.8973
5188000000.0 0.59 0.7269
5191000000.0 0.9444 0.01407
5194000000.0 0.5694 -0.7459
5197000000.0 -0.2421 -0.881
5200000000.0 -0.8521 -0.4063
5203000000.0 -0.8384 0.4004
5206000000.0 -0.2142 0.8998
5209000000.0 0.605 0.7481
5212000000.0 0.989 -0.00686
5216000000.0 0.6094 -0.7373
5219000000.0 -0.1736 -0.9536
5222000000.0 -0.8795 -0.4676
5225000000.0 -0.9267 0.395
5228000000.0 -0.2499 0.9554
5231000000.0 0.571 0.8326
5234000000.0 0.9644 0.06807
5238000000.0 0.7245 -0.7471
5241000000.0 -0.1135 -1.018
5244000000.0 -0.8629 -0.5788
5247000000.0 -1.02 0.3164
5250000000.0 -0.4103 0.9829
5253000000.0 0.4906 0.9293
5256000000.0 1.047 0.2137
5259000000.0 0.8274 -0.6696
5262000000.0 0.002817 -1.074
5266000000.0 -0.8397 -0.7087
5269000000.0 -1.074 0.1781
5272000000.0 -0.5552 0.8996
5275000000.0 0.3341 1.029
5278000000.0 1.033 0.413
5281000000.0 0.953 -0.5074
5284000000.0 0.2191 -1.077
5288000000.0 -0.6947 -0.9006
5291000000.0 -1.095 -0.06202
5294000000.0 -0.773 0.8134
5297000000.0 0.09397 1.112
5300000000.0 0.9576 0.6291
5303000000.0 1.06 -0.2716
5306000000.0 0.4816 -1.03
5309000000.0 -0.454 -1.054
5312000000.0 -1.089 -0.2998
5316000000.0 -0.9649 0.6494
5319000000.0 -0.1195 1.143
5322000000.0 0.7797 0.8229
5325000000.0 1.151 -0.05555
5328000000.0 0.632 -0.9594
5331000000.0 -0.3197 -1.081
5334000000.0 -1.028 -0.4825
5338000000.0 -1.032 0.493
5341000000.0 -0.2861 1.097
5344000000.0 0.6743 0.9321
5347000000.0 1.134 0.02164
5350000000.0 0.7549 -0.8083
5353000000.0 -0.1203 -1.111
5356000000.0 -0.9355 -0.5826
5359000000.0 -0.9965 0.3646
5362000000.0 -0.3689 1.004
5366000000.0 0.5856 0.9204
5369000000.0 1.037 0.1349
5372000000.0 0.7419 -0.7197
5375000000.0 -0.07947 -1.049
5378000000.0 -0.8522 -0.5506
5381000000.0 -0.931 0.3078
5384000000.0 -0.3253 0.9096
5388000000.0 0.5171 0.8595
5391000000.0 0.966 0.1071
5394000000.0 0.6947 -0.6559
5397000000.0 -0.115 -0.9622
5400000000.0 -0.7726 -0.4825
5403000000.0 -0.8916 0.3207
5406000000.0 -0.2872 0.8667
5409000000.0 0.48 0.7349
5412000000.0 0.8488 0.08697
5416000000.0 0.5988 -0.6221
5419000000.0 -0.1051 -0.8862
5422000000.0 -0.7334 -0.4323
5425000000.0 -0.8086 0.2902
5428000000.0 -0.2765 0.8135
5431000000.0 0.4665 0.7453
5434000000.0 0.8729 0.0513
5438000000.0 0.6022 -0.6018
5441000000.0 -0.1106 -0.8554
5444000000.0 -0.7463 -0.4834
5447000000.0 -0.8015 0.303
5450000000.0 -0.2709 0.8597
5453000000.0 0.4373 0.7248
5456000000.0 0.9091 0.1007
5459000000.0 0.64 -0.6391
5462000000.0 -0.07079 -0.8864
5466000000.0 -0.7222 -0.5456
5469000000.0 -0.8423 0.228
5472000000.0 -0.3729 0.8118
5475000000.0 0.3735 0.8345
5478000000.0 0.89 0.2309
5481000000.0 0.7586 -0.5491
5484000000.0 0.07481 -0.9236
5488000000.0 -0.6833 -0.668
5491000000.0 -0.9762 0.1191
5494000000.0 -0.5414 0.8068
5497000000.0 0.2345 0.9607
5500000000.0 0.9201 0.3863
5503000000.0 0.9177 -0.4192
5506000000.0 0.2469 -0.9924
5509000000.0 -0.6073 -0.8053
5512000000.0 -0.9628 -0.04696
5516000000.0 -0.7177 0.7277
5519000000.0 0.1197 1.011
5522000000.0 0.8396 0.5838
5525000000.0 0.9859 -0.2869
5528000000.0 0.4594 -0.9557
5531000000.0 -0.4432 -0.9503
5534000000.0 -1.029 -0.2748
5538000000.0 -0.8691 0.6048
5541000000.0 -0.09411 1.052
5544000000.0 0.7538 0.7333
5547000000.0 1.055 -0.06692
5550000000.0 0.6248 -0.878
5553000000.0 -0.282 -0.9911
5556000000.0 -0.9837 -0.4373
5559000000.0 -0.9456 0.4667
5562000000.0 -0.258 1.027
5566000000.0 0.65 0.8524
5569000000.0 1.037 0.07158
5572000000.0 0.7019 -0.7448
5575000000.0 -0.1559 -1.015
5578000000.0 -0.8231 -0.5273
5581000000.0 -0.9293 0.2897
5584000000.0 -0.3233 0.9166
5588000000.0 0.4745 0.8689
5591000000.0 0.9315 0.1666
5594000000.0 0.7294 -0.6162
5597000000.0 -0.01136 -0.9218
5600000000.0 -0.7382 -0.5665
5603000000.0 -0.887 0.1853
5606000000.0 -0.4041 0.7963
5609000000.0 0.3324 0.8376
5612000000.0 0.8414 0.2301
5616000000.0 0.6975 -0.5037
5619000000.0 0.06833 -0.8498
5622000000.0 -0.6132 -0.5691
5625000000.0 -0.8365 0.1295
5628000000.0 -0.418 0.713
5631000000.0 0.3065 0.7764
5634000000.0 0.8019 0.2613
5638000000.0 0.7006 -0.4587
5641000000.0 0.1066 -0.831
5644000000.0 -0.5932 -0.5698
5647000000.0 -0.848 0.1145
5650000000.0 -0.4362 0.7091
5653000000.0 0.2718 0.7817
5656000000.0 0.7818 0.2743
5659000000.0 0.7096 -0.4531
5662000000.0 0.1032 -0.8231
5666000000.0 -0.6047 -0.6215
5669000000.0 -0.9008 0.1186
5672000000.0 -0.4818 0.7478
5675000000.0 0.3014 0.8465
5678000000.0 0.8475 0.3038
5681000000.0 0.7543 -0.4902
5684000000.0 0.1149 -0.9158
5688000000.0 -0.6491 -0.6719
5691000000.0 -0.9411 0.1094
5694000000.0 -0.5403 0.8032
5697000000.0 0.2654 0.9207
5700000000.0 0.8843 0.3696
5703000000.0 0.8866 -0.487
5706000000.0 0.1876 -0.9626
5709000000.0 -0.6717 -0.7742
5712000000.0 -1.004 0.002488
5716000000.0 -0.6577 0.8152
5719000000.0 0.2124 1.004
5722000000.0 0.9047 0.4757
5725000000.0 0.9829 -0.4385
5728000000.0 0.3333 -1.025
5731000000.0 -0.5861 -0.8715
5734000000.0 -1.044 -0.1112
5738000000.0 -0.7649 0.7446
5741000000.0 0.08752 1.062
5744000000.0 0.9066 0.6314
5747000000.0 1.066 -0.2806
5750000000.0 0.4605 -0.9587
5753000000.0 -0.4979 -0.9855
5756000000.0 -1.088 -0.3001
5759000000.0 -0.8936 0.6472
5762000000.0 -0.1057 1.078
5766000000.0 0.7975 0.7796
5769000000.0 1.086 -0.1126
5772000000.0 0.6028 -0.9253
5775000000.0 -0.28 -1.071
5778000000.0 -1.01 -0.4209
5781000000.0 -0.971 0.4652
5784000000.0 -0.23 1.063
5788000000.0 0.6375 0.8565
5791000000.0 1.074 0.07836
5794000000.0 0.7217 -0.8119
5797000000.0 -0.1188 -1.061
5800000000.0 -0.8849 -0.5574
5803000000.0 -0.9894 0.3443
5806000000.0 -0.3853 0.9774
5809000000.0 0.5186 0.9418
5812000000.0 1.055 0.1868
5816000000.0 0.7609 -0.664
5819000000.0 0.0008628 -1.011
5822000000.0 -0.8349 -0.6253
5825000000.0 -0.962 0.22
5828000000.0 -0.4784 0.9094
5831000000.0 0.3953 0.8936
5834000000.0 0.9576 0.2804
5838000000.0 0.7995 -0.5613
5841000000.0 0.06425 -0.9904
5844000000.0 -0.6716 -0.6436
5847000000.0 -0.9157 0.1468
5850000000.0 -0.5169 0.7987
5853000000.0 0.3042 0.8779
5856000000.0 0.8721 0.3168
5859000000.0 0.7879 -0.4925
5862000000.0 0.1044 -0.8988
5866000000.0 -0.6436 -0.6522
5869000000.0 -0.8889 0.08146
5872000000.0 -0.4782 0.7685
5875000000.0 0.2749 0.862
5878000000.0 0.8348 0.3254
5881000000.0 0.7148 -0.4426
5884000000.0 0.1107 -0.8978
5888000000.0 -0.5952 -0.6286
5891000000.0 -0.8858 0.06756
5894000000.0 -0.487 0.6972
5897000000.0 0.2097 0.8514
5900000000.0 0.777 0.3161
5903000000.0 0.768 -0.4033
5906000000.0 0.1515 -0.83
5909000000.0 -0.527 -0.6434
5912000000.0 -0.8721 0.001817
5916000000.0 -0.5894 0.6648
5919000000.0 0.1735 0.8358
5922000000.0 0.7534 0.3823
5925000000.0 0.8055 -0.3226
5928000000.0 0.2349 -0.8362
5931000000.0 -0.4804 -0.6894
5934000000.0 -0.8778 -0.1328
5938000000.0 -0.595 0.6322
5941000000.0 0.07766 0.8622
5944000000.0 0.7289 0.5023
5947000000.0 0.8512 -0.2517
5950000000.0 0.3735 -0.803
5953000000.0 -0.3655 -0.7981
5956000000.0 -0.8531 -0.2415
5959000000.0 -0.7674 0.5386
5962000000.0 -0.0361 0.9219
5966000000.0 0.6533 0.6698
5969000000.0 0.9262 -0.1025
5972000000.0 0.5302 -0.7584
5975000000.0 -0.2817 -0.9357
5978000000.0 -0.8431 -0.4251
5981000000.0 -0.8647 0.4306
5984000000.0 -0.2454 0.9358
5988000000.0 0.5753 0.7844
5991000000.0 1.019 0.03362
5994000000.0 0.6995 -0.7038
5997000000.0 -0.1147 -1.001
6000000000.0 -0.8622 -0.5325
6003000000.0 -0.9297 0.2993
6006000000.0 -0.3826 0.9054
6009000000.0 0.5062 0.8618
6012000000.0 0.964 0.1913
6016000000.0 0.7494 -0.6345
6019000000.0 0.007525 -0.9815
6022000000.0 -0.78 -0.639
6025000000.0 -0.9589 0.1907
6028000000.0 -0.4473 0.8928
6031000000.0 0.4078 0.9228
6034000000.0 0.9363 0.2848
6038000000.0 0.8037 -0.5425
6041000000.0 0.06976 -0.9637
6044000000.0 -0.6804 -0.6879
6047000000.0 -0.944 0.156
6050000000.0 -0.522 0.8116
6053000000.0 0.3103 0.8835
6056000000.0 0.8668 0.2988
6059000000.0 0.7953 -0.4665
6062000000.0 0.1189 -0.9435
6066000000.0 -0.6273 -0.6531
6069000000.0 -0.9095 0.07305
6072000000.0 -0.5185 0.7442
6075000000.0 0.2632 0.8621
6078000000.0 0.8184 0.337
6081000000.0 0.7712 -0.3907
6084000000.0 0.183 -0.8599
6088000000.0 -0.5377 -0.6453
6091000000.0 -0.8568 0.02721
6094000000.0 -0.5487 0.6602
6097000000.0 0.2035 0.8519
6100000000.0 0.7558 0.391
6103000000.0 0.7741 -0.3603
6106000000.0 0.1652 -0.8295
6109000000.0 -0.5393 -0.7097
6112000000.0 -0.8644 -0.01729
6116000000.0 -0.5519 0.6492
6119000000.0 0.1454 0.8493
6122000000.0 0.7954 0.4104
6125000000.0 0.8013 -0.3309
6128000000.0 0.2562 -0.8098
6131000000.0 -0.4863 -0.7107
6134000000.0 -0.8538 -0.06166
6138000000.0 -0.6062 0.6353
6141000000.0 0.1267 0.8472
6144000000.0 0.7426 0.4812
6147000000.0 0.852 -0.2792
6150000000.0 0.3258 -0.8033
6153000000.0 -0.4318 -0.7636
6156000000.0 -0.8797 -0.1156
6159000000.0 -0.6708 0.5996
6162000000.0 0.01063 0.9112
6166000000.0 0.7482 0.5462
6169000000.0 0.9 -0.2042
6172000000.0 0.3772 -0.8618
6175000000.0 -0.4079 -0.8532
6178000000.0 -0.9212 -0.2119
6181000000.0 -0.742 0.562
6184000000.0 -0.04051 0.9355
6188000000.0 0.7142 0.6261
6191000000.0 0.8969 -0.1376
6194000000.0 0.4701 -0.8089
6197000000.0 -0.3178 -0.8839
6200000000.0 -0.891 -0.2838
6203000000.0 -0.795 0.5079
6206000000.0 -0.122 0.9149
6209000000.0 0.6289 0.6495
6212000000.0 0.9221 -0.04427
6216000000.0 0.5364 -0.721
6219000000.0 -0.2382 -0.8796
6222000000.0 -0.83 -0.3746
6225000000.0 -0.8582 0.3369
6228000000.0 -0.2571 0.87
6231000000.0 0.4849 0.7606
6234000000.0 0.8688 0.0432
6238000000.0 0.6042 -0.6499
6241000000.0 -0.08475 -0.872
6244000000.0 -0.7129 -0.5031
6247000000.0 -0.8323 0.2711
6250000000.0 -0.3425 0.7849
6253000000.0 0.3952 0.7515
6256000000.0 0.7858 0.1992
6259000000.0 0.6711 -0.4801
6262000000.0 0.01696 -0.7891
6266000000.0 -0.5649 -0.5565
6269000000.0 -0.7817 0.08857
