! Created with skrf 1.8.0 (http://scikit-rf.org).
# Hz S RI R 50.0 
!freq ReS11 ImS11
4000000000.0 -0.242 -1.472
4003000000.0 -1.29 -0.7804
4006000000.0 -1.376 0.5717
4009000000.0 -0.4529 1.413
4012000000.0 0.9081 1.242
4016000000.0 1.532 0.1266
4019000000.0 1.054 -1.139
4022000000.0 -0.2171 -1.544
4025000000.0 -1.35 -0.8352
4028000000.0 -1.513 0.5157
4031000000.0 -0.4528 1.529
4034000000.0 0.8896 1.384
4038000000.0 1.6 0.1173
4041000000.0 1.125 -1.182
4044000000.0 -0.2119 -1.622
4047000000.0 -1.371 -0.8194
4050000000.0 -1.518 0.5651
4053000000.0 -0.5259 1.552
4056000000.0 0.8363 1.382
4059000000.0 1.601 0.2366
4062000000.0 1.219 -1.07
4066000000.0 -0.09158 -1.595
4069000000.0 -1.23 -0.9804
4072000000.0 -1.546 0.3924
4075000000.0 -0.6832 1.49
4078000000.0 0.6679 1.492
4081000000.0 1.54 0.4322
4084000000.0 1.371 -0.9159
4088000000.0 0.1558 -1.648
4091000000.0 -1.197 -1.167
4094000000.0 -1.585 0.1627
4097000000.0 -0.91 1.343
4100000000.0 0.4244 1.555
4103000000.0 1.449 0.6183
4106000000.0 1.411 -0.6851
4109000000.0 0.3509 -1.508
4112000000.0 -0.9138 -1.243
4116000000.0 -1.489 -0.1378
4119000000.0 -1.053 1.07
4122000000.0 0.1234 1.471
4125000000.0 1.2 0.8565
4128000000.0 1.417 -0.3366
4131000000.0 0.6891 -1.275
4134000000.0 -0.5118 -1.384
4138000000.0 -1.417 -0.5062
4141000000.0 -1.293 0.734
4144000000.0 -0.3088 1.465
4147000000.0 0.934 1.184
4150000000.0 1.517 0.05105
4153000000.0 1.008 -1.106
4156000000.0 -0.1899 -1.509
4159000000.0 -1.254 -0.8074
4162000000.0 -1.422 0.4573
4166000000.0 -0.5763 1.411
4169000000.0 0.7339 1.319
4172000000.0 1.47 0.3148
4175000000.0 1.158 -0.9249
4178000000.0 0.03352 -1.513
4181000000.0 -1.115 -0.987
4184000000.0 -1.46 0.2268
4188000000.0 -0.7931 1.312
4191000000.0 0.4799 1.409
4194000000.0 1.406 0.5255
4197000000.0 1.344 -0.8014
4200000000.0 0.2544 -1.566
4203000000.0 -1.061 -1.189
4206000000.0 -1.573 0.1269
4209000000.0 -0.905 1.321
4212000000.0 0.5082 1.529
4216000000.0 1.556 0.5349
4219000000.0 1.389 -0.8922
4222000000.0 0.1261 -1.676
4225000000.0 -1.221 -1.117
4228000000.0 -1.628 0.3361
4231000000.0 -0.7057 1.491
4234000000.0 0.7473 1.427
4238000000.0 1.569 0.3028
4241000000.0 1.187 -1.06
4244000000.0 -0.1571 -1.568
4247000000.0 -1.3 -0.8049
4250000000.0 -1.436 0.5087
4253000000.0 -0.4741 1.444
4256000000.0 0.8523 1.253
4259000000.0 1.471 0.07836
4262000000.0 0.9704 -1.125
4266000000.0 -0.3067 -1.46
4269000000.0 -1.294 -0.6575
4272000000.0 -1.338 0.6105
4275000000.0 -0.3139 1.396
4278000000.0 0.9023 1.14
4281000000.0 1.377 -0.02587
4284000000.0 0.865 -1.079
4288000000.0 -0.3261 -1.339
4291000000.0 -1.241 -0.5968
4294000000.0 -1.198 0.5652
4297000000.0 -0.3289 1.31
4300000000.0 0.7888 1.052
4303000000.0 1.271 0.07069
4306000000.0 0.8757 -0.9032
4309000000.0 -0.1484 -1.286
4312000000.0 -1.079 -0.7256
4316000000.0 -1.231 0.3757
4319000000.0 -0.5159 1.173
4322000000.0 0.5808 1.2
4325000000.0 1.273 0.3532
4328000000.0 1.1 -0.7672
4331000000.0 0.1387 -1.321
4334000000.0 -0.9578 -0.9768
4338000000.0 -1.362 0.1278
4341000000.0 -0.806 1.158
4344000000.0 0.3563 1.328
4347000000.0 1.31 0.5686
4350000000.0 1.256 -0.6576
4353000000.0 0.3213 -1.418
4356000000.0 -0.8853 -1.136
4359000000.0 -1.447 -0.03729
4362000000.0 -0.9494 1.093
4366000000.0 0.2503 1.466
4369000000.0 1.275 0.7566
4372000000.0 1.413 -0.4708
4375000000.0 0.5228 -1.393
4378000000.0 -0.7519 -1.304
4381000000.0 -1.486 -0.2247
4384000000.0 -1.116 1.034
4388000000.0 0.08031 1.598
4391000000.0 1.27 0.9061
4394000000.0 1.495 -0.4291
4397000000.0 0.5951 -1.461
4400000000.0 -0.7581 -1.39
4403000000.0 -1.513 -0.2483
4406000000.0 -1.151 1.052
4409000000.0 0.1426 1.564
4412000000.0 1.302 0.8429
4416000000.0 1.453 -0.5034
4419000000.0 0.4831 -1.456
4422000000.0 -0.7873 -1.245
4425000000.0 -1.469 -0.1216
4428000000.0 -0.9432 1.094
4431000000.0 0.2562 1.378
4434000000.0 1.238 0.651
4438000000.0 1.262 -0.5317
4441000000.0 0.3191 -1.317
4444000000.0 -0.8193 -1.075
4447000000.0 -1.313 0.007328
4450000000.0 -0.7765 1.026
4453000000.0 0.3611 1.244
4456000000.0 1.146 0.4837
4459000000.0 1.085 -0.622
4462000000.0 0.1447 -1.192
4466000000.0 -0.847 -0.9038
4469000000.0 -1.168 0.1256
4472000000.0 -0.6161 1.027
4475000000.0 0.3974 1.106
4478000000.0 1.083 0.3613
4481000000.0 0.955 -0.6475
4484000000.0 0.07586 -1.192
4488000000.0 -0.8448 -0.8023
4491000000.0 -1.132 0.1736
4494000000.0 -0.5653 0.9875
4497000000.0 0.4082 1.087
4500000000.0 1.099 0.3338
4503000000.0 0.9143 -0.5959
4506000000.0 0.1049 -1.117
4509000000.0 -0.8024 -0.7968
4512000000.0 -1.106 0.1254
4516000000.0 -0.6317 0.9207
4519000000.0 0.3364 1.106
4522000000.0 1.051 0.412
4525000000.0 1.009 -0.5858
4528000000.0 0.2083 -1.166
4531000000.0 -0.7507 -0.8987
4534000000.0 -1.205 -0.003604
4538000000.0 -0.752 0.9295
4541000000.0 0.2534 1.189
4544000000.0 1.088 0.5724
4547000000.0 1.099 -0.4606
4550000000.0 0.3699 -1.179
4553000000.0 -0.6475 -1.06
4556000000.0 -1.251 -0.1497
4559000000.0 -0.9006 0.8623
4562000000.0 0.05153 1.245
4566000000.0 0.9916 0.8085
4569000000.0 1.247 -0.2732
4572000000.0 0.6258 -1.172
4575000000.0 -0.4836 -1.222
4578000000.0 -1.264 -0.4234
4581000000.0 -1.143 0.7383
4584000000.0 -0.1664 1.332
4588000000.0 0.9115 0.9797
4591000000.0 1.369 -0.08088
4594000000.0 0.7866 -1.111
4597000000.0 -0.3639 -1.363
4600000000.0 -1.263 -0.5675
4603000000.0 -1.253 0.6263
4606000000.0 -0.3008 1.366
4609000000.0 0.8655 1.109
4612000000.0 1.415 0.03511
4616000000.0 0.9093 -1.083
4619000000.0 -0.2618 -1.371
4622000000.0 -1.22 -0.6316
4625000000.0 -1.286 0.507
4628000000.0 -0.3838 1.319
4631000000.0 0.7518 1.137
4634000000.0 1.338 0.1045
4638000000.0 0.9323 -0.9948
4641000000.0 -0.188 -1.326
4644000000.0 -1.137 -0.6591
4647000000.0 -1.239 0.4785
4650000000.0 -0.3764 1.226
4653000000.0 0.7438 1.03
4656000000.0 1.293 0.05932
4659000000.0 0.8328 -0.9146
4662000000.0 -0.214 -1.192
4666000000.0 -1.056 -0.6062
4669000000.0 -1.093 0.4644
4672000000.0 -0.349 1.157
4675000000.0 0.6855 0.9414
4678000000.0 1.131 0.04352
4681000000.0 0.7224 -0.8288
4684000000.0 -0.1784 -1.08
4688000000.0 -0.9318 -0.5296
4691000000.0 -1.036 0.4476
4694000000.0 -0.2716 1.045
4697000000.0 0.6479 0.872
4700000000.0 1.099 0.04547
4703000000.0 0.7104 -0.8249
4706000000.0 -0.1714 -1.078
4709000000.0 -0.9437 -0.5139
4712000000.0 -0.9869 0.441
4716000000.0 -0.272 1.031
4719000000.0 0.6411 0.8619
4722000000.0 1.074 0.03231
4725000000.0 0.6989 -0.8087
4728000000.0 -0.1734 -1.051
4731000000.0 -0.9072 -0.5061
4734000000.0 -0.9882 0.3762
4738000000.0 -0.3303 1.009
4741000000.0 0.5622 0.9039
4744000000.0 1.065 0.1837
4747000000.0 0.8305 -0.7173
4750000000.0 -0.0156 -1.089
4753000000.0 -0.8631 -0.6691
4756000000.0 -1.08 0.233
4759000000.0 -0.53 0.9888
4762000000.0 0.4132 1.075
4766000000.0 1.072 0.358
4769000000.0 0.9926 -0.6256
4772000000.0 0.1443 -1.173
4775000000.0 -0.7865 -0.8975
4778000000.0 -1.181 0.04646
4781000000.0 -0.7197 0.9627
4784000000.0 0.2723 1.185
4788000000.0 1.089 0.5703
4791000000.0 1.151 -0.4748
4794000000.0 0.4111 -1.176
4797000000.0 -0.6671 -1.078
4800000000.0 -1.269 -0.1959
4803000000.0 -0.9657 0.8429
4806000000.0 0.01449 1.267
4809000000.0 1.003 0.8143
4812000000.0 1.3 -0.2524
4816000000.0 0.6255 -1.165
4819000000.0 -0.4873 -1.244
4822000000.0 -1.316 -0.4045
4825000000.0 -1.146 0.7302
4828000000.0 -0.1632 1.369
4831000000.0 0.9819 1.003
4834000000.0 1.389 -0.1072
4838000000.0 0.7936 -1.15
4841000000.0 -0.3829 -1.338
4844000000.0 -1.262 -0.5405
4847000000.0 -1.234 0.6492
4850000000.0 -0.2765 1.339
4853000000.0 0.8557 1.055
4856000000.0 1.342 -0.007999
4859000000.0 0.8414 -1.043
4862000000.0 -0.2913 -1.295
4866000000.0 -1.156 -0.5842
4869000000.0 -1.196 0.4998
4872000000.0 -0.3424 1.226
4875000000.0 0.7506 1.018
4878000000.0 1.256 0.09333
4881000000.0 0.811 -0.9078
4884000000.0 -0.192 -1.188
4888000000.0 -1.02 -0.5894
4891000000.0 -1.077 0.4408
4894000000.0 -0.3358 1.119
4897000000.0 0.6152 0.9497
4900000000.0 1.093 0.09747
4903000000.0 0.7625 -0.7655
4906000000.0 -0.1364 -1.019
4909000000.0 -0.8938 -0.5464
4912000000.0 -0.9747 0.341
4916000000.0 -0.3385 0.934
4919000000.0 0.4984 0.8557
4922000000.0 0.949 0.135
4925000000.0 0.7071 -0.6199
4928000000.0 -0.0426 -0.9431
4931000000.0 -0.7301 -0.574
4934000000.0 -0.9169 0.2172
4938000000.0 -0.4065 0.8241
4941000000.0 0.3569 0.877
4944000000.0 0.9285 0.2086
4947000000.0 0.7706 -0.5622
4950000000.0 0.04989 -0.9574
4953000000.0 -0.7166 -0.6449
4956000000.0 -0.9595 0.1479
4959000000.0 -0.5117 0.8621
4962000000.0 0.3372 0.916
4966000000.0 0.9561 0.3299
4969000000.0 0.8667 -0.4971
4972000000.0 0.1637 -1.0
4975000000.0 -0.7085 -0.771
4978000000.0 -1.032 0.05216
4981000000.0 -0.6004 0.8552
4984000000.0 0.2477 1.015
4988000000.0 0.9675 0.494
4991000000.0 0.9826 -0.4512
4994000000.0 0.2886 -1.068
4997000000.0 -0.6613 -0.913
5000000000.0 -1.154 -0.07246
5003000000.0 -0.8247 0.8303
5006000000.0 0.141 1.188
5009000000.0 0.9934 0.6824
5012000000.0 1.165 -0.3528
5016000000.0 0.5104 -1.14
5019000000.0 -0.5931 -1.107
5022000000.0 -1.258 -0.2641
5025000000.0 -1.011 0.7959
5028000000.0 0.01946 1.306
5031000000.0 1.01 0.8315
5034000000.0 1.286 -0.2045
5038000000.0 0.6329 -1.117
5041000000.0 -0.4679 -1.204
5044000000.0 -1.239 -0.4147
5047000000.0 -1.102 0.6969
5050000000.0 -0.192 1.272
5053000000.0 0.8395 0.9701
5056000000.0 1.3 -0.06973
5059000000.0 0.7801 -1.012
5062000000.0 -0.2526 -1.29
5066000000.0 -1.132 -0.5797
5069000000.0 -1.157 0.4554
5072000000.0 -0.3798 1.21
5075000000.0 0.6987 1.066
5078000000.0 1.242 0.1142
5081000000.0 0.8719 -0.8593
5084000000.0 -0.09106 -1.185
5088000000.0 -0.9573 -0.682
5091000000.0 -1.146 0.2988
5094000000.0 -0.4959 1.034
5097000000.0 0.4223 1.031
5100000000.0 1.056 0.2959
5103000000.0 0.9232 -0.6206
5106000000.0 0.1026 -1.079
5109000000.0 -0.7547 -0.7734
5112000000.0 -1.036 0.08985
5116000000.0 -0.6177 0.8012
5119000000.0 0.2946 0.9798
5122000000.0 0.8979 0.4105
5125000000.0 0.9297 -0.4089
5128000000.0 0.1943 -0.9951
5131000000.0 -0.5683 -0.7608
5134000000.0 -0.9577 -0.03067
5138000000.0 -0.6343 0.7231
5141000000.0 0.1474 0.919
5144000000.0 0.7857 0.4255
5147000000.0 0.878 -0.3103
5150000000.0 0.3025 -0.8798
5153000000.0 -0.5171 -0.745
5156000000.0 -0.906 -0.1033
5159000000.0 -0.6165 0.6155
5162000000.0 0.06633 0.9023
5166000000.0 0.7274 0.5023
5169000000.0 0.8412 -0.2659
5172000000.0 0.2994 -0.8587
5175000000.0 -0.4649 -0.7901
5178000000.0 -0.8994 -0.1313
5181000000.0 -0.6554 0.6311
5184000000.0 0.06574 0.8829
5188000000.0 0.759 0.5205
5191000000.0 0.8861 -0.2829
5194000000.0 0.3427 -0.858
5197000000.0 -0.4447 -0.8171
5200000000.0 -0.9278 -0.1464
5203000000.0 -0.7313 0.6383
5206000000.0 0.07793 0.9926
5209000000.0 0.8035 0.5529
5212000000.0 0.9452 -0.249
5216000000.0 0.3948 -0.9203
5219000000.0 -0.453 -0.8806
5222000000.0 -0.9843 -0.2044
5225000000.0 -0.7909 0.6456
5228000000.0 -0.002433 1.017
5231000000.0 0.7978 0.6728
5234000000.0 1.018 -0.1976
5238000000.0 0.5053 -0.9179
5241000000.0 -0.3724 -0.9567
5244000000.0 -1.002 -0.3434
5247000000.0 -0.906 0.5811
5250000000.0 -0.1521 1.061
5253000000.0 0.7418 0.8129
5256000000.0 1.076 -0.05786
5259000000.0 0.6671 -0.8606
5262000000.0 -0.2252 -1.056
5266000000.0 -0.9633 -0.5236
5269000000.0 -1.008 0.4031
5272000000.0 -0.3386 1.052
5275000000.0 0.584 0.9185
5278000000.0 1.045 0.1608
5281000000.0 0.7999 -0.7437
5284000000.0 -0.04427 -1.092
5288000000.0 -0.8346 -0.7175
5291000000.0 -1.071 0.1937
5294000000.0 -0.5214 0.9702
5297000000.0 0.3976 1.053
5300000000.0 1.064 0.3607
5303000000.0 0.9645 -0.5593
5306000000.0 0.2172 -1.111
5309000000.0 -0.7257 -0.8996
5312000000.0 -1.144 0.01144
5316000000.0 -0.7431 0.8873
5319000000.0 0.2123 1.105
5322000000.0 0.9769 0.5598
5325000000.0 1.062 -0.3643
5328000000.0 0.3691 -1.103
5331000000.0 -0.5964 -0.9588
5334000000.0 -1.121 -0.1293
5338000000.0 -0.8204 0.7398
5341000000.0 0.1045 1.093
5344000000.0 0.9066 0.6375
5347000000.0 1.061 -0.3205
5350000000.0 0.4131 -0.961
5353000000.0 -0.5164 -0.969
5356000000.0 -1.062 -0.2195
5359000000.0 -0.7824 0.692
5362000000.0 0.021 1.038
5366000000.0 0.8156 0.5998
5369000000.0 1.009 -0.2669
5372000000.0 0.3813 -0.9412
5375000000.0 -0.4739 -0.8589
5378000000.0 -0.9448 -0.1553
5381000000.0 -0.72 0.6202
5384000000.0 0.06592 0.9253
5388000000.0 0.7867 0.5027
5391000000.0 0.8642 -0.2971
5394000000.0 0.3198 -0.8453
5397000000.0 -0.4945 -0.7357
5400000000.0 -0.8684 -0.1022
5403000000.0 -0.6213 0.6392
5406000000.0 0.09579 0.8624
5409000000.0 0.7264 0.438
5412000000.0 0.7929 -0.2921
5416000000.0 0.2768 -0.7798
5419000000.0 -0.448 -0.736
5422000000.0 -0.8346 -0.1221
5425000000.0 -0.6107 0.5981
5428000000.0 0.09948 0.8638
5431000000.0 0.7387 0.4459
5434000000.0 0.8411 -0.2965
5438000000.0 0.2751 -0.8167
5441000000.0 -0.4732 -0.7636
5444000000.0 -0.8593 -0.1341
5447000000.0 -0.6583 0.5994
5450000000.0 0.05873 0.9115
5453000000.0 0.7336 0.5259
5456000000.0 0.8544 -0.2315
5459000000.0 0.3771 -0.8415
5462000000.0 -0.4042 -0.8617
5466000000.0 -0.8976 -0.2193
5469000000.0 -0.7772 0.5585
5472000000.0 -0.06417 0.9383
5475000000.0 0.7181 0.6643
5478000000.0 0.9501 -0.1321
5481000000.0 0.4968 -0.8173
5484000000.0 -0.2768 -0.9439
5488000000.0 -0.9142 -0.4261
5491000000.0 -0.9232 0.4509
5494000000.0 -0.2035 1.027
5497000000.0 0.677 0.8463
5500000000.0 1.042 0.06463
5503000000.0 0.7213 -0.7976
5506000000.0 -0.1397 -1.094
5509000000.0 -0.9116 -0.5452
5512000000.0 -1.055 0.3039
5516000000.0 -0.3709 1.02
5519000000.0 0.5021 0.9158
5522000000.0 1.029 0.212
5525000000.0 0.8452 -0.6495
5528000000.0 0.04237 -1.056
5531000000.0 -0.7801 -0.6887
5534000000.0 -1.064 0.1803
5538000000.0 -0.5389 0.8773
5541000000.0 0.3409 0.9961
5544000000.0 0.9826 0.3666
5547000000.0 0.9159 -0.5322
5550000000.0 0.1457 -1.075
5553000000.0 -0.6929 -0.8035
5556000000.0 -1.037 0.01433
5559000000.0 -0.6026 0.8205
5562000000.0 0.1944 0.9821
5566000000.0 0.9231 0.4496
5569000000.0 0.8704 -0.4107
5572000000.0 0.2398 -0.922
5575000000.0 -0.5882 -0.7901
5578000000.0 -0.9359 -0.02451
5581000000.0 -0.6466 0.6509
5584000000.0 0.1416 0.9155
5588000000.0 0.7674 0.4804
5591000000.0 0.8009 -0.3135
5594000000.0 0.2696 -0.8328
5597000000.0 -0.4944 -0.7371
5600000000.0 -0.8422 -0.06335
5603000000.0 -0.5873 0.5724
5606000000.0 0.1025 0.8555
5609000000.0 0.6908 0.4671
5612000000.0 0.8117 -0.232
5616000000.0 0.2762 -0.7796
5619000000.0 -0.4142 -0.7115
5622000000.0 -0.7816 -0.1061
5625000000.0 -0.5743 0.5367
5628000000.0 0.08248 0.8093
5631000000.0 0.6848 0.417
5634000000.0 0.7733 -0.2452
5638000000.0 0.2911 -0.7544
5641000000.0 -0.4397 -0.7032
5644000000.0 -0.8213 -0.1043
5647000000.0 -0.629 0.5493
5650000000.0 0.07549 0.8431
5653000000.0 0.7113 0.4827
5656000000.0 0.8049 -0.2551
5659000000.0 0.3124 -0.7964
5662000000.0 -0.4484 -0.7644
5666000000.0 -0.8923 -0.1263
5669000000.0 -0.6904 0.597
5672000000.0 0.09237 0.9428
5675000000.0 0.7917 0.5298
5678000000.0 0.929 -0.2589
5681000000.0 0.3766 -0.8894
5684000000.0 -0.4726 -0.8793
5688000000.0 -1.005 -0.1846
5691000000.0 -0.7734 0.654
5694000000.0 0.003724 1.034
5697000000.0 0.839 0.6436
5700000000.0 1.027 -0.1913
5703000000.0 0.4665 -0.954
5706000000.0 -0.4329 -0.9993
5709000000.0 -1.04 -0.3116
5712000000.0 -0.8751 0.6195
5716000000.0 -0.1113 1.083
5719000000.0 0.7925 0.7798
5722000000.0 1.083 -0.121
5725000000.0 0.5992 -0.9188
5728000000.0 -0.3102 -1.086
5731000000.0 -1.037 -0.4402
5734000000.0 -0.962 0.5248
5738000000.0 -0.2455 1.118
5741000000.0 0.7048 0.8926
5744000000.0 1.146 0.03011
5747000000.0 0.7555 -0.8433
5750000000.0 -0.1779 -1.115
5753000000.0 -0.9248 -0.5206
5756000000.0 -1.041 0.3994
5759000000.0 -0.3578 1.076
5762000000.0 0.574 0.9333
5766000000.0 1.113 0.1534
5769000000.0 0.8497 -0.7404
5772000000.0 -0.05765 -1.055
5775000000.0 -0.8536 -0.6431
5778000000.0 -1.037 0.2378
5781000000.0 -0.4133 0.9923
5784000000.0 0.4457 0.9361
5788000000.0 1.011 0.2594
5791000000.0 0.8345 -0.6323
5794000000.0 0.04208 -1.013
5797000000.0 -0.811 -0.6806
5800000000.0 -1.008 0.2004
5803000000.0 -0.4935 0.8704
5806000000.0 0.3731 0.9855
5809000000.0 0.9886 0.2588
5812000000.0 0.7792 -0.5179
5816000000.0 0.03848 -0.958
5819000000.0 -0.7394 -0.6205
5822000000.0 -0.9428 0.129
5825000000.0 -0.4498 0.8454
5828000000.0 0.3315 0.8942
5831000000.0 0.8849 0.2799
5834000000.0 0.7479 -0.5253
5838000000.0 0.04731 -0.9069
5841000000.0 -0.6931 -0.5852
5844000000.0 -0.8732 0.1615
5847000000.0 -0.4314 0.7783
5850000000.0 0.3828 0.8112
5853000000.0 0.8475 0.2132
5856000000.0 0.6849 -0.5434
5859000000.0 0.01786 -0.908
5862000000.0 -0.666 -0.5231
5866000000.0 -0.9005 0.1838
5869000000.0 -0.4178 0.8054
5872000000.0 0.386 0.8079
5875000000.0 0.9061 0.2114
5878000000.0 0.6927 -0.5782
5881000000.0 0.01568 -0.8957
5884000000.0 -0.6791 -0.5717
5888000000.0 -0.886 0.209
5891000000.0 -0.4115 0.7799
5894000000.0 0.3575 0.8274
5897000000.0 0.8538 0.268
5900000000.0 0.7388 -0.5383
5903000000.0 0.04401 -0.9407
5906000000.0 -0.6778 -0.6663
5909000000.0 -0.9378 0.1018
5912000000.0 -0.4861 0.8014
5916000000.0 0.3102 0.8721
5919000000.0 0.917 0.3175
5922000000.0 0.8103 -0.5068
5925000000.0 0.1338 -0.953
5928000000.0 -0.6415 -0.7017
5931000000.0 -0.9637 0.05809
5934000000.0 -0.5623 0.7998
5938000000.0 0.2616 0.9398
5941000000.0 0.9164 0.4125
5944000000.0 0.9083 -0.4305
5947000000.0 0.2081 -0.9624
5950000000.0 -0.6221 -0.8112
5953000000.0 -0.9921 -0.04031
5956000000.0 -0.6273 0.7731
5959000000.0 0.165 1.009
5962000000.0 0.8886 0.473
5966000000.0 0.9544 -0.385
5969000000.0 0.3012 -0.9608
5972000000.0 -0.5455 -0.856
5975000000.0 -1.021 -0.06827
5978000000.0 -0.6929 0.7598
5981000000.0 0.1316 0.9862
5984000000.0 0.8718 0.4882
5988000000.0 0.9407 -0.3897
5991000000.0 0.2995 -0.9714
5994000000.0 -0.551 -0.8162
5997000000.0 -0.9748 -0.06462
6000000000.0 -0.6589 0.7242
6003000000.0 0.161 0.9623
6006000000.0 0.8271 0.4289
6009000000.0 0.8384 -0.3614
6012000000.0 0.2099 -0.8895
6016000000.0 -0.5635 -0.739
6019000000.0 -0.8666 0.006056
6022000000.0 -0.574 0.7021
6025000000.0 0.2142 0.8476
6028000000.0 0.7701 0.3642
6031000000.0 0.7507 -0.3946
6034000000.0 0.1776 -0.8176
6038000000.0 -0.5685 -0.6598
6041000000.0 -0.8196 0.01339
6044000000.0 -0.4645 0.6615
6047000000.0 0.2148 0.7962
6050000000.0 0.7847 0.321
6053000000.0 0.737 -0.4041
6056000000.0 0.1199 -0.8155
6059000000.0 -0.5644 -0.5882
6062000000.0 -0.8075 0.07455
6066000000.0 -0.4208 0.7306
6069000000.0 0.2686 0.7855
6072000000.0 0.812 0.2625
6075000000.0 0.7209 -0.4813
6078000000.0 0.07706 -0.8785
6081000000.0 -0.5971 -0.5984
6084000000.0 -0.8812 0.1121
6088000000.0 -0.4526 0.7487
6091000000.0 0.3175 0.8433
6094000000.0 0.8615 0.2359
6097000000.0 0.7897 -0.5328
6100000000.0 0.06926 -0.9236
6103000000.0 -0.6789 -0.66
6106000000.0 -0.9843 0.1425
6109000000.0 -0.4747 0.8712
6112000000.0 0.3809 0.9174
6116000000.0 0.9525 0.25
6119000000.0 0.7883 -0.6328
6122000000.0 0.02439 -1.021
6125000000.0 -0.8151 -0.6528
6128000000.0 -1.022 0.2382
6131000000.0 -0.4328 0.9299
6134000000.0 0.5031 0.9129
6138000000.0 1.03 0.2088
6141000000.0 0.8069 -0.677
6144000000.0 -0.06094 -1.035
6147000000.0 -0.8491 -0.5632
6150000000.0 -0.9785 0.2913
6153000000.0 -0.3463 0.956
6156000000.0 0.4895 0.8803
6159000000.0 0.9964 0.1301
6162000000.0 0.7046 -0.6899
6166000000.0 -0.1249 -0.9975
6169000000.0 -0.8484 -0.5145
6172000000.0 -0.9175 0.3509
6175000000.0 -0.2528 0.9379
6178000000.0 0.5597 0.7614
6181000000.0 0.9174 0.04679
6184000000.0 0.6038 -0.6963
6188000000.0 -0.2221 -0.8911
6191000000.0 -0.7976 -0.3732
6194000000.0 -0.7479 0.4111
6197000000.0 -0.1646 0.8402
6200000000.0 0.5676 0.6417
6203000000.0 0.8675 -0.07099
6206000000.0 0.4831 -0.6369
6209000000.0 -0.2502 -0.821
6212000000.0 -0.7685 -0.2868
6216000000.0 -0.6786 0.4372
6219000000.0 -0.08345 0.8332
6222000000.0 0.5738 0.5586
6225000000.0 0.7852 -0.1537
6228000000.0 0.3404 -0.7074
6231000000.0 -0.3795 -0.6979
6234000000.0 -0.7793 -0.2152
6238000000.0 -0.5931 0.5281
6241000000.0 0.02765 0.8026
6244000000.0 0.6706 0.4504
6247000000.0 0.7791 -0.2965
6250000000.0 0.2916 -0.7706
6253000000.0 -0.4451 -0.6789
6256000000.0 -0.824 -0.03205
6259000000.0 -0.5255 0.6152
6262000000.0 0.1636 0.8026
6266000000.0 0.7157 0.3306
6269000000.0 0.7061 -0.3545
