! Created with skrf 1.8.0 (http://scikit-rf.org).
# Hz S RI R 50.0 
!freq ReS11 ImS11
4000000000.0 -0.4324 -1.405
4003000000.0 -1.408 -0.5497
4006000000.0 -1.304 0.7405
4009000000.0 -0.2065 1.483
4012000000.0 1.024 1.147
4016000000.0 1.568 -0.05921
4019000000.0 0.8732 -1.269
4022000000.0 -0.4181 -1.559
4025000000.0 -1.477 -0.6521
4028000000.0 -1.427 0.7816
4031000000.0 -0.2898 1.603
4034000000.0 1.092 1.19
4038000000.0 1.64 -0.05723
4041000000.0 0.9418 -1.354
4044000000.0 -0.4528 -1.616
4047000000.0 -1.502 -0.6839
4050000000.0 -1.48 0.8039
4053000000.0 -0.3397 1.533
4056000000.0 1.038 1.248
4059000000.0 1.594 0.006143
4062000000.0 1.108 -1.246
4066000000.0 -0.3209 -1.619
4069000000.0 -1.396 -0.7682
4072000000.0 -1.514 0.5696
4075000000.0 -0.5187 1.549
4078000000.0 0.8488 1.371
4081000000.0 1.635 0.2208
4084000000.0 1.197 -1.098
4088000000.0 -0.06546 -1.659
4091000000.0 -1.308 -0.9716
4094000000.0 -1.573 0.3605
4097000000.0 -0.7036 1.446
4100000000.0 0.6469 1.461
4103000000.0 1.551 0.4366
4106000000.0 1.297 -0.8824
4109000000.0 0.1213 -1.554
4112000000.0 -1.092 -1.083
4116000000.0 -1.497 0.1189
4119000000.0 -0.8902 1.176
4122000000.0 0.2966 1.448
4125000000.0 1.276 0.6955
4128000000.0 1.393 -0.5317
4131000000.0 0.509 -1.409
4134000000.0 -0.6886 -1.267
4138000000.0 -1.432 -0.3114
4141000000.0 -1.122 0.9101
4144000000.0 -0.05315 1.492
4147000000.0 1.085 1.014
4150000000.0 1.476 -0.1938
4153000000.0 0.8088 -1.272
4156000000.0 -0.4431 -1.442
4159000000.0 -1.379 -0.5589
4162000000.0 -1.331 0.7213
4166000000.0 -0.2642 1.466
4169000000.0 0.9554 1.133
4172000000.0 1.473 -0.002665
4175000000.0 0.9419 -1.154
4178000000.0 -0.3113 -1.465
4181000000.0 -1.304 -0.6867
4184000000.0 -1.397 0.551
4188000000.0 -0.4666 1.436
4191000000.0 0.8608 1.267
4194000000.0 1.531 0.1599
4197000000.0 1.049 -1.12
4200000000.0 -0.2163 -1.508
4203000000.0 -1.345 -0.8245
4206000000.0 -1.492 0.5893
4209000000.0 -0.413 1.553
4212000000.0 1.005 1.288
4216000000.0 1.645 0.005672
4219000000.0 0.9732 -1.333
4222000000.0 -0.4561 -1.573
4225000000.0 -1.518 -0.5842
4228000000.0 -1.361 0.8671
4231000000.0 -0.08917 1.578
4234000000.0 1.242 0.995
4238000000.0 1.528 -0.3203
4241000000.0 0.657 -1.442
4244000000.0 -0.7275 -1.36
4247000000.0 -1.446 -0.255
4250000000.0 -1.077 1.01
4253000000.0 0.1153 1.491
4256000000.0 1.243 0.7939
4259000000.0 1.386 -0.4582
4262000000.0 0.4365 -1.4
4266000000.0 -0.7652 -1.163
4269000000.0 -1.411 -0.09351
4272000000.0 -0.9635 1.071
4275000000.0 0.2115 1.402
4278000000.0 1.213 0.7091
4281000000.0 1.286 -0.5097
4284000000.0 0.3862 -1.3
4288000000.0 -0.7744 -1.125
4291000000.0 -1.34 -0.1494
4294000000.0 -0.9502 0.947
4297000000.0 0.156 1.335
4300000000.0 1.088 0.726
4303000000.0 1.253 -0.3612
4306000000.0 0.5361 -1.17
4309000000.0 -0.563 -1.17
4312000000.0 -1.229 -0.316
4316000000.0 -1.078 0.73
4319000000.0 -0.08528 1.325
4322000000.0 0.9467 0.9337
4325000000.0 1.373 -0.09888
4328000000.0 0.7915 -1.13
4331000000.0 -0.3612 -1.345
4334000000.0 -1.259 -0.5961
4338000000.0 -1.286 0.6443
4341000000.0 -0.3217 1.412
4344000000.0 0.9053 1.169
4347000000.0 1.463 0.02523
4350000000.0 0.9852 -1.127
4353000000.0 -0.2326 -1.49
4356000000.0 -1.357 -0.7456
4359000000.0 -1.396 0.5722
4362000000.0 -0.4709 1.464
4366000000.0 0.8307 1.28
4369000000.0 1.501 0.161
4372000000.0 1.088 -1.08
4375000000.0 -0.182 -1.513
4378000000.0 -1.344 -0.8221
4381000000.0 -1.44 0.5358
4384000000.0 -0.531 1.472
4388000000.0 0.8532 1.297
4391000000.0 1.569 0.1219
4394000000.0 1.046 -1.17
4397000000.0 -0.2747 -1.523
4400000000.0 -1.403 -0.7025
4403000000.0 -1.381 0.6515
4406000000.0 -0.2905 1.497
4409000000.0 0.9569 1.12
4412000000.0 1.448 -0.07947
4416000000.0 0.7934 -1.175
4419000000.0 -0.4475 -1.331
4422000000.0 -1.298 -0.4646
4425000000.0 -1.126 0.7461
4428000000.0 -0.08892 1.3
4431000000.0 1.008 0.8528
4434000000.0 1.264 -0.2377
4438000000.0 0.558 -1.152
4441000000.0 -0.541 -1.138
4444000000.0 -1.171 -0.2634
4447000000.0 -0.9335 0.7825
4450000000.0 0.04804 1.191
4453000000.0 0.994 0.7416
4456000000.0 1.158 -0.3282
4459000000.0 0.4449 -1.131
4462000000.0 -0.6164 -1.031
4466000000.0 -1.15 -0.1876
4469000000.0 -0.8565 0.8511
4472000000.0 0.1242 1.179
4475000000.0 1.012 0.6606
4478000000.0 1.139 -0.3988
4481000000.0 0.4229 -1.132
4484000000.0 -0.6329 -0.9934
4488000000.0 -1.167 -0.1437
4491000000.0 -0.8495 0.7924
4494000000.0 0.06862 1.196
4497000000.0 0.9956 0.7231
4500000000.0 1.177 -0.3435
4503000000.0 0.471 -1.1
4506000000.0 -0.5307 -1.053
4509000000.0 -1.183 -0.2638
4512000000.0 -0.948 0.7499
4516000000.0 -0.05688 1.242
4519000000.0 0.9022 0.8349
4522000000.0 1.253 -0.1934
4525000000.0 0.6363 -1.101
4528000000.0 -0.4416 -1.221
4531000000.0 -1.252 -0.4266
4534000000.0 -1.117 0.6609
4538000000.0 -0.2073 1.294
4541000000.0 0.8753 1.003
4544000000.0 1.31 -0.07999
4547000000.0 0.8417 -1.04
4550000000.0 -0.299 -1.332
4553000000.0 -1.188 -0.6185
4556000000.0 -1.26 0.5174
4559000000.0 -0.3909 1.303
4562000000.0 0.7451 1.131
4566000000.0 1.369 0.1412
4569000000.0 0.9795 -0.9754
4572000000.0 -0.1112 -1.388
4575000000.0 -1.146 -0.8304
4578000000.0 -1.355 0.3514
4581000000.0 -0.5893 1.273
4584000000.0 0.6525 1.299
4588000000.0 1.383 0.2944
4591000000.0 1.123 -0.8906
4594000000.0 0.02052 -1.431
4597000000.0 -1.118 -0.914
4600000000.0 -1.392 0.2924
4603000000.0 -0.6752 1.257
4606000000.0 0.58 1.289
4609000000.0 1.365 0.3534
4612000000.0 1.102 -0.843
4616000000.0 0.04573 -1.366
4619000000.0 -1.042 -0.8707
4622000000.0 -1.345 0.2814
4625000000.0 -0.6516 1.178
4628000000.0 0.5457 1.18
4631000000.0 1.262 0.33
4634000000.0 1.034 -0.7661
4638000000.0 0.01307 -1.279
4641000000.0 -0.9621 -0.7918
4644000000.0 -1.215 0.2516
4647000000.0 -0.5275 1.1
4650000000.0 0.5384 1.085
4653000000.0 1.167 0.2402
4656000000.0 0.9015 -0.76
4659000000.0 -0.03456 -1.142
4662000000.0 -0.9438 -0.7098
4666000000.0 -1.078 0.2867
4669000000.0 -0.4247 1.014
4672000000.0 0.5352 0.9775
4675000000.0 1.088 0.1778
4678000000.0 0.8093 -0.7277
4681000000.0 -0.04342 -1.087
4684000000.0 -0.874 -0.6385
4688000000.0 -1.052 0.297
4691000000.0 -0.4546 0.9896
4694000000.0 0.5145 0.9681
4697000000.0 1.076 0.1916
4700000000.0 0.8497 -0.6868
4703000000.0 -0.006703 -1.11
4706000000.0 -0.8839 -0.7391
4709000000.0 -1.1 0.2692
4712000000.0 -0.5336 0.9978
4716000000.0 0.4632 1.044
4719000000.0 1.112 0.2656
4722000000.0 0.9315 -0.699
4725000000.0 0.0689 -1.17
4728000000.0 -0.855 -0.8002
4731000000.0 -1.153 0.1182
4734000000.0 -0.5888 0.9287
4738000000.0 0.3395 1.092
4741000000.0 1.086 0.4532
4744000000.0 1.065 -0.5289
4747000000.0 0.3096 -1.153
4750000000.0 -0.7389 -0.9869
4753000000.0 -1.231 -0.07728
4756000000.0 -0.8479 0.9073
4759000000.0 0.1498 1.272
4762000000.0 1.048 0.6957
4766000000.0 1.243 -0.3793
4769000000.0 0.4977 -1.197
4772000000.0 -0.6118 -1.19
4775000000.0 -1.328 -0.2832
4778000000.0 -1.057 0.8456
4781000000.0 -0.02508 1.369
4784000000.0 1.005 0.9
4788000000.0 1.375 -0.1984
4791000000.0 0.6938 -1.179
4794000000.0 -0.4816 -1.307
4797000000.0 -1.333 -0.4728
4800000000.0 -1.19 0.759
4803000000.0 -0.2103 1.351
4806000000.0 0.8974 1.02
4809000000.0 1.382 -0.05158
4812000000.0 0.8195 -1.097
4816000000.0 -0.3336 -1.347
4819000000.0 -1.277 -0.6116
4822000000.0 -1.252 0.6181
4825000000.0 -0.3 1.341
4828000000.0 0.884 1.08
4831000000.0 1.363 -0.01619
4834000000.0 0.8525 -1.103
4838000000.0 -0.2811 -1.297
4841000000.0 -1.21 -0.5562
4844000000.0 -1.176 0.5553
4847000000.0 -0.2577 1.244
4850000000.0 0.7529 0.965
4853000000.0 1.183 -0.0008517
4856000000.0 0.7209 -0.9127
4859000000.0 -0.2501 -1.149
4862000000.0 -1.02 -0.467
4866000000.0 -1.017 0.4478
4869000000.0 -0.2298 1.05
4872000000.0 0.6898 0.8508
4875000000.0 1.059 -0.001479
4878000000.0 0.6569 -0.808
4881000000.0 -0.2159 -1.026
4884000000.0 -0.9066 -0.4373
4888000000.0 -0.8981 0.4514
4891000000.0 -0.2156 0.9788
4894000000.0 0.6218 0.7546
4897000000.0 0.9701 -0.01342
4900000000.0 0.6178 -0.7607
4903000000.0 -0.1991 -0.942
4906000000.0 -0.8502 -0.4069
4909000000.0 -0.8437 0.427
4912000000.0 -0.202 0.9367
4916000000.0 0.565 0.7083
4919000000.0 0.9427 0.01758
4922000000.0 0.6078 -0.7385
4925000000.0 -0.1738 -0.9534
4928000000.0 -0.8616 -0.431
4931000000.0 -0.8918 0.3882
4934000000.0 -0.3215 0.9462
4938000000.0 0.5666 0.823
4941000000.0 1.048 0.08375
4944000000.0 0.7028 -0.7663
4947000000.0 -0.1482 -1.055
4950000000.0 -0.9183 -0.5689
4953000000.0 -1.032 0.3497
4956000000.0 -0.3915 1.064
4959000000.0 0.6055 0.9934
4962000000.0 1.178 0.147
4966000000.0 0.8261 -0.8281
4969000000.0 -0.09991 -1.234
4972000000.0 -1.019 -0.7025
4975000000.0 -1.179 0.3861
4978000000.0 -0.4596 1.182
4981000000.0 0.6279 1.086
4984000000.0 1.274 0.196
4988000000.0 0.9656 -0.8675
4991000000.0 -0.07598 -1.278
4994000000.0 -1.032 -0.755
4997000000.0 -1.267 0.3182
5000000000.0 -0.5229 1.206
5003000000.0 0.5908 1.144
5006000000.0 1.317 0.2344
5009000000.0 0.9946 -0.8664
5012000000.0 -0.04562 -1.314
5016000000.0 -1.063 -0.7344
5019000000.0 -1.252 0.3566
5022000000.0 -0.5067 1.185
5025000000.0 0.5897 1.071
5028000000.0 1.218 0.1776
5031000000.0 0.8919 -0.7871
5034000000.0 -0.04548 -1.18
5038000000.0 -0.934 -0.6539
5041000000.0 -1.075 0.3122
5044000000.0 -0.4137 1.013
5047000000.0 0.4969 0.9623
5050000000.0 1.032 0.1776
5053000000.0 0.7831 -0.6671
5056000000.0 -0.08552 -1.002
5059000000.0 -0.7792 -0.5857
5062000000.0 -0.9341 0.2904
5066000000.0 -0.3247 0.8999
5069000000.0 0.4727 0.8248
5072000000.0 0.9544 0.0851
5075000000.0 0.6541 -0.6734
5078000000.0 -0.1278 -0.9032
5081000000.0 -0.7815 -0.4326
5084000000.0 -0.8304 0.3853
5088000000.0 -0.1616 0.8672
5091000000.0 0.5924 0.6655
5094000000.0 0.8909 -0.09845
5097000000.0 0.4778 -0.7289
5100000000.0 -0.3118 -0.7938
5103000000.0 -0.8643 -0.2322
5106000000.0 -0.6953 0.5355
5109000000.0 0.02628 0.9312
5112000000.0 0.7466 0.558
5116000000.0 0.8774 -0.3017
5119000000.0 0.3385 -0.912
5122000000.0 -0.5341 -0.8203
5125000000.0 -0.9711 -0.0481
5128000000.0 -0.636 0.7694
5131000000.0 0.2308 0.9937
5134000000.0 0.9103 0.43
5138000000.0 0.9173 -0.5261
5141000000.0 0.1583 -1.051
5144000000.0 -0.7458 -0.7384
5147000000.0 -1.066 0.1731
5150000000.0 -0.5421 0.9498
5153000000.0 0.4227 0.9996
5156000000.0 1.041 0.2892
5159000000.0 0.8908 -0.6286
5162000000.0 0.04018 -1.095
5166000000.0 -0.8038 -0.7152
5169000000.0 -1.077 0.1697
5172000000.0 -0.523 0.9501
5175000000.0 0.4297 1.023
5178000000.0 1.063 0.3119
5181000000.0 0.8949 -0.6353
5184000000.0 0.0633 -1.118
5188000000.0 -0.8083 -0.7244
5191000000.0 -1.065 0.1568
5194000000.0 -0.5177 0.9518
5197000000.0 0.4246 0.9676
5200000000.0 1.023 0.289
5203000000.0 0.8636 -0.6109
5206000000.0 0.03271 -1.045
5209000000.0 -0.7781 -0.6803
5212000000.0 -1.039 0.1857
5216000000.0 -0.4663 0.9262
5219000000.0 0.4241 0.9221
5222000000.0 0.9706 0.2409
5225000000.0 0.7795 -0.6477
5228000000.0 -0.03401 -0.9986
5231000000.0 -0.7975 -0.5875
5234000000.0 -0.9548 0.3103
5238000000.0 -0.3627 0.9359
5241000000.0 0.5158 0.8175
5244000000.0 0.9566 0.08921
5247000000.0 0.6235 -0.7289
5250000000.0 -0.1951 -0.9601
5253000000.0 -0.881 -0.3841
5256000000.0 -0.8372 0.4796
5259000000.0 -0.1257 0.9548
5262000000.0 0.6823 0.6553
5266000000.0 0.9402 -0.1793
5269000000.0 0.4307 -0.8288
5272000000.0 -0.4108 -0.8334
5275000000.0 -0.9597 -0.1386
5278000000.0 -0.7188 0.6128
5281000000.0 0.104 0.9585
5284000000.0 0.8106 0.5047
5288000000.0 0.8991 -0.3712
5291000000.0 0.3003 -0.969
5294000000.0 -0.577 -0.8103
5297000000.0 -1.004 -0.02425
5300000000.0 -0.6626 0.7584
5303000000.0 0.1606 0.981
5306000000.0 0.8656 0.4661
5309000000.0 0.9247 -0.3913
5312000000.0 0.2646 -1.001
5316000000.0 -0.6124 -0.8436
5319000000.0 -1.05 -0.1008
5322000000.0 -0.7037 0.7852
5325000000.0 0.1572 1.035
5328000000.0 0.9327 0.5504
5331000000.0 1.01 -0.3812
5334000000.0 0.3607 -1.029
5338000000.0 -0.5631 -0.9236
5341000000.0 -1.086 -0.1666
5344000000.0 -0.8193 0.7505
5347000000.0 0.06198 1.113
5350000000.0 0.9173 0.6557
5353000000.0 1.083 -0.2403
5356000000.0 0.4765 -0.9862
5359000000.0 -0.4369 -1.008
5362000000.0 -1.07 -0.3152
5366000000.0 -0.9654 0.6578
5369000000.0 -0.1124 1.157
5372000000.0 0.8155 0.7982
5375000000.0 1.2 -0.1046
5378000000.0 0.668 -0.9351
5381000000.0 -0.3181 -1.12
5384000000.0 -1.076 -0.4318
5388000000.0 -1.025 0.5593
5391000000.0 -0.2079 1.158
5394000000.0 0.7352 0.8611
5397000000.0 1.145 -0.01114
5400000000.0 0.7026 -0.9305
5403000000.0 -0.246 -1.091
5406000000.0 -0.9912 -0.4779
5409000000.0 -1.025 0.4952
5412000000.0 -0.2425 1.096
5416000000.0 0.6819 0.877
5419000000.0 1.071 0.0233
5422000000.0 0.6521 -0.8437
5425000000.0 -0.2573 -1.047
5428000000.0 -0.9391 -0.4554
5431000000.0 -0.941 0.4963
5434000000.0 -0.1924 1.009
5438000000.0 0.6746 0.7556
5441000000.0 1.02 -0.07992
5444000000.0 0.5321 -0.8409
5447000000.0 -0.31 -0.9293
5450000000.0 -0.8925 -0.3013
5453000000.0 -0.7766 0.5321
5456000000.0 -0.0653 0.9299
5459000000.0 0.6788 0.5984
5462000000.0 0.8881 -0.1811
5466000000.0 0.4031 -0.7786
5469000000.0 -0.3207 -0.7893
5472000000.0 -0.8412 -0.1925
5475000000.0 -0.6984 0.5519
5478000000.0 0.00611 0.8813
5481000000.0 0.6891 0.5303
5484000000.0 0.8313 -0.2029
5488000000.0 0.3612 -0.7449
5491000000.0 -0.3686 -0.7789
5494000000.0 -0.882 -0.1849
5497000000.0 -0.6659 0.5498
5500000000.0 0.04957 0.9014
5503000000.0 0.7142 0.5227
5506000000.0 0.8576 -0.2044
5509000000.0 0.3891 -0.7907
5512000000.0 -0.4084 -0.7905
5516000000.0 -0.8581 -0.2433
5519000000.0 -0.7275 0.5251
5522000000.0 -0.07575 0.9115
5525000000.0 0.6431 0.6289
5528000000.0 0.9304 -0.1363
5531000000.0 0.5205 -0.813
5534000000.0 -0.2846 -0.9297
5538000000.0 -0.8734 -0.3765
5541000000.0 -0.8855 0.4706
5544000000.0 -0.2023 0.9884
5547000000.0 0.5947 0.7773
5550000000.0 0.9895 0.008269
5553000000.0 0.6947 -0.7552
5556000000.0 -0.1469 -1.021
5559000000.0 -0.8665 -0.5518
5562000000.0 -0.9885 0.3386
5566000000.0 -0.3487 0.9841
5569000000.0 0.5207 0.919
5572000000.0 1.024 0.1912
5575000000.0 0.7836 -0.6742
5578000000.0 0.00352 -1.038
5581000000.0 -0.8181 -0.6759
5584000000.0 -1.024 0.1819
5588000000.0 -0.5221 0.9002
5591000000.0 0.4025 0.9818
5594000000.0 1.014 0.3343
5597000000.0 0.8748 -0.5672
5600000000.0 0.1239 -1.04
5603000000.0 -0.7067 -0.7677
5606000000.0 -1.022 0.04631
5609000000.0 -0.5923 0.8392
5612000000.0 0.2803 0.9881
5616000000.0 0.9258 0.4159
5619000000.0 0.8817 -0.4196
5622000000.0 0.2282 -0.969
5625000000.0 -0.5563 -0.7671
5628000000.0 -0.9818 -0.04448
5631000000.0 -0.6559 0.7261
5634000000.0 0.1458 0.9443
5638000000.0 0.803 0.466
5641000000.0 0.8992 -0.3497
5644000000.0 0.2788 -0.8899
5647000000.0 -0.5257 -0.7981
5650000000.0 -0.8992 -0.07767
5653000000.0 -0.6506 0.6654
5656000000.0 0.1421 0.9092
5659000000.0 0.7969 0.4675
5662000000.0 0.8632 -0.3107
5666000000.0 0.2686 -0.854
5669000000.0 -0.5152 -0.7349
5672000000.0 -0.9103 -0.03647
5675000000.0 -0.5905 0.6484
5678000000.0 0.1556 0.8862
5681000000.0 0.7909 0.4282
5684000000.0 0.8193 -0.3455
5688000000.0 0.2192 -0.8616
5691000000.0 -0.5597 -0.7227
5694000000.0 -0.8778 -0.003737
5697000000.0 -0.5521 0.693
5700000000.0 0.2108 0.8889
5703000000.0 0.814 0.3895
5706000000.0 0.8338 -0.4116
5709000000.0 0.1832 -0.9067
5712000000.0 -0.6019 -0.7278
5716000000.0 -0.9472 -0.004872
5719000000.0 -0.5965 0.7208
5722000000.0 0.211 0.9794
5725000000.0 0.8556 0.4075
5728000000.0 0.851 -0.4048
5731000000.0 0.2389 -0.9534
5734000000.0 -0.6126 -0.8029
5738000000.0 -1.015 -0.01865
5741000000.0 -0.6976 0.732
5744000000.0 0.1833 1.011
5747000000.0 0.8849 0.4862
5750000000.0 0.9827 -0.3819
5753000000.0 0.3316 -1.009
5756000000.0 -0.5685 -0.8902
5759000000.0 -1.041 -0.1066
5762000000.0 -0.7804 0.7302
5766000000.0 0.1007 1.03
5769000000.0 0.8777 0.6268
5772000000.0 1.025 -0.294
5775000000.0 0.4611 -0.96
5778000000.0 -0.4652 -0.9716
5781000000.0 -1.037 -0.2719
5784000000.0 -0.9018 0.6392
5788000000.0 -0.0742 1.082
5791000000.0 0.8115 0.7539
5794000000.0 1.061 -0.1195
5797000000.0 0.6148 -0.85
5800000000.0 -0.3154 -1.034
5803000000.0 -0.9836 -0.412
5806000000.0 -0.948 0.4933
5809000000.0 -0.231 1.056
5812000000.0 0.6435 0.8413
5816000000.0 1.067 0.02383
5819000000.0 0.6989 -0.7771
5822000000.0 -0.1653 -1.068
5825000000.0 -0.9092 -0.5569
5828000000.0 -1.001 0.3346
5831000000.0 -0.3512 0.9558
5834000000.0 0.5296 0.8914
5838000000.0 1.058 0.1728
5841000000.0 0.8135 -0.6654
5844000000.0 -0.025 -1.011
5847000000.0 -0.7873 -0.6141
5850000000.0 -0.9837 0.2502
5853000000.0 -0.4066 0.9096
5856000000.0 0.4203 0.9138
5859000000.0 0.9743 0.2303
5862000000.0 0.8047 -0.6147
5866000000.0 0.03089 -0.9819
5869000000.0 -0.7606 -0.6399
5872000000.0 -0.9176 0.1695
5875000000.0 -0.4496 0.8432
5878000000.0 0.383 0.8712
5881000000.0 0.9194 0.2557
5884000000.0 0.7528 -0.509
5888000000.0 0.0585 -0.906
5891000000.0 -0.6987 -0.5702
5894000000.0 -0.8986 0.1795
5897000000.0 -0.4411 0.771
5900000000.0 0.3123 0.8397
5903000000.0 0.8845 0.2577
5906000000.0 0.7077 -0.5159
5909000000.0 0.06358 -0.882
5912000000.0 -0.6583 -0.5986
5916000000.0 -0.8499 0.1247
5919000000.0 -0.4438 0.7516
5922000000.0 0.2845 0.8073
5925000000.0 0.8128 0.2732
5928000000.0 0.7354 -0.4844
5931000000.0 0.07826 -0.8468
5934000000.0 -0.6081 -0.6014
5938000000.0 -0.8769 0.0585
5941000000.0 -0.4532 0.7274
5944000000.0 0.2471 0.8385
5947000000.0 0.7757 0.3381
5950000000.0 0.7703 -0.3774
5953000000.0 0.1716 -0.846
5956000000.0 -0.5204 -0.6999
5959000000.0 -0.8582 -0.02815
5962000000.0 -0.5698 0.6752
5966000000.0 0.1548 0.8378
5969000000.0 0.7554 0.4292
5972000000.0 0.8494 -0.2918
5975000000.0 0.3071 -0.8679
5978000000.0 -0.4283 -0.8257
5981000000.0 -0.9065 -0.1309
5984000000.0 -0.6978 0.6066
5988000000.0 0.00912 0.926
5991000000.0 0.7385 0.6119
5994000000.0 0.9381 -0.1732
5997000000.0 0.4561 -0.8337
6000000000.0 -0.3528 -0.925
6003000000.0 -0.8939 -0.3138
6006000000.0 -0.8113 0.5262
6009000000.0 -0.1529 0.9492
6012000000.0 0.6618 0.6934
6016000000.0 0.9853 -0.06231
6019000000.0 0.5987 -0.7778
6022000000.0 -0.228 -0.9521
6025000000.0 -0.8973 -0.4484
6028000000.0 -0.9144 0.4176
6031000000.0 -0.2411 0.9593
6034000000.0 0.5659 0.8199
6038000000.0 1.013 0.06754
6041000000.0 0.6474 -0.7356
6044000000.0 -0.1468 -0.9772
6047000000.0 -0.8372 -0.527
6050000000.0 -0.955 0.3505
6053000000.0 -0.3173 0.9504
6056000000.0 0.5029 0.8502
6059000000.0 0.9967 0.1505
6062000000.0 0.7434 -0.678
6066000000.0 -0.06345 -0.9981
6069000000.0 -0.8063 -0.5612
6072000000.0 -0.9295 0.285
6075000000.0 -0.3677 0.8918
6078000000.0 0.4471 0.7986
6081000000.0 0.9243 0.1741
6084000000.0 0.7251 -0.5983
6088000000.0 -0.01557 -0.9254
6091000000.0 -0.7053 -0.5723
6094000000.0 -0.8771 0.2207
6097000000.0 -0.3842 0.8329
6100000000.0 0.4069 0.7956
6103000000.0 0.8936 0.1888
6106000000.0 0.7041 -0.5715
6109000000.0 0.006431 -0.8641
6112000000.0 -0.6909 -0.5451
6116000000.0 -0.8412 0.1764
6119000000.0 -0.3732 0.7701
6122000000.0 0.3615 0.8083
6125000000.0 0.8175 0.1855
6128000000.0 0.7077 -0.5083
6131000000.0 0.04065 -0.8364
6134000000.0 -0.6438 -0.5248
6138000000.0 -0.8395 0.1614
6141000000.0 -0.4132 0.7001
6144000000.0 0.3283 0.8071
6147000000.0 0.783 0.2506
6150000000.0 0.7179 -0.4757
6153000000.0 0.03976 -0.8675
6156000000.0 -0.6096 -0.6017
6159000000.0 -0.8909 0.08827
6162000000.0 -0.4548 0.7438
6166000000.0 0.2591 0.8419
6169000000.0 0.8084 0.2697
6172000000.0 0.7384 -0.4662
6175000000.0 0.1362 -0.894
6178000000.0 -0.5795 -0.6734
6181000000.0 -0.8676 0.0322
6184000000.0 -0.4994 0.7319
6188000000.0 0.2389 0.8655
6191000000.0 0.8219 0.3627
6194000000.0 0.8015 -0.4211
6197000000.0 0.1528 -0.8956
6200000000.0 -0.5324 -0.7109
6203000000.0 -0.914 -0.0009983
6206000000.0 -0.5795 0.6999
6209000000.0 0.1551 0.8744
6212000000.0 0.8119 0.3877
6216000000.0 0.8179 -0.3621
6219000000.0 0.2544 -0.8611
6222000000.0 -0.4646 -0.7678
6225000000.0 -0.8839 -0.1175
6228000000.0 -0.6481 0.6178
6231000000.0 0.07113 0.921
6234000000.0 0.7224 0.5181
6238000000.0 0.8617 -0.2642
6241000000.0 0.3736 -0.8147
6244000000.0 -0.4017 -0.7612
6247000000.0 -0.8633 -0.1975
6250000000.0 -0.6842 0.5425
6253000000.0 -0.01457 0.845
6256000000.0 0.5912 0.5538
6259000000.0 0.8149 -0.1214
6262000000.0 0.4525 -0.6948
6266000000.0 -0.2535 -0.7851
