! Created with skrf 1.8.0 (http://scikit-rf.org).
# Hz S RI R 50.0 
!freq ReS11 ImS11
4000000000.0 -0.2549 -1.471
4003000000.0 -1.323 -0.7274
4006000000.0 -1.419 0.5835
4009000000.0 -0.4325 1.433
4012000000.0 0.8713 1.251
4016000000.0 1.514 0.1213
4019000000.0 1.086 -1.146
4022000000.0 -0.2288 -1.543
4025000000.0 -1.384 -0.8242
4028000000.0 -1.5 0.5578
4031000000.0 -0.4522 1.517
4034000000.0 0.9089 1.383
4038000000.0 1.611 0.1125
4041000000.0 1.129 -1.188
4044000000.0 -0.2066 -1.592
4047000000.0 -1.43 -0.861
4050000000.0 -1.49 0.5504
4053000000.0 -0.5019 1.501
4056000000.0 0.8357 1.39
4059000000.0 1.613 0.2021
4062000000.0 1.185 -1.056
4066000000.0 -0.0789 -1.574
4069000000.0 -1.317 -0.9629
4072000000.0 -1.564 0.371
4075000000.0 -0.7102 1.431
4078000000.0 0.6815 1.494
4081000000.0 1.589 0.442
4084000000.0 1.395 -0.9137
4088000000.0 0.1471 -1.625
4091000000.0 -1.137 -1.129
4094000000.0 -1.612 0.1798
4097000000.0 -0.882 1.358
4100000000.0 0.4884 1.545
4103000000.0 1.486 0.6348
4106000000.0 1.362 -0.7161
4109000000.0 0.333 -1.493
4112000000.0 -0.9001 -1.251
4116000000.0 -1.464 -0.08885
4119000000.0 -1.036 1.051
4122000000.0 0.1294 1.507
4125000000.0 1.162 0.8517
4128000000.0 1.477 -0.287
4131000000.0 0.698 -1.256
4134000000.0 -0.5328 -1.361
4138000000.0 -1.396 -0.5162
4141000000.0 -1.273 0.7376
4144000000.0 -0.2604 1.455
4147000000.0 0.969 1.171
4150000000.0 1.505 0.05487
4153000000.0 0.9796 -1.119
4156000000.0 -0.2355 -1.504
4159000000.0 -1.282 -0.7865
4162000000.0 -1.414 0.4942
4166000000.0 -0.5355 1.402
4169000000.0 0.7135 1.301
4172000000.0 1.455 0.2857
4175000000.0 1.162 -0.9175
4178000000.0 0.03564 -1.487
4181000000.0 -1.116 -0.9996
4184000000.0 -1.431 0.2263
4188000000.0 -0.7544 1.266
4191000000.0 0.5195 1.411
4194000000.0 1.436 0.5319
4197000000.0 1.344 -0.7932
4200000000.0 0.2124 -1.551
4203000000.0 -1.086 -1.157
4206000000.0 -1.59 0.1443
4209000000.0 -0.8849 1.399
4212000000.0 0.5663 1.561
4216000000.0 1.581 0.5022
4219000000.0 1.377 -0.9165
4222000000.0 0.07392 -1.669
4225000000.0 -1.271 -1.086
4228000000.0 -1.632 0.3834
4231000000.0 -0.657 1.525
4234000000.0 0.8139 1.459
4238000000.0 1.621 0.2054
4241000000.0 1.159 -1.091
4244000000.0 -0.1739 -1.594
4247000000.0 -1.331 -0.8096
4250000000.0 -1.403 0.58
4253000000.0 -0.407 1.464
4256000000.0 0.8802 1.211
4259000000.0 1.486 0.0582
4262000000.0 0.9492 -1.154
4266000000.0 -0.3045 -1.46
4269000000.0 -1.316 -0.6521
4272000000.0 -1.269 0.6111
4275000000.0 -0.2971 1.435
4278000000.0 0.9058 1.115
4281000000.0 1.436 -0.03293
4284000000.0 0.8192 -1.094
4288000000.0 -0.3692 -1.324
4291000000.0 -1.238 -0.5412
4294000000.0 -1.199 0.6033
4297000000.0 -0.3155 1.312
4300000000.0 0.8035 1.005
4303000000.0 1.283 0.06068
4306000000.0 0.8672 -0.9554
4309000000.0 -0.1735 -1.242
4312000000.0 -1.051 -0.7047
4316000000.0 -1.221 0.3822
4319000000.0 -0.5005 1.187
4322000000.0 0.5867 1.195
4325000000.0 1.285 0.3281
4328000000.0 1.067 -0.7618
4331000000.0 0.06449 -1.357
4334000000.0 -1.006 -0.9916
4338000000.0 -1.383 0.1429
4341000000.0 -0.7993 1.163
4344000000.0 0.3975 1.349
4347000000.0 1.332 0.5481
4350000000.0 1.289 -0.6871
4353000000.0 0.3041 -1.404
4356000000.0 -0.9008 -1.147
4359000000.0 -1.479 0.0009565
4362000000.0 -0.9386 1.065
4366000000.0 0.2431 1.435
4369000000.0 1.297 0.7436
4372000000.0 1.382 -0.5137
4375000000.0 0.5048 -1.438
4378000000.0 -0.7733 -1.303
4381000000.0 -1.492 -0.2277
4384000000.0 -1.113 1.052
4388000000.0 0.1319 1.567
4391000000.0 1.28 0.8956
4394000000.0 1.523 -0.4829
4397000000.0 0.5688 -1.471
4400000000.0 -0.7648 -1.396
4403000000.0 -1.556 -0.1805
4406000000.0 -1.135 1.11
4409000000.0 0.1314 1.528
4412000000.0 1.304 0.8299
4416000000.0 1.432 -0.5261
4419000000.0 0.4722 -1.443
4422000000.0 -0.8421 -1.215
4425000000.0 -1.436 -0.09039
4428000000.0 -0.9729 1.086
4431000000.0 0.2502 1.409
4434000000.0 1.219 0.6168
4438000000.0 1.219 -0.5857
4441000000.0 0.3216 -1.303
4444000000.0 -0.8511 -1.023
4447000000.0 -1.33 0.02725
4450000000.0 -0.7724 1.07
4453000000.0 0.3662 1.238
4456000000.0 1.163 0.4515
4459000000.0 1.057 -0.6469
4462000000.0 0.1476 -1.233
4466000000.0 -0.8659 -0.842
4469000000.0 -1.18 0.1737
4472000000.0 -0.5902 1.047
4475000000.0 0.4166 1.059
4478000000.0 1.125 0.3198
4481000000.0 0.924 -0.6992
4484000000.0 0.03945 -1.167
4488000000.0 -0.8742 -0.7712
4491000000.0 -1.128 0.1812
4494000000.0 -0.5225 1.002
4497000000.0 0.4424 1.055
4500000000.0 1.084 0.3298
4503000000.0 0.9077 -0.6447
4506000000.0 0.09961 -1.103
4509000000.0 -0.8387 -0.7534
4512000000.0 -1.102 0.1449
4516000000.0 -0.6013 0.9824
4519000000.0 0.3522 1.075
4522000000.0 1.097 0.3932
4525000000.0 1.012 -0.6055
4528000000.0 0.1821 -1.164
4531000000.0 -0.7813 -0.9156
4534000000.0 -1.196 0.03489
4538000000.0 -0.749 0.9583
4541000000.0 0.2436 1.196
4544000000.0 1.083 0.5555
4547000000.0 1.111 -0.4613
4550000000.0 0.3575 -1.163
4553000000.0 -0.6787 -1.034
4556000000.0 -1.231 -0.1407
4559000000.0 -0.8962 0.8675
4562000000.0 0.07479 1.261
4566000000.0 1.027 0.7819
4569000000.0 1.262 -0.3069
4572000000.0 0.5854 -1.188
4575000000.0 -0.5132 -1.233
4578000000.0 -1.268 -0.3732
4581000000.0 -1.106 0.7539
4584000000.0 -0.1161 1.337
4588000000.0 0.958 0.9669
4591000000.0 1.385 -0.1159
4594000000.0 0.7686 -1.139
4597000000.0 -0.4112 -1.345
4600000000.0 -1.29 -0.5402
4603000000.0 -1.249 0.6384
4606000000.0 -0.2664 1.377
4609000000.0 0.8838 1.075
4612000000.0 1.394 0.01398
4616000000.0 0.9079 -1.09
4619000000.0 -0.3007 -1.377
4622000000.0 -1.248 -0.6416
4625000000.0 -1.27 0.5446
4628000000.0 -0.3591 1.314
4631000000.0 0.7818 1.087
4634000000.0 1.368 0.09589
4638000000.0 0.8995 -1.012
4641000000.0 -0.2097 -1.296
4644000000.0 -1.154 -0.6316
4647000000.0 -1.211 0.5193
4650000000.0 -0.3402 1.25
4653000000.0 0.7509 1.061
4656000000.0 1.275 0.04209
4659000000.0 0.803 -0.9575
4662000000.0 -0.2474 -1.209
4666000000.0 -1.079 -0.5365
4669000000.0 -1.045 0.4994
4672000000.0 -0.3048 1.135
4675000000.0 0.707 0.9208
4678000000.0 1.145 0.01125
4681000000.0 0.7098 -0.8848
4684000000.0 -0.2356 -1.07
4688000000.0 -0.9623 -0.4648
4691000000.0 -0.9731 0.4866
4694000000.0 -0.2859 1.042
4697000000.0 0.6448 0.8394
4700000000.0 1.112 9.011e-05
4703000000.0 0.6826 -0.8248
4706000000.0 -0.2213 -1.069
4709000000.0 -0.9636 -0.4949
4712000000.0 -0.9602 0.4612
4716000000.0 -0.2696 1.052
4719000000.0 0.6803 0.8779
4722000000.0 1.056 0.02742
4725000000.0 0.7121 -0.8173
4728000000.0 -0.1825 -1.039
4731000000.0 -0.9388 -0.4817
4734000000.0 -0.9864 0.3942
4738000000.0 -0.3389 0.9993
4741000000.0 0.5544 0.8889
4744000000.0 1.041 0.1275
4747000000.0 0.7887 -0.7375
4750000000.0 -0.05591 -1.099
4753000000.0 -0.8979 -0.6638
4756000000.0 -1.093 0.2488
4759000000.0 -0.5111 1.035
4762000000.0 0.4816 1.043
4766000000.0 1.126 0.3525
4769000000.0 0.9619 -0.6519
4772000000.0 0.1589 -1.204
4775000000.0 -0.801 -0.8525
4778000000.0 -1.232 0.09442
4781000000.0 -0.7025 0.9621
4784000000.0 0.3017 1.188
4788000000.0 1.088 0.5539
4791000000.0 1.137 -0.4867
4794000000.0 0.3906 -1.205
4797000000.0 -0.7314 -1.04
4800000000.0 -1.261 -0.1677
4803000000.0 -0.9243 0.8692
4806000000.0 0.04883 1.281
4809000000.0 1.018 0.7989
4812000000.0 1.282 -0.2622
4816000000.0 0.6151 -1.167
4819000000.0 -0.5261 -1.233
4822000000.0 -1.294 -0.3952
4825000000.0 -1.155 0.7664
4828000000.0 -0.1421 1.343
4831000000.0 1.015 0.985
4834000000.0 1.395 -0.1542
4838000000.0 0.7805 -1.181
4841000000.0 -0.4203 -1.315
4844000000.0 -1.304 -0.5121
4847000000.0 -1.196 0.6889
4850000000.0 -0.2415 1.378
4853000000.0 0.8883 1.013
4856000000.0 1.369 -0.04855
4859000000.0 0.8102 -1.071
4862000000.0 -0.2952 -1.289
4866000000.0 -1.158 -0.5695
4869000000.0 -1.185 0.5214
4872000000.0 -0.29 1.247
4875000000.0 0.7792 0.9957
4878000000.0 1.236 0.03808
4881000000.0 0.7842 -0.9545
4884000000.0 -0.2025 -1.181
4888000000.0 -1.029 -0.5567
4891000000.0 -1.09 0.475
4894000000.0 -0.3061 1.095
4897000000.0 0.6335 0.9273
4900000000.0 1.102 0.07629
4903000000.0 0.7171 -0.7735
4906000000.0 -0.1533 -1.028
4909000000.0 -0.8867 -0.5212
4912000000.0 -0.9608 0.3244
4916000000.0 -0.3065 0.942
4919000000.0 0.497 0.8026
4922000000.0 0.9554 0.1132
4925000000.0 0.6873 -0.6516
4928000000.0 -0.04225 -0.942
4931000000.0 -0.7556 -0.5418
4934000000.0 -0.9127 0.2353
4938000000.0 -0.3731 0.8272
4941000000.0 0.4333 0.8247
4944000000.0 0.9165 0.197
4947000000.0 0.7604 -0.5707
4950000000.0 0.0225 -0.9584
4953000000.0 -0.745 -0.6269
4956000000.0 -0.9414 0.184
4959000000.0 -0.5035 0.8302
4962000000.0 0.3622 0.9333
4966000000.0 0.9716 0.3038
4969000000.0 0.8465 -0.558
4972000000.0 0.1394 -1.007
4975000000.0 -0.7396 -0.7425
4978000000.0 -1.045 0.07843
4981000000.0 -0.6029 0.8955
4984000000.0 0.2677 1.035
4988000000.0 1.012 0.452
4991000000.0 0.9833 -0.4527
4994000000.0 0.2608 -1.094
4997000000.0 -0.6916 -0.9185
5000000000.0 -1.146 -0.05175
5003000000.0 -0.8042 0.8821
5006000000.0 0.1549 1.177
5009000000.0 1.016 0.6466
5012000000.0 1.18 -0.3979
5016000000.0 0.4574 -1.171
5019000000.0 -0.6148 -1.108
5022000000.0 -1.267 -0.2139
5025000000.0 -0.9576 0.841
5028000000.0 0.03953 1.277
5031000000.0 1.027 0.7897
5034000000.0 1.243 -0.2449
5038000000.0 0.611 -1.135
5041000000.0 -0.5082 -1.177
5044000000.0 -1.256 -0.3998
5047000000.0 -1.099 0.7006
5050000000.0 -0.1455 1.286
5053000000.0 0.8884 0.9003
5056000000.0 1.31 -0.05493
5059000000.0 0.7609 -1.03
5062000000.0 -0.2992 -1.222
5066000000.0 -1.127 -0.5667
5069000000.0 -1.157 0.5415
5072000000.0 -0.3315 1.227
5075000000.0 0.7246 1.044
5078000000.0 1.254 0.1223
5081000000.0 0.8741 -0.8711
5084000000.0 -0.1016 -1.2
5088000000.0 -0.9833 -0.6417
5091000000.0 -1.109 0.3278
5094000000.0 -0.4393 1.034
5097000000.0 0.5281 0.9994
5100000000.0 1.081 0.2542
5103000000.0 0.861 -0.6358
5106000000.0 0.0486 -1.083
5109000000.0 -0.7723 -0.7558
5112000000.0 -1.026 0.1201
5116000000.0 -0.5745 0.8636
5119000000.0 0.3089 0.9704
5122000000.0 0.9156 0.4176
5125000000.0 0.8567 -0.4777
5128000000.0 0.1822 -0.9944
5131000000.0 -0.6207 -0.7151
5134000000.0 -0.9491 -0.008645
5138000000.0 -0.59 0.7738
5141000000.0 0.2064 0.9367
5144000000.0 0.8167 0.4215
5147000000.0 0.8596 -0.3331
5150000000.0 0.2503 -0.9132
5153000000.0 -0.5305 -0.7172
5156000000.0 -0.8971 -0.07641
5159000000.0 -0.6168 0.6351
5162000000.0 0.1159 0.886
5166000000.0 0.7823 0.4689
5169000000.0 0.8283 -0.285
5172000000.0 0.2529 -0.8263
5175000000.0 -0.4771 -0.7379
5178000000.0 -0.9122 -0.0963
5181000000.0 -0.6498 0.6699
5184000000.0 0.1089 0.9237
5188000000.0 0.7698 0.489
5191000000.0 0.8932 -0.3137
5194000000.0 0.2825 -0.8899
5197000000.0 -0.5182 -0.7786
5200000000.0 -0.9527 -0.09465
5203000000.0 -0.6588 0.6944
5206000000.0 0.1109 0.9657
5209000000.0 0.8297 0.5232
5212000000.0 0.9315 -0.2871
5216000000.0 0.3263 -0.9256
5219000000.0 -0.4998 -0.8634
5222000000.0 -0.9932 -0.1689
5225000000.0 -0.7517 0.6677
5228000000.0 0.02899 1.034
5231000000.0 0.8122 0.6266
5234000000.0 1.012 -0.2388
5238000000.0 0.4711 -0.9364
5241000000.0 -0.4194 -0.9747
5244000000.0 -1.017 -0.2958
5247000000.0 -0.8929 0.5802
5250000000.0 -0.1106 1.091
5253000000.0 0.781 0.7843
5256000000.0 1.089 -0.1178
5259000000.0 0.6256 -0.9039
5262000000.0 -0.2909 -1.055
5266000000.0 -1.02 -0.4703
5269000000.0 -1.011 0.457
5272000000.0 -0.2713 1.062
5275000000.0 0.6415 0.8987
5278000000.0 1.117 0.1105
5281000000.0 0.8072 -0.7761
5284000000.0 -0.05113 -1.113
5288000000.0 -0.8838 -0.6448
5291000000.0 -1.079 0.2572
5294000000.0 -0.512 0.9792
5297000000.0 0.4354 1.031
5300000000.0 1.077 0.3465
5303000000.0 0.9418 -0.631
5306000000.0 0.1521 -1.111
5309000000.0 -0.7839 -0.8332
5312000000.0 -1.16 0.05214
5316000000.0 -0.6775 0.88
5319000000.0 0.2662 1.125
5322000000.0 1.034 0.5264
5325000000.0 1.035 -0.4411
5328000000.0 0.2872 -1.08
5331000000.0 -0.6591 -0.9002
5334000000.0 -1.119 -0.09313
5338000000.0 -0.7662 0.785
5341000000.0 0.1623 1.078
5344000000.0 0.9144 0.5408
5347000000.0 1.027 -0.387
5350000000.0 0.371 -1.011
5353000000.0 -0.5737 -0.882
5356000000.0 -1.025 -0.1251
5359000000.0 -0.7431 0.716
5362000000.0 0.08969 1.007
5366000000.0 0.8447 0.5488
5369000000.0 0.9381 -0.3274
5372000000.0 0.2939 -0.9275
5375000000.0 -0.5397 -0.8203
5378000000.0 -0.9467 -0.08098
5381000000.0 -0.6252 0.6888
5384000000.0 0.1301 0.9156
5388000000.0 0.814 0.456
5391000000.0 0.8456 -0.3455
5394000000.0 0.2458 -0.8489
5397000000.0 -0.5365 -0.7162
5400000000.0 -0.8482 -0.007351
5403000000.0 -0.5654 0.6583
5406000000.0 0.1601 0.8354
5409000000.0 0.7687 0.3958
5412000000.0 0.7437 -0.3654
5416000000.0 0.1996 -0.8436
5419000000.0 -0.4916 -0.6626
5422000000.0 -0.8625 -0.01521
5425000000.0 -0.5429 0.6681
5428000000.0 0.1733 0.8651
5431000000.0 0.7732 0.3878
5434000000.0 0.7881 -0.3221
5438000000.0 0.2373 -0.8574
5441000000.0 -0.532 -0.7139
5444000000.0 -0.9137 -0.06314
5447000000.0 -0.6363 0.6861
5450000000.0 0.1622 0.9027
5453000000.0 0.8063 0.4509
5456000000.0 0.8939 -0.3217
5459000000.0 0.3223 -0.8789
5462000000.0 -0.458 -0.8011
5466000000.0 -0.9532 -0.1299
5469000000.0 -0.7493 0.6213
5472000000.0 -0.005692 0.927
5475000000.0 0.7754 0.6302
5478000000.0 0.9757 -0.1822
5481000000.0 0.5036 -0.8639
5484000000.0 -0.3874 -0.9446
5488000000.0 -1.0 -0.3444
5491000000.0 -0.8714 0.5532
5494000000.0 -0.1749 1.027
5497000000.0 0.7192 0.8048
5500000000.0 1.041 -0.04473
5503000000.0 0.645 -0.8455
5506000000.0 -0.227 -1.019
5509000000.0 -0.9631 -0.4654
5512000000.0 -0.9669 0.4134
5516000000.0 -0.3091 1.007
5519000000.0 0.5916 0.9117
5522000000.0 1.078 0.1239
5525000000.0 0.7719 -0.7438
5528000000.0 -0.07838 -1.073
5531000000.0 -0.8724 -0.6135
5534000000.0 -1.022 0.2416
5538000000.0 -0.4964 0.9744
5541000000.0 0.4156 0.9603
5544000000.0 1.011 0.2788
5547000000.0 0.8466 -0.6178
5550000000.0 0.06056 -1.077
5553000000.0 -0.772 -0.7137
5556000000.0 -1.01 0.1711
5559000000.0 -0.5504 0.8814
5562000000.0 0.366 0.9325
5566000000.0 0.92 0.3264
5569000000.0 0.8326 -0.4945
5572000000.0 0.129 -0.9589
5575000000.0 -0.6586 -0.6703
5578000000.0 -0.926 0.07509
5581000000.0 -0.5501 0.7664
5584000000.0 0.2585 0.8725
5588000000.0 0.8123 0.3316
5591000000.0 0.7953 -0.4193
5594000000.0 0.1787 -0.8476
5597000000.0 -0.5464 -0.6153
5600000000.0 -0.8376 -0.005243
5603000000.0 -0.5311 0.6779
5606000000.0 0.1954 0.7883
5609000000.0 0.734 0.3473
5612000000.0 0.7378 -0.3722
5616000000.0 0.1547 -0.796
5619000000.0 -0.5211 -0.6264
5622000000.0 -0.8134 0.01665
5625000000.0 -0.4984 0.6467
5628000000.0 0.201 0.7734
5631000000.0 0.7257 0.3496
5634000000.0 0.7295 -0.3653
5638000000.0 0.1818 -0.8089
5641000000.0 -0.53 -0.6539
5644000000.0 -0.8352 0.01736
5647000000.0 -0.5083 0.6907
5650000000.0 0.2132 0.7942
5653000000.0 0.7873 0.3504
5656000000.0 0.7843 -0.3873
5659000000.0 0.1702 -0.8889
5662000000.0 -0.5856 -0.6842
5666000000.0 -0.9137 0.01516
5669000000.0 -0.5766 0.7142
5672000000.0 0.2089 0.9199
5675000000.0 0.8646 0.3846
5678000000.0 0.87 -0.413
5681000000.0 0.2309 -0.9912
5684000000.0 -0.5981 -0.8012
5688000000.0 -1.009 -0.02011
5691000000.0 -0.6921 0.7716
5694000000.0 0.1647 1.036
5697000000.0 0.9 0.5176
5700000000.0 1.003 -0.3565
5703000000.0 0.3294 -1.021
5706000000.0 -0.5798 -0.9134
5709000000.0 -1.094 -0.1258
5712000000.0 -0.7827 0.7577
5716000000.0 0.07011 1.118
5719000000.0 0.8992 0.6553
5722000000.0 1.085 -0.2996
5725000000.0 0.4366 -1.007
5728000000.0 -0.471 -0.9963
5731000000.0 -1.104 -0.2445
5734000000.0 -0.8917 0.6865
5738000000.0 -0.04828 1.126
5741000000.0 0.8024 0.7632
5744000000.0 1.093 -0.1584
5747000000.0 0.5903 -0.9908
5750000000.0 -0.3963 -1.033
5753000000.0 -1.023 -0.373
5756000000.0 -0.9514 0.5624
5759000000.0 -0.122 1.09
5762000000.0 0.7466 0.8065
5766000000.0 1.103 -0.06084
5769000000.0 0.6147 -0.8666
5772000000.0 -0.2955 -1.045
5775000000.0 -0.9634 -0.4413
5778000000.0 -0.9593 0.4833
5781000000.0 -0.2219 1.013
5784000000.0 0.6736 0.8032
5788000000.0 1.05 -0.00721
5791000000.0 0.6522 -0.7873
5794000000.0 -0.2055 -1.021
5797000000.0 -0.9231 -0.437
5800000000.0 -0.8654 0.4304
5803000000.0 -0.2107 0.9594
5806000000.0 0.6044 0.7615
5809000000.0 0.9703 0.006589
5812000000.0 0.5681 -0.7451
5816000000.0 -0.2258 -0.9189
5819000000.0 -0.8428 -0.3925
5822000000.0 -0.7857 0.4279
5825000000.0 -0.1859 0.8818
5828000000.0 0.6015 0.6668
5831000000.0 0.9068 -0.05402
5834000000.0 0.5336 -0.7316
5838000000.0 -0.2095 -0.8472
5841000000.0 -0.8556 -0.3246
5844000000.0 -0.7775 0.4506
5847000000.0 -0.1359 0.871
5850000000.0 0.608 0.5827
5853000000.0 0.8871 -0.08672
5856000000.0 0.4555 -0.7168
5859000000.0 -0.2783 -0.8465
5862000000.0 -0.8512 -0.2805
5866000000.0 -0.7204 0.4765
5869000000.0 -0.08621 0.88
5872000000.0 0.6384 0.6271
5875000000.0 0.86 -0.115
5878000000.0 0.4302 -0.7849
5881000000.0 -0.3142 -0.8347
5884000000.0 -0.8356 -0.305
5888000000.0 -0.7724 0.4926
5891000000.0 -0.09929 0.9072
5894000000.0 0.642 0.6761
5897000000.0 0.9397 -0.08303
5900000000.0 0.4944 -0.7734
5903000000.0 -0.3286 -0.8836
5906000000.0 -0.8851 -0.3301
5909000000.0 -0.8665 0.4832
5912000000.0 -0.1507 0.9628
5916000000.0 0.6485 0.7196
5919000000.0 0.9694 -0.05532
5922000000.0 0.5832 -0.8106
5925000000.0 -0.2519 -0.9717
5928000000.0 -0.8848 -0.4149
5931000000.0 -0.8635 0.444
5934000000.0 -0.2217 0.9788
5938000000.0 0.6563 0.7717
5941000000.0 0.9912 0.01549
5944000000.0 0.6187 -0.8193
5947000000.0 -0.2437 -1.02
5950000000.0 -0.9437 -0.4515
5953000000.0 -0.8896 0.4558
5956000000.0 -0.2188 1.009
5959000000.0 0.6388 0.7927
5962000000.0 1.021 -0.02604
5966000000.0 0.6183 -0.851
5969000000.0 -0.255 -0.9851
5972000000.0 -0.9405 -0.405
5975000000.0 -0.9065 0.4947
5978000000.0 -0.193 0.9761
5981000000.0 0.6566 0.7393
5984000000.0 0.9638 -0.08145
5988000000.0 0.5308 -0.8217
5991000000.0 -0.3261 -0.9072
5994000000.0 -0.8864 -0.2911
5997000000.0 -0.7676 0.5176
6000000000.0 -0.04131 0.9173
6003000000.0 0.6936 0.5695
6006000000.0 0.8643 -0.163
6009000000.0 0.3695 -0.7838
6012000000.0 -0.3734 -0.7753
6016000000.0 -0.8339 -0.155
6019000000.0 -0.6437 0.5655
6022000000.0 0.0771 0.8576
6025000000.0 0.6968 0.4593
6028000000.0 0.7876 -0.238
6031000000.0 0.2678 -0.7894
6034000000.0 -0.455 -0.688
6038000000.0 -0.8322 -0.06436
6041000000.0 -0.5718 0.586
6044000000.0 0.1426 0.8045
6047000000.0 0.714 0.4252
6050000000.0 0.7806 -0.2914
6053000000.0 0.208 -0.8012
6056000000.0 -0.4975 -0.6809
6059000000.0 -0.8654 -0.02387
6062000000.0 -0.5331 0.6284
6066000000.0 0.188 0.8492
6069000000.0 0.7991 0.3914
6072000000.0 0.8284 -0.4052
6075000000.0 0.1715 -0.9132
6078000000.0 -0.5998 -0.7027
6081000000.0 -0.9527 0.03253
6084000000.0 -0.5655 0.784
6088000000.0 0.2967 0.9158
6091000000.0 0.9231 0.3792
6094000000.0 0.8604 -0.4931
6097000000.0 0.151 -0.9969
6100000000.0 -0.6937 -0.736
6103000000.0 -0.9972 0.1251
6106000000.0 -0.5686 0.8801
6109000000.0 0.3489 1.022
6112000000.0 0.9972 0.3021
6116000000.0 0.8659 -0.6084
6119000000.0 0.04097 -1.053
6122000000.0 -0.7919 -0.6928
6125000000.0 -1.009 0.2668
6128000000.0 -0.4221 0.9527
6131000000.0 0.4785 0.939
6134000000.0 1.021 0.2209
6138000000.0 0.7417 -0.6533
6141000000.0 -0.07045 -1.016
6144000000.0 -0.8372 -0.5153
6147000000.0 -0.9296 0.2898
6150000000.0 -0.3027 0.9099
6153000000.0 0.513 0.8189
6156000000.0 0.9435 0.08706
6159000000.0 0.6064 -0.6918
6162000000.0 -0.183 -0.8644
6166000000.0 -0.7752 -0.398
6169000000.0 -0.8337 0.4038
6172000000.0 -0.2044 0.8646
6175000000.0 0.5481 0.665
6178000000.0 0.8531 -0.06219
6181000000.0 0.5107 -0.696
6184000000.0 -0.2669 -0.7993
6188000000.0 -0.7813 -0.2886
6191000000.0 -0.7057 0.4361
6194000000.0 -0.07731 0.8253
6197000000.0 0.6062 0.5508
6200000000.0 0.825 -0.1299
6203000000.0 0.405 -0.722
6206000000.0 -0.3294 -0.7219
6209000000.0 -0.7587 -0.1735
6212000000.0 -0.6382 0.4925
6216000000.0 0.00249 0.8164
6219000000.0 0.6723 0.4529
6222000000.0 0.732 -0.2447
6225000000.0 0.3039 -0.7132
6228000000.0 -0.3802 -0.6695
6231000000.0 -0.7827 -0.1378
6234000000.0 -0.5906 0.5792
6238000000.0 0.08291 0.8119
6241000000.0 0.7278 0.431
6244000000.0 0.7521 -0.2833
6247000000.0 0.2316 -0.8072
6250000000.0 -0.4633 -0.673
6253000000.0 -0.8265 -0.06055
6256000000.0 -0.5481 0.6362
6259000000.0 0.1517 0.773
6262000000.0 0.7455 0.3906
6266000000.0 0.7458 -0.3112
