! Created with skrf 1.8.0 (http://scikit-rf.org).
# Hz S RI R 50.0 
!freq ReS11 ImS11
4000000000.0 -0.1869 -1.479
4003000000.0 -1.267 -0.809
4006000000.0 -1.39 0.4558
4009000000.0 -0.548 1.42
4012000000.0 0.7595 1.325
4016000000.0 1.5 0.2226
4019000000.0 1.143 -1.064
4022000000.0 -0.08546 -1.519
4025000000.0 -1.284 -0.8972
4028000000.0 -1.534 0.4471
4031000000.0 -0.6275 1.48
4034000000.0 0.7794 1.422
4038000000.0 1.601 0.2671
4041000000.0 1.196 -1.115
4044000000.0 -0.1296 -1.592
4047000000.0 -1.316 -0.917
4050000000.0 -1.582 0.4585
4053000000.0 -0.6786 1.475
4056000000.0 0.7627 1.428
4059000000.0 1.568 0.3038
4062000000.0 1.247 -0.9916
4066000000.0 0.008919 -1.574
4069000000.0 -1.183 -1.09
4072000000.0 -1.613 0.244
4075000000.0 -0.7961 1.381
4078000000.0 0.5388 1.539
4081000000.0 1.544 0.5409
4084000000.0 1.414 -0.8144
4088000000.0 0.2362 -1.65
4091000000.0 -1.083 -1.26
4094000000.0 -1.647 0.0858
4097000000.0 -0.9833 1.315
4100000000.0 0.3572 1.595
4103000000.0 1.401 0.7048
4106000000.0 1.449 -0.6339
4109000000.0 0.4599 -1.506
4112000000.0 -0.8408 -1.296
4116000000.0 -1.519 -0.1652
4119000000.0 -1.13 0.9639
4122000000.0 0.009319 1.489
4125000000.0 1.144 0.9593
4128000000.0 1.469 -0.2315
4131000000.0 0.7768 -1.242
4134000000.0 -0.4305 -1.37
4138000000.0 -1.363 -0.602
4141000000.0 -1.363 0.6102
4144000000.0 -0.382 1.416
4147000000.0 0.8567 1.249
4150000000.0 1.479 0.1466
4153000000.0 1.094 -1.043
4156000000.0 -0.1239 -1.479
4159000000.0 -1.232 -0.8748
4162000000.0 -1.47 0.3646
4166000000.0 -0.6422 1.373
4169000000.0 0.5896 1.357
4172000000.0 1.444 0.4
4175000000.0 1.239 -0.8205
4178000000.0 0.1463 -1.491
4181000000.0 -1.002 -1.1
4184000000.0 -1.478 0.0872
4188000000.0 -0.8949 1.207
4191000000.0 0.3485 1.477
4194000000.0 1.363 0.6668
4197000000.0 1.391 -0.6297
4200000000.0 0.3865 -1.529
4203000000.0 -0.9577 -1.283
4206000000.0 -1.612 -0.04939
4209000000.0 -1.042 1.227
4212000000.0 0.3316 1.612
4216000000.0 1.478 0.7631
4219000000.0 1.495 -0.7328
4222000000.0 0.3103 -1.645
4225000000.0 -1.067 -1.295
4228000000.0 -1.642 0.06032
4231000000.0 -0.9716 1.37
4234000000.0 0.4948 1.622
4238000000.0 1.547 0.5365
4241000000.0 1.362 -0.9161
4244000000.0 0.08269 -1.578
4247000000.0 -1.231 -1.035
4250000000.0 -1.502 0.3452
4253000000.0 -0.7138 1.362
4256000000.0 0.6519 1.361
4259000000.0 1.495 0.3081
4262000000.0 1.14 -0.9874
4266000000.0 -0.09582 -1.512
4269000000.0 -1.203 -0.8865
4272000000.0 -1.408 0.4272
4275000000.0 -0.5537 1.395
4278000000.0 0.7246 1.259
4281000000.0 1.458 0.2127
4284000000.0 1.005 -0.9696
4288000000.0 -0.1407 -1.344
4291000000.0 -1.115 -0.7728
4294000000.0 -1.266 0.4013
4297000000.0 -0.4517 1.236
4300000000.0 0.6481 1.152
4303000000.0 1.279 0.2552
4306000000.0 1.024 -0.7981
4309000000.0 0.03007 -1.272
4312000000.0 -0.9807 -0.8239
4316000000.0 -1.263 0.219
4319000000.0 -0.6991 1.061
4322000000.0 0.3652 1.229
4325000000.0 1.217 0.5046
4328000000.0 1.161 -0.6172
4331000000.0 0.2929 -1.315
4334000000.0 -0.8148 -1.062
4338000000.0 -1.362 -0.0138
4341000000.0 -0.9398 1.014
4344000000.0 0.2034 1.42
4347000000.0 1.199 0.7356
4350000000.0 1.325 -0.4774
4353000000.0 0.5259 -1.358
4356000000.0 -0.7149 -1.257
4359000000.0 -1.407 -0.2827
4362000000.0 -1.125 0.9349
4366000000.0 0.01915 1.436
4369000000.0 1.159 0.949
4372000000.0 1.424 -0.2846
4375000000.0 0.729 -1.272
4378000000.0 -0.5325 -1.384
4381000000.0 -1.41 -0.4711
4384000000.0 -1.285 0.8108
4388000000.0 -0.2011 1.528
4391000000.0 1.091 1.12
4394000000.0 1.556 -0.1497
4397000000.0 0.8815 -1.305
4400000000.0 -0.4767 -1.486
4403000000.0 -1.491 -0.5424
4406000000.0 -1.359 0.819
4409000000.0 -0.1996 1.554
4412000000.0 1.102 1.093
4416000000.0 1.55 -0.1927
4419000000.0 0.8128 -1.285
4422000000.0 -0.5159 -1.422
4425000000.0 -1.419 -0.4406
4428000000.0 -1.243 0.8202
4431000000.0 -0.1224 1.481
4434000000.0 1.081 0.9466
4438000000.0 1.378 -0.2242
4441000000.0 0.6751 -1.193
4444000000.0 -0.5545 -1.276
4447000000.0 -1.307 -0.3221
4450000000.0 -1.052 0.8548
4453000000.0 0.01408 1.343
4456000000.0 1.034 0.791
4459000000.0 1.236 -0.3412
4462000000.0 0.4987 -1.155
4466000000.0 -0.6239 -1.101
4469000000.0 -1.217 -0.1781
4472000000.0 -0.8552 0.8316
4475000000.0 0.1361 1.191
4478000000.0 1.022 0.634
4481000000.0 1.051 -0.423
4484000000.0 0.3653 -1.13
4488000000.0 -0.6345 -0.9106
4491000000.0 -1.158 -0.06029
4494000000.0 -0.7667 0.8509
4497000000.0 0.1689 1.111
4500000000.0 0.9754 0.5768
4503000000.0 0.9903 -0.3578
4506000000.0 0.3303 -1.06
4509000000.0 -0.588 -0.9175
4512000000.0 -1.078 -0.09147
4516000000.0 -0.7949 0.7801
4519000000.0 0.1303 1.091
4522000000.0 0.942 0.5972
4525000000.0 1.094 -0.3507
4528000000.0 0.4518 -1.054
4531000000.0 -0.5776 -0.9967
4534000000.0 -1.138 -0.2084
4538000000.0 -0.8838 0.7655
4541000000.0 0.005053 1.168
4544000000.0 0.9136 0.7271
4547000000.0 1.176 -0.2429
4550000000.0 0.5467 -1.048
4553000000.0 -0.4594 -1.108
4556000000.0 -1.146 -0.3724
4559000000.0 -1.036 0.6164
4562000000.0 -0.1511 1.222
4566000000.0 0.833 0.9307
4569000000.0 1.266 -0.03043
4572000000.0 0.7554 -0.9884
4575000000.0 -0.2746 -1.277
4578000000.0 -1.138 -0.6006
4581000000.0 -1.224 0.4892
4584000000.0 -0.3962 1.283
4588000000.0 0.7036 1.114
4591000000.0 1.312 0.1267
4594000000.0 0.9926 -0.9418
4597000000.0 -0.09576 -1.333
4600000000.0 -1.147 -0.8016
4603000000.0 -1.346 0.3821
4606000000.0 -0.5561 1.253
4609000000.0 0.6255 1.231
4612000000.0 1.354 0.3058
4616000000.0 1.082 -0.8599
4619000000.0 0.01831 -1.397
4622000000.0 -1.037 -0.89
4625000000.0 -1.373 0.2407
4628000000.0 -0.6362 1.211
4631000000.0 0.5248 1.298
4634000000.0 1.27 0.3926
4638000000.0 1.118 -0.7758
4641000000.0 0.1092 -1.361
4644000000.0 -0.9916 -0.8957
4647000000.0 -1.314 0.207
4650000000.0 -0.6507 1.128
4653000000.0 0.4802 1.198
4656000000.0 1.232 0.3747
4659000000.0 1.082 -0.6975
4662000000.0 0.1029 -1.253
4666000000.0 -0.8939 -0.836
4669000000.0 -1.184 0.2047
4672000000.0 -0.5768 1.023
4675000000.0 0.4556 1.079
4678000000.0 1.107 0.305
4681000000.0 0.9314 -0.6336
4684000000.0 0.05496 -1.138
4688000000.0 -0.8161 -0.7479
4691000000.0 -1.129 0.1911
4694000000.0 -0.5515 0.9626
4697000000.0 0.4396 0.9927
4700000000.0 1.061 0.3285
4703000000.0 0.8893 -0.6386
4706000000.0 0.02756 -1.091
4709000000.0 -0.801 -0.7181
4712000000.0 -1.06 0.2111
4716000000.0 -0.4754 0.936
4719000000.0 0.4385 0.9697
4722000000.0 1.067 0.2811
4725000000.0 0.8472 -0.6308
4728000000.0 0.02969 -1.034
4731000000.0 -0.7838 -0.6786
4734000000.0 -1.02 0.1938
4738000000.0 -0.518 0.9115
4741000000.0 0.3146 0.9928
4744000000.0 0.9574 0.3545
4747000000.0 0.8847 -0.5369
4750000000.0 0.1798 -1.046
4753000000.0 -0.7015 -0.8116
4756000000.0 -1.068 0.08324
4759000000.0 -0.6643 0.8403
4762000000.0 0.2256 1.058
4766000000.0 0.9885 0.5127
4769000000.0 1.034 -0.4607
4772000000.0 0.373 -1.116
4775000000.0 -0.6515 -0.9948
4778000000.0 -1.146 -0.1241
4781000000.0 -0.8647 0.7874
4784000000.0 0.06723 1.166
4788000000.0 0.9581 0.7047
4791000000.0 1.178 -0.2619
4794000000.0 0.5712 -1.069
4797000000.0 -0.4428 -1.139
4800000000.0 -1.189 -0.376
4803000000.0 -1.05 0.6415
4806000000.0 -0.1532 1.236
4809000000.0 0.8204 0.9699
4812000000.0 1.28 -0.01495
4816000000.0 0.7957 -1.018
4819000000.0 -0.2461 -1.283
4822000000.0 -1.196 -0.6202
4825000000.0 -1.255 0.4926
4828000000.0 -0.4128 1.313
4831000000.0 0.7685 1.152
4834000000.0 1.369 0.1353
4838000000.0 0.9812 -0.9659
4841000000.0 -0.1421 -1.407
4844000000.0 -1.143 -0.7683
4847000000.0 -1.323 0.3958
4850000000.0 -0.5372 1.29
4853000000.0 0.6758 1.234
4856000000.0 1.355 0.255
4859000000.0 1.028 -0.8723
4862000000.0 -0.01398 -1.35
4866000000.0 -1.046 -0.8299
4869000000.0 -1.295 0.2593
4872000000.0 -0.595 1.14
4875000000.0 0.5274 1.186
4878000000.0 1.238 0.3736
4881000000.0 1.014 -0.7528
4884000000.0 0.04685 -1.271
4888000000.0 -0.9433 -0.8081
4891000000.0 -1.206 0.2123
4894000000.0 -0.5932 1.034
4897000000.0 0.4383 1.09
4900000000.0 1.068 0.3219
4903000000.0 0.9407 -0.6185
4906000000.0 0.1214 -1.088
4909000000.0 -0.7598 -0.7409
4912000000.0 -1.057 0.1256
4916000000.0 -0.5232 0.8953
4919000000.0 0.3193 0.9593
4922000000.0 0.9374 0.3392
4925000000.0 0.8477 -0.4988
4928000000.0 0.17 -0.9446
4931000000.0 -0.6209 -0.7179
4934000000.0 -0.9299 0.04007
4938000000.0 -0.5663 0.7246
4941000000.0 0.2078 0.8649
4944000000.0 0.8542 0.427
4947000000.0 0.8552 -0.4019
4950000000.0 0.2627 -0.9289
4953000000.0 -0.5545 -0.7822
4956000000.0 -0.9709 -0.0318
4959000000.0 -0.652 0.7096
4962000000.0 0.1308 0.9376
4966000000.0 0.8442 0.4808
4969000000.0 0.9277 -0.3438
4972000000.0 0.3271 -0.916
4975000000.0 -0.5428 -0.843
4978000000.0 -0.987 -0.1206
4981000000.0 -0.7699 0.6982
4984000000.0 0.07094 1.036
4988000000.0 0.8309 0.6379
4991000000.0 1.047 -0.2807
4994000000.0 0.4468 -0.9774
4997000000.0 -0.4699 -1.014
5000000000.0 -1.079 -0.3053
5003000000.0 -0.9254 0.6753
5006000000.0 -0.08663 1.149
5009000000.0 0.855 0.7913
5012000000.0 1.203 -0.1185
5016000000.0 0.645 -1.031
5019000000.0 -0.3788 -1.177
5022000000.0 -1.16 -0.4594
5025000000.0 -1.08 0.6259
5028000000.0 -0.2385 1.245
5031000000.0 0.8097 1.001
5034000000.0 1.259 0.01603
5038000000.0 0.7972 -0.9803
5041000000.0 -0.2267 -1.266
5044000000.0 -1.123 -0.6248
5047000000.0 -1.197 0.4675
5050000000.0 -0.4262 1.216
5053000000.0 0.6527 1.136
5056000000.0 1.293 0.222
5059000000.0 0.967 -0.8203
5062000000.0 -0.0006627 -1.303
5066000000.0 -1.015 -0.8072
5069000000.0 -1.257 0.2417
5072000000.0 -0.5925 1.139
5075000000.0 0.489 1.186
5078000000.0 1.224 0.3689
5081000000.0 1.05 -0.6829
5084000000.0 0.1616 -1.195
5088000000.0 -0.8431 -0.9032
5091000000.0 -1.181 0.06903
5094000000.0 -0.7168 0.9685
5097000000.0 0.2518 1.121
5100000000.0 1.034 0.4691
5103000000.0 1.045 -0.4644
5106000000.0 0.3527 -1.057
5109000000.0 -0.6032 -0.938
5112000000.0 -1.083 -0.1584
5116000000.0 -0.7544 0.7751
5119000000.0 0.05263 1.098
5122000000.0 0.8622 0.5959
5125000000.0 1.003 -0.2351
5128000000.0 0.4344 -0.9341
5131000000.0 -0.387 -0.9326
5134000000.0 -0.9627 -0.2131
5138000000.0 -0.7954 0.5704
5141000000.0 -0.04345 0.957
5144000000.0 0.7287 0.6623
5147000000.0 0.9632 -0.1381
5150000000.0 0.4988 -0.8025
5153000000.0 -0.2935 -0.9073
5156000000.0 -0.8226 -0.3298
5159000000.0 -0.8296 0.4626
5162000000.0 -0.1255 0.9256
5166000000.0 0.6138 0.6754
5169000000.0 0.9119 -0.05168
5172000000.0 0.5562 -0.6938
5175000000.0 -0.2419 -0.8568
5178000000.0 -0.8267 -0.3757
5181000000.0 -0.805 0.4182
5184000000.0 -0.1764 0.8969
5188000000.0 0.5772 0.6908
5191000000.0 0.9444 -0.02382
5194000000.0 0.5743 -0.7588
5197000000.0 -0.2539 -0.9176
5200000000.0 -0.8643 -0.3623
5203000000.0 -0.8619 0.3949
5206000000.0 -0.2096 0.9132
5209000000.0 0.5978 0.7457
5212000000.0 0.9619 0.003834
5216000000.0 0.6041 -0.7375
5219000000.0 -0.2095 -0.9644
5222000000.0 -0.89 -0.4235
5225000000.0 -0.8866 0.3983
5228000000.0 -0.2825 0.9544
5231000000.0 0.5901 0.857
5234000000.0 1.01 0.0919
5238000000.0 0.6948 -0.733
5241000000.0 -0.1084 -1.035
5244000000.0 -0.8858 -0.5693
5247000000.0 -1.01 0.3362
5250000000.0 -0.4015 0.9614
5253000000.0 0.5156 0.9379
5256000000.0 1.045 0.2001
5259000000.0 0.8203 -0.649
5262000000.0 0.01361 -1.055
5266000000.0 -0.8409 -0.7191
5269000000.0 -1.075 0.1826
5272000000.0 -0.5409 0.963
5275000000.0 0.3481 1.012
5278000000.0 1.025 0.4124
5281000000.0 0.981 -0.532
5284000000.0 0.2251 -1.083
5288000000.0 -0.6606 -0.8732
5291000000.0 -1.109 -0.0798
5294000000.0 -0.7595 0.8166
5297000000.0 0.1336 1.113
5300000000.0 0.8946 0.6417
5303000000.0 1.07 -0.2958
5306000000.0 0.4701 -1.032
5309000000.0 -0.4687 -1.046
5312000000.0 -1.086 -0.3121
5316000000.0 -0.9411 0.6653
5319000000.0 -0.1169 1.151
5322000000.0 0.8163 0.8197
5325000000.0 1.146 -0.1012
5328000000.0 0.6803 -0.9397
5331000000.0 -0.3172 -1.121
5334000000.0 -1.032 -0.4884
5338000000.0 -1.016 0.4614
5341000000.0 -0.2528 1.093
5344000000.0 0.6743 0.8999
5347000000.0 1.094 0.05209
5350000000.0 0.7504 -0.8234
5353000000.0 -0.1438 -1.108
5356000000.0 -0.9332 -0.5742
5359000000.0 -1.016 0.3712
5362000000.0 -0.3704 1.01
5366000000.0 0.5498 0.9077
5369000000.0 1.082 0.1288
5372000000.0 0.7887 -0.7248
5375000000.0 -0.1068 -1.063
5378000000.0 -0.8503 -0.5572
5381000000.0 -0.9633 0.3227
5384000000.0 -0.3506 0.9249
5388000000.0 0.5241 0.8282
5391000000.0 0.9589 0.09559
5394000000.0 0.6549 -0.6771
5397000000.0 -0.1277 -0.9267
5400000000.0 -0.7878 -0.4644
5403000000.0 -0.8372 0.3165
5406000000.0 -0.2825 0.8643
5409000000.0 0.4797 0.7316
5412000000.0 0.865 0.08031
5416000000.0 0.6097 -0.6225
5419000000.0 -0.108 -0.8469
5422000000.0 -0.7471 -0.4977
5425000000.0 -0.818 0.3138
5428000000.0 -0.2859 0.8282
5431000000.0 0.4707 0.7289
5434000000.0 0.8745 0.06048
5438000000.0 0.605 -0.6401
5441000000.0 -0.1265 -0.8812
5444000000.0 -0.7532 -0.459
5447000000.0 -0.8197 0.3507
5450000000.0 -0.2813 0.8183
5453000000.0 0.4545 0.7318
5456000000.0 0.8692 0.1166
5459000000.0 0.6171 -0.627
5462000000.0 -0.08919 -0.8705
5466000000.0 -0.7094 -0.5235
5469000000.0 -0.8758 0.2662
5472000000.0 -0.349 0.8192
5475000000.0 0.3904 0.8201
5478000000.0 0.8773 0.2021
5481000000.0 0.7728 -0.522
5484000000.0 0.07958 -0.9364
5488000000.0 -0.7164 -0.6911
5491000000.0 -0.9803 0.09489
5494000000.0 -0.54 0.8292
5497000000.0 0.2655 0.9697
5500000000.0 0.9273 0.4012
5503000000.0 0.9158 -0.4474
5506000000.0 0.2245 -0.9773
5509000000.0 -0.5962 -0.8319
5512000000.0 -1.037 -0.03934
5516000000.0 -0.7286 0.7471
5519000000.0 0.08348 1.021
5522000000.0 0.8257 0.5737
5525000000.0 0.9703 -0.2932
5528000000.0 0.4488 -0.9716
5531000000.0 -0.4321 -0.9355
5534000000.0 -1.027 -0.2536
5538000000.0 -0.9069 0.5941
5541000000.0 -0.08881 1.044
5544000000.0 0.7368 0.7665
5547000000.0 1.082 -0.07672
5550000000.0 0.6201 -0.8636
5553000000.0 -0.3119 -1.005
5556000000.0 -0.9537 -0.4339
5559000000.0 -0.9849 0.4762
5562000000.0 -0.2336 1.016
5566000000.0 0.6368 0.8359
5569000000.0 1.085 0.02456
5572000000.0 0.7014 -0.7505
5575000000.0 -0.1454 -1.024
5578000000.0 -0.8617 -0.555
5581000000.0 -0.9689 0.3047
5584000000.0 -0.3594 0.9053
5588000000.0 0.4873 0.8385
5591000000.0 0.9364 0.1439
5594000000.0 0.7179 -0.6149
5597000000.0 0.01728 -0.944
5600000000.0 -0.7346 -0.5959
5603000000.0 -0.8899 0.2017
5606000000.0 -0.402 0.8046
5609000000.0 0.3628 0.8358
5612000000.0 0.8627 0.2255
5616000000.0 0.7031 -0.49
5619000000.0 0.09197 -0.8815
5622000000.0 -0.6254 -0.5769
5625000000.0 -0.8226 0.1144
5628000000.0 -0.4043 0.732
5631000000.0 0.3057 0.7788
5634000000.0 0.7737 0.2815
5638000000.0 0.7134 -0.4245
5641000000.0 0.06513 -0.8183
5644000000.0 -0.6145 -0.5841
5647000000.0 -0.8191 0.09786
5650000000.0 -0.4152 0.697
5653000000.0 0.2909 0.7986
5656000000.0 0.8196 0.2832
5659000000.0 0.7413 -0.4732
5662000000.0 0.07646 -0.8608
5666000000.0 -0.6027 -0.6145
5669000000.0 -0.8654 0.09018
5672000000.0 -0.4718 0.7738
5675000000.0 0.2828 0.827
5678000000.0 0.8623 0.3012
5681000000.0 0.775 -0.4696
5684000000.0 0.0828 -0.8858
5688000000.0 -0.6472 -0.66
5691000000.0 -0.95 0.09237
5694000000.0 -0.5215 0.7946
5697000000.0 0.31 0.9073
5700000000.0 0.8943 0.3203
5703000000.0 0.8926 -0.4788
5706000000.0 0.1722 -1.001
5709000000.0 -0.6737 -0.7736
5712000000.0 -1.003 -0.004033
5716000000.0 -0.6256 0.785
5719000000.0 0.2352 1.006
5722000000.0 0.914 0.445
5725000000.0 0.9599 -0.4123
5728000000.0 0.2864 -1.023
5731000000.0 -0.5876 -0.8934
5734000000.0 -1.1 -0.07262
5738000000.0 -0.7679 0.7421
5741000000.0 0.09039 1.081
5744000000.0 0.9128 0.6028
5747000000.0 1.068 -0.2548
5750000000.0 0.4465 -0.9807
5753000000.0 -0.4946 -0.994
5756000000.0 -1.063 -0.2782
5759000000.0 -0.8905 0.6567
5762000000.0 -0.06602 1.092
5766000000.0 0.8189 0.7513
5769000000.0 1.079 -0.1085
5772000000.0 0.5794 -0.9106
5775000000.0 -0.3212 -1.062
5778000000.0 -0.9845 -0.4147
5781000000.0 -0.9743 0.4997
5784000000.0 -0.2335 1.066
5788000000.0 0.6411 0.8878
5791000000.0 1.071 0.06544
5794000000.0 0.7038 -0.7823
5797000000.0 -0.1712 -1.072
5800000000.0 -0.9118 -0.5976
5803000000.0 -0.9917 0.3674
5806000000.0 -0.3725 0.9756
5809000000.0 0.5015 0.9631
5812000000.0 1.03 0.1846
5816000000.0 0.7925 -0.6629
5819000000.0 0.0228 -1.012
5822000000.0 -0.7954 -0.6047
5825000000.0 -0.9408 0.2187
5828000000.0 -0.4679 0.8885
5831000000.0 0.4017 0.9218
5834000000.0 0.9203 0.2514
5838000000.0 0.7967 -0.5424
5841000000.0 0.06059 -0.9846
5844000000.0 -0.699 -0.6883
5847000000.0 -0.9623 0.16
5850000000.0 -0.4619 0.7897
5853000000.0 0.3264 0.9128
5856000000.0 0.8813 0.3002
5859000000.0 0.8054 -0.5103
5862000000.0 0.07871 -0.8888
5866000000.0 -0.6341 -0.6505
5869000000.0 -0.8772 0.1043
5872000000.0 -0.4685 0.7533
5875000000.0 0.291 0.8477
5878000000.0 0.8356 0.3131
5881000000.0 0.7551 -0.4453
5884000000.0 0.1092 -0.8498
5888000000.0 -0.6133 -0.61
5891000000.0 -0.8489 0.07387
5894000000.0 -0.5055 0.6691
5897000000.0 0.2527 0.8451
5900000000.0 0.7686 0.3306
5903000000.0 0.751 -0.4277
5906000000.0 0.1538 -0.8532
5909000000.0 -0.5483 -0.6641
5912000000.0 -0.8791 -0.007186
5916000000.0 -0.5498 0.6706
5919000000.0 0.1761 0.8443
5922000000.0 0.7604 0.3989
5925000000.0 0.802 -0.3445
5928000000.0 0.2458 -0.8504
5931000000.0 -0.4949 -0.739
5934000000.0 -0.8634 -0.08008
5938000000.0 -0.6396 0.5928
5941000000.0 0.08686 0.9098
5944000000.0 0.7545 0.4752
5947000000.0 0.8524 -0.2426
5950000000.0 0.3674 -0.8261
5953000000.0 -0.3948 -0.8191
5956000000.0 -0.8766 -0.2073
5959000000.0 -0.7611 0.5052
5962000000.0 -0.0745 0.9398
5966000000.0 0.6552 0.65
5969000000.0 0.9562 -0.09276
5972000000.0 0.5261 -0.7924
5975000000.0 -0.2636 -0.9247
5978000000.0 -0.8892 -0.3915
5981000000.0 -0.8401 0.4286
5984000000.0 -0.223 0.9394
5988000000.0 0.584 0.7849
5991000000.0 1.016 0.0336
5994000000.0 0.6432 -0.7282
5997000000.0 -0.1161 -0.9823
6000000000.0 -0.8159 -0.5289
6003000000.0 -0.9453 0.2999
6006000000.0 -0.365 0.9301
6009000000.0 0.509 0.8604
6012000000.0 0.9872 0.1513
6016000000.0 0.7284 -0.6519
6019000000.0 -0.0165 -0.9728
6022000000.0 -0.7753 -0.6252
6025000000.0 -0.9753 0.2216
6028000000.0 -0.4335 0.8757
6031000000.0 0.3668 0.9131
6034000000.0 0.945 0.2536
6038000000.0 0.8116 -0.5475
6041000000.0 0.09247 -0.9538
6044000000.0 -0.7006 -0.6617
6047000000.0 -0.9585 0.1006
6050000000.0 -0.4864 0.794
6053000000.0 0.3119 0.8926
6056000000.0 0.872 0.3129
6059000000.0 0.7936 -0.4983
6062000000.0 0.1113 -0.8939
6066000000.0 -0.6211 -0.6663
6069000000.0 -0.9141 0.06905
6072000000.0 -0.5177 0.7409
6075000000.0 0.248 0.8809
6078000000.0 0.8085 0.3407
6081000000.0 0.7547 -0.4119
6084000000.0 0.1449 -0.8568
6088000000.0 -0.5607 -0.6479
6091000000.0 -0.8612 0.04119
6094000000.0 -0.5393 0.6834
6097000000.0 0.1995 0.8468
6100000000.0 0.739 0.3795
6103000000.0 0.7762 -0.3692
6106000000.0 0.2263 -0.8369
6109000000.0 -0.5579 -0.6873
6112000000.0 -0.8778 -0.01128
6116000000.0 -0.5665 0.6508
6119000000.0 0.1874 0.8325
6122000000.0 0.7831 0.4092
6125000000.0 0.8052 -0.3435
6128000000.0 0.2351 -0.8428
6131000000.0 -0.5076 -0.6961
6134000000.0 -0.8749 -0.05283
6138000000.0 -0.6102 0.6465
6141000000.0 0.111 0.8579
6144000000.0 0.7421 0.4615
6147000000.0 0.7986 -0.2833
6150000000.0 0.2969 -0.8101
6153000000.0 -0.4502 -0.772
6156000000.0 -0.8761 -0.114
6159000000.0 -0.6802 0.6055
6162000000.0 0.04893 0.8976
6166000000.0 0.75 0.5488
6169000000.0 0.8724 -0.2094
6172000000.0 0.4184 -0.8485
6175000000.0 -0.4375 -0.8477
6178000000.0 -0.8835 -0.2115
6181000000.0 -0.7553 0.5942
6184000000.0 -0.02467 0.9075
6188000000.0 0.7386 0.6133
6191000000.0 0.8862 -0.2019
6194000000.0 0.4483 -0.7985
6197000000.0 -0.3401 -0.8835
6200000000.0 -0.9076 -0.2536
6203000000.0 -0.7926 0.4944
6206000000.0 -0.1158 0.9253
6209000000.0 0.6121 0.6596
6212000000.0 0.9647 -0.06443
6216000000.0 0.5622 -0.7472
6219000000.0 -0.2489 -0.8557
6222000000.0 -0.8236 -0.3768
6225000000.0 -0.8054 0.3866
6228000000.0 -0.2465 0.8859
6231000000.0 0.5616 0.7427
6234000000.0 0.8502 0.06615
6238000000.0 0.5853 -0.637
6241000000.0 -0.1108 -0.8858
6244000000.0 -0.7258 -0.461
6247000000.0 -0.8123 0.2554
6250000000.0 -0.324 0.7682
6253000000.0 0.3764 0.7487
6256000000.0 0.8025 0.1734
6259000000.0 0.6327 -0.5032
6262000000.0 0.05602 -0.7653
6266000000.0 -0.6109 -0.5367
