! Created with skrf 1.8.0 (http://scikit-rf.org).
# Hz S RI R 50.0 
!freq ReS11 ImS11
4000000000.0 -0.2202 -1.496
4003000000.0 -1.326 -0.7189
4006000000.0 -1.391 0.6022
4009000000.0 -0.4686 1.439
4012000000.0 0.8863 1.248
4016000000.0 1.534 0.131
4019000000.0 1.059 -1.132
4022000000.0 -0.2468 -1.563
4025000000.0 -1.377 -0.85
4028000000.0 -1.52 0.553
4031000000.0 -0.4674 1.536
4034000000.0 0.9611 1.352
4038000000.0 1.619 0.06767
4041000000.0 1.109 -1.166
4044000000.0 -0.2581 -1.6
4047000000.0 -1.362 -0.8242
4050000000.0 -1.551 0.5909
4053000000.0 -0.495 1.514
4056000000.0 0.8656 1.378
4059000000.0 1.595 0.1839
4062000000.0 1.168 -1.126
4066000000.0 -0.08705 -1.639
4069000000.0 -1.312 -0.9247
4072000000.0 -1.578 0.3777
4075000000.0 -0.6829 1.45
4078000000.0 0.6676 1.464
4081000000.0 1.607 0.4547
4084000000.0 1.336 -0.9709
4088000000.0 0.1351 -1.643
4091000000.0 -1.23 -1.136
4094000000.0 -1.585 0.1961
4097000000.0 -0.8688 1.38
4100000000.0 0.4944 1.526
4103000000.0 1.48 0.5796
4106000000.0 1.347 -0.7378
4109000000.0 0.3145 -1.515
4112000000.0 -0.9179 -1.216
4116000000.0 -1.493 -0.05347
4119000000.0 -1.027 1.077
4122000000.0 0.1161 1.463
4125000000.0 1.186 0.8506
4128000000.0 1.421 -0.3561
4131000000.0 0.6821 -1.295
4134000000.0 -0.5466 -1.387
4138000000.0 -1.415 -0.4934
4141000000.0 -1.294 0.7866
4144000000.0 -0.2426 1.468
4147000000.0 0.951 1.161
4150000000.0 1.501 0.0262
4153000000.0 0.9883 -1.119
4156000000.0 -0.2282 -1.486
4159000000.0 -1.29 -0.76
4162000000.0 -1.412 0.5116
4166000000.0 -0.5062 1.417
4169000000.0 0.7632 1.309
4172000000.0 1.448 0.2436
4175000000.0 1.148 -0.9778
4178000000.0 -0.02658 -1.487
4181000000.0 -1.126 -0.9428
4184000000.0 -1.469 0.2713
4188000000.0 -0.7449 1.308
4191000000.0 0.5566 1.38
4194000000.0 1.438 0.4756
4197000000.0 1.271 -0.8151
4200000000.0 0.1722 -1.54
4203000000.0 -1.142 -1.11
4206000000.0 -1.608 0.2075
4209000000.0 -0.8339 1.392
4212000000.0 0.5663 1.512
4216000000.0 1.569 0.4824
4219000000.0 1.346 -0.9664
4222000000.0 0.0175 -1.682
4225000000.0 -1.293 -1.029
4228000000.0 -1.594 0.4482
4231000000.0 -0.6333 1.477
4234000000.0 0.8254 1.405
4238000000.0 1.583 0.1812
4241000000.0 1.117 -1.124
4244000000.0 -0.2353 -1.537
4247000000.0 -1.365 -0.736
4250000000.0 -1.39 0.6223
4253000000.0 -0.4015 1.469
4256000000.0 0.929 1.186
4259000000.0 1.51 -0.001225
4262000000.0 0.894 -1.127
4266000000.0 -0.3709 -1.414
4269000000.0 -1.333 -0.609
4272000000.0 -1.277 0.667
4275000000.0 -0.2546 1.377
4278000000.0 0.9156 1.067
4281000000.0 1.393 -0.06279
4284000000.0 0.7942 -1.136
4288000000.0 -0.3841 -1.306
4291000000.0 -1.226 -0.5159
4294000000.0 -1.15 0.6296
4297000000.0 -0.2679 1.282
4300000000.0 0.8366 1.018
4303000000.0 1.305 0.02975
4306000000.0 0.8422 -0.9643
4309000000.0 -0.2216 -1.259
4312000000.0 -1.061 -0.6824
4316000000.0 -1.252 0.398
4319000000.0 -0.4842 1.199
4322000000.0 0.6124 1.152
4325000000.0 1.302 0.293
4328000000.0 1.072 -0.8579
4331000000.0 0.05957 -1.327
4334000000.0 -1.024 -0.9318
4338000000.0 -1.38 0.1866
4341000000.0 -0.7398 1.17
4344000000.0 0.45 1.341
4347000000.0 1.31 0.5022
4350000000.0 1.233 -0.6882
4353000000.0 0.2743 -1.429
4356000000.0 -0.9688 -1.121
4359000000.0 -1.457 0.02424
4362000000.0 -0.9173 1.15
4366000000.0 0.3051 1.472
4369000000.0 1.307 0.6644
4372000000.0 1.378 -0.5741
4375000000.0 0.4703 -1.42
4378000000.0 -0.8192 -1.232
4381000000.0 -1.514 -0.1508
4384000000.0 -1.099 1.083
4388000000.0 0.1573 1.532
4391000000.0 1.338 0.8042
4394000000.0 1.484 -0.5051
4397000000.0 0.5336 -1.49
4400000000.0 -0.864 -1.339
4403000000.0 -1.544 -0.1498
4406000000.0 -1.06 1.111
4409000000.0 0.2569 1.54
4412000000.0 1.367 0.7213
4416000000.0 1.387 -0.6037
4419000000.0 0.3594 -1.456
4422000000.0 -0.8972 -1.132
4425000000.0 -1.464 -0.00198
4428000000.0 -0.8623 1.105
4431000000.0 0.3405 1.373
4434000000.0 1.258 0.5463
4438000000.0 1.179 -0.6569
4441000000.0 0.1797 -1.295
4444000000.0 -0.8706 -0.9425
4447000000.0 -1.3 0.109
4450000000.0 -0.6882 1.095
4453000000.0 0.4285 1.179
4456000000.0 1.21 0.3961
4459000000.0 1.012 -0.7189
4462000000.0 0.08393 -1.197
4466000000.0 -0.9087 -0.7918
4469000000.0 -1.135 0.2256
4472000000.0 -0.5476 1.038
4475000000.0 0.5141 1.048
4478000000.0 1.143 0.2438
4481000000.0 0.9081 -0.7288
4484000000.0 -0.01864 -1.113
4488000000.0 -0.8701 -0.739
4491000000.0 -1.071 0.2829
4494000000.0 -0.4824 1.04
4497000000.0 0.5003 1.002
4500000000.0 1.105 0.2669
4503000000.0 0.8534 -0.667
4506000000.0 0.03976 -1.127
4509000000.0 -0.8627 -0.7431
4512000000.0 -1.103 0.2128
4516000000.0 -0.5414 0.9878
4519000000.0 0.4393 1.051
4522000000.0 1.125 0.3631
4525000000.0 0.9713 -0.6296
4528000000.0 0.13 -1.176
4531000000.0 -0.826 -0.8497
4534000000.0 -1.213 0.07181
4538000000.0 -0.6964 0.9916
4541000000.0 0.3144 1.169
4544000000.0 1.127 0.5221
4547000000.0 1.125 -0.5239
4550000000.0 0.3113 -1.182
4553000000.0 -0.7284 -0.9821
4556000000.0 -1.235 -0.08461
4559000000.0 -0.8775 0.9043
4562000000.0 0.1229 1.288
4566000000.0 1.058 0.7166
4569000000.0 1.248 -0.3459
4572000000.0 0.5324 -1.213
4575000000.0 -0.5697 -1.181
4578000000.0 -1.31 -0.3119
4581000000.0 -1.105 0.8205
4584000000.0 -0.08598 1.366
4588000000.0 1.004 0.9338
4591000000.0 1.362 -0.1989
4594000000.0 0.7058 -1.226
4597000000.0 -0.4524 -1.307
4600000000.0 -1.325 -0.4702
4603000000.0 -1.214 0.7131
4606000000.0 -0.2074 1.377
4609000000.0 0.9444 1.019
4612000000.0 1.415 -0.0674
4616000000.0 0.8135 -1.14
4619000000.0 -0.3717 -1.334
4622000000.0 -1.244 -0.5656
4625000000.0 -1.233 0.6234
4628000000.0 -0.2886 1.351
4631000000.0 0.8451 1.043
4634000000.0 1.347 0.01884
4638000000.0 0.8449 -1.048
4641000000.0 -0.2967 -1.295
4644000000.0 -1.194 -0.5453
4647000000.0 -1.172 0.556
4650000000.0 -0.2722 1.286
4653000000.0 0.8206 0.9918
4656000000.0 1.26 -0.01667
4659000000.0 0.712 -0.9846
4662000000.0 -0.3425 -1.176
4666000000.0 -1.113 -0.4778
4669000000.0 -1.058 0.546
4672000000.0 -0.1953 1.151
4675000000.0 0.7523 0.8641
4678000000.0 1.13 -0.01728
4681000000.0 0.6215 -0.878
4684000000.0 -0.2473 -1.068
4688000000.0 -1.022 -0.4501
4691000000.0 -0.9568 0.473
4694000000.0 -0.2206 1.083
4697000000.0 0.7267 0.841
4700000000.0 1.113 -0.0189
4703000000.0 0.6508 -0.8692
4706000000.0 -0.2641 -1.023
4709000000.0 -1.004 -0.4285
4712000000.0 -0.9394 0.4999
4716000000.0 -0.201 1.062
4719000000.0 0.7182 0.8232
4722000000.0 1.082 -0.04015
4725000000.0 0.6225 -0.8493
4728000000.0 -0.2467 -1.036
4731000000.0 -0.9775 -0.4876
4734000000.0 -0.9615 0.4478
4738000000.0 -0.2804 1.027
4741000000.0 0.6116 0.8593
4744000000.0 1.068 0.1125
4747000000.0 0.7919 -0.7803
4750000000.0 -0.1081 -1.076
4753000000.0 -0.9204 -0.6563
4756000000.0 -1.089 0.3037
4759000000.0 -0.48 1.016
4762000000.0 0.5055 1.017
4766000000.0 1.128 0.2885
4769000000.0 0.9556 -0.6931
4772000000.0 0.1018 -1.214
4775000000.0 -0.8663 -0.8251
4778000000.0 -1.219 0.1286
4781000000.0 -0.711 1.013
4784000000.0 0.3384 1.219
4788000000.0 1.125 0.5146
4791000000.0 1.128 -0.5291
4794000000.0 0.3232 -1.224
4797000000.0 -0.7414 -1.028
4800000000.0 -1.274 -0.1255
4803000000.0 -0.8966 0.8864
4806000000.0 0.116 1.296
4809000000.0 1.064 0.735
4812000000.0 1.305 -0.3284
4816000000.0 0.5497 -1.258
4819000000.0 -0.59 -1.231
4822000000.0 -1.306 -0.3292
4825000000.0 -1.108 0.8111
4828000000.0 -0.0755 1.4
4831000000.0 1.027 0.9281
4834000000.0 1.384 -0.2107
4838000000.0 0.722 -1.211
4841000000.0 -0.485 -1.302
4844000000.0 -1.323 -0.4313
4847000000.0 -1.166 0.7242
4850000000.0 -0.1673 1.353
4853000000.0 0.9535 0.9861
4856000000.0 1.339 -0.1198
4859000000.0 0.746 -1.088
4862000000.0 -0.3722 -1.27
4866000000.0 -1.202 -0.51
4869000000.0 -1.116 0.6083
4872000000.0 -0.2196 1.239
4875000000.0 0.7997 0.9482
4878000000.0 1.22 0.001315
4881000000.0 0.7226 -0.9621
4884000000.0 -0.2826 -1.147
4888000000.0 -1.062 -0.4953
4891000000.0 -1.021 0.495
4894000000.0 -0.2476 1.096
4897000000.0 0.6677 0.8795
4900000000.0 1.111 0.006404
4903000000.0 0.6785 -0.8374
4906000000.0 -0.2311 -1.01
4909000000.0 -0.9293 -0.4818
4912000000.0 -0.9239 0.4153
4916000000.0 -0.2802 0.9448
4919000000.0 0.5584 0.7724
4922000000.0 0.9326 0.0832
4925000000.0 0.6383 -0.7037
4928000000.0 -0.1257 -0.9552
4931000000.0 -0.7663 -0.4907
4934000000.0 -0.8936 0.3085
4938000000.0 -0.3329 0.8806
4941000000.0 0.4682 0.8122
4944000000.0 0.9302 0.1598
4947000000.0 0.7206 -0.6109
4950000000.0 -0.01665 -0.949
4953000000.0 -0.7811 -0.5898
4956000000.0 -0.9458 0.217
4959000000.0 -0.4454 0.8854
4962000000.0 0.4223 0.8946
4966000000.0 0.9555 0.2417
4969000000.0 0.8144 -0.6016
4972000000.0 0.07691 -1.023
4975000000.0 -0.7666 -0.7102
4978000000.0 -1.049 0.1276
4981000000.0 -0.5579 0.8978
4984000000.0 0.3429 1.036
4988000000.0 1.026 0.4185
4991000000.0 0.9613 -0.5493
4994000000.0 0.2043 -1.119
4997000000.0 -0.76 -0.8795
5000000000.0 -1.181 0.008405
5003000000.0 -0.7648 0.9259
5006000000.0 0.2226 1.208
5009000000.0 1.104 0.5939
5012000000.0 1.157 -0.4622
5016000000.0 0.3709 -1.208
5019000000.0 -0.7269 -1.085
5022000000.0 -1.306 -0.1641
5025000000.0 -0.9536 0.899
5028000000.0 0.1082 1.288
5031000000.0 1.067 0.7466
5034000000.0 1.235 -0.3604
5038000000.0 0.5613 -1.183
5041000000.0 -0.5994 -1.146
5044000000.0 -1.266 -0.314
5047000000.0 -1.022 0.7748
5050000000.0 -0.07908 1.301
5053000000.0 0.9311 0.8662
5056000000.0 1.284 -0.1329
5059000000.0 0.6898 -1.077
5062000000.0 -0.3916 -1.228
5066000000.0 -1.194 -0.5075
5069000000.0 -1.144 0.5869
5072000000.0 -0.2493 1.215
5075000000.0 0.7884 0.9657
5078000000.0 1.228 0.0438
5081000000.0 0.8025 -0.8949
5084000000.0 -0.1893 -1.195
5088000000.0 -1.0 -0.6073
5091000000.0 -1.055 0.3965
5094000000.0 -0.3762 1.073
5097000000.0 0.5511 0.9476
5100000000.0 1.056 0.1939
5103000000.0 0.8356 -0.6718
5106000000.0 -0.04839 -1.047
5109000000.0 -0.819 -0.6673
5112000000.0 -1.018 0.1857
5116000000.0 -0.4884 0.8766
5119000000.0 0.3761 0.9118
5122000000.0 0.953 0.3272
5125000000.0 0.8504 -0.5219
5128000000.0 0.1258 -0.981
5131000000.0 -0.6671 -0.7043
5134000000.0 -0.9562 0.09686
5138000000.0 -0.5593 0.745
5141000000.0 0.2729 0.88
5144000000.0 0.8782 0.2971
5147000000.0 0.8129 -0.4461
5150000000.0 0.1697 -0.9057
5153000000.0 -0.5976 -0.6687
5156000000.0 -0.8886 0.02049
5159000000.0 -0.5326 0.707
5162000000.0 0.2391 0.8562
5166000000.0 0.8039 0.3678
5169000000.0 0.7796 -0.4036
5172000000.0 0.1864 -0.8721
5175000000.0 -0.574 -0.7059
5178000000.0 -0.9328 -0.0195
5181000000.0 -0.5823 0.7077
5184000000.0 0.2105 0.8973
5188000000.0 0.8556 0.4243
5191000000.0 0.8631 -0.4357
5194000000.0 0.2199 -0.8884
5197000000.0 -0.5911 -0.7412
5200000000.0 -0.9726 0.00804
5203000000.0 -0.613 0.7721
5206000000.0 0.2144 0.9637
5209000000.0 0.87 0.4622
5212000000.0 0.8722 -0.3913
5216000000.0 0.2349 -0.9836
5219000000.0 -0.5688 -0.8176
5222000000.0 -0.9967 -0.04001
5225000000.0 -0.6677 0.726
5228000000.0 0.1414 1.04
5231000000.0 0.8949 0.5813
5234000000.0 0.9869 -0.3513
5238000000.0 0.3861 -1.008
5241000000.0 -0.5145 -0.9277
5244000000.0 -1.05 -0.2146
5247000000.0 -0.8217 0.6978
5250000000.0 0.01374 1.089
5253000000.0 0.8218 0.6905
5256000000.0 1.109 -0.1949
5259000000.0 0.5402 -0.9588
5262000000.0 -0.3754 -1.013
5266000000.0 -1.031 -0.3593
5269000000.0 -0.9522 0.5576
5272000000.0 -0.211 1.073
5275000000.0 0.7157 0.8663
5278000000.0 1.099 -0.008986
5281000000.0 0.712 -0.818
5284000000.0 -0.2145 -1.095
5288000000.0 -0.94 -0.5821
5291000000.0 -1.016 0.3446
5294000000.0 -0.407 1.034
5297000000.0 0.555 0.9799
5300000000.0 1.115 0.2171
5303000000.0 0.8963 -0.7021
5306000000.0 0.01825 -1.145
5309000000.0 -0.8469 -0.7429
5312000000.0 -1.121 0.179
5316000000.0 -0.5769 0.9924
5319000000.0 0.386 1.071
5322000000.0 1.074 0.3717
5325000000.0 0.9798 -0.562
5328000000.0 0.1526 -1.092
5331000000.0 -0.7493 -0.8131
5334000000.0 -1.087 0.04415
5338000000.0 -0.6136 0.8954
5341000000.0 0.3007 1.035
5344000000.0 0.9945 0.3873
5347000000.0 0.9263 -0.5108
5350000000.0 0.1832 -1.009
5353000000.0 -0.673 -0.753
5356000000.0 -1.022 0.03222
5359000000.0 -0.5742 0.8351
5362000000.0 0.2965 0.9662
5366000000.0 0.9029 0.3531
5369000000.0 0.8433 -0.5112
5372000000.0 0.1427 -0.9514
5375000000.0 -0.692 -0.6833
5378000000.0 -0.9225 0.1208
5381000000.0 -0.4997 0.7872
5384000000.0 0.3461 0.869
5388000000.0 0.8638 0.2594
5391000000.0 0.7245 -0.5095
5394000000.0 0.04017 -0.8671
5397000000.0 -0.6529 -0.6005
5400000000.0 -0.8548 0.1377
5403000000.0 -0.4041 0.7679
5406000000.0 0.3372 0.7564
5409000000.0 0.8074 0.2276
5412000000.0 0.6615 -0.5247
5416000000.0 0.0204 -0.8474
5419000000.0 -0.649 -0.5202
5422000000.0 -0.8543 0.1487
5425000000.0 -0.4293 0.7623
5428000000.0 0.3558 0.795
5431000000.0 0.8624 0.2339
5434000000.0 0.7235 -0.4793
5438000000.0 0.03282 -0.898
5441000000.0 -0.6896 -0.6297
5444000000.0 -0.934 0.1313
5447000000.0 -0.4786 0.8086
5450000000.0 0.2982 0.9099
5453000000.0 0.8925 0.346
5456000000.0 0.8298 -0.4775
5459000000.0 0.1673 -0.9373
5462000000.0 -0.6314 -0.7296
5466000000.0 -0.9684 0.03506
5469000000.0 -0.6218 0.7712
5472000000.0 0.2506 0.9944
5475000000.0 0.8988 0.4741
5478000000.0 0.9218 -0.3528
5481000000.0 0.3217 -0.967
5484000000.0 -0.523 -0.8998
5488000000.0 -1.079 -0.1301
5491000000.0 -0.8031 0.7222
5494000000.0 0.06866 1.053
5497000000.0 0.8642 0.6329
5500000000.0 1.052 -0.2811
5503000000.0 0.501 -0.985
5506000000.0 -0.4785 -0.972
5509000000.0 -1.049 -0.2882
5512000000.0 -0.8826 0.6323
5516000000.0 -0.08831 1.074
5519000000.0 0.7833 0.7385
5522000000.0 1.059 -0.1351
5525000000.0 0.5891 -0.9494
5528000000.0 -0.3218 -1.001
5531000000.0 -0.9795 -0.3936
5534000000.0 -0.9413 0.4888
5538000000.0 -0.2082 0.9902
5541000000.0 0.6954 0.7889
5544000000.0 1.041 -0.02528
5547000000.0 0.6243 -0.7644
5550000000.0 -0.2156 -0.9761
5553000000.0 -0.8989 -0.4316
5556000000.0 -0.879 0.4169
5559000000.0 -0.2307 0.9411
5562000000.0 0.5896 0.7811
5566000000.0 0.9688 0.03084
5569000000.0 0.5986 -0.7278
5572000000.0 -0.1951 -0.9117
5575000000.0 -0.7948 -0.4147
5578000000.0 -0.8059 0.3685
5581000000.0 -0.2375 0.8613
5584000000.0 0.5122 0.6919
5588000000.0 0.85 0.03361
5591000000.0 0.527 -0.6335
5594000000.0 -0.1625 -0.7994
5597000000.0 -0.7165 -0.3764
5600000000.0 -0.7452 0.3115
5603000000.0 -0.2143 0.7766
5606000000.0 0.5035 0.6126
5609000000.0 0.8292 0.00211
5612000000.0 0.5062 -0.6138
5616000000.0 -0.1966 -0.7592
5619000000.0 -0.7405 -0.3318
5622000000.0 -0.7146 0.3676
5625000000.0 -0.178 0.7911
5628000000.0 0.5025 0.6231
5631000000.0 0.8246 0.003653
5634000000.0 0.5014 -0.6621
5638000000.0 -0.1959 -0.8362
5641000000.0 -0.7881 -0.3437
5644000000.0 -0.7921 0.374
5647000000.0 -0.1741 0.8498
5650000000.0 0.5698 0.6752
5653000000.0 0.9075 -0.0174
5656000000.0 0.5819 -0.7266
5659000000.0 -0.2286 -0.9083
5662000000.0 -0.8666 -0.4183
5666000000.0 -0.8626 0.4264
5669000000.0 -0.2143 0.9527
5672000000.0 0.6196 0.7982
5675000000.0 1.028 0.008587
5678000000.0 0.6901 -0.809
5681000000.0 -0.2011 -1.023
5684000000.0 -0.9282 -0.4805
5688000000.0 -0.9689 0.4357
5691000000.0 -0.2765 1.078
5694000000.0 0.6261 0.8973
5697000000.0 1.135 0.09146
5700000000.0 0.7667 -0.8238
5703000000.0 -0.1715 -1.091
5706000000.0 -0.967 -0.5547
5709000000.0 -1.065 0.4224
5712000000.0 -0.3786 1.095
5716000000.0 0.6221 0.9902
5719000000.0 1.132 0.1415
5722000000.0 0.8355 -0.7917
5725000000.0 -0.09262 -1.135
5728000000.0 -0.9402 -0.649
5731000000.0 -1.056 0.2895
5734000000.0 -0.4108 1.055
5738000000.0 0.5346 0.9955
5741000000.0 1.094 0.1977
5744000000.0 0.8406 -0.7079
5747000000.0 -0.04926 -1.097
5750000000.0 -0.8956 -0.6353
5753000000.0 -1.071 0.2838
5756000000.0 -0.4944 1.018
5759000000.0 0.5135 0.9187
5762000000.0 1.055 0.1519
5766000000.0 0.7788 -0.6673
5769000000.0 -0.05263 -1.033
5772000000.0 -0.8588 -0.6014
5775000000.0 -0.9486 0.2807
5778000000.0 -0.3664 0.9191
5781000000.0 0.4855 0.8798
5784000000.0 0.979 0.0782
5788000000.0 0.6686 -0.6784
5791000000.0 -0.1288 -0.9815
5794000000.0 -0.8314 -0.4314
5797000000.0 -0.881 0.3519
5800000000.0 -0.254 0.8928
5803000000.0 0.5728 0.7372
5806000000.0 0.9222 0.01169
5809000000.0 0.5263 -0.7097
5812000000.0 -0.2581 -0.8879
5816000000.0 -0.8345 -0.2932
5819000000.0 -0.7524 0.4617
5822000000.0 -0.06471 0.8983
5825000000.0 0.6137 0.5988
5828000000.0 0.872 -0.1633
5831000000.0 0.4061 -0.7639
5834000000.0 -0.3872 -0.7944
5838000000.0 -0.8746 -0.1814
5841000000.0 -0.7051 0.5918
5844000000.0 0.003552 0.8861
5847000000.0 0.7594 0.5519
5850000000.0 0.8839 -0.2522
5853000000.0 0.354 -0.839
5856000000.0 -0.4633 -0.8536
5859000000.0 -0.9544 -0.1351
5862000000.0 -0.7029 0.663
5866000000.0 0.09504 0.9493
5869000000.0 0.8356 0.5462
5872000000.0 0.9189 -0.2923
5875000000.0 0.3344 -0.9562
5878000000.0 -0.5501 -0.843
5881000000.0 -0.9918 -0.1092
5884000000.0 -0.7119 0.7372
5888000000.0 0.1456 1.014
5891000000.0 0.8481 0.5611
5894000000.0 0.9619 -0.336
5897000000.0 0.3424 -1.001
5900000000.0 -0.565 -0.8874
5903000000.0 -1.018 -0.08696
5906000000.0 -0.7423 0.7631
5909000000.0 0.1526 1.047
5912000000.0 0.9343 0.5272
5916000000.0 0.9522 -0.4155
5919000000.0 0.2616 -1.042
5922000000.0 -0.6046 -0.8238
5925000000.0 -1.047 -0.01392
5928000000.0 -0.5926 0.8015
5931000000.0 0.2275 0.9513
5934000000.0 0.8896 0.4069
5938000000.0 0.8982 -0.4681
5941000000.0 0.1748 -0.9616
5944000000.0 -0.6517 -0.6985
5947000000.0 -0.9845 0.08539
5950000000.0 -0.5079 0.8264
5953000000.0 0.3459 0.8764
5956000000.0 0.9191 0.2326
5959000000.0 0.7225 -0.5533
5962000000.0 -0.008929 -0.9104
5966000000.0 -0.7099 -0.5395
5969000000.0 -0.8462 0.2414
5972000000.0 -0.3387 0.8216
5975000000.0 0.4385 0.757
5978000000.0 0.8178 0.09715
5981000000.0 0.5891 -0.6015
5984000000.0 -0.132 -0.8625
5988000000.0 -0.742 -0.3954
5991000000.0 -0.7634 0.3539
5994000000.0 -0.2143 0.8115
5997000000.0 0.5084 0.6682
6000000000.0 0.8245 -0.01199
6003000000.0 0.5262 -0.6823
6006000000.0 -0.2153 -0.7929
6009000000.0 -0.7784 -0.3273
6012000000.0 -0.7183 0.4092
6016000000.0 -0.1549 0.8312
6019000000.0 0.5651 0.6192
6022000000.0 0.8529 -0.03368
6025000000.0 0.5001 -0.7039
6028000000.0 -0.2447 -0.8078
6031000000.0 -0.8139 -0.3377
6034000000.0 -0.7742 0.4071
6038000000.0 -0.1584 0.8524
6041000000.0 0.6048 0.6783
6044000000.0 0.9075 -0.03916
6047000000.0 0.5406 -0.7551
6050000000.0 -0.2426 -0.9109
6053000000.0 -0.8862 -0.3721
6056000000.0 -0.8341 0.4556
6059000000.0 -0.169 0.9618
6062000000.0 0.6792 0.7464
6066000000.0 1.001 -0.06009
6069000000.0 0.5735 -0.8334
6072000000.0 -0.2882 -0.9701
6075000000.0 -0.958 -0.3802
6078000000.0 -0.887 0.476
6081000000.0 -0.1669 1.005
6084000000.0 0.7224 0.7521
6088000000.0 1.008 -0.08753
6091000000.0 0.5588 -0.8588
6094000000.0 -0.3255 -0.9607
6097000000.0 -0.949 -0.3432
6100000000.0 -0.8671 0.5267
6103000000.0 -0.1039 0.9806
6106000000.0 0.7151 0.6783
6109000000.0 0.9855 -0.1576
6112000000.0 0.485 -0.8616
6116000000.0 -0.3771 -0.924
6119000000.0 -0.9456 -0.2476
6122000000.0 -0.7575 0.5502
6125000000.0 -0.04098 0.9465
6128000000.0 0.7249 0.5788
6131000000.0 0.9211 -0.1883
6134000000.0 0.4009 -0.8179
6138000000.0 -0.4026 -0.7942
6141000000.0 -0.8777 -0.1911
6144000000.0 -0.6644 0.5783
6147000000.0 0.00767 0.8253
6150000000.0 0.6812 0.4819
6153000000.0 0.7809 -0.217
6156000000.0 0.2838 -0.7655
6159000000.0 -0.4043 -0.7342
6162000000.0 -0.812 -0.1299
6166000000.0 -0.6206 0.537
6169000000.0 0.06763 0.8267
6172000000.0 0.6977 0.4585
6175000000.0 0.7699 -0.2551
6178000000.0 0.2738 -0.7427
6181000000.0 -0.4091 -0.7374
6184000000.0 -0.855 -0.0835
6188000000.0 -0.5708 0.5435
6191000000.0 0.06881 0.8122
6194000000.0 0.6852 0.4294
6197000000.0 0.7629 -0.3006
6200000000.0 0.2913 -0.767
6203000000.0 -0.4705 -0.6985
6206000000.0 -0.833 -0.0802
6209000000.0 -0.5873 0.584
6212000000.0 0.09938 0.833
6216000000.0 0.7119 0.4565
6219000000.0 0.7754 -0.3314
6222000000.0 0.2832 -0.8021
6225000000.0 -0.4436 -0.6967
6228000000.0 -0.8633 -0.05688
6231000000.0 -0.6034 0.5933
6234000000.0 0.1089 0.8356
6238000000.0 0.7459 0.4587
6241000000.0 0.7793 -0.2698
6244000000.0 0.2728 -0.8033
6247000000.0 -0.4642 -0.7271
6250000000.0 -0.8494 -0.1117
6253000000.0 -0.6007 0.575
6256000000.0 0.08241 0.8406
6259000000.0 0.6714 0.4664
6262000000.0 0.7666 -0.2298
6266000000.0 0.3262 -0.724
