! Created with skrf 1.8.0 (http://scikit-rf.org).
# Hz S RI R 50.0 
!freq ReS11 ImS11
4000000000.0 -0.1463 -1.541
4003000000.0 -1.312 -0.8326
4006000000.0 -1.373 0.49
4009000000.0 -0.5225 1.374
4012000000.0 0.7654 1.325
4016000000.0 1.49 0.2505
4019000000.0 1.108 -1.055
4022000000.0 -0.09865 -1.529
4025000000.0 -1.262 -0.8839
4028000000.0 -1.539 0.4576
4031000000.0 -0.5982 1.503
4034000000.0 0.8042 1.386
4038000000.0 1.587 0.2624
4041000000.0 1.202 -1.076
4044000000.0 -0.1139 -1.582
4047000000.0 -1.358 -0.9053
4050000000.0 -1.549 0.4759
4053000000.0 -0.6184 1.479
4056000000.0 0.7351 1.425
4059000000.0 1.567 0.301
4062000000.0 1.244 -1.024
4066000000.0 -0.008234 -1.627
4069000000.0 -1.215 -1.046
4072000000.0 -1.587 0.2812
4075000000.0 -0.8379 1.417
4078000000.0 0.5618 1.548
4081000000.0 1.519 0.5392
4084000000.0 1.38 -0.8886
4088000000.0 0.2746 -1.614
4091000000.0 -1.107 -1.187
4094000000.0 -1.624 0.07242
4097000000.0 -0.9757 1.338
4100000000.0 0.3641 1.613
4103000000.0 1.421 0.6966
4106000000.0 1.456 -0.6255
4109000000.0 0.4161 -1.462
4112000000.0 -0.8281 -1.293
4116000000.0 -1.464 -0.2024
4119000000.0 -1.128 1.006
4122000000.0 0.01333 1.467
4125000000.0 1.153 0.9461
4128000000.0 1.445 -0.2171
4131000000.0 0.7827 -1.225
4134000000.0 -0.4471 -1.407
4138000000.0 -1.339 -0.5754
4141000000.0 -1.315 0.6464
4144000000.0 -0.3699 1.45
4147000000.0 0.8372 1.221
4150000000.0 1.506 0.1407
4153000000.0 1.072 -1.068
4156000000.0 -0.1317 -1.507
4159000000.0 -1.267 -0.8575
4162000000.0 -1.471 0.3956
4166000000.0 -0.6834 1.381
4169000000.0 0.6247 1.349
4172000000.0 1.457 0.4099
4175000000.0 1.257 -0.8314
4178000000.0 0.1768 -1.49
4181000000.0 -1.007 -1.081
4184000000.0 -1.515 0.1131
4188000000.0 -0.9147 1.219
4191000000.0 0.3796 1.498
4194000000.0 1.389 0.6543
4197000000.0 1.408 -0.6487
4200000000.0 0.4018 -1.527
4203000000.0 -0.9727 -1.292
4206000000.0 -1.616 -0.04299
4209000000.0 -1.044 1.252
4212000000.0 0.3727 1.597
4216000000.0 1.471 0.7216
4219000000.0 1.478 -0.7628
4222000000.0 0.3302 -1.646
4225000000.0 -1.13 -1.259
4228000000.0 -1.66 0.1202
4231000000.0 -0.9246 1.368
4234000000.0 0.56 1.571
4238000000.0 1.548 0.5306
4241000000.0 1.328 -0.9361
4244000000.0 0.1311 -1.561
4247000000.0 -1.2 -1.02
4250000000.0 -1.52 0.3373
4253000000.0 -0.6813 1.401
4256000000.0 0.6802 1.379
4259000000.0 1.496 0.289
4262000000.0 1.138 -0.9763
4266000000.0 -0.07836 -1.496
4269000000.0 -1.238 -0.8732
4272000000.0 -1.435 0.4242
4275000000.0 -0.5203 1.358
4278000000.0 0.7453 1.221
4281000000.0 1.406 0.1847
4284000000.0 1.017 -0.9607
4288000000.0 -0.1339 -1.404
4291000000.0 -1.15 -0.726
4294000000.0 -1.254 0.4138
4297000000.0 -0.5156 1.206
4300000000.0 0.6226 1.12
4303000000.0 1.262 0.1984
4306000000.0 0.993 -0.8156
4309000000.0 0.01879 -1.274
4312000000.0 -0.9852 -0.8396
4316000000.0 -1.258 0.2089
4319000000.0 -0.6868 1.116
4322000000.0 0.4257 1.185
4325000000.0 1.222 0.492
4328000000.0 1.158 -0.6189
4331000000.0 0.2783 -1.289
4334000000.0 -0.8379 -1.061
4338000000.0 -1.393 -0.03949
4341000000.0 -0.8954 1.022
4344000000.0 0.1929 1.392
4347000000.0 1.211 0.7058
4350000000.0 1.35 -0.5091
4353000000.0 0.4734 -1.352
4356000000.0 -0.7338 -1.231
4359000000.0 -1.402 -0.2237
4362000000.0 -1.065 0.9156
4366000000.0 0.005452 1.462
4369000000.0 1.134 0.9117
4372000000.0 1.446 -0.2782
4375000000.0 0.7435 -1.301
4378000000.0 -0.5482 -1.398
4381000000.0 -1.433 -0.4851
4384000000.0 -1.307 0.8208
4388000000.0 -0.1912 1.499
4391000000.0 1.086 1.115
4394000000.0 1.549 -0.181
4397000000.0 0.8416 -1.32
4400000000.0 -0.4807 -1.506
4403000000.0 -1.463 -0.5378
4406000000.0 -1.344 0.8202
4409000000.0 -0.1819 1.574
4412000000.0 1.101 1.109
4416000000.0 1.55 -0.2033
4419000000.0 0.7834 -1.293
4422000000.0 -0.5266 -1.403
4425000000.0 -1.431 -0.4198
4428000000.0 -1.211 0.8301
4431000000.0 -0.07334 1.442
4434000000.0 1.054 0.9406
4438000000.0 1.391 -0.2563
4441000000.0 0.6441 -1.251
4444000000.0 -0.5804 -1.241
4447000000.0 -1.32 -0.2907
4450000000.0 -1.044 0.8414
4453000000.0 0.05074 1.337
4456000000.0 1.046 0.7726
4459000000.0 1.222 -0.3675
4462000000.0 0.4709 -1.185
4466000000.0 -0.6268 -1.05
4469000000.0 -1.215 -0.1556
4472000000.0 -0.8599 0.8823
4475000000.0 0.1443 1.198
4478000000.0 0.9907 0.5751
4481000000.0 1.106 -0.4123
4484000000.0 0.3162 -1.091
4488000000.0 -0.6588 -0.941
4491000000.0 -1.135 -0.07367
4494000000.0 -0.7281 0.838
4497000000.0 0.1588 1.127
4500000000.0 1.003 0.5572
4503000000.0 1.014 -0.3939
4506000000.0 0.3352 -1.059
4509000000.0 -0.6023 -0.9009
4512000000.0 -1.079 -0.0961
4516000000.0 -0.7826 0.7862
4519000000.0 0.1704 1.12
4522000000.0 0.9676 0.5886
4525000000.0 1.078 -0.3545
4528000000.0 0.4134 -1.07
4531000000.0 -0.5664 -0.9927
4534000000.0 -1.13 -0.1837
4538000000.0 -0.8865 0.7572
4541000000.0 0.04186 1.171
4544000000.0 0.9358 0.7184
4547000000.0 1.166 -0.2292
4550000000.0 0.5421 -1.051
4553000000.0 -0.465 -1.126
4556000000.0 -1.179 -0.3586
4559000000.0 -1.033 0.6202
4562000000.0 -0.173 1.224
4566000000.0 0.8438 0.9042
4569000000.0 1.251 -0.05266
4572000000.0 0.7544 -1.005
4575000000.0 -0.2881 -1.255
4578000000.0 -1.137 -0.5917
4581000000.0 -1.242 0.5198
4584000000.0 -0.3854 1.269
4588000000.0 0.7175 1.112
4591000000.0 1.331 0.1561
4594000000.0 0.9884 -0.9708
4597000000.0 -0.1098 -1.37
4600000000.0 -1.14 -0.7841
4603000000.0 -1.351 0.388
4606000000.0 -0.5729 1.281
4609000000.0 0.6452 1.222
4612000000.0 1.362 0.29
4616000000.0 1.102 -0.8574
4619000000.0 0.001942 -1.389
4622000000.0 -1.064 -0.8549
4625000000.0 -1.37 0.2387
4628000000.0 -0.6601 1.219
4631000000.0 0.5237 1.244
4634000000.0 1.329 0.3961
4638000000.0 1.116 -0.7851
4641000000.0 0.09583 -1.344
4644000000.0 -1.002 -0.9116
4647000000.0 -1.321 0.1856
4650000000.0 -0.6524 1.147
4653000000.0 0.5048 1.225
4656000000.0 1.241 0.3937
4659000000.0 1.022 -0.7424
4662000000.0 0.06653 -1.262
4666000000.0 -0.925 -0.8221
4669000000.0 -1.204 0.2102
4672000000.0 -0.5687 1.011
4675000000.0 0.4616 1.075
4678000000.0 1.114 0.3217
4681000000.0 0.928 -0.6525
4684000000.0 0.02528 -1.14
4688000000.0 -0.8228 -0.7348
4691000000.0 -1.062 0.1909
4694000000.0 -0.5104 1.008
4697000000.0 0.4497 0.9902
4700000000.0 1.06 0.3048
4703000000.0 0.8677 -0.6353
4706000000.0 0.003812 -1.075
4709000000.0 -0.8021 -0.7104
4712000000.0 -1.051 0.2081
4716000000.0 -0.4448 0.9651
4719000000.0 0.4516 0.9782
4722000000.0 1.013 0.2468
4725000000.0 0.841 -0.6201
4728000000.0 0.02427 -1.008
4731000000.0 -0.776 -0.6754
4734000000.0 -1.011 0.1835
4738000000.0 -0.4883 0.9246
4741000000.0 0.3544 0.9722
4744000000.0 1.003 0.3096
4747000000.0 0.8932 -0.5452
4750000000.0 0.1549 -1.048
4753000000.0 -0.7066 -0.7958
4756000000.0 -1.112 0.03797
4759000000.0 -0.6538 0.8707
4762000000.0 0.2511 1.067
4766000000.0 0.9767 0.5019
4769000000.0 1.052 -0.4508
4772000000.0 0.3221 -1.081
4775000000.0 -0.6241 -0.9494
4778000000.0 -1.171 -0.1317
4781000000.0 -0.8692 0.8022
4784000000.0 0.07891 1.166
4788000000.0 0.9592 0.7148
4791000000.0 1.177 -0.2697
4794000000.0 0.5543 -1.079
4797000000.0 -0.4727 -1.127
4800000000.0 -1.186 -0.3677
4803000000.0 -1.03 0.6969
4806000000.0 -0.1661 1.235
4809000000.0 0.8176 0.9241
4812000000.0 1.264 -0.04518
4816000000.0 0.8103 -1.036
4819000000.0 -0.2604 -1.287
4822000000.0 -1.186 -0.6039
4825000000.0 -1.244 0.5322
4828000000.0 -0.3772 1.289
4831000000.0 0.7818 1.138
4834000000.0 1.369 0.1369
4838000000.0 0.9762 -0.9856
4841000000.0 -0.1493 -1.381
4844000000.0 -1.159 -0.7517
4847000000.0 -1.356 0.4104
4850000000.0 -0.5356 1.285
4853000000.0 0.6789 1.186
4856000000.0 1.343 0.2571
4859000000.0 1.032 -0.8909
4862000000.0 -0.01328 -1.352
4866000000.0 -1.057 -0.845
4869000000.0 -1.326 0.3031
4872000000.0 -0.5895 1.181
4875000000.0 0.5432 1.178
4878000000.0 1.238 0.3262
4881000000.0 1.02 -0.7757
4884000000.0 0.06431 -1.249
4888000000.0 -0.92 -0.8074
4891000000.0 -1.157 0.1945
4894000000.0 -0.5799 1.062
4897000000.0 0.4336 1.047
4900000000.0 1.112 0.3207
4903000000.0 0.9375 -0.6441
4906000000.0 0.09152 -1.061
4909000000.0 -0.8137 -0.7269
4912000000.0 -1.029 0.112
4916000000.0 -0.5304 0.8738
4919000000.0 0.3081 0.9532
4922000000.0 0.9334 0.3451
4925000000.0 0.832 -0.5117
4928000000.0 0.1432 -0.9382
4931000000.0 -0.6427 -0.7088
4934000000.0 -0.9395 0.02745
4938000000.0 -0.5639 0.7788
4941000000.0 0.2406 0.914
4944000000.0 0.8579 0.4088
4947000000.0 0.8526 -0.3967
4950000000.0 0.2229 -0.8952
4953000000.0 -0.5619 -0.7657
4956000000.0 -0.9539 -0.01526
4959000000.0 -0.643 0.7209
4962000000.0 0.16 0.9569
4966000000.0 0.8645 0.5092
4969000000.0 0.9233 -0.3499
4972000000.0 0.2861 -0.9515
4975000000.0 -0.5108 -0.8153
4978000000.0 -1.018 -0.1389
4981000000.0 -0.7278 0.6999
4984000000.0 0.09369 1.039
4988000000.0 0.8367 0.6263
4991000000.0 1.033 -0.2397
4994000000.0 0.4452 -0.9785
4997000000.0 -0.4945 -1.006
5000000000.0 -1.073 -0.2625
5003000000.0 -0.9415 0.6548
5006000000.0 -0.07415 1.165
5009000000.0 0.8429 0.8133
5012000000.0 1.167 -0.1518
5016000000.0 0.653 -1.013
5019000000.0 -0.4003 -1.155
5022000000.0 -1.173 -0.4454
5025000000.0 -1.079 0.6131
5028000000.0 -0.2201 1.263
5031000000.0 0.7977 0.9982
5034000000.0 1.277 -0.01146
5038000000.0 0.826 -1.024
5041000000.0 -0.2613 -1.239
5044000000.0 -1.116 -0.6222
5047000000.0 -1.205 0.4318
5050000000.0 -0.3873 1.227
5053000000.0 0.6653 1.118
5056000000.0 1.261 0.1968
5059000000.0 0.9656 -0.8721
5062000000.0 -0.02827 -1.334
5066000000.0 -1.005 -0.8217
5069000000.0 -1.297 0.2742
5072000000.0 -0.5913 1.153
5075000000.0 0.4776 1.179
5078000000.0 1.207 0.3731
5081000000.0 1.043 -0.7208
5084000000.0 0.1331 -1.245
5088000000.0 -0.8503 -0.9036
5091000000.0 -1.199 0.09895
5094000000.0 -0.6979 0.9802
5097000000.0 0.3056 1.146
5100000000.0 1.015 0.4843
5103000000.0 1.041 -0.4355
5106000000.0 0.317 -1.085
5109000000.0 -0.5915 -0.9132
5112000000.0 -1.07 -0.1183
5116000000.0 -0.7517 0.7332
5119000000.0 0.07736 1.039
5122000000.0 0.8583 0.5941
5125000000.0 1.018 -0.2904
5128000000.0 0.4376 -0.9216
5131000000.0 -0.4156 -0.9191
5134000000.0 -0.9345 -0.2299
5138000000.0 -0.8166 0.5537
5141000000.0 -0.06337 0.9696
5144000000.0 0.7226 0.6418
5147000000.0 0.9193 -0.1273
5150000000.0 0.529 -0.8142
5153000000.0 -0.2924 -0.88
5156000000.0 -0.8832 -0.3327
5159000000.0 -0.7643 0.4626
5162000000.0 -0.1185 0.8946
5166000000.0 0.5969 0.6373
5169000000.0 0.9207 -0.02027
5172000000.0 0.4899 -0.7279
5175000000.0 -0.2487 -0.8404
5178000000.0 -0.8134 -0.3553
5181000000.0 -0.8231 0.4212
5184000000.0 -0.1482 0.8594
5188000000.0 0.6071 0.7164
5191000000.0 0.9365 -0.04143
5194000000.0 0.5584 -0.7296
5197000000.0 -0.231 -0.9238
5200000000.0 -0.8655 -0.3764
5203000000.0 -0.8326 0.4218
5206000000.0 -0.1977 0.9327
5209000000.0 0.6202 0.7702
5212000000.0 0.9494 0.0005096
5216000000.0 0.6013 -0.7753
5219000000.0 -0.2235 -0.9555
5222000000.0 -0.8871 -0.4341
5225000000.0 -0.9006 0.4136
5228000000.0 -0.2433 0.9761
5231000000.0 0.5675 0.8097
5234000000.0 1.031 0.05923
5238000000.0 0.7046 -0.754
5241000000.0 -0.1419 -1.042
5244000000.0 -0.8787 -0.5687
5247000000.0 -0.9982 0.3474
5250000000.0 -0.3615 0.9876
5253000000.0 0.5041 0.9442
5256000000.0 1.038 0.1683
5259000000.0 0.8238 -0.701
5262000000.0 0.008186 -1.067
5266000000.0 -0.8279 -0.7022
5269000000.0 -1.059 0.1876
5272000000.0 -0.5601 0.9207
5275000000.0 0.3469 1.071
5278000000.0 0.994 0.4174
5281000000.0 0.929 -0.5176
5284000000.0 0.2404 -1.056
5288000000.0 -0.6685 -0.8767
5291000000.0 -1.074 -0.06293
5294000000.0 -0.7711 0.8343
5297000000.0 0.1308 1.117
5300000000.0 0.9635 0.6309
5303000000.0 1.067 -0.3457
5306000000.0 0.4624 -1.026
5309000000.0 -0.4987 -1.005
5312000000.0 -1.115 -0.2892
5316000000.0 -0.9323 0.656
5319000000.0 -0.08803 1.156
5322000000.0 0.8072 0.8072
5325000000.0 1.153 -0.1245
5328000000.0 0.6401 -0.9613
5331000000.0 -0.3152 -1.106
5334000000.0 -1.013 -0.4177
5338000000.0 -1.003 0.5175
5341000000.0 -0.2496 1.096
5344000000.0 0.658 0.8887
5347000000.0 1.106 0.02078
5350000000.0 0.7396 -0.8187
5353000000.0 -0.1597 -1.062
5356000000.0 -0.9557 -0.5303
5359000000.0 -1.015 0.3725
5362000000.0 -0.3367 1.002
5366000000.0 0.5423 0.9019
5369000000.0 1.073 0.1262
5372000000.0 0.7541 -0.7583
5375000000.0 -0.1001 -1.036
5378000000.0 -0.8683 -0.5475
5381000000.0 -0.9657 0.3678
5384000000.0 -0.3171 0.9323
5388000000.0 0.4964 0.8205
5391000000.0 0.9259 0.1017
5394000000.0 0.6557 -0.6927
5397000000.0 -0.1129 -0.9288
5400000000.0 -0.8018 -0.4637
5403000000.0 -0.8489 0.3074
5406000000.0 -0.25 0.8262
5409000000.0 0.5073 0.7172
5412000000.0 0.8717 0.0649
5416000000.0 0.6057 -0.6586
5419000000.0 -0.1161 -0.8561
5422000000.0 -0.7554 -0.4375
5425000000.0 -0.7961 0.2867
5428000000.0 -0.252 0.8231
5431000000.0 0.4859 0.7423
5434000000.0 0.8683 0.05943
5438000000.0 0.6011 -0.6692
5441000000.0 -0.1367 -0.9104
5444000000.0 -0.7268 -0.3906
5447000000.0 -0.8058 0.3231
5450000000.0 -0.2818 0.8512
5453000000.0 0.4791 0.7201
5456000000.0 0.8838 0.09428
5459000000.0 0.6196 -0.6394
5462000000.0 -0.0727 -0.9033
5466000000.0 -0.7272 -0.5154
5469000000.0 -0.8373 0.2299
5472000000.0 -0.3864 0.8428
5475000000.0 0.3749 0.8201
5478000000.0 0.9264 0.1947
5481000000.0 0.7584 -0.5462
5484000000.0 0.0584 -0.9581
5488000000.0 -0.693 -0.6849
5491000000.0 -0.9417 0.1355
5494000000.0 -0.5308 0.8
5497000000.0 0.2527 0.971
5500000000.0 0.9184 0.4039
5503000000.0 0.9222 -0.4282
5506000000.0 0.2529 -0.9998
5509000000.0 -0.6046 -0.8129
5512000000.0 -1.04 -0.06388
5516000000.0 -0.7187 0.7274
5519000000.0 0.1308 1.053
5522000000.0 0.8897 0.5653
5525000000.0 0.9775 -0.2837
5528000000.0 0.4167 -0.9516
5531000000.0 -0.4468 -0.9674
5534000000.0 -1.029 -0.2718
5538000000.0 -0.863 0.5965
5541000000.0 -0.05702 1.066
5544000000.0 0.7405 0.7538
5547000000.0 1.041 -0.1151
5550000000.0 0.589 -0.8946
5553000000.0 -0.3018 -1.037
5556000000.0 -0.988 -0.4183
5559000000.0 -0.9072 0.4706
5562000000.0 -0.2224 1.001
5566000000.0 0.6257 0.8279
5569000000.0 1.05 0.03464
5572000000.0 0.7038 -0.7543
5575000000.0 -0.1433 -1.005
5578000000.0 -0.8597 -0.5297
5581000000.0 -0.9427 0.3318
5584000000.0 -0.342 0.9278
5588000000.0 0.4818 0.8606
5591000000.0 0.9351 0.1616
5594000000.0 0.7198 -0.603
5597000000.0 -0.02591 -0.9423
5600000000.0 -0.7352 -0.5235
5603000000.0 -0.8987 0.1987
5606000000.0 -0.3873 0.8455
5609000000.0 0.3737 0.8063
5612000000.0 0.8621 0.2016
5616000000.0 0.7033 -0.512
5619000000.0 0.0623 -0.8506
5622000000.0 -0.656 -0.5572
5625000000.0 -0.8311 0.1479
5628000000.0 -0.4503 0.7109
5631000000.0 0.3119 0.7913
5634000000.0 0.772 0.2374
5638000000.0 0.6984 -0.4753
5641000000.0 0.05367 -0.8267
5644000000.0 -0.6175 -0.5554
5647000000.0 -0.8341 0.1149
5650000000.0 -0.4139 0.7042
5653000000.0 0.29 0.779
5656000000.0 0.7931 0.2468
5659000000.0 0.6983 -0.4834
5662000000.0 0.08806 -0.8863
5666000000.0 -0.6243 -0.5985
5669000000.0 -0.8668 0.126
5672000000.0 -0.4724 0.7651
5675000000.0 0.3139 0.8395
5678000000.0 0.8549 0.277
5681000000.0 0.7898 -0.472
5684000000.0 0.0933 -0.9342
5688000000.0 -0.6742 -0.6651
5691000000.0 -0.9554 0.1154
5694000000.0 -0.5352 0.8069
5697000000.0 0.3027 0.9253
5700000000.0 0.9198 0.3476
5703000000.0 0.8478 -0.4724
5706000000.0 0.1791 -0.9905
5709000000.0 -0.6577 -0.748
5712000000.0 -1.025 0.05452
5716000000.0 -0.5915 0.7855
5719000000.0 0.1992 0.9906
5722000000.0 0.9808 0.4785
5725000000.0 0.9412 -0.4223
5728000000.0 0.2864 -1.004
5731000000.0 -0.6336 -0.8695
5734000000.0 -1.041 -0.1183
5738000000.0 -0.7783 0.753
5741000000.0 0.1072 1.076
5744000000.0 0.8948 0.5903
5747000000.0 1.064 -0.2609
5750000000.0 0.4032 -0.9738
5753000000.0 -0.4983 -0.9884
5756000000.0 -1.04 -0.2672
5759000000.0 -0.8895 0.6688
5762000000.0 -0.06296 1.082
5766000000.0 0.8083 0.7694
5769000000.0 1.105 -0.1335
5772000000.0 0.5831 -0.9542
5775000000.0 -0.3328 -1.054
5778000000.0 -1.006 -0.3951
5781000000.0 -0.9286 0.529
5784000000.0 -0.2272 1.068
5788000000.0 0.6544 0.8486
5791000000.0 1.067 0.03982
5794000000.0 0.6911 -0.8056
5797000000.0 -0.1647 -1.046
5800000000.0 -0.9367 -0.5658
5803000000.0 -0.9903 0.344
5806000000.0 -0.3767 0.9935
5809000000.0 0.5271 0.9078
5812000000.0 1.032 0.2075
5816000000.0 0.7885 -0.6948
5819000000.0 -0.01351 -1.025
5822000000.0 -0.7781 -0.6168
5825000000.0 -0.9541 0.2339
5828000000.0 -0.426 0.8757
5831000000.0 0.4335 0.8971
5834000000.0 0.9336 0.2353
5838000000.0 0.7843 -0.5698
5841000000.0 0.05834 -0.9839
5844000000.0 -0.7082 -0.6836
5847000000.0 -0.932 0.1489
5850000000.0 -0.4819 0.8137
5853000000.0 0.3442 0.8755
5856000000.0 0.8809 0.31
5859000000.0 0.7777 -0.482
5862000000.0 0.0592 -0.8986
5866000000.0 -0.6595 -0.6279
5869000000.0 -0.8792 0.1296
5872000000.0 -0.4576 0.7562
5875000000.0 0.2794 0.865
5878000000.0 0.846 0.2836
5881000000.0 0.7163 -0.4695
5884000000.0 0.08924 -0.8203
5888000000.0 -0.6086 -0.5923
5891000000.0 -0.8689 0.1035
5894000000.0 -0.494 0.7327
5897000000.0 0.2457 0.826
5900000000.0 0.8024 0.2969
5903000000.0 0.7494 -0.4291
5906000000.0 0.1708 -0.8486
5909000000.0 -0.5469 -0.6686
5912000000.0 -0.8542 0.03722
5916000000.0 -0.5407 0.6678
5919000000.0 0.2022 0.8193
5922000000.0 0.791 0.378
5925000000.0 0.7958 -0.3507
5928000000.0 0.2299 -0.826
5931000000.0 -0.5041 -0.7112
5934000000.0 -0.8913 -0.07524
5938000000.0 -0.6111 0.6533
5941000000.0 0.08224 0.8828
5944000000.0 0.7165 0.5134
5947000000.0 0.8536 -0.2516
5950000000.0 0.3684 -0.8278
5953000000.0 -0.4353 -0.8008
5956000000.0 -0.8998 -0.2193
5959000000.0 -0.71 0.5623
5962000000.0 -0.03617 0.9478
5966000000.0 0.6955 0.6214
5969000000.0 0.9459 -0.1363
5972000000.0 0.5303 -0.8064
5975000000.0 -0.2706 -0.9189
5978000000.0 -0.8956 -0.3478
5981000000.0 -0.8677 0.4479
5984000000.0 -0.2105 0.945
5988000000.0 0.626 0.8055
5991000000.0 0.9804 0.07418
5994000000.0 0.6677 -0.7603
5997000000.0 -0.1764 -0.9623
6000000000.0 -0.8671 -0.5525
6003000000.0 -0.8974 0.3386
6006000000.0 -0.3329 0.9413
6009000000.0 0.5015 0.8385
6012000000.0 0.968 0.1714
6016000000.0 0.7566 -0.6558
6019000000.0 -0.02882 -0.9861
6022000000.0 -0.7724 -0.5931
6025000000.0 -0.9529 0.2544
6028000000.0 -0.4199 0.8884
6031000000.0 0.417 0.9022
6034000000.0 0.9301 0.2514
6038000000.0 0.7663 -0.5759
6041000000.0 0.04309 -0.9608
6044000000.0 -0.715 -0.6543
6047000000.0 -0.968 0.1558
6050000000.0 -0.4751 0.8274
6053000000.0 0.342 0.8757
6056000000.0 0.8762 0.3118
6059000000.0 0.7813 -0.4874
6062000000.0 0.1212 -0.898
6066000000.0 -0.6373 -0.6559
6069000000.0 -0.8952 0.09413
6072000000.0 -0.4782 0.7575
6075000000.0 0.2674 0.8528
6078000000.0 0.8407 0.3209
6081000000.0 0.768 -0.427
6084000000.0 0.1261 -0.8531
6088000000.0 -0.5956 -0.6342
6091000000.0 -0.8732 0.03032
6094000000.0 -0.4821 0.6935
6097000000.0 0.2189 0.8046
6100000000.0 0.7826 0.3412
6103000000.0 0.7926 -0.3984
6106000000.0 0.185 -0.8563
6109000000.0 -0.5699 -0.6387
6112000000.0 -0.8711 0.02506
6116000000.0 -0.5441 0.6668
6119000000.0 0.155 0.8406
6122000000.0 0.7784 0.3972
6125000000.0 0.7891 -0.3769
6128000000.0 0.1974 -0.8547
6131000000.0 -0.5174 -0.6796
6134000000.0 -0.8876 -0.01721
6138000000.0 -0.5964 0.6659
6141000000.0 0.1259 0.8762
6144000000.0 0.7552 0.4374
6147000000.0 0.8163 -0.3326
6150000000.0 0.2839 -0.8411
6153000000.0 -0.5023 -0.7462
6156000000.0 -0.9061 -0.09049
6159000000.0 -0.6576 0.639
6162000000.0 0.09046 0.9
6166000000.0 0.7523 0.5127
6169000000.0 0.8988 -0.2462
6172000000.0 0.3478 -0.8417
6175000000.0 -0.4575 -0.8119
6178000000.0 -0.9268 -0.1883
6181000000.0 -0.7213 0.5657
6184000000.0 -0.00871 0.9394
6188000000.0 0.7044 0.5914
6191000000.0 0.9359 -0.2012
6194000000.0 0.4568 -0.8333
6197000000.0 -0.3346 -0.8712
6200000000.0 -0.888 -0.2736
6203000000.0 -0.8378 0.5551
6206000000.0 -0.09888 0.9153
6209000000.0 0.6588 0.6763
6212000000.0 0.9113 -0.07544
6216000000.0 0.5342 -0.7672
6219000000.0 -0.2784 -0.8678
6222000000.0 -0.8322 -0.3879
6225000000.0 -0.8286 0.4203
6228000000.0 -0.2433 0.8697
6231000000.0 0.5442 0.7078
6234000000.0 0.8935 0.04576
6238000000.0 0.5835 -0.6834
6241000000.0 -0.1465 -0.9069
6244000000.0 -0.7585 -0.4571
6247000000.0 -0.8326 0.2759
6250000000.0 -0.3065 0.7871
6253000000.0 0.3712 0.7424
6256000000.0 0.8429 0.1775
6259000000.0 0.6207 -0.488
6262000000.0 -0.02213 -0.8214
6266000000.0 -0.597 -0.5303
