! Created with skrf 1.8.0 (http://scikit-rf.org).
# Hz S RI R 50.0 
!freq ReS11 ImS11
4000000000.0 -0.2409 -1.47
4003000000.0 -1.293 -0.75
4006000000.0 -1.395 0.5059
4009000000.0 -0.4684 1.424
4012000000.0 0.8215 1.277
4016000000.0 1.519 0.188
4019000000.0 1.072 -1.062
4022000000.0 -0.1744 -1.535
4025000000.0 -1.334 -0.8987
4028000000.0 -1.518 0.4926
4031000000.0 -0.569 1.559
4034000000.0 0.8393 1.364
4038000000.0 1.634 0.1592
4041000000.0 1.153 -1.119
4044000000.0 -0.1779 -1.669
4047000000.0 -1.372 -0.8993
4050000000.0 -1.534 0.4783
4053000000.0 -0.6258 1.515
4056000000.0 0.8057 1.4
4059000000.0 1.573 0.2913
4062000000.0 1.251 -1.039
4066000000.0 0.0008861 -1.637
4069000000.0 -1.263 -1.015
4072000000.0 -1.591 0.2871
4075000000.0 -0.7928 1.396
4078000000.0 0.623 1.55
4081000000.0 1.543 0.5399
4084000000.0 1.361 -0.8775
4088000000.0 0.2351 -1.64
4091000000.0 -1.137 -1.192
4094000000.0 -1.666 0.1162
4097000000.0 -0.9367 1.328
4100000000.0 0.4239 1.557
4103000000.0 1.459 0.6795
4106000000.0 1.432 -0.6622
4109000000.0 0.4273 -1.529
4112000000.0 -0.8785 -1.26
4116000000.0 -1.492 -0.1749
4119000000.0 -1.097 1.015
4122000000.0 0.03037 1.466
4125000000.0 1.149 0.9256
4128000000.0 1.485 -0.2292
4131000000.0 0.7355 -1.241
4134000000.0 -0.4623 -1.381
4138000000.0 -1.402 -0.5868
4141000000.0 -1.349 0.6501
4144000000.0 -0.3488 1.41
4147000000.0 0.8903 1.226
4150000000.0 1.493 0.09315
4153000000.0 1.069 -1.074
4156000000.0 -0.142 -1.521
4159000000.0 -1.258 -0.8558
4162000000.0 -1.453 0.3888
4166000000.0 -0.6339 1.38
4169000000.0 0.6709 1.331
4172000000.0 1.436 0.3782
4175000000.0 1.204 -0.8732
4178000000.0 0.1435 -1.478
4181000000.0 -1.047 -1.034
4184000000.0 -1.488 0.1279
4188000000.0 -0.8388 1.219
4191000000.0 0.4045 1.455
4194000000.0 1.408 0.6033
4197000000.0 1.377 -0.7088
4200000000.0 0.3047 -1.553
4203000000.0 -1.012 -1.242
4206000000.0 -1.625 0.06345
4209000000.0 -0.9955 1.264
4212000000.0 0.3974 1.595
4216000000.0 1.492 0.646
4219000000.0 1.461 -0.8264
4222000000.0 0.2257 -1.672
4225000000.0 -1.157 -1.205
4228000000.0 -1.637 0.1819
4231000000.0 -0.8406 1.404
4234000000.0 0.6482 1.528
4238000000.0 1.551 0.4672
4241000000.0 1.269 -0.9873
4244000000.0 0.008886 -1.556
4247000000.0 -1.232 -0.973
4250000000.0 -1.513 0.4003
4253000000.0 -0.5935 1.431
4256000000.0 0.7705 1.332
4259000000.0 1.473 0.1985
4262000000.0 1.094 -1.053
4266000000.0 -0.1417 -1.504
4269000000.0 -1.269 -0.7753
4272000000.0 -1.376 0.5178
4275000000.0 -0.4723 1.424
4278000000.0 0.7718 1.16
4281000000.0 1.417 0.09583
4284000000.0 0.9619 -1.011
4288000000.0 -0.2024 -1.407
4291000000.0 -1.148 -0.6821
4294000000.0 -1.262 0.4886
4297000000.0 -0.4199 1.247
4300000000.0 0.6733 1.098
4303000000.0 1.277 0.1967
4306000000.0 0.9586 -0.8871
4309000000.0 -0.05247 -1.283
4312000000.0 -1.038 -0.8159
4316000000.0 -1.227 0.2568
4319000000.0 -0.6088 1.169
4322000000.0 0.463 1.206
4325000000.0 1.276 0.4299
4328000000.0 1.134 -0.6768
4331000000.0 0.2481 -1.358
4334000000.0 -0.8896 -1.06
4338000000.0 -1.4 0.03854
4341000000.0 -0.8759 1.077
4344000000.0 0.3121 1.327
4347000000.0 1.255 0.6837
4350000000.0 1.29 -0.5627
4353000000.0 0.4186 -1.36
4356000000.0 -0.7909 -1.214
4359000000.0 -1.446 -0.1696
4362000000.0 -1.069 0.9948
4366000000.0 0.09228 1.452
4369000000.0 1.159 0.8634
4372000000.0 1.43 -0.3535
4375000000.0 0.6413 -1.323
4378000000.0 -0.6744 -1.357
4381000000.0 -1.471 -0.3829
4384000000.0 -1.223 0.9181
4388000000.0 -0.1168 1.521
4391000000.0 1.145 1.021
4394000000.0 1.534 -0.2506
4397000000.0 0.763 -1.413
4400000000.0 -0.5593 -1.42
4403000000.0 -1.529 -0.4673
4406000000.0 -1.238 0.9455
4409000000.0 -0.03525 1.568
4412000000.0 1.164 1.043
4416000000.0 1.507 -0.291
4419000000.0 0.676 -1.339
4422000000.0 -0.6703 -1.352
4425000000.0 -1.449 -0.3347
4428000000.0 -1.134 0.9562
4431000000.0 0.02801 1.444
4434000000.0 1.125 0.8583
4438000000.0 1.365 -0.3985
4441000000.0 0.5512 -1.258
4444000000.0 -0.6691 -1.139
4447000000.0 -1.307 -0.1956
4450000000.0 -0.9473 0.8852
4453000000.0 0.1529 1.308
4456000000.0 1.067 0.654
4459000000.0 1.19 -0.4561
4462000000.0 0.3717 -1.212
4466000000.0 -0.7271 -1.0
4469000000.0 -1.2 -0.06952
4472000000.0 -0.7649 0.9231
4475000000.0 0.2784 1.17
4478000000.0 1.066 0.5375
4481000000.0 1.073 -0.5006
4484000000.0 0.2615 -1.116
4488000000.0 -0.7018 -0.8765
4491000000.0 -1.115 0.02174
4494000000.0 -0.7111 0.8868
4497000000.0 0.2916 1.057
4500000000.0 1.026 0.4761
4503000000.0 0.9665 -0.4787
4506000000.0 0.2443 -1.06
4509000000.0 -0.6926 -0.8641
4512000000.0 -1.131 -0.01586
4516000000.0 -0.7227 0.8364
4519000000.0 0.2231 1.117
4522000000.0 0.9807 0.5733
4525000000.0 1.027 -0.4226
4528000000.0 0.3452 -1.106
4531000000.0 -0.6574 -0.9721
4534000000.0 -1.143 -0.145
4538000000.0 -0.8305 0.8271
4541000000.0 0.1046 1.164
4544000000.0 0.9902 0.6851
4547000000.0 1.165 -0.3196
4550000000.0 0.4821 -1.118
4553000000.0 -0.5054 -1.112
4556000000.0 -1.18 -0.2794
4559000000.0 -1.01 0.7325
4562000000.0 -0.1019 1.255
4566000000.0 0.9018 0.8394
4569000000.0 1.266 -0.1379
4572000000.0 0.7322 -1.058
4575000000.0 -0.3443 -1.248
4578000000.0 -1.209 -0.5302
4581000000.0 -1.18 0.551
4584000000.0 -0.3309 1.309
4588000000.0 0.8055 1.08
4591000000.0 1.357 0.05266
4594000000.0 0.9192 -1.016
4597000000.0 -0.1799 -1.368
4600000000.0 -1.195 -0.7083
4603000000.0 -1.3 0.4615
4606000000.0 -0.4836 1.294
4609000000.0 0.733 1.215
4612000000.0 1.39 0.1893
4616000000.0 1.011 -0.9256
4619000000.0 -0.07856 -1.364
4622000000.0 -1.14 -0.8138
4625000000.0 -1.322 0.3408
4628000000.0 -0.5625 1.239
4631000000.0 0.6286 1.221
4634000000.0 1.345 0.2568
4638000000.0 1.055 -0.866
4641000000.0 -0.006899 -1.331
4644000000.0 -1.058 -0.8187
4647000000.0 -1.277 0.2871
4650000000.0 -0.5555 1.192
4653000000.0 0.5609 1.182
4656000000.0 1.26 0.266
4659000000.0 0.9824 -0.8052
4662000000.0 -0.02408 -1.259
4666000000.0 -0.9861 -0.7271
4669000000.0 -1.163 0.2982
4672000000.0 -0.495 1.092
4675000000.0 0.5136 1.032
4678000000.0 1.154 0.2452
4681000000.0 0.8753 -0.7794
4684000000.0 -0.03084 -1.133
4688000000.0 -0.9011 -0.6724
4691000000.0 -1.084 0.2817
4694000000.0 -0.4125 0.998
4697000000.0 0.5084 0.9873
4700000000.0 1.077 0.1929
4703000000.0 0.8208 -0.6763
4706000000.0 -0.05452 -1.101
4709000000.0 -0.8867 -0.5844
4712000000.0 -1.06 0.3136
4716000000.0 -0.3838 0.963
4719000000.0 0.5233 0.9312
4722000000.0 1.041 0.1834
4725000000.0 0.7896 -0.6903
4728000000.0 -0.05175 -1.056
4731000000.0 -0.8189 -0.6281
4734000000.0 -0.9966 0.2553
4738000000.0 -0.4666 0.9425
4741000000.0 0.4497 0.9538
4744000000.0 1.034 0.273
4747000000.0 0.8758 -0.6207
4750000000.0 0.08438 -1.045
4753000000.0 -0.7479 -0.7614
4756000000.0 -1.088 0.1132
4759000000.0 -0.6202 0.9101
4762000000.0 0.3034 1.077
4766000000.0 1.04 0.432
4769000000.0 1.04 -0.4778
4772000000.0 0.2616 -1.13
4775000000.0 -0.697 -0.931
4778000000.0 -1.157 -0.07221
4781000000.0 -0.8152 0.8473
4784000000.0 0.1454 1.185
4788000000.0 1.017 0.6538
4791000000.0 1.156 -0.3345
4794000000.0 0.5063 -1.137
4797000000.0 -0.5417 -1.129
4800000000.0 -1.2 -0.3098
4803000000.0 -1.002 0.7191
4806000000.0 -0.09633 1.245
4809000000.0 0.8975 0.8838
4812000000.0 1.282 -0.1295
4816000000.0 0.774 -1.074
4819000000.0 -0.3298 -1.295
4822000000.0 -1.245 -0.554
4825000000.0 -1.22 0.5785
4828000000.0 -0.3165 1.339
4831000000.0 0.8422 1.101
4834000000.0 1.374 0.04112
4838000000.0 0.931 -1.024
4841000000.0 -0.2249 -1.376
4844000000.0 -1.188 -0.7145
4847000000.0 -1.323 0.4931
4850000000.0 -0.4294 1.314
4853000000.0 0.7432 1.171
4856000000.0 1.341 0.1393
4859000000.0 0.9657 -0.9529
4862000000.0 -0.09956 -1.342
4866000000.0 -1.106 -0.7711
4869000000.0 -1.253 0.3882
4872000000.0 -0.4842 1.204
4875000000.0 0.5968 1.141
4878000000.0 1.265 0.2585
4881000000.0 0.9495 -0.815
4884000000.0 -0.02689 -1.222
4888000000.0 -0.9768 -0.7459
4891000000.0 -1.176 0.2737
4894000000.0 -0.4952 1.06
4897000000.0 0.474 1.024
4900000000.0 1.118 0.2726
4903000000.0 0.8469 -0.6898
4906000000.0 0.01014 -1.05
4909000000.0 -0.8341 -0.687
4912000000.0 -1.01 0.2002
4916000000.0 -0.4793 0.9098
4919000000.0 0.3761 0.913
4922000000.0 0.9446 0.2912
4925000000.0 0.8035 -0.5708
4928000000.0 0.08153 -0.954
4931000000.0 -0.6982 -0.6592
4934000000.0 -0.9565 0.1023
4938000000.0 -0.5102 0.7763
4941000000.0 0.2855 0.9137
4944000000.0 0.8909 0.3373
4947000000.0 0.8101 -0.4598
4950000000.0 0.1788 -0.9431
4953000000.0 -0.6201 -0.7099
4956000000.0 -0.9625 -0.007029
4959000000.0 -0.5925 0.7477
4962000000.0 0.2597 0.958
4966000000.0 0.8859 0.4279
4969000000.0 0.9041 -0.4224
4972000000.0 0.245 -1.011
4975000000.0 -0.5954 -0.8037
4978000000.0 -1.025 -0.07115
4981000000.0 -0.7115 0.7672
4984000000.0 0.1487 1.03
4988000000.0 0.8947 0.579
4991000000.0 1.003 -0.332
4994000000.0 0.392 -1.03
4997000000.0 -0.5361 -0.9854
5000000000.0 -1.103 -0.2275
5003000000.0 -0.8971 0.7073
5006000000.0 -0.01929 1.168
5009000000.0 0.9103 0.7474
5012000000.0 1.198 -0.2081
5016000000.0 0.5801 -1.064
5019000000.0 -0.4381 -1.183
5022000000.0 -1.21 -0.3911
5025000000.0 -1.064 0.7065
5028000000.0 -0.1607 1.278
5031000000.0 0.889 0.9259
5034000000.0 1.281 -0.09069
5038000000.0 0.7303 -1.059
5041000000.0 -0.3273 -1.249
5044000000.0 -1.144 -0.562
5047000000.0 -1.187 0.5506
5050000000.0 -0.3457 1.229
5053000000.0 0.7626 1.063
5056000000.0 1.264 0.1237
5059000000.0 0.9303 -0.9025
5062000000.0 -0.1141 -1.269
5066000000.0 -1.047 -0.7398
5069000000.0 -1.256 0.3168
5072000000.0 -0.5343 1.139
5075000000.0 0.5843 1.125
5078000000.0 1.235 0.3138
5081000000.0 0.9961 -0.7752
5084000000.0 0.07285 -1.265
5088000000.0 -0.83 -0.8055
5091000000.0 -1.19 0.1383
5094000000.0 -0.667 0.9664
5097000000.0 0.3701 1.105
5100000000.0 1.027 0.4441
5103000000.0 0.9812 -0.5494
5106000000.0 0.2063 -1.067
5109000000.0 -0.6627 -0.8571
5112000000.0 -1.051 -0.07287
5116000000.0 -0.7125 0.8007
5119000000.0 0.1508 1.068
5122000000.0 0.8688 0.5555
5125000000.0 0.9902 -0.2998
5128000000.0 0.4034 -0.9353
5131000000.0 -0.4917 -0.8633
5134000000.0 -0.9842 -0.1781
5138000000.0 -0.7543 0.6379
5141000000.0 0.02674 0.962
5144000000.0 0.7496 0.6011
5147000000.0 0.9042 -0.2218
5150000000.0 0.4117 -0.8511
5153000000.0 -0.3753 -0.8368
5156000000.0 -0.8903 -0.2497
5159000000.0 -0.7454 0.495
5162000000.0 -0.06443 0.905
5166000000.0 0.6231 0.6331
5169000000.0 0.8918 -0.1017
5172000000.0 0.4681 -0.7552
5175000000.0 -0.3384 -0.8303
5178000000.0 -0.8494 -0.3202
5181000000.0 -0.7699 0.4767
5184000000.0 -0.09019 0.9282
5188000000.0 0.6404 0.6727
5191000000.0 0.9334 -0.1334
5194000000.0 0.4788 -0.7888
5197000000.0 -0.2968 -0.8666
5200000000.0 -0.8571 -0.3344
5203000000.0 -0.8189 0.5026
5206000000.0 -0.1268 0.9235
5209000000.0 0.6832 0.6782
5212000000.0 0.9812 -0.114
5216000000.0 0.5341 -0.829
5219000000.0 -0.2916 -0.948
5222000000.0 -0.901 -0.4062
5225000000.0 -0.8605 0.4617
5228000000.0 -0.1895 0.974
5231000000.0 0.6496 0.7641
5234000000.0 1.045 -0.005681
5238000000.0 0.6573 -0.7965
5241000000.0 -0.2377 -1.035
5244000000.0 -0.9435 -0.4759
5247000000.0 -0.9759 0.4133
5250000000.0 -0.3395 1.033
5253000000.0 0.562 0.9024
5256000000.0 1.065 0.1436
5259000000.0 0.783 -0.726
5262000000.0 -0.05821 -1.096
5266000000.0 -0.875 -0.6277
5269000000.0 -1.048 0.2543
5272000000.0 -0.5048 0.9534
5275000000.0 0.438 1.016
5278000000.0 1.062 0.3454
5281000000.0 0.9315 -0.591
5284000000.0 0.1329 -1.071
5288000000.0 -0.7126 -0.8146
5291000000.0 -1.133 0.04463
5294000000.0 -0.7156 0.8655
5297000000.0 0.1917 1.08
5300000000.0 0.9467 0.5509
5303000000.0 1.072 -0.4025
5306000000.0 0.4031 -1.043
5309000000.0 -0.5587 -0.9995
5312000000.0 -1.125 -0.1982
5316000000.0 -0.8776 0.7065
5319000000.0 -0.03234 1.142
5322000000.0 0.8874 0.7329
5325000000.0 1.108 -0.1957
5328000000.0 0.5521 -1.003
5331000000.0 -0.366 -1.035
5334000000.0 -1.07 -0.348
5338000000.0 -0.9679 0.5688
5341000000.0 -0.1839 1.107
5344000000.0 0.7489 0.8227
5347000000.0 1.078 -0.07547
5350000000.0 0.648 -0.8779
5353000000.0 -0.2776 -1.045
5356000000.0 -0.9798 -0.4584
5359000000.0 -0.9627 0.4845
5362000000.0 -0.2418 1.038
5366000000.0 0.6422 0.7969
5369000000.0 1.077 0.03541
5372000000.0 0.6372 -0.7977
5375000000.0 -0.2217 -1.019
5378000000.0 -0.8904 -0.4518
5381000000.0 -0.9053 0.4369
5384000000.0 -0.2205 0.9777
5388000000.0 0.6258 0.737
5391000000.0 0.9443 -0.03515
5394000000.0 0.6015 -0.741
5397000000.0 -0.2246 -0.8852
5400000000.0 -0.8267 -0.3172
5403000000.0 -0.811 0.436
5406000000.0 -0.1685 0.8609
5409000000.0 0.5457 0.6783
5412000000.0 0.8613 -0.0276
5416000000.0 0.5093 -0.6802
5419000000.0 -0.2228 -0.8009
5422000000.0 -0.816 -0.3371
5425000000.0 -0.7709 0.401
5428000000.0 -0.1782 0.8211
5431000000.0 0.5393 0.6586
5434000000.0 0.8579 -0.01689
5438000000.0 0.5091 -0.6986
5441000000.0 -0.2352 -0.8432
5444000000.0 -0.8534 -0.3529
5447000000.0 -0.7824 0.4022
5450000000.0 -0.1694 0.857
5453000000.0 0.5721 0.688
5456000000.0 0.9226 -0.005989
5459000000.0 0.5805 -0.6511
5462000000.0 -0.1645 -0.8982
5466000000.0 -0.801 -0.4673
5469000000.0 -0.8644 0.3118
5472000000.0 -0.2949 0.8741
5475000000.0 0.4889 0.7663
5478000000.0 0.9357 0.1503
5481000000.0 0.7482 -0.6308
5484000000.0 -0.02167 -0.932
5488000000.0 -0.7682 -0.5964
5491000000.0 -0.9481 0.1987
5494000000.0 -0.4786 0.8689
5497000000.0 0.4015 0.9584
5500000000.0 0.9798 0.3116
5503000000.0 0.8768 -0.5396
5506000000.0 0.148 -1.019
5509000000.0 -0.6803 -0.7515
5512000000.0 -1.016 0.03271
5516000000.0 -0.6612 0.827
5519000000.0 0.229 1.018
5522000000.0 0.9365 0.4596
5525000000.0 0.9926 -0.4048
5528000000.0 0.3727 -0.9944
5531000000.0 -0.5371 -0.9126
5534000000.0 -1.032 -0.1568
5538000000.0 -0.8068 0.6822
5541000000.0 0.01332 1.075
5544000000.0 0.8444 0.677
5547000000.0 1.052 -0.216
5550000000.0 0.5126 -0.9526
5553000000.0 -0.3947 -0.9735
5556000000.0 -1.025 -0.3219
5559000000.0 -0.892 0.5703
5562000000.0 -0.1285 1.029
5566000000.0 0.7146 0.7385
5569000000.0 1.061 -0.08113
5572000000.0 0.5787 -0.8109
5575000000.0 -0.2752 -0.9721
5578000000.0 -0.9077 -0.4392
5581000000.0 -0.8668 0.4384
5584000000.0 -0.225 0.9059
5588000000.0 0.5577 0.7649
5591000000.0 0.9354 0.06635
5594000000.0 0.6225 -0.719
5597000000.0 -0.1251 -0.9141
5600000000.0 -0.7885 -0.4988
5603000000.0 -0.86 0.3395
5606000000.0 -0.276 0.8463
5609000000.0 0.4609 0.7598
5612000000.0 0.8582 0.08883
5616000000.0 0.6103 -0.5981
5619000000.0 -0.09188 -0.8129
5622000000.0 -0.6959 -0.4674
5625000000.0 -0.8023 0.2679
5628000000.0 -0.2859 0.7858
5631000000.0 0.4094 0.7197
5634000000.0 0.8434 0.1011
5638000000.0 0.6122 -0.5672
5641000000.0 -0.05723 -0.823
5644000000.0 -0.6655 -0.4734
5647000000.0 -0.8293 0.2281
5650000000.0 -0.3421 0.7769
5653000000.0 0.4074 0.7208
5656000000.0 0.8447 0.1437
5659000000.0 0.6369 -0.561
5662000000.0 -0.04938 -0.8317
5666000000.0 -0.7218 -0.5118
5669000000.0 -0.8343 0.2429
5672000000.0 -0.3528 0.8127
5675000000.0 0.4274 0.773
5678000000.0 0.8818 0.1646
5681000000.0 0.7324 -0.5824
5684000000.0 -0.02273 -0.9337
5688000000.0 -0.7485 -0.5877
5691000000.0 -0.9274 0.2455
5694000000.0 -0.3972 0.895
5697000000.0 0.4073 0.8785
5700000000.0 0.9834 0.2585
5703000000.0 0.7907 -0.5795
5706000000.0 0.02004 -1.002
5709000000.0 -0.7968 -0.6781
5712000000.0 -1.007 0.1592
5716000000.0 -0.5418 0.9199
5719000000.0 0.3365 0.9977
5722000000.0 1.003 0.3461
5725000000.0 0.9176 -0.5375
5728000000.0 0.1526 -1.063
5731000000.0 -0.691 -0.7678
5734000000.0 -1.095 0.04503
5738000000.0 -0.6869 0.8573
5741000000.0 0.2527 1.055
5744000000.0 0.9806 0.5404
5747000000.0 0.9953 -0.4038
5750000000.0 0.3369 -1.046
5753000000.0 -0.6208 -0.9222
5756000000.0 -1.073 -0.09406
5759000000.0 -0.8079 0.7491
5762000000.0 0.08243 1.075
5766000000.0 0.8748 0.6593
5769000000.0 1.061 -0.2571
5772000000.0 0.4766 -0.9813
5775000000.0 -0.4699 -1.004
5778000000.0 -1.044 -0.3093
5781000000.0 -0.8943 0.618
5784000000.0 -0.1191 1.099
5788000000.0 0.7602 0.7652
5791000000.0 1.06 -0.1319
5794000000.0 0.5978 -0.8592
5797000000.0 -0.2715 -1.026
5800000000.0 -0.9648 -0.4179
5803000000.0 -0.9505 0.4672
5806000000.0 -0.2609 1.006
5809000000.0 0.6126 0.8158
5812000000.0 1.029 -0.004005
5816000000.0 0.6577 -0.7788
5819000000.0 -0.1721 -1.011
5822000000.0 -0.8468 -0.4894
5825000000.0 -0.9508 0.3749
5828000000.0 -0.2926 0.9352
5831000000.0 0.5268 0.7991
5834000000.0 0.93 0.08501
5838000000.0 0.6947 -0.687
5841000000.0 -0.07927 -0.9464
5844000000.0 -0.7868 -0.514
5847000000.0 -0.9037 0.3034
5850000000.0 -0.3328 0.8598
5853000000.0 0.4716 0.7815
5856000000.0 0.8917 0.1615
5859000000.0 0.6293 -0.6321
5862000000.0 -0.06806 -0.9061
5866000000.0 -0.7355 -0.4986
5869000000.0 -0.8293 0.2659
5872000000.0 -0.3205 0.7991
5875000000.0 0.4297 0.7958
5878000000.0 0.854 0.1456
5881000000.0 0.644 -0.5882
5884000000.0 -0.06533 -0.842
5888000000.0 -0.7138 -0.4822
5891000000.0 -0.8257 0.2283
5894000000.0 -0.3554 0.7866
5897000000.0 0.4067 0.7734
5900000000.0 0.8193 0.176
5903000000.0 0.6514 -0.5318
5906000000.0 -0.006071 -0.8499
5909000000.0 -0.6694 -0.5392
5912000000.0 -0.8546 0.1891
5916000000.0 -0.3845 0.7399
5919000000.0 0.3047 0.8124
5922000000.0 0.8323 0.2615
5925000000.0 0.7538 -0.5159
5928000000.0 0.09702 -0.8403
5931000000.0 -0.6099 -0.6485
5934000000.0 -0.8933 0.0721
5938000000.0 -0.5138 0.7395
5941000000.0 0.2395 0.8866
5944000000.0 0.7856 0.3906
5947000000.0 0.808 -0.3808
5950000000.0 0.2126 -0.8929
5953000000.0 -0.5395 -0.7403
5956000000.0 -0.927 -0.0953
5959000000.0 -0.6545 0.6658
5962000000.0 0.0849 0.9513
5966000000.0 0.7671 0.5104
5969000000.0 0.9144 -0.2737
5972000000.0 0.3853 -0.8746
5975000000.0 -0.448 -0.8678
5978000000.0 -0.9473 -0.1968
5981000000.0 -0.7754 0.6098
5984000000.0 -0.03084 0.9696
5988000000.0 0.7299 0.6559
5991000000.0 1.003 -0.1228
5994000000.0 0.5156 -0.8658
5997000000.0 -0.3465 -0.9556
6000000000.0 -0.9308 -0.3468
6003000000.0 -0.8724 0.4751
6006000000.0 -0.1794 0.999
6009000000.0 0.666 0.7676
6012000000.0 1.003 -0.07055
6016000000.0 0.5916 -0.8114
6019000000.0 -0.2206 -0.957
6022000000.0 -0.8971 -0.4204
6025000000.0 -0.8752 0.4234
6028000000.0 -0.2193 0.9639
6031000000.0 0.5827 0.761
6034000000.0 0.9343 0.03032
6038000000.0 0.6412 -0.7079
6041000000.0 -0.1441 -0.9544
6044000000.0 -0.8284 -0.457
6047000000.0 -0.8692 0.3476
6050000000.0 -0.3105 0.9124
6053000000.0 0.5014 0.7495
6056000000.0 0.9203 0.08239
6059000000.0 0.6339 -0.6196
6062000000.0 -0.0912 -0.9092
6066000000.0 -0.7489 -0.491
6069000000.0 -0.8149 0.2952
6072000000.0 -0.3185 0.8128
6075000000.0 0.443 0.7503
6078000000.0 0.8624 0.1236
6081000000.0 0.6306 -0.6019
6084000000.0 -0.09714 -0.8785
6088000000.0 -0.7085 -0.4829
6091000000.0 -0.8166 0.2454
6094000000.0 -0.3205 0.7863
6097000000.0 0.386 0.756
6100000000.0 0.8305 0.172
6103000000.0 0.651 -0.5463
6106000000.0 -0.03089 -0.8415
6109000000.0 -0.6681 -0.5145
6112000000.0 -0.8497 0.1777
6116000000.0 -0.4068 0.7747
6119000000.0 0.389 0.7945
6122000000.0 0.8609 0.1884
6125000000.0 0.7046 -0.5207
6128000000.0 0.04115 -0.8683
6131000000.0 -0.6644 -0.5725
6134000000.0 -0.8755 0.1621
6138000000.0 -0.4214 0.7792
6141000000.0 0.3618 0.8315
6144000000.0 0.8524 0.2803
6147000000.0 0.7449 -0.5242
6150000000.0 0.08652 -0.9023
6153000000.0 -0.6393 -0.6656
6156000000.0 -0.9071 0.1018
6159000000.0 -0.4693 0.7717
6162000000.0 0.2738 0.8772
6166000000.0 0.9038 0.3224
6169000000.0 0.8388 -0.4639
6172000000.0 0.1543 -0.9742
6175000000.0 -0.5968 -0.7092
6178000000.0 -0.9706 0.00774
6181000000.0 -0.5975 0.7757
6184000000.0 0.2164 0.9601
6188000000.0 0.8664 0.4254
6191000000.0 0.8842 -0.432
6194000000.0 0.2514 -0.9539
6197000000.0 -0.5383 -0.7711
6200000000.0 -0.9307 -0.04665
6203000000.0 -0.6498 0.6892
6206000000.0 0.1223 0.9318
6209000000.0 0.792 0.4549
6212000000.0 0.8596 -0.2789
6216000000.0 0.3608 -0.875
6219000000.0 -0.4722 -0.8025
6222000000.0 -0.9208 -0.1811
6225000000.0 -0.7005 0.6004
6228000000.0 0.02528 0.93
6231000000.0 0.7283 0.5579
6234000000.0 0.8771 -0.1767
6238000000.0 0.4244 -0.7814
6241000000.0 -0.348 -0.8061
6244000000.0 -0.8122 -0.2676
6247000000.0 -0.734 0.4742
6250000000.0 -0.09896 0.8273
6253000000.0 0.5549 0.596
6256000000.0 0.8123 -0.05977
6259000000.0 0.488 -0.6729
6262000000.0 -0.2074 -0.7967
6266000000.0 -0.7474 -0.3546
