! Created with skrf 1.8.0 (http://scikit-rf.org).
# Hz S RI R 50.0 
!freq ReS11 ImS11
4000000000.0 -0.1709 -1.535
4003000000.0 -1.24 -0.8112
4006000000.0 -1.442 0.4723
4009000000.0 -0.5311 1.456
4012000000.0 0.804 1.297
4016000000.0 1.521 0.2008
4019000000.0 1.17 -1.041
4022000000.0 -0.1173 -1.576
4025000000.0 -1.326 -0.8882
4028000000.0 -1.58 0.4903
4031000000.0 -0.5713 1.549
4034000000.0 0.8128 1.433
4038000000.0 1.603 0.2741
4041000000.0 1.221 -1.115
4044000000.0 -0.1244 -1.627
4047000000.0 -1.359 -0.9619
4050000000.0 -1.541 0.4445
4053000000.0 -0.6453 1.484
4056000000.0 0.7164 1.429
4059000000.0 1.581 0.3443
4062000000.0 1.299 -0.99
4066000000.0 0.05662 -1.586
4069000000.0 -1.216 -1.1
4072000000.0 -1.637 0.2241
4075000000.0 -0.8428 1.444
4078000000.0 0.5308 1.537
4081000000.0 1.553 0.5696
4084000000.0 1.402 -0.8648
4088000000.0 0.239 -1.683
4091000000.0 -1.129 -1.222
4094000000.0 -1.664 0.06005
4097000000.0 -0.9974 1.317
4100000000.0 0.382 1.579
4103000000.0 1.434 0.7251
4106000000.0 1.419 -0.6136
4109000000.0 0.428 -1.471
4112000000.0 -0.8633 -1.29
4116000000.0 -1.466 -0.2105
4119000000.0 -1.14 1.011
4122000000.0 0.009793 1.48
4125000000.0 1.124 0.9787
4128000000.0 1.465 -0.2128
4131000000.0 0.7802 -1.241
4134000000.0 -0.4292 -1.458
4138000000.0 -1.381 -0.6064
4141000000.0 -1.332 0.6589
4144000000.0 -0.4117 1.449
4147000000.0 0.8424 1.24
4150000000.0 1.532 0.1439
4153000000.0 1.089 -1.075
4156000000.0 -0.1175 -1.5
4159000000.0 -1.236 -0.8667
4162000000.0 -1.454 0.3685
4166000000.0 -0.6651 1.372
4169000000.0 0.6001 1.375
4172000000.0 1.417 0.4377
4175000000.0 1.262 -0.8234
4178000000.0 0.1654 -1.521
4181000000.0 -1.054 -1.059
4184000000.0 -1.5 0.07725
4188000000.0 -0.8827 1.237
4191000000.0 0.3689 1.489
4194000000.0 1.404 0.6974
4197000000.0 1.413 -0.6472
4200000000.0 0.3794 -1.526
4203000000.0 -0.9769 -1.271
4206000000.0 -1.637 -0.06393
4209000000.0 -1.077 1.252
4212000000.0 0.3875 1.635
4216000000.0 1.486 0.7444
4219000000.0 1.556 -0.7121
4222000000.0 0.3577 -1.674
4225000000.0 -1.117 -1.297
4228000000.0 -1.703 0.06018
4231000000.0 -0.9314 1.375
4234000000.0 0.547 1.544
4238000000.0 1.587 0.5258
4241000000.0 1.367 -0.9602
4244000000.0 0.1606 -1.62
4247000000.0 -1.225 -1.053
4250000000.0 -1.555 0.3478
4253000000.0 -0.6923 1.375
4256000000.0 0.6642 1.388
4259000000.0 1.541 0.3197
4262000000.0 1.138 -0.9878
4266000000.0 -0.05752 -1.515
4269000000.0 -1.264 -0.8831
4272000000.0 -1.454 0.4273
4275000000.0 -0.537 1.374
4278000000.0 0.7463 1.291
4281000000.0 1.428 0.1859
4284000000.0 1.015 -1.012
4288000000.0 -0.1501 -1.415
4291000000.0 -1.184 -0.7477
4294000000.0 -1.314 0.4183
4297000000.0 -0.4892 1.226
4300000000.0 0.6023 1.13
4303000000.0 1.301 0.2698
4306000000.0 1.003 -0.8167
4309000000.0 0.02473 -1.28
4312000000.0 -0.9603 -0.8527
4316000000.0 -1.275 0.2042
4319000000.0 -0.6788 1.109
4322000000.0 0.4119 1.252
4325000000.0 1.207 0.4974
4328000000.0 1.191 -0.588
4331000000.0 0.2751 -1.313
4334000000.0 -0.8545 -1.074
4338000000.0 -1.424 -0.05662
4341000000.0 -0.9369 1.054
4344000000.0 0.1868 1.388
4347000000.0 1.225 0.7664
4350000000.0 1.331 -0.4549
4353000000.0 0.5207 -1.346
4356000000.0 -0.7173 -1.261
4359000000.0 -1.447 -0.2442
4362000000.0 -1.097 0.9463
4366000000.0 -0.003984 1.463
4369000000.0 1.099 0.9465
4372000000.0 1.477 -0.2709
4375000000.0 0.7392 -1.307
4378000000.0 -0.5435 -1.397
4381000000.0 -1.464 -0.4638
4384000000.0 -1.284 0.7854
4388000000.0 -0.1873 1.576
4391000000.0 1.097 1.109
4394000000.0 1.539 -0.1465
4397000000.0 0.8956 -1.307
4400000000.0 -0.4766 -1.496
4403000000.0 -1.466 -0.5815
4406000000.0 -1.364 0.8395
4409000000.0 -0.2105 1.557
4412000000.0 1.091 1.137
4416000000.0 1.553 -0.146
4419000000.0 0.8245 -1.297
4422000000.0 -0.5251 -1.429
4425000000.0 -1.448 -0.4836
4428000000.0 -1.233 0.8189
4431000000.0 -0.1362 1.464
4434000000.0 1.059 0.9683
4438000000.0 1.389 -0.2097
4441000000.0 0.6814 -1.256
4444000000.0 -0.5536 -1.251
4447000000.0 -1.339 -0.3184
4450000000.0 -1.058 0.8153
4453000000.0 0.008895 1.31
4456000000.0 1.028 0.7881
4459000000.0 1.268 -0.3641
4462000000.0 0.5082 -1.172
4466000000.0 -0.6249 -1.119
4469000000.0 -1.239 -0.1409
4472000000.0 -0.8745 0.8677
4475000000.0 0.128 1.155
4478000000.0 1.005 0.6226
4481000000.0 1.11 -0.3943
4484000000.0 0.3487 -1.142
4488000000.0 -0.6636 -0.9368
4491000000.0 -1.129 -0.06786
4494000000.0 -0.7794 0.8353
4497000000.0 0.1602 1.132
4500000000.0 0.9477 0.5789
4503000000.0 1.008 -0.3975
4506000000.0 0.3185 -1.044
4509000000.0 -0.6094 -0.9074
4512000000.0 -1.092 -0.1156
4516000000.0 -0.7775 0.7781
4519000000.0 0.1126 1.086
4522000000.0 0.9305 0.6188
4525000000.0 1.069 -0.364
4528000000.0 0.4234 -1.051
4531000000.0 -0.5987 -0.9823
4534000000.0 -1.154 -0.2114
4538000000.0 -0.9115 0.7404
4541000000.0 -0.01032 1.169
4544000000.0 0.9436 0.7404
4547000000.0 1.188 -0.2198
4550000000.0 0.5757 -1.066
4553000000.0 -0.4595 -1.126
4556000000.0 -1.118 -0.403
4559000000.0 -1.009 0.6441
4562000000.0 -0.1638 1.212
4566000000.0 0.839 0.9611
4569000000.0 1.261 -0.007645
4572000000.0 0.7916 -0.9875
4575000000.0 -0.2698 -1.266
4578000000.0 -1.161 -0.62
4581000000.0 -1.219 0.5106
4584000000.0 -0.4079 1.259
4588000000.0 0.7386 1.149
4591000000.0 1.354 0.2023
4594000000.0 0.9843 -0.9576
4597000000.0 -0.08936 -1.361
4600000000.0 -1.115 -0.8015
4603000000.0 -1.36 0.381
4606000000.0 -0.5736 1.296
4609000000.0 0.6306 1.27
4612000000.0 1.372 0.297
4616000000.0 1.092 -0.8767
4619000000.0 0.05182 -1.401
4622000000.0 -1.05 -0.9536
4625000000.0 -1.378 0.251
4628000000.0 -0.6707 1.242
4631000000.0 0.5091 1.289
4634000000.0 1.315 0.4369
4638000000.0 1.143 -0.7228
4641000000.0 0.1184 -1.375
4644000000.0 -1.001 -0.9075
4647000000.0 -1.33 0.1685
4650000000.0 -0.7029 1.153
4653000000.0 0.4605 1.246
4656000000.0 1.237 0.4079
4659000000.0 1.05 -0.7384
4662000000.0 0.06562 -1.255
4666000000.0 -0.91 -0.8397
4669000000.0 -1.195 0.2209
4672000000.0 -0.6084 1.081
4675000000.0 0.4252 1.084
4678000000.0 1.109 0.3395
4681000000.0 0.9338 -0.6858
4684000000.0 0.0679 -1.144
4688000000.0 -0.8332 -0.7351
4691000000.0 -1.074 0.1816
4694000000.0 -0.5194 0.97
4697000000.0 0.4237 1.043
4700000000.0 1.082 0.323
4703000000.0 0.8748 -0.6496
4706000000.0 0.03626 -1.092
4709000000.0 -0.8018 -0.7152
4712000000.0 -1.052 0.2201
4716000000.0 -0.4691 0.9246
4719000000.0 0.4043 0.9855
4722000000.0 1.04 0.2897
4725000000.0 0.8599 -0.648
4728000000.0 0.04717 -1.036
4731000000.0 -0.7472 -0.7023
4734000000.0 -1.009 0.1847
4738000000.0 -0.5326 0.9055
4741000000.0 0.3416 0.9672
4744000000.0 0.9928 0.3319
4747000000.0 0.8832 -0.5527
4750000000.0 0.1845 -1.059
4753000000.0 -0.7045 -0.81
4756000000.0 -1.065 0.03816
4759000000.0 -0.688 0.8765
4762000000.0 0.2404 1.083
4766000000.0 0.9671 0.5191
4769000000.0 1.066 -0.4602
4772000000.0 0.3357 -1.083
4775000000.0 -0.638 -0.9673
4778000000.0 -1.194 -0.1162
4781000000.0 -0.8614 0.8158
4784000000.0 0.06851 1.174
4788000000.0 0.9715 0.7194
4791000000.0 1.204 -0.2655
4794000000.0 0.5764 -1.08
4797000000.0 -0.4491 -1.155
4800000000.0 -1.199 -0.3819
4803000000.0 -1.053 0.6267
4806000000.0 -0.1827 1.212
4809000000.0 0.8398 0.9576
4812000000.0 1.305 -0.03085
4816000000.0 0.8135 -1.034
4819000000.0 -0.2726 -1.308
4822000000.0 -1.201 -0.6326
4825000000.0 -1.233 0.5322
4828000000.0 -0.4251 1.292
4831000000.0 0.7744 1.151
4834000000.0 1.365 0.1377
4838000000.0 0.9949 -0.99
4841000000.0 -0.1478 -1.383
4844000000.0 -1.162 -0.7888
4847000000.0 -1.338 0.3965
4850000000.0 -0.5479 1.298
4853000000.0 0.6316 1.226
4856000000.0 1.371 0.2933
4859000000.0 1.045 -0.8814
4862000000.0 -0.0139 -1.37
4866000000.0 -1.05 -0.8547
4869000000.0 -1.298 0.2911
4872000000.0 -0.6011 1.173
4875000000.0 0.5428 1.212
4878000000.0 1.254 0.3172
4881000000.0 1.014 -0.7483
4884000000.0 0.08991 -1.264
4888000000.0 -0.943 -0.8354
4891000000.0 -1.2 0.2502
4894000000.0 -0.6117 1.047
4897000000.0 0.4567 1.09
4900000000.0 1.101 0.3125
4903000000.0 0.9627 -0.6382
4906000000.0 0.04687 -1.086
4909000000.0 -0.7728 -0.7502
4912000000.0 -1.016 0.1411
4916000000.0 -0.5467 0.8609
4919000000.0 0.323 0.9583
4922000000.0 0.9247 0.3218
4925000000.0 0.8347 -0.5273
4928000000.0 0.1531 -0.9511
4931000000.0 -0.621 -0.7233
4934000000.0 -0.939 0.02216
4938000000.0 -0.5659 0.7393
4941000000.0 0.2122 0.9099
4944000000.0 0.8384 0.3913
4947000000.0 0.8813 -0.414
4950000000.0 0.2585 -0.8903
4953000000.0 -0.5765 -0.7773
4956000000.0 -0.9523 -0.06869
4959000000.0 -0.6584 0.7002
4962000000.0 0.1483 0.9482
4966000000.0 0.857 0.4799
4969000000.0 0.931 -0.337
4972000000.0 0.3289 -0.9521
4975000000.0 -0.5242 -0.8742
4978000000.0 -0.9943 -0.1297
4981000000.0 -0.7383 0.6898
4984000000.0 0.06867 1.03
4988000000.0 0.8368 0.6102
4991000000.0 1.032 -0.2588
4994000000.0 0.4679 -0.9975
4997000000.0 -0.4403 -1.01
5000000000.0 -1.072 -0.2681
5003000000.0 -0.9071 0.6605
5006000000.0 -0.08024 1.166
5009000000.0 0.8305 0.8392
5012000000.0 1.207 -0.1371
5016000000.0 0.6782 -1.015
5019000000.0 -0.3707 -1.18
5022000000.0 -1.161 -0.4644
5025000000.0 -1.084 0.6198
5028000000.0 -0.2082 1.26
5031000000.0 0.8312 0.9759
5034000000.0 1.294 0.009464
5038000000.0 0.834 -0.9728
5041000000.0 -0.2462 -1.298
5044000000.0 -1.106 -0.6256
5047000000.0 -1.194 0.4356
5050000000.0 -0.4248 1.209
5053000000.0 0.6498 1.13
5056000000.0 1.28 0.1989
5059000000.0 0.9839 -0.8544
5062000000.0 0.00486 -1.318
5066000000.0 -1.041 -0.8199
5069000000.0 -1.257 0.2517
5072000000.0 -0.5966 1.132
5075000000.0 0.4836 1.194
5078000000.0 1.237 0.3728
5081000000.0 1.083 -0.6975
5084000000.0 0.1428 -1.229
5088000000.0 -0.8297 -0.8741
5091000000.0 -1.207 0.08311
5094000000.0 -0.7314 0.9474
5097000000.0 0.2764 1.111
5100000000.0 1.02 0.5419
5103000000.0 1.05 -0.4246
5106000000.0 0.2705 -1.089
5109000000.0 -0.6316 -0.917
5112000000.0 -1.078 -0.1445
5116000000.0 -0.7794 0.7497
5119000000.0 0.04937 1.062
5122000000.0 0.8336 0.6347
5125000000.0 1.004 -0.238
5128000000.0 0.4484 -0.9265
5131000000.0 -0.4114 -0.9387
5134000000.0 -0.9587 -0.266
5138000000.0 -0.8389 0.5627
5141000000.0 -0.07613 1.0
5144000000.0 0.6975 0.6695
5147000000.0 0.9692 -0.1228
5150000000.0 0.5304 -0.7913
5153000000.0 -0.2897 -0.8994
5156000000.0 -0.8376 -0.3341
5159000000.0 -0.7963 0.4642
5162000000.0 -0.153 0.9034
5166000000.0 0.6448 0.6784
5169000000.0 0.9221 -0.05344
5172000000.0 0.5277 -0.6918
5175000000.0 -0.2157 -0.8812
5178000000.0 -0.8398 -0.3792
5181000000.0 -0.827 0.421
5184000000.0 -0.1878 0.892
5188000000.0 0.593 0.7217
5191000000.0 0.9429 -0.007384
5194000000.0 0.5904 -0.7678
5197000000.0 -0.2067 -0.9311
5200000000.0 -0.8713 -0.4003
5203000000.0 -0.8797 0.4265
5206000000.0 -0.2191 0.9442
5209000000.0 0.5972 0.7669
5212000000.0 0.9697 0.01121
5216000000.0 0.6128 -0.7515
5219000000.0 -0.1801 -0.9671
5222000000.0 -0.8963 -0.4314
5225000000.0 -0.8998 0.4174
5228000000.0 -0.2782 0.9917
5231000000.0 0.5741 0.8504
5234000000.0 1.059 0.0836
5238000000.0 0.6778 -0.7389
5241000000.0 -0.1229 -1.037
5244000000.0 -0.895 -0.5938
5247000000.0 -0.988 0.3342
5250000000.0 -0.3976 0.9882
5253000000.0 0.5138 0.9157
5256000000.0 1.072 0.2007
5259000000.0 0.825 -0.6662
5262000000.0 0.02759 -1.092
5266000000.0 -0.8221 -0.7306
5269000000.0 -1.067 0.1687
5272000000.0 -0.5503 0.9469
5275000000.0 0.384 1.025
5278000000.0 1.045 0.4152
5281000000.0 0.9685 -0.5017
5284000000.0 0.234 -1.078
5288000000.0 -0.6978 -0.8879
5291000000.0 -1.107 -0.09445
5294000000.0 -0.7486 0.8041
5297000000.0 0.1451 1.133
5300000000.0 0.9067 0.624
5303000000.0 1.066 -0.2967
5306000000.0 0.4977 -1.027
5309000000.0 -0.4584 -1.047
5312000000.0 -1.108 -0.3104
5316000000.0 -0.9341 0.6387
5319000000.0 -0.1248 1.151
5322000000.0 0.8056 0.8182
5325000000.0 1.142 -0.112
5328000000.0 0.6337 -0.942
5331000000.0 -0.2868 -1.113
5334000000.0 -1.018 -0.4735
5338000000.0 -1.019 0.4822
5341000000.0 -0.2377 1.104
5344000000.0 0.6859 0.9251
5347000000.0 1.118 0.01509
5350000000.0 0.7775 -0.8305
5353000000.0 -0.1721 -1.104
5356000000.0 -0.9644 -0.5721
5359000000.0 -1.056 0.4114
5362000000.0 -0.3935 1.031
5366000000.0 0.5681 0.9211
5369000000.0 1.065 0.1336
5372000000.0 0.7684 -0.7392
5375000000.0 -0.1035 -1.014
5378000000.0 -0.8791 -0.5675
5381000000.0 -0.9571 0.3095
5384000000.0 -0.3428 0.9376
5388000000.0 0.5441 0.8184
5391000000.0 0.9594 0.103
5394000000.0 0.6844 -0.6686
5397000000.0 -0.1324 -0.9335
5400000000.0 -0.8066 -0.4686
5403000000.0 -0.8634 0.2934
5406000000.0 -0.275 0.8743
5409000000.0 0.4672 0.7358
5412000000.0 0.8629 0.1044
5416000000.0 0.6164 -0.6103
5419000000.0 -0.1144 -0.8479
5422000000.0 -0.7534 -0.4617
5425000000.0 -0.815 0.2926
5428000000.0 -0.2419 0.83
5431000000.0 0.4788 0.7372
5434000000.0 0.8612 0.09287
5438000000.0 0.6149 -0.6344
5441000000.0 -0.1412 -0.8949
5444000000.0 -0.741 -0.4743
5447000000.0 -0.8489 0.261
5450000000.0 -0.3088 0.8215
5453000000.0 0.4523 0.7314
5456000000.0 0.8605 0.134
5459000000.0 0.627 -0.5872
5462000000.0 -0.07537 -0.9089
5466000000.0 -0.7352 -0.5186
5469000000.0 -0.8634 0.265
5472000000.0 -0.3853 0.8087
5475000000.0 0.3815 0.8527
5478000000.0 0.89 0.2268
5481000000.0 0.7864 -0.5414
5484000000.0 0.05027 -0.9886
5488000000.0 -0.6799 -0.6644
5491000000.0 -0.9978 0.1104
5494000000.0 -0.5624 0.8219
5497000000.0 0.3018 0.9711
5500000000.0 0.9131 0.4067
5503000000.0 0.8779 -0.4405
5506000000.0 0.2388 -1.001
5509000000.0 -0.6055 -0.8089
5512000000.0 -0.9884 -0.1045
5516000000.0 -0.7023 0.7651
5519000000.0 0.1052 1.037
5522000000.0 0.8559 0.6082
5525000000.0 0.9598 -0.2641
5528000000.0 0.4847 -0.9776
5531000000.0 -0.4464 -0.9582
5534000000.0 -1.018 -0.2403
5538000000.0 -0.8608 0.6149
5541000000.0 -0.1005 1.033
5544000000.0 0.749 0.7438
5547000000.0 1.049 -0.0981
5550000000.0 0.6335 -0.8619
5553000000.0 -0.2941 -1.011
5556000000.0 -0.9564 -0.4539
5559000000.0 -0.955 0.4301
5562000000.0 -0.2436 1.049
5566000000.0 0.6348 0.8485
5569000000.0 1.036 0.05379
5572000000.0 0.7193 -0.7634
5575000000.0 -0.1434 -1.018
5578000000.0 -0.862 -0.5177
5581000000.0 -0.9484 0.3206
5584000000.0 -0.3481 0.9443
5588000000.0 0.4519 0.8577
5591000000.0 0.966 0.1676
5594000000.0 0.7455 -0.6088
5597000000.0 -0.0165 -0.9685
5600000000.0 -0.7505 -0.5962
5603000000.0 -0.9142 0.224
5606000000.0 -0.4427 0.7955
5609000000.0 0.3574 0.797
5612000000.0 0.8717 0.2425
5616000000.0 0.7175 -0.5197
5619000000.0 0.05391 -0.857
5622000000.0 -0.6455 -0.6046
5625000000.0 -0.8542 0.1183
5628000000.0 -0.4209 0.7285
5631000000.0 0.2892 0.8182
5634000000.0 0.8132 0.276
5638000000.0 0.6981 -0.4853
5641000000.0 0.08593 -0.8385
5644000000.0 -0.5967 -0.5871
5647000000.0 -0.8233 0.09153
5650000000.0 -0.4582 0.7284
5653000000.0 0.2774 0.7933
5656000000.0 0.7943 0.294
5659000000.0 0.7432 -0.4885
5662000000.0 0.1008 -0.8552
5666000000.0 -0.6343 -0.6013
5669000000.0 -0.8614 0.07823
5672000000.0 -0.4639 0.7443
5675000000.0 0.2864 0.8408
5678000000.0 0.8701 0.3041
5681000000.0 0.785 -0.4717
5684000000.0 0.1162 -0.9246
5688000000.0 -0.6274 -0.6426
5691000000.0 -0.947 0.07554
5694000000.0 -0.5339 0.8105
5697000000.0 0.2836 0.9222
5700000000.0 0.9068 0.3721
5703000000.0 0.8842 -0.507
5706000000.0 0.1695 -0.9948
5709000000.0 -0.673 -0.771
5712000000.0 -1.038 0.0007499
5716000000.0 -0.6235 0.831
5719000000.0 0.2119 0.984
5722000000.0 0.9363 0.4708
5725000000.0 0.9433 -0.4043
5728000000.0 0.2902 -1.043
5731000000.0 -0.5773 -0.917
5734000000.0 -1.068 -0.07646
5738000000.0 -0.8059 0.7469
5741000000.0 0.07303 1.074
5744000000.0 0.897 0.6267
5747000000.0 1.035 -0.2806
5750000000.0 0.4923 -1.0
5753000000.0 -0.47 -0.994
5756000000.0 -1.102 -0.2995
5759000000.0 -0.9085 0.6364
5762000000.0 -0.09963 1.097
5766000000.0 0.8113 0.7863
5769000000.0 1.117 -0.1075
5772000000.0 0.6026 -0.9208
5775000000.0 -0.3031 -1.072
5778000000.0 -1.007 -0.4505
5781000000.0 -0.9879 0.4905
5784000000.0 -0.2451 1.058
5788000000.0 0.6482 0.8662
5791000000.0 1.099 0.04685
5794000000.0 0.7032 -0.776
5797000000.0 -0.1159 -1.058
5800000000.0 -0.9219 -0.5499
5803000000.0 -1.005 0.3268
5806000000.0 -0.3793 0.9735
5809000000.0 0.5151 0.9093
5812000000.0 1.029 0.208
5816000000.0 0.764 -0.6694
5819000000.0 -0.01295 -1.041
5822000000.0 -0.7998 -0.6407
5825000000.0 -0.9821 0.2191
5828000000.0 -0.4828 0.8909
5831000000.0 0.3971 0.9294
5834000000.0 0.9513 0.2742
5838000000.0 0.8274 -0.5577
5841000000.0 0.05653 -0.9638
5844000000.0 -0.712 -0.6694
5847000000.0 -0.9179 0.1186
5850000000.0 -0.4904 0.8315
5853000000.0 0.3278 0.8963
5856000000.0 0.8856 0.3169
5859000000.0 0.7663 -0.4902
5862000000.0 0.1076 -0.9182
5866000000.0 -0.6313 -0.6566
5869000000.0 -0.9026 0.1025
5872000000.0 -0.508 0.7379
5875000000.0 0.2739 0.8684
5878000000.0 0.829 0.293
5881000000.0 0.7619 -0.4107
5884000000.0 0.1278 -0.8637
5888000000.0 -0.6013 -0.6389
5891000000.0 -0.883 0.07814
5894000000.0 -0.4818 0.6953
5897000000.0 0.2238 0.854
5900000000.0 0.8189 0.3721
5903000000.0 0.7703 -0.4085
5906000000.0 0.1822 -0.8434
5909000000.0 -0.531 -0.6727
5912000000.0 -0.8899 0.00403
5916000000.0 -0.5652 0.6579
5919000000.0 0.1561 0.8634
5922000000.0 0.7715 0.4203
5925000000.0 0.8194 -0.3335
5928000000.0 0.2676 -0.8301
5931000000.0 -0.4787 -0.7149
5934000000.0 -0.8773 -0.07178
5938000000.0 -0.5983 0.6118
5941000000.0 0.08764 0.8884
5944000000.0 0.7462 0.5342
5947000000.0 0.8618 -0.2287
5950000000.0 0.4196 -0.8619
5953000000.0 -0.378 -0.8278
5956000000.0 -0.8886 -0.2204
5959000000.0 -0.7763 0.553
5962000000.0 -0.05597 0.9471
5966000000.0 0.7039 0.6533
5969000000.0 0.9321 -0.09231
5972000000.0 0.5332 -0.8099
5975000000.0 -0.2531 -0.9632
5978000000.0 -0.9082 -0.4045
5981000000.0 -0.8685 0.4224
5984000000.0 -0.2306 0.9447
5988000000.0 0.5895 0.7782
5991000000.0 0.9947 0.08292
5994000000.0 0.7165 -0.7345
5997000000.0 -0.1208 -1.032
6000000000.0 -0.8556 -0.5424
6003000000.0 -0.946 0.2973
6006000000.0 -0.3553 0.9042
6009000000.0 0.5015 0.8624
6012000000.0 0.9664 0.1644
6016000000.0 0.7655 -0.6318
6019000000.0 -0.009513 -1.014
6022000000.0 -0.7729 -0.6319
6025000000.0 -0.9777 0.2315
6028000000.0 -0.4715 0.901
6031000000.0 0.3993 0.9178
6034000000.0 0.9428 0.2757
6038000000.0 0.8225 -0.5713
6041000000.0 0.1028 -0.9645
6044000000.0 -0.7023 -0.665
6047000000.0 -0.9488 0.1201
6050000000.0 -0.5082 0.8041
6053000000.0 0.2917 0.8871
6056000000.0 0.8721 0.3314
6059000000.0 0.8069 -0.4884
6062000000.0 0.1234 -0.9184
6066000000.0 -0.6021 -0.6824
6069000000.0 -0.8779 0.05164
6072000000.0 -0.4993 0.7541
6075000000.0 0.2451 0.8562
6078000000.0 0.805 0.3554
6081000000.0 0.7829 -0.4134
6084000000.0 0.1462 -0.8619
6088000000.0 -0.5852 -0.6632
6091000000.0 -0.8764 0.01623
6094000000.0 -0.5285 0.6992
6097000000.0 0.1858 0.8128
6100000000.0 0.7789 0.3783
6103000000.0 0.7998 -0.342
6106000000.0 0.2026 -0.8309
6109000000.0 -0.527 -0.6775
6112000000.0 -0.8606 -0.02405
6116000000.0 -0.5628 0.6832
6119000000.0 0.1684 0.8498
6122000000.0 0.76 0.4188
6125000000.0 0.8019 -0.3031
6128000000.0 0.2368 -0.8333
6131000000.0 -0.5161 -0.7111
6134000000.0 -0.8444 -0.06292
6138000000.0 -0.594 0.6371
6141000000.0 0.1283 0.8882
6144000000.0 0.7741 0.4477
6147000000.0 0.8099 -0.3123
6150000000.0 0.3351 -0.8609
6153000000.0 -0.453 -0.7429
6156000000.0 -0.898 -0.1528
6159000000.0 -0.6888 0.5956
6162000000.0 0.05391 0.8922
6166000000.0 0.7374 0.5406
6169000000.0 0.8876 -0.2162
6172000000.0 0.3955 -0.8456
6175000000.0 -0.4333 -0.8404
6178000000.0 -0.9342 -0.215
6181000000.0 -0.7307 0.5778
6184000000.0 -0.0417 0.9289
6188000000.0 0.7184 0.6022
6191000000.0 0.9253 -0.142
6194000000.0 0.4272 -0.8108
6197000000.0 -0.3357 -0.8818
6200000000.0 -0.9036 -0.283
6203000000.0 -0.7861 0.5066
6206000000.0 -0.1536 0.934
6209000000.0 0.6082 0.6734
6212000000.0 0.9639 -0.04824
6216000000.0 0.5489 -0.7581
6219000000.0 -0.2559 -0.9159
6222000000.0 -0.8292 -0.3779
6225000000.0 -0.8524 0.4241
6228000000.0 -0.2211 0.8953
6231000000.0 0.5412 0.7358
6234000000.0 0.8982 0.07313
6238000000.0 0.6286 -0.6245
6241000000.0 -0.0827 -0.8599
6244000000.0 -0.7462 -0.4837
6247000000.0 -0.8319 0.2432
6250000000.0 -0.3423 0.792
6253000000.0 0.3806 0.7591
6256000000.0 0.8384 0.1845
6259000000.0 0.642 -0.5057
6262000000.0 0.05459 -0.8394
6266000000.0 -0.5988 -0.5328
6269000000.0 -0.7933 0.1138
