! Created with skrf 1.8.0 (http://scikit-rf.org).
# Hz S RI R 50.0 
!freq ReS11 ImS11
4000000000.0 -0.2219 -1.471
4003000000.0 -1.33 -0.7368
4006000000.0 -1.369 0.4991
4009000000.0 -0.4876 1.459
4012000000.0 0.844 1.336
4016000000.0 1.502 0.1484
4019000000.0 1.114 -1.045
4022000000.0 -0.1909 -1.538
4025000000.0 -1.369 -0.8325
4028000000.0 -1.508 0.5425
4031000000.0 -0.5555 1.522
4034000000.0 0.9173 1.359
4038000000.0 1.657 0.1948
4041000000.0 1.151 -1.166
4044000000.0 -0.1931 -1.622
4047000000.0 -1.361 -0.882
4050000000.0 -1.543 0.5255
4053000000.0 -0.5858 1.522
4056000000.0 0.8276 1.432
4059000000.0 1.58 0.2689
4062000000.0 1.238 -1.04
4066000000.0 -0.04682 -1.654
4069000000.0 -1.281 -0.9582
4072000000.0 -1.591 0.3256
4075000000.0 -0.7393 1.448
4078000000.0 0.6479 1.455
4081000000.0 1.596 0.4884
4084000000.0 1.38 -0.9012
4088000000.0 0.1958 -1.638
4091000000.0 -1.115 -1.199
4094000000.0 -1.652 0.1271
4097000000.0 -0.9408 1.335
4100000000.0 0.4542 1.578
4103000000.0 1.469 0.674
4106000000.0 1.448 -0.6708
4109000000.0 0.384 -1.496
4112000000.0 -0.9187 -1.243
4116000000.0 -1.513 -0.1425
4119000000.0 -1.097 1.019
4122000000.0 0.09759 1.495
4125000000.0 1.166 0.8944
4128000000.0 1.449 -0.239
4131000000.0 0.748 -1.256
4134000000.0 -0.4698 -1.396
4138000000.0 -1.37 -0.4976
4141000000.0 -1.33 0.708
4144000000.0 -0.3413 1.439
4147000000.0 0.9169 1.193
4150000000.0 1.518 0.08337
4153000000.0 1.028 -1.098
4156000000.0 -0.2124 -1.513
4159000000.0 -1.271 -0.8224
4162000000.0 -1.442 0.4418
4166000000.0 -0.5736 1.417
4169000000.0 0.7054 1.316
4172000000.0 1.437 0.3275
4175000000.0 1.198 -0.9124
4178000000.0 0.08843 -1.486
4181000000.0 -1.088 -0.9737
4184000000.0 -1.491 0.2072
4188000000.0 -0.8355 1.249
4191000000.0 0.4321 1.453
4194000000.0 1.424 0.5603
4197000000.0 1.373 -0.7396
4200000000.0 0.2683 -1.52
4203000000.0 -1.048 -1.205
4206000000.0 -1.66 0.07461
4209000000.0 -0.9987 1.327
4212000000.0 0.4538 1.598
4216000000.0 1.541 0.6218
4219000000.0 1.442 -0.8731
4222000000.0 0.1985 -1.695
4225000000.0 -1.24 -1.147
4228000000.0 -1.646 0.2326
4231000000.0 -0.7924 1.489
4234000000.0 0.6891 1.491
4238000000.0 1.587 0.399
4241000000.0 1.261 -1.024
4244000000.0 -0.07274 -1.585
4247000000.0 -1.265 -0.8813
4250000000.0 -1.531 0.4505
4253000000.0 -0.5743 1.449
4256000000.0 0.8322 1.309
4259000000.0 1.496 0.1796
4262000000.0 1.052 -1.102
4266000000.0 -0.2237 -1.449
4269000000.0 -1.278 -0.7333
4272000000.0 -1.368 0.5756
4275000000.0 -0.4006 1.411
4278000000.0 0.8723 1.171
4281000000.0 1.418 0.03846
4284000000.0 0.9092 -1.066
4288000000.0 -0.2408 -1.324
4291000000.0 -1.174 -0.6751
4294000000.0 -1.258 0.5166
4297000000.0 -0.3648 1.247
4300000000.0 0.7359 1.096
4303000000.0 1.307 0.1198
4306000000.0 0.9583 -0.8498
4309000000.0 -0.09565 -1.282
4312000000.0 -1.042 -0.7474
4316000000.0 -1.295 0.3
4319000000.0 -0.5798 1.162
4322000000.0 0.514 1.18
4325000000.0 1.278 0.4003
4328000000.0 1.131 -0.7537
4331000000.0 0.1833 -1.353
4334000000.0 -0.9111 -1.015
4338000000.0 -1.387 0.05159
4341000000.0 -0.8191 1.133
4344000000.0 0.3228 1.4
4347000000.0 1.294 0.6509
4350000000.0 1.306 -0.554
4353000000.0 0.3622 -1.386
4356000000.0 -0.8064 -1.229
4359000000.0 -1.483 -0.1067
4362000000.0 -1.026 1.06
4366000000.0 0.1483 1.466
4369000000.0 1.237 0.833
4372000000.0 1.4 -0.4408
4375000000.0 0.6088 -1.388
4378000000.0 -0.7107 -1.332
4381000000.0 -1.496 -0.3317
4384000000.0 -1.216 0.9719
4388000000.0 -0.03756 1.579
4391000000.0 1.192 0.9964
4394000000.0 1.551 -0.3379
4397000000.0 0.704 -1.446
4400000000.0 -0.6777 -1.454
4403000000.0 -1.56 -0.3465
4406000000.0 -1.244 1.002
4409000000.0 -0.006655 1.611
4412000000.0 1.246 0.9243
4416000000.0 1.495 -0.3948
4419000000.0 0.6313 -1.42
4422000000.0 -0.7498 -1.343
4425000000.0 -1.483 -0.2267
4428000000.0 -1.064 0.9874
4431000000.0 0.09579 1.42
4434000000.0 1.183 0.7845
4438000000.0 1.334 -0.4671
4441000000.0 0.4391 -1.257
4444000000.0 -0.7368 -1.114
4447000000.0 -1.324 -0.1167
4450000000.0 -0.8717 0.9539
4453000000.0 0.2319 1.263
4456000000.0 1.163 0.6023
4459000000.0 1.185 -0.5499
4462000000.0 0.2596 -1.221
4466000000.0 -0.812 -0.9736
4469000000.0 -1.215 0.006448
4472000000.0 -0.7019 0.963
4475000000.0 0.3407 1.147
4478000000.0 1.096 0.4518
4481000000.0 1.013 -0.5849
4484000000.0 0.1638 -1.163
4488000000.0 -0.7929 -0.8056
4491000000.0 -1.132 0.08301
4494000000.0 -0.6667 0.9422
4497000000.0 0.3238 1.08
4500000000.0 1.066 0.4431
4503000000.0 0.956 -0.5563
4506000000.0 0.178 -1.107
4509000000.0 -0.707 -0.8219
4512000000.0 -1.106 0.04358
4516000000.0 -0.6726 0.9133
4519000000.0 0.277 1.122
4522000000.0 1.069 0.4782
4525000000.0 1.034 -0.4777
4528000000.0 0.2958 -1.117
4531000000.0 -0.7222 -0.9409
4534000000.0 -1.167 -0.06814
4538000000.0 -0.8284 0.873
4541000000.0 0.1627 1.187
4544000000.0 1.012 0.6249
4547000000.0 1.148 -0.3798
4550000000.0 0.4576 -1.136
4553000000.0 -0.5959 -1.084
4556000000.0 -1.195 -0.2432
4559000000.0 -0.9856 0.7829
4562000000.0 -0.04511 1.257
4566000000.0 0.9549 0.8554
4569000000.0 1.269 -0.219
4572000000.0 0.6867 -1.113
4575000000.0 -0.4259 -1.25
4578000000.0 -1.236 -0.4799
4581000000.0 -1.185 0.6391
4584000000.0 -0.2528 1.345
4588000000.0 0.8746 1.05
4591000000.0 1.344 -0.0267
4594000000.0 0.8803 -1.074
4597000000.0 -0.2674 -1.345
4600000000.0 -1.228 -0.6386
4603000000.0 -1.288 0.5426
4606000000.0 -0.4323 1.348
4609000000.0 0.7918 1.166
4612000000.0 1.39 0.09107
4616000000.0 0.9837 -0.9739
4619000000.0 -0.1296 -1.412
4622000000.0 -1.165 -0.7887
4625000000.0 -1.331 0.4136
4628000000.0 -0.4808 1.301
4631000000.0 0.6942 1.217
4634000000.0 1.361 0.2173
4638000000.0 0.9817 -0.9114
4641000000.0 -0.0981 -1.354
4644000000.0 -1.11 -0.7866
4647000000.0 -1.31 0.3637
4650000000.0 -0.5237 1.215
4653000000.0 0.6351 1.148
4656000000.0 1.269 0.1934
4659000000.0 0.9359 -0.8678
4662000000.0 -0.08599 -1.245
4666000000.0 -0.9871 -0.6943
4669000000.0 -1.143 0.384
4672000000.0 -0.4162 1.122
4675000000.0 0.6023 1.014
4678000000.0 1.105 0.1528
4681000000.0 0.8142 -0.792
4684000000.0 -0.1219 -1.101
4688000000.0 -0.9105 -0.5928
4691000000.0 -1.045 0.3186
4694000000.0 -0.3667 1.026
4697000000.0 0.5739 0.9428
4700000000.0 1.089 0.1508
4703000000.0 0.7662 -0.7795
4706000000.0 -0.1251 -1.095
4709000000.0 -0.9433 -0.5764
4712000000.0 -0.9945 0.3549
4716000000.0 -0.3737 0.9773
4719000000.0 0.5811 0.8893
4722000000.0 1.056 0.1513
4725000000.0 0.7432 -0.7651
4728000000.0 -0.1019 -1.08
4731000000.0 -0.8769 -0.6004
4734000000.0 -0.9832 0.3046
4738000000.0 -0.4164 0.9661
4741000000.0 0.4767 0.9402
4744000000.0 1.048 0.2614
4747000000.0 0.8457 -0.6759
4750000000.0 0.02556 -1.072
4753000000.0 -0.7978 -0.7429
4756000000.0 -1.128 0.1423
4759000000.0 -0.5958 0.9517
4762000000.0 0.3811 1.102
4766000000.0 1.059 0.4214
4769000000.0 1.031 -0.5692
4772000000.0 0.2358 -1.147
4775000000.0 -0.7691 -0.904
4778000000.0 -1.183 -0.03943
4781000000.0 -0.8109 0.9092
4784000000.0 0.2119 1.185
4788000000.0 1.055 0.6562
4791000000.0 1.188 -0.3949
4794000000.0 0.4758 -1.132
4797000000.0 -0.5827 -1.115
4800000000.0 -1.268 -0.2502
4803000000.0 -0.9761 0.7718
4806000000.0 -0.04732 1.257
4809000000.0 0.92 0.8709
4812000000.0 1.323 -0.2055
4816000000.0 0.7203 -1.114
4819000000.0 -0.3918 -1.3
4822000000.0 -1.271 -0.5246
4825000000.0 -1.214 0.6677
4828000000.0 -0.2436 1.368
4831000000.0 0.8812 1.08
4834000000.0 1.389 -0.006741
4838000000.0 0.8877 -1.089
4841000000.0 -0.2958 -1.422
4844000000.0 -1.25 -0.6485
4847000000.0 -1.265 0.5438
4850000000.0 -0.365 1.331
4853000000.0 0.7917 1.137
4856000000.0 1.393 0.1066
4859000000.0 0.8954 -0.9938
4862000000.0 -0.1839 -1.328
4866000000.0 -1.141 -0.7127
4869000000.0 -1.265 0.4524
4872000000.0 -0.4421 1.215
4875000000.0 0.6605 1.111
4878000000.0 1.294 0.1589
4881000000.0 0.912 -0.8652
4884000000.0 -0.1291 -1.226
4888000000.0 -0.9997 -0.6887
4891000000.0 -1.123 0.3604
4894000000.0 -0.4242 1.113
4897000000.0 0.5548 1.013
4900000000.0 1.087 0.1664
4903000000.0 0.8228 -0.6997
4906000000.0 -0.05278 -1.065
4909000000.0 -0.8313 -0.6337
4912000000.0 -1.01 0.2778
4916000000.0 -0.4357 0.9373
4919000000.0 0.4325 0.9032
4922000000.0 0.9191 0.2238
4925000000.0 0.768 -0.57
4928000000.0 0.04031 -0.9655
4931000000.0 -0.7486 -0.6496
4934000000.0 -0.9332 0.1662
4938000000.0 -0.4585 0.8046
4941000000.0 0.3195 0.8917
4944000000.0 0.8873 0.3065
4947000000.0 0.7937 -0.5165
4950000000.0 0.1182 -0.957
4953000000.0 -0.6652 -0.7084
4956000000.0 -0.9679 0.08095
4959000000.0 -0.5694 0.809
4962000000.0 0.2837 0.9613
4966000000.0 0.9064 0.4115
4969000000.0 0.8818 -0.4804
4972000000.0 0.2096 -0.9748
4975000000.0 -0.6543 -0.8137
4978000000.0 -1.035 -0.005986
4981000000.0 -0.7166 0.7964
4984000000.0 0.1779 1.039
4988000000.0 0.9394 0.5361
4991000000.0 1.018 -0.3871
4994000000.0 0.3773 -1.06
4997000000.0 -0.5777 -0.9551
5000000000.0 -1.143 -0.1561
5003000000.0 -0.8661 0.7833
5006000000.0 0.03728 1.178
5009000000.0 0.9348 0.7153
5012000000.0 1.189 -0.2675
5016000000.0 0.569 -1.116
5019000000.0 -0.5155 -1.146
5022000000.0 -1.234 -0.3438
5025000000.0 -1.021 0.7387
5028000000.0 -0.09446 1.3
5031000000.0 0.9282 0.9242
5034000000.0 1.296 -0.1526
5038000000.0 0.7073 -1.102
5041000000.0 -0.3866 -1.232
5044000000.0 -1.166 -0.4788
5047000000.0 -1.131 0.5716
5050000000.0 -0.2817 1.247
5053000000.0 0.7939 1.075
5056000000.0 1.339 0.04574
5059000000.0 0.8982 -0.9772
5062000000.0 -0.142 -1.273
5066000000.0 -1.07 -0.7017
5069000000.0 -1.225 0.3988
5072000000.0 -0.4767 1.198
5075000000.0 0.6093 1.15
5078000000.0 1.217 0.2327
5081000000.0 0.9259 -0.7914
5084000000.0 -0.0101 -1.267
5088000000.0 -0.9094 -0.7787
5091000000.0 -1.168 0.1953
5094000000.0 -0.6199 1.047
5097000000.0 0.3863 1.076
5100000000.0 1.073 0.3863
5103000000.0 0.9524 -0.5561
5106000000.0 0.2314 -1.098
5109000000.0 -0.6988 -0.845
5112000000.0 -1.052 -0.003206
5116000000.0 -0.6892 0.7994
5119000000.0 0.2022 1.068
5122000000.0 0.9174 0.5009
5125000000.0 0.9537 -0.3849
5128000000.0 0.3294 -0.9338
5131000000.0 -0.5113 -0.8624
5134000000.0 -0.9939 -0.125
5138000000.0 -0.7064 0.6753
5141000000.0 0.06738 0.9718
5144000000.0 0.7966 0.5511
5147000000.0 0.8602 -0.2498
5150000000.0 0.3594 -0.8346
5153000000.0 -0.4177 -0.8114
5156000000.0 -0.8894 -0.1807
5159000000.0 -0.7049 0.5893
5162000000.0 0.01987 0.9051
5166000000.0 0.6579 0.574
5169000000.0 0.8716 -0.174
5172000000.0 0.3962 -0.7981
5175000000.0 -0.3451 -0.8325
5178000000.0 -0.8582 -0.2328
5181000000.0 -0.7427 0.5106
5184000000.0 -0.01592 0.9028
5188000000.0 0.6993 0.638
5191000000.0 0.9402 -0.1653
5194000000.0 0.4609 -0.7848
5197000000.0 -0.3575 -0.8631
5200000000.0 -0.9053 -0.2657
5203000000.0 -0.7493 0.5699
5206000000.0 -0.04925 0.9664
5209000000.0 0.7345 0.6753
5212000000.0 0.9727 -0.1603
5216000000.0 0.4774 -0.8324
5219000000.0 -0.3489 -0.946
5222000000.0 -0.9476 -0.3053
5225000000.0 -0.8356 0.5437
5228000000.0 -0.1164 1.008
5231000000.0 0.7219 0.7431
5234000000.0 1.035 -0.0823
5238000000.0 0.5947 -0.8554
5241000000.0 -0.2525 -1.001
5244000000.0 -0.9816 -0.4272
5247000000.0 -0.9538 0.4536
5250000000.0 -0.2727 1.049
5253000000.0 0.6369 0.8545
5256000000.0 1.074 0.07681
5259000000.0 0.7494 -0.766
5262000000.0 -0.1325 -1.103
5266000000.0 -0.9048 -0.6037
5269000000.0 -1.053 0.3399
5272000000.0 -0.4082 0.9928
5275000000.0 0.4425 0.9724
5278000000.0 1.062 0.2726
5281000000.0 0.8736 -0.6355
5284000000.0 0.07322 -1.084
5288000000.0 -0.795 -0.7852
5291000000.0 -1.107 0.09769
5294000000.0 -0.6605 0.9119
5297000000.0 0.2871 1.083
5300000000.0 1.018 0.4908
5303000000.0 1.017 -0.4291
5306000000.0 0.3265 -1.105
5309000000.0 -0.6053 -0.9789
5312000000.0 -1.136 -0.1313
5316000000.0 -0.8159 0.7736
5319000000.0 0.08005 1.156
5322000000.0 0.9382 0.6477
5325000000.0 1.123 -0.2826
5328000000.0 0.4877 -1.005
5331000000.0 -0.4733 -1.032
5334000000.0 -1.115 -0.2795
5338000000.0 -0.9146 0.6705
5341000000.0 -0.08414 1.144
5344000000.0 0.8176 0.7607
5347000000.0 1.106 -0.1483
5350000000.0 0.587 -0.9356
5353000000.0 -0.3479 -1.004
5356000000.0 -1.025 -0.384
5359000000.0 -0.9351 0.5514
5362000000.0 -0.1754 1.086
5366000000.0 0.7072 0.7955
5369000000.0 1.032 -0.06106
5372000000.0 0.5482 -0.8682
5375000000.0 -0.3318 -0.9562
5378000000.0 -0.9256 -0.3485
5381000000.0 -0.8503 0.4857
5384000000.0 -0.1328 0.9536
5388000000.0 0.6679 0.689
5391000000.0 0.9518 -0.1352
5394000000.0 0.5066 -0.8129
5397000000.0 -0.2842 -0.867
5400000000.0 -0.8564 -0.2753
5403000000.0 -0.7302 0.4899
5406000000.0 -0.09422 0.906
5409000000.0 0.6414 0.5902
5412000000.0 0.8414 -0.1256
5416000000.0 0.4485 -0.7432
5419000000.0 -0.294 -0.7892
5422000000.0 -0.8109 -0.2642
5425000000.0 -0.7295 0.4712
5428000000.0 -0.07486 0.866
5431000000.0 0.6439 0.5926
5434000000.0 0.8854 -0.1474
5438000000.0 0.4649 -0.7335
5441000000.0 -0.2912 -0.838
5444000000.0 -0.8629 -0.285
5447000000.0 -0.7561 0.4769
5450000000.0 -0.1005 0.8849
5453000000.0 0.6318 0.6673
5456000000.0 0.896 -0.0997
5459000000.0 0.5128 -0.7663
5462000000.0 -0.2374 -0.8871
5466000000.0 -0.8458 -0.389
5469000000.0 -0.8621 0.4633
5472000000.0 -0.2222 0.9089
5475000000.0 0.5678 0.7577
5478000000.0 0.9668 0.07316
5481000000.0 0.6919 -0.7193
5484000000.0 -0.1278 -0.9935
5488000000.0 -0.8451 -0.5736
5491000000.0 -0.9489 0.3206
5494000000.0 -0.4159 0.9304
5497000000.0 0.4539 0.9169
5500000000.0 1.017 0.2038
5503000000.0 0.8515 -0.6316
5506000000.0 0.04546 -1.088
5509000000.0 -0.7578 -0.706
5512000000.0 -1.054 0.1371
5516000000.0 -0.5535 0.8725
5519000000.0 0.3026 1.016
5522000000.0 0.9866 0.3903
5525000000.0 0.9256 -0.4756
5528000000.0 0.2481 -0.9982
5531000000.0 -0.6372 -0.836
5534000000.0 -1.029 -0.07311
5538000000.0 -0.7496 0.7668
5541000000.0 0.1198 1.086
5544000000.0 0.9026 0.5983
5547000000.0 1.021 -0.3112
5550000000.0 0.4266 -0.9819
5553000000.0 -0.5027 -0.9569
5556000000.0 -1.058 -0.2081
5559000000.0 -0.807 0.6394
5562000000.0 0.03395 1.043
5566000000.0 0.802 0.6671
5569000000.0 0.9776 -0.192
5572000000.0 0.4719 -0.87
5575000000.0 -0.3758 -0.9397
5578000000.0 -0.9409 -0.298
5581000000.0 -0.8184 0.5274
5584000000.0 -0.1078 0.9401
5588000000.0 0.6415 0.704
5591000000.0 0.9242 -0.1078
5594000000.0 0.5308 -0.7373
5597000000.0 -0.2493 -0.8922
5600000000.0 -0.8323 -0.3401
5603000000.0 -0.7966 0.4103
5606000000.0 -0.1809 0.8529
5609000000.0 0.5582 0.6497
5612000000.0 0.85 0.02162
5616000000.0 0.5129 -0.6325
5619000000.0 -0.1866 -0.8153
5622000000.0 -0.7325 -0.3627
5625000000.0 -0.7356 0.3728
5628000000.0 -0.2034 0.8038
5631000000.0 0.4945 0.6247
5634000000.0 0.8219 0.008228
5638000000.0 0.524 -0.6319
5641000000.0 -0.1838 -0.823
5644000000.0 -0.7291 -0.3912
5647000000.0 -0.7537 0.3459
5650000000.0 -0.1903 0.811
5653000000.0 0.4964 0.6677
5656000000.0 0.8334 0.01536
5659000000.0 0.5436 -0.6755
5662000000.0 -0.1608 -0.8661
5666000000.0 -0.792 -0.4206
5669000000.0 -0.8371 0.3724
5672000000.0 -0.2339 0.8512
5675000000.0 0.5056 0.7571
5678000000.0 0.9329 0.04277
5681000000.0 0.6371 -0.6981
5684000000.0 -0.152 -0.9786
5688000000.0 -0.8705 -0.4536
5691000000.0 -0.9212 0.369
5694000000.0 -0.2978 0.9425
5697000000.0 0.5602 0.8279
5700000000.0 1.033 0.1234
5703000000.0 0.6983 -0.7151
5706000000.0 -0.08403 -1.027
5709000000.0 -0.8715 -0.5849
5712000000.0 -1.021 0.2975
5716000000.0 -0.4219 0.975
5719000000.0 0.505 0.9483
5722000000.0 1.034 0.2402
5725000000.0 0.8208 -0.6755
5728000000.0 0.04356 -1.1
5731000000.0 -0.8341 -0.7242
5734000000.0 -1.084 0.2118
5738000000.0 -0.5816 0.9272
5741000000.0 0.3541 1.06
5744000000.0 1.078 0.3897
5747000000.0 0.9687 -0.5176
5750000000.0 0.1741 -1.12
5753000000.0 -0.7256 -0.8527
5756000000.0 -1.099 -0.005627
5759000000.0 -0.6745 0.8981
5762000000.0 0.1988 1.083
5766000000.0 0.9701 0.5384
5769000000.0 1.043 -0.4128
5772000000.0 0.3577 -1.048
5775000000.0 -0.6077 -0.931
5778000000.0 -1.075 -0.1377
5781000000.0 -0.8271 0.7624
5784000000.0 0.03859 1.104
5788000000.0 0.8555 0.6169
5791000000.0 1.026 -0.2485
5794000000.0 0.4828 -0.9552
5797000000.0 -0.4257 -1.009
5800000000.0 -1.022 -0.2796
5803000000.0 -0.8607 0.6119
5806000000.0 -0.04177 1.031
5809000000.0 0.7645 0.6912
5812000000.0 1.011 -0.1427
5816000000.0 0.512 -0.8837
5819000000.0 -0.3702 -0.9441
5822000000.0 -0.9266 -0.3336
5825000000.0 -0.828 0.5363
5828000000.0 -0.1034 0.9871
5831000000.0 0.6597 0.7254
5834000000.0 0.9739 -0.08805
5838000000.0 0.5288 -0.7876
5841000000.0 -0.2916 -0.8951
5844000000.0 -0.8673 -0.3602
5847000000.0 -0.7979 0.4557
5850000000.0 -0.1323 0.9107
5853000000.0 0.6022 0.7224
5856000000.0 0.9085 -0.0453
5859000000.0 0.5489 -0.7228
5862000000.0 -0.2379 -0.8731
5866000000.0 -0.8152 -0.3616
5869000000.0 -0.7734 0.4433
5872000000.0 -0.1592 0.8842
5875000000.0 0.5621 0.6702
5878000000.0 0.8593 -0.04676
5881000000.0 0.5206 -0.683
5884000000.0 -0.2088 -0.8173
5888000000.0 -0.808 -0.3302
5891000000.0 -0.8153 0.4079
5894000000.0 -0.1713 0.8569
5897000000.0 0.5719 0.67
5900000000.0 0.869 0.02465
5903000000.0 0.5381 -0.6826
5906000000.0 -0.1601 -0.838
5909000000.0 -0.769 -0.4187
5912000000.0 -0.7999 0.3439
5916000000.0 -0.26 0.8488
5919000000.0 0.4826 0.7458
5922000000.0 0.8847 0.08888
5925000000.0 0.6395 -0.6029
5928000000.0 -0.0758 -0.9049
5931000000.0 -0.7886 -0.5033
5934000000.0 -0.8609 0.2833
5938000000.0 -0.3781 0.8406
5941000000.0 0.4004 0.837
5944000000.0 0.9226 0.2142
5947000000.0 0.7343 -0.6055
5950000000.0 0.0424 -0.9319
5953000000.0 -0.6652 -0.6415
5956000000.0 -0.9631 0.1191
5959000000.0 -0.5324 0.8369
5962000000.0 0.2937 0.9217
5966000000.0 0.8805 0.3459
5969000000.0 0.8362 -0.4836
5972000000.0 0.1541 -0.9735
5975000000.0 -0.6258 -0.7653
5978000000.0 -0.9905 -0.01923
5981000000.0 -0.6451 0.7707
5984000000.0 0.1516 0.9952
5988000000.0 0.9013 0.4976
5991000000.0 0.9629 -0.3631
5994000000.0 0.2898 -0.9692
5997000000.0 -0.5227 -0.8356
6000000000.0 -1.021 -0.1188
6003000000.0 -0.7189 0.6711
6006000000.0 0.07116 0.9886
6009000000.0 0.8292 0.5681
6012000000.0 0.9401 -0.2623
6016000000.0 0.3523 -0.9162
6019000000.0 -0.4725 -0.8835
6022000000.0 -0.9726 -0.1744
6025000000.0 -0.7452 0.6493
6028000000.0 0.004084 0.9594
6031000000.0 0.7285 0.6142
6034000000.0 0.9261 -0.2103
6038000000.0 0.3914 -0.8656
6041000000.0 -0.4059 -0.8521
6044000000.0 -0.8773 -0.2262
6047000000.0 -0.7228 0.5505
6050000000.0 -0.02889 0.9039
6053000000.0 0.6963 0.5513
6056000000.0 0.8864 -0.145
6059000000.0 0.4271 -0.7857
6062000000.0 -0.3965 -0.8297
6066000000.0 -0.8495 -0.2288
6069000000.0 -0.705 0.5062
6072000000.0 -0.05539 0.8541
6075000000.0 0.639 0.5838
6078000000.0 0.8449 -0.1257
6081000000.0 0.4306 -0.744
6084000000.0 -0.2936 -0.7973
6088000000.0 -0.8174 -0.2635
6091000000.0 -0.6957 0.4603
6094000000.0 -0.0756 0.8399
6097000000.0 0.6609 0.6112
6100000000.0 0.8585 -0.07883
6103000000.0 0.4431 -0.7366
6106000000.0 -0.2942 -0.8199
6109000000.0 -0.8257 -0.2992
6112000000.0 -0.719 0.4614
6116000000.0 -0.1204 0.8492
6119000000.0 0.5985 0.6513
6122000000.0 0.8778 -0.09638
6125000000.0 0.48 -0.7613
6128000000.0 -0.2801 -0.857
6131000000.0 -0.8517 -0.3637
6134000000.0 -0.7997 0.4638
6138000000.0 -0.1584 0.8889
6141000000.0 0.6184 0.6973
6144000000.0 0.9326 -0.03424
6147000000.0 0.5507 -0.7651
6150000000.0 -0.2223 -0.9133
6153000000.0 -0.876 -0.3948
6156000000.0 -0.8787 0.4411
6159000000.0 -0.2112 0.9008
6162000000.0 0.6199 0.756
6166000000.0 0.9736 0.05673
6169000000.0 0.6286 -0.7349
6172000000.0 -0.214 -0.9853
6175000000.0 -0.8627 -0.4773
6178000000.0 -0.8889 0.3647
6181000000.0 -0.2899 0.9281
6184000000.0 0.5619 0.8266
6188000000.0 0.9824 0.09851
6191000000.0 0.6633 -0.703
6194000000.0 -0.1362 -0.9688
6197000000.0 -0.8411 -0.5341
6200000000.0 -0.9235 0.2847
6203000000.0 -0.3351 0.8778
6206000000.0 0.5107 0.8494
6209000000.0 0.9195 0.1688
6212000000.0 0.7502 -0.5997
6216000000.0 -0.03001 -0.9278
6219000000.0 -0.725 -0.5821
6222000000.0 -0.889 0.1794
6225000000.0 -0.4119 0.7898
6228000000.0 0.3601 0.8201
6231000000.0 0.8618 0.2577
6234000000.0 0.7178 -0.5123
6238000000.0 0.08031 -0.9138
6241000000.0 -0.6462 -0.6126
6244000000.0 -0.8641 0.1128
6247000000.0 -0.4668 0.7101
6250000000.0 0.251 0.826
6253000000.0 0.7827 0.3291
6256000000.0 0.7384 -0.3961
6259000000.0 0.153 -0.8106
6262000000.0 -0.5271 -0.6417
