! Created with skrf 1.8.0 (http://scikit-rf.org).
# Hz S RI R 50.0 
!freq ReS11 ImS11
4000000000.0 -0.1818 -1.496
4003000000.0 -1.241 -0.8043
4006000000.0 -1.446 0.4668
4009000000.0 -0.5638 1.456
4012000000.0 0.794 1.348
4016000000.0 1.536 0.2267
4019000000.0 1.131 -1.06
4022000000.0 -0.09938 -1.558
4025000000.0 -1.263 -0.9028
4028000000.0 -1.563 0.4884
4031000000.0 -0.5381 1.5
4034000000.0 0.7993 1.406
4038000000.0 1.65 0.2812
4041000000.0 1.23 -1.105
4044000000.0 -0.08934 -1.63
4047000000.0 -1.345 -0.9313
4050000000.0 -1.566 0.4324
4053000000.0 -0.6371 1.53
4056000000.0 0.7484 1.454
4059000000.0 1.582 0.2669
4062000000.0 1.276 -0.9974
4066000000.0 0.09732 -1.636
4069000000.0 -1.243 -1.07
4072000000.0 -1.621 0.2698
4075000000.0 -0.8274 1.367
4078000000.0 0.5828 1.52
4081000000.0 1.562 0.6052
4084000000.0 1.42 -0.8117
4088000000.0 0.222 -1.655
4091000000.0 -1.125 -1.233
4094000000.0 -1.637 0.08995
4097000000.0 -0.9665 1.316
4100000000.0 0.3333 1.59
4103000000.0 1.419 0.7575
4106000000.0 1.457 -0.623
4109000000.0 0.4212 -1.489
4112000000.0 -0.8295 -1.302
4116000000.0 -1.492 -0.2335
4119000000.0 -1.121 1.007
4122000000.0 -0.00332 1.511
4125000000.0 1.153 0.9807
4128000000.0 1.507 -0.254
4131000000.0 0.8149 -1.255
4134000000.0 -0.4055 -1.389
4138000000.0 -1.351 -0.6242
4141000000.0 -1.341 0.6242
4144000000.0 -0.3706 1.454
4147000000.0 0.8842 1.236
4150000000.0 1.489 0.1605
4153000000.0 1.099 -1.08
4156000000.0 -0.1074 -1.509
4159000000.0 -1.233 -0.8898
4162000000.0 -1.462 0.3901
4166000000.0 -0.6954 1.343
4169000000.0 0.6125 1.363
4172000000.0 1.467 0.4223
4175000000.0 1.238 -0.8241
4178000000.0 0.142 -1.469
4181000000.0 -1.014 -1.046
4184000000.0 -1.517 0.1102
4188000000.0 -0.9015 1.249
4191000000.0 0.3406 1.447
4194000000.0 1.383 0.6709
4197000000.0 1.427 -0.6306
4200000000.0 0.4083 -1.508
4203000000.0 -0.9519 -1.295
4206000000.0 -1.584 -0.07288
4209000000.0 -1.083 1.25
4212000000.0 0.3446 1.637
4216000000.0 1.519 0.7677
4219000000.0 1.541 -0.7355
4222000000.0 0.3095 -1.667
4225000000.0 -1.081 -1.249
4228000000.0 -1.692 0.0653
4231000000.0 -0.9393 1.376
4234000000.0 0.5469 1.513
4238000000.0 1.54 0.498
4241000000.0 1.362 -0.9222
4244000000.0 0.1111 -1.621
4247000000.0 -1.209 -1.013
4250000000.0 -1.54 0.2652
4253000000.0 -0.715 1.392
4256000000.0 0.6664 1.373
4259000000.0 1.477 0.308
4262000000.0 1.168 -0.9832
4266000000.0 -0.101 -1.528
4269000000.0 -1.217 -0.8549
4272000000.0 -1.484 0.4103
4275000000.0 -0.4966 1.403
4278000000.0 0.754 1.255
4281000000.0 1.419 0.201
4284000000.0 0.9665 -0.9639
4288000000.0 -0.1499 -1.363
4291000000.0 -1.182 -0.7745
4294000000.0 -1.299 0.4162
4297000000.0 -0.5221 1.246
4300000000.0 0.6061 1.148
4303000000.0 1.275 0.2177
4306000000.0 1.014 -0.8326
4309000000.0 0.008563 -1.286
4312000000.0 -0.9688 -0.8469
4316000000.0 -1.3 0.1969
4319000000.0 -0.7044 1.087
4322000000.0 0.4116 1.264
4325000000.0 1.231 0.4621
4328000000.0 1.207 -0.6047
4331000000.0 0.2681 -1.284
4334000000.0 -0.8453 -1.084
4338000000.0 -1.352 -0.06285
4341000000.0 -0.9362 1.03
4344000000.0 0.2159 1.392
4347000000.0 1.234 0.7239
4350000000.0 1.36 -0.4776
4353000000.0 0.5122 -1.334
4356000000.0 -0.7118 -1.242
4359000000.0 -1.415 -0.2735
4362000000.0 -1.106 0.9005
4366000000.0 0.01859 1.483
4369000000.0 1.141 0.9336
4372000000.0 1.435 -0.2944
4375000000.0 0.7284 -1.315
4378000000.0 -0.5749 -1.417
4381000000.0 -1.423 -0.4816
4384000000.0 -1.293 0.8164
4388000000.0 -0.1738 1.538
4391000000.0 1.075 1.113
4394000000.0 1.567 -0.1345
4397000000.0 0.8635 -1.313
4400000000.0 -0.441 -1.517
4403000000.0 -1.508 -0.5343
4406000000.0 -1.345 0.8464
4409000000.0 -0.2023 1.549
4412000000.0 1.086 1.154
4416000000.0 1.515 -0.1625
4419000000.0 0.8049 -1.313
4422000000.0 -0.5324 -1.433
4425000000.0 -1.426 -0.4773
4428000000.0 -1.223 0.823
4431000000.0 -0.09662 1.44
4434000000.0 1.068 0.9713
4438000000.0 1.387 -0.2198
4441000000.0 0.6606 -1.211
4444000000.0 -0.5524 -1.249
4447000000.0 -1.295 -0.3496
4450000000.0 -1.047 0.8402
4453000000.0 0.04005 1.314
4456000000.0 1.051 0.7835
4459000000.0 1.258 -0.3166
4462000000.0 0.4852 -1.144
4466000000.0 -0.6095 -1.091
4469000000.0 -1.216 -0.1836
4472000000.0 -0.8785 0.8593
4475000000.0 0.1489 1.208
4478000000.0 1.033 0.613
4481000000.0 1.093 -0.4192
4484000000.0 0.3363 -1.13
4488000000.0 -0.6383 -0.9126
4491000000.0 -1.136 -0.07906
4494000000.0 -0.7503 0.8272
4497000000.0 0.1646 1.133
4500000000.0 0.9755 0.5355
4503000000.0 1.03 -0.3873
4506000000.0 0.3383 -1.035
4509000000.0 -0.6075 -0.9405
4512000000.0 -1.104 -0.08332
4516000000.0 -0.7773 0.7974
4519000000.0 0.1124 1.107
4522000000.0 0.9419 0.6313
4525000000.0 1.106 -0.3728
4528000000.0 0.4216 -1.074
4531000000.0 -0.5688 -1.019
4534000000.0 -1.169 -0.1888
4538000000.0 -0.8725 0.7551
4541000000.0 0.02091 1.166
4544000000.0 0.9015 0.7241
4547000000.0 1.196 -0.2249
4550000000.0 0.5671 -1.026
4553000000.0 -0.436 -1.131
4556000000.0 -1.145 -0.3669
4559000000.0 -1.028 0.6484
4562000000.0 -0.1833 1.22
4566000000.0 0.8257 0.9278
4569000000.0 1.268 -0.01676
4572000000.0 0.8047 -1.005
4575000000.0 -0.2832 -1.251
4578000000.0 -1.141 -0.6087
4581000000.0 -1.218 0.4998
4584000000.0 -0.3891 1.279
4588000000.0 0.7288 1.126
4591000000.0 1.362 0.1595
4594000000.0 1.024 -0.9493
4597000000.0 -0.09389 -1.361
4600000000.0 -1.127 -0.8054
4603000000.0 -1.35 0.3731
4606000000.0 -0.5629 1.279
4609000000.0 0.62 1.264
4612000000.0 1.392 0.3057
4616000000.0 1.121 -0.8471
4619000000.0 0.02542 -1.394
4622000000.0 -1.049 -0.9218
4625000000.0 -1.393 0.2598
4628000000.0 -0.6787 1.216
4631000000.0 0.506 1.275
4634000000.0 1.328 0.4204
4638000000.0 1.143 -0.7303
4641000000.0 0.1053 -1.329
4644000000.0 -0.9889 -0.9346
4647000000.0 -1.327 0.203
4650000000.0 -0.7056 1.162
4653000000.0 0.5056 1.242
4656000000.0 1.239 0.3956
4659000000.0 1.036 -0.7016
4662000000.0 0.06878 -1.278
4666000000.0 -0.9151 -0.824
4669000000.0 -1.223 0.2158
4672000000.0 -0.6106 1.05
4675000000.0 0.4233 1.116
4678000000.0 1.12 0.3318
4681000000.0 0.944 -0.6316
4684000000.0 0.02414 -1.15
4688000000.0 -0.8261 -0.7314
4691000000.0 -1.134 0.1711
4694000000.0 -0.5413 0.9769
4697000000.0 0.4256 1.026
4700000000.0 1.084 0.3149
4703000000.0 0.8575 -0.6425
4706000000.0 0.05184 -1.08
4709000000.0 -0.7986 -0.6807
4712000000.0 -1.063 0.2323
4716000000.0 -0.5041 0.967
4719000000.0 0.4439 1.004
4722000000.0 1.054 0.2709
4725000000.0 0.8148 -0.6428
4728000000.0 0.03705 -1.057
4731000000.0 -0.7909 -0.6843
4734000000.0 -1.003 0.1488
4738000000.0 -0.5251 0.9206
4741000000.0 0.3353 0.9676
4744000000.0 0.9852 0.3329
4747000000.0 0.9199 -0.5329
4750000000.0 0.1601 -1.052
4753000000.0 -0.7366 -0.7921
4756000000.0 -1.095 0.03849
4759000000.0 -0.6764 0.8672
4762000000.0 0.2427 1.065
4766000000.0 1.006 0.5066
4769000000.0 1.031 -0.4433
4772000000.0 0.3442 -1.095
4775000000.0 -0.6222 -1.008
4778000000.0 -1.175 -0.1683
4781000000.0 -0.9035 0.802
4784000000.0 0.05517 1.214
4788000000.0 0.9528 0.7322
4791000000.0 1.187 -0.2624
4794000000.0 0.5589 -1.06
4797000000.0 -0.4776 -1.142
4800000000.0 -1.201 -0.3761
4803000000.0 -1.067 0.6698
4806000000.0 -0.1566 1.234
4809000000.0 0.8401 0.9465
4812000000.0 1.266 -0.04405
4816000000.0 0.7887 -1.036
4819000000.0 -0.2826 -1.322
4822000000.0 -1.174 -0.6427
4825000000.0 -1.25 0.5293
4828000000.0 -0.4078 1.288
4831000000.0 0.7597 1.14
4834000000.0 1.369 0.1227
4838000000.0 0.9802 -0.9784
4841000000.0 -0.1427 -1.371
4844000000.0 -1.175 -0.7888
4847000000.0 -1.323 0.4196
4850000000.0 -0.5246 1.283
4853000000.0 0.68 1.232
4856000000.0 1.366 0.2452
4859000000.0 1.05 -0.8973
4862000000.0 -0.003572 -1.36
4866000000.0 -1.033 -0.8261
4869000000.0 -1.321 0.284
4872000000.0 -0.5899 1.168
4875000000.0 0.5317 1.186
4878000000.0 1.259 0.3414
4881000000.0 1.025 -0.7872
4884000000.0 0.04287 -1.241
4888000000.0 -0.9459 -0.8396
4891000000.0 -1.182 0.2067
4894000000.0 -0.5766 1.062
4897000000.0 0.4396 1.074
4900000000.0 1.079 0.3284
4903000000.0 0.9035 -0.6233
4906000000.0 0.0643 -1.089
4909000000.0 -0.7852 -0.7497
4912000000.0 -1.046 0.1231
4916000000.0 -0.5498 0.8746
4919000000.0 0.3169 0.9505
4922000000.0 0.9188 0.3494
4925000000.0 0.8615 -0.4935
4928000000.0 0.1476 -0.9724
4931000000.0 -0.6104 -0.7248
4934000000.0 -0.9333 0.03994
4938000000.0 -0.5656 0.7494
4941000000.0 0.195 0.9424
4944000000.0 0.8564 0.3971
4947000000.0 0.8448 -0.3791
4950000000.0 0.2255 -0.9381
4953000000.0 -0.569 -0.7742
4956000000.0 -0.9435 -0.04744
4959000000.0 -0.6318 0.7437
4962000000.0 0.1342 0.9539
4966000000.0 0.8445 0.4997
4969000000.0 0.9253 -0.3418
4972000000.0 0.3064 -0.9544
4975000000.0 -0.5487 -0.8419
4978000000.0 -1.025 -0.1148
4981000000.0 -0.7534 0.6903
4984000000.0 0.05305 1.023
4988000000.0 0.8606 0.6182
4991000000.0 1.044 -0.2661
4994000000.0 0.4803 -0.969
4997000000.0 -0.4454 -0.9928
5000000000.0 -1.09 -0.2795
5003000000.0 -0.9007 0.6628
5006000000.0 -0.07722 1.168
5009000000.0 0.8742 0.8336
5012000000.0 1.196 -0.1808
5016000000.0 0.639 -1.055
5019000000.0 -0.3845 -1.192
5022000000.0 -1.164 -0.475
5025000000.0 -1.111 0.6102
5028000000.0 -0.2398 1.233
5031000000.0 0.8045 0.9751
5034000000.0 1.308 -0.005224
5038000000.0 0.8112 -0.9737
5041000000.0 -0.2664 -1.271
5044000000.0 -1.124 -0.6462
5047000000.0 -1.228 0.4596
5050000000.0 -0.4264 1.213
5053000000.0 0.6518 1.104
5056000000.0 1.284 0.2064
5059000000.0 0.9628 -0.872
5062000000.0 -0.05981 -1.328
5066000000.0 -1.012 -0.8048
5069000000.0 -1.249 0.2961
5072000000.0 -0.6335 1.143
5075000000.0 0.5093 1.19
5078000000.0 1.217 0.399
5081000000.0 1.019 -0.7292
5084000000.0 0.1392 -1.253
5088000000.0 -0.7926 -0.877
5091000000.0 -1.203 0.06933
5094000000.0 -0.7103 0.9816
5097000000.0 0.2609 1.173
5100000000.0 1.032 0.5417
5103000000.0 1.024 -0.4682
5106000000.0 0.3434 -1.04
5109000000.0 -0.6191 -0.9268
5112000000.0 -1.098 -0.1192
5116000000.0 -0.7901 0.7633
5119000000.0 0.08729 1.055
5122000000.0 0.8498 0.6114
5125000000.0 0.9711 -0.2606
5128000000.0 0.4311 -0.9342
5131000000.0 -0.4372 -0.8969
5134000000.0 -0.9955 -0.242
5138000000.0 -0.8325 0.5582
5141000000.0 -0.06385 1.006
5144000000.0 0.6969 0.6522
5147000000.0 0.9443 -0.1272
5150000000.0 0.4946 -0.7487
5153000000.0 -0.2992 -0.8415
5156000000.0 -0.857 -0.3213
5159000000.0 -0.8001 0.4328
5162000000.0 -0.09214 0.8966
5166000000.0 0.6407 0.6922
5169000000.0 0.9445 -0.02167
5172000000.0 0.534 -0.7439
5175000000.0 -0.2176 -0.8671
5178000000.0 -0.8518 -0.3782
5181000000.0 -0.8444 0.3943
5184000000.0 -0.1902 0.9154
5188000000.0 0.5762 0.7114
5191000000.0 0.9183 -0.02283
5194000000.0 0.5694 -0.7476
5197000000.0 -0.2375 -0.8926
5200000000.0 -0.8318 -0.3867
5203000000.0 -0.8424 0.4446
5206000000.0 -0.1974 0.9391
5209000000.0 0.5942 0.723
5212000000.0 0.9728 0.01027
5216000000.0 0.6227 -0.7811
5219000000.0 -0.1805 -0.9311
5222000000.0 -0.8743 -0.4494
5225000000.0 -0.891 0.407
5228000000.0 -0.2401 0.9711
5231000000.0 0.587 0.8371
5234000000.0 1.016 0.05969
5238000000.0 0.716 -0.7876
5241000000.0 -0.1438 -1.054
5244000000.0 -0.9048 -0.5707
5247000000.0 -1.031 0.3235
5250000000.0 -0.3981 0.9998
5253000000.0 0.5079 0.9451
5256000000.0 1.057 0.2252
5259000000.0 0.8485 -0.7067
5262000000.0 0.01604 -1.107
5266000000.0 -0.8282 -0.7141
5269000000.0 -1.058 0.1761
5272000000.0 -0.5426 0.9516
5275000000.0 0.3531 1.059
5278000000.0 0.9927 0.4009
5281000000.0 0.9917 -0.5308
5284000000.0 0.2216 -1.076
5288000000.0 -0.6635 -0.8661
5291000000.0 -1.125 -0.06953
5294000000.0 -0.7672 0.819
5297000000.0 0.1023 1.115
5300000000.0 0.9332 0.6509
5303000000.0 1.08 -0.3371
5306000000.0 0.4591 -0.9985
5309000000.0 -0.4953 -1.04
5312000000.0 -1.086 -0.3032
5316000000.0 -0.976 0.6608
5319000000.0 -0.1138 1.162
5322000000.0 0.8216 0.816
5325000000.0 1.16 -0.1016
5328000000.0 0.6555 -0.9547
5331000000.0 -0.2907 -1.115
5334000000.0 -1.032 -0.4512
5338000000.0 -1.008 0.5009
5341000000.0 -0.2721 1.085
5344000000.0 0.6718 0.8996
5347000000.0 1.098 0.05543
5350000000.0 0.7505 -0.8157
5353000000.0 -0.1223 -1.097
5356000000.0 -0.9615 -0.5828
5359000000.0 -1.009 0.3549
5362000000.0 -0.3514 1.034
5366000000.0 0.5455 0.9071
5369000000.0 1.089 0.1432
5372000000.0 0.7655 -0.745
5375000000.0 -0.1267 -1.037
5378000000.0 -0.8817 -0.5686
5381000000.0 -0.9625 0.3216
5384000000.0 -0.3424 0.9365
5388000000.0 0.5331 0.8314
5391000000.0 0.9641 0.09558
5394000000.0 0.6894 -0.6696
5397000000.0 -0.1182 -0.9263
5400000000.0 -0.7984 -0.4824
5403000000.0 -0.846 0.3051
5406000000.0 -0.2892 0.8271
5409000000.0 0.4956 0.7397
5412000000.0 0.8894 0.05434
5416000000.0 0.6381 -0.6367
5419000000.0 -0.112 -0.8779
5422000000.0 -0.7483 -0.434
5425000000.0 -0.8145 0.291
5428000000.0 -0.2645 0.8398
5431000000.0 0.483 0.7403
5434000000.0 0.8988 0.1001
5438000000.0 0.6139 -0.6273
5441000000.0 -0.1434 -0.8831
5444000000.0 -0.7747 -0.4882
5447000000.0 -0.8161 0.2843
5450000000.0 -0.2874 0.8423
5453000000.0 0.4945 0.7578
5456000000.0 0.8901 0.1026
5459000000.0 0.6773 -0.5974
5462000000.0 -0.07449 -0.8892
5466000000.0 -0.7571 -0.5201
5469000000.0 -0.8653 0.2478
5472000000.0 -0.3719 0.8219
5475000000.0 0.3623 0.8065
5478000000.0 0.9086 0.208
5481000000.0 0.7497 -0.5415
5484000000.0 0.0847 -0.9396
5488000000.0 -0.6795 -0.6779
5491000000.0 -0.944 0.09583
5494000000.0 -0.5549 0.808
5497000000.0 0.2604 1.015
5500000000.0 0.8961 0.3823
5503000000.0 0.9232 -0.4666
5506000000.0 0.2195 -0.9951
5509000000.0 -0.6219 -0.8265
5512000000.0 -1.014 -0.0562
5516000000.0 -0.7179 0.7764
5519000000.0 0.1061 1.034
5522000000.0 0.8666 0.6023
5525000000.0 1.008 -0.2863
5528000000.0 0.4248 -0.9621
5531000000.0 -0.4614 -0.979
5534000000.0 -1.005 -0.2731
5538000000.0 -0.8626 0.589
5541000000.0 -0.07146 1.044
5544000000.0 0.7927 0.7577
5547000000.0 1.081 -0.08593
5550000000.0 0.6104 -0.8679
5553000000.0 -0.2602 -1.01
5556000000.0 -0.9726 -0.4181
5559000000.0 -0.9378 0.4458
5562000000.0 -0.2365 1.007
5566000000.0 0.6233 0.8289
5569000000.0 1.02 0.04442
5572000000.0 0.7124 -0.7479
5575000000.0 -0.1598 -1.014
5578000000.0 -0.8398 -0.5562
5581000000.0 -0.9557 0.3353
5584000000.0 -0.3746 0.897
5588000000.0 0.4876 0.8516
5591000000.0 0.9318 0.163
5594000000.0 0.7195 -0.632
5597000000.0 -0.0316 -0.9495
5600000000.0 -0.7486 -0.5711
5603000000.0 -0.8811 0.2005
5606000000.0 -0.4048 0.7862
5609000000.0 0.349 0.8079
5612000000.0 0.8628 0.2042
5616000000.0 0.7148 -0.5056
5619000000.0 0.05498 -0.8701
5622000000.0 -0.6393 -0.5841
5625000000.0 -0.8329 0.1256
5628000000.0 -0.4328 0.7281
5631000000.0 0.2858 0.7685
5634000000.0 0.7991 0.2483
5638000000.0 0.6925 -0.4679
5641000000.0 0.06944 -0.8214
5644000000.0 -0.596 -0.5872
5647000000.0 -0.8179 0.1056
5650000000.0 -0.4243 0.7135
5653000000.0 0.2948 0.7868
5656000000.0 0.8075 0.2765
5659000000.0 0.7111 -0.4631
5662000000.0 0.09683 -0.8732
5666000000.0 -0.6389 -0.6079
5669000000.0 -0.89 0.109
5672000000.0 -0.4819 0.7656
5675000000.0 0.2989 0.8263
5678000000.0 0.8362 0.3185
5681000000.0 0.7719 -0.4706
5684000000.0 0.1119 -0.9286
5688000000.0 -0.6931 -0.6501
5691000000.0 -0.956 0.07224
5694000000.0 -0.5356 0.8157
5697000000.0 0.2915 0.9185
5700000000.0 0.928 0.3732
5703000000.0 0.8626 -0.5007
5706000000.0 0.1787 -1.001
5709000000.0 -0.6536 -0.7649
5712000000.0 -1.029 0.01863
5716000000.0 -0.5855 0.8083
5719000000.0 0.2024 1.038
5722000000.0 0.9249 0.5182
5725000000.0 0.9694 -0.4374
5728000000.0 0.2879 -1.03
5731000000.0 -0.6066 -0.926
5734000000.0 -1.075 -0.0974
5738000000.0 -0.7639 0.7158
5741000000.0 0.0772 1.083
5744000000.0 0.9005 0.6727
5747000000.0 1.075 -0.2956
5750000000.0 0.4442 -0.9968
5753000000.0 -0.4781 -0.9873
5756000000.0 -1.065 -0.2772
5759000000.0 -0.8994 0.6185
5762000000.0 -0.08232 1.102
5766000000.0 0.8217 0.7712
5769000000.0 1.115 -0.121
5772000000.0 0.5914 -0.9518
5775000000.0 -0.3213 -1.057
5778000000.0 -0.9976 -0.4619
5781000000.0 -0.9861 0.5309
5784000000.0 -0.2256 1.067
5788000000.0 0.6649 0.8813
5791000000.0 1.078 0.04201
5794000000.0 0.7382 -0.7664
5797000000.0 -0.1363 -1.078
5800000000.0 -0.9233 -0.5662
5803000000.0 -1.011 0.3449
5806000000.0 -0.3863 1.009
5809000000.0 0.528 0.9232
5812000000.0 1.06 0.1938
5816000000.0 0.7927 -0.6905
5819000000.0 -0.03119 -1.017
5822000000.0 -0.7937 -0.6376
5825000000.0 -1.007 0.2025
5828000000.0 -0.4271 0.9039
5831000000.0 0.3964 0.9345
5834000000.0 0.9578 0.2428
5838000000.0 0.7968 -0.5611
5841000000.0 0.06201 -0.9827
5844000000.0 -0.6796 -0.629
5847000000.0 -0.9378 0.1296
5850000000.0 -0.4872 0.779
5853000000.0 0.313 0.8919
5856000000.0 0.8891 0.3006
5859000000.0 0.7841 -0.4969
5862000000.0 0.09444 -0.9197
5866000000.0 -0.6372 -0.6409
5869000000.0 -0.8747 0.1064
5872000000.0 -0.4592 0.7658
5875000000.0 0.3096 0.8759
5878000000.0 0.8121 0.3121
5881000000.0 0.7358 -0.4699
5884000000.0 0.1044 -0.8403
5888000000.0 -0.6098 -0.6408
5891000000.0 -0.8609 0.0793
5894000000.0 -0.5375 0.7027
5897000000.0 0.2548 0.8566
5900000000.0 0.7723 0.3165
5903000000.0 0.7589 -0.4025
5906000000.0 0.1988 -0.8646
5909000000.0 -0.5601 -0.6827
5912000000.0 -0.8647 0.00539
5916000000.0 -0.5354 0.6871
5919000000.0 0.1878 0.8653
5922000000.0 0.7818 0.4242
5925000000.0 0.8218 -0.3383
5928000000.0 0.2384 -0.834
5931000000.0 -0.4841 -0.7109
5934000000.0 -0.8648 -0.1119
5938000000.0 -0.6309 0.6262
5941000000.0 0.08262 0.8795
5944000000.0 0.7354 0.4958
5947000000.0 0.852 -0.2445
5950000000.0 0.3707 -0.8052
5953000000.0 -0.3937 -0.8457
5956000000.0 -0.8668 -0.2137
5959000000.0 -0.7302 0.5387
5962000000.0 -0.08098 0.9141
5966000000.0 0.6883 0.641
5969000000.0 0.9365 -0.1132
5972000000.0 0.5467 -0.7875
5975000000.0 -0.2472 -0.9416
5978000000.0 -0.8698 -0.3911
5981000000.0 -0.8757 0.468
5984000000.0 -0.2453 0.928
5988000000.0 0.5734 0.7959
5991000000.0 1.03 0.06579
5994000000.0 0.6676 -0.7313
5997000000.0 -0.1497 -0.9775
6000000000.0 -0.8791 -0.5458
6003000000.0 -0.9506 0.2895
6006000000.0 -0.3639 0.938
6009000000.0 0.4793 0.8675
6012000000.0 0.9919 0.1904
6016000000.0 0.7533 -0.6607
6019000000.0 -0.009476 -1.01
6022000000.0 -0.8129 -0.6121
6025000000.0 -0.9537 0.2226
6028000000.0 -0.4548 0.8506
6031000000.0 0.3847 0.9089
6034000000.0 0.9307 0.2966
6038000000.0 0.8073 -0.5347
6041000000.0 0.06986 -0.9604
6044000000.0 -0.6981 -0.6906
6047000000.0 -0.9777 0.1118
6050000000.0 -0.4977 0.827
6053000000.0 0.3305 0.8965
6056000000.0 0.8997 0.2982
6059000000.0 0.8178 -0.48
6062000000.0 0.1144 -0.9153
6066000000.0 -0.6325 -0.644
6069000000.0 -0.9381 0.05368
6072000000.0 -0.5036 0.7289
6075000000.0 0.28 0.8588
6078000000.0 0.8034 0.3495
6081000000.0 0.7905 -0.417
6084000000.0 0.1589 -0.8682
6088000000.0 -0.563 -0.6727
6091000000.0 -0.8744 0.03789
6094000000.0 -0.5142 0.7032
6097000000.0 0.1919 0.812
6100000000.0 0.7886 0.3817
6103000000.0 0.7851 -0.3744
6106000000.0 0.2123 -0.837
6109000000.0 -0.5387 -0.6718
6112000000.0 -0.8213 -0.01615
6116000000.0 -0.5571 0.6688
6119000000.0 0.2071 0.8692
6122000000.0 0.7937 0.4042
6125000000.0 0.7829 -0.3504
6128000000.0 0.2204 -0.8265
6131000000.0 -0.4956 -0.7054
6134000000.0 -0.8606 -0.08479
6138000000.0 -0.5942 0.659
6141000000.0 0.1228 0.8755
6144000000.0 0.7471 0.4554
6147000000.0 0.8443 -0.3724
6150000000.0 0.2684 -0.8111
6153000000.0 -0.4993 -0.7648
6156000000.0 -0.9299 -0.1379
6159000000.0 -0.6757 0.6095
6162000000.0 0.05093 0.9053
6166000000.0 0.7038 0.5443
6169000000.0 0.8947 -0.225
6172000000.0 0.401 -0.8658
6175000000.0 -0.4161 -0.8307
6178000000.0 -0.9387 -0.2305
6181000000.0 -0.7595 0.5999
6184000000.0 0.00489 0.8992
6188000000.0 0.7129 0.6077
6191000000.0 0.9511 -0.1441
6194000000.0 0.4621 -0.793
6197000000.0 -0.3687 -0.8762
6200000000.0 -0.8902 -0.3346
6203000000.0 -0.8071 0.5025
6206000000.0 -0.09619 0.9243
6209000000.0 0.6351 0.6883
6212000000.0 0.947 -0.0652
6216000000.0 0.5465 -0.7362
6219000000.0 -0.2403 -0.9021
6222000000.0 -0.8215 -0.4124
6225000000.0 -0.8387 0.4006
6228000000.0 -0.2155 0.8905
6231000000.0 0.5456 0.7208
6234000000.0 0.8923 0.07103
6238000000.0 0.6252 -0.6404
6241000000.0 -0.1013 -0.8703
6244000000.0 -0.731 -0.4852
6247000000.0 -0.8186 0.2601
6250000000.0 -0.2961 0.7974
6253000000.0 0.3827 0.7369
6256000000.0 0.8264 0.177
6259000000.0 0.664 -0.5043
6262000000.0 0.02782 -0.8094
6266000000.0 -0.633 -0.5503
