! Created with skrf 1.8.0 (http://scikit-rf.org).
# Hz S RI R 50.0 
!freq ReS11 ImS11
4000000000.0 -0.1285 -1.492
4003000000.0 -1.258 -0.8447
4006000000.0 -1.463 0.4611
4009000000.0 -0.5091 1.363
4012000000.0 0.7376 1.241
4016000000.0 1.515 0.2132
4019000000.0 1.13 -1.059
4022000000.0 -0.1066 -1.568
4025000000.0 -1.256 -0.9157
4028000000.0 -1.499 0.4816
4031000000.0 -0.597 1.488
4034000000.0 0.7708 1.47
4038000000.0 1.574 0.2622
4041000000.0 1.212 -1.114
4044000000.0 -0.1246 -1.6
4047000000.0 -1.322 -0.9394
4050000000.0 -1.572 0.4533
4053000000.0 -0.6612 1.482
4056000000.0 0.763 1.418
4059000000.0 1.54 0.3192
4062000000.0 1.245 -1.026
4066000000.0 0.01025 -1.607
4069000000.0 -1.223 -1.044
4072000000.0 -1.587 0.2495
4075000000.0 -0.8415 1.377
4078000000.0 0.5322 1.514
4081000000.0 1.546 0.5218
4084000000.0 1.396 -0.8125
4088000000.0 0.2539 -1.606
4091000000.0 -1.1 -1.219
4094000000.0 -1.668 0.04432
4097000000.0 -0.9985 1.309
4100000000.0 0.3451 1.545
4103000000.0 1.454 0.7082
4106000000.0 1.439 -0.6465
4109000000.0 0.454 -1.489
4112000000.0 -0.8715 -1.29
4116000000.0 -1.537 -0.1821
4119000000.0 -1.128 0.9669
4122000000.0 0.008262 1.472
4125000000.0 1.122 0.9349
4128000000.0 1.417 -0.242
4131000000.0 0.8121 -1.217
4134000000.0 -0.4179 -1.395
4138000000.0 -1.367 -0.6041
4141000000.0 -1.341 0.6302
4144000000.0 -0.4097 1.435
4147000000.0 0.8353 1.218
4150000000.0 1.497 0.1524
4153000000.0 1.063 -1.046
4156000000.0 -0.1393 -1.478
4159000000.0 -1.248 -0.8999
4162000000.0 -1.465 0.3549
4166000000.0 -0.6814 1.358
4169000000.0 0.6227 1.385
4172000000.0 1.45 0.3916
4175000000.0 1.26 -0.8348
4178000000.0 0.1481 -1.489
4181000000.0 -1.005 -1.071
4184000000.0 -1.469 0.09978
4188000000.0 -0.89 1.219
4191000000.0 0.3467 1.523
4194000000.0 1.366 0.6868
4197000000.0 1.43 -0.6427
4200000000.0 0.3738 -1.498
4203000000.0 -0.941 -1.292
4206000000.0 -1.595 -0.04459
4209000000.0 -1.07 1.258
4212000000.0 0.3264 1.583
4216000000.0 1.455 0.7492
4219000000.0 1.497 -0.7258
4222000000.0 0.3135 -1.639
4225000000.0 -1.09 -1.278
4228000000.0 -1.678 0.122
4231000000.0 -0.9271 1.39
4234000000.0 0.5015 1.578
4238000000.0 1.528 0.5079
4241000000.0 1.351 -0.907
4244000000.0 0.07631 -1.607
4247000000.0 -1.209 -1.056
4250000000.0 -1.562 0.2762
4253000000.0 -0.7196 1.401
4256000000.0 0.6738 1.373
4259000000.0 1.489 0.3368
4262000000.0 1.133 -1.016
4266000000.0 -0.08211 -1.521
4269000000.0 -1.215 -0.8771
4272000000.0 -1.412 0.4037
4275000000.0 -0.5312 1.368
4278000000.0 0.7091 1.215
4281000000.0 1.415 0.1909
4284000000.0 1.015 -0.9446
4288000000.0 -0.1358 -1.412
4291000000.0 -1.119 -0.7564
4294000000.0 -1.284 0.416
4297000000.0 -0.4888 1.257
4300000000.0 0.5963 1.141
4303000000.0 1.25 0.2335
4306000000.0 0.9797 -0.8207
4309000000.0 0.01817 -1.279
4312000000.0 -0.9569 -0.8479
4316000000.0 -1.263 0.1853
4319000000.0 -0.6875 1.1
4322000000.0 0.3885 1.24
4325000000.0 1.219 0.4925
4328000000.0 1.168 -0.5896
4331000000.0 0.2854 -1.301
4334000000.0 -0.8361 -1.06
4338000000.0 -1.363 -0.0483
4341000000.0 -0.9312 1.029
4344000000.0 0.2133 1.395
4347000000.0 1.188 0.7191
4350000000.0 1.353 -0.4651
4353000000.0 0.5303 -1.341
4356000000.0 -0.7298 -1.265
4359000000.0 -1.389 -0.2574
4362000000.0 -1.093 0.9248
4366000000.0 0.01963 1.462
4369000000.0 1.147 0.9257
4372000000.0 1.433 -0.2491
4375000000.0 0.7002 -1.274
4378000000.0 -0.5265 -1.37
4381000000.0 -1.442 -0.5115
4384000000.0 -1.283 0.7863
4388000000.0 -0.1909 1.543
4391000000.0 1.071 1.127
4394000000.0 1.598 -0.1401
4397000000.0 0.8629 -1.292
4400000000.0 -0.4373 -1.502
4403000000.0 -1.482 -0.5811
4406000000.0 -1.365 0.8088
4409000000.0 -0.2096 1.526
4412000000.0 1.101 1.127
4416000000.0 1.577 -0.1793
4419000000.0 0.8054 -1.327
4422000000.0 -0.5337 -1.425
4425000000.0 -1.404 -0.4757
4428000000.0 -1.215 0.8007
4431000000.0 -0.08336 1.474
4434000000.0 1.055 0.955
4438000000.0 1.402 -0.2099
4441000000.0 0.6772 -1.245
4444000000.0 -0.5566 -1.266
4447000000.0 -1.319 -0.3191
4450000000.0 -1.052 0.8374
4453000000.0 0.03956 1.305
4456000000.0 1.032 0.7985
4459000000.0 1.224 -0.3471
4462000000.0 0.4852 -1.202
4466000000.0 -0.5859 -1.065
4469000000.0 -1.209 -0.149
4472000000.0 -0.8721 0.8498
4475000000.0 0.144 1.204
4478000000.0 1.023 0.6483
4481000000.0 1.098 -0.3929
4484000000.0 0.3846 -1.122
4488000000.0 -0.6103 -0.9358
4491000000.0 -1.16 -0.0777
4494000000.0 -0.7649 0.8069
4497000000.0 0.1435 1.119
4500000000.0 0.9641 0.5588
4503000000.0 1.0 -0.3859
4506000000.0 0.3282 -1.024
4509000000.0 -0.5791 -0.9104
4512000000.0 -1.076 -0.1022
4516000000.0 -0.7611 0.7742
4519000000.0 0.1272 1.111
4522000000.0 0.9329 0.6386
4525000000.0 1.07 -0.32
4528000000.0 0.4305 -1.065
4531000000.0 -0.5554 -0.9853
4534000000.0 -1.152 -0.2323
4538000000.0 -0.8784 0.7749
4541000000.0 0.003804 1.186
4544000000.0 0.9187 0.7472
4547000000.0 1.177 -0.2243
4550000000.0 0.5776 -1.057
4553000000.0 -0.4191 -1.09
4556000000.0 -1.137 -0.3965
4559000000.0 -1.027 0.6268
4562000000.0 -0.195 1.213
4566000000.0 0.8167 0.9294
4569000000.0 1.258 -0.04039
4572000000.0 0.7916 -0.9712
4575000000.0 -0.2826 -1.26
4578000000.0 -1.167 -0.6017
4581000000.0 -1.223 0.4936
4584000000.0 -0.4019 1.272
4588000000.0 0.7146 1.101
4591000000.0 1.326 0.1728
4594000000.0 0.9869 -0.9305
4597000000.0 -0.1027 -1.361
4600000000.0 -1.131 -0.7737
4603000000.0 -1.337 0.3536
4606000000.0 -0.5548 1.266
4609000000.0 0.6046 1.261
4612000000.0 1.348 0.3227
4616000000.0 1.092 -0.8661
4619000000.0 0.05186 -1.392
4622000000.0 -1.051 -0.9265
4625000000.0 -1.387 0.241
4628000000.0 -0.6631 1.212
4631000000.0 0.4955 1.323
4634000000.0 1.313 0.4026
4638000000.0 1.14 -0.7578
4641000000.0 0.08844 -1.327
4644000000.0 -0.9762 -0.932
4647000000.0 -1.328 0.1634
4650000000.0 -0.6519 1.141
4653000000.0 0.4596 1.233
4656000000.0 1.268 0.4038
4659000000.0 1.045 -0.707
4662000000.0 0.08015 -1.227
4666000000.0 -0.897 -0.8588
4669000000.0 -1.218 0.2082
4672000000.0 -0.5742 1.063
4675000000.0 0.4538 1.084
4678000000.0 1.096 0.3543
4681000000.0 0.9325 -0.6341
4684000000.0 0.06707 -1.126
4688000000.0 -0.8433 -0.7532
4691000000.0 -1.111 0.186
4694000000.0 -0.5441 0.9706
4697000000.0 0.4067 1.0
4700000000.0 1.054 0.3157
4703000000.0 0.876 -0.6475
4706000000.0 0.04912 -1.069
4709000000.0 -0.8235 -0.72
4712000000.0 -1.082 0.2288
4716000000.0 -0.5233 0.9487
4719000000.0 0.4655 0.9664
4722000000.0 1.017 0.2623
4725000000.0 0.8352 -0.6017
4728000000.0 0.04011 -1.023
4731000000.0 -0.7797 -0.6708
4734000000.0 -1.043 0.1919
4738000000.0 -0.5375 0.8799
4741000000.0 0.3493 0.9531
4744000000.0 0.9765 0.3466
4747000000.0 0.9325 -0.5322
4750000000.0 0.179 -1.037
4753000000.0 -0.7068 -0.7966
4756000000.0 -1.098 0.05461
4759000000.0 -0.6755 0.8474
4762000000.0 0.2328 1.058
4766000000.0 1.001 0.5213
4769000000.0 1.005 -0.4429
4772000000.0 0.3512 -1.082
4775000000.0 -0.627 -0.9502
4778000000.0 -1.14 -0.1716
4781000000.0 -0.8852 0.8074
4784000000.0 0.07013 1.169
4788000000.0 0.936 0.7298
4791000000.0 1.201 -0.2738
4794000000.0 0.555 -1.063
4797000000.0 -0.4636 -1.157
4800000000.0 -1.172 -0.3767
4803000000.0 -1.035 0.6266
4806000000.0 -0.1865 1.236
4809000000.0 0.8288 0.9566
4812000000.0 1.269 -0.06421
4816000000.0 0.8078 -1.001
4819000000.0 -0.2801 -1.293
4822000000.0 -1.16 -0.6036
4825000000.0 -1.269 0.5122
4828000000.0 -0.4242 1.315
4831000000.0 0.7462 1.109
4834000000.0 1.368 0.1386
4838000000.0 0.9921 -0.9771
4841000000.0 -0.1173 -1.385
4844000000.0 -1.149 -0.7929
4847000000.0 -1.342 0.4107
4850000000.0 -0.5273 1.261
4853000000.0 0.6492 1.203
4856000000.0 1.355 0.2637
4859000000.0 1.048 -0.8596
4862000000.0 -0.02137 -1.355
4866000000.0 -1.057 -0.8414
4869000000.0 -1.304 0.2795
4872000000.0 -0.5966 1.195
4875000000.0 0.5268 1.185
4878000000.0 1.255 0.3402
4881000000.0 1.054 -0.7637
4884000000.0 0.04606 -1.256
4888000000.0 -0.9312 -0.7952
4891000000.0 -1.211 0.2154
4894000000.0 -0.5821 1.04
4897000000.0 0.4422 1.064
4900000000.0 1.071 0.3205
4903000000.0 0.9083 -0.6406
4906000000.0 0.115 -1.085
4909000000.0 -0.7565 -0.7328
4912000000.0 -1.046 0.1419
4916000000.0 -0.5579 0.8717
4919000000.0 0.3063 0.9475
4922000000.0 0.9055 0.3309
4925000000.0 0.8542 -0.5056
4928000000.0 0.1503 -0.9593
4931000000.0 -0.641 -0.7154
4934000000.0 -0.9503 0.05488
4938000000.0 -0.5783 0.766
4941000000.0 0.1958 0.8783
4944000000.0 0.845 0.4242
4947000000.0 0.8257 -0.3836
4950000000.0 0.2334 -0.9186
4953000000.0 -0.565 -0.7557
4956000000.0 -0.9646 -0.02383
4959000000.0 -0.6509 0.706
4962000000.0 0.1752 0.9567
4966000000.0 0.8586 0.4969
4969000000.0 0.9256 -0.3416
4972000000.0 0.328 -0.9387
4975000000.0 -0.5125 -0.8419
4978000000.0 -1.013 -0.1097
4981000000.0 -0.7428 0.6948
4984000000.0 0.0639 1.042
4988000000.0 0.8482 0.6192
4991000000.0 1.028 -0.2362
4994000000.0 0.4612 -0.9753
4997000000.0 -0.4377 -1.002
5000000000.0 -1.08 -0.297
5003000000.0 -0.9137 0.6451
5006000000.0 -0.1028 1.146
5009000000.0 0.8538 0.8208
5012000000.0 1.181 -0.1412
5016000000.0 0.6363 -1.007
5019000000.0 -0.3847 -1.179
5022000000.0 -1.153 -0.4354
5025000000.0 -1.111 0.6051
5028000000.0 -0.2269 1.229
5031000000.0 0.7893 0.9873
5034000000.0 1.272 0.003757
5038000000.0 0.8339 -0.9692
5041000000.0 -0.223 -1.243
5044000000.0 -1.115 -0.6442
5047000000.0 -1.195 0.4166
5050000000.0 -0.4525 1.262
5053000000.0 0.6586 1.097
5056000000.0 1.269 0.199
5059000000.0 0.9582 -0.8481
5062000000.0 -0.01285 -1.33
5066000000.0 -0.9963 -0.7796
5069000000.0 -1.267 0.2422
5072000000.0 -0.6094 1.135
5075000000.0 0.5025 1.159
5078000000.0 1.232 0.4027
5081000000.0 1.049 -0.6935
5084000000.0 0.1284 -1.233
5088000000.0 -0.8441 -0.917
5091000000.0 -1.208 0.07582
5094000000.0 -0.6665 0.9295
5097000000.0 0.3018 1.117
5100000000.0 1.013 0.5077
5103000000.0 1.018 -0.4682
5106000000.0 0.3409 -1.062
5109000000.0 -0.6025 -0.8847
5112000000.0 -1.074 -0.118
5116000000.0 -0.78 0.7423
5119000000.0 0.03416 1.05
5122000000.0 0.8511 0.6341
5125000000.0 1.01 -0.2485
5128000000.0 0.4538 -0.9295
5131000000.0 -0.4585 -0.896
5134000000.0 -0.9781 -0.2772
5138000000.0 -0.8063 0.6007
5141000000.0 -0.04523 0.9543
5144000000.0 0.6988 0.6481
5147000000.0 0.9636 -0.1319
5150000000.0 0.4964 -0.8022
5153000000.0 -0.2885 -0.9075
5156000000.0 -0.8653 -0.32
5159000000.0 -0.8001 0.4609
5162000000.0 -0.1689 0.869
5166000000.0 0.6028 0.6609
5169000000.0 0.8875 -0.03771
5172000000.0 0.5679 -0.6957
5175000000.0 -0.2056 -0.8658
5178000000.0 -0.8013 -0.3737
5181000000.0 -0.7775 0.4283
5184000000.0 -0.1712 0.8761
5188000000.0 0.5857 0.6927
5191000000.0 0.9236 -0.004442
5194000000.0 0.5508 -0.7633
5197000000.0 -0.2117 -0.8716
5200000000.0 -0.852 -0.4011
5203000000.0 -0.8581 0.43
5206000000.0 -0.1955 0.9214
5209000000.0 0.6219 0.7193
5212000000.0 0.962 0.01247
5216000000.0 0.6127 -0.748
5219000000.0 -0.2144 -0.9508
5222000000.0 -0.8772 -0.455
5225000000.0 -0.9081 0.3968
5228000000.0 -0.2727 0.9492
5231000000.0 0.5845 0.8223
5234000000.0 0.9939 0.06702
5238000000.0 0.7367 -0.7569
5241000000.0 -0.1172 -1.025
5244000000.0 -0.8838 -0.562
5247000000.0 -0.9976 0.3249
5250000000.0 -0.3796 0.9962
5253000000.0 0.5165 0.9326
5256000000.0 1.043 0.2062
5259000000.0 0.8334 -0.6612
5262000000.0 0.03066 -1.066
5266000000.0 -0.8211 -0.7203
5269000000.0 -1.071 0.1454
5272000000.0 -0.5713 0.9468
5275000000.0 0.3151 1.035
5278000000.0 1.038 0.4362
5281000000.0 0.9533 -0.5159
5284000000.0 0.2667 -1.097
5288000000.0 -0.6545 -0.8906
5291000000.0 -1.092 -0.05887
5294000000.0 -0.7778 0.7807
5297000000.0 0.1051 1.126
5300000000.0 0.9524 0.6369
5303000000.0 1.081 -0.2962
5306000000.0 0.4599 -0.9867
5309000000.0 -0.4922 -1.054
5312000000.0 -1.1 -0.2914
5316000000.0 -0.9381 0.6716
5319000000.0 -0.091 1.127
5322000000.0 0.8152 0.8003
5325000000.0 1.131 -0.09693
5328000000.0 0.6549 -0.9544
5331000000.0 -0.2936 -1.126
5334000000.0 -1.05 -0.4679
5338000000.0 -1.013 0.5033
5341000000.0 -0.2619 1.086
5344000000.0 0.6854 0.8929
5347000000.0 1.097 0.04576
5350000000.0 0.7409 -0.7859
5353000000.0 -0.1464 -1.08
5356000000.0 -0.9374 -0.5861
5359000000.0 -1.042 0.3619
5362000000.0 -0.3604 1.034
5366000000.0 0.5264 0.9217
5369000000.0 1.086 0.1501
5372000000.0 0.7813 -0.7197
5375000000.0 -0.1061 -1.026
5378000000.0 -0.88 -0.5732
5381000000.0 -0.9563 0.3299
5384000000.0 -0.3404 0.9584
5388000000.0 0.4972 0.8442
5391000000.0 0.9618 0.108
5394000000.0 0.6784 -0.6481
5397000000.0 -0.09807 -0.9301
5400000000.0 -0.7905 -0.4786
5403000000.0 -0.8586 0.3338
5406000000.0 -0.2886 0.8547
5409000000.0 0.4509 0.7449
5412000000.0 0.8774 0.09879
5416000000.0 0.5851 -0.6228
5419000000.0 -0.09558 -0.8461
5422000000.0 -0.7293 -0.4591
5425000000.0 -0.8091 0.2934
5428000000.0 -0.2712 0.8046
5431000000.0 0.4684 0.7453
5434000000.0 0.8594 0.09194
5438000000.0 0.6027 -0.6457
5441000000.0 -0.109 -0.8745
5444000000.0 -0.743 -0.4575
5447000000.0 -0.8073 0.3014
5450000000.0 -0.2919 0.8063
5453000000.0 0.4887 0.7424
5456000000.0 0.886 0.1166
5459000000.0 0.62 -0.6167
5462000000.0 -0.07697 -0.8595
5466000000.0 -0.7299 -0.5307
5469000000.0 -0.8902 0.2516
5472000000.0 -0.4103 0.8202
5475000000.0 0.3785 0.8539
5478000000.0 0.9126 0.2342
5481000000.0 0.7867 -0.5444
5484000000.0 0.07013 -0.981
5488000000.0 -0.6708 -0.6824
5491000000.0 -0.9732 0.1049
5494000000.0 -0.5391 0.8243
5497000000.0 0.2947 0.943
5500000000.0 0.9196 0.4026
5503000000.0 0.8989 -0.4243
5506000000.0 0.253 -1.019
5509000000.0 -0.6058 -0.7798
5512000000.0 -1.015 -0.06169
5516000000.0 -0.7258 0.7512
5519000000.0 0.09553 0.9912
5522000000.0 0.8657 0.5933
5525000000.0 0.9842 -0.2963
5528000000.0 0.4151 -0.9205
5531000000.0 -0.4724 -0.9652
5534000000.0 -1.004 -0.2784
5538000000.0 -0.8606 0.6148
5541000000.0 -0.08695 1.057
5544000000.0 0.7517 0.7439
5547000000.0 1.037 -0.1081
5550000000.0 0.6135 -0.8615
5553000000.0 -0.2695 -1.014
5556000000.0 -0.9477 -0.4392
5559000000.0 -0.9589 0.4432
5562000000.0 -0.2462 1.037
5566000000.0 0.6407 0.855
5569000000.0 1.038 0.06959
5572000000.0 0.7069 -0.7689
5575000000.0 -0.1347 -1.007
5578000000.0 -0.8521 -0.5541
5581000000.0 -0.9266 0.3273
5584000000.0 -0.3849 0.9117
5588000000.0 0.4535 0.8741
5591000000.0 0.9439 0.1816
5594000000.0 0.7232 -0.57
5597000000.0 0.006897 -0.9365
5600000000.0 -0.7117 -0.5751
5603000000.0 -0.9022 0.1804
5606000000.0 -0.4103 0.7911
5609000000.0 0.3722 0.8432
5612000000.0 0.8375 0.2371
5616000000.0 0.7117 -0.5028
5619000000.0 0.06488 -0.8663
5622000000.0 -0.6224 -0.6061
5625000000.0 -0.8301 0.1082
5628000000.0 -0.4356 0.7257
5631000000.0 0.2982 0.779
5634000000.0 0.8129 0.2658
5638000000.0 0.6845 -0.443
5641000000.0 0.09796 -0.8154
5644000000.0 -0.5865 -0.5923
5647000000.0 -0.8084 0.1112
5650000000.0 -0.4456 0.6826
5653000000.0 0.2912 0.8041
5656000000.0 0.8076 0.3001
5659000000.0 0.6962 -0.4699
5662000000.0 0.0937 -0.8609
5666000000.0 -0.6137 -0.6059
5669000000.0 -0.8626 0.09778
5672000000.0 -0.4484 0.7493
5675000000.0 0.3043 0.8231
5678000000.0 0.851 0.2751
5681000000.0 0.7779 -0.4797
5684000000.0 0.1363 -0.9198
5688000000.0 -0.6269 -0.6501
5691000000.0 -0.9704 0.09012
5694000000.0 -0.538 0.7965
5697000000.0 0.2775 0.9227
5700000000.0 0.9181 0.3698
5703000000.0 0.8964 -0.4669
5706000000.0 0.1704 -0.9974
5709000000.0 -0.6562 -0.777
5712000000.0 -1.035 0.03104
5716000000.0 -0.627 0.8312
5719000000.0 0.2175 0.9999
5722000000.0 0.9251 0.4836
5725000000.0 0.9829 -0.3999
5728000000.0 0.2623 -1.027
5731000000.0 -0.5581 -0.8755
5734000000.0 -1.079 -0.1126
5738000000.0 -0.757 0.7279
5741000000.0 0.1474 1.04
5744000000.0 0.8695 0.6506
5747000000.0 1.063 -0.2762
5750000000.0 0.4435 -0.9997
5753000000.0 -0.4525 -0.9755
5756000000.0 -1.059 -0.2533
5759000000.0 -0.9069 0.6786
5762000000.0 -0.09849 1.08
5766000000.0 0.7704 0.7539
5769000000.0 1.082 -0.1223
5772000000.0 0.6216 -0.8853
5775000000.0 -0.3228 -1.044
5778000000.0 -1.015 -0.4477
5781000000.0 -0.976 0.4719
5784000000.0 -0.2576 1.077
5788000000.0 0.6673 0.8615
5791000000.0 1.065 0.042
5794000000.0 0.7374 -0.7989
5797000000.0 -0.1435 -1.047
5800000000.0 -0.8921 -0.5927
5803000000.0 -0.9944 0.3326
5806000000.0 -0.4135 1.02
5809000000.0 0.5094 0.9178
5812000000.0 1.007 0.1864
5816000000.0 0.7951 -0.6537
5819000000.0 -0.001635 -1.002
5822000000.0 -0.7855 -0.6463
5825000000.0 -1.027 0.2249
5828000000.0 -0.4543 0.8838
5831000000.0 0.3424 0.9027
5834000000.0 0.9541 0.2823
5838000000.0 0.7963 -0.5584
5841000000.0 0.07127 -0.956
5844000000.0 -0.6903 -0.693
5847000000.0 -0.9445 0.1098
5850000000.0 -0.498 0.7951
5853000000.0 0.3108 0.8754
5856000000.0 0.8902 0.3275
5859000000.0 0.7703 -0.4854
5862000000.0 0.0938 -0.8893
5866000000.0 -0.6344 -0.6624
5869000000.0 -0.9149 0.09442
5872000000.0 -0.4901 0.7663
5875000000.0 0.2537 0.8751
5878000000.0 0.8393 0.3286
5881000000.0 0.7524 -0.4274
5884000000.0 0.116 -0.8544
5888000000.0 -0.5832 -0.5941
5891000000.0 -0.864 0.03438
5894000000.0 -0.4819 0.7272
5897000000.0 0.2532 0.7945
5900000000.0 0.7699 0.3302
5903000000.0 0.7648 -0.4113
5906000000.0 0.1692 -0.816
5909000000.0 -0.5746 -0.6624
5912000000.0 -0.8375 -0.01308
5916000000.0 -0.553 0.6624
5919000000.0 0.1818 0.8605
5922000000.0 0.7634 0.4111
5925000000.0 0.817 -0.3289
5928000000.0 0.2598 -0.8468
5931000000.0 -0.4742 -0.6925
5934000000.0 -0.8567 -0.1081
5938000000.0 -0.6078 0.6472
5941000000.0 0.06546 0.8679
5944000000.0 0.7142 0.5174
5947000000.0 0.863 -0.2104
5950000000.0 0.3823 -0.7881
5953000000.0 -0.3737 -0.824
5956000000.0 -0.9042 -0.2084
5959000000.0 -0.737 0.5192
5962000000.0 -0.07029 0.9413
5966000000.0 0.648 0.6675
5969000000.0 0.9589 -0.08878
5972000000.0 0.5283 -0.7884
5975000000.0 -0.2514 -0.9106
5978000000.0 -0.8565 -0.3958
5981000000.0 -0.847 0.4308
5984000000.0 -0.2225 0.9179
5988000000.0 0.5787 0.7856
5991000000.0 1.003 0.07104
5994000000.0 0.6807 -0.7428
5997000000.0 -0.1263 -1.013
6000000000.0 -0.8503 -0.5203
6003000000.0 -0.9256 0.3038
6006000000.0 -0.3695 0.9176
6009000000.0 0.4815 0.8865
6012000000.0 0.9603 0.1604
6016000000.0 0.7769 -0.6353
6019000000.0 -0.02518 -0.9768
6022000000.0 -0.7671 -0.6712
6025000000.0 -0.9756 0.208
6028000000.0 -0.4433 0.8774
6031000000.0 0.3729 0.907
6034000000.0 0.9264 0.2494
6038000000.0 0.8021 -0.5467
6041000000.0 0.06871 -0.9331
6044000000.0 -0.6882 -0.6723
6047000000.0 -0.9302 0.1432
6050000000.0 -0.5333 0.7882
6053000000.0 0.2947 0.8989
6056000000.0 0.8846 0.3133
6059000000.0 0.8224 -0.4896
6062000000.0 0.122 -0.954
6066000000.0 -0.6294 -0.6717
6069000000.0 -0.9245 0.06025
6072000000.0 -0.4812 0.7406
6075000000.0 0.2364 0.8405
6078000000.0 0.8134 0.3311
6081000000.0 0.7586 -0.3899
6084000000.0 0.1533 -0.8469
6088000000.0 -0.5717 -0.6541
6091000000.0 -0.8681 -0.005444
6094000000.0 -0.5193 0.6993
6097000000.0 0.1922 0.8106
6100000000.0 0.7661 0.3638
6103000000.0 0.7554 -0.3479
6106000000.0 0.1843 -0.8425
6109000000.0 -0.5124 -0.6734
6112000000.0 -0.8555 -0.01434
6116000000.0 -0.5437 0.6526
6119000000.0 0.174 0.8256
6122000000.0 0.7592 0.4056
6125000000.0 0.7828 -0.3272
6128000000.0 0.2381 -0.8262
6131000000.0 -0.4859 -0.7206
6134000000.0 -0.8875 -0.05924
6138000000.0 -0.5933 0.6344
6141000000.0 0.1436 0.8544
6144000000.0 0.7118 0.4542
6147000000.0 0.8481 -0.3002
6150000000.0 0.3003 -0.8265
6153000000.0 -0.4856 -0.7186
6156000000.0 -0.9118 -0.1408
6159000000.0 -0.6725 0.6162
6162000000.0 0.02911 0.9014
6166000000.0 0.7445 0.5346
6169000000.0 0.8928 -0.232
6172000000.0 0.4066 -0.8436
6175000000.0 -0.4078 -0.8169
6178000000.0 -0.8719 -0.2001
6181000000.0 -0.7492 0.5564
6184000000.0 -0.01776 0.938
6188000000.0 0.7033 0.6048
6191000000.0 0.9384 -0.1554
6194000000.0 0.464 -0.8252
6197000000.0 -0.3446 -0.8936
6200000000.0 -0.8864 -0.2986
6203000000.0 -0.7983 0.5142
6206000000.0 -0.1012 0.9056
6209000000.0 0.6128 0.6669
6212000000.0 0.9464 -0.05753
6216000000.0 0.5823 -0.7258
6219000000.0 -0.2311 -0.8714
6222000000.0 -0.8284 -0.3879
6225000000.0 -0.8305 0.3596
6228000000.0 -0.2329 0.9027
6231000000.0 0.5133 0.7113
6234000000.0 0.8923 0.0597
6238000000.0 0.6033 -0.6254
6241000000.0 -0.1258 -0.8517
6244000000.0 -0.7365 -0.4767
6247000000.0 -0.8025 0.2599
6250000000.0 -0.3045 0.7751
6253000000.0 0.4278 0.7673
6256000000.0 0.779 0.1816
6259000000.0 0.6465 -0.4874
6262000000.0 0.04911 -0.8148
6266000000.0 -0.6042 -0.5412
