! Created with skrf 1.8.0 (http://scikit-rf.org).
# Hz S RI R 50.0 
!freq ReS11 ImS11
4000000000.0 -0.1996 -1.49
4003000000.0 -1.31 -0.8112
4006000000.0 -1.439 0.5112
4009000000.0 -0.4977 1.429
4012000000.0 0.8015 1.312
4016000000.0 1.513 0.1914
4019000000.0 1.119 -1.066
4022000000.0 -0.1603 -1.573
4025000000.0 -1.295 -0.812
4028000000.0 -1.503 0.4526
4031000000.0 -0.5297 1.501
4034000000.0 0.8207 1.477
4038000000.0 1.563 0.2039
4041000000.0 1.204 -1.108
4044000000.0 -0.1349 -1.676
4047000000.0 -1.374 -0.9377
4050000000.0 -1.598 0.4699
4053000000.0 -0.6151 1.512
4056000000.0 0.7561 1.43
4059000000.0 1.592 0.3265
4062000000.0 1.23 -1.016
4066000000.0 0.02228 -1.637
4069000000.0 -1.223 -1.05
4072000000.0 -1.598 0.3241
4075000000.0 -0.8348 1.426
4078000000.0 0.566 1.529
4081000000.0 1.533 0.5325
4084000000.0 1.389 -0.8222
4088000000.0 0.2279 -1.604
4091000000.0 -1.142 -1.205
4094000000.0 -1.631 0.09812
4097000000.0 -0.9558 1.301
4100000000.0 0.3886 1.572
4103000000.0 1.432 0.6993
4106000000.0 1.466 -0.6638
4109000000.0 0.4826 -1.477
4112000000.0 -0.8799 -1.27
4116000000.0 -1.509 -0.1813
4119000000.0 -1.124 1.005
4122000000.0 0.03847 1.497
4125000000.0 1.135 0.9404
4128000000.0 1.459 -0.2204
4131000000.0 0.793 -1.242
4134000000.0 -0.4548 -1.415
4138000000.0 -1.336 -0.5727
4141000000.0 -1.362 0.6389
4144000000.0 -0.3604 1.449
4147000000.0 0.86 1.219
4150000000.0 1.52 0.1257
4153000000.0 1.1 -1.066
4156000000.0 -0.09848 -1.517
4159000000.0 -1.226 -0.8447
4162000000.0 -1.453 0.385
4166000000.0 -0.6273 1.378
4169000000.0 0.6426 1.364
4172000000.0 1.453 0.3926
4175000000.0 1.219 -0.8543
4178000000.0 0.1421 -1.495
4181000000.0 -1.037 -1.057
4184000000.0 -1.516 0.1013
4188000000.0 -0.8794 1.242
4191000000.0 0.3955 1.474
4194000000.0 1.391 0.6607
4197000000.0 1.397 -0.685
4200000000.0 0.3607 -1.514
4203000000.0 -0.9714 -1.241
4206000000.0 -1.623 -0.05209
4209000000.0 -1.031 1.274
4212000000.0 0.3708 1.609
4216000000.0 1.55 0.7046
4219000000.0 1.515 -0.7733
4222000000.0 0.3139 -1.673
4225000000.0 -1.142 -1.249
4228000000.0 -1.665 0.1428
4231000000.0 -0.8668 1.444
4234000000.0 0.5949 1.557
4238000000.0 1.56 0.4752
4241000000.0 1.323 -0.9523
4244000000.0 0.03801 -1.611
4247000000.0 -1.215 -1.045
4250000000.0 -1.522 0.3621
4253000000.0 -0.6396 1.414
4256000000.0 0.7175 1.436
4259000000.0 1.529 0.2999
4262000000.0 1.139 -1.035
4266000000.0 -0.07548 -1.51
4269000000.0 -1.203 -0.8439
4272000000.0 -1.411 0.4675
4275000000.0 -0.4965 1.428
4278000000.0 0.7648 1.235
4281000000.0 1.406 0.1421
4284000000.0 0.9996 -0.9946
4288000000.0 -0.1964 -1.403
4291000000.0 -1.163 -0.7245
4294000000.0 -1.317 0.4308
4297000000.0 -0.4496 1.262
4300000000.0 0.6891 1.14
4303000000.0 1.306 0.2098
4306000000.0 0.9705 -0.8149
4309000000.0 -0.01541 -1.326
4312000000.0 -0.9863 -0.8345
4316000000.0 -1.249 0.2257
4319000000.0 -0.6591 1.159
4322000000.0 0.41 1.244
4325000000.0 1.226 0.467
4328000000.0 1.166 -0.6559
4331000000.0 0.29 -1.298
4334000000.0 -0.8625 -1.05
4338000000.0 -1.396 -0.01136
4341000000.0 -0.9189 1.046
4344000000.0 0.2399 1.417
4347000000.0 1.242 0.6891
4350000000.0 1.349 -0.4849
4353000000.0 0.479 -1.34
4356000000.0 -0.7255 -1.242
4359000000.0 -1.439 -0.2452
4362000000.0 -1.061 0.952
4366000000.0 0.03813 1.472
4369000000.0 1.182 0.8966
4372000000.0 1.45 -0.3351
4375000000.0 0.6842 -1.35
4378000000.0 -0.5655 -1.377
4381000000.0 -1.46 -0.4382
4384000000.0 -1.272 0.8541
4388000000.0 -0.1473 1.553
4391000000.0 1.125 1.081
4394000000.0 1.558 -0.1952
4397000000.0 0.8081 -1.316
4400000000.0 -0.5329 -1.493
4403000000.0 -1.527 -0.5081
4406000000.0 -1.345 0.8765
4409000000.0 -0.1512 1.578
4412000000.0 1.135 1.042
4416000000.0 1.531 -0.2299
4419000000.0 0.7479 -1.329
4422000000.0 -0.5845 -1.369
4425000000.0 -1.43 -0.4047
4428000000.0 -1.175 0.8723
4431000000.0 -0.05617 1.445
4434000000.0 1.081 0.914
4438000000.0 1.372 -0.3065
4441000000.0 0.6137 -1.27
4444000000.0 -0.6215 -1.224
4447000000.0 -1.289 -0.2565
4450000000.0 -1.013 0.8592
4453000000.0 0.07429 1.333
4456000000.0 1.072 0.7564
4459000000.0 1.184 -0.3767
4462000000.0 0.4387 -1.164
4466000000.0 -0.6871 -1.028
4469000000.0 -1.226 -0.09902
4472000000.0 -0.8448 0.8798
4475000000.0 0.1997 1.193
4478000000.0 1.075 0.583
4481000000.0 1.062 -0.4574
4484000000.0 0.3036 -1.113
4488000000.0 -0.6837 -0.908
4491000000.0 -1.149 -0.02928
4494000000.0 -0.7377 0.8918
4497000000.0 0.2015 1.141
4500000000.0 0.9949 0.5182
4503000000.0 1.006 -0.4211
4506000000.0 0.2986 -1.045
4509000000.0 -0.6572 -0.8925
4512000000.0 -1.098 -0.05688
4516000000.0 -0.7661 0.8216
4519000000.0 0.1712 1.137
4522000000.0 0.9975 0.5904
4525000000.0 1.06 -0.3878
4528000000.0 0.3954 -1.076
4531000000.0 -0.6142 -1.009
4534000000.0 -1.162 -0.1637
4538000000.0 -0.8262 0.7839
4541000000.0 0.07488 1.183
4544000000.0 0.9394 0.7242
4547000000.0 1.172 -0.296
4550000000.0 0.5298 -1.084
4553000000.0 -0.4813 -1.096
4556000000.0 -1.166 -0.3306
4559000000.0 -1.03 0.6972
4562000000.0 -0.1487 1.241
4566000000.0 0.858 0.9031
4569000000.0 1.268 -0.09305
4572000000.0 0.7676 -1.037
4575000000.0 -0.2944 -1.276
4578000000.0 -1.192 -0.5745
4581000000.0 -1.175 0.5719
4584000000.0 -0.3636 1.285
4588000000.0 0.772 1.102
4591000000.0 1.378 0.1306
4594000000.0 0.9539 -0.9681
4597000000.0 -0.1599 -1.326
4600000000.0 -1.168 -0.7603
4603000000.0 -1.32 0.397
4606000000.0 -0.5267 1.296
4609000000.0 0.6417 1.222
4612000000.0 1.387 0.2424
4616000000.0 1.072 -0.9084
4619000000.0 -0.02263 -1.403
4622000000.0 -1.086 -0.8659
4625000000.0 -1.371 0.3127
4628000000.0 -0.6282 1.222
4631000000.0 0.5743 1.257
4634000000.0 1.313 0.3456
4638000000.0 1.117 -0.7973
4641000000.0 0.07202 -1.344
4644000000.0 -1.01 -0.8757
4647000000.0 -1.322 0.249
4650000000.0 -0.6439 1.19
4653000000.0 0.5172 1.209
4656000000.0 1.255 0.3469
4659000000.0 1.017 -0.7822
4662000000.0 0.05429 -1.245
4666000000.0 -0.9212 -0.7779
4669000000.0 -1.203 0.2464
4672000000.0 -0.5466 1.086
4675000000.0 0.5182 1.072
4678000000.0 1.108 0.3333
4681000000.0 0.8969 -0.6955
4684000000.0 -0.004066 -1.131
4688000000.0 -0.8702 -0.6774
4691000000.0 -1.091 0.2006
4694000000.0 -0.4832 0.9955
4697000000.0 0.4679 1.006
4700000000.0 1.06 0.2496
4703000000.0 0.8716 -0.6786
4706000000.0 0.005087 -1.105
4709000000.0 -0.868 -0.6676
4712000000.0 -1.029 0.2132
4716000000.0 -0.4597 0.9555
4719000000.0 0.4656 0.928
4722000000.0 1.03 0.2376
4725000000.0 0.8224 -0.6623
4728000000.0 0.007047 -1.115
4731000000.0 -0.8138 -0.6682
4734000000.0 -1.034 0.2342
4738000000.0 -0.4418 0.9077
4741000000.0 0.3872 1.02
4744000000.0 0.9887 0.3245
4747000000.0 0.8744 -0.5662
4750000000.0 0.1267 -1.068
4753000000.0 -0.7512 -0.8009
4756000000.0 -1.087 0.0908
4759000000.0 -0.6614 0.8889
4762000000.0 0.2768 1.069
4766000000.0 0.9964 0.503
4769000000.0 1.019 -0.4886
4772000000.0 0.3058 -1.122
4775000000.0 -0.6556 -0.971
4778000000.0 -1.142 -0.09283
4781000000.0 -0.8479 0.8251
4784000000.0 0.1136 1.19
4788000000.0 0.9827 0.6854
4791000000.0 1.17 -0.2907
4794000000.0 0.5529 -1.103
4797000000.0 -0.511 -1.143
4800000000.0 -1.215 -0.398
4803000000.0 -1.009 0.671
4806000000.0 -0.1375 1.246
4809000000.0 0.8559 0.9288
4812000000.0 1.283 -0.06956
4816000000.0 0.7607 -1.068
4819000000.0 -0.2984 -1.278
4822000000.0 -1.223 -0.6149
4825000000.0 -1.258 0.5649
4828000000.0 -0.3753 1.328
4831000000.0 0.7901 1.135
4834000000.0 1.422 0.08904
4838000000.0 0.9784 -1.011
4841000000.0 -0.1868 -1.389
4844000000.0 -1.161 -0.7369
4847000000.0 -1.329 0.4492
4850000000.0 -0.4786 1.299
4853000000.0 0.7056 1.183
4856000000.0 1.386 0.2169
4859000000.0 1.02 -0.9208
4862000000.0 -0.03969 -1.359
4866000000.0 -1.053 -0.797
4869000000.0 -1.316 0.3239
4872000000.0 -0.5612 1.194
4875000000.0 0.6003 1.186
4878000000.0 1.266 0.2742
4881000000.0 0.9987 -0.7963
4884000000.0 0.02447 -1.255
4888000000.0 -0.9393 -0.8022
4891000000.0 -1.189 0.2125
4894000000.0 -0.5518 1.079
4897000000.0 0.4918 1.056
4900000000.0 1.119 0.3049
4903000000.0 0.8887 -0.7014
4906000000.0 0.0501 -1.11
4909000000.0 -0.8219 -0.701
4912000000.0 -1.051 0.1799
4916000000.0 -0.5 0.8722
4919000000.0 0.3526 0.9318
4922000000.0 0.9558 0.325
4925000000.0 0.8065 -0.5162
4928000000.0 0.1267 -0.9358
4931000000.0 -0.638 -0.6724
4934000000.0 -0.9253 0.05569
4938000000.0 -0.5623 0.7711
4941000000.0 0.246 0.8952
4944000000.0 0.855 0.3672
4947000000.0 0.8354 -0.4415
4950000000.0 0.2015 -0.9316
4953000000.0 -0.5878 -0.7367
4956000000.0 -0.9739 -0.01761
4959000000.0 -0.6086 0.7455
4962000000.0 0.1762 0.9617
4966000000.0 0.8685 0.4681
4969000000.0 0.904 -0.3901
4972000000.0 0.276 -0.9407
4975000000.0 -0.5494 -0.8307
4978000000.0 -0.9839 -0.09573
4981000000.0 -0.7324 0.7188
4984000000.0 0.09381 1.035
4988000000.0 0.8642 0.6284
4991000000.0 1.034 -0.2948
4994000000.0 0.4411 -0.9968
4997000000.0 -0.4792 -0.9877
5000000000.0 -1.085 -0.2742
5003000000.0 -0.9311 0.6685
5006000000.0 -0.06071 1.179
5009000000.0 0.8636 0.7855
5012000000.0 1.207 -0.168
5016000000.0 0.6394 -1.048
5019000000.0 -0.4298 -1.19
5022000000.0 -1.195 -0.4282
5025000000.0 -1.09 0.6512
5028000000.0 -0.1938 1.231
5031000000.0 0.8553 0.9363
5034000000.0 1.309 -0.009737
5038000000.0 0.7865 -0.9966
5041000000.0 -0.2572 -1.27
5044000000.0 -1.137 -0.6115
5047000000.0 -1.191 0.4717
5050000000.0 -0.3891 1.225
5053000000.0 0.6851 1.116
5056000000.0 1.292 0.1571
5059000000.0 0.9516 -0.8838
5062000000.0 -0.03701 -1.305
5066000000.0 -1.072 -0.7459
5069000000.0 -1.255 0.2871
5072000000.0 -0.5619 1.169
5075000000.0 0.5247 1.165
5078000000.0 1.198 0.3117
5081000000.0 1.048 -0.7218
5084000000.0 0.09812 -1.249
5088000000.0 -0.8593 -0.8792
5091000000.0 -1.222 0.09883
5094000000.0 -0.6724 0.9848
5097000000.0 0.3412 1.165
5100000000.0 1.071 0.49
5103000000.0 1.027 -0.5072
5106000000.0 0.3169 -1.08
5109000000.0 -0.6162 -0.9069
5112000000.0 -1.101 -0.09007
5116000000.0 -0.7725 0.7646
5119000000.0 0.09828 1.05
5122000000.0 0.8775 0.5743
5125000000.0 0.9943 -0.3013
5128000000.0 0.3903 -0.9719
5131000000.0 -0.4213 -0.892
5134000000.0 -0.963 -0.2388
5138000000.0 -0.7607 0.6291
5141000000.0 -0.04365 0.9774
5144000000.0 0.7232 0.614
5147000000.0 0.9357 -0.1849
5150000000.0 0.4639 -0.7941
5153000000.0 -0.3262 -0.8514
5156000000.0 -0.8671 -0.3051
5159000000.0 -0.7595 0.4624
5162000000.0 -0.144 0.9018
5166000000.0 0.5927 0.6425
5169000000.0 0.9166 -0.08727
5172000000.0 0.5134 -0.7435
5175000000.0 -0.243 -0.8971
5178000000.0 -0.8754 -0.3274
5181000000.0 -0.8119 0.464
5184000000.0 -0.1566 0.892
5188000000.0 0.6176 0.673
5191000000.0 0.926 -0.05208
5194000000.0 0.5282 -0.7705
5197000000.0 -0.2851 -0.8993
5200000000.0 -0.8582 -0.355
5203000000.0 -0.8212 0.4567
5206000000.0 -0.1527 0.9338
5209000000.0 0.6368 0.7511
5212000000.0 0.957 -0.02176
5216000000.0 0.602 -0.7495
5219000000.0 -0.2265 -0.9478
5222000000.0 -0.906 -0.4453
5225000000.0 -0.9073 0.4413
5228000000.0 -0.2409 0.9486
5231000000.0 0.625 0.7859
5234000000.0 1.031 0.03461
5238000000.0 0.6607 -0.7621
5241000000.0 -0.1375 -1.033
5244000000.0 -0.8836 -0.5345
5247000000.0 -0.9937 0.3547
5250000000.0 -0.3683 1.014
5253000000.0 0.5478 0.9105
5256000000.0 1.05 0.1535
5259000000.0 0.8051 -0.7061
5262000000.0 -0.005309 -1.108
5266000000.0 -0.843 -0.6944
5269000000.0 -1.077 0.2063
5272000000.0 -0.5291 0.951
5275000000.0 0.3734 1.038
5278000000.0 1.053 0.3717
5281000000.0 0.9663 -0.5584
5284000000.0 0.2259 -1.092
5288000000.0 -0.6976 -0.8467
5291000000.0 -1.118 -0.0152
5294000000.0 -0.7286 0.847
5297000000.0 0.1411 1.096
5300000000.0 0.958 0.6123
5303000000.0 1.077 -0.3498
5306000000.0 0.4397 -1.051
5309000000.0 -0.5148 -1.011
5312000000.0 -1.114 -0.2751
5316000000.0 -0.9085 0.6795
5319000000.0 -0.04236 1.169
5322000000.0 0.8336 0.8006
5325000000.0 1.118 -0.1656
5328000000.0 0.6256 -0.964
5331000000.0 -0.3267 -1.1
5334000000.0 -1.052 -0.4515
5338000000.0 -0.9722 0.5293
5341000000.0 -0.2259 1.109
5344000000.0 0.7195 0.8825
5347000000.0 1.105 -0.0008901
5350000000.0 0.7093 -0.8568
5353000000.0 -0.1953 -1.07
5356000000.0 -0.9554 -0.5487
5359000000.0 -1.005 0.4099
5362000000.0 -0.3438 1.026
5366000000.0 0.6108 0.8671
5369000000.0 1.053 0.0482
5372000000.0 0.714 -0.7645
5375000000.0 -0.1263 -1.033
5378000000.0 -0.8956 -0.5165
5381000000.0 -0.9575 0.3712
5384000000.0 -0.2775 0.97
5388000000.0 0.5961 0.8061
5391000000.0 0.9373 0.06456
5394000000.0 0.6589 -0.6958
5397000000.0 -0.1601 -0.9206
5400000000.0 -0.8385 -0.4212
5403000000.0 -0.8348 0.3405
5406000000.0 -0.2181 0.8473
5409000000.0 0.5058 0.703
5412000000.0 0.8645 0.03686
5416000000.0 0.5733 -0.6689
5419000000.0 -0.1591 -0.8335
5422000000.0 -0.7789 -0.4063
5425000000.0 -0.7933 0.3113
5428000000.0 -0.2258 0.8385
5431000000.0 0.5237 0.7066
5434000000.0 0.8684 0.04223
5438000000.0 0.5659 -0.661
5441000000.0 -0.1562 -0.8654
5444000000.0 -0.7765 -0.4144
5447000000.0 -0.7847 0.3451
5450000000.0 -0.2691 0.854
5453000000.0 0.5131 0.7177
5456000000.0 0.9168 0.03943
5459000000.0 0.6434 -0.6351
5462000000.0 -0.1127 -0.8755
5466000000.0 -0.7482 -0.5001
5469000000.0 -0.862 0.2825
5472000000.0 -0.3702 0.85
5475000000.0 0.4284 0.8053
5478000000.0 0.9119 0.2013
5481000000.0 0.7578 -0.5959
5484000000.0 0.02784 -0.9553
5488000000.0 -0.7126 -0.644
5491000000.0 -0.9618 0.1361
5494000000.0 -0.5192 0.8462
5497000000.0 0.3027 0.937
5500000000.0 0.9147 0.3571
5503000000.0 0.8851 -0.5105
5506000000.0 0.2116 -0.9974
5509000000.0 -0.6408 -0.8127
5512000000.0 -1.026 -0.01709
5516000000.0 -0.6995 0.7557
5519000000.0 0.1435 0.9834
5522000000.0 0.8901 0.5572
5525000000.0 0.9897 -0.3125
5528000000.0 0.4115 -0.9675
5531000000.0 -0.5094 -0.9371
5534000000.0 -1.024 -0.2539
5538000000.0 -0.865 0.6726
5541000000.0 -0.04716 1.093
5544000000.0 0.7647 0.7287
5547000000.0 1.051 -0.1478
5550000000.0 0.5844 -0.9524
5553000000.0 -0.3087 -1.007
5556000000.0 -0.9786 -0.3777
5559000000.0 -0.9472 0.4782
5562000000.0 -0.173 1.006
5566000000.0 0.6678 0.7683
5569000000.0 1.029 0.02005
5572000000.0 0.6783 -0.7737
5575000000.0 -0.1674 -0.9761
5578000000.0 -0.8732 -0.5099
5581000000.0 -0.9299 0.3365
5584000000.0 -0.3024 0.9587
5588000000.0 0.5343 0.8248
5591000000.0 0.9424 0.1189
5594000000.0 0.6797 -0.6509
5597000000.0 -0.06362 -0.937
5600000000.0 -0.7463 -0.5357
5603000000.0 -0.8979 0.2746
5606000000.0 -0.332 0.825
5609000000.0 0.4198 0.769
5612000000.0 0.8802 0.1706
5616000000.0 0.6798 -0.5456
5619000000.0 -0.01324 -0.8713
5622000000.0 -0.6817 -0.5526
5625000000.0 -0.8139 0.158
5628000000.0 -0.3833 0.738
5631000000.0 0.3806 0.7574
5634000000.0 0.8182 0.2032
5638000000.0 0.6799 -0.4831
5641000000.0 0.02688 -0.8207
5644000000.0 -0.6254 -0.5355
5647000000.0 -0.8435 0.1472
5650000000.0 -0.4047 0.7135
5653000000.0 0.3296 0.7717
5656000000.0 0.852 0.2462
5659000000.0 0.7081 -0.4991
5662000000.0 0.04926 -0.8668
5666000000.0 -0.661 -0.5844
5669000000.0 -0.8635 0.1615
5672000000.0 -0.4231 0.7782
5675000000.0 0.3483 0.8266
5678000000.0 0.8724 0.2412
5681000000.0 0.749 -0.5271
5684000000.0 0.07833 -0.9314
5688000000.0 -0.7008 -0.6397
5691000000.0 -0.9385 0.1734
5694000000.0 -0.4978 0.8655
5697000000.0 0.348 0.9042
5700000000.0 0.9242 0.2996
5703000000.0 0.8697 -0.5395
5706000000.0 0.1074 -1.032
5709000000.0 -0.7047 -0.7421
5712000000.0 -1.031 0.08556
5716000000.0 -0.5937 0.845
5719000000.0 0.2944 1.021
5722000000.0 0.9469 0.4391
5725000000.0 0.9644 -0.466
5728000000.0 0.2298 -1.051
5731000000.0 -0.6576 -0.8762
5734000000.0 -1.092 -0.05109
5738000000.0 -0.741 0.8098
5741000000.0 0.1087 1.065
5744000000.0 0.9484 0.583
5747000000.0 1.021 -0.3156
5750000000.0 0.3891 -1.037
5753000000.0 -0.5291 -0.9853
5756000000.0 -1.069 -0.2118
5759000000.0 -0.8557 0.6894
5762000000.0 -0.06249 1.112
5766000000.0 0.8178 0.7582
5769000000.0 1.089 -0.1819
5772000000.0 0.5481 -0.9723
5775000000.0 -0.3888 -1.023
5778000000.0 -1.036 -0.3794
5781000000.0 -0.9514 0.5924
5784000000.0 -0.1779 1.064
5788000000.0 0.7116 0.8316
5791000000.0 1.088 -0.01647
5794000000.0 0.6823 -0.832
5797000000.0 -0.225 -1.053
5800000000.0 -0.9538 -0.4908
5803000000.0 -0.9635 0.3854
5806000000.0 -0.3543 0.998
5809000000.0 0.5779 0.9001
5812000000.0 1.021 0.1088
5816000000.0 0.7401 -0.7321
5819000000.0 -0.08355 -1.008
5822000000.0 -0.841 -0.5887
5825000000.0 -0.9846 0.2737
5828000000.0 -0.3799 0.9053
5831000000.0 0.437 0.8958
5834000000.0 0.982 0.2273
5838000000.0 0.7526 -0.6062
5841000000.0 0.006583 -0.9639
5844000000.0 -0.7401 -0.622
5847000000.0 -0.9412 0.1596
5850000000.0 -0.4454 0.8459
5853000000.0 0.3784 0.8566
5856000000.0 0.9146 0.2388
5859000000.0 0.748 -0.5601
5862000000.0 0.0293 -0.9384
5866000000.0 -0.722 -0.6123
5869000000.0 -0.9042 0.2077
5872000000.0 -0.4162 0.8132
5875000000.0 0.3311 0.8351
5878000000.0 0.8597 0.2369
5881000000.0 0.7128 -0.4955
5884000000.0 0.03198 -0.8755
5888000000.0 -0.6354 -0.5977
5891000000.0 -0.8632 0.1045
5894000000.0 -0.4353 0.7366
5897000000.0 0.2872 0.8272
5900000000.0 0.8211 0.283
5903000000.0 0.7169 -0.488
5906000000.0 0.1246 -0.8536
5909000000.0 -0.5863 -0.6285
5912000000.0 -0.8716 0.04307
5916000000.0 -0.4791 0.7205
5919000000.0 0.2514 0.8259
5922000000.0 0.7727 0.336
5925000000.0 0.7825 -0.3848
5928000000.0 0.1647 -0.8608
5931000000.0 -0.53 -0.6759
5934000000.0 -0.8952 -0.07683
5938000000.0 -0.5861 0.6832
5941000000.0 0.122 0.8924
5944000000.0 0.7767 0.4517
5947000000.0 0.8551 -0.2955
5950000000.0 0.3168 -0.883
5953000000.0 -0.4443 -0.799
5956000000.0 -0.8981 -0.169
5959000000.0 -0.7074 0.5992
5962000000.0 -0.02707 0.927
5966000000.0 0.6948 0.5899
5969000000.0 0.9125 -0.1737
5972000000.0 0.4896 -0.8234
5975000000.0 -0.3419 -0.9065
5978000000.0 -0.9069 -0.3405
5981000000.0 -0.8465 0.4874
5984000000.0 -0.1743 0.9634
5988000000.0 0.6702 0.7391
5991000000.0 1.008 -0.01855
5994000000.0 0.6312 -0.7771
5997000000.0 -0.1926 -0.9892
6000000000.0 -0.904 -0.4885
6003000000.0 -0.9231 0.3529
6006000000.0 -0.3016 0.9368
6009000000.0 0.5411 0.8395
6012000000.0 1.005 0.08641
6016000000.0 0.6864 -0.7167
6019000000.0 -0.06364 -0.9895
6022000000.0 -0.8442 -0.5247
6025000000.0 -0.9602 0.3367
6028000000.0 -0.3634 0.894
6031000000.0 0.4435 0.8504
6034000000.0 0.9384 0.1743
6038000000.0 0.7275 -0.6141
6041000000.0 -0.03372 -0.9597
6044000000.0 -0.7413 -0.6017
6047000000.0 -0.9423 0.1875
6050000000.0 -0.4113 0.844
6053000000.0 0.3573 0.8525
6056000000.0 0.9069 0.2372
6059000000.0 0.7428 -0.5598
6062000000.0 0.04366 -0.9538
6066000000.0 -0.6735 -0.6045
6069000000.0 -0.8712 0.158
6072000000.0 -0.4493 0.7768
6075000000.0 0.3051 0.84
6078000000.0 0.8399 0.2433
6081000000.0 0.7244 -0.4803
6084000000.0 0.08424 -0.8693
6088000000.0 -0.6257 -0.5755
6091000000.0 -0.8569 0.08547
6094000000.0 -0.4628 0.7025
6097000000.0 0.2762 0.7981
6100000000.0 0.8045 0.2847
6103000000.0 0.7451 -0.4313
6106000000.0 0.1083 -0.8527
6109000000.0 -0.5652 -0.6458
6112000000.0 -0.8574 0.06936
6116000000.0 -0.4663 0.7008
6119000000.0 0.2184 0.8282
6122000000.0 0.8029 0.3432
6125000000.0 0.744 -0.3882
6128000000.0 0.1677 -0.8457
6131000000.0 -0.5512 -0.6764
6134000000.0 -0.8561 0.007453
6138000000.0 -0.5221 0.7163
6141000000.0 0.2071 0.8485
6144000000.0 0.7908 0.3847
6147000000.0 0.8161 -0.3553
6150000000.0 0.2366 -0.8593
6153000000.0 -0.5257 -0.7305
6156000000.0 -0.9278 -0.05842
6159000000.0 -0.6144 0.681
6162000000.0 0.1441 0.9231
6166000000.0 0.8104 0.4875
6169000000.0 0.8754 -0.3051
6172000000.0 0.3391 -0.8943
6175000000.0 -0.5212 -0.7738
6178000000.0 -0.9812 -0.1225
6181000000.0 -0.6898 0.6518
6184000000.0 0.05963 0.9434
6188000000.0 0.7768 0.5202
6191000000.0 0.9336 -0.2483
6194000000.0 0.3792 -0.864
6197000000.0 -0.465 -0.8719
6200000000.0 -0.9059 -0.2226
6203000000.0 -0.7405 0.5545
6206000000.0 -0.04122 0.9392
6209000000.0 0.6878 0.5868
6212000000.0 0.9077 -0.1695
6216000000.0 0.4563 -0.7796
6219000000.0 -0.2971 -0.8768
6222000000.0 -0.8536 -0.3425
6225000000.0 -0.8082 0.4702
6228000000.0 -0.1349 0.8835
6231000000.0 0.565 0.6458
6234000000.0 0.8826 -0.02424
6238000000.0 0.5624 -0.6946
6241000000.0 -0.2048 -0.8518
6244000000.0 -0.7861 -0.4074
6247000000.0 -0.7895 0.3139
6250000000.0 -0.2589 0.8045
6253000000.0 0.4417 0.693
6256000000.0 0.8218 0.1027
6259000000.0 0.6004 -0.5751
6262000000.0 -0.06392 -0.8208
6266000000.0 -0.6326 -0.4639
