! Created with skrf 1.8.0 (http://scikit-rf.org).
# Hz S RI R 50.0 
!freq ReS11 ImS11
4000000000.0 -0.2063 -1.475
4003000000.0 -1.272 -0.8391
4006000000.0 -1.433 0.4345
4009000000.0 -0.5389 1.412
4012000000.0 0.8221 1.336
4016000000.0 1.52 0.2014
4019000000.0 1.098 -1.056
4022000000.0 -0.08605 -1.521
4025000000.0 -1.282 -0.9175
4028000000.0 -1.529 0.4786
4031000000.0 -0.5489 1.472
4034000000.0 0.8471 1.374
4038000000.0 1.615 0.2498
4041000000.0 1.166 -1.091
4044000000.0 -0.1409 -1.643
4047000000.0 -1.355 -0.9111
4050000000.0 -1.55 0.4091
4053000000.0 -0.6389 1.502
4056000000.0 0.7075 1.459
4059000000.0 1.579 0.2949
4062000000.0 1.229 -1.02
4066000000.0 0.02948 -1.6
4069000000.0 -1.224 -1.048
4072000000.0 -1.583 0.2667
4075000000.0 -0.7747 1.406
4078000000.0 0.5557 1.566
4081000000.0 1.546 0.5417
4084000000.0 1.394 -0.86
4088000000.0 0.2391 -1.657
4091000000.0 -1.11 -1.223
4094000000.0 -1.624 0.0782
4097000000.0 -0.9377 1.282
4100000000.0 0.4163 1.571
4103000000.0 1.43 0.7061
4106000000.0 1.429 -0.6023
4109000000.0 0.4504 -1.49
4112000000.0 -0.8376 -1.28
4116000000.0 -1.533 -0.1804
4119000000.0 -1.133 0.9927
4122000000.0 0.03017 1.502
4125000000.0 1.121 0.9447
4128000000.0 1.416 -0.2357
4131000000.0 0.7741 -1.245
4134000000.0 -0.4202 -1.428
4138000000.0 -1.358 -0.5861
4141000000.0 -1.318 0.6023
4144000000.0 -0.3941 1.454
4147000000.0 0.8481 1.232
4150000000.0 1.521 0.1464
4153000000.0 1.085 -1.056
4156000000.0 -0.1142 -1.51
4159000000.0 -1.243 -0.8591
4162000000.0 -1.437 0.3723
4166000000.0 -0.6532 1.379
4169000000.0 0.5806 1.384
4172000000.0 1.437 0.4064
4175000000.0 1.236 -0.821
4178000000.0 0.1439 -1.49
4181000000.0 -1.031 -1.108
4184000000.0 -1.487 0.0788
4188000000.0 -0.8727 1.188
4191000000.0 0.3381 1.5
4194000000.0 1.362 0.6786
4197000000.0 1.405 -0.6902
4200000000.0 0.3551 -1.518
4203000000.0 -0.9783 -1.286
4206000000.0 -1.623 -0.02442
4209000000.0 -1.022 1.236
4212000000.0 0.3277 1.615
4216000000.0 1.497 0.7285
4219000000.0 1.525 -0.756
4222000000.0 0.3063 -1.637
4225000000.0 -1.122 -1.265
4228000000.0 -1.694 0.1559
4231000000.0 -0.8978 1.408
4234000000.0 0.5694 1.578
4238000000.0 1.576 0.526
4241000000.0 1.332 -0.9087
4244000000.0 0.09699 -1.583
4247000000.0 -1.222 -1.004
4250000000.0 -1.527 0.325
4253000000.0 -0.6673 1.392
4256000000.0 0.6831 1.381
4259000000.0 1.514 0.298
4262000000.0 1.149 -0.9809
4266000000.0 -0.04532 -1.514
4269000000.0 -1.213 -0.8354
4272000000.0 -1.411 0.4695
4275000000.0 -0.5179 1.38
4278000000.0 0.7267 1.214
4281000000.0 1.396 0.1849
4284000000.0 1.004 -1.001
4288000000.0 -0.1588 -1.344
4291000000.0 -1.161 -0.7444
4294000000.0 -1.264 0.3953
4297000000.0 -0.4653 1.231
4300000000.0 0.6243 1.142
4303000000.0 1.279 0.2555
4306000000.0 0.9879 -0.8134
4309000000.0 0.02613 -1.255
4312000000.0 -0.9814 -0.8363
4316000000.0 -1.261 0.2089
4319000000.0 -0.6639 1.095
4322000000.0 0.4038 1.23
4325000000.0 1.213 0.4893
4328000000.0 1.142 -0.6037
4331000000.0 0.2923 -1.327
4334000000.0 -0.832 -1.056
4338000000.0 -1.374 -0.03607
4341000000.0 -0.8987 1.037
4344000000.0 0.2071 1.401
4347000000.0 1.223 0.7195
4350000000.0 1.323 -0.4905
4353000000.0 0.4619 -1.37
4356000000.0 -0.7302 -1.23
4359000000.0 -1.441 -0.2282
4362000000.0 -1.105 0.942
4366000000.0 0.001672 1.442
4369000000.0 1.104 0.9273
4372000000.0 1.463 -0.2734
4375000000.0 0.7258 -1.273
4378000000.0 -0.5725 -1.36
4381000000.0 -1.453 -0.4309
4384000000.0 -1.287 0.8153
4388000000.0 -0.17 1.533
4391000000.0 1.092 1.114
4394000000.0 1.537 -0.1815
4397000000.0 0.835 -1.353
4400000000.0 -0.5073 -1.515
4403000000.0 -1.489 -0.5049
4406000000.0 -1.336 0.8606
4409000000.0 -0.1322 1.532
4412000000.0 1.114 1.095
4416000000.0 1.536 -0.2099
4419000000.0 0.7872 -1.327
4422000000.0 -0.5074 -1.41
4425000000.0 -1.431 -0.4288
4428000000.0 -1.19 0.854
4431000000.0 -0.09004 1.465
4434000000.0 1.074 0.9315
4438000000.0 1.394 -0.2489
4441000000.0 0.622 -1.255
4444000000.0 -0.5835 -1.229
4447000000.0 -1.332 -0.2986
4450000000.0 -1.025 0.8801
4453000000.0 0.05244 1.307
4456000000.0 1.046 0.7184
4459000000.0 1.226 -0.3665
4462000000.0 0.4654 -1.17
4466000000.0 -0.6299 -1.083
4469000000.0 -1.22 -0.1412
4472000000.0 -0.8466 0.8856
4475000000.0 0.1694 1.19
4478000000.0 1.014 0.6162
4481000000.0 1.096 -0.4137
4484000000.0 0.31 -1.093
4488000000.0 -0.6627 -0.9325
4491000000.0 -1.117 -0.08013
4494000000.0 -0.7536 0.8331
4497000000.0 0.1311 1.111
4500000000.0 1.013 0.5525
4503000000.0 1.019 -0.4039
4506000000.0 0.313 -1.032
4509000000.0 -0.5958 -0.8978
4512000000.0 -1.094 -0.1298
4516000000.0 -0.7728 0.7961
4519000000.0 0.1182 1.136
4522000000.0 0.9711 0.6109
4525000000.0 1.061 -0.357
4528000000.0 0.4378 -1.068
4531000000.0 -0.5741 -0.9964
4534000000.0 -1.14 -0.2061
4538000000.0 -0.8705 0.7551
4541000000.0 0.01595 1.177
4544000000.0 0.9235 0.7321
4547000000.0 1.142 -0.2613
4550000000.0 0.5489 -1.083
4553000000.0 -0.4755 -1.105
4556000000.0 -1.15 -0.3794
4559000000.0 -1.012 0.6724
4562000000.0 -0.1545 1.236
4566000000.0 0.8341 0.9216
4569000000.0 1.246 -0.07014
4572000000.0 0.7756 -1.012
4575000000.0 -0.2857 -1.262
4578000000.0 -1.157 -0.5942
4581000000.0 -1.22 0.528
4584000000.0 -0.3714 1.269
4588000000.0 0.7377 1.151
4591000000.0 1.342 0.1254
4594000000.0 0.9823 -0.9622
4597000000.0 -0.09907 -1.383
4600000000.0 -1.159 -0.7854
4603000000.0 -1.33 0.3713
4606000000.0 -0.5519 1.254
4609000000.0 0.6591 1.234
4612000000.0 1.374 0.2698
4616000000.0 1.082 -0.8737
4619000000.0 -0.0004588 -1.381
4622000000.0 -1.073 -0.8852
4625000000.0 -1.35 0.286
4628000000.0 -0.6438 1.206
4631000000.0 0.5402 1.26
4634000000.0 1.297 0.381
4638000000.0 1.115 -0.7691
4641000000.0 0.08043 -1.373
4644000000.0 -1.016 -0.9017
4647000000.0 -1.324 0.2224
4650000000.0 -0.666 1.131
4653000000.0 0.4941 1.229
4656000000.0 1.241 0.3399
4659000000.0 1.035 -0.7573
4662000000.0 0.06429 -1.253
4666000000.0 -0.9315 -0.8219
4669000000.0 -1.199 0.2054
4672000000.0 -0.5405 1.069
4675000000.0 0.4806 1.083
4678000000.0 1.115 0.3218
4681000000.0 0.9414 -0.6789
4684000000.0 0.04538 -1.116
4688000000.0 -0.8104 -0.736
4691000000.0 -1.101 0.1824
4694000000.0 -0.5204 0.9313
4697000000.0 0.4024 0.9907
4700000000.0 1.042 0.2901
4703000000.0 0.8881 -0.6825
4706000000.0 -0.001832 -1.086
4709000000.0 -0.8528 -0.688
4712000000.0 -1.036 0.2253
4716000000.0 -0.4574 0.9532
4719000000.0 0.4649 0.972
4722000000.0 1.034 0.2679
4725000000.0 0.8282 -0.6623
4728000000.0 0.05619 -1.039
4731000000.0 -0.8069 -0.6758
4734000000.0 -1.023 0.2043
4738000000.0 -0.4772 0.9195
4741000000.0 0.3757 0.9639
4744000000.0 0.9905 0.3164
4747000000.0 0.8841 -0.5846
4750000000.0 0.158 -1.041
4753000000.0 -0.7176 -0.8035
4756000000.0 -1.063 0.04982
4759000000.0 -0.6919 0.9026
4762000000.0 0.2403 1.105
4766000000.0 0.9881 0.4918
4769000000.0 1.023 -0.4535
4772000000.0 0.3055 -1.105
4775000000.0 -0.6321 -0.9653
4778000000.0 -1.156 -0.1084
4781000000.0 -0.8257 0.8172
4784000000.0 0.07347 1.183
4788000000.0 0.9572 0.7143
4791000000.0 1.192 -0.2876
4794000000.0 0.5289 -1.099
4797000000.0 -0.4828 -1.149
4800000000.0 -1.209 -0.3741
4803000000.0 -1.008 0.6702
4806000000.0 -0.13 1.229
4809000000.0 0.8199 0.9369
4812000000.0 1.259 -0.02263
4816000000.0 0.8038 -1.036
4819000000.0 -0.3023 -1.257
4822000000.0 -1.192 -0.594
4825000000.0 -1.244 0.5317
4828000000.0 -0.3821 1.288
4831000000.0 0.7774 1.143
4834000000.0 1.358 0.1271
4838000000.0 0.9891 -1.013
4841000000.0 -0.1254 -1.385
4844000000.0 -1.181 -0.7442
4847000000.0 -1.308 0.4337
4850000000.0 -0.5251 1.288
4853000000.0 0.6641 1.227
4856000000.0 1.352 0.2426
4859000000.0 1.037 -0.905
4862000000.0 -0.05249 -1.337
4866000000.0 -1.073 -0.8287
4869000000.0 -1.265 0.3197
4872000000.0 -0.5635 1.169
4875000000.0 0.5654 1.172
4878000000.0 1.242 0.3008
4881000000.0 1.012 -0.7612
4884000000.0 0.03642 -1.239
4888000000.0 -0.9516 -0.8031
4891000000.0 -1.168 0.2257
4894000000.0 -0.5626 1.031
4897000000.0 0.4439 1.079
4900000000.0 1.089 0.3008
4903000000.0 0.8982 -0.6314
4906000000.0 0.04002 -1.097
4909000000.0 -0.7791 -0.7076
4912000000.0 -1.02 0.1542
4916000000.0 -0.5451 0.8689
4919000000.0 0.331 0.9423
4922000000.0 0.9119 0.3348
4925000000.0 0.8375 -0.5084
4928000000.0 0.1408 -0.946
4931000000.0 -0.6261 -0.7008
4934000000.0 -0.9348 0.02743
4938000000.0 -0.5544 0.7451
4941000000.0 0.2076 0.9271
4944000000.0 0.8616 0.4042
4947000000.0 0.8531 -0.4035
4950000000.0 0.2085 -0.9257
4953000000.0 -0.5924 -0.7666
4956000000.0 -0.9506 -0.03016
4959000000.0 -0.6241 0.738
4962000000.0 0.1537 0.9711
4966000000.0 0.8486 0.4871
4969000000.0 0.9295 -0.3661
4972000000.0 0.2977 -0.9624
4975000000.0 -0.5714 -0.8403
4978000000.0 -1.023 -0.115
4981000000.0 -0.7577 0.7022
4984000000.0 0.09512 1.019
4988000000.0 0.8585 0.6055
4991000000.0 1.039 -0.2823
4994000000.0 0.4362 -0.9719
4997000000.0 -0.4866 -1.002
5000000000.0 -1.093 -0.2686
5003000000.0 -0.9248 0.6555
5006000000.0 -0.07433 1.154
5009000000.0 0.8451 0.8243
5012000000.0 1.168 -0.1415
5016000000.0 0.6438 -1.016
5019000000.0 -0.3787 -1.173
5022000000.0 -1.176 -0.4466
5025000000.0 -1.091 0.5933
5028000000.0 -0.2121 1.246
5031000000.0 0.8063 0.9931
5034000000.0 1.273 -0.008129
5038000000.0 0.8012 -0.9897
5041000000.0 -0.2298 -1.265
5044000000.0 -1.134 -0.6103
5047000000.0 -1.201 0.4632
5050000000.0 -0.4316 1.234
5053000000.0 0.6903 1.109
5056000000.0 1.284 0.1821
5059000000.0 1.002 -0.8431
5062000000.0 -0.03627 -1.291
5066000000.0 -1.048 -0.785
5069000000.0 -1.268 0.2591
5072000000.0 -0.615 1.139
5075000000.0 0.4752 1.194
5078000000.0 1.211 0.3612
5081000000.0 1.031 -0.6838
5084000000.0 0.1269 -1.212
5088000000.0 -0.8661 -0.9078
5091000000.0 -1.175 0.08712
5094000000.0 -0.7227 0.9295
5097000000.0 0.2782 1.152
5100000000.0 1.034 0.4732
5103000000.0 1.018 -0.4709
5106000000.0 0.2992 -1.072
5109000000.0 -0.6147 -0.9021
5112000000.0 -1.102 -0.09855
5116000000.0 -0.7559 0.761
5119000000.0 0.08408 1.026
5122000000.0 0.8312 0.6074
5125000000.0 0.9912 -0.2528
5128000000.0 0.4359 -0.8956
5131000000.0 -0.4208 -0.8939
5134000000.0 -1.017 -0.2208
5138000000.0 -0.7612 0.5997
5141000000.0 -0.06104 0.9582
5144000000.0 0.708 0.6509
5147000000.0 0.9854 -0.1391
5150000000.0 0.4841 -0.804
5153000000.0 -0.3171 -0.8825
5156000000.0 -0.8545 -0.2917
5159000000.0 -0.7491 0.4851
5162000000.0 -0.113 0.883
5166000000.0 0.6199 0.6528
5169000000.0 0.9019 -0.04745
5172000000.0 0.5337 -0.7279
5175000000.0 -0.2377 -0.8652
5178000000.0 -0.8521 -0.3616
5181000000.0 -0.813 0.4115
5184000000.0 -0.1698 0.8754
5188000000.0 0.6061 0.713
5191000000.0 0.9159 -0.0192
5194000000.0 0.5349 -0.7302
5197000000.0 -0.2352 -0.9304
5200000000.0 -0.828 -0.3634
5203000000.0 -0.8248 0.4515
5206000000.0 -0.2071 0.947
5209000000.0 0.6035 0.7131
5212000000.0 0.9708 -0.007912
5216000000.0 0.5549 -0.7587
5219000000.0 -0.2343 -0.9617
5222000000.0 -0.891 -0.4344
5225000000.0 -0.8907 0.4121
5228000000.0 -0.2637 0.9858
5231000000.0 0.6145 0.8324
5234000000.0 1.03 0.06182
5238000000.0 0.7141 -0.758
5241000000.0 -0.1311 -1.002
5244000000.0 -0.8906 -0.5579
5247000000.0 -1.001 0.3578
5250000000.0 -0.3873 0.9854
5253000000.0 0.5314 0.9429
5256000000.0 1.057 0.1973
5259000000.0 0.8222 -0.6861
5262000000.0 -0.01357 -1.077
5266000000.0 -0.8219 -0.6952
5269000000.0 -1.056 0.1768
5272000000.0 -0.5359 0.958
5275000000.0 0.3139 1.008
5278000000.0 1.013 0.4164
5281000000.0 0.965 -0.5483
5284000000.0 0.2183 -1.069
5288000000.0 -0.6748 -0.8833
5291000000.0 -1.103 -0.03632
5294000000.0 -0.7412 0.7956
5297000000.0 0.1383 1.124
5300000000.0 0.9304 0.6007
5303000000.0 1.068 -0.3221
5306000000.0 0.4808 -1.022
5309000000.0 -0.5049 -0.9955
5312000000.0 -1.096 -0.2787
5316000000.0 -0.9416 0.6787
5319000000.0 -0.08047 1.131
5322000000.0 0.8243 0.8001
5325000000.0 1.121 -0.1281
5328000000.0 0.6199 -0.9542
5331000000.0 -0.3211 -1.093
5334000000.0 -1.039 -0.4516
5338000000.0 -0.9958 0.5028
5341000000.0 -0.2511 1.129
5344000000.0 0.7125 0.876
5347000000.0 1.14 0.04933
5350000000.0 0.7074 -0.8388
5353000000.0 -0.1376 -1.093
5356000000.0 -0.959 -0.5409
5359000000.0 -0.9867 0.4038
5362000000.0 -0.3362 1.016
5366000000.0 0.5749 0.8881
5369000000.0 1.066 0.1549
5372000000.0 0.7575 -0.7214
5375000000.0 -0.1044 -1.01
5378000000.0 -0.8943 -0.5581
5381000000.0 -0.9378 0.3347
5384000000.0 -0.3289 0.921
5388000000.0 0.5628 0.826
5391000000.0 0.9547 0.06679
5394000000.0 0.6499 -0.6768
5397000000.0 -0.1492 -0.9424
5400000000.0 -0.7977 -0.4949
5403000000.0 -0.818 0.3398
5406000000.0 -0.2538 0.8791
5409000000.0 0.4801 0.7571
5412000000.0 0.8755 0.07261
5416000000.0 0.6036 -0.6373
5419000000.0 -0.1444 -0.8518
5422000000.0 -0.7861 -0.4141
5425000000.0 -0.7926 0.3236
5428000000.0 -0.2672 0.8166
5431000000.0 0.4545 0.6833
5434000000.0 0.8588 0.06603
5438000000.0 0.5935 -0.6341
5441000000.0 -0.1425 -0.8821
5444000000.0 -0.7736 -0.4395
5447000000.0 -0.812 0.3324
5450000000.0 -0.2759 0.8334
5453000000.0 0.4902 0.7205
5456000000.0 0.8702 0.0844
5459000000.0 0.6142 -0.6204
5462000000.0 -0.09622 -0.8928
5466000000.0 -0.7512 -0.5079
5469000000.0 -0.89 0.2492
5472000000.0 -0.3719 0.8246
5475000000.0 0.438 0.8393
5478000000.0 0.9046 0.2566
5481000000.0 0.7446 -0.551
5484000000.0 0.0245 -0.9821
5488000000.0 -0.7119 -0.6911
5491000000.0 -0.9978 0.1042
5494000000.0 -0.5283 0.8194
5497000000.0 0.2902 0.9385
5500000000.0 0.9176 0.3404
5503000000.0 0.9252 -0.4471
5506000000.0 0.1787 -0.9527
5509000000.0 -0.6096 -0.8022
5512000000.0 -1.014 -0.005874
5516000000.0 -0.6822 0.7273
5519000000.0 0.103 1.022
5522000000.0 0.8641 0.5884
5525000000.0 0.9853 -0.2495
5528000000.0 0.4469 -0.9664
5531000000.0 -0.4347 -0.9489
5534000000.0 -1.011 -0.2431
5538000000.0 -0.8576 0.6216
5541000000.0 -0.05405 1.087
5544000000.0 0.7926 0.7286
5547000000.0 1.059 -0.09144
5550000000.0 0.592 -0.9004
5553000000.0 -0.2617 -1.009
5556000000.0 -0.9498 -0.4249
5559000000.0 -0.9002 0.4732
5562000000.0 -0.2286 1.02
5566000000.0 0.6447 0.8171
5569000000.0 1.014 0.007086
5572000000.0 0.6573 -0.78
5575000000.0 -0.1716 -0.9938
5578000000.0 -0.855 -0.5154
5581000000.0 -0.9092 0.3029
5584000000.0 -0.3335 0.9325
5588000000.0 0.477 0.8249
5591000000.0 0.9294 0.15
5594000000.0 0.7052 -0.6489
5597000000.0 -0.03646 -0.9369
5600000000.0 -0.723 -0.5566
5603000000.0 -0.8784 0.2103
5606000000.0 -0.3822 0.841
5609000000.0 0.3909 0.8125
5612000000.0 0.8538 0.2
5616000000.0 0.6912 -0.5426
5619000000.0 0.0403 -0.8745
5622000000.0 -0.6502 -0.562
5625000000.0 -0.84 0.1541
5628000000.0 -0.3955 0.7382
5631000000.0 0.3128 0.8032
5634000000.0 0.8175 0.2397
5638000000.0 0.6759 -0.4837
5641000000.0 0.06365 -0.8599
5644000000.0 -0.6137 -0.5677
5647000000.0 -0.8271 0.1401
5650000000.0 -0.414 0.7166
5653000000.0 0.3044 0.7847
5656000000.0 0.8045 0.2641
5659000000.0 0.699 -0.4768
5662000000.0 0.07172 -0.8586
5666000000.0 -0.6243 -0.5904
5669000000.0 -0.859 0.1226
5672000000.0 -0.4372 0.7686
5675000000.0 0.3364 0.8432
5678000000.0 0.8502 0.2854
5681000000.0 0.7625 -0.5095
5684000000.0 0.1237 -0.9288
5688000000.0 -0.6671 -0.6453
5691000000.0 -0.9609 0.1138
5694000000.0 -0.5235 0.8039
5697000000.0 0.3317 0.9083
5700000000.0 0.9058 0.3541
5703000000.0 0.8365 -0.5084
5706000000.0 0.1351 -0.9804
5709000000.0 -0.7157 -0.7802
5712000000.0 -1.002 0.07838
5716000000.0 -0.6086 0.824
5719000000.0 0.2482 1.008
5722000000.0 0.9648 0.4706
5725000000.0 0.9577 -0.4392
5728000000.0 0.2803 -1.031
5731000000.0 -0.608 -0.8888
5734000000.0 -1.066 -0.09757
5738000000.0 -0.7443 0.7364
5741000000.0 0.1073 1.086
5744000000.0 0.9435 0.6044
5747000000.0 1.038 -0.2904
5750000000.0 0.4432 -1.013
5753000000.0 -0.4781 -0.9604
5756000000.0 -1.055 -0.2651
5759000000.0 -0.8776 0.6548
5762000000.0 -0.04088 1.113
5766000000.0 0.809 0.747
5769000000.0 1.112 -0.1512
5772000000.0 0.6018 -0.9197
5775000000.0 -0.3466 -1.06
5778000000.0 -1.005 -0.4003
5781000000.0 -0.9419 0.4997
5784000000.0 -0.2099 1.053
5788000000.0 0.7028 0.8352
5791000000.0 1.094 0.03137
5794000000.0 0.6918 -0.7964
5797000000.0 -0.1515 -1.053
5800000000.0 -0.9282 -0.5567
5803000000.0 -0.9742 0.3659
5806000000.0 -0.3639 0.9826
5809000000.0 0.5346 0.9242
5812000000.0 1.021 0.1635
5816000000.0 0.76 -0.6678
5819000000.0 -0.04324 -1.012
5822000000.0 -0.8048 -0.5838
5825000000.0 -0.9452 0.2712
5828000000.0 -0.4235 0.9444
5831000000.0 0.397 0.9063
5834000000.0 0.94 0.2674
5838000000.0 0.7821 -0.5923
5841000000.0 0.03278 -0.9591
5844000000.0 -0.7226 -0.6333
5847000000.0 -0.9605 0.1399
5850000000.0 -0.4813 0.8258
5853000000.0 0.3543 0.8755
5856000000.0 0.8818 0.2277
5859000000.0 0.7559 -0.5079
5862000000.0 0.0786 -0.935
5866000000.0 -0.6695 -0.6237
5869000000.0 -0.868 0.1416
5872000000.0 -0.4702 0.7759
5875000000.0 0.3082 0.82
5878000000.0 0.8296 0.2551
5881000000.0 0.717 -0.461
5884000000.0 0.08232 -0.867
5888000000.0 -0.6231 -0.6012
5891000000.0 -0.8673 0.07877
5894000000.0 -0.4727 0.7476
5897000000.0 0.2679 0.8138
5900000000.0 0.7907 0.3246
5903000000.0 0.7315 -0.4131
5906000000.0 0.1459 -0.8728
5909000000.0 -0.5827 -0.6539
5912000000.0 -0.8432 0.03461
5916000000.0 -0.5593 0.7031
5919000000.0 0.2255 0.8573
5922000000.0 0.754 0.336
5925000000.0 0.7995 -0.3372
5928000000.0 0.2255 -0.8736
5931000000.0 -0.5269 -0.7208
5934000000.0 -0.8782 -0.05155
5938000000.0 -0.6001 0.6655
5941000000.0 0.09829 0.8787
5944000000.0 0.7092 0.4796
5947000000.0 0.8611 -0.2648
5950000000.0 0.3308 -0.861
5953000000.0 -0.3664 -0.788
5956000000.0 -0.9088 -0.1769
5959000000.0 -0.7566 0.527
5962000000.0 -0.06239 0.9429
5966000000.0 0.6991 0.6237
5969000000.0 0.9547 -0.114
5972000000.0 0.4975 -0.824
5975000000.0 -0.2791 -0.9251
5978000000.0 -0.9159 -0.3647
5981000000.0 -0.8543 0.4464
5984000000.0 -0.1906 0.9893
5988000000.0 0.6238 0.7608
5991000000.0 0.9707 0.02511
5994000000.0 0.6508 -0.7607
5997000000.0 -0.1555 -1.013
6000000000.0 -0.8543 -0.5261
6003000000.0 -0.926 0.3482
6006000000.0 -0.3208 0.9238
6009000000.0 0.488 0.8598
6012000000.0 0.9806 0.1514
6016000000.0 0.7275 -0.6675
6019000000.0 -0.05905 -0.9867
6022000000.0 -0.7981 -0.564
6025000000.0 -0.9444 0.2432
6028000000.0 -0.4074 0.8814
6031000000.0 0.4152 0.8451
6034000000.0 0.9619 0.2237
6038000000.0 0.7734 -0.5971
6041000000.0 0.0443 -0.9625
6044000000.0 -0.7089 -0.6223
6047000000.0 -0.93 0.1491
6050000000.0 -0.4826 0.8186
6053000000.0 0.3608 0.8744
6056000000.0 0.8763 0.3028
6059000000.0 0.7764 -0.5098
6062000000.0 0.09311 -0.9152
6066000000.0 -0.6577 -0.6407
6069000000.0 -0.8887 0.1242
6072000000.0 -0.4699 0.7696
6075000000.0 0.276 0.8511
6078000000.0 0.8234 0.3167
6081000000.0 0.7757 -0.451
6084000000.0 0.1307 -0.8676
6088000000.0 -0.5933 -0.6274
6091000000.0 -0.8601 0.06835
6094000000.0 -0.4887 0.6985
6097000000.0 0.212 0.8226
6100000000.0 0.8031 0.323
6103000000.0 0.7495 -0.383
6106000000.0 0.1476 -0.8433
6109000000.0 -0.5549 -0.6617
6112000000.0 -0.8666 0.03784
6116000000.0 -0.5131 0.698
6119000000.0 0.1992 0.8245
6122000000.0 0.7547 0.3589
6125000000.0 0.8053 -0.3844
6128000000.0 0.2212 -0.8246
6131000000.0 -0.4944 -0.6866
6134000000.0 -0.8782 -0.01052
6138000000.0 -0.5704 0.656
6141000000.0 0.1376 0.8494
6144000000.0 0.781 0.422
6147000000.0 0.8159 -0.322
6150000000.0 0.2845 -0.8477
6153000000.0 -0.4783 -0.7595
6156000000.0 -0.8805 -0.06758
6159000000.0 -0.6213 0.633
6162000000.0 0.08433 0.9493
6166000000.0 0.7082 0.5129
6169000000.0 0.8918 -0.301
6172000000.0 0.3427 -0.8573
6175000000.0 -0.4281 -0.81
6178000000.0 -0.9232 -0.1897
6181000000.0 -0.7082 0.594
6184000000.0 -0.01546 0.9587
6188000000.0 0.7477 0.5773
6191000000.0 0.9263 -0.169
6194000000.0 0.4443 -0.8301
6197000000.0 -0.3838 -0.8794
6200000000.0 -0.9211 -0.2257
6203000000.0 -0.7882 0.5476
6206000000.0 -0.09423 0.9281
6209000000.0 0.6441 0.6722
6212000000.0 0.9266 -0.08776
6216000000.0 0.5085 -0.7697
6219000000.0 -0.2893 -0.8847
6222000000.0 -0.8379 -0.3658
6225000000.0 -0.7686 0.3969
6228000000.0 -0.1683 0.8555
6231000000.0 0.5415 0.7264
6234000000.0 0.8671 0.02017
6238000000.0 0.5897 -0.6669
6241000000.0 -0.1638 -0.8585
6244000000.0 -0.7353 -0.4406
6247000000.0 -0.8138 0.3064
6250000000.0 -0.2702 0.7723
6253000000.0 0.4402 0.7021
6256000000.0 0.8468 0.1296
6259000000.0 0.6122 -0.5521
6262000000.0 0.04315 -0.8204
6266000000.0 -0.6414 -0.5367
