! Created with skrf 1.8.0 (http://scikit-rf.org).
# Hz S RI R 50.0 
!freq ReS11 ImS11
4000000000.0 -0.1948 -1.477
4003000000.0 -1.295 -0.7468
4006000000.0 -1.442 0.5294
4009000000.0 -0.3982 1.462
4012000000.0 0.8482 1.285
4016000000.0 1.475 0.142
4019000000.0 1.085 -1.108
4022000000.0 -0.1839 -1.568
4025000000.0 -1.313 -0.8595
4028000000.0 -1.566 0.5587
4031000000.0 -0.4956 1.534
4034000000.0 0.8608 1.398
4038000000.0 1.618 0.1902
4041000000.0 1.198 -1.16
4044000000.0 -0.2 -1.67
4047000000.0 -1.399 -0.8489
4050000000.0 -1.524 0.5063
4053000000.0 -0.5666 1.548
4056000000.0 0.8183 1.406
4059000000.0 1.612 0.274
4062000000.0 1.2 -1.056
4066000000.0 -0.07922 -1.636
4069000000.0 -1.281 -0.9744
4072000000.0 -1.591 0.3205
4075000000.0 -0.7968 1.443
4078000000.0 0.5886 1.536
4081000000.0 1.599 0.465
4084000000.0 1.397 -0.8927
4088000000.0 0.1195 -1.667
4091000000.0 -1.171 -1.181
4094000000.0 -1.673 0.1588
4097000000.0 -0.8954 1.378
4100000000.0 0.441 1.567
4103000000.0 1.483 0.6417
4106000000.0 1.412 -0.6851
4109000000.0 0.3635 -1.529
4112000000.0 -0.8764 -1.238
4116000000.0 -1.51 -0.126
4119000000.0 -1.064 1.065
4122000000.0 0.06833 1.494
4125000000.0 1.189 0.9369
4128000000.0 1.437 -0.2808
4131000000.0 0.7334 -1.293
4134000000.0 -0.4782 -1.405
4138000000.0 -1.392 -0.5152
4141000000.0 -1.327 0.7341
4144000000.0 -0.3149 1.48
4147000000.0 0.9155 1.209
4150000000.0 1.489 0.07972
4153000000.0 1.037 -1.124
4156000000.0 -0.1654 -1.515
4159000000.0 -1.272 -0.8305
4162000000.0 -1.468 0.4658
4166000000.0 -0.5674 1.407
4169000000.0 0.6888 1.323
4172000000.0 1.47 0.3527
4175000000.0 1.19 -0.9007
4178000000.0 0.06487 -1.493
4181000000.0 -1.098 -1.033
4184000000.0 -1.491 0.1633
4188000000.0 -0.8216 1.263
4191000000.0 0.4833 1.459
4194000000.0 1.427 0.5832
4197000000.0 1.363 -0.7696
4200000000.0 0.2355 -1.566
4203000000.0 -1.055 -1.222
4206000000.0 -1.608 0.08605
4209000000.0 -0.9757 1.356
4212000000.0 0.4698 1.575
4216000000.0 1.554 0.5855
4219000000.0 1.438 -0.8698
4222000000.0 0.1828 -1.692
4225000000.0 -1.249 -1.14
4228000000.0 -1.627 0.2631
4231000000.0 -0.7834 1.473
4234000000.0 0.7037 1.528
4238000000.0 1.609 0.3306
4241000000.0 1.244 -1.032
4244000000.0 -0.0801 -1.592
4247000000.0 -1.293 -0.9096
4250000000.0 -1.483 0.4713
4253000000.0 -0.5432 1.452
4256000000.0 0.816 1.322
4259000000.0 1.505 0.1457
4262000000.0 1.026 -1.092
4266000000.0 -0.2398 -1.48
4269000000.0 -1.276 -0.7103
4272000000.0 -1.38 0.5549
4275000000.0 -0.3675 1.389
4278000000.0 0.8562 1.207
4281000000.0 1.406 0.02707
4284000000.0 0.8781 -1.088
4288000000.0 -0.2531 -1.366
4291000000.0 -1.205 -0.5973
4294000000.0 -1.25 0.5368
4297000000.0 -0.3618 1.27
4300000000.0 0.7442 1.092
4303000000.0 1.267 0.1157
4306000000.0 0.9221 -0.9389
4309000000.0 -0.08098 -1.287
4312000000.0 -1.02 -0.7578
4316000000.0 -1.269 0.2838
4319000000.0 -0.5567 1.17
4322000000.0 0.5256 1.2
4325000000.0 1.267 0.3816
4328000000.0 1.17 -0.7462
4331000000.0 0.1352 -1.329
4334000000.0 -0.9237 -1.001
4338000000.0 -1.395 0.09107
4341000000.0 -0.8487 1.121
4344000000.0 0.3412 1.386
4347000000.0 1.332 0.6192
4350000000.0 1.303 -0.6015
4353000000.0 0.3962 -1.384
4356000000.0 -0.8169 -1.174
4359000000.0 -1.447 -0.09155
4362000000.0 -1.023 1.034
4366000000.0 0.1563 1.491
4369000000.0 1.248 0.8579
4372000000.0 1.422 -0.4248
4375000000.0 0.5783 -1.382
4378000000.0 -0.7124 -1.353
4381000000.0 -1.487 -0.3393
4384000000.0 -1.205 0.9747
4388000000.0 0.02538 1.563
4391000000.0 1.231 0.9915
4394000000.0 1.546 -0.33
4397000000.0 0.7179 -1.44
4400000000.0 -0.7177 -1.427
4403000000.0 -1.547 -0.331
4406000000.0 -1.234 1.006
4409000000.0 0.01514 1.545
4412000000.0 1.237 0.9498
4416000000.0 1.506 -0.4089
4419000000.0 0.5807 -1.416
4422000000.0 -0.7424 -1.335
4425000000.0 -1.476 -0.2421
4428000000.0 -1.042 1.001
4431000000.0 0.1385 1.422
4434000000.0 1.191 0.7576
4438000000.0 1.309 -0.4787
4441000000.0 0.4231 -1.324
4444000000.0 -0.7692 -1.137
4447000000.0 -1.354 -0.08927
4450000000.0 -0.8471 1.003
4453000000.0 0.2353 1.298
4456000000.0 1.148 0.5614
4459000000.0 1.136 -0.5294
4462000000.0 0.255 -1.24
4466000000.0 -0.805 -0.9582
4469000000.0 -1.223 0.02821
4472000000.0 -0.6935 0.9888
4475000000.0 0.3084 1.134
4478000000.0 1.094 0.4063
4481000000.0 1.011 -0.572
4484000000.0 0.1767 -1.172
4488000000.0 -0.7775 -0.8375
4491000000.0 -1.148 0.1144
4494000000.0 -0.6447 0.9663
4497000000.0 0.3524 1.075
4500000000.0 1.074 0.4251
4503000000.0 0.9538 -0.5414
4506000000.0 0.1888 -1.089
4509000000.0 -0.7341 -0.8187
4512000000.0 -1.136 0.05023
4516000000.0 -0.6792 0.9199
4519000000.0 0.2656 1.111
4522000000.0 1.042 0.4806
4525000000.0 1.033 -0.5402
4528000000.0 0.2904 -1.149
4531000000.0 -0.6982 -0.9321
4534000000.0 -1.191 -0.01684
4538000000.0 -0.8108 0.9039
4541000000.0 0.1784 1.19
4544000000.0 1.051 0.635
4547000000.0 1.148 -0.3835
4550000000.0 0.4512 -1.133
4553000000.0 -0.601 -1.085
4556000000.0 -1.197 -0.2215
4559000000.0 -0.9853 0.7989
4562000000.0 -0.0215 1.276
4566000000.0 0.9978 0.8385
4569000000.0 1.278 -0.202
4572000000.0 0.6617 -1.129
4575000000.0 -0.4152 -1.243
4578000000.0 -1.216 -0.4843
4581000000.0 -1.174 0.6855
4584000000.0 -0.2224 1.342
4588000000.0 0.8921 1.051
4591000000.0 1.374 -0.03144
4594000000.0 0.8593 -1.078
4597000000.0 -0.3138 -1.357
4600000000.0 -1.237 -0.6374
4603000000.0 -1.284 0.5535
4606000000.0 -0.4124 1.371
4609000000.0 0.7749 1.168
4612000000.0 1.416 0.1527
4616000000.0 0.9878 -0.989
4619000000.0 -0.1453 -1.428
4622000000.0 -1.187 -0.744
4625000000.0 -1.336 0.4276
4628000000.0 -0.4906 1.312
4631000000.0 0.6832 1.199
4634000000.0 1.33 0.1851
4638000000.0 1.026 -0.9534
4641000000.0 -0.1092 -1.327
4644000000.0 -1.076 -0.7526
4647000000.0 -1.264 0.3698
4650000000.0 -0.5033 1.233
4653000000.0 0.6499 1.131
4656000000.0 1.263 0.1945
4659000000.0 0.9036 -0.9157
4662000000.0 -0.115 -1.244
4666000000.0 -1.003 -0.6255
4669000000.0 -1.167 0.3479
4672000000.0 -0.4153 1.152
4675000000.0 0.603 1.017
4678000000.0 1.134 0.1452
4681000000.0 0.8235 -0.8133
4684000000.0 -0.1178 -1.107
4688000000.0 -0.9223 -0.5794
4691000000.0 -1.068 0.3584
4694000000.0 -0.3765 1.025
4697000000.0 0.5586 0.9196
4700000000.0 1.074 0.1369
4703000000.0 0.819 -0.7883
4706000000.0 -0.1427 -1.097
4709000000.0 -0.9128 -0.534
4712000000.0 -1.021 0.338
4716000000.0 -0.36 1.029
4719000000.0 0.5701 0.8888
4722000000.0 1.062 0.08648
4725000000.0 0.7591 -0.7334
4728000000.0 -0.1238 -1.088
4731000000.0 -0.8944 -0.5669
4734000000.0 -1.027 0.2933
4738000000.0 -0.4395 0.9936
4741000000.0 0.5077 0.9621
4744000000.0 1.051 0.2311
4747000000.0 0.8213 -0.6562
4750000000.0 0.02016 -1.105
4753000000.0 -0.836 -0.7172
4756000000.0 -1.125 0.1479
4759000000.0 -0.5836 0.9294
4762000000.0 0.3339 1.066
4766000000.0 1.076 0.4199
4769000000.0 1.03 -0.5888
4772000000.0 0.2262 -1.165
4775000000.0 -0.742 -0.9308
4778000000.0 -1.226 -0.01513
4781000000.0 -0.7998 0.9208
4784000000.0 0.1854 1.195
4788000000.0 1.082 0.623
4791000000.0 1.18 -0.4088
4794000000.0 0.4573 -1.158
4797000000.0 -0.586 -1.146
4800000000.0 -1.23 -0.262
4803000000.0 -1.014 0.783
4806000000.0 -0.04048 1.26
4809000000.0 0.9681 0.896
4812000000.0 1.328 -0.1956
4816000000.0 0.7225 -1.117
4819000000.0 -0.4225 -1.27
4822000000.0 -1.264 -0.4922
4825000000.0 -1.194 0.6531
4828000000.0 -0.2364 1.357
4831000000.0 0.9272 1.065
4834000000.0 1.394 -0.03536
4838000000.0 0.855 -1.102
4841000000.0 -0.3202 -1.379
4844000000.0 -1.277 -0.6228
4847000000.0 -1.286 0.5675
4850000000.0 -0.3769 1.35
4853000000.0 0.8148 1.157
4856000000.0 1.419 0.08143
4859000000.0 0.9221 -0.9785
4862000000.0 -0.2089 -1.319
4866000000.0 -1.144 -0.688
4869000000.0 -1.27 0.4738
4872000000.0 -0.4249 1.232
4875000000.0 0.6926 1.106
4878000000.0 1.258 0.1747
4881000000.0 0.919 -0.8986
4884000000.0 -0.1245 -1.21
4888000000.0 -1.008 -0.6552
4891000000.0 -1.146 0.3802
4894000000.0 -0.4284 1.111
4897000000.0 0.5817 0.9952
4900000000.0 1.123 0.1631
4903000000.0 0.8181 -0.7626
4906000000.0 -0.03977 -1.057
4909000000.0 -0.8585 -0.6166
4912000000.0 -1.02 0.261
4916000000.0 -0.4044 0.9322
4919000000.0 0.4421 0.9151
4922000000.0 0.9739 0.2319
4925000000.0 0.7904 -0.5958
4928000000.0 0.03251 -0.97
4931000000.0 -0.718 -0.6284
4934000000.0 -0.9525 0.1686
4938000000.0 -0.4875 0.8292
4941000000.0 0.3425 0.8845
4944000000.0 0.9009 0.2768
4947000000.0 0.8069 -0.495
4950000000.0 0.1092 -0.9629
4953000000.0 -0.6813 -0.6986
4956000000.0 -0.9879 0.07676
4959000000.0 -0.5569 0.8236
4962000000.0 0.28 0.9511
4966000000.0 0.9186 0.3888
4969000000.0 0.89 -0.4659
4972000000.0 0.1926 -0.9911
4975000000.0 -0.6363 -0.7671
4978000000.0 -1.03 0.03771
4981000000.0 -0.6676 0.7915
4984000000.0 0.1866 1.036
4988000000.0 0.9237 0.5433
4991000000.0 1.016 -0.3856
4994000000.0 0.3469 -1.053
4997000000.0 -0.5777 -0.9434
5000000000.0 -1.142 -0.1665
5003000000.0 -0.8768 0.7807
5006000000.0 0.06663 1.196
5009000000.0 0.9855 0.7384
5012000000.0 1.204 -0.2765
5016000000.0 0.57 -1.15
5019000000.0 -0.5445 -1.151
5022000000.0 -1.246 -0.3446
5025000000.0 -1.046 0.7706
5028000000.0 -0.1077 1.272
5031000000.0 0.9587 0.8704
5034000000.0 1.312 -0.1453
5038000000.0 0.6772 -1.097
5041000000.0 -0.3903 -1.214
5044000000.0 -1.191 -0.4555
5047000000.0 -1.156 0.59
5050000000.0 -0.2876 1.262
5053000000.0 0.787 1.044
5056000000.0 1.315 0.05749
5059000000.0 0.8569 -0.9782
5062000000.0 -0.1706 -1.289
5066000000.0 -1.121 -0.6942
5069000000.0 -1.251 0.4278
5072000000.0 -0.4672 1.225
5075000000.0 0.6106 1.077
5078000000.0 1.249 0.1973
5081000000.0 0.986 -0.8041
5084000000.0 -0.02897 -1.227
5088000000.0 -0.9396 -0.7527
5091000000.0 -1.184 0.2256
5094000000.0 -0.5727 1.023
5097000000.0 0.4337 1.081
5100000000.0 1.066 0.3611
5103000000.0 0.9593 -0.5851
5106000000.0 0.1645 -1.058
5109000000.0 -0.7415 -0.8117
5112000000.0 -1.053 0.0128
5116000000.0 -0.653 0.836
5119000000.0 0.1809 1.021
5122000000.0 0.9242 0.4994
5125000000.0 0.9785 -0.3832
5128000000.0 0.3052 -0.9587
5131000000.0 -0.502 -0.8255
5134000000.0 -1.005 -0.123
5138000000.0 -0.6937 0.6667
5141000000.0 0.06924 0.9443
5144000000.0 0.7642 0.5596
5147000000.0 0.9011 -0.2397
5150000000.0 0.349 -0.8439
5153000000.0 -0.4219 -0.8068
5156000000.0 -0.9086 -0.18
5159000000.0 -0.712 0.5465
5162000000.0 0.01167 0.8815
5166000000.0 0.7148 0.5298
5169000000.0 0.8821 -0.2168
5172000000.0 0.4254 -0.818
5175000000.0 -0.3878 -0.7976
5178000000.0 -0.8955 -0.2461
5181000000.0 -0.703 0.5167
5184000000.0 -0.009911 0.8986
5188000000.0 0.7146 0.6079
5191000000.0 0.9043 -0.1401
5194000000.0 0.4376 -0.8209
5197000000.0 -0.3626 -0.859
5200000000.0 -0.899 -0.2309
5203000000.0 -0.7802 0.5786
5206000000.0 -0.03001 0.9719
5209000000.0 0.7343 0.6256
5212000000.0 0.9823 -0.1628
5216000000.0 0.4976 -0.8787
5219000000.0 -0.3714 -0.9224
5222000000.0 -0.9441 -0.2718
5225000000.0 -0.855 0.5377
5228000000.0 -0.09695 1.031
5231000000.0 0.7114 0.7404
5234000000.0 1.022 -0.07965
5238000000.0 0.5753 -0.8472
5241000000.0 -0.2931 -1.006
5244000000.0 -0.9744 -0.4148
5247000000.0 -0.932 0.4712
5250000000.0 -0.2437 1.037
5253000000.0 0.6681 0.8625
5256000000.0 1.093 0.04437
5259000000.0 0.7402 -0.7769
5262000000.0 -0.1601 -1.098
5266000000.0 -0.9337 -0.5954
5269000000.0 -1.04 0.3074
5272000000.0 -0.4106 1.042
5275000000.0 0.4983 0.9973
5278000000.0 1.063 0.2766
5281000000.0 0.8831 -0.684
5284000000.0 0.07079 -1.118
5288000000.0 -0.7903 -0.7856
5291000000.0 -1.111 0.1234
5294000000.0 -0.6327 0.892
5297000000.0 0.2702 1.084
5300000000.0 1.014 0.4989
5303000000.0 1.029 -0.4649
5306000000.0 0.3122 -1.106
5309000000.0 -0.6424 -0.9396
5312000000.0 -1.144 -0.1096
5316000000.0 -0.8562 0.7697
5319000000.0 0.1116 1.133
5322000000.0 0.9363 0.6518
5325000000.0 1.132 -0.2531
5328000000.0 0.5244 -1.06
5331000000.0 -0.4767 -1.033
5334000000.0 -1.134 -0.238
5338000000.0 -0.9156 0.6715
5341000000.0 -0.05915 1.098
5344000000.0 0.818 0.7451
5347000000.0 1.093 -0.1523
5350000000.0 0.6038 -0.975
5353000000.0 -0.3648 -1.06
5356000000.0 -1.021 -0.3435
5359000000.0 -0.9075 0.5629
5362000000.0 -0.1284 1.049
5366000000.0 0.7491 0.7336
5369000000.0 1.013 -0.1237
5372000000.0 0.5681 -0.8717
5375000000.0 -0.3248 -0.9871
5378000000.0 -0.9452 -0.3157
5381000000.0 -0.8469 0.5309
5384000000.0 -0.1024 0.9655
5388000000.0 0.7001 0.6595
5391000000.0 0.9165 -0.1068
5394000000.0 0.4423 -0.786
5397000000.0 -0.3623 -0.8594
5400000000.0 -0.8301 -0.2552
5403000000.0 -0.7123 0.4982
5406000000.0 -0.06796 0.8786
5409000000.0 0.6313 0.5949
5412000000.0 0.8565 -0.1323
5416000000.0 0.4215 -0.7663
5419000000.0 -0.3386 -0.7954
5422000000.0 -0.8461 -0.2463
5425000000.0 -0.704 0.5232
5428000000.0 -0.05707 0.8763
5431000000.0 0.647 0.5761
5434000000.0 0.8702 -0.1537
5438000000.0 0.4529 -0.7568
5441000000.0 -0.3018 -0.8217
5444000000.0 -0.8487 -0.258
5447000000.0 -0.7589 0.5096
5450000000.0 -0.0855 0.8667
5453000000.0 0.6515 0.6345
5456000000.0 0.8794 -0.09706
5459000000.0 0.4818 -0.7793
5462000000.0 -0.2628 -0.8901
5466000000.0 -0.8943 -0.339
5469000000.0 -0.8354 0.4221
5472000000.0 -0.2098 0.9473
5475000000.0 0.6 0.7487
5478000000.0 0.976 0.03781
5481000000.0 0.6637 -0.7252
5484000000.0 -0.1427 -0.9817
5488000000.0 -0.8555 -0.5237
5491000000.0 -0.9951 0.3077
5494000000.0 -0.3654 0.9532
5497000000.0 0.5193 0.895
5500000000.0 0.9984 0.2238
5503000000.0 0.8007 -0.6452
5506000000.0 -0.0211 -1.016
5509000000.0 -0.7973 -0.6985
5512000000.0 -1.017 0.1418
5516000000.0 -0.5638 0.8927
5519000000.0 0.3535 1.039
5522000000.0 1.011 0.3627
5525000000.0 0.9719 -0.474
5528000000.0 0.2261 -1.016
5531000000.0 -0.6458 -0.8327
5534000000.0 -1.048 -0.04924
5538000000.0 -0.7326 0.7804
5541000000.0 0.1366 1.042
5544000000.0 0.9197 0.5486
5547000000.0 0.9881 -0.3262
5550000000.0 0.3852 -0.9839
5553000000.0 -0.5614 -0.9222
5556000000.0 -1.041 -0.2059
5559000000.0 -0.7954 0.706
5562000000.0 -0.002069 1.083
5566000000.0 0.8048 0.6568
5569000000.0 0.9745 -0.2133
5572000000.0 0.5069 -0.8781
5575000000.0 -0.383 -0.9274
5578000000.0 -0.9255 -0.2856
5581000000.0 -0.7947 0.5766
5584000000.0 -0.09338 0.9645
5588000000.0 0.6782 0.6546
5591000000.0 0.9146 -0.09009
5594000000.0 0.5288 -0.7721
5597000000.0 -0.2819 -0.8754
5600000000.0 -0.8676 -0.321
5603000000.0 -0.7587 0.3929
5606000000.0 -0.1407 0.8662
5609000000.0 0.5941 0.6731
5612000000.0 0.8737 -0.0493
5616000000.0 0.4747 -0.6724
5619000000.0 -0.2008 -0.8221
5622000000.0 -0.756 -0.334
5625000000.0 -0.7499 0.3983
5628000000.0 -0.1766 0.8176
5631000000.0 0.535 0.6167
5634000000.0 0.8299 -0.03191
5638000000.0 0.4994 -0.666
5641000000.0 -0.1982 -0.7805
5644000000.0 -0.7611 -0.359
5647000000.0 -0.7417 0.3877
5650000000.0 -0.169 0.7989
5653000000.0 0.5302 0.6615
5656000000.0 0.8573 -0.03471
5659000000.0 0.523 -0.6789
5662000000.0 -0.1914 -0.8548
5666000000.0 -0.8091 -0.3831
5669000000.0 -0.8093 0.3946
5672000000.0 -0.208 0.8946
5675000000.0 0.5758 0.7262
5678000000.0 0.9444 0.0009662
5681000000.0 0.6243 -0.7289
5684000000.0 -0.1817 -0.9425
5688000000.0 -0.8531 -0.4646
5691000000.0 -0.9125 0.4081
5694000000.0 -0.269 0.9765
5697000000.0 0.5618 0.8069
5700000000.0 1.036 0.05289
5703000000.0 0.7299 -0.7486
5706000000.0 -0.1438 -1.006
5709000000.0 -0.9257 -0.5601
5712000000.0 -1.011 0.3245
5716000000.0 -0.3767 1.005
5719000000.0 0.5417 0.9373
5722000000.0 1.062 0.1977
5725000000.0 0.873 -0.7055
5728000000.0 -0.03466 -1.104
5731000000.0 -0.8653 -0.6859
5734000000.0 -1.065 0.2279
5738000000.0 -0.5246 0.9675
5741000000.0 0.4354 0.9901
5744000000.0 1.066 0.3323
5747000000.0 0.9339 -0.6117
5750000000.0 0.1474 -1.099
5753000000.0 -0.7749 -0.8355
5756000000.0 -1.149 0.06688
5759000000.0 -0.6554 0.9181
5762000000.0 0.302 1.101
5766000000.0 1.009 0.5139
5769000000.0 1.003 -0.4398
5772000000.0 0.2792 -1.058
5775000000.0 -0.6276 -0.9043
5778000000.0 -1.09 -0.1143
5781000000.0 -0.7903 0.7573
5784000000.0 0.1261 1.099
5788000000.0 0.8862 0.5598
5791000000.0 1.042 -0.2881
5794000000.0 0.417 -0.9874
5797000000.0 -0.5046 -0.9486
5800000000.0 -1.047 -0.2156
5803000000.0 -0.8047 0.6656
5806000000.0 -0.0125 1.039
5809000000.0 0.8167 0.6557
5812000000.0 1.03 -0.1929
5816000000.0 0.501 -0.8952
5819000000.0 -0.3855 -0.9146
5822000000.0 -0.9757 -0.3001
5825000000.0 -0.8054 0.5231
5828000000.0 -0.07044 0.9756
5831000000.0 0.7017 0.6651
5834000000.0 0.9558 -0.1456
5838000000.0 0.4786 -0.824
5841000000.0 -0.3222 -0.9048
5844000000.0 -0.9048 -0.3077
5847000000.0 -0.7992 0.4861
5850000000.0 -0.07869 0.8762
5853000000.0 0.629 0.6453
5856000000.0 0.8976 -0.129
5859000000.0 0.4633 -0.803
5862000000.0 -0.2758 -0.8473
5866000000.0 -0.8381 -0.2869
5869000000.0 -0.7706 0.5064
5872000000.0 -0.1278 0.8776
5875000000.0 0.6204 0.5875
5878000000.0 0.8749 -0.08613
5881000000.0 0.4695 -0.7149
5884000000.0 -0.2707 -0.8045
5888000000.0 -0.8179 -0.2807
5891000000.0 -0.7561 0.4559
5894000000.0 -0.133 0.8637
5897000000.0 0.5944 0.6612
5900000000.0 0.8765 -0.05563
5903000000.0 0.524 -0.7326
5906000000.0 -0.2113 -0.846
5909000000.0 -0.8253 -0.3869
5912000000.0 -0.7873 0.3861
5916000000.0 -0.2196 0.8477
5919000000.0 0.5476 0.6897
5922000000.0 0.8933 0.02333
5925000000.0 0.6378 -0.6701
5928000000.0 -0.1318 -0.9006
5931000000.0 -0.784 -0.4612
5934000000.0 -0.8809 0.3091
5938000000.0 -0.3287 0.8483
5941000000.0 0.4894 0.8067
5944000000.0 0.9337 0.18
5947000000.0 0.7087 -0.6316
5950000000.0 0.001152 -0.9457
5953000000.0 -0.748 -0.5797
5956000000.0 -0.9605 0.2073
5959000000.0 -0.4581 0.8675
5962000000.0 0.3833 0.8974
5966000000.0 0.949 0.2919
5969000000.0 0.8502 -0.5241
5972000000.0 0.1271 -1.008
5975000000.0 -0.6946 -0.7241
5978000000.0 -1.018 0.05954
5981000000.0 -0.6128 0.8349
5984000000.0 0.2506 0.9952
5988000000.0 0.9579 0.439
5991000000.0 0.9232 -0.4468
5994000000.0 0.2466 -1.01
5997000000.0 -0.6163 -0.8345
6000000000.0 -1.031 -0.009899
6003000000.0 -0.697 0.7527
6006000000.0 0.1555 0.9759
6009000000.0 0.8889 0.5024
6012000000.0 0.93 -0.3369
6016000000.0 0.3167 -0.9287
6019000000.0 -0.5534 -0.8398
6022000000.0 -0.9573 -0.09288
6025000000.0 -0.67 0.6895
6028000000.0 0.1068 0.9859
6031000000.0 0.7961 0.485
6034000000.0 0.8847 -0.3108
6038000000.0 0.2875 -0.8803
6041000000.0 -0.4855 -0.7929
6044000000.0 -0.9184 -0.127
6047000000.0 -0.6754 0.6397
6050000000.0 0.06791 0.8963
6053000000.0 0.7355 0.4944
6056000000.0 0.8685 -0.2935
6059000000.0 0.2989 -0.8239
6062000000.0 -0.4581 -0.7616
6066000000.0 -0.8855 -0.1426
6069000000.0 -0.6607 0.6001
6072000000.0 0.06325 0.8619
6075000000.0 0.6908 0.484
6078000000.0 0.8102 -0.2237
6081000000.0 0.3195 -0.7926
6084000000.0 -0.4035 -0.7708
6088000000.0 -0.8363 -0.1635
6091000000.0 -0.6353 0.5422
6094000000.0 0.03211 0.8207
6097000000.0 0.7003 0.4942
6100000000.0 0.8416 -0.2121
6103000000.0 0.3755 -0.8081
6106000000.0 -0.407 -0.78
6109000000.0 -0.8691 -0.1934
6112000000.0 -0.6575 0.5354
6116000000.0 -0.01024 0.87
6119000000.0 0.7282 0.5613
6122000000.0 0.8813 -0.1991
6125000000.0 0.3947 -0.8295
6128000000.0 -0.3899 -0.8482
6131000000.0 -0.9202 -0.2239
6134000000.0 -0.7482 0.5233
6138000000.0 -0.05712 0.9515
6141000000.0 0.7053 0.6362
6144000000.0 0.9356 -0.1463
6147000000.0 0.4697 -0.84
6150000000.0 -0.3637 -0.8824
6153000000.0 -0.9395 -0.2552
6156000000.0 -0.8448 0.5193
6159000000.0 -0.134 0.9648
6162000000.0 0.7159 0.7025
6166000000.0 0.9665 -0.1334
6169000000.0 0.5548 -0.8275
6172000000.0 -0.3294 -0.9471
6175000000.0 -0.9459 -0.3538
6178000000.0 -0.8709 0.4817
6181000000.0 -0.1342 0.9832
6184000000.0 0.6436 0.7437
6188000000.0 0.988 -0.06439
6191000000.0 0.5731 -0.8349
6194000000.0 -0.2323 -0.959
6197000000.0 -0.906 -0.3877
6200000000.0 -0.8803 0.4469
6203000000.0 -0.222 0.9151
6206000000.0 0.5799 0.7738
6209000000.0 0.9578 -0.001101
6212000000.0 0.6072 -0.6889
6216000000.0 -0.1598 -0.9148
6219000000.0 -0.8264 -0.4385
6222000000.0 -0.8836 0.3296
6225000000.0 -0.2563 0.8939
6228000000.0 0.466 0.7529
6231000000.0 0.8559 0.1256
6234000000.0 0.6594 -0.6056
6238000000.0 -0.0579 -0.8565
6241000000.0 -0.7106 -0.5067
6244000000.0 -0.8407 0.212
6247000000.0 -0.3144 0.8197
6250000000.0 0.3728 0.7587
6253000000.0 0.8434 0.137
6256000000.0 0.6324 -0.4833
6259000000.0 -0.003231 -0.8228
6262000000.0 -0.6287 -0.5207
6266000000.0 -0.7958 0.1944
6269000000.0 -0.3797 0.685
