! Created with skrf 1.8.0 (http://scikit-rf.org).
# Hz S RI R 50.0 
!freq ReS11 ImS11
4000000000.0 -0.1576 -1.459
4003000000.0 -1.25 -0.8199
4006000000.0 -1.452 0.4845
4009000000.0 -0.5429 1.403
4012000000.0 0.7589 1.315
4016000000.0 1.494 0.1627
4019000000.0 1.102 -1.085
4022000000.0 -0.1285 -1.553
4025000000.0 -1.295 -0.8944
4028000000.0 -1.565 0.4272
4031000000.0 -0.5692 1.467
4034000000.0 0.8134 1.383
4038000000.0 1.632 0.242
4041000000.0 1.213 -1.097
4044000000.0 -0.1076 -1.622
4047000000.0 -1.348 -0.9154
4050000000.0 -1.537 0.4813
4053000000.0 -0.6468 1.493
4056000000.0 0.7045 1.406
4059000000.0 1.6 0.3388
4062000000.0 1.288 -0.9744
4066000000.0 -0.01175 -1.62
4069000000.0 -1.197 -1.033
4072000000.0 -1.568 0.2807
4075000000.0 -0.7842 1.414
4078000000.0 0.5604 1.561
4081000000.0 1.533 0.5696
4084000000.0 1.449 -0.8416
4088000000.0 0.2516 -1.651
4091000000.0 -1.135 -1.238
4094000000.0 -1.664 0.06329
4097000000.0 -1.003 1.337
4100000000.0 0.3659 1.58
4103000000.0 1.421 0.7249
4106000000.0 1.437 -0.6215
4109000000.0 0.4277 -1.49
4112000000.0 -0.8322 -1.288
4116000000.0 -1.5 -0.193
4119000000.0 -1.113 0.9776
4122000000.0 0.03321 1.477
4125000000.0 1.103 0.9768
4128000000.0 1.486 -0.2224
4131000000.0 0.8073 -1.266
4134000000.0 -0.4284 -1.405
4138000000.0 -1.382 -0.6393
4141000000.0 -1.351 0.6407
4144000000.0 -0.3774 1.475
4147000000.0 0.8639 1.225
4150000000.0 1.491 0.1262
4153000000.0 1.109 -1.048
4156000000.0 -0.1046 -1.545
4159000000.0 -1.234 -0.8786
4162000000.0 -1.465 0.3695
4166000000.0 -0.6569 1.352
4169000000.0 0.6014 1.362
4172000000.0 1.415 0.4312
4175000000.0 1.235 -0.8463
4178000000.0 0.1261 -1.491
4181000000.0 -1.043 -1.084
4184000000.0 -1.499 0.07138
4188000000.0 -0.8763 1.245
4191000000.0 0.3584 1.456
4194000000.0 1.406 0.6521
4197000000.0 1.413 -0.6656
4200000000.0 0.3782 -1.55
4203000000.0 -0.9546 -1.254
4206000000.0 -1.605 -0.05994
4209000000.0 -1.064 1.231
4212000000.0 0.3481 1.63
4216000000.0 1.499 0.7513
4219000000.0 1.54 -0.7394
4222000000.0 0.3259 -1.678
4225000000.0 -1.116 -1.272
4228000000.0 -1.653 0.1115
4231000000.0 -0.9226 1.405
4234000000.0 0.5043 1.569
4238000000.0 1.56 0.511
4241000000.0 1.395 -0.9144
4244000000.0 0.1262 -1.596
4247000000.0 -1.195 -1.056
4250000000.0 -1.564 0.3021
4253000000.0 -0.6975 1.406
4256000000.0 0.6696 1.406
4259000000.0 1.499 0.2963
4262000000.0 1.165 -0.9965
4266000000.0 -0.05556 -1.504
4269000000.0 -1.202 -0.8838
4272000000.0 -1.401 0.4344
4275000000.0 -0.5205 1.359
4278000000.0 0.7418 1.241
4281000000.0 1.433 0.1915
4284000000.0 1.036 -0.9863
4288000000.0 -0.1182 -1.367
4291000000.0 -1.147 -0.7608
4294000000.0 -1.277 0.4089
4297000000.0 -0.4869 1.242
4300000000.0 0.6455 1.167
4303000000.0 1.299 0.2177
4306000000.0 1.013 -0.8388
4309000000.0 0.01856 -1.302
4312000000.0 -0.9695 -0.8526
4316000000.0 -1.265 0.2211
4319000000.0 -0.6828 1.133
4322000000.0 0.4075 1.213
4325000000.0 1.228 0.4986
4328000000.0 1.169 -0.6085
4331000000.0 0.298 -1.308
4334000000.0 -0.8468 -1.072
4338000000.0 -1.375 -0.04523
4341000000.0 -0.929 1.067
4344000000.0 0.2009 1.385
4347000000.0 1.244 0.7275
4350000000.0 1.375 -0.4914
4353000000.0 0.4736 -1.348
4356000000.0 -0.731 -1.234
4359000000.0 -1.457 -0.2414
4362000000.0 -1.092 0.9276
4366000000.0 -0.006759 1.427
4369000000.0 1.163 0.9371
4372000000.0 1.451 -0.2949
4375000000.0 0.7061 -1.288
4378000000.0 -0.5343 -1.391
4381000000.0 -1.432 -0.4704
4384000000.0 -1.296 0.828
4388000000.0 -0.1826 1.533
4391000000.0 1.071 1.121
4394000000.0 1.564 -0.1611
4397000000.0 0.887 -1.331
4400000000.0 -0.5464 -1.508
4403000000.0 -1.494 -0.5765
4406000000.0 -1.347 0.8577
4409000000.0 -0.1747 1.566
4412000000.0 1.12 1.132
4416000000.0 1.527 -0.175
4419000000.0 0.8261 -1.294
4422000000.0 -0.5627 -1.413
4425000000.0 -1.399 -0.46
4428000000.0 -1.21 0.8521
4431000000.0 -0.1063 1.449
4434000000.0 1.08 0.9597
4438000000.0 1.407 -0.2498
4441000000.0 0.6388 -1.237
4444000000.0 -0.5542 -1.26
4447000000.0 -1.329 -0.3237
4450000000.0 -1.026 0.8373
4453000000.0 0.0282 1.332
4456000000.0 1.073 0.7956
4459000000.0 1.241 -0.3386
4462000000.0 0.4533 -1.178
4466000000.0 -0.6422 -1.114
4469000000.0 -1.225 -0.1253
4472000000.0 -0.8906 0.8152
4475000000.0 0.157 1.201
4478000000.0 1.01 0.6107
4481000000.0 1.118 -0.4248
4484000000.0 0.3661 -1.11
4488000000.0 -0.6349 -0.9464
4491000000.0 -1.123 -0.08086
4494000000.0 -0.7971 0.849
4497000000.0 0.1637 1.15
4500000000.0 0.9591 0.5575
4503000000.0 1.026 -0.398
4506000000.0 0.3475 -1.042
4509000000.0 -0.6066 -0.9133
4512000000.0 -1.095 -0.1278
4516000000.0 -0.7758 0.7671
4519000000.0 0.1109 1.12
4522000000.0 0.9436 0.5967
4525000000.0 1.106 -0.348
4528000000.0 0.3937 -1.079
4531000000.0 -0.5559 -0.9978
4534000000.0 -1.124 -0.2004
4538000000.0 -0.8798 0.7583
4541000000.0 0.03836 1.18
4544000000.0 0.9279 0.7395
4547000000.0 1.157 -0.2376
4550000000.0 0.5537 -1.065
4553000000.0 -0.4434 -1.131
4556000000.0 -1.188 -0.3752
4559000000.0 -1.057 0.6467
4562000000.0 -0.1755 1.236
4566000000.0 0.8555 0.9175
4569000000.0 1.286 -0.016
4572000000.0 0.7518 -1.024
4575000000.0 -0.2823 -1.269
4578000000.0 -1.149 -0.6284
4581000000.0 -1.235 0.5134
4584000000.0 -0.3666 1.279
4588000000.0 0.709 1.121
4591000000.0 1.353 0.1636
4594000000.0 0.9688 -0.9297
4597000000.0 -0.102 -1.388
4600000000.0 -1.14 -0.7941
4603000000.0 -1.336 0.3776
4606000000.0 -0.5582 1.259
4609000000.0 0.6297 1.249
4612000000.0 1.364 0.331
4616000000.0 1.071 -0.8404
4619000000.0 0.03641 -1.4
4622000000.0 -1.072 -0.9099
4625000000.0 -1.386 0.2352
4628000000.0 -0.659 1.229
4631000000.0 0.5208 1.291
4634000000.0 1.311 0.3798
4638000000.0 1.15 -0.776
4641000000.0 0.1078 -1.349
4644000000.0 -0.9997 -0.9111
4647000000.0 -1.339 0.1489
4650000000.0 -0.676 1.11
4653000000.0 0.4835 1.226
4656000000.0 1.252 0.3958
4659000000.0 1.067 -0.7394
4662000000.0 0.07918 -1.273
4666000000.0 -0.9352 -0.8215
4669000000.0 -1.235 0.1858
4672000000.0 -0.6127 1.049
4675000000.0 0.4457 1.088
4678000000.0 1.097 0.3012
4681000000.0 0.9206 -0.6708
4684000000.0 0.04557 -1.127
4688000000.0 -0.8361 -0.789
4691000000.0 -1.123 0.1874
4694000000.0 -0.4966 0.9922
4697000000.0 0.4382 1.018
4700000000.0 1.061 0.2807
4703000000.0 0.8852 -0.6395
4706000000.0 0.02079 -1.092
4709000000.0 -0.8143 -0.7094
4712000000.0 -1.082 0.2159
4716000000.0 -0.4912 0.9611
4719000000.0 0.4282 0.9353
4722000000.0 1.041 0.2705
4725000000.0 0.8234 -0.6394
4728000000.0 0.01803 -1.07
4731000000.0 -0.7903 -0.6914
4734000000.0 -1.024 0.1908
4738000000.0 -0.5404 0.89
4741000000.0 0.3707 1.01
4744000000.0 0.978 0.3556
4747000000.0 0.9049 -0.5561
4750000000.0 0.1371 -1.065
4753000000.0 -0.7252 -0.8192
4756000000.0 -1.071 0.06211
4759000000.0 -0.6732 0.8968
4762000000.0 0.2365 1.083
4766000000.0 0.9999 0.5008
4769000000.0 1.036 -0.4268
4772000000.0 0.3326 -1.109
4775000000.0 -0.6108 -0.9653
4778000000.0 -1.177 -0.1407
4781000000.0 -0.8658 0.7957
4784000000.0 0.05948 1.174
4788000000.0 0.9549 0.749
4791000000.0 1.207 -0.2764
4794000000.0 0.557 -1.079
4797000000.0 -0.46 -1.153
4800000000.0 -1.209 -0.3775
4803000000.0 -1.062 0.6336
4806000000.0 -0.1472 1.25
4809000000.0 0.8615 0.9279
4812000000.0 1.303 -0.01847
4816000000.0 0.7917 -1.039
4819000000.0 -0.2528 -1.295
4822000000.0 -1.216 -0.6281
4825000000.0 -1.246 0.5283
4828000000.0 -0.3936 1.303
4831000000.0 0.7826 1.172
4834000000.0 1.381 0.1292
4838000000.0 0.9983 -0.9953
4841000000.0 -0.1371 -1.398
4844000000.0 -1.151 -0.7854
4847000000.0 -1.327 0.3957
4850000000.0 -0.546 1.301
4853000000.0 0.6518 1.218
4856000000.0 1.366 0.2714
4859000000.0 1.033 -0.8914
4862000000.0 -0.01128 -1.342
4866000000.0 -1.052 -0.8301
4869000000.0 -1.297 0.2699
4872000000.0 -0.5682 1.162
4875000000.0 0.5512 1.186
4878000000.0 1.266 0.3156
4881000000.0 1.015 -0.7606
4884000000.0 0.0407 -1.281
4888000000.0 -0.938 -0.8179
4891000000.0 -1.157 0.174
4894000000.0 -0.5741 1.068
4897000000.0 0.4619 1.085
4900000000.0 1.12 0.3146
4903000000.0 0.9441 -0.6484
4906000000.0 0.09145 -1.093
4909000000.0 -0.7756 -0.735
4912000000.0 -1.045 0.1202
4916000000.0 -0.5341 0.8604
4919000000.0 0.345 0.9778
4922000000.0 0.923 0.3825
4925000000.0 0.8324 -0.5031
4928000000.0 0.1503 -0.9565
4931000000.0 -0.6344 -0.7027
4934000000.0 -0.929 0.04062
4938000000.0 -0.5838 0.7371
4941000000.0 0.2299 0.9256
4944000000.0 0.8658 0.4193
4947000000.0 0.8525 -0.399
4950000000.0 0.2335 -0.9131
4953000000.0 -0.5885 -0.7599
4956000000.0 -0.9296 -0.03675
4959000000.0 -0.6186 0.7229
4962000000.0 0.1395 0.9579
4966000000.0 0.8417 0.4854
4969000000.0 0.9293 -0.3533
4972000000.0 0.3183 -0.9659
4975000000.0 -0.5583 -0.8465
4978000000.0 -1.032 -0.1228
4981000000.0 -0.759 0.7185
4984000000.0 0.07036 1.022
4988000000.0 0.846 0.5896
4991000000.0 1.029 -0.2607
4994000000.0 0.4702 -0.952
4997000000.0 -0.4518 -0.9978
5000000000.0 -1.094 -0.287
5003000000.0 -0.9322 0.6651
5006000000.0 -0.09043 1.159
5009000000.0 0.8379 0.8254
5012000000.0 1.194 -0.1408
5016000000.0 0.6809 -1.017
5019000000.0 -0.4019 -1.169
5022000000.0 -1.16 -0.4382
5025000000.0 -1.097 0.6054
5028000000.0 -0.2316 1.264
5031000000.0 0.7714 0.9998
5034000000.0 1.298 0.01586
5038000000.0 0.8288 -0.975
5041000000.0 -0.2246 -1.26
5044000000.0 -1.135 -0.6204
5047000000.0 -1.228 0.4515
5050000000.0 -0.444 1.204
5053000000.0 0.6621 1.115
5056000000.0 1.273 0.1879
5059000000.0 1.001 -0.8542
5062000000.0 -0.001233 -1.298
5066000000.0 -1.045 -0.8127
5069000000.0 -1.282 0.28
5072000000.0 -0.6134 1.165
5075000000.0 0.4873 1.213
5078000000.0 1.244 0.3565
5081000000.0 1.048 -0.6811
5084000000.0 0.1431 -1.249
5088000000.0 -0.8571 -0.877
5091000000.0 -1.209 0.08475
5094000000.0 -0.7224 0.97
5097000000.0 0.2754 1.138
5100000000.0 1.018 0.5065
5103000000.0 1.012 -0.4568
5106000000.0 0.3355 -1.074
5109000000.0 -0.597 -0.9323
5112000000.0 -1.049 -0.1301
5116000000.0 -0.7786 0.754
5119000000.0 0.06719 1.072
5122000000.0 0.8317 0.6441
5125000000.0 1.017 -0.2689
5128000000.0 0.4561 -0.9144
5131000000.0 -0.4137 -0.9548
5134000000.0 -0.9783 -0.2554
5138000000.0 -0.7979 0.5956
5141000000.0 -0.03484 0.969
5144000000.0 0.6949 0.6228
5147000000.0 0.9355 -0.1369
5150000000.0 0.5098 -0.7846
5153000000.0 -0.302 -0.8582
5156000000.0 -0.8594 -0.3043
5159000000.0 -0.8038 0.4552
5162000000.0 -0.1321 0.8923
5166000000.0 0.5823 0.6654
5169000000.0 0.8746 -0.05683
5172000000.0 0.5344 -0.7459
5175000000.0 -0.2471 -0.885
5178000000.0 -0.8018 -0.3702
5181000000.0 -0.7993 0.4271
5184000000.0 -0.1889 0.9016
5188000000.0 0.5722 0.7292
5191000000.0 0.9243 -0.01799
5194000000.0 0.5622 -0.7259
5197000000.0 -0.2274 -0.9124
5200000000.0 -0.8469 -0.3719
5203000000.0 -0.8333 0.4288
5206000000.0 -0.1993 0.9421
5209000000.0 0.6069 0.7369
5212000000.0 0.9968 -0.01026
5216000000.0 0.6265 -0.7284
5219000000.0 -0.1862 -0.9643
5222000000.0 -0.8673 -0.4337
5225000000.0 -0.9254 0.4155
5228000000.0 -0.2304 0.974
5231000000.0 0.5951 0.8155
5234000000.0 0.9997 0.07228
5238000000.0 0.6935 -0.7609
5241000000.0 -0.1118 -1.057
5244000000.0 -0.8581 -0.581
5247000000.0 -1.0 0.3306
5250000000.0 -0.3624 1.0
5253000000.0 0.5241 0.9447
5256000000.0 1.045 0.1772
5259000000.0 0.8362 -0.6906
5262000000.0 0.01223 -1.079
5266000000.0 -0.8265 -0.6996
5269000000.0 -1.056 0.1689
5272000000.0 -0.5656 0.9392
5275000000.0 0.3566 1.03
5278000000.0 1.011 0.3824
5281000000.0 0.9649 -0.5194
5284000000.0 0.2175 -1.057
5288000000.0 -0.6556 -0.8895
5291000000.0 -1.112 -0.04952
5294000000.0 -0.7813 0.8221
5297000000.0 0.1259 1.118
5300000000.0 0.9389 0.6362
5303000000.0 1.107 -0.3246
5306000000.0 0.4924 -1.038
5309000000.0 -0.4821 -1.054
5312000000.0 -1.107 -0.3066
5316000000.0 -0.9369 0.6602
5319000000.0 -0.1017 1.134
5322000000.0 0.8102 0.7949
5325000000.0 1.178 -0.08709
5328000000.0 0.6544 -0.9291
5331000000.0 -0.2918 -1.111
5334000000.0 -1.036 -0.4567
5338000000.0 -1.008 0.5248
5341000000.0 -0.2582 1.116
5344000000.0 0.69 0.9121
5347000000.0 1.126 0.05141
5350000000.0 0.7191 -0.8271
5353000000.0 -0.1838 -1.081
5356000000.0 -0.974 -0.5396
5359000000.0 -1.057 0.3716
5362000000.0 -0.3659 1.043
5366000000.0 0.5663 0.9157
5369000000.0 1.053 0.1408
5372000000.0 0.7647 -0.724
5375000000.0 -0.1148 -0.9942
5378000000.0 -0.8823 -0.5393
5381000000.0 -0.9855 0.3502
5384000000.0 -0.3511 0.962
5388000000.0 0.5499 0.858
5391000000.0 0.9478 0.11
5394000000.0 0.6799 -0.6695
5397000000.0 -0.09159 -0.9107
5400000000.0 -0.7951 -0.4902
5403000000.0 -0.8634 0.2853
5406000000.0 -0.2739 0.8729
5409000000.0 0.4813 0.7281
5412000000.0 0.8751 0.07838
5416000000.0 0.6185 -0.6224
5419000000.0 -0.1326 -0.842
5422000000.0 -0.7561 -0.4431
5425000000.0 -0.8104 0.2927
5428000000.0 -0.2664 0.861
5431000000.0 0.4684 0.7281
5434000000.0 0.8748 0.07292
5438000000.0 0.5772 -0.631
5441000000.0 -0.147 -0.8877
5444000000.0 -0.7495 -0.4615
5447000000.0 -0.8224 0.3125
5450000000.0 -0.2804 0.8448
5453000000.0 0.5013 0.7131
5456000000.0 0.854 0.07797
5459000000.0 0.641 -0.6118
5462000000.0 -0.09289 -0.8845
5466000000.0 -0.7245 -0.499
5469000000.0 -0.8624 0.2436
5472000000.0 -0.398 0.8298
5475000000.0 0.3964 0.8448
5478000000.0 0.8982 0.2592
5481000000.0 0.7579 -0.556
5484000000.0 0.07531 -0.969
5488000000.0 -0.7081 -0.6701
5491000000.0 -0.9676 0.1199
5494000000.0 -0.5501 0.8131
5497000000.0 0.3034 0.9424
5500000000.0 0.9278 0.4266
5503000000.0 0.9142 -0.4779
5506000000.0 0.2142 -0.969
5509000000.0 -0.6168 -0.8379
5512000000.0 -1.03 -0.0546
5516000000.0 -0.7584 0.789
5519000000.0 0.1066 1.023
5522000000.0 0.8801 0.5765
5525000000.0 0.9988 -0.2781
5528000000.0 0.4283 -0.9907
5531000000.0 -0.4661 -0.9461
5534000000.0 -1.048 -0.2502
5538000000.0 -0.8497 0.5941
5541000000.0 -0.1094 1.003
5544000000.0 0.7991 0.7785
5547000000.0 1.026 -0.09258
5550000000.0 0.5838 -0.8997
5553000000.0 -0.3241 -1.009
5556000000.0 -0.9772 -0.4434
5559000000.0 -0.9556 0.4774
5562000000.0 -0.2519 1.043
5566000000.0 0.6365 0.8296
5569000000.0 1.056 0.04976
5572000000.0 0.7091 -0.757
5575000000.0 -0.142 -1.022
5578000000.0 -0.8889 -0.5417
5581000000.0 -0.9307 0.339
5584000000.0 -0.3867 0.943
5588000000.0 0.4573 0.8371
5591000000.0 0.9466 0.1529
5594000000.0 0.7273 -0.6271
5597000000.0 -0.009538 -0.9638
5600000000.0 -0.7294 -0.5839
5603000000.0 -0.9042 0.2034
5606000000.0 -0.4208 0.8012
5609000000.0 0.3688 0.8101
5612000000.0 0.8458 0.2587
5616000000.0 0.7345 -0.5376
5619000000.0 0.05158 -0.89
5622000000.0 -0.6415 -0.563
5625000000.0 -0.8592 0.1149
5628000000.0 -0.4198 0.7489
5631000000.0 0.3139 0.7861
5634000000.0 0.8184 0.2223
5638000000.0 0.708 -0.4928
5641000000.0 0.0722 -0.8342
5644000000.0 -0.6117 -0.5704
5647000000.0 -0.8256 0.09838
5650000000.0 -0.4353 0.7344
5653000000.0 0.2788 0.7904
5656000000.0 0.8204 0.2751
5659000000.0 0.7182 -0.4723
5662000000.0 0.07409 -0.8676
5666000000.0 -0.626 -0.6123
5669000000.0 -0.8779 0.1039
5672000000.0 -0.4661 0.7548
5675000000.0 0.3073 0.842
5678000000.0 0.8604 0.2947
5681000000.0 0.7933 -0.472
5684000000.0 0.07526 -0.9439
5688000000.0 -0.6646 -0.6941
5691000000.0 -0.9429 0.09366
5694000000.0 -0.5616 0.8053
5697000000.0 0.3058 0.9475
5700000000.0 0.9257 0.3567
5703000000.0 0.8539 -0.4735
5706000000.0 0.181 -1.022
5709000000.0 -0.6746 -0.7707
5712000000.0 -1.015 0.0522
5716000000.0 -0.6214 0.8163
5719000000.0 0.2351 1.007
5722000000.0 0.9455 0.4438
5725000000.0 0.956 -0.4562
5728000000.0 0.2679 -1.041
5731000000.0 -0.5936 -0.8752
5734000000.0 -1.095 -0.0977
5738000000.0 -0.793 0.7474
5741000000.0 0.1662 1.068
5744000000.0 0.8978 0.5996
5747000000.0 1.082 -0.2891
5750000000.0 0.448 -1.011
5753000000.0 -0.491 -0.9972
5756000000.0 -1.092 -0.25
5759000000.0 -0.9231 0.6985
5762000000.0 -0.07259 1.119
5766000000.0 0.7827 0.7502
5769000000.0 1.11 -0.1444
5772000000.0 0.6001 -0.9548
5775000000.0 -0.3027 -1.058
5778000000.0 -1.025 -0.4281
5781000000.0 -0.9527 0.4757
5784000000.0 -0.2092 1.094
5788000000.0 0.6609 0.8531
5791000000.0 1.092 0.03158
5794000000.0 0.704 -0.7993
5797000000.0 -0.1311 -1.07
5800000000.0 -0.9575 -0.5769
5803000000.0 -1.003 0.3424
5806000000.0 -0.3998 1.001
5809000000.0 0.4999 0.9126
5812000000.0 1.083 0.2046
5816000000.0 0.7635 -0.6653
5819000000.0 -0.02984 -1.038
5822000000.0 -0.807 -0.6367
5825000000.0 -0.9901 0.2181
5828000000.0 -0.4591 0.8752
5831000000.0 0.4122 0.9203
5834000000.0 0.941 0.2924
5838000000.0 0.8153 -0.5345
5841000000.0 0.08059 -0.936
5844000000.0 -0.7249 -0.6315
5847000000.0 -0.9228 0.141
5850000000.0 -0.4746 0.8269
5853000000.0 0.3127 0.8982
5856000000.0 0.8945 0.2664
5859000000.0 0.7873 -0.5196
5862000000.0 0.08551 -0.9335
5866000000.0 -0.6352 -0.6314
5869000000.0 -0.9049 0.1178
5872000000.0 -0.4416 0.7697
5875000000.0 0.3141 0.8457
5878000000.0 0.842 0.2904
5881000000.0 0.7552 -0.4549
5884000000.0 0.1133 -0.9108
5888000000.0 -0.6003 -0.6185
5891000000.0 -0.8515 0.07866
5894000000.0 -0.4836 0.7059
5897000000.0 0.2498 0.8358
5900000000.0 0.7878 0.3288
5903000000.0 0.7557 -0.4386
5906000000.0 0.1656 -0.8388
5909000000.0 -0.5572 -0.666
5912000000.0 -0.8772 0.0002859
5916000000.0 -0.5612 0.6605
5919000000.0 0.1803 0.866
5922000000.0 0.7465 0.3993
5925000000.0 0.7833 -0.3422
5928000000.0 0.2232 -0.8453
5931000000.0 -0.5109 -0.7255
5934000000.0 -0.8826 -0.1042
5938000000.0 -0.6108 0.6221
5941000000.0 0.06371 0.9091
5944000000.0 0.7535 0.5394
5947000000.0 0.839 -0.2262
5950000000.0 0.3532 -0.8268
5953000000.0 -0.4105 -0.8104
5956000000.0 -0.8867 -0.1948
5959000000.0 -0.738 0.5625
5962000000.0 -0.06489 0.918
5966000000.0 0.6764 0.6283
5969000000.0 0.9392 -0.08751
5972000000.0 0.5586 -0.7848
5975000000.0 -0.2705 -0.9431
5978000000.0 -0.8819 -0.3767
5981000000.0 -0.8788 0.4434
5984000000.0 -0.2046 0.9736
5988000000.0 0.5695 0.7853
5991000000.0 1.001 0.03078
5994000000.0 0.687 -0.7345
5997000000.0 -0.1493 -0.9971
6000000000.0 -0.8665 -0.5356
6003000000.0 -0.9425 0.3229
6006000000.0 -0.3319 0.9075
6009000000.0 0.4755 0.8637
6012000000.0 0.9625 0.1731
6016000000.0 0.7423 -0.6665
6019000000.0 -0.03462 -1.017
6022000000.0 -0.7802 -0.62
6025000000.0 -0.9569 0.228
6028000000.0 -0.4426 0.8948
6031000000.0 0.4066 0.8856
6034000000.0 0.9443 0.2589
6038000000.0 0.7797 -0.549
6041000000.0 0.06163 -0.9632
6044000000.0 -0.7101 -0.6519
6047000000.0 -0.9365 0.157
6050000000.0 -0.4829 0.8149
6053000000.0 0.3184 0.8878
6056000000.0 0.8755 0.3055
6059000000.0 0.7589 -0.4804
6062000000.0 0.1256 -0.9287
6066000000.0 -0.6403 -0.6667
6069000000.0 -0.9032 0.06498
6072000000.0 -0.4895 0.7387
6075000000.0 0.2585 0.8461
6078000000.0 0.833 0.3236
6081000000.0 0.7611 -0.4267
6084000000.0 0.1665 -0.8562
6088000000.0 -0.5367 -0.6456
6091000000.0 -0.8397 0.02892
6094000000.0 -0.507 0.6933
6097000000.0 0.1794 0.8593
6100000000.0 0.7797 0.3797
6103000000.0 0.7652 -0.3737
6106000000.0 0.208 -0.8491
6109000000.0 -0.5453 -0.6802
6112000000.0 -0.8759 -0.02795
6116000000.0 -0.5529 0.647
6119000000.0 0.1522 0.8538
6122000000.0 0.7783 0.3752
6125000000.0 0.7896 -0.3608
6128000000.0 0.2262 -0.8456
6131000000.0 -0.5277 -0.6926
6134000000.0 -0.8938 -0.06825
6138000000.0 -0.5521 0.633
6141000000.0 0.1157 0.8409
6144000000.0 0.7547 0.4384
6147000000.0 0.8714 -0.2816
6150000000.0 0.3002 -0.8445
6153000000.0 -0.463 -0.7487
6156000000.0 -0.8811 -0.1012
6159000000.0 -0.6416 0.6275
6162000000.0 0.06219 0.9241
6166000000.0 0.7459 0.5386
6169000000.0 0.9127 -0.2529
6172000000.0 0.3905 -0.8456
6175000000.0 -0.4304 -0.838
6178000000.0 -0.9204 -0.2136
6181000000.0 -0.738 0.5905
6184000000.0 -0.02713 0.9517
6188000000.0 0.7355 0.6142
6191000000.0 0.9707 -0.1912
6194000000.0 0.4795 -0.8358
6197000000.0 -0.3322 -0.8599
6200000000.0 -0.9098 -0.3004
6203000000.0 -0.7868 0.4948
6206000000.0 -0.09418 0.9343
6209000000.0 0.6483 0.6617
6212000000.0 0.9495 -0.06951
6216000000.0 0.5223 -0.7732
6219000000.0 -0.2605 -0.9053
6222000000.0 -0.8448 -0.358
6225000000.0 -0.8209 0.4193
6228000000.0 -0.2205 0.8888
6231000000.0 0.5483 0.7053
6234000000.0 0.9089 0.03705
6238000000.0 0.5935 -0.6529
6241000000.0 -0.09492 -0.8779
6244000000.0 -0.7634 -0.4352
6247000000.0 -0.8273 0.259
6250000000.0 -0.3116 0.7649
6253000000.0 0.3807 0.7395
6256000000.0 0.796 0.1648
6259000000.0 0.6323 -0.4996
6262000000.0 0.0651 -0.8081
6266000000.0 -0.5901 -0.5503
6269000000.0 -0.8191 0.1194
