! Created with skrf 1.8.0 (http://scikit-rf.org).
# Hz S RI R 50.0 
!freq ReS11 ImS11
4000000000.0 -0.2018 -1.502
4003000000.0 -1.28 -0.7676
4006000000.0 -1.414 0.4608
4009000000.0 -0.5609 1.394
4012000000.0 0.7727 1.321
4016000000.0 1.516 0.19
4019000000.0 1.135 -1.056
4022000000.0 -0.08842 -1.556
4025000000.0 -1.298 -0.886
4028000000.0 -1.506 0.4194
4031000000.0 -0.612 1.533
4034000000.0 0.7751 1.381
4038000000.0 1.616 0.2111
4041000000.0 1.2 -1.054
4044000000.0 -0.1418 -1.569
4047000000.0 -1.367 -0.9407
4050000000.0 -1.597 0.4668
4053000000.0 -0.6415 1.472
4056000000.0 0.7398 1.443
4059000000.0 1.545 0.3581
4062000000.0 1.289 -0.9698
4066000000.0 0.06758 -1.621
4069000000.0 -1.184 -0.9966
4072000000.0 -1.595 0.2422
4075000000.0 -0.8885 1.425
4078000000.0 0.5501 1.518
4081000000.0 1.542 0.5778
4084000000.0 1.434 -0.8247
4088000000.0 0.2431 -1.634
4091000000.0 -1.091 -1.235
4094000000.0 -1.64 0.03566
4097000000.0 -0.978 1.269
4100000000.0 0.3598 1.561
4103000000.0 1.417 0.7287
4106000000.0 1.473 -0.6207
4109000000.0 0.4453 -1.521
4112000000.0 -0.8409 -1.286
4116000000.0 -1.498 -0.2459
4119000000.0 -1.1 0.9978
4122000000.0 -0.02179 1.505
4125000000.0 1.099 0.945
4128000000.0 1.466 -0.2318
4131000000.0 0.8174 -1.232
4134000000.0 -0.4393 -1.422
4138000000.0 -1.325 -0.5644
4141000000.0 -1.324 0.6182
4144000000.0 -0.3841 1.463
4147000000.0 0.8669 1.243
4150000000.0 1.518 0.1472
4153000000.0 1.085 -1.051
4156000000.0 -0.09103 -1.519
4159000000.0 -1.234 -0.8934
4162000000.0 -1.443 0.3699
4166000000.0 -0.6767 1.351
4169000000.0 0.6247 1.349
4172000000.0 1.442 0.4229
4175000000.0 1.226 -0.8386
4178000000.0 0.1852 -1.491
4181000000.0 -1.026 -1.074
4184000000.0 -1.486 0.0946
4188000000.0 -0.9055 1.222
4191000000.0 0.3624 1.482
4194000000.0 1.405 0.6735
4197000000.0 1.438 -0.6645
4200000000.0 0.3862 -1.498
4203000000.0 -0.9293 -1.285
4206000000.0 -1.593 -0.04181
4209000000.0 -1.071 1.227
4212000000.0 0.2869 1.602
4216000000.0 1.492 0.7472
4219000000.0 1.513 -0.7353
4222000000.0 0.349 -1.673
4225000000.0 -1.082 -1.294
4228000000.0 -1.663 0.09009
4231000000.0 -0.9431 1.369
4234000000.0 0.5223 1.567
4238000000.0 1.546 0.5604
4241000000.0 1.343 -0.9015
4244000000.0 0.1043 -1.619
4247000000.0 -1.204 -1.042
4250000000.0 -1.505 0.2966
4253000000.0 -0.6687 1.37
4256000000.0 0.6678 1.375
4259000000.0 1.51 0.3205
4262000000.0 1.17 -0.9759
4266000000.0 -0.003095 -1.497
4269000000.0 -1.234 -0.8884
4272000000.0 -1.414 0.4295
4275000000.0 -0.5093 1.359
4278000000.0 0.74 1.241
4281000000.0 1.375 0.1699
4284000000.0 1.019 -1.012
4288000000.0 -0.1377 -1.41
4291000000.0 -1.149 -0.7564
4294000000.0 -1.293 0.4314
4297000000.0 -0.4535 1.272
4300000000.0 0.6485 1.141
4303000000.0 1.261 0.2718
4306000000.0 0.9815 -0.7979
4309000000.0 0.03165 -1.288
4312000000.0 -0.9464 -0.8418
4316000000.0 -1.299 0.1952
4319000000.0 -0.6591 1.111
4322000000.0 0.411 1.26
4325000000.0 1.242 0.4869
4328000000.0 1.166 -0.6017
4331000000.0 0.2963 -1.31
4334000000.0 -0.8329 -1.067
4338000000.0 -1.389 -0.04341
4341000000.0 -0.9574 1.057
4344000000.0 0.1944 1.36
4347000000.0 1.205 0.7472
4350000000.0 1.334 -0.4719
4353000000.0 0.4942 -1.322
4356000000.0 -0.6928 -1.239
4359000000.0 -1.403 -0.2563
4362000000.0 -1.109 0.8978
4366000000.0 -0.002504 1.457
4369000000.0 1.142 0.945
4372000000.0 1.453 -0.2546
4375000000.0 0.7256 -1.31
4378000000.0 -0.5634 -1.397
4381000000.0 -1.41 -0.45
4384000000.0 -1.294 0.8271
4388000000.0 -0.2017 1.52
4391000000.0 1.085 1.137
4394000000.0 1.575 -0.1255
4397000000.0 0.8919 -1.293
4400000000.0 -0.4833 -1.528
4403000000.0 -1.465 -0.5837
4406000000.0 -1.374 0.8134
4409000000.0 -0.1855 1.569
4412000000.0 1.098 1.126
4416000000.0 1.543 -0.1803
4419000000.0 0.8082 -1.301
4422000000.0 -0.5291 -1.44
4425000000.0 -1.439 -0.4615
4428000000.0 -1.232 0.8203
4431000000.0 -0.1323 1.44
4434000000.0 1.061 0.9413
4438000000.0 1.379 -0.2271
4441000000.0 0.6761 -1.243
4444000000.0 -0.5593 -1.235
4447000000.0 -1.32 -0.3529
4450000000.0 -1.031 0.8278
4453000000.0 0.008039 1.334
4456000000.0 1.041 0.8046
4459000000.0 1.235 -0.3568
4462000000.0 0.4731 -1.165
4466000000.0 -0.6373 -1.09
4469000000.0 -1.229 -0.1357
4472000000.0 -0.8472 0.8291
4475000000.0 0.1445 1.208
4478000000.0 1.009 0.6421
4481000000.0 1.076 -0.3857
4484000000.0 0.333 -1.087
4488000000.0 -0.6279 -0.9182
4491000000.0 -1.122 -0.09562
4494000000.0 -0.7515 0.8459
4497000000.0 0.1613 1.107
4500000000.0 0.9762 0.5759
4503000000.0 1.002 -0.3951
4506000000.0 0.3379 -1.035
4509000000.0 -0.6244 -0.9261
4512000000.0 -1.109 -0.1145
4516000000.0 -0.8016 0.7848
4519000000.0 0.09429 1.119
4522000000.0 0.9432 0.637
4525000000.0 1.066 -0.3305
4528000000.0 0.4248 -1.065
4531000000.0 -0.5358 -0.9894
4534000000.0 -1.118 -0.205
4538000000.0 -0.9065 0.7559
4541000000.0 0.003962 1.178
4544000000.0 0.9068 0.7457
4547000000.0 1.161 -0.2437
4550000000.0 0.5588 -1.06
4553000000.0 -0.4207 -1.128
4556000000.0 -1.145 -0.3733
4559000000.0 -1.037 0.6432
4562000000.0 -0.1788 1.231
4566000000.0 0.8147 0.9166
4569000000.0 1.24 -0.0243
4572000000.0 0.7815 -0.9939
4575000000.0 -0.2639 -1.237
4578000000.0 -1.159 -0.5906
4581000000.0 -1.2 0.4851
4584000000.0 -0.3776 1.27
4588000000.0 0.735 1.097
4591000000.0 1.358 0.1598
4594000000.0 0.9639 -0.9454
4597000000.0 -0.08869 -1.367
4600000000.0 -1.103 -0.782
4603000000.0 -1.318 0.3858
4606000000.0 -0.5769 1.274
4609000000.0 0.5996 1.245
4612000000.0 1.351 0.3373
4616000000.0 1.114 -0.8678
4619000000.0 0.02337 -1.396
4622000000.0 -1.067 -0.8966
4625000000.0 -1.351 0.2533
4628000000.0 -0.6605 1.187
4631000000.0 0.5026 1.282
4634000000.0 1.342 0.3728
4638000000.0 1.143 -0.7524
4641000000.0 0.1101 -1.352
4644000000.0 -0.9697 -0.9311
4647000000.0 -1.334 0.1713
4650000000.0 -0.6592 1.146
4653000000.0 0.4563 1.193
4656000000.0 1.233 0.4074
4659000000.0 1.053 -0.7045
4662000000.0 0.08738 -1.257
4666000000.0 -0.9076 -0.8552
4669000000.0 -1.178 0.1798
4672000000.0 -0.6005 1.019
4675000000.0 0.4496 1.084
4678000000.0 1.103 0.3211
4681000000.0 0.9164 -0.6571
4684000000.0 0.09687 -1.14
4688000000.0 -0.8157 -0.7431
4691000000.0 -1.086 0.1734
4694000000.0 -0.5181 0.9725
4697000000.0 0.402 0.9881
4700000000.0 1.064 0.3259
4703000000.0 0.8962 -0.6408
4706000000.0 0.009757 -1.102
4709000000.0 -0.806 -0.7191
4712000000.0 -1.072 0.203
4716000000.0 -0.5214 0.9443
4719000000.0 0.4111 0.9678
4722000000.0 1.028 0.2604
4725000000.0 0.8186 -0.6406
4728000000.0 0.0643 -1.053
4731000000.0 -0.7613 -0.6776
4734000000.0 -0.9742 0.1561
4738000000.0 -0.5342 0.8979
4741000000.0 0.349 0.9649
4744000000.0 0.9808 0.367
4747000000.0 0.9339 -0.5331
4750000000.0 0.1492 -1.064
4753000000.0 -0.7099 -0.7819
4756000000.0 -1.105 0.01941
4759000000.0 -0.657 0.8508
4762000000.0 0.2302 1.065
4766000000.0 0.9886 0.5203
4769000000.0 1.041 -0.4443
4772000000.0 0.3276 -1.05
4775000000.0 -0.6373 -0.9445
4778000000.0 -1.153 -0.1443
4781000000.0 -0.8649 0.7789
4784000000.0 0.06662 1.188
4788000000.0 0.9568 0.7242
4791000000.0 1.172 -0.2492
4794000000.0 0.5605 -1.079
4797000000.0 -0.4667 -1.151
4800000000.0 -1.19 -0.3842
4803000000.0 -1.031 0.6382
4806000000.0 -0.1966 1.203
4809000000.0 0.8113 0.9362
4812000000.0 1.278 -0.02081
4816000000.0 0.8128 -0.9989
4819000000.0 -0.2649 -1.275
4822000000.0 -1.196 -0.6294
4825000000.0 -1.239 0.5181
4828000000.0 -0.3986 1.296
4831000000.0 0.756 1.152
4834000000.0 1.37 0.1481
4838000000.0 0.9732 -0.9992
4841000000.0 -0.1406 -1.37
4844000000.0 -1.134 -0.7783
4847000000.0 -1.322 0.3669
4850000000.0 -0.4845 1.268
4853000000.0 0.6554 1.209
4856000000.0 1.342 0.2792
4859000000.0 1.046 -0.8587
4862000000.0 -1.437e-06 -1.346
4866000000.0 -1.037 -0.8345
4869000000.0 -1.286 0.3019
4872000000.0 -0.5784 1.169
4875000000.0 0.5118 1.186
4878000000.0 1.243 0.3503
4881000000.0 1.016 -0.7395
4884000000.0 0.06092 -1.25
4888000000.0 -0.9403 -0.7944
4891000000.0 -1.177 0.1899
4894000000.0 -0.5665 1.038
4897000000.0 0.4286 1.073
4900000000.0 1.105 0.3587
4903000000.0 0.9246 -0.598
4906000000.0 0.0901 -1.077
4909000000.0 -0.8015 -0.7344
4912000000.0 -1.027 0.1197
4916000000.0 -0.5455 0.8684
4919000000.0 0.3079 0.9535
4922000000.0 0.9332 0.3493
4925000000.0 0.8309 -0.4944
4928000000.0 0.1646 -0.9306
4931000000.0 -0.6114 -0.6872
4934000000.0 -0.9363 0.04492
4938000000.0 -0.5708 0.7675
4941000000.0 0.2264 0.9128
4944000000.0 0.8427 0.4473
4947000000.0 0.853 -0.3608
4950000000.0 0.238 -0.8953
4953000000.0 -0.5738 -0.7642
4956000000.0 -0.9315 -0.04899
4959000000.0 -0.6325 0.71
4962000000.0 0.1347 0.9553
4966000000.0 0.8373 0.5171
4969000000.0 0.9301 -0.3454
4972000000.0 0.3143 -0.9216
4975000000.0 -0.5043 -0.8511
4978000000.0 -1.001 -0.1065
4981000000.0 -0.7645 0.6811
4984000000.0 0.07414 1.033
4988000000.0 0.8343 0.609
4991000000.0 1.038 -0.2633
4994000000.0 0.4645 -0.9568
4997000000.0 -0.4422 -1.0
5000000000.0 -1.074 -0.2982
5003000000.0 -0.8985 0.6449
5006000000.0 -0.08959 1.141
5009000000.0 0.8163 0.7975
5012000000.0 1.139 -0.1262
5016000000.0 0.6522 -1.008
5019000000.0 -0.3601 -1.173
5022000000.0 -1.15 -0.474
5025000000.0 -1.139 0.5983
5028000000.0 -0.2211 1.215
5031000000.0 0.7941 0.9805
5034000000.0 1.308 0.02422
5038000000.0 0.8029 -1.001
5041000000.0 -0.2446 -1.277
5044000000.0 -1.116 -0.6542
5047000000.0 -1.185 0.4543
5050000000.0 -0.4258 1.215
5053000000.0 0.6604 1.099
5056000000.0 1.267 0.2098
5059000000.0 0.9835 -0.8418
5062000000.0 -0.05292 -1.312
5066000000.0 -1.009 -0.8097
5069000000.0 -1.246 0.2532
5072000000.0 -0.5807 1.127
5075000000.0 0.4866 1.173
5078000000.0 1.214 0.364
5081000000.0 1.056 -0.6958
5084000000.0 0.1655 -1.213
5088000000.0 -0.819 -0.9082
5091000000.0 -1.19 0.08697
5094000000.0 -0.6914 0.9526
5097000000.0 0.2506 1.145
5100000000.0 1.036 0.5254
5103000000.0 1.033 -0.4368
5106000000.0 0.306 -1.043
5109000000.0 -0.5754 -0.8721
5112000000.0 -1.072 -0.1153
5116000000.0 -0.7804 0.759
5119000000.0 0.07309 1.022
5122000000.0 0.838 0.6314
5125000000.0 1.014 -0.2323
5128000000.0 0.4468 -0.915
5131000000.0 -0.431 -0.8851
5134000000.0 -0.951 -0.2359
5138000000.0 -0.8059 0.5625
5141000000.0 -0.07316 0.988
5144000000.0 0.7245 0.6619
5147000000.0 0.9756 -0.1222
5150000000.0 0.4954 -0.7963
5153000000.0 -0.3183 -0.897
5156000000.0 -0.8756 -0.3472
5159000000.0 -0.7715 0.4884
5162000000.0 -0.1514 0.8863
5166000000.0 0.5843 0.6616
5169000000.0 0.8739 -0.0198
5172000000.0 0.544 -0.7179
5175000000.0 -0.2271 -0.8705
5178000000.0 -0.8393 -0.3655
5181000000.0 -0.8108 0.4158
5184000000.0 -0.136 0.8732
5188000000.0 0.5869 0.7352
5191000000.0 0.8943 -0.02345
5194000000.0 0.5899 -0.7362
5197000000.0 -0.207 -0.8875
5200000000.0 -0.8459 -0.3981
5203000000.0 -0.859 0.3994
5206000000.0 -0.2075 0.9061
5209000000.0 0.6038 0.734
5212000000.0 0.9728 0.002605
5216000000.0 0.6023 -0.7686
5219000000.0 -0.1917 -0.9713
5222000000.0 -0.8678 -0.4688
5225000000.0 -0.8737 0.4118
5228000000.0 -0.2597 0.9452
5231000000.0 0.5663 0.821
5234000000.0 1.019 0.07107
5238000000.0 0.7237 -0.7165
5241000000.0 -0.1136 -1.01
5244000000.0 -0.8639 -0.5697
5247000000.0 -0.9897 0.3097
5250000000.0 -0.3736 0.9614
5253000000.0 0.4985 0.9421
5256000000.0 1.058 0.204
5259000000.0 0.8136 -0.6554
5262000000.0 0.01501 -1.065
5266000000.0 -0.8325 -0.7369
5269000000.0 -1.044 0.1767
5272000000.0 -0.5629 0.9265
5275000000.0 0.3501 1.052
5278000000.0 0.9901 0.408
5281000000.0 0.9637 -0.519
5284000000.0 0.2381 -1.088
5288000000.0 -0.6686 -0.8772
5291000000.0 -1.106 -0.04777
5294000000.0 -0.7906 0.7968
5297000000.0 0.09786 1.1
5300000000.0 0.9358 0.6198
5303000000.0 1.082 -0.2785
5306000000.0 0.4854 -1.039
5309000000.0 -0.4599 -1.036
5312000000.0 -1.1 -0.3123
5316000000.0 -0.9456 0.6238
5319000000.0 -0.1043 1.128
5322000000.0 0.7901 0.8072
5325000000.0 1.135 -0.09058
5328000000.0 0.6583 -0.9471
5331000000.0 -0.3106 -1.105
5334000000.0 -1.02 -0.4732
5338000000.0 -1.021 0.5087
5341000000.0 -0.2694 1.101
5344000000.0 0.6934 0.9015
5347000000.0 1.111 0.01925
5350000000.0 0.7625 -0.8478
5353000000.0 -0.1433 -1.079
5356000000.0 -0.9258 -0.5505
5359000000.0 -1.038 0.3833
5362000000.0 -0.3574 0.9867
5366000000.0 0.5574 0.9012
5369000000.0 1.026 0.1221
5372000000.0 0.7616 -0.7422
5375000000.0 -0.08616 -1.03
5378000000.0 -0.8596 -0.5587
5381000000.0 -0.9576 0.3108
5384000000.0 -0.3406 0.9581
5388000000.0 0.505 0.8176
5391000000.0 0.9989 0.08494
5394000000.0 0.6669 -0.6734
5397000000.0 -0.104 -0.929
5400000000.0 -0.7839 -0.4922
5403000000.0 -0.8647 0.2516
5406000000.0 -0.2806 0.8323
5409000000.0 0.454 0.7519
5412000000.0 0.8571 0.09098
5416000000.0 0.5972 -0.5877
5419000000.0 -0.09875 -0.8766
5422000000.0 -0.7167 -0.4173
5425000000.0 -0.8277 0.2922
5428000000.0 -0.2914 0.8331
5431000000.0 0.4778 0.7033
5434000000.0 0.8303 0.08864
5438000000.0 0.5908 -0.6368
5441000000.0 -0.1143 -0.8455
5444000000.0 -0.733 -0.4559
5447000000.0 -0.8397 0.3077
5450000000.0 -0.3016 0.8564
5453000000.0 0.4538 0.7467
5456000000.0 0.856 0.1133
5459000000.0 0.66 -0.6059
5462000000.0 -0.07573 -0.9133
5466000000.0 -0.7138 -0.4999
5469000000.0 -0.8744 0.2222
5472000000.0 -0.4015 0.8481
5475000000.0 0.3864 0.8463
5478000000.0 0.8875 0.2197
5481000000.0 0.7834 -0.5378
5484000000.0 0.0896 -0.9262
5488000000.0 -0.701 -0.6919
5491000000.0 -0.9507 0.0894
5494000000.0 -0.5295 0.8313
5497000000.0 0.2679 0.9159
5500000000.0 0.9087 0.3842
5503000000.0 0.892 -0.4524
5506000000.0 0.243 -0.9796
5509000000.0 -0.5943 -0.814
5512000000.0 -1.029 -0.07536
5516000000.0 -0.6818 0.7603
5519000000.0 0.06607 1.003
5522000000.0 0.837 0.5661
5525000000.0 0.9779 -0.2741
5528000000.0 0.4357 -0.9645
5531000000.0 -0.4157 -0.9588
5534000000.0 -1.01 -0.2336
5538000000.0 -0.8582 0.5921
5541000000.0 -0.06679 1.043
5544000000.0 0.7422 0.7202
5547000000.0 1.05 -0.09059
5550000000.0 0.5919 -0.8793
5553000000.0 -0.2403 -1.009
5556000000.0 -0.9811 -0.4554
5559000000.0 -0.9484 0.4582
5562000000.0 -0.2443 0.9825
5566000000.0 0.6269 0.8319
5569000000.0 1.039 0.05475
5572000000.0 0.6983 -0.7099
5575000000.0 -0.1107 -1.006
5578000000.0 -0.8591 -0.5323
5581000000.0 -0.963 0.3188
5584000000.0 -0.3672 0.9388
5588000000.0 0.4768 0.8733
5591000000.0 0.9359 0.1894
5594000000.0 0.7114 -0.6129
5597000000.0 -0.02386 -0.9382
5600000000.0 -0.743 -0.5748
5603000000.0 -0.8786 0.2037
5606000000.0 -0.4309 0.8213
5609000000.0 0.3793 0.8389
5612000000.0 0.8311 0.2376
5616000000.0 0.7047 -0.5056
5619000000.0 0.03922 -0.8731
5622000000.0 -0.6421 -0.5829
5625000000.0 -0.8538 0.1204
5628000000.0 -0.446 0.757
5631000000.0 0.3116 0.7889
5634000000.0 0.7737 0.2861
5638000000.0 0.7055 -0.4555
5641000000.0 0.08872 -0.8331
5644000000.0 -0.5931 -0.5865
5647000000.0 -0.8297 0.08974
5650000000.0 -0.4126 0.71
5653000000.0 0.3078 0.792
5656000000.0 0.7984 0.2706
5659000000.0 0.7148 -0.4519
5662000000.0 0.07059 -0.8634
5666000000.0 -0.6346 -0.6128
5669000000.0 -0.8488 0.1048
5672000000.0 -0.475 0.7437
5675000000.0 0.2768 0.8421
5678000000.0 0.8695 0.3236
5681000000.0 0.7985 -0.4938
5684000000.0 0.1004 -0.9172
5688000000.0 -0.6355 -0.6595
5691000000.0 -0.9387 0.1064
5694000000.0 -0.5387 0.7779
5697000000.0 0.2889 0.9269
5700000000.0 0.9221 0.3588
5703000000.0 0.8679 -0.5025
5706000000.0 0.1812 -0.9716
5709000000.0 -0.639 -0.7516
5712000000.0 -1.031 0.002266
5716000000.0 -0.6413 0.7809
5719000000.0 0.2241 0.9882
5722000000.0 0.9042 0.4725
5725000000.0 0.9536 -0.404
5728000000.0 0.2883 -1.024
5731000000.0 -0.5832 -0.862
5734000000.0 -1.1 -0.1222
5738000000.0 -0.791 0.7422
5741000000.0 0.08674 1.064
5744000000.0 0.8764 0.6111
5747000000.0 1.061 -0.2718
5750000000.0 0.4681 -0.9638
5753000000.0 -0.4914 -1.022
5756000000.0 -1.048 -0.2917
5759000000.0 -0.9043 0.625
5762000000.0 -0.09635 1.101
5766000000.0 0.7654 0.7976
5769000000.0 1.074 -0.1349
5772000000.0 0.56 -0.9089
5775000000.0 -0.285 -1.058
5778000000.0 -0.9952 -0.4285
5781000000.0 -1.007 0.4757
5784000000.0 -0.248 1.04
5788000000.0 0.6217 0.8556
5791000000.0 1.091 0.06387
5794000000.0 0.7158 -0.7732
5797000000.0 -0.1252 -1.086
5800000000.0 -0.9148 -0.593
5803000000.0 -1.002 0.3122
5806000000.0 -0.3921 0.9781
5809000000.0 0.533 0.9183
5812000000.0 0.9981 0.1854
5816000000.0 0.7946 -0.659
5819000000.0 -0.01682 -1.027
5822000000.0 -0.7875 -0.6343
5825000000.0 -0.9615 0.203
5828000000.0 -0.4496 0.8855
5831000000.0 0.3789 0.9255
5834000000.0 0.9577 0.2728
5838000000.0 0.818 -0.5372
5841000000.0 0.07184 -0.9578
5844000000.0 -0.694 -0.6622
5847000000.0 -0.9443 0.1274
5850000000.0 -0.5089 0.8257
5853000000.0 0.3029 0.9119
5856000000.0 0.8592 0.3036
5859000000.0 0.7811 -0.4836
5862000000.0 0.1413 -0.9014
5866000000.0 -0.641 -0.6563
5869000000.0 -0.9104 0.07982
5872000000.0 -0.5116 0.7644
5875000000.0 0.2642 0.8353
5878000000.0 0.8466 0.311
5881000000.0 0.7614 -0.4591
5884000000.0 0.1446 -0.9009
5888000000.0 -0.5815 -0.6402
5891000000.0 -0.871 0.06918
5894000000.0 -0.5196 0.6934
5897000000.0 0.2577 0.83
5900000000.0 0.8039 0.3313
5903000000.0 0.7124 -0.4391
5906000000.0 0.1682 -0.8572
5909000000.0 -0.5577 -0.659
5912000000.0 -0.8664 -0.004915
5916000000.0 -0.5344 0.6777
5919000000.0 0.1863 0.8394
5922000000.0 0.7598 0.4129
5925000000.0 0.815 -0.3493
5928000000.0 0.2519 -0.8466
5931000000.0 -0.5037 -0.7444
5934000000.0 -0.876 -0.09474
5938000000.0 -0.6183 0.632
5941000000.0 0.06087 0.8977
5944000000.0 0.7328 0.5035
5947000000.0 0.8889 -0.2484
5950000000.0 0.3902 -0.8211
5953000000.0 -0.36 -0.8104
5956000000.0 -0.8827 -0.2402
5959000000.0 -0.7452 0.5346
5962000000.0 -0.07327 0.9169
5966000000.0 0.6732 0.636
5969000000.0 0.9544 -0.07524
5972000000.0 0.5291 -0.7821
5975000000.0 -0.2711 -0.8965
5978000000.0 -0.8892 -0.4088
5981000000.0 -0.8462 0.4127
5984000000.0 -0.2162 0.9038
5988000000.0 0.5977 0.8223
5991000000.0 0.9652 0.04848
5994000000.0 0.65 -0.75
5997000000.0 -0.1299 -0.999
6000000000.0 -0.856 -0.5463
6003000000.0 -0.9277 0.3225
6006000000.0 -0.3869 0.9355
6009000000.0 0.4722 0.8614
6012000000.0 0.9957 0.1784
6016000000.0 0.7824 -0.6464
6019000000.0 -0.01664 -0.9881
6022000000.0 -0.7739 -0.6009
6025000000.0 -0.9594 0.199
6028000000.0 -0.4583 0.8661
6031000000.0 0.3838 0.916
6034000000.0 0.9386 0.2407
6038000000.0 0.8061 -0.5193
6041000000.0 0.07253 -0.972
6044000000.0 -0.6882 -0.6598
6047000000.0 -0.9407 0.1177
6050000000.0 -0.4898 0.8109
6053000000.0 0.2541 0.8976
6056000000.0 0.8769 0.3311
6059000000.0 0.8141 -0.4743
6062000000.0 0.1195 -0.9309
6066000000.0 -0.6116 -0.6396
6069000000.0 -0.9046 0.04628
6072000000.0 -0.5155 0.7342
6075000000.0 0.2516 0.8264
6078000000.0 0.8101 0.3342
6081000000.0 0.7617 -0.4266
6084000000.0 0.1482 -0.8713
6088000000.0 -0.536 -0.6474
6091000000.0 -0.8357 0.012
6094000000.0 -0.5151 0.6845
6097000000.0 0.1901 0.8252
6100000000.0 0.7772 0.4021
6103000000.0 0.7749 -0.3454
6106000000.0 0.2126 -0.8084
6109000000.0 -0.5119 -0.6938
6112000000.0 -0.8486 -0.02531
6116000000.0 -0.5631 0.6419
6119000000.0 0.1619 0.8503
6122000000.0 0.7741 0.386
6125000000.0 0.7625 -0.3339
6128000000.0 0.2469 -0.8133
6131000000.0 -0.5069 -0.7379
6134000000.0 -0.8659 -0.0594
6138000000.0 -0.6132 0.6306
6141000000.0 0.09922 0.8674
6144000000.0 0.7317 0.4564
6147000000.0 0.8439 -0.302
6150000000.0 0.2947 -0.8305
6153000000.0 -0.4598 -0.7645
6156000000.0 -0.909 -0.119
6159000000.0 -0.6896 0.6285
6162000000.0 0.04917 0.8813
6166000000.0 0.7508 0.5379
6169000000.0 0.8974 -0.2221
6172000000.0 0.4201 -0.8403
6175000000.0 -0.4069 -0.8289
6178000000.0 -0.9313 -0.2137
6181000000.0 -0.7639 0.5726
6184000000.0 -0.04847 0.9306
6188000000.0 0.6884 0.6039
6191000000.0 0.9361 -0.1361
6194000000.0 0.4946 -0.7891
6197000000.0 -0.3281 -0.8493
6200000000.0 -0.8925 -0.2965
6203000000.0 -0.7865 0.5014
6206000000.0 -0.1168 0.9397
6209000000.0 0.6383 0.6675
6212000000.0 0.9066 -0.04162
6216000000.0 0.5177 -0.7403
6219000000.0 -0.2199 -0.8951
6222000000.0 -0.8319 -0.4052
6225000000.0 -0.8216 0.3642
6228000000.0 -0.1892 0.8623
6231000000.0 0.5415 0.7553
6234000000.0 0.8759 0.03621
6238000000.0 0.6044 -0.6072
6241000000.0 -0.1089 -0.8356
6244000000.0 -0.7374 -0.4745
6247000000.0 -0.8101 0.265
6250000000.0 -0.312 0.7831
6253000000.0 0.3968 0.7549
6256000000.0 0.8115 0.164
6259000000.0 0.6272 -0.5217
6262000000.0 0.03309 -0.8075
6266000000.0 -0.6082 -0.5239
