! Created with skrf 1.8.0 (http://scikit-rf.org).
# Hz S RI R 50.0 
!freq ReS11 ImS11
4000000000.0 -0.268 -1.486
4003000000.0 -1.297 -0.7476
4006000000.0 -1.363 0.5537
4009000000.0 -0.4657 1.47
4012000000.0 0.8633 1.279
4016000000.0 1.503 0.149
4019000000.0 1.101 -1.109
4022000000.0 -0.2108 -1.537
4025000000.0 -1.355 -0.8593
4028000000.0 -1.503 0.5689
4031000000.0 -0.5246 1.54
4034000000.0 0.8746 1.313
4038000000.0 1.588 0.1489
4041000000.0 1.146 -1.189
4044000000.0 -0.247 -1.619
4047000000.0 -1.408 -0.8373
4050000000.0 -1.529 0.5593
4053000000.0 -0.5491 1.464
4056000000.0 0.8498 1.371
4059000000.0 1.584 0.263
4062000000.0 1.168 -1.048
4066000000.0 -0.06847 -1.606
4069000000.0 -1.268 -0.9466
4072000000.0 -1.585 0.3545
4075000000.0 -0.7433 1.407
4078000000.0 0.6232 1.547
4081000000.0 1.557 0.4774
4084000000.0 1.35 -0.9424
4088000000.0 0.1544 -1.624
4091000000.0 -1.141 -1.139
4094000000.0 -1.586 0.1581
4097000000.0 -0.9125 1.356
4100000000.0 0.4308 1.561
4103000000.0 1.444 0.6488
4106000000.0 1.424 -0.7287
4109000000.0 0.3568 -1.532
4112000000.0 -0.9094 -1.26
4116000000.0 -1.514 -0.1203
4119000000.0 -1.09 1.067
4122000000.0 0.04662 1.488
4125000000.0 1.159 0.9009
4128000000.0 1.418 -0.3133
4131000000.0 0.6913 -1.282
4134000000.0 -0.4969 -1.397
4138000000.0 -1.387 -0.4949
4141000000.0 -1.304 0.7396
4144000000.0 -0.3208 1.451
4147000000.0 0.9165 1.191
4150000000.0 1.488 0.06641
4153000000.0 1.048 -1.103
4156000000.0 -0.1994 -1.513
4159000000.0 -1.278 -0.7703
4162000000.0 -1.458 0.4649
4166000000.0 -0.5419 1.393
4169000000.0 0.6977 1.334
4172000000.0 1.458 0.2988
4175000000.0 1.178 -0.8889
4178000000.0 0.08714 -1.514
4181000000.0 -1.11 -1.021
4184000000.0 -1.493 0.2123
4188000000.0 -0.7824 1.268
4191000000.0 0.4929 1.448
4194000000.0 1.418 0.5398
4197000000.0 1.345 -0.7816
4200000000.0 0.2468 -1.537
4203000000.0 -1.103 -1.152
4206000000.0 -1.623 0.1011
4209000000.0 -0.9285 1.347
4212000000.0 0.4717 1.579
4216000000.0 1.537 0.6012
4219000000.0 1.428 -0.8883
4222000000.0 0.1533 -1.669
4225000000.0 -1.198 -1.111
4228000000.0 -1.624 0.3031
4231000000.0 -0.7375 1.47
4234000000.0 0.7286 1.428
4238000000.0 1.589 0.3122
4241000000.0 1.191 -1.051
4244000000.0 -0.106 -1.6
4247000000.0 -1.278 -0.8761
4250000000.0 -1.467 0.5236
4253000000.0 -0.4877 1.449
4256000000.0 0.8149 1.259
4259000000.0 1.524 0.1046
4262000000.0 1.039 -1.121
4266000000.0 -0.2518 -1.459
4269000000.0 -1.244 -0.6886
4272000000.0 -1.337 0.5884
4275000000.0 -0.3582 1.409
4278000000.0 0.8681 1.097
4281000000.0 1.448 0.005206
4284000000.0 0.8838 -1.098
4288000000.0 -0.2891 -1.33
4291000000.0 -1.217 -0.6115
4294000000.0 -1.202 0.5561
4297000000.0 -0.3201 1.296
4300000000.0 0.7762 1.103
4303000000.0 1.298 0.1159
4306000000.0 0.9143 -0.9301
4309000000.0 -0.07712 -1.255
4312000000.0 -1.065 -0.7545
4316000000.0 -1.279 0.3527
4319000000.0 -0.5823 1.138
4322000000.0 0.5453 1.183
4325000000.0 1.286 0.362
4328000000.0 1.112 -0.7232
4331000000.0 0.09844 -1.33
4334000000.0 -0.9482 -0.9858
4338000000.0 -1.376 0.1063
4341000000.0 -0.8346 1.091
4344000000.0 0.3964 1.375
4347000000.0 1.27 0.6302
4350000000.0 1.28 -0.6429
4353000000.0 0.3143 -1.397
4356000000.0 -0.8493 -1.148
4359000000.0 -1.473 -0.06287
4362000000.0 -0.9781 1.106
4366000000.0 0.2259 1.459
4369000000.0 1.263 0.7787
4372000000.0 1.422 -0.4723
4375000000.0 0.5916 -1.408
4378000000.0 -0.7269 -1.319
4381000000.0 -1.508 -0.2456
4384000000.0 -1.154 0.9784
4388000000.0 0.04024 1.535
4391000000.0 1.257 0.9483
4394000000.0 1.501 -0.3595
4397000000.0 0.6465 -1.409
4400000000.0 -0.7387 -1.431
4403000000.0 -1.569 -0.3073
4406000000.0 -1.203 1.031
4409000000.0 0.07554 1.566
4412000000.0 1.258 0.8954
4416000000.0 1.484 -0.4659
4419000000.0 0.5362 -1.406
4422000000.0 -0.7648 -1.279
4425000000.0 -1.483 -0.1674
4428000000.0 -1.045 1.032
4431000000.0 0.1884 1.412
4434000000.0 1.206 0.7348
4438000000.0 1.266 -0.5267
4441000000.0 0.3696 -1.321
4444000000.0 -0.795 -1.067
4447000000.0 -1.308 -0.05568
4450000000.0 -0.8328 1.001
4453000000.0 0.3021 1.245
4456000000.0 1.155 0.5222
4459000000.0 1.086 -0.566
4462000000.0 0.213 -1.228
4466000000.0 -0.8263 -0.8855
4469000000.0 -1.187 0.07798
4472000000.0 -0.6354 0.9872
4475000000.0 0.3888 1.115
4478000000.0 1.076 0.4227
4481000000.0 0.9745 -0.6038
4484000000.0 0.1344 -1.173
4488000000.0 -0.7966 -0.785
4491000000.0 -1.103 0.125
4494000000.0 -0.5808 0.9711
4497000000.0 0.3637 1.056
4500000000.0 1.056 0.3739
4503000000.0 0.909 -0.5831
4506000000.0 0.162 -1.108
4509000000.0 -0.7683 -0.8191
4512000000.0 -1.112 0.0925
4516000000.0 -0.6437 0.9223
4519000000.0 0.3256 1.118
4522000000.0 1.059 0.4581
4525000000.0 1.043 -0.5196
4528000000.0 0.2664 -1.13
4531000000.0 -0.7224 -0.9124
4534000000.0 -1.181 0.01329
4538000000.0 -0.757 0.9229
4541000000.0 0.215 1.176
4544000000.0 1.013 0.5968
4547000000.0 1.143 -0.4171
4550000000.0 0.4281 -1.148
4553000000.0 -0.6165 -1.074
4556000000.0 -1.23 -0.2017
4559000000.0 -0.9614 0.7956
4562000000.0 0.002602 1.289
4566000000.0 0.9851 0.8148
4569000000.0 1.242 -0.2369
4572000000.0 0.6492 -1.129
4575000000.0 -0.4816 -1.236
4578000000.0 -1.24 -0.4259
4581000000.0 -1.12 0.6922
4584000000.0 -0.1883 1.319
4588000000.0 0.9278 1.029
4591000000.0 1.378 -0.06102
4594000000.0 0.8125 -1.102
4597000000.0 -0.3094 -1.342
4600000000.0 -1.28 -0.6258
4603000000.0 -1.278 0.56
4606000000.0 -0.3352 1.337
4609000000.0 0.8108 1.144
4612000000.0 1.405 0.04506
4616000000.0 0.9323 -1.048
4619000000.0 -0.2211 -1.372
4622000000.0 -1.219 -0.7162
4625000000.0 -1.29 0.4528
4628000000.0 -0.4558 1.278
4631000000.0 0.7457 1.124
4634000000.0 1.351 0.1417
4638000000.0 0.9493 -0.9376
4641000000.0 -0.1355 -1.349
4644000000.0 -1.127 -0.7231
4647000000.0 -1.256 0.4198
4650000000.0 -0.4492 1.197
4653000000.0 0.6961 1.124
4656000000.0 1.259 0.1399
4659000000.0 0.8627 -0.903
4662000000.0 -0.1309 -1.204
4666000000.0 -1.019 -0.6284
4669000000.0 -1.112 0.4409
4672000000.0 -0.361 1.139
4675000000.0 0.6253 0.9659
4678000000.0 1.158 0.08256
4681000000.0 0.8209 -0.8004
4684000000.0 -0.1431 -1.102
4688000000.0 -0.9673 -0.5702
4691000000.0 -1.022 0.3796
4694000000.0 -0.323 1.066
4697000000.0 0.5918 0.8889
4700000000.0 1.114 0.09082
4703000000.0 0.7689 -0.7927
4706000000.0 -0.1065 -1.043
4709000000.0 -0.962 -0.5178
4712000000.0 -0.987 0.4159
4716000000.0 -0.3071 1.022
4719000000.0 0.5867 0.8944
4722000000.0 1.024 0.09225
4725000000.0 0.7053 -0.7883
4728000000.0 -0.1621 -1.064
4731000000.0 -0.9177 -0.5284
4734000000.0 -0.9922 0.3271
4738000000.0 -0.3538 0.968
4741000000.0 0.5076 0.9225
4744000000.0 1.051 0.1913
4747000000.0 0.7969 -0.6816
4750000000.0 0.003986 -1.094
4753000000.0 -0.8634 -0.7152
4756000000.0 -1.077 0.2011
4759000000.0 -0.5374 0.9975
4762000000.0 0.4121 1.07
4766000000.0 1.087 0.3809
4769000000.0 0.9825 -0.6314
4772000000.0 0.189 -1.163
4775000000.0 -0.7683 -0.8931
4778000000.0 -1.207 0.02339
4781000000.0 -0.7669 0.9519
4784000000.0 0.2323 1.205
4788000000.0 1.099 0.6079
4791000000.0 1.154 -0.4378
4794000000.0 0.4162 -1.187
4797000000.0 -0.6248 -1.094
4800000000.0 -1.238 -0.2116
4803000000.0 -0.9623 0.8208
4806000000.0 -0.003954 1.275
4809000000.0 0.998 0.8423
4812000000.0 1.287 -0.1863
4816000000.0 0.6806 -1.114
4819000000.0 -0.4811 -1.258
4822000000.0 -1.291 -0.4426
4825000000.0 -1.177 0.689
4828000000.0 -0.2055 1.359
4831000000.0 0.9413 1.022
4834000000.0 1.395 -0.05382
4838000000.0 0.8052 -1.148
4841000000.0 -0.3416 -1.364
4844000000.0 -1.249 -0.5771
4847000000.0 -1.208 0.595
4850000000.0 -0.3189 1.344
4853000000.0 0.8513 1.067
4856000000.0 1.372 0.02472
4859000000.0 0.882 -0.9989
4862000000.0 -0.239 -1.336
4866000000.0 -1.158 -0.6297
4869000000.0 -1.189 0.4811
4872000000.0 -0.3673 1.25
4875000000.0 0.6773 1.063
4878000000.0 1.256 0.1253
4881000000.0 0.8586 -0.8665
4884000000.0 -0.1681 -1.206
4888000000.0 -1.011 -0.6047
4891000000.0 -1.112 0.397
4894000000.0 -0.3789 1.07
4897000000.0 0.5936 0.9745
4900000000.0 1.128 0.1162
4903000000.0 0.7712 -0.7619
4906000000.0 -0.1037 -1.036
4909000000.0 -0.8643 -0.6015
4912000000.0 -0.987 0.2842
4916000000.0 -0.3869 0.9325
4919000000.0 0.4844 0.8556
4922000000.0 0.9488 0.1674
4925000000.0 0.7476 -0.61
4928000000.0 0.02462 -0.9472
4931000000.0 -0.7614 -0.6035
4934000000.0 -0.9246 0.1751
4938000000.0 -0.4345 0.8136
4941000000.0 0.3862 0.8468
4944000000.0 0.9144 0.2431
4947000000.0 0.7748 -0.5355
4950000000.0 0.07316 -0.9408
4953000000.0 -0.6852 -0.6859
4956000000.0 -0.9572 0.09466
4959000000.0 -0.5139 0.8432
4962000000.0 0.3051 0.9286
4966000000.0 0.9246 0.3556
4969000000.0 0.8826 -0.514
4972000000.0 0.1549 -1.003
4975000000.0 -0.6793 -0.7728
4978000000.0 -1.038 0.01861
4981000000.0 -0.6376 0.8218
4984000000.0 0.2163 1.056
4988000000.0 0.9651 0.4775
4991000000.0 0.9946 -0.4337
4994000000.0 0.3281 -1.034
4997000000.0 -0.6295 -0.9422
5000000000.0 -1.129 -0.1468
5003000000.0 -0.8394 0.8345
5006000000.0 0.068 1.192
5009000000.0 0.9916 0.703
5012000000.0 1.187 -0.3393
5016000000.0 0.5005 -1.135
5019000000.0 -0.5545 -1.124
5022000000.0 -1.236 -0.2712
5025000000.0 -1.007 0.7791
5028000000.0 -0.03307 1.293
5031000000.0 0.9559 0.8185
5034000000.0 1.273 -0.1963
5038000000.0 0.6396 -1.097
5041000000.0 -0.4258 -1.226
5044000000.0 -1.222 -0.4594
5047000000.0 -1.139 0.6272
5050000000.0 -0.2129 1.266
5053000000.0 0.807 0.9594
5056000000.0 1.268 0.01485
5059000000.0 0.8103 -0.9767
5062000000.0 -0.2359 -1.293
5066000000.0 -1.136 -0.5958
5069000000.0 -1.193 0.473
5072000000.0 -0.4216 1.19
5075000000.0 0.6699 1.105
5078000000.0 1.231 0.1718
5081000000.0 0.8991 -0.8066
5084000000.0 -0.08286 -1.227
5088000000.0 -0.9414 -0.7344
5091000000.0 -1.152 0.2396
5094000000.0 -0.5187 1.028
5097000000.0 0.4278 1.017
5100000000.0 1.068 0.3167
5103000000.0 0.9094 -0.599
5106000000.0 0.126 -1.089
5109000000.0 -0.7045 -0.7659
5112000000.0 -1.064 0.05256
5116000000.0 -0.6384 0.8073
5119000000.0 0.2048 0.9827
5122000000.0 0.8964 0.4587
5125000000.0 0.9007 -0.3874
5128000000.0 0.261 -0.968
5131000000.0 -0.5977 -0.7984
5134000000.0 -0.9858 -0.07049
5138000000.0 -0.6582 0.7101
5141000000.0 0.1409 0.9131
5144000000.0 0.8145 0.5142
5147000000.0 0.8479 -0.2738
5150000000.0 0.3025 -0.8239
5153000000.0 -0.46 -0.7855
5156000000.0 -0.9052 -0.1594
5159000000.0 -0.681 0.6166
5162000000.0 0.0779 0.9039
5166000000.0 0.7269 0.5046
5169000000.0 0.8513 -0.2496
5172000000.0 0.3629 -0.8159
5175000000.0 -0.4202 -0.8111
5178000000.0 -0.9126 -0.169
5181000000.0 -0.7083 0.6001
5184000000.0 0.03273 0.9167
5188000000.0 0.7069 0.564
5191000000.0 0.8754 -0.2574
5194000000.0 0.3845 -0.866
5197000000.0 -0.4355 -0.8365
5200000000.0 -0.9422 -0.1889
5203000000.0 -0.7198 0.5991
5206000000.0 0.021 0.9564
5209000000.0 0.7578 0.6028
5212000000.0 0.9344 -0.2262
5216000000.0 0.4154 -0.8581
5219000000.0 -0.3987 -0.8976
5222000000.0 -0.9587 -0.2623
5225000000.0 -0.7885 0.59
5228000000.0 -0.0484 0.9966
5231000000.0 0.7303 0.7004
5234000000.0 1.021 -0.1273
5238000000.0 0.5436 -0.8935
5241000000.0 -0.3401 -0.9841
5244000000.0 -0.9649 -0.3777
5247000000.0 -0.928 0.51
5250000000.0 -0.1927 1.069
5253000000.0 0.7014 0.8406
5256000000.0 1.078 -0.0129
5259000000.0 0.7024 -0.8186
5262000000.0 -0.1863 -1.049
5266000000.0 -0.9509 -0.5326
5269000000.0 -1.02 0.3715
5272000000.0 -0.371 1.021
5275000000.0 0.5615 0.9473
5278000000.0 1.102 0.2313
5281000000.0 0.8399 -0.7036
5284000000.0 0.03094 -1.09
5288000000.0 -0.8528 -0.7397
5291000000.0 -1.099 0.1587
5294000000.0 -0.6082 0.9371
5297000000.0 0.334 1.041
5300000000.0 1.034 0.4651
5303000000.0 0.9926 -0.5282
5306000000.0 0.263 -1.076
5309000000.0 -0.6755 -0.8849
5312000000.0 -1.136 -0.05339
5316000000.0 -0.7649 0.8161
5319000000.0 0.1271 1.092
5322000000.0 0.9491 0.6012
5325000000.0 1.057 -0.3556
5328000000.0 0.4497 -1.046
5331000000.0 -0.5266 -0.9581
5334000000.0 -1.128 -0.19
5338000000.0 -0.8514 0.724
5341000000.0 0.01035 1.1
5344000000.0 0.8795 0.6938
5347000000.0 1.052 -0.2246
5350000000.0 0.4826 -0.9652
5353000000.0 -0.4263 -0.9681
5356000000.0 -1.012 -0.278
5359000000.0 -0.8198 0.6175
5362000000.0 -0.02767 1.04
5366000000.0 0.7763 0.6606
5369000000.0 1.023 -0.1922
5372000000.0 0.466 -0.8755
5375000000.0 -0.4116 -0.8956
5378000000.0 -0.9585 -0.235
5381000000.0 -0.801 0.5748
5384000000.0 -0.02611 0.9435
5388000000.0 0.7626 0.5835
5391000000.0 0.8802 -0.1912
5394000000.0 0.3824 -0.8081
5397000000.0 -0.4074 -0.8186
5400000000.0 -0.8607 -0.1813
5403000000.0 -0.6575 0.5387
5406000000.0 0.04248 0.8736
5409000000.0 0.6675 0.4947
5412000000.0 0.8433 -0.2107
5416000000.0 0.3632 -0.7682
5419000000.0 -0.4094 -0.7455
5422000000.0 -0.8513 -0.1607
5425000000.0 -0.6533 0.5673
5428000000.0 0.02689 0.8596
5431000000.0 0.7009 0.5411
5434000000.0 0.8795 -0.2113
5438000000.0 0.3592 -0.8073
5441000000.0 -0.4027 -0.7805
5444000000.0 -0.8917 -0.2225
5447000000.0 -0.6869 0.5611
5450000000.0 -0.01062 0.8873
5453000000.0 0.6821 0.5907
5456000000.0 0.881 -0.166
5459000000.0 0.4381 -0.7975
5462000000.0 -0.3132 -0.8407
5466000000.0 -0.8907 -0.3064
5469000000.0 -0.7801 0.485
5472000000.0 -0.1094 0.9381
5475000000.0 0.6493 0.7048
5478000000.0 0.9628 -0.05217
5481000000.0 0.6135 -0.7859
5484000000.0 -0.2147 -0.9653
5488000000.0 -0.8759 -0.483
5491000000.0 -0.9072 0.3615
5494000000.0 -0.3163 0.9811
5497000000.0 0.5762 0.874
5500000000.0 1.022 0.127
5503000000.0 0.7683 -0.7212
5506000000.0 -0.05502 -1.06
5509000000.0 -0.8551 -0.6193
5512000000.0 -1.022 0.2315
5516000000.0 -0.4967 0.9461
5519000000.0 0.4214 0.9538
5522000000.0 1.01 0.3024
5525000000.0 0.8827 -0.5888
5528000000.0 0.09711 -1.085
5531000000.0 -0.7086 -0.7614
5534000000.0 -1.066 0.03395
5538000000.0 -0.6621 0.845
5541000000.0 0.2416 1.021
5544000000.0 0.9776 0.4595
5547000000.0 0.9632 -0.4614
5550000000.0 0.2741 -1.015
5553000000.0 -0.6111 -0.863
5556000000.0 -1.032 -0.09508
5559000000.0 -0.7156 0.7317
5562000000.0 0.121 0.9722
5566000000.0 0.8464 0.5728
5569000000.0 0.9379 -0.3209
5572000000.0 0.3433 -0.9305
5575000000.0 -0.492 -0.8712
5578000000.0 -0.9609 -0.146
5581000000.0 -0.7121 0.6245
5584000000.0 0.04913 0.9399
5588000000.0 0.7365 0.5547
5591000000.0 0.8838 -0.1955
5594000000.0 0.3857 -0.7923
5597000000.0 -0.3739 -0.7673
5600000000.0 -0.8396 -0.2481
5603000000.0 -0.6793 0.5023
5606000000.0 -0.02857 0.8494
5609000000.0 0.6175 0.5329
5612000000.0 0.8191 -0.1626
5616000000.0 0.3996 -0.7362
5619000000.0 -0.3284 -0.772
5622000000.0 -0.7661 -0.2327
5625000000.0 -0.6756 0.4678
5628000000.0 -0.04946 0.8048
5631000000.0 0.6028 0.5397
5634000000.0 0.8143 -0.1444
5638000000.0 0.3876 -0.7216
5641000000.0 -0.3072 -0.7382
5644000000.0 -0.8196 -0.2146
5647000000.0 -0.6969 0.4866
5650000000.0 -0.02948 0.8323
5653000000.0 0.6415 0.5773
5656000000.0 0.8465 -0.1241
5659000000.0 0.4361 -0.7522
5662000000.0 -0.3197 -0.8234
5666000000.0 -0.8777 -0.2472
5669000000.0 -0.7458 0.5258
5672000000.0 -0.09029 0.9123
5675000000.0 0.6987 0.636
5678000000.0 0.9311 -0.1262
5681000000.0 0.4939 -0.827
5684000000.0 -0.3403 -0.9299
5688000000.0 -0.9282 -0.3056
5691000000.0 -0.8977 0.5255
5694000000.0 -0.1528 0.9828
5697000000.0 0.7342 0.7641
5700000000.0 1.041 -0.05626
5703000000.0 0.615 -0.8795
5706000000.0 -0.2696 -1.018
5709000000.0 -0.9547 -0.4142
5712000000.0 -0.958 0.4981
5716000000.0 -0.2523 1.069
5719000000.0 0.687 0.8857
5722000000.0 1.086 0.07579
5725000000.0 0.7495 -0.7712
5728000000.0 -0.1525 -1.062
5731000000.0 -0.9455 -0.5837
5734000000.0 -1.065 0.3448
5738000000.0 -0.4333 1.059
5741000000.0 0.5415 0.9416
5744000000.0 1.116 0.2466
5747000000.0 0.8453 -0.7328
5750000000.0 -0.008295 -1.128
5753000000.0 -0.8824 -0.6724
5756000000.0 -1.071 0.208
5759000000.0 -0.5359 0.9508
5762000000.0 0.4042 1.02
5766000000.0 1.04 0.3333
5769000000.0 0.9206 -0.6173
5772000000.0 0.1437 -1.12
5775000000.0 -0.7412 -0.7911
5778000000.0 -1.073 0.07214
5781000000.0 -0.6318 0.8676
5784000000.0 0.2513 1.048
5788000000.0 0.9575 0.4418
5791000000.0 0.9161 -0.4758
5794000000.0 0.2378 -1.037
5797000000.0 -0.6466 -0.8535
5800000000.0 -1.025 -0.03284
5803000000.0 -0.6339 0.7886
5806000000.0 0.175 0.9858
5809000000.0 0.9067 0.5165
5812000000.0 0.9131 -0.3905
5816000000.0 0.2936 -0.977
5819000000.0 -0.5415 -0.8462
5822000000.0 -0.9473 -0.06879
5825000000.0 -0.6586 0.6755
5828000000.0 0.1264 0.9428
5831000000.0 0.8131 0.4722
5834000000.0 0.8769 -0.3191
5838000000.0 0.2841 -0.8627
5841000000.0 -0.5242 -0.7572
5844000000.0 -0.9168 -0.09204
5847000000.0 -0.6108 0.6303
5850000000.0 0.147 0.8563
5853000000.0 0.7782 0.4451
5856000000.0 0.84 -0.3118
5859000000.0 0.2802 -0.8818
5862000000.0 -0.4776 -0.7686
5866000000.0 -0.8593 -0.08506
5869000000.0 -0.5992 0.6545
5872000000.0 0.115 0.8687
5875000000.0 0.7406 0.4655
5878000000.0 0.8436 -0.293
5881000000.0 0.2677 -0.8365
5884000000.0 -0.4799 -0.7226
5888000000.0 -0.8643 -0.06654
5891000000.0 -0.5994 0.6138
5894000000.0 0.09085 0.8882
5897000000.0 0.7618 0.4648
5900000000.0 0.8579 -0.3037
5903000000.0 0.3397 -0.8689
5906000000.0 -0.4411 -0.7557
5909000000.0 -0.8927 -0.1674
5912000000.0 -0.703 0.5764
5916000000.0 0.03141 0.9049
5919000000.0 0.7249 0.5724
5922000000.0 0.9104 -0.1757
5925000000.0 0.4224 -0.8415
5928000000.0 -0.3946 -0.8788
5931000000.0 -0.893 -0.2823
5934000000.0 -0.7746 0.5283
5938000000.0 -0.09693 0.9515
5941000000.0 0.6919 0.6558
5944000000.0 0.9546 -0.1206
5947000000.0 0.5153 -0.7898
5950000000.0 -0.2713 -0.932
5953000000.0 -0.9035 -0.3646
5956000000.0 -0.8759 0.4536
5959000000.0 -0.1916 0.9557
5962000000.0 0.6119 0.7947
5966000000.0 1.013 0.009459
5969000000.0 0.65 -0.7752
5972000000.0 -0.1944 -0.9628
5975000000.0 -0.8891 -0.4427
5978000000.0 -0.9645 0.3904
5981000000.0 -0.3009 0.968
5984000000.0 0.5702 0.8236
5988000000.0 1.027 0.1179
5991000000.0 0.7123 -0.736
5994000000.0 -0.1165 -1.016
5997000000.0 -0.8569 -0.5371
6000000000.0 -0.9707 0.3035
6003000000.0 -0.2935 0.95
6006000000.0 0.4978 0.8493
6009000000.0 0.9424 0.111
6012000000.0 0.7098 -0.6747
6016000000.0 -0.1151 -0.9628
6019000000.0 -0.759 -0.5374
6022000000.0 -0.8856 0.2697
6025000000.0 -0.3299 0.8497
6028000000.0 0.4433 0.773
6031000000.0 0.9083 0.1373
6034000000.0 0.6647 -0.6243
6038000000.0 -0.09325 -0.8765
6041000000.0 -0.7337 -0.4936
6044000000.0 -0.8448 0.2827
6047000000.0 -0.2899 0.8078
6050000000.0 0.4565 0.748
6053000000.0 0.8407 0.1187
6056000000.0 0.609 -0.5642
6059000000.0 -0.09165 -0.8589
6062000000.0 -0.7151 -0.4387
6066000000.0 -0.7958 0.2917
6069000000.0 -0.2594 0.8074
6072000000.0 0.461 0.7021
6075000000.0 0.8509 0.1033
6078000000.0 0.6205 -0.5877
6081000000.0 -0.07236 -0.834
6084000000.0 -0.7341 -0.4622
6088000000.0 -0.7854 0.289
6091000000.0 -0.2877 0.8051
6094000000.0 0.441 0.7428
6097000000.0 0.848 0.1163
6100000000.0 0.6307 -0.5985
6103000000.0 -0.09435 -0.8944
6106000000.0 -0.7573 -0.4691
6109000000.0 -0.8545 0.2711
6112000000.0 -0.3155 0.8809
6116000000.0 0.499 0.7677
6119000000.0 0.9152 0.1032
6122000000.0 0.7034 -0.662
6125000000.0 -0.09751 -0.9748
6128000000.0 -0.8181 -0.5702
6131000000.0 -0.9566 0.3108
6134000000.0 -0.3286 0.9131
6138000000.0 0.5526 0.808
6141000000.0 0.9911 0.1307
6144000000.0 0.7428 -0.7151
6147000000.0 -0.08446 -1.02
6150000000.0 -0.8694 -0.5194
6153000000.0 -0.9472 0.3152
6156000000.0 -0.3382 0.96
6159000000.0 0.5272 0.8668
6162000000.0 0.9924 0.1228
6166000000.0 0.7225 -0.7056
6169000000.0 -0.0806 -1.032
6172000000.0 -0.8442 -0.5647
6175000000.0 -0.9372 0.2891
6178000000.0 -0.3599 0.9319
6181000000.0 0.5018 0.8496
6184000000.0 0.968 0.1336
6188000000.0 0.7118 -0.6703
6191000000.0 -0.07747 -0.9693
6194000000.0 -0.8012 -0.5164
6197000000.0 -0.9148 0.2993
6200000000.0 -0.3025 0.8506
6203000000.0 0.485 0.7804
6206000000.0 0.8911 0.1314
6209000000.0 0.6445 -0.6075
6212000000.0 -0.04897 -0.9037
6216000000.0 -0.7136 -0.4664
6219000000.0 -0.8301 0.2484
6222000000.0 -0.3002 0.8308
6225000000.0 0.4357 0.729
6228000000.0 0.8693 0.102
6231000000.0 0.6063 -0.5694
6234000000.0 -0.04842 -0.8093
6238000000.0 -0.6948 -0.4878
6241000000.0 -0.7934 0.2674
6244000000.0 -0.2869 0.7451
6247000000.0 0.4862 0.6881
6250000000.0 0.7924 0.06747
6253000000.0 0.5718 -0.5968
6256000000.0 -0.1103 -0.8364
6259000000.0 -0.7363 -0.3832
6262000000.0 -0.7482 0.3027
6266000000.0 -0.2024 0.7779
