! Created with skrf 1.8.0 (http://scikit-rf.org).
# Hz S RI R 50.0 
!freq ReS11 ImS11
4000000000.0 -0.16 -1.506
4003000000.0 -1.227 -0.8093
4006000000.0 -1.425 0.4887
4009000000.0 -0.5401 1.405
4012000000.0 0.7193 1.287
4016000000.0 1.511 0.24
4019000000.0 1.141 -1.04
4022000000.0 -0.07196 -1.535
4025000000.0 -1.302 -0.9042
4028000000.0 -1.547 0.4523
4031000000.0 -0.5962 1.523
4034000000.0 0.7919 1.424
4038000000.0 1.591 0.2881
4041000000.0 1.195 -1.08
4044000000.0 -0.116 -1.622
4047000000.0 -1.289 -0.9382
4050000000.0 -1.545 0.4111
4053000000.0 -0.651 1.482
4056000000.0 0.7318 1.36
4059000000.0 1.544 0.3366
4062000000.0 1.267 -0.9849
4066000000.0 0.04023 -1.612
4069000000.0 -1.203 -1.06
4072000000.0 -1.623 0.2604
4075000000.0 -0.8248 1.388
4078000000.0 0.5296 1.543
4081000000.0 1.555 0.5541
4084000000.0 1.404 -0.8622
4088000000.0 0.2853 -1.619
4091000000.0 -1.073 -1.207
4094000000.0 -1.642 0.05584
4097000000.0 -0.9947 1.297
4100000000.0 0.3561 1.591
4103000000.0 1.449 0.7089
4106000000.0 1.443 -0.6519
4109000000.0 0.4568 -1.485
4112000000.0 -0.8675 -1.286
4116000000.0 -1.529 -0.1934
4119000000.0 -1.145 0.9974
4122000000.0 -0.002369 1.486
4125000000.0 1.14 0.9739
4128000000.0 1.465 -0.2188
4131000000.0 0.8046 -1.267
4134000000.0 -0.4087 -1.407
4138000000.0 -1.339 -0.6086
4141000000.0 -1.336 0.6423
4144000000.0 -0.3961 1.455
4147000000.0 0.8488 1.222
4150000000.0 1.497 0.1351
4153000000.0 1.083 -1.051
4156000000.0 -0.0954 -1.516
4159000000.0 -1.258 -0.8785
4162000000.0 -1.46 0.3657
4166000000.0 -0.6439 1.368
4169000000.0 0.6119 1.413
4172000000.0 1.439 0.4439
4175000000.0 1.24 -0.8569
4178000000.0 0.1823 -1.468
4181000000.0 -1.008 -1.073
4184000000.0 -1.535 0.1007
4188000000.0 -0.8913 1.215
4191000000.0 0.3743 1.47
4194000000.0 1.372 0.6823
4197000000.0 1.381 -0.6671
4200000000.0 0.4125 -1.533
4203000000.0 -0.935 -1.292
4206000000.0 -1.596 -0.06181
4209000000.0 -1.093 1.251
4212000000.0 0.3401 1.627
4216000000.0 1.491 0.7611
4219000000.0 1.484 -0.701
4222000000.0 0.3557 -1.638
4225000000.0 -1.121 -1.286
4228000000.0 -1.692 0.1035
4231000000.0 -0.9403 1.41
4234000000.0 0.5383 1.59
4238000000.0 1.555 0.5324
4241000000.0 1.347 -0.8863
4244000000.0 0.08108 -1.628
4247000000.0 -1.186 -1.046
4250000000.0 -1.54 0.323
4253000000.0 -0.7159 1.401
4256000000.0 0.675 1.363
4259000000.0 1.478 0.3385
4262000000.0 1.195 -1.003
4266000000.0 -0.0606 -1.54
4269000000.0 -1.234 -0.8428
4272000000.0 -1.438 0.4227
4275000000.0 -0.558 1.381
4278000000.0 0.725 1.271
4281000000.0 1.425 0.1963
4284000000.0 1.011 -0.9681
4288000000.0 -0.1408 -1.379
4291000000.0 -1.151 -0.7487
4294000000.0 -1.305 0.3849
4297000000.0 -0.5154 1.259
4300000000.0 0.6179 1.173
4303000000.0 1.267 0.2491
4306000000.0 1.021 -0.7713
4309000000.0 0.006461 -1.284
4312000000.0 -0.9714 -0.8476
4316000000.0 -1.246 0.1998
4319000000.0 -0.6502 1.062
4322000000.0 0.3987 1.258
4325000000.0 1.195 0.5022
4328000000.0 1.185 -0.6076
4331000000.0 0.284 -1.287
4334000000.0 -0.8305 -1.107
4338000000.0 -1.377 -0.06569
4341000000.0 -0.9489 1.028
4344000000.0 0.1943 1.426
4347000000.0 1.206 0.7277
4350000000.0 1.352 -0.482
4353000000.0 0.5297 -1.345
4356000000.0 -0.6883 -1.249
4359000000.0 -1.401 -0.2739
4362000000.0 -1.131 0.9262
4366000000.0 -0.007346 1.426
4369000000.0 1.117 0.9331
4372000000.0 1.439 -0.2921
4375000000.0 0.7465 -1.302
4378000000.0 -0.5494 -1.368
4381000000.0 -1.425 -0.4955
4384000000.0 -1.303 0.8028
4388000000.0 -0.2198 1.514
4391000000.0 1.081 1.14
4394000000.0 1.558 -0.1271
4397000000.0 0.8921 -1.29
4400000000.0 -0.4728 -1.483
4403000000.0 -1.472 -0.5242
4406000000.0 -1.361 0.8041
4409000000.0 -0.1846 1.544
4412000000.0 1.107 1.113
4416000000.0 1.538 -0.1897
4419000000.0 0.8254 -1.287
4422000000.0 -0.5302 -1.381
4425000000.0 -1.43 -0.4266
4428000000.0 -1.212 0.8032
4431000000.0 -0.09432 1.451
4434000000.0 1.049 0.9555
4438000000.0 1.389 -0.2257
4441000000.0 0.6506 -1.238
4444000000.0 -0.5656 -1.252
4447000000.0 -1.309 -0.3258
4450000000.0 -1.057 0.8395
4453000000.0 0.01521 1.345
4456000000.0 1.07 0.7829
4459000000.0 1.254 -0.3369
4462000000.0 0.5287 -1.164
4466000000.0 -0.6175 -1.095
4469000000.0 -1.228 -0.1613
4472000000.0 -0.8666 0.8205
4475000000.0 0.1442 1.205
4478000000.0 1.001 0.6032
4481000000.0 1.081 -0.3935
4484000000.0 0.3499 -1.109
4488000000.0 -0.6291 -0.9508
4491000000.0 -1.145 -0.112
4494000000.0 -0.7707 0.8278
4497000000.0 0.1495 1.106
4500000000.0 0.925 0.5943
4503000000.0 1.018 -0.3803
4506000000.0 0.3599 -1.065
4509000000.0 -0.6209 -0.8933
4512000000.0 -1.071 -0.09311
4516000000.0 -0.7787 0.7863
4519000000.0 0.1178 1.117
4522000000.0 0.9449 0.5954
4525000000.0 1.057 -0.3457
4528000000.0 0.4179 -1.087
4531000000.0 -0.585 -0.9625
4534000000.0 -1.117 -0.2215
4538000000.0 -0.8653 0.723
4541000000.0 0.01153 1.173
4544000000.0 0.9132 0.741
4547000000.0 1.18 -0.2522
4550000000.0 0.5686 -1.042
4553000000.0 -0.4671 -1.124
4556000000.0 -1.152 -0.3911
4559000000.0 -1.044 0.6317
4562000000.0 -0.1805 1.232
4566000000.0 0.8213 0.9327
4569000000.0 1.253 -0.06928
4572000000.0 0.8055 -0.994
4575000000.0 -0.2642 -1.254
4578000000.0 -1.143 -0.6052
4581000000.0 -1.205 0.5077
4584000000.0 -0.4031 1.27
4588000000.0 0.6915 1.113
4591000000.0 1.342 0.1464
4594000000.0 0.997 -0.923
4597000000.0 -0.08953 -1.342
4600000000.0 -1.114 -0.8106
4603000000.0 -1.342 0.3743
4606000000.0 -0.5521 1.262
4609000000.0 0.6228 1.236
4612000000.0 1.346 0.3064
4616000000.0 1.092 -0.8479
4619000000.0 0.03847 -1.426
4622000000.0 -1.059 -0.922
4625000000.0 -1.366 0.2441
4628000000.0 -0.6791 1.187
4631000000.0 0.5276 1.292
4634000000.0 1.305 0.4057
4638000000.0 1.138 -0.7548
4641000000.0 0.09954 -1.353
4644000000.0 -1.005 -0.9387
4647000000.0 -1.324 0.1684
4650000000.0 -0.6887 1.159
4653000000.0 0.4523 1.194
4656000000.0 1.245 0.4008
4659000000.0 1.047 -0.7125
4662000000.0 0.09139 -1.241
4666000000.0 -0.9018 -0.8362
4669000000.0 -1.196 0.2137
4672000000.0 -0.5623 1.047
4675000000.0 0.4309 1.063
4678000000.0 1.095 0.3341
4681000000.0 0.9326 -0.6965
4684000000.0 0.0796 -1.099
4688000000.0 -0.8335 -0.7351
4691000000.0 -1.098 0.1766
4694000000.0 -0.527 0.9406
4697000000.0 0.4149 0.9953
4700000000.0 1.052 0.2608
4703000000.0 0.9015 -0.6428
4706000000.0 0.02279 -1.088
4709000000.0 -0.809 -0.7072
4712000000.0 -1.076 0.2452
4716000000.0 -0.5033 0.9422
4719000000.0 0.4218 0.9727
4722000000.0 1.022 0.2418
4725000000.0 0.854 -0.6386
4728000000.0 0.03071 -1.029
4731000000.0 -0.7761 -0.7001
4734000000.0 -1.037 0.1825
4738000000.0 -0.4945 0.8951
4741000000.0 0.3585 0.9929
4744000000.0 0.9826 0.3425
4747000000.0 0.914 -0.5161
4750000000.0 0.1682 -1.035
4753000000.0 -0.7322 -0.7866
4756000000.0 -1.054 0.02157
4759000000.0 -0.6731 0.8609
4762000000.0 0.2174 1.088
4766000000.0 0.9797 0.495
4769000000.0 1.032 -0.4237
4772000000.0 0.3154 -1.07
4775000000.0 -0.657 -0.9599
4778000000.0 -1.161 -0.1281
4781000000.0 -0.8586 0.8057
4784000000.0 0.04973 1.167
4788000000.0 0.9606 0.7079
4791000000.0 1.168 -0.2648
4794000000.0 0.5736 -1.075
4797000000.0 -0.445 -1.129
4800000000.0 -1.186 -0.3675
4803000000.0 -1.036 0.6614
4806000000.0 -0.1717 1.213
4809000000.0 0.8345 0.9497
4812000000.0 1.287 -0.04282
4816000000.0 0.8218 -1.03
4819000000.0 -0.2584 -1.314
4822000000.0 -1.193 -0.6082
4825000000.0 -1.248 0.5333
4828000000.0 -0.3739 1.297
4831000000.0 0.729 1.159
4834000000.0 1.364 0.1304
4838000000.0 0.9968 -0.9618
4841000000.0 -0.1347 -1.385
4844000000.0 -1.143 -0.7915
4847000000.0 -1.349 0.3685
4850000000.0 -0.5332 1.258
4853000000.0 0.6547 1.192
4856000000.0 1.364 0.2797
4859000000.0 1.032 -0.8651
4862000000.0 -0.00744 -1.329
4866000000.0 -1.038 -0.8327
4869000000.0 -1.321 0.2747
4872000000.0 -0.6153 1.177
4875000000.0 0.5367 1.197
4878000000.0 1.245 0.3293
4881000000.0 1.02 -0.7513
4884000000.0 0.05842 -1.259
4888000000.0 -0.9478 -0.816
4891000000.0 -1.191 0.2283
4894000000.0 -0.5766 1.039
4897000000.0 0.436 1.087
4900000000.0 1.116 0.3252
4903000000.0 0.9241 -0.6288
4906000000.0 0.07942 -1.07
4909000000.0 -0.7799 -0.7423
4912000000.0 -1.043 0.1279
4916000000.0 -0.5578 0.8648
4919000000.0 0.3138 0.9424
4922000000.0 0.9296 0.3477
4925000000.0 0.8299 -0.4982
4928000000.0 0.124 -0.9361
4931000000.0 -0.6431 -0.7155
4934000000.0 -0.9335 0.04743
4938000000.0 -0.5744 0.7272
4941000000.0 0.2135 0.8901
4944000000.0 0.851 0.4124
4947000000.0 0.8569 -0.3933
4950000000.0 0.2245 -0.9216
4953000000.0 -0.5654 -0.7332
4956000000.0 -0.9349 -0.05005
4959000000.0 -0.6428 0.7183
4962000000.0 0.1468 0.9426
4966000000.0 0.856 0.5052
4969000000.0 0.9128 -0.3532
4972000000.0 0.3206 -0.9328
4975000000.0 -0.5448 -0.8447
4978000000.0 -0.9921 -0.1206
4981000000.0 -0.7339 0.6889
4984000000.0 0.04418 1.038
4988000000.0 0.8452 0.6244
4991000000.0 1.018 -0.2416
4994000000.0 0.465 -0.9537
4997000000.0 -0.4539 -0.9888
5000000000.0 -1.078 -0.276
5003000000.0 -0.8866 0.6358
5006000000.0 -0.06995 1.183
5009000000.0 0.8255 0.8322
5012000000.0 1.19 -0.1275
5016000000.0 0.6547 -1.025
5019000000.0 -0.3616 -1.174
5022000000.0 -1.168 -0.4523
5025000000.0 -1.114 0.5932
5028000000.0 -0.2255 1.229
5031000000.0 0.7997 0.9878
5034000000.0 1.279 -0.02477
5038000000.0 0.8246 -0.9425
5041000000.0 -0.2193 -1.249
5044000000.0 -1.121 -0.6394
5047000000.0 -1.193 0.4556
5050000000.0 -0.4468 1.208
5053000000.0 0.6435 1.126
5056000000.0 1.256 0.2239
5059000000.0 0.9955 -0.8468
5062000000.0 -0.02205 -1.286
5066000000.0 -1.026 -0.7839
5069000000.0 -1.247 0.2417
5072000000.0 -0.6231 1.117
5075000000.0 0.5024 1.165
5078000000.0 1.201 0.3885
5081000000.0 1.066 -0.6691
5084000000.0 0.1689 -1.222
5088000000.0 -0.8407 -0.8771
5091000000.0 -1.199 0.05559
5094000000.0 -0.6614 0.9675
5097000000.0 0.2765 1.163
5100000000.0 1.061 0.5218
5103000000.0 1.067 -0.4174
5106000000.0 0.3408 -1.081
5109000000.0 -0.6117 -0.9024
5112000000.0 -1.098 -0.1066
5116000000.0 -0.7692 0.7185
5119000000.0 0.009218 1.039
5122000000.0 0.8579 0.6105
5125000000.0 1.018 -0.2412
5128000000.0 0.4354 -0.9339
5131000000.0 -0.403 -0.9521
5134000000.0 -0.9681 -0.2755
5138000000.0 -0.8307 0.5964
5141000000.0 -0.06527 1.004
5144000000.0 0.6912 0.6453
5147000000.0 0.9371 -0.1082
5150000000.0 0.4979 -0.7968
5153000000.0 -0.274 -0.8862
5156000000.0 -0.8902 -0.3111
5159000000.0 -0.8046 0.4316
5162000000.0 -0.128 0.8989
5166000000.0 0.5939 0.6456
5169000000.0 0.9012 -0.02864
5172000000.0 0.5442 -0.7235
5175000000.0 -0.2277 -0.8619
5178000000.0 -0.8057 -0.3836
5181000000.0 -0.8113 0.4152
5184000000.0 -0.1876 0.8895
5188000000.0 0.5543 0.7161
5191000000.0 0.9419 -0.008164
5194000000.0 0.5503 -0.753
5197000000.0 -0.2189 -0.883
5200000000.0 -0.8514 -0.399
5203000000.0 -0.8248 0.4119
5206000000.0 -0.1981 0.9403
5209000000.0 0.5843 0.7374
5212000000.0 0.9592 0.03219
5216000000.0 0.611 -0.7634
5219000000.0 -0.1889 -0.945
5222000000.0 -0.8843 -0.4622
5225000000.0 -0.8897 0.3914
5228000000.0 -0.274 0.9803
5231000000.0 0.5918 0.8117
5234000000.0 1.036 0.07103
5238000000.0 0.7106 -0.7414
5241000000.0 -0.1273 -1.024
5244000000.0 -0.8652 -0.5891
5247000000.0 -1.007 0.31
5250000000.0 -0.3888 0.9796
5253000000.0 0.4957 0.9164
5256000000.0 1.034 0.1903
5259000000.0 0.8596 -0.7113
5262000000.0 0.02446 -1.07
5266000000.0 -0.8239 -0.7222
5269000000.0 -1.062 0.1584
5272000000.0 -0.5613 0.9376
5275000000.0 0.3551 1.015
5278000000.0 1.014 0.3864
5281000000.0 0.9582 -0.4941
5284000000.0 0.2196 -1.09
5288000000.0 -0.6694 -0.8692
5291000000.0 -1.111 -0.0687
5294000000.0 -0.7535 0.793
5297000000.0 0.1108 1.117
5300000000.0 0.9152 0.6124
5303000000.0 1.06 -0.2983
5306000000.0 0.4753 -1.019
5309000000.0 -0.4759 -1.037
5312000000.0 -1.101 -0.283
5316000000.0 -0.9411 0.6612
5319000000.0 -0.1244 1.13
5322000000.0 0.793 0.8213
5325000000.0 1.164 -0.09997
5328000000.0 0.6304 -0.916
5331000000.0 -0.3073 -1.11
5334000000.0 -1.04 -0.4572
5338000000.0 -1.01 0.5058
5341000000.0 -0.2304 1.109
5344000000.0 0.6546 0.8923
5347000000.0 1.098 0.08839
5350000000.0 0.7475 -0.8361
5353000000.0 -0.1593 -1.087
5356000000.0 -0.9412 -0.5744
5359000000.0 -1.016 0.3388
5362000000.0 -0.3541 0.9728
5366000000.0 0.5676 0.9269
5369000000.0 1.023 0.1075
5372000000.0 0.7855 -0.7179
5375000000.0 -0.09771 -1.03
5378000000.0 -0.8517 -0.5773
5381000000.0 -0.977 0.3336
5384000000.0 -0.3311 0.9218
5388000000.0 0.5384 0.8413
5391000000.0 0.9653 0.1146
5394000000.0 0.6838 -0.6454
5397000000.0 -0.1052 -0.8998
5400000000.0 -0.7628 -0.4817
5403000000.0 -0.8516 0.3173
5406000000.0 -0.2752 0.8647
5409000000.0 0.4818 0.7664
5412000000.0 0.8744 0.1049
5416000000.0 0.6097 -0.6294
5419000000.0 -0.1054 -0.8509
5422000000.0 -0.7317 -0.4579
5425000000.0 -0.825 0.3081
5428000000.0 -0.2808 0.8182
5431000000.0 0.4676 0.7472
5434000000.0 0.8664 0.07201
5438000000.0 0.5835 -0.6424
5441000000.0 -0.106 -0.8683
5444000000.0 -0.77 -0.4614
5447000000.0 -0.8315 0.2902
5450000000.0 -0.322 0.8223
5453000000.0 0.4649 0.7459
5456000000.0 0.8607 0.07368
5459000000.0 0.6372 -0.6109
5462000000.0 -0.06966 -0.8961
5466000000.0 -0.7294 -0.5139
5469000000.0 -0.8305 0.2412
5472000000.0 -0.3979 0.823
5475000000.0 0.3904 0.8421
5478000000.0 0.8874 0.211
5481000000.0 0.7496 -0.533
5484000000.0 0.06763 -0.9564
5488000000.0 -0.6909 -0.6761
5491000000.0 -0.9792 0.0468
5494000000.0 -0.5586 0.8299
5497000000.0 0.2741 0.9878
5500000000.0 0.9088 0.4101
5503000000.0 0.875 -0.449
5506000000.0 0.2416 -0.9792
5509000000.0 -0.6028 -0.8301
5512000000.0 -0.9922 -0.05182
5516000000.0 -0.6779 0.7621
5519000000.0 0.1005 0.9933
5522000000.0 0.8164 0.562
5525000000.0 1.01 -0.275
5528000000.0 0.4525 -0.9407
5531000000.0 -0.4531 -0.9543
5534000000.0 -0.9967 -0.2925
5538000000.0 -0.8706 0.6034
5541000000.0 -0.09316 1.053
5544000000.0 0.7287 0.7676
5547000000.0 1.047 -0.1119
5550000000.0 0.6051 -0.8883
5553000000.0 -0.274 -0.9898
5556000000.0 -1.002 -0.4164
5559000000.0 -0.9203 0.4692
5562000000.0 -0.2403 1.012
5566000000.0 0.6356 0.88
5569000000.0 1.026 0.05226
5572000000.0 0.6606 -0.7589
5575000000.0 -0.124 -1.013
5578000000.0 -0.8378 -0.5335
5581000000.0 -0.9448 0.294
5584000000.0 -0.3747 0.9379
5588000000.0 0.474 0.8278
5591000000.0 0.9447 0.1551
5594000000.0 0.7411 -0.61
5597000000.0 -0.03145 -0.9306
5600000000.0 -0.7064 -0.5718
5603000000.0 -0.8811 0.2011
5606000000.0 -0.4003 0.8149
5609000000.0 0.3463 0.8189
5612000000.0 0.8866 0.2475
5616000000.0 0.7238 -0.5305
5619000000.0 0.07262 -0.8693
5622000000.0 -0.6126 -0.5912
5625000000.0 -0.8324 0.1382
5628000000.0 -0.3957 0.7142
5631000000.0 0.2889 0.7979
5634000000.0 0.7938 0.2549
5638000000.0 0.709 -0.4606
5641000000.0 0.08567 -0.8325
5644000000.0 -0.5846 -0.5863
5647000000.0 -0.8588 0.0911
5650000000.0 -0.4236 0.7259
5653000000.0 0.2864 0.7955
5656000000.0 0.8034 0.2582
5659000000.0 0.7149 -0.4491
5662000000.0 0.09427 -0.8668
5666000000.0 -0.6247 -0.6052
5669000000.0 -0.8755 0.09146
5672000000.0 -0.4944 0.755
5675000000.0 0.2754 0.862
5678000000.0 0.8782 0.3156
5681000000.0 0.7701 -0.4533
5684000000.0 0.1049 -0.9316
5688000000.0 -0.6594 -0.6724
5691000000.0 -0.9378 0.07776
5694000000.0 -0.5331 0.805
5697000000.0 0.2986 0.936
5700000000.0 0.8968 0.3829
5703000000.0 0.8501 -0.4731
5706000000.0 0.1724 -0.9829
5709000000.0 -0.6648 -0.7648
5712000000.0 -1.026 0.03447
5716000000.0 -0.6058 0.8306
5719000000.0 0.2111 1.008
5722000000.0 0.9307 0.479
5725000000.0 0.9462 -0.3934
5728000000.0 0.2957 -1.034
5731000000.0 -0.5896 -0.8779
5734000000.0 -1.09 -0.1215
5738000000.0 -0.753 0.7701
5741000000.0 0.09359 1.095
5744000000.0 0.897 0.6089
5747000000.0 1.053 -0.2615
5750000000.0 0.4505 -1.021
5753000000.0 -0.4965 -0.9802
5756000000.0 -1.06 -0.2901
5759000000.0 -0.8824 0.6626
5762000000.0 -0.06626 1.068
5766000000.0 0.8075 0.7323
5769000000.0 1.132 -0.09336
5772000000.0 0.5884 -0.9123
5775000000.0 -0.2892 -1.028
5778000000.0 -0.9897 -0.4361
5781000000.0 -0.9936 0.5065
5784000000.0 -0.2523 1.079
5788000000.0 0.6318 0.8564
5791000000.0 1.079 0.09301
5794000000.0 0.7193 -0.7701
5797000000.0 -0.1387 -1.086
5800000000.0 -0.9228 -0.5901
5803000000.0 -1.0 0.3202
5806000000.0 -0.3428 0.999
5809000000.0 0.4892 0.8912
5812000000.0 1.011 0.2061
5816000000.0 0.784 -0.6713
5819000000.0 -0.01817 -1.013
5822000000.0 -0.7861 -0.635
5825000000.0 -1.001 0.205
5828000000.0 -0.4706 0.8967
5831000000.0 0.38 0.9077
5834000000.0 0.9694 0.2703
5838000000.0 0.7865 -0.5625
5841000000.0 0.08593 -0.9914
5844000000.0 -0.7131 -0.6355
5847000000.0 -0.9668 0.1129
5850000000.0 -0.5003 0.8131
5853000000.0 0.3246 0.8699
5856000000.0 0.8888 0.3072
5859000000.0 0.8132 -0.497
5862000000.0 0.1107 -0.9032
5866000000.0 -0.6213 -0.6284
5869000000.0 -0.9073 0.08424
5872000000.0 -0.4674 0.7723
5875000000.0 0.2752 0.8055
5878000000.0 0.8469 0.3076
5881000000.0 0.762 -0.4429
5884000000.0 0.131 -0.8537
5888000000.0 -0.5919 -0.638
5891000000.0 -0.8694 0.07733
5894000000.0 -0.5069 0.7107
5897000000.0 0.2575 0.8093
5900000000.0 0.8091 0.3058
5903000000.0 0.7744 -0.4108
5906000000.0 0.1618 -0.836
5909000000.0 -0.5218 -0.6623
5912000000.0 -0.8696 0.0199
5916000000.0 -0.5487 0.6305
5919000000.0 0.1893 0.845
5922000000.0 0.7709 0.4477
5925000000.0 0.8091 -0.3395
5928000000.0 0.2418 -0.8527
5931000000.0 -0.4688 -0.7299
5934000000.0 -0.873 -0.09576
5938000000.0 -0.6315 0.6138
5941000000.0 0.08869 0.8885
5944000000.0 0.7294 0.4914
5947000000.0 0.8687 -0.2308
5950000000.0 0.4068 -0.799
5953000000.0 -0.3893 -0.831
5956000000.0 -0.8814 -0.2316
5959000000.0 -0.7468 0.5279
5962000000.0 -0.03981 0.9084
5966000000.0 0.6758 0.6467
5969000000.0 0.9177 -0.1038
5972000000.0 0.5299 -0.7708
5975000000.0 -0.2558 -0.9165
5978000000.0 -0.8619 -0.4034
5981000000.0 -0.8651 0.4315
5984000000.0 -0.2443 0.934
5988000000.0 0.5891 0.777
5991000000.0 0.985 0.0726
5994000000.0 0.6827 -0.7385
5997000000.0 -0.1407 -0.9781
6000000000.0 -0.8408 -0.5314
6003000000.0 -0.9305 0.2978
6006000000.0 -0.3392 0.9296
6009000000.0 0.4721 0.858
6012000000.0 0.9973 0.1767
6016000000.0 0.7641 -0.6405
6019000000.0 -0.0322 -0.9688
6022000000.0 -0.7629 -0.6047
6025000000.0 -0.9782 0.2284
6028000000.0 -0.461 0.882
6031000000.0 0.3832 0.8911
6034000000.0 0.9407 0.2724
6038000000.0 0.8068 -0.5264
6041000000.0 0.05796 -0.9774
6044000000.0 -0.6882 -0.6567
6047000000.0 -0.9504 0.1156
6050000000.0 -0.5112 0.8284
6053000000.0 0.3098 0.8904
6056000000.0 0.8822 0.3383
6059000000.0 0.7849 -0.4796
6062000000.0 0.1199 -0.9172
6066000000.0 -0.6238 -0.6775
6069000000.0 -0.924 0.08809
6072000000.0 -0.5107 0.7458
6075000000.0 0.2387 0.858
6078000000.0 0.8053 0.3487
6081000000.0 0.7563 -0.4028
6084000000.0 0.1842 -0.8487
6088000000.0 -0.5589 -0.6466
6091000000.0 -0.8659 0.008547
6094000000.0 -0.5387 0.6727
6097000000.0 0.1875 0.8591
6100000000.0 0.7875 0.3547
6103000000.0 0.7778 -0.3829
6106000000.0 0.2011 -0.7988
6109000000.0 -0.5164 -0.6867
6112000000.0 -0.8385 -0.002866
6116000000.0 -0.538 0.6436
6119000000.0 0.1711 0.821
6122000000.0 0.7762 0.4136
6125000000.0 0.7872 -0.332
6128000000.0 0.2261 -0.8233
6131000000.0 -0.4601 -0.7411
6134000000.0 -0.8576 -0.02944
6138000000.0 -0.5646 0.633
6141000000.0 0.1096 0.8478
6144000000.0 0.7318 0.4487
6147000000.0 0.8365 -0.2737
6150000000.0 0.3181 -0.8303
6153000000.0 -0.4652 -0.7674
6156000000.0 -0.9102 -0.1061
6159000000.0 -0.6412 0.61
6162000000.0 0.06831 0.8892
6166000000.0 0.7139 0.5192
6169000000.0 0.9073 -0.2093
6172000000.0 0.3787 -0.8524
6175000000.0 -0.4028 -0.8053
6178000000.0 -0.8913 -0.222
6181000000.0 -0.7213 0.6037
6184000000.0 -0.0001318 0.95
6188000000.0 0.7026 0.6236
6191000000.0 0.9291 -0.1699
6194000000.0 0.4381 -0.8172
6197000000.0 -0.3422 -0.8721
6200000000.0 -0.8585 -0.3304
6203000000.0 -0.7803 0.4822
6206000000.0 -0.1082 0.9511
6209000000.0 0.6469 0.6602
6212000000.0 0.8921 -0.02599
6216000000.0 0.5187 -0.718
6219000000.0 -0.2159 -0.8594
6222000000.0 -0.8189 -0.3881
6225000000.0 -0.8339 0.3593
6228000000.0 -0.2384 0.8492
6231000000.0 0.5135 0.7157
6234000000.0 0.9218 0.05413
6238000000.0 0.6225 -0.6907
6241000000.0 -0.09566 -0.8755
6244000000.0 -0.749 -0.479
6247000000.0 -0.8257 0.2572
6250000000.0 -0.3518 0.7941
6253000000.0 0.386 0.7396
6256000000.0 0.8471 0.1645
6259000000.0 0.6472 -0.4773
6262000000.0 0.07137 -0.8273
6266000000.0 -0.5995 -0.5504
