! Created with skrf 1.8.0 (http://scikit-rf.org).
# Hz S RI R 50.0 
!freq ReS11 ImS11
4000000000.0 -0.164 -1.498
4003000000.0 -1.286 -0.8043
4006000000.0 -1.451 0.4377
4009000000.0 -0.5401 1.371
4012000000.0 0.7793 1.327
4016000000.0 1.529 0.2565
4019000000.0 1.14 -1.055
4022000000.0 -0.1202 -1.536
4025000000.0 -1.348 -0.8932
4028000000.0 -1.569 0.4808
4031000000.0 -0.5909 1.47
4034000000.0 0.776 1.419
4038000000.0 1.578 0.2327
4041000000.0 1.177 -1.109
4044000000.0 -0.1219 -1.567
4047000000.0 -1.341 -0.9164
4050000000.0 -1.588 0.4351
4053000000.0 -0.645 1.477
4056000000.0 0.7542 1.445
4059000000.0 1.575 0.3217
4062000000.0 1.314 -0.956
4066000000.0 0.02167 -1.63
4069000000.0 -1.228 -1.068
4072000000.0 -1.597 0.2418
4075000000.0 -0.8137 1.421
4078000000.0 0.5514 1.54
4081000000.0 1.546 0.5529
4084000000.0 1.406 -0.8549
4088000000.0 0.2487 -1.65
4091000000.0 -1.119 -1.253
4094000000.0 -1.637 0.09045
4097000000.0 -0.994 1.324
4100000000.0 0.3893 1.609
4103000000.0 1.429 0.7218
4106000000.0 1.447 -0.6161
4109000000.0 0.4608 -1.485
4112000000.0 -0.8469 -1.304
4116000000.0 -1.512 -0.1959
4119000000.0 -1.106 0.9708
4122000000.0 0.03055 1.49
4125000000.0 1.125 0.9527
4128000000.0 1.447 -0.2413
4131000000.0 0.7757 -1.264
4134000000.0 -0.4332 -1.434
4138000000.0 -1.349 -0.6075
4141000000.0 -1.341 0.6277
4144000000.0 -0.4217 1.444
4147000000.0 0.8845 1.241
4150000000.0 1.499 0.1231
4153000000.0 1.1 -1.036
4156000000.0 -0.1238 -1.549
4159000000.0 -1.263 -0.8885
4162000000.0 -1.465 0.4037
4166000000.0 -0.6539 1.369
4169000000.0 0.5976 1.393
4172000000.0 1.452 0.4041
4175000000.0 1.235 -0.8251
4178000000.0 0.1711 -1.483
4181000000.0 -1.019 -1.05
4184000000.0 -1.508 0.0754
4188000000.0 -0.8908 1.223
4191000000.0 0.3813 1.486
4194000000.0 1.363 0.6803
4197000000.0 1.396 -0.6634
4200000000.0 0.3966 -1.519
4203000000.0 -0.9552 -1.283
4206000000.0 -1.633 -0.06265
4209000000.0 -1.031 1.266
4212000000.0 0.3224 1.61
4216000000.0 1.544 0.7084
4219000000.0 1.525 -0.7554
4222000000.0 0.3148 -1.624
4225000000.0 -1.139 -1.28
4228000000.0 -1.728 0.1188
4231000000.0 -0.929 1.388
4234000000.0 0.5526 1.605
4238000000.0 1.552 0.5174
4241000000.0 1.329 -0.9169
4244000000.0 0.09764 -1.62
4247000000.0 -1.229 -1.052
4250000000.0 -1.545 0.3349
4253000000.0 -0.6858 1.436
4256000000.0 0.6953 1.362
4259000000.0 1.483 0.3036
4262000000.0 1.16 -1.016
4266000000.0 -0.07165 -1.506
4269000000.0 -1.256 -0.8492
4272000000.0 -1.413 0.4233
4275000000.0 -0.5432 1.357
4278000000.0 0.726 1.288
4281000000.0 1.432 0.1896
4284000000.0 1.003 -0.991
4288000000.0 -0.1199 -1.413
4291000000.0 -1.172 -0.7504
4294000000.0 -1.281 0.4148
4297000000.0 -0.4749 1.245
4300000000.0 0.6394 1.138
4303000000.0 1.291 0.2222
4306000000.0 1.015 -0.8576
4309000000.0 -0.004146 -1.301
4312000000.0 -0.9697 -0.8529
4316000000.0 -1.266 0.2059
4319000000.0 -0.6999 1.112
4322000000.0 0.3778 1.24
4325000000.0 1.249 0.5007
4328000000.0 1.187 -0.602
4331000000.0 0.3154 -1.332
4334000000.0 -0.8395 -1.054
4338000000.0 -1.371 -0.04377
4341000000.0 -0.9226 1.033
4344000000.0 0.213 1.413
4347000000.0 1.25 0.7306
4350000000.0 1.362 -0.4835
4353000000.0 0.5153 -1.341
4356000000.0 -0.7284 -1.239
4359000000.0 -1.425 -0.2622
4362000000.0 -1.122 0.9554
4366000000.0 0.0254 1.491
4369000000.0 1.121 0.9368
4372000000.0 1.453 -0.2781
4375000000.0 0.7335 -1.31
4378000000.0 -0.5287 -1.38
4381000000.0 -1.42 -0.4834
4384000000.0 -1.275 0.8262
4388000000.0 -0.1729 1.519
4391000000.0 1.105 1.107
4394000000.0 1.588 -0.1876
4397000000.0 0.8877 -1.317
4400000000.0 -0.5063 -1.496
4403000000.0 -1.522 -0.5214
4406000000.0 -1.345 0.8489
4409000000.0 -0.1594 1.584
4412000000.0 1.126 1.111
4416000000.0 1.551 -0.2203
4419000000.0 0.786 -1.347
4422000000.0 -0.5239 -1.433
4425000000.0 -1.419 -0.4336
4428000000.0 -1.198 0.8652
4431000000.0 -0.07309 1.449
4434000000.0 1.089 0.9774
4438000000.0 1.421 -0.2505
4441000000.0 0.6427 -1.267
4444000000.0 -0.5978 -1.246
4447000000.0 -1.318 -0.2833
4450000000.0 -1.027 0.8371
4453000000.0 0.03963 1.324
4456000000.0 1.037 0.8013
4459000000.0 1.251 -0.3616
4462000000.0 0.4597 -1.167
4466000000.0 -0.6215 -1.076
4469000000.0 -1.225 -0.148
4472000000.0 -0.8523 0.862
4475000000.0 0.1453 1.167
4478000000.0 1.026 0.5962
4481000000.0 1.112 -0.4255
4484000000.0 0.3138 -1.094
4488000000.0 -0.6541 -0.9484
4491000000.0 -1.126 -0.07289
4494000000.0 -0.7494 0.8329
4497000000.0 0.1821 1.088
4500000000.0 1.011 0.5608
4503000000.0 1.023 -0.4196
4506000000.0 0.3283 -1.05
4509000000.0 -0.5854 -0.93
4512000000.0 -1.112 -0.107
4516000000.0 -0.7697 0.7953
4519000000.0 0.122 1.151
4522000000.0 0.9445 0.6228
4525000000.0 1.076 -0.3359
4528000000.0 0.3953 -1.089
4531000000.0 -0.5705 -1.005
4534000000.0 -1.158 -0.1701
4538000000.0 -0.8957 0.7732
4541000000.0 0.03312 1.193
4544000000.0 0.9352 0.7289
4547000000.0 1.166 -0.2514
4550000000.0 0.5539 -1.078
4553000000.0 -0.4548 -1.105
4556000000.0 -1.157 -0.3788
4559000000.0 -1.066 0.6372
4562000000.0 -0.1909 1.262
4566000000.0 0.8558 0.938
4569000000.0 1.273 -0.0343
4572000000.0 0.7754 -1.027
4575000000.0 -0.2458 -1.277
4578000000.0 -1.135 -0.6113
4581000000.0 -1.229 0.516
4584000000.0 -0.3896 1.293
4588000000.0 0.7166 1.123
4591000000.0 1.374 0.171
4594000000.0 0.9776 -0.9276
4597000000.0 -0.1347 -1.379
4600000000.0 -1.153 -0.7537
4603000000.0 -1.314 0.3921
4606000000.0 -0.5672 1.267
4609000000.0 0.6551 1.259
4612000000.0 1.374 0.2799
4616000000.0 1.089 -0.8538
4619000000.0 0.002371 -1.419
4622000000.0 -1.061 -0.8971
4625000000.0 -1.357 0.2377
4628000000.0 -0.6539 1.201
4631000000.0 0.5403 1.245
4634000000.0 1.342 0.4051
4638000000.0 1.111 -0.7766
4641000000.0 0.06059 -1.372
4644000000.0 -0.9971 -0.9022
4647000000.0 -1.331 0.2212
4650000000.0 -0.6915 1.16
4653000000.0 0.5127 1.209
4656000000.0 1.261 0.3444
4659000000.0 1.054 -0.7368
4662000000.0 0.0833 -1.249
4666000000.0 -0.9453 -0.8331
4669000000.0 -1.218 0.2209
4672000000.0 -0.6147 1.051
4675000000.0 0.4525 1.089
4678000000.0 1.131 0.3329
4681000000.0 0.9156 -0.6655
4684000000.0 0.009839 -1.15
4688000000.0 -0.844 -0.7348
4691000000.0 -1.094 0.2005
4694000000.0 -0.5199 1.002
4697000000.0 0.4318 1.026
4700000000.0 1.063 0.302
4703000000.0 0.885 -0.6252
4706000000.0 0.002185 -1.096
4709000000.0 -0.8216 -0.7339
4712000000.0 -1.08 0.1992
4716000000.0 -0.4865 0.9373
4719000000.0 0.4349 0.9725
4722000000.0 1.012 0.243
4725000000.0 0.8415 -0.6393
4728000000.0 0.01453 -1.049
4731000000.0 -0.7883 -0.6746
4734000000.0 -1.015 0.1563
4738000000.0 -0.4766 0.8846
4741000000.0 0.3741 0.9956
4744000000.0 0.9804 0.3247
4747000000.0 0.9073 -0.5572
4750000000.0 0.1573 -1.064
4753000000.0 -0.7176 -0.7969
4756000000.0 -1.093 0.05817
4759000000.0 -0.7032 0.8748
4762000000.0 0.2612 1.101
4766000000.0 1.021 0.5104
4769000000.0 1.08 -0.4566
4772000000.0 0.351 -1.091
4775000000.0 -0.633 -0.9666
4778000000.0 -1.168 -0.1138
4781000000.0 -0.8377 0.8062
4784000000.0 0.0528 1.165
4788000000.0 0.9741 0.7202
4791000000.0 1.173 -0.2833
4794000000.0 0.5651 -1.085
4797000000.0 -0.4806 -1.153
4800000000.0 -1.178 -0.3918
4803000000.0 -1.051 0.6381
4806000000.0 -0.1697 1.206
4809000000.0 0.8499 0.953
4812000000.0 1.286 -0.04057
4816000000.0 0.8022 -1.016
4819000000.0 -0.2934 -1.285
4822000000.0 -1.196 -0.6021
4825000000.0 -1.252 0.5122
4828000000.0 -0.407 1.298
4831000000.0 0.7676 1.133
4834000000.0 1.39 0.1372
4838000000.0 1.007 -1.019
4841000000.0 -0.1811 -1.406
4844000000.0 -1.182 -0.7897
4847000000.0 -1.33 0.4326
4850000000.0 -0.5138 1.288
4853000000.0 0.6625 1.207
4856000000.0 1.341 0.2326
4859000000.0 1.036 -0.9039
4862000000.0 -0.05741 -1.378
4866000000.0 -1.07 -0.8149
4869000000.0 -1.326 0.2974
4872000000.0 -0.5794 1.186
4875000000.0 0.5416 1.175
4878000000.0 1.255 0.3333
4881000000.0 1.021 -0.7643
4884000000.0 0.03855 -1.267
4888000000.0 -0.9374 -0.8282
4891000000.0 -1.189 0.2536
4894000000.0 -0.5644 1.047
4897000000.0 0.4735 1.055
4900000000.0 1.116 0.3175
4903000000.0 0.9435 -0.6388
4906000000.0 0.06253 -1.103
4909000000.0 -0.7744 -0.7204
4912000000.0 -1.015 0.151
4916000000.0 -0.5488 0.8679
4919000000.0 0.3576 0.9669
4922000000.0 0.9153 0.3543
4925000000.0 0.8128 -0.4797
4928000000.0 0.1663 -0.9732
4931000000.0 -0.634 -0.7179
4934000000.0 -0.9391 0.061
4938000000.0 -0.5609 0.7635
4941000000.0 0.2077 0.9198
4944000000.0 0.8366 0.4231
4947000000.0 0.8562 -0.4217
4950000000.0 0.2313 -0.9391
4953000000.0 -0.5707 -0.77
4956000000.0 -0.9679 -0.04034
4959000000.0 -0.6415 0.7041
4962000000.0 0.1583 0.9676
4966000000.0 0.8397 0.5044
4969000000.0 0.9329 -0.3504
4972000000.0 0.3039 -0.958
4975000000.0 -0.5429 -0.862
4978000000.0 -1.012 -0.1134
4981000000.0 -0.7349 0.7046
4984000000.0 0.07488 1.047
4988000000.0 0.8587 0.6115
4991000000.0 1.021 -0.2755
4994000000.0 0.4507 -0.9723
4997000000.0 -0.4466 -0.9986
5000000000.0 -1.095 -0.3017
5003000000.0 -0.9569 0.675
5006000000.0 -0.09016 1.167
5009000000.0 0.8357 0.8372
5012000000.0 1.21 -0.1556
5016000000.0 0.6548 -1.046
5019000000.0 -0.3751 -1.187
5022000000.0 -1.174 -0.4811
5025000000.0 -1.093 0.6093
5028000000.0 -0.215 1.253
5031000000.0 0.824 0.9685
5034000000.0 1.279 -0.01405
5038000000.0 0.8085 -0.9915
5041000000.0 -0.2502 -1.26
5044000000.0 -1.128 -0.6174
5047000000.0 -1.207 0.4677
5050000000.0 -0.4401 1.234
5053000000.0 0.6735 1.114
5056000000.0 1.275 0.2107
5059000000.0 0.9677 -0.8343
5062000000.0 -0.02943 -1.285
5066000000.0 -1.009 -0.8377
5069000000.0 -1.253 0.2863
5072000000.0 -0.5922 1.152
5075000000.0 0.4937 1.189
5078000000.0 1.223 0.3507
5081000000.0 1.025 -0.7059
5084000000.0 0.1125 -1.264
5088000000.0 -0.8539 -0.9041
5091000000.0 -1.18 0.07681
5094000000.0 -0.7409 0.9359
5097000000.0 0.2757 1.144
5100000000.0 1.052 0.4916
5103000000.0 1.029 -0.4779
5106000000.0 0.3174 -1.091
5109000000.0 -0.6165 -0.9212
5112000000.0 -1.034 -0.122
5116000000.0 -0.7759 0.7341
5119000000.0 0.07135 1.09
5122000000.0 0.8426 0.5723
5125000000.0 1.039 -0.2619
5128000000.0 0.4303 -0.9358
5131000000.0 -0.4419 -0.9409
5134000000.0 -0.9637 -0.3013
5138000000.0 -0.8213 0.5925
5141000000.0 -0.07957 0.9777
5144000000.0 0.7382 0.6656
5147000000.0 0.9777 -0.152
5150000000.0 0.4895 -0.7712
5153000000.0 -0.3636 -0.9056
5156000000.0 -0.8472 -0.3092
5159000000.0 -0.7735 0.4376
5162000000.0 -0.1401 0.869
5166000000.0 0.6102 0.6742
5169000000.0 0.8925 -0.01556
5172000000.0 0.5145 -0.736
5175000000.0 -0.2737 -0.8607
5178000000.0 -0.8286 -0.3914
5181000000.0 -0.8264 0.4079
5184000000.0 -0.169 0.9016
5188000000.0 0.582 0.7126
5191000000.0 0.9341 -0.004035
5194000000.0 0.5615 -0.7403
5197000000.0 -0.2327 -0.9142
5200000000.0 -0.8395 -0.3831
5203000000.0 -0.8547 0.4149
5206000000.0 -0.1636 0.9192
5209000000.0 0.5948 0.7524
5212000000.0 0.9621 0.001531
5216000000.0 0.6156 -0.7755
5219000000.0 -0.1914 -0.978
5222000000.0 -0.8957 -0.418
5225000000.0 -0.9086 0.4081
5228000000.0 -0.2541 0.9496
5231000000.0 0.5964 0.8263
5234000000.0 1.02 0.09164
5238000000.0 0.7014 -0.7783
5241000000.0 -0.117 -1.022
5244000000.0 -0.8807 -0.5596
5247000000.0 -1.007 0.3204
5250000000.0 -0.4005 0.9938
5253000000.0 0.5274 0.9418
5256000000.0 1.041 0.1966
5259000000.0 0.8053 -0.6712
5262000000.0 -0.01713 -1.067
5266000000.0 -0.841 -0.69
5269000000.0 -1.075 0.1681
5272000000.0 -0.5427 0.943
5275000000.0 0.3668 1.042
5278000000.0 1.018 0.4055
5281000000.0 0.9741 -0.529
5284000000.0 0.2329 -1.097
5288000000.0 -0.6896 -0.8576
5291000000.0 -1.126 -0.05606
5294000000.0 -0.7413 0.7789
5297000000.0 0.1103 1.104
5300000000.0 0.9185 0.6248
5303000000.0 1.077 -0.3174
5306000000.0 0.4654 -1.016
5309000000.0 -0.4913 -1.032
5312000000.0 -1.139 -0.3046
5316000000.0 -0.9485 0.6725
5319000000.0 -0.1014 1.133
5322000000.0 0.8191 0.8216
5325000000.0 1.151 -0.1359
5328000000.0 0.6687 -0.9483
5331000000.0 -0.337 -1.11
5334000000.0 -1.06 -0.5122
5338000000.0 -1.034 0.5028
5341000000.0 -0.2727 1.089
5344000000.0 0.6748 0.8864
5347000000.0 1.152 0.05736
5350000000.0 0.7418 -0.8303
5353000000.0 -0.1794 -1.095
5356000000.0 -0.977 -0.5611
5359000000.0 -1.019 0.3783
5362000000.0 -0.3435 1.022
5366000000.0 0.5979 0.9006
5369000000.0 1.067 0.09841
5372000000.0 0.7456 -0.7603
5375000000.0 -0.1143 -1.04
5378000000.0 -0.8913 -0.5436
5381000000.0 -0.9629 0.3243
5384000000.0 -0.3389 0.9605
5388000000.0 0.5127 0.8668
5391000000.0 0.9585 0.08301
5394000000.0 0.6787 -0.694
5397000000.0 -0.1144 -0.9432
5400000000.0 -0.79 -0.4618
5403000000.0 -0.8563 0.3158
5406000000.0 -0.2721 0.8424
5409000000.0 0.5107 0.7519
5412000000.0 0.8677 0.07279
5416000000.0 0.5913 -0.648
5419000000.0 -0.1262 -0.8531
5422000000.0 -0.774 -0.4786
5425000000.0 -0.795 0.302
5428000000.0 -0.2597 0.8231
5431000000.0 0.5064 0.7376
5434000000.0 0.8873 0.07038
5438000000.0 0.5912 -0.6202
5441000000.0 -0.1498 -0.8685
5444000000.0 -0.7727 -0.4439
5447000000.0 -0.8077 0.3403
5450000000.0 -0.275 0.8398
5453000000.0 0.4752 0.7345
5456000000.0 0.8898 0.08901
5459000000.0 0.634 -0.6406
5462000000.0 -0.08004 -0.9113
5466000000.0 -0.7338 -0.5217
5469000000.0 -0.8491 0.2554
5472000000.0 -0.3552 0.8661
5475000000.0 0.4306 0.8045
5478000000.0 0.8996 0.2241
5481000000.0 0.7427 -0.5908
5484000000.0 0.08734 -0.9366
5488000000.0 -0.7011 -0.668
5491000000.0 -0.9712 0.1063
5494000000.0 -0.5216 0.8271
5497000000.0 0.316 0.923
5500000000.0 0.9422 0.4015
5503000000.0 0.9341 -0.4559
5506000000.0 0.226 -0.9926
5509000000.0 -0.6049 -0.8199
5512000000.0 -1.022 -0.06091
5516000000.0 -0.684 0.7463
5519000000.0 0.1204 1.045
5522000000.0 0.8443 0.5801
5525000000.0 0.9945 -0.341
5528000000.0 0.3993 -0.9211
5531000000.0 -0.4546 -0.9839
5534000000.0 -1.037 -0.2803
5538000000.0 -0.8705 0.6058
5541000000.0 -0.1024 1.054
5544000000.0 0.7875 0.7387
5547000000.0 1.079 -0.1124
5550000000.0 0.6145 -0.8946
5553000000.0 -0.294 -1.016
5556000000.0 -1.015 -0.4228
5559000000.0 -0.9609 0.4327
5562000000.0 -0.2314 1.038
5566000000.0 0.6816 0.8181
5569000000.0 1.06 0.05284
5572000000.0 0.691 -0.7505
5575000000.0 -0.1478 -0.977
5578000000.0 -0.845 -0.5358
5581000000.0 -0.9243 0.3275
5584000000.0 -0.3481 0.9266
5588000000.0 0.4926 0.8395
5591000000.0 0.9533 0.1502
5594000000.0 0.7231 -0.6206
5597000000.0 -0.06479 -0.9463
5600000000.0 -0.7516 -0.5496
5603000000.0 -0.8995 0.2192
5606000000.0 -0.3711 0.8152
5609000000.0 0.4 0.8021
5612000000.0 0.8641 0.2213
5616000000.0 0.722 -0.5277
5619000000.0 0.04364 -0.8502
5622000000.0 -0.6398 -0.5775
5625000000.0 -0.8332 0.1435
5628000000.0 -0.4146 0.7407
5631000000.0 0.2874 0.7892
5634000000.0 0.8072 0.2495
5638000000.0 0.6999 -0.4778
5641000000.0 0.07421 -0.8365
5644000000.0 -0.613 -0.6011
5647000000.0 -0.8754 0.1172
5650000000.0 -0.4526 0.7239
5653000000.0 0.2814 0.7756
5656000000.0 0.8179 0.2735
5659000000.0 0.7305 -0.4546
5662000000.0 0.09045 -0.8562
5666000000.0 -0.6359 -0.599
5669000000.0 -0.8826 0.1173
5672000000.0 -0.4573 0.7505
5675000000.0 0.3194 0.8384
5678000000.0 0.8442 0.2931
5681000000.0 0.7772 -0.4997
5684000000.0 0.1111 -0.9297
5688000000.0 -0.6991 -0.6713
5691000000.0 -0.9464 0.1005
5694000000.0 -0.5251 0.8081
5697000000.0 0.2985 0.9437
5700000000.0 0.9162 0.353
5703000000.0 0.9087 -0.5165
5706000000.0 0.1527 -1.021
5709000000.0 -0.6688 -0.7696
5712000000.0 -1.041 0.03511
5716000000.0 -0.6305 0.8047
5719000000.0 0.2506 1.007
5722000000.0 0.9654 0.4744
5725000000.0 0.9723 -0.4265
5728000000.0 0.2938 -1.033
5731000000.0 -0.5996 -0.8676
5734000000.0 -1.093 -0.08374
5738000000.0 -0.7933 0.7481
5741000000.0 0.1143 1.069
5744000000.0 0.8876 0.6116
5747000000.0 1.064 -0.3077
5750000000.0 0.4652 -1.019
5753000000.0 -0.5139 -0.9702
5756000000.0 -1.098 -0.2596
5759000000.0 -0.9221 0.6999
5762000000.0 -0.1126 1.094
5766000000.0 0.8297 0.7923
5769000000.0 1.089 -0.1098
5772000000.0 0.6168 -0.9359
5775000000.0 -0.3403 -1.053
5778000000.0 -1.018 -0.3787
5781000000.0 -0.9886 0.5001
5784000000.0 -0.2355 1.033
5788000000.0 0.6585 0.8465
5791000000.0 1.122 0.07671
5794000000.0 0.7354 -0.7959
5797000000.0 -0.1501 -1.065
5800000000.0 -0.9338 -0.54
5803000000.0 -1.014 0.3542
5806000000.0 -0.3691 1.005
5809000000.0 0.5298 0.8914
5812000000.0 1.032 0.1699
5816000000.0 0.7517 -0.6591
5819000000.0 -0.05581 -1.088
5822000000.0 -0.8142 -0.6368
5825000000.0 -0.9612 0.2395
5828000000.0 -0.4632 0.8813
5831000000.0 0.41 0.8959
5834000000.0 0.9591 0.2478
5838000000.0 0.7949 -0.5766
5841000000.0 0.06622 -0.9573
5844000000.0 -0.6913 -0.6603
5847000000.0 -0.961 0.1429
5850000000.0 -0.4864 0.7966
5853000000.0 0.3421 0.9012
5856000000.0 0.8634 0.281
5859000000.0 0.7797 -0.5237
5862000000.0 0.0668 -0.913
5866000000.0 -0.6579 -0.6503
5869000000.0 -0.9379 0.1306
5872000000.0 -0.4932 0.7742
5875000000.0 0.3164 0.8862
5878000000.0 0.842 0.3094
5881000000.0 0.755 -0.476
5884000000.0 0.1225 -0.8586
5888000000.0 -0.6018 -0.6223
5891000000.0 -0.8872 0.09348
5894000000.0 -0.4991 0.685
5897000000.0 0.2421 0.7956
5900000000.0 0.8101 0.3537
5903000000.0 0.7354 -0.438
5906000000.0 0.1397 -0.8693
5909000000.0 -0.5387 -0.6325
5912000000.0 -0.8356 -0.008041
5916000000.0 -0.5731 0.6689
5919000000.0 0.1793 0.8267
5922000000.0 0.7775 0.3803
5925000000.0 0.81 -0.3561
5928000000.0 0.2388 -0.8332
5931000000.0 -0.4869 -0.716
5934000000.0 -0.8593 -0.068
5938000000.0 -0.6307 0.6248
5941000000.0 0.1119 0.8954
5944000000.0 0.7337 0.5202
5947000000.0 0.854 -0.2473
5950000000.0 0.357 -0.8332
5953000000.0 -0.4135 -0.8273
5956000000.0 -0.8932 -0.2365
5959000000.0 -0.7463 0.5355
5962000000.0 -0.03302 0.9494
5966000000.0 0.6779 0.6509
5969000000.0 0.9806 -0.1078
5972000000.0 0.5278 -0.8052
5975000000.0 -0.2988 -0.9267
5978000000.0 -0.9096 -0.3927
5981000000.0 -0.8893 0.4529
5984000000.0 -0.2203 0.9602
5988000000.0 0.6155 0.7603
5991000000.0 0.9743 0.03833
5994000000.0 0.6426 -0.775
5997000000.0 -0.1473 -0.9711
6000000000.0 -0.8907 -0.5351
6003000000.0 -0.932 0.3165
6006000000.0 -0.3584 0.9392
6009000000.0 0.5228 0.8557
6012000000.0 0.9771 0.1994
6016000000.0 0.7596 -0.6526
6019000000.0 -0.02235 -1.011
6022000000.0 -0.7916 -0.5975
6025000000.0 -0.9677 0.2399
6028000000.0 -0.434 0.8904
6031000000.0 0.3965 0.9031
6034000000.0 0.9325 0.2551
6038000000.0 0.7739 -0.5745
6041000000.0 0.06692 -0.9463
6044000000.0 -0.7031 -0.6417
6047000000.0 -0.924 0.1519
6050000000.0 -0.4567 0.7949
6053000000.0 0.3402 0.8845
6056000000.0 0.8877 0.2979
6059000000.0 0.767 -0.4998
6062000000.0 0.09017 -0.9593
6066000000.0 -0.6138 -0.6397
6069000000.0 -0.9213 0.09131
6072000000.0 -0.4843 0.7433
6075000000.0 0.2888 0.872
6078000000.0 0.8215 0.3243
6081000000.0 0.7549 -0.4765
6084000000.0 0.1565 -0.8783
6088000000.0 -0.6038 -0.6351
6091000000.0 -0.8452 0.06488
6094000000.0 -0.4951 0.6794
6097000000.0 0.2233 0.8262
6100000000.0 0.7886 0.3583
6103000000.0 0.762 -0.3583
6106000000.0 0.169 -0.8389
6109000000.0 -0.5168 -0.6716
6112000000.0 -0.8729 -0.007849
6116000000.0 -0.5631 0.6635
6119000000.0 0.1845 0.8558
6122000000.0 0.768 0.4028
6125000000.0 0.793 -0.3482
6128000000.0 0.1869 -0.8556
6131000000.0 -0.5025 -0.7185
6134000000.0 -0.8679 -0.05638
6138000000.0 -0.6041 0.66
6141000000.0 0.1739 0.8858
6144000000.0 0.7619 0.425
6147000000.0 0.8343 -0.3157
6150000000.0 0.2875 -0.8728
6153000000.0 -0.4654 -0.7341
6156000000.0 -0.9076 -0.08121
6159000000.0 -0.6586 0.643
6162000000.0 0.08344 0.8799
6166000000.0 0.769 0.5156
6169000000.0 0.8935 -0.2405
6172000000.0 0.4026 -0.8433
6175000000.0 -0.4217 -0.824
6178000000.0 -0.9287 -0.1959
6181000000.0 -0.7432 0.5938
6184000000.0 0.03559 0.9231
6188000000.0 0.7335 0.6166
6191000000.0 0.9261 -0.1892
6194000000.0 0.4593 -0.8241
6197000000.0 -0.351 -0.8952
6200000000.0 -0.9011 -0.284
6203000000.0 -0.7502 0.538
6206000000.0 -0.08567 0.9503
6209000000.0 0.6313 0.666
6212000000.0 0.9338 -0.06263
6216000000.0 0.5309 -0.7693
6219000000.0 -0.2377 -0.8946
6222000000.0 -0.8711 -0.3641
6225000000.0 -0.8229 0.3961
6228000000.0 -0.228 0.8859
6231000000.0 0.5612 0.7021
6234000000.0 0.8901 0.01548
6238000000.0 0.5955 -0.6618
6241000000.0 -0.1124 -0.8674
6244000000.0 -0.7529 -0.4778
6247000000.0 -0.8476 0.2787
6250000000.0 -0.2993 0.794
6253000000.0 0.3935 0.7566
6256000000.0 0.8409 0.1587
6259000000.0 0.6499 -0.4983
6262000000.0 0.002259 -0.7977
6266000000.0 -0.6032 -0.5698
6269000000.0 -0.8133 0.08171
