! Created with skrf 1.8.0 (http://scikit-rf.org).
# Hz S RI R 50.0 
!freq ReS11 ImS11
4000000000.0 0.2745 -1.5
4003000000.0 -0.9458 -1.161
4006000000.0 -1.483 0.05438
4009000000.0 -0.9478 1.201
4012000000.0 0.3355 1.465
4016000000.0 1.401 0.6449
4019000000.0 1.358 -0.6703
4022000000.0 0.3686 -1.496
4025000000.0 -0.9759 -1.24
4028000000.0 -1.565 -0.06966
4031000000.0 -0.9844 1.271
4034000000.0 0.397 1.58
4038000000.0 1.451 0.6475
4041000000.0 1.46 -0.6999
4044000000.0 0.3417 -1.524
4047000000.0 -0.9427 -1.238
4050000000.0 -1.581 -0.03236
4053000000.0 -0.9835 1.23
4056000000.0 0.319 1.563
4059000000.0 1.405 0.7572
4062000000.0 1.455 -0.6331
4066000000.0 0.4718 -1.474
4069000000.0 -0.8974 -1.351
4072000000.0 -1.609 -0.2146
4075000000.0 -1.163 1.134
4078000000.0 0.1026 1.595
4081000000.0 1.338 0.9601
4084000000.0 1.599 -0.5541
4088000000.0 0.6695 -1.489
4091000000.0 -0.7264 -1.482
4094000000.0 -1.676 -0.3869
4097000000.0 -1.282 1.021
4100000000.0 -0.03709 1.665
4103000000.0 1.223 1.1
4106000000.0 1.602 -0.2189
4109000000.0 0.7899 -1.354
4112000000.0 -0.4825 -1.485
4116000000.0 -1.421 -0.581
4119000000.0 -1.359 0.6825
4122000000.0 -0.3246 1.464
4125000000.0 0.8604 1.209
4128000000.0 1.486 0.1372
4131000000.0 1.081 -1.015
4134000000.0 -0.06035 -1.473
4138000000.0 -1.175 -0.9135
4141000000.0 -1.47 0.2741
4144000000.0 -0.7499 1.343
4147000000.0 0.5459 1.429
4150000000.0 1.425 0.5161
4153000000.0 1.317 -0.7651
4156000000.0 0.2766 -1.481
4159000000.0 -0.9632 -1.157
4162000000.0 -1.535 -0.04259
4166000000.0 -1.036 1.161
4169000000.0 0.195 1.504
4172000000.0 1.296 0.8252
4175000000.0 1.425 -0.4478
4178000000.0 0.5659 -1.351
4181000000.0 -0.6544 -1.356
4184000000.0 -1.478 -0.333
4188000000.0 -1.187 0.9603
4191000000.0 -0.1159 1.472
4194000000.0 1.074 1.085
4197000000.0 1.538 -0.1058
4200000000.0 0.89 -1.301
4203000000.0 -0.4017 -1.544
4206000000.0 -1.504 -0.6436
4209000000.0 -1.485 0.7456
4212000000.0 -0.3431 1.621
4216000000.0 1.109 1.268
4219000000.0 1.686 -0.05658
4222000000.0 1.036 -1.371
4225000000.0 -0.4521 -1.684
4228000000.0 -1.6 -0.6664
4231000000.0 -1.497 0.8249
4234000000.0 -0.2964 1.704
4238000000.0 1.139 1.193
4241000000.0 1.692 -0.1874
4244000000.0 0.9237 -1.433
4247000000.0 -0.542 -1.589
4250000000.0 -1.601 -0.4853
4253000000.0 -1.393 0.9199
4256000000.0 -0.1107 1.678
4259000000.0 1.207 1.116
4262000000.0 1.607 -0.3315
4266000000.0 0.7197 -1.45
4269000000.0 -0.686 -1.435
4272000000.0 -1.537 -0.3002
4275000000.0 -1.205 1.013
4278000000.0 0.08892 1.538
4281000000.0 1.232 0.8682
4284000000.0 1.441 -0.4553
4288000000.0 0.525 -1.369
4291000000.0 -0.7069 -1.258
4294000000.0 -1.389 -0.1944
4297000000.0 -1.049 0.9349
4300000000.0 0.06145 1.349
4303000000.0 1.099 0.8155
4306000000.0 1.315 -0.3365
4309000000.0 0.5561 -1.209
4312000000.0 -0.549 -1.182
4316000000.0 -1.266 -0.305
4319000000.0 -1.062 0.7395
4322000000.0 -0.1166 1.295
4325000000.0 0.904 0.9375
4328000000.0 1.339 -0.1253
4331000000.0 0.7845 -1.075
4334000000.0 -0.3508 -1.302
4338000000.0 -1.256 -0.5846
4341000000.0 -1.237 0.6
4344000000.0 -0.3072 1.35
4347000000.0 0.8443 1.137
4350000000.0 1.414 0.07235
4353000000.0 0.9536 -1.019
4356000000.0 -0.1635 -1.399
4359000000.0 -1.188 -0.7948
4362000000.0 -1.324 0.4176
4366000000.0 -0.5544 1.294
4369000000.0 0.6272 1.269
4372000000.0 1.409 0.3385
4375000000.0 1.16 -0.9017
4378000000.0 0.09884 -1.457
4381000000.0 -1.073 -0.999
4384000000.0 -1.454 0.1721
4388000000.0 -0.8501 1.238
4391000000.0 0.4463 1.453
4394000000.0 1.445 0.4932
4397000000.0 1.334 -0.8375
4400000000.0 0.2491 -1.563
4403000000.0 -1.001 -1.22
4406000000.0 -1.576 0.007173
4409000000.0 -0.9891 1.251
4412000000.0 0.3533 1.552
4416000000.0 1.41 0.6835
4419000000.0 1.456 -0.6863
4422000000.0 0.3747 -1.507
4425000000.0 -0.9429 -1.258
4428000000.0 -1.573 -0.04824
4431000000.0 -0.9575 1.166
4434000000.0 0.2571 1.551
4438000000.0 1.324 0.694
4441000000.0 1.392 -0.6243
4444000000.0 0.3683 -1.449
4447000000.0 -0.9906 -1.069
4450000000.0 -1.472 -0.002239
4453000000.0 -0.8935 1.159
4456000000.0 0.3768 1.391
4459000000.0 1.305 0.5828
4462000000.0 1.23 -0.651
4466000000.0 0.2415 -1.332
4469000000.0 -0.9303 -0.9971
4472000000.0 -1.329 0.1559
4475000000.0 -0.6956 1.101
4478000000.0 0.4167 1.221
4481000000.0 1.179 0.398
4484000000.0 1.048 -0.6724
4488000000.0 0.06452 -1.195
4491000000.0 -0.9061 -0.7698
4494000000.0 -1.151 0.2013
4497000000.0 -0.5435 1.025
4500000000.0 0.4385 1.05
4503000000.0 1.052 0.2937
4506000000.0 0.8641 -0.6638
4509000000.0 0.02135 -1.075
4512000000.0 -0.8012 -0.7173
4516000000.0 -1.022 0.1844
4519000000.0 -0.5124 0.9628
4522000000.0 0.4524 0.9886
4525000000.0 1.058 0.2556
4528000000.0 0.8859 -0.662
4531000000.0 0.0733 -1.074
4534000000.0 -0.8197 -0.7313
4538000000.0 -1.064 0.1814
4541000000.0 -0.5196 0.9743
4544000000.0 0.3943 1.001
4547000000.0 1.072 0.3255
4550000000.0 0.9457 -0.6177
4553000000.0 0.1529 -1.123
4556000000.0 -0.7634 -0.8293
4559000000.0 -1.149 0.08054
4562000000.0 -0.6837 0.9348
4566000000.0 0.2836 1.121
4569000000.0 1.071 0.5233
4572000000.0 1.093 -0.4873
4575000000.0 0.3349 -1.163
4578000000.0 -0.6862 -0.988
4581000000.0 -1.229 -0.1002
4584000000.0 -0.8798 0.8897
4588000000.0 0.1093 1.263
4591000000.0 1.041 0.7235
4594000000.0 1.258 -0.3503
4597000000.0 0.5197 -1.204
4600000000.0 -0.5904 -1.177
4603000000.0 -1.278 -0.2858
4606000000.0 -1.069 0.8216
4609000000.0 -0.04443 1.37
4612000000.0 1.013 0.9323
4616000000.0 1.332 -0.2101
4619000000.0 0.69 -1.171
4622000000.0 -0.4646 -1.275
4625000000.0 -1.321 -0.4594
4628000000.0 -1.181 0.7298
4631000000.0 -0.1844 1.374
4634000000.0 0.9303 1.068
4638000000.0 1.404 -0.07353
4641000000.0 0.7848 -1.131
4644000000.0 -0.4034 -1.348
4647000000.0 -1.311 -0.4768
4650000000.0 -1.205 0.6412
4653000000.0 -0.2759 1.314
4656000000.0 0.8592 1.044
4659000000.0 1.335 -0.01573
4662000000.0 0.7688 -1.069
4666000000.0 -0.3422 -1.285
4669000000.0 -1.228 -0.5157
4672000000.0 -1.131 0.5921
4675000000.0 -0.2075 1.243
4678000000.0 0.7859 0.9319
4681000000.0 1.228 -0.04598
4684000000.0 0.7332 -0.975
4688000000.0 -0.2986 -1.14
4691000000.0 -1.063 -0.4852
4694000000.0 -1.047 0.5721
4697000000.0 -0.2129 1.153
4700000000.0 0.7901 0.8449
4703000000.0 1.148 -0.0922
4706000000.0 0.621 -0.9312
4709000000.0 -0.3621 -1.052
4712000000.0 -1.017 -0.3586
4716000000.0 -0.9147 0.5831
4719000000.0 -0.1325 1.053
4722000000.0 0.7537 0.7629
4725000000.0 1.018 -0.1267
4728000000.0 0.5381 -0.8872
4731000000.0 -0.3325 -0.976
4734000000.0 -0.9689 -0.3114
4738000000.0 -0.7895 0.6315
4741000000.0 -0.1363 0.9839
4744000000.0 0.7067 0.7233
4747000000.0 0.9876 -0.09718
4750000000.0 0.5438 -0.8337
4753000000.0 -0.3038 -0.9705
4756000000.0 -0.9443 -0.4025
4759000000.0 -0.9082 0.4768
4762000000.0 -0.1632 1.029
4766000000.0 0.7047 0.8123
4769000000.0 1.078 0.0131
4772000000.0 0.6907 -0.8266
4775000000.0 -0.2031 -1.033
4778000000.0 -0.9653 -0.5076
4781000000.0 -1.008 0.4289
4784000000.0 -0.3235 1.06
4788000000.0 0.6009 0.9309
4791000000.0 1.149 0.1094
4794000000.0 0.8468 -0.7988
4797000000.0 -0.04293 -1.164
4800000000.0 -0.9306 -0.6976
4803000000.0 -1.153 0.2467
4806000000.0 -0.5318 1.039
4809000000.0 0.4207 1.105
4812000000.0 1.122 0.4006
4816000000.0 1.058 -0.6557
4819000000.0 0.1876 -1.243
4822000000.0 -0.8503 -0.9196
4825000000.0 -1.274 0.04715
4828000000.0 -0.7868 1.005
4831000000.0 0.3157 1.281
4834000000.0 1.167 0.5809
4838000000.0 1.232 -0.5474
4841000000.0 0.3591 -1.295
4844000000.0 -0.7624 -1.135
4847000000.0 -1.342 -0.116
4850000000.0 -0.9484 0.9779
4853000000.0 0.1646 1.342
4856000000.0 1.199 0.7535
4859000000.0 1.277 -0.4074
4862000000.0 0.4379 -1.297
4866000000.0 -0.7113 -1.175
4869000000.0 -1.367 -0.2177
4872000000.0 -1.044 0.9185
4875000000.0 0.07382 1.364
4878000000.0 1.09 0.8164
4881000000.0 1.302 -0.3053
4884000000.0 0.4375 -1.195
4888000000.0 -0.6001 -1.174
4891000000.0 -1.247 -0.245
4894000000.0 -0.9934 0.8211
4897000000.0 0.04319 1.245
4900000000.0 0.9695 0.7413
4903000000.0 1.17 -0.2812
4906000000.0 0.5415 -1.054
4909000000.0 -0.4914 -1.022
4912000000.0 -1.099 -0.2592
4916000000.0 -0.8682 0.6574
4919000000.0 -0.0538 1.055
4922000000.0 0.7956 0.6855
4925000000.0 1.015 -0.161
4928000000.0 0.4779 -0.8501
4931000000.0 -0.3611 -0.8886
4934000000.0 -0.9226 -0.3222
4938000000.0 -0.8469 0.4964
4941000000.0 -0.1275 0.9486
4944000000.0 0.6663 0.6901
4947000000.0 0.9421 -0.06108
4950000000.0 0.4927 -0.7993
4953000000.0 -0.2906 -0.9027
4956000000.0 -0.8849 -0.3536
4959000000.0 -0.837 0.4655
4962000000.0 -0.1789 0.9392
4966000000.0 0.6232 0.7057
4969000000.0 0.9556 -0.03586
4972000000.0 0.5909 -0.7517
4975000000.0 -0.2077 -0.9239
4978000000.0 -0.8717 -0.4031
4981000000.0 -0.8889 0.4136
4984000000.0 -0.2723 0.9741
4988000000.0 0.5908 0.8035
4991000000.0 1.003 0.07464
4994000000.0 0.7077 -0.7351
4997000000.0 -0.1153 -1.055
5000000000.0 -0.9262 -0.5782
5003000000.0 -1.022 0.3392
5006000000.0 -0.412 1.01
5009000000.0 0.5224 0.9666
5012000000.0 1.107 0.1874
5016000000.0 0.8778 -0.7518
5019000000.0 -0.01642 -1.157
5022000000.0 -0.9222 -0.753
5025000000.0 -1.181 0.25
5028000000.0 -0.5469 1.041
5031000000.0 0.4604 1.122
5034000000.0 1.187 0.3735
5038000000.0 1.016 -0.7047
5041000000.0 0.1391 -1.246
5044000000.0 -0.8876 -0.9172
5047000000.0 -1.28 0.1001
5050000000.0 -0.7305 1.076
5053000000.0 0.3444 1.236
5056000000.0 1.175 0.5544
5059000000.0 1.149 -0.5418
5062000000.0 0.3281 -1.26
5066000000.0 -0.7614 -1.053
5069000000.0 -1.306 -0.07917
5072000000.0 -0.8848 0.9292
5075000000.0 0.1196 1.296
5078000000.0 1.099 0.6874
5081000000.0 1.238 -0.383
5084000000.0 0.4765 -1.186
5088000000.0 -0.5961 -1.098
5091000000.0 -1.23 -0.2639
5094000000.0 -0.9724 0.7983
5097000000.0 -0.0275 1.205
5100000000.0 0.9103 0.7723
5103000000.0 1.157 -0.1814
5106000000.0 0.6408 -0.98
5109000000.0 -0.3325 -1.085
5112000000.0 -1.055 -0.4369
5116000000.0 -0.995 0.5134
5119000000.0 -0.2094 1.068
5122000000.0 0.6744 0.8721
5125000000.0 1.102 0.008845
5128000000.0 0.7179 -0.7996
5131000000.0 -0.1604 -1.077
5134000000.0 -0.8996 -0.5524
5138000000.0 -0.9684 0.3509
5141000000.0 -0.3732 0.9528
5144000000.0 0.5104 0.8372
5147000000.0 1.005 0.1829
5150000000.0 0.7452 -0.6427
5153000000.0 -0.02828 -0.955
5156000000.0 -0.7376 -0.6148
5159000000.0 -0.9233 0.1852
5162000000.0 -0.4134 0.8415
5166000000.0 0.3734 0.8607
5169000000.0 0.8842 0.2728
5172000000.0 0.7669 -0.5156
5175000000.0 0.09377 -0.8881
5178000000.0 -0.6314 -0.6427
5181000000.0 -0.9249 0.1067
5184000000.0 -0.4776 0.7862
5188000000.0 0.292 0.8511
5191000000.0 0.8799 0.272
5194000000.0 0.7632 -0.4838
5197000000.0 0.08205 -0.9299
5200000000.0 -0.6511 -0.6711
5203000000.0 -0.9298 0.1025
5206000000.0 -0.5026 0.8184
5209000000.0 0.3471 0.9018
5212000000.0 0.9153 0.3377
5216000000.0 0.8199 -0.48
5219000000.0 0.1114 -0.9655
5222000000.0 -0.684 -0.6765
5225000000.0 -0.9647 0.1248
5228000000.0 -0.5542 0.8177
5231000000.0 0.2767 0.9594
5234000000.0 0.9316 0.3653
5238000000.0 0.8902 -0.4822
5241000000.0 0.1586 -1.014
5244000000.0 -0.699 -0.7709
5247000000.0 -1.041 0.01312
5250000000.0 -0.6325 0.8234
5253000000.0 0.2302 1.027
5256000000.0 0.9475 0.4578
5259000000.0 0.9638 -0.4221
5262000000.0 0.3221 -1.039
5266000000.0 -0.6152 -0.8898
5269000000.0 -1.069 -0.09625
5272000000.0 -0.7715 0.7344
5275000000.0 0.06516 1.06
5278000000.0 0.8431 0.6344
5281000000.0 1.064 -0.2613
5284000000.0 0.4697 -0.9722
5288000000.0 -0.433 -0.9968
5291000000.0 -1.041 -0.3448
5294000000.0 -0.9271 0.6012
5297000000.0 -0.1569 1.108
5300000000.0 0.7345 0.8355
5303000000.0 1.121 -0.001647
5306000000.0 0.7065 -0.8599
5309000000.0 -0.224 -1.083
5312000000.0 -0.9619 -0.5549
5316000000.0 -1.07 0.3894
5319000000.0 -0.3735 1.092
5322000000.0 0.5719 1.008
5325000000.0 1.147 0.1694
5328000000.0 0.894 -0.7628
5331000000.0 -0.004526 -1.182
5334000000.0 -0.9016 -0.7464
5338000000.0 -1.137 0.1832
5341000000.0 -0.5298 1.017
5344000000.0 0.3797 1.081
5347000000.0 1.059 0.3921
5350000000.0 0.9852 -0.5714
5353000000.0 0.1834 -1.144
5356000000.0 -0.7303 -0.8316
5359000000.0 -1.106 0.06553
5362000000.0 -0.7103 0.8893
5366000000.0 0.259 1.079
5369000000.0 0.996 0.467
5372000000.0 0.979 -0.4714
5375000000.0 0.2641 -1.082
5378000000.0 -0.6456 -0.8722
5381000000.0 -1.044 -0.02163
5384000000.0 -0.6607 0.7973
5388000000.0 0.2045 1.033
5391000000.0 0.9155 0.4857
5394000000.0 0.9204 -0.3892
5397000000.0 0.2503 -0.9488
5400000000.0 -0.5614 -0.7508
5403000000.0 -0.9642 -0.04987
5406000000.0 -0.6126 0.738
5409000000.0 0.1813 0.9056
5412000000.0 0.8287 0.4431
5416000000.0 0.8346 -0.336
5419000000.0 0.2387 -0.8618
5422000000.0 -0.5366 -0.7088
5425000000.0 -0.9057 -0.02617
5428000000.0 -0.5864 0.6829
5431000000.0 0.2202 0.8682
5434000000.0 0.8024 0.3907
5438000000.0 0.7886 -0.3842
5441000000.0 0.1735 -0.8332
5444000000.0 -0.5674 -0.6943
5447000000.0 -0.8643 0.03115
5450000000.0 -0.5819 0.6766
5453000000.0 0.2059 0.8526
5456000000.0 0.7794 0.4176
5459000000.0 0.8272 -0.3677
5462000000.0 0.1964 -0.8574
5466000000.0 -0.5077 -0.6906
5469000000.0 -0.8931 -0.04879
5472000000.0 -0.566 0.6187
5475000000.0 0.1157 0.906
5478000000.0 0.7801 0.4691
5481000000.0 0.8819 -0.2647
5484000000.0 0.3251 -0.862
5488000000.0 -0.4402 -0.8336
5491000000.0 -0.9534 -0.1817
5494000000.0 -0.733 0.6391
5497000000.0 -0.004041 0.9248
5500000000.0 0.7174 0.6027
5503000000.0 0.952 -0.1551
5506000000.0 0.506 -0.8646
5509000000.0 -0.3584 -0.9101
5512000000.0 -0.9385 -0.3559
5516000000.0 -0.8465 0.5034
5519000000.0 -0.1577 0.9964
5522000000.0 0.649 0.7376
5525000000.0 0.9862 -0.0184
5528000000.0 0.6548 -0.7718
5531000000.0 -0.1512 -1.036
5534000000.0 -0.9115 -0.5385
5538000000.0 -0.9788 0.337
5541000000.0 -0.3821 0.9561
5544000000.0 0.5258 0.9448
5547000000.0 1.056 0.2239
5550000000.0 0.8183 -0.6616
5553000000.0 0.02708 -1.053
5556000000.0 -0.8021 -0.6972
5559000000.0 -1.018 0.1644
5562000000.0 -0.5304 0.9008
5566000000.0 0.3405 0.9965
5569000000.0 0.9822 0.3414
5572000000.0 0.8964 -0.5057
5575000000.0 0.1727 -1.041
5578000000.0 -0.6349 -0.7915
5581000000.0 -1.032 0.001409
5584000000.0 -0.6414 0.7649
5588000000.0 0.1806 1.009
5591000000.0 0.8711 0.5075
5594000000.0 0.9331 -0.3302
5597000000.0 0.3101 -0.9296
5600000000.0 -0.5312 -0.8028
5603000000.0 -0.9599 -0.1198
5606000000.0 -0.6952 0.6681
5609000000.0 0.08745 0.951
5612000000.0 0.7562 0.5407
5616000000.0 0.8788 -0.2482
5619000000.0 0.3859 -0.8389
5622000000.0 -0.4212 -0.8269
5625000000.0 -0.889 -0.1669
5628000000.0 -0.6662 0.5618
5631000000.0 0.000478 0.877
5634000000.0 0.6763 0.5809
5638000000.0 0.8665 -0.1666
5641000000.0 0.3883 -0.7853
5644000000.0 -0.3528 -0.8094
5647000000.0 -0.8192 -0.2145
5650000000.0 -0.6722 0.5051
5653000000.0 -0.03058 0.8633
5656000000.0 0.6293 0.5447
5659000000.0 0.8195 -0.18
5662000000.0 0.3953 -0.7469
5666000000.0 -0.3696 -0.8051
5669000000.0 -0.8436 -0.1838
5672000000.0 -0.6655 0.5441
5675000000.0 -0.006462 0.8923
5678000000.0 0.6997 0.5555
5681000000.0 0.8995 -0.179
5684000000.0 0.3918 -0.8124
5688000000.0 -0.3728 -0.8215
5691000000.0 -0.8635 -0.234
5694000000.0 -0.7371 0.5787
5697000000.0 -0.01143 0.9573
5700000000.0 0.6927 0.6552
5703000000.0 0.9586 -0.1748
5706000000.0 0.4534 -0.8688
5709000000.0 -0.3907 -0.9035
5712000000.0 -0.9552 -0.295
5716000000.0 -0.8042 0.567
5719000000.0 -0.09292 1.018
5722000000.0 0.6985 0.6995
5725000000.0 1.014 -0.1169
5728000000.0 0.576 -0.8625
5731000000.0 -0.3014 -0.9764
5734000000.0 -0.9933 -0.3839
5738000000.0 -0.9352 0.5039
5741000000.0 -0.2209 1.03
5744000000.0 0.6581 0.8492
5747000000.0 1.085 0.035
5750000000.0 0.7203 -0.8401
5753000000.0 -0.2076 -1.058
5756000000.0 -0.9504 -0.5555
5759000000.0 -0.9858 0.3623
5762000000.0 -0.3677 1.058
5766000000.0 0.5438 0.963
5769000000.0 1.033 0.1569
5772000000.0 0.8225 -0.7068
5775000000.0 -0.02855 -1.07
5778000000.0 -0.8498 -0.6933
5781000000.0 -1.107 0.2256
5784000000.0 -0.5447 0.9696
5788000000.0 0.3676 1.022
5791000000.0 1.024 0.3749
5794000000.0 0.9279 -0.5279
5797000000.0 0.1553 -1.067
5800000000.0 -0.7182 -0.799
5803000000.0 -1.087 0.04271
5806000000.0 -0.7212 0.8292
5809000000.0 0.2623 1.066
5812000000.0 0.9391 0.465
5816000000.0 0.9694 -0.3826
5819000000.0 0.3051 -1.007
5822000000.0 -0.5849 -0.8666
5825000000.0 -1.037 -0.1185
5828000000.0 -0.7187 0.6936
5831000000.0 0.05435 1.064
5834000000.0 0.8279 0.5632
5838000000.0 0.9737 -0.2918
5841000000.0 0.396 -0.9322
5844000000.0 -0.463 -0.8785
5847000000.0 -0.9684 -0.1712
5850000000.0 -0.7585 0.6211
5853000000.0 -0.002194 0.947
5856000000.0 0.7479 0.6015
5859000000.0 0.9239 -0.1647
5862000000.0 0.4257 -0.8368
5866000000.0 -0.4115 -0.8522
5869000000.0 -0.9145 -0.2023
5872000000.0 -0.7593 0.5423
5875000000.0 -0.03867 0.9186
5878000000.0 0.6899 0.602
5881000000.0 0.8526 -0.1608
5884000000.0 0.432 -0.7962
5888000000.0 -0.3411 -0.8121
5891000000.0 -0.832 -0.2757
5894000000.0 -0.7186 0.5057
5897000000.0 -0.02326 0.8546
5900000000.0 0.6169 0.6003
5903000000.0 0.8735 -0.108
5906000000.0 0.4521 -0.7362
5909000000.0 -0.307 -0.7886
5912000000.0 -0.7878 -0.259
5916000000.0 -0.7349 0.4545
5919000000.0 -0.06972 0.8445
5922000000.0 0.5981 0.6043
5925000000.0 0.8272 -0.04526
5928000000.0 0.4726 -0.6994
5931000000.0 -0.217 -0.8061
5934000000.0 -0.8009 -0.3222
5938000000.0 -0.8011 0.384
5941000000.0 -0.1695 0.8549
5944000000.0 0.536 0.6697
5947000000.0 0.8785 0.04053
5950000000.0 0.5781 -0.6364
5953000000.0 -0.1266 -0.8584
5956000000.0 -0.732 -0.4854
5959000000.0 -0.8562 0.3135
5962000000.0 -0.3034 0.8402
5966000000.0 0.4581 0.7979
5969000000.0 0.891 0.2045
5972000000.0 0.7104 -0.5763
5975000000.0 0.01951 -0.9462
5978000000.0 -0.7129 -0.6222
5981000000.0 -0.9075 0.1691
5984000000.0 -0.5027 0.8282
5988000000.0 0.334 0.92
5991000000.0 0.9129 0.3241
5994000000.0 0.8685 -0.4982
5997000000.0 0.1458 -0.9665
6000000000.0 -0.6311 -0.7512
6003000000.0 -0.9671 0.0107
6006000000.0 -0.6239 0.7415
6009000000.0 0.1849 0.9337
6012000000.0 0.8752 0.4912
6016000000.0 0.9144 -0.3836
6019000000.0 0.3033 -0.9299
6022000000.0 -0.5629 -0.8402
6025000000.0 -0.9675 -0.1012
6028000000.0 -0.7372 0.6916
6031000000.0 0.06855 0.9887
6034000000.0 0.8393 0.5434
6038000000.0 0.9966 -0.259
6041000000.0 0.3967 -0.9001
6044000000.0 -0.4462 -0.895
6047000000.0 -0.9529 -0.2179
6050000000.0 -0.7511 0.598
6053000000.0 -0.01854 0.994
6056000000.0 0.7433 0.624
6059000000.0 0.9382 -0.2169
6062000000.0 0.4598 -0.8403
6066000000.0 -0.3809 -0.8605
6069000000.0 -0.9124 -0.2618
6072000000.0 -0.7362 0.5479
6075000000.0 -0.0443 0.9225
6078000000.0 0.6947 0.6233
6081000000.0 0.9078 -0.1615
6084000000.0 0.4464 -0.7547
6088000000.0 -0.3229 -0.805
6091000000.0 -0.8525 -0.2743
6094000000.0 -0.7542 0.4788
6097000000.0 -0.1116 0.8517
6100000000.0 0.5951 0.6337
6103000000.0 0.8694 -0.08485
6106000000.0 0.461 -0.7074
6109000000.0 -0.2697 -0.8058
6112000000.0 -0.8173 -0.3172
6116000000.0 -0.7447 0.4621
6119000000.0 -0.126 0.8623
6122000000.0 0.6032 0.6246
6125000000.0 0.8458 -0.06768
6128000000.0 0.4969 -0.708
6131000000.0 -0.2292 -0.8028
6134000000.0 -0.7911 -0.3263
6138000000.0 -0.7464 0.4096
6141000000.0 -0.146 0.8443
6144000000.0 0.5666 0.6489
6147000000.0 0.8414 -0.03142
6150000000.0 0.5447 -0.6877
6153000000.0 -0.1911 -0.8891
6156000000.0 -0.7831 -0.3983
6159000000.0 -0.8298 0.3306
6162000000.0 -0.2501 0.8499
6166000000.0 0.5268 0.7092
6169000000.0 0.8804 0.09385
6172000000.0 0.6019 -0.6561
6175000000.0 -0.1234 -0.8768
6178000000.0 -0.7873 -0.479
6181000000.0 -0.8473 0.3038
6184000000.0 -0.3508 0.8722
6188000000.0 0.4807 0.7833
6191000000.0 0.9132 0.1287
6194000000.0 0.6676 -0.5937
6197000000.0 -0.05654 -0.924
6200000000.0 -0.7583 -0.5599
6203000000.0 -0.8816 0.2151
6206000000.0 -0.3985 0.8341
6209000000.0 0.397 0.84
6212000000.0 0.8775 0.2212
6216000000.0 0.7306 -0.5055
6219000000.0 0.05505 -0.9327
6222000000.0 -0.6297 -0.6069
6225000000.0 -0.9055 0.1193
6228000000.0 -0.4581 0.7824
6231000000.0 0.298 0.8521
6234000000.0 0.8226 0.3132
6238000000.0 0.7353 -0.4264
6241000000.0 0.1514 -0.8622
6244000000.0 -0.5379 -0.6705
6247000000.0 -0.8812 0.02062
6250000000.0 -0.5633 0.6521
6253000000.0 0.1521 0.8335
6256000000.0 0.7118 0.3769
6259000000.0 0.7944 -0.2698
6262000000.0 0.2605 -0.7688
