! Created with skrf 1.8.0 (http://scikit-rf.org).
# Hz S RI R 50.0 
!freq ReS11 ImS11
4000000000.0 -0.5013 -1.455
4003000000.0 -1.383 -0.5441
4006000000.0 -1.268 0.7741
4009000000.0 -0.2557 1.503
4012000000.0 1.021 1.093
4016000000.0 1.559 -0.1221
4019000000.0 0.8673 -1.276
4022000000.0 -0.3983 -1.503
4025000000.0 -1.502 -0.5761
4028000000.0 -1.424 0.7912
4031000000.0 -0.2361 1.621
4034000000.0 1.112 1.204
4038000000.0 1.648 -0.05157
4041000000.0 0.9219 -1.374
4044000000.0 -0.4652 -1.539
4047000000.0 -1.493 -0.625
4050000000.0 -1.467 0.7861
4053000000.0 -0.3084 1.592
4056000000.0 1.064 1.231
4059000000.0 1.635 -0.02315
4062000000.0 0.9848 -1.277
4066000000.0 -0.3355 -1.608
4069000000.0 -1.442 -0.7267
4072000000.0 -1.532 0.6078
4075000000.0 -0.4812 1.511
4078000000.0 0.8806 1.395
4081000000.0 1.606 0.1998
4084000000.0 1.189 -1.103
4088000000.0 -0.1084 -1.643
4091000000.0 -1.312 -0.9223
4094000000.0 -1.6 0.4476
4097000000.0 -0.6846 1.505
4100000000.0 0.6588 1.434
4103000000.0 1.535 0.4245
4106000000.0 1.287 -0.9259
4109000000.0 0.09606 -1.525
4112000000.0 -1.078 -1.067
4116000000.0 -1.508 0.11
4119000000.0 -0.8876 1.212
4122000000.0 0.3243 1.41
4125000000.0 1.29 0.683
4128000000.0 1.343 -0.5171
4131000000.0 0.4853 -1.365
4134000000.0 -0.7307 -1.263
4138000000.0 -1.451 -0.2626
4141000000.0 -1.105 0.9388
4144000000.0 -0.0373 1.488
4147000000.0 1.108 0.9788
4150000000.0 1.469 -0.2481
4153000000.0 0.7311 -1.261
4156000000.0 -0.525 -1.428
4159000000.0 -1.389 -0.5315
4162000000.0 -1.276 0.7466
4166000000.0 -0.2499 1.476
4169000000.0 0.9667 1.116
4172000000.0 1.509 -0.02086
4175000000.0 0.9135 -1.161
4178000000.0 -0.3456 -1.466
4181000000.0 -1.292 -0.6889
4184000000.0 -1.383 0.6011
4188000000.0 -0.4067 1.447
4191000000.0 0.8858 1.245
4194000000.0 1.494 0.09478
4197000000.0 1.034 -1.156
4200000000.0 -0.2536 -1.533
4203000000.0 -1.4 -0.7221
4206000000.0 -1.442 0.6907
4209000000.0 -0.3891 1.559
4212000000.0 1.075 1.281
4216000000.0 1.63 -0.09346
4219000000.0 0.8851 -1.332
4222000000.0 -0.5406 -1.557
4225000000.0 -1.542 -0.4969
4228000000.0 -1.262 0.9505
4231000000.0 -0.01556 1.591
4234000000.0 1.223 0.9267
4238000000.0 1.51 -0.4008
4241000000.0 0.556 -1.424
4244000000.0 -0.7744 -1.291
4247000000.0 -1.478 -0.1639
4250000000.0 -1.024 1.059
4253000000.0 0.222 1.416
4256000000.0 1.231 0.7115
4259000000.0 1.346 -0.5848
4262000000.0 0.3594 -1.359
4266000000.0 -0.8337 -1.164
4269000000.0 -1.426 -0.04193
4272000000.0 -0.9417 1.064
4275000000.0 0.234 1.406
4278000000.0 1.22 0.6502
4281000000.0 1.271 -0.5429
4284000000.0 0.332 -1.326
4288000000.0 -0.8285 -1.077
4291000000.0 -1.357 -0.08662
4294000000.0 -0.8632 0.9933
4297000000.0 0.1836 1.279
4300000000.0 1.099 0.6718
4303000000.0 1.243 -0.4334
4306000000.0 0.4868 -1.178
4309000000.0 -0.6379 -1.114
4312000000.0 -1.254 -0.2802
4316000000.0 -1.039 0.8324
4319000000.0 -0.04311 1.306
4322000000.0 0.9966 0.9199
4325000000.0 1.341 -0.1699
4328000000.0 0.7105 -1.139
4331000000.0 -0.3943 -1.323
4334000000.0 -1.305 -0.523
4338000000.0 -1.262 0.7116
4341000000.0 -0.2688 1.454
4344000000.0 0.9451 1.106
4347000000.0 1.468 -0.03107
4350000000.0 0.9034 -1.181
4353000000.0 -0.315 -1.481
4356000000.0 -1.354 -0.6651
4359000000.0 -1.353 0.6337
4362000000.0 -0.3583 1.497
4366000000.0 0.8951 1.21
4369000000.0 1.525 0.05305
4372000000.0 1.015 -1.157
4375000000.0 -0.3223 -1.509
4378000000.0 -1.373 -0.7053
4381000000.0 -1.432 0.6433
4384000000.0 -0.3895 1.487
4388000000.0 0.9393 1.252
4391000000.0 1.54 0.01336
4394000000.0 0.9518 -1.232
4397000000.0 -0.3893 -1.46
4400000000.0 -1.439 -0.5755
4403000000.0 -1.332 0.7816
4406000000.0 -0.1719 1.498
4409000000.0 1.094 1.023
4412000000.0 1.442 -0.2203
4416000000.0 0.6945 -1.259
4419000000.0 -0.5948 -1.284
4422000000.0 -1.335 -0.2747
4425000000.0 -1.026 0.8589
4428000000.0 0.03486 1.306
4431000000.0 1.063 0.7618
4434000000.0 1.227 -0.3686
4438000000.0 0.4448 -1.164
4441000000.0 -0.6453 -1.029
4444000000.0 -1.214 -0.1404
4447000000.0 -0.8567 0.8891
4450000000.0 0.1719 1.229
4453000000.0 1.064 0.6281
4456000000.0 1.133 -0.4413
4459000000.0 0.3536 -1.165
4462000000.0 -0.6936 -0.9734
4466000000.0 -1.21 -0.05093
4469000000.0 -0.7768 0.8929
4472000000.0 0.2087 1.178
4475000000.0 1.065 0.5864
4478000000.0 1.087 -0.4549
4481000000.0 0.3123 -1.165
4484000000.0 -0.7152 -0.9673
4488000000.0 -1.181 -0.06003
4491000000.0 -0.8106 0.9019
4494000000.0 0.209 1.197
4497000000.0 1.067 0.6305
4500000000.0 1.147 -0.4062
4503000000.0 0.3913 -1.158
4506000000.0 -0.6388 -1.03
4509000000.0 -1.209 -0.1639
4512000000.0 -0.9246 0.8252
4516000000.0 0.06244 1.255
4519000000.0 1.029 0.7685
4522000000.0 1.242 -0.2841
4525000000.0 0.5579 -1.154
4528000000.0 -0.5471 -1.207
4531000000.0 -1.274 -0.3632
4534000000.0 -1.077 0.783
4538000000.0 -0.08448 1.334
4541000000.0 0.9615 0.9242
4544000000.0 1.323 -0.1537
4547000000.0 0.7324 -1.131
4550000000.0 -0.3967 -1.279
4553000000.0 -1.255 -0.5297
4556000000.0 -1.209 0.5971
4559000000.0 -0.2936 1.357
4562000000.0 0.8457 1.095
4566000000.0 1.376 0.02798
4569000000.0 0.9246 -1.029
4572000000.0 -0.2069 -1.389
4575000000.0 -1.203 -0.6976
4578000000.0 -1.345 0.4691
4581000000.0 -0.4623 1.335
4584000000.0 0.7396 1.22
4588000000.0 1.434 0.1809
4591000000.0 1.027 -0.9807
4594000000.0 -0.1402 -1.411
4597000000.0 -1.192 -0.7882
4600000000.0 -1.372 0.4384
4603000000.0 -0.5291 1.317
4606000000.0 0.6805 1.217
4609000000.0 1.361 0.1991
4612000000.0 1.006 -0.9139
4616000000.0 -0.1171 -1.371
4619000000.0 -1.113 -0.7695
4622000000.0 -1.277 0.3937
4625000000.0 -0.4887 1.258
4628000000.0 0.6708 1.117
4631000000.0 1.254 0.1766
4634000000.0 0.8964 -0.8931
4638000000.0 -0.138 -1.265
4641000000.0 -1.016 -0.6972
4644000000.0 -1.136 0.4151
4647000000.0 -0.3968 1.134
4650000000.0 0.6607 1.009
4653000000.0 1.158 0.1061
4656000000.0 0.7947 -0.8579
4659000000.0 -0.1763 -1.137
4662000000.0 -0.9962 -0.5731
4666000000.0 -1.058 0.4301
4669000000.0 -0.3185 1.072
4672000000.0 0.643 0.8664
4675000000.0 1.078 0.08413
4678000000.0 0.6934 -0.8373
4681000000.0 -0.1669 -1.084
4684000000.0 -0.9391 -0.5297
4688000000.0 -1.007 0.3886
4691000000.0 -0.3174 1.032
4694000000.0 0.6059 0.9061
4697000000.0 1.119 0.1117
4700000000.0 0.7908 -0.7819
4703000000.0 -0.1179 -1.119
4706000000.0 -0.9807 -0.6377
4709000000.0 -1.073 0.3376
4712000000.0 -0.4358 1.055
4716000000.0 0.5802 0.9965
4719000000.0 1.172 0.1963
4722000000.0 0.8809 -0.7782
4725000000.0 -0.04252 -1.161
4728000000.0 -0.9272 -0.7327
4731000000.0 -1.155 0.2778
4734000000.0 -0.5254 1.054
4738000000.0 0.4574 1.108
4741000000.0 1.14 0.3589
4744000000.0 1.039 -0.6345
4747000000.0 0.1348 -1.201
4750000000.0 -0.8566 -0.9317
4753000000.0 -1.259 0.03597
4756000000.0 -0.7832 1.011
4759000000.0 0.2727 1.282
4762000000.0 1.155 0.5891
4766000000.0 1.245 -0.532
4769000000.0 0.3827 -1.295
4772000000.0 -0.768 -1.097
4775000000.0 -1.312 -0.1193
4778000000.0 -0.9784 0.9455
4781000000.0 0.1308 1.387
4784000000.0 1.136 0.7905
4788000000.0 1.333 -0.3741
4791000000.0 0.574 -1.262
4794000000.0 -0.6346 -1.265
4797000000.0 -1.411 -0.2925
4800000000.0 -1.108 0.8903
4803000000.0 -0.04144 1.374
4806000000.0 1.042 0.8968
4809000000.0 1.353 -0.2529
4812000000.0 0.6547 -1.193
4816000000.0 -0.5249 -1.269
4819000000.0 -1.331 -0.3793
4822000000.0 -1.132 0.7778
4825000000.0 -0.08991 1.366
4828000000.0 0.9945 0.9039
4831000000.0 1.312 -0.2195
4834000000.0 0.649 -1.182
4838000000.0 -0.509 -1.209
4841000000.0 -1.245 -0.3241
4844000000.0 -1.012 0.7209
4847000000.0 -0.03505 1.22
4850000000.0 0.9205 0.776
4853000000.0 1.121 -0.2265
4856000000.0 0.5187 -1.012
4859000000.0 -0.4389 -1.043
4862000000.0 -1.068 -0.2813
4866000000.0 -0.8723 0.6133
4869000000.0 -0.03762 1.058
4872000000.0 0.8013 0.6755
4875000000.0 1.02 -0.1939
4878000000.0 0.4704 -0.8955
4881000000.0 -0.4084 -0.9232
4884000000.0 -0.9492 -0.2345
4888000000.0 -0.7709 0.5826
4891000000.0 -0.03711 0.951
4894000000.0 0.753 0.6137
4897000000.0 0.9294 -0.2068
4900000000.0 0.4176 -0.8627
4903000000.0 -0.4181 -0.8671
4906000000.0 -0.9381 -0.2337
4909000000.0 -0.7176 0.6102
4912000000.0 0.003417 0.9548
4916000000.0 0.7395 0.5746
4919000000.0 0.9322 -0.1875
4922000000.0 0.4161 -0.8665
4925000000.0 -0.3998 -0.8804
4928000000.0 -0.9469 -0.2452
4931000000.0 -0.8148 0.6039
4934000000.0 -0.06661 1.007
4938000000.0 0.747 0.7064
4941000000.0 1.052 -0.1642
4944000000.0 0.5271 -0.9388
4947000000.0 -0.4448 -1.023
4950000000.0 -1.101 -0.3366
4953000000.0 -0.9987 0.6514
4956000000.0 -0.09399 1.185
4959000000.0 0.8682 0.8377
4962000000.0 1.232 -0.1425
4966000000.0 0.6403 -1.083
4969000000.0 -0.4438 -1.176
4972000000.0 -1.223 -0.3856
4975000000.0 -1.047 0.7213
4978000000.0 -0.09789 1.288
4981000000.0 0.9572 0.8814
4984000000.0 1.263 -0.2055
4988000000.0 0.6554 -1.131
4991000000.0 -0.4757 -1.209
4994000000.0 -1.236 -0.3692
4997000000.0 -1.06 0.7333
5000000000.0 -0.09729 1.29
5003000000.0 0.9613 0.8491
5006000000.0 1.248 -0.1767
5009000000.0 0.6175 -1.091
5012000000.0 -0.5287 -1.173
5016000000.0 -1.198 -0.3007
5019000000.0 -0.9907 0.7332
5022000000.0 -0.02231 1.189
5025000000.0 0.901 0.7332
5028000000.0 1.117 -0.2719
5031000000.0 0.4713 -1.02
5034000000.0 -0.4929 -0.977
5038000000.0 -1.04 -0.2134
5041000000.0 -0.7975 0.6759
5044000000.0 0.05537 0.9988
5047000000.0 0.8108 0.5494
5050000000.0 0.933 -0.274
5053000000.0 0.3294 -0.8471
5056000000.0 -0.4778 -0.7988
5059000000.0 -0.9353 -0.1193
5062000000.0 -0.6632 0.6145
5066000000.0 0.1179 0.8881
5069000000.0 0.8147 0.4265
5072000000.0 0.806 -0.3907
5075000000.0 0.1785 -0.853
5078000000.0 -0.6379 -0.631
5081000000.0 -0.9138 0.08574
5084000000.0 -0.4278 0.808
5088000000.0 0.3569 0.8345
5091000000.0 0.9065 0.1875
5094000000.0 0.692 -0.6087
5097000000.0 -0.07672 -0.9167
5100000000.0 -0.7757 -0.5085
5103000000.0 -0.9046 0.3624
5106000000.0 -0.2636 0.9144
5109000000.0 0.6232 0.7804
5112000000.0 1.022 -0.01341
5116000000.0 0.6306 -0.8421
5119000000.0 -0.2874 -0.9922
5122000000.0 -0.9946 -0.362
5125000000.0 -0.9044 0.5848
5128000000.0 -0.09133 1.109
5131000000.0 0.8267 0.7825
5134000000.0 1.122 -0.2024
5138000000.0 0.5223 -1.0
5141000000.0 -0.4856 -1.046
5144000000.0 -1.105 -0.2518
5147000000.0 -0.8759 0.701
5150000000.0 0.03537 1.107
5153000000.0 0.8626 0.6718
5156000000.0 1.084 -0.2601
5159000000.0 0.4426 -0.9816
5162000000.0 -0.4724 -1.001
5166000000.0 -1.069 -0.2453
5169000000.0 -0.8652 0.6643
5172000000.0 -0.0153 1.075
5175000000.0 0.8496 0.7112
5178000000.0 1.079 -0.2311
5181000000.0 0.5036 -0.965
5184000000.0 -0.4327 -0.9999
5188000000.0 -1.051 -0.2605
5191000000.0 -0.8617 0.6125
5194000000.0 -0.02299 1.044
5197000000.0 0.7877 0.6594
5200000000.0 1.01 -0.1952
5203000000.0 0.465 -0.9371
5206000000.0 -0.4066 -0.9259
5209000000.0 -1.005 -0.246
5212000000.0 -0.7691 0.6335
5216000000.0 -0.01336 0.9765
5219000000.0 0.8128 0.5998
5222000000.0 0.9635 -0.2538
5225000000.0 0.4032 -0.8924
5228000000.0 -0.4747 -0.8443
5231000000.0 -0.9631 -0.1173
5234000000.0 -0.6473 0.6903
5238000000.0 0.1427 0.9653
5241000000.0 0.843 0.4616
5244000000.0 0.861 -0.3887
5247000000.0 0.2345 -0.9289
5250000000.0 -0.6373 -0.709
5253000000.0 -0.9511 0.05301
5256000000.0 -0.4977 0.8039
5259000000.0 0.3162 0.9004
5262000000.0 0.9119 0.2989
5266000000.0 0.8104 -0.5692
5269000000.0 0.02606 -0.9843
5272000000.0 -0.7539 -0.6179
5275000000.0 -0.9669 0.2305
5278000000.0 -0.4285 0.8769
5281000000.0 0.4395 0.8846
5284000000.0 0.9636 0.1654
5288000000.0 0.7648 -0.6403
5291000000.0 -0.07191 -0.9657
5294000000.0 -0.8211 -0.5904
5297000000.0 -0.9604 0.2623
5300000000.0 -0.4073 0.9108
5303000000.0 0.4532 0.9241
5306000000.0 1.007 0.2344
5309000000.0 0.8234 -0.647
5312000000.0 0.01306 -1.053
5316000000.0 -0.7995 -0.6996
5319000000.0 -1.08 0.1775
5322000000.0 -0.5195 0.9305
5325000000.0 0.4159 1.011
5328000000.0 1.055 0.326
5331000000.0 0.9243 -0.5782
5334000000.0 0.1526 -1.069
5338000000.0 -0.7713 -0.8146
5341000000.0 -1.107 0.05995
5344000000.0 -0.6544 0.87
5347000000.0 0.2508 1.106
5350000000.0 0.9946 0.4776
5353000000.0 1.042 -0.4531
5356000000.0 0.3146 -1.111
5359000000.0 -0.669 -0.9472
5362000000.0 -1.146 -0.1281
5366000000.0 -0.8451 0.8131
5369000000.0 0.09603 1.167
5372000000.0 0.9405 0.6604
5375000000.0 1.124 -0.3127
5378000000.0 0.4385 -1.066
5381000000.0 -0.5253 -1.035
5384000000.0 -1.152 -0.2206
5388000000.0 -0.8997 0.7203
5391000000.0 0.004986 1.161
5394000000.0 0.9066 0.7072
5397000000.0 1.105 -0.2293
5400000000.0 0.5169 -1.016
5403000000.0 -0.4646 -1.014
5406000000.0 -1.076 -0.275
5409000000.0 -0.8955 0.6639
5412000000.0 -0.03688 1.065
5416000000.0 0.8104 0.6925
5419000000.0 1.027 -0.2116
5422000000.0 0.4672 -0.938
5425000000.0 -0.4153 -0.9327
5428000000.0 -1.004 -0.2636
5431000000.0 -0.8184 0.6174
5434000000.0 0.008202 1.018
5438000000.0 0.8241 0.6187
5441000000.0 0.9421 -0.2382
5444000000.0 0.3773 -0.8779
5447000000.0 -0.4747 -0.831
5450000000.0 -0.9309 -0.1659
5453000000.0 -0.6913 0.6211
5456000000.0 0.1129 0.8789
5459000000.0 0.7522 0.4535
5462000000.0 0.8321 -0.3418
5466000000.0 0.2549 -0.8283
5469000000.0 -0.4804 -0.7239
5472000000.0 -0.8507 -0.06624
5475000000.0 -0.5686 0.6365
5478000000.0 0.156 0.8524
5481000000.0 0.7537 0.4002
5484000000.0 0.8248 -0.3461
5488000000.0 0.2388 -0.8493
5491000000.0 -0.4703 -0.7153
5494000000.0 -0.8638 -0.03805
5497000000.0 -0.5998 0.6496
5500000000.0 0.1119 0.8944
5503000000.0 0.762 0.4703
5506000000.0 0.8368 -0.3068
5509000000.0 0.2961 -0.8642
5512000000.0 -0.4731 -0.7706
5516000000.0 -0.9309 -0.1124
5519000000.0 -0.6549 0.6306
5522000000.0 0.01725 0.8924
5525000000.0 0.7262 0.5327
5528000000.0 0.9102 -0.2058
5531000000.0 0.4469 -0.8252
5534000000.0 -0.3771 -0.9027
5538000000.0 -0.9165 -0.281
5541000000.0 -0.8188 0.5347
5544000000.0 -0.1 1.038
5547000000.0 0.6771 0.7369
5550000000.0 1.002 -0.03832
5553000000.0 0.5977 -0.8047
5556000000.0 -0.2552 -0.9957
5559000000.0 -0.9291 -0.4382
5562000000.0 -0.961 0.412
5566000000.0 -0.2682 0.9968
5569000000.0 0.5919 0.872
5572000000.0 1.065 0.09277
5575000000.0 0.7585 -0.7342
5578000000.0 -0.1 -1.065
5581000000.0 -0.8551 -0.627
5584000000.0 -0.9888 0.2888
5588000000.0 -0.4358 0.9518
5591000000.0 0.4488 0.9025
5594000000.0 1.017 0.2347
5597000000.0 0.8635 -0.6083
5600000000.0 0.0793 -1.043
5603000000.0 -0.7468 -0.6885
5606000000.0 -1.013 0.1166
5609000000.0 -0.505 0.8689
5612000000.0 0.3365 0.9575
5616000000.0 0.9394 0.352
5619000000.0 0.8662 -0.5079
5622000000.0 0.1817 -0.9449
5625000000.0 -0.6413 -0.7283
5628000000.0 -0.948 0.01268
5631000000.0 -0.562 0.7714
5634000000.0 0.2371 0.9114
5638000000.0 0.8665 0.4025
5641000000.0 0.8509 -0.3937
5644000000.0 0.1898 -0.9292
5647000000.0 -0.5702 -0.7205
5650000000.0 -0.9142 -0.01481
5653000000.0 -0.5877 0.7033
5656000000.0 0.1881 0.8969
5659000000.0 0.7967 0.3771
5662000000.0 0.8345 -0.4072
5666000000.0 0.1933 -0.8506
5669000000.0 -0.5465 -0.7137
5672000000.0 -0.8941 0.005731
5675000000.0 -0.5328 0.6842
5678000000.0 0.2107 0.8639
5681000000.0 0.8265 0.3528
5684000000.0 0.8087 -0.4319
5688000000.0 0.1447 -0.8956
5691000000.0 -0.6157 -0.6784
5694000000.0 -0.8965 0.06951
5697000000.0 -0.5176 0.7616
5700000000.0 0.2531 0.8444
5703000000.0 0.856 0.3428
5706000000.0 0.8038 -0.4608
5709000000.0 0.1455 -0.9398
5712000000.0 -0.6365 -0.673
5716000000.0 -0.9381 0.04811
5719000000.0 -0.5311 0.7855
5722000000.0 0.2821 0.9346
5725000000.0 0.8856 0.372
5728000000.0 0.8745 -0.4778
5731000000.0 0.1658 -0.9831
5734000000.0 -0.64 -0.7098
5738000000.0 -0.9814 0.0003551
5741000000.0 -0.6179 0.7945
5744000000.0 0.2145 1.023
5747000000.0 0.9042 0.447
5750000000.0 0.9579 -0.424
5753000000.0 0.2583 -1.002
5756000000.0 -0.6121 -0.8526
5759000000.0 -1.057 -0.07986
5762000000.0 -0.7481 0.7594
5766000000.0 0.1328 1.07
5769000000.0 0.8742 0.5794
5772000000.0 0.9974 -0.3289
5775000000.0 0.3954 -0.999
5778000000.0 -0.4935 -0.957
5781000000.0 -1.043 -0.2136
5784000000.0 -0.8537 0.6731
5788000000.0 -0.04378 1.056
5791000000.0 0.8244 0.7432
5794000000.0 1.105 -0.1392
5797000000.0 0.5618 -0.9203
5800000000.0 -0.3369 -1.015
5803000000.0 -0.9974 -0.3779
5806000000.0 -0.9142 0.5309
5809000000.0 -0.1943 1.058
5812000000.0 0.6851 0.8368
5816000000.0 1.073 0.01868
5819000000.0 0.6913 -0.8165
5822000000.0 -0.1843 -1.037
5825000000.0 -0.8908 -0.5182
5828000000.0 -0.9738 0.3812
5831000000.0 -0.3102 1.014
5834000000.0 0.5401 0.8927
5838000000.0 1.042 0.1148
5841000000.0 0.747 -0.7072
5844000000.0 -0.07116 -1.025
5847000000.0 -0.8433 -0.5797
5850000000.0 -0.9503 0.2807
5853000000.0 -0.4014 0.9019
5856000000.0 0.4855 0.8987
5859000000.0 0.9977 0.2053
5862000000.0 0.7581 -0.6673
5866000000.0 -0.01099 -0.9551
5869000000.0 -0.7411 -0.597
5872000000.0 -0.9081 0.2108
5875000000.0 -0.3552 0.8708
5878000000.0 0.4464 0.8498
5881000000.0 0.9019 0.225
5884000000.0 0.7427 -0.5627
5888000000.0 0.03005 -0.9299
5891000000.0 -0.6915 -0.5898
5894000000.0 -0.8765 0.1995
5897000000.0 -0.4272 0.7902
5900000000.0 0.3833 0.8249
5903000000.0 0.849 0.216
5906000000.0 0.7052 -0.5356
5909000000.0 0.02162 -0.8607
5912000000.0 -0.6385 -0.5497
5916000000.0 -0.8512 0.1594
5919000000.0 -0.4138 0.7204
5922000000.0 0.3295 0.7521
5925000000.0 0.8471 0.253
5928000000.0 0.7037 -0.5173
5931000000.0 0.09826 -0.8624
5934000000.0 -0.6303 -0.6051
5938000000.0 -0.8366 0.09022
5941000000.0 -0.4687 0.7008
5944000000.0 0.2641 0.835
5947000000.0 0.7753 0.3254
5950000000.0 0.7655 -0.3771
5953000000.0 0.1639 -0.8421
5956000000.0 -0.5662 -0.6418
5959000000.0 -0.8957 -9.979e-05
5962000000.0 -0.5459 0.6578
5966000000.0 0.1753 0.8391
5969000000.0 0.7669 0.4449
5972000000.0 0.8353 -0.3128
5975000000.0 0.2709 -0.8775
5978000000.0 -0.4481 -0.7618
5981000000.0 -0.9236 -0.1298
5984000000.0 -0.6755 0.5977
5988000000.0 0.03534 0.9155
5991000000.0 0.7067 0.5786
5994000000.0 0.9267 -0.2079
5997000000.0 0.4142 -0.8601
6000000000.0 -0.3769 -0.9016
6003000000.0 -0.8868 -0.2657
6006000000.0 -0.7963 0.5195
6009000000.0 -0.08821 0.9768
6012000000.0 0.6653 0.6849
6016000000.0 0.98 -0.08893
6019000000.0 0.5583 -0.7777
6022000000.0 -0.2504 -0.941
6025000000.0 -0.8914 -0.3781
6028000000.0 -0.8922 0.4303
6031000000.0 -0.2207 0.95
6034000000.0 0.6164 0.8003
6038000000.0 1.019 0.04123
6041000000.0 0.6686 -0.7489
6044000000.0 -0.1485 -1.016
6047000000.0 -0.8911 -0.503
6050000000.0 -0.9164 0.3496
6053000000.0 -0.3234 0.9351
6056000000.0 0.552 0.8524
6059000000.0 0.9896 0.1033
6062000000.0 0.7274 -0.6738
6066000000.0 -0.08612 -0.984
6069000000.0 -0.8291 -0.5236
6072000000.0 -0.9231 0.3328
6075000000.0 -0.3505 0.8821
6078000000.0 0.484 0.8076
6081000000.0 0.9324 0.1481
6084000000.0 0.6835 -0.6029
6088000000.0 -0.05744 -0.9039
6091000000.0 -0.7299 -0.5472
6094000000.0 -0.8616 0.2289
6097000000.0 -0.3306 0.826
6100000000.0 0.4044 0.7979
6103000000.0 0.8519 0.1923
6106000000.0 0.6883 -0.5572
6109000000.0 -0.004888 -0.8807
6112000000.0 -0.6863 -0.5594
6116000000.0 -0.864 0.1826
6119000000.0 -0.3761 0.7746
6122000000.0 0.3585 0.7588
6125000000.0 0.8544 0.1933
6128000000.0 0.664 -0.5096
6131000000.0 0.0326 -0.8354
6134000000.0 -0.6492 -0.5091
6138000000.0 -0.7994 0.1763
6141000000.0 -0.384 0.7563
6144000000.0 0.3461 0.7816
6147000000.0 0.8089 0.2257
6150000000.0 0.6711 -0.4863
6153000000.0 0.049 -0.8798
6156000000.0 -0.6441 -0.5588
6159000000.0 -0.8309 0.1114
6162000000.0 -0.436 0.752
6166000000.0 0.3043 0.8268
6169000000.0 0.8039 0.2764
6172000000.0 0.7669 -0.4785
6175000000.0 0.1229 -0.8823
6178000000.0 -0.6161 -0.6148
6181000000.0 -0.8932 0.07623
6184000000.0 -0.4929 0.711
6188000000.0 0.2316 0.8697
6191000000.0 0.8127 0.3479
6194000000.0 0.8318 -0.3934
6197000000.0 0.1607 -0.8727
6200000000.0 -0.6027 -0.6879
6203000000.0 -0.9105 -0.001295
6206000000.0 -0.5602 0.6842
6209000000.0 0.2102 0.8644
6212000000.0 0.7979 0.4229
6216000000.0 0.8391 -0.3388
6219000000.0 0.2811 -0.8583
6222000000.0 -0.5114 -0.7082
6225000000.0 -0.8858 -0.04974
6228000000.0 -0.6283 0.6203
6231000000.0 0.07498 0.8815
6234000000.0 0.7049 0.4906
6238000000.0 0.8342 -0.262
6241000000.0 0.326 -0.7698
6244000000.0 -0.3972 -0.7763
6247000000.0 -0.8434 -0.1894
6250000000.0 -0.654 0.5307
6253000000.0 -0.009998 0.8262
6256000000.0 0.6608 0.5008
6259000000.0 0.8419 -0.1308
