! Created with skrf 1.8.0 (http://scikit-rf.org).
# Hz S RI R 50.0 
!freq ReS11 ImS11
4000000000.0 -0.1457 -1.485
4003000000.0 -1.31 -0.8032
4006000000.0 -1.453 0.4969
4009000000.0 -0.5105 1.413
4012000000.0 0.7862 1.314
4016000000.0 1.518 0.2012
4019000000.0 1.158 -1.045
4022000000.0 -0.103 -1.537
4025000000.0 -1.287 -0.9115
4028000000.0 -1.556 0.4768
4031000000.0 -0.5937 1.516
4034000000.0 0.8208 1.44
4038000000.0 1.622 0.2324
4041000000.0 1.177 -1.12
4044000000.0 -0.1135 -1.595
4047000000.0 -1.343 -0.9553
4050000000.0 -1.601 0.4348
4053000000.0 -0.6229 1.483
4056000000.0 0.7681 1.461
4059000000.0 1.591 0.3269
4062000000.0 1.293 -1.003
4066000000.0 -0.01019 -1.627
4069000000.0 -1.231 -1.047
4072000000.0 -1.626 0.2089
4075000000.0 -0.8371 1.418
4078000000.0 0.5658 1.548
4081000000.0 1.535 0.5436
4084000000.0 1.413 -0.8728
4088000000.0 0.2607 -1.64
4091000000.0 -1.136 -1.236
4094000000.0 -1.651 0.03896
4097000000.0 -0.9817 1.284
4100000000.0 0.3483 1.587
4103000000.0 1.424 0.7043
4106000000.0 1.458 -0.6016
4109000000.0 0.4506 -1.516
4112000000.0 -0.8514 -1.325
4116000000.0 -1.534 -0.1728
4119000000.0 -1.129 1.014
4122000000.0 0.03315 1.486
4125000000.0 1.123 0.9644
4128000000.0 1.469 -0.2
4131000000.0 0.768 -1.243
4134000000.0 -0.4088 -1.414
4138000000.0 -1.356 -0.5881
4141000000.0 -1.336 0.6279
4144000000.0 -0.3868 1.45
4147000000.0 0.8511 1.23
4150000000.0 1.491 0.138
4153000000.0 1.101 -1.047
4156000000.0 -0.133 -1.498
4159000000.0 -1.212 -0.8754
4162000000.0 -1.444 0.3665
4166000000.0 -0.6647 1.342
4169000000.0 0.6151 1.398
4172000000.0 1.459 0.4002
4175000000.0 1.257 -0.8539
4178000000.0 0.1927 -1.495
4181000000.0 -1.039 -1.085
4184000000.0 -1.527 0.08749
4188000000.0 -0.8941 1.221
4191000000.0 0.3551 1.512
4194000000.0 1.368 0.6827
4197000000.0 1.453 -0.651
4200000000.0 0.3828 -1.535
4203000000.0 -0.9626 -1.307
4206000000.0 -1.611 -0.06518
4209000000.0 -1.097 1.244
4212000000.0 0.3382 1.629
4216000000.0 1.495 0.7341
4219000000.0 1.525 -0.7613
4222000000.0 0.3427 -1.642
4225000000.0 -1.113 -1.296
4228000000.0 -1.668 0.08955
4231000000.0 -0.9725 1.442
4234000000.0 0.5293 1.603
4238000000.0 1.558 0.5398
4241000000.0 1.311 -0.9013
4244000000.0 0.08145 -1.578
4247000000.0 -1.2 -1.044
4250000000.0 -1.562 0.3044
4253000000.0 -0.6922 1.415
4256000000.0 0.675 1.434
4259000000.0 1.526 0.2887
4262000000.0 1.139 -0.9696
4266000000.0 -0.0536 -1.499
4269000000.0 -1.206 -0.87
4272000000.0 -1.419 0.4018
4275000000.0 -0.5501 1.389
4278000000.0 0.7541 1.258
4281000000.0 1.417 0.1992
4284000000.0 1.018 -0.9819
4288000000.0 -0.1541 -1.386
4291000000.0 -1.149 -0.7594
4294000000.0 -1.29 0.3891
4297000000.0 -0.5134 1.238
4300000000.0 0.6363 1.164
4303000000.0 1.269 0.263
4306000000.0 1.055 -0.8195
4309000000.0 0.02672 -1.295
4312000000.0 -0.9543 -0.8503
4316000000.0 -1.285 0.2113
4319000000.0 -0.6755 1.115
4322000000.0 0.407 1.234
4325000000.0 1.225 0.5052
4328000000.0 1.198 -0.6079
4331000000.0 0.2611 -1.306
4334000000.0 -0.8364 -1.059
4338000000.0 -1.369 -0.0316
4341000000.0 -0.9283 1.057
4344000000.0 0.2252 1.385
4347000000.0 1.223 0.7723
4350000000.0 1.362 -0.4696
4353000000.0 0.4692 -1.341
4356000000.0 -0.7085 -1.247
4359000000.0 -1.416 -0.2538
4362000000.0 -1.101 0.9426
4366000000.0 0.026 1.468
4369000000.0 1.169 0.9445
4372000000.0 1.459 -0.2785
4375000000.0 0.6991 -1.325
4378000000.0 -0.5233 -1.418
4381000000.0 -1.446 -0.4476
4384000000.0 -1.303 0.7949
4388000000.0 -0.146 1.541
4391000000.0 1.058 1.129
4394000000.0 1.566 -0.173
4397000000.0 0.8989 -1.321
4400000000.0 -0.4775 -1.506
4403000000.0 -1.478 -0.5594
4406000000.0 -1.395 0.865
4409000000.0 -0.2139 1.549
4412000000.0 1.096 1.123
4416000000.0 1.548 -0.1404
4419000000.0 0.8239 -1.316
4422000000.0 -0.5185 -1.406
4425000000.0 -1.391 -0.4348
4428000000.0 -1.234 0.8367
4431000000.0 -0.09896 1.443
4434000000.0 1.085 0.9901
4438000000.0 1.397 -0.2473
4441000000.0 0.6231 -1.277
4444000000.0 -0.5684 -1.258
4447000000.0 -1.335 -0.3361
4450000000.0 -1.077 0.8346
4453000000.0 -0.001723 1.336
4456000000.0 1.041 0.7675
4459000000.0 1.231 -0.3245
4462000000.0 0.5081 -1.136
4466000000.0 -0.6344 -1.059
4469000000.0 -1.226 -0.1719
4472000000.0 -0.8533 0.8555
4475000000.0 0.1221 1.192
4478000000.0 1.022 0.6271
4481000000.0 1.099 -0.4414
4484000000.0 0.3407 -1.128
4488000000.0 -0.6504 -0.9642
4491000000.0 -1.139 -0.1182
4494000000.0 -0.7711 0.8465
4497000000.0 0.1865 1.127
4500000000.0 0.9772 0.5687
4503000000.0 1.024 -0.3971
4506000000.0 0.3356 -1.05
4509000000.0 -0.5963 -0.9186
4512000000.0 -1.093 -0.09027
4516000000.0 -0.7625 0.8112
4519000000.0 0.15 1.136
4522000000.0 0.9598 0.6266
4525000000.0 1.087 -0.3305
4528000000.0 0.418 -1.078
4531000000.0 -0.5752 -1.012
4534000000.0 -1.142 -0.2021
4538000000.0 -0.9074 0.7568
4541000000.0 0.04822 1.178
4544000000.0 0.9224 0.7238
4547000000.0 1.168 -0.2443
4550000000.0 0.5679 -1.076
4553000000.0 -0.4451 -1.108
4556000000.0 -1.142 -0.3623
4559000000.0 -1.049 0.6458
4562000000.0 -0.2042 1.22
4566000000.0 0.8384 0.9255
4569000000.0 1.273 -0.04591
4572000000.0 0.8162 -1.01
4575000000.0 -0.2685 -1.266
4578000000.0 -1.139 -0.606
4581000000.0 -1.243 0.5004
4584000000.0 -0.4043 1.289
4588000000.0 0.7287 1.129
4591000000.0 1.337 0.1226
4594000000.0 0.9942 -0.9602
4597000000.0 -0.08535 -1.394
4600000000.0 -1.123 -0.8118
4603000000.0 -1.348 0.3744
4606000000.0 -0.5802 1.261
4609000000.0 0.641 1.244
4612000000.0 1.345 0.3155
4616000000.0 1.093 -0.8561
4619000000.0 0.03775 -1.396
4622000000.0 -1.09 -0.9165
4625000000.0 -1.375 0.2647
4628000000.0 -0.6816 1.207
4631000000.0 0.5277 1.302
4634000000.0 1.33 0.4083
4638000000.0 1.146 -0.8214
4641000000.0 0.106 -1.337
4644000000.0 -0.9625 -0.9339
4647000000.0 -1.331 0.2144
4650000000.0 -0.6936 1.15
4653000000.0 0.4946 1.241
4656000000.0 1.228 0.4148
4659000000.0 1.07 -0.7489
4662000000.0 0.08326 -1.276
4666000000.0 -0.9241 -0.8551
4669000000.0 -1.213 0.1845
4672000000.0 -0.6312 1.051
4675000000.0 0.477 1.115
4678000000.0 1.116 0.3442
4681000000.0 0.9437 -0.6973
4684000000.0 0.06307 -1.117
4688000000.0 -0.8298 -0.7691
4691000000.0 -1.12 0.1882
4694000000.0 -0.5071 0.9905
4697000000.0 0.436 1.02
4700000000.0 1.067 0.3198
4703000000.0 0.8802 -0.6881
4706000000.0 0.02986 -1.073
4709000000.0 -0.817 -0.7132
4712000000.0 -1.056 0.2319
4716000000.0 -0.4817 0.9761
4719000000.0 0.4052 0.9741
4722000000.0 1.041 0.2568
4725000000.0 0.8491 -0.6581
4728000000.0 0.02291 -1.049
4731000000.0 -0.7849 -0.6992
4734000000.0 -1.01 0.1717
4738000000.0 -0.5548 0.9007
4741000000.0 0.3943 0.9971
4744000000.0 0.9801 0.3467
4747000000.0 0.8819 -0.5646
4750000000.0 0.151 -1.06
4753000000.0 -0.6977 -0.7962
4756000000.0 -1.073 0.0224
4759000000.0 -0.6549 0.8626
4762000000.0 0.2182 1.045
4766000000.0 1.001 0.54
4769000000.0 1.065 -0.4613
4772000000.0 0.3191 -1.102
4775000000.0 -0.6486 -0.9677
4778000000.0 -1.157 -0.1541
4781000000.0 -0.8845 0.8234
4784000000.0 0.05754 1.19
4788000000.0 0.957 0.727
4791000000.0 1.199 -0.256
4794000000.0 0.5778 -1.079
4797000000.0 -0.4864 -1.132
4800000000.0 -1.199 -0.3989
4803000000.0 -1.062 0.6212
4806000000.0 -0.1851 1.221
4809000000.0 0.8349 0.9458
4812000000.0 1.268 -0.02093
4816000000.0 0.8061 -1.012
4819000000.0 -0.2619 -1.289
4822000000.0 -1.2 -0.6111
4825000000.0 -1.246 0.5185
4828000000.0 -0.4214 1.32
4831000000.0 0.7385 1.138
4834000000.0 1.396 0.1265
4838000000.0 1.004 -0.9894
4841000000.0 -0.1403 -1.378
4844000000.0 -1.171 -0.8016
4847000000.0 -1.342 0.4127
4850000000.0 -0.5291 1.29
4853000000.0 0.6687 1.23
4856000000.0 1.346 0.2625
4859000000.0 1.037 -0.8934
4862000000.0 -0.0354 -1.337
4866000000.0 -1.041 -0.8432
4869000000.0 -1.306 0.3227
4872000000.0 -0.5979 1.148
4875000000.0 0.547 1.175
4878000000.0 1.255 0.33
4881000000.0 1.014 -0.7556
4884000000.0 0.04869 -1.279
4888000000.0 -0.9229 -0.8259
4891000000.0 -1.193 0.1984
4894000000.0 -0.5872 1.061
4897000000.0 0.4446 1.101
4900000000.0 1.097 0.3055
4903000000.0 0.9466 -0.6791
4906000000.0 0.1098 -1.08
4909000000.0 -0.783 -0.7472
4912000000.0 -1.01 0.1384
4916000000.0 -0.5538 0.8867
4919000000.0 0.3513 0.9696
4922000000.0 0.9371 0.3552
4925000000.0 0.8363 -0.5007
4928000000.0 0.1447 -0.9479
4931000000.0 -0.6378 -0.6883
4934000000.0 -0.9559 0.03886
4938000000.0 -0.5841 0.7546
4941000000.0 0.2071 0.9454
4944000000.0 0.8634 0.4045
4947000000.0 0.8659 -0.4005
4950000000.0 0.2292 -0.9472
4953000000.0 -0.5536 -0.7899
4956000000.0 -0.9742 -0.04795
4959000000.0 -0.6601 0.7321
4962000000.0 0.1493 0.9526
4966000000.0 0.8385 0.4942
4969000000.0 0.9138 -0.3175
4972000000.0 0.3426 -0.9299
4975000000.0 -0.5305 -0.8541
4978000000.0 -1.035 -0.1165
4981000000.0 -0.7504 0.6925
4984000000.0 0.1058 1.01
4988000000.0 0.8548 0.6301
4991000000.0 1.047 -0.2469
4994000000.0 0.4578 -0.996
4997000000.0 -0.4492 -1.002
5000000000.0 -1.084 -0.2748
5003000000.0 -0.9395 0.6759
5006000000.0 -0.09695 1.142
5009000000.0 0.8569 0.8049
5012000000.0 1.205 -0.1239
5016000000.0 0.6827 -1.027
5019000000.0 -0.366 -1.167
5022000000.0 -1.151 -0.4525
5025000000.0 -1.091 0.6216
5028000000.0 -0.2345 1.274
5031000000.0 0.8518 0.9766
5034000000.0 1.255 0.02729
5038000000.0 0.8445 -1.0
5041000000.0 -0.2149 -1.249
5044000000.0 -1.157 -0.6255
5047000000.0 -1.202 0.4563
5050000000.0 -0.412 1.213
5053000000.0 0.6472 1.117
5056000000.0 1.271 0.2004
5059000000.0 1.007 -0.8601
5062000000.0 -0.04697 -1.3
5066000000.0 -0.9989 -0.7952
5069000000.0 -1.27 0.2663
5072000000.0 -0.5862 1.123
5075000000.0 0.4859 1.218
5078000000.0 1.21 0.3862
5081000000.0 1.046 -0.7071
5084000000.0 0.1443 -1.213
5088000000.0 -0.8779 -0.9179
5091000000.0 -1.21 0.08869
5094000000.0 -0.6858 0.9501
5097000000.0 0.2574 1.089
5100000000.0 1.04 0.5323
5103000000.0 1.051 -0.4472
5106000000.0 0.3132 -1.043
5109000000.0 -0.6212 -0.9189
5112000000.0 -1.081 -0.136
5116000000.0 -0.7853 0.7298
5119000000.0 0.03 1.045
5122000000.0 0.8516 0.6314
5125000000.0 0.9976 -0.2413
5128000000.0 0.4531 -0.9086
5131000000.0 -0.4124 -0.9245
5134000000.0 -0.9423 -0.2745
5138000000.0 -0.7843 0.5573
5141000000.0 -0.08629 0.9733
5144000000.0 0.6989 0.6849
5147000000.0 0.9391 -0.11
5150000000.0 0.511 -0.8188
5153000000.0 -0.2738 -0.8969
5156000000.0 -0.8742 -0.3038
5159000000.0 -0.8039 0.4477
5162000000.0 -0.1409 0.9167
5166000000.0 0.6148 0.6632
5169000000.0 0.9033 -0.05511
5172000000.0 0.5477 -0.7331
5175000000.0 -0.2171 -0.8929
5178000000.0 -0.8403 -0.3767
5181000000.0 -0.828 0.4351
5184000000.0 -0.1921 0.8937
5188000000.0 0.581 0.7195
5191000000.0 0.9231 -0.04612
5194000000.0 0.5721 -0.7255
5197000000.0 -0.2005 -0.8914
5200000000.0 -0.8667 -0.4057
5203000000.0 -0.8361 0.435
5206000000.0 -0.1972 0.9188
5209000000.0 0.6153 0.7497
5212000000.0 0.9519 -0.02941
5216000000.0 0.6247 -0.7761
5219000000.0 -0.1884 -0.9706
5222000000.0 -0.8933 -0.4425
5225000000.0 -0.9213 0.3831
5228000000.0 -0.2789 0.9592
5231000000.0 0.5734 0.8471
5234000000.0 1.042 0.06412
5238000000.0 0.7141 -0.7545
5241000000.0 -0.1426 -1.028
5244000000.0 -0.8864 -0.5659
5247000000.0 -1.011 0.3181
5250000000.0 -0.4051 1.003
5253000000.0 0.4803 0.9569
5256000000.0 1.053 0.2215
5259000000.0 0.8502 -0.6794
5262000000.0 0.02578 -1.074
5266000000.0 -0.8171 -0.7022
5269000000.0 -1.057 0.1505
5272000000.0 -0.5811 0.9376
5275000000.0 0.3584 1.029
5278000000.0 1.017 0.3955
5281000000.0 0.9716 -0.4966
5284000000.0 0.2571 -1.063
5288000000.0 -0.6894 -0.8469
5291000000.0 -1.125 -0.08765
5294000000.0 -0.7559 0.813
5297000000.0 0.1172 1.104
5300000000.0 0.9431 0.6255
5303000000.0 1.077 -0.3137
5306000000.0 0.4885 -1.041
5309000000.0 -0.4717 -1.039
5312000000.0 -1.102 -0.2883
5316000000.0 -0.9527 0.6522
5319000000.0 -0.08029 1.153
5322000000.0 0.8049 0.8076
5325000000.0 1.163 -0.1054
5328000000.0 0.6529 -0.9342
5331000000.0 -0.3324 -1.14
5334000000.0 -1.034 -0.4775
5338000000.0 -1.033 0.4879
5341000000.0 -0.2753 1.083
5344000000.0 0.6796 0.8828
5347000000.0 1.146 0.04893
5350000000.0 0.7586 -0.7991
5353000000.0 -0.1812 -1.072
5356000000.0 -0.9212 -0.5665
5359000000.0 -1.053 0.3731
5362000000.0 -0.3713 1.017
5366000000.0 0.572 0.9373
5369000000.0 1.067 0.1411
5372000000.0 0.7251 -0.7547
5375000000.0 -0.1125 -1.054
5378000000.0 -0.8649 -0.5942
5381000000.0 -0.9846 0.3175
5384000000.0 -0.3656 0.9421
5388000000.0 0.5219 0.8595
5391000000.0 0.977 0.1059
5394000000.0 0.662 -0.6573
5397000000.0 -0.09819 -0.9407
5400000000.0 -0.8082 -0.4775
5403000000.0 -0.8696 0.3107
5406000000.0 -0.2715 0.8542
5409000000.0 0.4873 0.7644
5412000000.0 0.8824 0.09938
5416000000.0 0.6165 -0.6078
5419000000.0 -0.09635 -0.8735
5422000000.0 -0.7283 -0.455
5425000000.0 -0.8127 0.2918
5428000000.0 -0.2904 0.8175
5431000000.0 0.4754 0.7226
5434000000.0 0.8947 0.07538
5438000000.0 0.6144 -0.6139
5441000000.0 -0.1117 -0.8782
5444000000.0 -0.7787 -0.446
5447000000.0 -0.8197 0.2931
5450000000.0 -0.2768 0.8129
5453000000.0 0.4811 0.7564
5456000000.0 0.9038 0.0806
5459000000.0 0.6332 -0.6327
5462000000.0 -0.07248 -0.908
5466000000.0 -0.7444 -0.52
5469000000.0 -0.8499 0.2138
5472000000.0 -0.3713 0.809
5475000000.0 0.3739 0.8387
5478000000.0 0.9171 0.2211
5481000000.0 0.7589 -0.5495
5484000000.0 0.08719 -0.9411
5488000000.0 -0.6821 -0.6899
5491000000.0 -0.9803 0.1086
5494000000.0 -0.5485 0.8041
5497000000.0 0.2507 0.9554
5500000000.0 0.9427 0.4006
5503000000.0 0.9205 -0.4528
5506000000.0 0.2607 -0.9737
5509000000.0 -0.5981 -0.8159
5512000000.0 -1.005 -0.07744
5516000000.0 -0.7073 0.7404
5519000000.0 0.09725 1.017
5522000000.0 0.8841 0.6009
5525000000.0 1.006 -0.2365
5528000000.0 0.4676 -0.9718
5531000000.0 -0.4457 -0.9744
5534000000.0 -1.015 -0.3102
5538000000.0 -0.875 0.6063
5541000000.0 -0.07686 1.095
5544000000.0 0.732 0.7777
5547000000.0 1.051 -0.1056
5550000000.0 0.6438 -0.9033
5553000000.0 -0.2857 -1.002
5556000000.0 -0.9782 -0.4059
5559000000.0 -0.985 0.4664
5562000000.0 -0.2642 1.031
5566000000.0 0.6418 0.8388
5569000000.0 1.022 0.04593
5572000000.0 0.6993 -0.7577
5575000000.0 -0.1285 -0.9922
5578000000.0 -0.8627 -0.5135
5581000000.0 -0.9456 0.3144
5584000000.0 -0.338 0.9352
5588000000.0 0.4708 0.8377
5591000000.0 0.9634 0.1604
5594000000.0 0.7171 -0.6065
5597000000.0 -0.004616 -0.9503
5600000000.0 -0.7427 -0.5821
5603000000.0 -0.9221 0.1821
5606000000.0 -0.3925 0.8083
5609000000.0 0.3523 0.8236
5612000000.0 0.8676 0.261
5616000000.0 0.7215 -0.5287
5619000000.0 0.04558 -0.8742
5622000000.0 -0.6383 -0.5831
5625000000.0 -0.8602 0.1322
5628000000.0 -0.409 0.7597
5631000000.0 0.2812 0.8057
5634000000.0 0.7958 0.2504
5638000000.0 0.7064 -0.4532
5641000000.0 0.1001 -0.836
5644000000.0 -0.606 -0.586
5647000000.0 -0.8392 0.09074
5650000000.0 -0.4243 0.7038
5653000000.0 0.3057 0.7763
5656000000.0 0.8148 0.2726
5659000000.0 0.7243 -0.4573
5662000000.0 0.08602 -0.8364
5666000000.0 -0.6166 -0.6336
5669000000.0 -0.8517 0.09407
5672000000.0 -0.4574 0.7381
5675000000.0 0.3026 0.8327
5678000000.0 0.8468 0.3093
5681000000.0 0.7913 -0.4972
5684000000.0 0.09124 -0.9225
5688000000.0 -0.6534 -0.659
5691000000.0 -0.9407 0.07655
5694000000.0 -0.5609 0.7968
5697000000.0 0.3032 0.9211
5700000000.0 0.9557 0.3575
5703000000.0 0.8677 -0.4926
5706000000.0 0.2042 -0.9997
5709000000.0 -0.6614 -0.7699
5712000000.0 -1.02 0.03449
5716000000.0 -0.6628 0.822
5719000000.0 0.2198 1.032
5722000000.0 0.9349 0.5003
5725000000.0 0.9793 -0.4084
5728000000.0 0.298 -0.9951
5731000000.0 -0.6083 -0.8964
5734000000.0 -1.089 -0.1085
5738000000.0 -0.7425 0.7508
5741000000.0 0.1285 1.102
5744000000.0 0.9395 0.6202
5747000000.0 1.075 -0.2825
5750000000.0 0.445 -1.002
5753000000.0 -0.4777 -0.9917
5756000000.0 -1.081 -0.2436
5759000000.0 -0.868 0.6941
5762000000.0 -0.04156 1.131
5766000000.0 0.7868 0.7415
5769000000.0 1.099 -0.1348
5772000000.0 0.6295 -0.9267
5775000000.0 -0.3005 -1.061
5778000000.0 -1.015 -0.4429
5781000000.0 -0.9569 0.4603
5784000000.0 -0.2194 1.067
5788000000.0 0.6515 0.8643
5791000000.0 1.088 0.01562
5794000000.0 0.7566 -0.7951
5797000000.0 -0.1567 -1.068
5800000000.0 -0.9141 -0.5781
5803000000.0 -1.002 0.3071
5806000000.0 -0.3733 0.9652
5809000000.0 0.5303 0.9214
5812000000.0 1.038 0.1866
5816000000.0 0.8282 -0.6732
5819000000.0 -0.01879 -1.061
5822000000.0 -0.7892 -0.6668
5825000000.0 -0.9812 0.2299
5828000000.0 -0.4682 0.8739
5831000000.0 0.3832 0.8889
5834000000.0 0.9437 0.2467
5838000000.0 0.8269 -0.5662
5841000000.0 0.07221 -0.9573
5844000000.0 -0.7249 -0.6368
5847000000.0 -0.9478 0.1465
5850000000.0 -0.4843 0.8273
5853000000.0 0.3494 0.8873
5856000000.0 0.8923 0.3172
5859000000.0 0.7664 -0.5107
5862000000.0 0.1089 -0.8979
5866000000.0 -0.627 -0.6569
5869000000.0 -0.9573 0.1307
5872000000.0 -0.4828 0.7414
5875000000.0 0.268 0.8777
5878000000.0 0.8468 0.2889
5881000000.0 0.7424 -0.4444
5884000000.0 0.1291 -0.8777
5888000000.0 -0.5916 -0.6538
5891000000.0 -0.8725 0.06824
5894000000.0 -0.4884 0.7031
5897000000.0 0.2123 0.819
5900000000.0 0.7897 0.3147
5903000000.0 0.7675 -0.3924
5906000000.0 0.1526 -0.8466
5909000000.0 -0.5583 -0.6591
5912000000.0 -0.845 0.01822
5916000000.0 -0.5562 0.6584
5919000000.0 0.2048 0.8724
5922000000.0 0.7887 0.3941
5925000000.0 0.8253 -0.3556
5928000000.0 0.2487 -0.8527
5931000000.0 -0.4697 -0.7663
5934000000.0 -0.8675 -0.1014
5938000000.0 -0.6217 0.6295
5941000000.0 0.09569 0.8965
5944000000.0 0.7343 0.5354
5947000000.0 0.8532 -0.2294
5950000000.0 0.3835 -0.8594
5953000000.0 -0.4285 -0.8061
5956000000.0 -0.8902 -0.2083
5959000000.0 -0.7942 0.5328
5962000000.0 -0.0704 0.944
5966000000.0 0.676 0.667
5969000000.0 0.9459 -0.1144
5972000000.0 0.5434 -0.761
5975000000.0 -0.2814 -0.9275
5978000000.0 -0.881 -0.3814
5981000000.0 -0.8699 0.4387
5984000000.0 -0.2483 0.9446
5988000000.0 0.6225 0.7833
5991000000.0 0.9975 0.06975
5994000000.0 0.682 -0.7418
5997000000.0 -0.1227 -0.9858
6000000000.0 -0.8519 -0.5636
6003000000.0 -0.9558 0.3025
6006000000.0 -0.3539 0.9371
6009000000.0 0.4836 0.8679
6012000000.0 0.9691 0.1989
6016000000.0 0.7561 -0.6499
6019000000.0 0.01151 -1.022
6022000000.0 -0.8033 -0.6007
6025000000.0 -0.9715 0.2112
6028000000.0 -0.4866 0.8789
6031000000.0 0.3809 0.9106
6034000000.0 0.9305 0.268
6038000000.0 0.8157 -0.5572
6041000000.0 0.09061 -0.9612
6044000000.0 -0.6944 -0.6489
6047000000.0 -0.968 0.1125
6050000000.0 -0.5051 0.8011
6053000000.0 0.3178 0.9033
6056000000.0 0.8951 0.32
6059000000.0 0.8298 -0.4734
6062000000.0 0.1356 -0.92
6066000000.0 -0.6428 -0.6474
6069000000.0 -0.9016 0.06858
6072000000.0 -0.5068 0.7651
6075000000.0 0.2745 0.8709
6078000000.0 0.8361 0.3441
6081000000.0 0.7673 -0.4149
6084000000.0 0.1704 -0.8432
6088000000.0 -0.5964 -0.635
6091000000.0 -0.8841 0.04241
6094000000.0 -0.5342 0.7044
6097000000.0 0.1966 0.857
6100000000.0 0.7625 0.3359
6103000000.0 0.778 -0.3527
6106000000.0 0.2221 -0.8677
6109000000.0 -0.5254 -0.6795
6112000000.0 -0.8843 -0.02664
6116000000.0 -0.5408 0.6589
6119000000.0 0.1538 0.8638
6122000000.0 0.7541 0.4054
6125000000.0 0.765 -0.3305
6128000000.0 0.2264 -0.8372
6131000000.0 -0.4994 -0.6949
6134000000.0 -0.8656 -0.03183
6138000000.0 -0.6022 0.6642
6141000000.0 0.1243 0.8661
6144000000.0 0.7473 0.4344
6147000000.0 0.8273 -0.3016
6150000000.0 0.3442 -0.8217
6153000000.0 -0.4504 -0.7618
6156000000.0 -0.8882 -0.1229
6159000000.0 -0.653 0.5967
6162000000.0 0.07377 0.9336
6166000000.0 0.7744 0.5258
6169000000.0 0.9025 -0.2399
6172000000.0 0.4033 -0.8431
6175000000.0 -0.3977 -0.8372
6178000000.0 -0.9327 -0.2221
6181000000.0 -0.7475 0.5773
6184000000.0 0.0152 0.9241
6188000000.0 0.7132 0.6052
6191000000.0 0.9445 -0.1836
6194000000.0 0.4639 -0.8027
6197000000.0 -0.3316 -0.8948
6200000000.0 -0.8695 -0.2918
6203000000.0 -0.7776 0.4786
6206000000.0 -0.1409 0.9091
6209000000.0 0.6537 0.6946
6212000000.0 0.9128 -0.04981
6216000000.0 0.5469 -0.7353
6219000000.0 -0.2405 -0.8923
6222000000.0 -0.8312 -0.4386
6225000000.0 -0.8326 0.3765
6228000000.0 -0.2093 0.8989
6231000000.0 0.5463 0.7452
6234000000.0 0.9146 0.06806
6238000000.0 0.6269 -0.6511
6241000000.0 -0.131 -0.8752
6244000000.0 -0.7492 -0.4555
6247000000.0 -0.8391 0.2828
6250000000.0 -0.3011 0.8028
6253000000.0 0.4108 0.7525
6256000000.0 0.8189 0.1849
6259000000.0 0.6584 -0.5398
6262000000.0 0.03891 -0.8455
6266000000.0 -0.6026 -0.5423
