! Created with skrf 1.8.0 (http://scikit-rf.org).
# Hz S RI R 50.0 
!freq ReS11 ImS11
4000000000.0 -0.1733 -1.531
4003000000.0 -1.322 -0.8561
4006000000.0 -1.446 0.4833
4009000000.0 -0.5148 1.403
4012000000.0 0.7601 1.326
4016000000.0 1.534 0.2198
4019000000.0 1.141 -1.048
4022000000.0 -0.09486 -1.59
4025000000.0 -1.32 -0.8868
4028000000.0 -1.562 0.4563
4031000000.0 -0.5995 1.494
4034000000.0 0.8281 1.431
4038000000.0 1.602 0.1997
4041000000.0 1.191 -1.132
4044000000.0 -0.1331 -1.604
4047000000.0 -1.364 -0.9204
4050000000.0 -1.558 0.4853
4053000000.0 -0.6221 1.506
4056000000.0 0.7634 1.421
4059000000.0 1.608 0.3601
4062000000.0 1.263 -1.033
4066000000.0 -0.0003964 -1.607
4069000000.0 -1.236 -1.07
4072000000.0 -1.597 0.2805
4075000000.0 -0.856 1.391
4078000000.0 0.6123 1.583
4081000000.0 1.592 0.5564
4084000000.0 1.442 -0.8411
4088000000.0 0.2319 -1.658
4091000000.0 -1.118 -1.254
4094000000.0 -1.685 0.07229
4097000000.0 -0.9463 1.343
4100000000.0 0.3624 1.606
4103000000.0 1.404 0.7128
4106000000.0 1.451 -0.609
4109000000.0 0.4582 -1.494
4112000000.0 -0.8389 -1.274
4116000000.0 -1.512 -0.1817
4119000000.0 -1.103 0.9901
4122000000.0 0.008334 1.484
4125000000.0 1.174 0.9779
4128000000.0 1.467 -0.2417
4131000000.0 0.7795 -1.271
4134000000.0 -0.4433 -1.42
4138000000.0 -1.356 -0.5918
4141000000.0 -1.362 0.6381
4144000000.0 -0.405 1.44
4147000000.0 0.8621 1.252
4150000000.0 1.512 0.1383
4153000000.0 1.102 -1.084
4156000000.0 -0.1206 -1.531
4159000000.0 -1.239 -0.8595
4162000000.0 -1.467 0.386
4166000000.0 -0.666 1.359
4169000000.0 0.6543 1.408
4172000000.0 1.461 0.407
4175000000.0 1.223 -0.8448
4178000000.0 0.141 -1.511
4181000000.0 -1.045 -1.109
4184000000.0 -1.517 0.07506
4188000000.0 -0.8905 1.208
4191000000.0 0.3705 1.51
4194000000.0 1.395 0.6784
4197000000.0 1.395 -0.6714
4200000000.0 0.403 -1.52
4203000000.0 -0.9383 -1.258
4206000000.0 -1.597 -0.03897
4209000000.0 -1.079 1.242
4212000000.0 0.3589 1.639
4216000000.0 1.509 0.7422
4219000000.0 1.492 -0.7283
4222000000.0 0.3127 -1.694
4225000000.0 -1.091 -1.282
4228000000.0 -1.691 0.1422
4231000000.0 -0.9238 1.403
4234000000.0 0.5745 1.576
4238000000.0 1.582 0.5101
4241000000.0 1.322 -0.9232
4244000000.0 0.09895 -1.624
4247000000.0 -1.203 -1.043
4250000000.0 -1.561 0.3206
4253000000.0 -0.6766 1.399
4256000000.0 0.6654 1.387
4259000000.0 1.492 0.3061
4262000000.0 1.147 -0.9822
4266000000.0 -0.06987 -1.54
4269000000.0 -1.244 -0.8477
4272000000.0 -1.443 0.4169
4275000000.0 -0.5381 1.376
4278000000.0 0.7282 1.24
4281000000.0 1.413 0.1734
4284000000.0 1.014 -0.9868
4288000000.0 -0.1397 -1.386
4291000000.0 -1.159 -0.7578
4294000000.0 -1.284 0.4219
4297000000.0 -0.4556 1.257
4300000000.0 0.6546 1.156
4303000000.0 1.286 0.26
4306000000.0 0.9646 -0.8339
4309000000.0 0.02653 -1.293
4312000000.0 -0.97 -0.8703
4316000000.0 -1.279 0.1963
4319000000.0 -0.6891 1.134
4322000000.0 0.3923 1.268
4325000000.0 1.234 0.4697
4328000000.0 1.154 -0.6182
4331000000.0 0.2827 -1.357
4334000000.0 -0.8486 -1.087
4338000000.0 -1.374 -0.0441
4341000000.0 -0.9314 1.068
4344000000.0 0.2152 1.404
4347000000.0 1.224 0.7236
4350000000.0 1.365 -0.4692
4353000000.0 0.5019 -1.346
4356000000.0 -0.7251 -1.245
4359000000.0 -1.439 -0.264
4362000000.0 -1.062 0.9815
4366000000.0 0.02336 1.45
4369000000.0 1.146 0.9112
4372000000.0 1.45 -0.27
4375000000.0 0.7068 -1.328
4378000000.0 -0.5414 -1.385
4381000000.0 -1.452 -0.4869
4384000000.0 -1.281 0.8298
4388000000.0 -0.172 1.497
4391000000.0 1.103 1.114
4394000000.0 1.585 -0.1817
4397000000.0 0.9024 -1.315
4400000000.0 -0.4887 -1.496
4403000000.0 -1.507 -0.5581
4406000000.0 -1.357 0.8431
4409000000.0 -0.1729 1.581
4412000000.0 1.095 1.093
4416000000.0 1.528 -0.21
4419000000.0 0.7709 -1.325
4422000000.0 -0.5199 -1.425
4425000000.0 -1.438 -0.4464
4428000000.0 -1.224 0.8612
4431000000.0 -0.08495 1.445
4434000000.0 1.081 0.9739
4438000000.0 1.4 -0.2521
4441000000.0 0.653 -1.251
4444000000.0 -0.6055 -1.232
4447000000.0 -1.353 -0.3137
4450000000.0 -1.054 0.8672
4453000000.0 0.05194 1.321
4456000000.0 1.061 0.8011
4459000000.0 1.26 -0.363
4462000000.0 0.4407 -1.179
4466000000.0 -0.6335 -1.054
4469000000.0 -1.253 -0.138
4472000000.0 -0.8825 0.8595
4475000000.0 0.2016 1.198
4478000000.0 1.025 0.5876
4481000000.0 1.081 -0.4194
4484000000.0 0.3365 -1.114
4488000000.0 -0.6737 -0.9716
4491000000.0 -1.172 -0.0641
4494000000.0 -0.7744 0.8602
4497000000.0 0.1946 1.14
4500000000.0 0.9763 0.5417
4503000000.0 1.054 -0.4096
4506000000.0 0.3353 -1.05
4509000000.0 -0.6132 -0.8991
4512000000.0 -1.064 -0.1107
4516000000.0 -0.7695 0.8052
4519000000.0 0.1472 1.087
4522000000.0 0.9588 0.6151
4525000000.0 1.099 -0.3587
4528000000.0 0.3915 -1.073
4531000000.0 -0.5735 -1.035
4534000000.0 -1.139 -0.1763
4538000000.0 -0.876 0.7589
4541000000.0 0.01929 1.18
4544000000.0 0.9281 0.7342
4547000000.0 1.171 -0.2334
4550000000.0 0.56 -1.093
4553000000.0 -0.45 -1.111
4556000000.0 -1.168 -0.3901
4559000000.0 -1.023 0.6497
4562000000.0 -0.1781 1.234
4566000000.0 0.8401 0.9182
4569000000.0 1.27 -0.03959
4572000000.0 0.7803 -1.017
4575000000.0 -0.3034 -1.231
4578000000.0 -1.162 -0.5995
4581000000.0 -1.205 0.4895
4584000000.0 -0.3809 1.269
4588000000.0 0.7225 1.12
4591000000.0 1.355 0.1358
4594000000.0 0.9566 -0.9544
4597000000.0 -0.08692 -1.363
4600000000.0 -1.139 -0.7892
4603000000.0 -1.329 0.3605
4606000000.0 -0.5728 1.297
4609000000.0 0.657 1.239
4612000000.0 1.349 0.2956
4616000000.0 1.076 -0.8901
4619000000.0 0.04534 -1.38
4622000000.0 -1.047 -0.8812
4625000000.0 -1.372 0.2239
4628000000.0 -0.6494 1.218
4631000000.0 0.5144 1.282
4634000000.0 1.332 0.4008
4638000000.0 1.119 -0.8036
4641000000.0 0.1099 -1.352
4644000000.0 -0.987 -0.9077
4647000000.0 -1.337 0.1898
4650000000.0 -0.6311 1.132
4653000000.0 0.476 1.208
4656000000.0 1.26 0.3796
4659000000.0 1.04 -0.7318
4662000000.0 0.05982 -1.257
4666000000.0 -0.9294 -0.8126
4669000000.0 -1.202 0.2018
4672000000.0 -0.5538 1.027
4675000000.0 0.4826 1.081
4678000000.0 1.13 0.3029
4681000000.0 0.9055 -0.6497
4684000000.0 0.02585 -1.127
4688000000.0 -0.8264 -0.7636
4691000000.0 -1.088 0.2179
4694000000.0 -0.5104 0.9746
4697000000.0 0.4556 1.017
4700000000.0 1.061 0.3179
4703000000.0 0.9213 -0.6426
4706000000.0 0.03413 -1.099
4709000000.0 -0.8374 -0.6683
4712000000.0 -1.038 0.2215
4716000000.0 -0.4946 0.9609
4719000000.0 0.4877 0.9727
4722000000.0 1.043 0.2142
4725000000.0 0.8214 -0.658
4728000000.0 0.01299 -1.044
4731000000.0 -0.7966 -0.6656
4734000000.0 -1.012 0.1567
4738000000.0 -0.5046 0.9168
4741000000.0 0.3697 0.95
4744000000.0 1.017 0.316
4747000000.0 0.8966 -0.5718
4750000000.0 0.1642 -1.043
4753000000.0 -0.7345 -0.7803
4756000000.0 -1.105 0.06027
4759000000.0 -0.6833 0.8737
4762000000.0 0.2716 1.068
4766000000.0 1.003 0.4956
4769000000.0 1.058 -0.4408
4772000000.0 0.3297 -1.098
4775000000.0 -0.6423 -1.0
4778000000.0 -1.153 -0.1513
4781000000.0 -0.8674 0.8345
4784000000.0 0.08912 1.216
4788000000.0 0.9712 0.7192
4791000000.0 1.181 -0.2946
4794000000.0 0.5457 -1.062
4797000000.0 -0.4803 -1.119
4800000000.0 -1.2 -0.383
4803000000.0 -1.031 0.6303
4806000000.0 -0.171 1.233
4809000000.0 0.845 0.9551
4812000000.0 1.28 -0.03389
4816000000.0 0.7904 -1.016
4819000000.0 -0.2773 -1.283
4822000000.0 -1.218 -0.6075
4825000000.0 -1.268 0.5384
4828000000.0 -0.3953 1.31
4831000000.0 0.7807 1.153
4834000000.0 1.38 0.1258
4838000000.0 0.9769 -0.9888
4841000000.0 -0.1467 -1.396
4844000000.0 -1.162 -0.7703
4847000000.0 -1.318 0.4368
4850000000.0 -0.5357 1.282
4853000000.0 0.7032 1.186
4856000000.0 1.374 0.2484
4859000000.0 1.032 -0.8804
4862000000.0 -0.02319 -1.373
4866000000.0 -1.048 -0.8672
4869000000.0 -1.3 0.3008
4872000000.0 -0.5903 1.179
4875000000.0 0.5411 1.189
4878000000.0 1.278 0.3207
4881000000.0 1.012 -0.7495
4884000000.0 0.03466 -1.241
4888000000.0 -0.9575 -0.8062
4891000000.0 -1.204 0.2254
4894000000.0 -0.591 1.049
4897000000.0 0.4704 1.065
4900000000.0 1.088 0.3172
4903000000.0 0.8984 -0.636
4906000000.0 0.06521 -1.112
4909000000.0 -0.7713 -0.734
4912000000.0 -1.068 0.159
4916000000.0 -0.5183 0.8645
4919000000.0 0.3402 0.9477
4922000000.0 0.9121 0.3378
4925000000.0 0.8425 -0.5092
4928000000.0 0.1249 -0.9724
4931000000.0 -0.636 -0.7039
4934000000.0 -0.9491 0.02836
4938000000.0 -0.5397 0.7861
4941000000.0 0.2497 0.9181
4944000000.0 0.8378 0.4032
4947000000.0 0.8577 -0.4288
4950000000.0 0.2231 -0.9287
4953000000.0 -0.5974 -0.7473
4956000000.0 -0.9432 -0.05571
4959000000.0 -0.6411 0.7229
4962000000.0 0.1752 0.9604
4966000000.0 0.8555 0.5071
4969000000.0 0.9286 -0.3474
4972000000.0 0.3013 -0.9416
4975000000.0 -0.5462 -0.8453
4978000000.0 -1.001 -0.1281
4981000000.0 -0.7354 0.7195
4984000000.0 0.08142 1.046
4988000000.0 0.8562 0.6228
4991000000.0 0.9976 -0.2852
4994000000.0 0.4503 -0.9852
4997000000.0 -0.49 -0.9935
5000000000.0 -1.082 -0.2907
5003000000.0 -0.934 0.6605
5006000000.0 -0.09255 1.142
5009000000.0 0.8639 0.8177
5012000000.0 1.188 -0.1488
5016000000.0 0.6406 -1.031
5019000000.0 -0.379 -1.191
5022000000.0 -1.151 -0.4577
5025000000.0 -1.14 0.5876
5028000000.0 -0.2224 1.273
5031000000.0 0.8281 0.9807
5034000000.0 1.278 -0.03142
5038000000.0 0.8123 -1.017
5041000000.0 -0.2484 -1.264
5044000000.0 -1.151 -0.6245
5047000000.0 -1.231 0.4857
5050000000.0 -0.4067 1.231
5053000000.0 0.7037 1.139
5056000000.0 1.295 0.1991
5059000000.0 0.9907 -0.8492
5062000000.0 -0.04376 -1.28
5066000000.0 -1.029 -0.7959
5069000000.0 -1.277 0.2565
5072000000.0 -0.6118 1.167
5075000000.0 0.4867 1.206
5078000000.0 1.25 0.314
5081000000.0 1.064 -0.6867
5084000000.0 0.1536 -1.251
5088000000.0 -0.864 -0.8846
5091000000.0 -1.208 0.08875
5094000000.0 -0.6982 0.9713
5097000000.0 0.2604 1.115
5100000000.0 1.043 0.4943
5103000000.0 1.042 -0.4445
5106000000.0 0.3045 -1.1
5109000000.0 -0.6174 -0.9146
5112000000.0 -1.089 -0.1508
5116000000.0 -0.7717 0.7206
5119000000.0 0.06594 1.067
5122000000.0 0.8346 0.6233
5125000000.0 0.9938 -0.2595
5128000000.0 0.4357 -0.9403
5131000000.0 -0.4082 -0.9617
5134000000.0 -0.9524 -0.25
5138000000.0 -0.792 0.6114
5141000000.0 -0.04068 0.9782
5144000000.0 0.7009 0.6703
5147000000.0 0.9433 -0.1414
5150000000.0 0.4864 -0.7571
5153000000.0 -0.3028 -0.8609
5156000000.0 -0.8841 -0.3012
5159000000.0 -0.8152 0.4547
5162000000.0 -0.1575 0.8962
5166000000.0 0.572 0.682
5169000000.0 0.9032 0.006412
5172000000.0 0.538 -0.7345
5175000000.0 -0.2426 -0.8984
5178000000.0 -0.8184 -0.352
5181000000.0 -0.8148 0.4313
5184000000.0 -0.1716 0.8958
5188000000.0 0.5963 0.7132
5191000000.0 0.9408 -0.03485
5194000000.0 0.5564 -0.7426
5197000000.0 -0.2581 -0.905
5200000000.0 -0.8608 -0.3812
5203000000.0 -0.8428 0.4472
5206000000.0 -0.1925 0.9213
5209000000.0 0.5946 0.7426
5212000000.0 0.9605 -0.03121
5216000000.0 0.6168 -0.768
5219000000.0 -0.231 -0.9644
5222000000.0 -0.8968 -0.4271
5225000000.0 -0.8884 0.4043
5228000000.0 -0.2388 0.9799
5231000000.0 0.6049 0.8258
5234000000.0 1.01 0.06784
5238000000.0 0.703 -0.7255
5241000000.0 -0.1463 -1.042
5244000000.0 -0.9047 -0.5617
5247000000.0 -0.9844 0.3339
5250000000.0 -0.3713 0.9993
5253000000.0 0.5567 0.9267
5256000000.0 1.067 0.1802
5259000000.0 0.8249 -0.667
5262000000.0 -0.01736 -1.068
5266000000.0 -0.8183 -0.7122
5269000000.0 -1.072 0.1931
5272000000.0 -0.5275 0.9252
5275000000.0 0.3813 1.031
5278000000.0 1.049 0.408
5281000000.0 0.9786 -0.5383
5284000000.0 0.2343 -1.069
5288000000.0 -0.6943 -0.872
5291000000.0 -1.087 -0.04211
5294000000.0 -0.7425 0.8374
5297000000.0 0.1234 1.121
5300000000.0 0.943 0.6186
5303000000.0 1.092 -0.3024
5306000000.0 0.4628 -1.041
5309000000.0 -0.4871 -1.048
5312000000.0 -1.124 -0.2874
5316000000.0 -0.9107 0.6216
5319000000.0 -0.1075 1.14
5322000000.0 0.814 0.8032
5325000000.0 1.136 -0.1348
5328000000.0 0.654 -0.9558
5331000000.0 -0.315 -1.123
5334000000.0 -1.042 -0.4388
5338000000.0 -1.021 0.4877
5341000000.0 -0.2295 1.093
5344000000.0 0.6988 0.896
5347000000.0 1.128 0.02764
5350000000.0 0.7604 -0.8354
5353000000.0 -0.1708 -1.094
5356000000.0 -0.9819 -0.5259
5359000000.0 -1.012 0.4022
5362000000.0 -0.3807 0.9966
5366000000.0 0.5811 0.9249
5369000000.0 1.076 0.1182
5372000000.0 0.7524 -0.7534
5375000000.0 -0.1149 -1.033
5378000000.0 -0.8949 -0.5772
5381000000.0 -0.9866 0.3291
5384000000.0 -0.3258 0.9767
5388000000.0 0.5571 0.8553
5391000000.0 0.9713 0.09032
5394000000.0 0.6636 -0.6583
5397000000.0 -0.1197 -0.9392
5400000000.0 -0.803 -0.4961
5403000000.0 -0.8245 0.3436
5406000000.0 -0.2767 0.846
5409000000.0 0.4904 0.7428
5412000000.0 0.8858 0.05429
5416000000.0 0.6284 -0.6419
5419000000.0 -0.1509 -0.8754
5422000000.0 -0.7593 -0.4441
5425000000.0 -0.8181 0.3418
5428000000.0 -0.2506 0.835
5431000000.0 0.4683 0.7012
5434000000.0 0.842 0.07876
5438000000.0 0.5941 -0.6553
5441000000.0 -0.1171 -0.8803
5444000000.0 -0.7676 -0.4047
5447000000.0 -0.8 0.3175
5450000000.0 -0.2604 0.8516
5453000000.0 0.4579 0.7131
5456000000.0 0.8908 0.09002
5459000000.0 0.6615 -0.5983
5462000000.0 -0.07703 -0.8662
5466000000.0 -0.7529 -0.5072
5469000000.0 -0.8714 0.2402
5472000000.0 -0.3588 0.8718
5475000000.0 0.4128 0.8101
5478000000.0 0.9067 0.1926
5481000000.0 0.7368 -0.565
5484000000.0 0.04046 -0.9351
5488000000.0 -0.6876 -0.6636
5491000000.0 -0.9674 0.1135
5494000000.0 -0.5515 0.8319
5497000000.0 0.2835 0.9206
5500000000.0 0.9328 0.4025
5503000000.0 0.8967 -0.478
5506000000.0 0.2557 -1.016
5509000000.0 -0.6317 -0.8023
5512000000.0 -1.049 -0.06162
5516000000.0 -0.7208 0.774
5519000000.0 0.1424 1.03
5522000000.0 0.8639 0.5836
5525000000.0 1.005 -0.3129
5528000000.0 0.4194 -0.9337
5531000000.0 -0.437 -0.9473
5534000000.0 -1.02 -0.276
5538000000.0 -0.8677 0.6322
5541000000.0 -0.09342 1.053
5544000000.0 0.7848 0.7341
5547000000.0 1.067 -0.1011
5550000000.0 0.5666 -0.878
5553000000.0 -0.3014 -1.016
5556000000.0 -0.9585 -0.4157
5559000000.0 -0.9542 0.4789
5562000000.0 -0.2494 1.027
5566000000.0 0.6305 0.8131
5569000000.0 1.029 0.03239
5572000000.0 0.6828 -0.7729
5575000000.0 -0.1481 -0.9839
5578000000.0 -0.8345 -0.5335
5581000000.0 -0.9304 0.3286
5584000000.0 -0.3361 0.9175
5588000000.0 0.4799 0.8206
5591000000.0 0.9708 0.1555
5594000000.0 0.7205 -0.6112
5597000000.0 -0.05948 -0.9581
5600000000.0 -0.7348 -0.5472
5603000000.0 -0.8831 0.2021
5606000000.0 -0.4002 0.8047
5609000000.0 0.3671 0.8093
5612000000.0 0.8404 0.2157
5616000000.0 0.7149 -0.526
5619000000.0 0.03478 -0.8516
5622000000.0 -0.6346 -0.5471
5625000000.0 -0.872 0.148
5628000000.0 -0.417 0.7439
5631000000.0 0.2999 0.8015
5634000000.0 0.7892 0.2553
5638000000.0 0.6995 -0.4574
5641000000.0 0.06814 -0.8424
5644000000.0 -0.6276 -0.5593
5647000000.0 -0.8165 0.1249
5650000000.0 -0.4048 0.7076
5653000000.0 0.3114 0.8072
5656000000.0 0.7975 0.2584
5659000000.0 0.7223 -0.4967
5662000000.0 0.05678 -0.8651
5666000000.0 -0.6165 -0.6055
5669000000.0 -0.8558 0.09772
5672000000.0 -0.4591 0.7898
5675000000.0 0.3152 0.8359
5678000000.0 0.8885 0.2865
5681000000.0 0.7731 -0.5226
5684000000.0 0.1067 -0.9022
5688000000.0 -0.6591 -0.6549
5691000000.0 -0.9695 0.1279
5694000000.0 -0.5423 0.8201
5697000000.0 0.3011 0.8984
5700000000.0 0.9411 0.3323
5703000000.0 0.8751 -0.5073
5706000000.0 0.1573 -0.9904
5709000000.0 -0.6798 -0.7444
5712000000.0 -1.034 0.0544
5716000000.0 -0.6216 0.8132
5719000000.0 0.2384 1.028
5722000000.0 0.9657 0.4724
5725000000.0 0.9564 -0.4316
5728000000.0 0.275 -1.024
5731000000.0 -0.6002 -0.8729
5734000000.0 -1.052 -0.0585
5738000000.0 -0.7837 0.7783
5741000000.0 0.129 1.122
5744000000.0 0.8946 0.6293
5747000000.0 1.077 -0.3219
5750000000.0 0.45 -1.044
5753000000.0 -0.518 -0.9819
5756000000.0 -1.073 -0.2372
5759000000.0 -0.8914 0.6681
5762000000.0 -0.06321 1.107
5766000000.0 0.8054 0.7613
5769000000.0 1.1 -0.139
5772000000.0 0.5972 -0.9311
5775000000.0 -0.3299 -1.048
5778000000.0 -1.059 -0.3981
5781000000.0 -0.9609 0.5122
5784000000.0 -0.1899 1.086
5788000000.0 0.6496 0.8774
5791000000.0 1.08 0.05291
5794000000.0 0.6895 -0.8055
5797000000.0 -0.1733 -1.066
5800000000.0 -0.9499 -0.5694
5803000000.0 -1.009 0.3507
5806000000.0 -0.359 1.012
5809000000.0 0.4996 0.8977
5812000000.0 1.061 0.1309
5816000000.0 0.8024 -0.6823
5819000000.0 -0.01319 -1.05
5822000000.0 -0.81 -0.646
5825000000.0 -0.9777 0.2394
5828000000.0 -0.4677 0.9091
5831000000.0 0.369 0.9253
5834000000.0 0.9588 0.2406
5838000000.0 0.7661 -0.5654
5841000000.0 0.06743 -0.9782
5844000000.0 -0.6712 -0.636
5847000000.0 -0.9612 0.1442
5850000000.0 -0.4711 0.831
5853000000.0 0.3556 0.8864
5856000000.0 0.8832 0.2935
5859000000.0 0.778 -0.5441
5862000000.0 0.09089 -0.9155
5866000000.0 -0.6647 -0.6343
5869000000.0 -0.9179 0.1117
5872000000.0 -0.4553 0.7298
5875000000.0 0.2922 0.8351
5878000000.0 0.8359 0.2719
5881000000.0 0.7633 -0.4698
5884000000.0 0.107 -0.839
5888000000.0 -0.618 -0.5815
5891000000.0 -0.8363 0.06485
5894000000.0 -0.5098 0.7222
5897000000.0 0.2603 0.8106
5900000000.0 0.7783 0.2694
5903000000.0 0.7331 -0.4234
5906000000.0 0.1493 -0.8511
5909000000.0 -0.5629 -0.6492
5912000000.0 -0.8556 0.005149
5916000000.0 -0.5329 0.701
5919000000.0 0.208 0.8319
5922000000.0 0.7782 0.3977
5925000000.0 0.8037 -0.3633
5928000000.0 0.208 -0.8366
5931000000.0 -0.5022 -0.7236
5934000000.0 -0.8701 -0.04549
5938000000.0 -0.6138 0.6313
5941000000.0 0.07658 0.9265
5944000000.0 0.7405 0.4987
5947000000.0 0.8632 -0.2562
5950000000.0 0.3674 -0.8264
5953000000.0 -0.4122 -0.8122
5956000000.0 -0.9057 -0.2076
5959000000.0 -0.7623 0.5605
5962000000.0 -0.0735 0.9236
5966000000.0 0.6702 0.6286
5969000000.0 0.9517 -0.08724
5972000000.0 0.5113 -0.8061
5975000000.0 -0.2841 -0.9197
5978000000.0 -0.9074 -0.3614
5981000000.0 -0.8778 0.4662
5984000000.0 -0.2186 0.9928
5988000000.0 0.6198 0.766
5991000000.0 0.9922 0.04908
5994000000.0 0.6523 -0.7209
5997000000.0 -0.1572 -0.9748
6000000000.0 -0.854 -0.5053
6003000000.0 -0.9373 0.3296
6006000000.0 -0.3346 0.9223
6009000000.0 0.5115 0.8607
6012000000.0 0.9806 0.1639
6016000000.0 0.7515 -0.6777
6019000000.0 -0.04411 -0.9815
6022000000.0 -0.8206 -0.5904
6025000000.0 -0.9743 0.2321
6028000000.0 -0.4173 0.8924
6031000000.0 0.4151 0.8995
6034000000.0 0.9442 0.2387
6038000000.0 0.7959 -0.5933
6041000000.0 0.06281 -0.9554
6044000000.0 -0.7074 -0.6493
6047000000.0 -0.9435 0.1291
6050000000.0 -0.4915 0.8251
6053000000.0 0.3274 0.8993
6056000000.0 0.9162 0.2823
6059000000.0 0.7977 -0.529
6062000000.0 0.08357 -0.9266
6066000000.0 -0.6356 -0.6569
6069000000.0 -0.9149 0.08169
6072000000.0 -0.5003 0.732
6075000000.0 0.2711 0.856
6078000000.0 0.8334 0.288
6081000000.0 0.75 -0.4515
6084000000.0 0.1557 -0.8784
6088000000.0 -0.548 -0.6521
6091000000.0 -0.8463 0.04024
6094000000.0 -0.4802 0.7125
6097000000.0 0.215 0.8383
6100000000.0 0.775 0.3706
6103000000.0 0.7452 -0.381
6106000000.0 0.1687 -0.8129
6109000000.0 -0.5355 -0.6832
6112000000.0 -0.8587 -0.01256
6116000000.0 -0.5523 0.6967
6119000000.0 0.2071 0.8375
6122000000.0 0.7676 0.4157
6125000000.0 0.7746 -0.3772
6128000000.0 0.2259 -0.855
6131000000.0 -0.5327 -0.7044
6134000000.0 -0.8751 -0.03428
6138000000.0 -0.5812 0.6469
6141000000.0 0.1273 0.8694
6144000000.0 0.7768 0.44
6147000000.0 0.8172 -0.3197
6150000000.0 0.2678 -0.8569
6153000000.0 -0.481 -0.7633
6156000000.0 -0.8791 -0.09459
6159000000.0 -0.6628 0.6443
6162000000.0 0.05562 0.9236
6166000000.0 0.7418 0.5248
6169000000.0 0.9073 -0.2608
6172000000.0 0.3791 -0.8499
6175000000.0 -0.4266 -0.8181
6178000000.0 -0.9423 -0.1883
6181000000.0 -0.7246 0.607
6184000000.0 0.009592 0.9419
6188000000.0 0.7376 0.5986
6191000000.0 0.9417 -0.1695
6194000000.0 0.4389 -0.8354
6197000000.0 -0.3755 -0.8605
6200000000.0 -0.9146 -0.2866
6203000000.0 -0.7621 0.5219
6206000000.0 -0.0503 0.9485
6209000000.0 0.675 0.6595
6212000000.0 0.9426 -0.05818
6216000000.0 0.5139 -0.7653
6219000000.0 -0.2481 -0.9002
6222000000.0 -0.8099 -0.3795
6225000000.0 -0.8148 0.4072
6228000000.0 -0.2085 0.8998
6231000000.0 0.5455 0.7293
6234000000.0 0.8585 0.03981
6238000000.0 0.6237 -0.6646
6241000000.0 -0.1473 -0.8723
6244000000.0 -0.7685 -0.448
6247000000.0 -0.8033 0.3018
6250000000.0 -0.3091 0.7893
6253000000.0 0.3959 0.7715
6256000000.0 0.8283 0.144
6259000000.0 0.6758 -0.5159
6262000000.0 -0.01108 -0.82
6266000000.0 -0.602 -0.5478
6269000000.0 -0.8348 0.1023
