! Created with skrf 1.8.0 (http://scikit-rf.org).
# Hz S RI R 50.0 
!freq ReS11 ImS11
4000000000.0 -0.1645 -1.482
4003000000.0 -1.271 -0.8232
4006000000.0 -1.444 0.4831
4009000000.0 -0.5293 1.416
4012000000.0 0.8149 1.305
4016000000.0 1.569 0.2392
4019000000.0 1.148 -1.076
4022000000.0 -0.1542 -1.581
4025000000.0 -1.324 -0.9524
4028000000.0 -1.562 0.4781
4031000000.0 -0.5769 1.495
4034000000.0 0.7742 1.385
4038000000.0 1.601 0.2213
4041000000.0 1.177 -1.123
4044000000.0 -0.1353 -1.573
4047000000.0 -1.353 -0.9366
4050000000.0 -1.573 0.469
4053000000.0 -0.6229 1.489
4056000000.0 0.7322 1.452
4059000000.0 1.613 0.3128
4062000000.0 1.276 -1.032
4066000000.0 0.004825 -1.634
4069000000.0 -1.241 -1.037
4072000000.0 -1.592 0.2514
4075000000.0 -0.7927 1.409
4078000000.0 0.6062 1.548
4081000000.0 1.574 0.5423
4084000000.0 1.406 -0.8431
4088000000.0 0.2609 -1.681
4091000000.0 -1.119 -1.215
4094000000.0 -1.637 0.08587
4097000000.0 -0.9754 1.33
4100000000.0 0.3896 1.583
4103000000.0 1.459 0.7252
4106000000.0 1.476 -0.63
4109000000.0 0.4869 -1.505
4112000000.0 -0.8421 -1.278
4116000000.0 -1.49 -0.158
4119000000.0 -1.125 1.003
4122000000.0 0.04235 1.482
4125000000.0 1.145 0.9782
4128000000.0 1.452 -0.2275
4131000000.0 0.7573 -1.255
4134000000.0 -0.441 -1.441
4138000000.0 -1.374 -0.6194
4141000000.0 -1.356 0.627
4144000000.0 -0.4114 1.44
4147000000.0 0.8764 1.204
4150000000.0 1.521 0.1205
4153000000.0 1.092 -1.03
4156000000.0 -0.1373 -1.541
4159000000.0 -1.254 -0.8738
4162000000.0 -1.479 0.3684
4166000000.0 -0.6349 1.354
4169000000.0 0.6132 1.379
4172000000.0 1.432 0.385
4175000000.0 1.244 -0.8409
4178000000.0 0.1443 -1.52
4181000000.0 -1.034 -1.093
4184000000.0 -1.503 0.1049
4188000000.0 -0.9088 1.234
4191000000.0 0.3492 1.477
4194000000.0 1.402 0.668
4197000000.0 1.411 -0.6678
4200000000.0 0.3348 -1.536
4203000000.0 -0.9835 -1.298
4206000000.0 -1.619 -0.03199
4209000000.0 -1.052 1.279
4212000000.0 0.3808 1.631
4216000000.0 1.547 0.7207
4219000000.0 1.506 -0.7904
4222000000.0 0.3204 -1.672
4225000000.0 -1.099 -1.272
4228000000.0 -1.698 0.1346
4231000000.0 -0.8867 1.427
4234000000.0 0.5697 1.551
4238000000.0 1.568 0.4851
4241000000.0 1.353 -0.915
4244000000.0 0.08052 -1.616
4247000000.0 -1.222 -1.003
4250000000.0 -1.545 0.3644
4253000000.0 -0.6595 1.456
4256000000.0 0.7339 1.385
4259000000.0 1.535 0.2761
4262000000.0 1.149 -1.011
4266000000.0 -0.09701 -1.532
4269000000.0 -1.251 -0.8519
4272000000.0 -1.414 0.4468
4275000000.0 -0.5094 1.406
4278000000.0 0.7781 1.217
4281000000.0 1.417 0.1469
4284000000.0 1.018 -1.022
4288000000.0 -0.1817 -1.383
4291000000.0 -1.185 -0.7394
4294000000.0 -1.298 0.4697
4297000000.0 -0.4667 1.25
4300000000.0 0.6513 1.114
4303000000.0 1.326 0.2271
4306000000.0 0.9887 -0.7965
4309000000.0 -0.01062 -1.317
4312000000.0 -1.018 -0.8433
4316000000.0 -1.279 0.2152
4319000000.0 -0.6569 1.108
4322000000.0 0.4039 1.234
4325000000.0 1.264 0.4737
4328000000.0 1.154 -0.6359
4331000000.0 0.2746 -1.333
4334000000.0 -0.8779 -1.083
4338000000.0 -1.397 -0.04825
4341000000.0 -0.9018 1.071
4344000000.0 0.2707 1.383
4347000000.0 1.233 0.7292
4350000000.0 1.334 -0.4875
4353000000.0 0.4901 -1.362
4356000000.0 -0.7513 -1.235
4359000000.0 -1.452 -0.2443
4362000000.0 -1.089 0.9913
4366000000.0 0.02574 1.464
4369000000.0 1.185 0.9565
4372000000.0 1.451 -0.304
4375000000.0 0.6989 -1.308
4378000000.0 -0.5739 -1.378
4381000000.0 -1.429 -0.4044
4384000000.0 -1.241 0.8426
4388000000.0 -0.1536 1.539
4391000000.0 1.08 1.097
4394000000.0 1.551 -0.1943
4397000000.0 0.8519 -1.339
4400000000.0 -0.5423 -1.508
4403000000.0 -1.525 -0.4946
4406000000.0 -1.324 0.8739
4409000000.0 -0.1482 1.602
4412000000.0 1.124 1.089
4416000000.0 1.546 -0.2416
4419000000.0 0.7677 -1.339
4422000000.0 -0.5684 -1.427
4425000000.0 -1.45 -0.429
4428000000.0 -1.225 0.8614
4431000000.0 -0.05649 1.442
4434000000.0 1.085 0.9517
4438000000.0 1.371 -0.3117
4441000000.0 0.6052 -1.273
4444000000.0 -0.591 -1.239
4447000000.0 -1.318 -0.308
4450000000.0 -1.016 0.8509
4453000000.0 0.04482 1.36
4456000000.0 1.087 0.7336
4459000000.0 1.211 -0.3553
4462000000.0 0.4213 -1.184
4466000000.0 -0.6609 -1.071
4469000000.0 -1.231 -0.106
4472000000.0 -0.8542 0.9139
4475000000.0 0.1849 1.182
4478000000.0 0.9936 0.5907
4481000000.0 1.102 -0.454
4484000000.0 0.3132 -1.129
4488000000.0 -0.6735 -0.9
4491000000.0 -1.127 -0.04861
4494000000.0 -0.7685 0.8819
4497000000.0 0.1998 1.094
4500000000.0 1.021 0.5559
4503000000.0 0.9668 -0.433
4506000000.0 0.2774 -1.059
4509000000.0 -0.6205 -0.9041
4512000000.0 -1.112 -0.1089
4516000000.0 -0.7938 0.8266
4519000000.0 0.161 1.119
4522000000.0 0.9678 0.5637
4525000000.0 1.063 -0.3899
4528000000.0 0.3992 -1.049
4531000000.0 -0.5853 -1.037
4534000000.0 -1.157 -0.1516
4538000000.0 -0.8801 0.7891
4541000000.0 0.04422 1.188
4544000000.0 0.9574 0.6962
4547000000.0 1.162 -0.2816
4550000000.0 0.5223 -1.079
4553000000.0 -0.4933 -1.14
4556000000.0 -1.162 -0.3518
4559000000.0 -1.027 0.6768
4562000000.0 -0.1319 1.237
4566000000.0 0.888 0.909
4569000000.0 1.243 -0.05232
4572000000.0 0.7475 -1.047
4575000000.0 -0.3103 -1.297
4578000000.0 -1.181 -0.6055
4581000000.0 -1.228 0.5274
4584000000.0 -0.38 1.287
4588000000.0 0.7483 1.132
4591000000.0 1.371 0.1499
4594000000.0 0.9999 -0.9847
4597000000.0 -0.1556 -1.38
4600000000.0 -1.156 -0.7702
4603000000.0 -1.331 0.3903
4606000000.0 -0.5486 1.28
4609000000.0 0.6687 1.218
4612000000.0 1.351 0.2923
4616000000.0 1.069 -0.8679
4619000000.0 0.008079 -1.41
4622000000.0 -1.098 -0.8722
4625000000.0 -1.353 0.2871
4628000000.0 -0.6331 1.249
4631000000.0 0.5405 1.277
4634000000.0 1.355 0.4045
4638000000.0 1.1 -0.8107
4641000000.0 0.05973 -1.354
4644000000.0 -1.022 -0.9063
4647000000.0 -1.319 0.2169
4650000000.0 -0.6425 1.18
4653000000.0 0.5411 1.238
4656000000.0 1.26 0.3426
4659000000.0 1.029 -0.7634
4662000000.0 0.04512 -1.307
4666000000.0 -0.9371 -0.8157
4669000000.0 -1.203 0.2265
4672000000.0 -0.5706 1.064
4675000000.0 0.493 1.08
4678000000.0 1.121 0.2891
4681000000.0 0.9296 -0.7068
4684000000.0 0.03285 -1.142
4688000000.0 -0.8459 -0.7687
4691000000.0 -1.112 0.2182
4694000000.0 -0.5135 0.9566
4697000000.0 0.4567 1.014
4700000000.0 1.057 0.2663
4703000000.0 0.8682 -0.6988
4706000000.0 0.009466 -1.113
4709000000.0 -0.8212 -0.6657
4712000000.0 -1.059 0.2645
4716000000.0 -0.4571 0.946
4719000000.0 0.459 0.9389
4722000000.0 1.052 0.2495
4725000000.0 0.8359 -0.6776
4728000000.0 0.03424 -1.057
4731000000.0 -0.8214 -0.6579
4734000000.0 -1.02 0.1989
4738000000.0 -0.5152 0.9219
4741000000.0 0.3916 1.012
4744000000.0 1.004 0.3277
4747000000.0 0.9028 -0.5678
4750000000.0 0.1676 -1.088
4753000000.0 -0.7442 -0.7697
4756000000.0 -1.108 0.05495
4759000000.0 -0.6653 0.8932
4762000000.0 0.2732 1.095
4766000000.0 1.021 0.499
4769000000.0 1.056 -0.472
4772000000.0 0.3079 -1.134
4775000000.0 -0.6659 -0.9373
4778000000.0 -1.174 -0.1104
4781000000.0 -0.8459 0.828
4784000000.0 0.07207 1.177
4788000000.0 0.9756 0.6999
4791000000.0 1.188 -0.2933
4794000000.0 0.5517 -1.103
4797000000.0 -0.5189 -1.156
4800000000.0 -1.2 -0.3648
4803000000.0 -1.023 0.7082
4806000000.0 -0.1528 1.251
4809000000.0 0.8636 0.9372
4812000000.0 1.296 -0.0691
4816000000.0 0.8096 -1.033
4819000000.0 -0.29 -1.293
4822000000.0 -1.22 -0.6151
4825000000.0 -1.233 0.541
4828000000.0 -0.3938 1.302
4831000000.0 0.7756 1.131
4834000000.0 1.381 0.109
4838000000.0 0.974 -1.013
4841000000.0 -0.1588 -1.387
4844000000.0 -1.16 -0.7855
4847000000.0 -1.338 0.4371
4850000000.0 -0.5255 1.296
4853000000.0 0.6801 1.21
4856000000.0 1.356 0.239
4859000000.0 1.029 -0.8952
4862000000.0 -0.04942 -1.377
4866000000.0 -1.084 -0.8058
4869000000.0 -1.289 0.3153
4872000000.0 -0.5724 1.205
4875000000.0 0.5609 1.178
4878000000.0 1.26 0.2831
4881000000.0 1.014 -0.7601
4884000000.0 0.04106 -1.245
4888000000.0 -0.9518 -0.7937
4891000000.0 -1.209 0.2486
4894000000.0 -0.5603 1.072
4897000000.0 0.4621 1.072
4900000000.0 1.121 0.3012
4903000000.0 0.9227 -0.6607
4906000000.0 0.06143 -1.098
4909000000.0 -0.7902 -0.705
4912000000.0 -1.035 0.174
4916000000.0 -0.5044 0.895
4919000000.0 0.3639 0.9566
4922000000.0 0.9273 0.3226
4925000000.0 0.8364 -0.5001
4928000000.0 0.1139 -0.9535
4931000000.0 -0.6351 -0.7042
4934000000.0 -0.977 0.0695
4938000000.0 -0.5573 0.7786
4941000000.0 0.216 0.9014
4944000000.0 0.8585 0.3829
4947000000.0 0.8497 -0.4232
4950000000.0 0.2367 -0.9095
4953000000.0 -0.6071 -0.7644
4956000000.0 -0.9755 -0.01914
4959000000.0 -0.6348 0.7364
4962000000.0 0.1758 0.9557
4966000000.0 0.8875 0.4808
4969000000.0 0.9276 -0.4018
4972000000.0 0.318 -0.9784
4975000000.0 -0.5761 -0.8581
4978000000.0 -1.021 -0.1091
4981000000.0 -0.7789 0.726
4984000000.0 0.07064 1.038
4988000000.0 0.881 0.5907
4991000000.0 1.024 -0.2957
4994000000.0 0.4305 -0.9793
4997000000.0 -0.4851 -0.9853
5000000000.0 -1.078 -0.2622
5003000000.0 -0.9394 0.6754
5006000000.0 -0.04387 1.157
5009000000.0 0.8544 0.8145
5012000000.0 1.229 -0.1357
5016000000.0 0.6426 -1.047
5019000000.0 -0.4131 -1.185
5022000000.0 -1.202 -0.4147
5025000000.0 -1.096 0.6503
5028000000.0 -0.1925 1.258
5031000000.0 0.843 0.9661
5034000000.0 1.293 -0.005475
5038000000.0 0.8084 -1.0
5041000000.0 -0.2661 -1.286
5044000000.0 -1.14 -0.6013
5047000000.0 -1.21 0.4653
5050000000.0 -0.4168 1.217
5053000000.0 0.6744 1.093
5056000000.0 1.299 0.1372
5059000000.0 0.993 -0.8726
5062000000.0 -0.04481 -1.308
5066000000.0 -1.024 -0.8076
5069000000.0 -1.284 0.2894
5072000000.0 -0.5702 1.141
5075000000.0 0.5298 1.171
5078000000.0 1.217 0.3477
5081000000.0 1.071 -0.7096
5084000000.0 0.132 -1.238
5088000000.0 -0.8678 -0.9083
5091000000.0 -1.233 0.09613
5094000000.0 -0.6321 1.005
5097000000.0 0.2997 1.118
5100000000.0 1.066 0.5049
5103000000.0 1.049 -0.4678
5106000000.0 0.3 -1.063
5109000000.0 -0.6283 -0.9088
5112000000.0 -1.088 -0.08918
5116000000.0 -0.795 0.7186
5119000000.0 0.07443 1.053
5122000000.0 0.8531 0.5792
5125000000.0 0.9943 -0.2727
5128000000.0 0.4572 -0.9421
5131000000.0 -0.4214 -0.9296
5134000000.0 -0.9767 -0.2787
5138000000.0 -0.807 0.5972
5141000000.0 -0.02327 0.9828
5144000000.0 0.7161 0.6089
5147000000.0 0.9512 -0.1672
5150000000.0 0.468 -0.8219
5153000000.0 -0.3475 -0.8725
5156000000.0 -0.853 -0.2906
5159000000.0 -0.7592 0.4619
5162000000.0 -0.1127 0.9152
5166000000.0 0.6396 0.7038
5169000000.0 0.9273 -0.0616
5172000000.0 0.507 -0.7611
5175000000.0 -0.2427 -0.8665
5178000000.0 -0.868 -0.3748
5181000000.0 -0.8231 0.4344
5184000000.0 -0.1541 0.9126
5188000000.0 0.6039 0.698
5191000000.0 0.942 -0.03189
5194000000.0 0.5707 -0.7633
5197000000.0 -0.244 -0.9066
5200000000.0 -0.8863 -0.378
5203000000.0 -0.8327 0.4582
5206000000.0 -0.192 0.9604
5209000000.0 0.5975 0.7053
5212000000.0 0.9925 -0.01507
5216000000.0 0.6025 -0.7705
5219000000.0 -0.2397 -0.9568
5222000000.0 -0.9033 -0.4266
5225000000.0 -0.9031 0.437
5228000000.0 -0.2489 0.9665
5231000000.0 0.6029 0.8036
5234000000.0 1.029 0.0644
5238000000.0 0.6831 -0.7613
5241000000.0 -0.1481 -1.033
5244000000.0 -0.9245 -0.5462
5247000000.0 -0.988 0.3555
5250000000.0 -0.3621 0.9943
5253000000.0 0.5467 0.9214
5256000000.0 1.079 0.1822
5259000000.0 0.8301 -0.7033
5262000000.0 -0.01427 -1.093
5266000000.0 -0.8416 -0.6784
5269000000.0 -1.093 0.2068
5272000000.0 -0.539 0.9431
5275000000.0 0.3812 1.053
5278000000.0 1.043 0.3758
5281000000.0 0.9412 -0.5352
5284000000.0 0.1994 -1.072
5288000000.0 -0.681 -0.8751
5291000000.0 -1.126 -0.04313
5294000000.0 -0.7525 0.8669
5297000000.0 0.164 1.109
5300000000.0 0.9371 0.5829
5303000000.0 1.095 -0.3175
5306000000.0 0.4662 -1.021
5309000000.0 -0.5268 -1.025
5312000000.0 -1.112 -0.2624
5316000000.0 -0.934 0.6833
5319000000.0 -0.08188 1.133
5322000000.0 0.8154 0.8063
5325000000.0 1.167 -0.1325
5328000000.0 0.6384 -0.9153
5331000000.0 -0.3729 -1.116
5334000000.0 -1.072 -0.4602
5338000000.0 -1.007 0.5596
5341000000.0 -0.2189 1.113
5344000000.0 0.6997 0.9019
5347000000.0 1.123 0.03357
5350000000.0 0.7037 -0.8386
5353000000.0 -0.2166 -1.088
5356000000.0 -0.9811 -0.5277
5359000000.0 -1.006 0.42
5362000000.0 -0.3489 1.041
5366000000.0 0.5856 0.8946
5369000000.0 1.052 0.08993
5372000000.0 0.7289 -0.7714
5375000000.0 -0.144 -1.051
5378000000.0 -0.8717 -0.5651
5381000000.0 -0.9407 0.3714
5384000000.0 -0.3271 0.9181
5388000000.0 0.5386 0.8203
5391000000.0 0.9724 0.09542
5394000000.0 0.6387 -0.7313
5397000000.0 -0.1811 -0.935
5400000000.0 -0.8049 -0.4558
5403000000.0 -0.8605 0.3483
5406000000.0 -0.2422 0.8699
5409000000.0 0.4918 0.727
5412000000.0 0.8933 0.0445
5416000000.0 0.5766 -0.6577
5419000000.0 -0.141 -0.8832
5422000000.0 -0.7507 -0.4285
5425000000.0 -0.7848 0.3448
5428000000.0 -0.239 0.831
5431000000.0 0.49 0.7085
5434000000.0 0.8709 0.06935
5438000000.0 0.5649 -0.6842
5441000000.0 -0.1532 -0.8884
5444000000.0 -0.7832 -0.4432
5447000000.0 -0.8355 0.3355
5450000000.0 -0.2334 0.8785
5453000000.0 0.4957 0.7401
5456000000.0 0.8933 0.06945
5459000000.0 0.5999 -0.6181
5462000000.0 -0.0845 -0.9116
5466000000.0 -0.766 -0.4929
5469000000.0 -0.8694 0.2764
5472000000.0 -0.3684 0.8374
5475000000.0 0.4085 0.8401
5478000000.0 0.9319 0.2042
5481000000.0 0.7427 -0.5749
5484000000.0 0.03305 -0.9872
5488000000.0 -0.7466 -0.6394
5491000000.0 -0.9338 0.1332
5494000000.0 -0.5416 0.8432
5497000000.0 0.3424 0.9724
5500000000.0 0.9142 0.3789
5503000000.0 0.8936 -0.4999
5506000000.0 0.2024 -0.9831
5509000000.0 -0.6381 -0.7975
5512000000.0 -1.02 -0.05257
5516000000.0 -0.6694 0.7674
5519000000.0 0.1394 1.058
5522000000.0 0.8616 0.5581
5525000000.0 0.9856 -0.3235
5528000000.0 0.4125 -0.9567
5531000000.0 -0.51 -0.9365
5534000000.0 -1.037 -0.2276
5538000000.0 -0.8483 0.6282
5541000000.0 -0.07158 1.08
5544000000.0 0.7773 0.7062
5547000000.0 1.055 -0.1205
5550000000.0 0.5503 -0.9049
5553000000.0 -0.3136 -1.017
5556000000.0 -0.95 -0.4138
5559000000.0 -0.9304 0.5407
5562000000.0 -0.2155 1.051
5566000000.0 0.6448 0.8195
5569000000.0 1.028 0.01059
5572000000.0 0.6529 -0.8062
5575000000.0 -0.1723 -1.023
5578000000.0 -0.8775 -0.4959
5581000000.0 -0.9595 0.3705
5584000000.0 -0.3014 0.9606
5588000000.0 0.5158 0.8356
5591000000.0 0.9777 0.1125
5594000000.0 0.7207 -0.6337
5597000000.0 -0.05464 -0.9353
5600000000.0 -0.7616 -0.5645
5603000000.0 -0.8858 0.2131
5606000000.0 -0.3491 0.8401
5609000000.0 0.4092 0.8103
5612000000.0 0.8633 0.1902
5616000000.0 0.6812 -0.5444
5619000000.0 0.02427 -0.87
5622000000.0 -0.6658 -0.539
5625000000.0 -0.825 0.1836
5628000000.0 -0.4153 0.7399
5631000000.0 0.3415 0.7829
5634000000.0 0.8233 0.2288
5638000000.0 0.685 -0.4945
5641000000.0 0.08878 -0.8248
5644000000.0 -0.6424 -0.5669
5647000000.0 -0.836 0.1307
5650000000.0 -0.4158 0.7357
5653000000.0 0.3123 0.7825
5656000000.0 0.8371 0.2382
5659000000.0 0.7006 -0.4699
5662000000.0 0.07793 -0.8729
5666000000.0 -0.6429 -0.5892
5669000000.0 -0.8975 0.1377
5672000000.0 -0.4429 0.7724
5675000000.0 0.339 0.857
5678000000.0 0.8926 0.2545
5681000000.0 0.7575 -0.5376
5684000000.0 0.06008 -0.9203
5688000000.0 -0.6917 -0.6376
5691000000.0 -0.9469 0.1306
5694000000.0 -0.5314 0.821
5697000000.0 0.3315 0.9468
5700000000.0 0.9116 0.319
5703000000.0 0.8386 -0.5117
5706000000.0 0.1232 -1.031
5709000000.0 -0.7046 -0.7398
5712000000.0 -1.056 0.05563
5716000000.0 -0.6144 0.8497
5719000000.0 0.2793 0.9965
5722000000.0 0.9778 0.4518
5725000000.0 0.9979 -0.4598
5728000000.0 0.2382 -1.027
5731000000.0 -0.6291 -0.8787
5734000000.0 -1.081 -0.09348
5738000000.0 -0.7154 0.8103
5741000000.0 0.1603 1.065
5744000000.0 0.9294 0.6255
5747000000.0 1.063 -0.326
5750000000.0 0.4073 -1.026
5753000000.0 -0.5285 -0.9787
5756000000.0 -1.08 -0.2225
5759000000.0 -0.867 0.6777
5762000000.0 -0.008314 1.143
5766000000.0 0.8303 0.74
5769000000.0 1.119 -0.1807
5772000000.0 0.5869 -0.9528
5775000000.0 -0.3436 -1.022
5778000000.0 -1.022 -0.4095
5781000000.0 -0.9525 0.503
5784000000.0 -0.1883 1.101
5788000000.0 0.6818 0.8651
5791000000.0 1.067 -0.02493
5794000000.0 0.6924 -0.8107
5797000000.0 -0.1566 -1.043
5800000000.0 -0.9 -0.5285
5803000000.0 -1.022 0.3613
5806000000.0 -0.366 0.9786
5809000000.0 0.5402 0.8749
5812000000.0 1.023 0.1511
5816000000.0 0.7597 -0.7084
5819000000.0 -0.06092 -1.005
5822000000.0 -0.8241 -0.598
5825000000.0 -1.0 0.2265
5828000000.0 -0.4253 0.9152
5831000000.0 0.4178 0.8513
5834000000.0 0.977 0.2152
5838000000.0 0.7877 -0.5831
5841000000.0 0.04665 -1.006
5844000000.0 -0.7247 -0.6268
5847000000.0 -0.9579 0.1546
5850000000.0 -0.4413 0.8589
5853000000.0 0.3524 0.8573
5856000000.0 0.9267 0.2343
5859000000.0 0.75 -0.5452
5862000000.0 0.05696 -0.9421
5866000000.0 -0.6775 -0.6075
5869000000.0 -0.9109 0.1324
5872000000.0 -0.4322 0.7762
5875000000.0 0.3462 0.8536
5878000000.0 0.8482 0.272
5881000000.0 0.7048 -0.5191
5884000000.0 0.0412 -0.8474
5888000000.0 -0.6478 -0.6276
5891000000.0 -0.8537 0.1126
5894000000.0 -0.4434 0.7412
5897000000.0 0.3004 0.8364
5900000000.0 0.8051 0.3073
5903000000.0 0.74 -0.4507
5906000000.0 0.1546 -0.8782
5909000000.0 -0.578 -0.6435
5912000000.0 -0.8765 0.06315
5916000000.0 -0.5164 0.6919
5919000000.0 0.2217 0.8355
5922000000.0 0.7755 0.3878
5925000000.0 0.8043 -0.3526
5928000000.0 0.1824 -0.842
5931000000.0 -0.5462 -0.7382
5934000000.0 -0.888 -0.0295
5938000000.0 -0.6024 0.6715
5941000000.0 0.118 0.8651
5944000000.0 0.7423 0.4901
5947000000.0 0.8553 -0.2944
5950000000.0 0.369 -0.8686
5953000000.0 -0.4392 -0.8051
5956000000.0 -0.9024 -0.1819
5959000000.0 -0.7631 0.5721
5962000000.0 -0.002435 0.9177
5966000000.0 0.6915 0.6293
5969000000.0 0.941 -0.1544
5972000000.0 0.4781 -0.833
5975000000.0 -0.3158 -0.9256
5978000000.0 -0.9278 -0.3351
5981000000.0 -0.8732 0.4798
5984000000.0 -0.1804 0.9575
5988000000.0 0.621 0.7804
5991000000.0 1.006 0.003397
5994000000.0 0.6543 -0.7857
5997000000.0 -0.156 -0.9921
6000000000.0 -0.891 -0.5122
6003000000.0 -0.9168 0.3619
6006000000.0 -0.2994 0.9756
6009000000.0 0.5347 0.8619
6012000000.0 0.9919 0.1256
6016000000.0 0.7378 -0.6991
6019000000.0 -0.05203 -0.992
6022000000.0 -0.8228 -0.5613
6025000000.0 -0.9655 0.2655
6028000000.0 -0.4401 0.9192
6031000000.0 0.4551 0.8784
6034000000.0 0.9483 0.2075
6038000000.0 0.7481 -0.6079
6041000000.0 0.007348 -0.9732
6044000000.0 -0.7447 -0.6389
6047000000.0 -0.9579 0.1925
6050000000.0 -0.442 0.8543
6053000000.0 0.3436 0.8768
6056000000.0 0.9097 0.254
6059000000.0 0.7412 -0.5369
6062000000.0 0.05025 -0.9125
6066000000.0 -0.6734 -0.6448
6069000000.0 -0.9222 0.1158
6072000000.0 -0.4487 0.7867
6075000000.0 0.3092 0.8418
6078000000.0 0.8409 0.2683
6081000000.0 0.7429 -0.4641
6084000000.0 0.1235 -0.8961
6088000000.0 -0.6163 -0.6212
6091000000.0 -0.855 0.09109
6094000000.0 -0.471 0.7193
6097000000.0 0.2386 0.8345
6100000000.0 0.7705 0.3514
6103000000.0 0.7307 -0.4392
6106000000.0 0.1909 -0.8557
6109000000.0 -0.5456 -0.627
6112000000.0 -0.8851 0.03277
6116000000.0 -0.5479 0.7059
6119000000.0 0.2249 0.8483
6122000000.0 0.7875 0.3718
6125000000.0 0.7653 -0.3964
6128000000.0 0.1737 -0.8649
6131000000.0 -0.5373 -0.664
6134000000.0 -0.8895 0.01502
6138000000.0 -0.5908 0.6781
6141000000.0 0.1642 0.8487
6144000000.0 0.7794 0.4297
6147000000.0 0.8216 -0.3471
6150000000.0 0.2291 -0.8535
6153000000.0 -0.5365 -0.7505
6156000000.0 -0.9016 -0.06927
6159000000.0 -0.6446 0.6893
6162000000.0 0.1334 0.9202
6166000000.0 0.7902 0.5215
6169000000.0 0.8768 -0.3034
6172000000.0 0.3288 -0.8763
6175000000.0 -0.4646 -0.8424
6178000000.0 -0.9453 -0.1788
6181000000.0 -0.7292 0.6295
6184000000.0 0.02797 0.9972
6188000000.0 0.7766 0.5782
6191000000.0 0.9258 -0.1946
6194000000.0 0.4217 -0.8483
6197000000.0 -0.408 -0.8665
6200000000.0 -0.9039 -0.2635
6203000000.0 -0.7641 0.541
6206000000.0 -0.02105 0.9774
6209000000.0 0.6751 0.6509
6212000000.0 0.9341 -0.09426
6216000000.0 0.5055 -0.7932
6219000000.0 -0.2736 -0.9025
6222000000.0 -0.8769 -0.3677
6225000000.0 -0.8182 0.4288
6228000000.0 -0.1751 0.8935
6231000000.0 0.611 0.7132
6234000000.0 0.9051 0.03284
6238000000.0 0.557 -0.7118
6241000000.0 -0.1517 -0.8641
6244000000.0 -0.7613 -0.4063
6247000000.0 -0.7869 0.2813
6250000000.0 -0.2428 0.8194
6253000000.0 0.4338 0.7433
6256000000.0 0.8213 0.09923
6259000000.0 0.6443 -0.5407
6262000000.0 0.01123 -0.8266
6266000000.0 -0.6206 -0.5383
6269000000.0 -0.7959 0.168
