! Created with skrf 1.8.0 (http://scikit-rf.org).
# Hz S RI R 50.0 
!freq ReS11 ImS11
4000000000.0 -0.1357 -1.549
4003000000.0 -1.252 -0.8428
4006000000.0 -1.459 0.4901
4009000000.0 -0.5629 1.421
4012000000.0 0.7954 1.326
4016000000.0 1.543 0.1781
4019000000.0 1.174 -1.078
4022000000.0 -0.08832 -1.583
4025000000.0 -1.359 -0.895
4028000000.0 -1.559 0.4423
4031000000.0 -0.5857 1.517
4034000000.0 0.8374 1.392
4038000000.0 1.675 0.3043
4041000000.0 1.243 -1.106
4044000000.0 -0.1367 -1.649
4047000000.0 -1.323 -0.9682
4050000000.0 -1.582 0.4876
4053000000.0 -0.619 1.513
4056000000.0 0.7487 1.498
4059000000.0 1.611 0.3545
4062000000.0 1.286 -1.006
4066000000.0 0.02931 -1.602
4069000000.0 -1.22 -1.08
4072000000.0 -1.612 0.2718
4075000000.0 -0.8294 1.448
4078000000.0 0.5757 1.548
4081000000.0 1.564 0.5681
4084000000.0 1.445 -0.862
4088000000.0 0.2 -1.632
4091000000.0 -1.092 -1.277
4094000000.0 -1.684 0.06626
4097000000.0 -0.9958 1.298
4100000000.0 0.3513 1.608
4103000000.0 1.463 0.7036
4106000000.0 1.475 -0.6347
4109000000.0 0.4451 -1.527
4112000000.0 -0.8541 -1.32
4116000000.0 -1.506 -0.2118
4119000000.0 -1.156 1.001
4122000000.0 -0.01595 1.497
4125000000.0 1.155 1.004
4128000000.0 1.497 -0.2409
4131000000.0 0.7833 -1.266
4134000000.0 -0.4428 -1.446
4138000000.0 -1.352 -0.6017
4141000000.0 -1.344 0.6336
4144000000.0 -0.3803 1.445
4147000000.0 0.8602 1.267
4150000000.0 1.551 0.1313
4153000000.0 1.119 -1.09
4156000000.0 -0.08131 -1.571
4159000000.0 -1.225 -0.9132
4162000000.0 -1.507 0.4151
4166000000.0 -0.6339 1.385
4169000000.0 0.6301 1.402
4172000000.0 1.465 0.4087
4175000000.0 1.245 -0.8732
4178000000.0 0.1638 -1.495
4181000000.0 -1.046 -1.119
4184000000.0 -1.518 0.09218
4188000000.0 -0.9101 1.281
4191000000.0 0.3657 1.503
4194000000.0 1.403 0.6739
4197000000.0 1.442 -0.6777
4200000000.0 0.4065 -1.539
4203000000.0 -1.0 -1.327
4206000000.0 -1.625 -0.03428
4209000000.0 -1.048 1.234
4212000000.0 0.325 1.627
4216000000.0 1.53 0.7722
4219000000.0 1.531 -0.7601
4222000000.0 0.3861 -1.67
4225000000.0 -1.108 -1.292
4228000000.0 -1.667 0.1239
4231000000.0 -0.9414 1.409
4234000000.0 0.5401 1.616
4238000000.0 1.596 0.551
4241000000.0 1.386 -0.9376
4244000000.0 0.114 -1.635
4247000000.0 -1.222 -1.017
4250000000.0 -1.566 0.3269
4253000000.0 -0.71 1.437
4256000000.0 0.6577 1.433
4259000000.0 1.505 0.331
4262000000.0 1.175 -0.9767
4266000000.0 -0.04663 -1.508
4269000000.0 -1.253 -0.9005
4272000000.0 -1.456 0.4268
4275000000.0 -0.5531 1.417
4278000000.0 0.7344 1.304
4281000000.0 1.437 0.2003
4284000000.0 1.015 -1.041
4288000000.0 -0.121 -1.406
4291000000.0 -1.171 -0.7605
4294000000.0 -1.276 0.4118
4297000000.0 -0.4878 1.264
4300000000.0 0.6551 1.118
4303000000.0 1.332 0.2614
4306000000.0 0.9998 -0.8272
4309000000.0 0.02516 -1.303
4312000000.0 -0.9938 -0.859
4316000000.0 -1.281 0.1552
4319000000.0 -0.7096 1.123
4322000000.0 0.4055 1.26
4325000000.0 1.252 0.5196
4328000000.0 1.213 -0.6258
4331000000.0 0.3019 -1.335
4334000000.0 -0.8447 -1.084
4338000000.0 -1.411 -0.06411
4341000000.0 -0.9465 1.058
4344000000.0 0.2514 1.413
4347000000.0 1.237 0.7823
4350000000.0 1.361 -0.4735
4353000000.0 0.4899 -1.345
4356000000.0 -0.7243 -1.287
4359000000.0 -1.462 -0.2695
4362000000.0 -1.135 0.9451
4366000000.0 -0.0002157 1.492
4369000000.0 1.156 0.9477
4372000000.0 1.471 -0.2686
4375000000.0 0.7393 -1.314
4378000000.0 -0.547 -1.443
4381000000.0 -1.474 -0.5052
4384000000.0 -1.311 0.8231
4388000000.0 -0.204 1.528
4391000000.0 1.065 1.13
4394000000.0 1.582 -0.1412
4397000000.0 0.8774 -1.324
4400000000.0 -0.4742 -1.544
4403000000.0 -1.531 -0.5618
4406000000.0 -1.394 0.8377
4409000000.0 -0.2229 1.592
4412000000.0 1.139 1.132
4416000000.0 1.51 -0.1907
4419000000.0 0.7805 -1.334
4422000000.0 -0.5193 -1.439
4425000000.0 -1.425 -0.458
4428000000.0 -1.236 0.8343
4431000000.0 -0.1033 1.463
4434000000.0 1.103 0.9743
4438000000.0 1.417 -0.2823
4441000000.0 0.6893 -1.243
4444000000.0 -0.5732 -1.291
4447000000.0 -1.29 -0.3044
4450000000.0 -1.064 0.865
4453000000.0 0.04628 1.338
4456000000.0 1.069 0.8033
4459000000.0 1.265 -0.319
4462000000.0 0.4862 -1.203
4466000000.0 -0.6477 -1.092
4469000000.0 -1.227 -0.1896
4472000000.0 -0.9018 0.8822
4475000000.0 0.1256 1.208
4478000000.0 1.02 0.6256
4481000000.0 1.101 -0.4236
4484000000.0 0.3144 -1.107
4488000000.0 -0.6275 -0.9805
4491000000.0 -1.128 -0.08737
4494000000.0 -0.7744 0.8448
4497000000.0 0.1746 1.143
4500000000.0 0.9678 0.5645
4503000000.0 1.03 -0.385
4506000000.0 0.3371 -1.028
4509000000.0 -0.6065 -0.9482
4512000000.0 -1.114 -0.1448
4516000000.0 -0.7885 0.813
4519000000.0 0.08276 1.107
4522000000.0 0.9424 0.6256
4525000000.0 1.074 -0.351
4528000000.0 0.4282 -1.072
4531000000.0 -0.5788 -1.041
4534000000.0 -1.169 -0.2028
4538000000.0 -0.8943 0.7748
4541000000.0 0.005471 1.205
4544000000.0 0.9362 0.7501
4547000000.0 1.197 -0.2514
4550000000.0 0.5803 -1.056
4553000000.0 -0.453 -1.142
4556000000.0 -1.166 -0.4076
4559000000.0 -1.051 0.6555
4562000000.0 -0.1923 1.229
4566000000.0 0.8303 0.9591
4569000000.0 1.253 -0.04578
4572000000.0 0.8059 -1.024
4575000000.0 -0.2641 -1.291
4578000000.0 -1.158 -0.6074
4581000000.0 -1.236 0.4922
4584000000.0 -0.403 1.27
4588000000.0 0.7369 1.152
4591000000.0 1.386 0.1876
4594000000.0 1.003 -0.9735
4597000000.0 -0.0994 -1.408
4600000000.0 -1.133 -0.8329
4603000000.0 -1.338 0.3534
4606000000.0 -0.5892 1.265
4609000000.0 0.6362 1.267
4612000000.0 1.396 0.3626
4616000000.0 1.14 -0.8451
4619000000.0 0.03136 -1.42
4622000000.0 -1.036 -0.9072
4625000000.0 -1.352 0.2524
4628000000.0 -0.6653 1.243
4631000000.0 0.5465 1.304
4634000000.0 1.316 0.3835
4638000000.0 1.134 -0.7921
4641000000.0 0.09756 -1.384
4644000000.0 -0.9749 -0.9454
4647000000.0 -1.379 0.1777
4650000000.0 -0.6664 1.159
4653000000.0 0.4617 1.224
4656000000.0 1.265 0.3802
4659000000.0 1.043 -0.7702
4662000000.0 0.05192 -1.283
4666000000.0 -0.9282 -0.8648
4669000000.0 -1.21 0.1712
4672000000.0 -0.5804 1.067
4675000000.0 0.4494 1.092
4678000000.0 1.136 0.3436
4681000000.0 0.9483 -0.6543
4684000000.0 0.07412 -1.147
4688000000.0 -0.8178 -0.763
4691000000.0 -1.139 0.1864
4694000000.0 -0.5433 0.977
4697000000.0 0.3973 1.019
4700000000.0 1.067 0.3105
4703000000.0 0.8923 -0.6593
4706000000.0 0.03813 -1.137
4709000000.0 -0.8352 -0.6961
4712000000.0 -1.083 0.2021
4716000000.0 -0.5112 0.9638
4719000000.0 0.4292 1.009
4722000000.0 1.046 0.2629
4725000000.0 0.8536 -0.6575
4728000000.0 0.0513 -1.067
4731000000.0 -0.8094 -0.6985
4734000000.0 -1.014 0.195
4738000000.0 -0.5626 0.9093
4741000000.0 0.3497 1.006
4744000000.0 1.019 0.3739
4747000000.0 0.9293 -0.5744
4750000000.0 0.1518 -1.052
4753000000.0 -0.7054 -0.8345
4756000000.0 -1.055 0.03646
4759000000.0 -0.6836 0.8468
4762000000.0 0.2416 1.099
4766000000.0 1.001 0.5171
4769000000.0 1.041 -0.458
4772000000.0 0.3399 -1.103
4775000000.0 -0.6625 -1.012
4778000000.0 -1.168 -0.1295
4781000000.0 -0.8911 0.8098
4784000000.0 0.08151 1.222
4788000000.0 0.9562 0.7548
4791000000.0 1.2 -0.2774
4794000000.0 0.5766 -1.082
4797000000.0 -0.472 -1.18
4800000000.0 -1.199 -0.3763
4803000000.0 -1.065 0.6461
4806000000.0 -0.2027 1.245
4809000000.0 0.8595 0.9627
4812000000.0 1.284 -0.0278
4816000000.0 0.826 -1.057
4819000000.0 -0.2594 -1.286
4822000000.0 -1.197 -0.6207
4825000000.0 -1.275 0.5191
4828000000.0 -0.409 1.309
4831000000.0 0.7667 1.176
4834000000.0 1.381 0.126
4838000000.0 1.004 -0.9793
4841000000.0 -0.147 -1.409
4844000000.0 -1.175 -0.7907
4847000000.0 -1.352 0.3936
4850000000.0 -0.5275 1.307
4853000000.0 0.6633 1.256
4856000000.0 1.361 0.2405
4859000000.0 1.059 -0.9105
4862000000.0 -0.02215 -1.359
4866000000.0 -1.051 -0.8382
4869000000.0 -1.327 0.3089
4872000000.0 -0.6377 1.203
4875000000.0 0.5184 1.235
4878000000.0 1.247 0.3318
4881000000.0 1.04 -0.7582
4884000000.0 0.06622 -1.26
4888000000.0 -0.9259 -0.8382
4891000000.0 -1.182 0.2205
4894000000.0 -0.5696 1.055
4897000000.0 0.4747 1.133
4900000000.0 1.114 0.3162
4903000000.0 0.9452 -0.6816
4906000000.0 0.08847 -1.108
4909000000.0 -0.7788 -0.7536
4912000000.0 -1.063 0.132
4916000000.0 -0.5473 0.8985
4919000000.0 0.3073 0.9386
4922000000.0 0.9292 0.3545
4925000000.0 0.8616 -0.5175
4928000000.0 0.1586 -0.9814
4931000000.0 -0.642 -0.7181
4934000000.0 -0.9524 0.03137
4938000000.0 -0.5869 0.7476
4941000000.0 0.2282 0.9321
4944000000.0 0.8506 0.4163
4947000000.0 0.8792 -0.3992
4950000000.0 0.2471 -0.9187
4953000000.0 -0.5791 -0.8161
4956000000.0 -0.9659 -0.03819
4959000000.0 -0.6537 0.7343
4962000000.0 0.1505 0.9777
4966000000.0 0.8544 0.4694
4969000000.0 0.933 -0.3363
4972000000.0 0.3163 -0.9528
4975000000.0 -0.5434 -0.8759
4978000000.0 -1.005 -0.1482
4981000000.0 -0.7486 0.7119
4984000000.0 0.05593 1.044
4988000000.0 0.8472 0.6264
4991000000.0 1.045 -0.2568
4994000000.0 0.4773 -1.01
4997000000.0 -0.4701 -1.025
5000000000.0 -1.082 -0.2966
5003000000.0 -0.9527 0.6525
5006000000.0 -0.1235 1.173
5009000000.0 0.8393 0.8378
5012000000.0 1.209 -0.1505
5016000000.0 0.6567 -1.055
5019000000.0 -0.3657 -1.178
5022000000.0 -1.187 -0.4522
5025000000.0 -1.086 0.6122
5028000000.0 -0.2431 1.256
5031000000.0 0.8456 0.9972
5034000000.0 1.303 0.0001441
5038000000.0 0.8436 -0.9915
5041000000.0 -0.247 -1.27
5044000000.0 -1.151 -0.6445
5047000000.0 -1.215 0.4689
5050000000.0 -0.4487 1.267
5053000000.0 0.6833 1.146
5056000000.0 1.289 0.2037
5059000000.0 0.999 -0.8821
5062000000.0 -0.02203 -1.342
5066000000.0 -1.03 -0.8224
5069000000.0 -1.303 0.2792
5072000000.0 -0.6122 1.156
5075000000.0 0.4978 1.207
5078000000.0 1.223 0.3772
5081000000.0 1.074 -0.6873
5084000000.0 0.1915 -1.232
5088000000.0 -0.8521 -0.8803
5091000000.0 -1.225 0.05438
5094000000.0 -0.7353 1.002
5097000000.0 0.2775 1.134
5100000000.0 1.015 0.4926
5103000000.0 1.02 -0.4874
5106000000.0 0.3374 -1.087
5109000000.0 -0.6421 -0.9599
5112000000.0 -1.106 -0.1419
5116000000.0 -0.7733 0.7947
5119000000.0 0.06802 1.107
5122000000.0 0.8771 0.6202
5125000000.0 1.024 -0.2401
5128000000.0 0.4479 -0.9451
5131000000.0 -0.3926 -0.935
5134000000.0 -0.9848 -0.2767
5138000000.0 -0.8135 0.5813
5141000000.0 -0.08143 1.008
5144000000.0 0.6953 0.6672
5147000000.0 0.9533 -0.1571
5150000000.0 0.5141 -0.8165
5153000000.0 -0.3163 -0.8769
5156000000.0 -0.877 -0.3263
5159000000.0 -0.7939 0.4598
5162000000.0 -0.1636 0.8877
5166000000.0 0.5881 0.6652
5169000000.0 0.9086 -0.05499
5172000000.0 0.5565 -0.7502
5175000000.0 -0.2304 -0.8896
5178000000.0 -0.8295 -0.358
5181000000.0 -0.8405 0.4078
5184000000.0 -0.2126 0.9184
5188000000.0 0.582 0.6866
5191000000.0 0.9432 -0.02334
5194000000.0 0.5682 -0.7647
5197000000.0 -0.2459 -0.9184
5200000000.0 -0.8681 -0.4135
5203000000.0 -0.8607 0.3994
5206000000.0 -0.1917 0.9279
5209000000.0 0.5881 0.7501
5212000000.0 0.9691 0.01491
5216000000.0 0.6019 -0.7627
5219000000.0 -0.1917 -0.9631
5222000000.0 -0.8974 -0.4487
5225000000.0 -0.9222 0.4097
5228000000.0 -0.2701 0.9831
5231000000.0 0.5846 0.8403
5234000000.0 1.014 0.08487
5238000000.0 0.7161 -0.7669
5241000000.0 -0.1202 -1.047
5244000000.0 -0.9115 -0.5788
5247000000.0 -1.015 0.3314
5250000000.0 -0.3937 0.9865
5253000000.0 0.5047 0.9744
5256000000.0 1.082 0.1977
5259000000.0 0.8359 -0.6953
5262000000.0 0.01712 -1.058
5266000000.0 -0.8168 -0.7104
5269000000.0 -1.107 0.1868
5272000000.0 -0.5839 0.96
5275000000.0 0.3688 1.054
5278000000.0 1.049 0.4215
5281000000.0 0.9845 -0.5037
5284000000.0 0.2271 -1.084
5288000000.0 -0.6645 -0.8824
5291000000.0 -1.119 -0.05075
5294000000.0 -0.7983 0.8417
5297000000.0 0.1376 1.109
5300000000.0 0.9442 0.6443
5303000000.0 1.119 -0.2874
5306000000.0 0.4688 -1.061
5309000000.0 -0.479 -1.05
5312000000.0 -1.109 -0.3045
5316000000.0 -0.9474 0.6824
5319000000.0 -0.1204 1.186
5322000000.0 0.8145 0.845
5325000000.0 1.163 -0.09927
5328000000.0 0.6939 -0.9383
5331000000.0 -0.3079 -1.138
5334000000.0 -1.049 -0.5023
5338000000.0 -1.024 0.493
5341000000.0 -0.2566 1.088
5344000000.0 0.6775 0.9198
5347000000.0 1.146 0.04852
5350000000.0 0.7848 -0.8043
5353000000.0 -0.1304 -1.107
5356000000.0 -0.9302 -0.568
5359000000.0 -1.056 0.3436
5362000000.0 -0.3283 1.032
5366000000.0 0.572 0.9098
5369000000.0 1.075 0.1502
5372000000.0 0.7745 -0.7431
5375000000.0 -0.1062 -1.074
5378000000.0 -0.8895 -0.5829
5381000000.0 -0.9965 0.3248
5384000000.0 -0.3467 0.9219
5388000000.0 0.5216 0.8727
5391000000.0 0.9913 0.1083
5394000000.0 0.6948 -0.6807
5397000000.0 -0.1103 -0.9757
5400000000.0 -0.809 -0.4999
5403000000.0 -0.8666 0.3169
5406000000.0 -0.2714 0.8695
5409000000.0 0.4988 0.7767
5412000000.0 0.8926 0.09136
5416000000.0 0.6413 -0.6242
5419000000.0 -0.08415 -0.8241
5422000000.0 -0.7253 -0.4385
5425000000.0 -0.8259 0.3299
5428000000.0 -0.2853 0.8642
5431000000.0 0.5065 0.7379
5434000000.0 0.8702 0.08271
5438000000.0 0.6107 -0.624
5441000000.0 -0.09699 -0.8854
5444000000.0 -0.763 -0.4496
5447000000.0 -0.8689 0.3254
5450000000.0 -0.269 0.8538
5453000000.0 0.4895 0.758
5456000000.0 0.8852 0.1045
5459000000.0 0.6363 -0.6207
5462000000.0 -0.0825 -0.8915
5466000000.0 -0.7754 -0.5241
5469000000.0 -0.8926 0.2404
5472000000.0 -0.3842 0.8528
5475000000.0 0.3829 0.8458
5478000000.0 0.9276 0.251
5481000000.0 0.7597 -0.5389
5484000000.0 0.1157 -0.9388
5488000000.0 -0.7144 -0.6688
5491000000.0 -0.9896 0.1203
5494000000.0 -0.5555 0.8378
5497000000.0 0.3018 0.9556
5500000000.0 0.9354 0.4356
5503000000.0 0.9242 -0.4555
5506000000.0 0.2339 -0.9834
5509000000.0 -0.6173 -0.8094
5512000000.0 -1.03 -0.06165
5516000000.0 -0.7487 0.7421
5519000000.0 0.102 1.043
5522000000.0 0.8143 0.6129
5525000000.0 1.012 -0.2764
5528000000.0 0.4109 -0.9485
5531000000.0 -0.4551 -0.9451
5534000000.0 -1.05 -0.3059
5538000000.0 -0.8633 0.5789
5541000000.0 -0.1228 1.047
5544000000.0 0.7506 0.7804
5547000000.0 1.061 -0.1429
5550000000.0 0.6359 -0.9033
5553000000.0 -0.2891 -1.043
5556000000.0 -0.9654 -0.3999
5559000000.0 -0.9971 0.4498
5562000000.0 -0.264 1.047
5566000000.0 0.6283 0.8679
5569000000.0 1.084 0.04828
5572000000.0 0.7109 -0.7892
5575000000.0 -0.1141 -1.002
5578000000.0 -0.8592 -0.5025
5581000000.0 -0.9738 0.3121
5584000000.0 -0.3829 0.9276
5588000000.0 0.4847 0.8559
5591000000.0 0.9586 0.1981
5594000000.0 0.7574 -0.6488
5597000000.0 -0.00895 -0.9618
5600000000.0 -0.7498 -0.5826
5603000000.0 -0.912 0.2008
5606000000.0 -0.3889 0.8005
5609000000.0 0.3403 0.8401
5612000000.0 0.8601 0.262
5616000000.0 0.7308 -0.4985
5619000000.0 0.06065 -0.8561
5622000000.0 -0.6662 -0.592
5625000000.0 -0.8439 0.1128
5628000000.0 -0.4226 0.7425
5631000000.0 0.2855 0.7997
5634000000.0 0.8274 0.27
5638000000.0 0.7129 -0.4447
5641000000.0 0.07285 -0.8647
5644000000.0 -0.595 -0.6071
5647000000.0 -0.8539 0.06797
5650000000.0 -0.4529 0.723
5653000000.0 0.2783 0.817
5656000000.0 0.8076 0.2585
5659000000.0 0.7325 -0.4544
5662000000.0 0.1049 -0.8865
5666000000.0 -0.6296 -0.6422
5669000000.0 -0.8981 0.1099
5672000000.0 -0.4922 0.8126
5675000000.0 0.2871 0.862
5678000000.0 0.865 0.3024
5681000000.0 0.7937 -0.4944
5684000000.0 0.1443 -0.9386
5688000000.0 -0.6593 -0.6654
5691000000.0 -0.9712 0.09377
5694000000.0 -0.5439 0.8031
5697000000.0 0.2907 0.9598
5700000000.0 0.9162 0.3793
5703000000.0 0.8587 -0.4856
5706000000.0 0.163 -1.008
5709000000.0 -0.6833 -0.7727
5712000000.0 -1.051 0.05942
5716000000.0 -0.6644 0.8262
5719000000.0 0.2434 1.045
5722000000.0 0.9406 0.4676
5725000000.0 0.9763 -0.4041
5728000000.0 0.309 -1.039
5731000000.0 -0.6191 -0.9103
5734000000.0 -1.102 -0.09248
5738000000.0 -0.8212 0.7693
5741000000.0 0.08734 1.093
5744000000.0 0.8859 0.6138
5747000000.0 1.073 -0.2759
5750000000.0 0.4841 -1.027
5753000000.0 -0.5011 -1.014
5756000000.0 -1.095 -0.2909
5759000000.0 -0.8927 0.6653
5762000000.0 -0.08154 1.141
5766000000.0 0.7955 0.7582
5769000000.0 1.14 -0.1281
5772000000.0 0.6292 -0.9414
5775000000.0 -0.3143 -1.068
5778000000.0 -1.031 -0.4447
5781000000.0 -0.9711 0.4592
5784000000.0 -0.2792 1.107
5788000000.0 0.6457 0.8802
5791000000.0 1.104 0.05602
5794000000.0 0.7746 -0.8047
5797000000.0 -0.1561 -1.092
5800000000.0 -0.8971 -0.5833
5803000000.0 -1.007 0.3526
5806000000.0 -0.3785 0.9591
5809000000.0 0.4939 0.8977
5812000000.0 1.039 0.2131
5816000000.0 0.8152 -0.6862
5819000000.0 0.0005328 -1.019
5822000000.0 -0.8306 -0.6536
5825000000.0 -1.023 0.1646
5828000000.0 -0.4611 0.8838
5831000000.0 0.3882 0.9219
5834000000.0 0.9608 0.3087
5838000000.0 0.8041 -0.5589
5841000000.0 0.1017 -0.9878
5844000000.0 -0.6754 -0.6552
5847000000.0 -0.9513 0.1259
5850000000.0 -0.5 0.8256
5853000000.0 0.3612 0.9153
5856000000.0 0.929 0.3313
5859000000.0 0.7945 -0.4831
5862000000.0 0.1131 -0.9314
5866000000.0 -0.6548 -0.6473
5869000000.0 -0.9156 0.08847
5872000000.0 -0.5129 0.778
5875000000.0 0.278 0.8482
5878000000.0 0.8486 0.2974
5881000000.0 0.7606 -0.476
5884000000.0 0.1453 -0.8758
5888000000.0 -0.5994 -0.6526
5891000000.0 -0.8781 0.07133
5894000000.0 -0.4732 0.7294
5897000000.0 0.2179 0.8028
5900000000.0 0.8122 0.3397
5903000000.0 0.7913 -0.3942
5906000000.0 0.1563 -0.8391
5909000000.0 -0.5546 -0.6628
5912000000.0 -0.8846 0.02304
5916000000.0 -0.5584 0.6659
5919000000.0 0.1845 0.866
5922000000.0 0.8517 0.3962
5925000000.0 0.8397 -0.3429
5928000000.0 0.2777 -0.8553
5931000000.0 -0.4871 -0.7242
5934000000.0 -0.8842 -0.1118
5938000000.0 -0.6367 0.6399
5941000000.0 0.05208 0.916
5944000000.0 0.7203 0.5287
5947000000.0 0.8796 -0.2154
5950000000.0 0.3824 -0.819
5953000000.0 -0.3966 -0.8375
5956000000.0 -0.8852 -0.2569
5959000000.0 -0.7563 0.5586
5962000000.0 -0.04514 0.9553
5966000000.0 0.6746 0.6559
5969000000.0 0.9392 -0.09684
5972000000.0 0.5523 -0.7986
5975000000.0 -0.2507 -0.938
5978000000.0 -0.9085 -0.3937
5981000000.0 -0.8954 0.4572
5984000000.0 -0.2401 0.9532
5988000000.0 0.5996 0.7884
5991000000.0 0.9973 0.06916
5994000000.0 0.6819 -0.7444
5997000000.0 -0.1508 -0.9925
6000000000.0 -0.8228 -0.5311
6003000000.0 -0.9653 0.3026
6006000000.0 -0.3685 0.9157
6009000000.0 0.4974 0.8599
6012000000.0 0.9952 0.1844
6016000000.0 0.7708 -0.6391
6019000000.0 -0.01888 -1.025
6022000000.0 -0.7788 -0.6331
6025000000.0 -0.9725 0.2123
6028000000.0 -0.4411 0.8659
6031000000.0 0.3813 0.9208
6034000000.0 0.9415 0.2725
6038000000.0 0.8315 -0.5441
6041000000.0 0.08623 -0.9687
6044000000.0 -0.721 -0.6793
6047000000.0 -0.9664 0.1029
6050000000.0 -0.4892 0.8336
6053000000.0 0.2865 0.9046
6056000000.0 0.9075 0.3398
6059000000.0 0.8134 -0.4849
6062000000.0 0.09719 -0.9141
6066000000.0 -0.627 -0.6579
6069000000.0 -0.929 0.03136
6072000000.0 -0.5174 0.7803
6075000000.0 0.2603 0.8656
6078000000.0 0.8263 0.3474
6081000000.0 0.7873 -0.4138
6084000000.0 0.1601 -0.8555
6088000000.0 -0.5495 -0.6672
6091000000.0 -0.9036 -0.008016
6094000000.0 -0.5335 0.6918
6097000000.0 0.1915 0.8547
6100000000.0 0.7782 0.3519
6103000000.0 0.7889 -0.3592
6106000000.0 0.1999 -0.8689
6109000000.0 -0.5075 -0.6906
6112000000.0 -0.8775 -0.01751
6116000000.0 -0.5678 0.6837
6119000000.0 0.1841 0.8554
6122000000.0 0.7849 0.4235
6125000000.0 0.8333 -0.3007
6128000000.0 0.2267 -0.8648
6131000000.0 -0.4755 -0.7155
6134000000.0 -0.868 -0.04658
6138000000.0 -0.5825 0.6471
6141000000.0 0.1282 0.8958
6144000000.0 0.7564 0.489
6147000000.0 0.8577 -0.2963
6150000000.0 0.3362 -0.8407
6153000000.0 -0.4782 -0.7827
6156000000.0 -0.8905 -0.129
6159000000.0 -0.7046 0.6177
6162000000.0 0.03241 0.9262
6166000000.0 0.7569 0.5345
6169000000.0 0.8885 -0.245
6172000000.0 0.4034 -0.8379
6175000000.0 -0.4251 -0.8435
6178000000.0 -0.8993 -0.2187
6181000000.0 -0.7585 0.5845
6184000000.0 -0.02012 0.9566
6188000000.0 0.6994 0.5901
6191000000.0 0.9467 -0.176
6194000000.0 0.4608 -0.8403
6197000000.0 -0.2988 -0.9031
6200000000.0 -0.9229 -0.3392
6203000000.0 -0.8065 0.501
6206000000.0 -0.1476 0.9534
6209000000.0 0.662 0.6985
6212000000.0 0.9161 -0.05497
6216000000.0 0.5557 -0.7685
6219000000.0 -0.2313 -0.8927
6222000000.0 -0.8378 -0.4361
6225000000.0 -0.836 0.4313
6228000000.0 -0.266 0.9029
6231000000.0 0.5589 0.7744
6234000000.0 0.9247 0.07801
6238000000.0 0.5814 -0.631
6241000000.0 -0.1123 -0.904
6244000000.0 -0.744 -0.4748
6247000000.0 -0.8318 0.2557
6250000000.0 -0.3457 0.7743
6253000000.0 0.3857 0.7518
6256000000.0 0.8149 0.2063
6259000000.0 0.6387 -0.4853
6262000000.0 0.03927 -0.8192
6266000000.0 -0.6061 -0.5709
