! Created with skrf 1.8.0 (http://scikit-rf.org).
# Hz S RI R 50.0 
!freq ReS11 ImS11
4000000000.0 -0.2138 -1.509
4003000000.0 -1.291 -0.8092
4006000000.0 -1.469 0.4445
4009000000.0 -0.516 1.457
4012000000.0 0.8049 1.339
4016000000.0 1.513 0.2384
4019000000.0 1.114 -1.065
4022000000.0 -0.102 -1.538
4025000000.0 -1.313 -0.8428
4028000000.0 -1.532 0.4837
4031000000.0 -0.6161 1.486
4034000000.0 0.7804 1.433
4038000000.0 1.603 0.2064
4041000000.0 1.14 -1.12
4044000000.0 -0.1523 -1.633
4047000000.0 -1.361 -0.9384
4050000000.0 -1.583 0.4699
4053000000.0 -0.6337 1.478
4056000000.0 0.753 1.407
4059000000.0 1.583 0.307
4062000000.0 1.254 -1.044
4066000000.0 0.01256 -1.623
4069000000.0 -1.218 -1.048
4072000000.0 -1.644 0.2808
4075000000.0 -0.8048 1.434
4078000000.0 0.5911 1.57
4081000000.0 1.504 0.5445
4084000000.0 1.397 -0.8624
4088000000.0 0.2451 -1.635
4091000000.0 -1.114 -1.222
4094000000.0 -1.658 0.06483
4097000000.0 -1.013 1.291
4100000000.0 0.3555 1.604
4103000000.0 1.405 0.7457
4106000000.0 1.463 -0.6357
4109000000.0 0.4462 -1.529
4112000000.0 -0.8559 -1.28
4116000000.0 -1.522 -0.1776
4119000000.0 -1.137 0.9978
4122000000.0 0.02723 1.491
4125000000.0 1.145 0.9682
4128000000.0 1.444 -0.2
4131000000.0 0.788 -1.26
4134000000.0 -0.4239 -1.414
4138000000.0 -1.373 -0.5997
4141000000.0 -1.326 0.663
4144000000.0 -0.3861 1.435
4147000000.0 0.8609 1.248
4150000000.0 1.535 0.1488
4153000000.0 1.093 -1.056
4156000000.0 -0.0991 -1.516
4159000000.0 -1.232 -0.8879
4162000000.0 -1.477 0.3839
4166000000.0 -0.6705 1.363
4169000000.0 0.5985 1.372
4172000000.0 1.471 0.3852
4175000000.0 1.251 -0.8407
4178000000.0 0.1587 -1.477
4181000000.0 -1.018 -1.108
4184000000.0 -1.474 0.1213
4188000000.0 -0.9461 1.231
4191000000.0 0.3694 1.479
4194000000.0 1.381 0.6751
4197000000.0 1.426 -0.6909
4200000000.0 0.4345 -1.522
4203000000.0 -0.9555 -1.305
4206000000.0 -1.612 -0.05893
4209000000.0 -1.07 1.268
4212000000.0 0.358 1.632
4216000000.0 1.513 0.7584
4219000000.0 1.503 -0.7455
4222000000.0 0.3222 -1.667
4225000000.0 -1.094 -1.301
4228000000.0 -1.681 0.1057
4231000000.0 -0.9279 1.399
4234000000.0 0.5605 1.586
4238000000.0 1.576 0.5119
4241000000.0 1.327 -0.9524
4244000000.0 0.04482 -1.6
4247000000.0 -1.17 -1.03
4250000000.0 -1.528 0.3357
4253000000.0 -0.7171 1.417
4256000000.0 0.6583 1.402
4259000000.0 1.532 0.3068
4262000000.0 1.166 -1.023
4266000000.0 -0.0597 -1.554
4269000000.0 -1.199 -0.8576
4272000000.0 -1.408 0.4454
4275000000.0 -0.496 1.351
4278000000.0 0.7296 1.266
4281000000.0 1.439 0.1511
4284000000.0 1.004 -1.006
4288000000.0 -0.1256 -1.382
4291000000.0 -1.181 -0.7612
4294000000.0 -1.266 0.4122
4297000000.0 -0.4777 1.246
4300000000.0 0.6415 1.159
4303000000.0 1.266 0.2268
4306000000.0 0.9968 -0.8384
4309000000.0 0.04032 -1.281
4312000000.0 -0.9763 -0.8313
4316000000.0 -1.271 0.1938
4319000000.0 -0.6701 1.113
4322000000.0 0.4078 1.223
4325000000.0 1.226 0.4927
4328000000.0 1.195 -0.5937
4331000000.0 0.2692 -1.334
4334000000.0 -0.8654 -1.105
4338000000.0 -1.41 -0.02593
4341000000.0 -0.9249 1.093
4344000000.0 0.2057 1.399
4347000000.0 1.224 0.7211
4350000000.0 1.342 -0.4553
4353000000.0 0.4888 -1.336
4356000000.0 -0.7594 -1.264
4359000000.0 -1.404 -0.2369
4362000000.0 -1.112 0.9493
4366000000.0 0.01939 1.441
4369000000.0 1.147 0.8948
4372000000.0 1.444 -0.2724
4375000000.0 0.6975 -1.294
4378000000.0 -0.5095 -1.396
4381000000.0 -1.44 -0.4703
4384000000.0 -1.31 0.8205
4388000000.0 -0.1878 1.547
4391000000.0 1.112 1.106
4394000000.0 1.56 -0.144
4397000000.0 0.8484 -1.336
4400000000.0 -0.4937 -1.524
4403000000.0 -1.499 -0.5626
4406000000.0 -1.341 0.8269
4409000000.0 -0.1709 1.574
4412000000.0 1.117 1.123
4416000000.0 1.554 -0.2007
4419000000.0 0.8151 -1.29
4422000000.0 -0.5414 -1.412
4425000000.0 -1.423 -0.4551
4428000000.0 -1.21 0.8433
4431000000.0 -0.09558 1.47
4434000000.0 1.052 0.9563
4438000000.0 1.401 -0.2378
4441000000.0 0.6257 -1.226
4444000000.0 -0.5791 -1.247
4447000000.0 -1.351 -0.324
4450000000.0 -1.071 0.8142
4453000000.0 0.01772 1.325
4456000000.0 1.06 0.7815
4459000000.0 1.203 -0.3545
4462000000.0 0.474 -1.196
4466000000.0 -0.6616 -1.092
4469000000.0 -1.218 -0.1611
4472000000.0 -0.841 0.8635
4475000000.0 0.1707 1.192
4478000000.0 1.038 0.5986
4481000000.0 1.112 -0.424
4484000000.0 0.3723 -1.097
4488000000.0 -0.6492 -0.9172
4491000000.0 -1.136 -0.08747
4494000000.0 -0.7565 0.8411
4497000000.0 0.2003 1.113
4500000000.0 0.9694 0.5602
4503000000.0 0.9995 -0.3668
4506000000.0 0.3183 -1.058
4509000000.0 -0.6226 -0.9239
4512000000.0 -1.097 -0.1181
4516000000.0 -0.801 0.7917
4519000000.0 0.1455 1.103
4522000000.0 0.9719 0.6373
4525000000.0 1.086 -0.3453
4528000000.0 0.4032 -1.077
4531000000.0 -0.5727 -0.9949
4534000000.0 -1.154 -0.1895
4538000000.0 -0.8805 0.753
4541000000.0 0.01988 1.182
4544000000.0 0.9134 0.7464
4547000000.0 1.167 -0.2346
4550000000.0 0.5522 -1.059
4553000000.0 -0.4774 -1.123
4556000000.0 -1.141 -0.3594
4559000000.0 -1.043 0.6725
4562000000.0 -0.184 1.224
4566000000.0 0.835 0.9339
4569000000.0 1.275 -0.04073
4572000000.0 0.8087 -1.011
4575000000.0 -0.2862 -1.255
4578000000.0 -1.159 -0.5858
4581000000.0 -1.202 0.5173
4584000000.0 -0.4069 1.29
4588000000.0 0.7333 1.1
4591000000.0 1.351 0.1516
4594000000.0 0.9852 -0.9509
4597000000.0 -0.1213 -1.371
4600000000.0 -1.138 -0.7887
4603000000.0 -1.383 0.368
4606000000.0 -0.5868 1.286
4609000000.0 0.6019 1.245
4612000000.0 1.34 0.2894
4616000000.0 1.1 -0.847
4619000000.0 0.01425 -1.375
4622000000.0 -1.07 -0.9062
4625000000.0 -1.362 0.2524
4628000000.0 -0.6709 1.218
4631000000.0 0.5084 1.27
4634000000.0 1.315 0.3936
4638000000.0 1.106 -0.7809
4641000000.0 0.08778 -1.363
4644000000.0 -0.9848 -0.9252
4647000000.0 -1.336 0.2106
4650000000.0 -0.6495 1.132
4653000000.0 0.4783 1.215
4656000000.0 1.246 0.3649
4659000000.0 1.04 -0.7604
4662000000.0 0.05201 -1.275
4666000000.0 -0.8944 -0.8377
4669000000.0 -1.216 0.2004
4672000000.0 -0.5519 1.045
4675000000.0 0.4413 1.079
4678000000.0 1.15 0.3104
4681000000.0 0.9315 -0.6812
4684000000.0 0.05752 -1.129
4688000000.0 -0.8448 -0.7369
4691000000.0 -1.133 0.2328
4694000000.0 -0.5004 0.9884
4697000000.0 0.4383 1.04
4700000000.0 1.066 0.3212
4703000000.0 0.8852 -0.6597
4706000000.0 0.003316 -1.082
4709000000.0 -0.8129 -0.6549
4712000000.0 -1.035 0.2083
4716000000.0 -0.4864 0.9503
4719000000.0 0.4409 0.9695
4722000000.0 1.036 0.2316
4725000000.0 0.8229 -0.637
4728000000.0 0.01035 -1.04
4731000000.0 -0.7661 -0.6676
4734000000.0 -1.023 0.1552
4738000000.0 -0.5328 0.9149
4741000000.0 0.3674 0.9684
4744000000.0 0.9785 0.316
4747000000.0 0.8786 -0.5847
4750000000.0 0.1648 -1.058
4753000000.0 -0.7169 -0.8118
4756000000.0 -1.091 0.03397
4759000000.0 -0.6682 0.8914
4762000000.0 0.2516 1.052
4766000000.0 1.001 0.5093
4769000000.0 1.049 -0.429
4772000000.0 0.3278 -1.101
4775000000.0 -0.6426 -0.9814
4778000000.0 -1.178 -0.1144
4781000000.0 -0.8738 0.8024
4784000000.0 0.0581 1.19
4788000000.0 0.9778 0.7057
4791000000.0 1.196 -0.2846
4794000000.0 0.5541 -1.08
4797000000.0 -0.4429 -1.172
4800000000.0 -1.184 -0.3666
4803000000.0 -1.059 0.649
4806000000.0 -0.181 1.254
4809000000.0 0.8457 0.9542
4812000000.0 1.296 -0.05751
4816000000.0 0.7883 -1.022
4819000000.0 -0.2811 -1.267
4822000000.0 -1.185 -0.6055
4825000000.0 -1.235 0.5045
4828000000.0 -0.3806 1.305
4831000000.0 0.7656 1.138
4834000000.0 1.373 0.1252
4838000000.0 0.9671 -0.9767
4841000000.0 -0.141 -1.399
4844000000.0 -1.193 -0.7717
4847000000.0 -1.314 0.4213
4850000000.0 -0.5277 1.304
4853000000.0 0.6837 1.211
4856000000.0 1.346 0.2561
4859000000.0 1.053 -0.8693
4862000000.0 -0.0258 -1.359
4866000000.0 -1.073 -0.8244
4869000000.0 -1.298 0.2854
4872000000.0 -0.5613 1.197
4875000000.0 0.5419 1.203
4878000000.0 1.234 0.33
4881000000.0 1.033 -0.7528
4884000000.0 0.02771 -1.265
4888000000.0 -0.9278 -0.8082
4891000000.0 -1.206 0.2314
4894000000.0 -0.5526 1.069
4897000000.0 0.4466 1.088
4900000000.0 1.11 0.293
4903000000.0 0.9199 -0.6231
4906000000.0 0.06069 -1.099
4909000000.0 -0.7858 -0.7392
4912000000.0 -1.039 0.1118
4916000000.0 -0.5664 0.8716
4919000000.0 0.3455 0.9544
4922000000.0 0.9395 0.3226
4925000000.0 0.8169 -0.4892
4928000000.0 0.1542 -0.9629
4931000000.0 -0.6348 -0.7208
4934000000.0 -0.9495 0.04515
4938000000.0 -0.5701 0.7635
4941000000.0 0.2282 0.9169
4944000000.0 0.8525 0.409
4947000000.0 0.8656 -0.3981
4950000000.0 0.2166 -0.9201
4953000000.0 -0.5524 -0.7656
4956000000.0 -0.9675 -0.0595
4959000000.0 -0.6192 0.6965
4962000000.0 0.1636 0.9453
4966000000.0 0.8674 0.4899
4969000000.0 0.9146 -0.3643
4972000000.0 0.3491 -0.9487
4975000000.0 -0.5369 -0.8616
4978000000.0 -0.9857 -0.1151
4981000000.0 -0.7559 0.7132
4984000000.0 0.07182 1.042
4988000000.0 0.8395 0.6045
4991000000.0 1.028 -0.2704
4994000000.0 0.4731 -0.9667
4997000000.0 -0.4389 -0.9886
5000000000.0 -1.06 -0.2998
5003000000.0 -0.9085 0.663
5006000000.0 -0.09606 1.15
5009000000.0 0.874 0.8176
5012000000.0 1.198 -0.1875
5016000000.0 0.6558 -1.03
5019000000.0 -0.3997 -1.174
5022000000.0 -1.15 -0.457
5025000000.0 -1.122 0.6278
5028000000.0 -0.2217 1.241
5031000000.0 0.8425 0.9805
5034000000.0 1.275 -0.01107
5038000000.0 0.8397 -1.006
5041000000.0 -0.2504 -1.26
5044000000.0 -1.147 -0.6108
5047000000.0 -1.23 0.4674
5050000000.0 -0.4482 1.227
5053000000.0 0.6811 1.121
5056000000.0 1.279 0.1974
5059000000.0 1.008 -0.8701
5062000000.0 0.001842 -1.302
5066000000.0 -1.044 -0.7879
5069000000.0 -1.24 0.2513
5072000000.0 -0.6282 1.161
5075000000.0 0.4847 1.186
5078000000.0 1.257 0.3687
5081000000.0 1.054 -0.696
5084000000.0 0.1315 -1.233
5088000000.0 -0.8824 -0.8935
5091000000.0 -1.211 0.08477
5094000000.0 -0.7042 0.9424
5097000000.0 0.2946 1.15
5100000000.0 1.03 0.4844
5103000000.0 1.076 -0.4758
5106000000.0 0.2956 -1.026
5109000000.0 -0.5977 -0.9212
5112000000.0 -1.056 -0.09895
5116000000.0 -0.7427 0.7286
5119000000.0 0.07366 1.079
5122000000.0 0.8627 0.5955
5125000000.0 1.027 -0.2516
5128000000.0 0.4253 -0.8993
5131000000.0 -0.4229 -0.9424
5134000000.0 -0.9809 -0.2577
5138000000.0 -0.8322 0.591
5141000000.0 -0.03369 0.9704
5144000000.0 0.7164 0.6801
5147000000.0 0.9492 -0.1455
5150000000.0 0.4928 -0.7802
5153000000.0 -0.3136 -0.8679
5156000000.0 -0.8828 -0.3351
5159000000.0 -0.7736 0.4585
5162000000.0 -0.1178 0.9033
5166000000.0 0.6337 0.6875
5169000000.0 0.8991 -0.07336
5172000000.0 0.5452 -0.7345
5175000000.0 -0.2299 -0.8726
5178000000.0 -0.794 -0.3592
5181000000.0 -0.8037 0.4009
5184000000.0 -0.1727 0.9344
5188000000.0 0.6032 0.7266
5191000000.0 0.9114 -0.02478
5194000000.0 0.5564 -0.7336
5197000000.0 -0.2546 -0.919
5200000000.0 -0.8751 -0.3627
5203000000.0 -0.8425 0.4338
5206000000.0 -0.195 0.9469
5209000000.0 0.6173 0.7296
5212000000.0 0.9617 0.004534
5216000000.0 0.5821 -0.781
5219000000.0 -0.2279 -0.9482
5222000000.0 -0.8797 -0.4484
5225000000.0 -0.8736 0.4206
5228000000.0 -0.2625 0.9963
5231000000.0 0.5908 0.8319
5234000000.0 1.017 0.07325
5238000000.0 0.717 -0.7398
5241000000.0 -0.1268 -1.033
5244000000.0 -0.903 -0.5766
5247000000.0 -0.9904 0.3472
5250000000.0 -0.4016 0.998
5253000000.0 0.5223 0.9443
5256000000.0 1.051 0.2057
5259000000.0 0.8277 -0.6845
5262000000.0 0.0252 -1.086
5266000000.0 -0.8162 -0.7165
5269000000.0 -1.077 0.149
5272000000.0 -0.5413 0.9167
5275000000.0 0.3528 1.039
5278000000.0 1.008 0.4001
5281000000.0 0.9582 -0.5205
5284000000.0 0.2066 -1.052
5288000000.0 -0.6713 -0.877
5291000000.0 -1.118 -0.05799
5294000000.0 -0.7481 0.8016
5297000000.0 0.08549 1.133
5300000000.0 0.9399 0.6065
5303000000.0 1.122 -0.309
5306000000.0 0.4744 -0.9985
5309000000.0 -0.4913 -1.034
5312000000.0 -1.103 -0.2804
5316000000.0 -0.9174 0.6882
5319000000.0 -0.08535 1.133
5322000000.0 0.8143 0.7846
5325000000.0 1.131 -0.08096
5328000000.0 0.6616 -0.9346
5331000000.0 -0.3111 -1.097
5334000000.0 -1.017 -0.4375
5338000000.0 -1.014 0.4962
5341000000.0 -0.2599 1.084
5344000000.0 0.687 0.9121
5347000000.0 1.11 0.07407
5350000000.0 0.7517 -0.8207
5353000000.0 -0.1765 -1.095
5356000000.0 -0.9835 -0.5296
5359000000.0 -1.022 0.3634
5362000000.0 -0.3431 1.014
5366000000.0 0.56 0.9022
5369000000.0 1.041 0.1477
5372000000.0 0.753 -0.7496
5375000000.0 -0.07827 -1.046
5378000000.0 -0.8852 -0.5591
5381000000.0 -0.9789 0.3131
5384000000.0 -0.3242 0.9518
5388000000.0 0.5135 0.8251
5391000000.0 0.9633 0.1018
5394000000.0 0.6758 -0.6888
5397000000.0 -0.1182 -0.9145
5400000000.0 -0.7718 -0.498
5403000000.0 -0.8453 0.3245
5406000000.0 -0.2933 0.8783
5409000000.0 0.5102 0.7328
5412000000.0 0.8807 0.06193
5416000000.0 0.5932 -0.6498
5419000000.0 -0.1313 -0.8513
5422000000.0 -0.7614 -0.4515
5425000000.0 -0.8233 0.3063
5428000000.0 -0.2668 0.8078
5431000000.0 0.5056 0.7256
5434000000.0 0.864 0.08958
5438000000.0 0.6031 -0.6467
5441000000.0 -0.1235 -0.9122
5444000000.0 -0.7696 -0.4636
5447000000.0 -0.8247 0.2642
5450000000.0 -0.2406 0.8374
5453000000.0 0.4737 0.7902
5456000000.0 0.8972 0.1069
5459000000.0 0.6269 -0.6464
5462000000.0 -0.09875 -0.9172
5466000000.0 -0.7434 -0.5492
5469000000.0 -0.8881 0.276
5472000000.0 -0.3974 0.838
5475000000.0 0.4076 0.8482
5478000000.0 0.8946 0.2464
5481000000.0 0.7476 -0.5746
5484000000.0 0.07135 -0.9469
5488000000.0 -0.7248 -0.6553
5491000000.0 -0.9404 0.1261
5494000000.0 -0.5745 0.8174
5497000000.0 0.2857 0.9491
5500000000.0 0.9418 0.3989
5503000000.0 0.8952 -0.4651
5506000000.0 0.197 -0.9804
5509000000.0 -0.6333 -0.8125
5512000000.0 -1.044 -0.03663
5516000000.0 -0.7073 0.7486
5519000000.0 0.1294 1.039
5522000000.0 0.9053 0.5835
5525000000.0 1.034 -0.3267
5528000000.0 0.445 -0.9517
5531000000.0 -0.4729 -0.9121
5534000000.0 -1.003 -0.2919
5538000000.0 -0.8909 0.6118
5541000000.0 -0.08017 1.059
5544000000.0 0.796 0.7292
5547000000.0 1.071 -0.07913
5550000000.0 0.6128 -0.8991
5553000000.0 -0.3105 -1.012
5556000000.0 -0.9736 -0.4511
5559000000.0 -0.9167 0.4376
5562000000.0 -0.2115 1.014
5566000000.0 0.6558 0.8187
5569000000.0 1.022 0.05533
5572000000.0 0.6886 -0.7657
5575000000.0 -0.1602 -0.9914
5578000000.0 -0.8668 -0.5173
5581000000.0 -0.958 0.3323
5584000000.0 -0.3411 0.9195
5588000000.0 0.5008 0.8256
5591000000.0 0.9532 0.1593
5594000000.0 0.7128 -0.5886
5597000000.0 -0.04997 -0.9477
5600000000.0 -0.7145 -0.5514
5603000000.0 -0.8994 0.2122
5606000000.0 -0.4216 0.8249
5609000000.0 0.3823 0.8162
5612000000.0 0.8881 0.236
5616000000.0 0.7213 -0.5227
5619000000.0 0.03404 -0.8726
5622000000.0 -0.6384 -0.5726
5625000000.0 -0.8572 0.1332
5628000000.0 -0.4247 0.747
5631000000.0 0.3291 0.7986
5634000000.0 0.8005 0.2464
5638000000.0 0.6944 -0.4594
5641000000.0 0.0966 -0.8209
5644000000.0 -0.6167 -0.5752
5647000000.0 -0.8611 0.09602
5650000000.0 -0.4101 0.7477
5653000000.0 0.2831 0.8162
5656000000.0 0.8058 0.282
5659000000.0 0.7096 -0.4728
5662000000.0 0.07747 -0.8506
5666000000.0 -0.6155 -0.6194
5669000000.0 -0.8696 0.09962
5672000000.0 -0.4707 0.7488
5675000000.0 0.3399 0.8502
5678000000.0 0.8648 0.2951
5681000000.0 0.7797 -0.4825
5684000000.0 0.09104 -0.9287
5688000000.0 -0.6543 -0.6413
5691000000.0 -0.9519 0.09691
5694000000.0 -0.5329 0.8226
5697000000.0 0.3092 0.9359
5700000000.0 0.9017 0.3547
5703000000.0 0.8739 -0.4907
5706000000.0 0.1673 -0.9941
5709000000.0 -0.6741 -0.7526
5712000000.0 -1.033 0.01892
5716000000.0 -0.6473 0.8366
5719000000.0 0.2189 1.044
5722000000.0 0.9416 0.4688
5725000000.0 0.9857 -0.4412
5728000000.0 0.2927 -1.027
5731000000.0 -0.6065 -0.8511
5734000000.0 -1.059 -0.08978
5738000000.0 -0.7632 0.7599
5741000000.0 0.1371 1.094
5744000000.0 0.9341 0.6186
5747000000.0 1.064 -0.2886
5750000000.0 0.4511 -1.026
5753000000.0 -0.5026 -0.9998
5756000000.0 -1.064 -0.2536
5759000000.0 -0.873 0.6826
5762000000.0 -0.06444 1.099
5766000000.0 0.806 0.7102
5769000000.0 1.095 -0.1192
5772000000.0 0.6078 -0.9234
5775000000.0 -0.3141 -1.033
5778000000.0 -0.9894 -0.4368
5781000000.0 -0.9386 0.5283
5784000000.0 -0.2601 1.076
5788000000.0 0.6813 0.8567
5791000000.0 1.08 0.03212
5794000000.0 0.7151 -0.8004
5797000000.0 -0.1692 -1.097
5800000000.0 -0.935 -0.5634
5803000000.0 -1.012 0.3424
5806000000.0 -0.3762 0.9638
5809000000.0 0.4851 0.9284
5812000000.0 1.062 0.1612
5816000000.0 0.7892 -0.6723
5819000000.0 -0.02248 -0.9943
5822000000.0 -0.8275 -0.6221
5825000000.0 -1.014 0.2322
5828000000.0 -0.4535 0.8925
5831000000.0 0.4182 0.9045
5834000000.0 0.9591 0.2648
5838000000.0 0.8028 -0.5822
5841000000.0 0.05757 -0.9689
5844000000.0 -0.7307 -0.6619
5847000000.0 -0.9383 0.1622
5850000000.0 -0.4781 0.8194
5853000000.0 0.3252 0.8708
5856000000.0 0.9113 0.322
5859000000.0 0.7665 -0.5106
5862000000.0 0.1169 -0.9359
5866000000.0 -0.662 -0.6449
5869000000.0 -0.9041 0.1075
5872000000.0 -0.4702 0.7449
5875000000.0 0.3017 0.8773
5878000000.0 0.8536 0.3257
5881000000.0 0.7321 -0.4843
5884000000.0 0.07944 -0.8208
5888000000.0 -0.6163 -0.6309
5891000000.0 -0.8777 0.05421
5894000000.0 -0.4786 0.7231
5897000000.0 0.221 0.8239
5900000000.0 0.8198 0.3438
5903000000.0 0.7461 -0.4422
5906000000.0 0.1826 -0.8302
5909000000.0 -0.58 -0.6446
5912000000.0 -0.8298 0.04114
5916000000.0 -0.5502 0.6645
5919000000.0 0.1917 0.8413
5922000000.0 0.7876 0.4042
5925000000.0 0.8212 -0.3765
5928000000.0 0.242 -0.864
5931000000.0 -0.5334 -0.7395
5934000000.0 -0.8886 -0.07945
5938000000.0 -0.6181 0.6172
5941000000.0 0.05879 0.8771
5944000000.0 0.7603 0.5155
5947000000.0 0.857 -0.2558
5950000000.0 0.3457 -0.807
5953000000.0 -0.4306 -0.8085
5956000000.0 -0.8841 -0.249
5959000000.0 -0.7356 0.5604
5962000000.0 -0.05919 0.9189
5966000000.0 0.6622 0.6352
5969000000.0 0.9556 -0.1241
5972000000.0 0.5211 -0.7961
5975000000.0 -0.2584 -0.9356
5978000000.0 -0.8745 -0.3635
5981000000.0 -0.899 0.4614
5984000000.0 -0.2198 0.9497
5988000000.0 0.6079 0.8083
5991000000.0 0.9857 0.02775
5994000000.0 0.677 -0.7411
5997000000.0 -0.125 -0.9957
6000000000.0 -0.8515 -0.5318
6003000000.0 -0.9336 0.3291
6006000000.0 -0.3687 0.9314
6009000000.0 0.5189 0.8557
6012000000.0 0.9643 0.1642
6016000000.0 0.7617 -0.6598
6019000000.0 -0.04124 -0.9772
6022000000.0 -0.7978 -0.591
6025000000.0 -0.9626 0.2292
6028000000.0 -0.4211 0.8788
6031000000.0 0.4001 0.9236
6034000000.0 0.95 0.2318
6038000000.0 0.8138 -0.5798
6041000000.0 0.06202 -0.9594
6044000000.0 -0.6996 -0.6462
6047000000.0 -0.9621 0.1315
6050000000.0 -0.4801 0.8238
6053000000.0 0.3375 0.8795
6056000000.0 0.8802 0.2788
6059000000.0 0.7719 -0.4992
6062000000.0 0.1123 -0.9074
6066000000.0 -0.6303 -0.6569
6069000000.0 -0.9075 0.07241
6072000000.0 -0.5104 0.7233
6075000000.0 0.2793 0.8578
6078000000.0 0.8142 0.307
6081000000.0 0.753 -0.425
6084000000.0 0.1586 -0.8833
6088000000.0 -0.5799 -0.6332
6091000000.0 -0.8911 0.02377
6094000000.0 -0.5385 0.6927
6097000000.0 0.2291 0.8355
6100000000.0 0.7609 0.334
6103000000.0 0.762 -0.3755
6106000000.0 0.1955 -0.8426
6109000000.0 -0.5136 -0.6916
6112000000.0 -0.8535 0.03054
6116000000.0 -0.5584 0.6513
6119000000.0 0.1622 0.8404
6122000000.0 0.7783 0.4051
6125000000.0 0.7839 -0.3404
6128000000.0 0.2049 -0.8372
6131000000.0 -0.5278 -0.6878
6134000000.0 -0.855 -0.06236
6138000000.0 -0.5694 0.6632
6141000000.0 0.1346 0.8621
6144000000.0 0.7584 0.4467
6147000000.0 0.846 -0.2825
6150000000.0 0.259 -0.8483
6153000000.0 -0.4691 -0.754
6156000000.0 -0.8663 -0.1035
6159000000.0 -0.6861 0.6026
6162000000.0 0.05866 0.9293
6166000000.0 0.7488 0.5368
6169000000.0 0.8862 -0.2489
6172000000.0 0.4045 -0.8495
6175000000.0 -0.4688 -0.8496
6178000000.0 -0.9343 -0.2055
6181000000.0 -0.7124 0.5824
6184000000.0 -5.986e-05 0.9531
6188000000.0 0.7094 0.6363
6191000000.0 0.9492 -0.1658
6194000000.0 0.4652 -0.8489
6197000000.0 -0.3626 -0.8672
6200000000.0 -0.9174 -0.2663
6203000000.0 -0.799 0.4985
6206000000.0 -0.08664 0.9549
6209000000.0 0.6615 0.6576
6212000000.0 0.923 -0.06663
6216000000.0 0.5577 -0.7924
6219000000.0 -0.2352 -0.9188
6222000000.0 -0.8375 -0.3664
6225000000.0 -0.7964 0.3905
6228000000.0 -0.1927 0.8855
6231000000.0 0.5388 0.6959
6234000000.0 0.898 0.0369
6238000000.0 0.5725 -0.6653
6241000000.0 -0.136 -0.8864
6244000000.0 -0.7436 -0.4518
6247000000.0 -0.8455 0.252
6250000000.0 -0.3452 0.7982
6253000000.0 0.3851 0.7377
6256000000.0 0.8308 0.1482
6259000000.0 0.6277 -0.5009
6262000000.0 0.04544 -0.8164
6266000000.0 -0.6098 -0.5679
