! Created with skrf 1.8.0 (http://scikit-rf.org).
# Hz S RI R 50.0 
!freq ReS11 ImS11
4000000000.0 -0.141 -1.488
4003000000.0 -1.269 -0.8192
4006000000.0 -1.408 0.5404
4009000000.0 -0.5132 1.433
4012000000.0 0.7651 1.286
4016000000.0 1.533 0.1807
4019000000.0 1.124 -1.077
4022000000.0 -0.1158 -1.588
4025000000.0 -1.334 -0.8759
4028000000.0 -1.505 0.4538
4031000000.0 -0.6315 1.557
4034000000.0 0.8434 1.37
4038000000.0 1.649 0.3119
4041000000.0 1.164 -1.118
4044000000.0 -0.1308 -1.643
4047000000.0 -1.342 -0.9424
4050000000.0 -1.544 0.4677
4053000000.0 -0.6476 1.438
4056000000.0 0.8023 1.419
4059000000.0 1.586 0.3539
4062000000.0 1.241 -1.032
4066000000.0 0.006696 -1.606
4069000000.0 -1.247 -1.058
4072000000.0 -1.646 0.2697
4075000000.0 -0.8032 1.385
4078000000.0 0.5709 1.528
4081000000.0 1.564 0.5533
4084000000.0 1.384 -0.8624
4088000000.0 0.2304 -1.64
4091000000.0 -1.106 -1.221
4094000000.0 -1.597 0.05464
4097000000.0 -0.9971 1.296
4100000000.0 0.3834 1.57
4103000000.0 1.455 0.6842
4106000000.0 1.434 -0.645
4109000000.0 0.417 -1.516
4112000000.0 -0.828 -1.298
4116000000.0 -1.512 -0.1824
4119000000.0 -1.136 0.9874
4122000000.0 -0.0228 1.543
4125000000.0 1.157 0.9593
4128000000.0 1.467 -0.1994
4131000000.0 0.7721 -1.242
4134000000.0 -0.4149 -1.403
4138000000.0 -1.363 -0.5801
4141000000.0 -1.352 0.6285
4144000000.0 -0.353 1.426
4147000000.0 0.858 1.244
4150000000.0 1.486 0.1423
4153000000.0 1.065 -1.045
4156000000.0 -0.08691 -1.501
4159000000.0 -1.227 -0.872
4162000000.0 -1.484 0.407
4166000000.0 -0.654 1.353
4169000000.0 0.6545 1.382
4172000000.0 1.43 0.4015
4175000000.0 1.252 -0.8108
4178000000.0 0.1417 -1.488
4181000000.0 -1.045 -1.098
4184000000.0 -1.511 0.1196
4188000000.0 -0.8977 1.252
4191000000.0 0.4024 1.501
4194000000.0 1.368 0.6878
4197000000.0 1.405 -0.6731
4200000000.0 0.4339 -1.5
4203000000.0 -0.9525 -1.279
4206000000.0 -1.617 -0.01755
4209000000.0 -1.019 1.283
4212000000.0 0.3641 1.648
4216000000.0 1.547 0.7323
4219000000.0 1.52 -0.7514
4222000000.0 0.3287 -1.666
4225000000.0 -1.12 -1.306
4228000000.0 -1.7 0.1478
4231000000.0 -0.89 1.416
4234000000.0 0.5278 1.544
4238000000.0 1.587 0.4963
4241000000.0 1.344 -0.9183
4244000000.0 0.03796 -1.575
4247000000.0 -1.21 -1.036
4250000000.0 -1.55 0.3122
4253000000.0 -0.697 1.422
4256000000.0 0.7116 1.368
4259000000.0 1.505 0.2955
4262000000.0 1.144 -0.9854
4266000000.0 -0.08678 -1.507
4269000000.0 -1.24 -0.8271
4272000000.0 -1.393 0.4162
4275000000.0 -0.5178 1.415
4278000000.0 0.7451 1.253
4281000000.0 1.418 0.1662
4284000000.0 0.9646 -0.9924
4288000000.0 -0.164 -1.384
4291000000.0 -1.149 -0.7305
4294000000.0 -1.321 0.429
4297000000.0 -0.4744 1.238
4300000000.0 0.6635 1.154
4303000000.0 1.32 0.2802
4306000000.0 0.9866 -0.8139
4309000000.0 -0.006098 -1.273
4312000000.0 -0.9546 -0.8859
4316000000.0 -1.264 0.1786
4319000000.0 -0.6715 1.106
4322000000.0 0.4505 1.232
4325000000.0 1.21 0.4796
4328000000.0 1.189 -0.6644
4331000000.0 0.2879 -1.306
4334000000.0 -0.8401 -1.092
4338000000.0 -1.391 -0.02392
4341000000.0 -0.9091 1.031
4344000000.0 0.2115 1.401
4347000000.0 1.23 0.7355
4350000000.0 1.337 -0.4938
4353000000.0 0.4925 -1.374
4356000000.0 -0.7298 -1.252
4359000000.0 -1.452 -0.2356
4362000000.0 -1.101 0.9691
4366000000.0 0.0259 1.471
4369000000.0 1.139 0.9841
4372000000.0 1.455 -0.2812
4375000000.0 0.697 -1.306
4378000000.0 -0.5543 -1.395
4381000000.0 -1.465 -0.4471
4384000000.0 -1.286 0.8341
4388000000.0 -0.1757 1.53
4391000000.0 1.082 1.092
4394000000.0 1.557 -0.1637
4397000000.0 0.8656 -1.337
4400000000.0 -0.5197 -1.503
4403000000.0 -1.503 -0.5218
4406000000.0 -1.328 0.8428
4409000000.0 -0.1671 1.577
4412000000.0 1.144 1.106
4416000000.0 1.549 -0.2103
4419000000.0 0.7842 -1.325
4422000000.0 -0.5493 -1.426
4425000000.0 -1.476 -0.4199
4428000000.0 -1.224 0.8706
4431000000.0 -0.07523 1.457
4434000000.0 1.077 0.9267
4438000000.0 1.398 -0.2756
4441000000.0 0.6266 -1.261
4444000000.0 -0.5921 -1.24
4447000000.0 -1.336 -0.2712
4450000000.0 -1.069 0.8374
4453000000.0 0.02675 1.306
4456000000.0 1.062 0.7708
4459000000.0 1.263 -0.3682
4462000000.0 0.4912 -1.183
4466000000.0 -0.6294 -1.074
4469000000.0 -1.24 -0.1405
4472000000.0 -0.8449 0.8736
4475000000.0 0.1537 1.203
4478000000.0 1.046 0.5877
4481000000.0 1.06 -0.4338
4484000000.0 0.304 -1.115
4488000000.0 -0.6581 -0.928
4491000000.0 -1.132 -0.04256
4494000000.0 -0.7289 0.8641
4497000000.0 0.2044 1.128
4500000000.0 0.9915 0.5649
4503000000.0 0.9918 -0.37
4506000000.0 0.3162 -1.027
4509000000.0 -0.6163 -0.906
4512000000.0 -1.083 -0.1219
4516000000.0 -0.7907 0.8189
4519000000.0 0.1369 1.148
4522000000.0 0.9546 0.6281
4525000000.0 1.088 -0.3441
4528000000.0 0.4247 -1.091
4531000000.0 -0.5922 -0.9903
4534000000.0 -1.154 -0.2053
4538000000.0 -0.8647 0.7657
4541000000.0 0.0428 1.16
4544000000.0 0.9424 0.7208
4547000000.0 1.175 -0.2758
4550000000.0 0.5524 -1.051
4553000000.0 -0.4619 -1.121
4556000000.0 -1.163 -0.3608
4559000000.0 -1.022 0.6571
4562000000.0 -0.1688 1.206
4566000000.0 0.841 0.9232
4569000000.0 1.253 -0.05719
4572000000.0 0.7847 -1.024
4575000000.0 -0.2759 -1.256
4578000000.0 -1.14 -0.6068
4581000000.0 -1.189 0.5255
4584000000.0 -0.4012 1.293
4588000000.0 0.7531 1.101
4591000000.0 1.336 0.1566
4594000000.0 0.9899 -0.9766
4597000000.0 -0.1338 -1.372
4600000000.0 -1.153 -0.7752
4603000000.0 -1.339 0.3859
4606000000.0 -0.545 1.259
4609000000.0 0.6552 1.229
4612000000.0 1.386 0.2825
4616000000.0 1.096 -0.8768
4619000000.0 -0.02067 -1.385
4622000000.0 -1.057 -0.9106
4625000000.0 -1.38 0.2609
4628000000.0 -0.6411 1.222
4631000000.0 0.5411 1.256
4634000000.0 1.328 0.364
4638000000.0 1.135 -0.7957
4641000000.0 0.109 -1.36
4644000000.0 -1.017 -0.9052
4647000000.0 -1.339 0.2426
4650000000.0 -0.6527 1.136
4653000000.0 0.5131 1.243
4656000000.0 1.252 0.3573
4659000000.0 1.05 -0.7512
4662000000.0 0.07034 -1.289
4666000000.0 -0.9353 -0.8011
4669000000.0 -1.228 0.2198
4672000000.0 -0.5511 1.048
4675000000.0 0.4645 1.055
4678000000.0 1.135 0.3316
4681000000.0 0.9158 -0.6924
4684000000.0 0.0453 -1.154
4688000000.0 -0.8804 -0.7439
4691000000.0 -1.091 0.2072
4694000000.0 -0.5142 0.9705
4697000000.0 0.4175 0.9876
4700000000.0 1.04 0.2618
4703000000.0 0.872 -0.6674
4706000000.0 0.02244 -1.081
4709000000.0 -0.8414 -0.6854
4712000000.0 -1.054 0.2345
4716000000.0 -0.4447 0.9774
4719000000.0 0.4627 0.9596
4722000000.0 1.055 0.2249
4725000000.0 0.831 -0.6529
4728000000.0 0.05537 -1.039
4731000000.0 -0.7754 -0.6583
4734000000.0 -1.009 0.1851
4738000000.0 -0.489 0.8874
4741000000.0 0.3826 0.9805
4744000000.0 0.9748 0.3236
4747000000.0 0.8987 -0.5832
4750000000.0 0.1507 -1.065
4753000000.0 -0.7239 -0.7966
4756000000.0 -1.086 0.06752
4759000000.0 -0.6702 0.8502
4762000000.0 0.2289 1.085
4766000000.0 1.027 0.5221
4769000000.0 1.019 -0.4554
4772000000.0 0.3427 -1.098
4775000000.0 -0.6669 -0.9636
4778000000.0 -1.157 -0.1214
4781000000.0 -0.8698 0.8158
4784000000.0 0.09227 1.193
4788000000.0 0.9712 0.7162
4791000000.0 1.182 -0.2886
4794000000.0 0.5449 -1.091
4797000000.0 -0.4865 -1.157
4800000000.0 -1.208 -0.3639
4803000000.0 -1.037 0.6792
4806000000.0 -0.1764 1.248
4809000000.0 0.8248 0.9261
4812000000.0 1.259 -0.0376
4816000000.0 0.7999 -1.019
4819000000.0 -0.2749 -1.317
4822000000.0 -1.196 -0.5922
4825000000.0 -1.238 0.5416
4828000000.0 -0.3886 1.324
4831000000.0 0.7687 1.148
4834000000.0 1.383 0.126
4838000000.0 0.9957 -0.9995
4841000000.0 -0.1531 -1.389
4844000000.0 -1.178 -0.7782
4847000000.0 -1.337 0.4071
4850000000.0 -0.5214 1.251
4853000000.0 0.6561 1.194
4856000000.0 1.359 0.2219
4859000000.0 1.026 -0.8798
4862000000.0 -0.01445 -1.362
4866000000.0 -1.081 -0.8397
4869000000.0 -1.307 0.2898
4872000000.0 -0.5811 1.176
4875000000.0 0.5519 1.167
4878000000.0 1.256 0.3076
4881000000.0 1.014 -0.7753
4884000000.0 0.0106 -1.282
4888000000.0 -0.9163 -0.8015
4891000000.0 -1.147 0.2366
4894000000.0 -0.5849 1.042
4897000000.0 0.4646 1.066
4900000000.0 1.118 0.3235
4903000000.0 0.9215 -0.6374
4906000000.0 0.07671 -1.13
4909000000.0 -0.7819 -0.7166
4912000000.0 -1.016 0.1327
4916000000.0 -0.5316 0.8547
4919000000.0 0.3426 0.9876
4922000000.0 0.9239 0.3205
4925000000.0 0.8361 -0.5211
4928000000.0 0.1354 -0.9648
4931000000.0 -0.6399 -0.6912
4934000000.0 -0.9381 0.03403
4938000000.0 -0.5468 0.7517
4941000000.0 0.2237 0.9088
4944000000.0 0.8302 0.3816
4947000000.0 0.857 -0.414
4950000000.0 0.2294 -0.9053
4953000000.0 -0.5502 -0.7508
4956000000.0 -0.9701 -0.02035
4959000000.0 -0.6364 0.744
4962000000.0 0.131 0.9576
4966000000.0 0.8786 0.4944
4969000000.0 0.9272 -0.3542
4972000000.0 0.2813 -0.9528
4975000000.0 -0.5633 -0.8563
4978000000.0 -0.9958 -0.1145
4981000000.0 -0.757 0.7086
4984000000.0 0.06855 1.035
4988000000.0 0.8587 0.6034
4991000000.0 1.045 -0.2667
4994000000.0 0.4691 -0.9937
4997000000.0 -0.4652 -0.9929
5000000000.0 -1.077 -0.2714
5003000000.0 -0.9139 0.6698
5006000000.0 -0.08601 1.177
5009000000.0 0.8686 0.8079
5012000000.0 1.202 -0.1739
5016000000.0 0.6299 -1.029
5019000000.0 -0.3827 -1.168
5022000000.0 -1.179 -0.4659
5025000000.0 -1.087 0.6217
5028000000.0 -0.2263 1.275
5031000000.0 0.8064 0.9531
5034000000.0 1.295 -0.02196
5038000000.0 0.802 -0.9954
5041000000.0 -0.2421 -1.241
5044000000.0 -1.14 -0.6326
5047000000.0 -1.194 0.4628
5050000000.0 -0.4054 1.227
5053000000.0 0.6226 1.067
5056000000.0 1.277 0.1851
5059000000.0 0.9645 -0.8606
5062000000.0 -0.05766 -1.304
5066000000.0 -1.004 -0.7708
5069000000.0 -1.257 0.2873
5072000000.0 -0.6088 1.155
5075000000.0 0.512 1.156
5078000000.0 1.232 0.3751
5081000000.0 1.06 -0.6813
5084000000.0 0.138 -1.207
5088000000.0 -0.8643 -0.9019
5091000000.0 -1.225 0.08987
5094000000.0 -0.6721 0.962
5097000000.0 0.2982 1.135
5100000000.0 1.062 0.4953
5103000000.0 1.039 -0.4811
5106000000.0 0.3057 -1.073
5109000000.0 -0.6059 -0.8946
5112000000.0 -1.068 -0.07863
5116000000.0 -0.7812 0.7745
5119000000.0 0.08404 1.075
5122000000.0 0.8269 0.6192
5125000000.0 0.9767 -0.2613
5128000000.0 0.4401 -0.9273
5131000000.0 -0.4458 -0.9058
5134000000.0 -0.973 -0.2668
5138000000.0 -0.7815 0.5863
5141000000.0 -0.05304 0.9598
5144000000.0 0.7152 0.663
5147000000.0 0.9185 -0.1252
5150000000.0 0.5183 -0.8199
5153000000.0 -0.3205 -0.8493
5156000000.0 -0.8583 -0.2882
5159000000.0 -0.7933 0.4686
5162000000.0 -0.1437 0.8793
5166000000.0 0.6489 0.6663
5169000000.0 0.9002 -0.02619
5172000000.0 0.5325 -0.7149
5175000000.0 -0.2637 -0.8608
5178000000.0 -0.835 -0.3713
5181000000.0 -0.8028 0.4362
5184000000.0 -0.158 0.9094
5188000000.0 0.5929 0.7079
5191000000.0 0.9509 -0.0207
5194000000.0 0.5687 -0.7407
5197000000.0 -0.246 -0.8872
5200000000.0 -0.8713 -0.3693
5203000000.0 -0.8439 0.4312
5206000000.0 -0.1635 0.933
5209000000.0 0.6373 0.7399
5212000000.0 0.9806 -0.03658
5216000000.0 0.5807 -0.7553
5219000000.0 -0.2427 -0.9532
5222000000.0 -0.9118 -0.4733
5225000000.0 -0.9112 0.4292
5228000000.0 -0.2345 0.9779
5231000000.0 0.5961 0.8215
5234000000.0 1.047 0.04032
5238000000.0 0.6962 -0.7388
5241000000.0 -0.1184 -1.055
5244000000.0 -0.8805 -0.5483
5247000000.0 -0.9974 0.3668
5250000000.0 -0.3663 0.9887
5253000000.0 0.5472 0.9313
5256000000.0 1.04 0.1855
5259000000.0 0.8369 -0.7036
5262000000.0 0.009202 -1.082
5266000000.0 -0.8416 -0.7108
5269000000.0 -1.064 0.1876
5272000000.0 -0.5288 0.957
5275000000.0 0.3756 1.04
5278000000.0 1.043 0.3815
5281000000.0 0.9702 -0.5219
5284000000.0 0.2372 -1.093
5288000000.0 -0.7146 -0.8232
5291000000.0 -1.087 -0.06118
5294000000.0 -0.7818 0.8237
5297000000.0 0.17 1.122
5300000000.0 0.9237 0.591
5303000000.0 1.071 -0.307
5306000000.0 0.4407 -1.023
5309000000.0 -0.5115 -1.017
5312000000.0 -1.102 -0.3002
5316000000.0 -0.9259 0.6689
5319000000.0 -0.06816 1.133
5322000000.0 0.7934 0.8051
5325000000.0 1.16 -0.1023
5328000000.0 0.6437 -0.9481
5331000000.0 -0.3368 -1.117
5334000000.0 -1.054 -0.4527
5338000000.0 -1.04 0.5099
5341000000.0 -0.2287 1.09
5344000000.0 0.6803 0.8715
5347000000.0 1.113 0.01075
5350000000.0 0.7241 -0.8439
5353000000.0 -0.1923 -1.106
5356000000.0 -0.9791 -0.5654
5359000000.0 -1.006 0.3911
5362000000.0 -0.3034 1.009
5366000000.0 0.5813 0.905
5369000000.0 1.067 0.1119
5372000000.0 0.7194 -0.7629
5375000000.0 -0.1475 -1.038
5378000000.0 -0.8648 -0.5515
5381000000.0 -0.9747 0.3363
5384000000.0 -0.3331 0.9599
5388000000.0 0.5537 0.8396
5391000000.0 0.9879 0.1118
5394000000.0 0.6469 -0.697
5397000000.0 -0.1383 -0.9412
5400000000.0 -0.7991 -0.4797
5403000000.0 -0.8288 0.3239
5406000000.0 -0.2524 0.8394
5409000000.0 0.4945 0.7286
5412000000.0 0.8719 0.04814
5416000000.0 0.6004 -0.6598
5419000000.0 -0.1337 -0.8322
5422000000.0 -0.713 -0.4205
5425000000.0 -0.7955 0.2985
5428000000.0 -0.2547 0.8229
5431000000.0 0.4904 0.7176
5434000000.0 0.8665 0.05252
5438000000.0 0.582 -0.6251
5441000000.0 -0.1538 -0.8556
5444000000.0 -0.8015 -0.4306
5447000000.0 -0.8026 0.333
5450000000.0 -0.2527 0.8428
5453000000.0 0.5055 0.7154
5456000000.0 0.891 0.07548
5459000000.0 0.6073 -0.6164
5462000000.0 -0.05556 -0.8852
5466000000.0 -0.7434 -0.5242
5469000000.0 -0.8859 0.2427
5472000000.0 -0.3648 0.8123
5475000000.0 0.4135 0.7932
5478000000.0 0.9006 0.2296
5481000000.0 0.7678 -0.5747
5484000000.0 0.07764 -0.9698
5488000000.0 -0.7128 -0.6403
5491000000.0 -0.9566 0.1071
5494000000.0 -0.5302 0.8323
5497000000.0 0.3107 0.9396
5500000000.0 0.948 0.3743
5503000000.0 0.8638 -0.4395
5506000000.0 0.2082 -0.988
5509000000.0 -0.6063 -0.8098
5512000000.0 -1.043 -0.0316
5516000000.0 -0.7269 0.7777
5519000000.0 0.1201 1.018
5522000000.0 0.8794 0.589
5525000000.0 1.023 -0.3281
5528000000.0 0.4562 -0.9673
5531000000.0 -0.4925 -0.9451
5534000000.0 -1.028 -0.2439
5538000000.0 -0.8361 0.5999
5541000000.0 -0.08214 1.06
5544000000.0 0.7717 0.7479
5547000000.0 1.044 -0.1475
5550000000.0 0.5862 -0.8774
5553000000.0 -0.2708 -1.011
5556000000.0 -0.9376 -0.4159
5559000000.0 -0.9287 0.51
5562000000.0 -0.2415 1.02
5566000000.0 0.6916 0.8337
5569000000.0 1.032 -0.005805
5572000000.0 0.681 -0.7519
5575000000.0 -0.1153 -1.001
5578000000.0 -0.8645 -0.5218
5581000000.0 -0.9289 0.3323
5584000000.0 -0.3379 0.9189
5588000000.0 0.5148 0.8735
5591000000.0 0.9412 0.1423
5594000000.0 0.7312 -0.6189
5597000000.0 -0.03385 -0.9489
5600000000.0 -0.7302 -0.5404
5603000000.0 -0.8786 0.2001
5606000000.0 -0.3702 0.8196
5609000000.0 0.3819 0.8169
5612000000.0 0.8648 0.216
5616000000.0 0.6796 -0.5269
5619000000.0 0.0115 -0.8734
5622000000.0 -0.6521 -0.5711
5625000000.0 -0.8378 0.1355
5628000000.0 -0.4082 0.709
5631000000.0 0.3431 0.7654
5634000000.0 0.8161 0.2321
5638000000.0 0.7047 -0.4615
5641000000.0 0.03971 -0.849
5644000000.0 -0.6461 -0.5695
5647000000.0 -0.8366 0.129
5650000000.0 -0.4221 0.7343
5653000000.0 0.2931 0.7566
5656000000.0 0.8147 0.2635
5659000000.0 0.7015 -0.4904
5662000000.0 0.05899 -0.8441
5666000000.0 -0.6294 -0.5953
5669000000.0 -0.8563 0.1113
5672000000.0 -0.4494 0.7564
5675000000.0 0.3082 0.8295
5678000000.0 0.8738 0.2863
5681000000.0 0.7602 -0.4999
5684000000.0 0.09679 -0.916
5688000000.0 -0.6699 -0.6485
5691000000.0 -0.9612 0.1363
5694000000.0 -0.4706 0.8229
5697000000.0 0.3139 0.9158
5700000000.0 0.9358 0.347
5703000000.0 0.8498 -0.4959
5706000000.0 0.1455 -0.991
5709000000.0 -0.676 -0.7623
5712000000.0 -1.001 0.0476
5716000000.0 -0.5775 0.8263
5719000000.0 0.2817 0.9868
5722000000.0 0.9303 0.4604
5725000000.0 0.9661 -0.4499
5728000000.0 0.2836 -1.027
5731000000.0 -0.6266 -0.8766
5734000000.0 -1.053 -0.07421
5738000000.0 -0.7535 0.768
5741000000.0 0.09249 1.105
5744000000.0 0.8891 0.6196
5747000000.0 1.081 -0.3192
5750000000.0 0.4267 -1.007
5753000000.0 -0.5489 -0.9633
5756000000.0 -1.07 -0.2603
5759000000.0 -0.8979 0.6602
5762000000.0 -0.05789 1.097
5766000000.0 0.8358 0.7415
5769000000.0 1.093 -0.1207
5772000000.0 0.5836 -0.9408
5775000000.0 -0.3695 -1.071
5778000000.0 -1.009 -0.3954
5781000000.0 -0.9753 0.5076
5784000000.0 -0.2067 1.058
5788000000.0 0.7086 0.8421
5791000000.0 1.071 0.03901
5794000000.0 0.7433 -0.8025
5797000000.0 -0.1601 -1.079
5800000000.0 -0.9228 -0.5571
5803000000.0 -1.035 0.3077
5806000000.0 -0.3333 0.9821
5809000000.0 0.5355 0.9233
5812000000.0 1.015 0.1584
5816000000.0 0.7795 -0.7049
5819000000.0 -0.04835 -1.059
5822000000.0 -0.8213 -0.6239
5825000000.0 -0.9812 0.2466
5828000000.0 -0.4428 0.8842
5831000000.0 0.4565 0.9164
5834000000.0 0.9817 0.2102
5838000000.0 0.8007 -0.5943
5841000000.0 0.04381 -0.9732
5844000000.0 -0.728 -0.6452
5847000000.0 -0.9598 0.1653
5850000000.0 -0.4737 0.7987
5853000000.0 0.3386 0.8994
5856000000.0 0.8818 0.2759
5859000000.0 0.7527 -0.5333
5862000000.0 0.08001 -0.9355
5866000000.0 -0.6882 -0.6511
5869000000.0 -0.8801 0.1466
5872000000.0 -0.4801 0.7683
5875000000.0 0.3265 0.8193
5878000000.0 0.8291 0.2742
5881000000.0 0.7404 -0.4577
5884000000.0 0.1149 -0.8622
5888000000.0 -0.6058 -0.6176
5891000000.0 -0.8459 0.09025
5894000000.0 -0.4577 0.7286
5897000000.0 0.2619 0.8432
5900000000.0 0.8109 0.3213
5903000000.0 0.7594 -0.4185
5906000000.0 0.1732 -0.8348
5909000000.0 -0.5969 -0.6902
5912000000.0 -0.8722 0.03322
5916000000.0 -0.5139 0.6811
5919000000.0 0.1862 0.8575
5922000000.0 0.7825 0.3614
5925000000.0 0.8213 -0.3281
5928000000.0 0.2364 -0.8411
5931000000.0 -0.4971 -0.7186
5934000000.0 -0.8613 -0.07111
5938000000.0 -0.646 0.6171
5941000000.0 0.08587 0.8792
5944000000.0 0.7565 0.5285
5947000000.0 0.8641 -0.2467
5950000000.0 0.3718 -0.8596
5953000000.0 -0.4124 -0.8463
5956000000.0 -0.8777 -0.2007
5959000000.0 -0.7015 0.5495
5962000000.0 -0.07397 0.9079
5966000000.0 0.699 0.6481
5969000000.0 0.9509 -0.1625
5972000000.0 0.5061 -0.808
5975000000.0 -0.2796 -0.9333
5978000000.0 -0.9361 -0.3741
5981000000.0 -0.873 0.4537
5984000000.0 -0.2233 0.9621
5988000000.0 0.5976 0.7845
5991000000.0 0.9928 0.03131
5994000000.0 0.6669 -0.7466
5997000000.0 -0.1797 -1.001
6000000000.0 -0.8599 -0.5208
6003000000.0 -0.9301 0.3196
6006000000.0 -0.3329 0.9463
6009000000.0 0.5073 0.8722
6012000000.0 0.9735 0.1443
6016000000.0 0.7101 -0.6796
6019000000.0 -0.05382 -0.9918
6022000000.0 -0.8097 -0.6068
6025000000.0 -0.9433 0.2438
6028000000.0 -0.3955 0.8891
6031000000.0 0.4185 0.8996
6034000000.0 0.9542 0.2283
6038000000.0 0.7606 -0.5763
6041000000.0 0.04867 -0.9425
6044000000.0 -0.7477 -0.6522
6047000000.0 -0.9517 0.1589
6050000000.0 -0.4863 0.8078
6053000000.0 0.3327 0.8863
6056000000.0 0.8783 0.3105
6059000000.0 0.7681 -0.5157
6062000000.0 0.0836 -0.9081
6066000000.0 -0.6656 -0.6466
6069000000.0 -0.9012 0.1051
6072000000.0 -0.4772 0.7789
6075000000.0 0.2765 0.8484
6078000000.0 0.8217 0.3311
6081000000.0 0.7308 -0.4592
6084000000.0 0.1378 -0.867
6088000000.0 -0.5855 -0.6166
6091000000.0 -0.8737 0.05334
6094000000.0 -0.5082 0.6866
6097000000.0 0.2063 0.8083
6100000000.0 0.809 0.3128
6103000000.0 0.7831 -0.4011
6106000000.0 0.1822 -0.8427
6109000000.0 -0.5609 -0.6432
6112000000.0 -0.8769 -0.001476
6116000000.0 -0.5211 0.6687
6119000000.0 0.2097 0.834
6122000000.0 0.7888 0.3688
6125000000.0 0.7728 -0.373
6128000000.0 0.2213 -0.8611
6131000000.0 -0.5122 -0.6832
6134000000.0 -0.8706 -0.01277
6138000000.0 -0.5831 0.6634
6141000000.0 0.1663 0.8923
6144000000.0 0.7977 0.4424
6147000000.0 0.7982 -0.3459
6150000000.0 0.272 -0.8712
6153000000.0 -0.4972 -0.7394
6156000000.0 -0.9065 -0.09324
6159000000.0 -0.6512 0.6282
6162000000.0 0.08444 0.9313
6166000000.0 0.8021 0.5191
6169000000.0 0.8994 -0.2526
6172000000.0 0.3365 -0.8657
6175000000.0 -0.4508 -0.8204
6178000000.0 -0.9442 -0.184
6181000000.0 -0.721 0.6125
6184000000.0 -0.001835 0.9446
6188000000.0 0.724 0.5854
6191000000.0 0.9499 -0.1952
6194000000.0 0.4438 -0.8
6197000000.0 -0.3508 -0.8683
6200000000.0 -0.8841 -0.2663
6203000000.0 -0.7569 0.5295
6206000000.0 -0.06357 0.9413
6209000000.0 0.6448 0.692
6212000000.0 0.9436 -0.09232
6216000000.0 0.5048 -0.7425
6219000000.0 -0.2553 -0.8799
6222000000.0 -0.8766 -0.3832
6225000000.0 -0.8464 0.4298
6228000000.0 -0.21 0.9256
6231000000.0 0.5377 0.7378
6234000000.0 0.8976 0.04738
6238000000.0 0.6202 -0.6903
6241000000.0 -0.1209 -0.8215
6244000000.0 -0.7777 -0.4433
6247000000.0 -0.8173 0.2782
6250000000.0 -0.2934 0.8154
6253000000.0 0.4378 0.751
6256000000.0 0.8265 0.1225
6259000000.0 0.6089 -0.5322
6262000000.0 -0.0001289 -0.7978
