! Created with skrf 1.8.0 (http://scikit-rf.org).
# Hz S RI R 50.0 
!freq ReS11 ImS11
4000000000.0 0.4066 -1.449
4003000000.0 -0.8564 -1.226
4006000000.0 -1.463 -0.1231
4009000000.0 -1.01 1.07
4012000000.0 0.1891 1.489
4016000000.0 1.298 0.7374
4019000000.0 1.431 -0.4713
4022000000.0 0.4838 -1.481
4025000000.0 -0.8484 -1.245
4028000000.0 -1.515 -0.1453
4031000000.0 -1.058 1.076
4034000000.0 0.2198 1.569
4038000000.0 1.32 0.8057
4041000000.0 1.458 -0.5192
4044000000.0 0.5179 -1.498
4047000000.0 -0.8997 -1.31
4050000000.0 -1.567 -0.1501
4053000000.0 -1.065 1.114
4056000000.0 0.197 1.569
4059000000.0 1.303 0.8658
4062000000.0 1.507 -0.4885
4066000000.0 0.6189 -1.45
4069000000.0 -0.766 -1.429
4072000000.0 -1.554 -0.2767
4075000000.0 -1.244 1.058
4078000000.0 0.009729 1.64
4081000000.0 1.283 1.066
4084000000.0 1.639 -0.327
4088000000.0 0.7956 -1.505
4091000000.0 -0.6363 -1.534
4094000000.0 -1.586 -0.4921
4097000000.0 -1.356 0.8965
4100000000.0 -0.1374 1.633
4103000000.0 1.159 1.148
4106000000.0 1.604 -0.1834
4109000000.0 0.8852 -1.307
4112000000.0 -0.4191 -1.47
4116000000.0 -1.425 -0.6726
4119000000.0 -1.381 0.6188
4122000000.0 -0.4281 1.465
4125000000.0 0.8165 1.287
4128000000.0 1.475 0.2174
4131000000.0 1.173 -0.9826
4134000000.0 0.007077 -1.531
4138000000.0 -1.159 -1.002
4141000000.0 -1.494 0.2491
4144000000.0 -0.806 1.304
4147000000.0 0.4259 1.469
4150000000.0 1.448 0.6085
4153000000.0 1.371 -0.6974
4156000000.0 0.3841 -1.485
4159000000.0 -0.8905 -1.207
4162000000.0 -1.527 -0.1232
4166000000.0 -1.098 1.093
4169000000.0 0.1579 1.517
4172000000.0 1.245 0.8925
4175000000.0 1.438 -0.3552
4178000000.0 0.6786 -1.332
4181000000.0 -0.618 -1.391
4184000000.0 -1.436 -0.438
4188000000.0 -1.27 0.8275
4191000000.0 -0.2038 1.519
4194000000.0 1.007 1.182
4197000000.0 1.553 -0.04141
4200000000.0 0.9807 -1.227
4203000000.0 -0.3352 -1.579
4206000000.0 -1.423 -0.7211
4209000000.0 -1.531 0.6686
4212000000.0 -0.4455 1.592
4216000000.0 0.9866 1.34
4219000000.0 1.692 0.1134
4222000000.0 1.129 -1.317
4225000000.0 -0.2945 -1.704
4228000000.0 -1.505 -0.8139
4231000000.0 -1.562 0.656
4234000000.0 -0.4001 1.72
4238000000.0 1.062 1.366
4241000000.0 1.744 -0.008949
4244000000.0 1.04 -1.323
4247000000.0 -0.4188 -1.605
4250000000.0 -1.518 -0.6587
4253000000.0 -1.442 0.7974
4256000000.0 -0.2762 1.655
4259000000.0 1.11 1.212
4262000000.0 1.622 -0.1384
4266000000.0 0.8468 -1.392
4269000000.0 -0.5979 -1.511
4272000000.0 -1.55 -0.4598
4275000000.0 -1.292 0.9282
4278000000.0 -0.09187 1.591
4281000000.0 1.172 0.9642
4284000000.0 1.51 -0.2321
4288000000.0 0.6481 -1.317
4291000000.0 -0.6228 -1.266
4294000000.0 -1.362 -0.3431
4297000000.0 -1.095 0.8255
4300000000.0 -0.03758 1.413
4303000000.0 1.057 0.8416
4306000000.0 1.333 -0.238
4309000000.0 0.6391 -1.108
4312000000.0 -0.4687 -1.247
4316000000.0 -1.245 -0.4295
4319000000.0 -1.103 0.7006
4322000000.0 -0.179 1.293
4325000000.0 0.8432 0.9984
4328000000.0 1.347 -0.03318
4331000000.0 0.8509 -1.028
4334000000.0 -0.2486 -1.3
4338000000.0 -1.185 -0.6207
4341000000.0 -1.268 0.5228
4344000000.0 -0.4154 1.323
4347000000.0 0.728 1.173
4350000000.0 1.367 0.1832
4353000000.0 1.031 -0.911
4356000000.0 -0.08075 -1.381
4359000000.0 -1.103 -0.8624
4362000000.0 -1.384 0.3344
4366000000.0 -0.6406 1.238
4369000000.0 0.5518 1.288
4372000000.0 1.353 0.4379
4375000000.0 1.226 -0.7862
4378000000.0 0.1933 -1.423
4381000000.0 -0.9655 -1.054
4384000000.0 -1.474 0.06302
4388000000.0 -0.9273 1.183
4391000000.0 0.3269 1.454
4394000000.0 1.347 0.6856
4397000000.0 1.417 -0.6184
4400000000.0 0.4407 -1.519
4403000000.0 -0.8952 -1.327
4406000000.0 -1.573 -0.1409
4409000000.0 -1.092 1.13
4412000000.0 0.2117 1.585
4416000000.0 1.387 0.8033
4419000000.0 1.468 -0.5357
4422000000.0 0.5153 -1.492
4425000000.0 -0.8459 -1.338
4428000000.0 -1.572 -0.1777
4431000000.0 -1.127 1.07
4434000000.0 0.1767 1.538
4438000000.0 1.311 0.8351
4441000000.0 1.44 -0.4943
4444000000.0 0.5247 -1.442
4447000000.0 -0.7744 -1.296
4450000000.0 -1.499 -0.137
4453000000.0 -1.042 1.074
4456000000.0 0.1848 1.453
4459000000.0 1.253 0.7295
4462000000.0 1.344 -0.5314
4466000000.0 0.3922 -1.348
4469000000.0 -0.8197 -1.084
4472000000.0 -1.367 -0.01313
4475000000.0 -0.8705 1.065
4478000000.0 0.2982 1.249
4481000000.0 1.154 0.549
4484000000.0 1.141 -0.5585
4488000000.0 0.2266 -1.208
4491000000.0 -0.8077 -0.8931
4494000000.0 -1.18 0.0703
4497000000.0 -0.6467 0.9462
4500000000.0 0.339 1.098
4503000000.0 1.045 0.4192
4506000000.0 0.9415 -0.5873
4509000000.0 0.1259 -1.064
4512000000.0 -0.7397 -0.7837
4516000000.0 -1.08 0.1052
4519000000.0 -0.5949 0.9173
4522000000.0 0.3206 1.033
4525000000.0 0.9885 0.3985
4528000000.0 0.9183 -0.5517
4531000000.0 0.1606 -1.073
4534000000.0 -0.7497 -0.7737
4538000000.0 -1.099 0.08916
4541000000.0 -0.6141 0.9024
4544000000.0 0.29 1.032
4547000000.0 1.02 0.4459
4550000000.0 0.9606 -0.518
4553000000.0 0.2176 -1.111
4556000000.0 -0.7253 -0.8736
4559000000.0 -1.13 0.005367
4562000000.0 -0.7382 0.8904
4566000000.0 0.1654 1.142
4569000000.0 0.9816 0.5816
4572000000.0 1.099 -0.3856
4575000000.0 0.4219 -1.136
4578000000.0 -0.6162 -1.05
4581000000.0 -1.225 -0.1837
4584000000.0 -0.9437 0.8004
4588000000.0 0.02461 1.215
4591000000.0 1.013 0.7718
4594000000.0 1.24 -0.2563
4597000000.0 0.5927 -1.149
4600000000.0 -0.5075 -1.224
4603000000.0 -1.252 -0.3949
4606000000.0 -1.111 0.7524
4609000000.0 -0.1403 1.314
4612000000.0 0.9552 0.972
4616000000.0 1.368 -0.1026
4619000000.0 0.748 -1.14
4622000000.0 -0.3775 -1.302
4625000000.0 -1.224 -0.5391
4628000000.0 -1.206 0.6262
4631000000.0 -0.2946 1.358
4634000000.0 0.8864 1.105
4638000000.0 1.376 0.03361
4641000000.0 0.8691 -1.052
4644000000.0 -0.2597 -1.356
4647000000.0 -1.227 -0.6636
4650000000.0 -1.286 0.5217
4653000000.0 -0.3447 1.348
4656000000.0 0.8153 1.097
4659000000.0 1.356 0.04812
4662000000.0 0.8967 -0.9838
4666000000.0 -0.2531 -1.313
4669000000.0 -1.195 -0.5962
4672000000.0 -1.177 0.5136
4675000000.0 -0.3438 1.23
4678000000.0 0.7271 1.029
4681000000.0 1.254 0.05092
4684000000.0 0.7981 -0.9227
4688000000.0 -0.2001 -1.185
4691000000.0 -1.051 -0.5447
4694000000.0 -1.056 0.4543
4697000000.0 -0.2715 1.118
4700000000.0 0.7259 0.8848
4703000000.0 1.18 -0.01851
4706000000.0 0.7056 -0.8841
4709000000.0 -0.2658 -1.08
4712000000.0 -1.013 -0.4538
4716000000.0 -0.9908 0.5097
4719000000.0 -0.17 1.06
4722000000.0 0.7132 0.7998
4725000000.0 1.045 -0.04059
4728000000.0 0.5992 -0.8593
4731000000.0 -0.2688 -0.996
4734000000.0 -0.924 -0.3483
4738000000.0 -0.8904 0.488
4741000000.0 -0.1739 0.9801
4744000000.0 0.6393 0.7428
4747000000.0 0.9997 -0.04015
4750000000.0 0.6092 -0.7767
4753000000.0 -0.2532 -1.003
4756000000.0 -0.9261 -0.4322
4759000000.0 -0.9145 0.4543
4762000000.0 -0.2337 0.9971
4766000000.0 0.6316 0.8424
4769000000.0 1.057 0.04343
4772000000.0 0.709 -0.7958
4775000000.0 -0.1452 -1.03
4778000000.0 -0.9125 -0.5531
4781000000.0 -1.026 0.3534
4784000000.0 -0.392 1.048
4788000000.0 0.5298 0.9539
4791000000.0 1.094 0.1802
4794000000.0 0.8607 -0.7137
4797000000.0 0.006376 -1.131
4800000000.0 -0.8962 -0.7459
4803000000.0 -1.148 0.1841
4806000000.0 -0.5895 0.9739
4809000000.0 0.3842 1.11
4812000000.0 1.12 0.4614
4816000000.0 1.049 -0.5998
4819000000.0 0.2346 -1.213
4822000000.0 -0.8084 -0.9656
4825000000.0 -1.258 0.002466
4828000000.0 -0.8445 0.9812
4831000000.0 0.229 1.274
4834000000.0 1.159 0.6489
4838000000.0 1.225 -0.471
4841000000.0 0.4311 -1.255
4844000000.0 -0.7015 -1.128
4847000000.0 -1.345 -0.1351
4850000000.0 -0.9791 0.9415
4853000000.0 0.1163 1.371
4856000000.0 1.114 0.78
4859000000.0 1.3 -0.3775
4862000000.0 0.5713 -1.259
4866000000.0 -0.6349 -1.201
4869000000.0 -1.342 -0.3148
4872000000.0 -1.075 0.881
4875000000.0 0.0223 1.374
4878000000.0 1.062 0.8578
4881000000.0 1.316 -0.2806
4884000000.0 0.6158 -1.172
4888000000.0 -0.5543 -1.233
4891000000.0 -1.28 -0.307
4894000000.0 -1.044 0.7801
4897000000.0 -0.05382 1.275
4900000000.0 0.9247 0.8355
4903000000.0 1.191 -0.1856
4906000000.0 0.5778 -1.035
4909000000.0 -0.4526 -1.022
4912000000.0 -1.091 -0.3349
4916000000.0 -0.8991 0.6282
4919000000.0 -0.07693 1.061
4922000000.0 0.7715 0.7276
4925000000.0 1.007 -0.1024
4928000000.0 0.5684 -0.8577
4931000000.0 -0.3107 -0.9637
4934000000.0 -0.9374 -0.3352
4938000000.0 -0.8395 0.4901
4941000000.0 -0.1519 0.9413
4944000000.0 0.6158 0.7324
4947000000.0 0.9483 -0.0617
4950000000.0 0.5768 -0.7518
4953000000.0 -0.2429 -0.934
4956000000.0 -0.8779 -0.4212
4959000000.0 -0.8561 0.4254
4962000000.0 -0.2153 0.9266
4966000000.0 0.5697 0.7641
4969000000.0 0.9888 0.01167
4972000000.0 0.6134 -0.7588
4975000000.0 -0.1814 -0.925
4978000000.0 -0.8488 -0.4685
4981000000.0 -0.8871 0.3606
4984000000.0 -0.2923 0.9273
4988000000.0 0.5556 0.83
4991000000.0 0.9847 0.0824
4994000000.0 0.7407 -0.716
4997000000.0 -0.09366 -1.045
5000000000.0 -0.8679 -0.5742
5003000000.0 -1.028 0.261
5006000000.0 -0.4279 0.9974
5009000000.0 0.5082 0.9849
5012000000.0 1.081 0.2582
5016000000.0 0.8895 -0.7139
5019000000.0 0.01334 -1.179
5022000000.0 -0.894 -0.7924
5025000000.0 -1.179 0.1835
5028000000.0 -0.5988 1.069
5031000000.0 0.4537 1.122
5034000000.0 1.167 0.3702
5038000000.0 1.064 -0.6471
5041000000.0 0.1619 -1.241
5044000000.0 -0.8212 -0.94
5047000000.0 -1.252 0.07153
5050000000.0 -0.7609 0.9845
5053000000.0 0.2673 1.249
5056000000.0 1.172 0.5866
5059000000.0 1.187 -0.5146
5062000000.0 0.3471 -1.242
5066000000.0 -0.7012 -1.078
5069000000.0 -1.305 -0.1201
5072000000.0 -0.9638 0.9212
5075000000.0 0.09285 1.312
5078000000.0 1.091 0.7512
5081000000.0 1.242 -0.342
5084000000.0 0.5253 -1.196
5088000000.0 -0.5661 -1.162
5091000000.0 -1.2 -0.2854
5094000000.0 -0.9632 0.7074
5097000000.0 -0.05372 1.199
5100000000.0 0.8719 0.8514
5103000000.0 1.187 -0.1148
5106000000.0 0.6295 -0.936
5109000000.0 -0.3223 -1.109
5112000000.0 -1.048 -0.4557
5116000000.0 -1.039 0.4547
5119000000.0 -0.2467 1.087
5122000000.0 0.6469 0.8916
5125000000.0 1.073 0.09627
5128000000.0 0.7575 -0.7977
5131000000.0 -0.1287 -1.042
5134000000.0 -0.8585 -0.5407
5138000000.0 -0.9901 0.3084
5141000000.0 -0.3644 0.9404
5144000000.0 0.4882 0.9039
5147000000.0 0.9522 0.1892
5150000000.0 0.7844 -0.6148
5153000000.0 0.008701 -0.9661
5156000000.0 -0.7227 -0.6035
5159000000.0 -0.9307 0.1666
5162000000.0 -0.4449 0.8262
5166000000.0 0.338 0.8742
5169000000.0 0.8812 0.2688
5172000000.0 0.7622 -0.4877
5175000000.0 0.09813 -0.9264
5178000000.0 -0.6586 -0.6457
5181000000.0 -0.8909 0.08564
5184000000.0 -0.5354 0.7728
5188000000.0 0.2714 0.8647
5191000000.0 0.8823 0.3318
5194000000.0 0.7731 -0.4786
5197000000.0 0.1281 -0.9557
5200000000.0 -0.6323 -0.6688
5203000000.0 -0.9333 0.1034
5206000000.0 -0.522 0.7643
5209000000.0 0.2906 0.9043
5212000000.0 0.8711 0.3217
5216000000.0 0.837 -0.4575
5219000000.0 0.1299 -0.9441
5222000000.0 -0.6274 -0.7278
5225000000.0 -0.9772 0.0591
5228000000.0 -0.5526 0.7964
5231000000.0 0.244 0.9644
5234000000.0 0.91 0.3791
5238000000.0 0.8991 -0.4592
5241000000.0 0.1889 -0.9817
5244000000.0 -0.6449 -0.8104
5247000000.0 -1.036 0.009114
5250000000.0 -0.6378 0.8
5253000000.0 0.2036 1.028
5256000000.0 0.9182 0.4921
5259000000.0 0.9884 -0.3986
5262000000.0 0.3119 -1.026
5266000000.0 -0.5887 -0.9074
5269000000.0 -1.057 -0.1392
5272000000.0 -0.7811 0.7419
5275000000.0 0.05548 1.086
5278000000.0 0.863 0.6316
5281000000.0 1.033 -0.2591
5284000000.0 0.4945 -0.9702
5288000000.0 -0.4119 -1.028
5291000000.0 -1.058 -0.3575
5294000000.0 -0.9478 0.564
5297000000.0 -0.1539 1.113
5300000000.0 0.7043 0.8298
5303000000.0 1.122 0.005252
5306000000.0 0.7362 -0.863
5309000000.0 -0.1971 -1.151
5312000000.0 -0.9733 -0.5813
5316000000.0 -1.08 0.3572
5319000000.0 -0.4384 1.078
5322000000.0 0.5363 1.02
5325000000.0 1.105 0.2128
5328000000.0 0.8743 -0.7208
5331000000.0 0.03437 -1.16
5334000000.0 -0.8799 -0.7518
5338000000.0 -1.143 0.1837
5341000000.0 -0.5722 1.023
5344000000.0 0.3553 1.078
5347000000.0 1.078 0.4007
5350000000.0 1.009 -0.5452
5353000000.0 0.2021 -1.127
5356000000.0 -0.7179 -0.8772
5359000000.0 -1.127 0.01237
5362000000.0 -0.7043 0.8829
5366000000.0 0.2181 1.073
5369000000.0 1.008 0.5209
5372000000.0 1.008 -0.4507
5375000000.0 0.2769 -1.047
5378000000.0 -0.6295 -0.8742
5381000000.0 -1.089 -0.0446
5384000000.0 -0.6841 0.7698
5388000000.0 0.1707 1.008
5391000000.0 0.8936 0.4988
5394000000.0 0.9553 -0.3862
5397000000.0 0.2608 -0.9408
5400000000.0 -0.5815 -0.8174
5403000000.0 -0.945 -0.04741
5406000000.0 -0.6284 0.7121
5409000000.0 0.1424 0.9222
5412000000.0 0.8127 0.4576
5416000000.0 0.8362 -0.3444
5419000000.0 0.2656 -0.892
5422000000.0 -0.4917 -0.7625
5425000000.0 -0.894 -0.04311
5428000000.0 -0.5829 0.6765
5431000000.0 0.1489 0.868
5434000000.0 0.8126 0.4185
5438000000.0 0.8039 -0.3556
5441000000.0 0.2184 -0.839
5444000000.0 -0.5687 -0.7041
5447000000.0 -0.8657 -0.01675
5450000000.0 -0.5654 0.6593
5453000000.0 0.1804 0.8483
5456000000.0 0.7673 0.4159
5459000000.0 0.8074 -0.32
5462000000.0 0.2286 -0.8688
5466000000.0 -0.5088 -0.7315
5469000000.0 -0.8429 -0.06231
5472000000.0 -0.5863 0.646
5475000000.0 0.08904 0.8954
5478000000.0 0.7631 0.502
5481000000.0 0.8761 -0.26
5484000000.0 0.3491 -0.8491
5488000000.0 -0.4086 -0.8276
5491000000.0 -0.9151 -0.2075
5494000000.0 -0.7291 0.5777
5497000000.0 -0.004641 0.9406
5500000000.0 0.7214 0.5949
5503000000.0 0.9687 -0.1637
5506000000.0 0.4704 -0.8546
5509000000.0 -0.3132 -0.9121
5512000000.0 -0.8954 -0.3259
5516000000.0 -0.8472 0.4818
5519000000.0 -0.2094 0.9703
5522000000.0 0.6415 0.7989
5525000000.0 0.9859 0.03839
5528000000.0 0.6575 -0.739
5531000000.0 -0.1427 -1.021
5534000000.0 -0.8742 -0.5539
5538000000.0 -1.027 0.3025
5541000000.0 -0.4244 0.9637
5544000000.0 0.5175 0.956
5547000000.0 1.04 0.2246
5550000000.0 0.8455 -0.6206
5553000000.0 0.05482 -1.06
5556000000.0 -0.7693 -0.7359
5559000000.0 -1.067 0.1654
5562000000.0 -0.5758 0.8992
5566000000.0 0.3292 1.005
5569000000.0 0.9962 0.3683
5572000000.0 0.9136 -0.5213
5575000000.0 0.1829 -1.029
5578000000.0 -0.6442 -0.8005
5581000000.0 -1.005 -0.004268
5584000000.0 -0.65 0.7958
5588000000.0 0.1507 0.9811
5591000000.0 0.889 0.5231
5594000000.0 0.9263 -0.34
5597000000.0 0.3188 -0.9444
5600000000.0 -0.5312 -0.8494
5603000000.0 -0.9748 -0.1459
5606000000.0 -0.6772 0.6548
5609000000.0 0.03588 0.9418
5612000000.0 0.7504 0.5313
5616000000.0 0.9005 -0.2444
5619000000.0 0.3715 -0.8239
5622000000.0 -0.3919 -0.8297
5625000000.0 -0.8993 -0.1948
5628000000.0 -0.6915 0.5383
5631000000.0 -0.01719 0.8642
5634000000.0 0.669 0.5724
5638000000.0 0.8554 -0.1614
5641000000.0 0.3931 -0.7703
5644000000.0 -0.3417 -0.7867
5647000000.0 -0.8253 -0.2393
5650000000.0 -0.7059 0.502
5653000000.0 -0.05893 0.8781
5656000000.0 0.6419 0.5493
5659000000.0 0.8458 -0.1446
5662000000.0 0.4176 -0.7625
5666000000.0 -0.3415 -0.7908
5669000000.0 -0.8375 -0.2286
5672000000.0 -0.6994 0.5277
5675000000.0 -0.04335 0.8875
5678000000.0 0.669 0.59
5681000000.0 0.8853 -0.1653
5684000000.0 0.4409 -0.7812
5688000000.0 -0.3848 -0.8522
5691000000.0 -0.8655 -0.2622
5694000000.0 -0.7727 0.5304
5697000000.0 -0.04795 0.9474
5700000000.0 0.7115 0.6231
5703000000.0 0.9712 -0.1489
5706000000.0 0.4737 -0.83
5709000000.0 -0.3441 -0.9452
5712000000.0 -0.9759 -0.3114
5716000000.0 -0.8326 0.5584
5719000000.0 -0.1205 1.004
5722000000.0 0.7066 0.7334
5725000000.0 1.052 -0.07528
5728000000.0 0.5799 -0.8382
5731000000.0 -0.2582 -1.023
5734000000.0 -0.9764 -0.419
5738000000.0 -0.9658 0.4708
5741000000.0 -0.202 1.024
5744000000.0 0.6356 0.8314
5747000000.0 1.072 0.082
5750000000.0 0.7126 -0.8206
5753000000.0 -0.1441 -1.063
5756000000.0 -0.924 -0.5942
5759000000.0 -1.047 0.3281
5762000000.0 -0.3901 1.041
5766000000.0 0.5347 0.9355
5769000000.0 1.072 0.1892
5772000000.0 0.8298 -0.6711
5775000000.0 -0.0105 -1.102
5778000000.0 -0.8242 -0.7035
5781000000.0 -1.049 0.1987
5784000000.0 -0.5425 0.944
5788000000.0 0.3647 1.007
5791000000.0 1.009 0.3655
5794000000.0 0.9574 -0.5608
5797000000.0 0.1643 -1.09
5800000000.0 -0.6789 -0.8606
5803000000.0 -1.08 0.01398
5806000000.0 -0.7074 0.8404
5809000000.0 0.2196 1.08
5812000000.0 0.9271 0.5137
5816000000.0 0.9777 -0.3852
5819000000.0 0.3033 -0.995
5822000000.0 -0.5599 -0.8955
5825000000.0 -1.04 -0.1039
5828000000.0 -0.7665 0.7
5831000000.0 0.03676 1.024
5834000000.0 0.8176 0.5776
5838000000.0 0.9758 -0.2839
5841000000.0 0.3932 -0.9347
5844000000.0 -0.4564 -0.8968
5847000000.0 -0.9837 -0.2368
5850000000.0 -0.7576 0.6052
5853000000.0 0.008167 0.993
5856000000.0 0.7458 0.589
5859000000.0 0.9291 -0.1636
5862000000.0 0.4338 -0.8372
5866000000.0 -0.3918 -0.8637
5869000000.0 -0.9278 -0.2506
5872000000.0 -0.7294 0.549
5875000000.0 -0.05015 0.9141
5878000000.0 0.6563 0.6141
5881000000.0 0.8813 -0.1674
5884000000.0 0.4405 -0.7832
5888000000.0 -0.3244 -0.7796
5891000000.0 -0.8766 -0.2522
5894000000.0 -0.7315 0.538
5897000000.0 -0.06168 0.8748
5900000000.0 0.6007 0.6079
5903000000.0 0.8688 -0.08378
5906000000.0 0.4575 -0.7449
5909000000.0 -0.3158 -0.7879
5912000000.0 -0.8016 -0.3043
5916000000.0 -0.7484 0.4487
5919000000.0 -0.1194 0.8239
5922000000.0 0.5993 0.6292
5925000000.0 0.8451 -0.05692
5928000000.0 0.4932 -0.6818
5931000000.0 -0.2334 -0.8188
5934000000.0 -0.7729 -0.3562
5938000000.0 -0.7549 0.42
5941000000.0 -0.2253 0.8164
5944000000.0 0.5522 0.7303
5947000000.0 0.8585 0.01673
5950000000.0 0.5844 -0.6318
5953000000.0 -0.1115 -0.8442
5956000000.0 -0.7461 -0.4788
5959000000.0 -0.8547 0.2932
5962000000.0 -0.3483 0.8609
5966000000.0 0.4277 0.8164
5969000000.0 0.9029 0.1747
5972000000.0 0.711 -0.5873
5975000000.0 -0.003091 -0.926
5978000000.0 -0.722 -0.6328
5981000000.0 -0.9592 0.1361
5984000000.0 -0.4898 0.812
5988000000.0 0.3136 0.9142
5991000000.0 0.9026 0.3565
5994000000.0 0.8347 -0.4548
5997000000.0 0.2038 -0.9355
6000000000.0 -0.6167 -0.7604
6003000000.0 -0.9682 0.01233
6006000000.0 -0.649 0.7753
6009000000.0 0.1684 0.9911
6012000000.0 0.8383 0.4825
6016000000.0 0.9217 -0.3767
6019000000.0 0.3212 -0.9348
6022000000.0 -0.534 -0.8342
6025000000.0 -0.9889 -0.1298
6028000000.0 -0.754 0.6625
6031000000.0 0.05909 0.9864
6034000000.0 0.8103 0.584
6038000000.0 0.954 -0.2444
6041000000.0 0.4253 -0.8979
6044000000.0 -0.4421 -0.9035
6047000000.0 -0.9765 -0.2526
6050000000.0 -0.7836 0.6078
6053000000.0 -0.01574 0.973
6056000000.0 0.7721 0.6333
6059000000.0 0.9608 -0.1634
6062000000.0 0.4539 -0.8282
6066000000.0 -0.3403 -0.8843
6069000000.0 -0.9024 -0.2733
6072000000.0 -0.7532 0.5327
6075000000.0 -0.0751 0.9289
6078000000.0 0.6678 0.5988
6081000000.0 0.9117 -0.1339
6084000000.0 0.4747 -0.76
6088000000.0 -0.2974 -0.8268
6091000000.0 -0.854 -0.2707
6094000000.0 -0.7398 0.4538
6097000000.0 -0.1111 0.8641
6100000000.0 0.5809 0.6131
6103000000.0 0.8592 -0.06737
6106000000.0 0.4768 -0.7272
6109000000.0 -0.2477 -0.8312
6112000000.0 -0.8241 -0.3209
6116000000.0 -0.761 0.4103
6119000000.0 -0.1683 0.8455
6122000000.0 0.574 0.6378
6125000000.0 0.8712 -0.04181
6128000000.0 0.5132 -0.6596
6131000000.0 -0.2234 -0.819
6134000000.0 -0.7791 -0.364
6138000000.0 -0.7634 0.3978
6141000000.0 -0.2032 0.8211
6144000000.0 0.5502 0.6622
6147000000.0 0.8678 -0.02262
6150000000.0 0.5577 -0.6385
6153000000.0 -0.1643 -0.8462
6156000000.0 -0.7549 -0.3922
6159000000.0 -0.8011 0.3664
6162000000.0 -0.2443 0.8683
6166000000.0 0.5009 0.7545
6169000000.0 0.8821 0.05756
6172000000.0 0.6024 -0.6546
6175000000.0 -0.08974 -0.9019
6178000000.0 -0.7689 -0.494
6181000000.0 -0.8568 0.3009
6184000000.0 -0.3536 0.8442
6188000000.0 0.487 0.7942
6191000000.0 0.8917 0.1471
6194000000.0 0.6801 -0.5754
6197000000.0 -0.02361 -0.9126
6200000000.0 -0.7236 -0.5583
6203000000.0 -0.8839 0.189
6206000000.0 -0.3876 0.8283
6209000000.0 0.3499 0.8585
6212000000.0 0.9169 0.2486
6216000000.0 0.7405 -0.5123
6219000000.0 0.04335 -0.8812
6222000000.0 -0.6497 -0.6406
6225000000.0 -0.8964 0.1034
6228000000.0 -0.509 0.7517
6231000000.0 0.2637 0.8665
6234000000.0 0.8361 0.2973
6238000000.0 0.7631 -0.4222
6241000000.0 0.1729 -0.8687
6244000000.0 -0.5612 -0.6592
6247000000.0 -0.8576 -0.007343
6250000000.0 -0.5575 0.6377
6253000000.0 0.142 0.8167
6256000000.0 0.7368 0.4162
6259000000.0 0.7512 -0.3016
6262000000.0 0.2814 -0.8035
6266000000.0 -0.4175 -0.7023
