! Created with skrf 1.8.0 (http://scikit-rf.org).
# Hz S RI R 50.0 
!freq ReS11 ImS11
4000000000.0 -0.3923 -1.504
4003000000.0 -1.343 -0.6403
4006000000.0 -1.376 0.6909
4009000000.0 -0.3142 1.495
4012000000.0 0.9598 1.14
4016000000.0 1.531 -0.008948
4019000000.0 0.9963 -1.207
4022000000.0 -0.3718 -1.523
4025000000.0 -1.449 -0.6824
4028000000.0 -1.429 0.7322
4031000000.0 -0.374 1.558
4034000000.0 1.026 1.281
4038000000.0 1.653 -0.03758
4041000000.0 0.9994 -1.262
4044000000.0 -0.3818 -1.598
4047000000.0 -1.471 -0.6761
4050000000.0 -1.523 0.6735
4053000000.0 -0.3972 1.545
4056000000.0 0.9714 1.322
4059000000.0 1.631 0.08523
4062000000.0 1.063 -1.218
4066000000.0 -0.2273 -1.618
4069000000.0 -1.356 -0.8843
4072000000.0 -1.545 0.4817
4075000000.0 -0.5898 1.495
4078000000.0 0.7886 1.471
4081000000.0 1.654 0.3061
4084000000.0 1.256 -1.044
4088000000.0 -0.01886 -1.657
4091000000.0 -1.267 -1.066
4094000000.0 -1.616 0.3281
4097000000.0 -0.7854 1.445
4100000000.0 0.5781 1.515
4103000000.0 1.489 0.4573
4106000000.0 1.337 -0.8424
4109000000.0 0.2263 -1.518
4112000000.0 -1.001 -1.167
4116000000.0 -1.485 0.05783
4119000000.0 -0.9509 1.13
4122000000.0 0.2228 1.438
4125000000.0 1.236 0.7674
4128000000.0 1.413 -0.4173
4131000000.0 0.6064 -1.372
4134000000.0 -0.6504 -1.307
4138000000.0 -1.434 -0.3655
4141000000.0 -1.232 0.8194
4144000000.0 -0.1368 1.483
4147000000.0 1.068 1.055
4150000000.0 1.51 -0.1228
4153000000.0 0.9001 -1.23
4156000000.0 -0.3969 -1.456
4159000000.0 -1.352 -0.6522
4162000000.0 -1.355 0.6369
4166000000.0 -0.38 1.439
4169000000.0 0.8909 1.227
4172000000.0 1.491 0.09688
4175000000.0 1.046 -1.071
4178000000.0 -0.1803 -1.498
4181000000.0 -1.275 -0.8246
4184000000.0 -1.431 0.4377
4188000000.0 -0.5661 1.386
4191000000.0 0.7223 1.306
4194000000.0 1.482 0.2872
4197000000.0 1.187 -0.978
4200000000.0 -0.05964 -1.566
4203000000.0 -1.249 -0.9396
4206000000.0 -1.551 0.434
4209000000.0 -0.6313 1.488
4212000000.0 0.8306 1.413
4216000000.0 1.648 0.2233
4219000000.0 1.187 -1.191
4222000000.0 -0.2567 -1.653
4225000000.0 -1.454 -0.7614
4228000000.0 -1.513 0.6989
4231000000.0 -0.3376 1.596
4234000000.0 1.071 1.221
4238000000.0 1.556 -0.1224
4241000000.0 0.9125 -1.315
4244000000.0 -0.4971 -1.461
4247000000.0 -1.438 -0.4789
4250000000.0 -1.198 0.8527
4253000000.0 -0.1087 1.494
4256000000.0 1.086 0.9354
4259000000.0 1.442 -0.2748
4262000000.0 0.6657 -1.304
4266000000.0 -0.635 -1.316
4269000000.0 -1.404 -0.3499
4272000000.0 -1.109 0.9242
4275000000.0 0.003948 1.449
4278000000.0 1.087 0.8322
4281000000.0 1.36 -0.345
4284000000.0 0.5757 -1.234
4288000000.0 -0.5872 -1.188
4291000000.0 -1.304 -0.2884
4294000000.0 -1.024 0.8232
4297000000.0 -0.02612 1.314
4300000000.0 1.001 0.872
4303000000.0 1.281 -0.2049
4306000000.0 0.6606 -1.095
4309000000.0 -0.3882 -1.207
4312000000.0 -1.177 -0.4867
4316000000.0 -1.109 0.5936
4319000000.0 -0.265 1.273
4322000000.0 0.7914 1.039
4325000000.0 1.326 0.06435
4328000000.0 0.915 -0.9793
4331000000.0 -0.151 -1.369
4334000000.0 -1.181 -0.7363
4338000000.0 -1.323 0.4516
4341000000.0 -0.5154 1.361
4344000000.0 0.6754 1.27
4347000000.0 1.445 0.2494
4350000000.0 1.126 -0.9665
4353000000.0 -0.03938 -1.483
4356000000.0 -1.19 -0.9589
4359000000.0 -1.444 0.3232
4362000000.0 -0.658 1.329
4366000000.0 0.6138 1.395
4369000000.0 1.45 0.4047
4372000000.0 1.242 -0.8699
4375000000.0 0.08449 -1.511
4378000000.0 -1.15 -1.068
4381000000.0 -1.505 0.2277
4384000000.0 -0.7979 1.333
4388000000.0 0.5554 1.438
4391000000.0 1.509 0.5046
4394000000.0 1.3 -0.867
4397000000.0 0.07868 -1.576
4400000000.0 -1.175 -1.001
4403000000.0 -1.527 0.2918
4406000000.0 -0.6386 1.383
4409000000.0 0.6879 1.361
4412000000.0 1.494 0.2591
4416000000.0 1.133 -0.9844
4419000000.0 -0.08926 -1.481
4422000000.0 -1.23 -0.7969
4425000000.0 -1.334 0.4617
4428000000.0 -0.4574 1.32
4431000000.0 0.7107 1.111
4434000000.0 1.316 0.09054
4438000000.0 0.8869 -0.9699
4441000000.0 -0.2128 -1.243
4444000000.0 -1.096 -0.5888
4447000000.0 -1.147 0.5117
4450000000.0 -0.3052 1.213
4453000000.0 0.7861 0.9503
4456000000.0 1.227 -0.03943
4459000000.0 0.7404 -0.9777
4462000000.0 -0.2952 -1.136
4466000000.0 -1.105 -0.4497
4469000000.0 -1.014 0.6067
4472000000.0 -0.157 1.172
4475000000.0 0.834 0.8611
4478000000.0 1.172 -0.08551
4481000000.0 0.6111 -0.9561
4484000000.0 -0.3456 -1.12
4488000000.0 -1.111 -0.4287
4491000000.0 -1.007 0.5838
4494000000.0 -0.1553 1.149
4497000000.0 0.7919 0.8828
4500000000.0 1.178 -0.07618
4503000000.0 0.7132 -0.9459
4506000000.0 -0.2871 -1.123
4509000000.0 -1.042 -0.5023
4512000000.0 -1.072 0.5077
4516000000.0 -0.2904 1.15
4519000000.0 0.7409 0.9727
4522000000.0 1.221 0.05468
4525000000.0 0.8037 -0.9046
4528000000.0 -0.1534 -1.225
4531000000.0 -1.085 -0.6381
4534000000.0 -1.175 0.4137
4538000000.0 -0.4568 1.168
4541000000.0 0.6108 1.11
4544000000.0 1.255 0.2157
4547000000.0 1.008 -0.8627
4550000000.0 -0.008154 -1.299
4553000000.0 -1.009 -0.8409
4556000000.0 -1.297 0.2249
4559000000.0 -0.6625 1.154
4562000000.0 0.4474 1.274
4566000000.0 1.253 0.4473
4569000000.0 1.157 -0.6964
4572000000.0 0.2075 -1.342
4575000000.0 -0.9116 -1.01
4578000000.0 -1.387 0.03901
4581000000.0 -0.8397 1.1
4584000000.0 0.3351 1.366
4588000000.0 1.246 0.614
4591000000.0 1.287 -0.5673
4594000000.0 0.3659 -1.359
4597000000.0 -0.836 -1.149
4600000000.0 -1.431 -0.07756
4603000000.0 -0.946 1.058
4606000000.0 0.2199 1.406
4609000000.0 1.21 0.7082
4612000000.0 1.31 -0.5189
4616000000.0 0.4049 -1.331
4619000000.0 -0.7762 -1.149
4622000000.0 -1.366 -0.1546
4625000000.0 -0.9194 0.9629
4628000000.0 0.1894 1.313
4631000000.0 1.14 0.7015
4634000000.0 1.249 -0.4582
4638000000.0 0.392 -1.259
4641000000.0 -0.6936 -1.086
4644000000.0 -1.275 -0.1318
4647000000.0 -0.8725 0.8987
4650000000.0 0.1754 1.237
4653000000.0 1.068 0.6135
4656000000.0 1.117 -0.4313
4659000000.0 0.3364 -1.142
4662000000.0 -0.6915 -0.9894
4666000000.0 -1.154 -0.04198
4669000000.0 -0.7496 0.8822
4672000000.0 0.2282 1.105
4675000000.0 1.012 0.5379
4678000000.0 1.026 -0.4136
4681000000.0 0.277 -1.012
4684000000.0 -0.6343 -0.8811
4688000000.0 -1.092 -0.05033
4691000000.0 -0.7419 0.796
4694000000.0 0.1796 1.08
4697000000.0 0.9488 0.5363
4700000000.0 1.002 -0.4073
4703000000.0 0.3526 -1.02
4706000000.0 -0.6055 -0.9122
4709000000.0 -1.084 -0.1015
4712000000.0 -0.7487 0.82
4716000000.0 0.1104 1.102
4719000000.0 0.9711 0.5544
4722000000.0 1.036 -0.3743
4725000000.0 0.3581 -1.068
4728000000.0 -0.588 -0.934
4731000000.0 -1.098 -0.1484
4734000000.0 -0.8411 0.7568
4738000000.0 0.05084 1.118
4741000000.0 0.8821 0.6777
4744000000.0 1.098 -0.2308
4747000000.0 0.5444 -0.9973
4750000000.0 -0.434 -1.093
4753000000.0 -1.111 -0.349
4756000000.0 -0.9881 0.6098
4759000000.0 -0.1754 1.2
4762000000.0 0.8158 0.9227
4766000000.0 1.209 -0.04843
4769000000.0 0.8027 -0.9769
4772000000.0 -0.2694 -1.23
4775000000.0 -1.122 -0.592
4778000000.0 -1.208 0.486
4781000000.0 -0.3854 1.254
4784000000.0 0.7095 1.094
4788000000.0 1.3 0.1754
4791000000.0 0.9654 -0.9106
4794000000.0 -0.06816 -1.351
4797000000.0 -1.098 -0.8501
4800000000.0 -1.323 0.3059
4803000000.0 -0.6387 1.192
4806000000.0 0.5254 1.234
4809000000.0 1.33 0.3797
4812000000.0 1.148 -0.7975
4816000000.0 0.1476 -1.39
4819000000.0 -0.9677 -0.9811
4822000000.0 -1.404 0.1411
4825000000.0 -0.7855 1.188
4828000000.0 0.4327 1.328
4831000000.0 1.287 0.5402
4834000000.0 1.212 -0.6908
4838000000.0 0.236 -1.381
4841000000.0 -0.8884 -1.04
4844000000.0 -1.361 0.06814
4847000000.0 -0.7828 1.07
4850000000.0 0.3295 1.288
4853000000.0 1.203 0.5253
4856000000.0 1.16 -0.589
4859000000.0 0.2173 -1.216
4862000000.0 -0.7891 -0.9545
4866000000.0 -1.203 0.01203
4869000000.0 -0.7416 0.9236
4872000000.0 0.2329 1.141
4875000000.0 1.059 0.507
4878000000.0 1.031 -0.4793
4881000000.0 0.2851 -1.068
4884000000.0 -0.6531 -0.8467
4888000000.0 -1.096 -0.02837
4891000000.0 -0.69 0.8159
4894000000.0 0.2045 1.054
4897000000.0 0.8941 0.4783
4900000000.0 0.9232 -0.3733
4903000000.0 0.2836 -0.9518
4906000000.0 -0.5992 -0.8118
4909000000.0 -0.9679 -0.04771
4912000000.0 -0.6367 0.7165
4916000000.0 0.1422 0.9302
4919000000.0 0.8252 0.4944
4922000000.0 0.8793 -0.3283
4925000000.0 0.2714 -0.8954
4928000000.0 -0.4987 -0.7893
4931000000.0 -0.9308 -0.1187
4934000000.0 -0.6761 0.6572
4938000000.0 0.06652 0.956
4941000000.0 0.7846 0.5573
4944000000.0 0.9232 -0.278
4947000000.0 0.4027 -0.8842
4950000000.0 -0.4863 -0.8842
4953000000.0 -0.9998 -0.2188
4956000000.0 -0.7998 0.6261
4959000000.0 -0.02263 1.065
4962000000.0 0.7934 0.7021
4966000000.0 1.066 -0.2323
4969000000.0 0.536 -0.9569
4972000000.0 -0.4395 -1.014
4975000000.0 -1.102 -0.3277
4978000000.0 -0.9256 0.6404
4981000000.0 -0.1193 1.17
4984000000.0 0.8302 0.8187
4988000000.0 1.184 -0.1186
4991000000.0 0.6904 -0.9974
4994000000.0 -0.353 -1.197
4997000000.0 -1.145 -0.4794
5000000000.0 -1.12 0.593
5003000000.0 -0.2902 1.252
5006000000.0 0.8088 1.022
5009000000.0 1.309 0.04618
5012000000.0 0.8404 -1.022
5016000000.0 -0.2624 -1.322
5019000000.0 -1.165 -0.6178
5022000000.0 -1.238 0.5294
5025000000.0 -0.3726 1.267
5028000000.0 0.7356 1.099
5031000000.0 1.32 0.0866
5034000000.0 0.9391 -0.9226
5038000000.0 -0.1653 -1.289
5041000000.0 -1.086 -0.6885
5044000000.0 -1.178 0.3737
5047000000.0 -0.5173 1.164
5050000000.0 0.5729 1.094
5053000000.0 1.173 0.2646
5056000000.0 0.9464 -0.7652
5059000000.0 0.02492 -1.227
5062000000.0 -0.9042 -0.8024
5066000000.0 -1.162 0.2087
5069000000.0 -0.5664 1.013
5072000000.0 0.4204 1.078
5075000000.0 1.045 0.3213
5078000000.0 0.9062 -0.6064
5081000000.0 0.06398 -1.085
5084000000.0 -0.739 -0.759
5088000000.0 -1.033 0.133
5091000000.0 -0.5584 0.8653
5094000000.0 0.2972 0.967
5097000000.0 0.9016 0.3491
5100000000.0 0.8402 -0.5043
5103000000.0 0.1495 -0.951
5106000000.0 -0.6681 -0.6831
5109000000.0 -0.9551 0.06349
5112000000.0 -0.5236 0.777
5116000000.0 0.2757 0.8788
5119000000.0 0.841 0.3277
5122000000.0 0.7793 -0.4478
5125000000.0 0.1219 -0.9007
5128000000.0 -0.614 -0.6536
5131000000.0 -0.8632 0.1569
5134000000.0 -0.4828 0.7761
5138000000.0 0.3293 0.8486
5141000000.0 0.8288 0.2839
5144000000.0 0.7281 -0.5185
5147000000.0 0.02614 -0.9035
5150000000.0 -0.7009 -0.5736
5153000000.0 -0.8853 0.1734
5156000000.0 -0.4282 0.8146
5159000000.0 0.4169 0.779
5162000000.0 0.8899 0.2113
5166000000.0 0.7121 -0.5907
5169000000.0 -0.02506 -0.9622
5172000000.0 -0.7476 -0.5942
5175000000.0 -0.9309 0.249
5178000000.0 -0.3732 0.8895
5181000000.0 0.458 0.8493
5184000000.0 0.9667 0.1717
5188000000.0 0.7784 -0.6617
5191000000.0 -0.04479 -1.042
5194000000.0 -0.8384 -0.6111
5197000000.0 -1.002 0.2838
5200000000.0 -0.4065 0.9828
5203000000.0 0.4952 0.9384
5206000000.0 1.044 0.2051
5209000000.0 0.7842 -0.6924
5212000000.0 -0.03912 -1.055
5216000000.0 -0.8502 -0.6761
5219000000.0 -1.029 0.2302
5222000000.0 -0.4494 0.982
5225000000.0 0.4362 1.0
5228000000.0 1.072 0.241
5231000000.0 0.8604 -0.6461
5234000000.0 0.02755 -1.078
5238000000.0 -0.841 -0.7194
5241000000.0 -1.078 0.1843
5244000000.0 -0.5591 0.9497
5247000000.0 0.4096 1.027
5250000000.0 1.058 0.322
5253000000.0 0.8738 -0.6104
5256000000.0 0.1227 -1.095
5259000000.0 -0.7995 -0.7497
5262000000.0 -1.077 0.1753
5266000000.0 -0.5341 0.9413
5269000000.0 0.4234 0.9917
5272000000.0 1.023 0.3003
5275000000.0 0.8427 -0.614
5278000000.0 0.02225 -1.027
5281000000.0 -0.818 -0.6451
5284000000.0 -0.9771 0.2274
5288000000.0 -0.3972 0.9083
5291000000.0 0.5142 0.8593
5294000000.0 0.9905 0.1449
5297000000.0 0.6716 -0.7061
5300000000.0 -0.1686 -0.9347
5303000000.0 -0.8465 -0.4187
5306000000.0 -0.8613 0.4502
5309000000.0 -0.1597 0.9239
5312000000.0 0.6305 0.6615
5316000000.0 0.9168 -0.1481
5319000000.0 0.4079 -0.8091
5322000000.0 -0.4431 -0.8178
5325000000.0 -0.938 -0.1331
5328000000.0 -0.6583 0.6338
5331000000.0 0.1376 0.9071
5334000000.0 0.7985 0.4221
5338000000.0 0.8443 -0.3712
5341000000.0 0.1492 -0.9086
5344000000.0 -0.6 -0.7046
5347000000.0 -0.9381 0.09059
5350000000.0 -0.5068 0.768
5353000000.0 0.3058 0.8848
5356000000.0 0.9087 0.2874
5359000000.0 0.7999 -0.5151
5362000000.0 0.0868 -0.9411
5366000000.0 -0.734 -0.661
5369000000.0 -0.9857 0.1459
5372000000.0 -0.5044 0.8819
5375000000.0 0.3858 0.9462
5378000000.0 0.9961 0.2912
5381000000.0 0.8547 -0.5712
5384000000.0 0.06902 -1.063
5388000000.0 -0.8034 -0.7236
5391000000.0 -1.06 0.1527
5394000000.0 -0.5324 0.9253
5397000000.0 0.3673 1.002
5400000000.0 1.056 0.3686
5403000000.0 0.9519 -0.5628
5406000000.0 0.134 -1.111
5409000000.0 -0.7492 -0.8249
5412000000.0 -1.127 0.08141
5416000000.0 -0.6226 0.9374
5419000000.0 0.3397 1.103
5422000000.0 1.099 0.4464
5425000000.0 1.032 -0.5989
5428000000.0 0.1821 -1.162
5431000000.0 -0.8205 -0.8575
5434000000.0 -1.172 0.1072
5438000000.0 -0.6403 0.9908
5441000000.0 0.4002 1.114
5444000000.0 1.095 0.3553
5447000000.0 0.9761 -0.6686
5450000000.0 0.04798 -1.151
5453000000.0 -0.8876 -0.7282
5456000000.0 -1.068 0.2366
5459000000.0 -0.4356 0.9796
5462000000.0 0.4996 0.9246
5466000000.0 1.018 0.198
5469000000.0 0.7349 -0.7108
5472000000.0 -0.09052 -1.005
5475000000.0 -0.8603 -0.4713
5478000000.0 -0.8918 0.3658
5481000000.0 -0.2453 0.9358
5484000000.0 0.5481 0.7508
5488000000.0 0.8882 0.03171
5491000000.0 0.5398 -0.681
5494000000.0 -0.2432 -0.8634
5497000000.0 -0.832 -0.3245
5500000000.0 -0.7357 0.4539
5503000000.0 -0.05205 0.8424
5506000000.0 0.6216 0.5772
5509000000.0 0.8331 -0.1342
5512000000.0 0.3776 -0.7243
5516000000.0 -0.3731 -0.7388
5519000000.0 -0.7948 -0.215
5522000000.0 -0.6506 0.5172
5525000000.0 0.0006801 0.8712
5528000000.0 0.6693 0.5325
5531000000.0 0.8622 -0.1697
5534000000.0 0.3695 -0.7701
5538000000.0 -0.3951 -0.7577
5541000000.0 -0.8437 -0.1778
5544000000.0 -0.7093 0.5713
5547000000.0 -0.03008 0.9239
5550000000.0 0.7094 0.5941
5553000000.0 0.8921 -0.1988
5556000000.0 0.4597 -0.831
5559000000.0 -0.3791 -0.8736
5562000000.0 -0.926 -0.2269
5566000000.0 -0.7973 0.5463
5569000000.0 -0.02845 0.9992
5572000000.0 0.7299 0.6907
5575000000.0 0.9708 -0.1276
5578000000.0 0.5363 -0.8576
5581000000.0 -0.3218 -0.9373
5584000000.0 -0.9382 -0.3981
5588000000.0 -0.9047 0.4828
5591000000.0 -0.2282 1.027
5594000000.0 0.6556 0.7955
5597000000.0 1.042 -0.003228
5600000000.0 0.6678 -0.7795
5603000000.0 -0.1822 -1.046
5606000000.0 -0.9234 -0.4973
5609000000.0 -1.003 0.4115
5612000000.0 -0.3031 1.018
5616000000.0 0.5739 0.8694
5619000000.0 1.038 0.1186
5622000000.0 0.743 -0.7351
5625000000.0 -0.1279 -1.042
5628000000.0 -0.8779 -0.5551
5631000000.0 -0.9571 0.3187
5634000000.0 -0.3575 0.9685
5638000000.0 0.5021 0.8784
5641000000.0 0.9775 0.1414
5644000000.0 0.74 -0.6954
5647000000.0 -0.05411 -1.021
5650000000.0 -0.8012 -0.5818
5653000000.0 -0.9334 0.283
5656000000.0 -0.3631 0.9106
5659000000.0 0.4824 0.8289
5662000000.0 0.9588 0.1373
5666000000.0 0.6975 -0.6342
5669000000.0 -0.06901 -0.9389
5672000000.0 -0.8087 -0.5152
5675000000.0 -0.8662 0.3102
5678000000.0 -0.3208 0.8631
5681000000.0 0.51 0.7759
5684000000.0 0.9175 0.06356
5688000000.0 0.6429 -0.658
5691000000.0 -0.1228 -0.8952
5694000000.0 -0.801 -0.452
5697000000.0 -0.8498 0.3673
5700000000.0 -0.2181 0.855
5703000000.0 0.5222 0.7092
5706000000.0 0.9012 -0.01783
5709000000.0 0.5639 -0.7015
5712000000.0 -0.2371 -0.8921
5716000000.0 -0.8734 -0.3587
5719000000.0 -0.8297 0.4077
5722000000.0 -0.1758 0.9068
5725000000.0 0.6328 0.6707
5728000000.0 0.9901 -0.04855
5731000000.0 0.549 -0.728
5734000000.0 -0.288 -0.9088
5738000000.0 -0.8808 -0.4149
5741000000.0 -0.8675 0.4689
5744000000.0 -0.1536 0.9671
5747000000.0 0.6575 0.7238
5750000000.0 0.9838 -0.06825
5753000000.0 0.5823 -0.8052
5756000000.0 -0.2832 -0.9756
5759000000.0 -0.919 -0.4322
5762000000.0 -0.9086 0.4656
5766000000.0 -0.2268 1.01
5769000000.0 0.6627 0.8122
5772000000.0 1.057 -0.007297
5775000000.0 0.687 -0.8049
5778000000.0 -0.1471 -1.052
5781000000.0 -0.9507 -0.5272
5784000000.0 -0.9777 0.3676
5788000000.0 -0.3344 0.9989
5791000000.0 0.5434 0.893
5794000000.0 1.08 0.179
5797000000.0 0.8079 -0.736
5800000000.0 -0.06072 -1.056
5803000000.0 -0.8763 -0.647
5806000000.0 -1.044 0.259
5809000000.0 -0.4787 0.978
5812000000.0 0.4547 0.9789
5816000000.0 1.027 0.2984
5819000000.0 0.8764 -0.6269
5822000000.0 0.07567 -1.034
5825000000.0 -0.7411 -0.747
5828000000.0 -1.063 0.09435
5831000000.0 -0.5419 0.8823
5834000000.0 0.3033 0.9961
5838000000.0 0.9545 0.3829
5841000000.0 0.9197 -0.5036
5844000000.0 0.2104 -1.058
5847000000.0 -0.6566 -0.7999
5850000000.0 -1.033 0.001264
5853000000.0 -0.6318 0.7791
5856000000.0 0.2111 1.01
5859000000.0 0.9039 0.4855
5862000000.0 0.944 -0.4095
5866000000.0 0.2594 -0.981
5869000000.0 -0.6036 -0.7889
5872000000.0 -0.9918 -0.04804
5875000000.0 -0.6337 0.7234
5878000000.0 0.2037 0.9692
5881000000.0 0.8237 0.4569
5884000000.0 0.8939 -0.3402
5888000000.0 0.238 -0.9028
5891000000.0 -0.5477 -0.7123
5894000000.0 -0.8733 -0.0454
5897000000.0 -0.6179 0.6839
5900000000.0 0.135 0.9239
5903000000.0 0.7835 0.4402
5906000000.0 0.8236 -0.3306
5909000000.0 0.2605 -0.8411
5912000000.0 -0.4852 -0.7234
5916000000.0 -0.88 -0.0658
5919000000.0 -0.5847 0.6467
5922000000.0 0.1336 0.82
5925000000.0 0.7768 0.4068
5928000000.0 0.7905 -0.2913
5931000000.0 0.2646 -0.8231
5934000000.0 -0.4728 -0.7009
5938000000.0 -0.8465 -0.08923
5941000000.0 -0.6005 0.6141
5944000000.0 0.06328 0.8285
5947000000.0 0.7417 0.4561
5950000000.0 0.809 -0.2497
5953000000.0 0.3299 -0.7941
5956000000.0 -0.3893 -0.7279
5959000000.0 -0.8259 -0.1425
5962000000.0 -0.6847 0.5525
5966000000.0 0.004406 0.8668
5969000000.0 0.6664 0.5734
5972000000.0 0.8518 -0.1593
5975000000.0 0.4135 -0.7764
5978000000.0 -0.3237 -0.8167
5981000000.0 -0.8825 -0.2918
5984000000.0 -0.7483 0.5002
5988000000.0 -0.1583 0.9138
5991000000.0 0.6265 0.6787
5994000000.0 0.9706 -0.04761
5997000000.0 0.5533 -0.7463
6000000000.0 -0.2105 -0.9347
6003000000.0 -0.8653 -0.4044
6006000000.0 -0.8738 0.375
6009000000.0 -0.3013 0.9185
6012000000.0 0.5235 0.7659
6016000000.0 0.9629 0.09022
6019000000.0 0.711 -0.6673
6022000000.0 -0.1064 -0.9623
6025000000.0 -0.8131 -0.5428
6028000000.0 -0.9527 0.3014
6031000000.0 -0.3846 0.9006
6034000000.0 0.4496 0.8773
6038000000.0 0.9737 0.2134
6041000000.0 0.7915 -0.6299
6044000000.0 0.01725 -1.003
6047000000.0 -0.7609 -0.6684
6050000000.0 -1.006 0.1825
6053000000.0 -0.467 0.8723
6056000000.0 0.3881 0.921
6059000000.0 0.9559 0.2923
6062000000.0 0.8261 -0.5475
6066000000.0 0.06567 -0.9717
6069000000.0 -0.715 -0.6611
6072000000.0 -0.9739 0.1639
6075000000.0 -0.4971 0.8387
6078000000.0 0.3411 0.9096
6081000000.0 0.8806 0.3014
6084000000.0 0.7997 -0.5143
6088000000.0 0.1012 -0.9116
6091000000.0 -0.6705 -0.6601
6094000000.0 -0.9143 0.0819
6097000000.0 -0.5103 0.7594
6100000000.0 0.2601 0.866
6103000000.0 0.8427 0.3061
6106000000.0 0.7564 -0.4339
6109000000.0 0.1521 -0.8938
6112000000.0 -0.5854 -0.6651
6116000000.0 -0.8704 0.08362
6119000000.0 -0.4893 0.699
6122000000.0 0.2612 0.8186
6125000000.0 0.8043 0.325
6128000000.0 0.7401 -0.4274
6131000000.0 0.1226 -0.8559
6134000000.0 -0.568 -0.6273
6138000000.0 -0.8522 0.04198
6141000000.0 -0.4857 0.6969
6144000000.0 0.2082 0.8131
6147000000.0 0.7642 0.3188
6150000000.0 0.7026 -0.3551
6153000000.0 0.1811 -0.854
6156000000.0 -0.5467 -0.6515
6159000000.0 -0.8376 0.01059
6162000000.0 -0.5511 0.6555
6166000000.0 0.1672 0.8317
6169000000.0 0.7664 0.3667
6172000000.0 0.8008 -0.3587
6175000000.0 0.2417 -0.817
6178000000.0 -0.5155 -0.6906
6181000000.0 -0.893 -0.03417
6184000000.0 -0.5956 0.6641
6188000000.0 0.1678 0.8848
6191000000.0 0.7828 0.4113
6194000000.0 0.8244 -0.3172
6197000000.0 0.2969 -0.8147
6200000000.0 -0.496 -0.7726
6203000000.0 -0.874 -0.0966
6206000000.0 -0.6425 0.617
6209000000.0 0.05614 0.8778
6212000000.0 0.7586 0.4805
6216000000.0 0.8622 -0.2224
6219000000.0 0.3811 -0.8232
6222000000.0 -0.4208 -0.7763
6225000000.0 -0.8696 -0.1891
6228000000.0 -0.6881 0.5954
6231000000.0 -0.04018 0.8793
6234000000.0 0.6672 0.5704
6238000000.0 0.8716 -0.1777
6241000000.0 0.4207 -0.7898
6244000000.0 -0.3469 -0.788
6247000000.0 -0.8394 -0.2963
6250000000.0 -0.7116 0.4505
6253000000.0 -0.09175 0.8381
6256000000.0 0.5795 0.6222
6259000000.0 0.828 -0.02109
6262000000.0 0.5068 -0.657
6266000000.0 -0.1698 -0.8025
