! Created with skrf 1.8.0 (http://scikit-rf.org).
# Hz S RI R 50.0 
!freq ReS11 ImS11
4000000000.0 -0.6875 -1.338
4003000000.0 -1.475 -0.3005
4006000000.0 -1.19 0.9503
4009000000.0 0.01652 1.543
4012000000.0 1.179 1.014
4016000000.0 1.521 -0.3926
4019000000.0 0.6747 -1.414
4022000000.0 -0.7122 -1.472
4025000000.0 -1.555 -0.3348
4028000000.0 -1.317 1.073
4031000000.0 0.04052 1.613
4034000000.0 1.298 1.019
4038000000.0 1.627 -0.3847
4041000000.0 0.7374 -1.482
4044000000.0 -0.7297 -1.51
4047000000.0 -1.622 -0.3486
4050000000.0 -1.32 1.016
4053000000.0 -0.02109 1.626
4056000000.0 1.242 1.078
4059000000.0 1.619 -0.301
4062000000.0 0.7475 -1.456
4066000000.0 -0.6047 -1.506
4069000000.0 -1.542 -0.5366
4072000000.0 -1.358 0.8533
4075000000.0 -0.1947 1.624
4078000000.0 1.092 1.195
4081000000.0 1.628 -0.07622
4084000000.0 0.9296 -1.281
4088000000.0 -0.3766 -1.626
4091000000.0 -1.452 -0.7377
4094000000.0 -1.483 0.6344
4097000000.0 -0.4556 1.573
4100000000.0 0.9198 1.274
4103000000.0 1.536 0.1063
4106000000.0 1.061 -1.102
4109000000.0 -0.1732 -1.519
4112000000.0 -1.247 -0.8521
4116000000.0 -1.423 0.3631
4119000000.0 -0.6466 1.314
4122000000.0 0.5848 1.314
4125000000.0 1.375 0.3967
4128000000.0 1.18 -0.7683
4131000000.0 0.2087 -1.417
4134000000.0 -0.9655 -1.058
4138000000.0 -1.435 0.01942
4141000000.0 -0.8768 1.128
4144000000.0 0.3096 1.436
4147000000.0 1.333 0.6414
4150000000.0 1.352 -0.6064
4153000000.0 0.4114 -1.425
4156000000.0 -0.8131 -1.224
4159000000.0 -1.46 -0.1323
4162000000.0 -1.016 1.08
4166000000.0 0.2106 1.485
4169000000.0 1.277 0.7529
4172000000.0 1.37 -0.5116
4175000000.0 0.4631 -1.378
4178000000.0 -0.7925 -1.243
4181000000.0 -1.443 -0.1335
4184000000.0 -1.029 1.028
4188000000.0 0.1848 1.475
4191000000.0 1.302 0.7603
4194000000.0 1.398 -0.5369
4197000000.0 0.3774 -1.486
4200000000.0 -0.9269 -1.179
4203000000.0 -1.55 -0.01601
4206000000.0 -0.9591 1.244
4209000000.0 0.4682 1.463
4212000000.0 1.505 0.5144
4216000000.0 1.284 -0.8644
4219000000.0 0.04371 -1.577
4222000000.0 -1.206 -0.918
4225000000.0 -1.479 0.4524
4228000000.0 -0.4986 1.446
4231000000.0 0.8481 1.274
4234000000.0 1.477 0.09635
4238000000.0 0.9105 -1.121
4241000000.0 -0.3319 -1.419
4244000000.0 -1.285 -0.5546
4247000000.0 -1.292 0.6708
4250000000.0 -0.2142 1.37
4253000000.0 0.8916 1.045
4256000000.0 1.357 -0.07227
4259000000.0 0.8161 -1.122
4262000000.0 -0.3498 -1.319
4266000000.0 -1.298 -0.5405
4269000000.0 -1.186 0.6723
4272000000.0 -0.2154 1.312
4275000000.0 0.9234 1.022
4278000000.0 1.343 -0.1079
4281000000.0 0.7736 -1.133
4284000000.0 -0.4011 -1.266
4288000000.0 -1.239 -0.5135
4291000000.0 -1.2 0.619
4294000000.0 -0.2629 1.309
4297000000.0 0.8619 1.015
4300000000.0 1.324 0.05046
4303000000.0 0.8911 -1.004
4306000000.0 -0.2347 -1.331
4309000000.0 -1.142 -0.6894
4312000000.0 -1.279 0.4969
4316000000.0 -0.4851 1.271
4319000000.0 0.6632 1.197
4322000000.0 1.385 0.2244
4325000000.0 1.067 -0.9332
4328000000.0 -0.03702 -1.411
4331000000.0 -1.19 -0.892
4334000000.0 -1.439 0.355
4338000000.0 -0.5977 1.402
4341000000.0 0.7128 1.384
4344000000.0 1.507 0.2796
4347000000.0 1.157 -1.079
4350000000.0 -0.1148 -1.553
4353000000.0 -1.318 -0.9095
4356000000.0 -1.52 0.4899
4359000000.0 -0.532 1.506
4362000000.0 0.8806 1.29
4366000000.0 1.576 0.09073
4369000000.0 1.036 -1.149
4372000000.0 -0.2934 -1.52
4375000000.0 -1.378 -0.6632
4378000000.0 -1.315 0.6876
4381000000.0 -0.2538 1.467
4384000000.0 1.038 1.086
4388000000.0 1.482 -0.1643
4391000000.0 0.7513 -1.265
4394000000.0 -0.5732 -1.339
4397000000.0 -1.371 -0.3359
4400000000.0 -1.078 0.9185
4403000000.0 0.05455 1.377
4406000000.0 1.112 0.757
4409000000.0 1.274 -0.4415
4412000000.0 0.3923 -1.278
4416000000.0 -0.7462 -1.082
4419000000.0 -1.301 -0.07749
4422000000.0 -0.8236 0.9762
4425000000.0 0.2464 1.22
4428000000.0 1.105 0.5204
4431000000.0 1.135 -0.558
4434000000.0 0.2697 -1.218
4438000000.0 -0.7687 -0.95
4441000000.0 -1.245 0.01865
4444000000.0 -0.7611 0.9602
4447000000.0 0.285 1.221
4450000000.0 1.109 0.5437
4453000000.0 1.134 -0.5496
4456000000.0 0.3 -1.242
4459000000.0 -0.7984 -1.037
4462000000.0 -1.281 -0.0108
4466000000.0 -0.8444 0.985
4469000000.0 0.2644 1.311
4472000000.0 1.166 0.5985
4475000000.0 1.247 -0.5337
4478000000.0 0.3831 -1.264
4481000000.0 -0.769 -1.146
4484000000.0 -1.346 -0.1224
4488000000.0 -0.9492 1.022
4491000000.0 0.1735 1.422
4494000000.0 1.149 0.7477
4497000000.0 1.37 -0.4139
4500000000.0 0.5613 -1.333
4503000000.0 -0.6666 -1.213
4506000000.0 -1.369 -0.2729
4509000000.0 -1.084 0.9113
4512000000.0 0.02563 1.428
4516000000.0 1.124 0.9339
4519000000.0 1.402 -0.277
4522000000.0 0.6791 -1.278
4525000000.0 -0.5795 -1.351
4528000000.0 -1.427 -0.4049
4531000000.0 -1.208 0.8572
4534000000.0 -0.08827 1.5
4538000000.0 1.117 0.9888
4541000000.0 1.468 -0.2334
4544000000.0 0.7646 -1.247
4547000000.0 -0.4917 -1.377
4550000000.0 -1.369 -0.4633
4553000000.0 -1.233 0.7919
4556000000.0 -0.1432 1.433
4559000000.0 0.9851 1.015
4562000000.0 1.409 -0.1717
4566000000.0 0.7567 -1.205
4569000000.0 -0.4474 -1.336
4572000000.0 -1.311 -0.4534
4575000000.0 -1.15 0.7374
4578000000.0 -0.171 1.355
4581000000.0 1.004 0.9463
4584000000.0 1.358 -0.2179
4588000000.0 0.6444 -1.145
4591000000.0 -0.5019 -1.22
4594000000.0 -1.24 -0.3422
4597000000.0 -1.049 0.7565
4600000000.0 -0.02795 1.281
4603000000.0 0.9673 0.8039
4606000000.0 1.185 -0.275
4609000000.0 0.5137 -1.096
4612000000.0 -0.549 -1.049
4616000000.0 -1.144 -0.2053
4619000000.0 -0.8617 0.7791
4622000000.0 0.1054 1.148
4625000000.0 0.9509 0.6541
4628000000.0 1.098 -0.3392
4631000000.0 0.3911 -1.064
4634000000.0 -0.5934 -0.9572
4638000000.0 -1.129 -0.09531
4641000000.0 -0.7967 0.7894
4644000000.0 0.1396 1.127
4647000000.0 0.9603 0.5852
4650000000.0 1.028 -0.4058
4653000000.0 0.3261 -1.098
4656000000.0 -0.6558 -0.9579
4659000000.0 -1.133 -0.06831
4662000000.0 -0.7748 0.8288
4666000000.0 0.2071 1.143
4669000000.0 0.9777 0.5648
4672000000.0 1.08 -0.43
4675000000.0 0.3814 -1.107
4678000000.0 -0.6232 -0.9898
4681000000.0 -1.177 -0.1316
4684000000.0 -0.8445 0.8334
4688000000.0 0.06242 1.217
4691000000.0 0.9837 0.6774
4694000000.0 1.18 -0.3288
4697000000.0 0.5169 -1.123
4700000000.0 -0.5948 -1.128
4703000000.0 -1.283 -0.2553
4706000000.0 -1.05 0.8136
4709000000.0 -3.422e-05 1.352
4712000000.0 1.008 0.866
4716000000.0 1.328 -0.296
4719000000.0 0.6628 -1.238
4722000000.0 -0.5938 -1.25
4725000000.0 -1.351 -0.3117
4728000000.0 -1.131 0.8525
4731000000.0 -0.02455 1.413
4734000000.0 1.069 0.9309
4738000000.0 1.37 -0.2578
4741000000.0 0.6985 -1.224
4744000000.0 -0.5443 -1.267
4747000000.0 -1.35 -0.367
4750000000.0 -1.114 0.8017
4753000000.0 -0.06572 1.395
4756000000.0 1.06 0.9081
4759000000.0 1.39 -0.3001
4762000000.0 0.6412 -1.243
4766000000.0 -0.6211 -1.212
4769000000.0 -1.321 -0.2591
4772000000.0 -0.975 0.8957
4775000000.0 0.08765 1.295
4778000000.0 1.045 0.6917
4781000000.0 1.177 -0.4198
4784000000.0 0.3374 -1.15
4788000000.0 -0.6476 -0.9642
4791000000.0 -1.164 -0.03299
4794000000.0 -0.7125 0.8467
4797000000.0 0.2605 1.045
4800000000.0 0.9862 0.4509
4803000000.0 0.8825 -0.4684
4806000000.0 0.1279 -0.9631
4809000000.0 -0.6648 -0.7017
4812000000.0 -0.9425 0.1173
4816000000.0 -0.4638 0.7946
4819000000.0 0.3638 0.8227
4822000000.0 0.8919 0.2147
4825000000.0 0.7146 -0.5628
4828000000.0 -0.0563 -0.9343
4831000000.0 -0.7474 -0.5009
4834000000.0 -0.8452 0.2875
4838000000.0 -0.3053 0.8581
4841000000.0 0.4961 0.7693
4844000000.0 0.9183 0.07226
4847000000.0 0.6378 -0.6864
4850000000.0 -0.1374 -0.9536
4853000000.0 -0.8461 -0.4563
4856000000.0 -0.9046 0.367
4859000000.0 -0.2698 0.9275
4862000000.0 0.5862 0.8167
4866000000.0 1.008 0.06557
4869000000.0 0.6997 -0.7647
4872000000.0 -0.1715 -1.055
4875000000.0 -0.9607 -0.5207
4878000000.0 -1.041 0.4526
4881000000.0 -0.3052 1.098
4884000000.0 0.6954 0.9342
4888000000.0 1.19 0.01955
4891000000.0 0.7813 -0.9394
4894000000.0 -0.2941 -1.207
4897000000.0 -1.151 -0.5631
4900000000.0 -1.131 0.5944
4903000000.0 -0.2675 1.295
4906000000.0 0.8464 0.9886
4909000000.0 1.307 -0.07368
4912000000.0 0.7533 -1.089
4916000000.0 -0.3975 -1.264
4919000000.0 -1.237 -0.4746
4922000000.0 -1.091 0.6452
4925000000.0 -0.1635 1.3
4928000000.0 0.8703 0.9018
4931000000.0 1.262 -0.1281
4934000000.0 0.6258 -1.07
4938000000.0 -0.448 -1.183
4941000000.0 -1.163 -0.3654
4944000000.0 -1.001 0.6916
4947000000.0 -0.08049 1.169
4950000000.0 0.8921 0.7483
4953000000.0 1.134 -0.2006
4956000000.0 0.4832 -1.007
4959000000.0 -0.4966 -1.019
4962000000.0 -1.069 -0.2158
4966000000.0 -0.8115 0.6999
4969000000.0 0.05582 1.033
4972000000.0 0.8411 0.5903
4975000000.0 0.9304 -0.2747
4978000000.0 0.3566 -0.892
4981000000.0 -0.4667 -0.8168
4984000000.0 -0.9095 -0.1144
4988000000.0 -0.6596 0.6377
4991000000.0 0.08842 0.9109
4994000000.0 0.7752 0.4745
4997000000.0 0.8405 -0.3102
5000000000.0 0.2652 -0.8681
5003000000.0 -0.4917 -0.7562
5006000000.0 -0.9005 -0.04244
5009000000.0 -0.6333 0.6656
5012000000.0 0.1493 0.9043
5016000000.0 0.836 0.4429
5019000000.0 0.8626 -0.3957
5022000000.0 0.2584 -0.9299
5025000000.0 -0.567 -0.7886
5028000000.0 -0.9934 0.007531
5031000000.0 -0.6196 0.7582
5034000000.0 0.229 0.978
5038000000.0 0.9164 0.4437
5041000000.0 0.935 -0.4379
5044000000.0 0.2496 -1.012
5047000000.0 -0.6583 -0.8652
5050000000.0 -1.107 -0.04731
5053000000.0 -0.7101 0.8248
5056000000.0 0.2085 1.096
5059000000.0 1.007 0.5687
5062000000.0 1.129 -0.4114
5066000000.0 0.3331 -1.156
5069000000.0 -0.7061 -1.018
5072000000.0 -1.247 -0.07644
5075000000.0 -0.8331 0.9508
5078000000.0 0.2143 1.244
5081000000.0 1.063 0.6633
5084000000.0 1.177 -0.4267
5088000000.0 0.3866 -1.202
5091000000.0 -0.6618 -1.05
5094000000.0 -1.251 -0.1238
5097000000.0 -0.884 0.8619
5100000000.0 0.09044 1.257
5103000000.0 1.003 0.6896
5106000000.0 1.171 -0.3468
5109000000.0 0.5126 -1.113
5112000000.0 -0.5147 -1.094
5116000000.0 -1.151 -0.3012
5119000000.0 -0.9274 0.7187
5122000000.0 -0.07438 1.161
5125000000.0 0.8608 0.7812
5128000000.0 1.176 -0.1672
5131000000.0 0.6154 -0.991
5134000000.0 -0.384 -1.074
5138000000.0 -1.075 -0.4199
5141000000.0 -0.9769 0.5173
5144000000.0 -0.1674 1.055
5147000000.0 0.6815 0.8351
5150000000.0 1.065 0.01644
5153000000.0 0.6397 -0.8255
5156000000.0 -0.1915 -1.002
5159000000.0 -0.8961 -0.4786
5162000000.0 -0.9193 0.3697
5166000000.0 -0.3193 0.9371
5169000000.0 0.5297 0.831
5172000000.0 0.9549 0.1052
5175000000.0 0.7148 -0.6633
5178000000.0 -0.09248 -0.9573
5181000000.0 -0.7826 -0.5305
5184000000.0 -0.91 0.2723
5188000000.0 -0.346 0.8729
5191000000.0 0.4632 0.8127
5194000000.0 0.9438 0.1688
5197000000.0 0.7067 -0.6227
5200000000.0 -0.04991 -0.9701
5203000000.0 -0.7623 -0.556
5206000000.0 -0.8953 0.2523
5209000000.0 -0.3369 0.8776
5212000000.0 0.4781 0.7996
5216000000.0 0.9271 0.1463
5219000000.0 0.6817 -0.6391
5222000000.0 -0.06258 -0.9305
5225000000.0 -0.822 -0.4993
5228000000.0 -0.939 0.2848
5231000000.0 -0.3458 0.8964
5234000000.0 0.5189 0.8147
5238000000.0 0.971 0.08244
5241000000.0 0.6976 -0.7009
5244000000.0 -0.1255 -0.9762
5247000000.0 -0.815 -0.5212
5250000000.0 -0.9521 0.3261
5253000000.0 -0.3454 0.9461
5256000000.0 0.5563 0.8489
5259000000.0 0.9977 0.1306
5262000000.0 0.7215 -0.6899
5266000000.0 -0.07981 -1.026
5269000000.0 -0.8585 -0.582
5272000000.0 -1.008 0.3057
5275000000.0 -0.4062 0.9802
5278000000.0 0.4778 0.9284
5281000000.0 1.046 0.2393
5284000000.0 0.822 -0.6571
5288000000.0 0.03649 -1.052
5291000000.0 -0.7968 -0.714
5294000000.0 -1.049 0.1332
5297000000.0 -0.5491 0.9042
5300000000.0 0.3312 1.027
5303000000.0 1.039 0.4285
5306000000.0 0.9605 -0.5316
5309000000.0 0.2318 -1.105
5312000000.0 -0.6796 -0.8743
5316000000.0 -1.134 -0.05224
5319000000.0 -0.7735 0.8207
5322000000.0 0.1614 1.123
5325000000.0 0.9874 0.629
5328000000.0 1.129 -0.3189
5331000000.0 0.4932 -1.054
5334000000.0 -0.4848 -1.026
5338000000.0 -1.126 -0.2526
5341000000.0 -0.9169 0.6942
5344000000.0 -0.06514 1.13
5347000000.0 0.8436 0.8
5350000000.0 1.124 -0.1131
5353000000.0 0.6864 -0.9395
5356000000.0 -0.3121 -1.082
5359000000.0 -1.046 -0.4452
5362000000.0 -1.029 0.4892
5366000000.0 -0.2636 1.12
5369000000.0 0.7244 0.9297
5372000000.0 1.143 -0.009405
5375000000.0 0.747 -0.8456
5378000000.0 -0.1902 -1.114
5381000000.0 -0.9691 -0.53
5384000000.0 -1.049 0.4262
5388000000.0 -0.3468 1.065
5391000000.0 0.6137 0.9286
5394000000.0 1.063 0.09481
5397000000.0 0.7348 -0.7849
5400000000.0 -0.1334 -1.034
5403000000.0 -0.8984 -0.5173
5406000000.0 -0.9437 0.3704
5409000000.0 -0.3141 0.9794
5412000000.0 0.5516 0.8443
5416000000.0 0.9881 0.0789
5419000000.0 0.6855 -0.6769
5422000000.0 -0.1521 -0.9127
5425000000.0 -0.8267 -0.5096
5428000000.0 -0.8767 0.3272
5431000000.0 -0.2923 0.8808
5434000000.0 0.5447 0.7459
5438000000.0 0.9081 0.06723
5441000000.0 0.6132 -0.6907
5444000000.0 -0.2141 -0.8821
5447000000.0 -0.7777 -0.3909
5450000000.0 -0.8071 0.3851
5453000000.0 -0.223 0.8508
5456000000.0 0.5515 0.7042
5459000000.0 0.8876 0.03653
5462000000.0 0.5347 -0.6841
5466000000.0 -0.1538 -0.8575
5469000000.0 -0.7807 -0.3924
5472000000.0 -0.8005 0.3777
5475000000.0 -0.2234 0.8267
5478000000.0 0.5046 0.702
5481000000.0 0.8496 0.05013
5484000000.0 0.595 -0.6473
5488000000.0 -0.1478 -0.8763
5491000000.0 -0.7817 -0.4799
5494000000.0 -0.8457 0.2792
5497000000.0 -0.2849 0.8677
5500000000.0 0.4714 0.7723
5503000000.0 0.9056 0.1454
5506000000.0 0.7031 -0.6329
5509000000.0 -0.07357 -0.9318
5512000000.0 -0.7572 -0.5903
5516000000.0 -0.9494 0.179
5519000000.0 -0.4501 0.8299
5522000000.0 0.3799 0.9162
5525000000.0 0.9427 0.3058
5528000000.0 0.823 -0.4655
5531000000.0 0.1928 -0.9564
5534000000.0 -0.6704 -0.7672
5538000000.0 -0.9807 0.03316
5541000000.0 -0.6367 0.7622
5544000000.0 0.2253 1.04
5547000000.0 0.9324 0.5031
5550000000.0 0.9727 -0.3859
5553000000.0 0.3572 -1.005
5556000000.0 -0.5235 -0.8774
5559000000.0 -1.026 -0.1675
5562000000.0 -0.8104 0.6959
5566000000.0 0.01306 1.074
5569000000.0 0.836 0.6756
5572000000.0 1.039 -0.2286
5575000000.0 0.4821 -0.9234
5578000000.0 -0.3735 -0.9691
5581000000.0 -0.978 -0.3309
5584000000.0 -0.8894 0.5721
5588000000.0 -0.1298 1.049
5591000000.0 0.6897 0.7303
5594000000.0 1.013 -0.07454
5597000000.0 0.6255 -0.8028
5600000000.0 -0.243 -0.9695
5603000000.0 -0.8794 -0.436
5606000000.0 -0.889 0.4185
5609000000.0 -0.2616 0.9461
5612000000.0 0.5534 0.7794
5616000000.0 0.9496 0.07022
5619000000.0 0.6456 -0.7088
5622000000.0 -0.1105 -0.9193
5625000000.0 -0.7909 -0.4786
5628000000.0 -0.8711 0.3089
5631000000.0 -0.3118 0.874
5634000000.0 0.4585 0.7714
5638000000.0 0.908 0.1278
5641000000.0 0.6617 -0.6343
5644000000.0 -0.08701 -0.8789
5647000000.0 -0.7323 -0.5298
5650000000.0 -0.8659 0.2422
5653000000.0 -0.311 0.8217
5656000000.0 0.4558 0.757
5659000000.0 0.8769 0.119
5662000000.0 0.6337 -0.603
5666000000.0 -0.05737 -0.8779
5669000000.0 -0.7335 -0.4806
5672000000.0 -0.8356 0.262
5675000000.0 -0.2931 0.8326
5678000000.0 0.4464 0.7514
5681000000.0 0.8834 0.1274
5684000000.0 0.6547 -0.5927
5688000000.0 -0.07853 -0.8917
5691000000.0 -0.7678 -0.5018
5694000000.0 -0.8608 0.2764
5697000000.0 -0.3015 0.8719
5700000000.0 0.5111 0.7832
5703000000.0 0.9129 0.106
5706000000.0 0.6875 -0.6668
5709000000.0 -0.08537 -0.9596
5712000000.0 -0.812 -0.497
5716000000.0 -0.9268 0.3064
5719000000.0 -0.3455 0.9037
5722000000.0 0.5215 0.8713
5725000000.0 0.9941 0.1779
5728000000.0 0.732 -0.6761
5731000000.0 -0.03062 -0.976
5734000000.0 -0.7799 -0.5853
5738000000.0 -1.013 0.2389
5741000000.0 -0.447 0.9248
5744000000.0 0.4431 0.951
5747000000.0 1.019 0.2619
5750000000.0 0.8899 -0.6317
5753000000.0 0.06652 -1.038
5756000000.0 -0.7899 -0.7403
5759000000.0 -1.07 0.1215
5762000000.0 -0.5826 0.8661
5766000000.0 0.2995 1.038
5769000000.0 0.958 0.4184
5772000000.0 0.9255 -0.4786
5775000000.0 0.2278 -1.067
5778000000.0 -0.6645 -0.8937
5781000000.0 -1.102 -0.06078
5784000000.0 -0.7406 0.829
5788000000.0 0.1666 1.079
5791000000.0 0.9234 0.5634
5794000000.0 1.023 -0.3625
5797000000.0 0.3989 -0.985
5800000000.0 -0.5046 -0.9579
5803000000.0 -1.045 -0.2374
5806000000.0 -0.842 0.6905
5809000000.0 -0.018 1.073
5812000000.0 0.801 0.6916
5816000000.0 1.079 -0.195
5819000000.0 0.534 -0.9118
5822000000.0 -0.3499 -0.9499
5825000000.0 -0.9769 -0.3315
5828000000.0 -0.8967 0.5509
5831000000.0 -0.1812 1.051
5834000000.0 0.6923 0.7532
5838000000.0 1.032 -0.04511
5841000000.0 0.6432 -0.8697
5844000000.0 -0.2811 -0.9891
5847000000.0 -0.9087 -0.4415
5850000000.0 -0.8943 0.4547
5853000000.0 -0.2363 0.9634
5856000000.0 0.5771 0.7731
5859000000.0 0.9966 0.03366
5862000000.0 0.5992 -0.7255
5866000000.0 -0.1713 -0.9775
5869000000.0 -0.8412 -0.454
5872000000.0 -0.886 0.3733
5875000000.0 -0.2566 0.8516
5878000000.0 0.5444 0.7351
5881000000.0 0.8789 0.01987
5884000000.0 0.5939 -0.6702
5888000000.0 -0.1437 -0.8855
5891000000.0 -0.797 -0.4497
5894000000.0 -0.8326 0.3371
5897000000.0 -0.2256 0.7983
5900000000.0 0.4876 0.7277
5903000000.0 0.8537 0.082
5906000000.0 0.6395 -0.6278
5909000000.0 -0.1154 -0.8453
5912000000.0 -0.7267 -0.4856
5916000000.0 -0.8018 0.2865
5919000000.0 -0.3079 0.7919
5922000000.0 0.4183 0.6994
5925000000.0 0.8233 0.118
5928000000.0 0.6167 -0.5807
5931000000.0 -0.05892 -0.8482
5934000000.0 -0.6925 -0.4657
5938000000.0 -0.8584 0.2421
5941000000.0 -0.3737 0.8208
5944000000.0 0.3734 0.7646
5947000000.0 0.8318 0.2156
5950000000.0 0.6911 -0.5118
5953000000.0 0.05659 -0.8578
5956000000.0 -0.6592 -0.5814
5959000000.0 -0.8594 0.1272
5962000000.0 -0.4678 0.7242
5966000000.0 0.2732 0.8494
5969000000.0 0.8306 0.3422
5972000000.0 0.8119 -0.4479
5975000000.0 0.1971 -0.9012
5978000000.0 -0.5541 -0.7283
5981000000.0 -0.9228 -0.02078
5984000000.0 -0.6178 0.7218
5988000000.0 0.1182 0.9308
5991000000.0 0.7991 0.476
5994000000.0 0.8883 -0.3169
5997000000.0 0.3391 -0.8948
6000000000.0 -0.4894 -0.8427
6003000000.0 -0.9215 -0.1599
6006000000.0 -0.7318 0.612
6009000000.0 0.0002844 0.9644
6012000000.0 0.778 0.6343
6016000000.0 0.9596 -0.1882
6019000000.0 0.4779 -0.8671
6022000000.0 -0.377 -0.9235
6025000000.0 -0.9262 -0.2993
6028000000.0 -0.8279 0.5381
6031000000.0 -0.1007 1.005
6034000000.0 0.7168 0.7137
6038000000.0 0.9789 -0.05977
6041000000.0 0.5868 -0.8197
6044000000.0 -0.2764 -0.9806
6047000000.0 -0.9294 -0.3879
6050000000.0 -0.8858 0.4455
6053000000.0 -0.1916 0.9809
6056000000.0 0.6287 0.7568
6059000000.0 0.9651 0.003279
6062000000.0 0.5935 -0.7689
6066000000.0 -0.2178 -0.928
6069000000.0 -0.8443 -0.4336
6072000000.0 -0.8641 0.4053
6075000000.0 -0.2135 0.9248
6078000000.0 0.5553 0.7659
6081000000.0 0.9324 0.02075
6084000000.0 0.6357 -0.7096
6088000000.0 -0.1651 -0.9089
6091000000.0 -0.7649 -0.4494
6094000000.0 -0.8548 0.3402
6097000000.0 -0.2586 0.8263
6100000000.0 0.4718 0.7417
6103000000.0 0.8704 0.08155
6106000000.0 0.6273 -0.6364
6109000000.0 -0.08673 -0.8818
6112000000.0 -0.7503 -0.4495
6116000000.0 -0.8218 0.2588
6119000000.0 -0.2684 0.8169
6122000000.0 0.4675 0.7309
6125000000.0 0.8501 0.1
6128000000.0 0.6346 -0.5987
6131000000.0 -0.08872 -0.8654
6134000000.0 -0.6814 -0.4854
6138000000.0 -0.8108 0.2675
6141000000.0 -0.3219 0.7801
6144000000.0 0.3918 0.759
6147000000.0 0.8238 0.1555
6150000000.0 0.6339 -0.5735
6153000000.0 -0.0301 -0.8411
6156000000.0 -0.6958 -0.4922
6159000000.0 -0.8474 0.2263
6162000000.0 -0.3742 0.7725
6166000000.0 0.3984 0.7629
6169000000.0 0.8527 0.1813
6172000000.0 0.6861 -0.5389
6175000000.0 0.03604 -0.88
6178000000.0 -0.6682 -0.5727
6181000000.0 -0.8627 0.1755
6184000000.0 -0.445 0.7764
6188000000.0 0.3462 0.8251
6191000000.0 0.8747 0.2534
6194000000.0 0.7268 -0.486
6197000000.0 0.081 -0.8736
6200000000.0 -0.6505 -0.6514
6203000000.0 -0.9105 0.08692
6206000000.0 -0.4879 0.7316
6209000000.0 0.2608 0.8813
6212000000.0 0.8244 0.3401
6216000000.0 0.8148 -0.4469
6219000000.0 0.1951 -0.8962
6222000000.0 -0.5713 -0.7151
6225000000.0 -0.8968 -0.006841
6228000000.0 -0.5626 0.7185
6231000000.0 0.1474 0.8831
6234000000.0 0.7636 0.4577
6238000000.0 0.836 -0.3235
6241000000.0 0.2422 -0.8424
6244000000.0 -0.4658 -0.7164
6247000000.0 -0.8634 -0.1347
6250000000.0 -0.6292 0.578
6253000000.0 0.01767 0.8257
6256000000.0 0.6292 0.4527
6259000000.0 0.804 -0.1873
6262000000.0 0.3777 -0.7293
