! Created with skrf 1.8.0 (http://scikit-rf.org).
# Hz S RI R 50.0 
!freq ReS11 ImS11
4000000000.0 -0.1878 -1.532
4003000000.0 -1.287 -0.7892
4006000000.0 -1.397 0.5024
4009000000.0 -0.5071 1.39
4012000000.0 0.8076 1.318
4016000000.0 1.58 0.1946
4019000000.0 1.105 -1.019
4022000000.0 -0.1684 -1.578
4025000000.0 -1.339 -0.8761
4028000000.0 -1.546 0.5022
4031000000.0 -0.5827 1.53
4034000000.0 0.8483 1.385
4038000000.0 1.644 0.2088
4041000000.0 1.192 -1.124
4044000000.0 -0.1957 -1.633
4047000000.0 -1.428 -0.8936
4050000000.0 -1.593 0.5111
4053000000.0 -0.6163 1.542
4056000000.0 0.7855 1.465
4059000000.0 1.643 0.2976
4062000000.0 1.224 -1.081
4066000000.0 0.005914 -1.654
4069000000.0 -1.26 -1.015
4072000000.0 -1.619 0.3145
4075000000.0 -0.8178 1.436
4078000000.0 0.567 1.578
4081000000.0 1.595 0.5434
4084000000.0 1.402 -0.8421
4088000000.0 0.2108 -1.687
4091000000.0 -1.126 -1.237
4094000000.0 -1.66 0.1195
4097000000.0 -0.9832 1.349
4100000000.0 0.4312 1.595
4103000000.0 1.444 0.6827
4106000000.0 1.468 -0.6532
4109000000.0 0.4352 -1.52
4112000000.0 -0.9017 -1.281
4116000000.0 -1.557 -0.138
4119000000.0 -1.117 1.078
4122000000.0 0.05148 1.492
4125000000.0 1.169 0.9743
4128000000.0 1.497 -0.2663
4131000000.0 0.7507 -1.272
4134000000.0 -0.4849 -1.407
4138000000.0 -1.394 -0.5689
4141000000.0 -1.29 0.659
4144000000.0 -0.3806 1.483
4147000000.0 0.9008 1.251
4150000000.0 1.542 0.09404
4153000000.0 1.043 -1.109
4156000000.0 -0.1732 -1.494
4159000000.0 -1.269 -0.8779
4162000000.0 -1.466 0.4132
4166000000.0 -0.6235 1.379
4169000000.0 0.6738 1.38
4172000000.0 1.449 0.3733
4175000000.0 1.238 -0.8697
4178000000.0 0.1138 -1.496
4181000000.0 -1.065 -1.1
4184000000.0 -1.514 0.17
4188000000.0 -0.8679 1.277
4191000000.0 0.4421 1.522
4194000000.0 1.425 0.5996
4197000000.0 1.435 -0.7321
4200000000.0 0.3289 -1.564
4203000000.0 -0.9939 -1.268
4206000000.0 -1.612 0.01105
4209000000.0 -1.011 1.326
4212000000.0 0.4129 1.641
4216000000.0 1.581 0.657
4219000000.0 1.483 -0.8273
4222000000.0 0.2191 -1.688
4225000000.0 -1.194 -1.223
4228000000.0 -1.688 0.2055
4231000000.0 -0.8782 1.468
4234000000.0 0.6075 1.541
4238000000.0 1.638 0.4465
4241000000.0 1.237 -0.9868
4244000000.0 -0.009117 -1.64
4247000000.0 -1.272 -0.9802
4250000000.0 -1.552 0.4088
4253000000.0 -0.6291 1.44
4256000000.0 0.7721 1.383
4259000000.0 1.544 0.2718
4262000000.0 1.095 -1.034
4266000000.0 -0.1364 -1.519
4269000000.0 -1.326 -0.7974
4272000000.0 -1.431 0.52
4275000000.0 -0.472 1.393
4278000000.0 0.8292 1.173
4281000000.0 1.436 0.1042
4284000000.0 0.952 -1.021
4288000000.0 -0.1768 -1.392
4291000000.0 -1.223 -0.7044
4294000000.0 -1.25 0.4953
4297000000.0 -0.4154 1.301
4300000000.0 0.7031 1.147
4303000000.0 1.304 0.2065
4306000000.0 0.9491 -0.8641
4309000000.0 -0.06645 -1.32
4312000000.0 -1.008 -0.8178
4316000000.0 -1.262 0.2638
4319000000.0 -0.62 1.163
4322000000.0 0.4722 1.258
4325000000.0 1.222 0.4827
4328000000.0 1.172 -0.6772
4331000000.0 0.2288 -1.37
4334000000.0 -0.908 -1.044
4338000000.0 -1.417 0.04722
4341000000.0 -0.8959 1.105
4344000000.0 0.2716 1.394
4347000000.0 1.272 0.6736
4350000000.0 1.382 -0.5307
4353000000.0 0.4459 -1.403
4356000000.0 -0.7464 -1.207
4359000000.0 -1.462 -0.1862
4362000000.0 -1.087 1.007
4366000000.0 0.1028 1.508
4369000000.0 1.212 0.8934
4372000000.0 1.425 -0.3837
4375000000.0 0.6286 -1.325
4378000000.0 -0.651 -1.374
4381000000.0 -1.486 -0.3788
4384000000.0 -1.28 0.9344
4388000000.0 -0.1108 1.556
4391000000.0 1.16 1.056
4394000000.0 1.548 -0.2527
4397000000.0 0.8131 -1.372
4400000000.0 -0.5835 -1.535
4403000000.0 -1.539 -0.4866
4406000000.0 -1.316 0.9113
4409000000.0 -0.06986 1.611
4412000000.0 1.196 1.038
4416000000.0 1.534 -0.3189
4419000000.0 0.6971 -1.379
4422000000.0 -0.6398 -1.406
4425000000.0 -1.49 -0.3649
4428000000.0 -1.127 0.9494
4431000000.0 0.02231 1.469
4434000000.0 1.141 0.8657
4438000000.0 1.358 -0.3628
4441000000.0 0.5514 -1.293
4444000000.0 -0.6594 -1.243
4447000000.0 -1.356 -0.1859
4450000000.0 -1.003 0.9203
4453000000.0 0.1264 1.345
4456000000.0 1.121 0.6714
4459000000.0 1.189 -0.4461
4462000000.0 0.3635 -1.201
4466000000.0 -0.7167 -1.042
4469000000.0 -1.205 -0.05244
4472000000.0 -0.7721 0.9232
4475000000.0 0.2658 1.163
4478000000.0 1.062 0.504
4481000000.0 1.074 -0.4935
4484000000.0 0.2434 -1.141
4488000000.0 -0.7332 -0.9023
4491000000.0 -1.129 0.04242
4494000000.0 -0.7068 0.9236
4497000000.0 0.253 1.122
4500000000.0 1.043 0.5163
4503000000.0 0.9883 -0.4734
4506000000.0 0.2683 -1.06
4509000000.0 -0.6709 -0.8793
4512000000.0 -1.094 -0.05418
4516000000.0 -0.7369 0.8728
4519000000.0 0.1954 1.121
4522000000.0 1.029 0.5435
4525000000.0 1.078 -0.4512
4528000000.0 0.3326 -1.096
4531000000.0 -0.6438 -0.9734
4534000000.0 -1.167 -0.1295
4538000000.0 -0.8604 0.8485
4541000000.0 0.1102 1.177
4544000000.0 0.987 0.6904
4547000000.0 1.179 -0.3545
4550000000.0 0.5281 -1.112
4553000000.0 -0.5344 -1.131
4556000000.0 -1.215 -0.3303
4559000000.0 -1.003 0.7192
4562000000.0 -0.08896 1.254
4566000000.0 0.9084 0.8665
4569000000.0 1.266 -0.1313
4572000000.0 0.7251 -1.073
4575000000.0 -0.3575 -1.26
4578000000.0 -1.206 -0.5324
4581000000.0 -1.228 0.5994
4584000000.0 -0.3235 1.309
4588000000.0 0.8184 1.09
4591000000.0 1.379 0.06649
4594000000.0 0.9331 -1.028
4597000000.0 -0.2067 -1.389
4600000000.0 -1.221 -0.7387
4603000000.0 -1.367 0.4437
4606000000.0 -0.4715 1.318
4609000000.0 0.7146 1.201
4612000000.0 1.4 0.191
4616000000.0 1.051 -0.93
4619000000.0 -0.0689 -1.424
4622000000.0 -1.145 -0.8467
4625000000.0 -1.361 0.3692
4628000000.0 -0.5465 1.32
4631000000.0 0.6168 1.253
4634000000.0 1.4 0.3105
4638000000.0 1.059 -0.8636
4641000000.0 0.007844 -1.391
4644000000.0 -1.065 -0.8538
4647000000.0 -1.302 0.2813
4650000000.0 -0.5658 1.21
4653000000.0 0.5861 1.208
4656000000.0 1.292 0.2724
4659000000.0 0.9771 -0.7974
4662000000.0 -0.03199 -1.264
4666000000.0 -0.9991 -0.783
4669000000.0 -1.164 0.2997
4672000000.0 -0.5075 1.102
4675000000.0 0.5523 1.017
4678000000.0 1.142 0.2392
4681000000.0 0.8537 -0.7462
4684000000.0 -0.02557 -1.128
4688000000.0 -0.8888 -0.6789
4691000000.0 -1.083 0.2641
4694000000.0 -0.467 1.04
4697000000.0 0.5112 0.9698
4700000000.0 1.112 0.2352
4703000000.0 0.8431 -0.7184
4706000000.0 -0.04319 -1.078
4709000000.0 -0.8781 -0.6596
4712000000.0 -1.032 0.3049
4716000000.0 -0.4179 0.9769
4719000000.0 0.5068 0.9474
4722000000.0 1.05 0.1949
4725000000.0 0.8176 -0.723
4728000000.0 -0.05022 -1.015
4731000000.0 -0.8171 -0.6625
4734000000.0 -1.005 0.2286
4738000000.0 -0.4839 0.9359
4741000000.0 0.4379 0.9668
4744000000.0 1.018 0.3134
4747000000.0 0.8949 -0.6341
4750000000.0 0.09058 -1.074
4753000000.0 -0.7771 -0.7809
4756000000.0 -1.083 0.09124
4759000000.0 -0.6489 0.9267
4762000000.0 0.3078 1.103
4766000000.0 1.047 0.4744
4769000000.0 1.055 -0.5213
4772000000.0 0.2785 -1.158
4775000000.0 -0.7084 -0.9595
4778000000.0 -1.205 -0.07263
4781000000.0 -0.8259 0.8634
4784000000.0 0.1374 1.194
4788000000.0 1.027 0.6907
4791000000.0 1.22 -0.3481
4794000000.0 0.5236 -1.14
4797000000.0 -0.5642 -1.153
4800000000.0 -1.252 -0.3516
4803000000.0 -1.049 0.7443
4806000000.0 -0.1244 1.256
4809000000.0 0.892 0.934
4812000000.0 1.289 -0.1052
4816000000.0 0.7741 -1.095
4819000000.0 -0.3795 -1.299
4822000000.0 -1.241 -0.5672
4825000000.0 -1.252 0.5823
4828000000.0 -0.3329 1.356
4831000000.0 0.8411 1.085
4834000000.0 1.421 0.02271
4838000000.0 0.9418 -1.057
4841000000.0 -0.2182 -1.39
4844000000.0 -1.245 -0.7311
4847000000.0 -1.342 0.4883
4850000000.0 -0.4431 1.353
4853000000.0 0.7537 1.192
4856000000.0 1.398 0.1716
4859000000.0 1.017 -0.9658
4862000000.0 -0.09333 -1.337
4866000000.0 -1.091 -0.7806
4869000000.0 -1.282 0.4021
4872000000.0 -0.549 1.225
4875000000.0 0.6095 1.137
4878000000.0 1.279 0.2335
4881000000.0 0.9895 -0.8238
4884000000.0 -0.0453 -1.265
4888000000.0 -0.9759 -0.7268
4891000000.0 -1.18 0.2598
4894000000.0 -0.4731 1.072
4897000000.0 0.5078 1.063
4900000000.0 1.145 0.2269
4903000000.0 0.8949 -0.7115
4906000000.0 -0.009774 -1.109
4909000000.0 -0.8029 -0.6794
4912000000.0 -1.037 0.2328
4916000000.0 -0.4841 0.8868
4919000000.0 0.4043 0.9045
4922000000.0 0.9645 0.2928
4925000000.0 0.8445 -0.537
4928000000.0 0.1093 -0.9491
4931000000.0 -0.6779 -0.6613
4934000000.0 -0.9618 0.09229
4938000000.0 -0.5093 0.8035
4941000000.0 0.284 0.8911
4944000000.0 0.8629 0.3657
4947000000.0 0.8242 -0.4489
4950000000.0 0.1889 -0.9468
4953000000.0 -0.6124 -0.7456
4956000000.0 -0.9901 0.0035
4959000000.0 -0.5946 0.7545
4962000000.0 0.212 0.9783
4966000000.0 0.9209 0.4235
4969000000.0 0.9298 -0.4085
4972000000.0 0.275 -0.9957
4975000000.0 -0.5997 -0.8306
4978000000.0 -1.018 -0.09067
4981000000.0 -0.7171 0.7579
4984000000.0 0.1334 1.067
4988000000.0 0.9013 0.571
4991000000.0 1.037 -0.3416
4994000000.0 0.3963 -1.004
4997000000.0 -0.5455 -1.011
5000000000.0 -1.12 -0.2538
5003000000.0 -0.9321 0.7452
5006000000.0 -0.03573 1.2
5009000000.0 0.8855 0.787
5012000000.0 1.219 -0.2036
5016000000.0 0.6176 -1.093
5019000000.0 -0.4838 -1.167
5022000000.0 -1.227 -0.3986
5025000000.0 -1.082 0.6721
5028000000.0 -0.1756 1.284
5031000000.0 0.8827 0.9563
5034000000.0 1.318 -0.05981
5038000000.0 0.7709 -1.053
5041000000.0 -0.3259 -1.26
5044000000.0 -1.161 -0.5484
5047000000.0 -1.182 0.5348
5050000000.0 -0.3468 1.29
5053000000.0 0.7158 1.084
5056000000.0 1.317 0.1356
5059000000.0 0.9267 -0.9193
5062000000.0 -0.1282 -1.303
5066000000.0 -1.06 -0.7892
5069000000.0 -1.239 0.3396
5072000000.0 -0.5554 1.178
5075000000.0 0.5521 1.143
5078000000.0 1.232 0.2858
5081000000.0 1.057 -0.7707
5084000000.0 0.08257 -1.249
5088000000.0 -0.9004 -0.8379
5091000000.0 -1.227 0.1239
5094000000.0 -0.6252 0.9963
5097000000.0 0.3555 1.105
5100000000.0 1.081 0.4528
5103000000.0 1.046 -0.4968
5106000000.0 0.268 -1.12
5109000000.0 -0.6723 -0.8897
5112000000.0 -1.08 -0.0469
5116000000.0 -0.7476 0.8281
5119000000.0 0.1415 1.068
5122000000.0 0.898 0.5859
5125000000.0 0.9756 -0.2871
5128000000.0 0.3881 -0.956
5131000000.0 -0.4925 -0.8916
5134000000.0 -0.9941 -0.1764
5138000000.0 -0.7596 0.6138
5141000000.0 -0.01413 0.9645
5144000000.0 0.7657 0.5864
5147000000.0 0.9284 -0.1775
5150000000.0 0.4304 -0.8788
5153000000.0 -0.3407 -0.8536
5156000000.0 -0.8987 -0.28
5159000000.0 -0.7488 0.534
5162000000.0 -0.07191 0.9093
5166000000.0 0.6545 0.6277
5169000000.0 0.9168 -0.1097
5172000000.0 0.507 -0.7875
5175000000.0 -0.2959 -0.8624
5178000000.0 -0.8445 -0.3078
5181000000.0 -0.8065 0.4838
5184000000.0 -0.09134 0.9506
5188000000.0 0.6547 0.6747
5191000000.0 0.9128 -0.08103
5194000000.0 0.5084 -0.789
5197000000.0 -0.2945 -0.9161
5200000000.0 -0.8956 -0.3121
5203000000.0 -0.8242 0.4989
5206000000.0 -0.1298 0.9621
5209000000.0 0.6709 0.7204
5212000000.0 0.9825 -0.07831
5216000000.0 0.5579 -0.811
5219000000.0 -0.2659 -0.9642
5222000000.0 -0.9258 -0.3848
5225000000.0 -0.9006 0.4544
5228000000.0 -0.2101 1.017
5231000000.0 0.6614 0.7924
5234000000.0 1.026 -0.03042
5238000000.0 0.6808 -0.8411
5241000000.0 -0.2086 -1.042
5244000000.0 -0.9349 -0.501
5247000000.0 -1.007 0.4137
5250000000.0 -0.3066 1.052
5253000000.0 0.59 0.9345
5256000000.0 1.082 0.1307
5259000000.0 0.7777 -0.7365
5262000000.0 -0.05078 -1.102
5266000000.0 -0.858 -0.6769
5269000000.0 -1.084 0.2486
5272000000.0 -0.5107 0.9768
5275000000.0 0.4309 1.029
5278000000.0 1.04 0.355
5281000000.0 0.9131 -0.5811
5284000000.0 0.161 -1.117
5288000000.0 -0.7114 -0.8484
5291000000.0 -1.11 0.01824
5294000000.0 -0.7298 0.8648
5297000000.0 0.1949 1.114
5300000000.0 0.965 0.5705
5303000000.0 1.076 -0.3865
5306000000.0 0.4248 -1.072
5309000000.0 -0.5606 -0.9959
5312000000.0 -1.129 -0.1998
5316000000.0 -0.9089 0.7117
5319000000.0 -0.02293 1.149
5322000000.0 0.8656 0.7666
5325000000.0 1.163 -0.1912
5328000000.0 0.5975 -1.03
5331000000.0 -0.4098 -1.111
5334000000.0 -1.077 -0.3817
5338000000.0 -0.9912 0.591
5341000000.0 -0.1572 1.124
5344000000.0 0.7353 0.8344
5347000000.0 1.119 -0.05985
5350000000.0 0.6305 -0.8836
5353000000.0 -0.2581 -1.08
5356000000.0 -0.9693 -0.4765
5359000000.0 -0.9973 0.5024
5362000000.0 -0.2549 1.053
5366000000.0 0.6634 0.8531
5369000000.0 1.07 0.02624
5372000000.0 0.6576 -0.7972
5375000000.0 -0.1702 -0.9907
5378000000.0 -0.9295 -0.4575
5381000000.0 -0.9158 0.4064
5384000000.0 -0.2168 0.976
5388000000.0 0.5964 0.7754
5391000000.0 0.9844 -0.01254
5394000000.0 0.5757 -0.7329
5397000000.0 -0.2342 -0.9173
5400000000.0 -0.8725 -0.3898
5403000000.0 -0.8044 0.4027
5406000000.0 -0.1709 0.8838
5409000000.0 0.5808 0.7027
5412000000.0 0.8902 -0.008947
5416000000.0 0.562 -0.7008
5419000000.0 -0.2175 -0.8723
5422000000.0 -0.7715 -0.4061
5425000000.0 -0.7882 0.3957
5428000000.0 -0.1977 0.8682
5431000000.0 0.5691 0.7011
5434000000.0 0.8727 -0.01745
5438000000.0 0.5383 -0.7312
5441000000.0 -0.2216 -0.8577
5444000000.0 -0.8017 -0.3637
5447000000.0 -0.8049 0.3872
5450000000.0 -0.198 0.8997
5453000000.0 0.5456 0.7087
5456000000.0 0.8969 0.02068
5459000000.0 0.5757 -0.7001
5462000000.0 -0.1804 -0.8953
5466000000.0 -0.8197 -0.4346
5469000000.0 -0.8978 0.3163
5472000000.0 -0.3212 0.8944
5475000000.0 0.5003 0.8221
5478000000.0 0.9339 0.1329
5481000000.0 0.7392 -0.6409
5484000000.0 -0.02464 -1.002
5488000000.0 -0.7727 -0.6295
5491000000.0 -0.9873 0.1955
5494000000.0 -0.4703 0.9048
5497000000.0 0.358 0.9442
5500000000.0 0.9656 0.3189
5503000000.0 0.8905 -0.5415
5506000000.0 0.146 -1.044
5509000000.0 -0.6823 -0.7747
5512000000.0 -1.089 0.05683
5516000000.0 -0.642 0.8382
5519000000.0 0.2334 1.035
5522000000.0 0.9269 0.5325
5525000000.0 1.017 -0.3451
5528000000.0 0.3785 -1.003
5531000000.0 -0.5517 -0.8909
5534000000.0 -1.04 -0.182
5538000000.0 -0.8018 0.7032
5541000000.0 0.05229 1.086
5544000000.0 0.8154 0.6901
5547000000.0 1.062 -0.1963
5550000000.0 0.5113 -0.9669
5553000000.0 -0.3819 -0.9906
5556000000.0 -1.015 -0.3159
5559000000.0 -0.8788 0.602
5562000000.0 -0.1171 1.048
5566000000.0 0.6947 0.7771
5569000000.0 1.05 -0.06796
5572000000.0 0.5978 -0.8527
5575000000.0 -0.2678 -0.9836
5578000000.0 -0.9121 -0.4534
5581000000.0 -0.9127 0.4219
5584000000.0 -0.2519 0.9584
5588000000.0 0.5713 0.7865
5591000000.0 0.9544 0.04244
5594000000.0 0.6532 -0.6884
5597000000.0 -0.1354 -0.9466
5600000000.0 -0.8105 -0.4508
5603000000.0 -0.8961 0.3058
5606000000.0 -0.3054 0.875
5609000000.0 0.4845 0.7578
5612000000.0 0.8699 0.1142
5616000000.0 0.6218 -0.6027
5619000000.0 -0.07422 -0.8701
5622000000.0 -0.6809 -0.4762
5625000000.0 -0.8177 0.2496
5628000000.0 -0.304 0.7997
5631000000.0 0.4158 0.7474
5634000000.0 0.8251 0.1568
5638000000.0 0.6469 -0.5445
5641000000.0 -0.05627 -0.827
5644000000.0 -0.6714 -0.4675
5647000000.0 -0.8184 0.2342
5650000000.0 -0.3325 0.7591
5653000000.0 0.4106 0.7503
5656000000.0 0.8402 0.1482
5659000000.0 0.6685 -0.5687
5662000000.0 -0.05961 -0.8713
5666000000.0 -0.7197 -0.5083
5669000000.0 -0.8614 0.2476
5672000000.0 -0.3728 0.8459
5675000000.0 0.4551 0.8152
5678000000.0 0.9167 0.1735
5681000000.0 0.7256 -0.6116
5684000000.0 0.0194 -0.9741
5688000000.0 -0.7419 -0.58
5691000000.0 -0.9591 0.2205
5694000000.0 -0.4379 0.8808
5697000000.0 0.4144 0.9178
5700000000.0 0.981 0.2447
5703000000.0 0.8262 -0.6289
5706000000.0 0.02384 -1.021
5709000000.0 -0.7635 -0.7039
5712000000.0 -1.029 0.1459
5716000000.0 -0.5503 0.9175
5719000000.0 0.3509 1.015
5722000000.0 1.002 0.3667
5725000000.0 0.9536 -0.5465
5728000000.0 0.186 -1.068
5731000000.0 -0.7118 -0.8144
5734000000.0 -1.124 -0.006021
5738000000.0 -0.6809 0.8448
5741000000.0 0.2347 1.11
5744000000.0 0.9866 0.5015
5747000000.0 1.034 -0.4547
5750000000.0 0.3415 -1.085
5753000000.0 -0.6005 -0.9286
5756000000.0 -1.139 -0.1439
5759000000.0 -0.8132 0.7865
5762000000.0 0.07233 1.099
5766000000.0 0.8943 0.6843
5769000000.0 1.077 -0.2832
5772000000.0 0.5286 -1.011
5775000000.0 -0.4758 -1.025
5778000000.0 -1.078 -0.3229
5781000000.0 -0.9377 0.632
5784000000.0 -0.114 1.115
5788000000.0 0.7698 0.785
5791000000.0 1.105 -0.08942
5794000000.0 0.5996 -0.8873
5797000000.0 -0.2928 -1.047
5800000000.0 -0.9937 -0.4539
5803000000.0 -0.9905 0.4682
5806000000.0 -0.2528 1.045
5809000000.0 0.6303 0.8467
5812000000.0 1.084 0.03528
5816000000.0 0.6819 -0.7697
5819000000.0 -0.1539 -1.01
5822000000.0 -0.9192 -0.4904
5825000000.0 -0.941 0.3614
5828000000.0 -0.3243 0.9448
5831000000.0 0.5175 0.8555
5834000000.0 0.9891 0.0965
5838000000.0 0.7039 -0.6813
5841000000.0 -0.09991 -0.9641
5844000000.0 -0.8046 -0.5535
5847000000.0 -0.8979 0.2937
5850000000.0 -0.3237 0.8894
5853000000.0 0.4553 0.7727
5856000000.0 0.8994 0.168
5859000000.0 0.6764 -0.6235
5862000000.0 -0.05035 -0.8825
5866000000.0 -0.7523 -0.5464
5869000000.0 -0.885 0.2305
5872000000.0 -0.3225 0.8226
5875000000.0 0.4047 0.7866
5878000000.0 0.8675 0.162
5881000000.0 0.6356 -0.6056
5884000000.0 -0.02021 -0.8917
5888000000.0 -0.6988 -0.5116
5891000000.0 -0.8582 0.2085
5894000000.0 -0.3465 0.7829
5897000000.0 0.3772 0.8101
5900000000.0 0.8497 0.2189
5903000000.0 0.6853 -0.5056
5906000000.0 0.03915 -0.8909
5909000000.0 -0.651 -0.5836
5912000000.0 -0.861 0.1534
5916000000.0 -0.4108 0.7443
5919000000.0 0.3406 0.8465
5922000000.0 0.8565 0.292
5925000000.0 0.7248 -0.4895
5928000000.0 0.09362 -0.906
5931000000.0 -0.6448 -0.664
5934000000.0 -0.9171 0.06481
5938000000.0 -0.5314 0.7197
5941000000.0 0.1962 0.9025
5944000000.0 0.8352 0.3696
5947000000.0 0.8626 -0.3652
5950000000.0 0.2328 -0.8572
5953000000.0 -0.5571 -0.7819
5956000000.0 -0.9132 -0.1084
5959000000.0 -0.659 0.6781
5962000000.0 0.1153 0.9455
5966000000.0 0.7863 0.556
5969000000.0 0.9672 -0.2617
5972000000.0 0.4377 -0.9003
5975000000.0 -0.4343 -0.868
5978000000.0 -0.9334 -0.2336
5981000000.0 -0.8007 0.5849
5984000000.0 -0.0452 0.9835
5988000000.0 0.7101 0.6945
5991000000.0 0.9816 -0.1158
5994000000.0 0.5687 -0.8628
5997000000.0 -0.3307 -0.9863
6000000000.0 -0.9531 -0.3959
6003000000.0 -0.8981 0.4762
6006000000.0 -0.2031 0.9854
6009000000.0 0.668 0.7625
6012000000.0 1.018 0.03126
6016000000.0 0.6324 -0.7648
6019000000.0 -0.2173 -0.993
6022000000.0 -0.8728 -0.4636
6025000000.0 -0.9244 0.3931
6028000000.0 -0.2752 0.9768
6031000000.0 0.5704 0.8211
6034000000.0 0.9702 0.06548
6038000000.0 0.6479 -0.7007
6041000000.0 -0.1153 -0.9397
6044000000.0 -0.8366 -0.5166
6047000000.0 -0.9162 0.3105
6050000000.0 -0.339 0.8934
6053000000.0 0.5185 0.8043
6056000000.0 0.9155 0.1083
6059000000.0 0.6738 -0.6365
6062000000.0 -0.1006 -0.9033
6066000000.0 -0.7732 -0.5179
6069000000.0 -0.8742 0.269
6072000000.0 -0.333 0.8099
6075000000.0 0.4244 0.7678
6078000000.0 0.8361 0.1755
6081000000.0 0.6326 -0.5886
6084000000.0 -0.02339 -0.8506
6088000000.0 -0.69 -0.5032
6091000000.0 -0.8287 0.2146
6094000000.0 -0.3776 0.7789
6097000000.0 0.353 0.7773
6100000000.0 0.8156 0.2061
6103000000.0 0.6761 -0.5522
6106000000.0 -0.001653 -0.8469
6109000000.0 -0.6791 -0.5689
6112000000.0 -0.8478 0.1909
6116000000.0 -0.3984 0.7905
6119000000.0 0.3533 0.809
6122000000.0 0.8565 0.2093
6125000000.0 0.7081 -0.501
6128000000.0 0.06264 -0.9291
6131000000.0 -0.6627 -0.6432
6134000000.0 -0.9029 0.1525
6138000000.0 -0.445 0.8052
6141000000.0 0.3371 0.8483
6144000000.0 0.8434 0.2831
6147000000.0 0.7493 -0.4777
6150000000.0 0.09267 -0.8993
6153000000.0 -0.6551 -0.6742
6156000000.0 -0.9218 0.07843
6159000000.0 -0.5347 0.7771
6162000000.0 0.3156 0.9201
6166000000.0 0.8398 0.3924
6169000000.0 0.8549 -0.4492
6172000000.0 0.1856 -0.9465
6175000000.0 -0.6129 -0.7643
6178000000.0 -0.988 -0.02301
6181000000.0 -0.5772 0.7359
6184000000.0 0.1866 0.9441
6188000000.0 0.8967 0.4078
6191000000.0 0.8931 -0.3735
6194000000.0 0.2535 -0.9553
6197000000.0 -0.5428 -0.8134
6200000000.0 -0.9371 -0.07627
6203000000.0 -0.6546 0.6734
6206000000.0 0.08254 0.9337
6209000000.0 0.817 0.5378
6212000000.0 0.8977 -0.257
6216000000.0 0.3515 -0.8779
6219000000.0 -0.437 -0.8367
6222000000.0 -0.9033 -0.193
6225000000.0 -0.7129 0.6117
6228000000.0 -0.01409 0.9003
6231000000.0 0.6896 0.594
6234000000.0 0.8859 -0.1369
6238000000.0 0.446 -0.7587
6241000000.0 -0.3375 -0.8225
6244000000.0 -0.7928 -0.2809
6247000000.0 -0.7538 0.4529
6250000000.0 -0.1679 0.8587
6253000000.0 0.5635 0.6577
6256000000.0 0.8434 -0.02241
6259000000.0 0.5007 -0.6617
6262000000.0 -0.1767 -0.7996
6266000000.0 -0.7358 -0.4196
