! Created with skrf 1.8.0 (http://scikit-rf.org).
# Hz S RI R 50.0 
!freq ReS11 ImS11
4000000000.0 -0.2663 -1.485
4003000000.0 -1.336 -0.6938
4006000000.0 -1.431 0.6244
4009000000.0 -0.3757 1.465
4012000000.0 0.9068 1.22
4016000000.0 1.557 0.05925
4019000000.0 1.024 -1.149
4022000000.0 -0.2733 -1.528
4025000000.0 -1.444 -0.7597
4028000000.0 -1.53 0.5748
4031000000.0 -0.4589 1.554
4034000000.0 0.9353 1.349
4038000000.0 1.669 0.1102
4041000000.0 1.098 -1.194
4044000000.0 -0.2761 -1.639
4047000000.0 -1.413 -0.8398
4050000000.0 -1.538 0.5626
4053000000.0 -0.504 1.543
4056000000.0 0.9111 1.356
4059000000.0 1.571 0.1586
4062000000.0 1.154 -1.14
4066000000.0 -0.1398 -1.597
4069000000.0 -1.327 -0.9448
4072000000.0 -1.566 0.4149
4075000000.0 -0.6521 1.487
4078000000.0 0.683 1.511
4081000000.0 1.578 0.4319
4084000000.0 1.353 -0.983
4088000000.0 0.1088 -1.66
4091000000.0 -1.197 -1.124
4094000000.0 -1.643 0.2406
4097000000.0 -0.8307 1.38
4100000000.0 0.5123 1.532
4103000000.0 1.452 0.5306
4106000000.0 1.377 -0.7901
4109000000.0 0.3296 -1.513
4112000000.0 -0.9433 -1.168
4116000000.0 -1.467 -0.1012
4119000000.0 -1.036 1.052
4122000000.0 0.1691 1.453
4125000000.0 1.196 0.8296
4128000000.0 1.416 -0.3429
4131000000.0 0.6347 -1.299
4134000000.0 -0.5708 -1.336
4138000000.0 -1.366 -0.4665
4141000000.0 -1.264 0.7722
4144000000.0 -0.2424 1.446
4147000000.0 0.9474 1.139
4150000000.0 1.506 0.008013
4153000000.0 0.9675 -1.178
4156000000.0 -0.2833 -1.481
4159000000.0 -1.309 -0.7526
4162000000.0 -1.413 0.5317
4166000000.0 -0.4827 1.409
4169000000.0 0.7516 1.3
4172000000.0 1.458 0.2511
4175000000.0 1.129 -0.9592
4178000000.0 -0.01214 -1.461
4181000000.0 -1.157 -0.9434
4184000000.0 -1.47 0.2634
4188000000.0 -0.6817 1.318
4191000000.0 0.5597 1.381
4194000000.0 1.453 0.4972
4197000000.0 1.284 -0.8341
4200000000.0 0.1608 -1.541
4203000000.0 -1.129 -1.103
4206000000.0 -1.596 0.1914
4209000000.0 -0.8275 1.404
4212000000.0 0.6434 1.508
4216000000.0 1.617 0.433
4219000000.0 1.331 -0.9816
4222000000.0 -0.009486 -1.659
4225000000.0 -1.349 -0.9823
4228000000.0 -1.602 0.4338
4231000000.0 -0.6072 1.519
4234000000.0 0.8457 1.348
4238000000.0 1.598 0.1414
4241000000.0 1.071 -1.164
4244000000.0 -0.2568 -1.54
4247000000.0 -1.378 -0.733
4250000000.0 -1.38 0.6246
4253000000.0 -0.3531 1.465
4256000000.0 0.934 1.166
4259000000.0 1.502 -0.009564
4262000000.0 0.9042 -1.198
4266000000.0 -0.3466 -1.4
4269000000.0 -1.335 -0.5506
4272000000.0 -1.284 0.6997
4275000000.0 -0.2007 1.371
4278000000.0 0.9695 1.074
4281000000.0 1.411 -0.1326
4284000000.0 0.7702 -1.167
4288000000.0 -0.3994 -1.293
4291000000.0 -1.24 -0.4857
4294000000.0 -1.157 0.6711
4297000000.0 -0.2282 1.299
4300000000.0 0.8206 0.9875
4303000000.0 1.317 0.002688
4306000000.0 0.8436 -0.9903
4309000000.0 -0.2474 -1.229
4312000000.0 -1.119 -0.6207
4316000000.0 -1.212 0.4777
4319000000.0 -0.4488 1.195
4322000000.0 0.6272 1.131
4325000000.0 1.32 0.2433
4328000000.0 1.029 -0.8412
4331000000.0 0.06676 -1.382
4334000000.0 -1.031 -0.8849
4338000000.0 -1.399 0.2472
4341000000.0 -0.7361 1.209
4344000000.0 0.478 1.372
4347000000.0 1.368 0.5054
4350000000.0 1.246 -0.7352
4353000000.0 0.2073 -1.417
4356000000.0 -0.9763 -1.104
4359000000.0 -1.481 0.05042
4362000000.0 -0.8604 1.159
4366000000.0 0.3045 1.391
4369000000.0 1.322 0.6827
4372000000.0 1.355 -0.5992
4375000000.0 0.4078 -1.439
4378000000.0 -0.8686 -1.228
4381000000.0 -1.499 -0.1455
4384000000.0 -1.023 1.132
4388000000.0 0.2316 1.527
4391000000.0 1.346 0.7882
4394000000.0 1.486 -0.5448
4397000000.0 0.473 -1.469
4400000000.0 -0.9232 -1.296
4403000000.0 -1.584 -0.0764
4406000000.0 -1.034 1.162
4409000000.0 0.321 1.495
4412000000.0 1.383 0.6941
4416000000.0 1.367 -0.6673
4419000000.0 0.3323 -1.453
4422000000.0 -0.9135 -1.129
4425000000.0 -1.463 0.07033
4428000000.0 -0.8265 1.153
4431000000.0 0.395 1.361
4434000000.0 1.261 0.5094
4438000000.0 1.161 -0.6925
4441000000.0 0.1757 -1.35
4444000000.0 -0.9321 -0.9309
4447000000.0 -1.293 0.1771
4450000000.0 -0.6345 1.093
4453000000.0 0.4502 1.152
4456000000.0 1.177 0.3357
4459000000.0 1.008 -0.7336
4462000000.0 0.006528 -1.227
4466000000.0 -0.9187 -0.7462
4469000000.0 -1.186 0.2697
4472000000.0 -0.5089 1.088
4475000000.0 0.5413 1.049
4478000000.0 1.118 0.2031
4481000000.0 0.877 -0.7753
4484000000.0 -0.04048 -1.141
4488000000.0 -0.8965 -0.687
4491000000.0 -1.08 0.3011
4494000000.0 -0.4906 1.023
4497000000.0 0.5169 1.035
4500000000.0 1.123 0.2441
4503000000.0 0.8349 -0.7012
4506000000.0 -0.0007126 -1.118
4509000000.0 -0.88 -0.6962
4512000000.0 -1.134 0.2242
4516000000.0 -0.5217 0.999
4519000000.0 0.4491 1.073
4522000000.0 1.157 0.337
4525000000.0 0.982 -0.6582
4528000000.0 0.1195 -1.185
4531000000.0 -0.8406 -0.8146
4534000000.0 -1.201 0.14
4538000000.0 -0.6701 1.025
4541000000.0 0.3491 1.16
4544000000.0 1.135 0.4769
4547000000.0 1.123 -0.594
4550000000.0 0.2753 -1.212
4553000000.0 -0.7406 -0.9989
4556000000.0 -1.27 -0.05218
4559000000.0 -0.8492 0.9371
4562000000.0 0.1614 1.254
4566000000.0 1.072 0.6893
4569000000.0 1.254 -0.3971
4572000000.0 0.5171 -1.204
4575000000.0 -0.6145 -1.166
4578000000.0 -1.344 -0.2916
4581000000.0 -1.047 0.8205
4584000000.0 -0.02803 1.352
4588000000.0 1.047 0.8932
4591000000.0 1.39 -0.2323
4594000000.0 0.706 -1.201
4597000000.0 -0.4894 -1.299
4600000000.0 -1.347 -0.4656
4603000000.0 -1.18 0.7528
4606000000.0 -0.1756 1.387
4609000000.0 0.9672 1.025
4612000000.0 1.426 -0.09133
4616000000.0 0.7874 -1.163
4619000000.0 -0.3947 -1.347
4622000000.0 -1.28 -0.5107
4625000000.0 -1.183 0.6483
4628000000.0 -0.2285 1.314
4631000000.0 0.8991 1.047
4634000000.0 1.326 -0.06553
4638000000.0 0.7892 -1.074
4641000000.0 -0.3352 -1.286
4644000000.0 -1.24 -0.533
4647000000.0 -1.157 0.6033
4650000000.0 -0.2207 1.255
4653000000.0 0.841 0.9438
4656000000.0 1.265 -0.03039
4659000000.0 0.6883 -1.0
4662000000.0 -0.3395 -1.159
4666000000.0 -1.106 -0.4206
4669000000.0 -1.01 0.6199
4672000000.0 -0.157 1.18
4675000000.0 0.7388 0.8137
4678000000.0 1.072 -0.07074
4681000000.0 0.6487 -0.9424
4684000000.0 -0.3065 -1.043
4688000000.0 -0.9841 -0.3835
4691000000.0 -0.9583 0.5496
4694000000.0 -0.1693 1.064
4697000000.0 0.7251 0.7831
4700000000.0 1.086 -0.08687
4703000000.0 0.5909 -0.8995
4706000000.0 -0.342 -1.014
4709000000.0 -1.002 -0.4006
4712000000.0 -0.9642 0.5532
4716000000.0 -0.1712 1.056
4719000000.0 0.7316 0.8059
4722000000.0 1.094 -0.07826
4725000000.0 0.5931 -0.8599
4728000000.0 -0.2833 -0.9979
4731000000.0 -0.9679 -0.4364
4734000000.0 -0.9795 0.4838
4738000000.0 -0.2562 1.051
4741000000.0 0.6519 0.8667
4744000000.0 1.08 0.05965
4747000000.0 0.7294 -0.7788
4750000000.0 -0.1391 -1.093
4753000000.0 -0.9073 -0.5959
4756000000.0 -1.096 0.3068
4759000000.0 -0.4481 1.059
4762000000.0 0.5142 1.036
4766000000.0 1.163 0.2418
4769000000.0 0.9759 -0.7415
4772000000.0 0.03192 -1.218
4775000000.0 -0.9217 -0.8051
4778000000.0 -1.219 0.15
4781000000.0 -0.6492 1.047
4784000000.0 0.3751 1.182
4788000000.0 1.171 0.5041
4791000000.0 1.134 -0.5676
4794000000.0 0.297 -1.243
4797000000.0 -0.768 -1.025
4800000000.0 -1.306 -0.08047
4803000000.0 -0.8909 0.9419
4806000000.0 0.1506 1.266
4809000000.0 1.105 0.7232
4812000000.0 1.283 -0.3758
4816000000.0 0.5524 -1.238
4819000000.0 -0.5926 -1.238
4822000000.0 -1.343 -0.2785
4825000000.0 -1.076 0.8412
4828000000.0 -0.02582 1.39
4831000000.0 1.061 0.9003
4834000000.0 1.401 -0.2682
4838000000.0 0.654 -1.237
4841000000.0 -0.5226 -1.28
4844000000.0 -1.32 -0.4077
4847000000.0 -1.117 0.7929
4850000000.0 -0.1158 1.374
4853000000.0 0.9311 0.9388
4856000000.0 1.311 -0.1693
4859000000.0 0.6984 -1.124
4862000000.0 -0.4317 -1.241
4866000000.0 -1.212 -0.4701
4869000000.0 -1.118 0.6484
4872000000.0 -0.1823 1.222
4875000000.0 0.8512 0.9279
4878000000.0 1.257 -0.05851
4881000000.0 0.7096 -1.002
4884000000.0 -0.3361 -1.141
4888000000.0 -1.102 -0.4959
4891000000.0 -1.011 0.5404
4894000000.0 -0.207 1.092
4897000000.0 0.7065 0.8457
4900000000.0 1.061 -0.03775
4903000000.0 0.6386 -0.8376
4906000000.0 -0.2539 -1.028
4909000000.0 -0.9053 -0.4521
4912000000.0 -0.9013 0.4002
4916000000.0 -0.2259 0.9546
4919000000.0 0.594 0.7602
4922000000.0 0.9641 0.03664
4925000000.0 0.6545 -0.7021
4928000000.0 -0.1612 -0.9212
4931000000.0 -0.7961 -0.4881
4934000000.0 -0.874 0.3381
4938000000.0 -0.2802 0.8666
4941000000.0 0.4871 0.7673
4944000000.0 0.9353 0.1252
4947000000.0 0.7264 -0.6511
4950000000.0 -0.075 -0.9625
4953000000.0 -0.8016 -0.5781
4956000000.0 -0.9443 0.2267
4959000000.0 -0.4069 0.9229
4962000000.0 0.4447 0.9078
4966000000.0 0.9859 0.2206
4969000000.0 0.8108 -0.6371
4972000000.0 0.01921 -1.045
4975000000.0 -0.7909 -0.6609
4978000000.0 -1.018 0.1901
4981000000.0 -0.5303 0.9235
4984000000.0 0.3776 1.019
4988000000.0 1.055 0.3577
4991000000.0 0.9513 -0.5773
4994000000.0 0.1934 -1.134
4997000000.0 -0.7453 -0.8568
5000000000.0 -1.151 0.04384
5003000000.0 -0.7348 0.954
5006000000.0 0.2752 1.174
5009000000.0 1.104 0.5446
5012000000.0 1.153 -0.5175
5016000000.0 0.3204 -1.234
5019000000.0 -0.7419 -1.069
5022000000.0 -1.273 -0.1026
5025000000.0 -0.8894 0.9286
5028000000.0 0.1435 1.274
5031000000.0 1.096 0.6896
5034000000.0 1.232 -0.4201
5038000000.0 0.4636 -1.23
5041000000.0 -0.6291 -1.137
5044000000.0 -1.265 -0.2652
5047000000.0 -0.9809 0.7936
5050000000.0 -0.02153 1.305
5053000000.0 0.9336 0.8212
5056000000.0 1.246 -0.208
5059000000.0 0.683 -1.089
5062000000.0 -0.4188 -1.175
5066000000.0 -1.166 -0.4412
5069000000.0 -1.07 0.6468
5072000000.0 -0.2113 1.249
5075000000.0 0.8218 0.9364
5078000000.0 1.201 -0.017
5081000000.0 0.7428 -0.9338
5084000000.0 -0.2354 -1.135
5088000000.0 -1.045 -0.5634
5091000000.0 -1.058 0.4495
5094000000.0 -0.3352 1.055
5097000000.0 0.596 0.9345
5100000000.0 1.08 0.1306
5103000000.0 0.7569 -0.7413
5106000000.0 -0.04021 -1.025
5109000000.0 -0.8158 -0.629
5112000000.0 -0.9897 0.2269
5116000000.0 -0.4052 0.9434
5119000000.0 0.4169 0.9069
5122000000.0 0.9201 0.2381
5125000000.0 0.7892 -0.571
5128000000.0 0.08373 -0.9717
5131000000.0 -0.6673 -0.6709
5134000000.0 -0.9306 0.1402
5138000000.0 -0.4637 0.8
5141000000.0 0.3492 0.8792
5144000000.0 0.839 0.2596
5147000000.0 0.7747 -0.5056
5150000000.0 0.1066 -0.8838
5153000000.0 -0.6426 -0.6472
5156000000.0 -0.8648 0.07009
5159000000.0 -0.4734 0.7543
5162000000.0 0.2422 0.8286
5166000000.0 0.8451 0.3226
5169000000.0 0.7718 -0.4224
5172000000.0 0.115 -0.8455
5175000000.0 -0.626 -0.6721
5178000000.0 -0.9003 0.07594
5181000000.0 -0.5199 0.7488
5184000000.0 0.2547 0.8802
5188000000.0 0.8591 0.3401
5191000000.0 0.8191 -0.4775
5194000000.0 0.1497 -0.9621
5197000000.0 -0.6506 -0.6796
5200000000.0 -0.9303 0.1034
5203000000.0 -0.5703 0.8169
5206000000.0 0.2781 0.9221
5209000000.0 0.9275 0.3669
5212000000.0 0.8634 -0.4792
5216000000.0 0.1884 -0.9718
5219000000.0 -0.6529 -0.756
5222000000.0 -1.006 0.004025
5225000000.0 -0.6324 0.772
5228000000.0 0.2164 1.002
5231000000.0 0.9056 0.4821
5234000000.0 0.9576 -0.401
5238000000.0 0.2916 -1.001
5241000000.0 -0.5865 -0.9127
5244000000.0 -1.068 -0.103
5247000000.0 -0.7585 0.7518
5250000000.0 0.07705 1.094
5253000000.0 0.8722 0.6445
5256000000.0 1.083 -0.2747
5259000000.0 0.4811 -0.9752
5262000000.0 -0.4661 -0.9938
5266000000.0 -1.054 -0.2953
5269000000.0 -0.9078 0.6084
5272000000.0 -0.1084 1.108
5275000000.0 0.7513 0.782
5278000000.0 1.107 -0.05925
5281000000.0 0.6519 -0.8784
5284000000.0 -0.2716 -1.079
5288000000.0 -0.9816 -0.5092
5291000000.0 -1.012 0.4173
5294000000.0 -0.3228 1.03
5297000000.0 0.6183 0.9231
5300000000.0 1.098 0.1179
5303000000.0 0.7931 -0.7668
5306000000.0 -0.05257 -1.134
5309000000.0 -0.9051 -0.6622
5312000000.0 -1.075 0.2812
5316000000.0 -0.4665 1.019
5319000000.0 0.4906 1.031
5322000000.0 1.082 0.2325
5325000000.0 0.877 -0.6657
5328000000.0 0.02892 -1.114
5331000000.0 -0.814 -0.7285
5334000000.0 -1.089 0.2151
5338000000.0 -0.4997 0.9522
5341000000.0 0.4054 0.9668
5344000000.0 1.036 0.2871
5347000000.0 0.8508 -0.5951
5350000000.0 0.0642 -1.025
5353000000.0 -0.7762 -0.6703
5356000000.0 -0.9642 0.1882
5359000000.0 -0.4754 0.8912
5362000000.0 0.3972 0.8767
5366000000.0 0.9317 0.1978
5369000000.0 0.7374 -0.5798
5372000000.0 -0.03711 -0.9331
5375000000.0 -0.7433 -0.5564
5378000000.0 -0.9133 0.2347
5381000000.0 -0.3615 0.8281
5384000000.0 0.4675 0.7886
5388000000.0 0.8904 0.08976
5391000000.0 0.616 -0.6197
5394000000.0 -0.09329 -0.8467
5397000000.0 -0.7162 -0.4739
5400000000.0 -0.8049 0.3109
5403000000.0 -0.2528 0.8216
5406000000.0 0.4614 0.7072
5409000000.0 0.835 0.06242
5412000000.0 0.5681 -0.636
5416000000.0 -0.0944 -0.8614
5419000000.0 -0.7353 -0.4282
5422000000.0 -0.8311 0.2956
5425000000.0 -0.2931 0.8219
5428000000.0 0.4761 0.7712
5431000000.0 0.9115 0.1438
5434000000.0 0.6814 -0.6171
5438000000.0 -0.06424 -0.9024
5441000000.0 -0.7742 -0.5026
5444000000.0 -0.9158 0.3018
5447000000.0 -0.382 0.8439
5450000000.0 0.4683 0.854
5453000000.0 0.9582 0.2014
5456000000.0 0.7348 -0.603
5459000000.0 0.02218 -0.9769
5462000000.0 -0.7853 -0.6072
5466000000.0 -0.9724 0.1716
5469000000.0 -0.5057 0.862
5472000000.0 0.3613 0.9555
5475000000.0 0.986 0.3334
5478000000.0 0.9194 -0.5626
5481000000.0 0.1879 -1.016
5484000000.0 -0.7194 -0.7852
5488000000.0 -1.103 0.03418
5491000000.0 -0.6562 0.8566
5494000000.0 0.2053 1.086
5497000000.0 0.9803 0.5064
5500000000.0 0.9939 -0.416
5503000000.0 0.2946 -1.06
5506000000.0 -0.6134 -0.8766
5509000000.0 -1.09 -0.1105
5512000000.0 -0.7893 0.7742
5516000000.0 0.1494 1.093
5519000000.0 0.9086 0.593
5522000000.0 1.027 -0.3169
5525000000.0 0.387 -0.9988
5528000000.0 -0.5103 -0.9736
5531000000.0 -1.028 -0.1711
5534000000.0 -0.796 0.6939
5538000000.0 0.06057 1.023
5541000000.0 0.8137 0.6182
5544000000.0 1.007 -0.2608
5547000000.0 0.4066 -0.9482
5550000000.0 -0.4443 -0.9009
5553000000.0 -0.9746 -0.1995
5556000000.0 -0.7229 0.6449
5559000000.0 0.001468 0.9564
5562000000.0 0.7444 0.5826
5566000000.0 0.8925 -0.2069
5569000000.0 0.3567 -0.8242
5572000000.0 -0.3922 -0.7855
5575000000.0 -0.8421 -0.1603
5578000000.0 -0.6195 0.571
5581000000.0 0.05965 0.8348
5584000000.0 0.6772 0.485
5588000000.0 0.7994 -0.2311
5591000000.0 0.3176 -0.7449
5594000000.0 -0.4187 -0.7004
5597000000.0 -0.7903 -0.08459
5600000000.0 -0.571 0.5595
5603000000.0 0.1075 0.814
5606000000.0 0.6772 0.4135
5609000000.0 0.7632 -0.2637
5612000000.0 0.2625 -0.7672
5616000000.0 -0.4395 -0.6516
5619000000.0 -0.8252 -0.08656
5622000000.0 -0.5592 0.6052
5625000000.0 0.136 0.8269
5628000000.0 0.7503 0.4227
5631000000.0 0.7931 -0.3248
5634000000.0 0.2277 -0.8302
5638000000.0 -0.5039 -0.7288
5641000000.0 -0.8952 -0.04588
5644000000.0 -0.6211 0.682
5647000000.0 0.1777 0.8841
5650000000.0 0.8174 0.4405
5653000000.0 0.9091 -0.3276
5656000000.0 0.2842 -0.9363
5659000000.0 -0.5856 -0.7816
5662000000.0 -1.016 -0.08662
5666000000.0 -0.7075 0.7385
5669000000.0 0.1506 1.033
5672000000.0 0.8918 0.5359
5675000000.0 0.9981 -0.3813
5678000000.0 0.323 -1.015
5681000000.0 -0.6249 -0.9271
5684000000.0 -1.106 -0.09558
5688000000.0 -0.7644 0.7919
5691000000.0 0.184 1.131
5694000000.0 0.9876 0.5802
5697000000.0 1.068 -0.3956
5700000000.0 0.3514 -1.069
5703000000.0 -0.608 -0.9539
5706000000.0 -1.134 -0.1416
5709000000.0 -0.7945 0.8124
5712000000.0 0.1011 1.139
5716000000.0 0.946 0.6065
5719000000.0 1.097 -0.3656
5722000000.0 0.3709 -1.077
5725000000.0 -0.5796 -0.9699
5728000000.0 -1.112 -0.1318
5731000000.0 -0.7903 0.7826
5734000000.0 0.1249 1.081
5738000000.0 0.9318 0.586
5741000000.0 1.023 -0.3676
5744000000.0 0.3367 -1.027
5747000000.0 -0.6475 -0.8917
5750000000.0 -1.024 -0.05717
5753000000.0 -0.6811 0.795
5756000000.0 0.2056 1.019
5759000000.0 0.9169 0.4542
5762000000.0 0.8582 -0.4477
5766000000.0 0.1989 -0.9515
5769000000.0 -0.638 -0.7449
5772000000.0 -0.9513 0.1046
5775000000.0 -0.4948 0.822
5778000000.0 0.3397 0.8797
5781000000.0 0.9249 0.2651
5784000000.0 0.7343 -0.5539
5788000000.0 0.01888 -0.8797
5791000000.0 -0.7288 -0.5464
5794000000.0 -0.8586 0.2647
5797000000.0 -0.3301 0.8562
5800000000.0 0.5167 0.767
5803000000.0 0.9164 0.06089
5806000000.0 0.5907 -0.689
5809000000.0 -0.1574 -0.8922
5812000000.0 -0.8259 -0.3562
5816000000.0 -0.7788 0.43
5819000000.0 -0.153 0.8694
5822000000.0 0.6079 0.6848
5825000000.0 0.9123 -0.09071
5828000000.0 0.4844 -0.8014
5831000000.0 -0.3441 -0.8801
5834000000.0 -0.8999 -0.2771
5838000000.0 -0.7516 0.4997
5841000000.0 -0.103 0.951
5844000000.0 0.6929 0.6523
5847000000.0 0.9672 -0.1551
5850000000.0 0.4813 -0.8775
5853000000.0 -0.3591 -0.9449
5856000000.0 -0.9465 -0.287
5859000000.0 -0.8028 0.5962
5862000000.0 -0.04423 1.06
5866000000.0 0.7826 0.6688
5869000000.0 0.9966 -0.2143
5872000000.0 0.4782 -0.9363
5875000000.0 -0.4386 -0.9455
5878000000.0 -1.025 -0.2754
5881000000.0 -0.8576 0.6383
5884000000.0 -0.02294 1.023
5888000000.0 0.8231 0.657
5891000000.0 1.015 -0.2448
5894000000.0 0.447 -0.9179
5897000000.0 -0.4688 -0.9342
5900000000.0 -1.018 -0.1908
5903000000.0 -0.7754 0.6845
5906000000.0 0.07555 1.038
5909000000.0 0.8456 0.5807
5912000000.0 1.011 -0.3149
5916000000.0 0.3358 -0.946
5919000000.0 -0.5452 -0.8468
5922000000.0 -1.004 -0.07045
5925000000.0 -0.6619 0.7249
5928000000.0 0.2131 0.9553
5931000000.0 0.8478 0.4047
5934000000.0 0.8406 -0.3797
5938000000.0 0.2281 -0.8942
5941000000.0 -0.5718 -0.6919
5944000000.0 -0.9195 0.03729
5947000000.0 -0.5036 0.7334
5950000000.0 0.2544 0.8382
5953000000.0 0.8338 0.3128
5956000000.0 0.7456 -0.4433
5959000000.0 0.08071 -0.848
5962000000.0 -0.6447 -0.6197
5966000000.0 -0.8418 0.1582
5969000000.0 -0.4185 0.7301
5972000000.0 0.3077 0.7895
5975000000.0 0.8048 0.2322
5978000000.0 0.6623 -0.4992
5981000000.0 0.03927 -0.8394
5984000000.0 -0.6324 -0.5065
5988000000.0 -0.818 0.1752
5991000000.0 -0.3983 0.7539
5994000000.0 0.3539 0.7614
5997000000.0 0.84 0.1768
6000000000.0 0.6553 -0.5324
6003000000.0 0.009298 -0.8382
6006000000.0 -0.6538 -0.5393
6009000000.0 -0.8523 0.1793
6012000000.0 -0.3997 0.77
6016000000.0 0.3355 0.8294
6019000000.0 0.8527 0.2518
6022000000.0 0.7049 -0.5334
6025000000.0 0.01747 -0.904
6028000000.0 -0.6852 -0.6021
6031000000.0 -0.8945 0.1363
6034000000.0 -0.4476 0.7936
6038000000.0 0.3424 0.8786
6041000000.0 0.8955 0.322
6044000000.0 0.8003 -0.5254
6047000000.0 0.08486 -0.97
6050000000.0 -0.7174 -0.7296
6053000000.0 -0.9749 0.1019
6056000000.0 -0.5442 0.8486
6059000000.0 0.3252 0.9441
6062000000.0 0.9526 0.3258
6066000000.0 0.8818 -0.5595
6069000000.0 0.1211 -1.015
6072000000.0 -0.7228 -0.7552
6075000000.0 -1.014 0.1132
6078000000.0 -0.5456 0.8531
6081000000.0 0.3266 0.956
6084000000.0 0.9719 0.3288
6088000000.0 0.8606 -0.5191
6091000000.0 0.08674 -0.9849
6094000000.0 -0.6944 -0.6947
6097000000.0 -0.971 0.1103
6100000000.0 -0.5398 0.8339
6103000000.0 0.3188 0.9129
6106000000.0 0.8867 0.3176
6109000000.0 0.8191 -0.5418
6112000000.0 0.06707 -0.9536
6116000000.0 -0.6837 -0.634
6119000000.0 -0.9445 0.1515
6122000000.0 -0.4589 0.8126
6125000000.0 0.3524 0.8367
6128000000.0 0.8631 0.2355
6131000000.0 0.7057 -0.4939
6134000000.0 0.02579 -0.8858
6138000000.0 -0.6648 -0.5656
6141000000.0 -0.8428 0.1356
6144000000.0 -0.3815 0.7367
6147000000.0 0.3438 0.7673
6150000000.0 0.8089 0.2037
6153000000.0 0.6747 -0.5
6156000000.0 0.05674 -0.8134
6159000000.0 -0.669 -0.5157
6162000000.0 -0.8072 0.1663
6166000000.0 -0.396 0.7433
6169000000.0 0.365 0.7443
6172000000.0 0.8118 0.2171
6175000000.0 0.6569 -0.5324
6178000000.0 0.02645 -0.8385
6181000000.0 -0.6729 -0.5112
6184000000.0 -0.8099 0.1652
6188000000.0 -0.3977 0.7436
6191000000.0 0.3705 0.7571
6194000000.0 0.7835 0.2068
6197000000.0 0.651 -0.5352
6200000000.0 -0.002311 -0.8477
6203000000.0 -0.6504 -0.5388
6206000000.0 -0.8229 0.1812
6209000000.0 -0.3757 0.7811
6212000000.0 0.3338 0.7738
6216000000.0 0.815 0.2449
6219000000.0 0.7008 -0.477
6222000000.0 0.04715 -0.863
6225000000.0 -0.6657 -0.5666
6228000000.0 -0.8463 0.1519
6231000000.0 -0.4565 0.7493
6234000000.0 0.304 0.8273
6238000000.0 0.7983 0.2686
6241000000.0 0.7396 -0.4809
6244000000.0 0.07108 -0.852
6247000000.0 -0.5896 -0.6137
6250000000.0 -0.8325 0.08246
6253000000.0 -0.4385 0.6794
6256000000.0 0.2302 0.7678
6259000000.0 0.7581 0.3083
6262000000.0 0.7105 -0.386
6266000000.0 0.1833 -0.815
