! Created with skrf 1.8.0 (http://scikit-rf.org).
# Hz S RI R 50.0 
!freq ReS11 ImS11
4000000000.0 -0.1581 -1.515
4003000000.0 -1.287 -0.8245
4006000000.0 -1.468 0.5053
4009000000.0 -0.5297 1.441
4012000000.0 0.7901 1.336
4016000000.0 1.535 0.179
4019000000.0 1.113 -1.05
4022000000.0 -0.07635 -1.545
4025000000.0 -1.316 -0.8904
4028000000.0 -1.507 0.4686
4031000000.0 -0.567 1.471
4034000000.0 0.8331 1.398
4038000000.0 1.635 0.2485
4041000000.0 1.182 -1.167
4044000000.0 -0.1399 -1.636
4047000000.0 -1.333 -0.8912
4050000000.0 -1.585 0.4326
4053000000.0 -0.6375 1.524
4056000000.0 0.7598 1.42
4059000000.0 1.57 0.3091
4062000000.0 1.287 -1.023
4066000000.0 0.004534 -1.614
4069000000.0 -1.239 -1.082
4072000000.0 -1.639 0.29
4075000000.0 -0.8156 1.387
4078000000.0 0.5797 1.538
4081000000.0 1.52 0.546
4084000000.0 1.451 -0.8571
4088000000.0 0.248 -1.607
4091000000.0 -1.138 -1.232
4094000000.0 -1.641 0.08399
4097000000.0 -1.02 1.327
4100000000.0 0.3805 1.615
4103000000.0 1.429 0.6955
4106000000.0 1.452 -0.6432
4109000000.0 0.4402 -1.504
4112000000.0 -0.8237 -1.286
4116000000.0 -1.548 -0.1866
4119000000.0 -1.151 0.9938
4122000000.0 0.05114 1.521
4125000000.0 1.138 0.9529
4128000000.0 1.463 -0.2317
4131000000.0 0.7645 -1.276
4134000000.0 -0.4592 -1.413
4138000000.0 -1.365 -0.6027
4141000000.0 -1.346 0.7079
4144000000.0 -0.3728 1.445
4147000000.0 0.856 1.242
4150000000.0 1.526 0.1511
4153000000.0 1.044 -1.093
4156000000.0 -0.1118 -1.529
4159000000.0 -1.236 -0.8716
4162000000.0 -1.479 0.376
4166000000.0 -0.6588 1.366
4169000000.0 0.6492 1.365
4172000000.0 1.459 0.4189
4175000000.0 1.237 -0.8575
4178000000.0 0.1589 -1.448
4181000000.0 -1.043 -1.087
4184000000.0 -1.504 0.09097
4188000000.0 -0.8882 1.244
4191000000.0 0.3738 1.488
4194000000.0 1.377 0.6794
4197000000.0 1.451 -0.6909
4200000000.0 0.3771 -1.533
4203000000.0 -0.9243 -1.287
4206000000.0 -1.616 -0.02443
4209000000.0 -1.038 1.22
4212000000.0 0.3767 1.617
4216000000.0 1.532 0.7469
4219000000.0 1.532 -0.7173
4222000000.0 0.3459 -1.715
4225000000.0 -1.172 -1.293
4228000000.0 -1.687 0.1266
4231000000.0 -0.927 1.398
4234000000.0 0.5462 1.561
4238000000.0 1.582 0.4788
4241000000.0 1.305 -0.9454
4244000000.0 0.05499 -1.635
4247000000.0 -1.216 -1.058
4250000000.0 -1.524 0.328
4253000000.0 -0.6837 1.394
4256000000.0 0.7195 1.405
4259000000.0 1.497 0.3019
4262000000.0 1.134 -1.011
4266000000.0 -0.1053 -1.529
4269000000.0 -1.23 -0.8404
4272000000.0 -1.427 0.4462
4275000000.0 -0.5057 1.379
4278000000.0 0.7577 1.261
4281000000.0 1.452 0.1852
4284000000.0 1.004 -1.026
4288000000.0 -0.152 -1.362
4291000000.0 -1.167 -0.7755
4294000000.0 -1.312 0.4295
4297000000.0 -0.4836 1.235
4300000000.0 0.6354 1.155
4303000000.0 1.272 0.2568
4306000000.0 1.02 -0.8334
4309000000.0 0.01903 -1.297
4312000000.0 -0.9613 -0.8311
4316000000.0 -1.27 0.1878
4319000000.0 -0.6336 1.115
4322000000.0 0.4424 1.23
4325000000.0 1.251 0.4927
4328000000.0 1.188 -0.6226
4331000000.0 0.2515 -1.341
4334000000.0 -0.8739 -1.055
4338000000.0 -1.362 -0.05397
4341000000.0 -0.9797 1.085
4344000000.0 0.2186 1.414
4347000000.0 1.206 0.7162
4350000000.0 1.354 -0.483
4353000000.0 0.5009 -1.372
4356000000.0 -0.7379 -1.265
4359000000.0 -1.446 -0.2185
4362000000.0 -1.103 0.9544
4366000000.0 0.05241 1.491
4369000000.0 1.138 0.8998
4372000000.0 1.463 -0.3241
4375000000.0 0.7294 -1.328
4378000000.0 -0.5985 -1.393
4381000000.0 -1.452 -0.4905
4384000000.0 -1.295 0.864
4388000000.0 -0.1404 1.556
4391000000.0 1.099 1.103
4394000000.0 1.552 -0.1408
4397000000.0 0.8699 -1.328
4400000000.0 -0.5027 -1.508
4403000000.0 -1.489 -0.5411
4406000000.0 -1.309 0.8673
4409000000.0 -0.1508 1.556
4412000000.0 1.131 1.118
4416000000.0 1.513 -0.222
4419000000.0 0.753 -1.357
4422000000.0 -0.5808 -1.422
4425000000.0 -1.441 -0.4369
4428000000.0 -1.19 0.8851
4431000000.0 -0.07232 1.491
4434000000.0 1.102 0.9312
4438000000.0 1.402 -0.273
4441000000.0 0.626 -1.27
4444000000.0 -0.5773 -1.25
4447000000.0 -1.336 -0.2828
4450000000.0 -1.046 0.8527
4453000000.0 0.03886 1.354
4456000000.0 1.081 0.7687
4459000000.0 1.238 -0.3696
4462000000.0 0.4441 -1.165
4466000000.0 -0.6698 -1.099
4469000000.0 -1.25 -0.1112
4472000000.0 -0.8384 0.8695
4475000000.0 0.1703 1.198
4478000000.0 1.035 0.5939
4481000000.0 1.06 -0.4347
4484000000.0 0.2976 -1.077
4488000000.0 -0.6673 -0.9132
4491000000.0 -1.134 -0.04639
4494000000.0 -0.7513 0.8432
4497000000.0 0.2032 1.108
4500000000.0 0.999 0.5694
4503000000.0 1.014 -0.4012
4506000000.0 0.2868 -1.045
4509000000.0 -0.5902 -0.9079
4512000000.0 -1.083 -0.107
4516000000.0 -0.7767 0.8068
4519000000.0 0.1408 1.131
4522000000.0 0.9603 0.596
4525000000.0 1.072 -0.3566
4528000000.0 0.3938 -1.076
4531000000.0 -0.5972 -0.981
4534000000.0 -1.166 -0.172
4538000000.0 -0.8645 0.77
4541000000.0 0.04572 1.216
4544000000.0 0.9373 0.7111
4547000000.0 1.165 -0.261
4550000000.0 0.5533 -1.077
4553000000.0 -0.4754 -1.129
4556000000.0 -1.168 -0.3805
4559000000.0 -1.052 0.6942
4562000000.0 -0.1647 1.232
4566000000.0 0.8641 0.9407
4569000000.0 1.254 -0.04902
4572000000.0 0.7856 -1.002
4575000000.0 -0.288 -1.265
4578000000.0 -1.16 -0.6092
4581000000.0 -1.217 0.5367
4584000000.0 -0.3708 1.259
4588000000.0 0.7282 1.13
4591000000.0 1.356 0.132
4594000000.0 0.9849 -0.9777
4597000000.0 -0.1165 -1.374
4600000000.0 -1.141 -0.7634
4603000000.0 -1.318 0.4121
4606000000.0 -0.5636 1.26
4609000000.0 0.6538 1.208
4612000000.0 1.37 0.2788
4616000000.0 1.101 -0.879
4619000000.0 0.001446 -1.399
4622000000.0 -1.075 -0.8968
4625000000.0 -1.356 0.2515
4628000000.0 -0.6502 1.252
4631000000.0 0.5205 1.289
4634000000.0 1.338 0.3935
4638000000.0 1.13 -0.8019
4641000000.0 0.1271 -1.322
4644000000.0 -1.022 -0.887
4647000000.0 -1.318 0.2536
4650000000.0 -0.6604 1.155
4653000000.0 0.5222 1.219
4656000000.0 1.264 0.3414
4659000000.0 1.052 -0.7403
4662000000.0 0.05855 -1.266
4666000000.0 -0.9312 -0.7876
4669000000.0 -1.206 0.2641
4672000000.0 -0.5265 1.066
4675000000.0 0.4805 1.082
4678000000.0 1.094 0.2847
4681000000.0 0.9311 -0.6827
4684000000.0 0.07121 -1.116
4688000000.0 -0.8558 -0.6841
4691000000.0 -1.104 0.2211
4694000000.0 -0.5068 1.012
4697000000.0 0.4539 1.003
4700000000.0 1.103 0.2761
4703000000.0 0.8527 -0.6716
4706000000.0 0.01379 -1.102
4709000000.0 -0.8467 -0.6836
4712000000.0 -1.04 0.2448
4716000000.0 -0.453 0.9675
4719000000.0 0.4853 0.947
4722000000.0 1.04 0.2476
4725000000.0 0.8491 -0.6507
4728000000.0 0.004324 -1.036
4731000000.0 -0.7924 -0.6828
4734000000.0 -1.045 0.1806
4738000000.0 -0.496 0.9549
4741000000.0 0.395 0.9577
4744000000.0 1.028 0.3452
4747000000.0 0.903 -0.5759
4750000000.0 0.1202 -1.046
4753000000.0 -0.6971 -0.8133
4756000000.0 -1.123 0.04614
4759000000.0 -0.6582 0.8652
4762000000.0 0.268 1.097
4766000000.0 1.002 0.507
4769000000.0 1.057 -0.4609
4772000000.0 0.3244 -1.113
4775000000.0 -0.6736 -0.9398
4778000000.0 -1.174 -0.1285
4781000000.0 -0.8399 0.827
4784000000.0 0.07122 1.202
4788000000.0 0.9849 0.6991
4791000000.0 1.231 -0.2596
4794000000.0 0.5574 -1.115
4797000000.0 -0.4827 -1.131
4800000000.0 -1.179 -0.3852
4803000000.0 -1.047 0.6762
4806000000.0 -0.1672 1.216
4809000000.0 0.8561 0.9055
4812000000.0 1.298 -0.06364
4816000000.0 0.7989 -1.028
4819000000.0 -0.3063 -1.285
4822000000.0 -1.194 -0.6342
4825000000.0 -1.248 0.5513
4828000000.0 -0.38 1.332
4831000000.0 0.774 1.14
4834000000.0 1.378 0.1407
4838000000.0 0.967 -0.9875
4841000000.0 -0.1449 -1.407
4844000000.0 -1.182 -0.7568
4847000000.0 -1.343 0.453
4850000000.0 -0.4826 1.3
4853000000.0 0.68 1.214
4856000000.0 1.356 0.2322
4859000000.0 1.028 -0.9209
4862000000.0 -0.04135 -1.355
4866000000.0 -1.046 -0.8204
4869000000.0 -1.34 0.3163
4872000000.0 -0.5712 1.19
4875000000.0 0.5764 1.208
4878000000.0 1.267 0.2965
4881000000.0 1.03 -0.7697
4884000000.0 0.04956 -1.261
4888000000.0 -0.9439 -0.8046
4891000000.0 -1.186 0.1909
4894000000.0 -0.5546 1.059
4897000000.0 0.4524 1.078
4900000000.0 1.112 0.3091
4903000000.0 0.9082 -0.6838
4906000000.0 0.08649 -1.099
4909000000.0 -0.8332 -0.6943
4912000000.0 -1.05 0.172
4916000000.0 -0.5464 0.8922
4919000000.0 0.3525 0.935
4922000000.0 0.9556 0.3566
4925000000.0 0.8288 -0.5232
4928000000.0 0.1392 -0.9845
4931000000.0 -0.642 -0.6991
4934000000.0 -0.947 0.05908
4938000000.0 -0.57 0.7493
4941000000.0 0.2226 0.9343
4944000000.0 0.8764 0.4303
4947000000.0 0.8447 -0.4105
4950000000.0 0.2361 -0.9385
4953000000.0 -0.5757 -0.7514
4956000000.0 -0.9725 -0.01042
4959000000.0 -0.6106 0.718
4962000000.0 0.1722 0.9612
4966000000.0 0.8604 0.5011
4969000000.0 0.9102 -0.3556
4972000000.0 0.3002 -0.9584
4975000000.0 -0.5531 -0.8502
4978000000.0 -1.022 -0.1049
4981000000.0 -0.7395 0.7117
4984000000.0 0.09357 1.035
4988000000.0 0.8536 0.5908
4991000000.0 1.036 -0.2861
4994000000.0 0.4667 -0.9814
4997000000.0 -0.4749 -0.982
5000000000.0 -1.078 -0.2882
5003000000.0 -0.9506 0.683
5006000000.0 -0.06732 1.182
5009000000.0 0.8632 0.8132
5012000000.0 1.189 -0.152
5016000000.0 0.6548 -1.035
5019000000.0 -0.388 -1.188
5022000000.0 -1.176 -0.4257
5025000000.0 -1.082 0.6218
5028000000.0 -0.2241 1.261
5031000000.0 0.8305 0.9685
5034000000.0 1.283 -0.02308
5038000000.0 0.8187 -0.9964
5041000000.0 -0.2691 -1.274
5044000000.0 -1.142 -0.6196
5047000000.0 -1.197 0.4789
5050000000.0 -0.4229 1.221
5053000000.0 0.6884 1.118
5056000000.0 1.271 0.1827
5059000000.0 0.9497 -0.8692
5062000000.0 -0.03959 -1.302
5066000000.0 -1.037 -0.8256
5069000000.0 -1.266 0.2933
5072000000.0 -0.5745 1.165
5075000000.0 0.4887 1.185
5078000000.0 1.254 0.3713
5081000000.0 1.06 -0.6871
5084000000.0 0.1201 -1.234
5088000000.0 -0.8399 -0.903
5091000000.0 -1.207 0.09398
5094000000.0 -0.6747 0.9698
5097000000.0 0.3453 1.144
5100000000.0 1.029 0.4943
5103000000.0 1.031 -0.4395
5106000000.0 0.2989 -1.086
5109000000.0 -0.6479 -0.8742
5112000000.0 -1.09 -0.1048
5116000000.0 -0.7778 0.7576
5119000000.0 0.05049 1.083
5122000000.0 0.8624 0.6104
5125000000.0 0.996 -0.2529
5128000000.0 0.427 -0.9354
5131000000.0 -0.4534 -0.9459
5134000000.0 -0.9839 -0.2331
5138000000.0 -0.8023 0.6039
5141000000.0 -0.05108 0.9803
5144000000.0 0.7512 0.6304
5147000000.0 0.9457 -0.1441
5150000000.0 0.5039 -0.7939
5153000000.0 -0.3026 -0.8759
5156000000.0 -0.8647 -0.3053
5159000000.0 -0.7678 0.4709
5162000000.0 -0.1331 0.8744
5166000000.0 0.6126 0.665
5169000000.0 0.8833 -0.0373
5172000000.0 0.5245 -0.7503
5175000000.0 -0.2555 -0.8627
5178000000.0 -0.8462 -0.3777
5181000000.0 -0.8323 0.4006
5184000000.0 -0.1699 0.904
5188000000.0 0.6241 0.7157
5191000000.0 0.9177 -0.06047
5194000000.0 0.5875 -0.752
5197000000.0 -0.2256 -0.9049
5200000000.0 -0.8888 -0.3617
5203000000.0 -0.824 0.4511
5206000000.0 -0.1839 0.9454
5209000000.0 0.6153 0.7329
5212000000.0 0.9706 -0.03866
5216000000.0 0.5824 -0.7599
5219000000.0 -0.2068 -0.9643
5222000000.0 -0.8921 -0.4206
5225000000.0 -0.9126 0.4449
5228000000.0 -0.2698 0.9673
5231000000.0 0.5939 0.7963
5234000000.0 1.037 0.03949
5238000000.0 0.6977 -0.7466
5241000000.0 -0.1495 -1.035
5244000000.0 -0.9129 -0.5471
5247000000.0 -1.008 0.3649
5250000000.0 -0.3689 0.9998
5253000000.0 0.5059 0.9162
5256000000.0 1.063 0.2091
5259000000.0 0.8114 -0.704
5262000000.0 0.019 -1.117
5266000000.0 -0.8369 -0.6819
5269000000.0 -1.068 0.2006
5272000000.0 -0.5871 0.9593
5275000000.0 0.328 1.045
5278000000.0 1.032 0.3719
5281000000.0 0.9643 -0.5226
5284000000.0 0.1964 -1.119
5288000000.0 -0.7187 -0.8622
5291000000.0 -1.103 -0.02215
5294000000.0 -0.7701 0.8238
5297000000.0 0.1396 1.113
5300000000.0 0.9458 0.6163
5303000000.0 1.108 -0.3235
5306000000.0 0.4694 -1.033
5309000000.0 -0.4963 -1.046
5312000000.0 -1.096 -0.2726
5316000000.0 -0.9301 0.6797
5319000000.0 -0.09452 1.172
5322000000.0 0.8083 0.8079
5325000000.0 1.181 -0.1089
5328000000.0 0.6496 -0.9482
5331000000.0 -0.3342 -1.109
5334000000.0 -1.04 -0.4158
5338000000.0 -1.001 0.5159
5341000000.0 -0.2482 1.113
5344000000.0 0.7073 0.8878
5347000000.0 1.133 0.01317
5350000000.0 0.7046 -0.8413
5353000000.0 -0.1521 -1.087
5356000000.0 -0.9275 -0.5279
5359000000.0 -1.027 0.38
5362000000.0 -0.3449 1.059
5366000000.0 0.5733 0.8902
5369000000.0 1.064 0.1131
5372000000.0 0.7361 -0.7558
5375000000.0 -0.1247 -1.036
5378000000.0 -0.8467 -0.5441
5381000000.0 -0.9799 0.3218
5384000000.0 -0.2894 0.9664
5388000000.0 0.5242 0.8365
5391000000.0 0.991 0.07989
5394000000.0 0.6715 -0.687
5397000000.0 -0.1413 -0.9316
5400000000.0 -0.8184 -0.4736
5403000000.0 -0.8856 0.3581
5406000000.0 -0.225 0.846
5409000000.0 0.5113 0.734
5412000000.0 0.8725 0.05881
5416000000.0 0.6039 -0.648
5419000000.0 -0.1309 -0.8438
5422000000.0 -0.7489 -0.4508
5425000000.0 -0.8023 0.3154
5428000000.0 -0.2093 0.8154
5431000000.0 0.4962 0.717
5434000000.0 0.871 0.04703
5438000000.0 0.591 -0.6215
5441000000.0 -0.1447 -0.8973
5444000000.0 -0.7773 -0.4255
5447000000.0 -0.8333 0.3558
5450000000.0 -0.2553 0.8426
5453000000.0 0.5034 0.7511
5456000000.0 0.902 0.07278
5459000000.0 0.6215 -0.6424
5462000000.0 -0.06492 -0.9005
5466000000.0 -0.7408 -0.5134
5469000000.0 -0.8825 0.2582
5472000000.0 -0.3333 0.8482
5475000000.0 0.4278 0.8057
5478000000.0 0.9142 0.177
5481000000.0 0.7507 -0.588
5484000000.0 0.04088 -0.9813
5488000000.0 -0.7057 -0.6624
5491000000.0 -0.979 0.1045
5494000000.0 -0.555 0.8486
5497000000.0 0.2719 0.9663
5500000000.0 0.9242 0.3468
5503000000.0 0.8939 -0.4649
5506000000.0 0.189 -0.9422
5509000000.0 -0.6229 -0.8364
5512000000.0 -1.012 -0.03963
5516000000.0 -0.7052 0.8032
5519000000.0 0.1269 1.034
5522000000.0 0.8661 0.5619
5525000000.0 1.008 -0.3124
5528000000.0 0.4142 -0.9472
5531000000.0 -0.4783 -0.9533
5534000000.0 -1.038 -0.2541
5538000000.0 -0.8386 0.6618
5541000000.0 -0.07946 1.051
5544000000.0 0.7521 0.7595
5547000000.0 1.045 -0.1111
5550000000.0 0.5972 -0.9343
5553000000.0 -0.2856 -0.9882
5556000000.0 -0.9836 -0.3796
5559000000.0 -0.9398 0.4992
5562000000.0 -0.2187 1.051
5566000000.0 0.6345 0.8106
5569000000.0 1.016 0.02944
5572000000.0 0.683 -0.7707
5575000000.0 -0.1481 -1.016
5578000000.0 -0.8756 -0.4734
5581000000.0 -0.9658 0.3466
5584000000.0 -0.3297 0.9219
5588000000.0 0.491 0.8367
5591000000.0 0.9687 0.1549
5594000000.0 0.7072 -0.6293
5597000000.0 -0.05172 -0.9538
5600000000.0 -0.7576 -0.5663
5603000000.0 -0.8933 0.2289
5606000000.0 -0.402 0.8185
5609000000.0 0.3934 0.8256
5612000000.0 0.8626 0.2221
5616000000.0 0.6966 -0.5601
5619000000.0 0.02155 -0.8594
5622000000.0 -0.6626 -0.5853
5625000000.0 -0.8468 0.1783
5628000000.0 -0.3979 0.7368
5631000000.0 0.3252 0.7878
5634000000.0 0.8047 0.2389
5638000000.0 0.7023 -0.4838
5641000000.0 0.05865 -0.8245
5644000000.0 -0.6462 -0.5728
5647000000.0 -0.8303 0.1499
5650000000.0 -0.441 0.7642
5653000000.0 0.3387 0.8092
5656000000.0 0.8003 0.2671
5659000000.0 0.6969 -0.4935
5662000000.0 0.06163 -0.8946
5666000000.0 -0.6117 -0.6002
5669000000.0 -0.8919 0.1279
5672000000.0 -0.4551 0.7826
5675000000.0 0.3418 0.845
5678000000.0 0.9128 0.2611
5681000000.0 0.8019 -0.5046
5684000000.0 0.08803 -0.934
5688000000.0 -0.6969 -0.6697
5691000000.0 -0.9628 0.1288
5694000000.0 -0.4949 0.8137
5697000000.0 0.3406 0.9351
5700000000.0 0.9188 0.3298
5703000000.0 0.868 -0.5058
5706000000.0 0.1238 -1.037
5709000000.0 -0.7169 -0.755
5712000000.0 -1.027 0.03071
5716000000.0 -0.5914 0.7979
5719000000.0 0.26 1.011
5722000000.0 0.9752 0.4679
5725000000.0 0.9604 -0.4523
5728000000.0 0.2812 -1.041
5731000000.0 -0.6318 -0.901
5734000000.0 -1.087 -0.08029
5738000000.0 -0.7601 0.8142
5741000000.0 0.1691 1.096
5744000000.0 0.9344 0.6145
5747000000.0 1.061 -0.3198
5750000000.0 0.4437 -1.015
5753000000.0 -0.4712 -0.9664
5756000000.0 -1.09 -0.2459
5759000000.0 -0.8929 0.6742
5762000000.0 -0.06326 1.154
5766000000.0 0.8262 0.7683
5769000000.0 1.122 -0.1737
5772000000.0 0.5815 -0.9488
5775000000.0 -0.3224 -1.05
5778000000.0 -1.012 -0.393
5781000000.0 -0.9787 0.5442
5784000000.0 -0.2526 1.099
5788000000.0 0.6953 0.8652
5791000000.0 1.077 -0.02555
5794000000.0 0.7235 -0.7807
5797000000.0 -0.1738 -1.073
5800000000.0 -0.9375 -0.535
5803000000.0 -1.007 0.35
5806000000.0 -0.3514 1.016
5809000000.0 0.5572 0.895
5812000000.0 1.024 0.1439
5816000000.0 0.7894 -0.6507
5819000000.0 -0.03741 -1.057
5822000000.0 -0.8389 -0.6107
5825000000.0 -0.9496 0.2382
5828000000.0 -0.4441 0.8921
5831000000.0 0.428 0.9108
5834000000.0 0.9316 0.2171
5838000000.0 0.7868 -0.5927
5841000000.0 0.03545 -0.9566
5844000000.0 -0.7256 -0.653
5847000000.0 -0.9462 0.1424
5850000000.0 -0.4662 0.8425
5853000000.0 0.3675 0.8806
5856000000.0 0.9385 0.2739
5859000000.0 0.774 -0.5468
5862000000.0 0.04859 -0.9237
5866000000.0 -0.6393 -0.6405
5869000000.0 -0.8831 0.1573
5872000000.0 -0.4498 0.7808
5875000000.0 0.3148 0.8393
5878000000.0 0.8176 0.2742
5881000000.0 0.734 -0.4877
5884000000.0 0.06575 -0.9052
5888000000.0 -0.6312 -0.6219
5891000000.0 -0.868 0.1032
5894000000.0 -0.476 0.75
5897000000.0 0.2602 0.7936
5900000000.0 0.8406 0.2855
5903000000.0 0.7288 -0.4446
5906000000.0 0.1436 -0.8201
5909000000.0 -0.6231 -0.6516
5912000000.0 -0.8647 0.0233
5916000000.0 -0.4885 0.7033
5919000000.0 0.2351 0.8268
5922000000.0 0.7936 0.3835
5925000000.0 0.8074 -0.3894
5928000000.0 0.2491 -0.8378
5931000000.0 -0.5083 -0.7186
5934000000.0 -0.89 -0.05911
5938000000.0 -0.6229 0.6482
5941000000.0 0.1062 0.9008
5944000000.0 0.7545 0.4932
5947000000.0 0.8628 -0.2475
5950000000.0 0.349 -0.856
5953000000.0 -0.4362 -0.8295
5956000000.0 -0.8848 -0.2185
5959000000.0 -0.7074 0.5492
5962000000.0 -0.05861 0.9202
5966000000.0 0.6753 0.6161
5969000000.0 0.9522 -0.153
5972000000.0 0.5142 -0.7997
5975000000.0 -0.3226 -0.9052
5978000000.0 -0.9109 -0.3513
5981000000.0 -0.8696 0.4745
5984000000.0 -0.1905 0.9593
5988000000.0 0.622 0.7719
5991000000.0 0.9949 -0.002474
5994000000.0 0.6798 -0.754
5997000000.0 -0.1905 -0.9792
6000000000.0 -0.8833 -0.4841
6003000000.0 -0.941 0.3339
6006000000.0 -0.3309 0.9018
6009000000.0 0.529 0.8534
6012000000.0 0.9887 0.138
6016000000.0 0.7376 -0.6887
6019000000.0 -0.05437 -1.007
6022000000.0 -0.8043 -0.592
6025000000.0 -0.9587 0.2666
6028000000.0 -0.4177 0.887
6031000000.0 0.4318 0.8935
6034000000.0 0.9336 0.2482
6038000000.0 0.7852 -0.5801
6041000000.0 0.01483 -0.9657
6044000000.0 -0.7151 -0.6437
6047000000.0 -0.9314 0.1591
6050000000.0 -0.467 0.8395
6053000000.0 0.3707 0.8696
6056000000.0 0.9236 0.2843
6059000000.0 0.7925 -0.5362
6062000000.0 0.06134 -0.9108
6066000000.0 -0.6611 -0.6277
6069000000.0 -0.8961 0.1199
6072000000.0 -0.4841 0.7809
6075000000.0 0.2959 0.8072
6078000000.0 0.8481 0.3299
6081000000.0 0.7533 -0.4627
6084000000.0 0.07948 -0.8502
6088000000.0 -0.589 -0.6249
6091000000.0 -0.8562 0.06822
6094000000.0 -0.479 0.7074
6097000000.0 0.2401 0.8251
6100000000.0 0.7977 0.3324
6103000000.0 0.7641 -0.3743
6106000000.0 0.1461 -0.82
6109000000.0 -0.5494 -0.6375
6112000000.0 -0.878 0.0258
6116000000.0 -0.4983 0.6641
6119000000.0 0.2076 0.8515
6122000000.0 0.8139 0.387
6125000000.0 0.7803 -0.3798
6128000000.0 0.1907 -0.8663
6131000000.0 -0.5534 -0.6893
6134000000.0 -0.88 -0.0103
6138000000.0 -0.5608 0.6421
6141000000.0 0.149 0.8351
6144000000.0 0.802 0.4348
6147000000.0 0.7905 -0.3423
6150000000.0 0.2766 -0.8898
6153000000.0 -0.486 -0.7997
6156000000.0 -0.8983 -0.09049
6159000000.0 -0.651 0.6545
6162000000.0 0.08989 0.9063
6166000000.0 0.7833 0.5083
6169000000.0 0.8792 -0.2536
6172000000.0 0.3655 -0.88
6175000000.0 -0.4738 -0.8189
6178000000.0 -0.9188 -0.1936
6181000000.0 -0.7145 0.5982
6184000000.0 -0.01055 0.9529
6188000000.0 0.7522 0.6154
6191000000.0 0.9182 -0.2143
6194000000.0 0.4182 -0.8564
6197000000.0 -0.4076 -0.8794
6200000000.0 -0.9708 -0.2402
6203000000.0 -0.7813 0.538
6206000000.0 -0.06338 0.9493
6209000000.0 0.698 0.6585
6212000000.0 0.9076 -0.09053
6216000000.0 0.5153 -0.7693
6219000000.0 -0.2468 -0.8907
6222000000.0 -0.8647 -0.3398
6225000000.0 -0.7953 0.4194
6228000000.0 -0.1709 0.9142
6231000000.0 0.5702 0.6882
6234000000.0 0.904 -0.007759
6238000000.0 0.5705 -0.6373
6241000000.0 -0.1704 -0.8476
6244000000.0 -0.7709 -0.4139
6247000000.0 -0.8105 0.2925
6250000000.0 -0.2929 0.8304
6253000000.0 0.4517 0.7209
6256000000.0 0.8261 0.114
6259000000.0 0.6363 -0.5443
6262000000.0 -0.00453 -0.7627
6266000000.0 -0.6542 -0.5062
6269000000.0 -0.8097 0.1434
