! Created with skrf 1.8.0 (http://scikit-rf.org).
# Hz S RI R 50.0 
!freq ReS11 ImS11
4000000000.0 -0.1471 -1.502
4003000000.0 -1.237 -0.7646
4006000000.0 -1.422 0.4829
4009000000.0 -0.5217 1.418
4012000000.0 0.8103 1.295
4016000000.0 1.522 0.1885
4019000000.0 1.072 -1.061
4022000000.0 -0.1387 -1.537
4025000000.0 -1.315 -0.8521
4028000000.0 -1.49 0.4738
4031000000.0 -0.5466 1.535
4034000000.0 0.8562 1.379
4038000000.0 1.63 0.1963
4041000000.0 1.182 -1.129
4044000000.0 -0.1363 -1.62
4047000000.0 -1.342 -0.8797
4050000000.0 -1.535 0.4694
4053000000.0 -0.5661 1.528
4056000000.0 0.8148 1.417
4059000000.0 1.629 0.2748
4062000000.0 1.219 -1.039
4066000000.0 -0.004061 -1.611
4069000000.0 -1.24 -1.028
4072000000.0 -1.603 0.2971
4075000000.0 -0.7743 1.387
4078000000.0 0.5964 1.521
4081000000.0 1.578 0.5155
4084000000.0 1.385 -0.8872
4088000000.0 0.231 -1.676
4091000000.0 -1.134 -1.217
4094000000.0 -1.643 0.07762
4097000000.0 -0.9925 1.331
4100000000.0 0.3928 1.593
4103000000.0 1.438 0.672
4106000000.0 1.466 -0.6857
4109000000.0 0.4314 -1.497
4112000000.0 -0.9026 -1.292
4116000000.0 -1.497 -0.1848
4119000000.0 -1.1 1.023
4122000000.0 0.03901 1.452
4125000000.0 1.145 0.9275
4128000000.0 1.442 -0.2821
4131000000.0 0.7292 -1.288
4134000000.0 -0.4493 -1.387
4138000000.0 -1.365 -0.5586
4141000000.0 -1.317 0.6973
4144000000.0 -0.3644 1.439
4147000000.0 0.8776 1.232
4150000000.0 1.531 0.0905
4153000000.0 1.047 -1.096
4156000000.0 -0.1453 -1.508
4159000000.0 -1.249 -0.8583
4162000000.0 -1.448 0.4049
4166000000.0 -0.6219 1.401
4169000000.0 0.6636 1.371
4172000000.0 1.466 0.4
4175000000.0 1.218 -0.8567
4178000000.0 0.1459 -1.455
4181000000.0 -1.074 -1.079
4184000000.0 -1.487 0.1245
4188000000.0 -0.8713 1.26
4191000000.0 0.3977 1.464
4194000000.0 1.391 0.6282
4197000000.0 1.425 -0.6977
4200000000.0 0.3455 -1.561
4203000000.0 -1.027 -1.247
4206000000.0 -1.629 -0.003745
4209000000.0 -1.035 1.311
4212000000.0 0.4044 1.619
4216000000.0 1.538 0.7147
4219000000.0 1.481 -0.7869
4222000000.0 0.2485 -1.648
4225000000.0 -1.168 -1.228
4228000000.0 -1.644 0.1498
4231000000.0 -0.8606 1.392
4234000000.0 0.5758 1.544
4238000000.0 1.588 0.4424
4241000000.0 1.287 -0.959
4244000000.0 -0.002937 -1.58
4247000000.0 -1.235 -0.972
4250000000.0 -1.542 0.4184
4253000000.0 -0.6237 1.457
4256000000.0 0.7522 1.343
4259000000.0 1.528 0.2245
4262000000.0 1.075 -1.045
4266000000.0 -0.1551 -1.511
4269000000.0 -1.256 -0.8114
4272000000.0 -1.374 0.4595
4275000000.0 -0.4596 1.415
4278000000.0 0.7437 1.223
4281000000.0 1.42 0.1446
4284000000.0 0.9305 -0.9983
4288000000.0 -0.1986 -1.4
4291000000.0 -1.137 -0.7004
4294000000.0 -1.277 0.467
4297000000.0 -0.4366 1.255
4300000000.0 0.7168 1.135
4303000000.0 1.316 0.1506
4306000000.0 0.9451 -0.8643
4309000000.0 -0.01357 -1.294
4312000000.0 -0.9929 -0.8031
4316000000.0 -1.266 0.2505
4319000000.0 -0.6165 1.146
4322000000.0 0.4516 1.22
4325000000.0 1.22 0.4567
4328000000.0 1.135 -0.6736
4331000000.0 0.2122 -1.333
4334000000.0 -0.8844 -1.031
4338000000.0 -1.392 -0.00215
4341000000.0 -0.9074 1.078
4344000000.0 0.2728 1.381
4347000000.0 1.288 0.6887
4350000000.0 1.366 -0.5297
4353000000.0 0.4373 -1.361
4356000000.0 -0.7736 -1.179
4359000000.0 -1.437 -0.1748
4362000000.0 -1.049 1.027
4366000000.0 0.07368 1.465
4369000000.0 1.17 0.8973
4372000000.0 1.417 -0.3369
4375000000.0 0.639 -1.346
4378000000.0 -0.6498 -1.378
4381000000.0 -1.472 -0.4086
4384000000.0 -1.235 0.8801
4388000000.0 -0.0526 1.545
4391000000.0 1.173 1.058
4394000000.0 1.54 -0.2533
4397000000.0 0.8104 -1.36
4400000000.0 -0.6189 -1.503
4403000000.0 -1.523 -0.4685
4406000000.0 -1.296 0.9184
4409000000.0 -0.09631 1.614
4412000000.0 1.215 1.043
4416000000.0 1.531 -0.2714
4419000000.0 0.7308 -1.385
4422000000.0 -0.6129 -1.388
4425000000.0 -1.477 -0.3527
4428000000.0 -1.109 0.928
4431000000.0 -0.0008376 1.467
4434000000.0 1.128 0.8812
4438000000.0 1.382 -0.3406
4441000000.0 0.5568 -1.272
4444000000.0 -0.6473 -1.204
4447000000.0 -1.32 -0.205
4450000000.0 -0.971 0.8859
4453000000.0 0.1131 1.298
4456000000.0 1.079 0.6882
4459000000.0 1.193 -0.4479
4462000000.0 0.3816 -1.212
4466000000.0 -0.6771 -1.028
4469000000.0 -1.212 -0.05733
4472000000.0 -0.7808 0.9257
4475000000.0 0.232 1.152
4478000000.0 1.072 0.5321
4481000000.0 1.024 -0.4814
4484000000.0 0.2447 -1.146
4488000000.0 -0.7208 -0.8942
4491000000.0 -1.131 -0.01209
4494000000.0 -0.7119 0.8628
4497000000.0 0.2417 1.079
4500000000.0 1.013 0.488
4503000000.0 1.029 -0.492
4506000000.0 0.2434 -1.06
4509000000.0 -0.704 -0.8638
4512000000.0 -1.117 -0.04932
4516000000.0 -0.7334 0.8616
4519000000.0 0.2048 1.118
4522000000.0 0.9728 0.5794
4525000000.0 1.059 -0.4154
4528000000.0 0.3494 -1.106
4531000000.0 -0.658 -0.9708
4534000000.0 -1.175 -0.129
4538000000.0 -0.855 0.8214
4541000000.0 0.1173 1.187
4544000000.0 0.9846 0.6857
4547000000.0 1.162 -0.3133
4550000000.0 0.508 -1.087
4553000000.0 -0.5328 -1.099
4556000000.0 -1.179 -0.3028
4559000000.0 -1.004 0.7273
4562000000.0 -0.1237 1.259
4566000000.0 0.9097 0.8692
4569000000.0 1.267 -0.1529
4572000000.0 0.737 -1.048
4575000000.0 -0.3501 -1.284
4578000000.0 -1.198 -0.5326
4581000000.0 -1.177 0.5871
4584000000.0 -0.3129 1.29
4588000000.0 0.7949 1.114
4591000000.0 1.381 0.06331
4594000000.0 0.9628 -1.006
4597000000.0 -0.2097 -1.362
4600000000.0 -1.184 -0.7075
4603000000.0 -1.294 0.4515
4606000000.0 -0.5139 1.317
4609000000.0 0.7006 1.222
4612000000.0 1.377 0.2381
4616000000.0 1.044 -0.9415
4619000000.0 -0.06002 -1.392
4622000000.0 -1.151 -0.8229
4625000000.0 -1.345 0.355
4628000000.0 -0.5936 1.279
4631000000.0 0.6434 1.275
4634000000.0 1.338 0.3175
4638000000.0 1.053 -0.8812
4641000000.0 0.03548 -1.37
4644000000.0 -1.044 -0.8919
4647000000.0 -1.321 0.2784
4650000000.0 -0.573 1.186
4653000000.0 0.5655 1.182
4656000000.0 1.256 0.2945
4659000000.0 0.9881 -0.8197
4662000000.0 -0.05264 -1.217
4666000000.0 -0.9816 -0.7725
4669000000.0 -1.197 0.2855
4672000000.0 -0.516 1.076
4675000000.0 0.4971 1.086
4678000000.0 1.116 0.2327
4681000000.0 0.8647 -0.7099
4684000000.0 0.002852 -1.106
4688000000.0 -0.8985 -0.6781
4691000000.0 -1.098 0.2783
4694000000.0 -0.472 1.019
4697000000.0 0.4932 0.9696
4700000000.0 1.043 0.1841
4703000000.0 0.8535 -0.723
4706000000.0 -0.04279 -1.09
4709000000.0 -0.8665 -0.6424
4712000000.0 -1.023 0.2871
4716000000.0 -0.4279 0.9593
4719000000.0 0.4658 0.9217
4722000000.0 1.067 0.2053
4725000000.0 0.7914 -0.7213
4728000000.0 -0.04833 -1.066
4731000000.0 -0.8394 -0.6378
4734000000.0 -1.022 0.2319
4738000000.0 -0.4543 0.9411
4741000000.0 0.3991 0.962
4744000000.0 1.041 0.2892
4747000000.0 0.9006 -0.5762
4750000000.0 0.09013 -1.061
4753000000.0 -0.7814 -0.7622
4756000000.0 -1.099 0.09218
4759000000.0 -0.6335 0.9054
4762000000.0 0.2601 1.081
4766000000.0 1.038 0.47
4769000000.0 1.054 -0.4962
4772000000.0 0.2983 -1.135
4775000000.0 -0.7036 -0.929
4778000000.0 -1.164 -0.08357
4781000000.0 -0.8333 0.8752
4784000000.0 0.1166 1.182
4788000000.0 1.009 0.6563
4791000000.0 1.185 -0.3105
4794000000.0 0.5383 -1.12
4797000000.0 -0.5444 -1.113
4800000000.0 -1.253 -0.3364
4803000000.0 -1.002 0.7149
4806000000.0 -0.1052 1.238
4809000000.0 0.8856 0.8937
4812000000.0 1.276 -0.101
4816000000.0 0.7811 -1.084
4819000000.0 -0.3523 -1.304
4822000000.0 -1.253 -0.5831
4825000000.0 -1.217 0.5681
4828000000.0 -0.3195 1.322
4831000000.0 0.8323 1.12
4834000000.0 1.366 0.06148
4838000000.0 0.9389 -1.072
4841000000.0 -0.2078 -1.396
4844000000.0 -1.212 -0.7383
4847000000.0 -1.318 0.5117
4850000000.0 -0.4531 1.312
4853000000.0 0.6905 1.199
4856000000.0 1.377 0.1751
4859000000.0 1.008 -0.9379
4862000000.0 -0.06685 -1.355
4866000000.0 -1.079 -0.7701
4869000000.0 -1.256 0.3664
4872000000.0 -0.5363 1.209
4875000000.0 0.6393 1.152
4878000000.0 1.284 0.2395
4881000000.0 0.9422 -0.7943
4884000000.0 -0.02169 -1.253
4888000000.0 -0.9721 -0.7335
4891000000.0 -1.162 0.2745
4894000000.0 -0.5078 1.079
4897000000.0 0.4988 1.026
4900000000.0 1.082 0.246
4903000000.0 0.8695 -0.6859
4906000000.0 0.03457 -1.102
4909000000.0 -0.8307 -0.6684
4912000000.0 -1.028 0.1876
4916000000.0 -0.4854 0.8894
4919000000.0 0.4007 0.9115
4922000000.0 0.942 0.2737
4925000000.0 0.7899 -0.522
4928000000.0 0.09702 -0.9678
4931000000.0 -0.671 -0.6791
4934000000.0 -0.9513 0.08447
4938000000.0 -0.5224 0.7709
4941000000.0 0.2613 0.9085
4944000000.0 0.8628 0.3645
4947000000.0 0.8401 -0.4558
4950000000.0 0.2007 -0.963
4953000000.0 -0.6144 -0.7311
4956000000.0 -0.9306 0.01907
4959000000.0 -0.6209 0.7308
4962000000.0 0.2053 0.9721
4966000000.0 0.879 0.4382
4969000000.0 0.8873 -0.4086
4972000000.0 0.2552 -0.9749
4975000000.0 -0.6035 -0.83
4978000000.0 -1.02 -0.0839
4981000000.0 -0.7132 0.7652
4984000000.0 0.1079 1.038
4988000000.0 0.8743 0.5626
4991000000.0 1.019 -0.3306
4994000000.0 0.4399 -1.033
4997000000.0 -0.5108 -0.9921
5000000000.0 -1.082 -0.2382
5003000000.0 -0.8928 0.7302
5006000000.0 -0.01784 1.156
5009000000.0 0.9154 0.7768
5012000000.0 1.21 -0.1936
5016000000.0 0.6236 -1.08
5019000000.0 -0.4585 -1.181
5022000000.0 -1.193 -0.3761
5025000000.0 -1.078 0.6515
5028000000.0 -0.1697 1.258
5031000000.0 0.8893 0.9177
5034000000.0 1.277 -0.07937
5038000000.0 0.7663 -1.04
5041000000.0 -0.3003 -1.24
5044000000.0 -1.175 -0.5528
5047000000.0 -1.181 0.5352
5050000000.0 -0.3475 1.257
5053000000.0 0.7246 1.076
5056000000.0 1.268 0.1483
5059000000.0 0.9166 -0.8797
5062000000.0 -0.08143 -1.279
5066000000.0 -1.082 -0.755
5069000000.0 -1.273 0.3395
5072000000.0 -0.5218 1.167
5075000000.0 0.5605 1.17
5078000000.0 1.237 0.3104
5081000000.0 1.016 -0.7288
5084000000.0 0.08921 -1.23
5088000000.0 -0.9104 -0.8256
5091000000.0 -1.191 0.188
5094000000.0 -0.6272 0.9973
5097000000.0 0.3268 1.096
5100000000.0 1.011 0.4392
5103000000.0 1.004 -0.4877
5106000000.0 0.2255 -1.1
5109000000.0 -0.6549 -0.8845
5112000000.0 -1.095 -0.08006
5116000000.0 -0.7208 0.7807
5119000000.0 0.1465 1.066
5122000000.0 0.8704 0.5654
5125000000.0 1.001 -0.3171
5128000000.0 0.4135 -0.9483
5131000000.0 -0.4922 -0.8809
5134000000.0 -0.9779 -0.217
5138000000.0 -0.7621 0.6139
5141000000.0 0.009459 0.9671
5144000000.0 0.723 0.6284
5147000000.0 0.9542 -0.1953
5150000000.0 0.4635 -0.8392
5153000000.0 -0.3576 -0.8197
5156000000.0 -0.9005 -0.2335
5159000000.0 -0.7478 0.5444
5162000000.0 -0.0657 0.8974
5166000000.0 0.6368 0.6345
5169000000.0 0.8784 -0.09721
5172000000.0 0.4977 -0.7487
5175000000.0 -0.3149 -0.833
5178000000.0 -0.8353 -0.3001
5181000000.0 -0.7713 0.4541
5184000000.0 -0.1091 0.9167
5188000000.0 0.628 0.69
5191000000.0 0.934 -0.09927
5194000000.0 0.5297 -0.7858
5197000000.0 -0.3146 -0.911
5200000000.0 -0.8922 -0.3401
5203000000.0 -0.8177 0.507
5206000000.0 -0.123 0.9448
5209000000.0 0.6521 0.7069
5212000000.0 0.9483 -0.07538
5216000000.0 0.5563 -0.8039
5219000000.0 -0.2996 -0.9604
5222000000.0 -0.9021 -0.3699
5225000000.0 -0.9136 0.4782
5228000000.0 -0.1983 0.9957
5231000000.0 0.6453 0.7929
5234000000.0 1.037 -0.02258
5238000000.0 0.6553 -0.8095
5241000000.0 -0.231 -1.038
5244000000.0 -0.9097 -0.5186
5247000000.0 -0.9721 0.3956
5250000000.0 -0.3223 1.027
5253000000.0 0.5816 0.9177
5256000000.0 1.088 0.1104
5259000000.0 0.7757 -0.7365
5262000000.0 -0.05202 -1.102
5266000000.0 -0.8508 -0.6695
5269000000.0 -1.075 0.2674
5272000000.0 -0.5023 0.9778
5275000000.0 0.4097 0.9812
5278000000.0 1.059 0.3473
5281000000.0 0.9496 -0.591
5284000000.0 0.1768 -1.089
5288000000.0 -0.7211 -0.8237
5291000000.0 -1.117 -0.003197
5294000000.0 -0.7286 0.8714
5297000000.0 0.1914 1.114
5300000000.0 0.9883 0.5594
5303000000.0 1.055 -0.3841
5306000000.0 0.3983 -1.065
5309000000.0 -0.5535 -0.9967
5312000000.0 -1.116 -0.2507
5316000000.0 -0.8819 0.7286
5319000000.0 -0.03352 1.143
5322000000.0 0.8658 0.7619
5325000000.0 1.144 -0.1815
5328000000.0 0.5881 -0.9794
5331000000.0 -0.3729 -1.105
5334000000.0 -1.076 -0.407
5338000000.0 -0.9795 0.5692
5341000000.0 -0.179 1.11
5344000000.0 0.7395 0.8583
5347000000.0 1.102 -0.0571
5350000000.0 0.6545 -0.8954
5353000000.0 -0.273 -1.076
5356000000.0 -0.9559 -0.4705
5359000000.0 -0.9969 0.4616
5362000000.0 -0.2399 1.074
5366000000.0 0.637 0.8453
5369000000.0 1.049 0.03952
5372000000.0 0.6767 -0.7961
5375000000.0 -0.1825 -1.013
5378000000.0 -0.9127 -0.47
5381000000.0 -0.9271 0.4066
5384000000.0 -0.2539 0.9984
5388000000.0 0.6007 0.787
5391000000.0 0.9466 0.0003142
5394000000.0 0.5978 -0.7159
5397000000.0 -0.2046 -0.9145
5400000000.0 -0.8113 -0.4015
5403000000.0 -0.809 0.4144
5406000000.0 -0.1866 0.8434
5409000000.0 0.5636 0.6788
5412000000.0 0.8614 0.01034
5416000000.0 0.5496 -0.7004
5419000000.0 -0.1997 -0.8095
5422000000.0 -0.7878 -0.3528
5425000000.0 -0.7869 0.3791
5428000000.0 -0.1742 0.8656
5431000000.0 0.5636 0.6378
5434000000.0 0.9038 0.007727
5438000000.0 0.5131 -0.683
5441000000.0 -0.205 -0.8809
5444000000.0 -0.8053 -0.3692
5447000000.0 -0.7694 0.3735
5450000000.0 -0.2138 0.8478
5453000000.0 0.5612 0.6841
5456000000.0 0.8809 0.003911
5459000000.0 0.5768 -0.6993
5462000000.0 -0.1445 -0.8784
5466000000.0 -0.7841 -0.4475
5469000000.0 -0.8806 0.3149
5472000000.0 -0.3067 0.8639
5475000000.0 0.4556 0.8066
5478000000.0 0.9355 0.1449
5481000000.0 0.7061 -0.6372
5484000000.0 -0.03434 -0.9909
5488000000.0 -0.7625 -0.6321
5491000000.0 -0.9511 0.2184
5494000000.0 -0.4874 0.8896
5497000000.0 0.3627 0.9333
5500000000.0 0.9701 0.3572
5503000000.0 0.8764 -0.5346
5506000000.0 0.1565 -0.9871
5509000000.0 -0.7063 -0.7843
5512000000.0 -1.033 0.007197
5516000000.0 -0.6699 0.8123
5519000000.0 0.2048 1.038
5522000000.0 0.8846 0.5228
5525000000.0 0.9506 -0.3708
5528000000.0 0.3542 -0.9902
5531000000.0 -0.5152 -0.9365
5534000000.0 -1.043 -0.1533
5538000000.0 -0.818 0.6727
5541000000.0 -0.01129 1.082
5544000000.0 0.8265 0.6792
5547000000.0 1.075 -0.1838
5550000000.0 0.4985 -0.9312
5553000000.0 -0.3836 -0.9855
5556000000.0 -0.9746 -0.3612
5559000000.0 -0.9133 0.5307
5562000000.0 -0.1523 1.057
5566000000.0 0.7139 0.7888
5569000000.0 1.002 -0.05632
5572000000.0 0.6277 -0.8163
5575000000.0 -0.2709 -0.9631
5578000000.0 -0.9363 -0.4182
5581000000.0 -0.88 0.3811
5584000000.0 -0.2417 0.9481
5588000000.0 0.5625 0.7838
5591000000.0 0.9235 0.06863
5594000000.0 0.6518 -0.7137
5597000000.0 -0.1105 -0.9226
5600000000.0 -0.7733 -0.4855
5603000000.0 -0.8545 0.2954
5606000000.0 -0.3084 0.8355
5609000000.0 0.4559 0.7407
5612000000.0 0.8869 0.1124
5616000000.0 0.6519 -0.5726
5619000000.0 -0.05032 -0.8508
5622000000.0 -0.6772 -0.4913
5625000000.0 -0.8079 0.211
5628000000.0 -0.3276 0.7709
5631000000.0 0.4092 0.7648
5634000000.0 0.8392 0.1684
5638000000.0 0.6332 -0.5585
5641000000.0 -0.04245 -0.8143
5644000000.0 -0.6803 -0.5113
5647000000.0 -0.809 0.2216
5650000000.0 -0.3589 0.7787
5653000000.0 0.407 0.7467
5656000000.0 0.8339 0.1589
5659000000.0 0.6374 -0.5481
5662000000.0 -0.02799 -0.8932
5666000000.0 -0.7043 -0.5552
5669000000.0 -0.8577 0.219
5672000000.0 -0.3761 0.7929
5675000000.0 0.3954 0.8047
5678000000.0 0.8915 0.2055
5681000000.0 0.6915 -0.5789
5684000000.0 0.0127 -0.9531
5688000000.0 -0.751 -0.5911
5691000000.0 -0.9358 0.2157
5694000000.0 -0.4598 0.8677
5697000000.0 0.3947 0.886
5700000000.0 0.9529 0.2692
5703000000.0 0.8146 -0.6236
5706000000.0 0.05754 -1.018
5709000000.0 -0.7374 -0.6874
5712000000.0 -1.024 0.1549
5716000000.0 -0.5664 0.9192
5719000000.0 0.3595 0.9928
5722000000.0 1.017 0.3757
5725000000.0 0.908 -0.5335
5728000000.0 0.1933 -1.02
5731000000.0 -0.6786 -0.7945
5734000000.0 -1.108 0.009403
5738000000.0 -0.6697 0.8272
5741000000.0 0.2219 1.089
5744000000.0 0.9748 0.5305
5747000000.0 1.018 -0.3921
5750000000.0 0.3634 -1.071
5753000000.0 -0.6034 -0.9501
5756000000.0 -1.103 -0.1416
5759000000.0 -0.8277 0.75
5762000000.0 0.08305 1.102
5766000000.0 0.9054 0.6697
5769000000.0 1.072 -0.2339
5772000000.0 0.4886 -0.9643
5775000000.0 -0.4268 -1.03
5778000000.0 -1.049 -0.3198
5781000000.0 -0.8859 0.5936
5784000000.0 -0.09579 1.079
5788000000.0 0.7354 0.7583
5791000000.0 1.109 -0.05174
5794000000.0 0.6421 -0.9309
5797000000.0 -0.2708 -1.042
5800000000.0 -0.975 -0.4875
5803000000.0 -0.9409 0.451
5806000000.0 -0.2347 1.066
5809000000.0 0.6278 0.8105
5812000000.0 1.025 0.02672
5816000000.0 0.6979 -0.7619
5819000000.0 -0.1558 -1.004
5822000000.0 -0.8633 -0.4833
5825000000.0 -0.9404 0.345
5828000000.0 -0.3414 0.9033
5831000000.0 0.5112 0.8606
5834000000.0 0.9855 0.1292
5838000000.0 0.6949 -0.6708
5841000000.0 -0.07527 -0.9975
5844000000.0 -0.7583 -0.5469
5847000000.0 -0.907 0.264
5850000000.0 -0.3662 0.8691
5853000000.0 0.4836 0.8007
5856000000.0 0.9237 0.1533
5859000000.0 0.7198 -0.6031
5862000000.0 -0.03015 -0.9375
5866000000.0 -0.7253 -0.503
5869000000.0 -0.8673 0.2369
5872000000.0 -0.345 0.7919
5875000000.0 0.4151 0.7964
5878000000.0 0.8949 0.1776
5881000000.0 0.6542 -0.557
5884000000.0 -0.02806 -0.8713
5888000000.0 -0.6697 -0.5582
5891000000.0 -0.8302 0.1939
5894000000.0 -0.3891 0.7701
5897000000.0 0.3848 0.8043
5900000000.0 0.8439 0.1818
5903000000.0 0.685 -0.5072
5906000000.0 0.06319 -0.8128
5909000000.0 -0.651 -0.6158
5912000000.0 -0.8434 0.1027
5916000000.0 -0.4291 0.7437
5919000000.0 0.2997 0.8299
5922000000.0 0.8481 0.2841
5925000000.0 0.7628 -0.4571
5928000000.0 0.1149 -0.8816
5931000000.0 -0.5867 -0.6629
5934000000.0 -0.8753 0.07241
5938000000.0 -0.5894 0.6967
5941000000.0 0.2029 0.861
5944000000.0 0.8091 0.401
5947000000.0 0.8411 -0.3701
5950000000.0 0.2722 -0.8967
5953000000.0 -0.4927 -0.7587
5956000000.0 -0.9021 -0.1006
5959000000.0 -0.6679 0.6254
5962000000.0 0.05003 0.9501
5966000000.0 0.7836 0.5632
5969000000.0 0.9515 -0.2582
5972000000.0 0.4223 -0.8755
5975000000.0 -0.4132 -0.8845
5978000000.0 -0.9323 -0.267
5981000000.0 -0.8008 0.5671
5984000000.0 -0.0896 0.9726
5988000000.0 0.711 0.7127
5991000000.0 1.032 -0.07104
5994000000.0 0.5472 -0.8481
5997000000.0 -0.2971 -0.9908
6000000000.0 -0.9628 -0.3894
6003000000.0 -0.8783 0.4716
6006000000.0 -0.2073 0.9792
6009000000.0 0.6352 0.7832
6012000000.0 0.9879 0.0004428
6016000000.0 0.6286 -0.7899
6019000000.0 -0.2093 -0.9739
6022000000.0 -0.8503 -0.4611
6025000000.0 -0.9267 0.3579
6028000000.0 -0.302 0.9119
6031000000.0 0.5341 0.8133
6034000000.0 0.9764 0.06224
6038000000.0 0.6631 -0.6625
6041000000.0 -0.1051 -0.9498
6044000000.0 -0.789 -0.5462
6047000000.0 -0.925 0.3085
6050000000.0 -0.3552 0.8917
6053000000.0 0.4587 0.7954
6056000000.0 0.9357 0.1421
6059000000.0 0.6561 -0.6159
6062000000.0 -0.05873 -0.8917
6066000000.0 -0.7116 -0.5422
6069000000.0 -0.8526 0.2673
6072000000.0 -0.3591 0.8034
6075000000.0 0.4087 0.7781
6078000000.0 0.8461 0.148
6081000000.0 0.6557 -0.5488
6084000000.0 -0.01291 -0.8571
6088000000.0 -0.6774 -0.5214
6091000000.0 -0.8383 0.1732
6094000000.0 -0.3922 0.7698
6097000000.0 0.3578 0.7488
6100000000.0 0.8165 0.2174
6103000000.0 0.6789 -0.5051
6106000000.0 0.03115 -0.8497
6109000000.0 -0.6637 -0.5508
6112000000.0 -0.8481 0.1583
6116000000.0 -0.416 0.7694
6119000000.0 0.3287 0.8017
6122000000.0 0.8357 0.2659
6125000000.0 0.714 -0.4797
6128000000.0 0.06911 -0.8984
6131000000.0 -0.6324 -0.5988
6134000000.0 -0.877 0.1322
6138000000.0 -0.452 0.7865
6141000000.0 0.3296 0.8705
6144000000.0 0.8405 0.3062
6147000000.0 0.7372 -0.4516
6150000000.0 0.1315 -0.9046
6153000000.0 -0.6064 -0.668
6156000000.0 -0.9098 0.04563
6159000000.0 -0.554 0.7577
6162000000.0 0.2311 0.9178
6166000000.0 0.8845 0.3902
6169000000.0 0.8474 -0.4221
6172000000.0 0.2123 -0.9323
6175000000.0 -0.581 -0.7599
6178000000.0 -0.955 -0.02355
6181000000.0 -0.6221 0.7227
6184000000.0 0.1884 0.9375
6188000000.0 0.8408 0.4534
6191000000.0 0.8849 -0.3546
6194000000.0 0.2778 -0.9192
6197000000.0 -0.4894 -0.8114
6200000000.0 -0.9312 -0.1011
6203000000.0 -0.7029 0.6407
6206000000.0 0.03937 0.9325
6209000000.0 0.7719 0.542
6212000000.0 0.9092 -0.2564
6216000000.0 0.3548 -0.8645
6219000000.0 -0.3936 -0.842
6222000000.0 -0.8701 -0.2049
6225000000.0 -0.7193 0.5346
6228000000.0 -0.06807 0.9172
6231000000.0 0.6698 0.6205
6234000000.0 0.852 -0.1066
6238000000.0 0.4656 -0.7563
6241000000.0 -0.2663 -0.8194
6244000000.0 -0.7982 -0.3151
6247000000.0 -0.7491 0.3932
6250000000.0 -0.1476 0.8128
6253000000.0 0.5489 0.6635
6256000000.0 0.8573 0.009412
6259000000.0 0.5421 -0.641
6262000000.0 -0.1414 -0.7955
