! Created with skrf 1.8.0 (http://scikit-rf.org).
# Hz S RI R 50.0 
!freq ReS11 ImS11
4000000000.0 -0.2091 -1.497
4003000000.0 -1.267 -0.7416
4006000000.0 -1.435 0.548
4009000000.0 -0.4989 1.44
4012000000.0 0.8237 1.306
4016000000.0 1.591 0.2098
4019000000.0 1.082 -1.082
4022000000.0 -0.1798 -1.575
4025000000.0 -1.317 -0.844
4028000000.0 -1.509 0.5407
4031000000.0 -0.5329 1.52
4034000000.0 0.8584 1.393
4038000000.0 1.629 0.187
4041000000.0 1.132 -1.167
4044000000.0 -0.171 -1.586
4047000000.0 -1.337 -0.8947
4050000000.0 -1.565 0.5083
4053000000.0 -0.5737 1.527
4056000000.0 0.7969 1.408
4059000000.0 1.555 0.2701
4062000000.0 1.22 -1.067
4066000000.0 -0.03874 -1.596
4069000000.0 -1.257 -1.031
4072000000.0 -1.566 0.3171
4075000000.0 -0.8018 1.409
4078000000.0 0.6157 1.493
4081000000.0 1.553 0.4887
4084000000.0 1.371 -0.8798
4088000000.0 0.1861 -1.663
4091000000.0 -1.145 -1.239
4094000000.0 -1.639 0.1274
4097000000.0 -0.958 1.333
4100000000.0 0.3963 1.551
4103000000.0 1.455 0.6911
4106000000.0 1.4 -0.6583
4109000000.0 0.4006 -1.52
4112000000.0 -0.8702 -1.26
4116000000.0 -1.508 -0.1459
4119000000.0 -1.105 1.023
4122000000.0 0.08763 1.487
4125000000.0 1.169 0.9124
4128000000.0 1.466 -0.2937
4131000000.0 0.7429 -1.314
4134000000.0 -0.493 -1.408
4138000000.0 -1.379 -0.5379
4141000000.0 -1.317 0.6911
4144000000.0 -0.3139 1.484
4147000000.0 0.9165 1.239
4150000000.0 1.5 0.1151
4153000000.0 1.017 -1.087
4156000000.0 -0.145 -1.513
4159000000.0 -1.244 -0.8422
4162000000.0 -1.452 0.4259
4166000000.0 -0.6272 1.381
4169000000.0 0.6902 1.34
4172000000.0 1.44 0.3755
4175000000.0 1.201 -0.9255
4178000000.0 0.0883 -1.485
4181000000.0 -1.106 -1.028
4184000000.0 -1.512 0.1918
4188000000.0 -0.8327 1.281
4191000000.0 0.4079 1.436
4194000000.0 1.426 0.5877
4197000000.0 1.386 -0.7271
4200000000.0 0.2793 -1.534
4203000000.0 -1.064 -1.225
4206000000.0 -1.631 0.02197
4209000000.0 -0.9708 1.305
4212000000.0 0.4273 1.593
4216000000.0 1.539 0.6476
4219000000.0 1.454 -0.8468
4222000000.0 0.2025 -1.665
4225000000.0 -1.202 -1.169
4228000000.0 -1.692 0.2561
4231000000.0 -0.8015 1.464
4234000000.0 0.6587 1.488
4238000000.0 1.608 0.3729
4241000000.0 1.231 -1.05
4244000000.0 -0.05354 -1.6
4247000000.0 -1.289 -0.9602
4250000000.0 -1.516 0.4221
4253000000.0 -0.5484 1.44
4256000000.0 0.8111 1.304
4259000000.0 1.522 0.218
4262000000.0 1.058 -1.078
4266000000.0 -0.2068 -1.487
4269000000.0 -1.308 -0.7546
4272000000.0 -1.366 0.5425
4275000000.0 -0.4103 1.413
4278000000.0 0.8684 1.209
4281000000.0 1.417 0.06265
4284000000.0 0.9526 -1.068
4288000000.0 -0.2364 -1.367
4291000000.0 -1.222 -0.6365
4294000000.0 -1.247 0.5039
4297000000.0 -0.3839 1.232
4300000000.0 0.7323 1.113
4303000000.0 1.291 0.1564
4306000000.0 0.938 -0.8567
4309000000.0 -0.1033 -1.275
4312000000.0 -1.02 -0.7917
4316000000.0 -1.259 0.2723
4319000000.0 -0.583 1.173
4322000000.0 0.5262 1.214
4325000000.0 1.271 0.3884
4328000000.0 1.11 -0.6687
4331000000.0 0.1931 -1.354
4334000000.0 -0.9232 -1.031
4338000000.0 -1.374 0.03401
4341000000.0 -0.8689 1.101
4344000000.0 0.309 1.383
4347000000.0 1.303 0.626
4350000000.0 1.327 -0.5666
4353000000.0 0.4 -1.371
4356000000.0 -0.7984 -1.205
4359000000.0 -1.46 -0.1454
4362000000.0 -1.021 1.03
4366000000.0 0.1081 1.44
4369000000.0 1.206 0.8559
4372000000.0 1.436 -0.3948
4375000000.0 0.6126 -1.345
4378000000.0 -0.6673 -1.336
4381000000.0 -1.513 -0.3524
4384000000.0 -1.208 0.9199
4388000000.0 -0.0301 1.529
4391000000.0 1.216 1.036
4394000000.0 1.534 -0.2751
4397000000.0 0.7172 -1.417
4400000000.0 -0.6599 -1.419
4403000000.0 -1.525 -0.3826
4406000000.0 -1.256 0.9477
4409000000.0 -0.02002 1.559
4412000000.0 1.227 0.9924
4416000000.0 1.516 -0.3519
4419000000.0 0.647 -1.38
4422000000.0 -0.6857 -1.33
4425000000.0 -1.499 -0.2713
4428000000.0 -1.084 0.9756
4431000000.0 0.09298 1.451
4434000000.0 1.199 0.794
4438000000.0 1.348 -0.4456
4441000000.0 0.5016 -1.28
4444000000.0 -0.7181 -1.141
4447000000.0 -1.349 -0.151
4450000000.0 -0.9171 0.9599
4453000000.0 0.1995 1.334
4456000000.0 1.136 0.6299
4459000000.0 1.158 -0.5192
4462000000.0 0.3089 -1.206
4466000000.0 -0.8056 -0.9666
4469000000.0 -1.221 0.02165
4472000000.0 -0.7557 0.9624
4475000000.0 0.2922 1.142
4478000000.0 1.069 0.4442
4481000000.0 1.006 -0.5314
4484000000.0 0.2104 -1.13
4488000000.0 -0.7665 -0.87
4491000000.0 -1.152 0.0273
4494000000.0 -0.6749 0.8945
4497000000.0 0.3076 1.086
4500000000.0 1.042 0.4655
4503000000.0 0.9894 -0.5141
4506000000.0 0.1926 -1.081
4509000000.0 -0.7252 -0.871
4512000000.0 -1.126 -0.0118
4516000000.0 -0.7121 0.8848
4519000000.0 0.2367 1.115
4522000000.0 1.033 0.5079
4525000000.0 1.039 -0.4754
4528000000.0 0.2966 -1.103
4531000000.0 -0.6684 -0.975
4534000000.0 -1.176 -0.0759
4538000000.0 -0.8149 0.8634
4541000000.0 0.1421 1.179
4544000000.0 1.02 0.6315
4547000000.0 1.148 -0.3688
4550000000.0 0.4766 -1.128
4553000000.0 -0.5576 -1.082
4556000000.0 -1.197 -0.285
4559000000.0 -1.003 0.7718
4562000000.0 -0.05059 1.251
4566000000.0 0.9438 0.8575
4569000000.0 1.283 -0.1597
4572000000.0 0.6966 -1.068
4575000000.0 -0.4214 -1.247
4578000000.0 -1.231 -0.5121
4581000000.0 -1.168 0.6304
4584000000.0 -0.2612 1.307
4588000000.0 0.8133 1.066
4591000000.0 1.374 0.04184
4594000000.0 0.8673 -1.058
4597000000.0 -0.249 -1.336
4600000000.0 -1.209 -0.6719
4603000000.0 -1.307 0.5027
4606000000.0 -0.4386 1.31
4609000000.0 0.7612 1.184
4612000000.0 1.393 0.1563
4616000000.0 0.9869 -0.9682
4619000000.0 -0.1229 -1.401
4622000000.0 -1.164 -0.7639
4625000000.0 -1.306 0.4339
4628000000.0 -0.5014 1.275
4631000000.0 0.6581 1.209
4634000000.0 1.37 0.235
4638000000.0 1.048 -0.8987
4641000000.0 -0.06477 -1.34
4644000000.0 -1.088 -0.7967
4647000000.0 -1.269 0.3604
4650000000.0 -0.5033 1.215
4653000000.0 0.5797 1.129
4656000000.0 1.256 0.2301
4659000000.0 0.9462 -0.8281
4662000000.0 -0.0817 -1.248
4666000000.0 -0.9993 -0.6974
4669000000.0 -1.164 0.3422
4672000000.0 -0.4157 1.096
4675000000.0 0.5723 0.9873
4678000000.0 1.163 0.178
4681000000.0 0.8435 -0.7859
4684000000.0 -0.1048 -1.118
4688000000.0 -0.9342 -0.6387
4691000000.0 -1.062 0.3111
4694000000.0 -0.42 1.019
4697000000.0 0.5293 0.9468
4700000000.0 1.062 0.1512
4703000000.0 0.7808 -0.7075
4706000000.0 -0.04767 -1.086
4709000000.0 -0.9134 -0.5928
4712000000.0 -1.018 0.3401
4716000000.0 -0.3612 1.018
4719000000.0 0.5148 0.9421
4722000000.0 1.051 0.1098
4725000000.0 0.7713 -0.7428
4728000000.0 -0.05205 -1.072
4731000000.0 -0.883 -0.61
4734000000.0 -1.013 0.2624
4738000000.0 -0.3933 0.9431
4741000000.0 0.4581 0.95
4744000000.0 1.041 0.2501
4747000000.0 0.8447 -0.6347
4750000000.0 0.07956 -1.081
4753000000.0 -0.7901 -0.7295
4756000000.0 -1.087 0.16
4759000000.0 -0.6337 0.9361
4762000000.0 0.3292 1.075
4766000000.0 1.058 0.4414
4769000000.0 1.022 -0.5446
4772000000.0 0.2393 -1.17
4775000000.0 -0.6843 -0.9108
4778000000.0 -1.2 -0.03953
4781000000.0 -0.7913 0.9024
4784000000.0 0.1826 1.2
4788000000.0 1.026 0.6562
4791000000.0 1.177 -0.3671
4794000000.0 0.4905 -1.165
4797000000.0 -0.5737 -1.124
4800000000.0 -1.229 -0.284
4803000000.0 -1.014 0.7635
4806000000.0 -0.08709 1.257
4809000000.0 0.9272 0.8856
4812000000.0 1.283 -0.1465
4816000000.0 0.7122 -1.107
4819000000.0 -0.3836 -1.287
4822000000.0 -1.263 -0.5245
4825000000.0 -1.238 0.6458
4828000000.0 -0.2388 1.349
4831000000.0 0.866 1.09
4834000000.0 1.378 0.02581
4838000000.0 0.8676 -1.07
4841000000.0 -0.2755 -1.396
4844000000.0 -1.221 -0.659
4847000000.0 -1.277 0.5447
4850000000.0 -0.4008 1.337
4853000000.0 0.7941 1.122
4856000000.0 1.327 0.1078
4859000000.0 0.9496 -0.9802
4862000000.0 -0.1587 -1.346
4866000000.0 -1.09 -0.7297
4869000000.0 -1.247 0.4293
4872000000.0 -0.4795 1.25
4875000000.0 0.6689 1.12
4878000000.0 1.272 0.1987
4881000000.0 0.9424 -0.8512
4884000000.0 -0.07659 -1.226
4888000000.0 -1.005 -0.7197
4891000000.0 -1.154 0.3466
4894000000.0 -0.4737 1.057
4897000000.0 0.5369 1.018
4900000000.0 1.106 0.2356
4903000000.0 0.8367 -0.6721
4906000000.0 -0.01314 -1.06
4909000000.0 -0.8312 -0.6707
4912000000.0 -1.004 0.2659
4916000000.0 -0.4436 0.9027
4919000000.0 0.4269 0.9034
4922000000.0 0.933 0.2536
4925000000.0 0.7772 -0.5639
4928000000.0 0.0564 -0.9747
4931000000.0 -0.6943 -0.6264
4934000000.0 -0.9546 0.1091
4938000000.0 -0.494 0.7832
4941000000.0 0.3138 0.9015
4944000000.0 0.8965 0.3302
4947000000.0 0.8115 -0.4898
4950000000.0 0.1253 -0.9426
4953000000.0 -0.6602 -0.6966
4956000000.0 -0.9762 0.04752
4959000000.0 -0.6095 0.7993
4962000000.0 0.2473 0.9498
4966000000.0 0.9203 0.4116
4969000000.0 0.8924 -0.4528
4972000000.0 0.2402 -0.9693
4975000000.0 -0.6136 -0.7958
4978000000.0 -1.008 -0.008259
4981000000.0 -0.6839 0.7933
4984000000.0 0.1733 1.049
4988000000.0 0.9308 0.5413
4991000000.0 1.034 -0.355
4994000000.0 0.4004 -1.023
4997000000.0 -0.5722 -0.9765
5000000000.0 -1.139 -0.1776
5003000000.0 -0.8938 0.7619
5006000000.0 0.02822 1.184
5009000000.0 0.9581 0.7325
5012000000.0 1.177 -0.2164
5016000000.0 0.58 -1.106
5019000000.0 -0.4809 -1.139
5022000000.0 -1.206 -0.3485
5025000000.0 -1.057 0.6989
5028000000.0 -0.1055 1.274
5031000000.0 0.9189 0.8968
5034000000.0 1.264 -0.1179
5038000000.0 0.7552 -1.074
5041000000.0 -0.3436 -1.24
5044000000.0 -1.191 -0.5502
5047000000.0 -1.159 0.5684
5050000000.0 -0.3007 1.286
5053000000.0 0.7568 1.041
5056000000.0 1.297 0.09972
5059000000.0 0.8978 -0.9444
5062000000.0 -0.13 -1.293
5066000000.0 -1.089 -0.6934
5069000000.0 -1.22 0.3513
5072000000.0 -0.4486 1.19
5075000000.0 0.5939 1.129
5078000000.0 1.268 0.2861
5081000000.0 0.9742 -0.7736
5084000000.0 0.03117 -1.246
5088000000.0 -0.9372 -0.7838
5091000000.0 -1.202 0.1834
5094000000.0 -0.5987 1.029
5097000000.0 0.3642 1.067
5100000000.0 1.059 0.4001
5103000000.0 0.9865 -0.5359
5106000000.0 0.2095 -1.091
5109000000.0 -0.7 -0.8331
5112000000.0 -1.034 -0.01613
5116000000.0 -0.7042 0.8197
5119000000.0 0.179 1.038
5122000000.0 0.9184 0.5197
5125000000.0 0.9709 -0.3104
5128000000.0 0.3168 -0.9485
5131000000.0 -0.5021 -0.8562
5134000000.0 -0.9796 -0.1196
5138000000.0 -0.7508 0.6535
5141000000.0 0.06626 0.9738
5144000000.0 0.7753 0.5707
5147000000.0 0.9294 -0.2239
5150000000.0 0.3747 -0.8244
5153000000.0 -0.4232 -0.8346
5156000000.0 -0.8917 -0.1965
5159000000.0 -0.7486 0.558
5162000000.0 -0.03087 0.9119
5166000000.0 0.6703 0.589
5169000000.0 0.8776 -0.1578
5172000000.0 0.4415 -0.8022
5175000000.0 -0.3464 -0.8369
5178000000.0 -0.871 -0.2678
5181000000.0 -0.7505 0.5046
5184000000.0 -0.06174 0.9328
5188000000.0 0.6654 0.6342
5191000000.0 0.9171 -0.1356
5194000000.0 0.4551 -0.8041
5197000000.0 -0.3776 -0.8859
5200000000.0 -0.8975 -0.2799
5203000000.0 -0.8024 0.5279
5206000000.0 -0.06977 0.9565
5209000000.0 0.7003 0.6875
5212000000.0 0.9697 -0.1132
5216000000.0 0.5287 -0.8273
5219000000.0 -0.3487 -0.9321
5222000000.0 -0.953 -0.3345
5225000000.0 -0.862 0.516
5228000000.0 -0.1452 0.9967
5231000000.0 0.6995 0.7566
5234000000.0 1.031 -0.03772
5238000000.0 0.6217 -0.8409
5241000000.0 -0.2664 -1.009
5244000000.0 -0.952 -0.4421
5247000000.0 -0.9686 0.4298
5250000000.0 -0.2817 1.036
5253000000.0 0.6201 0.8712
5256000000.0 1.062 0.09162
5259000000.0 0.7631 -0.7829
5262000000.0 -0.109 -1.108
5266000000.0 -0.8788 -0.607
5269000000.0 -1.053 0.2854
5272000000.0 -0.4607 0.9971
5275000000.0 0.4533 1.017
5278000000.0 1.071 0.2862
5281000000.0 0.9114 -0.6417
5284000000.0 0.08342 -1.111
5288000000.0 -0.7302 -0.8111
5291000000.0 -1.095 0.06468
5294000000.0 -0.6655 0.892
5297000000.0 0.239 1.109
5300000000.0 0.9987 0.5163
5303000000.0 1.023 -0.4176
5306000000.0 0.3463 -1.087
5309000000.0 -0.588 -0.9738
5312000000.0 -1.116 -0.1501
5316000000.0 -0.869 0.7809
5319000000.0 0.02802 1.15
5322000000.0 0.8992 0.7011
5325000000.0 1.102 -0.2473
5328000000.0 0.4997 -1.018
5331000000.0 -0.4539 -1.043
5334000000.0 -1.077 -0.3214
5338000000.0 -0.9433 0.6322
5341000000.0 -0.1273 1.128
5344000000.0 0.7829 0.7726
5347000000.0 1.095 -0.1195
5350000000.0 0.6168 -0.8898
5353000000.0 -0.3103 -1.056
5356000000.0 -0.9962 -0.4213
5359000000.0 -0.9262 0.5198
5362000000.0 -0.1988 1.051
5366000000.0 0.692 0.7877
5369000000.0 1.052 -0.05367
5372000000.0 0.5949 -0.8625
5375000000.0 -0.2662 -0.9928
5378000000.0 -0.9136 -0.3931
5381000000.0 -0.8741 0.5057
5384000000.0 -0.1552 0.9704
5388000000.0 0.6481 0.7242
5391000000.0 0.9806 -0.08753
5394000000.0 0.4996 -0.7768
5397000000.0 -0.3098 -0.9016
5400000000.0 -0.8378 -0.3301
5403000000.0 -0.771 0.4497
5406000000.0 -0.109 0.8643
5409000000.0 0.6046 0.617
5412000000.0 0.8743 -0.0931
5416000000.0 0.4734 -0.7409
5419000000.0 -0.2495 -0.8363
5422000000.0 -0.8248 -0.2834
5425000000.0 -0.7401 0.4481
5428000000.0 -0.113 0.8716
5431000000.0 0.5997 0.6006
5434000000.0 0.8955 -0.1009
5438000000.0 0.4899 -0.7343
5441000000.0 -0.2792 -0.819
5444000000.0 -0.8198 -0.3341
5447000000.0 -0.7512 0.4412
5450000000.0 -0.1549 0.8817
5453000000.0 0.5853 0.6478
5456000000.0 0.9064 -0.04166
5459000000.0 0.5636 -0.7344
5462000000.0 -0.2024 -0.8891
5466000000.0 -0.8337 -0.4133
5469000000.0 -0.8679 0.3999
5472000000.0 -0.2359 0.8873
5475000000.0 0.5293 0.7817
5478000000.0 0.9197 0.08862
5481000000.0 0.6564 -0.6714
5484000000.0 -0.06368 -0.968
5488000000.0 -0.8433 -0.5883
5491000000.0 -0.9557 0.2742
5494000000.0 -0.4302 0.938
5497000000.0 0.453 0.8947
5500000000.0 0.9897 0.2579
5503000000.0 0.841 -0.6072
5506000000.0 0.07694 -1.028
5509000000.0 -0.7307 -0.7176
5512000000.0 -1.059 0.07244
5516000000.0 -0.5796 0.8592
5519000000.0 0.2894 1.028
5522000000.0 0.9693 0.4261
5525000000.0 0.9706 -0.421
5528000000.0 0.2478 -1.034
5531000000.0 -0.6083 -0.9092
5534000000.0 -1.068 -0.09217
5538000000.0 -0.7642 0.7565
5541000000.0 0.1174 1.071
5544000000.0 0.8597 0.6321
5547000000.0 1.05 -0.2943
5550000000.0 0.427 -0.9878
5553000000.0 -0.4655 -0.9833
5556000000.0 -1.057 -0.2726
5559000000.0 -0.8263 0.6012
5562000000.0 -0.07064 1.059
5566000000.0 0.758 0.7255
5569000000.0 0.9922 -0.128
5572000000.0 0.515 -0.8698
5575000000.0 -0.3346 -0.9489
5578000000.0 -0.9487 -0.3424
5581000000.0 -0.8371 0.4906
5584000000.0 -0.1703 0.9642
5588000000.0 0.6391 0.7176
5591000000.0 0.9404 -0.03093
5594000000.0 0.5874 -0.7297
5597000000.0 -0.2247 -0.9272
5600000000.0 -0.822 -0.3845
5603000000.0 -0.8294 0.3574
5606000000.0 -0.2025 0.8391
5609000000.0 0.5428 0.6826
5612000000.0 0.8415 0.04143
5616000000.0 0.5748 -0.6533
5619000000.0 -0.1523 -0.8448
5622000000.0 -0.7612 -0.4094
5625000000.0 -0.7781 0.3237
5628000000.0 -0.2609 0.8093
5631000000.0 0.4616 0.6739
5634000000.0 0.8031 0.075
5638000000.0 0.5692 -0.6023
5641000000.0 -0.1225 -0.8092
5644000000.0 -0.7142 -0.4278
5647000000.0 -0.7585 0.2997
5650000000.0 -0.2288 0.8108
5653000000.0 0.4936 0.6901
5656000000.0 0.8511 0.07477
5659000000.0 0.5788 -0.6189
5662000000.0 -0.11 -0.8678
5666000000.0 -0.76 -0.4121
5669000000.0 -0.8305 0.3153
5672000000.0 -0.2545 0.8476
5675000000.0 0.5202 0.7496
5678000000.0 0.9321 0.1096
5681000000.0 0.678 -0.6335
5684000000.0 -0.1184 -0.9295
5688000000.0 -0.8189 -0.4803
5691000000.0 -0.928 0.3012
5694000000.0 -0.3659 0.8943
5697000000.0 0.476 0.8464
5700000000.0 0.9994 0.1731
5703000000.0 0.7686 -0.6718
5706000000.0 -0.02352 -1.015
5709000000.0 -0.8477 -0.6142
5712000000.0 -0.9819 0.2731
5716000000.0 -0.426 0.9761
5719000000.0 0.4356 0.9599
5722000000.0 1.051 0.2788
5725000000.0 0.8667 -0.6449
5728000000.0 0.07153 -1.093
5731000000.0 -0.7996 -0.7652
5734000000.0 -1.062 0.08822
5738000000.0 -0.5917 0.8743
5741000000.0 0.3422 1.082
5744000000.0 1.019 0.4296
5747000000.0 0.9792 -0.505
5750000000.0 0.2069 -1.072
5753000000.0 -0.7048 -0.8682
5756000000.0 -1.109 -0.03362
5759000000.0 -0.7467 0.8432
5762000000.0 0.1748 1.134
5766000000.0 0.9241 0.5915
5769000000.0 1.049 -0.3392
5772000000.0 0.4072 -1.027
5775000000.0 -0.5279 -0.9884
5778000000.0 -1.082 -0.2147
5781000000.0 -0.8088 0.6674
5784000000.0 0.006099 1.111
5788000000.0 0.8383 0.7043
5791000000.0 1.025 -0.1929
5794000000.0 0.4952 -0.9299
5797000000.0 -0.3986 -0.9985
5800000000.0 -1.001 -0.3452
5803000000.0 -0.896 0.577
5806000000.0 -0.1216 1.022
5809000000.0 0.7557 0.7231
5812000000.0 1.02 -0.07772
5816000000.0 0.6144 -0.835
5819000000.0 -0.2819 -0.9824
5822000000.0 -0.9173 -0.4032
5825000000.0 -0.8509 0.4405
5828000000.0 -0.1662 0.9909
5831000000.0 0.6513 0.7375
5834000000.0 0.9908 -0.01398
5838000000.0 0.5836 -0.7246
5841000000.0 -0.2016 -0.9446
5844000000.0 -0.8604 -0.4321
5847000000.0 -0.8434 0.4035
5850000000.0 -0.2213 0.8893
5853000000.0 0.5376 0.7355
5856000000.0 0.9175 0.02898
5859000000.0 0.588 -0.6938
5862000000.0 -0.1764 -0.8791
5866000000.0 -0.7848 -0.3824
5869000000.0 -0.8349 0.3226
5872000000.0 -0.2042 0.8405
5875000000.0 0.4926 0.6946
5878000000.0 0.8568 0.01185
5881000000.0 0.5699 -0.6595
5884000000.0 -0.1562 -0.8634
5888000000.0 -0.7289 -0.4068
5891000000.0 -0.8015 0.3228
5894000000.0 -0.2369 0.8097
5897000000.0 0.4815 0.6964
5900000000.0 0.8843 0.08196
5903000000.0 0.5817 -0.643
5906000000.0 -0.08359 -0.8543
5909000000.0 -0.7513 -0.4625
5912000000.0 -0.8596 0.2607
5916000000.0 -0.3359 0.8255
5919000000.0 0.4322 0.7613
5922000000.0 0.878 0.1514
5925000000.0 0.6639 -0.5879
5928000000.0 -0.0366 -0.873
5931000000.0 -0.7105 -0.5701
5934000000.0 -0.8777 0.1915
5938000000.0 -0.4437 0.8258
5941000000.0 0.3541 0.8544
5944000000.0 0.8532 0.2396
5947000000.0 0.8124 -0.5195
5950000000.0 0.1186 -0.9296
5953000000.0 -0.634 -0.6841
5956000000.0 -0.9369 0.04606
5959000000.0 -0.5639 0.7655
5962000000.0 0.2009 0.9146
5966000000.0 0.8736 0.4047
5969000000.0 0.9028 -0.4191
5972000000.0 0.2623 -0.9467
5975000000.0 -0.5559 -0.8387
5978000000.0 -0.9838 -0.1176
5981000000.0 -0.7223 0.7108
5984000000.0 0.07806 0.9859
5988000000.0 0.836 0.5716
5991000000.0 0.9636 -0.2876
5994000000.0 0.4044 -0.9417
5997000000.0 -0.4495 -0.9133
6000000000.0 -0.9761 -0.2153
6003000000.0 -0.7841 0.6369
6006000000.0 0.001609 0.9886
6009000000.0 0.751 0.6291
6012000000.0 1.002 -0.2103
6016000000.0 0.512 -0.8853
6019000000.0 -0.3671 -0.9152
6022000000.0 -0.9372 -0.2651
6025000000.0 -0.8141 0.5597
6028000000.0 -0.07132 0.9599
6031000000.0 0.6719 0.6701
6034000000.0 0.9384 -0.1155
6038000000.0 0.5025 -0.787
6041000000.0 -0.295 -0.9288
6044000000.0 -0.8624 -0.3072
6047000000.0 -0.7815 0.4906
6050000000.0 -0.1098 0.9222
6053000000.0 0.6017 0.6734
6056000000.0 0.909 -0.06996
6059000000.0 0.497 -0.7446
6062000000.0 -0.2733 -0.8582
6066000000.0 -0.8436 -0.3237
6069000000.0 -0.7594 0.4164
6072000000.0 -0.1378 0.8612
6075000000.0 0.5473 0.6516
6078000000.0 0.8782 -0.01968
6081000000.0 0.5283 -0.7021
6084000000.0 -0.2128 -0.8369
6088000000.0 -0.7703 -0.3529
6091000000.0 -0.7698 0.3723
6094000000.0 -0.1966 0.8271
6097000000.0 0.5325 0.6544
6100000000.0 0.8619 0.007756
6103000000.0 0.5302 -0.664
6106000000.0 -0.1732 -0.8655
6109000000.0 -0.7664 -0.3992
6112000000.0 -0.7566 0.3821
6116000000.0 -0.2003 0.8551
6119000000.0 0.496 0.6919
6122000000.0 0.8975 0.03256
6125000000.0 0.5653 -0.6803
6128000000.0 -0.1361 -0.8917
6131000000.0 -0.809 -0.4266
6134000000.0 -0.8635 0.3502
6138000000.0 -0.2593 0.8797
6141000000.0 0.4789 0.7657
6144000000.0 0.9044 0.08555
6147000000.0 0.6666 -0.6547
6150000000.0 -0.1118 -0.9179
6153000000.0 -0.794 -0.5038
6156000000.0 -0.891 0.2973
6159000000.0 -0.3267 0.8693
6162000000.0 0.4344 0.7907
6166000000.0 0.9842 0.175
6169000000.0 0.7444 -0.6544
6172000000.0 -0.02433 -0.9847
6175000000.0 -0.778 -0.553
6178000000.0 -0.9636 0.2326
6181000000.0 -0.4426 0.8757
6184000000.0 0.4203 0.8525
6188000000.0 0.9465 0.2353
6191000000.0 0.7678 -0.5943
6194000000.0 0.06138 -0.9472
6197000000.0 -0.7271 -0.639
6200000000.0 -0.9641 0.1428
6203000000.0 -0.4871 0.811
6206000000.0 0.3623 0.8907
6209000000.0 0.8997 0.3127
6212000000.0 0.7906 -0.4947
6216000000.0 0.1235 -0.9357
6219000000.0 -0.6212 -0.6974
6222000000.0 -0.9219 0.03354
6225000000.0 -0.5329 0.7306
6228000000.0 0.2002 0.8967
6231000000.0 0.7811 0.3787
6234000000.0 0.7839 -0.3631
6238000000.0 0.2472 -0.8488
6241000000.0 -0.5035 -0.7146
6244000000.0 -0.8643 -0.08013
6247000000.0 -0.6061 0.6206
6250000000.0 0.06318 0.8419
6253000000.0 0.6839 0.5127
6256000000.0 0.8205 -0.2245
6259000000.0 0.3198 -0.7406
6262000000.0 -0.3692 -0.7324
6266000000.0 -0.8511 -0.161
