! Created with skrf 1.8.0 (http://scikit-rf.org).
# Hz S RI R 50.0 
!freq ReS11 ImS11
4000000000.0 -0.1212 -1.468
4003000000.0 -1.258 -0.8033
4006000000.0 -1.457 0.526
4009000000.0 -0.525 1.389
4012000000.0 0.7526 1.342
4016000000.0 1.485 0.2044
4019000000.0 1.087 -1.066
4022000000.0 -0.1297 -1.59
4025000000.0 -1.296 -0.8859
4028000000.0 -1.518 0.4566
4031000000.0 -0.5739 1.502
4034000000.0 0.8218 1.391
4038000000.0 1.592 0.1899
4041000000.0 1.227 -1.112
4044000000.0 -0.1258 -1.644
4047000000.0 -1.39 -0.9387
4050000000.0 -1.54 0.4546
4053000000.0 -0.6133 1.472
4056000000.0 0.7508 1.422
4059000000.0 1.583 0.3056
4062000000.0 1.269 -1.023
4066000000.0 -0.002082 -1.627
4069000000.0 -1.263 -1.068
4072000000.0 -1.578 0.2954
4075000000.0 -0.829 1.389
4078000000.0 0.5585 1.49
4081000000.0 1.632 0.5483
4084000000.0 1.43 -0.8376
4088000000.0 0.2148 -1.643
4091000000.0 -1.148 -1.194
4094000000.0 -1.648 0.1078
4097000000.0 -0.9703 1.287
4100000000.0 0.3844 1.614
4103000000.0 1.476 0.6932
4106000000.0 1.457 -0.6676
4109000000.0 0.4101 -1.5
4112000000.0 -0.8323 -1.292
4116000000.0 -1.52 -0.1965
4119000000.0 -1.104 1.013
4122000000.0 0.01448 1.478
4125000000.0 1.161 0.9728
4128000000.0 1.483 -0.2765
4131000000.0 0.7653 -1.277
4134000000.0 -0.4553 -1.432
4138000000.0 -1.388 -0.5996
4141000000.0 -1.346 0.6341
4144000000.0 -0.3756 1.447
4147000000.0 0.8529 1.246
4150000000.0 1.513 0.119
4153000000.0 1.042 -1.082
4156000000.0 -0.1283 -1.523
4159000000.0 -1.256 -0.9011
4162000000.0 -1.477 0.411
4166000000.0 -0.6426 1.365
4169000000.0 0.6318 1.368
4172000000.0 1.432 0.4329
4175000000.0 1.239 -0.8622
4178000000.0 0.1459 -1.474
4181000000.0 -1.021 -1.06
4184000000.0 -1.472 0.09133
4188000000.0 -0.8862 1.213
4191000000.0 0.3755 1.516
4194000000.0 1.371 0.6626
4197000000.0 1.43 -0.6584
4200000000.0 0.3617 -1.529
4203000000.0 -0.9692 -1.278
4206000000.0 -1.604 -0.03006
4209000000.0 -1.01 1.264
4212000000.0 0.3499 1.642
4216000000.0 1.492 0.7163
4219000000.0 1.51 -0.7629
4222000000.0 0.286 -1.68
4225000000.0 -1.145 -1.248
4228000000.0 -1.698 0.1421
4231000000.0 -0.9215 1.421
4234000000.0 0.5636 1.599
4238000000.0 1.54 0.475
4241000000.0 1.335 -0.9405
4244000000.0 0.03651 -1.63
4247000000.0 -1.267 -1.035
4250000000.0 -1.523 0.3744
4253000000.0 -0.663 1.415
4256000000.0 0.7037 1.388
4259000000.0 1.508 0.2665
4262000000.0 1.126 -0.9634
4266000000.0 -0.1065 -1.48
4269000000.0 -1.245 -0.8582
4272000000.0 -1.382 0.4689
4275000000.0 -0.4926 1.399
4278000000.0 0.7423 1.222
4281000000.0 1.463 0.158
4284000000.0 0.9978 -1.016
4288000000.0 -0.1723 -1.353
4291000000.0 -1.192 -0.7492
4294000000.0 -1.286 0.4367
4297000000.0 -0.4651 1.255
4300000000.0 0.6527 1.142
4303000000.0 1.272 0.245
4306000000.0 0.9768 -0.8452
4309000000.0 -0.01726 -1.288
4312000000.0 -0.9702 -0.8286
4316000000.0 -1.282 0.2298
4319000000.0 -0.683 1.098
4322000000.0 0.4488 1.228
4325000000.0 1.258 0.4819
4328000000.0 1.161 -0.6437
4331000000.0 0.2865 -1.312
4334000000.0 -0.8709 -1.054
4338000000.0 -1.398 -0.03749
4341000000.0 -0.9172 1.069
4344000000.0 0.2338 1.422
4347000000.0 1.208 0.6758
4350000000.0 1.375 -0.5141
4353000000.0 0.4628 -1.321
4356000000.0 -0.7456 -1.245
4359000000.0 -1.439 -0.2063
4362000000.0 -1.101 0.9586
4366000000.0 0.05832 1.49
4369000000.0 1.167 0.8866
4372000000.0 1.445 -0.3419
4375000000.0 0.7364 -1.341
4378000000.0 -0.5805 -1.401
4381000000.0 -1.457 -0.4374
4384000000.0 -1.301 0.8766
4388000000.0 -0.1524 1.561
4391000000.0 1.134 1.108
4394000000.0 1.565 -0.1695
4397000000.0 0.8589 -1.357
4400000000.0 -0.5096 -1.529
4403000000.0 -1.518 -0.5067
4406000000.0 -1.328 0.8405
4409000000.0 -0.1521 1.583
4412000000.0 1.145 1.11
4416000000.0 1.543 -0.2469
4419000000.0 0.7673 -1.36
4422000000.0 -0.608 -1.408
4425000000.0 -1.447 -0.3941
4428000000.0 -1.201 0.8622
4431000000.0 -0.03235 1.442
4434000000.0 1.088 0.9193
4438000000.0 1.387 -0.2838
4441000000.0 0.607 -1.237
4444000000.0 -0.6345 -1.251
4447000000.0 -1.333 -0.2717
4450000000.0 -1.004 0.862
4453000000.0 0.07115 1.347
4456000000.0 1.054 0.7591
4459000000.0 1.25 -0.3957
4462000000.0 0.445 -1.2
4466000000.0 -0.6725 -1.043
4469000000.0 -1.229 -0.118
4472000000.0 -0.8071 0.9023
4475000000.0 0.2119 1.204
4478000000.0 1.024 0.573
4481000000.0 1.069 -0.459
4484000000.0 0.3161 -1.12
4488000000.0 -0.6752 -0.9757
4491000000.0 -1.113 -0.03254
4494000000.0 -0.7408 0.8531
4497000000.0 0.1822 1.115
4500000000.0 1.012 0.5652
4503000000.0 1.009 -0.4368
4506000000.0 0.2943 -1.044
4509000000.0 -0.6515 -0.9393
4512000000.0 -1.112 -0.06005
4516000000.0 -0.7749 0.8072
4519000000.0 0.1476 1.124
4522000000.0 0.9584 0.586
4525000000.0 1.076 -0.3789
4528000000.0 0.3916 -1.043
4531000000.0 -0.612 -0.9869
4534000000.0 -1.176 -0.199
4538000000.0 -0.8756 0.7776
4541000000.0 0.05271 1.2
4544000000.0 0.9475 0.7285
4547000000.0 1.172 -0.2681
4550000000.0 0.5569 -1.084
4553000000.0 -0.4873 -1.106
4556000000.0 -1.167 -0.3299
4559000000.0 -1.029 0.6927
4562000000.0 -0.1595 1.221
4566000000.0 0.8518 0.9447
4569000000.0 1.262 -0.08881
4572000000.0 0.7783 -1.009
4575000000.0 -0.3143 -1.266
4578000000.0 -1.172 -0.5848
4581000000.0 -1.215 0.5209
4584000000.0 -0.368 1.299
4588000000.0 0.7369 1.108
4591000000.0 1.367 0.1345
4594000000.0 0.9703 -0.9618
4597000000.0 -0.1209 -1.375
4600000000.0 -1.153 -0.7651
4603000000.0 -1.336 0.4278
4606000000.0 -0.5373 1.302
4609000000.0 0.661 1.25
4612000000.0 1.375 0.2569
4616000000.0 1.08 -0.8821
4619000000.0 -0.008015 -1.42
4622000000.0 -1.119 -0.8925
4625000000.0 -1.357 0.2901
4628000000.0 -0.6474 1.275
4631000000.0 0.576 1.281
4634000000.0 1.337 0.3296
4638000000.0 1.146 -0.7812
4641000000.0 0.05057 -1.404
4644000000.0 -0.9859 -0.8879
4647000000.0 -1.355 0.2067
4650000000.0 -0.6414 1.192
4653000000.0 0.5114 1.201
4656000000.0 1.256 0.3538
4659000000.0 1.045 -0.795
4662000000.0 0.05281 -1.237
4666000000.0 -0.9257 -0.7985
4669000000.0 -1.184 0.2476
4672000000.0 -0.5583 1.058
4675000000.0 0.4956 1.084
4678000000.0 1.113 0.2665
4681000000.0 0.9004 -0.7026
4684000000.0 0.001933 -1.126
4688000000.0 -0.8644 -0.735
4691000000.0 -1.093 0.2394
4694000000.0 -0.5388 0.9515
4697000000.0 0.4599 1.002
4700000000.0 1.085 0.2528
4703000000.0 0.8636 -0.6776
4706000000.0 -0.0261 -1.08
4709000000.0 -0.834 -0.6842
4712000000.0 -1.047 0.2498
4716000000.0 -0.4321 0.9658
4719000000.0 0.4777 0.9609
4722000000.0 1.051 0.2208
4725000000.0 0.8158 -0.657
4728000000.0 0.04043 -1.048
4731000000.0 -0.833 -0.6576
4734000000.0 -1.041 0.2017
4738000000.0 -0.5137 0.9254
4741000000.0 0.3878 0.971
4744000000.0 0.9835 0.3511
4747000000.0 0.8941 -0.5612
4750000000.0 0.1414 -1.088
4753000000.0 -0.7478 -0.8378
4756000000.0 -1.126 0.0773
4759000000.0 -0.6415 0.9038
4762000000.0 0.2555 1.093
4766000000.0 1.003 0.5194
4769000000.0 1.06 -0.4656
4772000000.0 0.3253 -1.094
4775000000.0 -0.6815 -0.9666
4778000000.0 -1.178 -0.1224
4781000000.0 -0.8637 0.8522
4784000000.0 0.1069 1.219
4788000000.0 1.004 0.7073
4791000000.0 1.227 -0.3111
4794000000.0 0.5631 -1.095
4797000000.0 -0.5104 -1.149
4800000000.0 -1.204 -0.3625
4803000000.0 -1.067 0.689
4806000000.0 -0.1603 1.259
4809000000.0 0.8625 0.9271
4812000000.0 1.271 -0.0564
4816000000.0 0.7951 -1.029
4819000000.0 -0.2953 -1.293
4822000000.0 -1.195 -0.606
4825000000.0 -1.222 0.5624
4828000000.0 -0.3665 1.308
4831000000.0 0.7766 1.148
4834000000.0 1.385 0.1177
4838000000.0 0.9709 -1.031
4841000000.0 -0.1892 -1.378
4844000000.0 -1.175 -0.7437
4847000000.0 -1.342 0.4431
4850000000.0 -0.493 1.299
4853000000.0 0.6653 1.212
4856000000.0 1.364 0.2214
4859000000.0 1.021 -0.9063
4862000000.0 -0.05092 -1.359
4866000000.0 -1.099 -0.792
4869000000.0 -1.321 0.3133
4872000000.0 -0.5705 1.193
4875000000.0 0.5797 1.197
4878000000.0 1.26 0.3084
4881000000.0 0.9662 -0.7836
4884000000.0 0.02911 -1.284
4888000000.0 -0.9606 -0.7956
4891000000.0 -1.218 0.2731
4894000000.0 -0.5449 1.065
4897000000.0 0.4841 1.063
4900000000.0 1.097 0.3198
4903000000.0 0.9157 -0.6428
4906000000.0 0.0392 -1.106
4909000000.0 -0.7872 -0.7131
4912000000.0 -1.04 0.1493
4916000000.0 -0.5239 0.8938
4919000000.0 0.3708 0.9394
4922000000.0 0.9462 0.3305
4925000000.0 0.8478 -0.5062
4928000000.0 0.1368 -0.9898
4931000000.0 -0.6337 -0.7183
4934000000.0 -0.9551 0.06963
4938000000.0 -0.534 0.757
4941000000.0 0.2625 0.9201
4944000000.0 0.8743 0.3729
4947000000.0 0.8371 -0.4133
4950000000.0 0.1972 -0.9192
4953000000.0 -0.5934 -0.7401
4956000000.0 -0.9617 -0.01435
4959000000.0 -0.6107 0.7294
4962000000.0 0.1829 0.9533
4966000000.0 0.8599 0.4645
4969000000.0 0.9 -0.3557
4972000000.0 0.2871 -0.9627
4975000000.0 -0.5551 -0.8496
4978000000.0 -1.009 -0.102
4981000000.0 -0.7575 0.698
4984000000.0 0.07116 1.058
4988000000.0 0.8784 0.588
4991000000.0 1.051 -0.3076
4994000000.0 0.4282 -0.9957
4997000000.0 -0.4708 -0.9766
5000000000.0 -1.084 -0.2847
5003000000.0 -0.9204 0.7097
5006000000.0 -0.06649 1.167
5009000000.0 0.8784 0.7855
5012000000.0 1.196 -0.1749
5016000000.0 0.6756 -1.064
5019000000.0 -0.4095 -1.194
5022000000.0 -1.172 -0.4435
5025000000.0 -1.105 0.6815
5028000000.0 -0.206 1.257
5031000000.0 0.8137 0.9923
5034000000.0 1.267 -0.02336
5038000000.0 0.8116 -1.015
5041000000.0 -0.2246 -1.28
5044000000.0 -1.146 -0.5767
5047000000.0 -1.209 0.4798
5050000000.0 -0.4109 1.206
5053000000.0 0.6647 1.1
5056000000.0 1.288 0.1977
5059000000.0 0.9664 -0.8582
5062000000.0 -0.06094 -1.295
5066000000.0 -1.033 -0.7793
5069000000.0 -1.277 0.283
5072000000.0 -0.6009 1.187
5075000000.0 0.514 1.181
5078000000.0 1.214 0.3491
5081000000.0 1.034 -0.7119
5084000000.0 0.1333 -1.27
5088000000.0 -0.8752 -0.8735
5091000000.0 -1.215 0.05186
5094000000.0 -0.6835 1.013
5097000000.0 0.3236 1.096
5100000000.0 1.06 0.5135
5103000000.0 1.005 -0.524
5106000000.0 0.2825 -1.055
5109000000.0 -0.6249 -0.9276
5112000000.0 -1.069 -0.1153
5116000000.0 -0.7443 0.7996
5119000000.0 0.1092 1.087
5122000000.0 0.8299 0.5789
5125000000.0 1.001 -0.2619
5128000000.0 0.4313 -0.9604
5131000000.0 -0.4478 -0.8808
5134000000.0 -0.9836 -0.248
5138000000.0 -0.8112 0.6145
5141000000.0 -0.0223 0.9942
5144000000.0 0.7217 0.6554
5147000000.0 0.9355 -0.1627
5150000000.0 0.4873 -0.771
5153000000.0 -0.3575 -0.8816
5156000000.0 -0.8592 -0.2972
5159000000.0 -0.7997 0.483
5162000000.0 -0.09413 0.9346
5166000000.0 0.6206 0.6848
5169000000.0 0.9052 -0.05858
5172000000.0 0.5136 -0.7329
5175000000.0 -0.2463 -0.8554
5178000000.0 -0.8334 -0.3569
5181000000.0 -0.8007 0.4434
5184000000.0 -0.1521 0.8988
5188000000.0 0.6052 0.6974
5191000000.0 0.9008 -0.03944
5194000000.0 0.5408 -0.7852
5197000000.0 -0.2663 -0.8839
5200000000.0 -0.8658 -0.3392
5203000000.0 -0.8375 0.48
5206000000.0 -0.1903 0.9223
5209000000.0 0.6208 0.7234
5212000000.0 0.9405 -0.05079
5216000000.0 0.5722 -0.7786
5219000000.0 -0.2364 -0.9465
5222000000.0 -0.8912 -0.4307
5225000000.0 -0.9079 0.4319
5228000000.0 -0.2278 0.958
5231000000.0 0.6181 0.8255
5234000000.0 1.058 0.05191
5238000000.0 0.6992 -0.764
5241000000.0 -0.1613 -1.049
5244000000.0 -0.9195 -0.558
5247000000.0 -1.006 0.3486
5250000000.0 -0.363 0.9997
5253000000.0 0.5554 0.9241
5256000000.0 1.064 0.1895
5259000000.0 0.8519 -0.6835
5262000000.0 0.004483 -1.076
5266000000.0 -0.8158 -0.7008
5269000000.0 -1.064 0.1863
5272000000.0 -0.5318 0.9545
5275000000.0 0.3698 1.03
5278000000.0 1.013 0.3625
5281000000.0 0.937 -0.5417
5284000000.0 0.2042 -1.108
5288000000.0 -0.6878 -0.8476
5291000000.0 -1.084 -0.0326
5294000000.0 -0.7396 0.8409
5297000000.0 0.1384 1.118
5300000000.0 0.9641 0.6175
5303000000.0 1.087 -0.3274
5306000000.0 0.4653 -1.043
5309000000.0 -0.4859 -1.035
5312000000.0 -1.121 -0.2576
5316000000.0 -0.9312 0.678
5319000000.0 -0.06336 1.134
5322000000.0 0.8077 0.793
5325000000.0 1.132 -0.1223
5328000000.0 0.6225 -0.9618
5331000000.0 -0.3151 -1.097
5334000000.0 -1.041 -0.4753
5338000000.0 -1.009 0.5266
5341000000.0 -0.2382 1.088
5344000000.0 0.7112 0.8503
5347000000.0 1.124 0.01499
5350000000.0 0.7314 -0.8784
5353000000.0 -0.176 -1.114
5356000000.0 -0.9747 -0.5263
5359000000.0 -1.01 0.4138
5362000000.0 -0.3294 1.024
5366000000.0 0.5852 0.8458
5369000000.0 1.036 0.1026
5372000000.0 0.7332 -0.7576
5375000000.0 -0.1335 -1.026
5378000000.0 -0.8994 -0.4929
5381000000.0 -0.9405 0.3589
5384000000.0 -0.3131 0.9736
5388000000.0 0.5749 0.8159
5391000000.0 0.9589 0.07662
5394000000.0 0.66 -0.6951
5397000000.0 -0.1903 -0.9306
5400000000.0 -0.7937 -0.4654
5403000000.0 -0.8443 0.3362
5406000000.0 -0.2465 0.8551
5409000000.0 0.5115 0.7254
5412000000.0 0.8747 0.04308
5416000000.0 0.5539 -0.6547
5419000000.0 -0.1394 -0.8575
5422000000.0 -0.7704 -0.4194
5425000000.0 -0.773 0.3148
5428000000.0 -0.2443 0.8465
5431000000.0 0.5139 0.726
5434000000.0 0.8939 0.05929
5438000000.0 0.619 -0.643
5441000000.0 -0.164 -0.8528
5444000000.0 -0.7461 -0.4192
5447000000.0 -0.8001 0.3268
5450000000.0 -0.2677 0.8226
5453000000.0 0.5039 0.7357
5456000000.0 0.8958 0.07248
5459000000.0 0.6243 -0.6947
5462000000.0 -0.1141 -0.8974
5466000000.0 -0.7897 -0.4926
5469000000.0 -0.8374 0.2757
5472000000.0 -0.3342 0.8466
5475000000.0 0.4094 0.8369
5478000000.0 0.945 0.2181
5481000000.0 0.7249 -0.5589
5484000000.0 0.01417 -0.9615
5488000000.0 -0.7126 -0.6297
5491000000.0 -0.9773 0.128
5494000000.0 -0.5457 0.8505
5497000000.0 0.308 0.9309
5500000000.0 0.9198 0.3491
5503000000.0 0.8963 -0.4858
5506000000.0 0.2108 -0.9903
5509000000.0 -0.6566 -0.7892
5512000000.0 -1.024 -0.03803
5516000000.0 -0.6743 0.7504
5519000000.0 0.1394 1.037
5522000000.0 0.8846 0.5284
5525000000.0 0.9736 -0.2808
5528000000.0 0.3841 -0.99
5531000000.0 -0.4568 -0.965
5534000000.0 -1.014 -0.2343
5538000000.0 -0.8555 0.6479
5541000000.0 -0.05058 1.081
5544000000.0 0.7467 0.7394
5547000000.0 1.104 -0.1771
5550000000.0 0.598 -0.8868
5553000000.0 -0.3338 -0.9992
5556000000.0 -1.003 -0.3788
5559000000.0 -0.921 0.4956
5562000000.0 -0.2113 1.049
5566000000.0 0.6448 0.8299
5569000000.0 1.032 0.03896
5572000000.0 0.6493 -0.7682
5575000000.0 -0.1912 -1.016
5578000000.0 -0.88 -0.4841
5581000000.0 -0.9452 0.3567
5584000000.0 -0.3345 0.9718
5588000000.0 0.4968 0.822
5591000000.0 0.9703 0.1287
5594000000.0 0.7013 -0.6614
5597000000.0 -0.06444 -0.9221
5600000000.0 -0.7431 -0.5503
5603000000.0 -0.8857 0.2146
5606000000.0 -0.3746 0.8138
5609000000.0 0.3831 0.8093
5612000000.0 0.8646 0.1921
5616000000.0 0.6791 -0.5516
5619000000.0 0.006993 -0.8523
5622000000.0 -0.6562 -0.5267
5625000000.0 -0.8299 0.162
5628000000.0 -0.3884 0.7592
5631000000.0 0.3051 0.7848
5634000000.0 0.8185 0.2053
5638000000.0 0.6678 -0.4879
5641000000.0 0.05687 -0.8475
5644000000.0 -0.639 -0.5627
5647000000.0 -0.8459 0.1797
5650000000.0 -0.4113 0.7273
5653000000.0 0.3219 0.7933
5656000000.0 0.8216 0.2389
5659000000.0 0.6747 -0.4886
5662000000.0 0.04499 -0.8519
5666000000.0 -0.6613 -0.5963
5669000000.0 -0.8982 0.1645
5672000000.0 -0.4222 0.7918
5675000000.0 0.3528 0.8321
5678000000.0 0.8676 0.2739
5681000000.0 0.7683 -0.5242
5684000000.0 0.05938 -0.9233
5688000000.0 -0.6771 -0.6599
5691000000.0 -0.9515 0.153
5694000000.0 -0.5215 0.8334
5697000000.0 0.3362 0.9179
5700000000.0 0.9289 0.3509
5703000000.0 0.848 -0.5582
5706000000.0 0.1169 -1.019
5709000000.0 -0.7042 -0.753
5712000000.0 -1.052 0.0772
5716000000.0 -0.5974 0.8656
5719000000.0 0.2809 0.9924
5722000000.0 0.9604 0.4411
5725000000.0 0.9747 -0.4505
5728000000.0 0.2708 -1.021
5731000000.0 -0.6726 -0.8856
5734000000.0 -1.091 -0.07717
5738000000.0 -0.7102 0.8027
5741000000.0 0.1352 1.094
5744000000.0 0.9264 0.6106
5747000000.0 1.049 -0.3228
5750000000.0 0.4325 -1.025
5753000000.0 -0.5485 -0.9804
5756000000.0 -1.103 -0.2461
5759000000.0 -0.8737 0.6957
5762000000.0 -0.02265 1.109
5766000000.0 0.8341 0.74
5769000000.0 1.102 -0.188
5772000000.0 0.5381 -0.9393
5775000000.0 -0.3698 -1.024
5778000000.0 -1.044 -0.416
5781000000.0 -0.9638 0.5793
5784000000.0 -0.1935 1.102
5788000000.0 0.6989 0.8399
5791000000.0 1.097 0.01283
5794000000.0 0.693 -0.7879
5797000000.0 -0.1708 -1.08
5800000000.0 -0.936 -0.5523
5803000000.0 -0.9768 0.3498
5806000000.0 -0.3389 1.024
5809000000.0 0.5738 0.8967
5812000000.0 1.064 0.1254
5816000000.0 0.752 -0.7103
5819000000.0 -0.04647 -1.014
5822000000.0 -0.8416 -0.5812
5825000000.0 -0.9935 0.2525
5828000000.0 -0.4142 0.8826
5831000000.0 0.4084 0.8986
5834000000.0 0.9497 0.235
5838000000.0 0.7885 -0.6309
5841000000.0 0.03185 -0.9944
5844000000.0 -0.7222 -0.6021
5847000000.0 -0.9373 0.1951
5850000000.0 -0.4686 0.8287
5853000000.0 0.398 0.8768
5856000000.0 0.8898 0.2534
5859000000.0 0.7671 -0.5528
5862000000.0 0.0132 -0.8987
5866000000.0 -0.6957 -0.5787
5869000000.0 -0.8601 0.1428
5872000000.0 -0.4311 0.7873
5875000000.0 0.3241 0.8185
5878000000.0 0.8642 0.2382
5881000000.0 0.7061 -0.5072
5884000000.0 0.06401 -0.8856
5888000000.0 -0.6178 -0.6094
5891000000.0 -0.8537 0.1091
5894000000.0 -0.4382 0.7538
5897000000.0 0.2999 0.8219
5900000000.0 0.8462 0.2646
5903000000.0 0.7255 -0.4352
5906000000.0 0.1396 -0.8633
5909000000.0 -0.6007 -0.6421
5912000000.0 -0.8785 0.06083
5916000000.0 -0.4913 0.7199
5919000000.0 0.2268 0.8322
5922000000.0 0.783 0.357
5925000000.0 0.7925 -0.3966
5928000000.0 0.1885 -0.8835
5931000000.0 -0.5366 -0.732
5934000000.0 -0.8811 -0.05901
5938000000.0 -0.6246 0.6457
5941000000.0 0.1049 0.8724
5944000000.0 0.7457 0.4833
5947000000.0 0.8665 -0.2953
5950000000.0 0.3426 -0.8579
5953000000.0 -0.4395 -0.8121
5956000000.0 -0.8922 -0.1974
5959000000.0 -0.741 0.5702
5962000000.0 -0.01623 0.9359
5966000000.0 0.7291 0.5916
5969000000.0 0.9474 -0.1325
5972000000.0 0.48 -0.8019
5975000000.0 -0.3172 -0.9133
5978000000.0 -0.9245 -0.3399
5981000000.0 -0.8642 0.5003
5984000000.0 -0.1762 0.9663
5988000000.0 0.6328 0.7566
5991000000.0 0.991 -0.02779
5994000000.0 0.675 -0.7865
5997000000.0 -0.2095 -1.001
6000000000.0 -0.9113 -0.4814
6003000000.0 -0.9225 0.359
6006000000.0 -0.2841 0.9438
6009000000.0 0.5198 0.8561
6012000000.0 0.974 0.1217
6016000000.0 0.7117 -0.6944
6019000000.0 -0.09204 -0.9911
6022000000.0 -0.7871 -0.5753
6025000000.0 -0.9493 0.2632
6028000000.0 -0.3773 0.8929
6031000000.0 0.454 0.8479
6034000000.0 0.9678 0.2267
6038000000.0 0.7339 -0.6197
6041000000.0 -0.007097 -0.9702
6044000000.0 -0.7444 -0.6012
6047000000.0 -0.9386 0.2086
6050000000.0 -0.466 0.8549
6053000000.0 0.3637 0.8695
6056000000.0 0.89 0.2541
6059000000.0 0.7516 -0.5339
6062000000.0 0.06276 -0.931
6066000000.0 -0.6974 -0.6198
6069000000.0 -0.9061 0.143
6072000000.0 -0.4435 0.775
6075000000.0 0.3068 0.836
6078000000.0 0.8147 0.2872
6081000000.0 0.7291 -0.487
6084000000.0 0.1121 -0.8765
6088000000.0 -0.6169 -0.6367
6091000000.0 -0.8147 0.09043
6094000000.0 -0.5044 0.7123
6097000000.0 0.2449 0.8238
6100000000.0 0.8202 0.3405
6103000000.0 0.7438 -0.4413
6106000000.0 0.1368 -0.8448
6109000000.0 -0.5666 -0.6296
6112000000.0 -0.8782 0.04212
6116000000.0 -0.515 0.6736
6119000000.0 0.2284 0.8255
6122000000.0 0.7982 0.3603
6125000000.0 0.7853 -0.3827
6128000000.0 0.1676 -0.8718
6131000000.0 -0.5923 -0.6824
6134000000.0 -0.8528 0.009555
6138000000.0 -0.5802 0.6757
6141000000.0 0.1974 0.8492
6144000000.0 0.7726 0.4088
6147000000.0 0.8132 -0.3373
6150000000.0 0.2331 -0.8839
6153000000.0 -0.5178 -0.7327
6156000000.0 -0.8853 -0.07327
6159000000.0 -0.6203 0.6637
6162000000.0 0.104 0.9115
6166000000.0 0.7906 0.4865
6169000000.0 0.8885 -0.3246
6172000000.0 0.2904 -0.8821
6175000000.0 -0.4846 -0.7922
6178000000.0 -0.9376 -0.1281
6181000000.0 -0.7049 0.6589
6184000000.0 0.06167 0.963
6188000000.0 0.7786 0.5492
6191000000.0 0.9305 -0.1977
6194000000.0 0.4198 -0.8727
6197000000.0 -0.4237 -0.8529
6200000000.0 -0.9166 -0.2128
6203000000.0 -0.7542 0.554
6206000000.0 -0.03806 0.9657
6209000000.0 0.6729 0.6105
6212000000.0 0.9393 -0.1124
6216000000.0 0.503 -0.8225
6219000000.0 -0.281 -0.8884
6222000000.0 -0.8725 -0.3132
6225000000.0 -0.7462 0.4542
6228000000.0 -0.1568 0.8913
6231000000.0 0.5917 0.7038
6234000000.0 0.8881 0.01031
6238000000.0 0.5614 -0.6911
6241000000.0 -0.1639 -0.904
6244000000.0 -0.7569 -0.4287
6247000000.0 -0.7793 0.3153
6250000000.0 -0.251 0.795
6253000000.0 0.4631 0.6927
6256000000.0 0.8397 0.1125
6259000000.0 0.6022 -0.5278
6262000000.0 -0.02971 -0.815
6266000000.0 -0.6541 -0.4912
6269000000.0 -0.8189 0.1929
