! Created with skrf 1.8.0 (http://scikit-rf.org).
# Hz S RI R 50.0 
!freq ReS11 ImS11
4000000000.0 -0.1729 -1.546
4003000000.0 -1.262 -0.7556
4006000000.0 -1.422 0.4764
4009000000.0 -0.4884 1.389
4012000000.0 0.7994 1.242
4016000000.0 1.552 0.2019
4019000000.0 1.081 -1.118
4022000000.0 -0.1126 -1.582
4025000000.0 -1.343 -0.8655
4028000000.0 -1.506 0.4806
4031000000.0 -0.5338 1.476
4034000000.0 0.8708 1.374
4038000000.0 1.58 0.2423
4041000000.0 1.165 -1.15
4044000000.0 -0.1257 -1.609
4047000000.0 -1.334 -0.8992
4050000000.0 -1.552 0.4839
4053000000.0 -0.6056 1.442
4056000000.0 0.7813 1.413
4059000000.0 1.541 0.3143
4062000000.0 1.206 -1.035
4066000000.0 -0.02734 -1.56
4069000000.0 -1.232 -1.059
4072000000.0 -1.585 0.2879
4075000000.0 -0.8063 1.433
4078000000.0 0.5553 1.516
4081000000.0 1.536 0.538
4084000000.0 1.41 -0.87
4088000000.0 0.2366 -1.618
4091000000.0 -1.119 -1.166
4094000000.0 -1.583 0.09834
4097000000.0 -0.9516 1.322
4100000000.0 0.3919 1.558
4103000000.0 1.427 0.6395
4106000000.0 1.456 -0.6544
4109000000.0 0.4456 -1.507
4112000000.0 -0.9011 -1.279
4116000000.0 -1.529 -0.1684
4119000000.0 -1.124 1.033
4122000000.0 0.0531 1.486
4125000000.0 1.156 0.9297
4128000000.0 1.415 -0.2307
4131000000.0 0.7424 -1.251
4134000000.0 -0.4614 -1.416
4138000000.0 -1.38 -0.5858
4141000000.0 -1.335 0.6533
4144000000.0 -0.3558 1.468
4147000000.0 0.8715 1.209
4150000000.0 1.479 0.1246
4153000000.0 1.061 -1.086
4156000000.0 -0.1372 -1.513
4159000000.0 -1.238 -0.8799
4162000000.0 -1.43 0.3995
4166000000.0 -0.6198 1.347
4169000000.0 0.6515 1.339
4172000000.0 1.438 0.3568
4175000000.0 1.187 -0.8707
4178000000.0 0.1087 -1.47
4181000000.0 -1.093 -1.035
4184000000.0 -1.488 0.1181
4188000000.0 -0.8631 1.261
4191000000.0 0.4281 1.464
4194000000.0 1.403 0.6328
4197000000.0 1.4 -0.7024
4200000000.0 0.3288 -1.541
4203000000.0 -1.007 -1.262
4206000000.0 -1.595 0.02935
4209000000.0 -0.9954 1.274
4212000000.0 0.414 1.598
4216000000.0 1.529 0.6775
4219000000.0 1.448 -0.8024
4222000000.0 0.2936 -1.627
4225000000.0 -1.161 -1.186
4228000000.0 -1.665 0.1745
4231000000.0 -0.8625 1.428
4234000000.0 0.6043 1.559
4238000000.0 1.572 0.441
4241000000.0 1.308 -0.9526
4244000000.0 -0.001026 -1.612
4247000000.0 -1.242 -0.9573
4250000000.0 -1.468 0.3575
4253000000.0 -0.6297 1.436
4256000000.0 0.7572 1.333
4259000000.0 1.514 0.1994
4262000000.0 1.101 -1.037
4266000000.0 -0.1753 -1.489
4269000000.0 -1.194 -0.7728
4272000000.0 -1.381 0.5269
4275000000.0 -0.4484 1.373
4278000000.0 0.7949 1.209
4281000000.0 1.419 0.1091
4284000000.0 0.9435 -1.025
4288000000.0 -0.1879 -1.38
4291000000.0 -1.187 -0.7062
4294000000.0 -1.272 0.4714
4297000000.0 -0.4277 1.211
4300000000.0 0.6902 1.135
4303000000.0 1.274 0.206
4306000000.0 0.9903 -0.8619
4309000000.0 -0.02019 -1.294
4312000000.0 -0.9904 -0.815
4316000000.0 -1.284 0.2569
4319000000.0 -0.6618 1.132
4322000000.0 0.4317 1.208
4325000000.0 1.225 0.4507
4328000000.0 1.131 -0.6467
4331000000.0 0.2034 -1.336
4334000000.0 -0.8982 -1.042
4338000000.0 -1.387 0.01691
4341000000.0 -0.8734 1.073
4344000000.0 0.2466 1.339
4347000000.0 1.242 0.6855
4350000000.0 1.35 -0.5505
4353000000.0 0.4427 -1.35
4356000000.0 -0.7495 -1.205
4359000000.0 -1.429 -0.1893
4362000000.0 -1.093 0.9694
4366000000.0 0.06531 1.471
4369000000.0 1.148 0.8633
4372000000.0 1.41 -0.3473
4375000000.0 0.6473 -1.302
4378000000.0 -0.6193 -1.366
4381000000.0 -1.469 -0.4034
4384000000.0 -1.229 0.8801
4388000000.0 -0.1509 1.513
4391000000.0 1.144 1.063
4394000000.0 1.555 -0.2219
4397000000.0 0.7822 -1.362
4400000000.0 -0.5853 -1.449
4403000000.0 -1.493 -0.4666
4406000000.0 -1.29 0.9057
4409000000.0 -0.08312 1.564
4412000000.0 1.167 1.017
4416000000.0 1.512 -0.2792
4419000000.0 0.7072 -1.349
4422000000.0 -0.6121 -1.363
4425000000.0 -1.455 -0.3366
4428000000.0 -1.144 0.9153
4431000000.0 0.01255 1.449
4434000000.0 1.138 0.888
4438000000.0 1.342 -0.3273
4441000000.0 0.5466 -1.238
4444000000.0 -0.6535 -1.215
4447000000.0 -1.303 -0.2314
4450000000.0 -0.9363 0.9005
4453000000.0 0.1218 1.308
4456000000.0 1.097 0.6994
4459000000.0 1.179 -0.456
4462000000.0 0.34 -1.186
4466000000.0 -0.6883 -1.019
4469000000.0 -1.211 -0.1027
4472000000.0 -0.7698 0.9161
4475000000.0 0.2553 1.151
4478000000.0 1.034 0.5063
4481000000.0 1.044 -0.5101
4484000000.0 0.2546 -1.119
4488000000.0 -0.7125 -0.8838
4491000000.0 -1.156 -0.03152
4494000000.0 -0.6868 0.8693
4497000000.0 0.249 1.083
4500000000.0 0.995 0.5031
4503000000.0 0.9832 -0.4505
4506000000.0 0.2497 -1.081
4509000000.0 -0.6745 -0.8656
4512000000.0 -1.11 -0.02809
4516000000.0 -0.7362 0.8461
4519000000.0 0.2108 1.101
4522000000.0 0.9852 0.5581
4525000000.0 1.066 -0.4219
4528000000.0 0.3615 -1.082
4531000000.0 -0.641 -0.9625
4534000000.0 -1.163 -0.1259
4538000000.0 -0.8533 0.8125
4541000000.0 0.07541 1.189
4544000000.0 0.9661 0.6938
4547000000.0 1.168 -0.2906
4550000000.0 0.488 -1.109
4553000000.0 -0.5054 -1.077
4556000000.0 -1.174 -0.3304
4559000000.0 -1.013 0.7053
4562000000.0 -0.1222 1.253
4566000000.0 0.8772 0.8804
4569000000.0 1.276 -0.1236
4572000000.0 0.71 -1.03
4575000000.0 -0.3189 -1.253
4578000000.0 -1.193 -0.5379
4581000000.0 -1.189 0.5489
4584000000.0 -0.3181 1.278
4588000000.0 0.7795 1.13
4591000000.0 1.371 0.07642
4594000000.0 0.927 -1.005
4597000000.0 -0.1676 -1.357
4600000000.0 -1.155 -0.7422
4603000000.0 -1.328 0.447
4606000000.0 -0.4804 1.29
4609000000.0 0.7037 1.211
4612000000.0 1.389 0.2151
4616000000.0 1.061 -0.9292
4619000000.0 -0.04986 -1.379
4622000000.0 -1.129 -0.8124
4625000000.0 -1.349 0.339
4628000000.0 -0.5998 1.235
4631000000.0 0.6173 1.227
4634000000.0 1.383 0.3041
4638000000.0 1.053 -0.8313
4641000000.0 0.01286 -1.348
4644000000.0 -1.033 -0.846
4647000000.0 -1.315 0.2825
4650000000.0 -0.5843 1.198
4653000000.0 0.5746 1.186
4656000000.0 1.255 0.2876
4659000000.0 0.9689 -0.7979
4662000000.0 -0.003883 -1.233
4666000000.0 -0.9607 -0.7409
4669000000.0 -1.168 0.2759
4672000000.0 -0.5053 1.082
4675000000.0 0.5225 1.038
4678000000.0 1.15 0.2052
4681000000.0 0.8454 -0.7029
4684000000.0 0.005264 -1.142
4688000000.0 -0.8588 -0.6737
4691000000.0 -1.056 0.2537
4694000000.0 -0.4733 0.9896
4697000000.0 0.4916 0.9762
4700000000.0 1.052 0.2275
4703000000.0 0.8485 -0.7059
4706000000.0 -0.01722 -1.075
4709000000.0 -0.863 -0.6416
4712000000.0 -1.036 0.295
4716000000.0 -0.418 0.99
4719000000.0 0.5031 0.9523
4722000000.0 1.026 0.1968
4725000000.0 0.7938 -0.667
4728000000.0 -0.02717 -1.037
4731000000.0 -0.8315 -0.6142
4734000000.0 -1.034 0.2283
4738000000.0 -0.4478 0.9635
4741000000.0 0.3968 0.9666
4744000000.0 0.9995 0.2942
4747000000.0 0.9035 -0.5899
4750000000.0 0.09255 -1.054
4753000000.0 -0.7654 -0.787
4756000000.0 -1.092 0.1125
4759000000.0 -0.6448 0.8983
4762000000.0 0.2796 1.084
4766000000.0 1.022 0.4524
4769000000.0 1.032 -0.489
4772000000.0 0.2899 -1.119
4775000000.0 -0.6394 -0.9416
4778000000.0 -1.187 -0.06706
4781000000.0 -0.813 0.8725
4784000000.0 0.127 1.21
4788000000.0 0.9975 0.6813
4791000000.0 1.182 -0.3368
4794000000.0 0.5068 -1.124
4797000000.0 -0.5267 -1.144
4800000000.0 -1.212 -0.3471
4803000000.0 -1.001 0.6934
4806000000.0 -0.1319 1.218
4809000000.0 0.8823 0.9108
4812000000.0 1.279 -0.09739
4816000000.0 0.7505 -1.06
4819000000.0 -0.3547 -1.286
4822000000.0 -1.199 -0.5581
4825000000.0 -1.218 0.5541
4828000000.0 -0.3344 1.325
4831000000.0 0.8287 1.099
4834000000.0 1.361 0.05075
4838000000.0 0.9365 -1.004
4841000000.0 -0.2055 -1.384
4844000000.0 -1.2 -0.7255
4847000000.0 -1.29 0.4697
4850000000.0 -0.436 1.299
4853000000.0 0.7361 1.16
4856000000.0 1.36 0.1785
4859000000.0 0.9831 -0.9399
4862000000.0 -0.09385 -1.34
4866000000.0 -1.076 -0.7611
4869000000.0 -1.283 0.3662
4872000000.0 -0.5195 1.207
4875000000.0 0.5845 1.153
4878000000.0 1.234 0.2373
4881000000.0 0.9591 -0.8033
4884000000.0 -0.01462 -1.253
4888000000.0 -0.9613 -0.7269
4891000000.0 -1.151 0.2736
4894000000.0 -0.5049 1.088
4897000000.0 0.4696 1.058
4900000000.0 1.096 0.2426
4903000000.0 0.8589 -0.6998
4906000000.0 0.0243 -1.077
4909000000.0 -0.8063 -0.6532
4912000000.0 -0.9772 0.1884
4916000000.0 -0.4696 0.899
4919000000.0 0.3645 0.9312
4922000000.0 0.9358 0.2952
4925000000.0 0.8343 -0.5268
4928000000.0 0.08784 -0.9408
4931000000.0 -0.6639 -0.6684
4934000000.0 -0.9389 0.07974
4938000000.0 -0.505 0.7787
4941000000.0 0.2725 0.8831
4944000000.0 0.8333 0.3634
4947000000.0 0.8365 -0.4276
4950000000.0 0.1707 -0.9146
4953000000.0 -0.6005 -0.7494
4956000000.0 -0.9758 0.001108
4959000000.0 -0.5813 0.7538
4962000000.0 0.2054 0.9404
4966000000.0 0.873 0.4506
4969000000.0 0.91 -0.4368
4972000000.0 0.2691 -0.9737
4975000000.0 -0.5795 -0.8208
4978000000.0 -0.9923 -0.06867
4981000000.0 -0.7136 0.723
4984000000.0 0.1122 1.012
4988000000.0 0.8703 0.5623
4991000000.0 1.033 -0.3116
4994000000.0 0.4206 -1.003
4997000000.0 -0.4816 -0.9771
5000000000.0 -1.106 -0.2476
5003000000.0 -0.8978 0.7009
5006000000.0 -0.02323 1.159
5009000000.0 0.8775 0.7809
5012000000.0 1.215 -0.1975
5016000000.0 0.6062 -1.075
5019000000.0 -0.4412 -1.164
5022000000.0 -1.19 -0.428
5025000000.0 -1.07 0.6602
5028000000.0 -0.1705 1.249
5031000000.0 0.8738 0.9456
5034000000.0 1.263 -0.04652
5038000000.0 0.7556 -1.022
5041000000.0 -0.3142 -1.221
5044000000.0 -1.17 -0.5801
5047000000.0 -1.153 0.4988
5050000000.0 -0.3692 1.204
5053000000.0 0.7356 1.102
5056000000.0 1.261 0.1488
5059000000.0 0.9328 -0.8685
5062000000.0 -0.1108 -1.298
5066000000.0 -1.018 -0.7536
5069000000.0 -1.25 0.3439
5072000000.0 -0.5527 1.153
5075000000.0 0.5459 1.145
5078000000.0 1.23 0.305
5081000000.0 1.003 -0.7216
5084000000.0 0.132 -1.214
5088000000.0 -0.8842 -0.8428
5091000000.0 -1.201 0.1337
5094000000.0 -0.6865 0.9947
5097000000.0 0.3353 1.108
5100000000.0 1.05 0.456
5103000000.0 0.9838 -0.4908
5106000000.0 0.3182 -1.074
5109000000.0 -0.6748 -0.8416
5112000000.0 -1.073 -0.07307
5116000000.0 -0.7251 0.8027
5119000000.0 0.1199 1.022
5122000000.0 0.8723 0.5882
5125000000.0 0.9784 -0.3104
5128000000.0 0.3734 -0.9561
5131000000.0 -0.4918 -0.8565
5134000000.0 -0.9655 -0.184
5138000000.0 -0.7856 0.6345
5141000000.0 -0.01712 0.9506
5144000000.0 0.7207 0.6094
5147000000.0 0.8939 -0.1925
5150000000.0 0.4291 -0.8193
5153000000.0 -0.3811 -0.8688
5156000000.0 -0.8614 -0.2417
5159000000.0 -0.7623 0.5062
5162000000.0 -0.07323 0.8963
5166000000.0 0.6357 0.6472
5169000000.0 0.87 -0.1112
5172000000.0 0.4764 -0.7608
5175000000.0 -0.2752 -0.8556
5178000000.0 -0.8463 -0.2758
5181000000.0 -0.8069 0.4724
5184000000.0 -0.1123 0.8891
5188000000.0 0.6567 0.6652
5191000000.0 0.9283 -0.1169
5194000000.0 0.4664 -0.7752
5197000000.0 -0.2756 -0.8842
5200000000.0 -0.8728 -0.3294
5203000000.0 -0.7921 0.4881
5206000000.0 -0.1395 0.9255
5209000000.0 0.6496 0.6865
5212000000.0 0.9426 -0.07106
5216000000.0 0.5521 -0.7983
5219000000.0 -0.2728 -0.9614
5222000000.0 -0.8987 -0.3866
5225000000.0 -0.8979 0.483
5228000000.0 -0.1869 0.9879
5231000000.0 0.6476 0.7626
5234000000.0 1.011 0.02703
5238000000.0 0.6697 -0.8011
5241000000.0 -0.2071 -1.031
5244000000.0 -0.9204 -0.5147
5247000000.0 -0.9929 0.4007
5250000000.0 -0.3569 1.027
5253000000.0 0.575 0.878
5256000000.0 1.077 0.1202
5259000000.0 0.7873 -0.73
5262000000.0 -0.03624 -1.052
5266000000.0 -0.867 -0.6549
5269000000.0 -1.053 0.2014
5272000000.0 -0.5131 0.9674
5275000000.0 0.3904 1.04
5278000000.0 1.083 0.3247
5281000000.0 0.9365 -0.5602
5284000000.0 0.1724 -1.084
5288000000.0 -0.7265 -0.827
5291000000.0 -1.124 0.02782
5294000000.0 -0.7158 0.8556
5297000000.0 0.2105 1.103
5300000000.0 0.9395 0.5532
5303000000.0 1.039 -0.3802
5306000000.0 0.4462 -1.048
5309000000.0 -0.5297 -1.026
5312000000.0 -1.104 -0.2435
5316000000.0 -0.893 0.7217
5319000000.0 -0.0253 1.139
5322000000.0 0.8562 0.7355
5325000000.0 1.105 -0.1771
5328000000.0 0.6175 -0.9671
5331000000.0 -0.3932 -1.097
5334000000.0 -1.034 -0.3841
5338000000.0 -0.9693 0.5563
5341000000.0 -0.1811 1.109
5344000000.0 0.7392 0.8513
5347000000.0 1.102 -0.04704
5350000000.0 0.7018 -0.849
5353000000.0 -0.2437 -1.055
5356000000.0 -0.9799 -0.4754
5359000000.0 -0.985 0.4424
5362000000.0 -0.2542 1.038
5366000000.0 0.62 0.8226
5369000000.0 1.047 0.04094
5372000000.0 0.6824 -0.7855
5375000000.0 -0.1786 -1.013
5378000000.0 -0.9229 -0.4509
5381000000.0 -0.9022 0.4279
5384000000.0 -0.2506 0.9622
5388000000.0 0.5638 0.7469
5391000000.0 0.9559 0.01896
5394000000.0 0.5893 -0.7506
5397000000.0 -0.2174 -0.9155
5400000000.0 -0.814 -0.403
5403000000.0 -0.7949 0.4102
5406000000.0 -0.2024 0.8582
5409000000.0 0.5442 0.7322
5412000000.0 0.8967 -0.003857
5416000000.0 0.5611 -0.7042
5419000000.0 -0.2 -0.8428
5422000000.0 -0.7774 -0.3776
5425000000.0 -0.7776 0.3639
5428000000.0 -0.1974 0.8514
5431000000.0 0.5539 0.6854
5434000000.0 0.8689 -0.03511
5438000000.0 0.5451 -0.7301
5441000000.0 -0.1915 -0.8358
5444000000.0 -0.7997 -0.3695
5447000000.0 -0.8136 0.372
5450000000.0 -0.2037 0.844
5453000000.0 0.5379 0.7026
5456000000.0 0.8975 0.03204
5459000000.0 0.5595 -0.6657
5462000000.0 -0.1264 -0.909
5466000000.0 -0.7876 -0.4407
5469000000.0 -0.8426 0.3018
5472000000.0 -0.3242 0.8609
5475000000.0 0.4448 0.771
5478000000.0 0.9093 0.1644
5481000000.0 0.7122 -0.6342
5484000000.0 -0.01986 -0.991
5488000000.0 -0.7434 -0.588
5491000000.0 -0.956 0.1916
5494000000.0 -0.4929 0.8577
5497000000.0 0.3474 0.9598
5500000000.0 0.9371 0.3106
5503000000.0 0.8736 -0.5028
5506000000.0 0.122 -1.023
5509000000.0 -0.7131 -0.7653
5512000000.0 -1.023 0.04002
5516000000.0 -0.646 0.8075
5519000000.0 0.199 1.028
5522000000.0 0.9108 0.5072
5525000000.0 0.9964 -0.3823
5528000000.0 0.3898 -1.0
5531000000.0 -0.5101 -0.9298
5534000000.0 -1.013 -0.1967
5538000000.0 -0.8397 0.6482
5541000000.0 -0.0181 1.061
5544000000.0 0.804 0.6478
5547000000.0 1.059 -0.1767
5550000000.0 0.5044 -0.9348
5553000000.0 -0.394 -0.9809
5556000000.0 -1.001 -0.3472
5559000000.0 -0.8823 0.5406
5562000000.0 -0.1474 1.022
5566000000.0 0.6773 0.7556
5569000000.0 1.039 -0.04718
5572000000.0 0.622 -0.7969
5575000000.0 -0.2113 -0.9792
5578000000.0 -0.9051 -0.4373
5581000000.0 -0.8985 0.4198
5584000000.0 -0.2702 0.9274
5588000000.0 0.515 0.7739
5591000000.0 0.9458 0.06623
5594000000.0 0.6569 -0.6947
5597000000.0 -0.1232 -0.9393
5600000000.0 -0.7833 -0.4779
5603000000.0 -0.8222 0.3029
5606000000.0 -0.2953 0.8068
5609000000.0 0.4382 0.7622
5612000000.0 0.868 0.127
5616000000.0 0.6298 -0.5839
5619000000.0 -0.04271 -0.8477
5622000000.0 -0.6777 -0.5193
5625000000.0 -0.8069 0.2342
5628000000.0 -0.3389 0.7364
5631000000.0 0.3903 0.7235
5634000000.0 0.8188 0.1862
5638000000.0 0.6206 -0.5353
5641000000.0 -0.01269 -0.8342
5644000000.0 -0.6485 -0.5224
5647000000.0 -0.7992 0.2234
5650000000.0 -0.3266 0.745
5653000000.0 0.3983 0.7422
5656000000.0 0.8263 0.1738
5659000000.0 0.6543 -0.5477
5662000000.0 -0.02614 -0.8511
5666000000.0 -0.7077 -0.5344
5669000000.0 -0.8566 0.2122
5672000000.0 -0.3547 0.8102
5675000000.0 0.423 0.8138
5678000000.0 0.8747 0.1518
5681000000.0 0.6909 -0.5706
5684000000.0 -0.00677 -0.9526
5688000000.0 -0.7419 -0.5716
5691000000.0 -0.9216 0.2065
5694000000.0 -0.4649 0.8521
5697000000.0 0.4145 0.9032
5700000000.0 0.9632 0.2434
5703000000.0 0.8177 -0.5907
5706000000.0 0.04844 -1.023
5709000000.0 -0.765 -0.7043
5712000000.0 -1.007 0.1293
5716000000.0 -0.5256 0.8731
5719000000.0 0.3421 0.9921
5722000000.0 0.985 0.3855
5725000000.0 0.9359 -0.527
5728000000.0 0.231 -1.064
5731000000.0 -0.6664 -0.8396
5734000000.0 -1.084 0.003453
5738000000.0 -0.6562 0.8552
5741000000.0 0.2142 1.053
5744000000.0 0.9808 0.524
5747000000.0 1.004 -0.3945
5750000000.0 0.3355 -1.041
5753000000.0 -0.5994 -0.9386
5756000000.0 -1.082 -0.1598
5759000000.0 -0.8191 0.724
5762000000.0 0.06606 1.107
5766000000.0 0.8848 0.6822
5769000000.0 1.074 -0.2559
5772000000.0 0.505 -0.992
5775000000.0 -0.4406 -0.9846
5778000000.0 -1.054 -0.3245
5781000000.0 -0.8903 0.6097
5784000000.0 -0.1079 1.078
5788000000.0 0.7309 0.7956
5791000000.0 1.086 -0.05774
5794000000.0 0.6364 -0.854
5797000000.0 -0.2604 -1.062
5800000000.0 -0.9501 -0.4578
5803000000.0 -0.9264 0.4431
5806000000.0 -0.2484 1.002
5809000000.0 0.6247 0.8219
5812000000.0 1.054 0.04298
5816000000.0 0.6878 -0.7375
5819000000.0 -0.1347 -0.9964
5822000000.0 -0.8428 -0.5315
5825000000.0 -0.9477 0.3217
5828000000.0 -0.3378 0.9403
5831000000.0 0.5013 0.8373
5834000000.0 0.9547 0.1217
5838000000.0 0.7001 -0.6779
5841000000.0 -0.04709 -0.9527
5844000000.0 -0.7626 -0.554
5847000000.0 -0.8815 0.2538
5850000000.0 -0.3634 0.8931
5853000000.0 0.4403 0.7956
5856000000.0 0.9069 0.1518
5859000000.0 0.692 -0.615
5862000000.0 -0.04082 -0.8885
5866000000.0 -0.7279 -0.5665
5869000000.0 -0.8766 0.2675
5872000000.0 -0.369 0.836
5875000000.0 0.4081 0.7829
5878000000.0 0.8721 0.1532
5881000000.0 0.6551 -0.5384
5884000000.0 -0.03695 -0.892
5888000000.0 -0.6893 -0.5315
5891000000.0 -0.8104 0.1746
5894000000.0 -0.387 0.7593
5897000000.0 0.3761 0.8007
5900000000.0 0.8067 0.1937
5903000000.0 0.7121 -0.5005
5906000000.0 0.07354 -0.8539
5909000000.0 -0.638 -0.5704
5912000000.0 -0.8462 0.1195
5916000000.0 -0.4194 0.7526
5919000000.0 0.2977 0.8014
5922000000.0 0.8075 0.2684
5925000000.0 0.7525 -0.446
5928000000.0 0.1056 -0.8829
5931000000.0 -0.5858 -0.6575
5934000000.0 -0.8618 0.04335
5938000000.0 -0.5437 0.6941
5941000000.0 0.2149 0.8593
5944000000.0 0.8158 0.3995
5947000000.0 0.8148 -0.3508
5950000000.0 0.2452 -0.8568
5953000000.0 -0.518 -0.7616
5956000000.0 -0.9245 -0.09975
5959000000.0 -0.6538 0.6368
5962000000.0 0.07173 0.9369
5966000000.0 0.7835 0.5735
5969000000.0 0.9384 -0.2039
5972000000.0 0.429 -0.8717
5975000000.0 -0.4127 -0.8826
5978000000.0 -0.9565 -0.2426
5981000000.0 -0.8101 0.5682
5984000000.0 -0.0665 0.9674
5988000000.0 0.7055 0.7114
5991000000.0 1.004 -0.0687
5994000000.0 0.575 -0.8363
5997000000.0 -0.2995 -0.9881
6000000000.0 -0.9177 -0.4032
6003000000.0 -0.8474 0.438
6006000000.0 -0.2167 0.9329
6009000000.0 0.6116 0.7773
6012000000.0 0.9948 0.007881
6016000000.0 0.6504 -0.726
6019000000.0 -0.1999 -0.98
6022000000.0 -0.8572 -0.4765
6025000000.0 -0.9298 0.3639
6028000000.0 -0.2997 0.9209
6031000000.0 0.5551 0.8345
6034000000.0 0.9609 0.07848
6038000000.0 0.6726 -0.6954
6041000000.0 -0.1051 -0.9301
6044000000.0 -0.7919 -0.5183
6047000000.0 -0.875 0.3032
6050000000.0 -0.3446 0.8409
6053000000.0 0.4743 0.7891
6056000000.0 0.9158 0.126
6059000000.0 0.6788 -0.6327
6062000000.0 -0.06273 -0.8929
6066000000.0 -0.7349 -0.5306
6069000000.0 -0.863 0.252
6072000000.0 -0.3219 0.8039
6075000000.0 0.4074 0.7806
6078000000.0 0.8382 0.1961
6081000000.0 0.675 -0.5155
6084000000.0 0.0004839 -0.8613
6088000000.0 -0.6744 -0.5206
6091000000.0 -0.8132 0.1665
6094000000.0 -0.3739 0.7792
6097000000.0 0.3436 0.7822
6100000000.0 0.8337 0.2153
6103000000.0 0.6876 -0.5131
6106000000.0 0.02316 -0.8397
6109000000.0 -0.6255 -0.5754
6112000000.0 -0.848 0.1535
6116000000.0 -0.3944 0.7512
6119000000.0 0.3421 0.8153
6122000000.0 0.8267 0.2327
6125000000.0 0.7236 -0.5121
6128000000.0 0.07175 -0.9013
6131000000.0 -0.6377 -0.5881
6134000000.0 -0.8799 0.126
6138000000.0 -0.4664 0.7705
6141000000.0 0.2936 0.8246
6144000000.0 0.8273 0.281
6147000000.0 0.7656 -0.4591
6150000000.0 0.1484 -0.8838
6153000000.0 -0.6166 -0.6805
6156000000.0 -0.8934 0.03139
6159000000.0 -0.559 0.7415
6162000000.0 0.2422 0.8681
6166000000.0 0.8363 0.4045
6169000000.0 0.8539 -0.4267
6172000000.0 0.2072 -0.9546
6175000000.0 -0.5829 -0.7729
6178000000.0 -0.9958 -0.009877
6181000000.0 -0.6446 0.7081
6184000000.0 0.169 0.9496
6188000000.0 0.8404 0.4586
6191000000.0 0.8247 -0.3295
6194000000.0 0.269 -0.9252
6197000000.0 -0.5169 -0.7976
6200000000.0 -0.9443 -0.1205
6203000000.0 -0.7031 0.6247
6206000000.0 0.04664 0.9349
6209000000.0 0.784 0.5366
6212000000.0 0.8902 -0.2222
6216000000.0 0.396 -0.7924
6219000000.0 -0.4173 -0.8069
6222000000.0 -0.8595 -0.238
6225000000.0 -0.7601 0.523
6228000000.0 -0.04809 0.9136
6231000000.0 0.67 0.6179
6234000000.0 0.8557 -0.1278
6238000000.0 0.4616 -0.7393
6241000000.0 -0.271 -0.8155
6244000000.0 -0.7821 -0.3153
6247000000.0 -0.7574 0.4484
6250000000.0 -0.151 0.8532
6253000000.0 0.5223 0.6826
6256000000.0 0.8519 0.005223
6259000000.0 0.523 -0.6393
6262000000.0 -0.16 -0.7926
6266000000.0 -0.7224 -0.4188
