! Created with skrf 1.8.0 (http://scikit-rf.org).
# Hz S RI R 50.0 
!freq ReS11 ImS11
4000000000.0 -0.1385 -1.491
4003000000.0 -1.203 -0.814
4006000000.0 -1.417 0.4849
4009000000.0 -0.5505 1.382
4012000000.0 0.8049 1.318
4016000000.0 1.529 0.2169
4019000000.0 1.147 -1.042
4022000000.0 -0.09267 -1.511
4025000000.0 -1.255 -0.8736
4028000000.0 -1.496 0.4501
4031000000.0 -0.5963 1.498
4034000000.0 0.7914 1.397
4038000000.0 1.631 0.2314
4041000000.0 1.198 -1.096
4044000000.0 -0.1485 -1.667
4047000000.0 -1.345 -0.9316
4050000000.0 -1.551 0.4558
4053000000.0 -0.6133 1.453
4056000000.0 0.7268 1.39
4059000000.0 1.623 0.3874
4062000000.0 1.272 -1.018
4066000000.0 0.0486 -1.612
4069000000.0 -1.185 -1.075
4072000000.0 -1.592 0.2413
4075000000.0 -0.8132 1.402
4078000000.0 0.5669 1.585
4081000000.0 1.541 0.5372
4084000000.0 1.466 -0.8284
4088000000.0 0.2479 -1.628
4091000000.0 -1.11 -1.247
4094000000.0 -1.661 0.04223
4097000000.0 -0.9892 1.26
4100000000.0 0.3899 1.565
4103000000.0 1.444 0.7341
4106000000.0 1.428 -0.6473
4109000000.0 0.4352 -1.486
4112000000.0 -0.8195 -1.307
4116000000.0 -1.489 -0.1985
4119000000.0 -1.117 0.9958
4122000000.0 0.04093 1.456
4125000000.0 1.128 0.9439
4128000000.0 1.476 -0.2222
4131000000.0 0.7802 -1.199
4134000000.0 -0.4457 -1.424
4138000000.0 -1.355 -0.6021
4141000000.0 -1.339 0.6509
4144000000.0 -0.3996 1.462
4147000000.0 0.871 1.228
4150000000.0 1.534 0.1077
4153000000.0 1.107 -1.035
4156000000.0 -0.08976 -1.502
4159000000.0 -1.261 -0.8816
4162000000.0 -1.473 0.3977
4166000000.0 -0.6478 1.346
4169000000.0 0.6252 1.375
4172000000.0 1.417 0.4179
4175000000.0 1.262 -0.8569
4178000000.0 0.1816 -1.497
4181000000.0 -1.027 -1.075
4184000000.0 -1.489 0.1148
4188000000.0 -0.9134 1.232
4191000000.0 0.3711 1.462
4194000000.0 1.395 0.6722
4197000000.0 1.426 -0.6353
4200000000.0 0.3895 -1.566
4203000000.0 -0.9734 -1.24
4206000000.0 -1.614 -0.05643
4209000000.0 -1.078 1.262
4212000000.0 0.3297 1.618
4216000000.0 1.49 0.7352
4219000000.0 1.486 -0.7237
4222000000.0 0.3376 -1.687
4225000000.0 -1.135 -1.264
4228000000.0 -1.66 0.1242
4231000000.0 -0.9061 1.361
4234000000.0 0.5644 1.574
4238000000.0 1.569 0.5319
4241000000.0 1.342 -0.9133
4244000000.0 0.1103 -1.601
4247000000.0 -1.201 -1.037
4250000000.0 -1.5 0.3384
4253000000.0 -0.6737 1.423
4256000000.0 0.6706 1.413
4259000000.0 1.533 0.2572
4262000000.0 1.179 -1.006
4266000000.0 -0.08538 -1.497
4269000000.0 -1.232 -0.894
4272000000.0 -1.457 0.4634
4275000000.0 -0.5278 1.401
4278000000.0 0.75 1.256
4281000000.0 1.431 0.189
4284000000.0 1.055 -0.9941
4288000000.0 -0.1692 -1.384
4291000000.0 -1.159 -0.7343
4294000000.0 -1.24 0.4052
4297000000.0 -0.4685 1.248
4300000000.0 0.6652 1.16
4303000000.0 1.269 0.2656
4306000000.0 1.003 -0.8484
4309000000.0 0.04553 -1.286
4312000000.0 -0.9655 -0.8233
4316000000.0 -1.297 0.231
4319000000.0 -0.6789 1.13
4322000000.0 0.4053 1.229
4325000000.0 1.228 0.4895
4328000000.0 1.179 -0.6174
4331000000.0 0.2775 -1.328
4334000000.0 -0.8553 -1.06
4338000000.0 -1.401 -0.02543
4341000000.0 -0.9379 1.04
4344000000.0 0.2627 1.41
4347000000.0 1.213 0.7122
4350000000.0 1.355 -0.4769
4353000000.0 0.5155 -1.34
4356000000.0 -0.7553 -1.205
4359000000.0 -1.408 -0.2357
4362000000.0 -1.115 0.9707
4366000000.0 0.02142 1.476
4369000000.0 1.161 0.9302
4372000000.0 1.422 -0.2988
4375000000.0 0.727 -1.318
4378000000.0 -0.5923 -1.412
4381000000.0 -1.456 -0.4569
4384000000.0 -1.285 0.8553
4388000000.0 -0.1671 1.56
4391000000.0 1.081 1.121
4394000000.0 1.568 -0.1307
4397000000.0 0.8567 -1.318
4400000000.0 -0.4858 -1.525
4403000000.0 -1.475 -0.5311
4406000000.0 -1.327 0.8245
4409000000.0 -0.177 1.59
4412000000.0 1.101 1.087
4416000000.0 1.58 -0.1843
4419000000.0 0.7854 -1.316
4422000000.0 -0.5376 -1.427
4425000000.0 -1.45 -0.429
4428000000.0 -1.19 0.8685
4431000000.0 -0.1164 1.455
4434000000.0 1.088 0.9329
4438000000.0 1.444 -0.2715
4441000000.0 0.6665 -1.285
4444000000.0 -0.5836 -1.252
4447000000.0 -1.31 -0.3138
4450000000.0 -1.044 0.8508
4453000000.0 0.02855 1.298
4456000000.0 1.066 0.7844
4459000000.0 1.253 -0.3685
4462000000.0 0.4695 -1.172
4466000000.0 -0.6579 -1.046
4469000000.0 -1.232 -0.1497
4472000000.0 -0.8687 0.8639
4475000000.0 0.1877 1.185
4478000000.0 1.022 0.6026
4481000000.0 1.095 -0.4392
4484000000.0 0.3228 -1.089
4488000000.0 -0.6473 -0.9266
4491000000.0 -1.147 -0.06749
4494000000.0 -0.7594 0.8563
4497000000.0 0.1725 1.096
4500000000.0 0.9767 0.5586
4503000000.0 1.016 -0.3877
4506000000.0 0.3303 -1.036
4509000000.0 -0.6201 -0.8897
4512000000.0 -1.084 -0.09198
4516000000.0 -0.7836 0.7768
4519000000.0 0.1397 1.108
4522000000.0 0.9615 0.6095
4525000000.0 1.056 -0.3752
4528000000.0 0.4149 -1.061
4531000000.0 -0.5738 -1.024
4534000000.0 -1.131 -0.1833
4538000000.0 -0.8825 0.768
4541000000.0 0.01395 1.208
4544000000.0 0.9453 0.7212
4547000000.0 1.169 -0.2572
4550000000.0 0.5802 -1.052
4553000000.0 -0.4515 -1.14
4556000000.0 -1.174 -0.3889
4559000000.0 -1.044 0.6684
4562000000.0 -0.1598 1.251
4566000000.0 0.8332 0.9229
4569000000.0 1.275 -0.07455
4572000000.0 0.806 -1.009
4575000000.0 -0.2595 -1.263
4578000000.0 -1.129 -0.5891
4581000000.0 -1.228 0.5076
4584000000.0 -0.3975 1.263
4588000000.0 0.7479 1.134
4591000000.0 1.351 0.1443
4594000000.0 0.9767 -0.9476
4597000000.0 -0.1134 -1.359
4600000000.0 -1.118 -0.8164
4603000000.0 -1.329 0.4107
4606000000.0 -0.5697 1.292
4609000000.0 0.6625 1.235
4612000000.0 1.402 0.3096
4616000000.0 1.078 -0.8809
4619000000.0 0.03045 -1.405
4622000000.0 -1.076 -0.9107
4625000000.0 -1.373 0.244
4628000000.0 -0.633 1.237
4631000000.0 0.5243 1.278
4634000000.0 1.327 0.3875
4638000000.0 1.153 -0.7672
4641000000.0 0.1199 -1.355
4644000000.0 -0.9977 -0.9125
4647000000.0 -1.316 0.1953
4650000000.0 -0.6358 1.153
4653000000.0 0.4851 1.24
4656000000.0 1.251 0.3842
4659000000.0 1.065 -0.7217
4662000000.0 0.08433 -1.24
4666000000.0 -0.9184 -0.8432
4669000000.0 -1.219 0.2054
4672000000.0 -0.5685 1.042
4675000000.0 0.4416 1.085
4678000000.0 1.105 0.349
4681000000.0 0.9277 -0.6682
4684000000.0 0.09098 -1.13
4688000000.0 -0.8495 -0.7558
4691000000.0 -1.109 0.1756
4694000000.0 -0.5075 0.9758
4697000000.0 0.4292 1.026
4700000000.0 1.083 0.2468
4703000000.0 0.9061 -0.6805
4706000000.0 0.04637 -1.101
4709000000.0 -0.8381 -0.7275
4712000000.0 -1.054 0.2299
4716000000.0 -0.4835 0.9425
4719000000.0 0.4794 0.975
4722000000.0 1.074 0.2329
4725000000.0 0.8531 -0.6248
4728000000.0 0.04031 -1.012
4731000000.0 -0.8113 -0.6896
4734000000.0 -1.044 0.1905
4738000000.0 -0.5353 0.9032
4741000000.0 0.3639 0.9879
4744000000.0 0.9871 0.3671
4747000000.0 0.8989 -0.5365
4750000000.0 0.1511 -1.022
4753000000.0 -0.7112 -0.8002
4756000000.0 -1.1 0.05854
4759000000.0 -0.6821 0.8818
4762000000.0 0.2177 1.114
4766000000.0 1.021 0.5116
4769000000.0 1.038 -0.4703
4772000000.0 0.3266 -1.082
4775000000.0 -0.6495 -0.9696
4778000000.0 -1.188 -0.1404
4781000000.0 -0.8865 0.8231
4784000000.0 0.06343 1.208
4788000000.0 0.954 0.7219
4791000000.0 1.192 -0.2455
4794000000.0 0.5357 -1.088
4797000000.0 -0.4717 -1.124
4800000000.0 -1.226 -0.3896
4803000000.0 -1.002 0.6634
4806000000.0 -0.1793 1.239
4809000000.0 0.8752 0.9363
4812000000.0 1.283 -0.03495
4816000000.0 0.7857 -1.022
4819000000.0 -0.2939 -1.286
4822000000.0 -1.191 -0.6295
4825000000.0 -1.265 0.5349
4828000000.0 -0.3795 1.315
4831000000.0 0.7569 1.152
4834000000.0 1.389 0.1377
4838000000.0 0.9768 -1.029
4841000000.0 -0.112 -1.412
4844000000.0 -1.145 -0.7614
4847000000.0 -1.327 0.3928
4850000000.0 -0.5245 1.282
4853000000.0 0.6506 1.223
4856000000.0 1.333 0.2448
4859000000.0 1.035 -0.9091
4862000000.0 -0.04625 -1.352
4866000000.0 -1.091 -0.8513
4869000000.0 -1.282 0.2894
4872000000.0 -0.5858 1.174
4875000000.0 0.5536 1.201
4878000000.0 1.253 0.3213
4881000000.0 1.029 -0.765
4884000000.0 0.03104 -1.262
4888000000.0 -0.9417 -0.8195
4891000000.0 -1.183 0.2231
4894000000.0 -0.559 1.042
4897000000.0 0.4884 1.065
4900000000.0 1.118 0.3287
4903000000.0 0.9308 -0.6194
4906000000.0 0.08111 -1.095
4909000000.0 -0.7811 -0.7188
4912000000.0 -1.043 0.147
4916000000.0 -0.5213 0.8529
4919000000.0 0.3486 0.9631
4922000000.0 0.9374 0.3223
4925000000.0 0.8253 -0.5139
4928000000.0 0.1187 -0.9614
4931000000.0 -0.6503 -0.7294
4934000000.0 -0.9611 0.05015
4938000000.0 -0.5713 0.7605
4941000000.0 0.2039 0.9249
4944000000.0 0.852 0.4221
4947000000.0 0.8669 -0.3655
4950000000.0 0.2469 -0.9194
4953000000.0 -0.5918 -0.7759
4956000000.0 -0.9747 -0.03776
4959000000.0 -0.6493 0.7391
4962000000.0 0.1812 0.9578
4966000000.0 0.8726 0.482
4969000000.0 0.9105 -0.3791
4972000000.0 0.3013 -0.9431
4975000000.0 -0.5458 -0.8475
4978000000.0 -0.9885 -0.1175
4981000000.0 -0.7542 0.7163
4984000000.0 0.08918 1.03
4988000000.0 0.8584 0.6173
4991000000.0 1.02 -0.2562
4994000000.0 0.4701 -0.9923
4997000000.0 -0.4625 -1.026
5000000000.0 -1.089 -0.2814
5003000000.0 -0.9642 0.6768
5006000000.0 -0.09343 1.172
5009000000.0 0.8729 0.8298
5012000000.0 1.178 -0.1291
5016000000.0 0.6367 -1.025
5019000000.0 -0.3644 -1.199
5022000000.0 -1.185 -0.4643
5025000000.0 -1.099 0.6309
5028000000.0 -0.2403 1.268
5031000000.0 0.8242 0.9606
5034000000.0 1.273 -0.008595
5038000000.0 0.8205 -1.016
5041000000.0 -0.2073 -1.273
5044000000.0 -1.12 -0.6085
5047000000.0 -1.215 0.471
5050000000.0 -0.446 1.228
5053000000.0 0.6705 1.126
5056000000.0 1.3 0.1903
5059000000.0 0.9741 -0.8764
5062000000.0 -0.03581 -1.326
5066000000.0 -1.051 -0.8144
5069000000.0 -1.287 0.2872
5072000000.0 -0.6385 1.138
5075000000.0 0.4939 1.201
5078000000.0 1.193 0.3637
5081000000.0 1.032 -0.7138
5084000000.0 0.1163 -1.238
5088000000.0 -0.9056 -0.8927
5091000000.0 -1.205 0.05875
5094000000.0 -0.7108 0.9615
5097000000.0 0.2587 1.155
5100000000.0 1.017 0.5092
5103000000.0 1.026 -0.4699
5106000000.0 0.3126 -1.053
5109000000.0 -0.6074 -0.9027
5112000000.0 -1.109 -0.1306
5116000000.0 -0.783 0.7475
5119000000.0 0.0852 1.068
5122000000.0 0.8264 0.6427
5125000000.0 0.9646 -0.2635
5128000000.0 0.4383 -0.9514
5131000000.0 -0.3944 -0.9009
5134000000.0 -1.009 -0.2551
5138000000.0 -0.7921 0.5913
5141000000.0 -0.04623 0.9855
5144000000.0 0.7009 0.6428
5147000000.0 0.9304 -0.117
5150000000.0 0.5012 -0.7933
5153000000.0 -0.3413 -0.8692
5156000000.0 -0.8632 -0.2841
5159000000.0 -0.7874 0.4763
5162000000.0 -0.1717 0.9169
5166000000.0 0.6349 0.6524
5169000000.0 0.8992 -0.0252
5172000000.0 0.5364 -0.7358
5175000000.0 -0.233 -0.8439
5178000000.0 -0.8088 -0.3686
5181000000.0 -0.8122 0.407
5184000000.0 -0.1668 0.8908
5188000000.0 0.5939 0.6785
5191000000.0 0.9304 -0.02013
5194000000.0 0.5754 -0.749
5197000000.0 -0.2136 -0.8965
5200000000.0 -0.8318 -0.3772
5203000000.0 -0.8439 0.4195
5206000000.0 -0.2068 0.9148
5209000000.0 0.6465 0.7569
5212000000.0 0.9736 -0.01728
5216000000.0 0.5944 -0.7529
5219000000.0 -0.2076 -0.9821
5222000000.0 -0.8689 -0.4448
5225000000.0 -0.9078 0.3983
5228000000.0 -0.2612 0.9627
5231000000.0 0.6091 0.8309
5234000000.0 1.033 0.06842
5238000000.0 0.7163 -0.7369
5241000000.0 -0.1525 -1.004
5244000000.0 -0.9045 -0.5668
5247000000.0 -0.9842 0.3457
5250000000.0 -0.3842 0.9643
5253000000.0 0.4998 0.9281
5256000000.0 1.053 0.1845
5259000000.0 0.845 -0.7007
5262000000.0 0.02024 -1.072
5266000000.0 -0.8287 -0.6713
5269000000.0 -1.074 0.1687
5272000000.0 -0.5593 0.9581
5275000000.0 0.3485 1.053
5278000000.0 1.048 0.4109
5281000000.0 0.9815 -0.5326
5284000000.0 0.2122 -1.101
5288000000.0 -0.6873 -0.8803
5291000000.0 -1.122 -0.06465
5294000000.0 -0.758 0.8089
5297000000.0 0.1392 1.14
5300000000.0 0.9472 0.6117
5303000000.0 1.088 -0.3495
5306000000.0 0.4832 -1.049
5309000000.0 -0.5276 -1.048
5312000000.0 -1.105 -0.283
5316000000.0 -0.9291 0.6683
5319000000.0 -0.1066 1.126
5322000000.0 0.7989 0.799
5325000000.0 1.14 -0.108
5328000000.0 0.6508 -0.9321
5331000000.0 -0.3139 -1.098
5334000000.0 -1.068 -0.4668
5338000000.0 -1.021 0.5019
5341000000.0 -0.2587 1.092
5344000000.0 0.6835 0.8894
5347000000.0 1.119 0.0574
5350000000.0 0.7288 -0.816
5353000000.0 -0.153 -1.076
5356000000.0 -0.9443 -0.5431
5359000000.0 -1.015 0.365
5362000000.0 -0.3183 1.029
5366000000.0 0.5979 0.8924
5369000000.0 1.074 0.1574
5372000000.0 0.7438 -0.727
5375000000.0 -0.1082 -1.041
5378000000.0 -0.8939 -0.545
5381000000.0 -0.965 0.3301
5384000000.0 -0.3478 0.9522
5388000000.0 0.5448 0.8145
5391000000.0 0.9754 0.1047
5394000000.0 0.6646 -0.6849
5397000000.0 -0.1564 -0.9541
5400000000.0 -0.8047 -0.4754
5403000000.0 -0.8434 0.3451
5406000000.0 -0.2503 0.8519
5409000000.0 0.4993 0.7424
5412000000.0 0.8676 0.05945
5416000000.0 0.6077 -0.633
5419000000.0 -0.1197 -0.8376
5422000000.0 -0.7627 -0.4076
5425000000.0 -0.8233 0.2928
5428000000.0 -0.2409 0.8143
5431000000.0 0.4938 0.728
5434000000.0 0.8739 0.04785
5438000000.0 0.5973 -0.6362
5441000000.0 -0.1469 -0.8875
5444000000.0 -0.791 -0.4518
5447000000.0 -0.8553 0.3099
5450000000.0 -0.243 0.8262
5453000000.0 0.4916 0.7376
5456000000.0 0.879 0.08898
5459000000.0 0.6498 -0.6177
5462000000.0 -0.04443 -0.9145
5466000000.0 -0.7308 -0.5182
5469000000.0 -0.8889 0.2416
5472000000.0 -0.3497 0.8543
5475000000.0 0.4075 0.8504
5478000000.0 0.9331 0.2092
5481000000.0 0.7821 -0.5559
5484000000.0 0.06924 -0.9419
5488000000.0 -0.6813 -0.7078
5491000000.0 -0.9816 0.1377
5494000000.0 -0.5371 0.798
5497000000.0 0.3074 0.9659
5500000000.0 0.9318 0.3681
5503000000.0 0.9185 -0.4384
5506000000.0 0.2136 -0.99
5509000000.0 -0.6048 -0.8073
5512000000.0 -1.006 -0.05752
5516000000.0 -0.7113 0.7276
5519000000.0 0.1187 1.044
5522000000.0 0.842 0.5766
5525000000.0 1.017 -0.3111
5528000000.0 0.4502 -0.9409
5531000000.0 -0.4799 -0.9641
5534000000.0 -1.019 -0.2921
5538000000.0 -0.8752 0.6193
5541000000.0 -0.06951 1.052
5544000000.0 0.7796 0.7587
5547000000.0 1.086 -0.05549
5550000000.0 0.5921 -0.8905
5553000000.0 -0.3131 -1.02
5556000000.0 -0.9614 -0.4299
5559000000.0 -0.9805 0.4853
5562000000.0 -0.2317 1.025
5566000000.0 0.6536 0.8486
5569000000.0 1.042 0.03102
5572000000.0 0.7185 -0.7661
5575000000.0 -0.1615 -0.9815
5578000000.0 -0.8805 -0.5216
5581000000.0 -0.9708 0.3249
5584000000.0 -0.3376 0.9109
5588000000.0 0.4937 0.8261
5591000000.0 0.9595 0.1361
5594000000.0 0.7294 -0.6383
5597000000.0 -0.04776 -0.9333
5600000000.0 -0.7206 -0.5589
5603000000.0 -0.8735 0.1875
5606000000.0 -0.3918 0.8046
5609000000.0 0.3606 0.8049
5612000000.0 0.8583 0.2154
5616000000.0 0.714 -0.5103
5619000000.0 0.04512 -0.8624
5622000000.0 -0.6493 -0.6088
5625000000.0 -0.8476 0.1478
5628000000.0 -0.3951 0.7045
5631000000.0 0.3208 0.7792
5634000000.0 0.7884 0.2397
5638000000.0 0.6943 -0.4712
5641000000.0 0.09607 -0.8331
5644000000.0 -0.6158 -0.586
5647000000.0 -0.8476 0.1054
5650000000.0 -0.4294 0.7258
5653000000.0 0.3037 0.7905
5656000000.0 0.8038 0.2605
5659000000.0 0.7158 -0.473
5662000000.0 0.052 -0.8441
5666000000.0 -0.6465 -0.6062
5669000000.0 -0.8877 0.1255
5672000000.0 -0.4651 0.7914
5675000000.0 0.3301 0.8254
5678000000.0 0.8703 0.2891
5681000000.0 0.7763 -0.5074
5684000000.0 0.0882 -0.9405
5688000000.0 -0.6849 -0.6572
5691000000.0 -0.9425 0.1001
5694000000.0 -0.5165 0.8172
5697000000.0 0.3211 0.9423
5700000000.0 0.9392 0.342
5703000000.0 0.8805 -0.4923
5706000000.0 0.1427 -1.001
5709000000.0 -0.6665 -0.7761
5712000000.0 -1.029 0.03114
5716000000.0 -0.6035 0.8034
5719000000.0 0.2375 1.019
5722000000.0 0.9174 0.4502
5725000000.0 0.9379 -0.447
5728000000.0 0.2659 -1.016
5731000000.0 -0.5725 -0.8752
5734000000.0 -1.115 -0.08751
5738000000.0 -0.7661 0.7542
5741000000.0 0.1065 1.085
5744000000.0 0.8962 0.6261
5747000000.0 1.061 -0.3082
5750000000.0 0.4554 -1.023
5753000000.0 -0.5051 -1.021
5756000000.0 -1.09 -0.2632
5759000000.0 -0.8655 0.6369
5762000000.0 -0.054 1.116
5766000000.0 0.8141 0.7819
5769000000.0 1.117 -0.1333
5772000000.0 0.5818 -0.9561
5775000000.0 -0.3636 -1.045
5778000000.0 -1.003 -0.4493
5781000000.0 -0.9426 0.511
5784000000.0 -0.2045 1.04
5788000000.0 0.6548 0.8745
5791000000.0 1.072 0.06693
5794000000.0 0.7451 -0.7973
5797000000.0 -0.1521 -1.065
5800000000.0 -0.879 -0.513
5803000000.0 -0.979 0.3435
5806000000.0 -0.3405 0.9938
5809000000.0 0.5374 0.9166
5812000000.0 1.052 0.1598
5816000000.0 0.7948 -0.6994
5819000000.0 -0.03549 -1.018
5822000000.0 -0.7719 -0.6406
5825000000.0 -1.013 0.2437
5828000000.0 -0.4356 0.8693
5831000000.0 0.4087 0.907
5834000000.0 0.9628 0.265
5838000000.0 0.7753 -0.5797
5841000000.0 0.07133 -0.9584
5844000000.0 -0.7403 -0.6171
5847000000.0 -0.9542 0.1407
5850000000.0 -0.5011 0.7994
5853000000.0 0.3431 0.8635
5856000000.0 0.9097 0.2753
5859000000.0 0.7806 -0.4841
5862000000.0 0.0615 -0.9347
5866000000.0 -0.6727 -0.6189
5869000000.0 -0.8956 0.1312
5872000000.0 -0.4673 0.7697
5875000000.0 0.2842 0.8462
5878000000.0 0.8792 0.2677
5881000000.0 0.7761 -0.4737
5884000000.0 0.124 -0.8727
5888000000.0 -0.6095 -0.6324
5891000000.0 -0.8781 0.06983
5894000000.0 -0.466 0.7438
5897000000.0 0.2133 0.8411
5900000000.0 0.7985 0.2735
5903000000.0 0.7353 -0.4069
5906000000.0 0.143 -0.8334
5909000000.0 -0.5821 -0.6493
5912000000.0 -0.858 0.01769
5916000000.0 -0.5138 0.6788
5919000000.0 0.1907 0.8565
5922000000.0 0.7658 0.3672
5925000000.0 0.8181 -0.3632
5928000000.0 0.2214 -0.8453
5931000000.0 -0.4973 -0.7221
5934000000.0 -0.878 -0.05533
5938000000.0 -0.6126 0.6649
5941000000.0 0.1118 0.8878
5944000000.0 0.7671 0.5251
5947000000.0 0.8662 -0.2484
5950000000.0 0.3651 -0.8369
5953000000.0 -0.4135 -0.8238
5956000000.0 -0.8855 -0.2328
5959000000.0 -0.7547 0.5507
5962000000.0 -0.07822 0.9457
5966000000.0 0.6862 0.636
5969000000.0 0.9424 -0.1316
5972000000.0 0.526 -0.7806
5975000000.0 -0.2793 -0.9038
5978000000.0 -0.8947 -0.3612
5981000000.0 -0.8801 0.4378
5984000000.0 -0.2243 0.9334
5988000000.0 0.6116 0.7718
5991000000.0 0.9725 0.0249
5994000000.0 0.6602 -0.7622
5997000000.0 -0.1275 -0.9982
6000000000.0 -0.8935 -0.5051
6003000000.0 -0.9126 0.3182
6006000000.0 -0.3507 0.954
6009000000.0 0.509 0.8567
6012000000.0 0.9598 0.1564
6016000000.0 0.7542 -0.6586
6019000000.0 -0.03398 -1.001
6022000000.0 -0.7944 -0.609
6025000000.0 -0.9574 0.2257
6028000000.0 -0.4185 0.8701
6031000000.0 0.4099 0.8947
6034000000.0 0.9494 0.2628
6038000000.0 0.7886 -0.573
6041000000.0 0.05714 -0.959
6044000000.0 -0.7103 -0.6658
6047000000.0 -0.9441 0.1468
6050000000.0 -0.4937 0.8407
6053000000.0 0.3379 0.8733
6056000000.0 0.89 0.2866
6059000000.0 0.7537 -0.5273
6062000000.0 0.07356 -0.9377
6066000000.0 -0.6453 -0.6362
6069000000.0 -0.9111 0.09508
6072000000.0 -0.4937 0.766
6075000000.0 0.2626 0.8588
6078000000.0 0.8197 0.3083
6081000000.0 0.7633 -0.451
6084000000.0 0.1168 -0.8586
6088000000.0 -0.5842 -0.6344
6091000000.0 -0.8923 0.06022
6094000000.0 -0.4886 0.7146
6097000000.0 0.2338 0.8217
6100000000.0 0.7789 0.3506
6103000000.0 0.7607 -0.3769
6106000000.0 0.1833 -0.8571
6109000000.0 -0.5352 -0.6605
6112000000.0 -0.8806 0.002918
6116000000.0 -0.5485 0.6697
6119000000.0 0.1945 0.8543
6122000000.0 0.7837 0.3775
6125000000.0 0.7957 -0.3763
6128000000.0 0.2178 -0.8401
6131000000.0 -0.5095 -0.6907
6134000000.0 -0.9014 -0.01699
6138000000.0 -0.5665 0.6621
6141000000.0 0.1213 0.8631
6144000000.0 0.8115 0.4424
6147000000.0 0.8234 -0.3192
6150000000.0 0.3021 -0.8586
6153000000.0 -0.4712 -0.7685
6156000000.0 -0.9025 -0.1162
6159000000.0 -0.6765 0.6166
6162000000.0 0.07866 0.9095
6166000000.0 0.7776 0.5214
6169000000.0 0.8986 -0.265
6172000000.0 0.366 -0.8592
6175000000.0 -0.4168 -0.8142
6178000000.0 -0.9273 -0.1972
6181000000.0 -0.7366 0.5794
6184000000.0 -0.01482 0.9472
6188000000.0 0.7462 0.6082
6191000000.0 0.9371 -0.1723
6194000000.0 0.4139 -0.8267
6197000000.0 -0.3653 -0.8875
6200000000.0 -0.9016 -0.2758
6203000000.0 -0.7809 0.5347
6206000000.0 -0.09876 0.9509
6209000000.0 0.6727 0.6423
6212000000.0 0.9429 -0.05266
6216000000.0 0.5328 -0.7768
6219000000.0 -0.2789 -0.9047
6222000000.0 -0.8493 -0.4129
6225000000.0 -0.826 0.3935
6228000000.0 -0.1938 0.9017
6231000000.0 0.4964 0.7362
6234000000.0 0.8594 0.02085
6238000000.0 0.5803 -0.6839
6241000000.0 -0.1434 -0.8866
6244000000.0 -0.7381 -0.4289
6247000000.0 -0.8013 0.2976
6250000000.0 -0.3035 0.8274
6253000000.0 0.4226 0.7302
6256000000.0 0.8421 0.1776
6259000000.0 0.6395 -0.5292
6262000000.0 0.03399 -0.8352
6266000000.0 -0.6072 -0.5294
