! Created with skrf 1.8.0 (http://scikit-rf.org).
# Hz S RI R 50.0 
!freq ReS11 ImS11
4000000000.0 -0.2037 -1.501
4003000000.0 -1.251 -0.8214
4006000000.0 -1.466 0.5312
4009000000.0 -0.5388 1.409
4012000000.0 0.7566 1.289
4016000000.0 1.527 0.2179
4019000000.0 1.144 -1.078
4022000000.0 -0.08055 -1.531
4025000000.0 -1.318 -0.9351
4028000000.0 -1.561 0.478
4031000000.0 -0.5953 1.506
4034000000.0 0.7864 1.416
4038000000.0 1.609 0.2817
4041000000.0 1.202 -1.098
4044000000.0 -0.1136 -1.658
4047000000.0 -1.328 -0.9665
4050000000.0 -1.556 0.4364
4053000000.0 -0.5915 1.486
4056000000.0 0.7774 1.409
4059000000.0 1.582 0.3489
4062000000.0 1.247 -0.979
4066000000.0 0.0278 -1.622
4069000000.0 -1.201 -1.081
4072000000.0 -1.59 0.2634
4075000000.0 -0.823 1.393
4078000000.0 0.5127 1.527
4081000000.0 1.583 0.5269
4084000000.0 1.406 -0.858
4088000000.0 0.2449 -1.653
4091000000.0 -1.117 -1.223
4094000000.0 -1.661 0.03744
4097000000.0 -1.009 1.245
4100000000.0 0.3586 1.59
4103000000.0 1.434 0.745
4106000000.0 1.452 -0.6313
4109000000.0 0.4599 -1.506
4112000000.0 -0.8269 -1.307
4116000000.0 -1.525 -0.2219
4119000000.0 -1.156 0.9875
4122000000.0 0.005759 1.521
4125000000.0 1.111 0.952
4128000000.0 1.482 -0.2422
4131000000.0 0.7759 -1.215
4134000000.0 -0.4116 -1.403
4138000000.0 -1.362 -0.6147
4141000000.0 -1.33 0.6456
4144000000.0 -0.399 1.459
4147000000.0 0.8556 1.232
4150000000.0 1.489 0.1331
4153000000.0 1.092 -1.066
4156000000.0 -0.138 -1.509
4159000000.0 -1.245 -0.9251
4162000000.0 -1.474 0.349
4166000000.0 -0.6671 1.351
4169000000.0 0.5883 1.379
4172000000.0 1.436 0.4135
4175000000.0 1.282 -0.8551
4178000000.0 0.1561 -1.533
4181000000.0 -1.032 -1.084
4184000000.0 -1.483 0.08602
4188000000.0 -0.8895 1.19
4191000000.0 0.3666 1.496
4194000000.0 1.369 0.661
4197000000.0 1.404 -0.675
4200000000.0 0.3911 -1.502
4203000000.0 -0.9604 -1.265
4206000000.0 -1.599 -0.05614
4209000000.0 -1.084 1.28
4212000000.0 0.3431 1.619
4216000000.0 1.52 0.766
4219000000.0 1.558 -0.7037
4222000000.0 0.3293 -1.673
4225000000.0 -1.111 -1.265
4228000000.0 -1.67 0.08634
4231000000.0 -0.9629 1.398
4234000000.0 0.5161 1.58
4238000000.0 1.597 0.5221
4241000000.0 1.324 -0.911
4244000000.0 0.07787 -1.599
4247000000.0 -1.199 -1.056
4250000000.0 -1.545 0.3049
4253000000.0 -0.7291 1.445
4256000000.0 0.663 1.415
4259000000.0 1.508 0.3301
4262000000.0 1.124 -0.9516
4266000000.0 -0.05916 -1.531
4269000000.0 -1.218 -0.8678
4272000000.0 -1.451 0.422
4275000000.0 -0.5288 1.376
4278000000.0 0.7411 1.251
4281000000.0 1.408 0.1874
4284000000.0 1.068 -0.9979
4288000000.0 -0.1275 -1.38
4291000000.0 -1.185 -0.7285
4294000000.0 -1.315 0.4103
4297000000.0 -0.5091 1.244
4300000000.0 0.617 1.195
4303000000.0 1.265 0.2443
4306000000.0 1.01 -0.8274
4309000000.0 0.0312 -1.312
4312000000.0 -0.987 -0.8553
4316000000.0 -1.271 0.2116
4319000000.0 -0.6741 1.094
4322000000.0 0.4141 1.232
4325000000.0 1.246 0.5334
4328000000.0 1.16 -0.6313
4331000000.0 0.3061 -1.262
4334000000.0 -0.8009 -1.055
4338000000.0 -1.376 -0.03128
4341000000.0 -0.9279 1.039
4344000000.0 0.1975 1.386
4347000000.0 1.222 0.6937
4350000000.0 1.351 -0.4652
4353000000.0 0.5229 -1.363
4356000000.0 -0.7268 -1.256
4359000000.0 -1.447 -0.2529
4362000000.0 -1.138 0.9198
4366000000.0 -0.004344 1.435
4369000000.0 1.115 0.9255
4372000000.0 1.462 -0.2718
4375000000.0 0.6986 -1.287
4378000000.0 -0.5508 -1.43
4381000000.0 -1.467 -0.4914
4384000000.0 -1.296 0.802
4388000000.0 -0.1829 1.546
4391000000.0 1.093 1.131
4394000000.0 1.603 -0.1441
4397000000.0 0.8712 -1.326
4400000000.0 -0.4511 -1.503
4403000000.0 -1.503 -0.5571
4406000000.0 -1.377 0.8113
4409000000.0 -0.2256 1.603
4412000000.0 1.121 1.145
4416000000.0 1.552 -0.2041
4419000000.0 0.8048 -1.313
4422000000.0 -0.5234 -1.421
4425000000.0 -1.42 -0.4769
4428000000.0 -1.257 0.828
4431000000.0 -0.133 1.446
4434000000.0 1.066 0.9734
4438000000.0 1.381 -0.2346
4441000000.0 0.6602 -1.27
4444000000.0 -0.5701 -1.265
4447000000.0 -1.322 -0.3263
4450000000.0 -1.062 0.8406
4453000000.0 0.01535 1.342
4456000000.0 1.067 0.794
4459000000.0 1.238 -0.3427
4462000000.0 0.4741 -1.181
4466000000.0 -0.6039 -1.114
4469000000.0 -1.21 -0.167
4472000000.0 -0.877 0.834
4475000000.0 0.1496 1.184
4478000000.0 1.019 0.608
4481000000.0 1.101 -0.4124
4484000000.0 0.3524 -1.105
4488000000.0 -0.6568 -0.9583
4491000000.0 -1.144 -0.08423
4494000000.0 -0.7864 0.8112
4497000000.0 0.1635 1.118
4500000000.0 0.9899 0.5503
4503000000.0 1.004 -0.4118
4506000000.0 0.3691 -1.046
4509000000.0 -0.5588 -0.9284
4512000000.0 -1.101 -0.09936
4516000000.0 -0.8072 0.8162
4519000000.0 0.0843 1.131
4522000000.0 0.9545 0.6143
4525000000.0 1.095 -0.3473
4528000000.0 0.4319 -1.085
4531000000.0 -0.5424 -1.022
4534000000.0 -1.161 -0.208
4538000000.0 -0.8842 0.7718
4541000000.0 0.01255 1.178
4544000000.0 0.9182 0.7458
4547000000.0 1.19 -0.2595
4550000000.0 0.581 -1.064
4553000000.0 -0.4354 -1.108
4556000000.0 -1.178 -0.373
4559000000.0 -1.051 0.6405
4562000000.0 -0.1821 1.211
4566000000.0 0.8098 0.9262
4569000000.0 1.259 -0.02929
4572000000.0 0.7976 -1.003
4575000000.0 -0.2887 -1.253
4578000000.0 -1.161 -0.5977
4581000000.0 -1.239 0.5112
4584000000.0 -0.4155 1.279
4588000000.0 0.7229 1.155
4591000000.0 1.341 0.1774
4594000000.0 0.997 -0.9391
4597000000.0 -0.102 -1.376
4600000000.0 -1.154 -0.8163
4603000000.0 -1.335 0.3706
4606000000.0 -0.5791 1.296
4609000000.0 0.6236 1.22
4612000000.0 1.376 0.2761
4616000000.0 1.104 -0.8772
4619000000.0 0.04869 -1.42
4622000000.0 -1.072 -0.9333
4625000000.0 -1.372 0.2096
4628000000.0 -0.6503 1.236
4631000000.0 0.5373 1.291
4634000000.0 1.306 0.4387
4638000000.0 1.133 -0.7768
4641000000.0 0.09712 -1.35
4644000000.0 -1.004 -0.9405
4647000000.0 -1.328 0.1943
4650000000.0 -0.6833 1.143
4653000000.0 0.4512 1.235
4656000000.0 1.245 0.3853
4659000000.0 1.062 -0.7384
4662000000.0 0.1002 -1.258
4666000000.0 -0.9405 -0.8581
4669000000.0 -1.222 0.1816
4672000000.0 -0.5909 1.045
4675000000.0 0.4651 1.093
4678000000.0 1.124 0.3337
4681000000.0 0.9482 -0.703
4684000000.0 0.07499 -1.148
4688000000.0 -0.8355 -0.7806
4691000000.0 -1.113 0.1747
4694000000.0 -0.5403 0.9479
4697000000.0 0.4121 1.032
4700000000.0 1.058 0.2918
4703000000.0 0.8798 -0.6322
4706000000.0 0.03214 -1.086
4709000000.0 -0.8263 -0.7284
4712000000.0 -1.027 0.2074
4716000000.0 -0.507 0.9461
4719000000.0 0.4661 1.004
4722000000.0 1.016 0.2714
4725000000.0 0.8239 -0.6328
4728000000.0 0.06121 -1.052
4731000000.0 -0.772 -0.7128
4734000000.0 -1.013 0.1794
4738000000.0 -0.51 0.9045
4741000000.0 0.3777 0.976
4744000000.0 1.002 0.3537
4747000000.0 0.9153 -0.5634
4750000000.0 0.1783 -1.055
4753000000.0 -0.7016 -0.8146
4756000000.0 -1.08 0.05292
4759000000.0 -0.6912 0.8715
4762000000.0 0.2285 1.099
4766000000.0 1.016 0.5254
4769000000.0 1.041 -0.455
4772000000.0 0.3209 -1.118
4775000000.0 -0.6446 -0.9724
4778000000.0 -1.167 -0.1518
4781000000.0 -0.8766 0.8008
4784000000.0 0.07697 1.223
4788000000.0 0.9577 0.7031
4791000000.0 1.21 -0.3
4794000000.0 0.5531 -1.085
4797000000.0 -0.4487 -1.143
4800000000.0 -1.211 -0.3687
4803000000.0 -1.036 0.636
4806000000.0 -0.1774 1.264
4809000000.0 0.8271 0.953
4812000000.0 1.293 -0.03121
4816000000.0 0.7974 -1.012
4819000000.0 -0.274 -1.306
4822000000.0 -1.174 -0.6228
4825000000.0 -1.262 0.5282
4828000000.0 -0.4163 1.298
4831000000.0 0.7747 1.162
4834000000.0 1.373 0.1346
4838000000.0 0.9967 -0.9732
4841000000.0 -0.1585 -1.379
4844000000.0 -1.148 -0.7867
4847000000.0 -1.332 0.4154
4850000000.0 -0.5174 1.294
4853000000.0 0.6666 1.237
4856000000.0 1.336 0.2606
4859000000.0 1.049 -0.8802
4862000000.0 -0.02579 -1.372
4866000000.0 -1.063 -0.8317
4869000000.0 -1.304 0.2733
4872000000.0 -0.6052 1.212
4875000000.0 0.54 1.194
4878000000.0 1.251 0.3298
4881000000.0 1.044 -0.7583
4884000000.0 0.03715 -1.279
4888000000.0 -0.9288 -0.834
4891000000.0 -1.222 0.2275
4894000000.0 -0.5776 1.042
4897000000.0 0.4479 1.109
4900000000.0 1.076 0.3636
4903000000.0 0.9231 -0.6444
4906000000.0 0.09121 -1.103
4909000000.0 -0.7968 -0.7153
4912000000.0 -1.053 0.1351
4916000000.0 -0.5443 0.8945
4919000000.0 0.3181 0.9465
4922000000.0 0.926 0.3639
4925000000.0 0.8443 -0.4807
4928000000.0 0.1397 -0.9419
4931000000.0 -0.618 -0.7459
4934000000.0 -0.9225 0.01569
4938000000.0 -0.5629 0.7784
4941000000.0 0.2154 0.9376
4944000000.0 0.8461 0.4116
4947000000.0 0.8551 -0.3737
4950000000.0 0.2214 -0.9266
4953000000.0 -0.5557 -0.7598
4956000000.0 -0.9673 -0.05059
4959000000.0 -0.6508 0.7225
4962000000.0 0.159 0.9489
4966000000.0 0.8542 0.4601
4969000000.0 0.9268 -0.3484
4972000000.0 0.3114 -0.9402
4975000000.0 -0.5326 -0.8644
4978000000.0 -1.007 -0.1413
4981000000.0 -0.765 0.699
4984000000.0 0.05217 1.035
4988000000.0 0.8441 0.6074
4991000000.0 1.015 -0.2371
4994000000.0 0.4854 -0.9717
4997000000.0 -0.4351 -0.9896
5000000000.0 -1.098 -0.3099
5003000000.0 -0.9442 0.6464
5006000000.0 -0.08843 1.164
5009000000.0 0.8315 0.8105
5012000000.0 1.202 -0.1364
5016000000.0 0.6404 -1.021
5019000000.0 -0.3627 -1.131
5022000000.0 -1.158 -0.4699
5025000000.0 -1.128 0.5797
5028000000.0 -0.2426 1.256
5031000000.0 0.7987 0.9783
5034000000.0 1.275 -0.05355
5038000000.0 0.8194 -0.9906
5041000000.0 -0.2167 -1.27
5044000000.0 -1.106 -0.6226
5047000000.0 -1.227 0.4346
5050000000.0 -0.4159 1.226
5053000000.0 0.6406 1.149
5056000000.0 1.271 0.2484
5059000000.0 1.01 -0.8417
5062000000.0 -0.009423 -1.304
5066000000.0 -1.02 -0.8041
5069000000.0 -1.283 0.2618
5072000000.0 -0.6503 1.16
5075000000.0 0.4766 1.184
5078000000.0 1.224 0.4162
5081000000.0 1.048 -0.6904
5084000000.0 0.1336 -1.271
5088000000.0 -0.8779 -0.8576
5091000000.0 -1.192 0.08074
5094000000.0 -0.7305 0.9592
5097000000.0 0.2598 1.145
5100000000.0 1.023 0.5417
5103000000.0 1.048 -0.4775
5106000000.0 0.3435 -1.062
5109000000.0 -0.6417 -0.9242
5112000000.0 -1.053 -0.1132
5116000000.0 -0.7376 0.7364
5119000000.0 0.08003 1.018
5122000000.0 0.8308 0.6251
5125000000.0 0.9691 -0.2517
5128000000.0 0.4573 -0.9233
5131000000.0 -0.4099 -0.9458
5134000000.0 -0.9479 -0.2449
5138000000.0 -0.8413 0.5702
5141000000.0 -0.1121 0.9814
5144000000.0 0.7182 0.6473
5147000000.0 0.9335 -0.1509
5150000000.0 0.5122 -0.7768
5153000000.0 -0.3003 -0.8401
5156000000.0 -0.8823 -0.2957
5159000000.0 -0.7902 0.4508
5162000000.0 -0.1761 0.8985
5166000000.0 0.6086 0.7
5169000000.0 0.914 -0.0554
5172000000.0 0.528 -0.721
5175000000.0 -0.2401 -0.8521
5178000000.0 -0.8045 -0.3637
5181000000.0 -0.831 0.4309
5184000000.0 -0.2044 0.896
5188000000.0 0.5889 0.728
5191000000.0 0.9529 -0.02896
5194000000.0 0.5434 -0.7525
5197000000.0 -0.2605 -0.902
5200000000.0 -0.8607 -0.4086
5203000000.0 -0.8613 0.4085
5206000000.0 -0.2251 0.9356
5209000000.0 0.5798 0.7221
5212000000.0 0.9577 0.006504
5216000000.0 0.6386 -0.7649
5219000000.0 -0.2032 -0.9453
5222000000.0 -0.8806 -0.4397
5225000000.0 -0.8932 0.4125
5228000000.0 -0.2727 0.9681
5231000000.0 0.5884 0.8156
5234000000.0 1.03 0.06746
5238000000.0 0.6958 -0.7577
5241000000.0 -0.1612 -1.051
5244000000.0 -0.8927 -0.5848
5247000000.0 -1.003 0.3449
5250000000.0 -0.3955 0.9987
5253000000.0 0.4941 0.9299
5256000000.0 1.048 0.2106
5259000000.0 0.8381 -0.6684
5262000000.0 0.01033 -1.076
5266000000.0 -0.8332 -0.7181
5269000000.0 -1.061 0.1654
5272000000.0 -0.5549 0.9617
5275000000.0 0.3425 1.057
5278000000.0 1.044 0.4186
5281000000.0 0.987 -0.5181
5284000000.0 0.2191 -1.086
5288000000.0 -0.6649 -0.8986
5291000000.0 -1.118 -0.06645
5294000000.0 -0.7489 0.8116
5297000000.0 0.119 1.119
5300000000.0 0.9632 0.6309
5303000000.0 1.092 -0.2858
5306000000.0 0.4773 -1.051
5309000000.0 -0.5022 -1.023
5312000000.0 -1.101 -0.3172
5316000000.0 -0.927 0.6443
5319000000.0 -0.1197 1.158
5322000000.0 0.8342 0.8028
5325000000.0 1.171 -0.09592
5328000000.0 0.6855 -0.9515
5331000000.0 -0.3095 -1.118
5334000000.0 -1.034 -0.4518
5338000000.0 -1.015 0.4832
5341000000.0 -0.2875 1.111
5344000000.0 0.6577 0.8985
5347000000.0 1.127 0.04185
5350000000.0 0.75 -0.7882
5353000000.0 -0.1721 -1.107
5356000000.0 -0.9272 -0.571
5359000000.0 -1.034 0.3409
5362000000.0 -0.3552 1.067
5366000000.0 0.5307 0.9506
5369000000.0 1.071 0.1169
5372000000.0 0.7587 -0.7387
5375000000.0 -0.08559 -1.048
5378000000.0 -0.8653 -0.5674
5381000000.0 -0.9594 0.295
5384000000.0 -0.3535 0.9233
5388000000.0 0.5323 0.842
5391000000.0 0.989 0.1146
5394000000.0 0.6786 -0.6765
5397000000.0 -0.1093 -0.9185
5400000000.0 -0.7902 -0.4701
5403000000.0 -0.8718 0.3
5406000000.0 -0.2774 0.8444
5409000000.0 0.4723 0.7272
5412000000.0 0.8813 0.08274
5416000000.0 0.5973 -0.6318
5419000000.0 -0.1345 -0.8679
5422000000.0 -0.7397 -0.4652
5425000000.0 -0.7894 0.3058
5428000000.0 -0.2913 0.8589
5431000000.0 0.4868 0.74
5434000000.0 0.891 0.07125
5438000000.0 0.6119 -0.6471
5441000000.0 -0.1156 -0.9175
5444000000.0 -0.7976 -0.447
5447000000.0 -0.8072 0.2955
5450000000.0 -0.2849 0.8143
5453000000.0 0.4928 0.7572
5456000000.0 0.8852 0.09748
5459000000.0 0.6536 -0.6053
5462000000.0 -0.0444 -0.8843
5466000000.0 -0.7685 -0.5073
5469000000.0 -0.8709 0.2248
5472000000.0 -0.389 0.8325
5475000000.0 0.3846 0.8486
5478000000.0 0.9001 0.2496
5481000000.0 0.8036 -0.5626
5484000000.0 0.08351 -0.9519
5488000000.0 -0.6534 -0.6734
5491000000.0 -1.013 0.1058
5494000000.0 -0.5443 0.7804
5497000000.0 0.2704 0.98
5500000000.0 0.9518 0.4032
5503000000.0 0.9002 -0.4912
5506000000.0 0.2489 -0.9925
5509000000.0 -0.6227 -0.8131
5512000000.0 -1.01 -0.05931
5516000000.0 -0.7388 0.7427
5519000000.0 0.1084 1.061
5522000000.0 0.8732 0.5609
5525000000.0 0.9818 -0.2719
5528000000.0 0.4757 -0.9602
5531000000.0 -0.4633 -0.949
5534000000.0 -1.014 -0.2926
5538000000.0 -0.8477 0.599
5541000000.0 -0.1288 1.078
5544000000.0 0.7436 0.7787
5547000000.0 1.06 -0.08657
5550000000.0 0.6019 -0.8959
5553000000.0 -0.2763 -0.9922
5556000000.0 -0.9758 -0.4053
5559000000.0 -0.9558 0.4662
5562000000.0 -0.2479 0.9917
5566000000.0 0.5959 0.8245
5569000000.0 1.064 0.05803
5572000000.0 0.6944 -0.766
5575000000.0 -0.119 -1.034
5578000000.0 -0.8776 -0.5451
5581000000.0 -0.9419 0.3089
5584000000.0 -0.3343 0.905
5588000000.0 0.4883 0.854
5591000000.0 0.9559 0.177
5594000000.0 0.7271 -0.5847
5597000000.0 0.003545 -0.9463
5600000000.0 -0.7245 -0.5567
5603000000.0 -0.9067 0.1837
5606000000.0 -0.4151 0.7937
5609000000.0 0.3306 0.849
5612000000.0 0.861 0.2413
5616000000.0 0.7347 -0.5012
5619000000.0 0.04274 -0.8474
5622000000.0 -0.6388 -0.5682
5625000000.0 -0.8463 0.1306
5628000000.0 -0.4201 0.7366
5631000000.0 0.2876 0.7912
5634000000.0 0.7874 0.2596
5638000000.0 0.705 -0.4685
5641000000.0 0.08831 -0.8526
5644000000.0 -0.5935 -0.5993
5647000000.0 -0.8346 0.08132
5650000000.0 -0.459 0.7321
5653000000.0 0.276 0.7896
5656000000.0 0.8049 0.2808
5659000000.0 0.7283 -0.4421
5662000000.0 0.1176 -0.8575
5666000000.0 -0.6103 -0.6143
5669000000.0 -0.8979 0.09126
5672000000.0 -0.436 0.7313
5675000000.0 0.2836 0.8595
5678000000.0 0.8801 0.2915
5681000000.0 0.7487 -0.4848
5684000000.0 0.1278 -0.8838
5688000000.0 -0.66 -0.6631
5691000000.0 -0.9337 0.08285
5694000000.0 -0.5316 0.8136
5697000000.0 0.2971 0.9549
5700000000.0 0.9178 0.374
5703000000.0 0.8548 -0.4903
5706000000.0 0.1911 -0.9947
5709000000.0 -0.6263 -0.7822
5712000000.0 -1.021 -0.02891
5716000000.0 -0.6582 0.8515
5719000000.0 0.1771 1.027
5722000000.0 0.9698 0.4602
5725000000.0 0.9203 -0.4009
5728000000.0 0.3103 -1.041
5731000000.0 -0.6337 -0.9112
5734000000.0 -1.066 -0.1201
5738000000.0 -0.7587 0.7672
5741000000.0 0.09974 1.079
5744000000.0 0.8859 0.6345
5747000000.0 1.064 -0.2936
5750000000.0 0.4647 -1.009
5753000000.0 -0.4799 -0.9891
5756000000.0 -1.109 -0.2662
5759000000.0 -0.9086 0.6695
5762000000.0 -0.1256 1.101
5766000000.0 0.8023 0.7697
5769000000.0 1.114 -0.111
5772000000.0 0.621 -0.9311
5775000000.0 -0.2976 -1.076
5778000000.0 -1.049 -0.443
5781000000.0 -0.9667 0.4697
5784000000.0 -0.2534 1.051
5788000000.0 0.649 0.8661
5791000000.0 1.088 0.05427
5794000000.0 0.7321 -0.8025
5797000000.0 -0.1237 -1.06
5800000000.0 -0.907 -0.5722
5803000000.0 -1.016 0.3269
5806000000.0 -0.4156 1.046
5809000000.0 0.4843 0.8917
5812000000.0 1.054 0.1796
5816000000.0 0.8014 -0.6795
5819000000.0 0.03325 -1.035
5822000000.0 -0.7945 -0.617
5825000000.0 -1.015 0.1912
5828000000.0 -0.4752 0.8804
5831000000.0 0.4144 0.9037
5834000000.0 0.9651 0.2823
5838000000.0 0.7856 -0.5709
5841000000.0 0.09434 -0.9904
5844000000.0 -0.7224 -0.6567
5847000000.0 -0.9462 0.1507
5850000000.0 -0.5016 0.8108
5853000000.0 0.3096 0.8798
5856000000.0 0.8796 0.321
5859000000.0 0.7613 -0.5023
5862000000.0 0.1262 -0.8929
5866000000.0 -0.6559 -0.6641
5869000000.0 -0.9005 0.06465
5872000000.0 -0.4926 0.7013
5875000000.0 0.2917 0.8522
5878000000.0 0.8365 0.2849
5881000000.0 0.7364 -0.461
5884000000.0 0.1344 -0.8673
5888000000.0 -0.602 -0.6391
5891000000.0 -0.8699 0.07619
5894000000.0 -0.5081 0.7031
5897000000.0 0.2297 0.8255
5900000000.0 0.8096 0.3326
5903000000.0 0.7598 -0.3944
5906000000.0 0.1701 -0.8525
5909000000.0 -0.5284 -0.6747
5912000000.0 -0.8653 0.007968
5916000000.0 -0.553 0.6748
5919000000.0 0.1542 0.8854
5922000000.0 0.7822 0.401
5925000000.0 0.8034 -0.342
5928000000.0 0.2463 -0.838
5931000000.0 -0.4881 -0.7308
5934000000.0 -0.8635 -0.1107
5938000000.0 -0.6584 0.6126
5941000000.0 0.07441 0.8729
5944000000.0 0.7402 0.5079
5947000000.0 0.8771 -0.2324
5950000000.0 0.3866 -0.7923
5953000000.0 -0.37 -0.8259
5956000000.0 -0.9199 -0.2315
5959000000.0 -0.7485 0.5524
5962000000.0 -0.07563 0.9211
5966000000.0 0.6647 0.6501
5969000000.0 0.938 -0.09013
5972000000.0 0.5339 -0.7981
5975000000.0 -0.2443 -0.9203
5978000000.0 -0.8715 -0.3838
5981000000.0 -0.8783 0.4254
5984000000.0 -0.2379 0.9394
5988000000.0 0.5895 0.7884
5991000000.0 0.9803 0.05528
5994000000.0 0.6663 -0.7447
5997000000.0 -0.1005 -0.9736
6000000000.0 -0.8594 -0.5539
6003000000.0 -0.9555 0.3089
6006000000.0 -0.3728 0.9197
6009000000.0 0.498 0.8952
6012000000.0 0.9976 0.1715
6016000000.0 0.7405 -0.6076
6019000000.0 -0.005481 -0.9968
6022000000.0 -0.7923 -0.6222
6025000000.0 -0.9783 0.1982
6028000000.0 -0.4593 0.8838
6031000000.0 0.3756 0.9216
6034000000.0 0.9577 0.2579
6038000000.0 0.8177 -0.5653
6041000000.0 0.0783 -0.9768
6044000000.0 -0.6732 -0.6846
6047000000.0 -0.963 0.1257
6050000000.0 -0.492 0.8162
6053000000.0 0.3183 0.8967
6056000000.0 0.8865 0.3122
6059000000.0 0.8046 -0.4999
6062000000.0 0.1215 -0.9259
6066000000.0 -0.6425 -0.6759
6069000000.0 -0.9137 0.06336
6072000000.0 -0.5132 0.7374
6075000000.0 0.2662 0.8554
6078000000.0 0.8263 0.3432
6081000000.0 0.7613 -0.444
6084000000.0 0.1515 -0.8763
6088000000.0 -0.5687 -0.6573
6091000000.0 -0.8668 0.01274
6094000000.0 -0.5138 0.7105
6097000000.0 0.2054 0.8399
6100000000.0 0.8039 0.3788
6103000000.0 0.7564 -0.3822
6106000000.0 0.2121 -0.8375
6109000000.0 -0.5397 -0.6868
6112000000.0 -0.8815 -0.01889
6116000000.0 -0.5415 0.6452
6119000000.0 0.1634 0.8443
6122000000.0 0.7729 0.379
6125000000.0 0.8093 -0.3259
6128000000.0 0.2355 -0.8981
6131000000.0 -0.4932 -0.7218
6134000000.0 -0.8893 -0.05547
6138000000.0 -0.5826 0.6721
6141000000.0 0.1454 0.8685
6144000000.0 0.7381 0.4573
6147000000.0 0.8315 -0.2824
6150000000.0 0.2968 -0.8317
6153000000.0 -0.4671 -0.7548
6156000000.0 -0.9071 -0.1514
6159000000.0 -0.6969 0.5919
6162000000.0 0.02588 0.8968
6166000000.0 0.7407 0.5465
6169000000.0 0.8964 -0.1806
6172000000.0 0.4018 -0.8576
6175000000.0 -0.4012 -0.8393
6178000000.0 -0.9498 -0.2226
6181000000.0 -0.744 0.5694
6184000000.0 0.002498 0.9319
6188000000.0 0.7363 0.618
6191000000.0 0.9413 -0.1495
6194000000.0 0.4778 -0.8105
6197000000.0 -0.335 -0.8944
6200000000.0 -0.87 -0.2804
6203000000.0 -0.803 0.5185
6206000000.0 -0.1328 0.8762
6209000000.0 0.6607 0.6784
6212000000.0 0.9386 -0.07062
6216000000.0 0.5402 -0.7541
6219000000.0 -0.2357 -0.9004
6222000000.0 -0.8507 -0.3903
6225000000.0 -0.8415 0.3945
6228000000.0 -0.2248 0.8827
6231000000.0 0.5451 0.722
6234000000.0 0.8856 0.06291
6238000000.0 0.5993 -0.6534
6241000000.0 -0.07763 -0.8903
6244000000.0 -0.7444 -0.4507
6247000000.0 -0.8399 0.2737
6250000000.0 -0.3179 0.7805
6253000000.0 0.4267 0.7493
6256000000.0 0.8246 0.1944
6259000000.0 0.6856 -0.4825
6262000000.0 0.01363 -0.8273
6266000000.0 -0.6042 -0.545
6269000000.0 -0.8237 0.09575
