! Created with skrf 1.8.0 (http://scikit-rf.org).
# Hz S RI R 50.0 
!freq ReS11 ImS11
4000000000.0 -0.1622 -1.479
4003000000.0 -1.22 -0.7999
4006000000.0 -1.407 0.4981
4009000000.0 -0.5188 1.395
4012000000.0 0.7908 1.315
4016000000.0 1.525 0.2064
4019000000.0 1.138 -1.064
4022000000.0 -0.1374 -1.533
4025000000.0 -1.313 -0.8869
4028000000.0 -1.557 0.4781
4031000000.0 -0.5927 1.468
4034000000.0 0.8012 1.416
4038000000.0 1.602 0.2119
4041000000.0 1.178 -1.126
4044000000.0 -0.1112 -1.638
4047000000.0 -1.359 -0.9034
4050000000.0 -1.525 0.4959
4053000000.0 -0.6836 1.474
4056000000.0 0.7712 1.409
4059000000.0 1.56 0.3065
4062000000.0 1.28 -1.005
4066000000.0 0.01979 -1.641
4069000000.0 -1.227 -1.073
4072000000.0 -1.673 0.2611
4075000000.0 -0.8562 1.378
4078000000.0 0.5632 1.561
4081000000.0 1.572 0.5475
4084000000.0 1.423 -0.8628
4088000000.0 0.1969 -1.643
4091000000.0 -1.095 -1.217
4094000000.0 -1.642 0.1247
4097000000.0 -0.9784 1.31
4100000000.0 0.3614 1.542
4103000000.0 1.42 0.7043
4106000000.0 1.483 -0.6446
4109000000.0 0.4598 -1.477
4112000000.0 -0.8232 -1.29
4116000000.0 -1.503 -0.2092
4119000000.0 -1.108 0.9994
4122000000.0 0.008753 1.516
4125000000.0 1.156 0.9551
4128000000.0 1.461 -0.2247
4131000000.0 0.7985 -1.261
4134000000.0 -0.4412 -1.425
4138000000.0 -1.393 -0.5969
4141000000.0 -1.362 0.6662
4144000000.0 -0.3926 1.446
4147000000.0 0.8933 1.246
4150000000.0 1.517 0.1518
4153000000.0 1.082 -1.1
4156000000.0 -0.1245 -1.534
4159000000.0 -1.267 -0.9043
4162000000.0 -1.479 0.3809
4166000000.0 -0.6527 1.403
4169000000.0 0.6612 1.36
4172000000.0 1.421 0.4077
4175000000.0 1.226 -0.8805
4178000000.0 0.172 -1.476
4181000000.0 -1.049 -1.094
4184000000.0 -1.534 0.1122
4188000000.0 -0.9022 1.278
4191000000.0 0.3877 1.487
4194000000.0 1.426 0.6781
4197000000.0 1.397 -0.6607
4200000000.0 0.3947 -1.53
4203000000.0 -0.9532 -1.305
4206000000.0 -1.627 -0.04253
4209000000.0 -1.05 1.31
4212000000.0 0.3482 1.636
4216000000.0 1.523 0.7001
4219000000.0 1.524 -0.7693
4222000000.0 0.3252 -1.638
4225000000.0 -1.12 -1.267
4228000000.0 -1.694 0.09445
4231000000.0 -0.9435 1.398
4234000000.0 0.5282 1.553
4238000000.0 1.556 0.5396
4241000000.0 1.341 -0.9647
4244000000.0 0.09641 -1.628
4247000000.0 -1.189 -1.065
4250000000.0 -1.55 0.3756
4253000000.0 -0.7017 1.414
4256000000.0 0.6741 1.37
4259000000.0 1.492 0.2935
4262000000.0 1.127 -0.9817
4266000000.0 -0.09476 -1.524
4269000000.0 -1.301 -0.8445
4272000000.0 -1.402 0.4215
4275000000.0 -0.4927 1.368
4278000000.0 0.7577 1.259
4281000000.0 1.42 0.1314
4284000000.0 1.022 -1.016
4288000000.0 -0.1343 -1.405
4291000000.0 -1.154 -0.7476
4294000000.0 -1.283 0.4338
4297000000.0 -0.4724 1.277
4300000000.0 0.6707 1.136
4303000000.0 1.283 0.2105
4306000000.0 1.015 -0.8271
4309000000.0 0.0006091 -1.284
4312000000.0 -0.9598 -0.8332
4316000000.0 -1.297 0.2189
4319000000.0 -0.6615 1.132
4322000000.0 0.4542 1.217
4325000000.0 1.267 0.4892
4328000000.0 1.15 -0.6771
4331000000.0 0.2654 -1.329
4334000000.0 -0.8401 -1.037
4338000000.0 -1.365 -0.06509
4341000000.0 -0.9315 1.056
4344000000.0 0.2175 1.411
4347000000.0 1.242 0.7199
4350000000.0 1.359 -0.4696
4353000000.0 0.4895 -1.354
4356000000.0 -0.7318 -1.243
4359000000.0 -1.434 -0.2411
4362000000.0 -1.1 0.9529
4366000000.0 0.03626 1.478
4369000000.0 1.144 0.9069
4372000000.0 1.436 -0.2838
4375000000.0 0.7101 -1.304
4378000000.0 -0.5582 -1.418
4381000000.0 -1.47 -0.4323
4384000000.0 -1.293 0.8523
4388000000.0 -0.1672 1.561
4391000000.0 1.064 1.106
4394000000.0 1.575 -0.1661
4397000000.0 0.8371 -1.345
4400000000.0 -0.5478 -1.529
4403000000.0 -1.484 -0.5425
4406000000.0 -1.363 0.8586
4409000000.0 -0.1664 1.574
4412000000.0 1.124 1.08
4416000000.0 1.518 -0.2322
4419000000.0 0.81 -1.316
4422000000.0 -0.5574 -1.428
4425000000.0 -1.435 -0.4247
4428000000.0 -1.229 0.8492
4431000000.0 -0.05755 1.443
4434000000.0 1.087 0.9526
4438000000.0 1.384 -0.2893
4441000000.0 0.619 -1.22
4444000000.0 -0.5983 -1.281
4447000000.0 -1.341 -0.3156
4450000000.0 -1.047 0.8769
4453000000.0 0.05498 1.287
4456000000.0 1.073 0.7698
4459000000.0 1.25 -0.3341
4462000000.0 0.4535 -1.198
4466000000.0 -0.6384 -1.089
4469000000.0 -1.217 -0.1644
4472000000.0 -0.8303 0.8634
4475000000.0 0.1435 1.172
4478000000.0 1.034 0.6009
4481000000.0 1.068 -0.4389
4484000000.0 0.3338 -1.129
4488000000.0 -0.68 -0.9186
4491000000.0 -1.129 -0.04797
4494000000.0 -0.7568 0.8067
4497000000.0 0.1951 1.127
4500000000.0 0.975 0.5653
4503000000.0 0.9998 -0.4049
4506000000.0 0.3025 -1.043
4509000000.0 -0.6422 -0.9442
4512000000.0 -1.112 -0.08353
4516000000.0 -0.7868 0.7933
4519000000.0 0.1412 1.129
4522000000.0 0.9744 0.6073
4525000000.0 1.075 -0.385
4528000000.0 0.4091 -1.06
4531000000.0 -0.5733 -1.008
4534000000.0 -1.133 -0.1855
4538000000.0 -0.8717 0.773
4541000000.0 0.05086 1.194
4544000000.0 0.9295 0.7571
4547000000.0 1.169 -0.2741
4550000000.0 0.56 -1.049
4553000000.0 -0.4595 -1.108
4556000000.0 -1.177 -0.3648
4559000000.0 -1.019 0.6764
4562000000.0 -0.1756 1.234
4566000000.0 0.848 0.9237
4569000000.0 1.255 -0.07607
4572000000.0 0.7851 -1.01
4575000000.0 -0.2827 -1.249
4578000000.0 -1.163 -0.6116
4581000000.0 -1.217 0.5022
4584000000.0 -0.3901 1.266
4588000000.0 0.7387 1.114
4591000000.0 1.352 0.1123
4594000000.0 0.9828 -0.9735
4597000000.0 -0.103 -1.379
4600000000.0 -1.134 -0.7783
4603000000.0 -1.352 0.4061
4606000000.0 -0.5446 1.274
4609000000.0 0.6477 1.242
4612000000.0 1.381 0.2856
4616000000.0 1.073 -0.8696
4619000000.0 0.01911 -1.427
4622000000.0 -1.086 -0.8933
4625000000.0 -1.386 0.28
4628000000.0 -0.638 1.234
4631000000.0 0.542 1.305
4634000000.0 1.325 0.3863
4638000000.0 1.102 -0.7989
4641000000.0 0.08983 -1.334
4644000000.0 -0.9952 -0.8948
4647000000.0 -1.326 0.2071
4650000000.0 -0.6339 1.17
4653000000.0 0.5013 1.225
4656000000.0 1.255 0.3431
4659000000.0 1.021 -0.7434
4662000000.0 0.04202 -1.251
4666000000.0 -0.9286 -0.7865
4669000000.0 -1.187 0.2298
4672000000.0 -0.5821 1.036
4675000000.0 0.4615 1.076
4678000000.0 1.126 0.3026
4681000000.0 0.9435 -0.6813
4684000000.0 0.06082 -1.134
4688000000.0 -0.8781 -0.726
4691000000.0 -1.116 0.1985
4694000000.0 -0.5318 1.005
4697000000.0 0.4394 1.005
4700000000.0 1.054 0.2753
4703000000.0 0.8956 -0.6759
4706000000.0 -0.003534 -1.117
4709000000.0 -0.8406 -0.6701
4712000000.0 -1.079 0.2323
4716000000.0 -0.4812 0.9517
4719000000.0 0.4475 0.9832
4722000000.0 1.042 0.2493
4725000000.0 0.8493 -0.6534
4728000000.0 0.02754 -1.029
4731000000.0 -0.8128 -0.6982
4734000000.0 -1.027 0.1885
4738000000.0 -0.5 0.9232
4741000000.0 0.3796 0.9822
4744000000.0 0.9797 0.3205
4747000000.0 0.9041 -0.548
4750000000.0 0.1467 -1.073
4753000000.0 -0.755 -0.7925
4756000000.0 -1.085 0.0395
4759000000.0 -0.6892 0.8669
4762000000.0 0.2624 1.106
4766000000.0 1.008 0.4971
4769000000.0 1.052 -0.4423
4772000000.0 0.3295 -1.121
4775000000.0 -0.6388 -0.9496
4778000000.0 -1.194 -0.1548
4781000000.0 -0.8518 0.8076
4784000000.0 0.08391 1.176
4788000000.0 0.9472 0.7198
4791000000.0 1.193 -0.2675
4794000000.0 0.5694 -1.079
4797000000.0 -0.4939 -1.165
4800000000.0 -1.181 -0.3537
4803000000.0 -1.054 0.6772
4806000000.0 -0.1785 1.245
4809000000.0 0.8644 0.9604
4812000000.0 1.285 -0.04311
4816000000.0 0.7981 -1.044
4819000000.0 -0.2934 -1.275
4822000000.0 -1.196 -0.6143
4825000000.0 -1.247 0.5241
4828000000.0 -0.3876 1.333
4831000000.0 0.7968 1.155
4834000000.0 1.392 0.09303
4838000000.0 0.9783 -1.013
4841000000.0 -0.1318 -1.357
4844000000.0 -1.173 -0.7636
4847000000.0 -1.309 0.4565
4850000000.0 -0.4922 1.323
4853000000.0 0.6768 1.195
4856000000.0 1.354 0.234
4859000000.0 1.031 -0.9018
4862000000.0 -0.02543 -1.375
4866000000.0 -1.047 -0.8316
4869000000.0 -1.313 0.2997
4872000000.0 -0.5961 1.207
4875000000.0 0.5473 1.198
4878000000.0 1.258 0.3367
4881000000.0 1.004 -0.7855
4884000000.0 0.05175 -1.291
4888000000.0 -0.9377 -0.8142
4891000000.0 -1.184 0.2272
4894000000.0 -0.5786 1.034
4897000000.0 0.4669 1.091
4900000000.0 1.118 0.3085
4903000000.0 0.9187 -0.6408
4906000000.0 0.06497 -1.098
4909000000.0 -0.7855 -0.7078
4912000000.0 -1.059 0.1706
4916000000.0 -0.4933 0.8814
4919000000.0 0.3533 0.9339
4922000000.0 0.9475 0.3153
4925000000.0 0.8252 -0.4923
4928000000.0 0.1517 -0.9717
4931000000.0 -0.6388 -0.7337
4934000000.0 -0.9557 0.03805
4938000000.0 -0.5472 0.7873
4941000000.0 0.2526 0.9512
4944000000.0 0.8456 0.4152
4947000000.0 0.8669 -0.4131
4950000000.0 0.2151 -0.9243
4953000000.0 -0.579 -0.7679
4956000000.0 -0.9895 -0.01144
4959000000.0 -0.6426 0.7488
4962000000.0 0.2074 0.9667
4966000000.0 0.8426 0.4758
4969000000.0 0.9075 -0.3613
4972000000.0 0.2906 -0.9799
4975000000.0 -0.5542 -0.8464
4978000000.0 -1.015 -0.1112
4981000000.0 -0.7483 0.7252
4984000000.0 0.08575 1.065
4988000000.0 0.8655 0.6241
4991000000.0 1.016 -0.2646
4994000000.0 0.4479 -0.9923
4997000000.0 -0.4723 -1.01
5000000000.0 -1.091 -0.2881
5003000000.0 -0.9434 0.6602
5006000000.0 -0.08945 1.163
5009000000.0 0.8429 0.8145
5012000000.0 1.178 -0.1336
5016000000.0 0.6332 -1.025
5019000000.0 -0.3869 -1.184
5022000000.0 -1.167 -0.467
5025000000.0 -1.113 0.6279
5028000000.0 -0.2157 1.236
5031000000.0 0.8094 0.9878
5034000000.0 1.264 0.004285
5038000000.0 0.8086 -1.005
5041000000.0 -0.2889 -1.263
5044000000.0 -1.129 -0.6203
5047000000.0 -1.18 0.4729
5050000000.0 -0.3931 1.247
5053000000.0 0.6329 1.111
5056000000.0 1.29 0.1981
5059000000.0 0.9586 -0.8907
5062000000.0 -0.04001 -1.305
5066000000.0 -1.045 -0.8097
5069000000.0 -1.279 0.2755
5072000000.0 -0.5744 1.137
5075000000.0 0.5132 1.185
5078000000.0 1.235 0.3786
5081000000.0 1.036 -0.7093
5084000000.0 0.1141 -1.26
5088000000.0 -0.842 -0.8831
5091000000.0 -1.178 0.09634
5094000000.0 -0.6898 0.9817
5097000000.0 0.2817 1.143
5100000000.0 1.043 0.4878
5103000000.0 1.041 -0.4573
5106000000.0 0.2924 -1.076
5109000000.0 -0.6171 -0.9196
5112000000.0 -1.087 -0.1172
5116000000.0 -0.7676 0.7537
5119000000.0 0.1029 1.066
5122000000.0 0.8855 0.59
5125000000.0 1.031 -0.2541
5128000000.0 0.4272 -0.9622
5131000000.0 -0.4417 -0.9225
5134000000.0 -0.9927 -0.2439
5138000000.0 -0.8075 0.6067
5141000000.0 -0.03657 0.9847
5144000000.0 0.7284 0.6518
5147000000.0 0.9263 -0.1259
5150000000.0 0.4792 -0.8065
5153000000.0 -0.3051 -0.8569
5156000000.0 -0.8935 -0.273
5159000000.0 -0.7829 0.4949
5162000000.0 -0.1368 0.9056
5166000000.0 0.6542 0.6532
5169000000.0 0.9044 -0.07957
5172000000.0 0.5352 -0.7284
5175000000.0 -0.2354 -0.876
5178000000.0 -0.8422 -0.3604
5181000000.0 -0.7893 0.4339
5184000000.0 -0.1908 0.8813
5188000000.0 0.5942 0.6867
5191000000.0 0.9262 -0.05446
5194000000.0 0.5541 -0.728
5197000000.0 -0.2417 -0.9337
5200000000.0 -0.8727 -0.3709
5203000000.0 -0.8775 0.4293
5206000000.0 -0.1911 0.944
5209000000.0 0.6154 0.7335
5212000000.0 0.9698 -0.01502
5216000000.0 0.6161 -0.769
5219000000.0 -0.2398 -0.9562
5222000000.0 -0.8992 -0.4292
5225000000.0 -0.9076 0.4004
5228000000.0 -0.2641 0.968
5231000000.0 0.608 0.7898
5234000000.0 1.055 0.05002
5238000000.0 0.6848 -0.7452
5241000000.0 -0.1664 -1.019
5244000000.0 -0.9132 -0.5644
5247000000.0 -0.9754 0.327
5250000000.0 -0.3798 0.9866
5253000000.0 0.5383 0.9603
5256000000.0 1.061 0.1829
5259000000.0 0.8447 -0.7057
5262000000.0 0.01241 -1.083
5266000000.0 -0.8464 -0.6899
5269000000.0 -1.077 0.2067
5272000000.0 -0.5512 0.9549
5275000000.0 0.3801 1.013
5278000000.0 1.034 0.4037
5281000000.0 0.9702 -0.5071
5284000000.0 0.2204 -1.089
5288000000.0 -0.7084 -0.8702
5291000000.0 -1.088 -0.05663
5294000000.0 -0.7822 0.7919
5297000000.0 0.1399 1.139
5300000000.0 0.9391 0.5984
5303000000.0 1.07 -0.3249
5306000000.0 0.4504 -1.023
5309000000.0 -0.4747 -1.008
5312000000.0 -1.118 -0.2916
5316000000.0 -0.9312 0.686
5319000000.0 -0.09104 1.16
5322000000.0 0.8208 0.8504
5325000000.0 1.14 -0.1158
5328000000.0 0.6435 -0.9612
5331000000.0 -0.3324 -1.112
5334000000.0 -1.06 -0.4624
5338000000.0 -1.015 0.5502
5341000000.0 -0.2427 1.106
5344000000.0 0.6883 0.9028
5347000000.0 1.11 0.03644
5350000000.0 0.71 -0.8552
5353000000.0 -0.1888 -1.071
5356000000.0 -0.9594 -0.5621
5359000000.0 -1.015 0.3774
5362000000.0 -0.3198 1.014
5366000000.0 0.5724 0.891
5369000000.0 1.056 0.09831
5372000000.0 0.76 -0.7673
5375000000.0 -0.1499 -1.028
5378000000.0 -0.862 -0.5535
5381000000.0 -0.9693 0.3417
5384000000.0 -0.3308 0.9413
5388000000.0 0.5209 0.8167
5391000000.0 0.9723 0.08087
5394000000.0 0.6741 -0.7043
5397000000.0 -0.12 -0.9329
5400000000.0 -0.7734 -0.4475
5403000000.0 -0.8389 0.3547
5406000000.0 -0.2842 0.8619
5409000000.0 0.4634 0.7107
5412000000.0 0.8835 0.0593
5416000000.0 0.6171 -0.6017
5419000000.0 -0.1383 -0.8562
5422000000.0 -0.7333 -0.4438
5425000000.0 -0.7779 0.3382
5428000000.0 -0.2434 0.8139
5431000000.0 0.486 0.707
5434000000.0 0.882 0.05131
5438000000.0 0.5927 -0.6654
5441000000.0 -0.1702 -0.858
5444000000.0 -0.7671 -0.4234
5447000000.0 -0.827 0.3475
5450000000.0 -0.238 0.8626
5453000000.0 0.523 0.7409
5456000000.0 0.8844 0.08203
5459000000.0 0.6018 -0.6481
5462000000.0 -0.06103 -0.9069
5466000000.0 -0.7645 -0.4945
5469000000.0 -0.886 0.2856
5472000000.0 -0.3464 0.8538
5475000000.0 0.4121 0.8479
5478000000.0 0.9013 0.2071
5481000000.0 0.7776 -0.559
5484000000.0 0.04361 -0.9859
5488000000.0 -0.7085 -0.6662
5491000000.0 -0.9674 0.1436
5494000000.0 -0.535 0.814
5497000000.0 0.2978 0.9725
5500000000.0 0.9235 0.3904
5503000000.0 0.907 -0.4807
5506000000.0 0.2286 -1.013
5509000000.0 -0.611 -0.8311
5512000000.0 -1.045 -0.09237
5516000000.0 -0.7146 0.7594
5519000000.0 0.1287 1.024
5522000000.0 0.851 0.5372
5525000000.0 0.9846 -0.2845
5528000000.0 0.3905 -0.9729
5531000000.0 -0.4463 -0.9412
5534000000.0 -1.053 -0.2458
5538000000.0 -0.8465 0.6457
5541000000.0 -0.1026 1.064
5544000000.0 0.7732 0.7451
5547000000.0 1.08 -0.134
5550000000.0 0.5745 -0.8824
5553000000.0 -0.2827 -1.014
5556000000.0 -0.97 -0.4215
5559000000.0 -0.935 0.4888
5562000000.0 -0.2527 1.024
5566000000.0 0.6654 0.8132
5569000000.0 1.065 -0.03079
5572000000.0 0.6876 -0.7618
5575000000.0 -0.1735 -1.018
5578000000.0 -0.8667 -0.5233
5581000000.0 -0.926 0.3285
5584000000.0 -0.3206 0.9187
5588000000.0 0.5252 0.8433
5591000000.0 0.9625 0.1194
5594000000.0 0.7323 -0.6537
5597000000.0 -0.02633 -0.9761
5600000000.0 -0.7494 -0.5782
5603000000.0 -0.9001 0.2057
5606000000.0 -0.371 0.8282
5609000000.0 0.3745 0.8048
5612000000.0 0.8864 0.2256
5616000000.0 0.7021 -0.5334
5619000000.0 0.04189 -0.8777
5622000000.0 -0.6547 -0.6016
5625000000.0 -0.8325 0.1565
5628000000.0 -0.4222 0.7239
5631000000.0 0.3191 0.7941
5634000000.0 0.8011 0.2477
5638000000.0 0.693 -0.4881
5641000000.0 0.0432 -0.8197
5644000000.0 -0.5946 -0.5767
5647000000.0 -0.8565 0.1379
5650000000.0 -0.4121 0.7284
5653000000.0 0.2936 0.7798
5656000000.0 0.8122 0.2713
5659000000.0 0.6974 -0.5094
5662000000.0 0.06106 -0.8775
5666000000.0 -0.6457 -0.5742
5669000000.0 -0.8812 0.134
5672000000.0 -0.4349 0.7705
5675000000.0 0.3156 0.853
5678000000.0 0.8532 0.2799
5681000000.0 0.78 -0.4993
5684000000.0 0.08817 -0.9154
5688000000.0 -0.6829 -0.6679
5691000000.0 -0.9583 0.1116
5694000000.0 -0.529 0.813
5697000000.0 0.3102 0.9179
5700000000.0 0.9259 0.3211
5703000000.0 0.8636 -0.4993
5706000000.0 0.1336 -1.028
5709000000.0 -0.6915 -0.757
5712000000.0 -1.019 0.04442
5716000000.0 -0.6105 0.8531
5719000000.0 0.2463 1.02
5722000000.0 0.9417 0.4574
5725000000.0 0.9496 -0.4414
5728000000.0 0.2817 -1.032
5731000000.0 -0.6406 -0.8905
5734000000.0 -1.099 -0.06105
5738000000.0 -0.7829 0.7514
5741000000.0 0.1283 1.105
5744000000.0 0.8784 0.6349
5747000000.0 1.06 -0.323
5750000000.0 0.4208 -0.9924
5753000000.0 -0.5088 -0.9892
5756000000.0 -1.06 -0.2512
5759000000.0 -0.9017 0.7108
5762000000.0 -0.05544 1.133
5766000000.0 0.8189 0.7713
5769000000.0 1.097 -0.1575
5772000000.0 0.6057 -0.9132
5775000000.0 -0.3303 -1.04
5778000000.0 -1.02 -0.4228
5781000000.0 -0.9609 0.5187
5784000000.0 -0.2045 1.067
5788000000.0 0.6992 0.8522
5791000000.0 1.095 0.01216
5794000000.0 0.7276 -0.8088
5797000000.0 -0.1774 -1.048
5800000000.0 -0.9417 -0.5354
5803000000.0 -1.003 0.3583
5806000000.0 -0.3883 0.984
5809000000.0 0.5095 0.8993
5812000000.0 1.053 0.1398
5816000000.0 0.7891 -0.699
5819000000.0 -0.0419 -1.017
5822000000.0 -0.8368 -0.6368
5825000000.0 -1.005 0.2259
5828000000.0 -0.4475 0.927
5831000000.0 0.4367 0.8993
5834000000.0 0.9603 0.2557
5838000000.0 0.8112 -0.6191
5841000000.0 0.007354 -0.9417
5844000000.0 -0.7387 -0.6546
5847000000.0 -0.9476 0.1416
5850000000.0 -0.4415 0.8177
5853000000.0 0.3364 0.8992
5856000000.0 0.9087 0.2542
5859000000.0 0.755 -0.5214
5862000000.0 0.0649 -0.9211
5866000000.0 -0.6634 -0.6281
5869000000.0 -0.9248 0.1451
5872000000.0 -0.4572 0.7817
5875000000.0 0.3197 0.8714
5878000000.0 0.8298 0.2779
5881000000.0 0.7309 -0.4713
5884000000.0 0.07265 -0.8822
5888000000.0 -0.6099 -0.6513
5891000000.0 -0.8679 0.1265
5894000000.0 -0.4776 0.746
5897000000.0 0.2557 0.8259
5900000000.0 0.77 0.3301
5903000000.0 0.736 -0.4241
5906000000.0 0.1366 -0.8557
5909000000.0 -0.5448 -0.6582
5912000000.0 -0.8761 0.04074
5916000000.0 -0.5657 0.6918
5919000000.0 0.2216 0.8365
5922000000.0 0.7588 0.3807
5925000000.0 0.8085 -0.3725
5928000000.0 0.2156 -0.8424
5931000000.0 -0.5013 -0.7258
5934000000.0 -0.8715 -0.05211
5938000000.0 -0.5919 0.6601
5941000000.0 0.08638 0.8965
5944000000.0 0.7242 0.4965
5947000000.0 0.8514 -0.2688
5950000000.0 0.3332 -0.837
5953000000.0 -0.4234 -0.7981
5956000000.0 -0.8852 -0.204
5959000000.0 -0.7461 0.5351
5962000000.0 -0.03595 0.9489
5966000000.0 0.6614 0.6368
5969000000.0 0.9221 -0.1314
5972000000.0 0.5119 -0.8082
5975000000.0 -0.3323 -0.9135
5978000000.0 -0.8844 -0.3732
5981000000.0 -0.8402 0.4504
5984000000.0 -0.1912 0.999
5988000000.0 0.6258 0.7646
5991000000.0 0.9823 0.0193
5994000000.0 0.6573 -0.7572
5997000000.0 -0.1543 -0.9866
6000000000.0 -0.885 -0.4915
6003000000.0 -0.9296 0.355
6006000000.0 -0.3297 0.9367
6009000000.0 0.5213 0.8308
6012000000.0 0.974 0.1496
6016000000.0 0.7371 -0.6673
6019000000.0 -0.05626 -1.005
6022000000.0 -0.8147 -0.5809
6025000000.0 -0.9381 0.249
6028000000.0 -0.4077 0.8734
6031000000.0 0.4394 0.8667
6034000000.0 0.9436 0.2227
6038000000.0 0.7669 -0.5896
6041000000.0 0.05693 -0.9743
6044000000.0 -0.7152 -0.6582
6047000000.0 -0.9614 0.1429
6050000000.0 -0.4877 0.8514
6053000000.0 0.3538 0.8907
6056000000.0 0.8825 0.2961
6059000000.0 0.7817 -0.5379
6062000000.0 0.08172 -0.9078
6066000000.0 -0.6557 -0.6598
6069000000.0 -0.9153 0.106
6072000000.0 -0.4784 0.7577
6075000000.0 0.2946 0.8619
6078000000.0 0.8254 0.3057
6081000000.0 0.7521 -0.4417
6084000000.0 0.1108 -0.8901
6088000000.0 -0.6035 -0.6459
6091000000.0 -0.8306 0.04032
6094000000.0 -0.4602 0.698
6097000000.0 0.2316 0.8153
6100000000.0 0.8091 0.3027
6103000000.0 0.766 -0.4075
6106000000.0 0.1488 -0.8552
6109000000.0 -0.5492 -0.6209
6112000000.0 -0.8737 -0.0001152
6116000000.0 -0.5582 0.6694
6119000000.0 0.2182 0.8447
6122000000.0 0.8009 0.406
6125000000.0 0.7912 -0.3652
6128000000.0 0.2366 -0.8557
6131000000.0 -0.5475 -0.6891
6134000000.0 -0.8846 0.01007
6138000000.0 -0.5789 0.7085
6141000000.0 0.1594 0.8846
6144000000.0 0.7682 0.4414
6147000000.0 0.8379 -0.354
6150000000.0 0.2517 -0.8568
6153000000.0 -0.5053 -0.7516
6156000000.0 -0.9366 -0.1087
6159000000.0 -0.6571 0.6385
6162000000.0 0.1103 0.8943
6166000000.0 0.7819 0.4849
6169000000.0 0.8806 -0.2699
6172000000.0 0.3643 -0.8489
6175000000.0 -0.4383 -0.8146
6178000000.0 -0.9338 -0.159
6181000000.0 -0.7152 0.6113
6184000000.0 0.02033 0.9535
6188000000.0 0.7712 0.5886
6191000000.0 0.9249 -0.2164
6194000000.0 0.3983 -0.8158
6197000000.0 -0.3623 -0.8713
6200000000.0 -0.916 -0.256
6203000000.0 -0.8049 0.5373
6206000000.0 -0.08919 0.9415
6209000000.0 0.6601 0.6605
6212000000.0 0.9396 -0.1312
6216000000.0 0.5055 -0.7384
6219000000.0 -0.2531 -0.901
6222000000.0 -0.851 -0.3524
6225000000.0 -0.8054 0.4359
6228000000.0 -0.1975 0.9317
6231000000.0 0.5911 0.7214
6234000000.0 0.8964 0.009377
6238000000.0 0.5917 -0.6667
6241000000.0 -0.1402 -0.8628
6244000000.0 -0.725 -0.4321
6247000000.0 -0.8133 0.2795
6250000000.0 -0.2915 0.7772
6253000000.0 0.4046 0.6942
6256000000.0 0.8195 0.1501
6259000000.0 0.6369 -0.5465
6262000000.0 -0.004528 -0.8231
6266000000.0 -0.6544 -0.4924
