! Created with skrf 1.8.0 (http://scikit-rf.org).
# Hz S RI R 50.0 
!freq ReS11 ImS11
4000000000.0 -0.1768 -1.487
4003000000.0 -1.301 -0.8219
4006000000.0 -1.466 0.4696
4009000000.0 -0.5405 1.395
4012000000.0 0.807 1.256
4016000000.0 1.512 0.2243
4019000000.0 1.151 -1.064
4022000000.0 -0.1262 -1.598
4025000000.0 -1.353 -0.8858
4028000000.0 -1.512 0.5068
4031000000.0 -0.5901 1.5
4034000000.0 0.8356 1.401
4038000000.0 1.582 0.2786
4041000000.0 1.209 -1.118
4044000000.0 -0.1488 -1.579
4047000000.0 -1.392 -0.9425
4050000000.0 -1.543 0.4908
4053000000.0 -0.6413 1.452
4056000000.0 0.7732 1.442
4059000000.0 1.591 0.3159
4062000000.0 1.25 -1.026
4066000000.0 0.02995 -1.6
4069000000.0 -1.233 -1.063
4072000000.0 -1.631 0.266
4075000000.0 -0.843 1.41
4078000000.0 0.5622 1.578
4081000000.0 1.549 0.5831
4084000000.0 1.437 -0.8574
4088000000.0 0.2571 -1.634
4091000000.0 -1.132 -1.22
4094000000.0 -1.662 0.09033
4097000000.0 -1.001 1.279
4100000000.0 0.382 1.589
4103000000.0 1.434 0.6945
4106000000.0 1.47 -0.6842
4109000000.0 0.4571 -1.494
4112000000.0 -0.8513 -1.292
4116000000.0 -1.497 -0.1818
4119000000.0 -1.112 1.005
4122000000.0 0.03828 1.514
4125000000.0 1.13 0.9661
4128000000.0 1.48 -0.2351
4131000000.0 0.7915 -1.252
4134000000.0 -0.4309 -1.399
4138000000.0 -1.354 -0.5721
4141000000.0 -1.346 0.6518
4144000000.0 -0.4037 1.416
4147000000.0 0.8454 1.235
4150000000.0 1.477 0.1273
4153000000.0 1.089 -1.064
4156000000.0 -0.1199 -1.489
4159000000.0 -1.215 -0.8697
4162000000.0 -1.433 0.3536
4166000000.0 -0.6122 1.366
4169000000.0 0.6206 1.387
4172000000.0 1.458 0.4409
4175000000.0 1.23 -0.8498
4178000000.0 0.1865 -1.459
4181000000.0 -1.054 -1.068
4184000000.0 -1.496 0.1341
4188000000.0 -0.8915 1.25
4191000000.0 0.382 1.477
4194000000.0 1.393 0.6403
4197000000.0 1.422 -0.6632
4200000000.0 0.371 -1.537
4203000000.0 -0.974 -1.269
4206000000.0 -1.621 -0.04473
4209000000.0 -1.037 1.285
4212000000.0 0.3655 1.631
4216000000.0 1.504 0.7071
4219000000.0 1.539 -0.7665
4222000000.0 0.3289 -1.668
4225000000.0 -1.144 -1.299
4228000000.0 -1.687 0.1144
4231000000.0 -0.896 1.392
4234000000.0 0.5617 1.593
4238000000.0 1.565 0.4995
4241000000.0 1.336 -0.9204
4244000000.0 0.09307 -1.633
4247000000.0 -1.261 -1.014
4250000000.0 -1.547 0.3522
4253000000.0 -0.6765 1.391
4256000000.0 0.6928 1.39
4259000000.0 1.5 0.303
4262000000.0 1.126 -0.9783
4266000000.0 -0.1357 -1.483
4269000000.0 -1.234 -0.8455
4272000000.0 -1.408 0.4223
4275000000.0 -0.4978 1.412
4278000000.0 0.7859 1.251
4281000000.0 1.404 0.2179
4284000000.0 0.9984 -0.9812
4288000000.0 -0.1422 -1.406
4291000000.0 -1.15 -0.7669
4294000000.0 -1.267 0.4199
4297000000.0 -0.4769 1.22
4300000000.0 0.6469 1.155
4303000000.0 1.282 0.2574
4306000000.0 0.969 -0.8404
4309000000.0 0.02605 -1.311
4312000000.0 -0.9478 -0.8352
4316000000.0 -1.275 0.2263
4319000000.0 -0.6805 1.093
4322000000.0 0.4427 1.239
4325000000.0 1.251 0.4868
4328000000.0 1.148 -0.6114
4331000000.0 0.2602 -1.329
4334000000.0 -0.8541 -1.104
4338000000.0 -1.387 -0.04057
4341000000.0 -0.8912 1.05
4344000000.0 0.2228 1.382
4347000000.0 1.215 0.7136
4350000000.0 1.315 -0.465
4353000000.0 0.457 -1.365
4356000000.0 -0.7332 -1.216
4359000000.0 -1.397 -0.2416
4362000000.0 -1.098 0.9529
4366000000.0 0.04376 1.492
4369000000.0 1.171 0.9131
4372000000.0 1.424 -0.2902
4375000000.0 0.697 -1.263
4378000000.0 -0.5741 -1.372
4381000000.0 -1.445 -0.4256
4384000000.0 -1.308 0.8454
4388000000.0 -0.1927 1.552
4391000000.0 1.112 1.113
4394000000.0 1.546 -0.2001
4397000000.0 0.8778 -1.289
4400000000.0 -0.5122 -1.479
4403000000.0 -1.491 -0.5162
4406000000.0 -1.325 0.852
4409000000.0 -0.1644 1.578
4412000000.0 1.111 1.115
4416000000.0 1.543 -0.2191
4419000000.0 0.7627 -1.336
4422000000.0 -0.5641 -1.409
4425000000.0 -1.441 -0.4433
4428000000.0 -1.254 0.871
4431000000.0 -0.07806 1.473
4434000000.0 1.072 0.9198
4438000000.0 1.391 -0.2701
4441000000.0 0.6131 -1.238
4444000000.0 -0.5733 -1.208
4447000000.0 -1.331 -0.2909
4450000000.0 -1.029 0.8607
4453000000.0 0.04993 1.289
4456000000.0 1.065 0.7231
4459000000.0 1.231 -0.3573
4462000000.0 0.4771 -1.155
4466000000.0 -0.6546 -1.064
4469000000.0 -1.208 -0.1505
4472000000.0 -0.878 0.8469
4475000000.0 0.1505 1.193
4478000000.0 1.027 0.5747
4481000000.0 1.105 -0.4753
4484000000.0 0.2954 -1.118
4488000000.0 -0.6658 -0.9091
4491000000.0 -1.138 -0.05923
4494000000.0 -0.7443 0.8458
4497000000.0 0.2116 1.099
4500000000.0 0.9756 0.5201
4503000000.0 1.026 -0.3951
4506000000.0 0.3204 -1.039
4509000000.0 -0.6296 -0.9178
4512000000.0 -1.116 -0.07312
4516000000.0 -0.7962 0.8217
4519000000.0 0.1594 1.123
4522000000.0 0.9772 0.6042
4525000000.0 1.087 -0.3732
4528000000.0 0.3817 -1.085
4531000000.0 -0.5945 -0.998
4534000000.0 -1.151 -0.1637
4538000000.0 -0.8624 0.7641
4541000000.0 0.02969 1.155
4544000000.0 0.9489 0.7082
4547000000.0 1.164 -0.2447
4550000000.0 0.5457 -1.074
4553000000.0 -0.4655 -1.111
4556000000.0 -1.139 -0.3689
4559000000.0 -1.053 0.6598
4562000000.0 -0.143 1.21
4566000000.0 0.842 0.9256
4569000000.0 1.246 -0.0688
4572000000.0 0.7553 -1.022
4575000000.0 -0.2942 -1.268
4578000000.0 -1.162 -0.6066
4581000000.0 -1.203 0.5142
4584000000.0 -0.3593 1.275
4588000000.0 0.7413 1.106
4591000000.0 1.359 0.1264
4594000000.0 0.962 -0.9844
4597000000.0 -0.09899 -1.397
4600000000.0 -1.158 -0.7759
4603000000.0 -1.33 0.393
4606000000.0 -0.538 1.281
4609000000.0 0.637 1.249
4612000000.0 1.368 0.2591
4616000000.0 1.07 -0.8963
4619000000.0 0.01903 -1.406
4622000000.0 -1.078 -0.8824
4625000000.0 -1.369 0.3166
4628000000.0 -0.6504 1.223
4631000000.0 0.5405 1.251
4634000000.0 1.314 0.4015
4638000000.0 1.108 -0.8018
4641000000.0 0.06594 -1.351
4644000000.0 -1.001 -0.9386
4647000000.0 -1.326 0.1916
4650000000.0 -0.6564 1.185
4653000000.0 0.4747 1.218
4656000000.0 1.248 0.3586
4659000000.0 1.057 -0.7365
4662000000.0 0.0743 -1.265
4666000000.0 -0.9081 -0.7987
4669000000.0 -1.193 0.2157
4672000000.0 -0.5461 1.056
4675000000.0 0.4741 1.083
4678000000.0 1.115 0.2869
4681000000.0 0.9027 -0.6569
4684000000.0 0.03194 -1.13
4688000000.0 -0.8446 -0.7285
4691000000.0 -1.113 0.2234
4694000000.0 -0.5316 0.9397
4697000000.0 0.4466 1.012
4700000000.0 1.077 0.2747
4703000000.0 0.8711 -0.6782
4706000000.0 0.01547 -1.08
4709000000.0 -0.8258 -0.6694
4712000000.0 -1.037 0.2436
4716000000.0 -0.4609 0.9582
4719000000.0 0.4831 0.9758
4722000000.0 1.037 0.2403
4725000000.0 0.8349 -0.6321
4728000000.0 0.03961 -1.065
4731000000.0 -0.7901 -0.6762
4734000000.0 -1.02 0.1879
4738000000.0 -0.5122 0.9047
4741000000.0 0.3604 0.9674
4744000000.0 0.9798 0.3398
4747000000.0 0.889 -0.5371
4750000000.0 0.1388 -1.049
4753000000.0 -0.7104 -0.794
4756000000.0 -1.077 0.09333
4759000000.0 -0.6696 0.8773
4762000000.0 0.2373 1.089
4766000000.0 1.021 0.5077
4769000000.0 1.055 -0.47
4772000000.0 0.33 -1.127
4775000000.0 -0.6463 -0.9663
4778000000.0 -1.139 -0.1256
4781000000.0 -0.8672 0.8075
4784000000.0 0.06895 1.227
4788000000.0 0.9808 0.7181
4791000000.0 1.178 -0.2813
4794000000.0 0.563 -1.099
4797000000.0 -0.494 -1.139
4800000000.0 -1.19 -0.3842
4803000000.0 -1.038 0.6628
4806000000.0 -0.1485 1.222
4809000000.0 0.8526 0.957
4812000000.0 1.284 -0.04537
4816000000.0 0.8161 -1.061
4819000000.0 -0.2736 -1.3
4822000000.0 -1.186 -0.6246
4825000000.0 -1.227 0.5473
4828000000.0 -0.3793 1.309
4831000000.0 0.7871 1.128
4834000000.0 1.392 0.1235
4838000000.0 0.976 -0.9871
4841000000.0 -0.1609 -1.39
4844000000.0 -1.185 -0.774
4847000000.0 -1.341 0.4402
4850000000.0 -0.4688 1.305
4853000000.0 0.6713 1.224
4856000000.0 1.357 0.2063
4859000000.0 1.018 -0.9127
4862000000.0 -0.02458 -1.341
4866000000.0 -1.059 -0.8313
4869000000.0 -1.299 0.3349
4872000000.0 -0.5891 1.217
4875000000.0 0.552 1.189
4878000000.0 1.249 0.3179
4881000000.0 1.027 -0.7446
4884000000.0 0.01168 -1.259
4888000000.0 -0.9495 -0.7821
4891000000.0 -1.189 0.2104
4894000000.0 -0.5689 1.065
4897000000.0 0.4489 1.044
4900000000.0 1.115 0.2909
4903000000.0 0.9152 -0.6575
4906000000.0 0.05625 -1.097
4909000000.0 -0.7824 -0.7265
4912000000.0 -1.023 0.1412
4916000000.0 -0.5059 0.8821
4919000000.0 0.3552 0.9393
4922000000.0 0.8969 0.3261
4925000000.0 0.8207 -0.4972
4928000000.0 0.1286 -0.9449
4931000000.0 -0.6399 -0.7013
4934000000.0 -0.9455 0.05563
4938000000.0 -0.5764 0.7744
4941000000.0 0.2095 0.9071
4944000000.0 0.8649 0.4078
4947000000.0 0.8379 -0.4141
4950000000.0 0.2546 -0.9051
4953000000.0 -0.5575 -0.7595
4956000000.0 -0.9747 -0.03185
4959000000.0 -0.6025 0.7404
4962000000.0 0.1618 0.9523
4966000000.0 0.8555 0.4798
4969000000.0 0.9022 -0.3667
4972000000.0 0.3091 -0.9346
4975000000.0 -0.5527 -0.845
4978000000.0 -1.012 -0.1083
4981000000.0 -0.7503 0.7175
4984000000.0 0.06908 1.043
4988000000.0 0.8263 0.6101
4991000000.0 1.037 -0.2775
4994000000.0 0.4555 -0.9695
4997000000.0 -0.4691 -1.0
5000000000.0 -1.065 -0.2823
5003000000.0 -0.9231 0.6641
5006000000.0 -0.08259 1.153
5009000000.0 0.8626 0.8208
5012000000.0 1.193 -0.157
5016000000.0 0.6439 -1.045
5019000000.0 -0.39 -1.157
5022000000.0 -1.168 -0.4515
5025000000.0 -1.102 0.6091
5028000000.0 -0.2151 1.272
5031000000.0 0.8457 0.9486
5034000000.0 1.271 0.005347
5038000000.0 0.8311 -1.012
5041000000.0 -0.2538 -1.273
5044000000.0 -1.112 -0.6191
5047000000.0 -1.193 0.4575
5050000000.0 -0.4098 1.224
5053000000.0 0.6864 1.097
5056000000.0 1.297 0.1888
5059000000.0 0.9704 -0.8825
5062000000.0 -0.05364 -1.296
5066000000.0 -1.02 -0.8011
5069000000.0 -1.268 0.2839
5072000000.0 -0.5798 1.158
5075000000.0 0.4798 1.176
5078000000.0 1.229 0.3627
5081000000.0 1.051 -0.7049
5084000000.0 0.1214 -1.251
5088000000.0 -0.8688 -0.8762
5091000000.0 -1.175 0.07774
5094000000.0 -0.6695 0.9667
5097000000.0 0.301 1.099
5100000000.0 1.071 0.4487
5103000000.0 1.022 -0.4828
5106000000.0 0.3233 -1.053
5109000000.0 -0.626 -0.9153
5112000000.0 -1.076 -0.138
5116000000.0 -0.7972 0.7495
5119000000.0 0.07579 1.065
5122000000.0 0.8506 0.6066
5125000000.0 1.002 -0.2676
5128000000.0 0.4229 -0.8997
5131000000.0 -0.429 -0.9094
5134000000.0 -0.9756 -0.2227
5138000000.0 -0.7538 0.5838
5141000000.0 -0.04912 0.9946
5144000000.0 0.7289 0.6617
5147000000.0 0.9527 -0.1195
5150000000.0 0.4907 -0.815
5153000000.0 -0.3507 -0.89
5156000000.0 -0.8723 -0.3286
5159000000.0 -0.8064 0.4838
5162000000.0 -0.1346 0.8943
5166000000.0 0.5757 0.6273
5169000000.0 0.8646 -0.06206
5172000000.0 0.5579 -0.747
5175000000.0 -0.2493 -0.8977
5178000000.0 -0.8598 -0.3435
5181000000.0 -0.7841 0.4683
5184000000.0 -0.1428 0.9302
5188000000.0 0.6104 0.6998
5191000000.0 0.8971 -0.01377
5194000000.0 0.5357 -0.7305
5197000000.0 -0.2252 -0.8913
5200000000.0 -0.8669 -0.3834
5203000000.0 -0.8583 0.4315
5206000000.0 -0.1856 0.9167
5209000000.0 0.6315 0.7292
5212000000.0 0.9603 -0.0414
5216000000.0 0.617 -0.7676
5219000000.0 -0.2006 -0.9696
5222000000.0 -0.8657 -0.4258
5225000000.0 -0.8879 0.4405
5228000000.0 -0.2558 0.955
5231000000.0 0.577 0.8092
5234000000.0 1.029 0.05499
5238000000.0 0.7066 -0.7721
5241000000.0 -0.1722 -1.045
5244000000.0 -0.8859 -0.5475
5247000000.0 -1.01 0.3509
5250000000.0 -0.3482 1.022
5253000000.0 0.5337 0.9203
5256000000.0 1.064 0.1837
5259000000.0 0.8383 -0.7083
5262000000.0 0.001488 -1.08
5266000000.0 -0.8488 -0.7109
5269000000.0 -1.051 0.1933
5272000000.0 -0.5436 0.94
5275000000.0 0.3796 1.043
5278000000.0 1.039 0.3918
5281000000.0 0.9481 -0.536
5284000000.0 0.2248 -1.105
5288000000.0 -0.6798 -0.8792
5291000000.0 -1.119 -0.04878
5294000000.0 -0.728 0.8456
5297000000.0 0.1475 1.124
5300000000.0 0.9172 0.6346
5303000000.0 1.078 -0.3607
5306000000.0 0.4764 -1.037
5309000000.0 -0.4897 -1.015
5312000000.0 -1.117 -0.2821
5316000000.0 -0.9314 0.6649
5319000000.0 -0.08438 1.134
5322000000.0 0.8413 0.77
5325000000.0 1.137 -0.1181
5328000000.0 0.631 -0.9687
5331000000.0 -0.3257 -1.115
5334000000.0 -1.059 -0.4571
5338000000.0 -1.01 0.5092
5341000000.0 -0.2279 1.11
5344000000.0 0.7138 0.9289
5347000000.0 1.103 0.05453
5350000000.0 0.7254 -0.8547
5353000000.0 -0.1574 -1.067
5356000000.0 -0.9495 -0.5464
5359000000.0 -1.013 0.3955
5362000000.0 -0.3177 1.041
5366000000.0 0.5938 0.9069
5369000000.0 1.033 0.1189
5372000000.0 0.7149 -0.7397
5375000000.0 -0.1416 -1.056
5378000000.0 -0.9007 -0.5633
5381000000.0 -0.9409 0.368
5384000000.0 -0.3145 0.9372
5388000000.0 0.5185 0.8232
5391000000.0 0.9498 0.06082
5394000000.0 0.666 -0.7108
5397000000.0 -0.1271 -0.9292
5400000000.0 -0.7869 -0.4775
5403000000.0 -0.8326 0.3413
5406000000.0 -0.2519 0.8895
5409000000.0 0.5265 0.7157
5412000000.0 0.8831 0.07433
5416000000.0 0.5939 -0.6574
5419000000.0 -0.1385 -0.8534
5422000000.0 -0.7322 -0.411
5425000000.0 -0.7945 0.3211
5428000000.0 -0.2505 0.8446
5431000000.0 0.5049 0.7366
5434000000.0 0.9158 0.0436
5438000000.0 0.5982 -0.6591
5441000000.0 -0.1283 -0.8359
5444000000.0 -0.7675 -0.4152
5447000000.0 -0.8242 0.3435
5450000000.0 -0.2436 0.8715
5453000000.0 0.5047 0.7211
5456000000.0 0.8738 0.08402
5459000000.0 0.6129 -0.6295
5462000000.0 -0.09562 -0.8939
5466000000.0 -0.7417 -0.4969
5469000000.0 -0.8796 0.285
5472000000.0 -0.4021 0.8391
5475000000.0 0.4122 0.8254
5478000000.0 0.9135 0.1876
5481000000.0 0.7351 -0.5617
5484000000.0 0.07422 -0.924
5488000000.0 -0.7214 -0.6682
5491000000.0 -0.9784 0.1294
5494000000.0 -0.5441 0.8261
5497000000.0 0.2806 0.9541
5500000000.0 0.9418 0.3731
5503000000.0 0.9032 -0.4997
5506000000.0 0.2485 -0.9674
5509000000.0 -0.6171 -0.808
5512000000.0 -1.04 -0.07348
5516000000.0 -0.6787 0.7327
5519000000.0 0.1113 1.038
5522000000.0 0.8864 0.5584
5525000000.0 1.024 -0.2927
5528000000.0 0.4151 -0.9751
5531000000.0 -0.4724 -0.9182
5534000000.0 -1.003 -0.257
5538000000.0 -0.8933 0.6254
5541000000.0 -0.08236 1.073
5544000000.0 0.7673 0.723
5547000000.0 1.052 -0.1516
5550000000.0 0.6016 -0.8918
5553000000.0 -0.2941 -1.019
5556000000.0 -0.9521 -0.4288
5559000000.0 -0.9411 0.487
5562000000.0 -0.2182 1.011
5566000000.0 0.6441 0.7897
5569000000.0 1.031 0.02227
5572000000.0 0.6691 -0.7636
5575000000.0 -0.1848 -1.014
5578000000.0 -0.8715 -0.5158
5581000000.0 -0.9384 0.3105
5584000000.0 -0.3292 0.9358
5588000000.0 0.4846 0.8195
5591000000.0 0.9197 0.1395
5594000000.0 0.6983 -0.6271
5597000000.0 -0.01529 -0.9268
5600000000.0 -0.7145 -0.5625
5603000000.0 -0.8773 0.2308
5606000000.0 -0.3912 0.805
5609000000.0 0.3921 0.7909
5612000000.0 0.8709 0.1873
5616000000.0 0.6788 -0.5397
5619000000.0 0.04093 -0.8736
5622000000.0 -0.6654 -0.551
5625000000.0 -0.8578 0.1635
5628000000.0 -0.399 0.7676
5631000000.0 0.3236 0.7854
5634000000.0 0.8094 0.2225
5638000000.0 0.6744 -0.4671
5641000000.0 0.04289 -0.8347
5644000000.0 -0.616 -0.5585
5647000000.0 -0.8302 0.1274
5650000000.0 -0.4219 0.7302
5653000000.0 0.2971 0.7846
5656000000.0 0.8123 0.2525
5659000000.0 0.6874 -0.5052
5662000000.0 0.06196 -0.8531
5666000000.0 -0.6571 -0.6166
5669000000.0 -0.8517 0.1273
5672000000.0 -0.438 0.7808
5675000000.0 0.3491 0.8448
5678000000.0 0.8644 0.2523
5681000000.0 0.7826 -0.5205
5684000000.0 0.0728 -0.9116
5688000000.0 -0.6953 -0.6705
5691000000.0 -0.9386 0.1347
5694000000.0 -0.525 0.8035
5697000000.0 0.323 0.943
5700000000.0 0.8917 0.3356
5703000000.0 0.853 -0.4985
5706000000.0 0.1208 -0.9733
5709000000.0 -0.6918 -0.7269
5712000000.0 -1.035 0.06012
5716000000.0 -0.6285 0.8391
5719000000.0 0.2571 0.9899
5722000000.0 0.9442 0.4529
5725000000.0 0.9242 -0.4018
5728000000.0 0.3154 -1.044
5731000000.0 -0.6093 -0.8773
5734000000.0 -1.053 -0.09554
5738000000.0 -0.7677 0.7774
5741000000.0 0.1087 1.078
5744000000.0 0.9194 0.6132
5747000000.0 1.079 -0.3423
5750000000.0 0.4395 -1.045
5753000000.0 -0.5053 -0.9899
5756000000.0 -1.09 -0.2321
5759000000.0 -0.8584 0.6803
5762000000.0 -0.05954 1.087
5766000000.0 0.8087 0.7572
5769000000.0 1.1 -0.1571
5772000000.0 0.565 -0.9397
5775000000.0 -0.3227 -1.039
5778000000.0 -0.9797 -0.4131
5781000000.0 -0.9679 0.5418
5784000000.0 -0.2258 1.08
5788000000.0 0.6601 0.8295
5791000000.0 1.092 0.04215
5794000000.0 0.7181 -0.8151
5797000000.0 -0.1747 -1.063
5800000000.0 -0.9307 -0.5428
5803000000.0 -1.006 0.3286
5806000000.0 -0.3734 0.9812
5809000000.0 0.5642 0.8923
5812000000.0 1.027 0.1453
5816000000.0 0.7754 -0.6859
5819000000.0 -0.04751 -1.031
5822000000.0 -0.8355 -0.6131
5825000000.0 -0.9714 0.2569
5828000000.0 -0.4088 0.9221
5831000000.0 0.4099 0.8786
5834000000.0 0.9477 0.2338
5838000000.0 0.7952 -0.6137
5841000000.0 0.0005893 -0.9554
5844000000.0 -0.7736 -0.6095
5847000000.0 -0.9877 0.1738
5850000000.0 -0.4448 0.8424
5853000000.0 0.3447 0.8755
5856000000.0 0.9059 0.2559
5859000000.0 0.7651 -0.5007
5862000000.0 0.06724 -0.9107
5866000000.0 -0.6647 -0.6385
5869000000.0 -0.9075 0.1293
5872000000.0 -0.4817 0.7835
5875000000.0 0.3394 0.8019
5878000000.0 0.8325 0.2742
5881000000.0 0.7183 -0.4828
5884000000.0 0.04786 -0.8503
5888000000.0 -0.6207 -0.6211
5891000000.0 -0.8692 0.08986
5894000000.0 -0.4892 0.7397
5897000000.0 0.2855 0.8263
5900000000.0 0.8122 0.2947
5903000000.0 0.7343 -0.4757
5906000000.0 0.1464 -0.8597
5909000000.0 -0.5876 -0.6246
5912000000.0 -0.8566 0.03361
5916000000.0 -0.513 0.7289
5919000000.0 0.2299 0.8307
5922000000.0 0.7947 0.3914
5925000000.0 0.8252 -0.3692
5928000000.0 0.2364 -0.861
5931000000.0 -0.5216 -0.7076
5934000000.0 -0.8927 -0.04642
5938000000.0 -0.6173 0.6283
5941000000.0 0.1229 0.8607
5944000000.0 0.7837 0.4634
5947000000.0 0.8929 -0.2321
5950000000.0 0.3419 -0.849
5953000000.0 -0.3968 -0.8178
5956000000.0 -0.9089 -0.17
5959000000.0 -0.7149 0.5591
5962000000.0 -0.05089 0.9247
5966000000.0 0.6799 0.6656
5969000000.0 0.9412 -0.1178
5972000000.0 0.4969 -0.8077
5975000000.0 -0.2845 -0.8964
5978000000.0 -0.9124 -0.3465
5981000000.0 -0.8375 0.4662
5984000000.0 -0.1904 0.9729
5988000000.0 0.6448 0.7775
5991000000.0 1.027 0.008529
5994000000.0 0.6525 -0.7584
5997000000.0 -0.1543 -0.9852
6000000000.0 -0.866 -0.5083
6003000000.0 -0.9389 0.3461
6006000000.0 -0.3149 0.9397
6009000000.0 0.5099 0.8497
6012000000.0 0.9906 0.139
6016000000.0 0.7164 -0.6754
6019000000.0 -0.07427 -0.9777
6022000000.0 -0.8023 -0.5841
6025000000.0 -0.9343 0.2657
6028000000.0 -0.439 0.891
6031000000.0 0.4253 0.8693
6034000000.0 0.9621 0.2177
6038000000.0 0.7696 -0.6076
6041000000.0 0.07497 -0.9707
6044000000.0 -0.7274 -0.6353
6047000000.0 -0.9457 0.1773
6050000000.0 -0.4523 0.8552
6053000000.0 0.3549 0.8675
6056000000.0 0.8785 0.2686
6059000000.0 0.7771 -0.5329
6062000000.0 0.07982 -0.9131
6066000000.0 -0.6516 -0.6474
6069000000.0 -0.8797 0.09604
6072000000.0 -0.44 0.7779
6075000000.0 0.3053 0.8368
6078000000.0 0.8489 0.303
6081000000.0 0.7487 -0.4565
6084000000.0 0.1153 -0.8661
6088000000.0 -0.587 -0.614
6091000000.0 -0.8578 0.05303
6094000000.0 -0.502 0.7057
6097000000.0 0.2455 0.8355
6100000000.0 0.7834 0.3319
6103000000.0 0.7356 -0.4228
6106000000.0 0.1586 -0.8561
6109000000.0 -0.5589 -0.6234
6112000000.0 -0.8789 0.01695
6116000000.0 -0.5493 0.6965
6119000000.0 0.1936 0.8277
6122000000.0 0.7652 0.3607
6125000000.0 0.7826 -0.3997
6128000000.0 0.2196 -0.8155
6131000000.0 -0.5397 -0.6657
6134000000.0 -0.8587 -0.02292
6138000000.0 -0.5432 0.6588
6141000000.0 0.1589 0.8626
6144000000.0 0.7674 0.4142
6147000000.0 0.8157 -0.3452
6150000000.0 0.2587 -0.8209
6153000000.0 -0.4962 -0.7436
6156000000.0 -0.8694 -0.1036
6159000000.0 -0.6206 0.6622
6162000000.0 0.1099 0.9369
6166000000.0 0.7776 0.4968
6169000000.0 0.8812 -0.2852
6172000000.0 0.3447 -0.8828
6175000000.0 -0.4588 -0.8288
6178000000.0 -0.9166 -0.1979
6181000000.0 -0.7087 0.6421
6184000000.0 0.0072 0.9578
6188000000.0 0.717 0.6164
6191000000.0 0.9098 -0.1959
6194000000.0 0.4333 -0.865
6197000000.0 -0.3852 -0.8568
6200000000.0 -0.899 -0.2775
6203000000.0 -0.7415 0.5265
6206000000.0 -0.09226 0.9319
6209000000.0 0.6396 0.6373
6212000000.0 0.8998 -0.09365
6216000000.0 0.5251 -0.7968
6219000000.0 -0.2373 -0.8748
6222000000.0 -0.827 -0.3435
6225000000.0 -0.8212 0.428
6228000000.0 -0.1859 0.8863
6231000000.0 0.5874 0.7148
6234000000.0 0.8664 0.004125
6238000000.0 0.6144 -0.6631
6241000000.0 -0.1309 -0.868
6244000000.0 -0.7902 -0.4605
6247000000.0 -0.8024 0.2938
6250000000.0 -0.267 0.7507
6253000000.0 0.4437 0.7513
6256000000.0 0.7991 0.1246
6259000000.0 0.6186 -0.5398
6262000000.0 -0.02697 -0.8126
6266000000.0 -0.633 -0.5336
