! Created with skrf 1.8.0 (http://scikit-rf.org).
# Hz S RI R 50.0 
!freq ReS11 ImS11
4000000000.0 -0.1767 -1.473
4003000000.0 -1.267 -0.7959
4006000000.0 -1.441 0.4697
4009000000.0 -0.4988 1.456
4012000000.0 0.8072 1.262
4016000000.0 1.533 0.2062
4019000000.0 1.114 -1.066
4022000000.0 -0.1272 -1.524
4025000000.0 -1.314 -0.8736
4028000000.0 -1.519 0.4582
4031000000.0 -0.5678 1.471
4034000000.0 0.8349 1.362
4038000000.0 1.663 0.2039
4041000000.0 1.222 -1.118
4044000000.0 -0.1665 -1.63
4047000000.0 -1.358 -0.9383
4050000000.0 -1.502 0.4658
4053000000.0 -0.6184 1.514
4056000000.0 0.767 1.439
4059000000.0 1.593 0.3258
4062000000.0 1.245 -0.9821
4066000000.0 -0.01697 -1.625
4069000000.0 -1.254 -1.026
4072000000.0 -1.591 0.2863
4075000000.0 -0.7893 1.405
4078000000.0 0.5542 1.535
4081000000.0 1.553 0.5266
4084000000.0 1.407 -0.86
4088000000.0 0.2756 -1.653
4091000000.0 -1.095 -1.208
4094000000.0 -1.624 0.07827
4097000000.0 -0.9508 1.321
4100000000.0 0.3718 1.578
4103000000.0 1.469 0.7211
4106000000.0 1.466 -0.6469
4109000000.0 0.4406 -1.504
4112000000.0 -0.8694 -1.3
4116000000.0 -1.5 -0.1686
4119000000.0 -1.07 1.02
4122000000.0 0.01267 1.506
4125000000.0 1.158 0.9372
4128000000.0 1.442 -0.2388
4131000000.0 0.7941 -1.274
4134000000.0 -0.4471 -1.412
4138000000.0 -1.336 -0.6011
4141000000.0 -1.343 0.6764
4144000000.0 -0.3591 1.447
4147000000.0 0.8868 1.234
4150000000.0 1.503 0.1411
4153000000.0 1.061 -1.071
4156000000.0 -0.143 -1.522
4159000000.0 -1.245 -0.8553
4162000000.0 -1.454 0.4266
4166000000.0 -0.6235 1.369
4169000000.0 0.6437 1.354
4172000000.0 1.459 0.3855
4175000000.0 1.254 -0.8312
4178000000.0 0.1414 -1.514
4181000000.0 -1.066 -1.062
4184000000.0 -1.523 0.1557
4188000000.0 -0.8675 1.241
4191000000.0 0.3753 1.496
4194000000.0 1.411 0.655
4197000000.0 1.389 -0.673
4200000000.0 0.3452 -1.554
4203000000.0 -1.003 -1.261
4206000000.0 -1.616 0.01201
4209000000.0 -1.031 1.268
4212000000.0 0.3884 1.621
4216000000.0 1.494 0.719
4219000000.0 1.512 -0.7425
4222000000.0 0.2914 -1.691
4225000000.0 -1.148 -1.246
4228000000.0 -1.664 0.1415
4231000000.0 -0.866 1.397
4234000000.0 0.6244 1.534
4238000000.0 1.527 0.4952
4241000000.0 1.321 -0.9409
4244000000.0 0.03294 -1.622
4247000000.0 -1.232 -1.018
4250000000.0 -1.529 0.3614
4253000000.0 -0.685 1.374
4256000000.0 0.7154 1.362
4259000000.0 1.497 0.246
4262000000.0 1.141 -1.048
4266000000.0 -0.1149 -1.498
4269000000.0 -1.252 -0.807
4272000000.0 -1.416 0.4912
4275000000.0 -0.4735 1.377
4278000000.0 0.803 1.214
4281000000.0 1.43 0.1502
4284000000.0 0.9832 -1.02
4288000000.0 -0.2055 -1.417
4291000000.0 -1.126 -0.7025
4294000000.0 -1.273 0.4628
4297000000.0 -0.4324 1.264
4300000000.0 0.6383 1.129
4303000000.0 1.241 0.2253
4306000000.0 0.9844 -0.8346
4309000000.0 -0.05197 -1.297
4312000000.0 -0.9942 -0.8218
4316000000.0 -1.285 0.2444
4319000000.0 -0.6465 1.099
4322000000.0 0.4433 1.244
4325000000.0 1.272 0.4857
4328000000.0 1.163 -0.6543
4331000000.0 0.2358 -1.326
4334000000.0 -0.8705 -1.046
4338000000.0 -1.395 -0.01134
4341000000.0 -0.8888 1.087
4344000000.0 0.25 1.401
4347000000.0 1.238 0.7108
4350000000.0 1.322 -0.4906
4353000000.0 0.4391 -1.344
4356000000.0 -0.7782 -1.242
4359000000.0 -1.436 -0.1939
4362000000.0 -1.058 0.9803
4366000000.0 0.06599 1.429
4369000000.0 1.186 0.8608
4372000000.0 1.443 -0.3343
4375000000.0 0.6508 -1.317
4378000000.0 -0.5818 -1.41
4381000000.0 -1.486 -0.4386
4384000000.0 -1.262 0.878
4388000000.0 -0.1221 1.531
4391000000.0 1.143 1.079
4394000000.0 1.556 -0.2122
4397000000.0 0.8212 -1.392
4400000000.0 -0.5486 -1.492
4403000000.0 -1.506 -0.501
4406000000.0 -1.32 0.88
4409000000.0 -0.1272 1.584
4412000000.0 1.159 1.076
4416000000.0 1.548 -0.2791
4419000000.0 0.738 -1.342
4422000000.0 -0.5973 -1.391
4425000000.0 -1.445 -0.3801
4428000000.0 -1.184 0.8949
4431000000.0 -0.005538 1.457
4434000000.0 1.098 0.8569
4438000000.0 1.394 -0.3322
4441000000.0 0.5736 -1.251
4444000000.0 -0.6718 -1.204
4447000000.0 -1.34 -0.234
4450000000.0 -1.004 0.8988
4453000000.0 0.08165 1.281
4456000000.0 1.079 0.716
4459000000.0 1.222 -0.4173
4462000000.0 0.4219 -1.2
4466000000.0 -0.7027 -1.04
4469000000.0 -1.232 -0.08961
4472000000.0 -0.796 0.8943
4475000000.0 0.215 1.164
4478000000.0 1.052 0.5679
4481000000.0 1.062 -0.4982
4484000000.0 0.29 -1.124
4488000000.0 -0.7092 -0.9211
4491000000.0 -1.154 0.01422
4494000000.0 -0.7313 0.8668
4497000000.0 0.2443 1.131
4500000000.0 1.018 0.4852
4503000000.0 0.988 -0.4487
4506000000.0 0.2825 -1.075
4509000000.0 -0.644 -0.9193
4512000000.0 -1.127 -0.06634
4516000000.0 -0.7439 0.8457
4519000000.0 0.1724 1.109
4522000000.0 0.9857 0.573
4525000000.0 1.095 -0.3817
4528000000.0 0.3734 -1.094
4531000000.0 -0.6004 -0.9575
4534000000.0 -1.168 -0.1483
4538000000.0 -0.8512 0.8226
4541000000.0 0.07693 1.18
4544000000.0 0.9698 0.7053
4547000000.0 1.182 -0.3007
4550000000.0 0.5433 -1.07
4553000000.0 -0.4803 -1.099
4556000000.0 -1.164 -0.3238
4559000000.0 -1.038 0.6959
4562000000.0 -0.1222 1.231
4566000000.0 0.8565 0.8957
4569000000.0 1.264 -0.09082
4572000000.0 0.7592 -1.014
4575000000.0 -0.3001 -1.249
4578000000.0 -1.2 -0.5593
4581000000.0 -1.207 0.5612
4584000000.0 -0.3689 1.284
4588000000.0 0.7828 1.138
4591000000.0 1.336 0.125
4594000000.0 0.9925 -0.9766
4597000000.0 -0.1789 -1.348
4600000000.0 -1.164 -0.769
4603000000.0 -1.36 0.457
4606000000.0 -0.5147 1.298
4609000000.0 0.661 1.23
4612000000.0 1.388 0.2338
4616000000.0 1.077 -0.9188
4619000000.0 -0.01574 -1.38
4622000000.0 -1.126 -0.8684
4625000000.0 -1.363 0.318
4628000000.0 -0.6216 1.246
4631000000.0 0.5732 1.269
4634000000.0 1.334 0.3201
4638000000.0 1.118 -0.8404
4641000000.0 0.04948 -1.331
4644000000.0 -1.044 -0.9014
4647000000.0 -1.311 0.2518
4650000000.0 -0.5892 1.129
4653000000.0 0.5249 1.212
4656000000.0 1.262 0.3357
4659000000.0 1.002 -0.7686
4662000000.0 0.03601 -1.268
4666000000.0 -0.9348 -0.8069
4669000000.0 -1.19 0.2772
4672000000.0 -0.5656 1.095
4675000000.0 0.509 1.055
4678000000.0 1.142 0.2637
4681000000.0 0.899 -0.6792
4684000000.0 -0.002388 -1.131
4688000000.0 -0.871 -0.7132
4691000000.0 -1.083 0.2322
4694000000.0 -0.504 0.9892
4697000000.0 0.4774 0.9746
4700000000.0 1.103 0.2475
4703000000.0 0.8358 -0.6529
4706000000.0 0.02291 -1.081
4709000000.0 -0.8836 -0.6694
4712000000.0 -1.048 0.2653
4716000000.0 -0.4456 0.9806
4719000000.0 0.4932 0.9532
4722000000.0 1.032 0.2196
4725000000.0 0.8164 -0.6625
4728000000.0 -0.02005 -1.049
4731000000.0 -0.8172 -0.6464
4734000000.0 -1.012 0.2254
4738000000.0 -0.479 0.8972
4741000000.0 0.3957 0.962
4744000000.0 1.025 0.3038
4747000000.0 0.894 -0.5755
4750000000.0 0.1316 -1.057
4753000000.0 -0.7515 -0.7841
4756000000.0 -1.081 0.0803
4759000000.0 -0.6329 0.885
4762000000.0 0.2591 1.072
4766000000.0 1.027 0.4983
4769000000.0 1.031 -0.4825
4772000000.0 0.2668 -1.137
4775000000.0 -0.699 -0.9369
4778000000.0 -1.185 -0.06968
4781000000.0 -0.8421 0.8341
4784000000.0 0.09459 1.195
4788000000.0 0.9766 0.6941
4791000000.0 1.156 -0.309
4794000000.0 0.5175 -1.109
4797000000.0 -0.5221 -1.119
4800000000.0 -1.211 -0.3493
4803000000.0 -1.028 0.7019
4806000000.0 -0.138 1.233
4809000000.0 0.8817 0.9005
4812000000.0 1.294 -0.0842
4816000000.0 0.7703 -1.05
4819000000.0 -0.3145 -1.269
4822000000.0 -1.227 -0.5601
4825000000.0 -1.228 0.558
4828000000.0 -0.3313 1.321
4831000000.0 0.8244 1.134
4834000000.0 1.41 0.08249
4838000000.0 0.9635 -1.016
4841000000.0 -0.1918 -1.379
4844000000.0 -1.196 -0.7509
4847000000.0 -1.294 0.4608
4850000000.0 -0.4745 1.314
4853000000.0 0.71 1.189
4856000000.0 1.351 0.192
4859000000.0 0.9817 -0.9196
4862000000.0 -0.05717 -1.349
4866000000.0 -1.103 -0.7856
4869000000.0 -1.264 0.3484
4872000000.0 -0.5639 1.202
4875000000.0 0.5972 1.167
4878000000.0 1.238 0.2901
4881000000.0 1.003 -0.7865
4884000000.0 0.009401 -1.252
4888000000.0 -0.9643 -0.7918
4891000000.0 -1.17 0.2726
4894000000.0 -0.505 1.044
4897000000.0 0.48 1.051
4900000000.0 1.102 0.288
4903000000.0 0.891 -0.6568
4906000000.0 0.04254 -1.091
4909000000.0 -0.8149 -0.7017
4912000000.0 -1.028 0.1741
4916000000.0 -0.5006 0.8809
4919000000.0 0.3616 0.9391
4922000000.0 0.9531 0.314
4925000000.0 0.8271 -0.5441
4928000000.0 0.1172 -0.95
4931000000.0 -0.651 -0.6898
4934000000.0 -0.9473 0.08691
4938000000.0 -0.5315 0.7743
4941000000.0 0.2235 0.8797
4944000000.0 0.8685 0.3657
4947000000.0 0.8368 -0.444
4950000000.0 0.1956 -0.9192
4953000000.0 -0.5964 -0.7289
4956000000.0 -0.9605 -0.009005
4959000000.0 -0.625 0.7571
4962000000.0 0.1808 0.9894
4966000000.0 0.8788 0.4657
4969000000.0 0.9359 -0.3894
4972000000.0 0.2809 -0.9483
4975000000.0 -0.5845 -0.8115
4978000000.0 -1.019 -0.09442
4981000000.0 -0.7244 0.7276
4984000000.0 0.08694 1.031
4988000000.0 0.8743 0.5969
4991000000.0 1.033 -0.2559
4994000000.0 0.4452 -1.019
4997000000.0 -0.4808 -0.9797
5000000000.0 -1.102 -0.2526
5003000000.0 -0.8899 0.6802
5006000000.0 -0.05588 1.168
5009000000.0 0.8941 0.8153
5012000000.0 1.203 -0.1584
5016000000.0 0.5945 -1.03
5019000000.0 -0.4026 -1.171
5022000000.0 -1.195 -0.4275
5025000000.0 -1.103 0.6373
5028000000.0 -0.2028 1.26
5031000000.0 0.848 0.9437
5034000000.0 1.266 -0.0696
5038000000.0 0.781 -1.009
5041000000.0 -0.2898 -1.287
5044000000.0 -1.115 -0.5837
5047000000.0 -1.218 0.4936
5050000000.0 -0.3553 1.209
5053000000.0 0.7047 1.067
5056000000.0 1.264 0.1508
5059000000.0 0.9506 -0.8872
5062000000.0 -0.07162 -1.293
5066000000.0 -1.077 -0.7674
5069000000.0 -1.261 0.3156
5072000000.0 -0.5463 1.141
5075000000.0 0.5447 1.157
5078000000.0 1.224 0.311
5081000000.0 1.039 -0.7348
5084000000.0 0.1022 -1.254
5088000000.0 -0.8938 -0.8494
5091000000.0 -1.209 0.114
5094000000.0 -0.6557 0.9772
5097000000.0 0.3442 1.118
5100000000.0 1.106 0.4782
5103000000.0 1.041 -0.4959
5106000000.0 0.2704 -1.086
5109000000.0 -0.6558 -0.9024
5112000000.0 -1.071 -0.08205
5116000000.0 -0.766 0.7079
5119000000.0 0.09903 1.071
5122000000.0 0.8552 0.5913
5125000000.0 1.01 -0.2892
5128000000.0 0.4379 -0.929
5131000000.0 -0.4516 -0.8997
5134000000.0 -0.983 -0.2083
5138000000.0 -0.7706 0.6263
5141000000.0 -0.003299 0.9838
5144000000.0 0.7108 0.6525
5147000000.0 0.9335 -0.1691
5150000000.0 0.4388 -0.8092
5153000000.0 -0.3621 -0.8727
5156000000.0 -0.8811 -0.2638
5159000000.0 -0.7517 0.517
5162000000.0 -0.07437 0.9132
5166000000.0 0.662 0.6599
5169000000.0 0.8925 -0.09687
5172000000.0 0.4776 -0.7366
5175000000.0 -0.2943 -0.8721
5178000000.0 -0.8432 -0.3111
5181000000.0 -0.7977 0.4453
5184000000.0 -0.1168 0.9075
5188000000.0 0.6206 0.6926
5191000000.0 0.9166 -0.03194
5194000000.0 0.5152 -0.7714
5197000000.0 -0.2903 -0.8926
5200000000.0 -0.8484 -0.3483
5203000000.0 -0.8248 0.4514
5206000000.0 -0.1669 0.9518
5209000000.0 0.6671 0.7184
5212000000.0 0.9756 -0.0614
5216000000.0 0.5721 -0.8052
5219000000.0 -0.2546 -0.9419
5222000000.0 -0.8961 -0.4346
5225000000.0 -0.9195 0.4354
5228000000.0 -0.216 1.002
5231000000.0 0.6576 0.801
5234000000.0 1.014 0.03714
5238000000.0 0.691 -0.7836
5241000000.0 -0.1891 -1.016
5244000000.0 -0.9278 -0.5146
5247000000.0 -0.9974 0.3605
5250000000.0 -0.3545 1.003
5253000000.0 0.5611 0.9024
5256000000.0 1.058 0.1617
5259000000.0 0.8091 -0.7072
5262000000.0 -0.03725 -1.08
5266000000.0 -0.8566 -0.6737
5269000000.0 -1.049 0.2512
5272000000.0 -0.5238 0.983
5275000000.0 0.3981 1.043
5278000000.0 1.013 0.3766
5281000000.0 0.9522 -0.5582
5284000000.0 0.2004 -1.08
5288000000.0 -0.6751 -0.8639
5291000000.0 -1.112 -0.034
5294000000.0 -0.7246 0.8688
5297000000.0 0.159 1.132
5300000000.0 0.9358 0.6182
5303000000.0 1.084 -0.3596
5306000000.0 0.4239 -1.045
5309000000.0 -0.5109 -0.9937
5312000000.0 -1.116 -0.2471
5316000000.0 -0.9065 0.717
5319000000.0 -0.0138 1.156
5322000000.0 0.816 0.7531
5325000000.0 1.117 -0.1618
5328000000.0 0.5808 -0.949
5331000000.0 -0.3454 -1.122
5334000000.0 -1.029 -0.3921
5338000000.0 -0.993 0.5672
5341000000.0 -0.2092 1.109
5344000000.0 0.7299 0.8481
5347000000.0 1.126 -0.02594
5350000000.0 0.6989 -0.8511
5353000000.0 -0.2306 -1.075
5356000000.0 -0.9941 -0.5362
5359000000.0 -1.001 0.4101
5362000000.0 -0.3163 1.025
5366000000.0 0.6293 0.8885
5369000000.0 1.061 0.04755
5372000000.0 0.6954 -0.7825
5375000000.0 -0.1587 -1.018
5378000000.0 -0.8754 -0.5198
5381000000.0 -0.9257 0.3773
5384000000.0 -0.2727 0.9404
5388000000.0 0.5826 0.774
5391000000.0 0.9457 0.04988
5394000000.0 0.6388 -0.7167
5397000000.0 -0.1745 -0.9132
5400000000.0 -0.8274 -0.3966
5403000000.0 -0.8524 0.3705
5406000000.0 -0.2211 0.8605
5409000000.0 0.5257 0.7335
5412000000.0 0.8753 0.05667
5416000000.0 0.5488 -0.6507
5419000000.0 -0.1833 -0.8406
5422000000.0 -0.7323 -0.4341
5425000000.0 -0.8004 0.3583
5428000000.0 -0.2276 0.8548
5431000000.0 0.5178 0.686
5434000000.0 0.8628 0.01107
5438000000.0 0.5493 -0.6632
5441000000.0 -0.186 -0.8837
5444000000.0 -0.8029 -0.3767
5447000000.0 -0.7923 0.3621
5450000000.0 -0.2332 0.8662
5453000000.0 0.5187 0.7053
5456000000.0 0.9045 0.04846
5459000000.0 0.5882 -0.6779
5462000000.0 -0.1362 -0.8829
5466000000.0 -0.7981 -0.4752
5469000000.0 -0.8868 0.2779
5472000000.0 -0.3216 0.8378
5475000000.0 0.4444 0.8137
5478000000.0 0.9197 0.1816
5481000000.0 0.7645 -0.5944
5484000000.0 0.01593 -0.9561
5488000000.0 -0.7192 -0.6393
5491000000.0 -0.9673 0.1675
5494000000.0 -0.4961 0.8538
5497000000.0 0.3075 0.9547
5500000000.0 0.9344 0.3643
5503000000.0 0.8829 -0.5103
5506000000.0 0.1768 -1.025
5509000000.0 -0.6563 -0.7857
5512000000.0 -1.036 0.01864
5516000000.0 -0.658 0.8108
5519000000.0 0.1349 1.035
5522000000.0 0.9097 0.555
5525000000.0 0.9957 -0.3358
5528000000.0 0.3704 -0.9727
5531000000.0 -0.5041 -0.9061
5534000000.0 -1.032 -0.2278
5538000000.0 -0.8115 0.652
5541000000.0 -0.05695 1.079
5544000000.0 0.8001 0.6939
5547000000.0 1.033 -0.1416
5550000000.0 0.5684 -0.9364
5553000000.0 -0.3513 -1.027
5556000000.0 -0.9717 -0.4018
5559000000.0 -0.9364 0.5208
5562000000.0 -0.162 1.015
5566000000.0 0.6452 0.812
5569000000.0 1.02 -0.01788
5572000000.0 0.6179 -0.7785
5575000000.0 -0.1985 -0.9518
5578000000.0 -0.8869 -0.4731
5581000000.0 -0.927 0.3661
5584000000.0 -0.276 0.9314
5588000000.0 0.5658 0.7922
5591000000.0 0.9375 0.1129
5594000000.0 0.6578 -0.6442
5597000000.0 -0.0909 -0.9384
5600000000.0 -0.7602 -0.4999
5603000000.0 -0.8671 0.2505
5606000000.0 -0.3484 0.816
5609000000.0 0.4352 0.7853
5612000000.0 0.8551 0.174
5616000000.0 0.6712 -0.5618
5619000000.0 -0.03553 -0.8683
5622000000.0 -0.6776 -0.5282
5625000000.0 -0.8206 0.1813
5628000000.0 -0.3633 0.7813
5631000000.0 0.3822 0.7644
5634000000.0 0.8322 0.1896
5638000000.0 0.6322 -0.5196
5641000000.0 0.02062 -0.8181
5644000000.0 -0.6432 -0.4997
5647000000.0 -0.8186 0.184
5650000000.0 -0.3738 0.763
5653000000.0 0.3584 0.7866
5656000000.0 0.8223 0.238
5659000000.0 0.6941 -0.504
5662000000.0 0.01492 -0.8794
5666000000.0 -0.6793 -0.5479
5669000000.0 -0.8645 0.1662
5672000000.0 -0.3981 0.7818
5675000000.0 0.3591 0.843
5678000000.0 0.9043 0.2515
5681000000.0 0.7232 -0.5465
5684000000.0 0.02287 -0.9515
5688000000.0 -0.7132 -0.5976
5691000000.0 -0.9488 0.1705
5694000000.0 -0.4898 0.8411
5697000000.0 0.3769 0.9024
5700000000.0 0.9328 0.305
5703000000.0 0.8392 -0.5305
5706000000.0 0.107 -1.016
5709000000.0 -0.6804 -0.7157
5712000000.0 -1.031 0.1195
5716000000.0 -0.5799 0.8826
5719000000.0 0.3295 1.006
5722000000.0 0.9589 0.4177
5725000000.0 0.9572 -0.4743
5728000000.0 0.2414 -1.065
5731000000.0 -0.6663 -0.8546
5734000000.0 -1.089 -0.02006
5738000000.0 -0.7275 0.819
5741000000.0 0.1374 1.085
5744000000.0 0.9542 0.5903
5747000000.0 1.062 -0.3736
5750000000.0 0.3949 -1.024
5753000000.0 -0.5702 -0.93
5756000000.0 -1.085 -0.1916
5759000000.0 -0.8421 0.6969
5762000000.0 0.03082 1.106
5766000000.0 0.856 0.7123
5769000000.0 1.097 -0.1976
5772000000.0 0.5201 -0.972
5775000000.0 -0.4081 -1.038
5778000000.0 -1.067 -0.3746
5781000000.0 -0.9768 0.6035
5784000000.0 -0.137 1.085
5788000000.0 0.745 0.8153
5791000000.0 1.076 -0.01775
5794000000.0 0.666 -0.8522
5797000000.0 -0.2331 -1.051
5800000000.0 -0.9457 -0.4853
5803000000.0 -0.9673 0.4253
5806000000.0 -0.2959 0.9889
5809000000.0 0.5993 0.881
5812000000.0 1.045 0.1309
5816000000.0 0.7239 -0.7253
5819000000.0 -0.09151 -1.026
5822000000.0 -0.8083 -0.5596
5825000000.0 -0.9803 0.2789
5828000000.0 -0.3578 0.9289
5831000000.0 0.4974 0.8679
5834000000.0 0.9598 0.1989
5838000000.0 0.7212 -0.6378
5841000000.0 -0.0245 -0.9553
5844000000.0 -0.7492 -0.5838
5847000000.0 -0.9237 0.2398
5850000000.0 -0.4049 0.849
5853000000.0 0.3882 0.827
5856000000.0 0.8648 0.2281
5859000000.0 0.7335 -0.5888
5862000000.0 0.01709 -0.8925
5866000000.0 -0.7328 -0.5904
5869000000.0 -0.8991 0.1789
5872000000.0 -0.3673 0.8092
5875000000.0 0.3822 0.7908
5878000000.0 0.8479 0.2273
5881000000.0 0.7083 -0.5656
5884000000.0 0.04396 -0.8698
5888000000.0 -0.6651 -0.5414
5891000000.0 -0.8505 0.1457
5894000000.0 -0.4379 0.7388
5897000000.0 0.324 0.8194
5900000000.0 0.7784 0.2631
5903000000.0 0.7191 -0.4935
5906000000.0 0.1009 -0.8793
5909000000.0 -0.6023 -0.5884
5912000000.0 -0.8528 0.1043
5916000000.0 -0.4458 0.734
5919000000.0 0.242 0.8468
5922000000.0 0.8496 0.3181
5925000000.0 0.7607 -0.4146
5928000000.0 0.1516 -0.8682
5931000000.0 -0.563 -0.6951
5934000000.0 -0.9019 0.003492
5938000000.0 -0.5721 0.6983
5941000000.0 0.1578 0.8699
5944000000.0 0.7861 0.4645
5947000000.0 0.8753 -0.3068
5950000000.0 0.3157 -0.8829
5953000000.0 -0.4744 -0.7949
5956000000.0 -0.937 -0.1186
5959000000.0 -0.6913 0.6323
5962000000.0 0.0199 0.9555
5966000000.0 0.7384 0.5932
5969000000.0 0.9617 -0.1662
5972000000.0 0.4621 -0.8149
5975000000.0 -0.3397 -0.9012
5978000000.0 -0.9114 -0.3163
5981000000.0 -0.8379 0.5025
5984000000.0 -0.1439 0.9638
5988000000.0 0.6726 0.7389
5991000000.0 0.9925 -0.03026
5994000000.0 0.6151 -0.7852
5997000000.0 -0.2305 -0.9865
6000000000.0 -0.9023 -0.4624
6003000000.0 -0.9051 0.3867
6006000000.0 -0.2556 0.9695
6009000000.0 0.5782 0.8442
6012000000.0 0.9967 0.05447
6016000000.0 0.6872 -0.7316
6019000000.0 -0.1223 -0.9796
6022000000.0 -0.8613 -0.5215
6025000000.0 -0.9344 0.3283
6028000000.0 -0.3546 0.9353
6031000000.0 0.5021 0.8637
6034000000.0 0.9541 0.1563
6038000000.0 0.7333 -0.6438
6041000000.0 -0.03556 -0.9795
6044000000.0 -0.7752 -0.5827
6047000000.0 -0.9144 0.2152
6050000000.0 -0.3898 0.8672
6053000000.0 0.4086 0.8439
6056000000.0 0.9054 0.2124
6059000000.0 0.7243 -0.5661
6062000000.0 0.01261 -0.9112
6066000000.0 -0.6729 -0.5552
6069000000.0 -0.8752 0.1671
6072000000.0 -0.4017 0.7909
6075000000.0 0.3382 0.8237
6078000000.0 0.8308 0.2244
6081000000.0 0.7289 -0.5147
6084000000.0 0.04437 -0.8417
6088000000.0 -0.6688 -0.5738
6091000000.0 -0.8537 0.1057
6094000000.0 -0.4218 0.7307
6097000000.0 0.308 0.809
6100000000.0 0.836 0.2734
6103000000.0 0.7434 -0.4759
6106000000.0 0.09272 -0.8424
6109000000.0 -0.6273 -0.6123
6112000000.0 -0.8517 0.09592
6116000000.0 -0.4811 0.735
6119000000.0 0.2672 0.8501
6122000000.0 0.8144 0.3151
6125000000.0 0.7397 -0.4228
6128000000.0 0.1148 -0.889
6131000000.0 -0.5836 -0.6322
6134000000.0 -0.8867 0.04689
6138000000.0 -0.5208 0.7274
6141000000.0 0.243 0.8611
6144000000.0 0.8237 0.3674
6147000000.0 0.8001 -0.4004
6150000000.0 0.2197 -0.8825
6153000000.0 -0.5312 -0.7234
6156000000.0 -0.884 -0.009413
6159000000.0 -0.5865 0.7044
6162000000.0 0.1846 0.8885
6166000000.0 0.8456 0.4585
6169000000.0 0.8853 -0.3653
6172000000.0 0.2587 -0.9132
6175000000.0 -0.5204 -0.7891
6178000000.0 -0.9297 -0.084
6181000000.0 -0.6504 0.7131
6184000000.0 0.09174 0.9532
6188000000.0 0.8108 0.5085
6191000000.0 0.9056 -0.2728
6194000000.0 0.3455 -0.8725
6197000000.0 -0.4547 -0.8364
6200000000.0 -0.9341 -0.1947
6203000000.0 -0.7324 0.5809
6206000000.0 -0.03431 0.9094
6209000000.0 0.7055 0.5997
6212000000.0 0.9474 -0.1902
6216000000.0 0.439 -0.8457
6219000000.0 -0.3217 -0.8343
6222000000.0 -0.8701 -0.2754
6225000000.0 -0.7751 0.4715
6228000000.0 -0.09847 0.9291
6231000000.0 0.6346 0.6387
6234000000.0 0.8966 -0.05282
6238000000.0 0.5162 -0.696
6241000000.0 -0.2108 -0.8385
6244000000.0 -0.7882 -0.4001
6247000000.0 -0.7725 0.3361
6250000000.0 -0.2075 0.8264
6253000000.0 0.4754 0.6815
6256000000.0 0.8208 0.05603
6259000000.0 0.5831 -0.5678
6262000000.0 -0.0898 -0.8222
6266000000.0 -0.6634 -0.4349
