! Created with skrf 1.8.0 (http://scikit-rf.org).
# Hz S RI R 50.0 
!freq ReS11 ImS11
4000000000.0 -0.3698 -1.512
4003000000.0 -1.36 -0.6191
4006000000.0 -1.36 0.6735
4009000000.0 -0.3572 1.474
4012000000.0 0.9576 1.176
4016000000.0 1.53 -0.01519
4019000000.0 0.9768 -1.236
4022000000.0 -0.3325 -1.547
4025000000.0 -1.436 -0.715
4028000000.0 -1.506 0.6495
4031000000.0 -0.3917 1.553
4034000000.0 0.9378 1.267
4038000000.0 1.627 0.04312
4041000000.0 1.019 -1.258
4044000000.0 -0.3928 -1.61
4047000000.0 -1.457 -0.7325
4050000000.0 -1.501 0.6706
4053000000.0 -0.4111 1.552
4056000000.0 0.9336 1.287
4059000000.0 1.64 0.107
4062000000.0 1.122 -1.165
4066000000.0 -0.225 -1.612
4069000000.0 -1.344 -0.8902
4072000000.0 -1.572 0.4731
4075000000.0 -0.595 1.529
4078000000.0 0.798 1.45
4081000000.0 1.603 0.3463
4084000000.0 1.25 -1.013
4088000000.0 0.04017 -1.696
4091000000.0 -1.243 -1.106
4094000000.0 -1.632 0.2617
4097000000.0 -0.8179 1.433
4100000000.0 0.5824 1.501
4103000000.0 1.513 0.5005
4106000000.0 1.307 -0.817
4109000000.0 0.225 -1.536
4112000000.0 -0.981 -1.181
4116000000.0 -1.501 -0.001496
4119000000.0 -0.9837 1.139
4122000000.0 0.2367 1.473
4125000000.0 1.245 0.8042
4128000000.0 1.387 -0.4133
4131000000.0 0.6041 -1.331
4134000000.0 -0.6089 -1.299
4138000000.0 -1.427 -0.4012
4141000000.0 -1.241 0.8294
4144000000.0 -0.1763 1.477
4147000000.0 1.044 1.073
4150000000.0 1.512 -0.08016
4153000000.0 0.9183 -1.201
4156000000.0 -0.344 -1.461
4159000000.0 -1.36 -0.665
4162000000.0 -1.399 0.6093
4166000000.0 -0.3913 1.44
4169000000.0 0.8653 1.235
4172000000.0 1.451 0.1595
4175000000.0 1.065 -1.019
4178000000.0 -0.1334 -1.488
4181000000.0 -1.208 -0.868
4184000000.0 -1.433 0.3969
4188000000.0 -0.6336 1.37
4191000000.0 0.6579 1.332
4194000000.0 1.5 0.3444
4197000000.0 1.231 -0.9432
4200000000.0 0.01796 -1.573
4203000000.0 -1.237 -1.002
4206000000.0 -1.584 0.3914
4209000000.0 -0.6891 1.474
4212000000.0 0.7421 1.447
4216000000.0 1.629 0.2844
4219000000.0 1.185 -1.149
4222000000.0 -0.1806 -1.631
4225000000.0 -1.393 -0.8518
4228000000.0 -1.521 0.5938
4231000000.0 -0.4047 1.584
4234000000.0 0.9961 1.274
4238000000.0 1.598 -0.005922
4241000000.0 0.94 -1.271
4244000000.0 -0.4438 -1.493
4247000000.0 -1.416 -0.5416
4250000000.0 -1.299 0.761
4253000000.0 -0.1647 1.493
4256000000.0 1.073 0.9996
4259000000.0 1.462 -0.2052
4262000000.0 0.7413 -1.263
4266000000.0 -0.5253 -1.297
4269000000.0 -1.364 -0.3909
4272000000.0 -1.191 0.8475
4275000000.0 -0.05048 1.388
4278000000.0 1.056 0.9155
4281000000.0 1.34 -0.2544
4284000000.0 0.6167 -1.209
4288000000.0 -0.5656 -1.248
4291000000.0 -1.304 -0.3901
4294000000.0 -1.086 0.7788
4297000000.0 -0.1013 1.324
4300000000.0 0.912 0.8905
4303000000.0 1.275 -0.167
4306000000.0 0.719 -1.039
4309000000.0 -0.3435 -1.241
4312000000.0 -1.172 -0.5026
4316000000.0 -1.152 0.5533
4319000000.0 -0.3238 1.246
4322000000.0 0.7467 1.081
4325000000.0 1.314 0.1203
4328000000.0 0.9291 -0.9499
4331000000.0 -0.1045 -1.38
4334000000.0 -1.155 -0.7899
4338000000.0 -1.357 0.3706
4341000000.0 -0.5915 1.268
4344000000.0 0.5954 1.27
4347000000.0 1.42 0.3473
4350000000.0 1.174 -0.8683
4353000000.0 0.05664 -1.508
4356000000.0 -1.097 -0.9482
4359000000.0 -1.45 0.2328
4362000000.0 -0.765 1.277
4366000000.0 0.537 1.375
4369000000.0 1.451 0.489
4372000000.0 1.262 -0.7693
4375000000.0 0.1961 -1.482
4378000000.0 -1.034 -1.122
4381000000.0 -1.556 0.1047
4384000000.0 -0.857 1.267
4388000000.0 0.472 1.46
4391000000.0 1.451 0.5819
4394000000.0 1.34 -0.7792
4397000000.0 0.2095 -1.535
4400000000.0 -1.107 -1.128
4403000000.0 -1.567 0.1469
4406000000.0 -0.7809 1.346
4409000000.0 0.5585 1.415
4412000000.0 1.437 0.4094
4416000000.0 1.196 -0.8974
4419000000.0 -0.02787 -1.435
4422000000.0 -1.15 -0.8974
4425000000.0 -1.371 0.3116
4428000000.0 -0.5632 1.241
4431000000.0 0.6278 1.192
4434000000.0 1.331 0.2279
4438000000.0 0.9508 -0.8673
4441000000.0 -0.1015 -1.281
4444000000.0 -1.087 -0.6726
4447000000.0 -1.176 0.4231
4450000000.0 -0.4004 1.19
4453000000.0 0.6839 1.006
4456000000.0 1.193 0.07013
4459000000.0 0.8045 -0.9132
4462000000.0 -0.235 -1.16
4466000000.0 -1.036 -0.5549
4469000000.0 -1.061 0.4703
4472000000.0 -0.2615 1.163
4475000000.0 0.7033 0.9163
4478000000.0 1.188 -0.01637
4481000000.0 0.7139 -0.9074
4484000000.0 -0.2512 -1.14
4488000000.0 -1.033 -0.4989
4491000000.0 -1.04 0.4988
4494000000.0 -0.2528 1.14
4497000000.0 0.7016 0.9118
4500000000.0 1.15 0.04011
4503000000.0 0.7291 -0.8702
4506000000.0 -0.2065 -1.12
4509000000.0 -1.029 -0.5612
4512000000.0 -1.074 0.4255
4516000000.0 -0.361 1.104
4519000000.0 0.6408 1.018
4522000000.0 1.186 0.1317
4525000000.0 0.8718 -0.8357
4528000000.0 -0.09917 -1.224
4531000000.0 -1.001 -0.6953
4534000000.0 -1.192 0.3442
4538000000.0 -0.5216 1.141
4541000000.0 0.5384 1.142
4544000000.0 1.2 0.307
4547000000.0 1.036 -0.7431
4550000000.0 0.08624 -1.281
4553000000.0 -0.9229 -0.8813
4556000000.0 -1.276 0.1429
4559000000.0 -0.7411 1.096
4562000000.0 0.3628 1.266
4566000000.0 1.22 0.5311
4569000000.0 1.177 -0.5815
4572000000.0 0.3195 -1.277
4575000000.0 -0.8235 -1.118
4578000000.0 -1.344 -0.071
4581000000.0 -0.9248 1.025
4584000000.0 0.1883 1.36
4588000000.0 1.187 0.7163
4591000000.0 1.342 -0.4598
4594000000.0 0.4732 -1.335
4597000000.0 -0.7549 -1.203
4600000000.0 -1.379 -0.1928
4603000000.0 -1.053 0.9515
4606000000.0 0.09339 1.422
4609000000.0 1.158 0.8211
4612000000.0 1.341 -0.3478
4616000000.0 0.5363 -1.293
4619000000.0 -0.6202 -1.218
4622000000.0 -1.32 -0.2401
4625000000.0 -1.029 0.8771
4628000000.0 0.04279 1.341
4631000000.0 1.068 0.7814
4634000000.0 1.287 -0.3331
4638000000.0 0.5432 -1.212
4641000000.0 -0.5813 -1.178
4644000000.0 -1.252 -0.2404
4647000000.0 -0.9848 0.818
4650000000.0 0.05291 1.29
4653000000.0 1.004 0.7289
4656000000.0 1.146 -0.3078
4659000000.0 0.445 -1.154
4662000000.0 -0.6086 -1.036
4666000000.0 -1.156 -0.1658
4669000000.0 -0.8432 0.7861
4672000000.0 0.0855 1.107
4675000000.0 0.9197 0.6225
4678000000.0 1.06 -0.3414
4681000000.0 0.3948 -1.041
4684000000.0 -0.553 -0.9573
4688000000.0 -1.071 -0.1587
4691000000.0 -0.8012 0.731
4694000000.0 0.04225 1.086
4697000000.0 0.8641 0.63
4700000000.0 1.03 -0.3081
4703000000.0 0.4423 -0.9838
4706000000.0 -0.5632 -0.9554
4709000000.0 -1.09 -0.2054
4712000000.0 -0.8 0.7321
4716000000.0 0.05341 1.114
4719000000.0 0.8522 0.6265
4722000000.0 1.04 -0.3011
4725000000.0 0.4808 -0.9852
4728000000.0 -0.4706 -0.9711
4731000000.0 -1.053 -0.2953
4734000000.0 -0.8658 0.6708
4738000000.0 -0.06213 1.072
4741000000.0 0.7904 0.7619
4744000000.0 1.091 -0.1073
4747000000.0 0.5924 -0.9119
4750000000.0 -0.3224 -1.098
4753000000.0 -1.086 -0.4527
4756000000.0 -1.051 0.5088
4759000000.0 -0.2669 1.14
4762000000.0 0.7059 0.9743
4766000000.0 1.255 0.07989
4769000000.0 0.8403 -0.8809
4772000000.0 -0.1719 -1.2
4775000000.0 -1.047 -0.6907
4778000000.0 -1.213 0.3923
4781000000.0 -0.497 1.176
4784000000.0 0.586 1.15
4788000000.0 1.255 0.2863
4791000000.0 1.04 -0.7932
4794000000.0 0.05925 -1.314
4797000000.0 -0.9911 -0.8839
4800000000.0 -1.337 0.1554
4803000000.0 -0.7308 1.138
4806000000.0 0.3983 1.272
4809000000.0 1.237 0.5198
4812000000.0 1.209 -0.6199
4816000000.0 0.2916 -1.35
4819000000.0 -0.8684 -1.118
4822000000.0 -1.395 -0.03575
4825000000.0 -0.9049 1.059
4828000000.0 0.2838 1.38
4831000000.0 1.241 0.6582
4834000000.0 1.295 -0.5577
4838000000.0 0.3973 -1.314
4841000000.0 -0.8255 -1.139
4844000000.0 -1.352 -0.09153
4847000000.0 -0.9153 1.011
4850000000.0 0.1895 1.323
4853000000.0 1.137 0.6848
4856000000.0 1.24 -0.4523
4859000000.0 0.4062 -1.237
4862000000.0 -0.6653 -1.062
4866000000.0 -1.236 -0.1714
4869000000.0 -0.8664 0.8686
4872000000.0 0.08484 1.214
4875000000.0 0.9816 0.6784
4878000000.0 1.115 -0.3315
4881000000.0 0.4294 -1.097
4884000000.0 -0.5468 -0.9959
4888000000.0 -1.088 -0.1675
4891000000.0 -0.816 0.718
4894000000.0 0.07188 1.079
4897000000.0 0.8538 0.5908
4900000000.0 0.9942 -0.3013
4903000000.0 0.41 -0.9361
4906000000.0 -0.4527 -0.8712
4909000000.0 -0.9856 -0.198
4912000000.0 -0.7434 0.6268
4916000000.0 0.03502 0.9863
4919000000.0 0.7729 0.5733
4922000000.0 0.9192 -0.2262
4925000000.0 0.4068 -0.8245
4928000000.0 -0.3853 -0.8288
4931000000.0 -0.9039 -0.2364
4934000000.0 -0.7656 0.5594
4938000000.0 -0.06283 0.932
4941000000.0 0.7012 0.6441
4944000000.0 0.9617 -0.1467
4947000000.0 0.5214 -0.8359
4950000000.0 -0.3227 -0.9397
4953000000.0 -0.9453 -0.3372
4956000000.0 -0.878 0.4654
4959000000.0 -0.1417 1.008
4962000000.0 0.686 0.7841
4966000000.0 1.06 -0.03655
4969000000.0 0.6643 -0.846
4972000000.0 -0.2629 -1.045
4975000000.0 -0.9767 -0.4715
4978000000.0 -1.007 0.4638
4981000000.0 -0.2707 1.08
4984000000.0 0.6622 0.9303
4988000000.0 1.129 0.05639
4991000000.0 0.8014 -0.8573
4994000000.0 -0.149 -1.195
4997000000.0 -1.023 -0.6742
5000000000.0 -1.162 0.3932
5003000000.0 -0.4295 1.143
5006000000.0 0.6284 1.129
5009000000.0 1.255 0.2347
5012000000.0 0.9673 -0.8385
5016000000.0 -0.01516 -1.324
5019000000.0 -1.036 -0.7994
5022000000.0 -1.27 0.2873
5025000000.0 -0.5989 1.207
5028000000.0 0.5383 1.224
5031000000.0 1.241 0.3737
5034000000.0 1.096 -0.7556
5038000000.0 0.0971 -1.319
5041000000.0 -0.9047 -0.8969
5044000000.0 -1.272 0.1372
5047000000.0 -0.7409 1.012
5050000000.0 0.3345 1.192
5053000000.0 1.139 0.4901
5056000000.0 1.114 -0.5264
5059000000.0 0.2847 -1.234
5062000000.0 -0.7543 -0.94
5066000000.0 -1.216 -0.04537
5069000000.0 -0.8262 0.8844
5072000000.0 0.2026 1.139
5075000000.0 1.011 0.5842
5078000000.0 1.076 -0.4089
5081000000.0 0.4048 -1.081
5084000000.0 -0.5901 -0.9561
5088000000.0 -1.107 -0.1688
5091000000.0 -0.7761 0.7233
5094000000.0 0.1061 1.031
5097000000.0 0.8451 0.6483
5100000000.0 1.002 -0.2524
5103000000.0 0.3919 -0.9283
5106000000.0 -0.4274 -0.8943
5109000000.0 -0.9386 -0.202
5112000000.0 -0.7434 0.5594
5116000000.0 -0.0199 0.9152
5119000000.0 0.6463 0.598
5122000000.0 0.9269 -0.1768
5125000000.0 0.4027 -0.8116
5128000000.0 -0.3471 -0.8497
5131000000.0 -0.8855 -0.2203
5134000000.0 -0.7323 0.5394
5138000000.0 -0.000816 0.9251
5141000000.0 0.6868 0.5967
5144000000.0 0.8436 -0.2176
5147000000.0 0.4065 -0.7933
5150000000.0 -0.3621 -0.8082
5153000000.0 -0.8398 -0.1922
5156000000.0 -0.6815 0.5522
5159000000.0 0.01379 0.8899
5162000000.0 0.7125 0.503
5166000000.0 0.8514 -0.2144
5169000000.0 0.4108 -0.8402
5172000000.0 -0.4169 -0.807
5175000000.0 -0.9121 -0.1912
5178000000.0 -0.6774 0.6167
5181000000.0 0.02332 0.9805
5184000000.0 0.769 0.5626
5188000000.0 0.9295 -0.2437
5191000000.0 0.3988 -0.8816
5194000000.0 -0.43 -0.8783
5197000000.0 -0.9566 -0.1881
5200000000.0 -0.7588 0.6381
5203000000.0 0.03151 1.026
5206000000.0 0.7822 0.6192
5209000000.0 1.01 -0.2511
5212000000.0 0.456 -0.9265
5216000000.0 -0.4602 -0.9489
5219000000.0 -1.039 -0.2513
5222000000.0 -0.8441 0.6315
5225000000.0 -0.05997 1.06
5228000000.0 0.7901 0.7038
5231000000.0 1.092 -0.1414
5234000000.0 0.5712 -0.9282
5238000000.0 -0.3294 -1.029
5241000000.0 -1.021 -0.4023
5244000000.0 -0.9384 0.5555
5247000000.0 -0.1925 1.098
5250000000.0 0.7496 0.8149
5253000000.0 1.104 -0.01356
5256000000.0 0.6874 -0.8731
5259000000.0 -0.2406 -1.065
5262000000.0 -1.01 -0.5029
5266000000.0 -1.001 0.4311
5269000000.0 -0.2566 1.067
5272000000.0 0.6399 0.8955
5275000000.0 1.107 0.0533
5278000000.0 0.7463 -0.7779
5281000000.0 -0.1395 -1.053
5284000000.0 -0.936 -0.5809
5288000000.0 -1.028 0.4013
5291000000.0 -0.3495 1.021
5294000000.0 0.5702 0.892
5297000000.0 1.047 0.1162
5300000000.0 0.7385 -0.7659
5303000000.0 -0.1617 -1.041
5306000000.0 -0.8858 -0.5146
5309000000.0 -0.9446 0.3631
5312000000.0 -0.2787 0.968
5316000000.0 0.6314 0.8093
5319000000.0 0.982 -0.005824
5322000000.0 0.5943 -0.7815
5325000000.0 -0.2905 -0.937
5328000000.0 -0.8979 -0.3147
5331000000.0 -0.8054 0.5099
5334000000.0 -0.05822 0.9635
5338000000.0 0.6888 0.5903
5341000000.0 0.9048 -0.1943
5344000000.0 0.3446 -0.8363
5347000000.0 -0.5065 -0.7921
5350000000.0 -0.8973 -0.09915
5353000000.0 -0.6166 0.6519
5356000000.0 0.1502 0.8537
5359000000.0 0.8046 0.3921
5362000000.0 0.8085 -0.3822
5366000000.0 0.1644 -0.8852
5369000000.0 -0.597 -0.6534
5372000000.0 -0.9107 0.06949
5375000000.0 -0.4984 0.7406
5378000000.0 0.3195 0.85
5381000000.0 0.8786 0.3025
5384000000.0 0.768 -0.484
5388000000.0 0.09819 -0.933
5391000000.0 -0.6861 -0.6512
5394000000.0 -0.9235 0.1416
5397000000.0 -0.5057 0.8286
5400000000.0 0.3504 0.8899
5403000000.0 0.9135 0.2878
5406000000.0 0.8195 -0.5495
5409000000.0 0.1175 -0.9853
5412000000.0 -0.7052 -0.7427
5416000000.0 -1.026 0.07183
5419000000.0 -0.5813 0.8687
5422000000.0 0.3258 1.014
5425000000.0 1.0 0.4187
5428000000.0 0.9486 -0.5393
5431000000.0 0.1966 -1.123
5434000000.0 -0.7209 -0.8667
5438000000.0 -1.141 0.07098
5441000000.0 -0.6881 0.9685
5444000000.0 0.3197 1.073
5447000000.0 1.078 0.4558
5450000000.0 1.05 -0.5697
5453000000.0 0.1572 -1.156
5456000000.0 -0.8164 -0.8455
5459000000.0 -1.178 0.1273
5462000000.0 -0.615 0.9785
5466000000.0 0.393 1.056
5469000000.0 1.051 0.3601
5472000000.0 0.9251 -0.669
5475000000.0 0.06561 -1.109
5478000000.0 -0.8517 -0.7132
5481000000.0 -1.065 0.2243
5484000000.0 -0.4484 0.9681
5488000000.0 0.4873 0.9204
5491000000.0 1.032 0.12
5494000000.0 0.7453 -0.6804
5497000000.0 -0.08203 -0.9727
5500000000.0 -0.8381 -0.466
5503000000.0 -0.8376 0.3702
5506000000.0 -0.2148 0.879
5509000000.0 0.5999 0.6701
5512000000.0 0.8966 -0.04345
5516000000.0 0.4715 -0.7118
5519000000.0 -0.2861 -0.8019
5522000000.0 -0.7836 -0.2188
5525000000.0 -0.6397 0.5023
5528000000.0 -0.04268 0.8259
5531000000.0 0.641 0.5374
5534000000.0 0.7971 -0.1944
5538000000.0 0.3215 -0.735
5541000000.0 -0.4091 -0.7007
5544000000.0 -0.8502 -0.09981
5547000000.0 -0.58 0.59
5550000000.0 0.09699 0.8688
5553000000.0 0.7329 0.4585
5556000000.0 0.8336 -0.3393
5559000000.0 0.2433 -0.8488
5562000000.0 -0.4926 -0.7296
5566000000.0 -0.8822 -0.06952
5569000000.0 -0.5725 0.6629
5572000000.0 0.15 0.8522
5575000000.0 0.7804 0.4388
5578000000.0 0.8646 -0.3413
5581000000.0 0.2817 -0.8982
5584000000.0 -0.5248 -0.814
5588000000.0 -0.9607 -0.08498
5591000000.0 -0.6865 0.6892
5594000000.0 0.1484 0.9818
5597000000.0 0.8315 0.5103
5600000000.0 0.9422 -0.3339
5603000000.0 0.3454 -0.9573
5606000000.0 -0.499 -0.891
5609000000.0 -1.02 -0.1411
5612000000.0 -0.7757 0.72
5616000000.0 0.06891 1.043
5619000000.0 0.875 0.6002
5622000000.0 1.03 -0.2884
5625000000.0 0.4469 -0.9678
5628000000.0 -0.4989 -0.9331
5631000000.0 -1.035 -0.209
5634000000.0 -0.8175 0.693
5638000000.0 0.004192 1.063
5641000000.0 0.8354 0.6434
5644000000.0 1.023 -0.2499
5647000000.0 0.4496 -0.9323
5650000000.0 -0.4844 -0.9291
5653000000.0 -1.004 -0.2361
5656000000.0 -0.7988 0.6333
5659000000.0 -0.002742 1.05
5662000000.0 0.8154 0.6349
5666000000.0 1.001 -0.2129
5669000000.0 0.4163 -0.921
5672000000.0 -0.4711 -0.8803
5675000000.0 -0.9922 -0.1807
5678000000.0 -0.7437 0.6219
5681000000.0 0.07782 0.9546
5684000000.0 0.7717 0.5272
5688000000.0 0.889 -0.3033
5691000000.0 0.2946 -0.9022
5694000000.0 -0.5029 -0.764
5697000000.0 -0.9411 -0.06328
5700000000.0 -0.6052 0.6822
5703000000.0 0.2099 0.9144
5706000000.0 0.8275 0.4287
5709000000.0 0.8124 -0.4278
5712000000.0 0.2003 -0.8868
5716000000.0 -0.6001 -0.6725
5719000000.0 -0.9056 0.07996
5722000000.0 -0.4891 0.7635
5725000000.0 0.2793 0.8735
5728000000.0 0.8562 0.2716
5731000000.0 0.8001 -0.4992
5734000000.0 0.06881 -0.9213
5738000000.0 -0.673 -0.6274
5741000000.0 -0.9215 0.1264
5744000000.0 -0.4869 0.8429
5747000000.0 0.3605 0.8795
5750000000.0 0.9332 0.2712
5753000000.0 0.7426 -0.5792
5756000000.0 0.04942 -0.979
5759000000.0 -0.755 -0.6667
5762000000.0 -0.9844 0.1906
5766000000.0 -0.4594 0.8678
5769000000.0 0.3908 0.9506
5772000000.0 0.9594 0.3227
5775000000.0 0.8402 -0.5962
5778000000.0 0.07778 -1.006
5781000000.0 -0.745 -0.6919
5784000000.0 -1.038 0.1179
5788000000.0 -0.5781 0.8495
5791000000.0 0.3054 0.9745
5794000000.0 1.005 0.3996
5797000000.0 0.9152 -0.4957
5800000000.0 0.1764 -1.032
5803000000.0 -0.672 -0.7863
5806000000.0 -1.086 -0.04112
5809000000.0 -0.6587 0.8344
5812000000.0 0.1906 1.026
5816000000.0 0.9099 0.504
5819000000.0 0.9669 -0.3834
5822000000.0 0.3268 -1.01
5825000000.0 -0.5832 -0.8756
5828000000.0 -1.031 -0.1343
5831000000.0 -0.7614 0.7438
5834000000.0 0.07747 1.028
5838000000.0 0.8383 0.5858
5841000000.0 1.025 -0.3066
5844000000.0 0.3966 -0.9469
5847000000.0 -0.4803 -0.9345
5850000000.0 -1.013 -0.2263
5853000000.0 -0.8132 0.6593
5856000000.0 0.01703 1.053
5859000000.0 0.818 0.6113
5862000000.0 0.9978 -0.2089
5866000000.0 0.4598 -0.902
5869000000.0 -0.4186 -0.9238
5872000000.0 -0.9472 -0.2537
5875000000.0 -0.7989 0.5889
5878000000.0 -0.02699 0.9717
5881000000.0 0.7334 0.6115
5884000000.0 0.9308 -0.2072
5888000000.0 0.4254 -0.8553
5891000000.0 -0.42 -0.8676
5894000000.0 -0.8841 -0.1953
5897000000.0 -0.7164 0.5533
5900000000.0 -0.02514 0.9184
5903000000.0 0.6994 0.577
5906000000.0 0.8892 -0.1634
5909000000.0 0.4074 -0.7499
5912000000.0 -0.351 -0.8087
5916000000.0 -0.8634 -0.1806
5919000000.0 -0.6883 0.5213
5922000000.0 -0.05504 0.8484
5925000000.0 0.6271 0.5381
5928000000.0 0.8181 -0.1698
5931000000.0 0.379 -0.7485
5934000000.0 -0.3562 -0.7526
5938000000.0 -0.8059 -0.202
5941000000.0 -0.7065 0.4957
5944000000.0 -0.04262 0.8376
5947000000.0 0.6352 0.5612
5950000000.0 0.8359 -0.1053
5953000000.0 0.4363 -0.7123
5956000000.0 -0.2979 -0.7887
5959000000.0 -0.7965 -0.2809
5962000000.0 -0.7251 0.4541
5966000000.0 -0.1103 0.8513
5969000000.0 0.565 0.6398
5972000000.0 0.8874 -0.04677
5975000000.0 0.5146 -0.6843
5978000000.0 -0.2256 -0.8537
5981000000.0 -0.8066 -0.3818
5984000000.0 -0.7813 0.3978
5988000000.0 -0.2602 0.8676
5991000000.0 0.523 0.7405
5994000000.0 0.9477 0.08223
5997000000.0 0.6236 -0.655
6000000000.0 -0.1009 -0.9394
6003000000.0 -0.7765 -0.4923
6006000000.0 -0.8843 0.2649
6009000000.0 -0.3792 0.8834
6012000000.0 0.4498 0.8219
6016000000.0 0.9454 0.2082
6019000000.0 0.7691 -0.5745
6022000000.0 -0.007913 -0.9816
6025000000.0 -0.7178 -0.6352
6028000000.0 -0.9563 0.1557
6031000000.0 -0.4914 0.8696
6034000000.0 0.3804 0.8956
6038000000.0 0.9744 0.3191
6041000000.0 0.8314 -0.5138
6044000000.0 0.09194 -0.9961
6047000000.0 -0.6616 -0.7061
6050000000.0 -1.005 0.08168
6053000000.0 -0.5557 0.8415
6056000000.0 0.3066 0.9503
6059000000.0 0.9322 0.3941
6062000000.0 0.8571 -0.4693
6066000000.0 0.1639 -0.9887
6069000000.0 -0.661 -0.7517
6072000000.0 -0.9981 0.03345
6075000000.0 -0.5903 0.7708
6078000000.0 0.2273 0.9206
6081000000.0 0.8659 0.4155
6084000000.0 0.8615 -0.4267
6088000000.0 0.2395 -0.9106
6091000000.0 -0.5854 -0.7283
6094000000.0 -0.9218 0.005878
6097000000.0 -0.6099 0.7358
6100000000.0 0.208 0.8464
6103000000.0 0.7867 0.425
6106000000.0 0.8113 -0.3781
6109000000.0 0.2296 -0.8775
6112000000.0 -0.5365 -0.7205
6116000000.0 -0.9051 -0.005248
6119000000.0 -0.5676 0.6563
6122000000.0 0.1245 0.8552
6125000000.0 0.7869 0.3731
6128000000.0 0.7493 -0.3545
6131000000.0 0.2417 -0.8105
6134000000.0 -0.4877 -0.6957
6138000000.0 -0.8448 -0.002748
6141000000.0 -0.5302 0.643
6144000000.0 0.138 0.8324
6147000000.0 0.7446 0.4178
6150000000.0 0.7454 -0.3342
6153000000.0 0.2626 -0.7688
6156000000.0 -0.4851 -0.7003
6159000000.0 -0.8344 -0.1132
6162000000.0 -0.5728 0.6107
6166000000.0 0.1293 0.8203
6169000000.0 0.7361 0.4503
6172000000.0 0.8249 -0.2837
6175000000.0 0.2644 -0.8435
6178000000.0 -0.4412 -0.7433
6181000000.0 -0.8337 -0.07551
6184000000.0 -0.6194 0.5685
6188000000.0 0.06435 0.8592
6191000000.0 0.7428 0.4998
6194000000.0 0.8396 -0.2401
6197000000.0 0.301 -0.8058
6200000000.0 -0.4059 -0.7817
6203000000.0 -0.8771 -0.1652
6206000000.0 -0.6784 0.6005
6209000000.0 0.01218 0.8875
6212000000.0 0.6977 0.5521
6216000000.0 0.8936 -0.2111
6219000000.0 0.4282 -0.8001
6222000000.0 -0.3916 -0.798
6225000000.0 -0.8791 -0.2489
6228000000.0 -0.7376 0.5266
6231000000.0 -0.07246 0.8816
6234000000.0 0.6661 0.5951
6238000000.0 0.8663 -0.1011
6241000000.0 0.4645 -0.7486
6244000000.0 -0.2485 -0.8154
6247000000.0 -0.7734 -0.3005
6250000000.0 -0.7351 0.4135
6253000000.0 -0.1459 0.8404
6256000000.0 0.5454 0.6565
6259000000.0 0.8329 0.0311
6262000000.0 0.5376 -0.6417
6266000000.0 -0.1245 -0.8127
