! Created with skrf 1.8.0 (http://scikit-rf.org).
# Hz S RI R 50.0 
!freq ReS11 ImS11
4000000000.0 -1.009 -1.163
4003000000.0 -1.491 0.04833
4006000000.0 -0.9243 1.244
4009000000.0 0.4375 1.512
4012000000.0 1.435 0.6015
4016000000.0 1.379 -0.7712
4019000000.0 0.2697 -1.526
4022000000.0 -1.098 -1.204
4025000000.0 -1.657 0.1551
4028000000.0 -0.9574 1.399
4031000000.0 0.5503 1.631
4034000000.0 1.573 0.5705
4038000000.0 1.442 -0.8876
4041000000.0 0.2082 -1.665
4044000000.0 -1.136 -1.219
4047000000.0 -1.646 0.153
4050000000.0 -0.931 1.355
4053000000.0 0.5262 1.565
4056000000.0 1.463 0.5965
4059000000.0 1.389 -0.7939
4062000000.0 0.282 -1.596
4066000000.0 -1.043 -1.228
4069000000.0 -1.591 0.05863
4072000000.0 -0.9651 1.224
4075000000.0 0.3205 1.573
4078000000.0 1.387 0.7392
4081000000.0 1.468 -0.6333
4084000000.0 0.4083 -1.486
4088000000.0 -0.9014 -1.292
4091000000.0 -1.558 -0.1491
4094000000.0 -1.083 1.157
4097000000.0 0.1707 1.51
4100000000.0 1.243 0.8178
4103000000.0 1.421 -0.4825
4106000000.0 0.5332 -1.392
4109000000.0 -0.722 -1.291
4112000000.0 -1.385 -0.2553
4116000000.0 -1.077 0.9204
4119000000.0 0.01157 1.378
4122000000.0 1.074 0.8833
4125000000.0 1.351 -0.2708
4128000000.0 0.6415 -1.179
4131000000.0 -0.4975 -1.268
4134000000.0 -1.286 -0.371
4138000000.0 -1.136 0.7239
4141000000.0 -0.1325 1.37
4144000000.0 0.9995 0.9568
4147000000.0 1.353 -0.1967
4150000000.0 0.6997 -1.229
4153000000.0 -0.5571 -1.286
4156000000.0 -1.364 -0.329
4159000000.0 -1.099 0.8987
4162000000.0 0.06918 1.399
4166000000.0 1.184 0.7556
4169000000.0 1.321 -0.5345
4172000000.0 0.4163 -1.324
4175000000.0 -0.814 -1.097
4178000000.0 -1.427 0.04266
4181000000.0 -0.8103 1.187
4184000000.0 0.4467 1.327
4188000000.0 1.361 0.3951
4191000000.0 1.105 -0.8627
4194000000.0 -0.08641 -1.418
4197000000.0 -1.188 -0.7297
4200000000.0 -1.315 0.4967
4203000000.0 -0.3658 1.375
4206000000.0 0.8789 1.097
4209000000.0 1.439 -0.1146
4212000000.0 0.7391 -1.228
4216000000.0 -0.5711 -1.297
4219000000.0 -1.383 -0.3277
4222000000.0 -1.098 0.8907
4225000000.0 0.03876 1.461
4228000000.0 1.164 0.8101
4231000000.0 1.327 -0.3928
4234000000.0 0.4336 -1.296
4238000000.0 -0.7123 -1.185
4241000000.0 -1.358 -0.1563
4244000000.0 -0.9622 0.9724
4247000000.0 0.1793 1.367
4250000000.0 1.142 0.7608
4253000000.0 1.313 -0.4368
4256000000.0 0.4565 -1.31
4259000000.0 -0.7263 -1.208
4262000000.0 -1.388 -0.2048
4266000000.0 -1.042 0.9638
4269000000.0 0.08372 1.441
4272000000.0 1.212 0.8218
4275000000.0 1.417 -0.441
4278000000.0 0.5462 -1.394
4281000000.0 -0.7376 -1.291
4284000000.0 -1.503 -0.2217
4288000000.0 -1.13 1.052
4291000000.0 0.1601 1.515
4294000000.0 1.25 0.847
4297000000.0 1.467 -0.4907
4300000000.0 0.5434 -1.418
4303000000.0 -0.7593 -1.304
4306000000.0 -1.549 -0.1296
4309000000.0 -1.057 1.067
4312000000.0 0.2341 1.574
4316000000.0 1.361 0.7954
4319000000.0 1.479 -0.5496
4322000000.0 0.453 -1.54
4325000000.0 -0.9568 -1.294
4328000000.0 -1.599 -0.02128
4331000000.0 -0.9653 1.29
4334000000.0 0.4756 1.566
4338000000.0 1.5 0.493
4341000000.0 1.366 -0.9031
4344000000.0 0.0463 -1.584
4347000000.0 -1.265 -0.9994
4350000000.0 -1.539 0.4083
4353000000.0 -0.5371 1.437
4356000000.0 0.8041 1.288
4359000000.0 1.468 0.09417
4362000000.0 0.929 -1.089
4366000000.0 -0.3233 -1.395
4369000000.0 -1.255 -0.582
4372000000.0 -1.233 0.6341
4375000000.0 -0.2626 1.345
4378000000.0 0.8926 0.9986
4381000000.0 1.303 -0.07654
4384000000.0 0.7745 -1.093
4388000000.0 -0.413 -1.242
4391000000.0 -1.244 -0.4902
4394000000.0 -1.162 0.7024
4397000000.0 -0.1576 1.299
4400000000.0 0.9233 0.9446
4403000000.0 1.306 -0.1458
4406000000.0 0.7226 -1.11
4409000000.0 -0.4329 -1.266
4412000000.0 -1.233 -0.4546
4416000000.0 -1.166 0.6963
4419000000.0 -0.2203 1.313
4422000000.0 0.9127 1.001
4425000000.0 1.349 -0.08063
4428000000.0 0.7916 -1.091
4431000000.0 -0.3221 -1.317
4434000000.0 -1.229 -0.6084
4438000000.0 -1.277 0.5727
4441000000.0 -0.3783 1.378
4444000000.0 0.8207 1.143
4447000000.0 1.434 0.1332
4450000000.0 0.9928 -1.052
4453000000.0 -0.1727 -1.446
4456000000.0 -1.267 -0.823
4459000000.0 -1.432 0.4594
4462000000.0 -0.5461 1.453
4466000000.0 0.7699 1.345
4469000000.0 1.554 0.2703
4472000000.0 1.197 -1.05
4475000000.0 -0.06601 -1.581
4478000000.0 -1.298 -0.9432
4481000000.0 -1.566 0.4066
4484000000.0 -0.6304 1.462
4488000000.0 0.7322 1.389
4491000000.0 1.585 0.3252
4494000000.0 1.215 -1.016
4497000000.0 -0.0004427 -1.59
4500000000.0 -1.237 -0.9735
4503000000.0 -1.468 0.3647
4506000000.0 -0.6457 1.395
4509000000.0 0.7104 1.362
4512000000.0 1.474 0.2959
4516000000.0 1.125 -0.9389
4519000000.0 -0.07183 -1.455
4522000000.0 -1.194 -0.8604
4525000000.0 -1.362 0.4157
4528000000.0 -0.4986 1.303
4531000000.0 0.7139 1.183
4534000000.0 1.354 0.1717
4538000000.0 0.9092 -0.9482
4541000000.0 -0.1847 -1.282
4544000000.0 -1.098 -0.6376
4547000000.0 -1.167 0.4602
4550000000.0 -0.3279 1.158
4553000000.0 0.7136 0.9855
4556000000.0 1.196 0.006798
4559000000.0 0.7421 -0.9026
4562000000.0 -0.2277 -1.129
4566000000.0 -1.031 -0.4611
4569000000.0 -0.997 0.5207
4572000000.0 -0.2077 1.08
4575000000.0 0.7176 0.8313
4578000000.0 1.076 -0.1036
4581000000.0 0.5984 -0.9119
4584000000.0 -0.3539 -1.036
4588000000.0 -1.012 -0.3596
4591000000.0 -0.9014 0.5698
4594000000.0 -0.09502 1.106
4597000000.0 0.7798 0.7553
4600000000.0 1.062 -0.1587
4603000000.0 0.5323 -0.9478
4606000000.0 -0.4035 -1.018
4609000000.0 -1.044 -0.3289
4612000000.0 -0.9154 0.6034
4616000000.0 -0.09468 1.132
4619000000.0 0.7953 0.7728
4622000000.0 1.122 -0.164
4625000000.0 0.5928 -0.981
4628000000.0 -0.3834 -1.1
4631000000.0 -1.105 -0.3717
4634000000.0 -0.9964 0.6332
4638000000.0 -0.1317 1.201
4641000000.0 0.832 0.8746
4644000000.0 1.243 -0.1078
4647000000.0 0.7312 -1.032
4650000000.0 -0.3546 -1.16
4653000000.0 -1.157 -0.5018
4656000000.0 -1.112 0.6089
4659000000.0 -0.2532 1.268
4662000000.0 0.8182 0.999
4666000000.0 1.283 -0.02067
4669000000.0 0.7633 -1.054
4672000000.0 -0.2982 -1.277
4675000000.0 -1.213 -0.5433
4678000000.0 -1.195 0.5831
4681000000.0 -0.2793 1.267
4684000000.0 0.7762 1.055
4688000000.0 1.341 0.09318
4691000000.0 0.8871 -1.021
4694000000.0 -0.276 -1.335
4697000000.0 -1.208 -0.6275
4700000000.0 -1.252 0.5365
4703000000.0 -0.353 1.352
4706000000.0 0.8214 1.113
4709000000.0 1.406 0.02947
4712000000.0 0.8463 -1.067
4716000000.0 -0.3228 -1.289
4719000000.0 -1.188 -0.5066
4722000000.0 -1.124 0.6411
4725000000.0 -0.1701 1.277
4728000000.0 0.8842 0.8942
4731000000.0 1.205 -0.1526
4734000000.0 0.6028 -1.018
4738000000.0 -0.4306 -1.107
4741000000.0 -1.099 -0.2806
4744000000.0 -0.9153 0.6496
4747000000.0 0.01014 1.083
4750000000.0 0.8547 0.6522
4753000000.0 1.006 -0.2591
4756000000.0 0.4097 -0.9416
4759000000.0 -0.4993 -0.8782
4762000000.0 -0.9909 -0.1462
4766000000.0 -0.717 0.7327
4769000000.0 0.1613 0.9236
4772000000.0 0.842 0.4538
4775000000.0 0.8761 -0.3757
4778000000.0 0.251 -0.9224
4781000000.0 -0.5861 -0.7612
4784000000.0 -0.916 0.02774
4788000000.0 -0.6025 0.7162
4791000000.0 0.2095 0.9
4794000000.0 0.8437 0.4176
4797000000.0 0.8511 -0.4103
4800000000.0 0.1972 -0.9157
4803000000.0 -0.5693 -0.7004
4806000000.0 -0.9201 -0.01161
4809000000.0 -0.6069 0.7488
4812000000.0 0.1829 0.9428
4816000000.0 0.8809 0.429
4819000000.0 0.8814 -0.3879
4822000000.0 0.2951 -0.9878
4825000000.0 -0.5962 -0.8271
4828000000.0 -1.057 -0.0196
4831000000.0 -0.7233 0.7949
4834000000.0 0.1661 1.061
4838000000.0 0.9592 0.5626
4841000000.0 1.074 -0.3824
4844000000.0 0.3684 -1.069
4847000000.0 -0.595 -0.9971
4850000000.0 -1.169 -0.1445
4853000000.0 -0.8684 0.8105
4856000000.0 0.08476 1.221
4859000000.0 0.9755 0.7357
4862000000.0 1.168 -0.3291
4866000000.0 0.4981 -1.163
4869000000.0 -0.5783 -1.118
4872000000.0 -1.295 -0.2556
4875000000.0 -1.036 0.8318
4878000000.0 0.02877 1.355
4881000000.0 1.052 0.8163
4884000000.0 1.301 -0.3051
4888000000.0 0.5915 -1.213
4891000000.0 -0.5973 -1.226
4894000000.0 -1.344 -0.29
4897000000.0 -1.067 0.8813
4900000000.0 0.02839 1.335
4903000000.0 1.052 0.7892
4906000000.0 1.254 -0.3408
4909000000.0 0.5232 -1.166
4912000000.0 -0.588 -1.103
4916000000.0 -1.202 -0.2314
4919000000.0 -0.9221 0.8002
4922000000.0 0.05367 1.168
4925000000.0 0.9237 0.6868
4928000000.0 1.092 -0.254
4931000000.0 0.4511 -0.9762
4934000000.0 -0.4929 -0.9492
4938000000.0 -1.026 -0.2278
4941000000.0 -0.7983 0.6595
4944000000.0 0.01487 1.034
4947000000.0 0.7801 0.6093
4950000000.0 0.986 -0.2087
4953000000.0 0.4289 -0.8716
4956000000.0 -0.4164 -0.8744
4959000000.0 -0.9298 -0.2262
4962000000.0 -0.736 0.5853
4966000000.0 0.004385 0.9383
4969000000.0 0.7346 0.5815
4972000000.0 0.8792 -0.2088
4975000000.0 0.389 -0.8421
4978000000.0 -0.3851 -0.8316
4981000000.0 -0.8688 -0.1963
4984000000.0 -0.7181 0.5386
4988000000.0 -0.02393 0.895
4991000000.0 0.7075 0.5731
4994000000.0 0.9001 -0.1734
4997000000.0 0.4529 -0.8199
5000000000.0 -0.3731 -0.8416
5003000000.0 -0.9197 -0.2414
5006000000.0 -0.7987 0.5553
5009000000.0 -0.07604 0.9839
5012000000.0 0.7376 0.6951
5016000000.0 1.018 -0.1619
5019000000.0 0.523 -0.8921
5022000000.0 -0.3919 -0.9919
5025000000.0 -1.021 -0.3354
5028000000.0 -0.9197 0.5758
5031000000.0 -0.09509 1.107
5034000000.0 0.7943 0.8234
5038000000.0 1.14 -0.09897
5041000000.0 0.6268 -0.9394
5044000000.0 -0.3053 -1.108
5047000000.0 -1.087 -0.4773
5050000000.0 -1.035 0.565
5053000000.0 -0.2979 1.18
5056000000.0 0.7492 0.943
5059000000.0 1.213 0.006344
5062000000.0 0.8271 -0.9448
5066000000.0 -0.2296 -1.187
5069000000.0 -1.114 -0.6396
5072000000.0 -1.185 0.4592
5075000000.0 -0.3758 1.224
5078000000.0 0.7069 1.098
5081000000.0 1.265 0.1415
5084000000.0 0.9336 -0.8808
5088000000.0 -0.097 -1.288
5091000000.0 -1.046 -0.7069
5094000000.0 -1.223 0.3127
5097000000.0 -0.5088 1.112
5100000000.0 0.5194 1.103
5103000000.0 1.169 0.3236
5106000000.0 0.9611 -0.7063
5109000000.0 0.08949 -1.177
5112000000.0 -0.8349 -0.8275
5116000000.0 -1.145 0.1165
5119000000.0 -0.6697 0.9204
5122000000.0 0.2745 1.09
5125000000.0 1.044 0.4485
5128000000.0 0.9824 -0.4727
5131000000.0 0.2274 -1.083
5134000000.0 -0.6683 -0.8461
5138000000.0 -1.048 -0.06309
5141000000.0 -0.7184 0.728
5144000000.0 0.1731 1.058
5147000000.0 0.8672 0.5694
5150000000.0 0.9627 -0.354
5153000000.0 0.3581 -0.907
5156000000.0 -0.4266 -0.8663
5159000000.0 -0.9468 -0.2003
5162000000.0 -0.7024 0.6261
5166000000.0 -0.003803 0.931
5169000000.0 0.726 0.6259
5172000000.0 0.9212 -0.157
5175000000.0 0.446 -0.8375
5178000000.0 -0.3528 -0.8524
5181000000.0 -0.9013 -0.254
5184000000.0 -0.7481 0.5284
5188000000.0 -0.06978 0.9006
5191000000.0 0.6826 0.6097
5194000000.0 0.8882 -0.1314
5197000000.0 0.4508 -0.773
5200000000.0 -0.3251 -0.8502
5203000000.0 -0.8751 -0.2536
5206000000.0 -0.7479 0.5086
5209000000.0 -0.05835 0.9286
5212000000.0 0.6617 0.6137
5216000000.0 0.9246 -0.1507
5219000000.0 0.4797 -0.7878
5222000000.0 -0.3354 -0.8838
5225000000.0 -0.8888 -0.2563
5228000000.0 -0.7827 0.5445
5231000000.0 -0.04881 0.9766
5234000000.0 0.7112 0.6408
5238000000.0 0.982 -0.1617
5241000000.0 0.4984 -0.8449
5244000000.0 -0.3488 -0.9598
5247000000.0 -0.9307 -0.313
5250000000.0 -0.8385 0.5555
5253000000.0 -0.1008 1.019
5256000000.0 0.6911 0.7221
5259000000.0 0.9983 -0.1088
5262000000.0 0.5617 -0.8335
5266000000.0 -0.2959 -0.9868
5269000000.0 -0.929 -0.3955
5272000000.0 -0.9455 0.486
5275000000.0 -0.2279 1.032
5278000000.0 0.6669 0.8314
5281000000.0 1.037 0.05118
5284000000.0 0.6824 -0.7798
5288000000.0 -0.1537 -1.041
5291000000.0 -0.8934 -0.5879
5294000000.0 -1.029 0.3502
5297000000.0 -0.4367 0.9934
5300000000.0 0.5054 0.9754
5303000000.0 1.047 0.2403
5306000000.0 0.9074 -0.6416
5309000000.0 0.0701 -1.095
5312000000.0 -0.7818 -0.7701
5316000000.0 -1.109 0.1
5319000000.0 -0.6267 0.9435
5322000000.0 0.3 1.094
5325000000.0 1.048 0.4642
5328000000.0 1.008 -0.4834
5331000000.0 0.2683 -1.097
5334000000.0 -0.6647 -0.9123
5338000000.0 -1.12 -0.08178
5341000000.0 -0.7838 0.8207
5344000000.0 0.09455 1.161
5347000000.0 0.941 0.6766
5350000000.0 1.085 -0.3008
5353000000.0 0.4649 -1.008
5356000000.0 -0.4737 -1.019
5359000000.0 -1.095 -0.2843
5362000000.0 -0.9254 0.6553
5366000000.0 -0.07258 1.117
5369000000.0 0.7863 0.7627
5372000000.0 1.12 -0.1669
5375000000.0 0.5862 -0.9401
5378000000.0 -0.385 -1.024
5381000000.0 -1.038 -0.3659
5384000000.0 -0.916 0.5636
5388000000.0 -0.1418 1.042
5391000000.0 0.7766 0.7444
5394000000.0 1.06 -0.08398
5397000000.0 0.5671 -0.8594
5400000000.0 -0.3302 -0.9562
5403000000.0 -0.928 -0.3717
5406000000.0 -0.8321 0.4741
5409000000.0 -0.1163 0.9321
5412000000.0 0.6411 0.6847
5416000000.0 0.9522 -0.0746
5419000000.0 0.5182 -0.7717
5422000000.0 -0.2865 -0.8555
5425000000.0 -0.8271 -0.3289
5428000000.0 -0.7644 0.457
5431000000.0 -0.115 0.8944
5434000000.0 0.6183 0.6504
5438000000.0 0.8719 -0.1431
5441000000.0 0.4535 -0.7698
5444000000.0 -0.3257 -0.8354
5447000000.0 -0.8373 -0.2446
5450000000.0 -0.699 0.5019
5453000000.0 -0.06966 0.8334
5456000000.0 0.6242 0.5886
5459000000.0 0.8441 -0.1286
5462000000.0 0.4315 -0.7492
5466000000.0 -0.2817 -0.7911
5469000000.0 -0.7939 -0.2693
5472000000.0 -0.7307 0.4613
5475000000.0 -0.07829 0.844
5478000000.0 0.6172 0.6596
5481000000.0 0.8712 -0.08623
5484000000.0 0.4897 -0.7526
5488000000.0 -0.2367 -0.8466
5491000000.0 -0.8398 -0.3541
5494000000.0 -0.8175 0.4018
5497000000.0 -0.1827 0.9396
5500000000.0 0.5583 0.7397
5503000000.0 0.9385 0.04669
5506000000.0 0.6283 -0.6974
5509000000.0 -0.172 -0.9149
5512000000.0 -0.779 -0.5075
5516000000.0 -0.8951 0.3007
5519000000.0 -0.3473 0.8818
5522000000.0 0.4602 0.9039
5525000000.0 0.9804 0.1923
5528000000.0 0.7508 -0.5794
5531000000.0 0.0542 -1.035
5534000000.0 -0.7295 -0.6538
5538000000.0 -1.005 0.1425
5541000000.0 -0.5647 0.8325
5544000000.0 0.3119 0.9401
5547000000.0 0.9457 0.3974
5550000000.0 0.9364 -0.4644
5553000000.0 0.2418 -1.0
5556000000.0 -0.6565 -0.8439
5559000000.0 -1.073 -0.0587
5562000000.0 -0.6936 0.7766
5566000000.0 0.1346 1.021
5569000000.0 0.8912 0.5488
5572000000.0 0.9921 -0.3288
5575000000.0 0.4135 -0.9397
5578000000.0 -0.4922 -0.9049
5581000000.0 -1.029 -0.236
5584000000.0 -0.7937 0.6501
5588000000.0 -0.03716 1.022
5591000000.0 0.7329 0.6951
5594000000.0 0.9971 -0.1599
5597000000.0 0.4935 -0.8693
5600000000.0 -0.3158 -0.9171
5603000000.0 -0.8974 -0.3467
5606000000.0 -0.8345 0.5148
5609000000.0 -0.1477 0.979
5612000000.0 0.6238 0.6979
5616000000.0 0.9033 -0.04465
5619000000.0 0.5588 -0.7522
5622000000.0 -0.2091 -0.8876
5625000000.0 -0.8092 -0.3975
5628000000.0 -0.8062 0.3716
5631000000.0 -0.1922 0.8409
5634000000.0 0.5428 0.7124
5638000000.0 0.8844 0.04558
5641000000.0 0.5723 -0.6753
5644000000.0 -0.18 -0.8539
5647000000.0 -0.7711 -0.3888
5650000000.0 -0.7967 0.3504
5653000000.0 -0.2352 0.8236
5656000000.0 0.4999 0.7142
5659000000.0 0.8737 0.02857
5662000000.0 0.5692 -0.6434
5666000000.0 -0.1514 -0.8274
5669000000.0 -0.7387 -0.4054
5672000000.0 -0.7997 0.3644
5675000000.0 -0.2198 0.8334
5678000000.0 0.5308 0.6856
5681000000.0 0.8782 0.0283
5684000000.0 0.556 -0.671
5688000000.0 -0.1898 -0.8843
5691000000.0 -0.8178 -0.3963
5694000000.0 -0.8199 0.3955
5697000000.0 -0.2133 0.8761
5700000000.0 0.554 0.7313
5703000000.0 0.9142 0.03
5706000000.0 0.5926 -0.7167
5709000000.0 -0.1644 -0.9515
5712000000.0 -0.8342 -0.4413
5716000000.0 -0.8948 0.3769
5719000000.0 -0.2752 0.917
5722000000.0 0.5741 0.831
5725000000.0 0.9941 0.06333
5728000000.0 0.7052 -0.7055
5731000000.0 -0.1091 -1.03
5734000000.0 -0.8889 -0.5506
5738000000.0 -0.9948 0.2957
5741000000.0 -0.3456 0.937
5744000000.0 0.5168 0.9401
5747000000.0 0.9846 0.1975
5750000000.0 0.7849 -0.6772
5753000000.0 0.01349 -1.057
5756000000.0 -0.8216 -0.6582
5759000000.0 -1.029 0.2133
5762000000.0 -0.4961 0.9226
5766000000.0 0.3821 1.001
5769000000.0 1.037 0.3699
5772000000.0 0.9401 -0.5739
5775000000.0 0.17 -1.057
5778000000.0 -0.7157 -0.7907
5781000000.0 -1.09 0.07431
5784000000.0 -0.6659 0.8372
5788000000.0 0.2019 1.071
5791000000.0 0.9442 0.4838
5794000000.0 0.9778 -0.3822
5797000000.0 0.3362 -1.018
5800000000.0 -0.5588 -0.9277
5803000000.0 -1.053 -0.1491
5806000000.0 -0.7789 0.7321
5809000000.0 0.04904 1.054
5812000000.0 0.8212 0.6547
5816000000.0 1.017 -0.2631
5819000000.0 0.454 -0.9454
5822000000.0 -0.4245 -0.9428
5825000000.0 -1.003 -0.3146
5828000000.0 -0.8171 0.6198
5831000000.0 -0.07049 1.018
5834000000.0 0.7084 0.7089
5838000000.0 1.008 -0.1004
5841000000.0 0.5171 -0.8535
5844000000.0 -0.2992 -0.9567
5847000000.0 -0.8893 -0.3633
5850000000.0 -0.8578 0.4706
5853000000.0 -0.1488 0.9537
5856000000.0 0.6411 0.7426
5859000000.0 0.9356 -0.07178
5862000000.0 0.5377 -0.8035
5866000000.0 -0.2805 -0.9166
5869000000.0 -0.8861 -0.3577
5872000000.0 -0.8311 0.4282
5875000000.0 -0.1777 0.9267
5878000000.0 0.5911 0.6818
5881000000.0 0.9129 -0.003622
5884000000.0 0.5462 -0.6791
5888000000.0 -0.1838 -0.8806
5891000000.0 -0.8179 -0.3793
5894000000.0 -0.7987 0.38
5897000000.0 -0.1602 0.8342
5900000000.0 0.5378 0.6974
5903000000.0 0.8576 0.01308
5906000000.0 0.5462 -0.6503
5909000000.0 -0.173 -0.8443
5912000000.0 -0.7519 -0.4125
5916000000.0 -0.7933 0.3162
5919000000.0 -0.2193 0.8005
5922000000.0 0.4785 0.6863
5925000000.0 0.8276 0.07573
5928000000.0 0.5956 -0.572
5931000000.0 -0.1184 -0.8305
5934000000.0 -0.7221 -0.4544
5938000000.0 -0.829 0.2614
5941000000.0 -0.3053 0.7824
5944000000.0 0.4141 0.7347
5947000000.0 0.8268 0.1712
5950000000.0 0.6872 -0.5745
5953000000.0 0.01385 -0.8857
5956000000.0 -0.6844 -0.5466
5959000000.0 -0.8571 0.1634
5962000000.0 -0.4064 0.7576
5966000000.0 0.3286 0.8391
5969000000.0 0.8435 0.2642
5972000000.0 0.7985 -0.4589
5975000000.0 0.1494 -0.9197
5978000000.0 -0.6181 -0.6621
5981000000.0 -0.9225 0.01526
5984000000.0 -0.5686 0.7331
5988000000.0 0.1745 0.9327
5991000000.0 0.8284 0.4441
5994000000.0 0.8945 -0.3524
5997000000.0 0.2882 -0.9405
6000000000.0 -0.5232 -0.8068
6003000000.0 -0.9379 -0.1129
6006000000.0 -0.6863 0.6416
6009000000.0 0.05343 0.9613
6012000000.0 0.783 0.5972
6016000000.0 0.9425 -0.2073
6019000000.0 0.42 -0.8853
6022000000.0 -0.4216 -0.886
6025000000.0 -0.9574 -0.2306
6028000000.0 -0.8125 0.5571
6031000000.0 -0.06291 0.9757
6034000000.0 0.7188 0.6664
6038000000.0 0.9812 -0.1277
6041000000.0 0.5033 -0.8443
6044000000.0 -0.3257 -0.9246
6047000000.0 -0.9303 -0.3562
6050000000.0 -0.8415 0.4769
6053000000.0 -0.1471 0.9665
6056000000.0 0.646 0.7112
6059000000.0 0.9736 -0.03507
6062000000.0 0.5613 -0.7588
6066000000.0 -0.2444 -0.9158
6069000000.0 -0.8543 -0.3875
6072000000.0 -0.8154 0.4287
6075000000.0 -0.1735 0.9072
6078000000.0 0.5809 0.7078
6081000000.0 0.891 -0.0001074
6084000000.0 0.5808 -0.7004
6088000000.0 -0.1939 -0.8559
6091000000.0 -0.7887 -0.3946
6094000000.0 -0.8104 0.3785
6097000000.0 -0.2212 0.8266
6100000000.0 0.509 0.7165
6103000000.0 0.8721 0.0464
6106000000.0 0.561 -0.6389
6109000000.0 -0.147 -0.8253
6112000000.0 -0.777 -0.4102
6116000000.0 -0.7927 0.337
6119000000.0 -0.2463 0.8
6122000000.0 0.4852 0.7121
6125000000.0 0.8394 0.06186
6128000000.0 0.5693 -0.6029
6131000000.0 -0.1138 -0.8333
6134000000.0 -0.7089 -0.4011
6138000000.0 -0.8112 0.2932
6141000000.0 -0.2715 0.7827
6144000000.0 0.4682 0.6976
6147000000.0 0.8352 0.1151
6150000000.0 0.6166 -0.5823
6153000000.0 -0.07328 -0.8646
6156000000.0 -0.715 -0.4943
6159000000.0 -0.8215 0.2587
6162000000.0 -0.3441 0.7723
6166000000.0 0.4246 0.7609
6169000000.0 0.8554 0.2134
6172000000.0 0.6356 -0.6065
6175000000.0 -0.00114 -0.8948
6178000000.0 -0.686 -0.5728
6181000000.0 -0.8778 0.2274
6184000000.0 -0.3891 0.8045
6188000000.0 0.3262 0.8076
6191000000.0 0.8568 0.2387
6194000000.0 0.7293 -0.5279
6197000000.0 0.04988 -0.8896
6200000000.0 -0.6652 -0.5815
6203000000.0 -0.8636 0.07145
6206000000.0 -0.5029 0.7745
6209000000.0 0.3155 0.834
6212000000.0 0.7949 0.3379
6216000000.0 0.8044 -0.4774
6219000000.0 0.1421 -0.9072
6222000000.0 -0.5746 -0.6748
6225000000.0 -0.8988 -0.000471
6228000000.0 -0.5633 0.725
6231000000.0 0.1833 0.8675
6234000000.0 0.8028 0.4019
6238000000.0 0.7951 -0.3339
6241000000.0 0.2387 -0.8581
6244000000.0 -0.4972 -0.6888
6247000000.0 -0.8179 -0.1201
6250000000.0 -0.6041 0.6033
6253000000.0 0.09859 0.8335
6256000000.0 0.6789 0.4784
6259000000.0 0.8042 -0.2241
