! Created with skrf 1.8.0 (http://scikit-rf.org).
# Hz S RI R 50.0 
!freq ReS11 ImS11
4000000000.0 -0.153 -1.52
4003000000.0 -1.275 -0.8185
4006000000.0 -1.456 0.4591
4009000000.0 -0.4872 1.394
4012000000.0 0.7748 1.336
4016000000.0 1.48 0.2477
4019000000.0 1.173 -1.056
4022000000.0 -0.1141 -1.583
4025000000.0 -1.313 -0.9257
4028000000.0 -1.503 0.4762
4031000000.0 -0.5731 1.476
4034000000.0 0.7999 1.371
4038000000.0 1.601 0.2533
4041000000.0 1.246 -1.095
4044000000.0 -0.1322 -1.649
4047000000.0 -1.338 -0.915
4050000000.0 -1.56 0.4369
4053000000.0 -0.6211 1.499
4056000000.0 0.7566 1.431
4059000000.0 1.586 0.2666
4062000000.0 1.273 -0.9636
4066000000.0 0.02056 -1.625
4069000000.0 -1.193 -1.085
4072000000.0 -1.576 0.2449
4075000000.0 -0.8174 1.391
4078000000.0 0.5831 1.529
4081000000.0 1.533 0.5747
4084000000.0 1.405 -0.8585
4088000000.0 0.2335 -1.63
4091000000.0 -1.072 -1.245
4094000000.0 -1.643 0.08139
4097000000.0 -0.972 1.316
4100000000.0 0.3829 1.555
4103000000.0 1.464 0.7093
4106000000.0 1.436 -0.6512
4109000000.0 0.4586 -1.489
4112000000.0 -0.8304 -1.306
4116000000.0 -1.487 -0.247
4119000000.0 -1.124 0.9851
4122000000.0 -0.005457 1.482
4125000000.0 1.131 0.9319
4128000000.0 1.465 -0.2004
4131000000.0 0.8102 -1.249
4134000000.0 -0.4308 -1.369
4138000000.0 -1.345 -0.5917
4141000000.0 -1.33 0.6262
4144000000.0 -0.3879 1.434
4147000000.0 0.8889 1.227
4150000000.0 1.523 0.1451
4153000000.0 1.095 -1.073
4156000000.0 -0.1179 -1.523
4159000000.0 -1.224 -0.8961
4162000000.0 -1.455 0.3677
4166000000.0 -0.6807 1.351
4169000000.0 0.5951 1.362
4172000000.0 1.439 0.4136
4175000000.0 1.246 -0.8408
4178000000.0 0.16 -1.499
4181000000.0 -1.012 -1.073
4184000000.0 -1.502 0.08094
4188000000.0 -0.9049 1.186
4191000000.0 0.3748 1.476
4194000000.0 1.352 0.6408
4197000000.0 1.399 -0.6598
4200000000.0 0.4147 -1.513
4203000000.0 -0.9521 -1.257
4206000000.0 -1.602 -0.07438
4209000000.0 -1.059 1.237
4212000000.0 0.367 1.603
4216000000.0 1.494 0.7627
4219000000.0 1.484 -0.7451
4222000000.0 0.3387 -1.629
4225000000.0 -1.103 -1.264
4228000000.0 -1.682 0.118
4231000000.0 -0.9072 1.39
4234000000.0 0.5731 1.576
4238000000.0 1.559 0.5018
4241000000.0 1.335 -0.952
4244000000.0 0.06355 -1.613
4247000000.0 -1.185 -1.029
4250000000.0 -1.548 0.3361
4253000000.0 -0.6801 1.399
4256000000.0 0.6656 1.392
4259000000.0 1.519 0.3214
4262000000.0 1.135 -0.9883
4266000000.0 -0.06077 -1.506
4269000000.0 -1.203 -0.8533
4272000000.0 -1.4 0.4343
4275000000.0 -0.5192 1.355
4278000000.0 0.7768 1.273
4281000000.0 1.418 0.1524
4284000000.0 0.9943 -0.9834
4288000000.0 -0.1674 -1.376
4291000000.0 -1.142 -0.7578
4294000000.0 -1.308 0.4025
4297000000.0 -0.4678 1.218
4300000000.0 0.6379 1.144
4303000000.0 1.303 0.2611
4306000000.0 1.02 -0.8361
4309000000.0 0.03748 -1.282
4312000000.0 -0.988 -0.8553
4316000000.0 -1.286 0.1762
4319000000.0 -0.6784 1.093
4322000000.0 0.4427 1.246
4325000000.0 1.206 0.4975
4328000000.0 1.191 -0.6172
4331000000.0 0.2859 -1.314
4334000000.0 -0.8579 -1.057
4338000000.0 -1.354 -0.03647
4341000000.0 -0.9025 1.034
4344000000.0 0.1921 1.367
4347000000.0 1.195 0.7374
4350000000.0 1.346 -0.4706
4353000000.0 0.5049 -1.353
4356000000.0 -0.7422 -1.24
4359000000.0 -1.422 -0.2567
4362000000.0 -1.112 0.973
4366000000.0 0.01429 1.488
4369000000.0 1.146 0.9265
4372000000.0 1.436 -0.3009
4375000000.0 0.6945 -1.294
4378000000.0 -0.5697 -1.376
4381000000.0 -1.421 -0.4796
4384000000.0 -1.27 0.8091
4388000000.0 -0.1624 1.491
4391000000.0 1.084 1.116
4394000000.0 1.592 -0.1755
4397000000.0 0.8648 -1.294
4400000000.0 -0.5438 -1.468
4403000000.0 -1.488 -0.5261
4406000000.0 -1.352 0.8239
4409000000.0 -0.1964 1.556
4412000000.0 1.119 1.123
4416000000.0 1.537 -0.1863
4419000000.0 0.8119 -1.307
4422000000.0 -0.5544 -1.42
4425000000.0 -1.433 -0.4382
4428000000.0 -1.22 0.8378
4431000000.0 -0.07919 1.428
4434000000.0 1.083 0.9647
4438000000.0 1.382 -0.2648
4441000000.0 0.6305 -1.226
4444000000.0 -0.6061 -1.24
4447000000.0 -1.311 -0.3253
4450000000.0 -1.039 0.8753
4453000000.0 0.02736 1.346
4456000000.0 1.042 0.7983
4459000000.0 1.25 -0.3873
4462000000.0 0.4801 -1.166
4466000000.0 -0.6015 -1.108
4469000000.0 -1.195 -0.1549
4472000000.0 -0.8367 0.8338
4475000000.0 0.1615 1.181
4478000000.0 1.023 0.6274
4481000000.0 1.097 -0.4411
4484000000.0 0.3365 -1.126
4488000000.0 -0.6425 -0.9305
4491000000.0 -1.142 -0.06085
4494000000.0 -0.7449 0.8115
4497000000.0 0.1712 1.108
4500000000.0 0.965 0.5648
4503000000.0 1.018 -0.4022
4506000000.0 0.3258 -1.002
4509000000.0 -0.5989 -0.9219
4512000000.0 -1.082 -0.1279
4516000000.0 -0.7724 0.8021
4519000000.0 0.1311 1.119
4522000000.0 0.966 0.6073
4525000000.0 1.067 -0.3827
4528000000.0 0.4128 -1.083
4531000000.0 -0.5737 -1.015
4534000000.0 -1.158 -0.1894
4538000000.0 -0.8622 0.7588
4541000000.0 0.02809 1.164
4544000000.0 0.9264 0.736
4547000000.0 1.15 -0.2335
4550000000.0 0.5721 -1.102
4553000000.0 -0.4697 -1.11
4556000000.0 -1.136 -0.3563
4559000000.0 -1.051 0.6533
4562000000.0 -0.1575 1.218
4566000000.0 0.8234 0.9168
4569000000.0 1.243 -0.0566
4572000000.0 0.7881 -0.9931
4575000000.0 -0.2674 -1.238
4578000000.0 -1.169 -0.6014
4581000000.0 -1.235 0.5355
4584000000.0 -0.3805 1.285
4588000000.0 0.737 1.113
4591000000.0 1.348 0.1297
4594000000.0 0.9708 -0.9344
4597000000.0 -0.114 -1.332
4600000000.0 -1.105 -0.806
4603000000.0 -1.311 0.366
4606000000.0 -0.5592 1.259
4609000000.0 0.6275 1.265
4612000000.0 1.372 0.3179
4616000000.0 1.075 -0.8799
4619000000.0 0.0147 -1.404
4622000000.0 -1.06 -0.8984
4625000000.0 -1.392 0.2482
4628000000.0 -0.6562 1.219
4631000000.0 0.5406 1.283
4634000000.0 1.319 0.3881
4638000000.0 1.153 -0.7992
4641000000.0 0.1276 -1.338
4644000000.0 -0.9631 -0.9373
4647000000.0 -1.322 0.1926
4650000000.0 -0.6498 1.137
4653000000.0 0.4441 1.233
4656000000.0 1.226 0.358
4659000000.0 1.053 -0.727
4662000000.0 0.09489 -1.261
4666000000.0 -0.9159 -0.824
4669000000.0 -1.215 0.1965
4672000000.0 -0.597 1.064
4675000000.0 0.4531 1.089
4678000000.0 1.12 0.3369
4681000000.0 0.924 -0.6706
4684000000.0 0.06823 -1.125
4688000000.0 -0.8669 -0.7436
4691000000.0 -1.096 0.186
4694000000.0 -0.5007 0.9691
4697000000.0 0.3879 0.9825
4700000000.0 1.045 0.2738
4703000000.0 0.8375 -0.6061
4706000000.0 0.03781 -1.099
4709000000.0 -0.8416 -0.6624
4712000000.0 -1.034 0.2252
4716000000.0 -0.5146 0.9758
4719000000.0 0.4223 0.9466
4722000000.0 1.045 0.2476
4725000000.0 0.8456 -0.6137
4728000000.0 0.02504 -1.037
4731000000.0 -0.7634 -0.6612
4734000000.0 -1.046 0.173
4738000000.0 -0.5139 0.9114
4741000000.0 0.3855 0.9808
4744000000.0 0.986 0.3171
4747000000.0 0.9243 -0.5659
4750000000.0 0.1877 -1.07
4753000000.0 -0.7205 -0.7987
4756000000.0 -1.084 0.0535
4759000000.0 -0.6685 0.8449
4762000000.0 0.2638 1.11
4766000000.0 0.9864 0.5058
4769000000.0 1.047 -0.4688
4772000000.0 0.3352 -1.103
4775000000.0 -0.6374 -0.9862
4778000000.0 -1.146 -0.1377
4781000000.0 -0.859 0.8275
4784000000.0 0.08987 1.172
4788000000.0 0.9585 0.7382
4791000000.0 1.173 -0.2644
4794000000.0 0.5524 -1.089
4797000000.0 -0.4709 -1.138
4800000000.0 -1.188 -0.3651
4803000000.0 -1.022 0.6517
4806000000.0 -0.1773 1.199
4809000000.0 0.8363 0.9462
4812000000.0 1.284 -0.03678
4816000000.0 0.7985 -1.026
4819000000.0 -0.2506 -1.284
4822000000.0 -1.177 -0.6172
4825000000.0 -1.245 0.5097
4828000000.0 -0.376 1.302
4831000000.0 0.7318 1.148
4834000000.0 1.35 0.1106
4838000000.0 0.9493 -0.977
4841000000.0 -0.1284 -1.371
4844000000.0 -1.181 -0.7663
4847000000.0 -1.309 0.4126
4850000000.0 -0.5063 1.27
4853000000.0 0.6302 1.178
4856000000.0 1.346 0.2448
4859000000.0 1.028 -0.8957
4862000000.0 -0.01899 -1.374
4866000000.0 -1.063 -0.8479
4869000000.0 -1.314 0.2978
4872000000.0 -0.5977 1.184
4875000000.0 0.5391 1.17
4878000000.0 1.246 0.3239
4881000000.0 1.03 -0.7846
4884000000.0 0.02979 -1.244
4888000000.0 -0.9115 -0.8022
4891000000.0 -1.179 0.2421
4894000000.0 -0.5656 1.049
4897000000.0 0.4106 1.043
4900000000.0 1.105 0.3095
4903000000.0 0.9078 -0.6442
4906000000.0 0.05322 -1.074
4909000000.0 -0.7697 -0.7404
4912000000.0 -1.022 0.145
4916000000.0 -0.5435 0.8741
4919000000.0 0.3403 0.9682
4922000000.0 0.9199 0.3321
4925000000.0 0.8505 -0.5029
4928000000.0 0.1445 -0.9557
4931000000.0 -0.6409 -0.7004
4934000000.0 -0.9359 0.03458
4938000000.0 -0.5734 0.7645
4941000000.0 0.209 0.8868
4944000000.0 0.8569 0.4032
4947000000.0 0.8434 -0.407
4950000000.0 0.1987 -0.9231
4953000000.0 -0.5517 -0.7592
4956000000.0 -0.9676 -0.007555
4959000000.0 -0.6043 0.7144
4962000000.0 0.1571 0.9666
4966000000.0 0.8434 0.504
4969000000.0 0.907 -0.3658
4972000000.0 0.2924 -0.9395
4975000000.0 -0.5194 -0.8489
4978000000.0 -1.023 -0.1209
4981000000.0 -0.7437 0.693
4984000000.0 0.05265 1.07
4988000000.0 0.8534 0.6286
4991000000.0 1.004 -0.2797
4994000000.0 0.4769 -0.985
4997000000.0 -0.4454 -0.9998
5000000000.0 -1.104 -0.2732
5003000000.0 -0.9093 0.6748
5006000000.0 -0.08112 1.16
5009000000.0 0.8569 0.8156
5012000000.0 1.191 -0.1357
5016000000.0 0.6597 -1.049
5019000000.0 -0.3855 -1.176
5022000000.0 -1.145 -0.4412
5025000000.0 -1.102 0.6235
5028000000.0 -0.2324 1.248
5031000000.0 0.8044 0.9683
5034000000.0 1.297 0.0204
5038000000.0 0.7966 -0.9657
5041000000.0 -0.2269 -1.264
5044000000.0 -1.141 -0.6187
5047000000.0 -1.185 0.4616
5050000000.0 -0.4114 1.213
5053000000.0 0.6557 1.087
5056000000.0 1.273 0.2092
5059000000.0 0.9718 -0.8422
5062000000.0 -0.03144 -1.314
5066000000.0 -1.024 -0.8113
5069000000.0 -1.251 0.2769
5072000000.0 -0.5956 1.156
5075000000.0 0.502 1.191
5078000000.0 1.189 0.3815
5081000000.0 1.024 -0.6731
5084000000.0 0.1513 -1.244
5088000000.0 -0.8658 -0.8875
5091000000.0 -1.21 0.09181
5094000000.0 -0.6903 0.9722
5097000000.0 0.2809 1.132
5100000000.0 1.062 0.4857
5103000000.0 0.9954 -0.4482
5106000000.0 0.2955 -1.054
5109000000.0 -0.5917 -0.9465
5112000000.0 -1.084 -0.114
5116000000.0 -0.7788 0.7373
5119000000.0 0.0999 1.088
5122000000.0 0.8427 0.6081
5125000000.0 1.036 -0.2626
5128000000.0 0.4307 -0.9472
5131000000.0 -0.4466 -0.8925
5134000000.0 -0.9469 -0.2426
5138000000.0 -0.7823 0.5933
5141000000.0 -0.03798 1.016
5144000000.0 0.7012 0.6307
5147000000.0 0.9437 -0.1351
5150000000.0 0.4654 -0.7924
5153000000.0 -0.2998 -0.8908
5156000000.0 -0.8623 -0.284
5159000000.0 -0.789 0.4558
5162000000.0 -0.1463 0.8735
5166000000.0 0.6062 0.63
5169000000.0 0.8758 -0.06204
5172000000.0 0.5448 -0.7134
5175000000.0 -0.2407 -0.8605
5178000000.0 -0.8231 -0.366
5181000000.0 -0.7956 0.4124
5184000000.0 -0.1701 0.8911
5188000000.0 0.6111 0.6955
5191000000.0 0.9051 -0.002843
5194000000.0 0.568 -0.7304
5197000000.0 -0.2206 -0.9055
5200000000.0 -0.844 -0.3995
5203000000.0 -0.8359 0.4446
5206000000.0 -0.1838 0.917
5209000000.0 0.6248 0.7489
5212000000.0 0.946 0.001133
5216000000.0 0.6139 -0.7475
5219000000.0 -0.2368 -0.9737
5222000000.0 -0.901 -0.4468
5225000000.0 -0.9202 0.4102
5228000000.0 -0.2522 0.9618
5231000000.0 0.5971 0.8431
5234000000.0 1.017 0.06261
5238000000.0 0.7145 -0.7415
5241000000.0 -0.127 -1.038
5244000000.0 -0.8787 -0.5707
5247000000.0 -1.024 0.3341
5250000000.0 -0.3616 0.9864
5253000000.0 0.5164 0.923
5256000000.0 1.048 0.2085
5259000000.0 0.8197 -0.6837
5262000000.0 -0.006609 -1.065
5266000000.0 -0.8359 -0.7119
5269000000.0 -1.07 0.1941
5272000000.0 -0.5625 0.9182
5275000000.0 0.3689 1.038
5278000000.0 1.025 0.3704
5281000000.0 0.9594 -0.5264
5284000000.0 0.233 -1.085
5288000000.0 -0.686 -0.8724
5291000000.0 -1.098 -0.0562
5294000000.0 -0.7619 0.7983
5297000000.0 0.1218 1.107
5300000000.0 0.9338 0.6266
5303000000.0 1.058 -0.3275
5306000000.0 0.4477 -1.024
5309000000.0 -0.4901 -1.041
5312000000.0 -1.109 -0.303
5316000000.0 -0.9533 0.6471
5319000000.0 -0.07991 1.119
5322000000.0 0.815 0.8303
5325000000.0 1.117 -0.136
5328000000.0 0.6195 -0.951
5331000000.0 -0.316 -1.075
5334000000.0 -1.021 -0.442
5338000000.0 -1.015 0.5061
5341000000.0 -0.2686 1.127
5344000000.0 0.6889 0.8747
5347000000.0 1.11 0.0344
5350000000.0 0.7472 -0.82
5353000000.0 -0.1789 -1.084
5356000000.0 -0.9349 -0.5384
5359000000.0 -1.0 0.38
5362000000.0 -0.3518 1.015
5366000000.0 0.5809 0.9069
5369000000.0 1.068 0.1284
5372000000.0 0.753 -0.7248
5375000000.0 -0.1224 -1.034
5378000000.0 -0.8497 -0.5481
5381000000.0 -0.9525 0.3212
5384000000.0 -0.3589 0.9567
5388000000.0 0.5411 0.8006
5391000000.0 0.9601 0.09282
5394000000.0 0.6423 -0.6747
5397000000.0 -0.1055 -0.9188
5400000000.0 -0.8115 -0.4793
5403000000.0 -0.8502 0.3458
5406000000.0 -0.2738 0.8348
5409000000.0 0.4898 0.7092
5412000000.0 0.8808 0.05885
5416000000.0 0.5897 -0.6356
5419000000.0 -0.1181 -0.8551
5422000000.0 -0.7629 -0.42
5425000000.0 -0.8236 0.2718
5428000000.0 -0.2135 0.8375
5431000000.0 0.4698 0.6757
5434000000.0 0.8275 0.08279
5438000000.0 0.569 -0.6218
5441000000.0 -0.1401 -0.8622
5444000000.0 -0.7628 -0.4455
5447000000.0 -0.8387 0.3114
5450000000.0 -0.2561 0.8182
5453000000.0 0.5094 0.7445
5456000000.0 0.8511 0.08864
5459000000.0 0.6261 -0.6109
5462000000.0 -0.07819 -0.8824
5466000000.0 -0.7475 -0.4991
5469000000.0 -0.8779 0.2487
5472000000.0 -0.3904 0.8433
5475000000.0 0.3955 0.8565
5478000000.0 0.9294 0.2234
5481000000.0 0.7742 -0.5488
5484000000.0 0.072 -0.9721
5488000000.0 -0.6866 -0.6935
5491000000.0 -0.9806 0.1341
5494000000.0 -0.5366 0.7883
5497000000.0 0.3052 0.9361
5500000000.0 0.9385 0.3572
5503000000.0 0.8607 -0.4662
5506000000.0 0.2239 -0.9583
5509000000.0 -0.6019 -0.7836
5512000000.0 -1.012 -0.06304
5516000000.0 -0.6941 0.7511
5519000000.0 0.1258 1.021
5522000000.0 0.8312 0.5722
5525000000.0 0.9974 -0.2648
5528000000.0 0.4485 -0.937
5531000000.0 -0.4484 -0.9474
5534000000.0 -1.027 -0.2745
5538000000.0 -0.8446 0.6146
5541000000.0 -0.08765 1.059
5544000000.0 0.7687 0.7368
5547000000.0 1.056 -0.06737
5550000000.0 0.5998 -0.8944
5553000000.0 -0.3168 -1.005
5556000000.0 -0.9222 -0.4012
5559000000.0 -0.9472 0.4709
5562000000.0 -0.2126 1.042
5566000000.0 0.6696 0.8331
5569000000.0 1.044 0.03526
5572000000.0 0.6945 -0.7804
5575000000.0 -0.1747 -0.9782
5578000000.0 -0.8813 -0.5225
5581000000.0 -0.9482 0.3266
5584000000.0 -0.337 0.9352
5588000000.0 0.4844 0.8292
5591000000.0 0.9589 0.1717
5594000000.0 0.7133 -0.615
5597000000.0 -0.01182 -0.936
5600000000.0 -0.7334 -0.5453
5603000000.0 -0.9153 0.2183
5606000000.0 -0.3764 0.8046
5609000000.0 0.3923 0.7775
5612000000.0 0.8527 0.2129
5616000000.0 0.6916 -0.5331
5619000000.0 0.04838 -0.8374
5622000000.0 -0.6379 -0.566
5625000000.0 -0.8506 0.1231
5628000000.0 -0.4224 0.7149
5631000000.0 0.2895 0.7985
5634000000.0 0.7917 0.2444
5638000000.0 0.7169 -0.4539
5641000000.0 0.06892 -0.8314
5644000000.0 -0.6354 -0.5582
5647000000.0 -0.8205 0.1008
5650000000.0 -0.4345 0.7
5653000000.0 0.3169 0.7808
5656000000.0 0.8064 0.2619
5659000000.0 0.6935 -0.4703
5662000000.0 0.05972 -0.8423
5666000000.0 -0.6133 -0.6106
5669000000.0 -0.8599 0.08995
5672000000.0 -0.4667 0.7535
5675000000.0 0.3181 0.8138
5678000000.0 0.8254 0.268
5681000000.0 0.7848 -0.478
5684000000.0 0.1185 -0.9177
5688000000.0 -0.6745 -0.6612
5691000000.0 -0.9234 0.09202
5694000000.0 -0.5069 0.826
5697000000.0 0.2811 0.9455
5700000000.0 0.9169 0.3643
5703000000.0 0.8685 -0.4671
5706000000.0 0.164 -1.005
5709000000.0 -0.6697 -0.7773
5712000000.0 -1.036 0.02821
5716000000.0 -0.6058 0.8066
5719000000.0 0.2453 0.9955
5722000000.0 0.934 0.4699
5725000000.0 0.965 -0.4388
5728000000.0 0.285 -1.051
5731000000.0 -0.6033 -0.8655
5734000000.0 -1.085 -0.0817
5738000000.0 -0.7545 0.7766
5741000000.0 0.1218 1.102
5744000000.0 0.9097 0.6044
5747000000.0 1.065 -0.3252
5750000000.0 0.429 -0.9882
5753000000.0 -0.5246 -1.018
5756000000.0 -1.059 -0.2623
5759000000.0 -0.9 0.6806
5762000000.0 -0.0795 1.098
5766000000.0 0.8047 0.7494
5769000000.0 1.049 -0.1232
5772000000.0 0.5764 -0.9248
5775000000.0 -0.3529 -1.056
5778000000.0 -1.008 -0.4172
5781000000.0 -0.9859 0.5172
5784000000.0 -0.2813 1.036
5788000000.0 0.6474 0.8486
5791000000.0 1.09 0.04068
5794000000.0 0.7133 -0.7955
5797000000.0 -0.1504 -1.068
5800000000.0 -0.9238 -0.5564
5803000000.0 -1.048 0.3508
5806000000.0 -0.339 0.9785
5809000000.0 0.5373 0.9032
5812000000.0 1.001 0.1644
5816000000.0 0.7834 -0.7137
5819000000.0 -0.05452 -1.053
5822000000.0 -0.7742 -0.6595
5825000000.0 -0.9402 0.2229
5828000000.0 -0.4356 0.9018
5831000000.0 0.4244 0.8893
5834000000.0 0.951 0.2114
5838000000.0 0.7835 -0.5574
5841000000.0 0.03889 -0.9686
5844000000.0 -0.7183 -0.6319
5847000000.0 -0.9652 0.1595
5850000000.0 -0.4836 0.8258
5853000000.0 0.3374 0.8738
5856000000.0 0.8749 0.2794
5859000000.0 0.7723 -0.5209
5862000000.0 0.0706 -0.914
5866000000.0 -0.6398 -0.637
5869000000.0 -0.8862 0.1067
5872000000.0 -0.441 0.7731
5875000000.0 0.3159 0.8351
5878000000.0 0.8409 0.2781
5881000000.0 0.7508 -0.4703
5884000000.0 0.05237 -0.8858
5888000000.0 -0.6156 -0.6089
5891000000.0 -0.8534 0.06136
5894000000.0 -0.5215 0.7451
5897000000.0 0.2621 0.8187
5900000000.0 0.7952 0.3202
5903000000.0 0.7402 -0.4215
5906000000.0 0.1192 -0.834
5909000000.0 -0.5492 -0.6563
5912000000.0 -0.8354 -0.003607
5916000000.0 -0.5485 0.6908
5919000000.0 0.181 0.852
5922000000.0 0.8059 0.4098
5925000000.0 0.7827 -0.3689
5928000000.0 0.2345 -0.8144
5931000000.0 -0.5274 -0.7106
5934000000.0 -0.8804 -0.06896
5938000000.0 -0.6287 0.6135
5941000000.0 0.08636 0.878
5944000000.0 0.7409 0.4767
5947000000.0 0.8509 -0.2554
5950000000.0 0.3473 -0.8096
5953000000.0 -0.3854 -0.7804
5956000000.0 -0.8851 -0.2195
5959000000.0 -0.7146 0.5366
5962000000.0 -0.03312 0.9264
5966000000.0 0.676 0.667
5969000000.0 0.9214 -0.1244
5972000000.0 0.5173 -0.7902
5975000000.0 -0.2956 -0.9179
5978000000.0 -0.8765 -0.355
5981000000.0 -0.8673 0.4449
5984000000.0 -0.2157 0.9379
5988000000.0 0.5866 0.8122
5991000000.0 1.001 0.03109
5994000000.0 0.6609 -0.7223
5997000000.0 -0.1645 -1.003
6000000000.0 -0.8697 -0.5182
6003000000.0 -0.9334 0.3165
6006000000.0 -0.354 0.9026
6009000000.0 0.5055 0.8481
6012000000.0 0.9765 0.149
6016000000.0 0.7407 -0.6562
6019000000.0 -0.04226 -0.9729
6022000000.0 -0.805 -0.585
6025000000.0 -0.9745 0.2258
6028000000.0 -0.4245 0.8839
6031000000.0 0.4097 0.8957
6034000000.0 0.9225 0.2448
6038000000.0 0.7867 -0.5764
6041000000.0 0.05243 -0.9633
6044000000.0 -0.6901 -0.6589
6047000000.0 -0.9407 0.17
6050000000.0 -0.4901 0.7978
6053000000.0 0.322 0.8932
6056000000.0 0.8881 0.3003
6059000000.0 0.7663 -0.5052
6062000000.0 0.08499 -0.9283
6066000000.0 -0.6551 -0.6602
6069000000.0 -0.8957 0.0756
6072000000.0 -0.4967 0.7399
6075000000.0 0.2787 0.861
6078000000.0 0.8474 0.3094
6081000000.0 0.7641 -0.4281
6084000000.0 0.1591 -0.8413
6088000000.0 -0.5811 -0.6396
6091000000.0 -0.8345 0.05746
6094000000.0 -0.5066 0.6898
6097000000.0 0.2052 0.8165
6100000000.0 0.7919 0.3536
6103000000.0 0.7551 -0.3787
6106000000.0 0.2012 -0.8307
6109000000.0 -0.5488 -0.6558
6112000000.0 -0.8758 0.004271
6116000000.0 -0.5452 0.6541
6119000000.0 0.1794 0.8504
6122000000.0 0.7621 0.3812
6125000000.0 0.769 -0.3716
6128000000.0 0.2162 -0.8428
6131000000.0 -0.5065 -0.6976
6134000000.0 -0.8554 -0.03054
6138000000.0 -0.5559 0.6716
6141000000.0 0.1679 0.8511
6144000000.0 0.7576 0.4415
6147000000.0 0.8303 -0.3247
6150000000.0 0.3121 -0.8607
6153000000.0 -0.5119 -0.7421
6156000000.0 -0.8773 -0.08589
6159000000.0 -0.6307 0.6057
6162000000.0 0.09121 0.9127
6166000000.0 0.7446 0.5034
6169000000.0 0.8782 -0.2776
6172000000.0 0.3577 -0.8843
6175000000.0 -0.439 -0.8287
6178000000.0 -0.9027 -0.1632
6181000000.0 -0.7049 0.6011
6184000000.0 0.009269 0.9435
6188000000.0 0.7247 0.5847
6191000000.0 0.9284 -0.1674
6194000000.0 0.4418 -0.8347
6197000000.0 -0.3695 -0.8606
6200000000.0 -0.8999 -0.2501
6203000000.0 -0.7836 0.5099
6206000000.0 -0.1248 0.9167
6209000000.0 0.6726 0.6939
6212000000.0 0.9188 -0.09413
6216000000.0 0.5356 -0.7474
6219000000.0 -0.2124 -0.8822
6222000000.0 -0.8226 -0.404
6225000000.0 -0.8329 0.3883
6228000000.0 -0.2053 0.8572
6231000000.0 0.5467 0.7173
6234000000.0 0.8855 0.02509
6238000000.0 0.5975 -0.6449
6241000000.0 -0.1035 -0.8522
6244000000.0 -0.7639 -0.4324
6247000000.0 -0.8406 0.2579
6250000000.0 -0.2912 0.8034
6253000000.0 0.4187 0.7156
6256000000.0 0.8246 0.1455
6259000000.0 0.6511 -0.5203
6262000000.0 -0.007566 -0.8347
6266000000.0 -0.631 -0.5331
