! Created with skrf 1.8.0 (http://scikit-rf.org).
# Hz S RI R 50.0 
!freq ReS11 ImS11
4000000000.0 -0.1309 -1.519
4003000000.0 -1.271 -0.7997
4006000000.0 -1.424 0.4538
4009000000.0 -0.5386 1.435
4012000000.0 0.7908 1.322
4016000000.0 1.518 0.2278
4019000000.0 1.125 -1.059
4022000000.0 -0.09884 -1.522
4025000000.0 -1.337 -0.9137
4028000000.0 -1.509 0.4737
4031000000.0 -0.6135 1.487
4034000000.0 0.8 1.405
4038000000.0 1.597 0.2435
4041000000.0 1.183 -1.095
4044000000.0 -0.09334 -1.57
4047000000.0 -1.297 -0.9407
4050000000.0 -1.621 0.4717
4053000000.0 -0.7106 1.477
4056000000.0 0.7333 1.407
4059000000.0 1.587 0.3647
4062000000.0 1.266 -1.022
4066000000.0 0.01619 -1.613
4069000000.0 -1.226 -1.065
4072000000.0 -1.599 0.2554
4075000000.0 -0.8108 1.392
4078000000.0 0.5672 1.528
4081000000.0 1.56 0.582
4084000000.0 1.459 -0.8097
4088000000.0 0.255 -1.648
4091000000.0 -1.109 -1.229
4094000000.0 -1.638 0.05373
4097000000.0 -0.981 1.341
4100000000.0 0.3666 1.591
4103000000.0 1.432 0.7161
4106000000.0 1.436 -0.6499
4109000000.0 0.4198 -1.512
4112000000.0 -0.8333 -1.287
4116000000.0 -1.514 -0.1912
4119000000.0 -1.113 0.9759
4122000000.0 0.01506 1.465
4125000000.0 1.1 0.9647
4128000000.0 1.449 -0.2042
4131000000.0 0.782 -1.265
4134000000.0 -0.4372 -1.442
4138000000.0 -1.375 -0.6012
4141000000.0 -1.324 0.6444
4144000000.0 -0.4131 1.462
4147000000.0 0.8402 1.231
4150000000.0 1.512 0.1563
4153000000.0 1.066 -1.076
4156000000.0 -0.0932 -1.496
4159000000.0 -1.259 -0.8914
4162000000.0 -1.472 0.391
4166000000.0 -0.68 1.344
4169000000.0 0.6123 1.408
4172000000.0 1.435 0.4336
4175000000.0 1.26 -0.8252
4178000000.0 0.1803 -1.513
4181000000.0 -1.052 -1.104
4184000000.0 -1.503 0.0919
4188000000.0 -0.8809 1.219
4191000000.0 0.4058 1.467
4194000000.0 1.399 0.7029
4197000000.0 1.429 -0.6362
4200000000.0 0.3936 -1.52
4203000000.0 -0.9306 -1.287
4206000000.0 -1.621 -0.05571
4209000000.0 -1.106 1.286
4212000000.0 0.3236 1.64
4216000000.0 1.489 0.7455
4219000000.0 1.526 -0.7565
4222000000.0 0.3572 -1.66
4225000000.0 -1.103 -1.284
4228000000.0 -1.692 0.09188
4231000000.0 -0.9425 1.417
4234000000.0 0.5435 1.593
4238000000.0 1.577 0.5105
4241000000.0 1.379 -0.9366
4244000000.0 0.06755 -1.616
4247000000.0 -1.207 -1.073
4250000000.0 -1.547 0.3213
4253000000.0 -0.7023 1.4
4256000000.0 0.6827 1.388
4259000000.0 1.511 0.2977
4262000000.0 1.172 -0.9791
4266000000.0 -0.04779 -1.484
4269000000.0 -1.215 -0.8931
4272000000.0 -1.459 0.4105
4275000000.0 -0.5855 1.349
4278000000.0 0.7436 1.281
4281000000.0 1.455 0.1483
4284000000.0 1.002 -0.9845
4288000000.0 -0.1183 -1.437
4291000000.0 -1.14 -0.7956
4294000000.0 -1.302 0.3974
4297000000.0 -0.4959 1.261
4300000000.0 0.632 1.195
4303000000.0 1.259 0.2476
4306000000.0 0.9949 -0.7937
4309000000.0 0.03958 -1.268
4312000000.0 -0.9736 -0.8626
4316000000.0 -1.291 0.2038
4319000000.0 -0.6794 1.106
4322000000.0 0.4048 1.213
4325000000.0 1.277 0.4484
4328000000.0 1.174 -0.5855
4331000000.0 0.3035 -1.337
4334000000.0 -0.8439 -1.06
4338000000.0 -1.392 -0.08219
4341000000.0 -0.9346 1.021
4344000000.0 0.1854 1.412
4347000000.0 1.232 0.7214
4350000000.0 1.345 -0.5016
4353000000.0 0.5036 -1.33
4356000000.0 -0.7404 -1.281
4359000000.0 -1.435 -0.2604
4362000000.0 -1.13 0.9065
4366000000.0 0.003083 1.493
4369000000.0 1.118 0.9136
4372000000.0 1.453 -0.261
4375000000.0 0.7536 -1.313
4378000000.0 -0.5179 -1.389
4381000000.0 -1.43 -0.5046
4384000000.0 -1.298 0.8105
4388000000.0 -0.2133 1.52
4391000000.0 1.065 1.107
4394000000.0 1.575 -0.1441
4397000000.0 0.8841 -1.329
4400000000.0 -0.4861 -1.484
4403000000.0 -1.476 -0.5854
4406000000.0 -1.373 0.8183
4409000000.0 -0.2061 1.584
4412000000.0 1.109 1.132
4416000000.0 1.516 -0.1714
4419000000.0 0.8217 -1.311
4422000000.0 -0.5023 -1.436
4425000000.0 -1.423 -0.4688
4428000000.0 -1.223 0.8507
4431000000.0 -0.0786 1.453
4434000000.0 1.075 0.9795
4438000000.0 1.402 -0.2696
4441000000.0 0.6553 -1.216
4444000000.0 -0.5644 -1.254
4447000000.0 -1.319 -0.3206
4450000000.0 -1.038 0.8299
4453000000.0 -0.03011 1.33
4456000000.0 1.041 0.7996
4459000000.0 1.237 -0.3525
4462000000.0 0.5099 -1.174
4466000000.0 -0.6565 -1.06
4469000000.0 -1.229 -0.1706
4472000000.0 -0.9011 0.8726
4475000000.0 0.1546 1.229
4478000000.0 0.9905 0.6108
4481000000.0 1.081 -0.4005
4484000000.0 0.3428 -1.118
4488000000.0 -0.6503 -0.9621
4491000000.0 -1.129 -0.08259
4494000000.0 -0.7859 0.854
4497000000.0 0.1511 1.141
4500000000.0 0.967 0.5694
4503000000.0 1.042 -0.3768
4506000000.0 0.3202 -1.043
4509000000.0 -0.6091 -0.9432
4512000000.0 -1.111 -0.1424
4516000000.0 -0.8183 0.7592
4519000000.0 0.1188 1.155
4522000000.0 0.9459 0.6056
4525000000.0 1.101 -0.3452
4528000000.0 0.3967 -1.051
4531000000.0 -0.5612 -1.021
4534000000.0 -1.13 -0.2117
4538000000.0 -0.8935 0.7769
4541000000.0 0.01623 1.197
4544000000.0 0.9287 0.7737
4547000000.0 1.172 -0.2461
4550000000.0 0.5751 -1.052
4553000000.0 -0.4452 -1.137
4556000000.0 -1.157 -0.3572
4559000000.0 -1.045 0.6299
4562000000.0 -0.1653 1.214
4566000000.0 0.815 0.9112
4569000000.0 1.279 -0.05553
4572000000.0 0.7928 -0.9824
4575000000.0 -0.2881 -1.249
4578000000.0 -1.141 -0.6032
4581000000.0 -1.216 0.4891
4584000000.0 -0.428 1.252
4588000000.0 0.7177 1.152
4591000000.0 1.346 0.1252
4594000000.0 1.006 -0.9428
4597000000.0 -0.1098 -1.386
4600000000.0 -1.122 -0.7988
4603000000.0 -1.331 0.3579
4606000000.0 -0.5535 1.252
4609000000.0 0.6339 1.253
4612000000.0 1.354 0.3266
4616000000.0 1.098 -0.8601
4619000000.0 0.0544 -1.393
4622000000.0 -1.077 -0.8974
4625000000.0 -1.364 0.2504
4628000000.0 -0.6794 1.202
4631000000.0 0.5006 1.292
4634000000.0 1.316 0.3832
4638000000.0 1.133 -0.7503
4641000000.0 0.1437 -1.347
4644000000.0 -0.9746 -0.9483
4647000000.0 -1.358 0.1934
4650000000.0 -0.674 1.15
4653000000.0 0.4791 1.214
4656000000.0 1.241 0.3883
4659000000.0 1.077 -0.7431
4662000000.0 0.09924 -1.287
4666000000.0 -0.9034 -0.8425
4669000000.0 -1.219 0.1777
4672000000.0 -0.5947 1.062
4675000000.0 0.4451 1.096
4678000000.0 1.117 0.3252
4681000000.0 0.9364 -0.6461
4684000000.0 0.0478 -1.113
4688000000.0 -0.8531 -0.7424
4691000000.0 -1.116 0.1658
4694000000.0 -0.5564 0.9431
4697000000.0 0.4347 1.022
4700000000.0 1.069 0.3381
4703000000.0 0.8703 -0.6566
4706000000.0 0.05308 -1.062
4709000000.0 -0.821 -0.7191
4712000000.0 -1.077 0.2138
4716000000.0 -0.496 0.9586
4719000000.0 0.4243 0.9518
4722000000.0 1.028 0.262
4725000000.0 0.8363 -0.6212
4728000000.0 0.04913 -1.063
4731000000.0 -0.7799 -0.6928
4734000000.0 -1.004 0.1631
4738000000.0 -0.5199 0.9163
4741000000.0 0.34 0.9884
4744000000.0 0.9945 0.3513
4747000000.0 0.8957 -0.5369
4750000000.0 0.1745 -1.042
4753000000.0 -0.7008 -0.8177
4756000000.0 -1.085 0.04492
4759000000.0 -0.6839 0.8407
4762000000.0 0.2608 1.094
4766000000.0 0.9916 0.5257
4769000000.0 0.9962 -0.4482
4772000000.0 0.3557 -1.104
4775000000.0 -0.6275 -0.9581
4778000000.0 -1.159 -0.1489
4781000000.0 -0.8533 0.8226
4784000000.0 0.03304 1.204
4788000000.0 0.9446 0.7091
4791000000.0 1.168 -0.2502
4794000000.0 0.5924 -1.084
4797000000.0 -0.4609 -1.129
4800000000.0 -1.209 -0.4021
4803000000.0 -1.038 0.6756
4806000000.0 -0.178 1.233
4809000000.0 0.8309 0.9475
4812000000.0 1.282 -0.03097
4816000000.0 0.8386 -1.015
4819000000.0 -0.2605 -1.282
4822000000.0 -1.188 -0.6082
4825000000.0 -1.242 0.5246
4828000000.0 -0.4091 1.283
4831000000.0 0.74 1.147
4834000000.0 1.38 0.1516
4838000000.0 0.9967 -0.9865
4841000000.0 -0.1013 -1.394
4844000000.0 -1.155 -0.7555
4847000000.0 -1.323 0.413
4850000000.0 -0.537 1.295
4853000000.0 0.6444 1.225
4856000000.0 1.349 0.2866
4859000000.0 1.046 -0.8673
4862000000.0 -0.03255 -1.392
4866000000.0 -1.068 -0.8311
4869000000.0 -1.312 0.2988
4872000000.0 -0.5785 1.194
4875000000.0 0.5347 1.209
4878000000.0 1.237 0.308
4881000000.0 1.05 -0.7699
4884000000.0 0.05436 -1.253
4888000000.0 -0.9409 -0.8167
4891000000.0 -1.204 0.206
4894000000.0 -0.5588 1.047
4897000000.0 0.4203 1.092
4900000000.0 1.081 0.3243
4903000000.0 0.9457 -0.6208
4906000000.0 0.09258 -1.096
4909000000.0 -0.7739 -0.7252
4912000000.0 -1.033 0.1256
4916000000.0 -0.5194 0.9075
4919000000.0 0.3447 0.97
4922000000.0 0.9504 0.3644
4925000000.0 0.8539 -0.4804
4928000000.0 0.161 -0.9747
4931000000.0 -0.637 -0.7101
4934000000.0 -0.9572 0.02392
4938000000.0 -0.5591 0.7533
4941000000.0 0.1969 0.9143
4944000000.0 0.8476 0.4374
4947000000.0 0.8562 -0.3826
4950000000.0 0.2558 -0.9211
4953000000.0 -0.5693 -0.7369
4956000000.0 -0.9783 -0.06403
4959000000.0 -0.6683 0.7153
4962000000.0 0.1589 0.9645
4966000000.0 0.8517 0.4931
4969000000.0 0.923 -0.3486
4972000000.0 0.3229 -0.937
4975000000.0 -0.538 -0.8809
4978000000.0 -1.003 -0.1219
4981000000.0 -0.7524 0.6817
4984000000.0 0.05192 1.053
4988000000.0 0.8539 0.6118
4991000000.0 1.034 -0.2598
4994000000.0 0.4595 -0.9564
4997000000.0 -0.4437 -1.016
5000000000.0 -1.085 -0.301
5003000000.0 -0.9271 0.6565
5006000000.0 -0.07017 1.152
5009000000.0 0.8425 0.8159
5012000000.0 1.161 -0.113
5016000000.0 0.6925 -1.007
5019000000.0 -0.4106 -1.182
5022000000.0 -1.155 -0.4627
5025000000.0 -1.124 0.6098
5028000000.0 -0.2329 1.25
5031000000.0 0.8274 0.9854
5034000000.0 1.285 -0.0216
5038000000.0 0.842 -0.9659
5041000000.0 -0.2459 -1.256
5044000000.0 -1.119 -0.6448
5047000000.0 -1.209 0.4593
5050000000.0 -0.441 1.229
5053000000.0 0.6592 1.124
5056000000.0 1.28 0.2087
5059000000.0 0.9951 -0.8458
5062000000.0 -0.03725 -1.334
5066000000.0 -1.019 -0.822
5069000000.0 -1.288 0.2492
5072000000.0 -0.6461 1.166
5075000000.0 0.4903 1.195
5078000000.0 1.214 0.4089
5081000000.0 1.057 -0.6593
5084000000.0 0.1885 -1.243
5088000000.0 -0.8442 -0.9024
5091000000.0 -1.225 0.08513
5094000000.0 -0.7058 0.9644
5097000000.0 0.2911 1.131
5100000000.0 1.002 0.5215
5103000000.0 1.06 -0.4896
5106000000.0 0.3316 -1.063
5109000000.0 -0.6346 -0.9296
5112000000.0 -1.091 -0.1085
5116000000.0 -0.7832 0.7492
5119000000.0 0.02471 1.06
5122000000.0 0.8453 0.631
5125000000.0 0.9876 -0.2292
5128000000.0 0.4364 -0.936
5131000000.0 -0.4037 -0.9478
5134000000.0 -0.9929 -0.2302
5138000000.0 -0.8288 0.5814
5141000000.0 -0.06049 0.9376
5144000000.0 0.7234 0.6578
5147000000.0 0.9415 -0.145
5150000000.0 0.472 -0.7852
5153000000.0 -0.3039 -0.8388
5156000000.0 -0.8688 -0.3063
5159000000.0 -0.7842 0.4397
5162000000.0 -0.1256 0.9237
5166000000.0 0.6028 0.7063
5169000000.0 0.9068 -0.03527
5172000000.0 0.5051 -0.7364
5175000000.0 -0.2137 -0.8777
5178000000.0 -0.8262 -0.3726
5181000000.0 -0.8284 0.4177
5184000000.0 -0.1955 0.8971
5188000000.0 0.6 0.7049
5191000000.0 0.9572 0.002492
5194000000.0 0.5697 -0.7341
5197000000.0 -0.2334 -0.9331
5200000000.0 -0.8634 -0.3826
5203000000.0 -0.8274 0.4309
5206000000.0 -0.2068 0.9284
5209000000.0 0.6111 0.7549
5212000000.0 0.9474 -0.0116
5216000000.0 0.6462 -0.74
5219000000.0 -0.2209 -0.9414
5222000000.0 -0.874 -0.4458
5225000000.0 -0.9311 0.4142
5228000000.0 -0.2761 0.9683
5231000000.0 0.6147 0.8143
5234000000.0 1.023 0.05183
5238000000.0 0.7145 -0.7513
5241000000.0 -0.1135 -1.062
5244000000.0 -0.8765 -0.57
5247000000.0 -1.009 0.33
5250000000.0 -0.386 0.9684
5253000000.0 0.5222 0.9507
5256000000.0 1.055 0.2021
5259000000.0 0.8137 -0.6776
5262000000.0 0.0267 -1.089
5266000000.0 -0.8266 -0.7378
5269000000.0 -1.06 0.1729
5272000000.0 -0.5665 0.9574
5275000000.0 0.3491 1.044
5278000000.0 1.012 0.4206
5281000000.0 0.9874 -0.4855
5284000000.0 0.2355 -1.099
5288000000.0 -0.6485 -0.8528
5291000000.0 -1.117 -0.0313
5294000000.0 -0.772 0.8352
5297000000.0 0.09013 1.116
5300000000.0 0.9171 0.6532
5303000000.0 1.094 -0.2553
5306000000.0 0.4635 -1.037
5309000000.0 -0.4702 -1.024
5312000000.0 -1.093 -0.2972
5316000000.0 -0.9776 0.6716
5319000000.0 -0.1232 1.142
5322000000.0 0.8074 0.8128
5325000000.0 1.138 -0.08807
5328000000.0 0.6472 -0.9468
5331000000.0 -0.3617 -1.103
5334000000.0 -1.034 -0.4569
5338000000.0 -1.042 0.4927
5341000000.0 -0.2871 1.092
5344000000.0 0.6772 0.8813
5347000000.0 1.107 0.0917
5350000000.0 0.7198 -0.8163
5353000000.0 -0.1533 -1.127
5356000000.0 -0.9463 -0.5547
5359000000.0 -1.046 0.351
5362000000.0 -0.3573 1.029
5366000000.0 0.5455 0.9165
5369000000.0 1.072 0.1328
5372000000.0 0.7552 -0.7352
5375000000.0 -0.0897 -1.046
5378000000.0 -0.8502 -0.5626
5381000000.0 -0.9554 0.3367
5384000000.0 -0.3405 0.9676
5388000000.0 0.5242 0.847
5391000000.0 0.9722 0.1082
5394000000.0 0.6696 -0.6722
5397000000.0 -0.09798 -0.9238
5400000000.0 -0.7556 -0.4901
5403000000.0 -0.8744 0.3138
5406000000.0 -0.2974 0.8595
5409000000.0 0.4763 0.7422
5412000000.0 0.8839 0.09107
5416000000.0 0.629 -0.6138
5419000000.0 -0.1208 -0.8682
5422000000.0 -0.7378 -0.4412
5425000000.0 -0.8308 0.3074
5428000000.0 -0.2588 0.8342
5431000000.0 0.4731 0.7315
5434000000.0 0.8457 0.08677
5438000000.0 0.6037 -0.6345
5441000000.0 -0.1008 -0.8776
5444000000.0 -0.7464 -0.4574
5447000000.0 -0.8288 0.3042
5450000000.0 -0.2707 0.8016
5453000000.0 0.4475 0.7631
5456000000.0 0.8765 0.09315
5459000000.0 0.6418 -0.6138
5462000000.0 -0.05689 -0.8825
5466000000.0 -0.7194 -0.5283
5469000000.0 -0.8844 0.2228
5472000000.0 -0.3919 0.8292
5475000000.0 0.3829 0.8346
5478000000.0 0.9306 0.2307
5481000000.0 0.8121 -0.5175
5484000000.0 0.08609 -0.9606
5488000000.0 -0.7065 -0.6816
5491000000.0 -1.003 0.1206
5494000000.0 -0.5138 0.825
5497000000.0 0.2736 0.9642
5500000000.0 0.9456 0.4189
5503000000.0 0.8962 -0.4313
5506000000.0 0.2464 -1.005
5509000000.0 -0.6375 -0.8284
5512000000.0 -1.001 -0.06223
5516000000.0 -0.7628 0.7236
5519000000.0 0.09195 1.026
5522000000.0 0.8492 0.599
5525000000.0 0.988 -0.2423
5528000000.0 0.4271 -0.9585
5531000000.0 -0.4301 -0.9775
5534000000.0 -1.039 -0.2678
5538000000.0 -0.8916 0.5925
5541000000.0 -0.09333 1.056
5544000000.0 0.7506 0.7404
5547000000.0 1.048 -0.06348
5550000000.0 0.6346 -0.8692
5553000000.0 -0.2542 -1.023
5556000000.0 -0.9581 -0.4334
5559000000.0 -0.9764 0.453
5562000000.0 -0.2457 1.013
5566000000.0 0.6336 0.8218
5569000000.0 1.06 0.04942
5572000000.0 0.7363 -0.75
5575000000.0 -0.144 -1.015
5578000000.0 -0.8496 -0.5411
5581000000.0 -0.9666 0.3419
5584000000.0 -0.3775 0.9603
5588000000.0 0.4705 0.8473
5591000000.0 0.9735 0.1683
5594000000.0 0.7488 -0.5914
5597000000.0 -0.01894 -0.9449
5600000000.0 -0.7335 -0.5812
5603000000.0 -0.9236 0.2104
5606000000.0 -0.437 0.805
5609000000.0 0.3726 0.8101
5612000000.0 0.8571 0.2531
5616000000.0 0.7068 -0.5048
5619000000.0 0.04702 -0.8522
5622000000.0 -0.6456 -0.5983
5625000000.0 -0.8452 0.116
5628000000.0 -0.4223 0.7494
5631000000.0 0.2939 0.7978
5634000000.0 0.8164 0.2462
5638000000.0 0.722 -0.441
5641000000.0 0.08783 -0.8176
5644000000.0 -0.5976 -0.6049
5647000000.0 -0.8378 0.085
5650000000.0 -0.4645 0.6973
5653000000.0 0.2774 0.7854
5656000000.0 0.8361 0.2948
5659000000.0 0.7282 -0.4772
5662000000.0 0.08826 -0.8559
5666000000.0 -0.6031 -0.6151
5669000000.0 -0.8798 0.09534
5672000000.0 -0.48 0.7573
5675000000.0 0.3214 0.8487
5678000000.0 0.8557 0.3246
5681000000.0 0.781 -0.491
5684000000.0 0.1091 -0.9079
5688000000.0 -0.623 -0.682
5691000000.0 -0.9663 0.0864
5694000000.0 -0.5408 0.7982
5697000000.0 0.2797 0.9082
5700000000.0 0.9175 0.3858
5703000000.0 0.8525 -0.5082
5706000000.0 0.1751 -0.9903
5709000000.0 -0.6428 -0.7815
5712000000.0 -1.025 0.0112
5716000000.0 -0.6335 0.8229
5719000000.0 0.2255 1.01
5722000000.0 0.9363 0.4897
5725000000.0 0.9667 -0.4024
5728000000.0 0.3153 -1.032
5731000000.0 -0.6151 -0.9122
5734000000.0 -1.069 -0.1139
5738000000.0 -0.7811 0.7624
5741000000.0 0.09668 1.105
5744000000.0 0.9025 0.6324
5747000000.0 1.018 -0.2754
5750000000.0 0.4386 -0.9819
5753000000.0 -0.4453 -0.9878
5756000000.0 -1.061 -0.3037
5759000000.0 -0.8963 0.6544
5762000000.0 -0.07965 1.121
5766000000.0 0.7957 0.786
5769000000.0 1.103 -0.1337
5772000000.0 0.6433 -0.9201
5775000000.0 -0.3241 -1.11
5778000000.0 -1.022 -0.4606
5781000000.0 -0.9605 0.4858
5784000000.0 -0.2915 1.092
5788000000.0 0.6766 0.8867
5791000000.0 1.085 0.06142
5794000000.0 0.7316 -0.7835
5797000000.0 -0.1212 -1.059
5800000000.0 -0.9218 -0.5636
5803000000.0 -0.9998 0.3327
5806000000.0 -0.4012 0.9715
5809000000.0 0.5439 0.9565
5812000000.0 1.046 0.2051
5816000000.0 0.7748 -0.6962
5819000000.0 0.0001401 -1.056
5822000000.0 -0.8041 -0.6205
5825000000.0 -0.973 0.2002
5828000000.0 -0.4545 0.884
5831000000.0 0.3831 0.9067
5834000000.0 0.9581 0.244
5838000000.0 0.8013 -0.5662
5841000000.0 0.07119 -0.9344
5844000000.0 -0.6942 -0.6527
5847000000.0 -0.908 0.1314
5850000000.0 -0.4717 0.7718
5853000000.0 0.309 0.9005
5856000000.0 0.8634 0.3008
5859000000.0 0.7973 -0.5195
5862000000.0 0.1067 -0.9343
5866000000.0 -0.6321 -0.6849
5869000000.0 -0.9207 0.1027
5872000000.0 -0.4852 0.7659
5875000000.0 0.2938 0.8544
5878000000.0 0.8273 0.2918
5881000000.0 0.7637 -0.4699
5884000000.0 0.1281 -0.8854
5888000000.0 -0.6043 -0.6632
5891000000.0 -0.8457 0.06381
5894000000.0 -0.4852 0.727
5897000000.0 0.2516 0.8516
5900000000.0 0.8214 0.3351
5903000000.0 0.7664 -0.4052
5906000000.0 0.1707 -0.8486
5909000000.0 -0.5259 -0.6816
5912000000.0 -0.8697 0.01837
5916000000.0 -0.5732 0.6619
5919000000.0 0.1451 0.8757
5922000000.0 0.7494 0.3997
5925000000.0 0.795 -0.3424
5928000000.0 0.2611 -0.848
5931000000.0 -0.4726 -0.734
5934000000.0 -0.8977 -0.08773
5938000000.0 -0.6176 0.6121
5941000000.0 0.06134 0.8955
5944000000.0 0.7378 0.5436
5947000000.0 0.9177 -0.2278
5950000000.0 0.3855 -0.8302
5953000000.0 -0.4261 -0.8122
5956000000.0 -0.8976 -0.2557
5959000000.0 -0.7559 0.5281
5962000000.0 -0.07934 0.9428
5966000000.0 0.6374 0.6378
5969000000.0 0.9369 -0.08033
5972000000.0 0.5239 -0.8247
5975000000.0 -0.2568 -0.9276
5978000000.0 -0.901 -0.3972
5981000000.0 -0.8855 0.4399
5984000000.0 -0.2431 0.9632
5988000000.0 0.5743 0.8039
5991000000.0 1.004 0.05736
5994000000.0 0.6748 -0.7541
5997000000.0 -0.1269 -0.9836
6000000000.0 -0.8616 -0.541
6003000000.0 -0.958 0.3054
6006000000.0 -0.3765 0.9301
6009000000.0 0.4815 0.8632
6012000000.0 0.9725 0.2025
6016000000.0 0.7724 -0.6287
6019000000.0 -0.006456 -1.006
6022000000.0 -0.7738 -0.6122
6025000000.0 -0.987 0.2078
6028000000.0 -0.4627 0.8762
6031000000.0 0.3873 0.8981
6034000000.0 0.9328 0.2703
6038000000.0 0.8012 -0.5613
6041000000.0 0.06815 -0.9888
6044000000.0 -0.6974 -0.6781
6047000000.0 -0.9773 0.1362
6050000000.0 -0.4877 0.8098
6053000000.0 0.3041 0.8699
6056000000.0 0.8496 0.3397
6059000000.0 0.8053 -0.4932
6062000000.0 0.1358 -0.9191
6066000000.0 -0.6123 -0.6681
6069000000.0 -0.9107 0.0619
6072000000.0 -0.5075 0.7401
6075000000.0 0.2699 0.8474
6078000000.0 0.8231 0.3531
6081000000.0 0.7797 -0.4484
6084000000.0 0.1614 -0.8588
6088000000.0 -0.563 -0.6625
6091000000.0 -0.8592 0.01704
6094000000.0 -0.524 0.6795
6097000000.0 0.1754 0.8921
6100000000.0 0.7626 0.3853
6103000000.0 0.7417 -0.3604
6106000000.0 0.196 -0.8359
6109000000.0 -0.5064 -0.7002
6112000000.0 -0.8448 -0.02846
6116000000.0 -0.5882 0.6418
6119000000.0 0.154 0.8672
6122000000.0 0.7575 0.4101
6125000000.0 0.8205 -0.3591
6128000000.0 0.2397 -0.8432
6131000000.0 -0.5084 -0.7314
6134000000.0 -0.8605 -0.04455
6138000000.0 -0.6106 0.6131
6141000000.0 0.1295 0.8565
6144000000.0 0.7709 0.4708
6147000000.0 0.8214 -0.2928
6150000000.0 0.3167 -0.8284
6153000000.0 -0.4595 -0.7853
6156000000.0 -0.8922 -0.1164
6159000000.0 -0.6566 0.5627
6162000000.0 0.04325 0.9063
6166000000.0 0.7277 0.5413
6169000000.0 0.9045 -0.2253
6172000000.0 0.4238 -0.8591
6175000000.0 -0.4085 -0.8415
6178000000.0 -0.9158 -0.2043
6181000000.0 -0.758 0.5608
6184000000.0 -0.04336 0.9515
6188000000.0 0.7089 0.6336
6191000000.0 0.934 -0.1512
6194000000.0 0.498 -0.8303
6197000000.0 -0.3225 -0.9001
6200000000.0 -0.8933 -0.2865
6203000000.0 -0.8201 0.449
6206000000.0 -0.1265 0.9392
6209000000.0 0.6141 0.6632
6212000000.0 0.9156 -0.04081
6216000000.0 0.5753 -0.7507
6219000000.0 -0.228 -0.9095
6222000000.0 -0.7952 -0.3958
6225000000.0 -0.8478 0.3938
6228000000.0 -0.24 0.8442
6231000000.0 0.5122 0.7346
6234000000.0 0.8791 0.05501
6238000000.0 0.599 -0.6666
6241000000.0 -0.117 -0.8528
6244000000.0 -0.7606 -0.4794
6247000000.0 -0.8407 0.2795
6250000000.0 -0.3337 0.7787
6253000000.0 0.4186 0.726
6256000000.0 0.812 0.1837
6259000000.0 0.67 -0.5112
6262000000.0 0.04551 -0.824
6266000000.0 -0.6091 -0.5659
