! Created with skrf 1.8.0 (http://scikit-rf.org).
# Hz S RI R 50.0 
!freq ReS11 ImS11
4000000000.0 -0.1986 -1.551
4003000000.0 -1.301 -0.8308
4006000000.0 -1.403 0.5253
4009000000.0 -0.4818 1.439
4012000000.0 0.7892 1.298
4016000000.0 1.491 0.2359
4019000000.0 1.137 -1.06
4022000000.0 -0.0977 -1.61
4025000000.0 -1.339 -0.8529
4028000000.0 -1.579 0.4619
4031000000.0 -0.6584 1.497
4034000000.0 0.8245 1.4
4038000000.0 1.612 0.2597
4041000000.0 1.212 -1.107
4044000000.0 -0.08114 -1.635
4047000000.0 -1.413 -0.9124
4050000000.0 -1.614 0.4801
4053000000.0 -0.5813 1.518
4056000000.0 0.7668 1.44
4059000000.0 1.612 0.3313
4062000000.0 1.316 -1.036
4066000000.0 0.0008109 -1.644
4069000000.0 -1.245 -1.104
4072000000.0 -1.614 0.2843
4075000000.0 -0.7974 1.417
4078000000.0 0.5835 1.534
4081000000.0 1.576 0.5596
4084000000.0 1.457 -0.8536
4088000000.0 0.2478 -1.636
4091000000.0 -1.098 -1.239
4094000000.0 -1.652 0.07166
4097000000.0 -0.9987 1.32
4100000000.0 0.3765 1.604
4103000000.0 1.419 0.7185
4106000000.0 1.458 -0.6095
4109000000.0 0.4774 -1.532
4112000000.0 -0.8304 -1.315
4116000000.0 -1.534 -0.2062
4119000000.0 -1.139 1.032
4122000000.0 0.01314 1.517
4125000000.0 1.156 0.9536
4128000000.0 1.473 -0.2561
4131000000.0 0.82 -1.271
4134000000.0 -0.426 -1.427
4138000000.0 -1.379 -0.5968
4141000000.0 -1.378 0.6464
4144000000.0 -0.4362 1.48
4147000000.0 0.8606 1.291
4150000000.0 1.519 0.1671
4153000000.0 1.109 -1.096
4156000000.0 -0.08505 -1.524
4159000000.0 -1.273 -0.8899
4162000000.0 -1.478 0.4027
4166000000.0 -0.675 1.4
4169000000.0 0.6228 1.384
4172000000.0 1.509 0.417
4175000000.0 1.254 -0.8362
4178000000.0 0.1538 -1.532
4181000000.0 -1.015 -1.101
4184000000.0 -1.523 0.08238
4188000000.0 -0.933 1.254
4191000000.0 0.3627 1.488
4194000000.0 1.427 0.7014
4197000000.0 1.445 -0.6666
4200000000.0 0.4217 -1.587
4203000000.0 -0.9679 -1.325
4206000000.0 -1.637 -0.06352
4209000000.0 -1.091 1.251
4212000000.0 0.3288 1.667
4216000000.0 1.532 0.7396
4219000000.0 1.556 -0.7644
4222000000.0 0.3531 -1.687
4225000000.0 -1.142 -1.278
4228000000.0 -1.718 0.1101
4231000000.0 -0.9708 1.409
4234000000.0 0.5365 1.62
4238000000.0 1.545 0.5249
4241000000.0 1.36 -0.9036
4244000000.0 0.08905 -1.631
4247000000.0 -1.213 -1.082
4250000000.0 -1.591 0.3141
4253000000.0 -0.7099 1.431
4256000000.0 0.658 1.408
4259000000.0 1.554 0.2972
4262000000.0 1.181 -0.9841
4266000000.0 -0.073 -1.572
4269000000.0 -1.217 -0.8985
4272000000.0 -1.415 0.413
4275000000.0 -0.5322 1.418
4278000000.0 0.7581 1.274
4281000000.0 1.44 0.2116
4284000000.0 1.009 -1.014
4288000000.0 -0.1455 -1.409
4291000000.0 -1.172 -0.7646
4294000000.0 -1.289 0.441
4297000000.0 -0.5433 1.253
4300000000.0 0.6789 1.204
4303000000.0 1.294 0.2832
4306000000.0 1.002 -0.8443
4309000000.0 0.0273 -1.302
4312000000.0 -0.9766 -0.85
4316000000.0 -1.28 0.1855
4319000000.0 -0.695 1.125
4322000000.0 0.4389 1.259
4325000000.0 1.254 0.5079
4328000000.0 1.172 -0.6168
4331000000.0 0.283 -1.336
4334000000.0 -0.8629 -1.087
4338000000.0 -1.399 -0.02071
4341000000.0 -0.9361 1.062
4344000000.0 0.1924 1.417
4347000000.0 1.239 0.7711
4350000000.0 1.35 -0.4979
4353000000.0 0.5323 -1.366
4356000000.0 -0.7198 -1.273
4359000000.0 -1.467 -0.2159
4362000000.0 -1.171 0.9585
4366000000.0 -0.02032 1.49
4369000000.0 1.165 0.9847
4372000000.0 1.458 -0.2902
4375000000.0 0.7551 -1.34
4378000000.0 -0.5727 -1.394
4381000000.0 -1.454 -0.484
4384000000.0 -1.323 0.8455
4388000000.0 -0.2068 1.538
4391000000.0 1.075 1.146
4394000000.0 1.555 -0.1458
4397000000.0 0.8875 -1.337
4400000000.0 -0.4838 -1.53
4403000000.0 -1.492 -0.5599
4406000000.0 -1.406 0.842
4409000000.0 -0.1952 1.598
4412000000.0 1.123 1.118
4416000000.0 1.57 -0.1852
4419000000.0 0.8198 -1.343
4422000000.0 -0.5521 -1.46
4425000000.0 -1.466 -0.4851
4428000000.0 -1.217 0.851
4431000000.0 -0.1034 1.451
4434000000.0 1.103 0.9926
4438000000.0 1.404 -0.2269
4441000000.0 0.7164 -1.255
4444000000.0 -0.5601 -1.276
4447000000.0 -1.317 -0.3357
4450000000.0 -1.082 0.8206
4453000000.0 0.008202 1.353
4456000000.0 1.061 0.8158
4459000000.0 1.276 -0.3364
4462000000.0 0.4698 -1.192
4466000000.0 -0.643 -1.116
4469000000.0 -1.228 -0.1935
4472000000.0 -0.8611 0.8685
4475000000.0 0.1499 1.221
4478000000.0 1.021 0.6044
4481000000.0 1.127 -0.3966
4484000000.0 0.3599 -1.086
4488000000.0 -0.6454 -0.9522
4491000000.0 -1.184 -0.09565
4494000000.0 -0.7732 0.8448
4497000000.0 0.1737 1.131
4500000000.0 0.9866 0.5605
4503000000.0 1.039 -0.3892
4506000000.0 0.3306 -1.092
4509000000.0 -0.618 -0.9093
4512000000.0 -1.095 -0.105
4516000000.0 -0.803 0.8092
4519000000.0 0.1325 1.139
4522000000.0 0.9563 0.6096
4525000000.0 1.088 -0.3361
4528000000.0 0.4301 -1.086
4531000000.0 -0.5721 -1.018
4534000000.0 -1.16 -0.1791
4538000000.0 -0.9219 0.7559
4541000000.0 0.0477 1.181
4544000000.0 0.9288 0.7485
4547000000.0 1.182 -0.2323
4550000000.0 0.573 -1.076
4553000000.0 -0.4548 -1.14
4556000000.0 -1.196 -0.4007
4559000000.0 -1.059 0.6489
4562000000.0 -0.1674 1.249
4566000000.0 0.8279 0.9308
4569000000.0 1.285 -0.0556
4572000000.0 0.7983 -1.042
4575000000.0 -0.2931 -1.289
4578000000.0 -1.141 -0.6057
4581000000.0 -1.23 0.5074
4584000000.0 -0.3964 1.262
4588000000.0 0.7296 1.128
4591000000.0 1.361 0.1715
4594000000.0 0.9841 -0.9594
4597000000.0 -0.1036 -1.386
4600000000.0 -1.136 -0.8345
4603000000.0 -1.346 0.3676
4606000000.0 -0.5566 1.304
4609000000.0 0.6341 1.276
4612000000.0 1.368 0.3151
4616000000.0 1.125 -0.8405
4619000000.0 0.04712 -1.45
4622000000.0 -1.087 -0.8948
4625000000.0 -1.369 0.2419
4628000000.0 -0.6833 1.231
4631000000.0 0.5255 1.286
4634000000.0 1.329 0.4084
4638000000.0 1.162 -0.7811
4641000000.0 0.1115 -1.365
4644000000.0 -0.9978 -0.9281
4647000000.0 -1.344 0.1893
4650000000.0 -0.6626 1.165
4653000000.0 0.4816 1.271
4656000000.0 1.286 0.4306
4659000000.0 1.051 -0.7286
4662000000.0 0.1118 -1.278
4666000000.0 -0.9194 -0.8599
4669000000.0 -1.229 0.1833
4672000000.0 -0.6161 1.093
4675000000.0 0.4473 1.083
4678000000.0 1.111 0.3502
4681000000.0 0.9315 -0.6863
4684000000.0 0.06899 -1.169
4688000000.0 -0.8245 -0.7642
4691000000.0 -1.068 0.1945
4694000000.0 -0.544 0.9832
4697000000.0 0.4247 1.027
4700000000.0 1.065 0.3333
4703000000.0 0.8954 -0.6675
4706000000.0 0.05369 -1.094
4709000000.0 -0.863 -0.7255
4712000000.0 -1.092 0.2249
4716000000.0 -0.5172 0.9639
4719000000.0 0.4389 0.9819
4722000000.0 1.038 0.2302
4725000000.0 0.8702 -0.6232
4728000000.0 0.04211 -1.06
4731000000.0 -0.8001 -0.7035
4734000000.0 -1.036 0.1769
4738000000.0 -0.529 0.9173
4741000000.0 0.3921 0.9797
4744000000.0 0.9664 0.3538
4747000000.0 0.9129 -0.589
4750000000.0 0.1473 -1.051
4753000000.0 -0.7364 -0.8262
4756000000.0 -1.089 0.01653
4759000000.0 -0.6726 0.9179
4762000000.0 0.2233 1.114
4766000000.0 1.016 0.5143
4769000000.0 1.074 -0.4467
4772000000.0 0.3186 -1.168
4775000000.0 -0.6204 -0.9799
4778000000.0 -1.184 -0.1392
4781000000.0 -0.8495 0.8283
4784000000.0 0.06299 1.207
4788000000.0 0.9482 0.7469
4791000000.0 1.195 -0.272
4794000000.0 0.5785 -1.105
4797000000.0 -0.4768 -1.167
4800000000.0 -1.23 -0.374
4803000000.0 -1.052 0.6569
4806000000.0 -0.196 1.264
4809000000.0 0.8677 0.9759
4812000000.0 1.311 -0.03965
4816000000.0 0.8098 -1.013
4819000000.0 -0.2648 -1.319
4822000000.0 -1.205 -0.6326
4825000000.0 -1.261 0.5275
4828000000.0 -0.4204 1.334
4831000000.0 0.7836 1.171
4834000000.0 1.395 0.13
4838000000.0 1.001 -0.97
4841000000.0 -0.121 -1.428
4844000000.0 -1.161 -0.8109
4847000000.0 -1.352 0.4215
4850000000.0 -0.531 1.302
4853000000.0 0.6784 1.211
4856000000.0 1.36 0.2741
4859000000.0 1.059 -0.8851
4862000000.0 -0.04453 -1.388
4866000000.0 -1.047 -0.8806
4869000000.0 -1.316 0.3032
4872000000.0 -0.5697 1.206
4875000000.0 0.5406 1.194
4878000000.0 1.267 0.3412
4881000000.0 1.05 -0.7814
4884000000.0 0.04808 -1.293
4888000000.0 -0.9576 -0.8364
4891000000.0 -1.216 0.2092
4894000000.0 -0.6137 1.058
4897000000.0 0.4215 1.099
4900000000.0 1.115 0.3287
4903000000.0 0.944 -0.6245
4906000000.0 0.08557 -1.123
4909000000.0 -0.7956 -0.7527
4912000000.0 -1.051 0.1317
4916000000.0 -0.5205 0.872
4919000000.0 0.3488 0.9764
4922000000.0 0.9557 0.343
4925000000.0 0.8571 -0.5145
4928000000.0 0.1421 -0.9756
4931000000.0 -0.6313 -0.733
4934000000.0 -0.9702 0.00545
4938000000.0 -0.6031 0.7611
4941000000.0 0.2291 0.919
4944000000.0 0.8449 0.3931
4947000000.0 0.8718 -0.3938
4950000000.0 0.2295 -0.9143
4953000000.0 -0.585 -0.7771
4956000000.0 -0.9725 -0.05511
4959000000.0 -0.6697 0.729
4962000000.0 0.18 0.9798
4966000000.0 0.8359 0.4889
4969000000.0 0.9405 -0.3367
4972000000.0 0.3122 -0.9569
4975000000.0 -0.5345 -0.8492
4978000000.0 -1.031 -0.1188
4981000000.0 -0.7453 0.7193
4984000000.0 0.06081 1.036
4988000000.0 0.8534 0.6354
4991000000.0 1.073 -0.2729
4994000000.0 0.4302 -0.9948
4997000000.0 -0.4604 -1.035
5000000000.0 -1.086 -0.3135
5003000000.0 -0.919 0.664
5006000000.0 -0.1103 1.135
5009000000.0 0.8637 0.8307
5012000000.0 1.203 -0.1348
5016000000.0 0.6282 -1.027
5019000000.0 -0.3809 -1.191
5022000000.0 -1.183 -0.45
5025000000.0 -1.124 0.6217
5028000000.0 -0.2116 1.263
5031000000.0 0.8397 1.004
5034000000.0 1.297 -0.01083
5038000000.0 0.8268 -1.002
5041000000.0 -0.2528 -1.299
5044000000.0 -1.144 -0.6461
5047000000.0 -1.224 0.4549
5050000000.0 -0.4514 1.206
5053000000.0 0.644 1.106
5056000000.0 1.321 0.24
5059000000.0 1.007 -0.8758
5062000000.0 -0.009419 -1.348
5066000000.0 -1.035 -0.844
5069000000.0 -1.277 0.263
5072000000.0 -0.6085 1.161
5075000000.0 0.4801 1.217
5078000000.0 1.228 0.3991
5081000000.0 1.076 -0.6882
5084000000.0 0.1026 -1.288
5088000000.0 -0.8536 -0.9062
5091000000.0 -1.187 0.0803
5094000000.0 -0.7306 0.9986
5097000000.0 0.259 1.139
5100000000.0 1.048 0.4882
5103000000.0 1.039 -0.4626
5106000000.0 0.3341 -1.117
5109000000.0 -0.6156 -0.9542
5112000000.0 -1.084 -0.116
5116000000.0 -0.7927 0.7546
5119000000.0 0.09429 1.084
5122000000.0 0.8574 0.631
5125000000.0 1.026 -0.2396
5128000000.0 0.4369 -0.9156
5131000000.0 -0.4191 -0.9286
5134000000.0 -0.9817 -0.2774
5138000000.0 -0.8238 0.5879
5141000000.0 -0.05517 1.004
5144000000.0 0.7303 0.676
5147000000.0 0.9844 -0.1408
5150000000.0 0.508 -0.8565
5153000000.0 -0.3001 -0.907
5156000000.0 -0.8556 -0.3139
5159000000.0 -0.7754 0.4668
5162000000.0 -0.1326 0.9144
5166000000.0 0.5983 0.7173
5169000000.0 0.9247 -0.03224
5172000000.0 0.5642 -0.7398
5175000000.0 -0.1972 -0.8502
5178000000.0 -0.8445 -0.3669
5181000000.0 -0.8228 0.4297
5184000000.0 -0.189 0.8951
5188000000.0 0.6031 0.7432
5191000000.0 0.9254 -0.02333
5194000000.0 0.5845 -0.7399
5197000000.0 -0.2408 -0.919
5200000000.0 -0.8622 -0.3951
5203000000.0 -0.8352 0.4268
5206000000.0 -0.2171 0.9443
5209000000.0 0.6212 0.7627
5212000000.0 0.9614 0.02938
5216000000.0 0.611 -0.7799
5219000000.0 -0.2064 -0.9782
5222000000.0 -0.9055 -0.4564
5225000000.0 -0.9247 0.4056
5228000000.0 -0.2813 0.9853
5231000000.0 0.614 0.8155
5234000000.0 1.046 0.06078
5238000000.0 0.7303 -0.758
5241000000.0 -0.1306 -1.041
5244000000.0 -0.8977 -0.5767
5247000000.0 -0.9972 0.3415
5250000000.0 -0.4023 1.025
5253000000.0 0.5308 0.9293
5256000000.0 1.068 0.2115
5259000000.0 0.8355 -0.7114
5262000000.0 0.02646 -1.088
5266000000.0 -0.8318 -0.7063
5269000000.0 -1.071 0.1857
5272000000.0 -0.5453 0.9411
5275000000.0 0.3325 1.05
5278000000.0 1.037 0.3962
5281000000.0 0.974 -0.5154
5284000000.0 0.226 -1.053
5288000000.0 -0.7028 -0.8821
5291000000.0 -1.159 -0.07192
5294000000.0 -0.7996 0.8085
5297000000.0 0.1062 1.147
5300000000.0 0.9432 0.6413
5303000000.0 1.076 -0.3096
5306000000.0 0.4851 -1.057
5309000000.0 -0.4955 -1.044
5312000000.0 -1.123 -0.2946
5316000000.0 -0.9493 0.6612
5319000000.0 -0.08514 1.161
5322000000.0 0.8151 0.8116
5325000000.0 1.155 -0.09145
5328000000.0 0.6712 -0.9478
5331000000.0 -0.3081 -1.131
5334000000.0 -1.065 -0.4642
5338000000.0 -1.06 0.5164
5341000000.0 -0.2659 1.106
5344000000.0 0.6619 0.9179
5347000000.0 1.157 0.02328
5350000000.0 0.7683 -0.8404
5353000000.0 -0.1505 -1.125
5356000000.0 -0.9545 -0.5666
5359000000.0 -1.04 0.3671
5362000000.0 -0.371 1.015
5366000000.0 0.5832 0.9053
5369000000.0 1.079 0.1151
5372000000.0 0.7737 -0.7685
5375000000.0 -0.1091 -1.008
5378000000.0 -0.8492 -0.5848
5381000000.0 -0.9663 0.3287
5384000000.0 -0.3478 0.9343
5388000000.0 0.5222 0.8554
5391000000.0 0.9863 0.1119
5394000000.0 0.6774 -0.6706
5397000000.0 -0.116 -0.9681
5400000000.0 -0.79 -0.4919
5403000000.0 -0.863 0.3361
5406000000.0 -0.3011 0.8863
5409000000.0 0.5006 0.7484
5412000000.0 0.883 0.08544
5416000000.0 0.611 -0.6238
5419000000.0 -0.09858 -0.8687
5422000000.0 -0.7244 -0.458
5425000000.0 -0.8219 0.3103
5428000000.0 -0.2826 0.8271
5431000000.0 0.4813 0.7553
5434000000.0 0.8499 0.07491
5438000000.0 0.5953 -0.6244
5441000000.0 -0.1185 -0.8572
5444000000.0 -0.7784 -0.4606
5447000000.0 -0.8276 0.3006
5450000000.0 -0.2933 0.8447
5453000000.0 0.4983 0.7419
5456000000.0 0.9014 0.09314
5459000000.0 0.666 -0.6071
5462000000.0 -0.07579 -0.8874
5466000000.0 -0.7416 -0.513
5469000000.0 -0.8948 0.2223
5472000000.0 -0.406 0.8535
5475000000.0 0.3696 0.8506
5478000000.0 0.9353 0.2573
5481000000.0 0.7645 -0.55
5484000000.0 0.08439 -0.981
5488000000.0 -0.721 -0.6902
5491000000.0 -0.948 0.09084
5494000000.0 -0.557 0.8387
5497000000.0 0.2732 0.9215
5500000000.0 0.9234 0.4168
5503000000.0 0.9242 -0.4543
5506000000.0 0.2319 -1.004
5509000000.0 -0.5719 -0.8276
5512000000.0 -1.002 -0.05019
5516000000.0 -0.7021 0.7912
5519000000.0 0.102 1.047
5522000000.0 0.8835 0.5644
5525000000.0 1.022 -0.2667
5528000000.0 0.4576 -0.9469
5531000000.0 -0.4474 -0.9532
5534000000.0 -1.019 -0.2728
5538000000.0 -0.8633 0.5946
5541000000.0 -0.1091 1.052
5544000000.0 0.7391 0.7903
5547000000.0 1.072 -0.06933
5550000000.0 0.5989 -0.8874
5553000000.0 -0.3147 -1.031
5556000000.0 -0.9756 -0.4683
5559000000.0 -0.9793 0.5179
5562000000.0 -0.2536 1.041
5566000000.0 0.632 0.8708
5569000000.0 1.039 0.04947
5572000000.0 0.6912 -0.7726
5575000000.0 -0.134 -1.028
5578000000.0 -0.8422 -0.5218
5581000000.0 -0.9829 0.3097
5584000000.0 -0.3551 0.9263
5588000000.0 0.4902 0.8615
5591000000.0 0.9554 0.1928
5594000000.0 0.7291 -0.6418
5597000000.0 -0.02082 -0.9921
5600000000.0 -0.7405 -0.5967
5603000000.0 -0.9236 0.2066
5606000000.0 -0.4217 0.8622
5609000000.0 0.3673 0.8193
5612000000.0 0.8966 0.2193
5616000000.0 0.7201 -0.5319
5619000000.0 0.01715 -0.9236
5622000000.0 -0.6551 -0.5821
5625000000.0 -0.8788 0.1111
5628000000.0 -0.4353 0.7551
5631000000.0 0.295 0.7898
5634000000.0 0.8077 0.2719
5638000000.0 0.7183 -0.4674
5641000000.0 0.1011 -0.8468
5644000000.0 -0.6133 -0.5654
5647000000.0 -0.8599 0.1008
5650000000.0 -0.4244 0.73
5653000000.0 0.2728 0.7981
5656000000.0 0.8321 0.2922
5659000000.0 0.7204 -0.4675
5662000000.0 0.07381 -0.8539
5666000000.0 -0.6149 -0.6454
5669000000.0 -0.8689 0.09841
5672000000.0 -0.4865 0.7393
5675000000.0 0.3025 0.8442
5678000000.0 0.8791 0.3099
5681000000.0 0.7903 -0.5208
5684000000.0 0.1086 -0.9335
5688000000.0 -0.6626 -0.6974
5691000000.0 -0.9684 0.07262
5694000000.0 -0.5619 0.7806
5697000000.0 0.2864 0.9293
5700000000.0 0.9419 0.365
5703000000.0 0.8755 -0.4898
5706000000.0 0.1723 -0.9846
5709000000.0 -0.6875 -0.7846
5712000000.0 -1.039 0.02153
5716000000.0 -0.6643 0.8735
5719000000.0 0.2395 1.037
5722000000.0 0.9687 0.5259
5725000000.0 0.9919 -0.4204
5728000000.0 0.3101 -1.066
5731000000.0 -0.6025 -0.875
5734000000.0 -1.067 -0.1107
5738000000.0 -0.7841 0.7455
5741000000.0 0.1 1.12
5744000000.0 0.9137 0.6241
5747000000.0 1.093 -0.303
5750000000.0 0.4686 -0.975
5753000000.0 -0.4897 -1.023
5756000000.0 -1.089 -0.267
5759000000.0 -0.9078 0.6357
5762000000.0 -0.07655 1.101
5766000000.0 0.8144 0.7883
5769000000.0 1.083 -0.08851
5772000000.0 0.5987 -0.9059
5775000000.0 -0.3371 -1.094
5778000000.0 -1.038 -0.4635
5781000000.0 -1.006 0.4916
5784000000.0 -0.256 1.049
5788000000.0 0.6398 0.8875
5791000000.0 1.097 0.05803
5794000000.0 0.7612 -0.8087
5797000000.0 -0.1626 -1.082
5800000000.0 -0.9079 -0.6003
5803000000.0 -1.028 0.344
5806000000.0 -0.3972 0.9927
5809000000.0 0.5254 0.9136
5812000000.0 1.048 0.1751
5816000000.0 0.82 -0.702
5819000000.0 -0.01807 -1.044
5822000000.0 -0.7962 -0.6534
5825000000.0 -1.013 0.2187
5828000000.0 -0.4941 0.9125
5831000000.0 0.4186 0.9208
5834000000.0 0.9521 0.2698
5838000000.0 0.8076 -0.5647
5841000000.0 0.06258 -0.996
5844000000.0 -0.7105 -0.66
5847000000.0 -0.9774 0.1382
5850000000.0 -0.498 0.8417
5853000000.0 0.3444 0.9247
5856000000.0 0.9377 0.3094
5859000000.0 0.7837 -0.5137
5862000000.0 0.0969 -0.9534
5866000000.0 -0.657 -0.6687
5869000000.0 -0.922 0.117
5872000000.0 -0.5244 0.7758
5875000000.0 0.2997 0.8643
5878000000.0 0.8124 0.3175
5881000000.0 0.7601 -0.4422
5884000000.0 0.1047 -0.8718
5888000000.0 -0.5709 -0.6298
5891000000.0 -0.8905 0.06951
5894000000.0 -0.5139 0.7175
5897000000.0 0.224 0.8676
5900000000.0 0.8114 0.3351
5903000000.0 0.7752 -0.4029
5906000000.0 0.1714 -0.8471
5909000000.0 -0.5688 -0.6989
5912000000.0 -0.8866 0.004054
5916000000.0 -0.5382 0.6873
5919000000.0 0.1826 0.8625
5922000000.0 0.784 0.409
5925000000.0 0.8287 -0.3354
5928000000.0 0.2881 -0.8211
5931000000.0 -0.4822 -0.7454
5934000000.0 -0.859 -0.1008
5938000000.0 -0.6578 0.6218
5941000000.0 0.07599 0.8657
5944000000.0 0.7503 0.5495
5947000000.0 0.8687 -0.2529
5950000000.0 0.3547 -0.8302
5953000000.0 -0.3842 -0.8098
5956000000.0 -0.8752 -0.2515
5959000000.0 -0.7502 0.5388
5962000000.0 -0.04519 0.9334
5966000000.0 0.6953 0.667
5969000000.0 0.9625 -0.1021
5972000000.0 0.5517 -0.786
5975000000.0 -0.2616 -0.9184
5978000000.0 -0.9009 -0.3999
5981000000.0 -0.898 0.4236
5984000000.0 -0.2519 0.9706
5988000000.0 0.6314 0.807
5991000000.0 1.002 0.07463
5994000000.0 0.6649 -0.7534
5997000000.0 -0.1262 -1.011
6000000000.0 -0.8654 -0.5509
6003000000.0 -0.9586 0.3281
6006000000.0 -0.3696 0.9283
6009000000.0 0.4768 0.8836
6012000000.0 1.006 0.1827
6016000000.0 0.7753 -0.6243
6019000000.0 -0.01637 -1.007
6022000000.0 -0.8053 -0.6413
6025000000.0 -0.9967 0.1793
6028000000.0 -0.4702 0.9019
6031000000.0 0.394 0.9116
6034000000.0 0.9576 0.2529
6038000000.0 0.8294 -0.5719
6041000000.0 0.08592 -0.9721
6044000000.0 -0.7027 -0.68
6047000000.0 -0.9536 0.1368
6050000000.0 -0.5277 0.8248
6053000000.0 0.2844 0.9311
6056000000.0 0.8894 0.353
6059000000.0 0.8236 -0.4921
6062000000.0 0.1336 -0.9367
6066000000.0 -0.6506 -0.6835
6069000000.0 -0.9312 0.05539
6072000000.0 -0.514 0.7455
6075000000.0 0.2573 0.8619
6078000000.0 0.8158 0.3442
6081000000.0 0.8015 -0.427
6084000000.0 0.1813 -0.8549
6088000000.0 -0.5676 -0.6592
6091000000.0 -0.8654 0.01723
6094000000.0 -0.5321 0.6772
6097000000.0 0.1818 0.8693
6100000000.0 0.7914 0.3758
6103000000.0 0.7629 -0.3521
6106000000.0 0.2122 -0.8577
6109000000.0 -0.5329 -0.6872
6112000000.0 -0.859 -0.04707
6116000000.0 -0.5653 0.641
6119000000.0 0.1604 0.8465
6122000000.0 0.7475 0.417
6125000000.0 0.8282 -0.3251
6128000000.0 0.2479 -0.8478
6131000000.0 -0.5236 -0.7395
6134000000.0 -0.8688 -0.06075
6138000000.0 -0.5803 0.6251
6141000000.0 0.1261 0.8778
6144000000.0 0.7895 0.4901
6147000000.0 0.8326 -0.3221
6150000000.0 0.2858 -0.8349
6153000000.0 -0.4668 -0.7786
6156000000.0 -0.9128 -0.1198
6159000000.0 -0.6559 0.6155
6162000000.0 0.06547 0.8962
6166000000.0 0.7973 0.5631
6169000000.0 0.9233 -0.2343
6172000000.0 0.3775 -0.8627
6175000000.0 -0.409 -0.8385
6178000000.0 -0.911 -0.2212
6181000000.0 -0.7723 0.5757
6184000000.0 -0.0269 0.9587
6188000000.0 0.7113 0.6422
6191000000.0 0.947 -0.1824
6194000000.0 0.4954 -0.8217
6197000000.0 -0.3603 -0.9019
6200000000.0 -0.9123 -0.2841
6203000000.0 -0.7975 0.5051
6206000000.0 -0.1145 0.9255
6209000000.0 0.6385 0.7104
6212000000.0 0.9353 -0.03806
6216000000.0 0.5737 -0.7707
6219000000.0 -0.2236 -0.9165
6222000000.0 -0.8261 -0.4048
6225000000.0 -0.8705 0.3952
6228000000.0 -0.2218 0.891
6231000000.0 0.539 0.7553
6234000000.0 0.8922 0.01336
6238000000.0 0.6131 -0.6585
6241000000.0 -0.1294 -0.8951
6244000000.0 -0.7405 -0.4809
6247000000.0 -0.8566 0.2683
6250000000.0 -0.3328 0.7894
6253000000.0 0.4017 0.7571
6256000000.0 0.8412 0.2055
6259000000.0 0.6503 -0.5198
6262000000.0 0.05232 -0.8326
6266000000.0 -0.5765 -0.5505
6269000000.0 -0.8281 0.1049
