! Created with skrf 1.8.0 (http://scikit-rf.org).
# Hz S RI R 50.0 
!freq ReS11 ImS11
4000000000.0 -0.1543 -1.499
4003000000.0 -1.302 -0.8133
4006000000.0 -1.41 0.4843
4009000000.0 -0.526 1.409
4012000000.0 0.7511 1.316
4016000000.0 1.537 0.173
4019000000.0 1.136 -1.068
4022000000.0 -0.1869 -1.573
4025000000.0 -1.306 -0.8626
4028000000.0 -1.53 0.4329
4031000000.0 -0.5521 1.527
4034000000.0 0.8258 1.411
4038000000.0 1.609 0.2146
4041000000.0 1.156 -1.139
4044000000.0 -0.1577 -1.633
4047000000.0 -1.354 -0.9419
4050000000.0 -1.547 0.4827
4053000000.0 -0.5889 1.509
4056000000.0 0.7498 1.44
4059000000.0 1.605 0.3288
4062000000.0 1.257 -1.043
4066000000.0 0.005715 -1.615
4069000000.0 -1.276 -1.017
4072000000.0 -1.583 0.2764
4075000000.0 -0.7842 1.45
4078000000.0 0.5467 1.539
4081000000.0 1.575 0.5484
4084000000.0 1.407 -0.8594
4088000000.0 0.2512 -1.649
4091000000.0 -1.11 -1.232
4094000000.0 -1.639 0.06084
4097000000.0 -1.036 1.295
4100000000.0 0.4306 1.562
4103000000.0 1.437 0.6912
4106000000.0 1.457 -0.6627
4109000000.0 0.4206 -1.476
4112000000.0 -0.8745 -1.281
4116000000.0 -1.531 -0.1666
4119000000.0 -1.105 1.025
4122000000.0 0.05859 1.478
4125000000.0 1.126 0.9538
4128000000.0 1.468 -0.2831
4131000000.0 0.7721 -1.276
4134000000.0 -0.462 -1.421
4138000000.0 -1.334 -0.5756
4141000000.0 -1.37 0.6608
4144000000.0 -0.3929 1.46
4147000000.0 0.8644 1.195
4150000000.0 1.52 0.1559
4153000000.0 1.093 -1.077
4156000000.0 -0.117 -1.521
4159000000.0 -1.234 -0.8635
4162000000.0 -1.468 0.4228
4166000000.0 -0.5942 1.375
4169000000.0 0.6354 1.354
4172000000.0 1.504 0.4151
4175000000.0 1.25 -0.8821
4178000000.0 0.1449 -1.503
4181000000.0 -1.071 -1.082
4184000000.0 -1.518 0.1189
4188000000.0 -0.8775 1.267
4191000000.0 0.3806 1.464
4194000000.0 1.378 0.6653
4197000000.0 1.404 -0.66
4200000000.0 0.3457 -1.535
4203000000.0 -0.971 -1.294
4206000000.0 -1.619 0.006315
4209000000.0 -1.046 1.248
4212000000.0 0.389 1.626
4216000000.0 1.526 0.6889
4219000000.0 1.505 -0.7802
4222000000.0 0.309 -1.661
4225000000.0 -1.102 -1.28
4228000000.0 -1.667 0.132
4231000000.0 -0.9362 1.399
4234000000.0 0.6015 1.549
4238000000.0 1.523 0.4391
4241000000.0 1.334 -0.9875
4244000000.0 0.07485 -1.654
4247000000.0 -1.225 -0.9937
4250000000.0 -1.513 0.3697
4253000000.0 -0.6327 1.436
4256000000.0 0.7213 1.377
4259000000.0 1.51 0.2994
4262000000.0 1.119 -1.024
4266000000.0 -0.1104 -1.49
4269000000.0 -1.228 -0.7991
4272000000.0 -1.391 0.4346
4275000000.0 -0.5107 1.38
4278000000.0 0.8005 1.216
4281000000.0 1.418 0.1387
4284000000.0 0.965 -1.023
4288000000.0 -0.1612 -1.398
4291000000.0 -1.195 -0.7317
4294000000.0 -1.301 0.46
4297000000.0 -0.4698 1.213
4300000000.0 0.6938 1.151
4303000000.0 1.256 0.1829
4306000000.0 0.994 -0.8117
4309000000.0 -0.03241 -1.301
4312000000.0 -0.9835 -0.8183
4316000000.0 -1.308 0.2075
4319000000.0 -0.6539 1.092
4322000000.0 0.4198 1.259
4325000000.0 1.241 0.4239
4328000000.0 1.142 -0.6494
4331000000.0 0.2594 -1.291
4334000000.0 -0.8876 -1.074
4338000000.0 -1.365 -0.03578
4341000000.0 -0.9014 1.081
4344000000.0 0.2311 1.369
4347000000.0 1.246 0.7068
4350000000.0 1.351 -0.4937
4353000000.0 0.4608 -1.344
4356000000.0 -0.6978 -1.231
4359000000.0 -1.421 -0.2314
4362000000.0 -1.09 0.9696
4366000000.0 0.04846 1.479
4369000000.0 1.153 0.8989
4372000000.0 1.446 -0.3434
4375000000.0 0.6689 -1.354
4378000000.0 -0.6134 -1.392
4381000000.0 -1.445 -0.4281
4384000000.0 -1.308 0.836
4388000000.0 -0.138 1.539
4391000000.0 1.109 1.088
4394000000.0 1.563 -0.1581
4397000000.0 0.8247 -1.352
4400000000.0 -0.5123 -1.509
4403000000.0 -1.525 -0.5156
4406000000.0 -1.318 0.8471
4409000000.0 -0.1361 1.567
4412000000.0 1.149 1.066
4416000000.0 1.559 -0.2076
4419000000.0 0.7295 -1.378
4422000000.0 -0.5956 -1.399
4425000000.0 -1.437 -0.3769
4428000000.0 -1.203 0.8881
4431000000.0 -0.02812 1.472
4434000000.0 1.097 0.924
4438000000.0 1.39 -0.2979
4441000000.0 0.615 -1.242
4444000000.0 -0.6429 -1.24
4447000000.0 -1.313 -0.2708
4450000000.0 -0.9964 0.8655
4453000000.0 0.07023 1.328
4456000000.0 1.084 0.718
4459000000.0 1.224 -0.3865
4462000000.0 0.4254 -1.191
4466000000.0 -0.6972 -1.023
4469000000.0 -1.22 -0.1213
4472000000.0 -0.8184 0.9027
4475000000.0 0.2006 1.149
4478000000.0 1.033 0.5716
4481000000.0 1.068 -0.4716
4484000000.0 0.2769 -1.145
4488000000.0 -0.6735 -0.9061
4491000000.0 -1.165 -0.01314
4494000000.0 -0.774 0.8429
4497000000.0 0.2001 1.137
4500000000.0 1.007 0.498
4503000000.0 0.9976 -0.45
4506000000.0 0.3127 -1.053
4509000000.0 -0.6392 -0.8875
4512000000.0 -1.115 -0.05844
4516000000.0 -0.7579 0.8472
4519000000.0 0.1859 1.13
4522000000.0 0.982 0.583
4525000000.0 1.065 -0.3671
4528000000.0 0.408 -1.103
4531000000.0 -0.6062 -0.9761
4534000000.0 -1.157 -0.1705
4538000000.0 -0.8609 0.8109
4541000000.0 0.06758 1.194
4544000000.0 0.9837 0.7295
4547000000.0 1.164 -0.2819
4550000000.0 0.5468 -1.08
4553000000.0 -0.4395 -1.09
4556000000.0 -1.181 -0.3479
4559000000.0 -1.023 0.679
4562000000.0 -0.1184 1.274
4566000000.0 0.875 0.8977
4569000000.0 1.303 -0.06112
4572000000.0 0.756 -1.027
4575000000.0 -0.3059 -1.242
4578000000.0 -1.169 -0.567
4581000000.0 -1.204 0.5345
4584000000.0 -0.3449 1.309
4588000000.0 0.7638 1.101
4591000000.0 1.349 0.1158
4594000000.0 0.9475 -0.9857
4597000000.0 -0.1346 -1.365
4600000000.0 -1.166 -0.7669
4603000000.0 -1.336 0.4196
4606000000.0 -0.5224 1.312
4609000000.0 0.6595 1.246
4612000000.0 1.365 0.2612
4616000000.0 1.076 -0.8853
4619000000.0 -0.01416 -1.399
4622000000.0 -1.072 -0.8798
4625000000.0 -1.365 0.3064
4628000000.0 -0.6422 1.259
4631000000.0 0.55 1.227
4634000000.0 1.343 0.3583
4638000000.0 1.141 -0.7901
4641000000.0 0.04817 -1.342
4644000000.0 -1.02 -0.901
4647000000.0 -1.311 0.2091
4650000000.0 -0.6444 1.19
4653000000.0 0.5276 1.222
4656000000.0 1.26 0.3492
4659000000.0 1.028 -0.7758
4662000000.0 0.06484 -1.246
4666000000.0 -0.9656 -0.8024
4669000000.0 -1.206 0.2289
4672000000.0 -0.5421 1.066
4675000000.0 0.509 1.074
4678000000.0 1.123 0.2742
4681000000.0 0.9032 -0.67
4684000000.0 -0.0002129 -1.129
4688000000.0 -0.876 -0.7353
4691000000.0 -1.079 0.2284
4694000000.0 -0.5439 0.9815
4697000000.0 0.4771 0.98
4700000000.0 1.069 0.2533
4703000000.0 0.8586 -0.6748
4706000000.0 -0.01319 -1.071
4709000000.0 -0.8223 -0.6683
4712000000.0 -1.042 0.2606
4716000000.0 -0.4516 0.9845
4719000000.0 0.479 0.9423
4722000000.0 1.035 0.2277
4725000000.0 0.8001 -0.6459
4728000000.0 0.01675 -1.044
4731000000.0 -0.7911 -0.6851
4734000000.0 -1.041 0.2148
4738000000.0 -0.49 0.9422
4741000000.0 0.4083 0.9954
4744000000.0 1.0 0.304
4747000000.0 0.8921 -0.5664
4750000000.0 0.1335 -1.08
4753000000.0 -0.7607 -0.8138
4756000000.0 -1.082 0.08122
4759000000.0 -0.6437 0.8829
4762000000.0 0.2779 1.064
4766000000.0 1.037 0.4576
4769000000.0 1.043 -0.4475
4772000000.0 0.2885 -1.086
4775000000.0 -0.6635 -0.9585
4778000000.0 -1.172 -0.1249
4781000000.0 -0.8264 0.8048
4784000000.0 0.09461 1.184
4788000000.0 0.9908 0.7007
4791000000.0 1.187 -0.3221
4794000000.0 0.5464 -1.133
4797000000.0 -0.5084 -1.172
4800000000.0 -1.223 -0.354
4803000000.0 -1.01 0.6855
4806000000.0 -0.1363 1.243
4809000000.0 0.8469 0.9177
4812000000.0 1.301 -0.101
4816000000.0 0.7582 -1.033
4819000000.0 -0.3013 -1.284
4822000000.0 -1.21 -0.6031
4825000000.0 -1.248 0.5559
4828000000.0 -0.3702 1.324
4831000000.0 0.7602 1.125
4834000000.0 1.392 0.126
4838000000.0 0.9768 -1.01
4841000000.0 -0.1906 -1.394
4844000000.0 -1.179 -0.7359
4847000000.0 -1.333 0.4379
4850000000.0 -0.4854 1.313
4853000000.0 0.6977 1.202
4856000000.0 1.365 0.2319
4859000000.0 1.016 -0.9038
4862000000.0 -0.04895 -1.338
4866000000.0 -1.096 -0.8049
4869000000.0 -1.333 0.3155
4872000000.0 -0.5633 1.214
4875000000.0 0.5553 1.144
4878000000.0 1.266 0.2911
4881000000.0 0.9866 -0.7764
4884000000.0 0.008808 -1.256
4888000000.0 -0.9457 -0.7966
4891000000.0 -1.176 0.2397
4894000000.0 -0.5709 1.08
4897000000.0 0.4446 1.074
4900000000.0 1.11 0.3006
4903000000.0 0.9075 -0.6514
4906000000.0 0.05698 -1.074
4909000000.0 -0.8033 -0.7035
4912000000.0 -1.052 0.1801
4916000000.0 -0.5173 0.8831
4919000000.0 0.3383 0.9371
4922000000.0 0.9316 0.3347
4925000000.0 0.8597 -0.5153
4928000000.0 0.1222 -0.9709
4931000000.0 -0.6638 -0.6978
4934000000.0 -0.9438 0.08215
4938000000.0 -0.5656 0.7666
4941000000.0 0.2357 0.9224
4944000000.0 0.8728 0.4084
4947000000.0 0.8569 -0.4383
4950000000.0 0.2073 -0.9444
4953000000.0 -0.6123 -0.7744
4956000000.0 -0.9385 -0.02314
4959000000.0 -0.6141 0.7289
4962000000.0 0.1757 0.9626
4966000000.0 0.8825 0.4721
4969000000.0 0.9283 -0.377
4972000000.0 0.2875 -0.9518
4975000000.0 -0.5571 -0.8467
4978000000.0 -1.018 -0.1029
4981000000.0 -0.7279 0.7297
4984000000.0 0.07506 1.036
4988000000.0 0.853 0.6174
4991000000.0 1.042 -0.314
4994000000.0 0.4313 -0.9776
4997000000.0 -0.4623 -0.9993
5000000000.0 -1.098 -0.2735
5003000000.0 -0.918 0.6931
5006000000.0 -0.04121 1.176
5009000000.0 0.898 0.7931
5012000000.0 1.205 -0.1616
5016000000.0 0.6136 -1.028
5019000000.0 -0.3959 -1.197
5022000000.0 -1.206 -0.4237
5025000000.0 -1.08 0.6426
5028000000.0 -0.2032 1.234
5031000000.0 0.8399 0.9511
5034000000.0 1.288 -0.02048
5038000000.0 0.8036 -1.038
5041000000.0 -0.2628 -1.246
5044000000.0 -1.138 -0.6066
5047000000.0 -1.195 0.5194
5050000000.0 -0.3927 1.223
5053000000.0 0.6927 1.11
5056000000.0 1.306 0.168
5059000000.0 0.9349 -0.8771
5062000000.0 -0.06097 -1.287
5066000000.0 -1.061 -0.7821
5069000000.0 -1.26 0.3104
5072000000.0 -0.5623 1.171
5075000000.0 0.5077 1.184
5078000000.0 1.247 0.3621
5081000000.0 1.038 -0.7175
5084000000.0 0.1227 -1.251
5088000000.0 -0.8552 -0.8497
5091000000.0 -1.231 0.1156
5094000000.0 -0.6792 0.984
5097000000.0 0.3208 1.168
5100000000.0 1.062 0.4818
5103000000.0 1.037 -0.505
5106000000.0 0.2773 -1.089
5109000000.0 -0.6048 -0.911
5112000000.0 -1.059 -0.09513
5116000000.0 -0.7443 0.7406
5119000000.0 0.07691 1.078
5122000000.0 0.8568 0.5828
5125000000.0 1.013 -0.2879
5128000000.0 0.3853 -0.9305
5131000000.0 -0.4807 -0.8896
5134000000.0 -0.9551 -0.2137
5138000000.0 -0.7983 0.6343
5141000000.0 -0.05976 0.9645
5144000000.0 0.7313 0.6561
5147000000.0 0.9433 -0.1845
5150000000.0 0.4679 -0.8079
5153000000.0 -0.3227 -0.823
5156000000.0 -0.8915 -0.3035
5159000000.0 -0.822 0.5011
5162000000.0 -0.1099 0.9254
5166000000.0 0.6446 0.6671
5169000000.0 0.89 -0.1027
5172000000.0 0.5094 -0.7656
5175000000.0 -0.2842 -0.8612
5178000000.0 -0.8386 -0.3686
5181000000.0 -0.7746 0.4499
5184000000.0 -0.1313 0.8956
5188000000.0 0.6145 0.6886
5191000000.0 0.9198 -0.05076
5194000000.0 0.529 -0.7597
5197000000.0 -0.2649 -0.8966
5200000000.0 -0.8728 -0.3622
5203000000.0 -0.8411 0.4601
5206000000.0 -0.1465 0.9321
5209000000.0 0.632 0.7266
5212000000.0 0.974 -0.0331
5216000000.0 0.5872 -0.774
5219000000.0 -0.238 -0.949
5222000000.0 -0.9069 -0.4133
5225000000.0 -0.8842 0.4541
5228000000.0 -0.235 1.013
5231000000.0 0.614 0.8113
5234000000.0 1.017 0.0281
5238000000.0 0.6846 -0.7821
5241000000.0 -0.1545 -1.029
5244000000.0 -0.9085 -0.5477
5247000000.0 -0.9843 0.3729
5250000000.0 -0.3516 1.009
5253000000.0 0.5431 0.9222
5256000000.0 1.085 0.1839
5259000000.0 0.7957 -0.6958
5262000000.0 -0.01886 -1.052
5266000000.0 -0.8504 -0.6919
5269000000.0 -1.058 0.2425
5272000000.0 -0.5413 0.9528
5275000000.0 0.3748 1.022
5278000000.0 1.013 0.3896
5281000000.0 0.9559 -0.5606
5284000000.0 0.2288 -1.091
5288000000.0 -0.7153 -0.8453
5291000000.0 -1.099 -0.01174
5294000000.0 -0.7274 0.8273
5297000000.0 0.1609 1.111
5300000000.0 0.949 0.6023
5303000000.0 1.084 -0.3353
5306000000.0 0.4439 -1.064
5309000000.0 -0.5463 -1.009
5312000000.0 -1.117 -0.2621
5316000000.0 -0.9157 0.6778
5319000000.0 -0.07402 1.14
5322000000.0 0.8451 0.7579
5325000000.0 1.146 -0.108
5328000000.0 0.6593 -0.969
5331000000.0 -0.3725 -1.111
5334000000.0 -1.049 -0.4417
5338000000.0 -0.9987 0.5663
5341000000.0 -0.218 1.099
5344000000.0 0.7121 0.8536
5347000000.0 1.135 0.003793
5350000000.0 0.7018 -0.8779
5353000000.0 -0.1817 -1.081
5356000000.0 -0.9588 -0.5377
5359000000.0 -1.004 0.4093
5362000000.0 -0.2995 1.027
5366000000.0 0.6141 0.9061
5369000000.0 1.082 0.08162
5372000000.0 0.7318 -0.7858
5375000000.0 -0.1316 -1.012
5378000000.0 -0.8685 -0.5217
5381000000.0 -0.9632 0.3724
5384000000.0 -0.2804 0.9546
5388000000.0 0.5564 0.819
5391000000.0 0.9848 0.05168
5394000000.0 0.6274 -0.7215
5397000000.0 -0.1647 -0.9319
5400000000.0 -0.7951 -0.4584
5403000000.0 -0.839 0.3668
5406000000.0 -0.2387 0.8666
5409000000.0 0.5105 0.7317
5412000000.0 0.8756 0.03016
5416000000.0 0.5627 -0.6714
5419000000.0 -0.1667 -0.8557
5422000000.0 -0.7743 -0.4109
5425000000.0 -0.8036 0.3321
5428000000.0 -0.2318 0.8519
5431000000.0 0.5225 0.6988
5434000000.0 0.8751 0.004317
5438000000.0 0.5743 -0.6687
5441000000.0 -0.172 -0.875
5444000000.0 -0.7671 -0.4148
5447000000.0 -0.8262 0.3441
5450000000.0 -0.2533 0.8476
5453000000.0 0.5182 0.7104
5456000000.0 0.8869 0.07196
5459000000.0 0.6329 -0.6643
5462000000.0 -0.1211 -0.9027
5466000000.0 -0.7543 -0.5114
5469000000.0 -0.8831 0.3018
5472000000.0 -0.3439 0.8657
5475000000.0 0.4419 0.7942
5478000000.0 0.9183 0.1944
5481000000.0 0.7602 -0.6064
5484000000.0 0.01238 -0.9256
5488000000.0 -0.7226 -0.6514
5491000000.0 -0.9847 0.1257
5494000000.0 -0.5384 0.8159
5497000000.0 0.3258 0.9252
5500000000.0 0.958 0.3829
5503000000.0 0.8967 -0.4672
5506000000.0 0.1939 -1.005
5509000000.0 -0.636 -0.7985
5512000000.0 -1.038 -0.05495
5516000000.0 -0.675 0.7851
5519000000.0 0.1661 1.006
5522000000.0 0.9331 0.5628
5525000000.0 0.9715 -0.3418
5528000000.0 0.3868 -0.9802
5531000000.0 -0.5021 -0.9421
5534000000.0 -1.059 -0.2511
5538000000.0 -0.8536 0.6445
5541000000.0 -0.03834 1.089
5544000000.0 0.7844 0.7169
5547000000.0 1.071 -0.1311
5550000000.0 0.5744 -0.9115
5553000000.0 -0.3189 -1.038
5556000000.0 -0.9635 -0.3748
5559000000.0 -0.9115 0.5244
5562000000.0 -0.172 1.043
5566000000.0 0.6885 0.7964
5569000000.0 1.034 -0.0279
5572000000.0 0.6736 -0.8022
5575000000.0 -0.188 -0.969
5578000000.0 -0.8933 -0.4669
5581000000.0 -0.9316 0.3613
5584000000.0 -0.2813 0.9165
5588000000.0 0.5109 0.8368
5591000000.0 0.975 0.1233
5594000000.0 0.6828 -0.6544
5597000000.0 -0.0912 -0.9038
5600000000.0 -0.7469 -0.5476
5603000000.0 -0.8981 0.238
5606000000.0 -0.355 0.8282
5609000000.0 0.4056 0.8006
5612000000.0 0.8757 0.1796
5616000000.0 0.672 -0.5739
5619000000.0 -0.009488 -0.8585
5622000000.0 -0.6633 -0.5331
5625000000.0 -0.8358 0.1773
5628000000.0 -0.3932 0.7575
5631000000.0 0.3302 0.7596
5634000000.0 0.8085 0.2154
5638000000.0 0.6798 -0.5026
5641000000.0 0.02818 -0.816
5644000000.0 -0.6485 -0.5538
5647000000.0 -0.8153 0.1558
5650000000.0 -0.3672 0.7316
5653000000.0 0.3469 0.79
5656000000.0 0.8379 0.2368
5659000000.0 0.7052 -0.4774
5662000000.0 0.05046 -0.8521
5666000000.0 -0.6546 -0.571
5669000000.0 -0.8504 0.1673
5672000000.0 -0.4232 0.7851
5675000000.0 0.3523 0.8277
5678000000.0 0.8877 0.2075
5681000000.0 0.7744 -0.5466
5684000000.0 0.04986 -0.9377
5688000000.0 -0.6865 -0.6334
5691000000.0 -0.9501 0.1383
5694000000.0 -0.503 0.8197
5697000000.0 0.3369 0.9058
5700000000.0 0.9656 0.3191
5703000000.0 0.8268 -0.5242
5706000000.0 0.1347 -1.028
5709000000.0 -0.7339 -0.7499
5712000000.0 -1.059 0.1102
5716000000.0 -0.602 0.8647
5719000000.0 0.2867 1.02
5722000000.0 0.9362 0.3993
5725000000.0 0.9845 -0.4664
5728000000.0 0.2615 -1.026
5731000000.0 -0.6615 -0.8575
5734000000.0 -1.078 -0.03635
5738000000.0 -0.7312 0.8165
5741000000.0 0.1723 1.084
5744000000.0 0.9391 0.6041
5747000000.0 1.036 -0.3496
5750000000.0 0.431 -1.077
5753000000.0 -0.5379 -0.9838
5756000000.0 -1.097 -0.2483
5759000000.0 -0.8657 0.7004
5762000000.0 -0.02444 1.123
5766000000.0 0.8314 0.7538
5769000000.0 1.124 -0.2208
5772000000.0 0.5313 -0.9534
5775000000.0 -0.3553 -1.037
5778000000.0 -1.031 -0.3856
5781000000.0 -0.9325 0.5345
5784000000.0 -0.194 1.088
5788000000.0 0.7093 0.8314
5791000000.0 1.095 0.01632
5794000000.0 0.6591 -0.8176
5797000000.0 -0.2059 -1.069
5800000000.0 -0.9376 -0.5285
5803000000.0 -0.9834 0.3899
5806000000.0 -0.3112 1.044
5809000000.0 0.5554 0.8883
5812000000.0 1.054 0.1274
5816000000.0 0.7574 -0.7117
5819000000.0 -0.06481 -1.058
5822000000.0 -0.8229 -0.5902
5825000000.0 -0.9923 0.2787
5828000000.0 -0.3888 0.9044
5831000000.0 0.4571 0.8879
5834000000.0 0.9449 0.2224
5838000000.0 0.7756 -0.6283
5841000000.0 0.01262 -0.9769
5844000000.0 -0.7142 -0.6012
5847000000.0 -0.9141 0.1998
5850000000.0 -0.4028 0.8663
5853000000.0 0.3967 0.8837
5856000000.0 0.9085 0.2175
5859000000.0 0.7657 -0.5519
5862000000.0 0.06798 -0.9393
5866000000.0 -0.7346 -0.6204
5869000000.0 -0.9038 0.1761
5872000000.0 -0.4341 0.7753
5875000000.0 0.3306 0.8299
5878000000.0 0.866 0.216
5881000000.0 0.7291 -0.5385
5884000000.0 0.03072 -0.8816
5888000000.0 -0.6252 -0.5651
5891000000.0 -0.8438 0.1301
5894000000.0 -0.4502 0.7348
5897000000.0 0.2878 0.8228
5900000000.0 0.8455 0.2811
5903000000.0 0.6929 -0.4734
5906000000.0 0.09998 -0.8743
5909000000.0 -0.6042 -0.6286
5912000000.0 -0.8753 0.06095
5916000000.0 -0.5162 0.6817
5919000000.0 0.2344 0.8504
5922000000.0 0.7781 0.3607
5925000000.0 0.7751 -0.4169
5928000000.0 0.2156 -0.8381
5931000000.0 -0.5387 -0.6677
5934000000.0 -0.8932 -0.03714
5938000000.0 -0.6202 0.7107
5941000000.0 0.1343 0.8713
5944000000.0 0.7776 0.4621
5947000000.0 0.8522 -0.3157
5950000000.0 0.2708 -0.8585
5953000000.0 -0.4427 -0.7575
5956000000.0 -0.9118 -0.1626
5959000000.0 -0.7049 0.5826
5962000000.0 -0.01871 0.9226
5966000000.0 0.7273 0.6109
5969000000.0 0.9233 -0.164
5972000000.0 0.4928 -0.8561
5975000000.0 -0.3145 -0.8831
5978000000.0 -0.9404 -0.3098
5981000000.0 -0.8663 0.499
5984000000.0 -0.1519 0.9671
5988000000.0 0.634 0.7734
5991000000.0 1.027 -0.002969
5994000000.0 0.6524 -0.7977
5997000000.0 -0.2034 -0.9789
6000000000.0 -0.8854 -0.4977
6003000000.0 -0.9463 0.4004
6006000000.0 -0.2889 0.9577
6009000000.0 0.5698 0.8429
6012000000.0 1.006 0.1009
6016000000.0 0.6882 -0.6985
6019000000.0 -0.1019 -0.9907
6022000000.0 -0.8365 -0.5459
6025000000.0 -0.9499 0.2702
6028000000.0 -0.3889 0.9293
6031000000.0 0.4707 0.8405
6034000000.0 0.9552 0.1692
6038000000.0 0.7415 -0.6288
6041000000.0 0.0131 -0.9576
6044000000.0 -0.7499 -0.5999
6047000000.0 -0.9315 0.1943
6050000000.0 -0.4237 0.8321
6053000000.0 0.3843 0.8736
6056000000.0 0.8839 0.2436
6059000000.0 0.7624 -0.5528
6062000000.0 0.02185 -0.9338
6066000000.0 -0.6811 -0.5972
6069000000.0 -0.9042 0.1535
6072000000.0 -0.4768 0.7884
6075000000.0 0.3013 0.8365
6078000000.0 0.8326 0.2462
6081000000.0 0.7242 -0.4891
6084000000.0 0.08289 -0.8432
6088000000.0 -0.6198 -0.5999
6091000000.0 -0.8349 0.1214
6094000000.0 -0.4227 0.7482
6097000000.0 0.2958 0.8375
6100000000.0 0.7874 0.2856
6103000000.0 0.7494 -0.4405
6106000000.0 0.1115 -0.8446
6109000000.0 -0.5772 -0.6113
6112000000.0 -0.8598 0.06304
6116000000.0 -0.4722 0.706
6119000000.0 0.2452 0.844
6122000000.0 0.7968 0.3324
6125000000.0 0.781 -0.4258
6128000000.0 0.1609 -0.8932
6131000000.0 -0.5439 -0.6659
6134000000.0 -0.8962 0.004785
6138000000.0 -0.5181 0.6952
6141000000.0 0.1988 0.8754
6144000000.0 0.7726 0.3744
6147000000.0 0.8045 -0.3837
6150000000.0 0.2198 -0.8689
6153000000.0 -0.5277 -0.7578
6156000000.0 -0.9105 -0.04975
6159000000.0 -0.6218 0.6567
6162000000.0 0.1313 0.9213
6166000000.0 0.8245 0.4828
6169000000.0 0.9023 -0.338
6172000000.0 0.2976 -0.8537
6175000000.0 -0.5071 -0.7967
6178000000.0 -0.9781 -0.1453
6181000000.0 -0.6808 0.6477
6184000000.0 0.08617 0.9745
6188000000.0 0.7792 0.5714
6191000000.0 0.8944 -0.2357
6194000000.0 0.3756 -0.8947
6197000000.0 -0.4355 -0.8274
6200000000.0 -0.9247 -0.2196
6203000000.0 -0.7501 0.5676
6206000000.0 -0.03175 0.9245
6209000000.0 0.7043 0.6299
6212000000.0 0.9257 -0.1672
6216000000.0 0.4749 -0.767
6219000000.0 -0.3194 -0.89
6222000000.0 -0.8711 -0.2843
6225000000.0 -0.7992 0.4647
6228000000.0 -0.1542 0.9098
6231000000.0 0.5923 0.6869
6234000000.0 0.9116 -0.03571
6238000000.0 0.5359 -0.6972
6241000000.0 -0.1526 -0.8343
6244000000.0 -0.7691 -0.4024
6247000000.0 -0.758 0.3387
6250000000.0 -0.2512 0.7959
6253000000.0 0.4511 0.7207
6256000000.0 0.8692 0.1216
6259000000.0 0.5887 -0.5663
6262000000.0 -0.04468 -0.8135
6266000000.0 -0.6254 -0.4957
