! Created with skrf 1.8.0 (http://scikit-rf.org).
# Hz S RI R 50.0 
!freq ReS11 ImS11
4000000000.0 -0.1965 -1.481
4003000000.0 -1.19 -0.7962
4006000000.0 -1.402 0.4853
4009000000.0 -0.5493 1.429
4012000000.0 0.8125 1.281
4016000000.0 1.519 0.2271
4019000000.0 1.124 -1.066
4022000000.0 -0.124 -1.55
4025000000.0 -1.321 -0.8774
4028000000.0 -1.49 0.4851
4031000000.0 -0.529 1.466
4034000000.0 0.8188 1.353
4038000000.0 1.574 0.2376
4041000000.0 1.193 -1.075
4044000000.0 -0.1361 -1.589
4047000000.0 -1.306 -0.8964
4050000000.0 -1.568 0.467
4053000000.0 -0.591 1.488
4056000000.0 0.7741 1.389
4059000000.0 1.559 0.3051
4062000000.0 1.249 -1.025
4066000000.0 0.02597 -1.586
4069000000.0 -1.251 -1.051
4072000000.0 -1.582 0.2885
4075000000.0 -0.8157 1.412
4078000000.0 0.5742 1.521
4081000000.0 1.542 0.5361
4084000000.0 1.426 -0.8614
4088000000.0 0.2381 -1.621
4091000000.0 -1.123 -1.19
4094000000.0 -1.667 0.09163
4097000000.0 -0.9749 1.304
4100000000.0 0.4233 1.565
4103000000.0 1.412 0.6595
4106000000.0 1.448 -0.6191
4109000000.0 0.3845 -1.491
4112000000.0 -0.8421 -1.291
4116000000.0 -1.468 -0.1914
4119000000.0 -1.111 1.006
4122000000.0 0.0276 1.475
4125000000.0 1.192 0.9189
4128000000.0 1.469 -0.2151
4131000000.0 0.7717 -1.255
4134000000.0 -0.47 -1.391
4138000000.0 -1.367 -0.6206
4141000000.0 -1.326 0.6516
4144000000.0 -0.3721 1.451
4147000000.0 0.8544 1.224
4150000000.0 1.472 0.1124
4153000000.0 1.088 -1.058
4156000000.0 -0.1424 -1.493
4159000000.0 -1.231 -0.8967
4162000000.0 -1.469 0.3919
4166000000.0 -0.6235 1.356
4169000000.0 0.6334 1.357
4172000000.0 1.451 0.4166
4175000000.0 1.231 -0.8665
4178000000.0 0.1658 -1.534
4181000000.0 -1.026 -1.089
4184000000.0 -1.522 0.1105
4188000000.0 -0.8712 1.241
4191000000.0 0.3701 1.498
4194000000.0 1.394 0.6402
4197000000.0 1.402 -0.7107
4200000000.0 0.3703 -1.542
4203000000.0 -0.9567 -1.248
4206000000.0 -1.621 -0.02474
4209000000.0 -1.033 1.276
4212000000.0 0.3715 1.612
4216000000.0 1.51 0.7057
4219000000.0 1.477 -0.7743
4222000000.0 0.3113 -1.619
4225000000.0 -1.136 -1.235
4228000000.0 -1.683 0.1487
4231000000.0 -0.8546 1.41
4234000000.0 0.5742 1.538
4238000000.0 1.542 0.4694
4241000000.0 1.341 -0.9496
4244000000.0 0.04012 -1.625
4247000000.0 -1.192 -0.999
4250000000.0 -1.543 0.3849
4253000000.0 -0.664 1.412
4256000000.0 0.7362 1.373
4259000000.0 1.537 0.2668
4262000000.0 1.125 -1.01
4266000000.0 -0.1199 -1.518
4269000000.0 -1.263 -0.843
4272000000.0 -1.402 0.4763
4275000000.0 -0.5016 1.354
4278000000.0 0.7777 1.201
4281000000.0 1.409 0.143
4284000000.0 0.9862 -1.034
4288000000.0 -0.1737 -1.385
4291000000.0 -1.17 -0.7177
4294000000.0 -1.228 0.4676
4297000000.0 -0.4906 1.272
4300000000.0 0.6508 1.144
4303000000.0 1.307 0.2271
4306000000.0 0.9692 -0.8262
4309000000.0 -0.01025 -1.274
4312000000.0 -0.9855 -0.8143
4316000000.0 -1.253 0.2497
4319000000.0 -0.6365 1.108
4322000000.0 0.4351 1.233
4325000000.0 1.209 0.4841
4328000000.0 1.143 -0.6497
4331000000.0 0.2458 -1.345
4334000000.0 -0.8764 -1.056
4338000000.0 -1.36 -0.0283
4341000000.0 -0.901 1.027
4344000000.0 0.2416 1.374
4347000000.0 1.254 0.7089
4350000000.0 1.349 -0.5397
4353000000.0 0.4662 -1.353
4356000000.0 -0.7467 -1.221
4359000000.0 -1.429 -0.2016
4362000000.0 -1.095 0.961
4366000000.0 0.06431 1.428
4369000000.0 1.146 0.9042
4372000000.0 1.438 -0.3096
4375000000.0 0.6784 -1.314
4378000000.0 -0.5624 -1.388
4381000000.0 -1.447 -0.4252
4384000000.0 -1.267 0.8513
4388000000.0 -0.1761 1.544
4391000000.0 1.134 1.063
4394000000.0 1.559 -0.1877
4397000000.0 0.8007 -1.325
4400000000.0 -0.5548 -1.474
4403000000.0 -1.469 -0.5184
4406000000.0 -1.329 0.8815
4409000000.0 -0.1071 1.571
4412000000.0 1.148 1.057
4416000000.0 1.51 -0.2336
4419000000.0 0.7545 -1.33
4422000000.0 -0.6126 -1.386
4425000000.0 -1.413 -0.3939
4428000000.0 -1.167 0.8824
4431000000.0 -0.05675 1.463
4434000000.0 1.083 0.9004
4438000000.0 1.341 -0.2937
4441000000.0 0.6143 -1.257
4444000000.0 -0.5977 -1.23
4447000000.0 -1.317 -0.2746
4450000000.0 -1.022 0.8793
4453000000.0 0.05241 1.348
4456000000.0 1.047 0.7162
4459000000.0 1.228 -0.4395
4462000000.0 0.4295 -1.153
4466000000.0 -0.6381 -1.068
4469000000.0 -1.207 -0.1015
4472000000.0 -0.796 0.8702
4475000000.0 0.2051 1.18
4478000000.0 1.027 0.5778
4481000000.0 1.085 -0.4589
4484000000.0 0.3149 -1.121
4488000000.0 -0.668 -0.9078
4491000000.0 -1.104 -0.03801
4494000000.0 -0.6972 0.874
4497000000.0 0.2327 1.085
4500000000.0 1.006 0.5164
4503000000.0 0.9969 -0.4255
4506000000.0 0.324 -1.085
4509000000.0 -0.6534 -0.8691
4512000000.0 -1.095 -0.09548
4516000000.0 -0.7721 0.8266
4519000000.0 0.1477 1.104
4522000000.0 0.9803 0.5775
4525000000.0 1.076 -0.3887
4528000000.0 0.4132 -1.092
4531000000.0 -0.6059 -0.9688
4534000000.0 -1.143 -0.1715
4538000000.0 -0.8471 0.7764
4541000000.0 0.04411 1.196
4544000000.0 0.9426 0.6876
4547000000.0 1.171 -0.2831
4550000000.0 0.5258 -1.089
4553000000.0 -0.4597 -1.119
4556000000.0 -1.176 -0.3777
4559000000.0 -1.015 0.6694
4562000000.0 -0.135 1.236
4566000000.0 0.8696 0.9017
4569000000.0 1.269 -0.08187
4572000000.0 0.7348 -1.03
4575000000.0 -0.3119 -1.262
4578000000.0 -1.169 -0.579
4581000000.0 -1.202 0.5378
4584000000.0 -0.3714 1.277
4588000000.0 0.7729 1.09
4591000000.0 1.36 0.1178
4594000000.0 0.9558 -0.9752
4597000000.0 -0.1321 -1.371
4600000000.0 -1.15 -0.7496
4603000000.0 -1.323 0.4182
4606000000.0 -0.514 1.287
4609000000.0 0.6612 1.231
4612000000.0 1.384 0.2455
4616000000.0 1.059 -0.8937
4619000000.0 -0.02841 -1.397
4622000000.0 -1.076 -0.8843
4625000000.0 -1.327 0.3239
4628000000.0 -0.602 1.215
4631000000.0 0.5707 1.262
4634000000.0 1.31 0.3361
4638000000.0 1.109 -0.7817
4641000000.0 0.05725 -1.335
4644000000.0 -1.016 -0.8749
4647000000.0 -1.322 0.2347
4650000000.0 -0.6209 1.158
4653000000.0 0.5011 1.209
4656000000.0 1.245 0.3396
4659000000.0 0.9949 -0.7755
4662000000.0 0.05605 -1.256
4666000000.0 -0.9063 -0.77
4669000000.0 -1.176 0.2489
4672000000.0 -0.5481 1.049
4675000000.0 0.4669 1.064
4678000000.0 1.1 0.2521
4681000000.0 0.8886 -0.6801
4684000000.0 0.0308 -1.123
4688000000.0 -0.8644 -0.6858
4691000000.0 -1.095 0.1985
4694000000.0 -0.4942 1.029
4697000000.0 0.4592 0.969
4700000000.0 1.025 0.2357
4703000000.0 0.8337 -0.6924
4706000000.0 -0.01217 -1.089
4709000000.0 -0.8883 -0.6654
4712000000.0 -1.032 0.2619
4716000000.0 -0.4345 0.9597
4719000000.0 0.4569 0.9573
4722000000.0 1.033 0.2063
4725000000.0 0.81 -0.6574
4728000000.0 0.009162 -1.056
4731000000.0 -0.8156 -0.6735
4734000000.0 -1.009 0.1823
4738000000.0 -0.4846 0.9393
4741000000.0 0.3954 0.9527
4744000000.0 0.9679 0.3206
4747000000.0 0.8794 -0.5644
4750000000.0 0.1323 -1.045
4753000000.0 -0.7546 -0.77
4756000000.0 -1.084 0.04108
4759000000.0 -0.661 0.8747
4762000000.0 0.2505 1.093
4766000000.0 1.027 0.4933
4769000000.0 1.033 -0.4638
4772000000.0 0.3094 -1.084
4775000000.0 -0.6676 -0.9504
4778000000.0 -1.158 -0.1269
4781000000.0 -0.8106 0.8185
4784000000.0 0.1179 1.218
4788000000.0 0.9882 0.6771
4791000000.0 1.159 -0.3028
4794000000.0 0.5319 -1.13
4797000000.0 -0.5031 -1.145
4800000000.0 -1.196 -0.3611
4803000000.0 -1.054 0.6781
4806000000.0 -0.1438 1.237
4809000000.0 0.8752 0.9411
4812000000.0 1.293 -0.06716
4816000000.0 0.7652 -1.022
4819000000.0 -0.2931 -1.293
4822000000.0 -1.214 -0.5912
4825000000.0 -1.247 0.5473
4828000000.0 -0.3766 1.318
4831000000.0 0.772 1.123
4834000000.0 1.377 0.0914
4838000000.0 0.9536 -1.005
4841000000.0 -0.1998 -1.386
4844000000.0 -1.181 -0.7493
4847000000.0 -1.315 0.4518
4850000000.0 -0.4681 1.299
4853000000.0 0.677 1.204
4856000000.0 1.392 0.231
4859000000.0 0.9993 -0.8898
4862000000.0 -0.07069 -1.337
4866000000.0 -1.076 -0.8097
4869000000.0 -1.265 0.3261
4872000000.0 -0.5729 1.209
4875000000.0 0.5488 1.167
4878000000.0 1.22 0.2974
4881000000.0 0.9859 -0.7656
4884000000.0 0.01584 -1.253
4888000000.0 -0.9332 -0.805
4891000000.0 -1.179 0.2421
4894000000.0 -0.5357 1.045
4897000000.0 0.463 1.057
4900000000.0 1.087 0.2708
4903000000.0 0.8901 -0.6413
4906000000.0 0.03367 -1.091
4909000000.0 -0.8078 -0.6934
4912000000.0 -1.056 0.1342
4916000000.0 -0.5085 0.9038
4919000000.0 0.3584 0.9409
4922000000.0 0.9357 0.2912
4925000000.0 0.8236 -0.5153
4928000000.0 0.1137 -0.9043
4931000000.0 -0.6518 -0.6641
4934000000.0 -0.9447 0.05208
4938000000.0 -0.519 0.769
4941000000.0 0.2249 0.9339
4944000000.0 0.8556 0.3961
4947000000.0 0.8253 -0.4241
4950000000.0 0.2181 -0.8972
4953000000.0 -0.5875 -0.7557
4956000000.0 -0.9573 -0.02516
4959000000.0 -0.6142 0.7266
4962000000.0 0.1697 0.9648
4966000000.0 0.859 0.4568
4969000000.0 0.9063 -0.3625
4972000000.0 0.2884 -0.9544
4975000000.0 -0.5342 -0.833
4978000000.0 -1.008 -0.1135
4981000000.0 -0.7338 0.7115
4984000000.0 0.1046 1.031
4988000000.0 0.8812 0.58
4991000000.0 1.024 -0.2861
4994000000.0 0.4439 -0.9758
4997000000.0 -0.4769 -0.9784
5000000000.0 -1.097 -0.2669
5003000000.0 -0.9211 0.6473
5006000000.0 -0.05696 1.155
5009000000.0 0.8616 0.8024
5012000000.0 1.207 -0.1776
5016000000.0 0.6341 -1.059
5019000000.0 -0.4062 -1.153
5022000000.0 -1.195 -0.4423
5025000000.0 -1.08 0.6497
5028000000.0 -0.2214 1.283
5031000000.0 0.834 0.9639
5034000000.0 1.273 -0.03509
5038000000.0 0.815 -1.012
5041000000.0 -0.2663 -1.269
5044000000.0 -1.17 -0.6045
5047000000.0 -1.203 0.48
5050000000.0 -0.3917 1.208
5053000000.0 0.7067 1.086
5056000000.0 1.298 0.1267
5059000000.0 0.9757 -0.8765
5062000000.0 -0.08183 -1.324
5066000000.0 -1.04 -0.7719
5069000000.0 -1.23 0.2976
5072000000.0 -0.5976 1.159
5075000000.0 0.5294 1.161
5078000000.0 1.226 0.327
5081000000.0 1.023 -0.687
5084000000.0 0.1221 -1.204
5088000000.0 -0.8155 -0.8753
5091000000.0 -1.178 0.09923
5094000000.0 -0.7065 0.9948
5097000000.0 0.311 1.141
5100000000.0 1.047 0.4613
5103000000.0 1.008 -0.5243
5106000000.0 0.2706 -1.096
5109000000.0 -0.6074 -0.8669
5112000000.0 -1.081 -0.08439
5116000000.0 -0.7397 0.7227
5119000000.0 0.08038 1.022
5122000000.0 0.8463 0.6118
5125000000.0 0.9997 -0.2737
5128000000.0 0.4486 -0.9295
5131000000.0 -0.4478 -0.9138
5134000000.0 -0.9437 -0.2074
5138000000.0 -0.7795 0.5995
5141000000.0 -0.04183 1.007
5144000000.0 0.7158 0.6263
5147000000.0 0.9132 -0.1902
5150000000.0 0.4876 -0.8354
5153000000.0 -0.3187 -0.8361
5156000000.0 -0.8881 -0.2617
5159000000.0 -0.7717 0.5035
5162000000.0 -0.1125 0.912
5166000000.0 0.5831 0.6612
5169000000.0 0.9029 -0.06745
5172000000.0 0.5119 -0.7206
5175000000.0 -0.2771 -0.859
5178000000.0 -0.8348 -0.3412
5181000000.0 -0.7967 0.4452
5184000000.0 -0.1702 0.8851
5188000000.0 0.5764 0.6809
5191000000.0 0.9013 -0.03682
5194000000.0 0.527 -0.7519
5197000000.0 -0.2687 -0.9008
5200000000.0 -0.8634 -0.3591
5203000000.0 -0.8264 0.4403
5206000000.0 -0.1925 0.9468
5209000000.0 0.6195 0.7208
5212000000.0 0.9434 -0.04149
5216000000.0 0.5824 -0.7718
5219000000.0 -0.2346 -0.936
5222000000.0 -0.8878 -0.4165
5225000000.0 -0.9022 0.449
5228000000.0 -0.2536 0.9828
5231000000.0 0.6361 0.8137
5234000000.0 1.022 0.04877
5238000000.0 0.6652 -0.764
5241000000.0 -0.1781 -1.03
5244000000.0 -0.9095 -0.5323
5247000000.0 -0.9836 0.3497
5250000000.0 -0.3802 1.016
5253000000.0 0.5681 0.9144
5256000000.0 1.051 0.1578
5259000000.0 0.7996 -0.7158
5262000000.0 -0.03814 -1.075
5266000000.0 -0.8526 -0.6787
5269000000.0 -1.061 0.2011
5272000000.0 -0.5171 0.9422
5275000000.0 0.3844 1.014
5278000000.0 1.053 0.356
5281000000.0 0.9347 -0.5493
5284000000.0 0.1966 -1.079
5288000000.0 -0.6918 -0.8467
5291000000.0 -1.102 -0.009631
5294000000.0 -0.7553 0.823
5297000000.0 0.1641 1.088
5300000000.0 0.9362 0.6014
5303000000.0 1.083 -0.3236
5306000000.0 0.4285 -1.05
5309000000.0 -0.5192 -1.03
5312000000.0 -1.117 -0.2683
5316000000.0 -0.8884 0.6686
5319000000.0 -0.1055 1.161
5322000000.0 0.8353 0.7799
5325000000.0 1.136 -0.1553
5328000000.0 0.6183 -0.9782
5331000000.0 -0.3346 -1.085
5334000000.0 -1.063 -0.4338
5338000000.0 -1.022 0.5858
5341000000.0 -0.2274 1.055
5344000000.0 0.7081 0.8592
5347000000.0 1.105 0.0207
5350000000.0 0.7097 -0.8699
5353000000.0 -0.1842 -1.052
5356000000.0 -0.9671 -0.4997
5359000000.0 -0.9809 0.4057
5362000000.0 -0.3186 1.049
5366000000.0 0.6101 0.8578
5369000000.0 1.049 0.09598
5372000000.0 0.7347 -0.77
5375000000.0 -0.1566 -0.9846
5378000000.0 -0.8621 -0.529
5381000000.0 -0.9159 0.3546
5384000000.0 -0.2955 0.9351
5388000000.0 0.5668 0.8156
5391000000.0 0.9599 0.07162
5394000000.0 0.6636 -0.6893
5397000000.0 -0.153 -0.9325
5400000000.0 -0.7998 -0.4577
5403000000.0 -0.8222 0.339
5406000000.0 -0.2432 0.873
5409000000.0 0.516 0.7211
5412000000.0 0.8907 0.05646
5416000000.0 0.5965 -0.656
5419000000.0 -0.1406 -0.8601
5422000000.0 -0.7258 -0.4104
5425000000.0 -0.8003 0.3455
5428000000.0 -0.228 0.8239
5431000000.0 0.5037 0.724
5434000000.0 0.84 0.05005
5438000000.0 0.591 -0.6932
5441000000.0 -0.1508 -0.8527
5444000000.0 -0.766 -0.3897
5447000000.0 -0.8318 0.3358
5450000000.0 -0.2531 0.8685
5453000000.0 0.5276 0.7016
5456000000.0 0.8953 0.06593
5459000000.0 0.6057 -0.664
5462000000.0 -0.08688 -0.8811
5466000000.0 -0.7597 -0.4787
5469000000.0 -0.8607 0.2613
5472000000.0 -0.3621 0.8487
5475000000.0 0.3975 0.8064
5478000000.0 0.9382 0.1982
5481000000.0 0.731 -0.5606
5484000000.0 0.02293 -0.9161
5488000000.0 -0.7211 -0.624
5491000000.0 -0.985 0.1137
5494000000.0 -0.5183 0.8524
5497000000.0 0.3385 0.9263
5500000000.0 0.9442 0.3499
5503000000.0 0.8916 -0.5043
5506000000.0 0.1876 -1.001
5509000000.0 -0.6046 -0.8174
5512000000.0 -1.036 -0.01461
5516000000.0 -0.6737 0.7746
5519000000.0 0.1233 0.9901
5522000000.0 0.9067 0.5261
5525000000.0 0.982 -0.2991
5528000000.0 0.3816 -0.9765
5531000000.0 -0.5124 -0.8771
5534000000.0 -1.038 -0.2354
5538000000.0 -0.8443 0.6276
5541000000.0 -0.06383 1.059
5544000000.0 0.7789 0.7228
5547000000.0 1.059 -0.1116
5550000000.0 0.5822 -0.8785
5553000000.0 -0.3301 -1.033
5556000000.0 -0.9764 -0.3948
5559000000.0 -0.9189 0.4777
5562000000.0 -0.2203 1.044
5566000000.0 0.6462 0.789
5569000000.0 1.029 -0.01547
5572000000.0 0.6196 -0.7923
5575000000.0 -0.1802 -1.003
5578000000.0 -0.8956 -0.4781
5581000000.0 -0.9169 0.3517
5584000000.0 -0.3231 0.9377
5588000000.0 0.5372 0.7923
5591000000.0 0.9415 0.1164
5594000000.0 0.6638 -0.6548
5597000000.0 -0.08566 -0.8931
5600000000.0 -0.7381 -0.5185
5603000000.0 -0.8777 0.2591
5606000000.0 -0.353 0.8125
5609000000.0 0.3913 0.7685
5612000000.0 0.8818 0.1975
5616000000.0 0.6631 -0.5543
5619000000.0 0.006633 -0.8456
5622000000.0 -0.6369 -0.5371
5625000000.0 -0.8075 0.1736
5628000000.0 -0.3559 0.7694
5631000000.0 0.3654 0.7666
5634000000.0 0.8267 0.2134
5638000000.0 0.6724 -0.4768
5641000000.0 0.02109 -0.8182
5644000000.0 -0.6412 -0.5369
5647000000.0 -0.8453 0.1385
5650000000.0 -0.4098 0.7164
5653000000.0 0.3434 0.7752
5656000000.0 0.8258 0.2195
5659000000.0 0.7038 -0.5103
5662000000.0 0.0629 -0.8773
5666000000.0 -0.6746 -0.5753
5669000000.0 -0.8515 0.1549
5672000000.0 -0.4079 0.7638
5675000000.0 0.3341 0.8285
5678000000.0 0.9067 0.242
5681000000.0 0.7582 -0.542
5684000000.0 0.05577 -0.9279
5688000000.0 -0.6932 -0.6523
5691000000.0 -0.9573 0.1669
5694000000.0 -0.4829 0.833
5697000000.0 0.3684 0.9163
5700000000.0 0.9564 0.3288
5703000000.0 0.8499 -0.5273
5706000000.0 0.131 -0.9852
5709000000.0 -0.6933 -0.7481
5712000000.0 -1.034 0.06279
5716000000.0 -0.6015 0.8453
5719000000.0 0.2475 1.001
5722000000.0 0.9858 0.4201
5725000000.0 0.9827 -0.4793
5728000000.0 0.2448 -1.042
5731000000.0 -0.6398 -0.8554
5734000000.0 -1.08 -0.04688
5738000000.0 -0.7053 0.8038
5741000000.0 0.1488 1.067
5744000000.0 0.9003 0.5659
5747000000.0 1.035 -0.3379
5750000000.0 0.3671 -1.038
5753000000.0 -0.5265 -0.9641
5756000000.0 -1.096 -0.2446
5759000000.0 -0.867 0.706
5762000000.0 -0.01597 1.118
5766000000.0 0.8526 0.7038
5769000000.0 1.064 -0.1731
5772000000.0 0.5631 -0.9563
5775000000.0 -0.3946 -1.07
5778000000.0 -1.037 -0.3787
5781000000.0 -0.9573 0.5302
5784000000.0 -0.2367 1.075
5788000000.0 0.6821 0.7966
5791000000.0 1.076 -0.01237
5794000000.0 0.6963 -0.8312
5797000000.0 -0.2149 -1.033
5800000000.0 -0.9398 -0.494
5803000000.0 -0.9769 0.3846
5806000000.0 -0.2978 0.9941
5809000000.0 0.5751 0.8665
5812000000.0 1.032 0.1254
5816000000.0 0.7693 -0.7138
5819000000.0 -0.08673 -1.024
5822000000.0 -0.8446 -0.5758
5825000000.0 -0.958 0.2544
5828000000.0 -0.3969 0.9286
5831000000.0 0.4239 0.8653
5834000000.0 0.9834 0.2118
5838000000.0 0.7727 -0.6374
5841000000.0 -0.01146 -0.9425
5844000000.0 -0.7607 -0.5938
5847000000.0 -0.9363 0.1643
5850000000.0 -0.3903 0.8221
5853000000.0 0.3791 0.861
5856000000.0 0.9006 0.2501
5859000000.0 0.7363 -0.5459
5862000000.0 -0.0001993 -0.8935
5866000000.0 -0.6797 -0.5921
5869000000.0 -0.8811 0.17
5872000000.0 -0.4466 0.8037
5875000000.0 0.2959 0.8317
5878000000.0 0.8296 0.2275
5881000000.0 0.7568 -0.4868
5884000000.0 0.05247 -0.8565
5888000000.0 -0.628 -0.5632
5891000000.0 -0.8818 0.09588
5894000000.0 -0.4532 0.7138
5897000000.0 0.2907 0.8077
5900000000.0 0.7794 0.2429
5903000000.0 0.7407 -0.4553
5906000000.0 0.1 -0.8285
5909000000.0 -0.5705 -0.6428
5912000000.0 -0.8604 0.0784
5916000000.0 -0.4872 0.6954
5919000000.0 0.2673 0.8149
5922000000.0 0.8144 0.3284
5925000000.0 0.7637 -0.3921
5928000000.0 0.1882 -0.89
5931000000.0 -0.5284 -0.713
5934000000.0 -0.8695 -0.03523
5938000000.0 -0.6 0.6602
5941000000.0 0.1044 0.9049
5944000000.0 0.7768 0.4666
5947000000.0 0.872 -0.3045
5950000000.0 0.315 -0.8422
5953000000.0 -0.4444 -0.8411
5956000000.0 -0.9142 -0.159
5959000000.0 -0.68 0.5888
5962000000.0 0.01583 0.9233
5966000000.0 0.7422 0.5959
5969000000.0 0.9252 -0.1606
5972000000.0 0.5021 -0.8206
5975000000.0 -0.3154 -0.8923
5978000000.0 -0.8979 -0.3114
5981000000.0 -0.851 0.4938
5984000000.0 -0.1407 0.9354
5988000000.0 0.6544 0.7849
5991000000.0 1.004 -0.01687
5994000000.0 0.6237 -0.7761
5997000000.0 -0.2052 -0.9926
6000000000.0 -0.8938 -0.4624
6003000000.0 -0.9208 0.3925
6006000000.0 -0.2821 0.9533
6009000000.0 0.5424 0.7965
6012000000.0 0.998 0.08829
6016000000.0 0.7154 -0.6904
6019000000.0 -0.09526 -0.9948
6022000000.0 -0.8477 -0.56
6025000000.0 -0.9378 0.2933
6028000000.0 -0.3408 0.9143
6031000000.0 0.4719 0.8513
6034000000.0 0.9388 0.2037
6038000000.0 0.7473 -0.6109
6041000000.0 -0.005326 -0.9582
6044000000.0 -0.7299 -0.5985
6047000000.0 -0.9341 0.1965
6050000000.0 -0.411 0.8503
6053000000.0 0.3667 0.8411
6056000000.0 0.9097 0.2174
6059000000.0 0.7608 -0.5277
6062000000.0 0.05533 -0.9173
6066000000.0 -0.6558 -0.5795
6069000000.0 -0.8802 0.1496
6072000000.0 -0.4088 0.7768
6075000000.0 0.3088 0.8029
6078000000.0 0.8183 0.2678
6081000000.0 0.7349 -0.4769
6084000000.0 0.05232 -0.8668
6088000000.0 -0.6009 -0.6095
6091000000.0 -0.8234 0.09562
6094000000.0 -0.4612 0.7267
6097000000.0 0.274 0.8309
6100000000.0 0.7955 0.2867
6103000000.0 0.7191 -0.419
6106000000.0 0.141 -0.8484
6109000000.0 -0.5885 -0.6356
6112000000.0 -0.8325 0.04703
6116000000.0 -0.4801 0.7154
6119000000.0 0.2468 0.8367
6122000000.0 0.8054 0.3264
6125000000.0 0.7727 -0.4223
6128000000.0 0.1448 -0.8111
6131000000.0 -0.5679 -0.6664
6134000000.0 -0.8967 0.02744
6138000000.0 -0.511 0.6797
6141000000.0 0.2067 0.8537
6144000000.0 0.8205 0.4135
6147000000.0 0.7943 -0.3686
6150000000.0 0.1951 -0.8543
6153000000.0 -0.522 -0.7426
6156000000.0 -0.8883 -0.04573
6159000000.0 -0.5933 0.6632
6162000000.0 0.1157 0.9412
6166000000.0 0.7819 0.4902
6169000000.0 0.8897 -0.302
6172000000.0 0.3346 -0.8844
6175000000.0 -0.4788 -0.8322
6178000000.0 -0.9402 -0.1261
6181000000.0 -0.6926 0.654
6184000000.0 0.07778 0.9234
6188000000.0 0.8102 0.5669
6191000000.0 0.9165 -0.2288
6194000000.0 0.3713 -0.8617
6197000000.0 -0.4038 -0.8422
6200000000.0 -0.934 -0.2209
6203000000.0 -0.7582 0.5385
6206000000.0 -0.04244 0.9497
6209000000.0 0.6846 0.6126
6212000000.0 0.9199 -0.1221
6216000000.0 0.5009 -0.758
6219000000.0 -0.3178 -0.8621
6222000000.0 -0.8733 -0.3343
6225000000.0 -0.7752 0.4643
6228000000.0 -0.1502 0.9109
6231000000.0 0.57 0.6759
6234000000.0 0.8939 -0.03275
6238000000.0 0.5488 -0.6715
6241000000.0 -0.1784 -0.8772
6244000000.0 -0.7899 -0.3829
6247000000.0 -0.7743 0.3506
6250000000.0 -0.2456 0.8174
6253000000.0 0.4441 0.7196
6256000000.0 0.8156 0.08206
6259000000.0 0.5853 -0.5278
6262000000.0 -0.04554 -0.7668
6266000000.0 -0.6904 -0.486
