! Created with skrf 1.8.0 (http://scikit-rf.org).
# Hz S RI R 50.0 
!freq ReS11 ImS11
4000000000.0 -0.1955 -1.492
4003000000.0 -1.269 -0.8027
4006000000.0 -1.422 0.5063
4009000000.0 -0.5164 1.453
4012000000.0 0.7662 1.302
4016000000.0 1.488 0.2329
4019000000.0 1.121 -1.065
4022000000.0 -0.09001 -1.515
4025000000.0 -1.276 -0.8966
4028000000.0 -1.485 0.4937
4031000000.0 -0.5635 1.514
4034000000.0 0.8376 1.411
4038000000.0 1.601 0.2516
4041000000.0 1.191 -1.118
4044000000.0 -0.1158 -1.641
4047000000.0 -1.317 -0.975
4050000000.0 -1.581 0.5229
4053000000.0 -0.6357 1.494
4056000000.0 0.79 1.427
4059000000.0 1.575 0.3213
4062000000.0 1.217 -1.024
4066000000.0 0.03539 -1.66
4069000000.0 -1.209 -1.06
4072000000.0 -1.589 0.2502
4075000000.0 -0.8062 1.416
4078000000.0 0.5623 1.587
4081000000.0 1.565 0.5778
4084000000.0 1.433 -0.8391
4088000000.0 0.2285 -1.672
4091000000.0 -1.134 -1.223
4094000000.0 -1.66 0.07981
4097000000.0 -0.959 1.346
4100000000.0 0.3691 1.599
4103000000.0 1.475 0.7129
4106000000.0 1.485 -0.6513
4109000000.0 0.463 -1.551
4112000000.0 -0.8682 -1.31
4116000000.0 -1.51 -0.2088
4119000000.0 -1.124 1.018
4122000000.0 0.02031 1.465
4125000000.0 1.126 0.9352
4128000000.0 1.467 -0.2532
4131000000.0 0.792 -1.259
4134000000.0 -0.4633 -1.429
4138000000.0 -1.357 -0.6079
4141000000.0 -1.349 0.6545
4144000000.0 -0.3756 1.475
4147000000.0 0.8673 1.255
4150000000.0 1.546 0.1015
4153000000.0 1.082 -1.095
4156000000.0 -0.1337 -1.508
4159000000.0 -1.268 -0.8869
4162000000.0 -1.492 0.4132
4166000000.0 -0.6237 1.39
4169000000.0 0.6196 1.335
4172000000.0 1.46 0.416
4175000000.0 1.236 -0.8506
4178000000.0 0.1152 -1.496
4181000000.0 -1.041 -1.062
4184000000.0 -1.518 0.1263
4188000000.0 -0.8476 1.203
4191000000.0 0.3839 1.473
4194000000.0 1.407 0.6689
4197000000.0 1.405 -0.6847
4200000000.0 0.3458 -1.519
4203000000.0 -0.952 -1.253
4206000000.0 -1.627 -0.02569
4209000000.0 -1.051 1.287
4212000000.0 0.328 1.636
4216000000.0 1.533 0.7303
4219000000.0 1.52 -0.7695
4222000000.0 0.2967 -1.709
4225000000.0 -1.115 -1.268
4228000000.0 -1.689 0.1348
4231000000.0 -0.9089 1.444
4234000000.0 0.5553 1.58
4238000000.0 1.595 0.4735
4241000000.0 1.347 -0.9735
4244000000.0 0.06628 -1.641
4247000000.0 -1.262 -1.048
4250000000.0 -1.513 0.3086
4253000000.0 -0.6467 1.414
4256000000.0 0.6867 1.388
4259000000.0 1.516 0.3126
4262000000.0 1.156 -1.023
4266000000.0 -0.06696 -1.499
4269000000.0 -1.248 -0.8104
4272000000.0 -1.392 0.46
4275000000.0 -0.4958 1.391
4278000000.0 0.7495 1.211
4281000000.0 1.426 0.146
4284000000.0 0.9756 -1.005
4288000000.0 -0.1752 -1.386
4291000000.0 -1.199 -0.691
4294000000.0 -1.259 0.4473
4297000000.0 -0.4715 1.251
4300000000.0 0.6184 1.125
4303000000.0 1.301 0.2389
4306000000.0 0.9862 -0.823
4309000000.0 0.02926 -1.271
4312000000.0 -1.005 -0.847
4316000000.0 -1.285 0.1963
4319000000.0 -0.666 1.093
4322000000.0 0.4343 1.198
4325000000.0 1.236 0.4646
4328000000.0 1.196 -0.6478
4331000000.0 0.2649 -1.301
4334000000.0 -0.8542 -1.087
4338000000.0 -1.378 -0.02293
4341000000.0 -0.9101 1.046
4344000000.0 0.2586 1.37
4347000000.0 1.23 0.7097
4350000000.0 1.366 -0.5345
4353000000.0 0.4991 -1.385
4356000000.0 -0.7368 -1.243
4359000000.0 -1.445 -0.2283
4362000000.0 -1.087 0.9489
4366000000.0 0.04381 1.448
4369000000.0 1.177 0.9128
4372000000.0 1.442 -0.3383
4375000000.0 0.696 -1.332
4378000000.0 -0.6039 -1.388
4381000000.0 -1.478 -0.449
4384000000.0 -1.25 0.8507
4388000000.0 -0.1436 1.54
4391000000.0 1.131 1.092
4394000000.0 1.55 -0.1842
4397000000.0 0.8551 -1.31
4400000000.0 -0.5218 -1.51
4403000000.0 -1.517 -0.5406
4406000000.0 -1.311 0.8479
4409000000.0 -0.1375 1.572
4412000000.0 1.119 1.097
4416000000.0 1.542 -0.252
4419000000.0 0.7657 -1.331
4422000000.0 -0.5441 -1.431
4425000000.0 -1.465 -0.3924
4428000000.0 -1.217 0.8459
4431000000.0 -0.04356 1.475
4434000000.0 1.122 0.9555
4438000000.0 1.392 -0.2799
4441000000.0 0.5865 -1.254
4444000000.0 -0.6402 -1.253
4447000000.0 -1.326 -0.2524
4450000000.0 -1.017 0.895
4453000000.0 0.06896 1.324
4456000000.0 1.069 0.7364
4459000000.0 1.237 -0.4058
4462000000.0 0.4344 -1.167
4466000000.0 -0.6996 -1.024
4469000000.0 -1.23 -0.118
4472000000.0 -0.8238 0.8895
4475000000.0 0.178 1.207
4478000000.0 1.057 0.5901
4481000000.0 1.093 -0.4514
4484000000.0 0.3064 -1.113
4488000000.0 -0.6811 -0.9289
4491000000.0 -1.13 -0.02614
4494000000.0 -0.7401 0.8591
4497000000.0 0.2077 1.102
4500000000.0 0.9935 0.514
4503000000.0 1.0 -0.4446
4506000000.0 0.2822 -1.06
4509000000.0 -0.6412 -0.896
4512000000.0 -1.117 -0.06549
4516000000.0 -0.7538 0.8247
4519000000.0 0.1597 1.117
4522000000.0 0.9635 0.5814
4525000000.0 1.087 -0.3857
4528000000.0 0.4283 -1.059
4531000000.0 -0.62 -1.02
4534000000.0 -1.151 -0.162
4538000000.0 -0.8462 0.8004
4541000000.0 0.05977 1.189
4544000000.0 0.9508 0.7331
4547000000.0 1.16 -0.2669
4550000000.0 0.557 -1.07
4553000000.0 -0.4941 -1.129
4556000000.0 -1.185 -0.3438
4559000000.0 -1.028 0.6913
4562000000.0 -0.1515 1.241
4566000000.0 0.8575 0.9297
4569000000.0 1.24 -0.08285
4572000000.0 0.7598 -1.002
4575000000.0 -0.3124 -1.253
4578000000.0 -1.167 -0.5727
4581000000.0 -1.226 0.5217
4584000000.0 -0.3767 1.294
4588000000.0 0.794 1.132
4591000000.0 1.367 0.1422
4594000000.0 0.9934 -0.988
4597000000.0 -0.1451 -1.36
4600000000.0 -1.157 -0.7599
4603000000.0 -1.335 0.3907
4606000000.0 -0.5397 1.294
4609000000.0 0.6701 1.226
4612000000.0 1.367 0.2591
4616000000.0 1.101 -0.8963
4619000000.0 -0.03507 -1.427
4622000000.0 -1.077 -0.8802
4625000000.0 -1.365 0.2793
4628000000.0 -0.6269 1.238
4631000000.0 0.5547 1.273
4634000000.0 1.33 0.3497
4638000000.0 1.075 -0.8111
4641000000.0 0.09783 -1.363
4644000000.0 -1.012 -0.8918
4647000000.0 -1.337 0.2329
4650000000.0 -0.6275 1.162
4653000000.0 0.5218 1.208
4656000000.0 1.259 0.3329
4659000000.0 1.045 -0.7708
4662000000.0 0.003712 -1.28
4666000000.0 -0.9305 -0.8033
4669000000.0 -1.215 0.2332
4672000000.0 -0.5454 1.053
4675000000.0 0.4872 1.066
4678000000.0 1.112 0.3055
4681000000.0 0.9227 -0.7245
4684000000.0 0.04382 -1.104
4688000000.0 -0.872 -0.7265
4691000000.0 -1.089 0.2375
4694000000.0 -0.4739 0.9648
4697000000.0 0.4555 1.003
4700000000.0 1.046 0.2595
4703000000.0 0.8396 -0.6547
4706000000.0 0.01972 -1.069
4709000000.0 -0.8265 -0.6726
4712000000.0 -1.05 0.2403
4716000000.0 -0.4584 0.9635
4719000000.0 0.4865 0.9434
4722000000.0 1.024 0.2543
4725000000.0 0.8211 -0.6918
4728000000.0 0.03718 -1.096
4731000000.0 -0.8292 -0.6553
4734000000.0 -1.036 0.191
4738000000.0 -0.4943 0.9364
4741000000.0 0.4061 0.9781
4744000000.0 1.024 0.3087
4747000000.0 0.8798 -0.5877
4750000000.0 0.1435 -1.08
4753000000.0 -0.7472 -0.7832
4756000000.0 -1.107 0.08484
4759000000.0 -0.6772 0.8877
4762000000.0 0.2807 1.075
4766000000.0 1.01 0.5033
4769000000.0 1.036 -0.4811
4772000000.0 0.306 -1.133
4775000000.0 -0.6483 -0.9569
4778000000.0 -1.203 -0.07772
4781000000.0 -0.8451 0.8351
4784000000.0 0.1198 1.201
4788000000.0 0.9718 0.7206
4791000000.0 1.183 -0.2763
4794000000.0 0.5592 -1.081
4797000000.0 -0.5306 -1.126
4800000000.0 -1.207 -0.3827
4803000000.0 -1.05 0.6861
4806000000.0 -0.1596 1.253
4809000000.0 0.8678 0.9422
4812000000.0 1.274 -0.07737
4816000000.0 0.7829 -1.046
4819000000.0 -0.3083 -1.304
4822000000.0 -1.205 -0.5869
4825000000.0 -1.273 0.5537
4828000000.0 -0.3829 1.319
4831000000.0 0.79 1.136
4834000000.0 1.389 0.1009
4838000000.0 0.9726 -1.0
4841000000.0 -0.1636 -1.382
4844000000.0 -1.202 -0.7433
4847000000.0 -1.326 0.4563
4850000000.0 -0.4957 1.319
4853000000.0 0.7294 1.211
4856000000.0 1.363 0.2068
4859000000.0 1.016 -0.9015
4862000000.0 -0.07269 -1.345
4866000000.0 -1.109 -0.7869
4869000000.0 -1.311 0.3326
4872000000.0 -0.5727 1.202
4875000000.0 0.5523 1.139
4878000000.0 1.269 0.2711
4881000000.0 1.001 -0.7973
4884000000.0 0.03195 -1.259
4888000000.0 -0.9521 -0.7866
4891000000.0 -1.206 0.2536
4894000000.0 -0.5287 1.065
4897000000.0 0.4739 1.053
4900000000.0 1.129 0.3271
4903000000.0 0.912 -0.6698
4906000000.0 0.04118 -1.112
4909000000.0 -0.797 -0.7144
4912000000.0 -1.028 0.1691
4916000000.0 -0.5288 0.9053
4919000000.0 0.3536 0.9342
4922000000.0 0.9483 0.3365
4925000000.0 0.8366 -0.531
4928000000.0 0.1365 -0.9585
4931000000.0 -0.6509 -0.6735
4934000000.0 -0.9243 0.06302
4938000000.0 -0.5513 0.7748
4941000000.0 0.2244 0.9186
4944000000.0 0.8714 0.3788
4947000000.0 0.8574 -0.4356
4950000000.0 0.2329 -0.9401
4953000000.0 -0.5909 -0.7804
4956000000.0 -0.9905 -0.0164
4959000000.0 -0.6247 0.7413
4962000000.0 0.186 0.9739
4966000000.0 0.8673 0.4839
4969000000.0 0.9216 -0.3844
4972000000.0 0.2917 -0.9602
4975000000.0 -0.5349 -0.8453
4978000000.0 -1.025 -0.09078
4981000000.0 -0.7178 0.7212
4984000000.0 0.0892 1.044
4988000000.0 0.8626 0.5745
4991000000.0 1.04 -0.3017
4994000000.0 0.4401 -1.004
4997000000.0 -0.4672 -1.003
5000000000.0 -1.102 -0.2574
5003000000.0 -0.9201 0.6935
5006000000.0 -0.07609 1.172
5009000000.0 0.9035 0.8264
5012000000.0 1.201 -0.1738
5016000000.0 0.6584 -1.058
5019000000.0 -0.414 -1.159
5022000000.0 -1.175 -0.4353
5025000000.0 -1.084 0.6313
5028000000.0 -0.2144 1.256
5031000000.0 0.8621 0.939
5034000000.0 1.291 -0.02478
5038000000.0 0.7899 -1.023
5041000000.0 -0.2603 -1.275
5044000000.0 -1.166 -0.6108
5047000000.0 -1.175 0.4897
5050000000.0 -0.416 1.245
5053000000.0 0.7019 1.134
5056000000.0 1.269 0.1793
5059000000.0 0.9519 -0.8891
5062000000.0 -0.05709 -1.328
5066000000.0 -1.059 -0.82
5069000000.0 -1.254 0.3021
5072000000.0 -0.6051 1.19
5075000000.0 0.5253 1.176
5078000000.0 1.208 0.3509
5081000000.0 1.04 -0.7236
5084000000.0 0.1286 -1.242
5088000000.0 -0.8897 -0.8571
5091000000.0 -1.216 0.08873
5094000000.0 -0.6764 0.9983
5097000000.0 0.3078 1.132
5100000000.0 1.035 0.5158
5103000000.0 1.038 -0.4908
5106000000.0 0.2932 -1.092
5109000000.0 -0.6444 -0.8949
5112000000.0 -1.072 -0.1229
5116000000.0 -0.7867 0.7779
5119000000.0 0.1033 1.058
5122000000.0 0.8608 0.6007
5125000000.0 1.02 -0.2866
5128000000.0 0.4394 -0.9594
5131000000.0 -0.4615 -0.9001
5134000000.0 -0.9868 -0.2344
5138000000.0 -0.7864 0.6258
5141000000.0 -0.04706 1.006
5144000000.0 0.7432 0.6773
5147000000.0 0.9332 -0.1334
5150000000.0 0.4843 -0.802
5153000000.0 -0.3594 -0.8657
5156000000.0 -0.8965 -0.3011
5159000000.0 -0.7833 0.4926
5162000000.0 -0.1225 0.879
5166000000.0 0.6484 0.679
5169000000.0 0.9194 -0.09423
5172000000.0 0.521 -0.7383
5175000000.0 -0.2703 -0.8912
5178000000.0 -0.8725 -0.3542
5181000000.0 -0.7963 0.4338
5184000000.0 -0.1447 0.921
5188000000.0 0.6199 0.7177
5191000000.0 0.9348 -0.08039
5194000000.0 0.5368 -0.775
5197000000.0 -0.2388 -0.9194
5200000000.0 -0.8686 -0.3506
5203000000.0 -0.8285 0.4528
5206000000.0 -0.1597 0.9417
5209000000.0 0.6342 0.7323
5212000000.0 0.9858 -0.03918
5216000000.0 0.5822 -0.7822
5219000000.0 -0.2221 -0.9435
5222000000.0 -0.8942 -0.4203
5225000000.0 -0.9168 0.4489
5228000000.0 -0.2276 1.015
5231000000.0 0.6013 0.8187
5234000000.0 1.01 0.02865
5238000000.0 0.7018 -0.7949
5241000000.0 -0.1474 -1.055
5244000000.0 -0.9069 -0.5428
5247000000.0 -1.013 0.3487
5250000000.0 -0.3659 0.9962
5253000000.0 0.5224 0.9252
5256000000.0 1.095 0.192
5259000000.0 0.8324 -0.6941
5262000000.0 -0.02009 -1.108
5266000000.0 -0.8421 -0.6944
5269000000.0 -1.047 0.1914
5272000000.0 -0.5591 0.9607
5275000000.0 0.3665 1.008
5278000000.0 1.04 0.3798
5281000000.0 0.951 -0.5401
5284000000.0 0.1913 -1.101
5288000000.0 -0.7024 -0.8636
5291000000.0 -1.111 -0.02913
5294000000.0 -0.733 0.8431
5297000000.0 0.154 1.112
5300000000.0 0.9635 0.6022
5303000000.0 1.101 -0.3424
5306000000.0 0.4655 -1.056
5309000000.0 -0.5195 -1.025
5312000000.0 -1.126 -0.2369
5316000000.0 -0.9172 0.665
5319000000.0 -0.09347 1.163
5322000000.0 0.8355 0.8132
5325000000.0 1.156 -0.1528
5328000000.0 0.6067 -0.9535
5331000000.0 -0.3453 -1.11
5334000000.0 -1.031 -0.4281
5338000000.0 -1.01 0.5048
5341000000.0 -0.216 1.131
5344000000.0 0.7343 0.8833
5347000000.0 1.128 0.02776
5350000000.0 0.7216 -0.8776
5353000000.0 -0.2059 -1.083
5356000000.0 -0.9822 -0.5343
5359000000.0 -1.032 0.4119
5362000000.0 -0.3032 1.019
5366000000.0 0.6276 0.8951
5369000000.0 1.048 0.05886
5372000000.0 0.7404 -0.7704
5375000000.0 -0.1544 -1.023
5378000000.0 -0.86 -0.4936
5381000000.0 -0.9642 0.353
5384000000.0 -0.277 0.9445
5388000000.0 0.5567 0.7846
5391000000.0 0.9734 0.07424
5394000000.0 0.6694 -0.6726
5397000000.0 -0.1448 -0.9183
5400000000.0 -0.8153 -0.4446
5403000000.0 -0.832 0.3329
5406000000.0 -0.228 0.8466
5409000000.0 0.5088 0.7278
5412000000.0 0.8734 0.02523
5416000000.0 0.5927 -0.6643
5419000000.0 -0.1617 -0.8512
5422000000.0 -0.7581 -0.4343
5425000000.0 -0.814 0.3374
5428000000.0 -0.2388 0.8297
5431000000.0 0.5038 0.6979
5434000000.0 0.8563 0.03957
5438000000.0 0.5572 -0.6724
5441000000.0 -0.1523 -0.8821
5444000000.0 -0.8047 -0.3799
5447000000.0 -0.8335 0.3548
5450000000.0 -0.2604 0.8687
5453000000.0 0.491 0.7344
5456000000.0 0.8984 0.06088
5459000000.0 0.6011 -0.6963
5462000000.0 -0.1201 -0.9104
5466000000.0 -0.7838 -0.4834
5469000000.0 -0.8805 0.2532
5472000000.0 -0.3321 0.8347
5475000000.0 0.4306 0.8176
5478000000.0 0.9119 0.2069
5481000000.0 0.7527 -0.5822
5484000000.0 0.01752 -0.9836
5488000000.0 -0.735 -0.6375
5491000000.0 -0.9774 0.1262
5494000000.0 -0.5304 0.8416
5497000000.0 0.3067 0.9583
5500000000.0 0.9752 0.3566
5503000000.0 0.9138 -0.5033
5506000000.0 0.2188 -0.9847
5509000000.0 -0.618 -0.8251
5512000000.0 -1.035 -0.03255
5516000000.0 -0.6995 0.8208
5519000000.0 0.1478 1.034
5522000000.0 0.8595 0.549
5525000000.0 0.9828 -0.3292
5528000000.0 0.4036 -0.9541
5531000000.0 -0.4965 -0.9239
5534000000.0 -1.056 -0.2344
5538000000.0 -0.8384 0.6286
5541000000.0 -0.03803 1.049
5544000000.0 0.7831 0.7588
5547000000.0 1.071 -0.1266
5550000000.0 0.5637 -0.8955
5553000000.0 -0.3386 -1.005
5556000000.0 -1.002 -0.4129
5559000000.0 -0.9383 0.4949
5562000000.0 -0.2144 1.034
5566000000.0 0.667 0.8199
5569000000.0 1.014 -0.002981
5572000000.0 0.6611 -0.7926
5575000000.0 -0.1752 -1.027
5578000000.0 -0.8769 -0.4839
5581000000.0 -0.9232 0.3463
5584000000.0 -0.2962 0.9138
5588000000.0 0.5092 0.8553
5591000000.0 0.9722 0.1174
5594000000.0 0.6891 -0.669
5597000000.0 -0.0537 -0.9574
5600000000.0 -0.7329 -0.5137
5603000000.0 -0.8767 0.2233
5606000000.0 -0.3551 0.8236
5609000000.0 0.3744 0.7989
5612000000.0 0.8611 0.1874
5616000000.0 0.6759 -0.5438
5619000000.0 0.003838 -0.8794
5622000000.0 -0.6758 -0.5213
5625000000.0 -0.8496 0.1711
5628000000.0 -0.3816 0.7683
5631000000.0 0.3253 0.7574
5634000000.0 0.817 0.2175
5638000000.0 0.6915 -0.4883
5641000000.0 0.01813 -0.8399
5644000000.0 -0.6574 -0.5307
5647000000.0 -0.8323 0.1384
5650000000.0 -0.3953 0.7618
5653000000.0 0.3491 0.7965
5656000000.0 0.8357 0.1997
5659000000.0 0.6726 -0.5261
5662000000.0 0.01041 -0.841
5666000000.0 -0.6875 -0.5942
5669000000.0 -0.8818 0.1794
5672000000.0 -0.4508 0.7857
5675000000.0 0.3585 0.8452
5678000000.0 0.8946 0.2301
5681000000.0 0.7366 -0.5324
5684000000.0 0.06249 -0.9335
5688000000.0 -0.6948 -0.6477
5691000000.0 -0.9591 0.1476
5694000000.0 -0.4892 0.8371
5697000000.0 0.3688 0.9211
5700000000.0 0.9313 0.3426
5703000000.0 0.8414 -0.5353
5706000000.0 0.1261 -1.026
5709000000.0 -0.713 -0.7518
5712000000.0 -1.035 0.04845
5716000000.0 -0.6063 0.8387
5719000000.0 0.266 1.003
5722000000.0 0.9664 0.4245
5725000000.0 0.9519 -0.4617
5728000000.0 0.254 -1.091
5731000000.0 -0.6436 -0.8253
5734000000.0 -1.047 -0.04699
5738000000.0 -0.7413 0.8143
5741000000.0 0.1698 1.091
5744000000.0 0.9304 0.5806
5747000000.0 1.064 -0.3471
5750000000.0 0.3823 -1.055
5753000000.0 -0.5079 -0.9583
5756000000.0 -1.089 -0.2337
5759000000.0 -0.9003 0.6702
5762000000.0 -0.02058 1.096
5766000000.0 0.8287 0.717
5769000000.0 1.076 -0.1647
5772000000.0 0.5762 -0.9521
5775000000.0 -0.353 -1.027
5778000000.0 -1.043 -0.3705
5781000000.0 -0.9811 0.5456
5784000000.0 -0.2092 1.069
5788000000.0 0.6838 0.8448
5791000000.0 1.097 -0.01208
5794000000.0 0.6786 -0.8538
5797000000.0 -0.215 -1.036
5800000000.0 -0.9759 -0.5309
5803000000.0 -1.046 0.3642
5806000000.0 -0.3315 1.04
5809000000.0 0.5545 0.9165
5812000000.0 1.034 0.1043
5816000000.0 0.7629 -0.7205
5819000000.0 -0.06447 -1.013
5822000000.0 -0.8259 -0.5842
5825000000.0 -0.9775 0.2603
5828000000.0 -0.4327 0.9306
5831000000.0 0.4542 0.9327
5834000000.0 0.9599 0.1717
5838000000.0 0.7868 -0.637
5841000000.0 0.01405 -0.991
5844000000.0 -0.7394 -0.5954
5847000000.0 -0.9365 0.192
5850000000.0 -0.4249 0.8443
5853000000.0 0.3677 0.8587
5856000000.0 0.9072 0.2609
5859000000.0 0.7826 -0.5472
5862000000.0 0.006842 -0.9395
5866000000.0 -0.6812 -0.6113
5869000000.0 -0.9002 0.1908
5872000000.0 -0.4214 0.8015
5875000000.0 0.3747 0.8085
5878000000.0 0.8592 0.228
5881000000.0 0.7269 -0.5088
5884000000.0 0.06411 -0.9121
5888000000.0 -0.6702 -0.5776
5891000000.0 -0.8567 0.1333
5894000000.0 -0.4463 0.7658
5897000000.0 0.3131 0.7753
5900000000.0 0.8405 0.285
5903000000.0 0.7352 -0.456
5906000000.0 0.1199 -0.86
5909000000.0 -0.5872 -0.6216
5912000000.0 -0.8784 0.06631
5916000000.0 -0.4793 0.6892
5919000000.0 0.2411 0.8351
5922000000.0 0.8009 0.3967
5925000000.0 0.7834 -0.3821
5928000000.0 0.207 -0.8642
5931000000.0 -0.5167 -0.6903
5934000000.0 -0.8984 -0.01041
5938000000.0 -0.5992 0.6864
5941000000.0 0.1468 0.8628
5944000000.0 0.7998 0.4668
5947000000.0 0.8657 -0.3085
5950000000.0 0.3283 -0.8569
5953000000.0 -0.4311 -0.8019
5956000000.0 -0.8975 -0.1832
5959000000.0 -0.7237 0.5623
5962000000.0 -0.02776 0.9392
5966000000.0 0.709 0.6181
5969000000.0 0.9581 -0.1804
5972000000.0 0.4927 -0.845
5975000000.0 -0.319 -0.9134
5978000000.0 -0.9076 -0.3255
5981000000.0 -0.8522 0.5005
5984000000.0 -0.1422 0.9614
5988000000.0 0.6166 0.7527
5991000000.0 0.9937 -0.02257
5994000000.0 0.6422 -0.7614
5997000000.0 -0.1953 -0.9827
6000000000.0 -0.8914 -0.4786
6003000000.0 -0.9286 0.362
6006000000.0 -0.2834 0.9669
6009000000.0 0.5327 0.8334
6012000000.0 0.9972 0.107
6016000000.0 0.7273 -0.7014
6019000000.0 -0.08671 -1.016
6022000000.0 -0.8062 -0.5564
6025000000.0 -0.9368 0.283
6028000000.0 -0.3761 0.907
6031000000.0 0.4781 0.8738
6034000000.0 0.9623 0.1808
6038000000.0 0.7551 -0.6095
6041000000.0 -0.01311 -0.9782
6044000000.0 -0.7444 -0.5894
6047000000.0 -0.9506 0.1875
6050000000.0 -0.4345 0.8395
6053000000.0 0.3524 0.8598
6056000000.0 0.8982 0.265
6059000000.0 0.7592 -0.5563
6062000000.0 0.05645 -0.9481
6066000000.0 -0.6971 -0.6323
6069000000.0 -0.9039 0.1348
6072000000.0 -0.439 0.7703
6075000000.0 0.3129 0.8438
6078000000.0 0.8079 0.2624
6081000000.0 0.738 -0.4615
6084000000.0 0.06351 -0.8664
6088000000.0 -0.6305 -0.5963
6091000000.0 -0.854 0.08025
6094000000.0 -0.4517 0.7346
6097000000.0 0.2599 0.8261
6100000000.0 0.7888 0.3022
6103000000.0 0.7549 -0.4408
6106000000.0 0.1233 -0.8437
6109000000.0 -0.5859 -0.6434
6112000000.0 -0.8502 0.05441
6116000000.0 -0.4734 0.7118
6119000000.0 0.2322 0.8438
6122000000.0 0.8051 0.3528
6125000000.0 0.78 -0.4018
6128000000.0 0.1783 -0.8597
6131000000.0 -0.5773 -0.6724
6134000000.0 -0.895 0.01979
6138000000.0 -0.5435 0.6982
6141000000.0 0.1848 0.865
6144000000.0 0.7713 0.377
6147000000.0 0.8212 -0.3785
6150000000.0 0.1998 -0.8688
6153000000.0 -0.5366 -0.7201
6156000000.0 -0.8921 -0.06677
6159000000.0 -0.6208 0.6694
6162000000.0 0.1324 0.9123
6166000000.0 0.8263 0.4919
6169000000.0 0.8951 -0.2901
6172000000.0 0.3345 -0.868
6175000000.0 -0.5061 -0.7881
6178000000.0 -0.9516 -0.1529
6181000000.0 -0.6976 0.6402
6184000000.0 0.05856 0.9565
6188000000.0 0.755 0.5545
6191000000.0 0.9338 -0.2797
6194000000.0 0.3816 -0.839
6197000000.0 -0.4139 -0.8379
6200000000.0 -0.9296 -0.2102
6203000000.0 -0.7582 0.5393
6206000000.0 -0.04246 0.9325
6209000000.0 0.7082 0.6285
6212000000.0 0.915 -0.1602
6216000000.0 0.4574 -0.7851
6219000000.0 -0.305 -0.8553
6222000000.0 -0.8896 -0.3581
6225000000.0 -0.7876 0.4555
6228000000.0 -0.1509 0.8775
6231000000.0 0.5674 0.691
6234000000.0 0.8994 -0.02997
6238000000.0 0.533 -0.6525
6241000000.0 -0.1824 -0.9038
6244000000.0 -0.7903 -0.3907
6247000000.0 -0.7855 0.317
6250000000.0 -0.2648 0.792
6253000000.0 0.4579 0.7085
6256000000.0 0.8301 0.09941
6259000000.0 0.6047 -0.5631
6262000000.0 -0.01677 -0.8233
6266000000.0 -0.6505 -0.4926
6269000000.0 -0.7432 0.169
