! Created with skrf 1.8.0 (http://scikit-rf.org).
# Hz S RI R 50.0 
!freq ReS11 ImS11
4000000000.0 -0.1948 -1.486
4003000000.0 -1.252 -0.7834
4006000000.0 -1.427 0.4908
4009000000.0 -0.5532 1.412
4012000000.0 0.7946 1.293
4016000000.0 1.52 0.1956
4019000000.0 1.158 -1.066
4022000000.0 -0.1767 -1.587
4025000000.0 -1.289 -0.8675
4028000000.0 -1.516 0.4987
4031000000.0 -0.5896 1.489
4034000000.0 0.8149 1.415
4038000000.0 1.626 0.2248
4041000000.0 1.183 -1.128
4044000000.0 -0.1578 -1.616
4047000000.0 -1.374 -0.9258
4050000000.0 -1.532 0.4648
4053000000.0 -0.6158 1.499
4056000000.0 0.8047 1.41
4059000000.0 1.607 0.2851
4062000000.0 1.232 -1.033
4066000000.0 -0.01231 -1.612
4069000000.0 -1.224 -1.05
4072000000.0 -1.6 0.3152
4075000000.0 -0.7818 1.389
4078000000.0 0.6096 1.546
4081000000.0 1.554 0.5299
4084000000.0 1.417 -0.8415
4088000000.0 0.227 -1.635
4091000000.0 -1.12 -1.225
4094000000.0 -1.636 0.08761
4097000000.0 -0.9672 1.314
4100000000.0 0.3615 1.544
4103000000.0 1.457 0.7008
4106000000.0 1.466 -0.6859
4109000000.0 0.4225 -1.503
4112000000.0 -0.8722 -1.268
4116000000.0 -1.5 -0.137
4119000000.0 -1.108 0.9856
4122000000.0 0.02942 1.504
4125000000.0 1.16 0.9541
4128000000.0 1.451 -0.24
4131000000.0 0.7731 -1.264
4134000000.0 -0.4768 -1.392
4138000000.0 -1.349 -0.5599
4141000000.0 -1.328 0.6602
4144000000.0 -0.352 1.449
4147000000.0 0.8815 1.234
4150000000.0 1.495 0.1326
4153000000.0 1.064 -1.08
4156000000.0 -0.1279 -1.509
4159000000.0 -1.24 -0.8794
4162000000.0 -1.48 0.3904
4166000000.0 -0.6475 1.357
4169000000.0 0.6602 1.368
4172000000.0 1.444 0.3815
4175000000.0 1.261 -0.8526
4178000000.0 0.1183 -1.513
4181000000.0 -1.046 -1.064
4184000000.0 -1.512 0.09725
4188000000.0 -0.9003 1.222
4191000000.0 0.3714 1.504
4194000000.0 1.391 0.63
4197000000.0 1.389 -0.6819
4200000000.0 0.3439 -1.516
4203000000.0 -0.9839 -1.283
4206000000.0 -1.621 -0.01971
4209000000.0 -1.004 1.257
4212000000.0 0.3862 1.605
4216000000.0 1.504 0.7019
4219000000.0 1.506 -0.7759
4222000000.0 0.2581 -1.667
4225000000.0 -1.139 -1.246
4228000000.0 -1.697 0.1607
4231000000.0 -0.8917 1.408
4234000000.0 0.6062 1.552
4238000000.0 1.568 0.4644
4241000000.0 1.298 -0.9233
4244000000.0 0.04611 -1.642
4247000000.0 -1.246 -1.009
4250000000.0 -1.502 0.3474
4253000000.0 -0.6311 1.432
4256000000.0 0.7243 1.332
4259000000.0 1.508 0.2364
4262000000.0 1.123 -1.048
4266000000.0 -0.1221 -1.484
4269000000.0 -1.229 -0.8487
4272000000.0 -1.407 0.4542
4275000000.0 -0.448 1.353
4278000000.0 0.8004 1.223
4281000000.0 1.44 0.1339
4284000000.0 1.001 -1.046
4288000000.0 -0.1841 -1.392
4291000000.0 -1.159 -0.7045
4294000000.0 -1.278 0.4546
4297000000.0 -0.4372 1.28
4300000000.0 0.6822 1.141
4303000000.0 1.282 0.2199
4306000000.0 0.9725 -0.8412
4309000000.0 -0.02248 -1.294
4312000000.0 -1.016 -0.8102
4316000000.0 -1.261 0.2235
4319000000.0 -0.6567 1.117
4322000000.0 0.4415 1.243
4325000000.0 1.267 0.4634
4328000000.0 1.169 -0.6644
4331000000.0 0.2454 -1.296
4334000000.0 -0.8699 -1.066
4338000000.0 -1.375 0.007233
4341000000.0 -0.881 1.068
4344000000.0 0.2653 1.432
4347000000.0 1.241 0.6708
4350000000.0 1.326 -0.5004
4353000000.0 0.456 -1.362
4356000000.0 -0.7819 -1.23
4359000000.0 -1.438 -0.2088
4362000000.0 -1.085 0.9797
4366000000.0 0.06628 1.473
4369000000.0 1.151 0.899
4372000000.0 1.441 -0.3126
4375000000.0 0.6875 -1.334
4378000000.0 -0.5744 -1.366
4381000000.0 -1.456 -0.4155
4384000000.0 -1.283 0.847
4388000000.0 -0.1383 1.519
4391000000.0 1.132 1.118
4394000000.0 1.568 -0.2184
4397000000.0 0.8414 -1.363
4400000000.0 -0.5346 -1.487
4403000000.0 -1.502 -0.4893
4406000000.0 -1.328 0.8873
4409000000.0 -0.1485 1.531
4412000000.0 1.158 1.034
4416000000.0 1.556 -0.2936
4419000000.0 0.7353 -1.352
4422000000.0 -0.6055 -1.38
4425000000.0 -1.454 -0.3673
4428000000.0 -1.151 0.8729
4431000000.0 -0.06072 1.443
4434000000.0 1.138 0.8792
4438000000.0 1.362 -0.346
4441000000.0 0.5872 -1.262
4444000000.0 -0.6098 -1.218
4447000000.0 -1.328 -0.2487
4450000000.0 -0.9915 0.9095
4453000000.0 0.08289 1.304
4456000000.0 1.078 0.6982
4459000000.0 1.253 -0.3984
4462000000.0 0.4181 -1.209
4466000000.0 -0.6879 -1.034
4469000000.0 -1.253 -0.08556
4472000000.0 -0.7966 0.8616
4475000000.0 0.179 1.152
4478000000.0 1.029 0.5403
4481000000.0 1.086 -0.4717
4484000000.0 0.2931 -1.108
4488000000.0 -0.7 -0.9121
4491000000.0 -1.133 -0.0188
4494000000.0 -0.7327 0.852
4497000000.0 0.2396 1.102
4500000000.0 1.015 0.5405
4503000000.0 1.029 -0.4257
4506000000.0 0.2933 -1.05
4509000000.0 -0.6415 -0.8888
4512000000.0 -1.11 -0.02958
4516000000.0 -0.7553 0.8186
4519000000.0 0.1817 1.119
4522000000.0 1.001 0.5906
4525000000.0 1.091 -0.391
4528000000.0 0.3712 -1.089
4531000000.0 -0.617 -0.9981
4534000000.0 -1.159 -0.1675
4538000000.0 -0.8735 0.7959
4541000000.0 0.09152 1.205
4544000000.0 0.9506 0.6938
4547000000.0 1.157 -0.2978
4550000000.0 0.5275 -1.089
4553000000.0 -0.5082 -1.109
4556000000.0 -1.177 -0.3465
4559000000.0 -0.9968 0.6887
4562000000.0 -0.126 1.238
4566000000.0 0.8774 0.911
4569000000.0 1.265 -0.08903
4572000000.0 0.7419 -1.064
4575000000.0 -0.3357 -1.263
4578000000.0 -1.166 -0.5824
4581000000.0 -1.193 0.5661
4584000000.0 -0.3564 1.277
4588000000.0 0.7705 1.09
4591000000.0 1.366 0.1084
4594000000.0 0.9426 -0.96
4597000000.0 -0.149 -1.367
4600000000.0 -1.158 -0.7556
4603000000.0 -1.342 0.4125
4606000000.0 -0.5026 1.294
4609000000.0 0.6752 1.232
4612000000.0 1.376 0.2529
4616000000.0 1.081 -0.8983
4619000000.0 -0.0176 -1.39
4622000000.0 -1.081 -0.875
4625000000.0 -1.332 0.3005
4628000000.0 -0.6263 1.258
4631000000.0 0.587 1.265
4634000000.0 1.342 0.3573
4638000000.0 1.088 -0.7958
4641000000.0 0.05351 -1.38
4644000000.0 -1.016 -0.8382
4647000000.0 -1.299 0.2683
4650000000.0 -0.6306 1.168
4653000000.0 0.5257 1.185
4656000000.0 1.234 0.3304
4659000000.0 1.013 -0.7737
4662000000.0 -0.003901 -1.232
4666000000.0 -0.9563 -0.7616
4669000000.0 -1.166 0.2384
4672000000.0 -0.5458 1.088
4675000000.0 0.5143 1.062
4678000000.0 1.129 0.2509
4681000000.0 0.8877 -0.6871
4684000000.0 0.007004 -1.12
4688000000.0 -0.857 -0.702
4691000000.0 -1.093 0.2278
4694000000.0 -0.466 1.004
4697000000.0 0.4875 0.9632
4700000000.0 1.07 0.243
4703000000.0 0.8598 -0.689
4706000000.0 -0.009038 -1.091
4709000000.0 -0.8677 -0.6654
4712000000.0 -1.054 0.2448
4716000000.0 -0.451 0.9803
4719000000.0 0.4681 0.9873
4722000000.0 1.06 0.1843
4725000000.0 0.8262 -0.6752
4728000000.0 -0.02307 -1.042
4731000000.0 -0.8155 -0.6666
4734000000.0 -1.042 0.2073
4738000000.0 -0.4576 0.903
4741000000.0 0.4097 0.9719
4744000000.0 0.9987 0.3231
4747000000.0 0.8918 -0.5652
4750000000.0 0.1106 -1.062
4753000000.0 -0.7464 -0.7665
4756000000.0 -1.104 0.06767
4759000000.0 -0.6327 0.8985
4762000000.0 0.286 1.067
4766000000.0 1.023 0.4793
4769000000.0 1.036 -0.4727
4772000000.0 0.3228 -1.129
4775000000.0 -0.678 -0.9699
4778000000.0 -1.172 -0.09523
4781000000.0 -0.8459 0.8477
4784000000.0 0.1072 1.196
4788000000.0 0.9896 0.6969
4791000000.0 1.198 -0.3048
4794000000.0 0.5281 -1.099
4797000000.0 -0.514 -1.114
4800000000.0 -1.222 -0.3501
4803000000.0 -1.03 0.7053
4806000000.0 -0.157 1.253
4809000000.0 0.8975 0.9291
4812000000.0 1.278 -0.08714
4816000000.0 0.7853 -1.053
4819000000.0 -0.3392 -1.262
4822000000.0 -1.204 -0.5846
4825000000.0 -1.225 0.5666
4828000000.0 -0.3273 1.354
4831000000.0 0.7948 1.123
4834000000.0 1.37 0.09702
4838000000.0 0.9597 -1.015
4841000000.0 -0.1798 -1.392
4844000000.0 -1.18 -0.7186
4847000000.0 -1.301 0.4296
4850000000.0 -0.454 1.307
4853000000.0 0.6922 1.201
4856000000.0 1.358 0.223
4859000000.0 0.9887 -0.9146
4862000000.0 -0.09012 -1.362
4866000000.0 -1.102 -0.7943
4869000000.0 -1.284 0.3236
4872000000.0 -0.5377 1.212
4875000000.0 0.5807 1.181
4878000000.0 1.266 0.31
4881000000.0 0.9782 -0.8176
4884000000.0 -0.004317 -1.251
4888000000.0 -0.9578 -0.7656
4891000000.0 -1.19 0.2391
4894000000.0 -0.5179 1.05
4897000000.0 0.4894 1.053
4900000000.0 1.14 0.2526
4903000000.0 0.8591 -0.6575
4906000000.0 0.07686 -1.065
4909000000.0 -0.8112 -0.6898
4912000000.0 -0.996 0.2114
4916000000.0 -0.4893 0.8657
4919000000.0 0.3544 0.9122
4922000000.0 0.9512 0.2997
4925000000.0 0.8261 -0.5267
4928000000.0 0.103 -0.9402
4931000000.0 -0.6603 -0.7031
4934000000.0 -0.9116 0.04618
4938000000.0 -0.5328 0.7955
4941000000.0 0.2475 0.8919
4944000000.0 0.8825 0.3975
4947000000.0 0.8076 -0.4335
4950000000.0 0.1821 -0.9348
4953000000.0 -0.5811 -0.744
4956000000.0 -0.9841 -0.0004688
4959000000.0 -0.6184 0.7634
4962000000.0 0.183 0.9624
4966000000.0 0.8788 0.4749
4969000000.0 0.9187 -0.3711
4972000000.0 0.285 -0.9452
4975000000.0 -0.5865 -0.8634
4978000000.0 -1.013 -0.08452
4981000000.0 -0.7305 0.75
4984000000.0 0.1018 1.061
4988000000.0 0.8767 0.5719
4991000000.0 1.035 -0.3247
4994000000.0 0.4268 -0.9897
4997000000.0 -0.499 -0.9806
5000000000.0 -1.114 -0.2597
5003000000.0 -0.9173 0.7083
5006000000.0 -0.06133 1.199
5009000000.0 0.8678 0.8107
5012000000.0 1.184 -0.1947
5016000000.0 0.6423 -1.039
5019000000.0 -0.4032 -1.168
5022000000.0 -1.191 -0.4311
5025000000.0 -1.084 0.6388
5028000000.0 -0.2165 1.264
5031000000.0 0.8571 0.9602
5034000000.0 1.277 -0.05197
5038000000.0 0.8012 -1.004
5041000000.0 -0.2717 -1.26
5044000000.0 -1.158 -0.5786
5047000000.0 -1.184 0.5177
5050000000.0 -0.3983 1.235
5053000000.0 0.7117 1.072
5056000000.0 1.275 0.1527
5059000000.0 0.9383 -0.8519
5062000000.0 -0.07537 -1.32
5066000000.0 -1.064 -0.7764
5069000000.0 -1.269 0.2842
5072000000.0 -0.5649 1.176
5075000000.0 0.5167 1.143
5078000000.0 1.236 0.3075
5081000000.0 1.013 -0.7108
5084000000.0 0.07594 -1.25
5088000000.0 -0.8799 -0.841
5091000000.0 -1.206 0.112
5094000000.0 -0.671 0.9861
5097000000.0 0.3044 1.13
5100000000.0 1.032 0.4611
5103000000.0 1.02 -0.4959
5106000000.0 0.2956 -1.051
5109000000.0 -0.6192 -0.9186
5112000000.0 -1.093 -0.09423
5116000000.0 -0.7799 0.781
5119000000.0 0.1031 1.056
5122000000.0 0.8746 0.5774
5125000000.0 1.002 -0.3122
5128000000.0 0.4487 -0.9331
5131000000.0 -0.4563 -0.909
5134000000.0 -0.9365 -0.21
5138000000.0 -0.7876 0.5952
5141000000.0 -0.03209 0.9959
5144000000.0 0.7013 0.6181
5147000000.0 0.9217 -0.1575
5150000000.0 0.4451 -0.8296
5153000000.0 -0.342 -0.8829
5156000000.0 -0.8548 -0.2629
5159000000.0 -0.7593 0.5226
5162000000.0 -0.08422 0.8728
5166000000.0 0.6261 0.645
5169000000.0 0.9082 -0.1052
5172000000.0 0.5014 -0.7366
5175000000.0 -0.2907 -0.871
5178000000.0 -0.8555 -0.3166
5181000000.0 -0.8201 0.4832
5184000000.0 -0.128 0.8985
5188000000.0 0.6199 0.6841
5191000000.0 0.9139 -0.06684
5194000000.0 0.5443 -0.7623
5197000000.0 -0.2915 -0.9044
5200000000.0 -0.887 -0.3566
5203000000.0 -0.8288 0.4459
5206000000.0 -0.1618 0.9216
5209000000.0 0.6454 0.7262
5212000000.0 0.9674 -0.03346
5216000000.0 0.5864 -0.7962
5219000000.0 -0.2346 -0.964
5222000000.0 -0.9091 -0.4103
5225000000.0 -0.9032 0.4441
5228000000.0 -0.2201 0.953
5231000000.0 0.6239 0.8025
5234000000.0 1.018 0.01439
5238000000.0 0.6614 -0.7946
5241000000.0 -0.1712 -1.021
5244000000.0 -0.895 -0.5308
5247000000.0 -0.9838 0.3654
5250000000.0 -0.3516 1.008
5253000000.0 0.5362 0.92
5256000000.0 1.079 0.1455
5259000000.0 0.7974 -0.7252
5262000000.0 -0.04732 -1.088
5266000000.0 -0.8432 -0.6932
5269000000.0 -1.075 0.2195
5272000000.0 -0.5213 0.9598
5275000000.0 0.3851 1.005
5278000000.0 1.03 0.3688
5281000000.0 0.9216 -0.5323
5284000000.0 0.1901 -1.112
5288000000.0 -0.699 -0.8717
5291000000.0 -1.096 0.002967
5294000000.0 -0.7377 0.8358
5297000000.0 0.1857 1.111
5300000000.0 0.9651 0.6076
5303000000.0 1.059 -0.3594
5306000000.0 0.3835 -1.028
5309000000.0 -0.528 -1.012
5312000000.0 -1.113 -0.278
5316000000.0 -0.8716 0.6942
5319000000.0 -0.07056 1.164
5322000000.0 0.8265 0.7717
5325000000.0 1.164 -0.1796
5328000000.0 0.6238 -0.9576
5331000000.0 -0.3314 -1.102
5334000000.0 -1.042 -0.4431
5338000000.0 -1.002 0.5646
5341000000.0 -0.2229 1.096
5344000000.0 0.7236 0.8744
5347000000.0 1.145 -0.01565
5350000000.0 0.7015 -0.8439
5353000000.0 -0.2138 -1.058
5356000000.0 -0.9639 -0.5012
5359000000.0 -0.9819 0.402
5362000000.0 -0.2894 1.035
5366000000.0 0.5969 0.8612
5369000000.0 1.052 0.05586
5372000000.0 0.6989 -0.7631
5375000000.0 -0.1621 -1.03
5378000000.0 -0.8931 -0.4841
5381000000.0 -0.9439 0.3685
5384000000.0 -0.2756 0.971
5388000000.0 0.5648 0.8002
5391000000.0 0.964 0.05278
5394000000.0 0.5919 -0.7054
5397000000.0 -0.1456 -0.8819
5400000000.0 -0.8354 -0.4067
5403000000.0 -0.8324 0.3569
5406000000.0 -0.2188 0.8792
5409000000.0 0.5233 0.6617
5412000000.0 0.8977 0.04488
5416000000.0 0.5272 -0.6645
5419000000.0 -0.1572 -0.8422
5422000000.0 -0.7747 -0.424
5425000000.0 -0.7918 0.3565
5428000000.0 -0.2362 0.8293
5431000000.0 0.5468 0.6887
5434000000.0 0.8311 0.03339
5438000000.0 0.5331 -0.6373
5441000000.0 -0.1796 -0.8737
5444000000.0 -0.788 -0.4031
5447000000.0 -0.8178 0.3397
5450000000.0 -0.2179 0.8541
5453000000.0 0.5245 0.7014
5456000000.0 0.9198 0.04952
5459000000.0 0.5942 -0.6694
5462000000.0 -0.1464 -0.8971
5466000000.0 -0.7647 -0.4508
5469000000.0 -0.9045 0.2919
5472000000.0 -0.348 0.8724
5475000000.0 0.4616 0.8283
5478000000.0 0.9256 0.2012
5481000000.0 0.7498 -0.6103
5484000000.0 -0.01302 -0.9503
5488000000.0 -0.7374 -0.6727
5491000000.0 -0.9719 0.1874
5494000000.0 -0.5118 0.8575
5497000000.0 0.3243 0.9338
5500000000.0 0.953 0.3493
5503000000.0 0.8931 -0.4888
5506000000.0 0.1693 -0.9787
5509000000.0 -0.639 -0.7489
5512000000.0 -1.035 0.02961
5516000000.0 -0.6526 0.7941
5519000000.0 0.1593 0.9974
5522000000.0 0.8803 0.5306
5525000000.0 0.9892 -0.3087
5528000000.0 0.3872 -0.9739
5531000000.0 -0.4883 -0.9311
5534000000.0 -1.054 -0.1914
5538000000.0 -0.8547 0.6781
5541000000.0 -0.03076 1.046
5544000000.0 0.7861 0.69
5547000000.0 1.08 -0.1333
5550000000.0 0.551 -0.8904
5553000000.0 -0.3463 -1.015
5556000000.0 -0.9993 -0.386
5559000000.0 -0.8914 0.5321
5562000000.0 -0.1759 1.018
5566000000.0 0.6732 0.8093
5569000000.0 1.05 -0.01474
5572000000.0 0.615 -0.7782
5575000000.0 -0.2106 -0.987
5578000000.0 -0.8862 -0.5021
5581000000.0 -0.9067 0.3999
5584000000.0 -0.2597 0.9442
5588000000.0 0.532 0.8392
5591000000.0 0.9417 0.1151
5594000000.0 0.6705 -0.6584
5597000000.0 -0.09399 -0.9174
5600000000.0 -0.7538 -0.5077
5603000000.0 -0.8691 0.2814
5606000000.0 -0.327 0.7896
5609000000.0 0.4047 0.8075
5612000000.0 0.8603 0.1657
5616000000.0 0.6633 -0.5698
5619000000.0 -0.003582 -0.877
5622000000.0 -0.6766 -0.5186
5625000000.0 -0.8369 0.1716
5628000000.0 -0.3894 0.758
5631000000.0 0.36 0.7509
5634000000.0 0.7881 0.205
5638000000.0 0.6818 -0.5142
5641000000.0 0.01033 -0.8207
5644000000.0 -0.6523 -0.5311
5647000000.0 -0.8005 0.1768
5650000000.0 -0.3746 0.7547
5653000000.0 0.366 0.775
5656000000.0 0.8245 0.205
5659000000.0 0.6816 -0.5381
5662000000.0 0.0152 -0.8611
5666000000.0 -0.6694 -0.5735
5669000000.0 -0.8594 0.1773
5672000000.0 -0.4071 0.7958
5675000000.0 0.3664 0.8201
5678000000.0 0.8919 0.2237
5681000000.0 0.7421 -0.5289
5684000000.0 0.05459 -0.9487
5688000000.0 -0.7085 -0.6186
5691000000.0 -0.9441 0.1839
5694000000.0 -0.4905 0.8479
5697000000.0 0.3751 0.918
5700000000.0 0.9457 0.315
5703000000.0 0.8341 -0.5688
5706000000.0 0.1057 -1.001
5709000000.0 -0.7234 -0.7536
5712000000.0 -1.044 0.1236
5716000000.0 -0.5917 0.854
5719000000.0 0.2831 0.9951
5722000000.0 0.9758 0.4171
5725000000.0 0.9449 -0.5293
5728000000.0 0.2249 -1.052
5731000000.0 -0.691 -0.8254
5734000000.0 -1.132 -0.03853
5738000000.0 -0.7184 0.8376
5741000000.0 0.1749 1.045
5744000000.0 0.926 0.5776
5747000000.0 1.054 -0.3889
5750000000.0 0.376 -1.047
5753000000.0 -0.5456 -0.944
5756000000.0 -1.087 -0.2033
5759000000.0 -0.85 0.7166
5762000000.0 -0.03524 1.107
5766000000.0 0.8503 0.6986
5769000000.0 1.092 -0.2051
5772000000.0 0.5522 -0.9578
5775000000.0 -0.4122 -1.029
5778000000.0 -1.077 -0.3599
5781000000.0 -0.9451 0.5451
5784000000.0 -0.1464 1.054
5788000000.0 0.7003 0.8112
5791000000.0 1.055 -0.002431
5794000000.0 0.667 -0.862
5797000000.0 -0.2072 -1.042
5800000000.0 -0.9596 -0.5246
5803000000.0 -0.9988 0.4298
5806000000.0 -0.3194 1.016
5809000000.0 0.6065 0.872
5812000000.0 1.062 0.09331
5816000000.0 0.7244 -0.735
5819000000.0 -0.06819 -1.011
5822000000.0 -0.8267 -0.5828
5825000000.0 -0.9496 0.2752
5828000000.0 -0.383 0.9113
5831000000.0 0.4924 0.8555
5834000000.0 0.944 0.1821
5838000000.0 0.7321 -0.6351
5841000000.0 -0.02562 -0.9616
5844000000.0 -0.7436 -0.5948
5847000000.0 -0.9067 0.2117
5850000000.0 -0.4002 0.8702
5853000000.0 0.4138 0.8366
5856000000.0 0.9186 0.209
5859000000.0 0.7315 -0.5781
5862000000.0 -0.0004694 -0.9276
5866000000.0 -0.7037 -0.5605
5869000000.0 -0.8817 0.1899
5872000000.0 -0.3888 0.7888
5875000000.0 0.328 0.8123
5878000000.0 0.8719 0.2181
5881000000.0 0.7061 -0.5091
5884000000.0 0.01264 -0.8966
5888000000.0 -0.6803 -0.5716
5891000000.0 -0.8781 0.1532
5894000000.0 -0.4169 0.7503
5897000000.0 0.3089 0.7947
5900000000.0 0.8015 0.2151
5903000000.0 0.692 -0.4789
5906000000.0 0.1295 -0.8535
5909000000.0 -0.6034 -0.5906
5912000000.0 -0.874 0.1237
5916000000.0 -0.462 0.7167
5919000000.0 0.2592 0.8204
5922000000.0 0.7747 0.3112
5925000000.0 0.7853 -0.4331
5928000000.0 0.1513 -0.8678
5931000000.0 -0.562 -0.6841
5934000000.0 -0.8767 -0.01216
5938000000.0 -0.5796 0.6646
5941000000.0 0.1635 0.8832
5944000000.0 0.7427 0.4607
5947000000.0 0.8661 -0.3188
5950000000.0 0.2981 -0.8782
5953000000.0 -0.4594 -0.7904
5956000000.0 -0.8959 -0.1286
5959000000.0 -0.6585 0.6296
5962000000.0 0.0289 0.9581
5966000000.0 0.7765 0.6015
5969000000.0 0.9366 -0.1716
5972000000.0 0.48 -0.8264
5975000000.0 -0.3606 -0.8991
5978000000.0 -0.9227 -0.2859
5981000000.0 -0.8457 0.5116
5984000000.0 -0.1397 0.967
5988000000.0 0.6549 0.739
5991000000.0 1.026 -0.02562
5994000000.0 0.6145 -0.7903
5997000000.0 -0.2245 -0.9916
6000000000.0 -0.9125 -0.4747
6003000000.0 -0.9039 0.4006
6006000000.0 -0.2534 0.9628
6009000000.0 0.5687 0.8054
6012000000.0 1.001 0.08898
6016000000.0 0.6712 -0.7205
6019000000.0 -0.1009 -0.9988
6022000000.0 -0.8433 -0.5408
6025000000.0 -0.9218 0.2922
6028000000.0 -0.3188 0.9383
6031000000.0 0.4728 0.8443
6034000000.0 0.9698 0.1647
6038000000.0 0.7301 -0.6397
6041000000.0 -0.0302 -0.9618
6044000000.0 -0.7709 -0.5724
6047000000.0 -0.9262 0.2116
6050000000.0 -0.392 0.8443
6053000000.0 0.4098 0.8389
6056000000.0 0.9061 0.2108
6059000000.0 0.7024 -0.5775
6062000000.0 0.02147 -0.9268
6066000000.0 -0.7103 -0.6143
6069000000.0 -0.8917 0.1974
6072000000.0 -0.3978 0.7737
6075000000.0 0.3592 0.7979
6078000000.0 0.8846 0.2182
6081000000.0 0.7047 -0.5029
6084000000.0 0.06789 -0.8964
6088000000.0 -0.6381 -0.5786
6091000000.0 -0.8556 0.1309
6094000000.0 -0.4257 0.7363
6097000000.0 0.2856 0.8134
6100000000.0 0.8215 0.2706
6103000000.0 0.6891 -0.4517
6106000000.0 0.08696 -0.888
6109000000.0 -0.618 -0.6216
6112000000.0 -0.8803 0.07087
6116000000.0 -0.4776 0.7209
6119000000.0 0.2735 0.848
6122000000.0 0.8039 0.327
6125000000.0 0.788 -0.4364
6128000000.0 0.1045 -0.8653
6131000000.0 -0.5969 -0.6536
6134000000.0 -0.8641 0.03664
6138000000.0 -0.497 0.6821
6141000000.0 0.2055 0.8723
6144000000.0 0.8239 0.3689
6147000000.0 0.7954 -0.3859
6150000000.0 0.1864 -0.9032
6153000000.0 -0.5696 -0.6966
6156000000.0 -0.9299 -0.03541
6159000000.0 -0.5849 0.6871
6162000000.0 0.1619 0.9278
6166000000.0 0.823 0.4572
6169000000.0 0.8606 -0.3594
6172000000.0 0.3094 -0.8975
6175000000.0 -0.5356 -0.795
6178000000.0 -0.9458 -0.09678
6181000000.0 -0.6812 0.6654
6184000000.0 0.09296 0.9589
6188000000.0 0.812 0.5597
6191000000.0 0.908 -0.2847
6194000000.0 0.3556 -0.8605
6197000000.0 -0.4786 -0.7939
6200000000.0 -0.9371 -0.1814
6203000000.0 -0.7236 0.5913
6206000000.0 0.01159 0.9255
6209000000.0 0.7323 0.6038
6212000000.0 0.9015 -0.1579
6216000000.0 0.4525 -0.827
6219000000.0 -0.3173 -0.8298
6222000000.0 -0.8633 -0.2936
6225000000.0 -0.7833 0.4821
6228000000.0 -0.1264 0.8594
6231000000.0 0.6327 0.6355
6234000000.0 0.8924 -0.0304
6238000000.0 0.5259 -0.727
6241000000.0 -0.194 -0.8697
6244000000.0 -0.741 -0.3827
6247000000.0 -0.7884 0.3464
6250000000.0 -0.2381 0.8298
6253000000.0 0.5076 0.7201
6256000000.0 0.8472 0.09491
6259000000.0 0.5635 -0.6048
6262000000.0 -0.0352 -0.7858
6266000000.0 -0.6811 -0.4664
