! Created with skrf 1.8.0 (http://scikit-rf.org).
# Hz S RI R 50.0 
!freq ReS11 ImS11
4000000000.0 -0.1771 -1.482
4003000000.0 -1.313 -0.7825
4006000000.0 -1.427 0.5305
4009000000.0 -0.513 1.424
4012000000.0 0.8474 1.298
4016000000.0 1.496 0.2285
4019000000.0 1.14 -1.07
4022000000.0 -0.1339 -1.557
4025000000.0 -1.313 -0.8788
4028000000.0 -1.531 0.4733
4031000000.0 -0.5612 1.488
4034000000.0 0.8032 1.428
4038000000.0 1.572 0.2416
4041000000.0 1.177 -1.115
4044000000.0 -0.1285 -1.626
4047000000.0 -1.339 -0.9036
4050000000.0 -1.538 0.4731
4053000000.0 -0.6381 1.534
4056000000.0 0.7727 1.421
4059000000.0 1.609 0.322
4062000000.0 1.235 -1.031
4066000000.0 0.03542 -1.608
4069000000.0 -1.242 -1.021
4072000000.0 -1.587 0.2703
4075000000.0 -0.7826 1.374
4078000000.0 0.5852 1.532
4081000000.0 1.548 0.53
4084000000.0 1.421 -0.8739
4088000000.0 0.2467 -1.606
4091000000.0 -1.111 -1.189
4094000000.0 -1.618 0.1015
4097000000.0 -0.9582 1.286
4100000000.0 0.4091 1.585
4103000000.0 1.435 0.6987
4106000000.0 1.442 -0.6673
4109000000.0 0.4148 -1.468
4112000000.0 -0.8422 -1.298
4116000000.0 -1.522 -0.1835
4119000000.0 -1.105 0.9835
4122000000.0 0.02371 1.473
4125000000.0 1.133 0.9645
4128000000.0 1.463 -0.2565
4131000000.0 0.7883 -1.269
4134000000.0 -0.4335 -1.407
4138000000.0 -1.39 -0.6045
4141000000.0 -1.35 0.677
4144000000.0 -0.3651 1.477
4147000000.0 0.8835 1.25
4150000000.0 1.54 0.121
4153000000.0 1.072 -1.074
4156000000.0 -0.1456 -1.494
4159000000.0 -1.236 -0.8813
4162000000.0 -1.45 0.3917
4166000000.0 -0.6183 1.378
4169000000.0 0.6328 1.353
4172000000.0 1.489 0.4034
4175000000.0 1.228 -0.8318
4178000000.0 0.1347 -1.481
4181000000.0 -1.021 -1.065
4184000000.0 -1.467 0.1195
4188000000.0 -0.888 1.228
4191000000.0 0.37 1.52
4194000000.0 1.408 0.6079
4197000000.0 1.422 -0.7003
4200000000.0 0.3774 -1.541
4203000000.0 -0.932 -1.261
4206000000.0 -1.62 -0.0004239
4209000000.0 -1.056 1.283
4212000000.0 0.3718 1.616
4216000000.0 1.563 0.6956
4219000000.0 1.477 -0.7718
4222000000.0 0.3169 -1.63
4225000000.0 -1.141 -1.22
4228000000.0 -1.685 0.1251
4231000000.0 -0.9188 1.414
4234000000.0 0.5851 1.559
4238000000.0 1.569 0.4915
4241000000.0 1.313 -0.9304
4244000000.0 0.04525 -1.638
4247000000.0 -1.246 -1.008
4250000000.0 -1.528 0.3314
4253000000.0 -0.6444 1.428
4256000000.0 0.7339 1.368
4259000000.0 1.483 0.2562
4262000000.0 1.153 -1.058
4266000000.0 -0.1474 -1.492
4269000000.0 -1.264 -0.8177
4272000000.0 -1.395 0.459
4275000000.0 -0.497 1.382
4278000000.0 0.7803 1.253
4281000000.0 1.418 0.1306
4284000000.0 0.9763 -1.039
4288000000.0 -0.1757 -1.393
4291000000.0 -1.183 -0.7496
4294000000.0 -1.26 0.4604
4297000000.0 -0.4957 1.233
4300000000.0 0.648 1.145
4303000000.0 1.257 0.2343
4306000000.0 0.9817 -0.8866
4309000000.0 0.01937 -1.289
4312000000.0 -1.004 -0.8048
4316000000.0 -1.292 0.2372
4319000000.0 -0.6546 1.118
4322000000.0 0.4379 1.237
4325000000.0 1.265 0.4368
4328000000.0 1.177 -0.6424
4331000000.0 0.2523 -1.333
4334000000.0 -0.8417 -1.068
4338000000.0 -1.376 -0.03469
4341000000.0 -0.8831 1.062
4344000000.0 0.2366 1.388
4347000000.0 1.206 0.7037
4350000000.0 1.321 -0.5177
4353000000.0 0.4851 -1.363
4356000000.0 -0.7355 -1.27
4359000000.0 -1.43 -0.1914
4362000000.0 -1.076 0.9578
4366000000.0 0.04023 1.427
4369000000.0 1.179 0.9145
4372000000.0 1.417 -0.2974
4375000000.0 0.7077 -1.327
4378000000.0 -0.6111 -1.387
4381000000.0 -1.449 -0.4346
4384000000.0 -1.238 0.8713
4388000000.0 -0.1726 1.528
4391000000.0 1.114 1.091
4394000000.0 1.567 -0.1778
4397000000.0 0.8283 -1.336
4400000000.0 -0.544 -1.487
4403000000.0 -1.498 -0.503
4406000000.0 -1.324 0.8868
4409000000.0 -0.1635 1.569
4412000000.0 1.158 1.065
4416000000.0 1.524 -0.2573
4419000000.0 0.7473 -1.344
4422000000.0 -0.5772 -1.384
4425000000.0 -1.411 -0.3924
4428000000.0 -1.177 0.9059
4431000000.0 -0.02792 1.434
4434000000.0 1.091 0.9254
4438000000.0 1.376 -0.3111
4441000000.0 0.5784 -1.253
4444000000.0 -0.6328 -1.207
4447000000.0 -1.333 -0.2513
4450000000.0 -1.006 0.8638
4453000000.0 0.08106 1.301
4456000000.0 1.078 0.7062
4459000000.0 1.233 -0.412
4462000000.0 0.4573 -1.175
4466000000.0 -0.6961 -1.05
4469000000.0 -1.189 -0.1372
4472000000.0 -0.8399 0.8793
4475000000.0 0.1824 1.175
4478000000.0 1.022 0.5441
4481000000.0 1.083 -0.4637
4484000000.0 0.277 -1.114
4488000000.0 -0.6788 -0.9233
4491000000.0 -1.137 -0.03535
4494000000.0 -0.7183 0.8602
4497000000.0 0.1899 1.089
4500000000.0 0.9921 0.5211
4503000000.0 0.9971 -0.4214
4506000000.0 0.2952 -1.03
4509000000.0 -0.66 -0.9018
4512000000.0 -1.1 -0.05022
4516000000.0 -0.7666 0.8247
4519000000.0 0.1414 1.123
4522000000.0 0.9653 0.5959
4525000000.0 1.101 -0.3876
4528000000.0 0.3795 -1.11
4531000000.0 -0.6229 -0.9972
4534000000.0 -1.183 -0.1439
4538000000.0 -0.8696 0.7941
4541000000.0 0.05914 1.172
4544000000.0 0.9533 0.7004
4547000000.0 1.133 -0.2543
4550000000.0 0.5511 -1.08
4553000000.0 -0.4649 -1.119
4556000000.0 -1.171 -0.3669
4559000000.0 -1.028 0.6636
4562000000.0 -0.1382 1.238
4566000000.0 0.8643 0.9015
4569000000.0 1.285 -0.08531
4572000000.0 0.7797 -1.009
4575000000.0 -0.3094 -1.25
4578000000.0 -1.156 -0.5713
4581000000.0 -1.203 0.5368
4584000000.0 -0.3845 1.285
4588000000.0 0.7568 1.088
4591000000.0 1.365 0.1094
4594000000.0 0.9671 -0.9837
4597000000.0 -0.1514 -1.362
4600000000.0 -1.17 -0.7842
4603000000.0 -1.31 0.4276
4606000000.0 -0.5279 1.287
4609000000.0 0.6824 1.242
4612000000.0 1.38 0.2661
4616000000.0 1.069 -0.9102
4619000000.0 -0.02359 -1.398
4622000000.0 -1.099 -0.8473
4625000000.0 -1.351 0.3243
4628000000.0 -0.6358 1.265
4631000000.0 0.57 1.257
4634000000.0 1.335 0.3507
4638000000.0 1.113 -0.7873
4641000000.0 0.04982 -1.368
4644000000.0 -1.011 -0.8857
4647000000.0 -1.296 0.2462
4650000000.0 -0.6078 1.171
4653000000.0 0.5168 1.23
4656000000.0 1.242 0.3442
4659000000.0 1.052 -0.7706
4662000000.0 0.02832 -1.267
4666000000.0 -0.9847 -0.8195
4669000000.0 -1.219 0.2303
4672000000.0 -0.5187 1.06
4675000000.0 0.5079 1.079
4678000000.0 1.096 0.2542
4681000000.0 0.9111 -0.6945
4684000000.0 0.004768 -1.153
4688000000.0 -0.895 -0.7096
4691000000.0 -1.094 0.2391
4694000000.0 -0.5201 0.9552
4697000000.0 0.474 0.9863
4700000000.0 1.06 0.2545
4703000000.0 0.8361 -0.6616
4706000000.0 0.01049 -1.098
4709000000.0 -0.8714 -0.6916
4712000000.0 -1.023 0.2697
4716000000.0 -0.4798 0.9775
4719000000.0 0.488 0.9375
4722000000.0 1.025 0.2318
4725000000.0 0.8162 -0.6653
4728000000.0 -0.0126 -1.04
4731000000.0 -0.7732 -0.6479
4734000000.0 -1.022 0.2204
4738000000.0 -0.491 0.8943
4741000000.0 0.4183 0.9498
4744000000.0 0.9804 0.3483
4747000000.0 0.8949 -0.5967
4750000000.0 0.1207 -1.086
4753000000.0 -0.7636 -0.7947
4756000000.0 -1.106 0.06102
4759000000.0 -0.6825 0.8745
4762000000.0 0.2926 1.103
4766000000.0 0.9998 0.4894
4769000000.0 1.038 -0.4338
4772000000.0 0.2972 -1.079
4775000000.0 -0.6634 -0.9821
4778000000.0 -1.167 -0.08752
4781000000.0 -0.8461 0.8471
4784000000.0 0.0893 1.191
4788000000.0 1.003 0.6877
4791000000.0 1.167 -0.301
4794000000.0 0.5316 -1.109
4797000000.0 -0.5324 -1.156
4800000000.0 -1.215 -0.3525
4803000000.0 -1.042 0.6717
4806000000.0 -0.153 1.248
4809000000.0 0.8615 0.926
4812000000.0 1.302 -0.07168
4816000000.0 0.7606 -1.05
4819000000.0 -0.3127 -1.289
4822000000.0 -1.181 -0.6017
4825000000.0 -1.242 0.5754
4828000000.0 -0.3378 1.325
4831000000.0 0.8193 1.117
4834000000.0 1.381 0.09528
4838000000.0 0.9565 -1.012
4841000000.0 -0.1857 -1.393
4844000000.0 -1.17 -0.7497
4847000000.0 -1.334 0.4427
4850000000.0 -0.4737 1.274
4853000000.0 0.7019 1.181
4856000000.0 1.366 0.2108
4859000000.0 1.007 -0.9138
4862000000.0 -0.07417 -1.344
4866000000.0 -1.077 -0.7894
4869000000.0 -1.3 0.33
4872000000.0 -0.5408 1.176
4875000000.0 0.5664 1.162
4878000000.0 1.287 0.2632
4881000000.0 1.007 -0.7792
4884000000.0 0.01708 -1.279
4888000000.0 -0.9549 -0.7978
4891000000.0 -1.171 0.2393
4894000000.0 -0.5204 1.06
4897000000.0 0.4743 1.09
4900000000.0 1.099 0.2845
4903000000.0 0.9303 -0.6559
4906000000.0 0.03366 -1.098
4909000000.0 -0.8055 -0.7041
4912000000.0 -1.021 0.1848
4916000000.0 -0.5095 0.9113
4919000000.0 0.3648 0.9405
4922000000.0 0.8953 0.3303
4925000000.0 0.8284 -0.5042
4928000000.0 0.1074 -0.9624
4931000000.0 -0.6316 -0.6971
4934000000.0 -0.9465 0.05328
4938000000.0 -0.5371 0.7572
4941000000.0 0.2418 0.8996
4944000000.0 0.8666 0.3896
4947000000.0 0.8276 -0.4429
4950000000.0 0.1847 -0.9146
4953000000.0 -0.601 -0.7452
4956000000.0 -0.9574 -4.277e-05
4959000000.0 -0.588 0.7189
4962000000.0 0.1885 0.9631
4966000000.0 0.8724 0.452
4969000000.0 0.9146 -0.3919
4972000000.0 0.2899 -0.9705
4975000000.0 -0.5378 -0.8116
4978000000.0 -1.028 -0.0804
4981000000.0 -0.734 0.7285
4984000000.0 0.1124 1.018
4988000000.0 0.895 0.6025
4991000000.0 1.005 -0.2783
4994000000.0 0.4618 -0.994
4997000000.0 -0.5021 -0.9915
5000000000.0 -1.085 -0.2502
5003000000.0 -0.9124 0.689
5006000000.0 -0.0517 1.133
5009000000.0 0.8965 0.7771
5012000000.0 1.197 -0.1728
5016000000.0 0.6335 -1.057
5019000000.0 -0.4149 -1.176
5022000000.0 -1.168 -0.428
5025000000.0 -1.095 0.6354
5028000000.0 -0.1909 1.263
5031000000.0 0.8782 0.9594
5034000000.0 1.291 -0.01773
5038000000.0 0.7901 -1.025
5041000000.0 -0.2729 -1.274
5044000000.0 -1.151 -0.611
5047000000.0 -1.188 0.4967
5050000000.0 -0.4006 1.253
5053000000.0 0.6702 1.078
5056000000.0 1.286 0.1795
5059000000.0 0.9374 -0.8964
5062000000.0 -0.09987 -1.339
5066000000.0 -1.001 -0.799
5069000000.0 -1.265 0.2892
5072000000.0 -0.5865 1.147
5075000000.0 0.5324 1.177
5078000000.0 1.175 0.3262
5081000000.0 1.024 -0.7273
5084000000.0 0.1247 -1.222
5088000000.0 -0.8582 -0.8343
5091000000.0 -1.205 0.1415
5094000000.0 -0.6592 0.9899
5097000000.0 0.3291 1.126
5100000000.0 1.023 0.4653
5103000000.0 1.063 -0.482
5106000000.0 0.2675 -1.11
5109000000.0 -0.6372 -0.9385
5112000000.0 -1.065 -0.07909
5116000000.0 -0.7515 0.7624
5119000000.0 0.09 1.023
5122000000.0 0.8185 0.5999
5125000000.0 0.9849 -0.2679
5128000000.0 0.4324 -0.9607
5131000000.0 -0.435 -0.9236
5134000000.0 -0.9896 -0.2054
5138000000.0 -0.7844 0.6204
5141000000.0 -0.04169 0.992
5144000000.0 0.7185 0.6488
5147000000.0 0.9063 -0.1678
5150000000.0 0.4559 -0.8248
5153000000.0 -0.3125 -0.8686
5156000000.0 -0.8739 -0.3067
5159000000.0 -0.7939 0.4856
5162000000.0 -0.1209 0.8907
5166000000.0 0.6263 0.63
5169000000.0 0.8861 -0.07427
5172000000.0 0.4827 -0.7651
5175000000.0 -0.2629 -0.8854
5178000000.0 -0.8257 -0.3475
5181000000.0 -0.7778 0.4304
5184000000.0 -0.1537 0.8837
5188000000.0 0.6418 0.6756
5191000000.0 0.9405 -0.03535
5194000000.0 0.5624 -0.7756
5197000000.0 -0.2924 -0.8876
5200000000.0 -0.8581 -0.3743
5203000000.0 -0.8385 0.4506
5206000000.0 -0.1591 0.943
5209000000.0 0.6247 0.7166
5212000000.0 0.9446 -0.06218
5216000000.0 0.5725 -0.7783
5219000000.0 -0.2335 -0.9406
5222000000.0 -0.9192 -0.4065
5225000000.0 -0.8932 0.4335
5228000000.0 -0.2166 0.9795
5231000000.0 0.6085 0.7863
5234000000.0 1.019 0.03934
5238000000.0 0.6808 -0.7762
5241000000.0 -0.175 -1.014
5244000000.0 -0.8832 -0.5543
5247000000.0 -0.9854 0.3661
5250000000.0 -0.4033 1.033
5253000000.0 0.5372 0.9308
5256000000.0 1.048 0.153
5259000000.0 0.8102 -0.71
5262000000.0 -0.04528 -1.098
5266000000.0 -0.8225 -0.7001
5269000000.0 -1.081 0.2053
5272000000.0 -0.5317 0.9426
5275000000.0 0.3852 1.02
5278000000.0 1.031 0.3756
5281000000.0 0.9751 -0.5586
5284000000.0 0.2011 -1.074
5288000000.0 -0.6669 -0.8293
5291000000.0 -1.099 0.002775
5294000000.0 -0.725 0.8139
5297000000.0 0.1365 1.083
5300000000.0 0.9251 0.5931
5303000000.0 1.081 -0.335
5306000000.0 0.4688 -1.054
5309000000.0 -0.5438 -1.026
5312000000.0 -1.133 -0.2488
5316000000.0 -0.917 0.7169
5319000000.0 -0.04505 1.164
5322000000.0 0.828 0.7858
5325000000.0 1.131 -0.1567
5328000000.0 0.626 -0.9477
5331000000.0 -0.3409 -1.097
5334000000.0 -1.055 -0.4465
5338000000.0 -0.9987 0.552
5341000000.0 -0.2318 1.096
5344000000.0 0.7082 0.8866
5347000000.0 1.119 0.002787
5350000000.0 0.7111 -0.85
5353000000.0 -0.2166 -1.104
5356000000.0 -0.9713 -0.5218
5359000000.0 -0.9598 0.434
5362000000.0 -0.2897 1.05
5366000000.0 0.604 0.8834
5369000000.0 1.075 0.0609
5372000000.0 0.6985 -0.7469
5375000000.0 -0.1381 -1.006
5378000000.0 -0.8846 -0.5122
5381000000.0 -0.9487 0.3686
5384000000.0 -0.2793 0.9431
5388000000.0 0.5823 0.8167
5391000000.0 0.9435 0.07829
5394000000.0 0.6397 -0.7153
5397000000.0 -0.1766 -0.9127
5400000000.0 -0.7949 -0.4508
5403000000.0 -0.8265 0.3662
5406000000.0 -0.245 0.8594
5409000000.0 0.5289 0.7147
5412000000.0 0.8825 0.04723
5416000000.0 0.6028 -0.6565
5419000000.0 -0.1471 -0.8301
5422000000.0 -0.7548 -0.4215
5425000000.0 -0.7939 0.347
5428000000.0 -0.2374 0.8292
5431000000.0 0.5431 0.7116
5434000000.0 0.8732 0.04182
5438000000.0 0.5793 -0.679
5441000000.0 -0.1558 -0.8789
5444000000.0 -0.7829 -0.437
5447000000.0 -0.7874 0.3596
5450000000.0 -0.244 0.8429
5453000000.0 0.5083 0.726
5456000000.0 0.9093 0.062
5459000000.0 0.5853 -0.6359
5462000000.0 -0.138 -0.9056
5466000000.0 -0.7622 -0.5302
5469000000.0 -0.9034 0.2611
5472000000.0 -0.3226 0.8494
5475000000.0 0.4273 0.8
5478000000.0 0.9286 0.1738
5481000000.0 0.7683 -0.5837
5484000000.0 0.02738 -0.9381
5488000000.0 -0.7493 -0.6287
5491000000.0 -0.9816 0.146
5494000000.0 -0.5184 0.8077
5497000000.0 0.3522 0.9482
5500000000.0 0.9438 0.3691
5503000000.0 0.8903 -0.4904
5506000000.0 0.1649 -1.034
5509000000.0 -0.6454 -0.7967
5512000000.0 -1.013 -0.0381
5516000000.0 -0.7181 0.7865
5519000000.0 0.1451 1.026
5522000000.0 0.8838 0.5521
5525000000.0 1.007 -0.3235
5528000000.0 0.4055 -0.9461
5531000000.0 -0.4808 -0.9197
5534000000.0 -1.071 -0.216
5538000000.0 -0.8221 0.6367
5541000000.0 -0.03039 1.092
5544000000.0 0.7907 0.7167
5547000000.0 1.053 -0.1394
5550000000.0 0.5798 -0.8981
5553000000.0 -0.3311 -1.008
5556000000.0 -0.9997 -0.3573
5559000000.0 -0.9259 0.4957
5562000000.0 -0.1977 1.011
5566000000.0 0.6489 0.8092
5569000000.0 1.053 -0.03417
5572000000.0 0.6571 -0.768
5575000000.0 -0.1626 -0.9764
5578000000.0 -0.8735 -0.4763
5581000000.0 -0.895 0.3548
5584000000.0 -0.2733 0.9227
5588000000.0 0.5259 0.8118
5591000000.0 0.9524 0.09721
5594000000.0 0.6838 -0.6692
5597000000.0 -0.09191 -0.9208
5600000000.0 -0.7554 -0.5364
5603000000.0 -0.885 0.2277
5606000000.0 -0.3667 0.8241
5609000000.0 0.4162 0.8128
5612000000.0 0.869 0.1813
5616000000.0 0.6686 -0.5711
5619000000.0 0.00966 -0.8679
5622000000.0 -0.6572 -0.5293
5625000000.0 -0.8186 0.1745
5628000000.0 -0.3626 0.7596
5631000000.0 0.3668 0.757
5634000000.0 0.8004 0.2054
5638000000.0 0.6895 -0.4855
5641000000.0 0.001517 -0.8131
5644000000.0 -0.6436 -0.5583
5647000000.0 -0.8188 0.1545
5650000000.0 -0.3967 0.7554
5653000000.0 0.3323 0.7605
5656000000.0 0.8295 0.2388
5659000000.0 0.6953 -0.4962
5662000000.0 0.05773 -0.8351
5666000000.0 -0.6642 -0.5921
5669000000.0 -0.8451 0.1387
5672000000.0 -0.4281 0.7841
5675000000.0 0.3306 0.8187
5678000000.0 0.8886 0.2563
5681000000.0 0.7338 -0.5567
5684000000.0 0.03899 -0.9386
5688000000.0 -0.6956 -0.6299
5691000000.0 -0.9489 0.1376
5694000000.0 -0.5105 0.8357
5697000000.0 0.3451 0.9153
5700000000.0 0.9642 0.341
5703000000.0 0.8552 -0.5267
5706000000.0 0.1061 -1.035
5709000000.0 -0.7068 -0.7041
5712000000.0 -1.011 0.05903
5716000000.0 -0.5932 0.8526
5719000000.0 0.2638 0.9939
5722000000.0 0.9676 0.4108
5725000000.0 0.9376 -0.4669
5728000000.0 0.2436 -1.053
5731000000.0 -0.6575 -0.8332
5734000000.0 -1.078 -0.06456
5738000000.0 -0.7451 0.8266
5741000000.0 0.1461 1.101
5744000000.0 0.9101 0.5758
5747000000.0 1.079 -0.3315
5750000000.0 0.3949 -1.012
5753000000.0 -0.5346 -0.9615
5756000000.0 -1.108 -0.2516
5759000000.0 -0.8712 0.6895
5762000000.0 -0.01336 1.135
5766000000.0 0.8247 0.6856
5769000000.0 1.099 -0.1607
5772000000.0 0.5282 -0.9775
5775000000.0 -0.3719 -1.062
5778000000.0 -1.026 -0.4084
5781000000.0 -0.9375 0.5811
5784000000.0 -0.2013 1.079
5788000000.0 0.686 0.8339
5791000000.0 1.072 0.01025
5794000000.0 0.7001 -0.8546
5797000000.0 -0.2083 -1.064
5800000000.0 -0.9563 -0.5199
5803000000.0 -0.9919 0.3885
5806000000.0 -0.3249 1.012
5809000000.0 0.5659 0.91
5812000000.0 1.051 0.1007
5816000000.0 0.7454 -0.702
5819000000.0 -0.1034 -1.002
5822000000.0 -0.8423 -0.5439
5825000000.0 -0.9487 0.2927
5828000000.0 -0.4051 0.9403
5831000000.0 0.4467 0.8758
5834000000.0 0.9614 0.2069
5838000000.0 0.7737 -0.6206
5841000000.0 -0.001899 -0.975
5844000000.0 -0.7513 -0.6066
5847000000.0 -0.9425 0.187
5850000000.0 -0.418 0.8162
5853000000.0 0.3952 0.8588
5856000000.0 0.8819 0.2262
5859000000.0 0.7654 -0.5725
5862000000.0 0.02259 -0.9281
5866000000.0 -0.6985 -0.5912
5869000000.0 -0.8737 0.1796
5872000000.0 -0.4143 0.8063
5875000000.0 0.3517 0.8037
5878000000.0 0.8605 0.2371
5881000000.0 0.7419 -0.5384
5884000000.0 0.07102 -0.8903
5888000000.0 -0.6328 -0.5796
5891000000.0 -0.8513 0.1516
5894000000.0 -0.4532 0.7573
5897000000.0 0.3357 0.8138
5900000000.0 0.8228 0.2848
5903000000.0 0.7452 -0.4251
5906000000.0 0.1033 -0.8698
5909000000.0 -0.6181 -0.6232
5912000000.0 -0.8405 0.09188
5916000000.0 -0.5112 0.707
5919000000.0 0.2354 0.8136
5922000000.0 0.7954 0.3235
5925000000.0 0.7471 -0.3811
5928000000.0 0.1961 -0.8738
5931000000.0 -0.5473 -0.697
5934000000.0 -0.9111 -0.01451
5938000000.0 -0.5876 0.6736
5941000000.0 0.1868 0.8871
5944000000.0 0.7635 0.4752
5947000000.0 0.8368 -0.3059
5950000000.0 0.3145 -0.8125
5953000000.0 -0.475 -0.809
5956000000.0 -0.9415 -0.144
5959000000.0 -0.7225 0.5986
5962000000.0 0.0104 0.9455
5966000000.0 0.7139 0.6001
5969000000.0 0.9141 -0.1715
5972000000.0 0.4744 -0.8202
5975000000.0 -0.3343 -0.915
5978000000.0 -0.9193 -0.3613
5981000000.0 -0.8672 0.5013
5984000000.0 -0.1565 0.9527
5988000000.0 0.6763 0.7244
5991000000.0 0.9974 -0.005853
5994000000.0 0.6081 -0.7953
5997000000.0 -0.2003 -0.986
6000000000.0 -0.8854 -0.4797
6003000000.0 -0.8919 0.3731
6006000000.0 -0.2989 0.9592
6009000000.0 0.5361 0.821
6012000000.0 1.009 0.07947
6016000000.0 0.7149 -0.7182
6019000000.0 -0.1081 -0.979
6022000000.0 -0.8397 -0.5501
6025000000.0 -0.9571 0.2863
6028000000.0 -0.3463 0.9126
6031000000.0 0.4245 0.8616
6034000000.0 0.9355 0.1849
6038000000.0 0.7642 -0.6293
6041000000.0 -0.01567 -0.9861
6044000000.0 -0.7499 -0.6102
6047000000.0 -0.938 0.2248
6050000000.0 -0.4268 0.8248
6053000000.0 0.4033 0.8508
6056000000.0 0.8989 0.2012
6059000000.0 0.7306 -0.5464
6062000000.0 0.03136 -0.9119
6066000000.0 -0.6668 -0.6076
6069000000.0 -0.9084 0.1476
6072000000.0 -0.4253 0.7894
6075000000.0 0.3454 0.8216
6078000000.0 0.8558 0.2802
6081000000.0 0.7032 -0.4725
6084000000.0 0.06247 -0.8589
6088000000.0 -0.5991 -0.5691
6091000000.0 -0.8396 0.1278
6094000000.0 -0.4473 0.7191
6097000000.0 0.2441 0.7929
6100000000.0 0.7818 0.2904
6103000000.0 0.7388 -0.4457
6106000000.0 0.1156 -0.8482
6109000000.0 -0.5865 -0.6246
6112000000.0 -0.8063 0.07954
6116000000.0 -0.5007 0.7246
6119000000.0 0.2635 0.8162
6122000000.0 0.7887 0.3218
6125000000.0 0.7607 -0.403
6128000000.0 0.1384 -0.8532
6131000000.0 -0.5649 -0.6559
6134000000.0 -0.8825 0.01899
6138000000.0 -0.5384 0.6955
6141000000.0 0.2111 0.8614
6144000000.0 0.7999 0.3611
6147000000.0 0.833 -0.3851
6150000000.0 0.2547 -0.8493
6153000000.0 -0.5079 -0.7363
6156000000.0 -0.9178 -0.03986
6159000000.0 -0.5966 0.6866
6162000000.0 0.1282 0.8965
6166000000.0 0.772 0.4921
6169000000.0 0.8626 -0.3427
6172000000.0 0.2772 -0.8908
6175000000.0 -0.514 -0.7897
6178000000.0 -0.9426 -0.1554
6181000000.0 -0.7001 0.6664
6184000000.0 0.07781 0.924
6188000000.0 0.8013 0.5278
6191000000.0 0.8953 -0.2492
6194000000.0 0.3913 -0.8708
6197000000.0 -0.4487 -0.8371
6200000000.0 -0.9129 -0.2079
6203000000.0 -0.7328 0.573
6206000000.0 -0.01839 0.9144
6209000000.0 0.7214 0.6132
6212000000.0 0.9106 -0.1093
6216000000.0 0.4669 -0.8009
6219000000.0 -0.3085 -0.8715
6222000000.0 -0.833 -0.33
6225000000.0 -0.8069 0.4393
6228000000.0 -0.1313 0.876
6231000000.0 0.5881 0.6943
6234000000.0 0.8851 -0.03227
6238000000.0 0.5436 -0.6812
6241000000.0 -0.1829 -0.8666
6244000000.0 -0.7522 -0.4026
6247000000.0 -0.7727 0.3364
6250000000.0 -0.2469 0.8318
6253000000.0 0.4459 0.6883
6256000000.0 0.8035 0.07831
6259000000.0 0.5944 -0.5603
6262000000.0 -0.0285 -0.8104
6266000000.0 -0.6352 -0.4853
