! Created with skrf 1.8.0 (http://scikit-rf.org).
# Hz S RI R 50.0 
!freq ReS11 ImS11
4000000000.0 -0.1535 -1.507
4003000000.0 -1.248 -0.8039
4006000000.0 -1.38 0.4359
4009000000.0 -0.5229 1.405
4012000000.0 0.7484 1.309
4016000000.0 1.517 0.2384
4019000000.0 1.102 -1.05
4022000000.0 -0.08109 -1.625
4025000000.0 -1.232 -0.8969
4028000000.0 -1.547 0.4678
4031000000.0 -0.5909 1.449
4034000000.0 0.7868 1.382
4038000000.0 1.601 0.2717
4041000000.0 1.177 -1.078
4044000000.0 -0.1005 -1.63
4047000000.0 -1.355 -0.9262
4050000000.0 -1.539 0.4384
4053000000.0 -0.6524 1.495
4056000000.0 0.7591 1.437
4059000000.0 1.504 0.3692
4062000000.0 1.285 -1.015
4066000000.0 0.02957 -1.597
4069000000.0 -1.21 -1.061
4072000000.0 -1.615 0.2431
4075000000.0 -0.8068 1.382
4078000000.0 0.5348 1.541
4081000000.0 1.552 0.5452
4084000000.0 1.421 -0.8405
4088000000.0 0.2697 -1.631
4091000000.0 -1.085 -1.264
4094000000.0 -1.636 0.05543
4097000000.0 -0.9743 1.308
4100000000.0 0.3634 1.576
4103000000.0 1.412 0.7264
4106000000.0 1.446 -0.63
4109000000.0 0.4847 -1.48
4112000000.0 -0.8352 -1.284
4116000000.0 -1.486 -0.2252
4119000000.0 -1.114 1.006
4122000000.0 -0.01214 1.493
4125000000.0 1.115 0.9746
4128000000.0 1.464 -0.201
4131000000.0 0.7683 -1.254
4134000000.0 -0.4169 -1.395
4138000000.0 -1.378 -0.6093
4141000000.0 -1.324 0.6049
4144000000.0 -0.36 1.483
4147000000.0 0.8596 1.231
4150000000.0 1.501 0.1381
4153000000.0 1.093 -1.043
4156000000.0 -0.07714 -1.492
4159000000.0 -1.267 -0.8792
4162000000.0 -1.482 0.3479
4166000000.0 -0.6612 1.361
4169000000.0 0.6221 1.379
4172000000.0 1.444 0.3989
4175000000.0 1.238 -0.8335
4178000000.0 0.1934 -1.466
4181000000.0 -1.021 -1.093
4184000000.0 -1.487 0.07763
4188000000.0 -0.9191 1.227
4191000000.0 0.3663 1.467
4194000000.0 1.363 0.6895
4197000000.0 1.394 -0.6473
4200000000.0 0.3935 -1.515
4203000000.0 -0.9309 -1.316
4206000000.0 -1.626 -0.0543
4209000000.0 -1.096 1.257
4212000000.0 0.3184 1.594
4216000000.0 1.512 0.7624
4219000000.0 1.508 -0.7019
4222000000.0 0.3339 -1.647
4225000000.0 -1.147 -1.296
4228000000.0 -1.664 0.1055
4231000000.0 -0.9206 1.382
4234000000.0 0.538 1.569
4238000000.0 1.54 0.5275
4241000000.0 1.334 -0.8967
4244000000.0 0.09595 -1.6
4247000000.0 -1.205 -1.069
4250000000.0 -1.547 0.3413
4253000000.0 -0.6726 1.377
4256000000.0 0.6813 1.387
4259000000.0 1.514 0.3079
4262000000.0 1.146 -0.9707
4266000000.0 -0.06278 -1.536
4269000000.0 -1.189 -0.838
4272000000.0 -1.425 0.4509
4275000000.0 -0.5314 1.333
4278000000.0 0.7214 1.216
4281000000.0 1.463 0.2581
4284000000.0 1.001 -0.9922
4288000000.0 -0.1006 -1.334
4291000000.0 -1.143 -0.7252
4294000000.0 -1.252 0.3578
4297000000.0 -0.5009 1.233
4300000000.0 0.6361 1.151
4303000000.0 1.242 0.233
4306000000.0 0.9869 -0.8283
4309000000.0 0.01727 -1.28
4312000000.0 -0.9505 -0.8714
4316000000.0 -1.275 0.2202
4319000000.0 -0.6883 1.084
4322000000.0 0.4062 1.202
4325000000.0 1.196 0.4888
4328000000.0 1.188 -0.6039
4331000000.0 0.2757 -1.286
4334000000.0 -0.8051 -1.07
4338000000.0 -1.357 -0.03592
4341000000.0 -0.9155 0.989
4344000000.0 0.2024 1.406
4347000000.0 1.205 0.7147
4350000000.0 1.355 -0.4814
4353000000.0 0.4888 -1.341
4356000000.0 -0.6851 -1.249
4359000000.0 -1.416 -0.2429
4362000000.0 -1.1 0.9408
4366000000.0 0.01176 1.442
4369000000.0 1.134 0.8881
4372000000.0 1.443 -0.2875
4375000000.0 0.7182 -1.29
4378000000.0 -0.5171 -1.396
4381000000.0 -1.431 -0.4768
4384000000.0 -1.312 0.8111
4388000000.0 -0.1883 1.516
4391000000.0 1.07 1.099
4394000000.0 1.576 -0.1269
4397000000.0 0.8752 -1.321
4400000000.0 -0.4846 -1.508
4403000000.0 -1.487 -0.5982
4406000000.0 -1.351 0.7896
4409000000.0 -0.2242 1.564
4412000000.0 1.085 1.111
4416000000.0 1.561 -0.2032
4419000000.0 0.7961 -1.28
4422000000.0 -0.4863 -1.435
4425000000.0 -1.401 -0.4528
4428000000.0 -1.209 0.8375
4431000000.0 -0.1284 1.488
4434000000.0 1.078 0.9646
4438000000.0 1.411 -0.2249
4441000000.0 0.6654 -1.243
4444000000.0 -0.5544 -1.241
4447000000.0 -1.328 -0.3501
4450000000.0 -1.073 0.8127
4453000000.0 0.001467 1.303
4456000000.0 1.028 0.819
4459000000.0 1.222 -0.3386
4462000000.0 0.5154 -1.16
4466000000.0 -0.6062 -1.093
4469000000.0 -1.207 -0.1473
4472000000.0 -0.8657 0.8257
4475000000.0 0.1218 1.196
4478000000.0 1.011 0.6357
4481000000.0 1.103 -0.4035
4484000000.0 0.3577 -1.111
4488000000.0 -0.6388 -0.96
4491000000.0 -1.122 -0.08447
4494000000.0 -0.7282 0.8235
4497000000.0 0.1612 1.105
4500000000.0 0.9699 0.5778
4503000000.0 1.03 -0.382
4506000000.0 0.3549 -1.005
4509000000.0 -0.6084 -0.9095
4512000000.0 -1.067 -0.1464
4516000000.0 -0.7979 0.8075
4519000000.0 0.1071 1.121
4522000000.0 0.9516 0.6359
4525000000.0 1.086 -0.3504
4528000000.0 0.4296 -1.055
4531000000.0 -0.5528 -1.002
4534000000.0 -1.131 -0.2067
4538000000.0 -0.8903 0.7199
4541000000.0 0.03258 1.176
4544000000.0 0.9265 0.7478
4547000000.0 1.146 -0.2306
4550000000.0 0.5668 -1.036
4553000000.0 -0.4417 -1.124
4556000000.0 -1.163 -0.3851
4559000000.0 -1.023 0.6679
4562000000.0 -0.1962 1.222
4566000000.0 0.8168 0.9338
4569000000.0 1.274 -0.04163
4572000000.0 0.7908 -0.9907
4575000000.0 -0.2607 -1.248
4578000000.0 -1.136 -0.6012
4581000000.0 -1.233 0.5105
4584000000.0 -0.3971 1.265
4588000000.0 0.6947 1.135
4591000000.0 1.313 0.1622
4594000000.0 0.9963 -0.9093
4597000000.0 -0.07831 -1.39
4600000000.0 -1.106 -0.7913
4603000000.0 -1.369 0.3555
4606000000.0 -0.5843 1.271
4609000000.0 0.6144 1.231
4612000000.0 1.371 0.3227
4616000000.0 1.127 -0.8409
4619000000.0 0.05183 -1.383
4622000000.0 -1.033 -0.9289
4625000000.0 -1.336 0.2318
4628000000.0 -0.6763 1.23
4631000000.0 0.511 1.269
4634000000.0 1.293 0.4176
4638000000.0 1.119 -0.7469
4641000000.0 0.1103 -1.334
4644000000.0 -0.9805 -0.9447
4647000000.0 -1.325 0.1823
4650000000.0 -0.6403 1.138
4653000000.0 0.4566 1.212
4656000000.0 1.241 0.3855
4659000000.0 1.053 -0.694
4662000000.0 0.1028 -1.275
4666000000.0 -0.9112 -0.8345
4669000000.0 -1.217 0.1607
4672000000.0 -0.5994 1.035
4675000000.0 0.4427 1.092
4678000000.0 1.097 0.325
4681000000.0 0.9332 -0.6946
4684000000.0 0.07214 -1.148
4688000000.0 -0.8455 -0.7257
4691000000.0 -1.086 0.1595
4694000000.0 -0.5463 0.9439
4697000000.0 0.4327 1.001
4700000000.0 1.072 0.2945
4703000000.0 0.8758 -0.6209
4706000000.0 0.04602 -1.075
4709000000.0 -0.8148 -0.7059
4712000000.0 -1.029 0.2158
4716000000.0 -0.4975 0.93
4719000000.0 0.4335 0.9612
4722000000.0 1.031 0.2479
4725000000.0 0.8739 -0.6401
4728000000.0 0.03833 -1.053
4731000000.0 -0.7523 -0.694
4734000000.0 -1.047 0.1824
4738000000.0 -0.5164 0.8906
4741000000.0 0.3499 1.019
4744000000.0 0.9806 0.3377
4747000000.0 0.8974 -0.5103
4750000000.0 0.1203 -1.062
4753000000.0 -0.7089 -0.8063
4756000000.0 -1.058 0.04071
4759000000.0 -0.6658 0.8625
4762000000.0 0.2347 1.069
4766000000.0 0.9893 0.5143
4769000000.0 1.049 -0.4535
4772000000.0 0.3483 -1.075
4775000000.0 -0.6177 -0.9846
4778000000.0 -1.156 -0.1196
4781000000.0 -0.8548 0.7966
4784000000.0 0.08125 1.168
4788000000.0 0.9328 0.7266
4791000000.0 1.189 -0.2765
4794000000.0 0.5759 -1.087
4797000000.0 -0.4468 -1.11
4800000000.0 -1.172 -0.3988
4803000000.0 -1.047 0.6362
4806000000.0 -0.1806 1.234
4809000000.0 0.8494 0.9483
4812000000.0 1.302 -0.02295
4816000000.0 0.8079 -1.024
4819000000.0 -0.2607 -1.278
4822000000.0 -1.153 -0.6273
4825000000.0 -1.241 0.482
4828000000.0 -0.3869 1.267
4831000000.0 0.7534 1.155
4834000000.0 1.377 0.1554
4838000000.0 0.9964 -0.9728
4841000000.0 -0.1502 -1.383
4844000000.0 -1.141 -0.7991
4847000000.0 -1.313 0.3998
4850000000.0 -0.5451 1.269
4853000000.0 0.6375 1.218
4856000000.0 1.324 0.287
4859000000.0 1.047 -0.8531
4862000000.0 -0.01653 -1.344
4866000000.0 -1.015 -0.8419
4869000000.0 -1.293 0.2865
4872000000.0 -0.6125 1.195
4875000000.0 0.5164 1.197
4878000000.0 1.276 0.3337
4881000000.0 1.02 -0.7484
4884000000.0 0.0707 -1.245
4888000000.0 -0.9178 -0.8154
4891000000.0 -1.189 0.207
4894000000.0 -0.5635 1.068
4897000000.0 0.4619 1.065
4900000000.0 1.1 0.3414
4903000000.0 0.9385 -0.6212
4906000000.0 0.08231 -1.094
4909000000.0 -0.7842 -0.7419
4912000000.0 -1.041 0.1197
4916000000.0 -0.5479 0.8553
4919000000.0 0.3306 0.9514
4922000000.0 0.9116 0.3551
4925000000.0 0.8115 -0.5076
4928000000.0 0.1757 -0.9355
4931000000.0 -0.5907 -0.7048
4934000000.0 -0.9345 0.02445
4938000000.0 -0.5487 0.738
4941000000.0 0.2089 0.926
4944000000.0 0.8606 0.4339
4947000000.0 0.8754 -0.3819
4950000000.0 0.2585 -0.9164
4953000000.0 -0.5282 -0.7405
4956000000.0 -0.9514 -0.05297
4959000000.0 -0.6377 0.72
4962000000.0 0.1461 0.9858
4966000000.0 0.8537 0.4889
4969000000.0 0.9162 -0.331
4972000000.0 0.312 -0.9491
4975000000.0 -0.5458 -0.8163
4978000000.0 -0.9827 -0.134
4981000000.0 -0.7302 0.6604
4984000000.0 0.03255 1.039
4988000000.0 0.8471 0.6035
4991000000.0 1.017 -0.249
4994000000.0 0.4543 -0.9813
4997000000.0 -0.4452 -0.9851
5000000000.0 -1.07 -0.2911
5003000000.0 -0.9222 0.6508
5006000000.0 -0.07199 1.146
5009000000.0 0.8515 0.8077
5012000000.0 1.171 -0.1165
5016000000.0 0.6669 -1.008
5019000000.0 -0.3766 -1.167
5022000000.0 -1.171 -0.446
5025000000.0 -1.107 0.5908
5028000000.0 -0.2374 1.216
5031000000.0 0.8132 0.9998
5034000000.0 1.269 -0.0009999
5038000000.0 0.8129 -0.972
5041000000.0 -0.2273 -1.221
5044000000.0 -1.105 -0.6507
5047000000.0 -1.193 0.457
5050000000.0 -0.4499 1.211
5053000000.0 0.6214 1.104
5056000000.0 1.298 0.2161
5059000000.0 0.9853 -0.8263
5062000000.0 0.00113 -1.3
5066000000.0 -1.008 -0.8106
5069000000.0 -1.262 0.2456
5072000000.0 -0.6115 1.125
5075000000.0 0.4703 1.197
5078000000.0 1.196 0.3744
5081000000.0 1.039 -0.6679
5084000000.0 0.1594 -1.238
5088000000.0 -0.8471 -0.9115
5091000000.0 -1.232 0.05765
5094000000.0 -0.6981 0.9129
5097000000.0 0.278 1.169
5100000000.0 1.019 0.5202
5103000000.0 1.037 -0.4781
5106000000.0 0.3086 -1.078
5109000000.0 -0.611 -0.9183
5112000000.0 -1.048 -0.1111
5116000000.0 -0.7911 0.7359
5119000000.0 0.06992 1.049
5122000000.0 0.8567 0.6321
5125000000.0 1.029 -0.2384
5128000000.0 0.4331 -0.9252
5131000000.0 -0.4462 -0.9368
5134000000.0 -0.9321 -0.2467
5138000000.0 -0.8202 0.576
5141000000.0 -0.1062 0.9617
5144000000.0 0.7102 0.6847
5147000000.0 0.9393 -0.1223
5150000000.0 0.4909 -0.806
5153000000.0 -0.3062 -0.904
5156000000.0 -0.8349 -0.3307
5159000000.0 -0.784 0.474
5162000000.0 -0.124 0.871
5166000000.0 0.6 0.6785
5169000000.0 0.9017 -0.0586
5172000000.0 0.5261 -0.71
5175000000.0 -0.2249 -0.8496
5178000000.0 -0.829 -0.3733
5181000000.0 -0.8164 0.3976
5184000000.0 -0.1857 0.9059
5188000000.0 0.5886 0.7118
5191000000.0 0.9076 -0.02696
5194000000.0 0.559 -0.7144
5197000000.0 -0.2115 -0.9446
5200000000.0 -0.8456 -0.3953
5203000000.0 -0.8428 0.4238
5206000000.0 -0.2161 0.8953
5209000000.0 0.5793 0.7423
5212000000.0 0.9523 0.01202
5216000000.0 0.6552 -0.7448
5219000000.0 -0.2021 -0.9534
5222000000.0 -0.8867 -0.4545
5225000000.0 -0.8987 0.4099
5228000000.0 -0.2773 0.9547
5231000000.0 0.5822 0.8305
5234000000.0 1.017 0.08621
5238000000.0 0.7045 -0.7361
5241000000.0 -0.1442 -1.036
5244000000.0 -0.8848 -0.5714
5247000000.0 -0.9896 0.3189
5250000000.0 -0.3819 0.9734
5253000000.0 0.5113 0.9325
5256000000.0 1.047 0.2106
5259000000.0 0.8098 -0.6654
5262000000.0 0.04828 -1.073
5266000000.0 -0.8032 -0.7165
5269000000.0 -1.056 0.1772
5272000000.0 -0.5685 0.9082
5275000000.0 0.3414 1.032
5278000000.0 1.02 0.4003
5281000000.0 0.9561 -0.5108
5284000000.0 0.2098 -1.084
5288000000.0 -0.6591 -0.8612
5291000000.0 -1.063 -0.07991
5294000000.0 -0.7949 0.8043
5297000000.0 0.11 1.089
5300000000.0 0.9263 0.639
5303000000.0 1.061 -0.2981
5306000000.0 0.4916 -1.038
5309000000.0 -0.5001 -1.03
5312000000.0 -1.089 -0.2883
5316000000.0 -0.9573 0.6523
5319000000.0 -0.1014 1.166
5322000000.0 0.7903 0.8162
5325000000.0 1.13 -0.09759
5328000000.0 0.6652 -0.9328
5331000000.0 -0.2783 -1.101
5334000000.0 -1.026 -0.4546
5338000000.0 -0.9999 0.4976
5341000000.0 -0.2735 1.088
5344000000.0 0.6701 0.9192
5347000000.0 1.116 0.04537
5350000000.0 0.7605 -0.7956
5353000000.0 -0.1492 -1.065
5356000000.0 -0.9722 -0.5565
5359000000.0 -1.038 0.3642
5362000000.0 -0.3612 1.017
5366000000.0 0.5584 0.923
5369000000.0 1.054 0.1196
5372000000.0 0.7721 -0.7214
5375000000.0 -0.0941 -1.043
5378000000.0 -0.8544 -0.5693
5381000000.0 -0.9837 0.3439
5384000000.0 -0.343 0.9378
5388000000.0 0.5199 0.8292
5391000000.0 0.9759 0.08022
5394000000.0 0.6608 -0.6736
5397000000.0 -0.09576 -0.9528
5400000000.0 -0.7882 -0.4881
5403000000.0 -0.824 0.3069
5406000000.0 -0.2864 0.8365
5409000000.0 0.4628 0.7358
5412000000.0 0.8812 0.08988
5416000000.0 0.6215 -0.6061
5419000000.0 -0.09202 -0.8558
5422000000.0 -0.7228 -0.4726
5425000000.0 -0.8246 0.2997
5428000000.0 -0.2631 0.8079
5431000000.0 0.4918 0.7389
5434000000.0 0.8625 0.0969
5438000000.0 0.5888 -0.6437
5441000000.0 -0.1067 -0.8424
5444000000.0 -0.7615 -0.4452
5447000000.0 -0.8179 0.2859
5450000000.0 -0.2727 0.8108
5453000000.0 0.4598 0.7737
5456000000.0 0.855 0.1136
5459000000.0 0.607 -0.5907
5462000000.0 -0.07523 -0.8841
5466000000.0 -0.7059 -0.5115
5469000000.0 -0.8511 0.2313
5472000000.0 -0.362 0.7952
5475000000.0 0.402 0.7965
5478000000.0 0.8992 0.2676
5481000000.0 0.7969 -0.5729
5484000000.0 0.07157 -0.9747
5488000000.0 -0.6559 -0.6642
5491000000.0 -0.9738 0.09278
5494000000.0 -0.5562 0.7741
5497000000.0 0.2459 0.943
5500000000.0 0.9251 0.4406
5503000000.0 0.8981 -0.4378
5506000000.0 0.2365 -1.014
5509000000.0 -0.5926 -0.7865
5512000000.0 -1.01 -0.05323
5516000000.0 -0.7386 0.722
5519000000.0 0.08204 1.05
5522000000.0 0.8616 0.5765
5525000000.0 1.003 -0.27
5528000000.0 0.4281 -0.9429
5531000000.0 -0.446 -0.9877
5534000000.0 -0.9912 -0.2858
5538000000.0 -0.8699 0.5547
5541000000.0 -0.08671 1.047
5544000000.0 0.7165 0.7331
5547000000.0 1.047 -0.06473
5550000000.0 0.6007 -0.8629
5553000000.0 -0.2835 -1.021
5556000000.0 -0.9708 -0.4624
5559000000.0 -0.9525 0.4485
5562000000.0 -0.2659 0.9968
5566000000.0 0.6138 0.8442
5569000000.0 1.035 0.06385
5572000000.0 0.6768 -0.7638
5575000000.0 -0.1344 -0.9898
5578000000.0 -0.8681 -0.5615
5581000000.0 -0.9318 0.3304
5584000000.0 -0.3539 0.9303
5588000000.0 0.4632 0.8428
5591000000.0 0.9503 0.1926
5594000000.0 0.7522 -0.6193
5597000000.0 -0.002167 -0.931
5600000000.0 -0.7103 -0.5724
5603000000.0 -0.8903 0.1938
5606000000.0 -0.4338 0.7972
5609000000.0 0.3551 0.8263
5612000000.0 0.8477 0.2132
5616000000.0 0.7379 -0.4905
5619000000.0 0.06487 -0.8819
5622000000.0 -0.6328 -0.5504
5625000000.0 -0.8163 0.1078
5628000000.0 -0.4224 0.7159
5631000000.0 0.29 0.7753
5634000000.0 0.7746 0.2715
5638000000.0 0.7031 -0.4274
5641000000.0 0.0935 -0.8549
5644000000.0 -0.5815 -0.604
5647000000.0 -0.8253 0.1061
5650000000.0 -0.4478 0.7023
5653000000.0 0.2694 0.7736
5656000000.0 0.8158 0.2695
5659000000.0 0.7227 -0.4356
5662000000.0 0.1005 -0.8685
5666000000.0 -0.6201 -0.631
5669000000.0 -0.8612 0.09662
5672000000.0 -0.4657 0.7436
5675000000.0 0.2833 0.8561
5678000000.0 0.8673 0.3298
5681000000.0 0.798 -0.4649
5684000000.0 0.1152 -0.9047
5688000000.0 -0.6526 -0.6791
5691000000.0 -0.9534 0.09006
5694000000.0 -0.5486 0.7889
5697000000.0 0.2688 0.947
5700000000.0 0.9219 0.3802
5703000000.0 0.8733 -0.4586
5706000000.0 0.182 -0.9838
5709000000.0 -0.6373 -0.7552
5712000000.0 -1.025 0.02879
5716000000.0 -0.65 0.8142
5719000000.0 0.2144 1.002
5722000000.0 0.9312 0.5067
5725000000.0 0.9789 -0.403
5728000000.0 0.2972 -1.007
5731000000.0 -0.581 -0.9054
5734000000.0 -1.064 -0.1029
5738000000.0 -0.7655 0.7615
5741000000.0 0.09371 1.089
5744000000.0 0.8829 0.621
5747000000.0 1.053 -0.2949
5750000000.0 0.4911 -1.006
5753000000.0 -0.4716 -1.002
5756000000.0 -1.062 -0.3098
5759000000.0 -0.8864 0.6294
5762000000.0 -0.0719 1.13
5766000000.0 0.7624 0.7707
5769000000.0 1.099 -0.1227
5772000000.0 0.6408 -0.9034
5775000000.0 -0.2942 -1.041
5778000000.0 -0.994 -0.4293
5781000000.0 -1.016 0.5149
5784000000.0 -0.2597 1.056
5788000000.0 0.6152 0.8701
5791000000.0 1.097 0.07012
5794000000.0 0.7326 -0.7655
5797000000.0 -0.1409 -1.066
5800000000.0 -0.8981 -0.5707
5803000000.0 -1.002 0.3301
5806000000.0 -0.3663 0.9804
5809000000.0 0.4941 0.9096
5812000000.0 1.005 0.1571
5816000000.0 0.8121 -0.6601
5819000000.0 0.02548 -1.017
5822000000.0 -0.7977 -0.6228
5825000000.0 -0.9936 0.2322
5828000000.0 -0.4627 0.9142
5831000000.0 0.3964 0.9117
5834000000.0 0.9423 0.2723
5838000000.0 0.7715 -0.5252
5841000000.0 0.1001 -0.996
5844000000.0 -0.7015 -0.6653
5847000000.0 -0.9293 0.1151
5850000000.0 -0.5249 0.8208
5853000000.0 0.3094 0.8161
5856000000.0 0.8851 0.3271
5859000000.0 0.7675 -0.5018
5862000000.0 0.1056 -0.8845
5866000000.0 -0.6542 -0.6626
5869000000.0 -0.8935 0.08637
5872000000.0 -0.484 0.743
5875000000.0 0.2881 0.8731
5878000000.0 0.85 0.3371
5881000000.0 0.7178 -0.4527
5884000000.0 0.1219 -0.8909
5888000000.0 -0.5924 -0.6493
5891000000.0 -0.857 0.07691
5894000000.0 -0.5197 0.7069
5897000000.0 0.2297 0.8284
5900000000.0 0.789 0.3687
5903000000.0 0.7661 -0.3816
5906000000.0 0.187 -0.8515
5909000000.0 -0.6049 -0.6878
5912000000.0 -0.883 -0.01033
5916000000.0 -0.5616 0.6707
5919000000.0 0.1544 0.8507
5922000000.0 0.7645 0.4229
5925000000.0 0.7769 -0.3321
5928000000.0 0.2502 -0.8027
5931000000.0 -0.4826 -0.7305
5934000000.0 -0.8726 -0.07539
5938000000.0 -0.6221 0.6176
5941000000.0 0.06427 0.8706
5944000000.0 0.7124 0.4965
5947000000.0 0.8714 -0.1968
5950000000.0 0.3898 -0.8344
5953000000.0 -0.374 -0.8121
5956000000.0 -0.9068 -0.2551
5959000000.0 -0.7328 0.5309
5962000000.0 -0.102 0.9019
5966000000.0 0.6819 0.6598
5969000000.0 0.9439 -0.08516
5972000000.0 0.5296 -0.7911
5975000000.0 -0.2531 -0.9439
5978000000.0 -0.8689 -0.3776
5981000000.0 -0.8606 0.4128
5984000000.0 -0.2326 0.9383
5988000000.0 0.5831 0.8231
5991000000.0 0.982 0.05608
5994000000.0 0.6769 -0.7072
5997000000.0 -0.1019 -1.004
6000000000.0 -0.8483 -0.5434
6003000000.0 -0.9453 0.3133
6006000000.0 -0.3655 0.9162
6009000000.0 0.4458 0.8569
6012000000.0 0.9393 0.1811
6016000000.0 0.7634 -0.6432
6019000000.0 -0.004867 -0.9908
6022000000.0 -0.7879 -0.5963
6025000000.0 -0.9979 0.2037
6028000000.0 -0.4598 0.8762
6031000000.0 0.3633 0.9242
6034000000.0 0.9362 0.2598
6038000000.0 0.7955 -0.5512
6041000000.0 0.08775 -0.9903
6044000000.0 -0.6675 -0.6602
6047000000.0 -0.9293 0.1191
6050000000.0 -0.5086 0.8003
6053000000.0 0.3096 0.9047
6056000000.0 0.8852 0.3334
6059000000.0 0.7979 -0.447
6062000000.0 0.1219 -0.9197
6066000000.0 -0.6367 -0.6622
6069000000.0 -0.8937 0.05397
6072000000.0 -0.531 0.7631
6075000000.0 0.2523 0.8456
6078000000.0 0.7917 0.3519
6081000000.0 0.7689 -0.4095
6084000000.0 0.1506 -0.8518
6088000000.0 -0.5343 -0.6501
6091000000.0 -0.8837 0.02331
6094000000.0 -0.5436 0.6594
6097000000.0 0.2049 0.8184
6100000000.0 0.7614 0.3674
6103000000.0 0.7787 -0.3639
6106000000.0 0.2135 -0.8195
6109000000.0 -0.535 -0.6806
6112000000.0 -0.8659 -0.03024
6116000000.0 -0.6123 0.6539
6119000000.0 0.1116 0.8223
6122000000.0 0.7654 0.4251
6125000000.0 0.7945 -0.344
6128000000.0 0.2337 -0.8376
6131000000.0 -0.4522 -0.7096
6134000000.0 -0.8521 -0.06017
6138000000.0 -0.5958 0.6219
6141000000.0 0.121 0.8748
6144000000.0 0.7732 0.4498
6147000000.0 0.8309 -0.2719
6150000000.0 0.32 -0.8225
6153000000.0 -0.4539 -0.7686
6156000000.0 -0.8856 -0.1455
6159000000.0 -0.6953 0.6059
6162000000.0 0.07912 0.9468
6166000000.0 0.7254 0.5302
6169000000.0 0.9253 -0.2313
6172000000.0 0.4134 -0.8212
6175000000.0 -0.438 -0.8572
6178000000.0 -0.8892 -0.2126
6181000000.0 -0.7083 0.5568
6184000000.0 -0.04521 0.9514
6188000000.0 0.7223 0.6332
6191000000.0 0.9026 -0.1719
6194000000.0 0.4617 -0.8124
6197000000.0 -0.328 -0.8739
6200000000.0 -0.9096 -0.284
6203000000.0 -0.7993 0.5008
6206000000.0 -0.1303 0.9234
6209000000.0 0.6168 0.6666
6212000000.0 0.942 -0.04553
6216000000.0 0.5308 -0.7361
6219000000.0 -0.2029 -0.8775
6222000000.0 -0.7962 -0.3553
6225000000.0 -0.8391 0.378
6228000000.0 -0.2603 0.8953
6231000000.0 0.5296 0.7167
6234000000.0 0.8627 0.08541
6238000000.0 0.624 -0.6392
6241000000.0 -0.1239 -0.8489
6244000000.0 -0.7354 -0.471
6247000000.0 -0.8283 0.2615
6250000000.0 -0.3289 0.7873
6253000000.0 0.3852 0.7183
6256000000.0 0.8177 0.154
6259000000.0 0.6431 -0.5158
6262000000.0 0.0556 -0.8225
6266000000.0 -0.5986 -0.5426
