! Created with skrf 1.8.0 (http://scikit-rf.org).
# Hz S RI R 50.0 
!freq ReS11 ImS11
4000000000.0 -0.1849 -1.487
4003000000.0 -1.27 -0.8118
4006000000.0 -1.427 0.4955
4009000000.0 -0.5182 1.4
4012000000.0 0.7898 1.316
4016000000.0 1.517 0.1966
4019000000.0 1.139 -1.078
4022000000.0 -0.08779 -1.55
4025000000.0 -1.282 -0.8977
4028000000.0 -1.497 0.5127
4031000000.0 -0.5903 1.513
4034000000.0 0.8404 1.395
4038000000.0 1.637 0.2218
4041000000.0 1.167 -1.082
4044000000.0 -0.1319 -1.625
4047000000.0 -1.373 -0.9487
4050000000.0 -1.569 0.4729
4053000000.0 -0.6146 1.48
4056000000.0 0.7478 1.418
4059000000.0 1.581 0.3426
4062000000.0 1.247 -1.031
4066000000.0 0.003304 -1.623
4069000000.0 -1.211 -1.045
4072000000.0 -1.571 0.2723
4075000000.0 -0.8217 1.43
4078000000.0 0.585 1.554
4081000000.0 1.573 0.5124
4084000000.0 1.41 -0.8441
4088000000.0 0.2463 -1.641
4091000000.0 -1.061 -1.252
4094000000.0 -1.62 0.07791
4097000000.0 -0.9489 1.301
4100000000.0 0.4075 1.572
4103000000.0 1.428 0.704
4106000000.0 1.427 -0.6509
4109000000.0 0.4505 -1.519
4112000000.0 -0.8784 -1.296
4116000000.0 -1.488 -0.2114
4119000000.0 -1.093 1.007
4122000000.0 0.04656 1.477
4125000000.0 1.136 0.9719
4128000000.0 1.466 -0.2022
4131000000.0 0.7948 -1.24
4134000000.0 -0.4366 -1.413
4138000000.0 -1.378 -0.5981
4141000000.0 -1.335 0.6669
4144000000.0 -0.3731 1.453
4147000000.0 0.8656 1.23
4150000000.0 1.505 0.1188
4153000000.0 1.078 -1.041
4156000000.0 -0.1338 -1.503
4159000000.0 -1.218 -0.8618
4162000000.0 -1.467 0.4075
4166000000.0 -0.6348 1.362
4169000000.0 0.638 1.365
4172000000.0 1.417 0.4139
4175000000.0 1.249 -0.8533
4178000000.0 0.1638 -1.48
4181000000.0 -1.035 -1.09
4184000000.0 -1.47 0.08385
4188000000.0 -0.8652 1.249
4191000000.0 0.3778 1.471
4194000000.0 1.434 0.6559
4197000000.0 1.381 -0.6954
4200000000.0 0.373 -1.514
4203000000.0 -0.9437 -1.27
4206000000.0 -1.629 -0.02597
4209000000.0 -1.021 1.282
4212000000.0 0.3798 1.618
4216000000.0 1.518 0.7227
4219000000.0 1.502 -0.7738
4222000000.0 0.2841 -1.664
4225000000.0 -1.147 -1.236
4228000000.0 -1.655 0.1429
4231000000.0 -0.8496 1.414
4234000000.0 0.6073 1.542
4238000000.0 1.561 0.4922
4241000000.0 1.309 -0.9243
4244000000.0 0.03955 -1.586
4247000000.0 -1.172 -1.006
4250000000.0 -1.534 0.3603
4253000000.0 -0.6626 1.429
4256000000.0 0.7609 1.407
4259000000.0 1.481 0.2853
4262000000.0 1.122 -0.9676
4266000000.0 -0.1118 -1.469
4269000000.0 -1.249 -0.8668
4272000000.0 -1.394 0.4669
4275000000.0 -0.4706 1.393
4278000000.0 0.7566 1.259
4281000000.0 1.373 0.1333
4284000000.0 0.9876 -1.019
4288000000.0 -0.1523 -1.399
4291000000.0 -1.169 -0.7618
4294000000.0 -1.267 0.4452
4297000000.0 -0.4469 1.253
4300000000.0 0.683 1.144
4303000000.0 1.286 0.1925
4306000000.0 0.9831 -0.8364
4309000000.0 -0.009517 -1.285
4312000000.0 -0.9977 -0.8335
4316000000.0 -1.288 0.2152
4319000000.0 -0.6669 1.133
4322000000.0 0.4607 1.237
4325000000.0 1.222 0.461
4328000000.0 1.157 -0.6288
4331000000.0 0.2611 -1.333
4334000000.0 -0.8926 -1.074
4338000000.0 -1.378 -0.04036
4341000000.0 -0.9062 1.032
4344000000.0 0.2355 1.375
4347000000.0 1.236 0.7302
4350000000.0 1.345 -0.5274
4353000000.0 0.4679 -1.381
4356000000.0 -0.7493 -1.272
4359000000.0 -1.424 -0.211
4362000000.0 -1.087 0.9918
4366000000.0 0.03871 1.465
4369000000.0 1.17 0.8857
4372000000.0 1.43 -0.3086
4375000000.0 0.7046 -1.296
4378000000.0 -0.5829 -1.396
4381000000.0 -1.451 -0.4398
4384000000.0 -1.265 0.8694
4388000000.0 -0.144 1.552
4391000000.0 1.108 1.102
4394000000.0 1.574 -0.2087
4397000000.0 0.807 -1.322
4400000000.0 -0.5419 -1.501
4403000000.0 -1.487 -0.5281
4406000000.0 -1.339 0.855
4409000000.0 -0.1423 1.561
4412000000.0 1.163 1.049
4416000000.0 1.552 -0.2404
4419000000.0 0.7519 -1.32
4422000000.0 -0.571 -1.407
4425000000.0 -1.409 -0.4274
4428000000.0 -1.205 0.872
4431000000.0 -0.03066 1.461
4434000000.0 1.105 0.9196
4438000000.0 1.376 -0.2934
4441000000.0 0.6093 -1.243
4444000000.0 -0.616 -1.224
4447000000.0 -1.333 -0.2658
4450000000.0 -1.008 0.8471
4453000000.0 0.07435 1.318
4456000000.0 1.054 0.706
4459000000.0 1.184 -0.4057
4462000000.0 0.4323 -1.185
4466000000.0 -0.6782 -1.06
4469000000.0 -1.216 -0.1253
4472000000.0 -0.8383 0.8924
4475000000.0 0.1932 1.175
4478000000.0 1.051 0.5958
4481000000.0 1.075 -0.4508
4484000000.0 0.2788 -1.143
4488000000.0 -0.6464 -0.9127
4491000000.0 -1.161 -0.02825
4494000000.0 -0.7188 0.8855
4497000000.0 0.1985 1.119
4500000000.0 0.9687 0.5373
4503000000.0 1.005 -0.4331
4506000000.0 0.3131 -1.039
4509000000.0 -0.6541 -0.9029
4512000000.0 -1.115 -0.0546
4516000000.0 -0.7797 0.8298
4519000000.0 0.1638 1.133
4522000000.0 1.003 0.598
4525000000.0 1.049 -0.3614
4528000000.0 0.3718 -1.088
4531000000.0 -0.5873 -1.01
4534000000.0 -1.155 -0.1794
4538000000.0 -0.8809 0.7845
4541000000.0 0.05397 1.181
4544000000.0 0.9536 0.6943
4547000000.0 1.173 -0.2701
4550000000.0 0.546 -1.083
4553000000.0 -0.4992 -1.122
4556000000.0 -1.15 -0.3536
4559000000.0 -1.006 0.6774
4562000000.0 -0.15 1.246
4566000000.0 0.8655 0.9223
4569000000.0 1.272 -0.07553
4572000000.0 0.7441 -1.018
4575000000.0 -0.3267 -1.251
4578000000.0 -1.201 -0.601
4581000000.0 -1.178 0.5522
4584000000.0 -0.3621 1.286
4588000000.0 0.7515 1.11
4591000000.0 1.353 0.1355
4594000000.0 0.9581 -0.9694
4597000000.0 -0.1188 -1.385
4600000000.0 -1.152 -0.7511
4603000000.0 -1.341 0.3969
4606000000.0 -0.5355 1.281
4609000000.0 0.6547 1.236
4612000000.0 1.362 0.2691
4616000000.0 1.074 -0.8952
4619000000.0 -0.006394 -1.396
4622000000.0 -1.117 -0.8702
4625000000.0 -1.368 0.3018
4628000000.0 -0.5978 1.257
4631000000.0 0.5846 1.268
4634000000.0 1.338 0.3411
4638000000.0 1.105 -0.8016
4641000000.0 0.06751 -1.383
4644000000.0 -0.9986 -0.8823
4647000000.0 -1.313 0.2447
4650000000.0 -0.6628 1.147
4653000000.0 0.5169 1.221
4656000000.0 1.239 0.3366
4659000000.0 1.024 -0.7742
4662000000.0 0.03445 -1.258
4666000000.0 -0.9308 -0.8193
4669000000.0 -1.195 0.2628
4672000000.0 -0.5301 1.062
4675000000.0 0.4618 1.053
4678000000.0 1.102 0.2927
4681000000.0 0.9355 -0.6759
4684000000.0 0.04963 -1.126
4688000000.0 -0.8207 -0.7137
4691000000.0 -1.088 0.2572
4694000000.0 -0.4965 0.9799
4697000000.0 0.4324 0.9946
4700000000.0 1.06 0.2819
4703000000.0 0.8793 -0.6758
4706000000.0 -0.002453 -1.051
4709000000.0 -0.8423 -0.6867
4712000000.0 -1.086 0.2214
4716000000.0 -0.4681 0.9672
4719000000.0 0.4509 0.9427
4722000000.0 1.041 0.2394
4725000000.0 0.8052 -0.6479
4728000000.0 0.01691 -1.038
4731000000.0 -0.8184 -0.6622
4734000000.0 -1.017 0.2473
4738000000.0 -0.4736 0.9183
4741000000.0 0.3821 0.9648
4744000000.0 1.03 0.3113
4747000000.0 0.9055 -0.5643
4750000000.0 0.11 -1.06
4753000000.0 -0.7491 -0.7945
4756000000.0 -1.125 0.04711
4759000000.0 -0.6592 0.8875
4762000000.0 0.2746 1.053
4766000000.0 0.9975 0.463
4769000000.0 1.029 -0.4637
4772000000.0 0.2893 -1.118
4775000000.0 -0.6809 -0.9523
4778000000.0 -1.175 -0.1287
4781000000.0 -0.8326 0.8368
4784000000.0 0.1072 1.182
4788000000.0 0.9668 0.6999
4791000000.0 1.192 -0.2645
4794000000.0 0.5192 -1.118
4797000000.0 -0.4989 -1.143
4800000000.0 -1.201 -0.3313
4803000000.0 -1.023 0.6934
4806000000.0 -0.1629 1.234
4809000000.0 0.8822 0.909
4812000000.0 1.281 -0.05915
4816000000.0 0.7829 -1.066
4819000000.0 -0.2836 -1.296
4822000000.0 -1.205 -0.6409
4825000000.0 -1.229 0.5633
4828000000.0 -0.3874 1.321
4831000000.0 0.7901 1.125
4834000000.0 1.38 0.1117
4838000000.0 0.9966 -1.011
4841000000.0 -0.1532 -1.382
4844000000.0 -1.172 -0.7494
4847000000.0 -1.331 0.4445
4850000000.0 -0.4966 1.287
4853000000.0 0.6731 1.205
4856000000.0 1.352 0.2283
4859000000.0 1.026 -0.9061
4862000000.0 -0.08736 -1.325
4866000000.0 -1.101 -0.8297
4869000000.0 -1.291 0.322
4872000000.0 -0.5398 1.201
4875000000.0 0.5703 1.166
4878000000.0 1.246 0.2878
4881000000.0 0.9996 -0.8016
4884000000.0 0.01126 -1.261
4888000000.0 -0.9133 -0.7765
4891000000.0 -1.202 0.2384
4894000000.0 -0.5546 1.042
4897000000.0 0.4868 1.065
4900000000.0 1.102 0.293
4903000000.0 0.8946 -0.684
4906000000.0 0.05438 -1.069
4909000000.0 -0.7711 -0.7133
4912000000.0 -1.037 0.157
4916000000.0 -0.5107 0.9032
4919000000.0 0.3548 0.9371
4922000000.0 0.9335 0.3158
4925000000.0 0.8188 -0.5384
4928000000.0 0.1146 -0.9548
4931000000.0 -0.6404 -0.7003
4934000000.0 -0.9316 0.08187
4938000000.0 -0.527 0.7811
4941000000.0 0.2461 0.9187
4944000000.0 0.8454 0.3779
4947000000.0 0.8442 -0.4335
4950000000.0 0.2116 -0.9171
4953000000.0 -0.5914 -0.7609
4956000000.0 -0.943 -0.001975
4959000000.0 -0.6303 0.7538
4962000000.0 0.1571 0.9725
4966000000.0 0.8733 0.4817
4969000000.0 0.9167 -0.3919
4972000000.0 0.2852 -0.9452
4975000000.0 -0.5823 -0.8677
4978000000.0 -1.03 -0.08616
4981000000.0 -0.7374 0.7095
4984000000.0 0.09654 1.042
4988000000.0 0.8545 0.604
4991000000.0 1.033 -0.301
4994000000.0 0.4387 -0.9752
4997000000.0 -0.4852 -0.9873
5000000000.0 -1.087 -0.2781
5003000000.0 -0.9186 0.6772
5006000000.0 -0.03969 1.188
5009000000.0 0.8667 0.7969
5012000000.0 1.184 -0.1962
5016000000.0 0.6402 -1.057
5019000000.0 -0.4279 -1.156
5022000000.0 -1.191 -0.4363
5025000000.0 -1.078 0.6389
5028000000.0 -0.2175 1.269
5031000000.0 0.8621 0.9884
5034000000.0 1.292 -0.02617
5038000000.0 0.7747 -1.021
5041000000.0 -0.2826 -1.276
5044000000.0 -1.116 -0.5778
5047000000.0 -1.182 0.5196
5050000000.0 -0.3904 1.226
5053000000.0 0.7171 1.112
5056000000.0 1.28 0.1783
5059000000.0 0.9617 -0.8497
5062000000.0 -0.05418 -1.3
5066000000.0 -1.053 -0.7742
5069000000.0 -1.267 0.2794
5072000000.0 -0.5773 1.164
5075000000.0 0.5256 1.156
5078000000.0 1.243 0.3208
5081000000.0 1.037 -0.6594
5084000000.0 0.1206 -1.238
5088000000.0 -0.8626 -0.8715
5091000000.0 -1.206 0.103
5094000000.0 -0.6743 0.977
5097000000.0 0.3224 1.116
5100000000.0 1.064 0.5021
5103000000.0 0.9967 -0.5209
5106000000.0 0.2874 -1.059
5109000000.0 -0.6211 -0.9051
5112000000.0 -1.073 -0.07465
5116000000.0 -0.7457 0.765
5119000000.0 0.07707 1.049
5122000000.0 0.8735 0.593
5125000000.0 1.004 -0.2815
5128000000.0 0.4194 -0.9605
5131000000.0 -0.4689 -0.9073
5134000000.0 -0.9955 -0.2378
5138000000.0 -0.7779 0.5963
5141000000.0 -0.04029 0.9768
5144000000.0 0.6943 0.6691
5147000000.0 0.954 -0.1707
5150000000.0 0.4753 -0.8044
5153000000.0 -0.3128 -0.8693
5156000000.0 -0.9058 -0.26
5159000000.0 -0.7887 0.4821
5162000000.0 -0.0792 0.9163
5166000000.0 0.6198 0.631
5169000000.0 0.9166 -0.0707
5172000000.0 0.4945 -0.7515
5175000000.0 -0.2431 -0.8596
5178000000.0 -0.8415 -0.3247
5181000000.0 -0.7863 0.4412
5184000000.0 -0.1464 0.8992
5188000000.0 0.5958 0.6766
5191000000.0 0.9134 -0.02253
5194000000.0 0.5369 -0.7637
5197000000.0 -0.2527 -0.9172
5200000000.0 -0.8606 -0.3615
5203000000.0 -0.8257 0.4488
5206000000.0 -0.1586 0.9522
5209000000.0 0.6569 0.7295
5212000000.0 0.975 -0.009497
5216000000.0 0.5755 -0.7517
5219000000.0 -0.2187 -0.9584
5222000000.0 -0.8863 -0.4053
5225000000.0 -0.9482 0.4396
5228000000.0 -0.2347 0.9801
5231000000.0 0.6243 0.7981
5234000000.0 1.028 0.03476
5238000000.0 0.6697 -0.7613
5241000000.0 -0.1613 -1.046
5244000000.0 -0.9191 -0.5372
5247000000.0 -0.9937 0.3531
5250000000.0 -0.3678 1.004
5253000000.0 0.5609 0.9365
5256000000.0 1.056 0.1657
5259000000.0 0.8169 -0.7152
5262000000.0 -0.03297 -1.071
5266000000.0 -0.8273 -0.6849
5269000000.0 -1.077 0.2085
5272000000.0 -0.5409 0.9654
5275000000.0 0.4052 1.012
5278000000.0 1.055 0.3669
5281000000.0 0.9463 -0.5692
5284000000.0 0.2206 -1.084
5288000000.0 -0.7232 -0.8653
5291000000.0 -1.103 -0.02837
5294000000.0 -0.7366 0.8268
5297000000.0 0.1627 1.108
5300000000.0 0.9367 0.6232
5303000000.0 1.079 -0.3341
5306000000.0 0.4406 -1.031
5309000000.0 -0.5506 -1.022
5312000000.0 -1.103 -0.2834
5316000000.0 -0.9066 0.6934
5319000000.0 -0.07843 1.161
5322000000.0 0.8299 0.7913
5325000000.0 1.132 -0.1496
5328000000.0 0.6128 -0.9893
5331000000.0 -0.3371 -1.092
5334000000.0 -1.027 -0.4279
5338000000.0 -0.991 0.5496
5341000000.0 -0.2113 1.078
5344000000.0 0.6825 0.8857
5347000000.0 1.11 0.03165
5350000000.0 0.7049 -0.8503
5353000000.0 -0.2116 -1.098
5356000000.0 -0.9615 -0.5335
5359000000.0 -1.015 0.3931
5362000000.0 -0.315 1.028
5366000000.0 0.5896 0.9011
5369000000.0 1.076 0.08625
5372000000.0 0.7068 -0.7652
5375000000.0 -0.1501 -0.9893
5378000000.0 -0.881 -0.4772
5381000000.0 -0.9505 0.4048
5384000000.0 -0.2897 0.9458
5388000000.0 0.5455 0.7857
5391000000.0 0.9475 0.05521
5394000000.0 0.6357 -0.7112
5397000000.0 -0.1506 -0.939
5400000000.0 -0.7987 -0.44
5403000000.0 -0.8289 0.364
5406000000.0 -0.2705 0.8604
5409000000.0 0.5161 0.7147
5412000000.0 0.883 0.04731
5416000000.0 0.594 -0.6697
5419000000.0 -0.1505 -0.8215
5422000000.0 -0.7815 -0.3978
5425000000.0 -0.7786 0.3573
5428000000.0 -0.2203 0.8056
5431000000.0 0.5317 0.7129
5434000000.0 0.8624 0.03619
5438000000.0 0.5966 -0.6499
5441000000.0 -0.1685 -0.8535
5444000000.0 -0.747 -0.4276
5447000000.0 -0.8154 0.3473
5450000000.0 -0.2345 0.8599
5453000000.0 0.5364 0.7359
5456000000.0 0.9096 0.08819
5459000000.0 0.6168 -0.6504
5462000000.0 -0.1254 -0.8679
5466000000.0 -0.7681 -0.4781
5469000000.0 -0.8634 0.261
5472000000.0 -0.3757 0.852
5475000000.0 0.4151 0.7822
5478000000.0 0.9627 0.1961
5481000000.0 0.73 -0.5455
5484000000.0 0.06456 -0.9508
5488000000.0 -0.7294 -0.6248
5491000000.0 -0.994 0.1348
5494000000.0 -0.5158 0.8642
5497000000.0 0.3367 0.9399
5500000000.0 0.9133 0.393
5503000000.0 0.87 -0.4663
5506000000.0 0.214 -0.9896
5509000000.0 -0.6335 -0.804
5512000000.0 -1.025 -0.04449
5516000000.0 -0.6705 0.7484
5519000000.0 0.1418 1.028
5522000000.0 0.8712 0.5802
5525000000.0 1.017 -0.3146
5528000000.0 0.3892 -0.9907
5531000000.0 -0.4792 -0.9176
5534000000.0 -1.015 -0.2978
5538000000.0 -0.8487 0.6535
5541000000.0 -0.04912 1.091
5544000000.0 0.7852 0.7272
5547000000.0 1.068 -0.1479
5550000000.0 0.5797 -0.9178
5553000000.0 -0.2879 -1.026
5556000000.0 -0.9719 -0.3623
5559000000.0 -0.9388 0.5328
5562000000.0 -0.1827 1.026
5566000000.0 0.6417 0.7644
5569000000.0 1.054 -0.01442
5572000000.0 0.6784 -0.805
5575000000.0 -0.216 -0.9832
5578000000.0 -0.8614 -0.4866
5581000000.0 -0.9443 0.3543
5584000000.0 -0.2929 0.9292
5588000000.0 0.5189 0.8435
5591000000.0 0.9782 0.1308
5594000000.0 0.7087 -0.6532
5597000000.0 -0.0474 -0.9419
5600000000.0 -0.7373 -0.5347
5603000000.0 -0.8596 0.254
5606000000.0 -0.3515 0.8234
5609000000.0 0.4219 0.8404
5612000000.0 0.882 0.1672
5616000000.0 0.6951 -0.5383
5619000000.0 -0.02604 -0.879
5622000000.0 -0.693 -0.5371
5625000000.0 -0.835 0.1828
5628000000.0 -0.3884 0.7526
5631000000.0 0.3463 0.7763
5634000000.0 0.7924 0.2099
5638000000.0 0.6835 -0.5111
5641000000.0 0.04977 -0.843
5644000000.0 -0.6343 -0.5606
5647000000.0 -0.8358 0.1352
5650000000.0 -0.3973 0.7569
5653000000.0 0.319 0.7518
5656000000.0 0.8086 0.2187
5659000000.0 0.6873 -0.5097
5662000000.0 0.01322 -0.8687
5666000000.0 -0.6293 -0.5598
5669000000.0 -0.8792 0.1731
5672000000.0 -0.4373 0.8099
5675000000.0 0.3519 0.8444
5678000000.0 0.8845 0.2341
5681000000.0 0.7522 -0.5168
5684000000.0 0.07049 -0.9569
5688000000.0 -0.6907 -0.6519
5691000000.0 -0.962 0.124
5694000000.0 -0.5124 0.839
5697000000.0 0.3322 0.9277
5700000000.0 0.9136 0.3192
5703000000.0 0.8526 -0.5171
5706000000.0 0.09771 -0.9896
5709000000.0 -0.6965 -0.7462
5712000000.0 -1.014 0.04771
5716000000.0 -0.6204 0.8364
5719000000.0 0.2704 0.9933
5722000000.0 0.9786 0.4434
5725000000.0 0.958 -0.4818
5728000000.0 0.289 -1.034
5731000000.0 -0.6583 -0.8642
5734000000.0 -1.09 -0.0372
5738000000.0 -0.7372 0.8283
5741000000.0 0.135 1.076
5744000000.0 0.9443 0.5966
5747000000.0 1.055 -0.3279
5750000000.0 0.4075 -1.036
5753000000.0 -0.515 -0.9543
5756000000.0 -1.09 -0.2173
5759000000.0 -0.8648 0.6692
5762000000.0 0.01204 1.098
5766000000.0 0.8141 0.7094
5769000000.0 1.068 -0.1783
5772000000.0 0.5953 -0.9473
5775000000.0 -0.3915 -1.047
5778000000.0 -1.037 -0.4214
5781000000.0 -0.9478 0.4998
5784000000.0 -0.2184 1.091
5788000000.0 0.6781 0.852
5791000000.0 1.1 0.02265
5794000000.0 0.6861 -0.8291
5797000000.0 -0.2125 -1.072
5800000000.0 -0.9377 -0.5189
5803000000.0 -0.9927 0.3863
5806000000.0 -0.3311 0.9974
5809000000.0 0.598 0.8894
5812000000.0 1.041 0.1539
5816000000.0 0.7654 -0.706
5819000000.0 -0.09673 -0.9999
5822000000.0 -0.7947 -0.6157
5825000000.0 -0.9564 0.2324
5828000000.0 -0.3841 0.918
5831000000.0 0.4433 0.8878
5834000000.0 0.9539 0.2127
5838000000.0 0.743 -0.6498
5841000000.0 -0.00643 -0.9776
5844000000.0 -0.7471 -0.5989
5847000000.0 -0.9229 0.1878
5850000000.0 -0.4454 0.8513
5853000000.0 0.3632 0.8577
5856000000.0 0.89 0.2428
5859000000.0 0.7245 -0.5502
5862000000.0 0.05326 -0.9163
5866000000.0 -0.7236 -0.594
5869000000.0 -0.8521 0.173
5872000000.0 -0.4125 0.7879
5875000000.0 0.3359 0.8143
5878000000.0 0.8588 0.2744
5881000000.0 0.7088 -0.5012
5884000000.0 0.07096 -0.8718
5888000000.0 -0.5984 -0.6124
5891000000.0 -0.8616 0.1173
5894000000.0 -0.4256 0.7605
5897000000.0 0.2981 0.8155
5900000000.0 0.834 0.2709
5903000000.0 0.766 -0.4673
5906000000.0 0.08462 -0.839
5909000000.0 -0.6088 -0.6501
5912000000.0 -0.8857 0.08503
5916000000.0 -0.5036 0.7027
5919000000.0 0.2444 0.8437
5922000000.0 0.7841 0.3529
5925000000.0 0.7815 -0.3798
5928000000.0 0.1835 -0.8636
5931000000.0 -0.533 -0.6782
5934000000.0 -0.9034 -0.02615
5938000000.0 -0.5852 0.6147
5941000000.0 0.1207 0.8673
5944000000.0 0.7711 0.4611
5947000000.0 0.8836 -0.3007
5950000000.0 0.3078 -0.8205
5953000000.0 -0.4273 -0.7886
5956000000.0 -0.9164 -0.1812
5959000000.0 -0.7129 0.5653
5962000000.0 0.01241 0.9158
5966000000.0 0.676 0.6017
5969000000.0 0.9373 -0.1584
5972000000.0 0.5118 -0.8701
5975000000.0 -0.313 -0.8982
5978000000.0 -0.8728 -0.3362
5981000000.0 -0.8404 0.5088
5984000000.0 -0.1655 0.9818
5988000000.0 0.6433 0.7346
5991000000.0 0.9522 -0.005007
5994000000.0 0.628 -0.7997
5997000000.0 -0.1967 -0.9894
6000000000.0 -0.9041 -0.4795
6003000000.0 -0.932 0.3984
6006000000.0 -0.2961 0.9496
6009000000.0 0.5494 0.8388
6012000000.0 0.9914 0.1041
6016000000.0 0.7276 -0.6852
6019000000.0 -0.08616 -1.006
6022000000.0 -0.8358 -0.5508
6025000000.0 -0.954 0.2932
6028000000.0 -0.3891 0.9187
6031000000.0 0.4569 0.8432
6034000000.0 0.9477 0.188
6038000000.0 0.7579 -0.6388
6041000000.0 -0.003495 -0.9503
6044000000.0 -0.7433 -0.579
6047000000.0 -0.921 0.2165
6050000000.0 -0.4358 0.8573
6053000000.0 0.3871 0.8507
6056000000.0 0.8966 0.2394
6059000000.0 0.74 -0.5375
6062000000.0 0.0599 -0.9177
6066000000.0 -0.6962 -0.6512
6069000000.0 -0.8763 0.1384
6072000000.0 -0.4523 0.7529
6075000000.0 0.3222 0.7871
6078000000.0 0.8376 0.2804
6081000000.0 0.741 -0.5018
6084000000.0 0.06496 -0.8961
6088000000.0 -0.6065 -0.6228
6091000000.0 -0.8436 0.08984
6094000000.0 -0.4687 0.7314
6097000000.0 0.2835 0.81
6100000000.0 0.7981 0.3143
6103000000.0 0.7497 -0.4338
6106000000.0 0.1166 -0.8423
6109000000.0 -0.5882 -0.6318
6112000000.0 -0.891 0.06285
6116000000.0 -0.5057 0.6872
6119000000.0 0.2374 0.834
6122000000.0 0.7944 0.3514
6125000000.0 0.729 -0.4182
6128000000.0 0.145 -0.8299
6131000000.0 -0.5751 -0.6843
6134000000.0 -0.9012 0.0351
6138000000.0 -0.5372 0.6647
6141000000.0 0.2046 0.8982
6144000000.0 0.7813 0.3963
6147000000.0 0.7825 -0.3803
6150000000.0 0.2277 -0.8839
6153000000.0 -0.5433 -0.7605
6156000000.0 -0.9001 -0.0199
6159000000.0 -0.6354 0.6369
6162000000.0 0.1286 0.9109
6166000000.0 0.8149 0.486
6169000000.0 0.8694 -0.3355
6172000000.0 0.285 -0.8506
6175000000.0 -0.4773 -0.7781
6178000000.0 -0.9395 -0.1151
6181000000.0 -0.69 0.6723
6184000000.0 0.06321 0.9541
6188000000.0 0.7845 0.5834
6191000000.0 0.9009 -0.2562
6194000000.0 0.3857 -0.829
6197000000.0 -0.4193 -0.8449
6200000000.0 -0.9108 -0.2117
6203000000.0 -0.7509 0.571
6206000000.0 -0.06937 0.9469
6209000000.0 0.6947 0.6106
6212000000.0 0.9405 -0.1473
6216000000.0 0.4739 -0.7741
6219000000.0 -0.3424 -0.8948
6222000000.0 -0.8577 -0.3236
6225000000.0 -0.8016 0.4698
6228000000.0 -0.1585 0.9243
6231000000.0 0.5895 0.6899
6234000000.0 0.892 -0.007656
6238000000.0 0.5432 -0.6672
6241000000.0 -0.1948 -0.8679
6244000000.0 -0.7671 -0.4142
6247000000.0 -0.797 0.3105
6250000000.0 -0.2648 0.813
6253000000.0 0.4233 0.6619
6256000000.0 0.8094 0.1126
6259000000.0 0.6258 -0.573
6262000000.0 -0.05622 -0.8162
6266000000.0 -0.6561 -0.4871
