! Created with skrf 1.8.0 (http://scikit-rf.org).
# Hz S RI R 50.0 
!freq ReS11 ImS11
4000000000.0 -0.149 -1.503
4003000000.0 -1.301 -0.7907
4006000000.0 -1.414 0.5276
4009000000.0 -0.5207 1.396
4012000000.0 0.7958 1.324
4016000000.0 1.523 0.1629
4019000000.0 1.123 -1.01
4022000000.0 -0.1465 -1.527
4025000000.0 -1.283 -0.8592
4028000000.0 -1.499 0.4821
4031000000.0 -0.5236 1.492
4034000000.0 0.8253 1.407
4038000000.0 1.651 0.1748
4041000000.0 1.197 -1.13
4044000000.0 -0.1067 -1.597
4047000000.0 -1.379 -0.9193
4050000000.0 -1.533 0.49
4053000000.0 -0.5656 1.508
4056000000.0 0.7556 1.421
4059000000.0 1.592 0.2826
4062000000.0 1.275 -1.027
4066000000.0 -0.02826 -1.614
4069000000.0 -1.251 -1.047
4072000000.0 -1.613 0.3234
4075000000.0 -0.7889 1.413
4078000000.0 0.5815 1.534
4081000000.0 1.595 0.5469
4084000000.0 1.391 -0.885
4088000000.0 0.2067 -1.659
4091000000.0 -1.148 -1.233
4094000000.0 -1.6 0.098
4097000000.0 -0.9679 1.342
4100000000.0 0.4074 1.567
4103000000.0 1.442 0.6672
4106000000.0 1.435 -0.6592
4109000000.0 0.4022 -1.517
4112000000.0 -0.8567 -1.263
4116000000.0 -1.506 -0.1858
4119000000.0 -1.109 1.017
4122000000.0 0.05797 1.474
4125000000.0 1.152 0.9481
4128000000.0 1.444 -0.2491
4131000000.0 0.7557 -1.247
4134000000.0 -0.4667 -1.42
4138000000.0 -1.35 -0.5678
4141000000.0 -1.356 0.6448
4144000000.0 -0.37 1.45
4147000000.0 0.8965 1.216
4150000000.0 1.498 0.1192
4153000000.0 1.044 -1.096
4156000000.0 -0.136 -1.5
4159000000.0 -1.248 -0.878
4162000000.0 -1.463 0.4225
4166000000.0 -0.6276 1.346
4169000000.0 0.6239 1.359
4172000000.0 1.456 0.3786
4175000000.0 1.218 -0.8663
4178000000.0 0.1182 -1.503
4181000000.0 -1.072 -1.055
4184000000.0 -1.519 0.1721
4188000000.0 -0.8651 1.253
4191000000.0 0.414 1.494
4194000000.0 1.386 0.6348
4197000000.0 1.368 -0.7361
4200000000.0 0.3431 -1.534
4203000000.0 -0.9742 -1.25
4206000000.0 -1.647 -0.01755
4209000000.0 -1.001 1.296
4212000000.0 0.412 1.614
4216000000.0 1.546 0.6643
4219000000.0 1.501 -0.7954
4222000000.0 0.2363 -1.673
4225000000.0 -1.161 -1.189
4228000000.0 -1.667 0.16
4231000000.0 -0.8519 1.433
4234000000.0 0.6219 1.545
4238000000.0 1.592 0.4588
4241000000.0 1.319 -0.9812
4244000000.0 0.02139 -1.596
4247000000.0 -1.216 -0.9788
4250000000.0 -1.518 0.3842
4253000000.0 -0.6439 1.454
4256000000.0 0.7429 1.323
4259000000.0 1.509 0.2652
4262000000.0 1.128 -1.037
4266000000.0 -0.1619 -1.479
4269000000.0 -1.24 -0.7896
4272000000.0 -1.371 0.5004
4275000000.0 -0.4443 1.409
4278000000.0 0.7968 1.226
4281000000.0 1.437 0.1416
4284000000.0 1.002 -1.068
4288000000.0 -0.1842 -1.38
4291000000.0 -1.185 -0.707
4294000000.0 -1.253 0.4607
4297000000.0 -0.4599 1.265
4300000000.0 0.6991 1.132
4303000000.0 1.289 0.1602
4306000000.0 0.9672 -0.8741
4309000000.0 -0.02115 -1.283
4312000000.0 -0.99 -0.8142
4316000000.0 -1.286 0.2459
4319000000.0 -0.6264 1.146
4322000000.0 0.4522 1.228
4325000000.0 1.248 0.4604
4328000000.0 1.155 -0.6892
4331000000.0 0.2456 -1.324
4334000000.0 -0.8724 -1.051
4338000000.0 -1.413 0.03219
4341000000.0 -0.8681 1.082
4344000000.0 0.2768 1.414
4347000000.0 1.256 0.7134
4350000000.0 1.367 -0.4968
4353000000.0 0.4397 -1.348
4356000000.0 -0.7975 -1.217
4359000000.0 -1.428 -0.1794
4362000000.0 -1.06 1.001
4366000000.0 0.08624 1.473
4369000000.0 1.196 0.8678
4372000000.0 1.429 -0.3454
4375000000.0 0.648 -1.368
4378000000.0 -0.6139 -1.387
4381000000.0 -1.461 -0.3974
4384000000.0 -1.276 0.8803
4388000000.0 -0.1243 1.538
4391000000.0 1.18 1.05
4394000000.0 1.577 -0.2118
4397000000.0 0.7792 -1.409
4400000000.0 -0.5636 -1.511
4403000000.0 -1.509 -0.4206
4406000000.0 -1.304 0.8941
4409000000.0 -0.07699 1.581
4412000000.0 1.166 1.024
4416000000.0 1.554 -0.2731
4419000000.0 0.7151 -1.349
4422000000.0 -0.6484 -1.322
4425000000.0 -1.454 -0.36
4428000000.0 -1.148 0.9492
4431000000.0 -0.01579 1.473
4434000000.0 1.112 0.8792
4438000000.0 1.353 -0.3441
4441000000.0 0.5535 -1.287
4444000000.0 -0.6642 -1.211
4447000000.0 -1.347 -0.2297
4450000000.0 -0.9618 0.8907
4453000000.0 0.1192 1.284
4456000000.0 1.084 0.695
4459000000.0 1.207 -0.4432
4462000000.0 0.3869 -1.204
4466000000.0 -0.6948 -1.012
4469000000.0 -1.213 -0.05333
4472000000.0 -0.7612 0.9059
4475000000.0 0.2232 1.185
4478000000.0 1.057 0.5083
4481000000.0 1.044 -0.5157
4484000000.0 0.2471 -1.122
4488000000.0 -0.7232 -0.9055
4491000000.0 -1.158 -0.001936
4494000000.0 -0.7183 0.8882
4497000000.0 0.2491 1.103
4500000000.0 1.027 0.5108
4503000000.0 1.014 -0.4725
4506000000.0 0.258 -1.054
4509000000.0 -0.6672 -0.8801
4512000000.0 -1.092 -0.05923
4516000000.0 -0.7435 0.823
4519000000.0 0.2083 1.115
4522000000.0 0.9889 0.5663
4525000000.0 1.075 -0.4399
4528000000.0 0.35 -1.121
4531000000.0 -0.6187 -0.9684
4534000000.0 -1.183 -0.126
4538000000.0 -0.8273 0.804
4541000000.0 0.08458 1.156
4544000000.0 0.9803 0.711
4547000000.0 1.164 -0.3271
4550000000.0 0.5235 -1.088
4553000000.0 -0.5084 -1.085
4556000000.0 -1.19 -0.3275
4559000000.0 -1.024 0.6976
4562000000.0 -0.09509 1.228
4566000000.0 0.8967 0.901
4569000000.0 1.255 -0.1147
4572000000.0 0.7418 -1.057
4575000000.0 -0.3712 -1.253
4578000000.0 -1.192 -0.5388
4581000000.0 -1.187 0.5819
4584000000.0 -0.3226 1.319
4588000000.0 0.804 1.088
4591000000.0 1.333 0.06009
4594000000.0 0.9483 -0.9967
4597000000.0 -0.1507 -1.375
4600000000.0 -1.182 -0.7179
4603000000.0 -1.347 0.4785
4606000000.0 -0.5021 1.304
4609000000.0 0.7052 1.216
4612000000.0 1.361 0.234
4616000000.0 1.047 -0.9336
4619000000.0 -0.04506 -1.391
4622000000.0 -1.138 -0.8172
4625000000.0 -1.359 0.3101
4628000000.0 -0.6019 1.268
4631000000.0 0.609 1.247
4634000000.0 1.346 0.3016
4638000000.0 1.055 -0.8213
4641000000.0 0.007357 -1.343
4644000000.0 -1.03 -0.8671
4647000000.0 -1.31 0.2922
4650000000.0 -0.6013 1.164
4653000000.0 0.5683 1.19
4656000000.0 1.273 0.281
4659000000.0 1.011 -0.7773
4662000000.0 0.009411 -1.278
4666000000.0 -0.9604 -0.7846
4669000000.0 -1.171 0.3058
4672000000.0 -0.5208 1.099
4675000000.0 0.5226 1.053
4678000000.0 1.126 0.2374
4681000000.0 0.871 -0.7162
4684000000.0 0.009464 -1.104
4688000000.0 -0.9195 -0.6817
4691000000.0 -1.056 0.2569
4694000000.0 -0.4711 1.008
4697000000.0 0.4776 0.9578
4700000000.0 1.095 0.1946
4703000000.0 0.7828 -0.7114
4706000000.0 -0.02621 -1.093
4709000000.0 -0.8841 -0.6447
4712000000.0 -1.031 0.2267
4716000000.0 -0.4325 0.9853
4719000000.0 0.4944 0.9566
4722000000.0 1.032 0.1858
4725000000.0 0.8061 -0.6909
4728000000.0 -0.007272 -1.057
4731000000.0 -0.8263 -0.6215
4734000000.0 -1.022 0.2294
4738000000.0 -0.4515 0.9184
4741000000.0 0.4089 0.9744
4744000000.0 1.011 0.328
4747000000.0 0.8674 -0.5855
4750000000.0 0.1018 -1.055
4753000000.0 -0.7786 -0.7704
4756000000.0 -1.1 0.0922
4759000000.0 -0.6284 0.9193
4762000000.0 0.2843 1.075
4766000000.0 1.066 0.4978
4769000000.0 1.033 -0.5066
4772000000.0 0.2677 -1.122
4775000000.0 -0.6652 -0.9469
4778000000.0 -1.186 -0.0664
4781000000.0 -0.837 0.8783
4784000000.0 0.1315 1.216
4788000000.0 1.005 0.6777
4791000000.0 1.151 -0.3513
4794000000.0 0.5042 -1.136
4797000000.0 -0.5263 -1.151
4800000000.0 -1.225 -0.3202
4803000000.0 -1.038 0.7409
4806000000.0 -0.1046 1.26
4809000000.0 0.8982 0.9143
4812000000.0 1.27 -0.09905
4816000000.0 0.7558 -1.076
4819000000.0 -0.332 -1.31
4822000000.0 -1.221 -0.5539
4825000000.0 -1.239 0.5708
4828000000.0 -0.336 1.356
4831000000.0 0.8264 1.121
4834000000.0 1.419 0.07893
4838000000.0 0.9323 -1.053
4841000000.0 -0.224 -1.392
4844000000.0 -1.212 -0.7326
4847000000.0 -1.302 0.4837
4850000000.0 -0.4639 1.319
4853000000.0 0.722 1.161
4856000000.0 1.364 0.1966
4859000000.0 0.9682 -0.9631
4862000000.0 -0.09605 -1.374
4866000000.0 -1.089 -0.768
4869000000.0 -1.279 0.3514
4872000000.0 -0.5393 1.191
4875000000.0 0.5898 1.143
4878000000.0 1.281 0.2363
4881000000.0 0.9658 -0.807
4884000000.0 -0.02878 -1.244
4888000000.0 -0.9865 -0.7373
4891000000.0 -1.181 0.2736
4894000000.0 -0.5103 1.06
4897000000.0 0.4922 1.033
4900000000.0 1.108 0.2911
4903000000.0 0.8622 -0.7182
4906000000.0 0.0267 -1.092
4909000000.0 -0.8119 -0.6843
4912000000.0 -1.022 0.1911
4916000000.0 -0.5134 0.8881
4919000000.0 0.4036 0.9262
4922000000.0 0.9325 0.2985
4925000000.0 0.8295 -0.5661
4928000000.0 0.1078 -0.9435
4931000000.0 -0.6547 -0.6748
4934000000.0 -0.9289 0.09198
4938000000.0 -0.521 0.7547
4941000000.0 0.2616 0.9176
4944000000.0 0.8748 0.3658
4947000000.0 0.8507 -0.456
4950000000.0 0.1881 -0.9498
4953000000.0 -0.6327 -0.7265
4956000000.0 -0.9546 -0.005891
4959000000.0 -0.616 0.7492
4962000000.0 0.1998 0.9637
4966000000.0 0.8809 0.4439
4969000000.0 0.9367 -0.4039
4972000000.0 0.2555 -0.9638
4975000000.0 -0.5827 -0.8329
4978000000.0 -1.007 -0.09421
4981000000.0 -0.722 0.7221
4984000000.0 0.1122 1.026
4988000000.0 0.8872 0.5986
4991000000.0 1.025 -0.3
4994000000.0 0.4211 -0.9977
4997000000.0 -0.5193 -0.9935
5000000000.0 -1.087 -0.2524
5003000000.0 -0.9097 0.7144
5006000000.0 -0.03654 1.176
5009000000.0 0.9086 0.7988
5012000000.0 1.207 -0.1924
5016000000.0 0.6032 -1.059
5019000000.0 -0.4587 -1.136
5022000000.0 -1.197 -0.408
5025000000.0 -1.076 0.6773
5028000000.0 -0.1517 1.272
5031000000.0 0.8616 0.9245
5034000000.0 1.285 -0.1009
5038000000.0 0.7657 -1.034
5041000000.0 -0.3156 -1.278
5044000000.0 -1.182 -0.56
5047000000.0 -1.196 0.542
5050000000.0 -0.327 1.251
5053000000.0 0.7316 1.073
5056000000.0 1.286 0.1539
5059000000.0 0.9554 -0.9016
5062000000.0 -0.07814 -1.304
5066000000.0 -1.035 -0.7702
5069000000.0 -1.21 0.3377
5072000000.0 -0.5566 1.193
5075000000.0 0.5376 1.146
5078000000.0 1.252 0.3273
5081000000.0 1.049 -0.7473
5084000000.0 0.09606 -1.207
5088000000.0 -0.9038 -0.8456
5091000000.0 -1.214 0.1265
5094000000.0 -0.6407 0.9772
5097000000.0 0.3548 1.097
5100000000.0 1.071 0.4459
5103000000.0 1.012 -0.5401
5106000000.0 0.2805 -1.072
5109000000.0 -0.6336 -0.9135
5112000000.0 -1.106 -0.07138
5116000000.0 -0.6952 0.8004
5119000000.0 0.1111 1.071
5122000000.0 0.8635 0.5733
5125000000.0 1.007 -0.3004
5128000000.0 0.3825 -0.9184
5131000000.0 -0.4547 -0.8883
5134000000.0 -0.9876 -0.2087
5138000000.0 -0.7774 0.6072
5141000000.0 0.007417 0.9724
5144000000.0 0.7376 0.6149
5147000000.0 0.938 -0.2055
5150000000.0 0.4295 -0.8244
5153000000.0 -0.3473 -0.8683
5156000000.0 -0.8809 -0.2244
5159000000.0 -0.7678 0.5101
5162000000.0 -0.09594 0.9272
5166000000.0 0.6475 0.6173
5169000000.0 0.8898 -0.1174
5172000000.0 0.4805 -0.7441
5175000000.0 -0.2938 -0.8632
5178000000.0 -0.8524 -0.3172
5181000000.0 -0.7897 0.4371
5184000000.0 -0.09204 0.9185
5188000000.0 0.6165 0.6574
5191000000.0 0.9155 -0.08554
5194000000.0 0.5016 -0.7885
5197000000.0 -0.3084 -0.8974
5200000000.0 -0.8648 -0.2953
5203000000.0 -0.8288 0.4892
5206000000.0 -0.1185 0.9309
5209000000.0 0.632 0.6949
5212000000.0 0.9627 -0.08111
5216000000.0 0.5769 -0.8197
5219000000.0 -0.2599 -0.968
5222000000.0 -0.9183 -0.3887
5225000000.0 -0.8984 0.4722
5228000000.0 -0.1952 1.019
5231000000.0 0.6455 0.783
5234000000.0 1.016 0.001518
5238000000.0 0.6723 -0.7885
5241000000.0 -0.1943 -1.013
5244000000.0 -0.921 -0.5025
5247000000.0 -0.9881 0.4094
5250000000.0 -0.3473 1.02
5253000000.0 0.5658 0.928
5256000000.0 1.08 0.1278
5259000000.0 0.8096 -0.7251
5262000000.0 -0.05752 -1.064
5266000000.0 -0.8303 -0.6788
5269000000.0 -1.074 0.2499
5272000000.0 -0.4753 1.003
5275000000.0 0.3894 1.01
5278000000.0 1.074 0.3083
5281000000.0 0.9364 -0.5773
5284000000.0 0.1843 -1.059
5288000000.0 -0.7162 -0.8104
5291000000.0 -1.114 0.01229
5294000000.0 -0.7073 0.8651
5297000000.0 0.2155 1.121
5300000000.0 0.989 0.5849
5303000000.0 1.054 -0.363
5306000000.0 0.4423 -1.094
5309000000.0 -0.5496 -0.9842
5312000000.0 -1.112 -0.2203
5316000000.0 -0.9333 0.6928
5319000000.0 -0.02302 1.158
5322000000.0 0.8379 0.7498
5325000000.0 1.115 -0.1532
5328000000.0 0.6036 -0.9971
5331000000.0 -0.3568 -1.083
5334000000.0 -1.033 -0.3898
5338000000.0 -0.9835 0.5771
5341000000.0 -0.1778 1.126
5344000000.0 0.7295 0.818
5347000000.0 1.157 -0.06727
5350000000.0 0.6876 -0.8687
5353000000.0 -0.2426 -1.08
5356000000.0 -0.9713 -0.4985
5359000000.0 -0.9639 0.4563
5362000000.0 -0.2545 1.047
5366000000.0 0.6317 0.8335
5369000000.0 1.07 0.07272
5372000000.0 0.6636 -0.789
5375000000.0 -0.1913 -0.9902
5378000000.0 -0.9138 -0.4757
5381000000.0 -0.9259 0.396
5384000000.0 -0.2535 0.9568
5388000000.0 0.6173 0.7763
5391000000.0 0.9663 0.008487
5394000000.0 0.5979 -0.7374
5397000000.0 -0.1895 -0.9102
5400000000.0 -0.8271 -0.4037
5403000000.0 -0.832 0.3937
5406000000.0 -0.165 0.8834
5409000000.0 0.5508 0.6684
5412000000.0 0.8795 0.001659
5416000000.0 0.5316 -0.6983
5419000000.0 -0.2036 -0.8548
5422000000.0 -0.7404 -0.3646
5425000000.0 -0.7666 0.3855
5428000000.0 -0.1821 0.8336
5431000000.0 0.5173 0.6932
5434000000.0 0.859 0.01147
5438000000.0 0.5676 -0.6739
5441000000.0 -0.2185 -0.8597
5444000000.0 -0.7966 -0.3881
5447000000.0 -0.7842 0.3743
5450000000.0 -0.2147 0.88
5453000000.0 0.5073 0.73
5456000000.0 0.8912 0.02451
5459000000.0 0.6052 -0.6641
5462000000.0 -0.1732 -0.9009
5466000000.0 -0.7782 -0.4434
5469000000.0 -0.8482 0.3064
5472000000.0 -0.3423 0.8492
5475000000.0 0.4591 0.8379
5478000000.0 0.9491 0.1819
5481000000.0 0.718 -0.6072
5484000000.0 -0.01823 -0.9555
5488000000.0 -0.7279 -0.6008
5491000000.0 -0.9831 0.1953
5494000000.0 -0.5013 0.8886
5497000000.0 0.3665 0.9587
5500000000.0 0.9646 0.357
5503000000.0 0.8672 -0.5184
5506000000.0 0.136 -0.9737
5509000000.0 -0.6717 -0.8032
5512000000.0 -1.054 -0.009379
5516000000.0 -0.6756 0.8199
5519000000.0 0.1794 1.007
5522000000.0 0.9171 0.5182
5525000000.0 0.9934 -0.3747
5528000000.0 0.3465 -1.008
5531000000.0 -0.5094 -0.9586
5534000000.0 -1.041 -0.2151
5538000000.0 -0.7979 0.6634
5541000000.0 -0.008013 1.054
5544000000.0 0.8035 0.6936
5547000000.0 1.029 -0.2036
5550000000.0 0.5064 -0.9387
5553000000.0 -0.3802 -1.014
5556000000.0 -1.025 -0.3306
5559000000.0 -0.9155 0.5202
5562000000.0 -0.1507 1.034
5566000000.0 0.708 0.7301
5569000000.0 1.027 -0.05273
5572000000.0 0.6224 -0.8109
5575000000.0 -0.2414 -0.9708
5578000000.0 -0.9033 -0.4234
5581000000.0 -0.9047 0.411
5584000000.0 -0.2267 0.9664
5588000000.0 0.5523 0.8094
5591000000.0 0.968 0.05947
5594000000.0 0.6462 -0.6793
5597000000.0 -0.1243 -0.9263
5600000000.0 -0.7824 -0.483
5603000000.0 -0.8694 0.3073
5606000000.0 -0.3139 0.8628
5609000000.0 0.4473 0.7827
5612000000.0 0.8725 0.1504
5616000000.0 0.618 -0.5927
5619000000.0 -0.0349 -0.8691
5622000000.0 -0.7031 -0.4915
5625000000.0 -0.8165 0.2405
5628000000.0 -0.3416 0.7856
5631000000.0 0.3933 0.743
5634000000.0 0.8472 0.1625
5638000000.0 0.6413 -0.551
5641000000.0 -0.0203 -0.8248
5644000000.0 -0.6652 -0.5302
5647000000.0 -0.8089 0.2151
5650000000.0 -0.366 0.7731
5653000000.0 0.3688 0.7635
5656000000.0 0.8271 0.1718
5659000000.0 0.6649 -0.5416
5662000000.0 -0.02764 -0.8456
5666000000.0 -0.6811 -0.5292
5669000000.0 -0.8819 0.1793
5672000000.0 -0.3771 0.813
5675000000.0 0.4302 0.8006
5678000000.0 0.8655 0.202
5681000000.0 0.7498 -0.5946
5684000000.0 0.007344 -0.935
5688000000.0 -0.7397 -0.617
5691000000.0 -0.95 0.1943
5694000000.0 -0.4348 0.8907
5697000000.0 0.3881 0.8969
5700000000.0 1.003 0.2706
5703000000.0 0.7909 -0.5544
5706000000.0 0.04867 -1.025
5709000000.0 -0.7299 -0.6937
5712000000.0 -1.071 0.1159
5716000000.0 -0.5628 0.9263
5719000000.0 0.3303 1.007
5722000000.0 0.9936 0.4094
5725000000.0 0.9433 -0.5377
5728000000.0 0.1739 -1.026
5731000000.0 -0.6918 -0.8119
5734000000.0 -1.101 0.007244
5738000000.0 -0.6826 0.85
5741000000.0 0.1962 1.055
5744000000.0 0.9661 0.5333
5747000000.0 1.008 -0.4106
5750000000.0 0.374 -1.082
5753000000.0 -0.5718 -0.9399
5756000000.0 -1.08 -0.1542
5759000000.0 -0.8322 0.7382
5762000000.0 0.000437 1.093
5766000000.0 0.8798 0.6765
5769000000.0 1.079 -0.2325
5772000000.0 0.501 -0.9959
5775000000.0 -0.3967 -1.019
5778000000.0 -1.03 -0.3039
5781000000.0 -0.9296 0.5836
5784000000.0 -0.1404 1.099
5788000000.0 0.7694 0.7785
5791000000.0 1.065 -0.06285
5794000000.0 0.6039 -0.8874
5797000000.0 -0.2619 -1.05
5800000000.0 -0.9965 -0.464
5803000000.0 -0.9587 0.4928
5806000000.0 -0.2565 1.004
5809000000.0 0.6122 0.8298
5812000000.0 1.022 0.07906
5816000000.0 0.7168 -0.7339
5819000000.0 -0.141 -1.011
5822000000.0 -0.8326 -0.509
5825000000.0 -0.9357 0.3643
5828000000.0 -0.3345 0.9148
5831000000.0 0.5262 0.836
5834000000.0 0.9599 0.1355
5838000000.0 0.6988 -0.6122
5841000000.0 -0.05071 -0.9427
5844000000.0 -0.8014 -0.5522
5847000000.0 -0.9158 0.2762
5850000000.0 -0.3699 0.8919
5853000000.0 0.4253 0.8403
5856000000.0 0.9106 0.1499
5859000000.0 0.6835 -0.6261
5862000000.0 -0.06737 -0.9443
5866000000.0 -0.7242 -0.5496
5869000000.0 -0.8655 0.2425
5872000000.0 -0.3596 0.8099
5875000000.0 0.4359 0.7768
5878000000.0 0.8599 0.1668
5881000000.0 0.694 -0.5496
5884000000.0 0.007508 -0.8787
5888000000.0 -0.6805 -0.5229
5891000000.0 -0.8545 0.2003
5894000000.0 -0.3597 0.7851
5897000000.0 0.3498 0.8042
5900000000.0 0.8443 0.2143
5903000000.0 0.675 -0.527
5906000000.0 0.06251 -0.8721
5909000000.0 -0.6497 -0.6035
5912000000.0 -0.8615 0.1457
5916000000.0 -0.4504 0.7375
5919000000.0 0.2776 0.8319
5922000000.0 0.82 0.2751
5925000000.0 0.7281 -0.4603
5928000000.0 0.1194 -0.8756
5931000000.0 -0.587 -0.6578
5934000000.0 -0.8946 0.03122
5938000000.0 -0.5294 0.7402
5941000000.0 0.1957 0.8563
5944000000.0 0.8362 0.3758
5947000000.0 0.8554 -0.3659
5950000000.0 0.2633 -0.8801
5953000000.0 -0.4744 -0.7738
5956000000.0 -0.9118 -0.1076
5959000000.0 -0.6633 0.6515
5962000000.0 0.04808 0.9222
5966000000.0 0.7874 0.6029
5969000000.0 0.896 -0.2594
5972000000.0 0.4262 -0.8756
5975000000.0 -0.3998 -0.8596
5978000000.0 -0.9286 -0.255
5981000000.0 -0.7969 0.5704
5984000000.0 -0.09911 1.015
5988000000.0 0.7014 0.7144
5991000000.0 1.001 -0.1038
5994000000.0 0.5985 -0.8246
5997000000.0 -0.2646 -0.9503
6000000000.0 -0.9386 -0.413
6003000000.0 -0.9005 0.4725
6006000000.0 -0.246 0.9629
6009000000.0 0.6351 0.8037
6012000000.0 1.008 0.01921
6016000000.0 0.6357 -0.7691
6019000000.0 -0.1824 -0.9846
6022000000.0 -0.8915 -0.4895
6025000000.0 -0.8881 0.353
6028000000.0 -0.2944 0.9335
6031000000.0 0.5324 0.8138
6034000000.0 0.9862 0.1112
6038000000.0 0.6711 -0.6999
6041000000.0 -0.09373 -0.9752
6044000000.0 -0.8074 -0.5303
6047000000.0 -0.8965 0.292
6050000000.0 -0.345 0.8813
6053000000.0 0.4311 0.8095
6056000000.0 0.9179 0.1368
6059000000.0 0.6575 -0.6107
6062000000.0 -0.05739 -0.8958
6066000000.0 -0.7333 -0.5043
6069000000.0 -0.8556 0.2394
6072000000.0 -0.3471 0.8314
6075000000.0 0.4076 0.7988
6078000000.0 0.8308 0.1592
6081000000.0 0.6952 -0.5442
6084000000.0 0.004073 -0.8564
6088000000.0 -0.6725 -0.5549
6091000000.0 -0.8288 0.1717
6094000000.0 -0.3866 0.7482
6097000000.0 0.3594 0.7774
6100000000.0 0.8135 0.2121
6103000000.0 0.6852 -0.5278
6106000000.0 0.02339 -0.8511
6109000000.0 -0.635 -0.573
6112000000.0 -0.8532 0.1302
6116000000.0 -0.4211 0.7576
6119000000.0 0.3293 0.8105
6122000000.0 0.8318 0.2562
6125000000.0 0.7414 -0.495
6128000000.0 0.0862 -0.851
6131000000.0 -0.6214 -0.601
6134000000.0 -0.8702 0.1187
6138000000.0 -0.4688 0.7477
6141000000.0 0.3195 0.8407
6144000000.0 0.8427 0.2894
6147000000.0 0.7689 -0.4848
6150000000.0 0.157 -0.8537
6153000000.0 -0.6309 -0.6744
6156000000.0 -0.9188 0.0246
6159000000.0 -0.5611 0.7293
6162000000.0 0.2252 0.9192
6166000000.0 0.8417 0.4325
6169000000.0 0.8638 -0.3964
6172000000.0 0.268 -0.9362
6175000000.0 -0.546 -0.7555
6178000000.0 -0.9424 -0.01613
6181000000.0 -0.6475 0.7193
6184000000.0 0.1278 0.9558
6188000000.0 0.8181 0.4724
6191000000.0 0.9024 -0.3627
6194000000.0 0.2904 -0.9089
6197000000.0 -0.521 -0.8149
6200000000.0 -0.9737 -0.1226
6203000000.0 -0.6981 0.6383
6206000000.0 0.08307 0.9358
6209000000.0 0.7449 0.547
6212000000.0 0.9068 -0.2288
6216000000.0 0.4176 -0.8341
6219000000.0 -0.4051 -0.8413
6222000000.0 -0.8985 -0.2182
6225000000.0 -0.734 0.5689
6228000000.0 -0.07144 0.9197
6231000000.0 0.6904 0.6119
6234000000.0 0.913 -0.1177
6238000000.0 0.4858 -0.7767
6241000000.0 -0.254 -0.8659
6244000000.0 -0.8063 -0.3008
6247000000.0 -0.7784 0.3913
6250000000.0 -0.1833 0.8127
6253000000.0 0.5145 0.6706
6256000000.0 0.8411 0.004141
6259000000.0 0.5326 -0.6258
6262000000.0 -0.1476 -0.8089
6266000000.0 -0.707 -0.4225
