! Created with skrf 1.8.0 (http://scikit-rf.org).
# Hz S RI R 50.0 
!freq ReS11 ImS11
4000000000.0 -0.2089 -1.5
4003000000.0 -1.269 -0.7989
4006000000.0 -1.446 0.4649
4009000000.0 -0.5489 1.424
4012000000.0 0.8103 1.285
4016000000.0 1.513 0.2216
4019000000.0 1.117 -1.053
4022000000.0 -0.1281 -1.544
4025000000.0 -1.294 -0.8452
4028000000.0 -1.496 0.5033
4031000000.0 -0.5856 1.512
4034000000.0 0.8066 1.407
4038000000.0 1.642 0.2338
4041000000.0 1.208 -1.159
4044000000.0 -0.1473 -1.644
4047000000.0 -1.337 -0.9643
4050000000.0 -1.534 0.4982
4053000000.0 -0.6356 1.516
4056000000.0 0.7747 1.413
4059000000.0 1.548 0.3419
4062000000.0 1.25 -0.9981
4066000000.0 0.01309 -1.645
4069000000.0 -1.226 -1.072
4072000000.0 -1.599 0.2568
4075000000.0 -0.785 1.389
4078000000.0 0.6042 1.56
4081000000.0 1.609 0.5344
4084000000.0 1.409 -0.8554
4088000000.0 0.2224 -1.631
4091000000.0 -1.122 -1.227
4094000000.0 -1.667 0.04748
4097000000.0 -0.9717 1.29
4100000000.0 0.3794 1.578
4103000000.0 1.469 0.6741
4106000000.0 1.449 -0.6528
4109000000.0 0.4122 -1.527
4112000000.0 -0.8496 -1.321
4116000000.0 -1.517 -0.2123
4119000000.0 -1.11 1.04
4122000000.0 0.008539 1.506
4125000000.0 1.141 0.9279
4128000000.0 1.439 -0.2472
4131000000.0 0.7904 -1.265
4134000000.0 -0.4586 -1.399
4138000000.0 -1.382 -0.5985
4141000000.0 -1.33 0.6555
4144000000.0 -0.3954 1.444
4147000000.0 0.8442 1.228
4150000000.0 1.473 0.1252
4153000000.0 1.079 -1.071
4156000000.0 -0.154 -1.518
4159000000.0 -1.203 -0.888
4162000000.0 -1.485 0.3811
4166000000.0 -0.6779 1.37
4169000000.0 0.6205 1.382
4172000000.0 1.43 0.3956
4175000000.0 1.255 -0.8279
4178000000.0 0.1577 -1.495
4181000000.0 -1.054 -1.087
4184000000.0 -1.538 0.1
4188000000.0 -0.8652 1.218
4191000000.0 0.3978 1.488
4194000000.0 1.395 0.688
4197000000.0 1.429 -0.6439
4200000000.0 0.4387 -1.504
4203000000.0 -0.9699 -1.291
4206000000.0 -1.628 -0.04276
4209000000.0 -1.069 1.245
4212000000.0 0.3483 1.625
4216000000.0 1.495 0.7423
4219000000.0 1.531 -0.7562
4222000000.0 0.3209 -1.654
4225000000.0 -1.134 -1.251
4228000000.0 -1.665 0.1446
4231000000.0 -0.8877 1.42
4234000000.0 0.5546 1.541
4238000000.0 1.587 0.511
4241000000.0 1.365 -0.9424
4244000000.0 0.06745 -1.604
4247000000.0 -1.209 -1.014
4250000000.0 -1.521 0.3253
4253000000.0 -0.6845 1.402
4256000000.0 0.6871 1.406
4259000000.0 1.514 0.2792
4262000000.0 1.144 -0.9791
4266000000.0 -0.08889 -1.532
4269000000.0 -1.243 -0.8775
4272000000.0 -1.448 0.4677
4275000000.0 -0.5046 1.418
4278000000.0 0.7575 1.239
4281000000.0 1.446 0.158
4284000000.0 0.9937 -0.9964
4288000000.0 -0.1295 -1.373
4291000000.0 -1.138 -0.7222
4294000000.0 -1.29 0.4227
4297000000.0 -0.483 1.261
4300000000.0 0.621 1.172
4303000000.0 1.29 0.248
4306000000.0 0.9749 -0.8584
4309000000.0 -0.002377 -1.319
4312000000.0 -0.9941 -0.868
4316000000.0 -1.287 0.2294
4319000000.0 -0.657 1.128
4322000000.0 0.4329 1.25
4325000000.0 1.237 0.498
4328000000.0 1.173 -0.6726
4331000000.0 0.2614 -1.307
4334000000.0 -0.8556 -1.066
4338000000.0 -1.395 -0.06258
4341000000.0 -0.9386 1.062
4344000000.0 0.2216 1.402
4347000000.0 1.223 0.7384
4350000000.0 1.353 -0.4858
4353000000.0 0.5022 -1.364
4356000000.0 -0.7344 -1.22
4359000000.0 -1.42 -0.2166
4362000000.0 -1.106 0.9566
4366000000.0 0.04232 1.424
4369000000.0 1.166 0.9068
4372000000.0 1.466 -0.2826
4375000000.0 0.6995 -1.324
4378000000.0 -0.5949 -1.394
4381000000.0 -1.47 -0.4432
4384000000.0 -1.284 0.8682
4388000000.0 -0.1903 1.555
4391000000.0 1.09 1.097
4394000000.0 1.578 -0.1546
4397000000.0 0.8829 -1.334
4400000000.0 -0.483 -1.488
4403000000.0 -1.483 -0.5191
4406000000.0 -1.354 0.8297
4409000000.0 -0.1852 1.584
4412000000.0 1.141 1.126
4416000000.0 1.52 -0.2157
4419000000.0 0.7477 -1.335
4422000000.0 -0.5692 -1.423
4425000000.0 -1.452 -0.4082
4428000000.0 -1.218 0.8272
4431000000.0 -0.06612 1.475
4434000000.0 1.114 0.9603
4438000000.0 1.385 -0.3003
4441000000.0 0.6423 -1.254
4444000000.0 -0.6031 -1.248
4447000000.0 -1.321 -0.2746
4450000000.0 -1.064 0.8517
4453000000.0 0.0491 1.342
4456000000.0 1.084 0.768
4459000000.0 1.232 -0.3763
4462000000.0 0.4759 -1.187
4466000000.0 -0.6507 -1.044
4469000000.0 -1.22 -0.1211
4472000000.0 -0.8357 0.9013
4475000000.0 0.1851 1.186
4478000000.0 1.03 0.6239
4481000000.0 1.078 -0.4496
4484000000.0 0.3044 -1.145
4488000000.0 -0.6545 -0.963
4491000000.0 -1.138 -0.05888
4494000000.0 -0.7444 0.8635
4497000000.0 0.2124 1.114
4500000000.0 0.9859 0.5532
4503000000.0 1.032 -0.3862
4506000000.0 0.3172 -1.065
4509000000.0 -0.6148 -0.9047
4512000000.0 -1.104 -0.06404
4516000000.0 -0.7338 0.7885
4519000000.0 0.1533 1.131
4522000000.0 0.9782 0.6243
4525000000.0 1.071 -0.355
4528000000.0 0.3968 -1.082
4531000000.0 -0.5857 -1.014
4534000000.0 -1.182 -0.1706
4538000000.0 -0.878 0.7881
4541000000.0 0.0573 1.164
4544000000.0 0.934 0.7147
4547000000.0 1.152 -0.267
4550000000.0 0.5851 -1.058
4553000000.0 -0.4746 -1.098
4556000000.0 -1.162 -0.3377
4559000000.0 -1.007 0.6577
4562000000.0 -0.142 1.228
4566000000.0 0.8639 0.9129
4569000000.0 1.259 -0.08248
4572000000.0 0.7729 -1.021
4575000000.0 -0.3252 -1.272
4578000000.0 -1.181 -0.5686
4581000000.0 -1.195 0.5295
4584000000.0 -0.382 1.273
4588000000.0 0.7701 1.107
4591000000.0 1.365 0.1501
4594000000.0 0.9849 -0.9506
4597000000.0 -0.1068 -1.409
4600000000.0 -1.162 -0.7889
4603000000.0 -1.332 0.3829
4606000000.0 -0.5918 1.278
4609000000.0 0.6231 1.245
4612000000.0 1.348 0.3321
4616000000.0 1.085 -0.8582
4619000000.0 -0.003338 -1.394
4622000000.0 -1.053 -0.8585
4625000000.0 -1.376 0.2501
4628000000.0 -0.6762 1.223
4631000000.0 0.5322 1.272
4634000000.0 1.344 0.3624
4638000000.0 1.135 -0.8046
4641000000.0 0.05941 -1.367
4644000000.0 -1.02 -0.9039
4647000000.0 -1.368 0.2
4650000000.0 -0.6619 1.157
4653000000.0 0.488 1.215
4656000000.0 1.258 0.3835
4659000000.0 1.048 -0.7476
4662000000.0 0.05637 -1.264
4666000000.0 -0.9168 -0.8279
4669000000.0 -1.226 0.214
4672000000.0 -0.5248 1.059
4675000000.0 0.4595 1.082
4678000000.0 1.11 0.3064
4681000000.0 0.9454 -0.6564
4684000000.0 0.0468 -1.125
4688000000.0 -0.8623 -0.7564
4691000000.0 -1.092 0.19
4694000000.0 -0.514 0.9983
4697000000.0 0.4276 0.9969
4700000000.0 1.106 0.2929
4703000000.0 0.8788 -0.6557
4706000000.0 0.02139 -1.096
4709000000.0 -0.8675 -0.6776
4712000000.0 -1.059 0.2248
4716000000.0 -0.4736 0.948
4719000000.0 0.4516 0.9726
4722000000.0 1.041 0.2466
4725000000.0 0.8401 -0.6498
4728000000.0 -0.003261 -1.06
4731000000.0 -0.7988 -0.7152
4734000000.0 -1.007 0.2101
4738000000.0 -0.5232 0.9017
4741000000.0 0.3614 0.9622
4744000000.0 1.013 0.3147
4747000000.0 0.9132 -0.5736
4750000000.0 0.1442 -1.049
4753000000.0 -0.7015 -0.8192
4756000000.0 -1.106 0.04657
4759000000.0 -0.6715 0.8608
4762000000.0 0.2755 1.13
4766000000.0 0.9953 0.5112
4769000000.0 1.05 -0.4677
4772000000.0 0.3189 -1.077
4775000000.0 -0.6646 -0.9786
4778000000.0 -1.204 -0.1408
4781000000.0 -0.8634 0.7991
4784000000.0 0.06687 1.223
4788000000.0 0.965 0.7408
4791000000.0 1.179 -0.3003
4794000000.0 0.5751 -1.102
4797000000.0 -0.4826 -1.155
4800000000.0 -1.208 -0.3764
4803000000.0 -1.056 0.6561
4806000000.0 -0.1633 1.246
4809000000.0 0.8677 0.9349
4812000000.0 1.293 -0.0603
4816000000.0 0.7899 -1.013
4819000000.0 -0.2652 -1.303
4822000000.0 -1.213 -0.6165
4825000000.0 -1.248 0.5543
4828000000.0 -0.3804 1.318
4831000000.0 0.7785 1.146
4834000000.0 1.403 0.1102
4838000000.0 0.9687 -1.005
4841000000.0 -0.1487 -1.395
4844000000.0 -1.155 -0.7399
4847000000.0 -1.338 0.4217
4850000000.0 -0.5048 1.289
4853000000.0 0.6658 1.214
4856000000.0 1.349 0.2515
4859000000.0 1.059 -0.8809
4862000000.0 -0.03041 -1.351
4866000000.0 -1.072 -0.8307
4869000000.0 -1.318 0.2863
4872000000.0 -0.5536 1.2
4875000000.0 0.5372 1.176
4878000000.0 1.282 0.2976
4881000000.0 1.015 -0.7863
4884000000.0 0.05655 -1.262
4888000000.0 -0.9422 -0.8002
4891000000.0 -1.184 0.2319
4894000000.0 -0.5534 1.067
4897000000.0 0.4485 1.042
4900000000.0 1.101 0.3153
4903000000.0 0.9131 -0.6427
4906000000.0 0.0584 -1.092
4909000000.0 -0.8044 -0.7252
4912000000.0 -1.045 0.1651
4916000000.0 -0.5308 0.8876
4919000000.0 0.3272 0.9702
4922000000.0 0.9221 0.3432
4925000000.0 0.8498 -0.4734
4928000000.0 0.1172 -0.9638
4931000000.0 -0.6442 -0.7479
4934000000.0 -0.9501 0.04097
4938000000.0 -0.5707 0.7623
4941000000.0 0.2323 0.9252
4944000000.0 0.8458 0.418
4947000000.0 0.8523 -0.4147
4950000000.0 0.2162 -0.9309
4953000000.0 -0.5647 -0.7743
4956000000.0 -0.9399 -0.02505
4959000000.0 -0.6285 0.7136
4962000000.0 0.1466 0.987
4966000000.0 0.8855 0.4793
4969000000.0 0.9442 -0.3576
4972000000.0 0.319 -0.9669
4975000000.0 -0.5391 -0.8391
4978000000.0 -0.9946 -0.1273
4981000000.0 -0.7516 0.7239
4984000000.0 0.09983 1.034
4988000000.0 0.8634 0.6027
4991000000.0 1.053 -0.2819
4994000000.0 0.4651 -0.974
4997000000.0 -0.47 -1.012
5000000000.0 -1.093 -0.2766
5003000000.0 -0.9175 0.6699
5006000000.0 -0.08188 1.18
5009000000.0 0.8782 0.7956
5012000000.0 1.188 -0.1488
5016000000.0 0.657 -1.034
5019000000.0 -0.3832 -1.174
5022000000.0 -1.165 -0.457
5025000000.0 -1.098 0.6013
5028000000.0 -0.2336 1.265
5031000000.0 0.824 0.9936
5034000000.0 1.264 7.449e-05
5038000000.0 0.805 -1.018
5041000000.0 -0.2672 -1.275
5044000000.0 -1.132 -0.5978
5047000000.0 -1.219 0.4521
5050000000.0 -0.3811 1.245
5053000000.0 0.7107 1.102
5056000000.0 1.301 0.186
5059000000.0 0.9784 -0.8799
5062000000.0 -0.02083 -1.287
5066000000.0 -1.021 -0.7934
5069000000.0 -1.249 0.3018
5072000000.0 -0.5983 1.174
5075000000.0 0.4695 1.216
5078000000.0 1.176 0.3757
5081000000.0 1.067 -0.7119
5084000000.0 0.1046 -1.229
5088000000.0 -0.8787 -0.8561
5091000000.0 -1.221 0.1123
5094000000.0 -0.6896 0.9627
5097000000.0 0.2795 1.113
5100000000.0 1.059 0.501
5103000000.0 1.039 -0.5016
5106000000.0 0.2821 -1.073
5109000000.0 -0.6719 -0.909
5112000000.0 -1.08 -0.116
5116000000.0 -0.8028 0.7488
5119000000.0 0.05777 1.075
5122000000.0 0.8156 0.599
5125000000.0 0.9959 -0.2574
5128000000.0 0.423 -0.9291
5131000000.0 -0.4314 -0.9265
5134000000.0 -0.9461 -0.2509
5138000000.0 -0.7592 0.6088
5141000000.0 -0.005825 0.9857
5144000000.0 0.7235 0.6502
5147000000.0 0.9463 -0.1403
5150000000.0 0.4884 -0.8212
5153000000.0 -0.3275 -0.8833
5156000000.0 -0.8838 -0.28
5159000000.0 -0.7996 0.4858
5162000000.0 -0.1021 0.8905
5166000000.0 0.6196 0.6562
5169000000.0 0.9048 -0.05617
5172000000.0 0.5059 -0.7481
5175000000.0 -0.2566 -0.8535
5178000000.0 -0.8488 -0.3577
5181000000.0 -0.7978 0.4297
5184000000.0 -0.177 0.8945
5188000000.0 0.6161 0.7227
5191000000.0 0.9214 -0.05244
5194000000.0 0.5716 -0.7207
5197000000.0 -0.2187 -0.9244
5200000000.0 -0.8658 -0.3724
5203000000.0 -0.8489 0.4434
5206000000.0 -0.2094 0.9371
5209000000.0 0.6256 0.7305
5212000000.0 0.9683 -0.02682
5216000000.0 0.594 -0.7792
5219000000.0 -0.2213 -0.9588
5222000000.0 -0.9112 -0.4543
5225000000.0 -0.9265 0.4183
5228000000.0 -0.273 0.9599
5231000000.0 0.6121 0.81
5234000000.0 1.039 0.04583
5238000000.0 0.6974 -0.7592
5241000000.0 -0.1526 -1.043
5244000000.0 -0.8962 -0.572
5247000000.0 -1.023 0.3368
5250000000.0 -0.3576 0.9857
5253000000.0 0.54 0.9151
5256000000.0 1.031 0.1743
5259000000.0 0.8466 -0.6742
5262000000.0 -0.01377 -1.083
5266000000.0 -0.8253 -0.7061
5269000000.0 -1.073 0.1808
5272000000.0 -0.5703 0.9542
5275000000.0 0.3517 1.043
5278000000.0 1.019 0.3957
5281000000.0 0.9615 -0.5261
5284000000.0 0.214 -1.05
5288000000.0 -0.6656 -0.8769
5291000000.0 -1.097 -0.0449
5294000000.0 -0.7712 0.8023
5297000000.0 0.1291 1.131
5300000000.0 0.9449 0.6164
5303000000.0 1.084 -0.319
5306000000.0 0.4696 -1.047
5309000000.0 -0.4936 -1.048
5312000000.0 -1.096 -0.2715
5316000000.0 -0.9341 0.6779
5319000000.0 -0.06987 1.165
5322000000.0 0.8506 0.7852
5325000000.0 1.152 -0.1374
5328000000.0 0.653 -0.9353
5331000000.0 -0.325 -1.124
5334000000.0 -1.048 -0.4541
5338000000.0 -1.022 0.5351
5341000000.0 -0.237 1.12
5344000000.0 0.6924 0.9261
5347000000.0 1.143 0.02896
5350000000.0 0.7451 -0.8435
5353000000.0 -0.191 -1.114
5356000000.0 -0.9578 -0.5246
5359000000.0 -1.018 0.4045
5362000000.0 -0.351 1.004
5366000000.0 0.5981 0.9092
5369000000.0 1.053 0.1199
5372000000.0 0.7219 -0.7415
5375000000.0 -0.1346 -1.046
5378000000.0 -0.9187 -0.5393
5381000000.0 -0.9415 0.3736
5384000000.0 -0.3235 0.9264
5388000000.0 0.5203 0.8348
5391000000.0 0.9641 0.07788
5394000000.0 0.643 -0.7012
5397000000.0 -0.1549 -0.9281
5400000000.0 -0.7904 -0.4655
5403000000.0 -0.8365 0.3113
5406000000.0 -0.2659 0.8776
5409000000.0 0.5107 0.7145
5412000000.0 0.8584 0.04104
5416000000.0 0.6015 -0.6607
5419000000.0 -0.1141 -0.8261
5422000000.0 -0.7354 -0.4499
5425000000.0 -0.8092 0.3129
5428000000.0 -0.232 0.8382
5431000000.0 0.513 0.7164
5434000000.0 0.8724 0.04403
5438000000.0 0.5905 -0.6544
5441000000.0 -0.1279 -0.8774
5444000000.0 -0.759 -0.434
5447000000.0 -0.8171 0.3295
5450000000.0 -0.2194 0.8447
5453000000.0 0.5151 0.7058
5456000000.0 0.8626 0.08274
5459000000.0 0.6243 -0.6189
5462000000.0 -0.06591 -0.9163
5466000000.0 -0.7557 -0.5033
5469000000.0 -0.883 0.242
5472000000.0 -0.3744 0.861
5475000000.0 0.4178 0.8351
5478000000.0 0.9211 0.2084
5481000000.0 0.7598 -0.5781
5484000000.0 0.01391 -0.9655
5488000000.0 -0.7128 -0.6902
5491000000.0 -0.9671 0.09453
5494000000.0 -0.5158 0.8449
5497000000.0 0.31 0.9671
5500000000.0 0.9186 0.4013
5503000000.0 0.8952 -0.4807
5506000000.0 0.2018 -0.9816
5509000000.0 -0.6113 -0.8236
5512000000.0 -1.046 -0.0347
5516000000.0 -0.7033 0.7228
5519000000.0 0.1199 1.038
5522000000.0 0.8647 0.5458
5525000000.0 1.01 -0.3011
5528000000.0 0.4021 -0.9662
5531000000.0 -0.4701 -0.914
5534000000.0 -1.034 -0.2703
5538000000.0 -0.8944 0.5855
5541000000.0 -0.06693 1.065
5544000000.0 0.7373 0.7575
5547000000.0 1.069 -0.09611
5550000000.0 0.5862 -0.888
5553000000.0 -0.3257 -1.035
5556000000.0 -0.9455 -0.4055
5559000000.0 -0.9382 0.4576
5562000000.0 -0.2373 1.022
5566000000.0 0.6264 0.8102
5569000000.0 1.025 0.04607
5572000000.0 0.6723 -0.7877
5575000000.0 -0.1615 -0.9864
5578000000.0 -0.86 -0.5185
5581000000.0 -0.9163 0.317
5584000000.0 -0.3523 0.9357
5588000000.0 0.4903 0.8392
5591000000.0 0.9702 0.1487
5594000000.0 0.7261 -0.646
5597000000.0 -0.01973 -0.961
5600000000.0 -0.7383 -0.5547
5603000000.0 -0.9164 0.202
5606000000.0 -0.4042 0.8204
5609000000.0 0.3908 0.8073
5612000000.0 0.8507 0.2092
5616000000.0 0.7014 -0.5333
5619000000.0 0.02806 -0.8628
5622000000.0 -0.6816 -0.581
5625000000.0 -0.8155 0.1909
5628000000.0 -0.4189 0.7403
5631000000.0 0.3278 0.78
5634000000.0 0.8044 0.2195
5638000000.0 0.6896 -0.4715
5641000000.0 0.03795 -0.8394
5644000000.0 -0.6032 -0.5687
5647000000.0 -0.8172 0.1288
5650000000.0 -0.4247 0.7483
5653000000.0 0.3151 0.7728
5656000000.0 0.8245 0.2723
5659000000.0 0.7066 -0.4821
5662000000.0 0.05511 -0.8539
5666000000.0 -0.6501 -0.5843
5669000000.0 -0.8535 0.1203
5672000000.0 -0.4332 0.7786
5675000000.0 0.3417 0.8441
5678000000.0 0.8589 0.2902
5681000000.0 0.7614 -0.5123
5684000000.0 0.0676 -0.94
5688000000.0 -0.6435 -0.6985
5691000000.0 -0.9262 0.0904
5694000000.0 -0.5043 0.8221
5697000000.0 0.3276 0.9107
5700000000.0 0.9534 0.3727
5703000000.0 0.8779 -0.4921
5706000000.0 0.1693 -1.01
5709000000.0 -0.7066 -0.7938
5712000000.0 -1.033 0.02385
5716000000.0 -0.6293 0.8193
5719000000.0 0.2337 0.9957
5722000000.0 0.953 0.4479
5725000000.0 0.9534 -0.4536
5728000000.0 0.2788 -1.028
5731000000.0 -0.6397 -0.9043
5734000000.0 -1.093 -0.07028
5738000000.0 -0.7466 0.8343
5741000000.0 0.1264 1.074
5744000000.0 0.9185 0.6537
5747000000.0 1.062 -0.3027
5750000000.0 0.4293 -1.005
5753000000.0 -0.484 -0.9754
5756000000.0 -1.1 -0.2411
5759000000.0 -0.8588 0.6674
5762000000.0 -0.05825 1.106
5766000000.0 0.7922 0.7451
5769000000.0 1.106 -0.1252
5772000000.0 0.591 -0.96
5775000000.0 -0.3254 -1.067
5778000000.0 -1.026 -0.4184
5781000000.0 -0.9522 0.5492
5784000000.0 -0.2154 1.088
5788000000.0 0.7029 0.8512
5791000000.0 1.139 0.02627
5794000000.0 0.7105 -0.7861
5797000000.0 -0.1654 -1.083
5800000000.0 -0.9311 -0.5309
5803000000.0 -1.0 0.3598
5806000000.0 -0.3416 1.02
5809000000.0 0.5398 0.9224
5812000000.0 1.049 0.1349
5816000000.0 0.7822 -0.6762
5819000000.0 -0.0424 -1.018
5822000000.0 -0.8019 -0.6081
5825000000.0 -1.01 0.2171
5828000000.0 -0.4436 0.9293
5831000000.0 0.3749 0.8838
5834000000.0 0.9793 0.2469
5838000000.0 0.7867 -0.5702
5841000000.0 0.06217 -0.969
5844000000.0 -0.7219 -0.6322
5847000000.0 -0.9416 0.1799
5850000000.0 -0.4791 0.8295
5853000000.0 0.3879 0.8956
5856000000.0 0.9021 0.2684
5859000000.0 0.7504 -0.5245
5862000000.0 0.08225 -0.9036
5866000000.0 -0.6734 -0.6305
5869000000.0 -0.9038 0.1449
5872000000.0 -0.4809 0.7587
5875000000.0 0.3291 0.8174
5878000000.0 0.8309 0.2621
5881000000.0 0.7395 -0.4883
5884000000.0 0.1087 -0.8981
5888000000.0 -0.6056 -0.5984
5891000000.0 -0.8623 0.05028
5894000000.0 -0.476 0.7427
5897000000.0 0.2427 0.8013
5900000000.0 0.7855 0.3258
5903000000.0 0.7841 -0.442
5906000000.0 0.1315 -0.8308
5909000000.0 -0.6026 -0.6464
5912000000.0 -0.8726 0.03814
5916000000.0 -0.5067 0.6962
5919000000.0 0.1806 0.8429
5922000000.0 0.7817 0.389
5925000000.0 0.7927 -0.3412
5928000000.0 0.1964 -0.8327
5931000000.0 -0.4984 -0.7371
5934000000.0 -0.8874 -0.07388
5938000000.0 -0.6272 0.6113
5941000000.0 0.09702 0.9077
5944000000.0 0.7389 0.4573
5947000000.0 0.8737 -0.2652
5950000000.0 0.3496 -0.8086
5953000000.0 -0.4377 -0.8204
5956000000.0 -0.8598 -0.1929
5959000000.0 -0.7352 0.5772
5962000000.0 -0.04503 0.9529
5966000000.0 0.6623 0.6187
5969000000.0 0.9073 -0.124
5972000000.0 0.5298 -0.7971
5975000000.0 -0.2848 -0.9181
5978000000.0 -0.9017 -0.3659
5981000000.0 -0.865 0.4676
5984000000.0 -0.1903 1.006
5988000000.0 0.598 0.7934
5991000000.0 0.9801 0.01965
5994000000.0 0.6554 -0.7397
5997000000.0 -0.1465 -0.9981
6000000000.0 -0.8486 -0.5174
6003000000.0 -0.9282 0.3508
6006000000.0 -0.3381 0.9202
6009000000.0 0.5245 0.857
6012000000.0 0.9879 0.1282
6016000000.0 0.7458 -0.6677
6019000000.0 -0.03027 -0.991
6022000000.0 -0.8088 -0.6099
6025000000.0 -0.9584 0.2368
6028000000.0 -0.4247 0.8943
6031000000.0 0.4144 0.8904
6034000000.0 0.9442 0.2292
6038000000.0 0.7995 -0.6128
6041000000.0 0.01471 -0.9748
6044000000.0 -0.7263 -0.6516
6047000000.0 -0.9171 0.1586
6050000000.0 -0.4486 0.848
6053000000.0 0.3304 0.8864
6056000000.0 0.8895 0.2944
6059000000.0 0.7816 -0.5102
6062000000.0 0.07695 -0.9193
6066000000.0 -0.6563 -0.6445
6069000000.0 -0.9094 0.1043
6072000000.0 -0.4847 0.7664
6075000000.0 0.2988 0.8587
6078000000.0 0.8393 0.2907
6081000000.0 0.7763 -0.4595
6084000000.0 0.12 -0.8552
6088000000.0 -0.5925 -0.6276
6091000000.0 -0.8704 0.04966
6094000000.0 -0.5155 0.6837
6097000000.0 0.2454 0.8389
6100000000.0 0.7815 0.306
6103000000.0 0.7817 -0.4044
6106000000.0 0.1619 -0.8632
6109000000.0 -0.5459 -0.6556
6112000000.0 -0.904 0.005785
6116000000.0 -0.5334 0.6836
6119000000.0 0.245 0.8215
6122000000.0 0.7626 0.3676
6125000000.0 0.8145 -0.3949
6128000000.0 0.1937 -0.8365
6131000000.0 -0.5404 -0.708
6134000000.0 -0.888 -0.05634
6138000000.0 -0.5629 0.6519
6141000000.0 0.1526 0.87
6144000000.0 0.7769 0.444
6147000000.0 0.8353 -0.3303
6150000000.0 0.2628 -0.856
6153000000.0 -0.4955 -0.7515
6156000000.0 -0.8932 -0.09732
6159000000.0 -0.6474 0.6584
6162000000.0 0.05702 0.9153
6166000000.0 0.7728 0.5009
6169000000.0 0.8761 -0.2977
6172000000.0 0.3597 -0.867
6175000000.0 -0.4431 -0.8331
6178000000.0 -0.9235 -0.1659
6181000000.0 -0.7379 0.6207
6184000000.0 0.004649 0.9547
6188000000.0 0.7315 0.6221
6191000000.0 0.9431 -0.1938
6194000000.0 0.4346 -0.8275
6197000000.0 -0.3609 -0.8597
6200000000.0 -0.926 -0.2826
6203000000.0 -0.7761 0.5308
6206000000.0 -0.07591 0.9405
6209000000.0 0.6619 0.6437
6212000000.0 0.9335 -0.08698
6216000000.0 0.534 -0.7723
6219000000.0 -0.2304 -0.8683
6222000000.0 -0.8674 -0.35
6225000000.0 -0.8032 0.4125
6228000000.0 -0.2168 0.8909
6231000000.0 0.543 0.7211
6234000000.0 0.9014 0.0382
6238000000.0 0.6102 -0.6603
6241000000.0 -0.142 -0.831
6244000000.0 -0.75 -0.4329
6247000000.0 -0.8134 0.2938
6250000000.0 -0.2775 0.7887
6253000000.0 0.4024 0.7526
6256000000.0 0.8259 0.1413
6259000000.0 0.6413 -0.5269
6262000000.0 -0.003214 -0.8493
6266000000.0 -0.6174 -0.5401
6269000000.0 -0.7783 0.117
