! Created with skrf 1.8.0 (http://scikit-rf.org).
# Hz S RI R 50.0 
!freq ReS11 ImS11
4000000000.0 -0.2025 -1.459
4003000000.0 -1.308 -0.7949
4006000000.0 -1.423 0.4732
4009000000.0 -0.5115 1.427
4012000000.0 0.7871 1.31
4016000000.0 1.494 0.2121
4019000000.0 1.101 -1.051
4022000000.0 -0.1427 -1.576
4025000000.0 -1.316 -0.9125
4028000000.0 -1.554 0.4726
4031000000.0 -0.588 1.532
4034000000.0 0.8306 1.43
4038000000.0 1.619 0.2457
4041000000.0 1.22 -1.163
4044000000.0 -0.1135 -1.633
4047000000.0 -1.373 -0.9284
4050000000.0 -1.604 0.4849
4053000000.0 -0.5809 1.468
4056000000.0 0.7653 1.433
4059000000.0 1.558 0.3518
4062000000.0 1.254 -1.01
4066000000.0 0.02608 -1.616
4069000000.0 -1.258 -1.06
4072000000.0 -1.633 0.2812
4075000000.0 -0.7768 1.377
4078000000.0 0.5829 1.539
4081000000.0 1.566 0.5321
4084000000.0 1.373 -0.8699
4088000000.0 0.2349 -1.631
4091000000.0 -1.098 -1.23
4094000000.0 -1.637 0.07058
4097000000.0 -0.9677 1.32
4100000000.0 0.3635 1.58
4103000000.0 1.458 0.6777
4106000000.0 1.443 -0.6872
4109000000.0 0.431 -1.508
4112000000.0 -0.8757 -1.27
4116000000.0 -1.457 -0.1685
4119000000.0 -1.124 0.9967
4122000000.0 0.03577 1.541
4125000000.0 1.125 0.987
4128000000.0 1.438 -0.2272
4131000000.0 0.7988 -1.244
4134000000.0 -0.4626 -1.405
4138000000.0 -1.367 -0.5739
4141000000.0 -1.313 0.651
4144000000.0 -0.386 1.447
4147000000.0 0.8777 1.222
4150000000.0 1.544 0.1312
4153000000.0 1.062 -1.101
4156000000.0 -0.1283 -1.524
4159000000.0 -1.283 -0.9107
4162000000.0 -1.45 0.3861
4166000000.0 -0.6438 1.397
4169000000.0 0.6293 1.354
4172000000.0 1.431 0.4062
4175000000.0 1.22 -0.8418
4178000000.0 0.1513 -1.493
4181000000.0 -1.086 -1.068
4184000000.0 -1.494 0.1013
4188000000.0 -0.9249 1.211
4191000000.0 0.3867 1.472
4194000000.0 1.399 0.6359
4197000000.0 1.409 -0.688
4200000000.0 0.3776 -1.512
4203000000.0 -1.025 -1.265
4206000000.0 -1.621 -0.02047
4209000000.0 -1.019 1.289
4212000000.0 0.3815 1.625
4216000000.0 1.496 0.7155
4219000000.0 1.504 -0.7836
4222000000.0 0.2961 -1.665
4225000000.0 -1.115 -1.259
4228000000.0 -1.708 0.1766
4231000000.0 -0.9128 1.396
4234000000.0 0.5671 1.56
4238000000.0 1.583 0.5055
4241000000.0 1.3 -0.9592
4244000000.0 0.08645 -1.586
4247000000.0 -1.254 -1.021
4250000000.0 -1.518 0.3379
4253000000.0 -0.6763 1.431
4256000000.0 0.7193 1.377
4259000000.0 1.519 0.2926
4262000000.0 1.128 -0.9983
4266000000.0 -0.1263 -1.516
4269000000.0 -1.269 -0.8299
4272000000.0 -1.435 0.445
4275000000.0 -0.4836 1.374
4278000000.0 0.7865 1.257
4281000000.0 1.424 0.2254
4284000000.0 1.04 -1.026
4288000000.0 -0.1457 -1.361
4291000000.0 -1.168 -0.7395
4294000000.0 -1.309 0.4109
4297000000.0 -0.4835 1.264
4300000000.0 0.6383 1.15
4303000000.0 1.319 0.2102
4306000000.0 1.001 -0.8562
4309000000.0 -0.02029 -1.283
4312000000.0 -0.9739 -0.8315
4316000000.0 -1.297 0.2437
4319000000.0 -0.6754 1.102
4322000000.0 0.4335 1.217
4325000000.0 1.232 0.444
4328000000.0 1.165 -0.6382
4331000000.0 0.2454 -1.337
4334000000.0 -0.8428 -1.07
4338000000.0 -1.368 -0.07522
4341000000.0 -0.9018 1.078
4344000000.0 0.2504 1.392
4347000000.0 1.253 0.7157
4350000000.0 1.373 -0.4902
4353000000.0 0.4915 -1.346
4356000000.0 -0.747 -1.233
4359000000.0 -1.387 -0.2439
4362000000.0 -1.073 0.9673
4366000000.0 0.05659 1.462
4369000000.0 1.156 0.9099
4372000000.0 1.474 -0.3037
4375000000.0 0.676 -1.315
4378000000.0 -0.5848 -1.375
4381000000.0 -1.459 -0.4433
4384000000.0 -1.271 0.8687
4388000000.0 -0.1408 1.526
4391000000.0 1.118 1.122
4394000000.0 1.557 -0.16
4397000000.0 0.8598 -1.325
4400000000.0 -0.5484 -1.513
4403000000.0 -1.494 -0.4975
4406000000.0 -1.339 0.8606
4409000000.0 -0.133 1.621
4412000000.0 1.133 1.086
4416000000.0 1.55 -0.2373
4419000000.0 0.7862 -1.36
4422000000.0 -0.5904 -1.435
4425000000.0 -1.452 -0.3852
4428000000.0 -1.181 0.8818
4431000000.0 -0.01384 1.448
4434000000.0 1.097 0.9292
4438000000.0 1.407 -0.2738
4441000000.0 0.6138 -1.276
4444000000.0 -0.611 -1.227
4447000000.0 -1.314 -0.2709
4450000000.0 -1.004 0.8476
4453000000.0 0.04426 1.347
4456000000.0 1.092 0.7497
4459000000.0 1.212 -0.382
4462000000.0 0.4406 -1.182
4466000000.0 -0.6528 -1.06
4469000000.0 -1.238 -0.07245
4472000000.0 -0.8273 0.9094
4475000000.0 0.178 1.188
4478000000.0 1.032 0.5969
4481000000.0 1.055 -0.4734
4484000000.0 0.3077 -1.104
4488000000.0 -0.6883 -0.9173
4491000000.0 -1.134 -0.03421
4494000000.0 -0.7652 0.8563
4497000000.0 0.1804 1.12
4500000000.0 1.025 0.5383
4503000000.0 1.016 -0.4023
4506000000.0 0.2963 -1.051
4509000000.0 -0.6505 -0.8956
4512000000.0 -1.141 -0.05997
4516000000.0 -0.7525 0.81
4519000000.0 0.1468 1.101
4522000000.0 0.9935 0.6078
4525000000.0 1.06 -0.3871
4528000000.0 0.3858 -1.102
4531000000.0 -0.5921 -0.9873
4534000000.0 -1.172 -0.1715
4538000000.0 -0.8837 0.822
4541000000.0 0.05021 1.208
4544000000.0 0.9636 0.707
4547000000.0 1.158 -0.2587
4550000000.0 0.5291 -1.086
4553000000.0 -0.4729 -1.116
4556000000.0 -1.175 -0.3062
4559000000.0 -1.04 0.6931
4562000000.0 -0.1329 1.278
4566000000.0 0.8777 0.9065
4569000000.0 1.281 -0.0618
4572000000.0 0.7721 -1.036
4575000000.0 -0.2955 -1.294
4578000000.0 -1.171 -0.584
4581000000.0 -1.214 0.5295
4584000000.0 -0.3502 1.284
4588000000.0 0.7717 1.127
4591000000.0 1.368 0.1369
4594000000.0 0.9664 -0.9618
4597000000.0 -0.1445 -1.383
4600000000.0 -1.159 -0.7697
4603000000.0 -1.3 0.3897
4606000000.0 -0.5488 1.293
4609000000.0 0.6545 1.257
4612000000.0 1.368 0.3035
4616000000.0 1.085 -0.9057
4619000000.0 0.006505 -1.392
4622000000.0 -1.09 -0.8979
4625000000.0 -1.38 0.3183
4628000000.0 -0.6411 1.242
4631000000.0 0.5673 1.283
4634000000.0 1.358 0.3797
4638000000.0 1.092 -0.798
4641000000.0 0.06544 -1.375
4644000000.0 -0.9938 -0.9088
4647000000.0 -1.331 0.2847
4650000000.0 -0.6231 1.151
4653000000.0 0.5309 1.184
4656000000.0 1.266 0.3223
4659000000.0 1.032 -0.7425
4662000000.0 0.04104 -1.259
4666000000.0 -0.9427 -0.8241
4669000000.0 -1.186 0.2244
4672000000.0 -0.5464 1.07
4675000000.0 0.4843 1.076
4678000000.0 1.123 0.2764
4681000000.0 0.9066 -0.6706
4684000000.0 0.03246 -1.128
4688000000.0 -0.8519 -0.7095
4691000000.0 -1.095 0.1933
4694000000.0 -0.4871 0.9878
4697000000.0 0.449 1.008
4700000000.0 1.033 0.2734
4703000000.0 0.8756 -0.6707
4706000000.0 -0.01031 -1.12
4709000000.0 -0.8574 -0.6863
4712000000.0 -1.032 0.2445
4716000000.0 -0.451 0.963
4719000000.0 0.482 0.962
4722000000.0 1.055 0.2049
4725000000.0 0.8231 -0.6513
4728000000.0 0.02216 -1.053
4731000000.0 -0.7946 -0.655
4734000000.0 -1.044 0.2108
4738000000.0 -0.501 0.9326
4741000000.0 0.3961 0.9908
4744000000.0 1.008 0.3122
4747000000.0 0.8952 -0.5935
4750000000.0 0.1066 -1.039
4753000000.0 -0.7458 -0.8003
4756000000.0 -1.079 0.07648
4759000000.0 -0.666 0.9483
4762000000.0 0.2953 1.104
4766000000.0 1.037 0.5243
4769000000.0 1.055 -0.4703
4772000000.0 0.3288 -1.112
4775000000.0 -0.6569 -0.9545
4778000000.0 -1.187 -0.1344
4781000000.0 -0.8473 0.8292
4784000000.0 0.1021 1.206
4788000000.0 0.9658 0.6948
4791000000.0 1.174 -0.2976
4794000000.0 0.5489 -1.102
4797000000.0 -0.4913 -1.151
4800000000.0 -1.226 -0.3708
4803000000.0 -1.019 0.6868
4806000000.0 -0.1786 1.227
4809000000.0 0.8578 0.9404
4812000000.0 1.272 -0.05979
4816000000.0 0.8051 -1.055
4819000000.0 -0.3028 -1.287
4822000000.0 -1.197 -0.5823
4825000000.0 -1.215 0.547
4828000000.0 -0.3747 1.317
4831000000.0 0.8027 1.133
4834000000.0 1.366 0.09991
4838000000.0 0.9674 -0.9893
4841000000.0 -0.1657 -1.394
4844000000.0 -1.166 -0.7432
4847000000.0 -1.35 0.4369
4850000000.0 -0.4949 1.288
4853000000.0 0.7069 1.209
4856000000.0 1.371 0.2207
4859000000.0 1.032 -0.8926
4862000000.0 -0.0513 -1.352
4866000000.0 -1.062 -0.7974
4869000000.0 -1.286 0.3157
4872000000.0 -0.5522 1.206
4875000000.0 0.5835 1.181
4878000000.0 1.249 0.269
4881000000.0 1.014 -0.7965
4884000000.0 0.007716 -1.241
4888000000.0 -0.9594 -0.7816
4891000000.0 -1.192 0.2408
4894000000.0 -0.516 1.067
4897000000.0 0.4812 1.047
4900000000.0 1.125 0.291
4903000000.0 0.9114 -0.6386
4906000000.0 0.03219 -1.066
4909000000.0 -0.7885 -0.7374
4912000000.0 -1.029 0.153
4916000000.0 -0.5152 0.8804
4919000000.0 0.3522 0.9451
4922000000.0 0.9527 0.3338
4925000000.0 0.8231 -0.5079
4928000000.0 0.118 -0.9561
4931000000.0 -0.6367 -0.696
4934000000.0 -0.9601 0.04955
4938000000.0 -0.5575 0.7527
4941000000.0 0.2137 0.9361
4944000000.0 0.8526 0.3695
4947000000.0 0.8561 -0.3983
4950000000.0 0.1683 -0.9155
4953000000.0 -0.5781 -0.753
4956000000.0 -0.9631 -0.01821
4959000000.0 -0.6552 0.7218
4962000000.0 0.1655 0.9719
4966000000.0 0.8711 0.4849
4969000000.0 0.9313 -0.3813
4972000000.0 0.2957 -0.951
4975000000.0 -0.5665 -0.8354
4978000000.0 -1.014 -0.1121
4981000000.0 -0.73 0.7171
4984000000.0 0.08978 1.046
4988000000.0 0.8632 0.6051
4991000000.0 1.02 -0.2968
4994000000.0 0.442 -0.98
4997000000.0 -0.4913 -1.01
5000000000.0 -1.081 -0.2639
5003000000.0 -0.9141 0.7104
5006000000.0 -0.05915 1.18
5009000000.0 0.875 0.7645
5012000000.0 1.211 -0.1841
5016000000.0 0.6627 -1.059
5019000000.0 -0.4082 -1.18
5022000000.0 -1.164 -0.4317
5025000000.0 -1.1 0.6209
5028000000.0 -0.2205 1.255
5031000000.0 0.8262 0.9734
5034000000.0 1.286 -0.01698
5038000000.0 0.8265 -1.012
5041000000.0 -0.2779 -1.247
5044000000.0 -1.145 -0.6517
5047000000.0 -1.197 0.4897
5050000000.0 -0.4076 1.23
5053000000.0 0.6751 1.105
5056000000.0 1.305 0.2018
5059000000.0 0.9518 -0.8651
5062000000.0 -0.05835 -1.273
5066000000.0 -1.033 -0.7775
5069000000.0 -1.259 0.2767
5072000000.0 -0.5756 1.138
5075000000.0 0.5201 1.172
5078000000.0 1.248 0.3519
5081000000.0 1.054 -0.7071
5084000000.0 0.1018 -1.232
5088000000.0 -0.8645 -0.8991
5091000000.0 -1.186 0.09138
5094000000.0 -0.7075 0.9932
5097000000.0 0.3161 1.135
5100000000.0 1.033 0.5038
5103000000.0 1.031 -0.464
5106000000.0 0.2728 -1.092
5109000000.0 -0.6658 -0.8788
5112000000.0 -1.095 -0.08686
5116000000.0 -0.765 0.7547
5119000000.0 0.091 1.082
5122000000.0 0.8756 0.6205
5125000000.0 0.9991 -0.2868
5128000000.0 0.4492 -0.9504
5131000000.0 -0.4604 -0.9219
5134000000.0 -0.9876 -0.2527
5138000000.0 -0.8338 0.5946
5141000000.0 -0.04418 0.9423
5144000000.0 0.7242 0.641
5147000000.0 0.9412 -0.1579
5150000000.0 0.4993 -0.8066
5153000000.0 -0.3248 -0.8731
5156000000.0 -0.8643 -0.3002
5159000000.0 -0.7805 0.4681
5162000000.0 -0.09811 0.8927
5166000000.0 0.6364 0.6399
5169000000.0 0.9076 -0.08069
5172000000.0 0.5393 -0.7535
5175000000.0 -0.2442 -0.8825
5178000000.0 -0.831 -0.3403
5181000000.0 -0.8091 0.4411
5184000000.0 -0.1597 0.908
5188000000.0 0.5953 0.7087
5191000000.0 0.9196 -0.03932
5194000000.0 0.5518 -0.7678
5197000000.0 -0.2515 -0.8748
5200000000.0 -0.8813 -0.3573
5203000000.0 -0.8454 0.457
5206000000.0 -0.1834 0.9365
5209000000.0 0.6308 0.7255
5212000000.0 0.9663 -0.04046
5216000000.0 0.5881 -0.7561
5219000000.0 -0.2051 -0.9632
5222000000.0 -0.8829 -0.4148
5225000000.0 -0.8891 0.4054
5228000000.0 -0.2365 0.9605
5231000000.0 0.6125 0.8268
5234000000.0 0.9953 0.03368
5238000000.0 0.6689 -0.7657
5241000000.0 -0.1621 -1.036
5244000000.0 -0.9321 -0.5193
5247000000.0 -1.007 0.3572
5250000000.0 -0.3489 1.001
5253000000.0 0.5617 0.919
5256000000.0 1.052 0.1602
5259000000.0 0.82 -0.7051
5262000000.0 -0.0267 -1.071
5266000000.0 -0.8511 -0.6888
5269000000.0 -1.07 0.1856
5272000000.0 -0.5334 0.9409
5275000000.0 0.3764 1.021
5278000000.0 1.038 0.3736
5281000000.0 0.9551 -0.5278
5284000000.0 0.2109 -1.111
5288000000.0 -0.6946 -0.8676
5291000000.0 -1.09 -0.03548
5294000000.0 -0.7413 0.8215
5297000000.0 0.1552 1.107
5300000000.0 0.9635 0.6025
5303000000.0 1.082 -0.3135
5306000000.0 0.4395 -1.049
5309000000.0 -0.5178 -1.015
5312000000.0 -1.135 -0.2552
5316000000.0 -0.9144 0.6659
5319000000.0 -0.05998 1.163
5322000000.0 0.8354 0.7975
5325000000.0 1.142 -0.1494
5328000000.0 0.6266 -0.9538
5331000000.0 -0.3574 -1.108
5334000000.0 -1.049 -0.4303
5338000000.0 -0.999 0.5412
5341000000.0 -0.2205 1.118
5344000000.0 0.7117 0.8433
5347000000.0 1.103 0.001812
5350000000.0 0.7348 -0.8356
5353000000.0 -0.2003 -1.092
5356000000.0 -0.9277 -0.5436
5359000000.0 -0.9938 0.4128
5362000000.0 -0.34 1.015
5366000000.0 0.5815 0.8724
5369000000.0 1.057 0.07463
5372000000.0 0.699 -0.7663
5375000000.0 -0.1442 -1.025
5378000000.0 -0.8555 -0.5401
5381000000.0 -0.9706 0.3588
5384000000.0 -0.2882 0.9552
5388000000.0 0.551 0.8157
5391000000.0 0.975 0.05276
5394000000.0 0.6583 -0.6737
5397000000.0 -0.1443 -0.9185
5400000000.0 -0.8233 -0.4739
5403000000.0 -0.8083 0.3398
5406000000.0 -0.2501 0.8505
5409000000.0 0.5098 0.7271
5412000000.0 0.8842 0.04337
5416000000.0 0.5965 -0.6674
5419000000.0 -0.1298 -0.8492
5422000000.0 -0.7708 -0.4094
5425000000.0 -0.7991 0.3431
5428000000.0 -0.215 0.8461
5431000000.0 0.5203 0.7094
5434000000.0 0.8693 0.06203
5438000000.0 0.6075 -0.665
5441000000.0 -0.1781 -0.8561
5444000000.0 -0.7539 -0.4362
5447000000.0 -0.8197 0.366
5450000000.0 -0.2408 0.8624
5453000000.0 0.5086 0.7461
5456000000.0 0.9102 0.05503
5459000000.0 0.6107 -0.6357
5462000000.0 -0.09495 -0.9041
5466000000.0 -0.776 -0.496
5469000000.0 -0.8684 0.2601
5472000000.0 -0.3557 0.8467
5475000000.0 0.3958 0.814
5478000000.0 0.9239 0.1724
5481000000.0 0.7527 -0.5961
5484000000.0 0.06075 -0.939
5488000000.0 -0.7276 -0.6897
5491000000.0 -0.9878 0.1352
5494000000.0 -0.5253 0.7802
5497000000.0 0.3481 0.9159
5500000000.0 0.9295 0.3686
5503000000.0 0.8828 -0.4949
5506000000.0 0.1922 -1.026
5509000000.0 -0.6213 -0.8206
5512000000.0 -1.046 -0.005838
5516000000.0 -0.7228 0.7612
5519000000.0 0.1536 0.9935
5522000000.0 0.8763 0.5463
5525000000.0 1.012 -0.307
5528000000.0 0.378 -0.9762
5531000000.0 -0.4812 -0.9166
5534000000.0 -1.026 -0.2684
5538000000.0 -0.83 0.634
5541000000.0 -0.08511 1.05
5544000000.0 0.8251 0.7319
5547000000.0 1.033 -0.1693
5550000000.0 0.5847 -0.9083
5553000000.0 -0.3414 -1.043
5556000000.0 -1.001 -0.3699
5559000000.0 -0.9244 0.5221
5562000000.0 -0.2101 0.9987
5566000000.0 0.6695 0.8055
5569000000.0 1.021 -0.01337
5572000000.0 0.653 -0.7914
5575000000.0 -0.1514 -0.9804
5578000000.0 -0.8875 -0.5145
5581000000.0 -0.9098 0.372
5584000000.0 -0.3102 0.9667
5588000000.0 0.5569 0.7966
5591000000.0 0.9421 0.1321
5594000000.0 0.7349 -0.6712
5597000000.0 -0.08984 -0.9521
5600000000.0 -0.7742 -0.5376
5603000000.0 -0.8619 0.2461
5606000000.0 -0.3562 0.8393
5609000000.0 0.3804 0.8231
5612000000.0 0.8821 0.1803
5616000000.0 0.6984 -0.53
5619000000.0 -0.006239 -0.8601
5622000000.0 -0.6772 -0.5192
5625000000.0 -0.809 0.1964
5628000000.0 -0.3995 0.7637
5631000000.0 0.3562 0.7812
5634000000.0 0.8107 0.2283
5638000000.0 0.7002 -0.4666
5641000000.0 0.04472 -0.8469
5644000000.0 -0.62 -0.5359
5647000000.0 -0.8334 0.1481
5650000000.0 -0.3928 0.7513
5653000000.0 0.3389 0.7793
5656000000.0 0.8333 0.2174
5659000000.0 0.7139 -0.521
5662000000.0 0.03502 -0.8584
5666000000.0 -0.6659 -0.5874
5669000000.0 -0.8884 0.1473
5672000000.0 -0.4353 0.7814
5675000000.0 0.3431 0.8194
5678000000.0 0.8672 0.2521
5681000000.0 0.7485 -0.5505
5684000000.0 0.08156 -0.9625
5688000000.0 -0.729 -0.6558
5691000000.0 -0.9362 0.1385
5694000000.0 -0.5432 0.8433
5697000000.0 0.3312 0.914
5700000000.0 0.9459 0.3043
5703000000.0 0.8432 -0.5222
5706000000.0 0.1181 -0.9845
5709000000.0 -0.6794 -0.7465
5712000000.0 -1.029 0.07965
5716000000.0 -0.6258 0.8298
5719000000.0 0.2685 1.001
5722000000.0 0.9673 0.4511
5725000000.0 0.9608 -0.4937
5728000000.0 0.2348 -1.002
5731000000.0 -0.6372 -0.8633
5734000000.0 -1.108 -0.05701
5738000000.0 -0.7324 0.8088
5741000000.0 0.1583 1.065
5744000000.0 0.9504 0.6133
5747000000.0 1.069 -0.3334
5750000000.0 0.4368 -1.037
5753000000.0 -0.5112 -0.9553
5756000000.0 -1.098 -0.2246
5759000000.0 -0.8531 0.7082
5762000000.0 -0.02638 1.102
5766000000.0 0.838 0.7182
5769000000.0 1.096 -0.1642
5772000000.0 0.5676 -0.9391
5775000000.0 -0.3737 -1.06
5778000000.0 -1.046 -0.389
5781000000.0 -0.9887 0.5112
5784000000.0 -0.1912 1.107
5788000000.0 0.7096 0.8088
5791000000.0 1.077 -0.01009
5794000000.0 0.6965 -0.8493
5797000000.0 -0.1985 -1.075
5800000000.0 -0.9214 -0.4943
5803000000.0 -1.019 0.3797
5806000000.0 -0.3728 0.9971
5809000000.0 0.5449 0.9061
5812000000.0 1.013 0.171
5816000000.0 0.7993 -0.7063
5819000000.0 -0.1174 -1.011
5822000000.0 -0.8397 -0.6113
5825000000.0 -0.9807 0.2578
5828000000.0 -0.4247 0.9191
5831000000.0 0.4579 0.9037
5834000000.0 0.9621 0.213
5838000000.0 0.7628 -0.6084
5841000000.0 -0.01656 -0.9949
5844000000.0 -0.7141 -0.601
5847000000.0 -0.9428 0.1433
5850000000.0 -0.4379 0.8459
5853000000.0 0.353 0.8827
5856000000.0 0.8882 0.2611
5859000000.0 0.7673 -0.5304
5862000000.0 0.04424 -0.9051
5866000000.0 -0.6827 -0.6115
5869000000.0 -0.8586 0.174
5872000000.0 -0.4387 0.8029
5875000000.0 0.3494 0.8296
5878000000.0 0.8608 0.2425
5881000000.0 0.7136 -0.5084
5884000000.0 0.08029 -0.8358
5888000000.0 -0.6419 -0.6006
5891000000.0 -0.8706 0.1329
5894000000.0 -0.4681 0.7383
5897000000.0 0.3106 0.8319
5900000000.0 0.814 0.2467
5903000000.0 0.7274 -0.4304
5906000000.0 0.126 -0.8887
5909000000.0 -0.5867 -0.6238
5912000000.0 -0.8565 0.03415
5916000000.0 -0.4967 0.6964
5919000000.0 0.229 0.8472
5922000000.0 0.7975 0.3497
5925000000.0 0.8056 -0.3654
5928000000.0 0.1867 -0.8303
5931000000.0 -0.5473 -0.714
5934000000.0 -0.9101 -0.06216
5938000000.0 -0.5988 0.7277
5941000000.0 0.1309 0.8761
5944000000.0 0.7732 0.4593
5947000000.0 0.8764 -0.3114
5950000000.0 0.322 -0.8206
5953000000.0 -0.4377 -0.8196
5956000000.0 -0.8764 -0.2056
5959000000.0 -0.6861 0.5911
5962000000.0 -0.01375 0.9234
5966000000.0 0.7014 0.6014
5969000000.0 0.9191 -0.1652
5972000000.0 0.4569 -0.8059
5975000000.0 -0.3376 -0.8962
5978000000.0 -0.9128 -0.3306
5981000000.0 -0.8265 0.4942
5984000000.0 -0.1676 0.9868
5988000000.0 0.6479 0.7536
5991000000.0 0.9806 0.007836
5994000000.0 0.6146 -0.7932
5997000000.0 -0.2105 -0.9719
6000000000.0 -0.8588 -0.4766
6003000000.0 -0.9049 0.3442
6006000000.0 -0.3119 0.9647
6009000000.0 0.5058 0.8223
6012000000.0 1.026 0.1109
6016000000.0 0.7325 -0.7027
6019000000.0 -0.09522 -0.9838
6022000000.0 -0.8199 -0.5446
6025000000.0 -0.9525 0.2821
6028000000.0 -0.3901 0.884
6031000000.0 0.4656 0.8595
6034000000.0 0.9594 0.2321
6038000000.0 0.7549 -0.6165
6041000000.0 0.03558 -0.9726
6044000000.0 -0.7544 -0.624
6047000000.0 -0.9502 0.1982
6050000000.0 -0.4347 0.8426
6053000000.0 0.3742 0.8606
6056000000.0 0.891 0.2473
6059000000.0 0.7482 -0.5614
6062000000.0 0.05606 -0.9466
6066000000.0 -0.6522 -0.6381
6069000000.0 -0.898 0.1263
6072000000.0 -0.4682 0.7739
6075000000.0 0.3173 0.8406
6078000000.0 0.8297 0.276
6081000000.0 0.7525 -0.4658
6084000000.0 0.117 -0.8866
6088000000.0 -0.6027 -0.5998
6091000000.0 -0.8467 0.06594
6094000000.0 -0.4535 0.7254
6097000000.0 0.2739 0.8302
6100000000.0 0.7902 0.3127
6103000000.0 0.7246 -0.4333
6106000000.0 0.1481 -0.8535
6109000000.0 -0.5583 -0.6701
6112000000.0 -0.8725 0.04273
6116000000.0 -0.5046 0.7257
6119000000.0 0.2383 0.8557
6122000000.0 0.8 0.357
6125000000.0 0.7801 -0.4075
6128000000.0 0.1873 -0.8586
6131000000.0 -0.5732 -0.6761
6134000000.0 -0.8706 0.01415
6138000000.0 -0.5502 0.6874
6141000000.0 0.1847 0.8561
6144000000.0 0.7945 0.4205
6147000000.0 0.8189 -0.3352
6150000000.0 0.2793 -0.8533
6153000000.0 -0.5136 -0.7294
6156000000.0 -0.933 -0.06799
6159000000.0 -0.6052 0.6736
6162000000.0 0.1216 0.9171
6166000000.0 0.7782 0.4884
6169000000.0 0.8725 -0.3072
6172000000.0 0.3163 -0.8999
6175000000.0 -0.4844 -0.8363
6178000000.0 -0.9282 -0.152
6181000000.0 -0.7282 0.6399
6184000000.0 0.01793 0.9471
6188000000.0 0.7825 0.58
6191000000.0 0.9257 -0.2274
6194000000.0 0.4102 -0.8807
6197000000.0 -0.394 -0.8556
6200000000.0 -0.9019 -0.2226
6203000000.0 -0.7451 0.5656
6206000000.0 -0.04006 0.9308
6209000000.0 0.6685 0.6378
6212000000.0 0.9129 -0.1043
6216000000.0 0.4944 -0.7757
6219000000.0 -0.2846 -0.8546
6222000000.0 -0.8678 -0.3103
6225000000.0 -0.8118 0.397
6228000000.0 -0.1833 0.902
6231000000.0 0.596 0.6771
6234000000.0 0.8833 0.004012
6238000000.0 0.5718 -0.6814
6241000000.0 -0.1639 -0.8387
6244000000.0 -0.744 -0.413
6247000000.0 -0.8069 0.3369
6250000000.0 -0.2708 0.7962
6253000000.0 0.458 0.7143
6256000000.0 0.813 0.09725
6259000000.0 0.6168 -0.5619
6262000000.0 -0.02938 -0.8263
6266000000.0 -0.6251 -0.5379
