! Created with skrf 1.8.0 (http://scikit-rf.org).
# Hz S RI R 50.0 
!freq ReS11 ImS11
4000000000.0 -0.5636 -1.378
4003000000.0 -1.495 -0.4341
4006000000.0 -1.241 0.919
4009000000.0 -0.1054 1.545
4012000000.0 1.132 1.021
4016000000.0 1.547 -0.2396
4019000000.0 0.7908 -1.367
4022000000.0 -0.558 -1.533
4025000000.0 -1.552 -0.5077
4028000000.0 -1.349 0.9372
4031000000.0 -0.1262 1.654
4034000000.0 1.256 1.102
4038000000.0 1.662 -0.2443
4041000000.0 0.88 -1.415
4044000000.0 -0.627 -1.522
4047000000.0 -1.591 -0.4615
4050000000.0 -1.374 0.9376
4053000000.0 -0.1296 1.625
4056000000.0 1.163 1.159
4059000000.0 1.63 -0.1843
4062000000.0 0.8995 -1.381
4066000000.0 -0.5042 -1.542
4069000000.0 -1.517 -0.6213
4072000000.0 -1.447 0.7504
4075000000.0 -0.3352 1.562
4078000000.0 1.031 1.281
4081000000.0 1.648 0.03793
4084000000.0 1.097 -1.229
4088000000.0 -0.2713 -1.636
4091000000.0 -1.381 -0.8434
4094000000.0 -1.502 0.5504
4097000000.0 -0.5151 1.519
4100000000.0 0.8286 1.329
4103000000.0 1.557 0.2701
4106000000.0 1.168 -1.022
4109000000.0 0.01377 -1.537
4112000000.0 -1.193 -0.9505
4116000000.0 -1.461 0.2519
4119000000.0 -0.7457 1.256
4122000000.0 0.4808 1.384
4125000000.0 1.343 0.542
4128000000.0 1.293 -0.6599
4131000000.0 0.3247 -1.421
4134000000.0 -0.8587 -1.163
4138000000.0 -1.427 -0.1095
4141000000.0 -1.008 1.001
4144000000.0 0.1345 1.463
4147000000.0 1.198 0.8368
4150000000.0 1.401 -0.4227
4153000000.0 0.6048 -1.381
4156000000.0 -0.6604 -1.321
4159000000.0 -1.468 -0.321
4162000000.0 -1.2 0.9331
4166000000.0 -0.0143 1.499
4169000000.0 1.114 0.9519
4172000000.0 1.478 -0.3167
4175000000.0 0.7112 -1.313
4178000000.0 -0.5591 -1.358
4181000000.0 -1.421 -0.4438
4184000000.0 -1.227 0.8639
4188000000.0 -0.1395 1.459
4191000000.0 1.122 0.9948
4194000000.0 1.486 -0.2548
4197000000.0 0.7517 -1.327
4200000000.0 -0.6474 -1.422
4203000000.0 -1.542 -0.344
4206000000.0 -1.218 1.009
4209000000.0 0.0879 1.612
4212000000.0 1.307 0.9163
4216000000.0 1.545 -0.5288
4219000000.0 0.4875 -1.518
4222000000.0 -0.9463 -1.289
4225000000.0 -1.545 -0.01223
4228000000.0 -0.9146 1.237
4231000000.0 0.4226 1.459
4234000000.0 1.453 0.5211
4238000000.0 1.274 -0.8126
4241000000.0 0.1005 -1.502
4244000000.0 -1.098 -0.9827
4247000000.0 -1.358 0.2978
4250000000.0 -0.6528 1.302
4253000000.0 0.6037 1.27
4256000000.0 1.358 0.2794
4259000000.0 1.056 -0.9121
4262000000.0 -0.0278 -1.378
4266000000.0 -1.115 -0.8813
4269000000.0 -1.329 0.3213
4272000000.0 -0.5457 1.254
4275000000.0 0.6378 1.257
4278000000.0 1.381 0.2716
4281000000.0 1.018 -0.8704
4284000000.0 -0.04524 -1.367
4288000000.0 -1.07 -0.8208
4291000000.0 -1.285 0.2806
4294000000.0 -0.5477 1.164
4297000000.0 0.526 1.22
4300000000.0 1.29 0.3326
4303000000.0 1.096 -0.7276
4306000000.0 0.1165 -1.323
4309000000.0 -0.9052 -0.9637
4312000000.0 -1.309 0.07142
4316000000.0 -0.7761 1.078
4319000000.0 0.3303 1.31
4322000000.0 1.187 0.5676
4325000000.0 1.261 -0.5557
4328000000.0 0.3685 -1.399
4331000000.0 -0.8009 -1.194
4334000000.0 -1.437 -0.07748
4338000000.0 -1.002 1.04
4341000000.0 0.215 1.488
4344000000.0 1.318 0.7517
4347000000.0 1.454 -0.5394
4350000000.0 0.423 -1.475
4353000000.0 -0.8722 -1.285
4356000000.0 -1.557 -0.1546
4359000000.0 -1.08 1.163
4362000000.0 0.2435 1.526
4366000000.0 1.381 0.7667
4369000000.0 1.439 -0.5766
4372000000.0 0.3883 -1.48
4375000000.0 -0.9046 -1.225
4378000000.0 -1.554 0.01415
4381000000.0 -0.949 1.207
4384000000.0 0.397 1.464
4388000000.0 1.395 0.6379
4391000000.0 1.349 -0.7287
4394000000.0 0.1599 -1.504
4397000000.0 -1.116 -1.056
4400000000.0 -1.46 0.2468
4403000000.0 -0.7013 1.291
4406000000.0 0.6655 1.294
4409000000.0 1.338 0.2499
4412000000.0 1.032 -0.916
4416000000.0 -0.09007 -1.342
4419000000.0 -1.102 -0.7124
4422000000.0 -1.224 0.4741
4425000000.0 -0.3578 1.215
4428000000.0 0.7499 1.021
4431000000.0 1.226 0.07043
4434000000.0 0.8275 -0.9325
4438000000.0 -0.2525 -1.217
4441000000.0 -1.087 -0.5328
4444000000.0 -1.088 0.5231
4447000000.0 -0.2747 1.17
4450000000.0 0.7626 0.9243
4453000000.0 1.215 -0.03721
4456000000.0 0.7512 -0.9886
4459000000.0 -0.2895 -1.217
4462000000.0 -1.1 -0.511
4466000000.0 -1.1 0.548
4469000000.0 -0.2809 1.226
4472000000.0 0.8066 0.9924
4475000000.0 1.257 -0.01645
4478000000.0 0.83 -0.9932
4481000000.0 -0.2562 -1.247
4484000000.0 -1.153 -0.5834
4488000000.0 -1.193 0.5392
4491000000.0 -0.355 1.266
4494000000.0 0.7652 1.082
4497000000.0 1.323 0.1082
4500000000.0 0.9272 -0.948
4503000000.0 -0.1342 -1.289
4506000000.0 -1.083 -0.7188
4509000000.0 -1.27 0.4039
4512000000.0 -0.4965 1.234
4516000000.0 0.6369 1.217
4519000000.0 1.335 0.3075
4522000000.0 1.074 -0.8736
4525000000.0 0.003044 -1.372
4528000000.0 -1.085 -0.9135
4531000000.0 -1.393 0.2599
4534000000.0 -0.6667 1.246
4538000000.0 0.5297 1.329
4541000000.0 1.397 0.4287
4544000000.0 1.202 -0.7713
4547000000.0 0.1671 -1.432
4550000000.0 -0.99 -1.008
4553000000.0 -1.43 0.1217
4556000000.0 -0.822 1.209
4559000000.0 0.4116 1.368
4562000000.0 1.344 0.574
4566000000.0 1.267 -0.6853
4569000000.0 0.2832 -1.389
4572000000.0 -0.9258 -1.093
4575000000.0 -1.41 0.0517
4578000000.0 -0.872 1.12
4581000000.0 0.3291 1.375
4584000000.0 1.257 0.5934
4588000000.0 1.262 -0.642
4591000000.0 0.282 -1.369
4594000000.0 -0.8817 -1.071
4597000000.0 -1.368 0.01973
4600000000.0 -0.8148 1.089
4603000000.0 0.3796 1.308
4606000000.0 1.258 0.4992
4609000000.0 1.176 -0.6519
4612000000.0 0.2084 -1.273
4616000000.0 -0.8869 -0.9221
4619000000.0 -1.226 0.09739
4622000000.0 -0.6873 1.021
4625000000.0 0.3961 1.143
4628000000.0 1.139 0.4012
4631000000.0 0.979 -0.6165
4634000000.0 0.08899 -1.175
4638000000.0 -0.822 -0.8249
4641000000.0 -1.139 0.1721
4644000000.0 -0.5451 1.003
4647000000.0 0.4345 1.059
4650000000.0 1.094 0.2803
4653000000.0 0.885 -0.6818
4656000000.0 0.0455 -1.14
4659000000.0 -0.8773 -0.7232
4662000000.0 -1.068 0.2359
4666000000.0 -0.4862 1.004
4669000000.0 0.4655 0.9976
4672000000.0 1.075 0.2579
4675000000.0 0.8787 -0.6938
4678000000.0 0.03652 -1.145
4681000000.0 -0.8794 -0.7152
4684000000.0 -1.088 0.2082
4688000000.0 -0.5133 1.006
4691000000.0 0.3891 1.021
4694000000.0 1.108 0.337
4697000000.0 0.9929 -0.6304
4700000000.0 0.153 -1.225
4703000000.0 -0.8103 -0.869
4706000000.0 -1.233 0.1158
4709000000.0 -0.7154 1.036
4712000000.0 0.3831 1.202
4716000000.0 1.158 0.4793
4719000000.0 1.156 -0.5619
4722000000.0 0.2301 -1.241
4725000000.0 -0.8484 -1.006
4728000000.0 -1.275 -0.014
4731000000.0 -0.8547 1.007
4734000000.0 0.2534 1.294
4738000000.0 1.182 0.6372
4741000000.0 1.227 -0.5086
4744000000.0 0.4187 -1.296
4747000000.0 -0.7186 -1.127
4750000000.0 -1.363 -0.1583
4753000000.0 -1.027 0.9611
4756000000.0 0.1325 1.42
4759000000.0 1.176 0.7883
4762000000.0 1.386 -0.4069
4766000000.0 0.518 -1.293
4769000000.0 -0.7067 -1.274
4772000000.0 -1.424 -0.2292
4775000000.0 -1.053 0.9676
4778000000.0 0.08848 1.423
4781000000.0 1.155 0.8069
4784000000.0 1.361 -0.4226
4788000000.0 0.4728 -1.301
4791000000.0 -0.7164 -1.17
4794000000.0 -1.359 -0.1552
4797000000.0 -0.9424 0.9273
4800000000.0 0.1472 1.314
4803000000.0 1.073 0.6432
4806000000.0 1.146 -0.4264
4809000000.0 0.3668 -1.149
4812000000.0 -0.6806 -0.9548
4816000000.0 -1.181 -0.03297
4819000000.0 -0.7435 0.9022
4822000000.0 0.2385 1.093
4825000000.0 0.998 0.4506
4828000000.0 0.9576 -0.5046
4831000000.0 0.1908 -1.025
4834000000.0 -0.6734 -0.7479
4838000000.0 -0.9964 0.1215
4841000000.0 -0.5272 0.8309
4844000000.0 0.3265 0.8877
4847000000.0 0.9077 0.2711
4850000000.0 0.7602 -0.546
4853000000.0 0.02345 -0.9135
4856000000.0 -0.6806 -0.5784
4859000000.0 -0.8631 0.1965
4862000000.0 -0.3895 0.8373
4866000000.0 0.434 0.8048
4869000000.0 0.9144 0.1719
4872000000.0 0.6867 -0.6238
4875000000.0 -0.05693 -0.9624
4878000000.0 -0.8085 -0.5337
4881000000.0 -0.9413 0.3294
4884000000.0 -0.3517 0.9242
4888000000.0 0.5467 0.8412
4891000000.0 1.007 0.09867
4894000000.0 0.7508 -0.77
4897000000.0 -0.1559 -1.055
4900000000.0 -0.9523 -0.5532
4903000000.0 -1.06 0.4188
4906000000.0 -0.3019 1.086
4909000000.0 0.7125 0.9173
4912000000.0 1.184 0.0175
4916000000.0 0.7355 -0.9242
4919000000.0 -0.2444 -1.171
4922000000.0 -1.125 -0.5431
4925000000.0 -1.098 0.5492
4928000000.0 -0.2344 1.252
4931000000.0 0.8063 0.9808
4934000000.0 1.281 -0.04194
4938000000.0 0.7687 -1.06
4941000000.0 -0.3654 -1.23
4944000000.0 -1.215 -0.4745
4947000000.0 -1.127 0.6872
4950000000.0 -0.1291 1.319
4953000000.0 0.9489 0.8847
4956000000.0 1.249 -0.2084
4959000000.0 0.6282 -1.12
4962000000.0 -0.5089 -1.134
4966000000.0 -1.194 -0.2848
4969000000.0 -0.9224 0.7681
4972000000.0 0.06659 1.189
4975000000.0 0.9415 0.6755
4978000000.0 1.036 -0.3579
4981000000.0 0.3413 -1.033
4984000000.0 -0.584 -0.8739
4988000000.0 -1.016 -0.09894
4991000000.0 -0.6673 0.7588
4994000000.0 0.1615 0.9699
4997000000.0 0.8538 0.4461
5000000000.0 0.8386 -0.362
5003000000.0 0.1839 -0.9027
5006000000.0 -0.5759 -0.6911
5009000000.0 -0.9281 0.03702
5012000000.0 -0.5098 0.7306
5016000000.0 0.2907 0.8509
5019000000.0 0.8504 0.2978
5022000000.0 0.7129 -0.4848
5025000000.0 0.05905 -0.9056
5028000000.0 -0.6908 -0.5775
5031000000.0 -0.8737 0.1919
5034000000.0 -0.3969 0.834
5038000000.0 0.3898 0.8258
5041000000.0 0.9477 0.1726
5044000000.0 0.7023 -0.6249
5047000000.0 -0.03873 -0.9352
5050000000.0 -0.775 -0.5696
5053000000.0 -0.966 0.2746
5056000000.0 -0.3669 0.9371
5059000000.0 0.5093 0.9179
5062000000.0 1.037 0.1189
5066000000.0 0.772 -0.7873
5069000000.0 -0.09672 -1.111
5072000000.0 -0.9627 -0.6022
5075000000.0 -1.101 0.4134
5078000000.0 -0.3674 1.127
5081000000.0 0.6848 0.9778
5084000000.0 1.212 0.08549
5088000000.0 0.8235 -0.8996
5091000000.0 -0.1801 -1.227
5094000000.0 -1.057 -0.6114
5097000000.0 -1.135 0.449
5100000000.0 -0.3566 1.158
5103000000.0 0.6971 1.016
5106000000.0 1.227 0.1522
5109000000.0 0.8747 -0.8415
5112000000.0 -0.1446 -1.242
5116000000.0 -0.9884 -0.6731
5119000000.0 -1.159 0.3451
5122000000.0 -0.4603 1.108
5125000000.0 0.5726 1.067
5128000000.0 1.144 0.255
5131000000.0 0.9124 -0.7547
5134000000.0 -0.01454 -1.16
5138000000.0 -0.918 -0.7263
5141000000.0 -1.113 0.2418
5144000000.0 -0.5244 0.9989
5147000000.0 0.455 1.045
5150000000.0 1.043 0.2942
5153000000.0 0.8811 -0.6247
5156000000.0 0.115 -1.095
5159000000.0 -0.7029 -0.7522
5162000000.0 -1.044 0.08899
5166000000.0 -0.5603 0.8382
5169000000.0 0.2568 0.9666
5172000000.0 0.9252 0.4139
5175000000.0 0.9004 -0.4567
5178000000.0 0.2232 -0.9689
5181000000.0 -0.6251 -0.7764
5184000000.0 -0.9962 0.01921
5188000000.0 -0.5771 0.7502
5191000000.0 0.2016 0.9521
5194000000.0 0.8754 0.4439
5197000000.0 0.8542 -0.4048
5200000000.0 0.2122 -0.9123
5203000000.0 -0.5965 -0.7332
5206000000.0 -0.9416 0.00491
5209000000.0 -0.5835 0.7391
5212000000.0 0.243 0.9172
5216000000.0 0.8648 0.3864
5219000000.0 0.811 -0.446
5222000000.0 0.1657 -0.9323
5225000000.0 -0.6281 -0.7187
5228000000.0 -0.9319 0.05521
5231000000.0 -0.5476 0.7984
5234000000.0 0.2861 0.9178
5238000000.0 0.9003 0.359
5241000000.0 0.8375 -0.5022
5244000000.0 0.1174 -0.9931
5247000000.0 -0.6827 -0.7141
5250000000.0 -0.9814 0.105
5253000000.0 -0.5299 0.8753
5256000000.0 0.3584 0.9426
5259000000.0 0.9474 0.3277
5262000000.0 0.8451 -0.5211
5266000000.0 0.09398 -1.026
5269000000.0 -0.696 -0.7221
5272000000.0 -1.028 0.1206
5275000000.0 -0.5638 0.8604
5278000000.0 0.3056 1.0
5281000000.0 0.9862 0.4359
5284000000.0 0.9127 -0.503
5288000000.0 0.2316 -1.027
5291000000.0 -0.6766 -0.8168
5294000000.0 -1.064 -0.02263
5297000000.0 -0.6773 0.802
5300000000.0 0.1832 1.06
5303000000.0 0.9055 0.5505
5306000000.0 1.01 -0.3698
5309000000.0 0.4112 -1.064
5312000000.0 -0.5568 -0.9715
5316000000.0 -1.107 -0.1771
5319000000.0 -0.8832 0.7248
5322000000.0 -0.02733 1.167
5325000000.0 0.8853 0.756
5328000000.0 1.112 -0.1779
5331000000.0 0.6005 -0.992
5334000000.0 -0.3681 -1.068
5338000000.0 -1.058 -0.4303
5341000000.0 -0.9509 0.5563
5344000000.0 -0.2362 1.117
5347000000.0 0.7248 0.9056
5350000000.0 1.136 0.01817
5353000000.0 0.7722 -0.9
5356000000.0 -0.201 -1.13
5359000000.0 -1.0 -0.5686
5362000000.0 -1.09 0.3458
5366000000.0 -0.3894 1.108
5369000000.0 0.5585 0.986
5372000000.0 1.149 0.208
5375000000.0 0.861 -0.7771
5378000000.0 -0.04896 -1.151
5381000000.0 -0.8982 -0.7158
5384000000.0 -1.102 0.294
5388000000.0 -0.4842 1.011
5391000000.0 0.4761 1.012
5394000000.0 1.048 0.2274
5397000000.0 0.8449 -0.6745
5400000000.0 0.005798 -1.051
5403000000.0 -0.8164 -0.6723
5406000000.0 -1.03 0.1852
5409000000.0 -0.4725 0.9196
5412000000.0 0.4398 0.9307
5416000000.0 0.9707 0.2033
5419000000.0 0.8115 -0.6069
5422000000.0 0.0195 -0.9784
5425000000.0 -0.7636 -0.5908
5428000000.0 -0.9363 0.2403
5431000000.0 -0.4015 0.8537
5434000000.0 0.4158 0.8304
5438000000.0 0.9385 0.1996
5441000000.0 0.7066 -0.5953
5444000000.0 -0.03941 -0.9397
5447000000.0 -0.7485 -0.5279
5450000000.0 -0.8442 0.2654
5453000000.0 -0.3278 0.8501
5456000000.0 0.4567 0.7312
5459000000.0 0.8523 0.1144
5462000000.0 0.626 -0.5732
5466000000.0 -0.08149 -0.8665
5469000000.0 -0.7185 -0.4859
5472000000.0 -0.8297 0.2695
5475000000.0 -0.3024 0.8121
5478000000.0 0.4437 0.7471
5481000000.0 0.8657 0.1433
5484000000.0 0.6644 -0.563
5488000000.0 -0.01792 -0.8718
5491000000.0 -0.7014 -0.533
5494000000.0 -0.852 0.2195
5497000000.0 -0.3998 0.8204
5500000000.0 0.3962 0.7999
5503000000.0 0.8788 0.1943
5506000000.0 0.7528 -0.514
5509000000.0 0.0923 -0.9151
5512000000.0 -0.705 -0.6331
5516000000.0 -0.9164 0.1204
5519000000.0 -0.5252 0.8082
5522000000.0 0.2634 0.9132
5525000000.0 0.8711 0.3823
5528000000.0 0.8897 -0.4268
5531000000.0 0.2134 -0.9271
5534000000.0 -0.5798 -0.783
5538000000.0 -1.018 -0.04052
5541000000.0 -0.7139 0.7187
5544000000.0 0.1383 1.012
5547000000.0 0.8679 0.5476
5550000000.0 1.009 -0.3288
5553000000.0 0.4152 -0.9528
5556000000.0 -0.4723 -0.8847
5559000000.0 -0.9933 -0.2212
5562000000.0 -0.828 0.6373
5566000000.0 -0.07145 1.057
5569000000.0 0.7717 0.7227
5572000000.0 1.036 -0.09699
5575000000.0 0.5608 -0.8864
5578000000.0 -0.2812 -1.027
5581000000.0 -0.9635 -0.3882
5584000000.0 -0.9203 0.4912
5588000000.0 -0.2175 1.023
5591000000.0 0.6357 0.8173
5594000000.0 1.015 0.02994
5597000000.0 0.6759 -0.7783
5600000000.0 -0.185 -1.028
5603000000.0 -0.9046 -0.5173
5606000000.0 -0.9544 0.3338
5609000000.0 -0.3272 0.9226
5612000000.0 0.5434 0.8281
5616000000.0 0.9676 0.1089
5619000000.0 0.7158 -0.6429
5622000000.0 -0.04033 -0.9692
5625000000.0 -0.7794 -0.5489
5628000000.0 -0.8998 0.2444
5631000000.0 -0.3951 0.8841
5634000000.0 0.4192 0.8189
5638000000.0 0.8675 0.1884
5641000000.0 0.7173 -0.5657
5644000000.0 -0.01637 -0.9101
5647000000.0 -0.6714 -0.5565
5650000000.0 -0.8934 0.1962
5653000000.0 -0.433 0.7666
5656000000.0 0.3606 0.8322
5659000000.0 0.8552 0.2008
5662000000.0 0.6787 -0.5322
5666000000.0 -0.01128 -0.8861
5669000000.0 -0.6841 -0.5432
5672000000.0 -0.8492 0.1917
5675000000.0 -0.3838 0.7745
5678000000.0 0.433 0.8075
5681000000.0 0.8733 0.1697
5684000000.0 0.6432 -0.5644
5688000000.0 -0.04706 -0.9175
5691000000.0 -0.7326 -0.5324
5694000000.0 -0.8856 0.2518
5697000000.0 -0.3688 0.8211
5700000000.0 0.4467 0.8019
5703000000.0 0.9244 0.1483
5706000000.0 0.7276 -0.6238
5709000000.0 -0.02858 -0.9494
5712000000.0 -0.7585 -0.6037
5716000000.0 -0.946 0.2622
5719000000.0 -0.4181 0.9147
5722000000.0 0.4147 0.8841
5725000000.0 0.9633 0.2139
5728000000.0 0.7344 -0.6348
5731000000.0 0.01311 -1.004
5734000000.0 -0.765 -0.6304
5738000000.0 -1.036 0.1864
5741000000.0 -0.4936 0.9066
5744000000.0 0.3668 0.9226
5747000000.0 0.9871 0.3096
5750000000.0 0.8785 -0.573
5753000000.0 0.1388 -1.061
5756000000.0 -0.7351 -0.7962
5759000000.0 -1.052 0.05213
5762000000.0 -0.6336 0.85
5766000000.0 0.2582 1.044
5769000000.0 0.9692 0.4367
5772000000.0 0.9749 -0.4838
5775000000.0 0.2792 -1.028
5778000000.0 -0.6136 -0.8694
5781000000.0 -1.072 -0.1269
5784000000.0 -0.7578 0.7948
5788000000.0 0.115 1.088
5791000000.0 0.8914 0.6191
5794000000.0 1.06 -0.3314
5797000000.0 0.4351 -0.9822
5800000000.0 -0.4765 -0.9622
5803000000.0 -1.077 -0.2705
5806000000.0 -0.888 0.6458
5809000000.0 -0.07536 1.06
5812000000.0 0.7942 0.7105
5816000000.0 1.057 -0.1145
5819000000.0 0.5659 -0.8738
5822000000.0 -0.3366 -0.985
5825000000.0 -1.003 -0.3893
5828000000.0 -0.9478 0.5087
5831000000.0 -0.2426 0.9614
5834000000.0 0.6322 0.7977
5838000000.0 1.018 0.008295
5841000000.0 0.6537 -0.7778
5844000000.0 -0.2121 -0.9845
5847000000.0 -0.9082 -0.4555
5850000000.0 -0.9306 0.4062
5853000000.0 -0.2645 0.9348
5856000000.0 0.5845 0.7948
5859000000.0 0.9876 0.05
5862000000.0 0.665 -0.7057
5866000000.0 -0.1674 -0.9645
5869000000.0 -0.8062 -0.476
5872000000.0 -0.8707 0.3509
5875000000.0 -0.3276 0.8787
5878000000.0 0.5046 0.8
5881000000.0 0.9039 0.07482
5884000000.0 0.6249 -0.655
5888000000.0 -0.1204 -0.9083
5891000000.0 -0.7607 -0.4819
5894000000.0 -0.8399 0.3039
5897000000.0 -0.2768 0.8358
5900000000.0 0.4601 0.7231
5903000000.0 0.8749 0.06508
5906000000.0 0.6276 -0.6184
5909000000.0 -0.03747 -0.8443
5912000000.0 -0.7353 -0.4805
5916000000.0 -0.8344 0.2713
5919000000.0 -0.314 0.7705
5922000000.0 0.4083 0.7547
5925000000.0 0.8317 0.153
5928000000.0 0.6554 -0.5351
5931000000.0 -0.03781 -0.8373
5934000000.0 -0.6881 -0.531
5938000000.0 -0.8135 0.1881
5941000000.0 -0.4032 0.782
5944000000.0 0.3479 0.7625
5947000000.0 0.8089 0.2453
5950000000.0 0.7371 -0.4729
5953000000.0 0.09188 -0.8511
5956000000.0 -0.6394 -0.637
5959000000.0 -0.8605 0.05208
5962000000.0 -0.5065 0.712
5966000000.0 0.2533 0.8496
5969000000.0 0.8494 0.3439
5972000000.0 0.8259 -0.3963
5975000000.0 0.187 -0.9031
5978000000.0 -0.5593 -0.7301
5981000000.0 -0.9416 -0.03981
5984000000.0 -0.6648 0.6696
5988000000.0 0.118 0.9459
5991000000.0 0.8066 0.5083
5994000000.0 0.9038 -0.2908
5997000000.0 0.3553 -0.9081
6000000000.0 -0.4598 -0.8863
6003000000.0 -0.945 -0.2084
6006000000.0 -0.7316 0.612
6009000000.0 0.008297 0.9777
6012000000.0 0.7384 0.6367
6016000000.0 0.954 -0.1727
6019000000.0 0.5028 -0.8423
6022000000.0 -0.3465 -0.9331
6025000000.0 -0.9138 -0.3237
6028000000.0 -0.8599 0.5087
6031000000.0 -0.1565 0.9919
6034000000.0 0.6662 0.7142
6038000000.0 1.011 -0.0523
6041000000.0 0.5875 -0.7876
6044000000.0 -0.2471 -0.954
6047000000.0 -0.8935 -0.4321
6050000000.0 -0.8841 0.419
6053000000.0 -0.2226 0.9785
6056000000.0 0.5725 0.7757
6059000000.0 0.9859 0.01995
6062000000.0 0.6478 -0.7374
6066000000.0 -0.1544 -0.9475
6069000000.0 -0.8515 -0.4513
6072000000.0 -0.8803 0.3657
6075000000.0 -0.2706 0.9059
6078000000.0 0.5293 0.7821
6081000000.0 0.9371 0.07703
6084000000.0 0.6076 -0.6727
6088000000.0 -0.1155 -0.9015
6091000000.0 -0.7614 -0.4703
6094000000.0 -0.8624 0.2983
6097000000.0 -0.2853 0.842
6100000000.0 0.4718 0.7532
6103000000.0 0.8571 0.09825
6106000000.0 0.6332 -0.6052
6109000000.0 -0.08887 -0.8514
6112000000.0 -0.7351 -0.469
6116000000.0 -0.8124 0.2708
6119000000.0 -0.3151 0.8383
6122000000.0 0.4208 0.7268
6125000000.0 0.8365 0.1157
6128000000.0 0.648 -0.6023
6131000000.0 -0.04922 -0.8802
6134000000.0 -0.6855 -0.4745
6138000000.0 -0.8057 0.2201
6141000000.0 -0.3517 0.771
6144000000.0 0.4023 0.7443
6147000000.0 0.8281 0.1459
6150000000.0 0.6478 -0.5425
6153000000.0 0.01616 -0.8632
6156000000.0 -0.6748 -0.5407
6159000000.0 -0.8637 0.1774
6162000000.0 -0.3822 0.7733
6166000000.0 0.3633 0.8052
6169000000.0 0.8563 0.231
6172000000.0 0.6975 -0.5429
6175000000.0 0.05509 -0.8688
6178000000.0 -0.6734 -0.6048
6181000000.0 -0.9052 0.1223
6184000000.0 -0.4643 0.7979
6188000000.0 0.3212 0.8397
6191000000.0 0.8366 0.2408
6194000000.0 0.7348 -0.497
6197000000.0 0.09254 -0.887
6200000000.0 -0.6426 -0.6804
6203000000.0 -0.9483 0.03876
6206000000.0 -0.5046 0.7461
6209000000.0 0.215 0.8733
6212000000.0 0.8422 0.3688
6216000000.0 0.8039 -0.4078
6219000000.0 0.2272 -0.9149
6222000000.0 -0.5338 -0.687
6225000000.0 -0.8927 -0.05404
6228000000.0 -0.593 0.6538
6231000000.0 0.1192 0.9024
6234000000.0 0.7776 0.4373
6238000000.0 0.8272 -0.2939
6241000000.0 0.3132 -0.8493
6244000000.0 -0.4283 -0.7405
6247000000.0 -0.8282 -0.1368
6250000000.0 -0.6189 0.5671
6253000000.0 0.02473 0.8357
6256000000.0 0.6401 0.5112
6259000000.0 0.8265 -0.1673
6262000000.0 0.3991 -0.7065
6266000000.0 -0.265 -0.788
6269000000.0 -0.7621 -0.2433
