! Created with skrf 1.8.0 (http://scikit-rf.org).
# Hz S RI R 50.0 
!freq ReS11 ImS11
4000000000.0 -0.1773 -1.477
4003000000.0 -1.277 -0.8211
4006000000.0 -1.384 0.4862
4009000000.0 -0.4877 1.414
4012000000.0 0.7643 1.313
4016000000.0 1.528 0.2417
4019000000.0 1.148 -1.055
4022000000.0 -0.1473 -1.564
4025000000.0 -1.314 -0.866
4028000000.0 -1.502 0.4613
4031000000.0 -0.5744 1.512
4034000000.0 0.7946 1.397
4038000000.0 1.625 0.2187
4041000000.0 1.189 -1.103
4044000000.0 -0.1844 -1.603
4047000000.0 -1.362 -0.9083
4050000000.0 -1.585 0.4787
4053000000.0 -0.641 1.473
4056000000.0 0.7448 1.401
4059000000.0 1.572 0.3058
4062000000.0 1.255 -1.014
4066000000.0 0.05007 -1.613
4069000000.0 -1.192 -1.034
4072000000.0 -1.595 0.2979
4075000000.0 -0.8007 1.402
4078000000.0 0.5808 1.555
4081000000.0 1.574 0.5123
4084000000.0 1.427 -0.881
4088000000.0 0.252 -1.639
4091000000.0 -1.125 -1.201
4094000000.0 -1.629 0.126
4097000000.0 -0.9833 1.295
4100000000.0 0.3656 1.566
4103000000.0 1.41 0.7021
4106000000.0 1.447 -0.6193
4109000000.0 0.4586 -1.493
4112000000.0 -0.8215 -1.263
4116000000.0 -1.496 -0.1973
4119000000.0 -1.123 0.9734
4122000000.0 0.008187 1.481
4125000000.0 1.139 0.9268
4128000000.0 1.459 -0.2315
4131000000.0 0.7675 -1.222
4134000000.0 -0.4411 -1.419
4138000000.0 -1.345 -0.5768
4141000000.0 -1.349 0.653
4144000000.0 -0.3872 1.417
4147000000.0 0.8385 1.218
4150000000.0 1.502 0.1372
4153000000.0 1.105 -1.093
4156000000.0 -0.1069 -1.524
4159000000.0 -1.215 -0.8739
4162000000.0 -1.46 0.3835
4166000000.0 -0.6417 1.386
4169000000.0 0.6146 1.357
4172000000.0 1.469 0.3926
4175000000.0 1.227 -0.8407
4178000000.0 0.191 -1.474
4181000000.0 -1.058 -1.074
4184000000.0 -1.502 0.1078
4188000000.0 -0.8805 1.212
4191000000.0 0.371 1.485
4194000000.0 1.385 0.6363
4197000000.0 1.446 -0.6567
4200000000.0 0.3483 -1.517
4203000000.0 -0.976 -1.278
4206000000.0 -1.599 -0.02631
4209000000.0 -1.026 1.252
4212000000.0 0.3844 1.602
4216000000.0 1.508 0.7474
4219000000.0 1.523 -0.7336
4222000000.0 0.3209 -1.65
4225000000.0 -1.146 -1.28
4228000000.0 -1.682 0.1329
4231000000.0 -0.9248 1.403
4234000000.0 0.5656 1.564
4238000000.0 1.556 0.5032
4241000000.0 1.305 -0.9415
4244000000.0 0.05845 -1.597
4247000000.0 -1.18 -1.019
4250000000.0 -1.523 0.343
4253000000.0 -0.65 1.425
4256000000.0 0.7284 1.369
4259000000.0 1.529 0.2791
4262000000.0 1.143 -0.9831
4266000000.0 -0.06066 -1.473
4269000000.0 -1.247 -0.8415
4272000000.0 -1.407 0.4369
4275000000.0 -0.5042 1.404
4278000000.0 0.7469 1.228
4281000000.0 1.41 0.1614
4284000000.0 0.9818 -1.01
4288000000.0 -0.1699 -1.366
4291000000.0 -1.151 -0.7229
4294000000.0 -1.281 0.4512
4297000000.0 -0.4676 1.255
4300000000.0 0.6814 1.177
4303000000.0 1.247 0.2148
4306000000.0 1.015 -0.8372
4309000000.0 -0.01892 -1.266
4312000000.0 -0.9766 -0.7971
4316000000.0 -1.246 0.2134
4319000000.0 -0.6395 1.119
4322000000.0 0.4351 1.244
4325000000.0 1.237 0.4649
4328000000.0 1.181 -0.5982
4331000000.0 0.2813 -1.335
4334000000.0 -0.8737 -1.071
4338000000.0 -1.345 -0.02377
4341000000.0 -0.91 1.047
4344000000.0 0.2157 1.389
4347000000.0 1.205 0.7084
4350000000.0 1.352 -0.4916
4353000000.0 0.4951 -1.371
4356000000.0 -0.7326 -1.243
4359000000.0 -1.431 -0.1982
4362000000.0 -1.101 0.9399
4366000000.0 0.04162 1.462
4369000000.0 1.118 0.8937
4372000000.0 1.421 -0.3169
4375000000.0 0.6992 -1.328
4378000000.0 -0.5679 -1.38
4381000000.0 -1.44 -0.4396
4384000000.0 -1.256 0.8441
4388000000.0 -0.1607 1.541
4391000000.0 1.114 1.075
4394000000.0 1.557 -0.2061
4397000000.0 0.855 -1.331
4400000000.0 -0.5379 -1.497
4403000000.0 -1.5 -0.5208
4406000000.0 -1.304 0.8512
4409000000.0 -0.1521 1.58
4412000000.0 1.107 1.074
4416000000.0 1.513 -0.2322
4419000000.0 0.797 -1.342
4422000000.0 -0.5677 -1.398
4425000000.0 -1.461 -0.4042
4428000000.0 -1.204 0.8376
4431000000.0 -0.07221 1.443
4434000000.0 1.086 0.9289
4438000000.0 1.406 -0.2666
4441000000.0 0.6295 -1.248
4444000000.0 -0.5964 -1.224
4447000000.0 -1.318 -0.2766
4450000000.0 -1.024 0.8648
4453000000.0 0.04258 1.313
4456000000.0 1.071 0.7684
4459000000.0 1.191 -0.3769
4462000000.0 0.4625 -1.195
4466000000.0 -0.6301 -1.037
4469000000.0 -1.221 -0.109
4472000000.0 -0.8633 0.8759
4475000000.0 0.2004 1.198
4478000000.0 1.031 0.5912
4481000000.0 1.071 -0.45
4484000000.0 0.2753 -1.096
4488000000.0 -0.6657 -0.9387
4491000000.0 -1.124 -0.06263
4494000000.0 -0.7701 0.8745
4497000000.0 0.2083 1.07
4500000000.0 0.991 0.5507
4503000000.0 1.009 -0.424
4506000000.0 0.3204 -1.024
4509000000.0 -0.6228 -0.8957
4512000000.0 -1.091 -0.07255
4516000000.0 -0.7501 0.7989
4519000000.0 0.1438 1.107
4522000000.0 0.9489 0.605
4525000000.0 1.073 -0.385
4528000000.0 0.3812 -1.087
4531000000.0 -0.6248 -0.9852
4534000000.0 -1.152 -0.1753
4538000000.0 -0.8774 0.7937
4541000000.0 0.03136 1.186
4544000000.0 0.9349 0.6938
4547000000.0 1.133 -0.2526
4550000000.0 0.5625 -1.07
4553000000.0 -0.4943 -1.109
4556000000.0 -1.176 -0.3659
4559000000.0 -1.022 0.6745
4562000000.0 -0.1391 1.233
4566000000.0 0.8727 0.9263
4569000000.0 1.256 -0.08627
4572000000.0 0.7743 -1.011
4575000000.0 -0.2826 -1.252
4578000000.0 -1.186 -0.5915
4581000000.0 -1.186 0.5498
4584000000.0 -0.3864 1.269
4588000000.0 0.7415 1.11
4591000000.0 1.347 0.1211
4594000000.0 0.9687 -0.977
4597000000.0 -0.1159 -1.382
4600000000.0 -1.144 -0.7764
4603000000.0 -1.315 0.3955
4606000000.0 -0.5443 1.3
4609000000.0 0.6343 1.257
4612000000.0 1.372 0.2843
4616000000.0 1.055 -0.8792
4619000000.0 -0.01129 -1.403
4622000000.0 -1.06 -0.8657
4625000000.0 -1.336 0.3028
4628000000.0 -0.6211 1.235
4631000000.0 0.5666 1.265
4634000000.0 1.329 0.3423
4638000000.0 1.128 -0.8073
4641000000.0 0.07525 -1.357
4644000000.0 -0.9954 -0.8979
4647000000.0 -1.3 0.2327
4650000000.0 -0.6119 1.18
4653000000.0 0.5099 1.208
4656000000.0 1.236 0.3352
4659000000.0 1.026 -0.739
4662000000.0 0.05067 -1.26
4666000000.0 -0.9343 -0.7886
4669000000.0 -1.179 0.2389
4672000000.0 -0.5524 1.029
4675000000.0 0.5321 1.076
4678000000.0 1.101 0.2735
4681000000.0 0.9145 -0.6775
4684000000.0 0.03877 -1.135
4688000000.0 -0.8703 -0.6829
4691000000.0 -1.039 0.2345
4694000000.0 -0.4747 0.9939
4697000000.0 0.4432 1.004
4700000000.0 1.064 0.2744
4703000000.0 0.8545 -0.6516
4706000000.0 0.02078 -1.096
4709000000.0 -0.8391 -0.6508
4712000000.0 -1.058 0.2351
4716000000.0 -0.455 0.9743
4719000000.0 0.4805 0.9455
4722000000.0 1.011 0.2609
4725000000.0 0.8235 -0.663
4728000000.0 -0.007492 -1.064
4731000000.0 -0.803 -0.6372
4734000000.0 -1.021 0.2194
4738000000.0 -0.5056 0.9069
4741000000.0 0.3673 0.969
4744000000.0 1.012 0.3341
4747000000.0 0.8919 -0.5909
4750000000.0 0.1147 -1.068
4753000000.0 -0.7487 -0.7663
4756000000.0 -1.097 0.05203
4759000000.0 -0.6828 0.8824
4762000000.0 0.2545 1.067
4766000000.0 1.04 0.513
4769000000.0 1.04 -0.461
4772000000.0 0.2889 -1.117
4775000000.0 -0.6482 -0.9725
4778000000.0 -1.166 -0.1319
4781000000.0 -0.8361 0.7924
4784000000.0 0.08419 1.194
4788000000.0 0.9687 0.6923
4791000000.0 1.174 -0.2898
4794000000.0 0.5252 -1.13
4797000000.0 -0.4995 -1.13
4800000000.0 -1.197 -0.3507
4803000000.0 -1.053 0.6808
4806000000.0 -0.1604 1.238
4809000000.0 0.8478 0.9176
4812000000.0 1.261 -0.05448
4816000000.0 0.7789 -1.04
4819000000.0 -0.3033 -1.285
4822000000.0 -1.187 -0.6183
4825000000.0 -1.231 0.5369
4828000000.0 -0.3674 1.288
4831000000.0 0.7728 1.13
4834000000.0 1.371 0.09595
4838000000.0 0.9875 -1.029
4841000000.0 -0.1716 -1.394
4844000000.0 -1.166 -0.7384
4847000000.0 -1.318 0.4469
4850000000.0 -0.511 1.292
4853000000.0 0.6986 1.198
4856000000.0 1.355 0.2193
4859000000.0 1.035 -0.8963
4862000000.0 -0.06607 -1.352
4866000000.0 -1.054 -0.7954
4869000000.0 -1.291 0.2832
4872000000.0 -0.5772 1.171
4875000000.0 0.5698 1.17
4878000000.0 1.23 0.2913
4881000000.0 0.9928 -0.7595
4884000000.0 0.02332 -1.249
4888000000.0 -0.9433 -0.797
4891000000.0 -1.221 0.2313
4894000000.0 -0.5394 1.064
4897000000.0 0.4415 1.037
4900000000.0 1.077 0.3009
4903000000.0 0.8974 -0.635
4906000000.0 0.06125 -1.119
4909000000.0 -0.7595 -0.7171
4912000000.0 -1.036 0.1523
4916000000.0 -0.4989 0.8633
4919000000.0 0.3324 0.9429
4922000000.0 0.9479 0.3295
4925000000.0 0.8641 -0.523
4928000000.0 0.1106 -0.9412
4931000000.0 -0.6232 -0.7139
4934000000.0 -0.9507 0.06499
4938000000.0 -0.5266 0.7502
4941000000.0 0.2322 0.9224
4944000000.0 0.8409 0.3702
4947000000.0 0.8346 -0.4516
4950000000.0 0.2068 -0.9331
4953000000.0 -0.5645 -0.7207
4956000000.0 -0.9553 -0.04692
4959000000.0 -0.652 0.7687
4962000000.0 0.1728 0.9448
4966000000.0 0.8466 0.4841
4969000000.0 0.9128 -0.359
4972000000.0 0.279 -0.9496
4975000000.0 -0.5431 -0.8452
4978000000.0 -1.021 -0.1067
4981000000.0 -0.7373 0.7239
4984000000.0 0.09983 1.018
4988000000.0 0.8565 0.6195
4991000000.0 1.013 -0.2422
4994000000.0 0.4707 -0.9891
4997000000.0 -0.4805 -0.9772
5000000000.0 -1.073 -0.2588
5003000000.0 -0.9403 0.6675
5006000000.0 -0.056 1.149
5009000000.0 0.868 0.7911
5012000000.0 1.196 -0.1563
5016000000.0 0.6271 -1.041
5019000000.0 -0.4063 -1.175
5022000000.0 -1.184 -0.4346
5025000000.0 -1.068 0.6481
5028000000.0 -0.2149 1.255
5031000000.0 0.8077 0.961
5034000000.0 1.262 -0.03608
5038000000.0 0.8054 -1.016
5041000000.0 -0.2431 -1.25
5044000000.0 -1.117 -0.6108
5047000000.0 -1.202 0.4834
5050000000.0 -0.413 1.217
5053000000.0 0.6691 1.103
5056000000.0 1.272 0.1627
5059000000.0 0.9546 -0.8457
5062000000.0 -0.04664 -1.301
5066000000.0 -1.024 -0.8003
5069000000.0 -1.259 0.2757
5072000000.0 -0.5966 1.142
5075000000.0 0.5262 1.182
5078000000.0 1.228 0.356
5081000000.0 1.033 -0.6987
5084000000.0 0.1123 -1.232
5088000000.0 -0.8521 -0.871
5091000000.0 -1.191 0.1029
5094000000.0 -0.6987 0.9583
5097000000.0 0.2938 1.118
5100000000.0 1.037 0.5201
5103000000.0 1.043 -0.4764
5106000000.0 0.2679 -1.093
5109000000.0 -0.6033 -0.8544
5112000000.0 -1.095 -0.0954
5116000000.0 -0.7887 0.7368
5119000000.0 0.1164 1.032
5122000000.0 0.8582 0.6236
5125000000.0 0.9904 -0.2674
5128000000.0 0.411 -0.9377
5131000000.0 -0.4536 -0.8782
5134000000.0 -0.9737 -0.2246
5138000000.0 -0.7927 0.5787
5141000000.0 -0.01938 0.9659
5144000000.0 0.7393 0.6165
5147000000.0 0.9222 -0.1618
5150000000.0 0.4697 -0.8244
5153000000.0 -0.3247 -0.8574
5156000000.0 -0.8712 -0.2992
5159000000.0 -0.7813 0.4826
5162000000.0 -0.09686 0.9053
5166000000.0 0.6364 0.6666
5169000000.0 0.9028 -0.087
5172000000.0 0.514 -0.7472
5175000000.0 -0.2441 -0.8479
5178000000.0 -0.8048 -0.357
5181000000.0 -0.8023 0.4257
5184000000.0 -0.1649 0.8773
5188000000.0 0.5852 0.6804
5191000000.0 0.9498 -0.047
5194000000.0 0.5586 -0.7431
5197000000.0 -0.2338 -0.8859
5200000000.0 -0.8685 -0.3731
5203000000.0 -0.8593 0.4356
5206000000.0 -0.1656 0.9284
5209000000.0 0.6211 0.7016
5212000000.0 0.9535 -0.03895
5216000000.0 0.5987 -0.7788
5219000000.0 -0.2414 -0.9477
5222000000.0 -0.905 -0.431
5225000000.0 -0.8885 0.4253
5228000000.0 -0.2561 0.9591
5231000000.0 0.6125 0.8184
5234000000.0 1.01 0.05381
5238000000.0 0.6932 -0.7669
5241000000.0 -0.1335 -1.014
5244000000.0 -0.882 -0.5514
5247000000.0 -1.013 0.3533
5250000000.0 -0.3732 1.015
5253000000.0 0.5398 0.9193
5256000000.0 1.05 0.1931
5259000000.0 0.7966 -0.6872
5262000000.0 0.01982 -1.079
5266000000.0 -0.8378 -0.6952
5269000000.0 -1.076 0.2159
5272000000.0 -0.5257 0.927
5275000000.0 0.383 1.007
5278000000.0 1.009 0.3802
5281000000.0 0.9384 -0.5407
5284000000.0 0.2115 -1.076
5288000000.0 -0.6896 -0.882
5291000000.0 -1.125 -0.02134
5294000000.0 -0.7471 0.8465
5297000000.0 0.1569 1.113
5300000000.0 0.9295 0.6097
5303000000.0 1.111 -0.3195
5306000000.0 0.4352 -1.035
5309000000.0 -0.4822 -0.9987
5312000000.0 -1.122 -0.273
5316000000.0 -0.9248 0.6723
5319000000.0 -0.0484 1.145
5322000000.0 0.8331 0.7625
5325000000.0 1.129 -0.1353
5328000000.0 0.6317 -0.9628
5331000000.0 -0.3369 -1.076
5334000000.0 -1.069 -0.4255
5338000000.0 -0.998 0.5197
5341000000.0 -0.2288 1.121
5344000000.0 0.6853 0.8836
5347000000.0 1.107 0.04135
5350000000.0 0.6915 -0.8423
5353000000.0 -0.1789 -1.095
5356000000.0 -0.9409 -0.5298
5359000000.0 -0.9724 0.3886
5362000000.0 -0.3438 1.041
5366000000.0 0.5793 0.8725
5369000000.0 1.038 0.1066
5372000000.0 0.7343 -0.7738
5375000000.0 -0.1129 -1.037
5378000000.0 -0.8492 -0.5382
5381000000.0 -0.9317 0.3621
5384000000.0 -0.2994 0.9387
5388000000.0 0.5571 0.7986
5391000000.0 0.9713 0.05353
5394000000.0 0.631 -0.7015
5397000000.0 -0.1413 -0.924
5400000000.0 -0.8298 -0.4633
5403000000.0 -0.8247 0.3308
5406000000.0 -0.2657 0.8308
5409000000.0 0.4999 0.7524
5412000000.0 0.8341 0.06635
5416000000.0 0.567 -0.6503
5419000000.0 -0.1516 -0.8786
5422000000.0 -0.7642 -0.4316
5425000000.0 -0.7671 0.3278
5428000000.0 -0.2538 0.8257
5431000000.0 0.5075 0.7065
5434000000.0 0.881 0.008866
5438000000.0 0.5798 -0.6359
5441000000.0 -0.1308 -0.8693
5444000000.0 -0.7664 -0.4281
5447000000.0 -0.8173 0.3291
5450000000.0 -0.2518 0.8759
5453000000.0 0.4877 0.7196
5456000000.0 0.8659 0.08088
5459000000.0 0.6349 -0.6471
5462000000.0 -0.1108 -0.899
5466000000.0 -0.7387 -0.4866
5469000000.0 -0.8657 0.2677
5472000000.0 -0.3559 0.8241
5475000000.0 0.4435 0.821
5478000000.0 0.9128 0.2018
5481000000.0 0.7723 -0.5847
5484000000.0 0.04181 -0.9611
5488000000.0 -0.7176 -0.6336
5491000000.0 -0.9925 0.1617
5494000000.0 -0.5234 0.8247
5497000000.0 0.3087 0.9615
5500000000.0 0.9494 0.3931
5503000000.0 0.9183 -0.4976
5506000000.0 0.1816 -1.021
5509000000.0 -0.6678 -0.791
5512000000.0 -1.013 -0.01666
5516000000.0 -0.698 0.7358
5519000000.0 0.1298 1.032
5522000000.0 0.8379 0.5933
5525000000.0 0.9952 -0.3252
5528000000.0 0.4364 -0.9553
5531000000.0 -0.4792 -0.9498
5534000000.0 -1.017 -0.2769
5538000000.0 -0.8488 0.6161
5541000000.0 -0.04982 1.031
5544000000.0 0.777 0.717
5547000000.0 1.052 -0.1265
5550000000.0 0.5831 -0.8807
5553000000.0 -0.324 -1.001
5556000000.0 -0.9944 -0.4129
5559000000.0 -0.9266 0.5252
5562000000.0 -0.1935 1.018
5566000000.0 0.6701 0.8236
5569000000.0 1.049 0.03607
5572000000.0 0.6481 -0.7682
5575000000.0 -0.164 -0.9776
5578000000.0 -0.8949 -0.5184
5581000000.0 -0.9241 0.3579
5584000000.0 -0.3187 0.938
5588000000.0 0.5077 0.8256
5591000000.0 0.9307 0.1286
5594000000.0 0.6852 -0.6687
5597000000.0 -0.05995 -0.9524
5600000000.0 -0.7476 -0.5447
5603000000.0 -0.8757 0.227
5606000000.0 -0.4081 0.8227
5609000000.0 0.3974 0.807
5612000000.0 0.855 0.1653
5616000000.0 0.6919 -0.5509
5619000000.0 0.001152 -0.8371
5622000000.0 -0.6596 -0.5328
5625000000.0 -0.8412 0.1732
5628000000.0 -0.3725 0.7371
5631000000.0 0.3319 0.7867
5634000000.0 0.8046 0.2285
5638000000.0 0.6614 -0.4942
5641000000.0 0.03345 -0.8256
5644000000.0 -0.6322 -0.5824
5647000000.0 -0.8323 0.1423
5650000000.0 -0.374 0.7294
5653000000.0 0.3294 0.773
5656000000.0 0.8049 0.2115
5659000000.0 0.6717 -0.5132
5662000000.0 0.05174 -0.8626
5666000000.0 -0.6636 -0.596
5669000000.0 -0.8934 0.1687
5672000000.0 -0.4563 0.7777
5675000000.0 0.3552 0.8146
5678000000.0 0.9023 0.2487
5681000000.0 0.7411 -0.5155
5684000000.0 0.0538 -0.9215
5688000000.0 -0.6867 -0.6603
5691000000.0 -0.9848 0.1631
5694000000.0 -0.5041 0.8219
5697000000.0 0.3209 0.8968
5700000000.0 0.9625 0.3336
5703000000.0 0.8531 -0.549
5706000000.0 0.1259 -0.9896
5709000000.0 -0.6767 -0.7414
5712000000.0 -1.036 0.06098
5716000000.0 -0.631 0.8159
5719000000.0 0.2705 1.023
5722000000.0 0.9575 0.4283
5725000000.0 0.967 -0.447
5728000000.0 0.2513 -0.9978
5731000000.0 -0.6449 -0.8522
5734000000.0 -1.059 -0.07968
5738000000.0 -0.7308 0.781
5741000000.0 0.1282 1.085
5744000000.0 0.9206 0.5791
5747000000.0 1.039 -0.3083
5750000000.0 0.4141 -0.9975
5753000000.0 -0.5342 -0.9658
5756000000.0 -1.071 -0.2031
5759000000.0 -0.8381 0.68
5762000000.0 -0.05011 1.085
5766000000.0 0.7997 0.7261
5769000000.0 1.062 -0.1784
5772000000.0 0.5692 -0.9344
5775000000.0 -0.3195 -1.051
5778000000.0 -1.009 -0.3946
5781000000.0 -0.9668 0.5441
5784000000.0 -0.1744 1.082
5788000000.0 0.6986 0.8267
5791000000.0 1.088 0.003543
5794000000.0 0.6704 -0.8343
5797000000.0 -0.1899 -1.082
5800000000.0 -0.9369 -0.5021
5803000000.0 -0.9995 0.3629
5806000000.0 -0.3345 1.021
5809000000.0 0.5196 0.8895
5812000000.0 1.024 0.1421
5816000000.0 0.7699 -0.6657
5819000000.0 -0.05191 -1.002
5822000000.0 -0.8559 -0.5743
5825000000.0 -0.954 0.226
5828000000.0 -0.4162 0.9472
5831000000.0 0.4294 0.8926
5834000000.0 0.9341 0.2417
5838000000.0 0.7717 -0.5973
5841000000.0 0.01005 -0.9769
5844000000.0 -0.7385 -0.6434
5847000000.0 -0.9371 0.168
5850000000.0 -0.4398 0.8572
5853000000.0 0.3558 0.8443
5856000000.0 0.8956 0.2746
5859000000.0 0.7328 -0.5261
5862000000.0 0.03273 -0.9112
5866000000.0 -0.6742 -0.6248
5869000000.0 -0.9154 0.1154
5872000000.0 -0.4312 0.7901
5875000000.0 0.3446 0.8484
5878000000.0 0.8642 0.2057
5881000000.0 0.7255 -0.525
5884000000.0 0.06102 -0.8668
5888000000.0 -0.6217 -0.6042
5891000000.0 -0.8669 0.1366
5894000000.0 -0.4494 0.7234
5897000000.0 0.3232 0.762
5900000000.0 0.8159 0.2786
5903000000.0 0.7381 -0.4473
5906000000.0 0.1024 -0.8071
5909000000.0 -0.5765 -0.6451
5912000000.0 -0.8401 0.04244
5916000000.0 -0.5718 0.7015
5919000000.0 0.2344 0.8687
5922000000.0 0.7492 0.3866
5925000000.0 0.82 -0.3847
5928000000.0 0.1946 -0.829
5931000000.0 -0.5075 -0.7014
5934000000.0 -0.871 -0.02987
5938000000.0 -0.5811 0.6277
5941000000.0 0.09836 0.9111
5944000000.0 0.7933 0.454
5947000000.0 0.8465 -0.3229
5950000000.0 0.3352 -0.8271
5953000000.0 -0.4293 -0.7897
5956000000.0 -0.8908 -0.1764
5959000000.0 -0.7351 0.5799
5962000000.0 -0.03742 0.9103
5966000000.0 0.7243 0.6302
5969000000.0 0.9422 -0.1642
5972000000.0 0.4932 -0.8093
5975000000.0 -0.319 -0.9211
5978000000.0 -0.9069 -0.3713
5981000000.0 -0.8475 0.4717
5984000000.0 -0.17 0.958
5988000000.0 0.6437 0.7859
5991000000.0 0.9619 -0.02965
5994000000.0 0.6487 -0.7658
5997000000.0 -0.1951 -1.009
6000000000.0 -0.8644 -0.4875
6003000000.0 -0.9338 0.3772
6006000000.0 -0.3041 0.9341
6009000000.0 0.5327 0.8345
6012000000.0 0.9779 0.1049
6016000000.0 0.7222 -0.7115
6019000000.0 -0.09313 -0.9825
6022000000.0 -0.7938 -0.5674
6025000000.0 -0.9462 0.2552
6028000000.0 -0.3884 0.8972
6031000000.0 0.4318 0.8682
6034000000.0 0.9394 0.198
6038000000.0 0.7432 -0.5785
6041000000.0 -0.0007066 -0.9557
6044000000.0 -0.7213 -0.6136
6047000000.0 -0.9379 0.1734
6050000000.0 -0.4611 0.8436
6053000000.0 0.3916 0.8703
6056000000.0 0.8777 0.2438
6059000000.0 0.7421 -0.539
6062000000.0 0.06824 -0.9175
6066000000.0 -0.6384 -0.6183
6069000000.0 -0.8837 0.1313
6072000000.0 -0.4657 0.7732
6075000000.0 0.3057 0.8376
6078000000.0 0.8532 0.2653
6081000000.0 0.7335 -0.4677
6084000000.0 0.09744 -0.8705
6088000000.0 -0.6007 -0.6345
6091000000.0 -0.8272 0.08499
6094000000.0 -0.4723 0.719
6097000000.0 0.2814 0.837
6100000000.0 0.7979 0.3286
6103000000.0 0.7362 -0.4179
6106000000.0 0.1504 -0.8419
6109000000.0 -0.5852 -0.6176
6112000000.0 -0.853 0.02578
6116000000.0 -0.5196 0.7132
6119000000.0 0.2175 0.8267
6122000000.0 0.768 0.337
6125000000.0 0.7997 -0.3929
6128000000.0 0.1741 -0.8391
6131000000.0 -0.5555 -0.6792
6134000000.0 -0.8694 -0.02404
6138000000.0 -0.5675 0.6719
6141000000.0 0.1614 0.8715
6144000000.0 0.7737 0.3961
6147000000.0 0.8296 -0.3596
6150000000.0 0.2039 -0.8874
6153000000.0 -0.5182 -0.722
6156000000.0 -0.9371 -0.07729
6159000000.0 -0.5989 0.6924
6162000000.0 0.1373 0.9247
6166000000.0 0.7791 0.502
6169000000.0 0.8831 -0.3038
6172000000.0 0.3215 -0.8717
6175000000.0 -0.478 -0.8292
6178000000.0 -0.9361 -0.141
6181000000.0 -0.6994 0.6256
6184000000.0 0.0441 0.9284
6188000000.0 0.7619 0.5836
6191000000.0 0.9398 -0.2116
6194000000.0 0.3861 -0.8621
6197000000.0 -0.3903 -0.8549
6200000000.0 -0.927 -0.248
6203000000.0 -0.7592 0.5702
6206000000.0 -0.03429 0.9374
6209000000.0 0.6854 0.6113
6212000000.0 0.9108 -0.116
6216000000.0 0.4978 -0.8088
6219000000.0 -0.2554 -0.8928
6222000000.0 -0.8535 -0.3368
6225000000.0 -0.8099 0.4208
6228000000.0 -0.1487 0.8947
6231000000.0 0.546 0.6675
6234000000.0 0.8805 -0.02516
6238000000.0 0.5385 -0.6619
6241000000.0 -0.1753 -0.8533
6244000000.0 -0.7704 -0.4208
6247000000.0 -0.7809 0.3138
6250000000.0 -0.2665 0.7829
6253000000.0 0.4567 0.7333
6256000000.0 0.8413 0.1186
6259000000.0 0.5568 -0.5507
6262000000.0 -0.02468 -0.8001
6266000000.0 -0.6559 -0.5284
