! Created with skrf 1.8.0 (http://scikit-rf.org).
# Hz S RI R 50.0 
!freq ReS11 ImS11
4000000000.0 -0.2116 -1.488
4003000000.0 -1.274 -0.7662
4006000000.0 -1.391 0.4676
4009000000.0 -0.4884 1.451
4012000000.0 0.7529 1.273
4016000000.0 1.451 0.2062
4019000000.0 1.119 -1.05
4022000000.0 -0.1059 -1.577
4025000000.0 -1.292 -0.8815
4028000000.0 -1.558 0.4763
4031000000.0 -0.5884 1.483
4034000000.0 0.78 1.398
4038000000.0 1.561 0.2983
4041000000.0 1.192 -1.107
4044000000.0 -0.1582 -1.632
4047000000.0 -1.333 -0.9448
4050000000.0 -1.517 0.4505
4053000000.0 -0.6458 1.469
4056000000.0 0.7495 1.366
4059000000.0 1.536 0.3722
4062000000.0 1.278 -0.9516
4066000000.0 0.1007 -1.602
4069000000.0 -1.264 -1.047
4072000000.0 -1.589 0.2867
4075000000.0 -0.8404 1.414
4078000000.0 0.5436 1.534
4081000000.0 1.54 0.5495
4084000000.0 1.404 -0.8223
4088000000.0 0.25 -1.653
4091000000.0 -1.103 -1.204
4094000000.0 -1.626 0.04424
4097000000.0 -1.023 1.313
4100000000.0 0.3513 1.586
4103000000.0 1.421 0.7468
4106000000.0 1.469 -0.6271
4109000000.0 0.4476 -1.465
4112000000.0 -0.8337 -1.335
4116000000.0 -1.455 -0.2022
4119000000.0 -1.106 0.977
4122000000.0 0.01292 1.454
4125000000.0 1.127 0.9497
4128000000.0 1.469 -0.2309
4131000000.0 0.7992 -1.248
4134000000.0 -0.4313 -1.41
4138000000.0 -1.352 -0.5952
4141000000.0 -1.337 0.6114
4144000000.0 -0.3933 1.439
4147000000.0 0.851 1.222
4150000000.0 1.514 0.1453
4153000000.0 1.091 -1.058
4156000000.0 -0.1198 -1.539
4159000000.0 -1.243 -0.8799
4162000000.0 -1.478 0.3423
4166000000.0 -0.6436 1.368
4169000000.0 0.6135 1.411
4172000000.0 1.457 0.4432
4175000000.0 1.239 -0.8154
4178000000.0 0.1537 -1.481
4181000000.0 -1.009 -1.056
4184000000.0 -1.502 0.1097
4188000000.0 -0.8936 1.205
4191000000.0 0.3574 1.49
4194000000.0 1.4 0.6553
4197000000.0 1.43 -0.6558
4200000000.0 0.3936 -1.48
4203000000.0 -0.9773 -1.291
4206000000.0 -1.616 -0.05878
4209000000.0 -1.044 1.234
4212000000.0 0.3394 1.629
4216000000.0 1.517 0.7522
4219000000.0 1.477 -0.7107
4222000000.0 0.3572 -1.642
4225000000.0 -1.136 -1.269
4228000000.0 -1.652 0.124
4231000000.0 -0.9492 1.409
4234000000.0 0.54 1.564
4238000000.0 1.605 0.5602
4241000000.0 1.334 -0.9096
4244000000.0 0.09882 -1.607
4247000000.0 -1.172 -1.031
4250000000.0 -1.56 0.3053
4253000000.0 -0.717 1.408
4256000000.0 0.6655 1.382
4259000000.0 1.482 0.3102
4262000000.0 1.14 -0.9811
4266000000.0 -0.03723 -1.501
4269000000.0 -1.192 -0.8277
4272000000.0 -1.415 0.4072
4275000000.0 -0.5185 1.38
4278000000.0 0.7395 1.228
4281000000.0 1.426 0.1668
4284000000.0 1.022 -0.9497
4288000000.0 -0.1219 -1.363
4291000000.0 -1.13 -0.757
4294000000.0 -1.278 0.4041
4297000000.0 -0.5299 1.22
4300000000.0 0.6236 1.16
4303000000.0 1.267 0.2403
4306000000.0 1.012 -0.8004
4309000000.0 0.01344 -1.277
4312000000.0 -0.9778 -0.8426
4316000000.0 -1.286 0.1978
4319000000.0 -0.6533 1.08
4322000000.0 0.4105 1.228
4325000000.0 1.224 0.4911
4328000000.0 1.217 -0.623
4331000000.0 0.2713 -1.315
4334000000.0 -0.852 -1.077
4338000000.0 -1.377 -0.06833
4341000000.0 -0.9223 1.072
4344000000.0 0.2074 1.392
4347000000.0 1.195 0.7282
4350000000.0 1.325 -0.4614
4353000000.0 0.4868 -1.345
4356000000.0 -0.7425 -1.284
4359000000.0 -1.392 -0.2645
4362000000.0 -1.156 0.9313
4366000000.0 0.00994 1.468
4369000000.0 1.096 0.9077
4372000000.0 1.438 -0.263
4375000000.0 0.7379 -1.282
4378000000.0 -0.557 -1.395
4381000000.0 -1.41 -0.5102
4384000000.0 -1.284 0.8228
4388000000.0 -0.1697 1.495
4391000000.0 1.085 1.117
4394000000.0 1.54 -0.1214
4397000000.0 0.8611 -1.302
4400000000.0 -0.4902 -1.509
4403000000.0 -1.444 -0.5669
4406000000.0 -1.358 0.8159
4409000000.0 -0.1762 1.541
4412000000.0 1.078 1.118
4416000000.0 1.508 -0.1584
4419000000.0 0.8379 -1.32
4422000000.0 -0.5121 -1.409
4425000000.0 -1.39 -0.4792
4428000000.0 -1.245 0.8009
4431000000.0 -0.1182 1.426
4434000000.0 1.073 0.9533
4438000000.0 1.398 -0.2668
4441000000.0 0.6696 -1.22
4444000000.0 -0.5618 -1.201
4447000000.0 -1.314 -0.3088
4450000000.0 -1.028 0.8063
4453000000.0 0.006215 1.363
4456000000.0 1.025 0.8342
4459000000.0 1.22 -0.3555
4462000000.0 0.4892 -1.141
4466000000.0 -0.6293 -1.066
4469000000.0 -1.21 -0.1763
4472000000.0 -0.874 0.8868
4475000000.0 0.1397 1.187
4478000000.0 0.9832 0.6149
4481000000.0 1.062 -0.4287
4484000000.0 0.3655 -1.107
4488000000.0 -0.6483 -0.9493
4491000000.0 -1.142 -0.06791
4494000000.0 -0.7518 0.8075
4497000000.0 0.1653 1.112
4500000000.0 0.9401 0.5813
4503000000.0 1.004 -0.3908
4506000000.0 0.3572 -1.028
4509000000.0 -0.5999 -0.9191
4512000000.0 -1.111 -0.1266
4516000000.0 -0.8122 0.8122
4519000000.0 0.1145 1.089
4522000000.0 0.9307 0.6123
4525000000.0 1.064 -0.3469
4528000000.0 0.4034 -1.051
4531000000.0 -0.5558 -1.024
4534000000.0 -1.111 -0.1973
4538000000.0 -0.9125 0.7506
4541000000.0 0.04221 1.178
4544000000.0 0.9115 0.7531
4547000000.0 1.154 -0.2407
4550000000.0 0.5595 -1.067
4553000000.0 -0.4301 -1.124
4556000000.0 -1.164 -0.4037
4559000000.0 -1.029 0.6488
4562000000.0 -0.168 1.206
4566000000.0 0.8297 0.9315
4569000000.0 1.264 -0.0366
4572000000.0 0.763 -0.9854
4575000000.0 -0.2897 -1.261
4578000000.0 -1.145 -0.6195
4581000000.0 -1.224 0.4764
4584000000.0 -0.3977 1.259
4588000000.0 0.7265 1.141
4591000000.0 1.343 0.1188
4594000000.0 0.9749 -0.9349
4597000000.0 -0.08503 -1.358
4600000000.0 -1.127 -0.8142
4603000000.0 -1.332 0.3433
4606000000.0 -0.5744 1.269
4609000000.0 0.6196 1.249
4612000000.0 1.348 0.2862
4616000000.0 1.107 -0.8354
4619000000.0 0.04833 -1.371
4622000000.0 -1.042 -0.8965
4625000000.0 -1.375 0.2502
4628000000.0 -0.6998 1.232
4631000000.0 0.5409 1.268
4634000000.0 1.3 0.3979
4638000000.0 1.128 -0.7243
4641000000.0 0.09962 -1.368
4644000000.0 -0.9882 -0.9217
4647000000.0 -1.312 0.17
4650000000.0 -0.6589 1.149
4653000000.0 0.4639 1.231
4656000000.0 1.208 0.403
4659000000.0 1.047 -0.7184
4662000000.0 0.08147 -1.261
4666000000.0 -0.9164 -0.8129
4669000000.0 -1.209 0.1842
4672000000.0 -0.5643 1.041
4675000000.0 0.4571 1.108
4678000000.0 1.108 0.3297
4681000000.0 0.9317 -0.6501
4684000000.0 0.104 -1.133
4688000000.0 -0.8226 -0.7783
4691000000.0 -1.102 0.1988
4694000000.0 -0.5176 0.9658
4697000000.0 0.4181 1.009
4700000000.0 1.054 0.3011
4703000000.0 0.8898 -0.6591
4706000000.0 0.04922 -1.073
4709000000.0 -0.8043 -0.6954
4712000000.0 -1.082 0.2194
4716000000.0 -0.4826 0.9449
4719000000.0 0.4295 0.9533
4722000000.0 1.011 0.2702
4725000000.0 0.8125 -0.6162
4728000000.0 0.05515 -1.03
4731000000.0 -0.7486 -0.6809
4734000000.0 -1.026 0.165
4738000000.0 -0.5211 0.8846
4741000000.0 0.3729 0.945
4744000000.0 0.9891 0.3443
4747000000.0 0.9045 -0.5504
4750000000.0 0.1516 -1.026
4753000000.0 -0.7271 -0.795
4756000000.0 -1.077 0.02183
4759000000.0 -0.6564 0.859
4762000000.0 0.2125 1.093
4766000000.0 0.971 0.5227
4769000000.0 1.033 -0.4276
4772000000.0 0.3388 -1.1
4775000000.0 -0.6269 -0.9557
4778000000.0 -1.163 -0.1304
4781000000.0 -0.8552 0.7944
4784000000.0 0.07523 1.163
4788000000.0 0.959 0.745
4791000000.0 1.181 -0.2564
4794000000.0 0.5813 -1.074
4797000000.0 -0.4721 -1.118
4800000000.0 -1.179 -0.3882
4803000000.0 -1.051 0.6522
4806000000.0 -0.1605 1.238
4809000000.0 0.8102 0.9369
4812000000.0 1.265 -0.03439
4816000000.0 0.8092 -1.013
4819000000.0 -0.2716 -1.263
4822000000.0 -1.191 -0.6361
4825000000.0 -1.235 0.5122
4828000000.0 -0.4024 1.297
4831000000.0 0.7584 1.147
4834000000.0 1.368 0.1284
4838000000.0 1.005 -0.99
4841000000.0 -0.1197 -1.393
4844000000.0 -1.147 -0.7751
4847000000.0 -1.315 0.4112
4850000000.0 -0.5231 1.265
4853000000.0 0.6257 1.223
4856000000.0 1.354 0.2715
4859000000.0 1.052 -0.8766
4862000000.0 -0.03527 -1.347
4866000000.0 -1.048 -0.8297
4869000000.0 -1.31 0.2942
4872000000.0 -0.5934 1.178
4875000000.0 0.5281 1.185
4878000000.0 1.245 0.324
4881000000.0 1.033 -0.7262
4884000000.0 0.0647 -1.239
4888000000.0 -0.9119 -0.8476
4891000000.0 -1.192 0.1961
4894000000.0 -0.5768 1.041
4897000000.0 0.4273 1.075
4900000000.0 1.105 0.3314
4903000000.0 0.9286 -0.6231
4906000000.0 0.09323 -1.055
4909000000.0 -0.8071 -0.7514
4912000000.0 -1.014 0.1085
4916000000.0 -0.5445 0.8811
4919000000.0 0.3507 0.9587
4922000000.0 0.9058 0.3162
4925000000.0 0.8389 -0.4989
4928000000.0 0.1584 -0.9648
4931000000.0 -0.6143 -0.7077
4934000000.0 -0.9344 0.041
4938000000.0 -0.5433 0.7297
4941000000.0 0.2198 0.9005
4944000000.0 0.8532 0.4263
4947000000.0 0.8623 -0.3908
4950000000.0 0.2395 -0.9055
4953000000.0 -0.5666 -0.7796
4956000000.0 -0.9635 -0.05033
4959000000.0 -0.6587 0.73
4962000000.0 0.1604 0.9469
4966000000.0 0.8376 0.4903
4969000000.0 0.9061 -0.3683
4972000000.0 0.3104 -0.9545
4975000000.0 -0.5424 -0.838
4978000000.0 -1.007 -0.1532
4981000000.0 -0.7579 0.6966
4984000000.0 0.05956 1.029
4988000000.0 0.8405 0.6371
4991000000.0 1.021 -0.2491
4994000000.0 0.4736 -0.9665
4997000000.0 -0.4465 -1.016
5000000000.0 -1.08 -0.3028
5003000000.0 -0.9275 0.6541
5006000000.0 -0.0817 1.138
5009000000.0 0.8462 0.8032
5012000000.0 1.169 -0.1416
5016000000.0 0.6415 -1.008
5019000000.0 -0.3928 -1.158
5022000000.0 -1.155 -0.4672
5025000000.0 -1.098 0.603
5028000000.0 -0.2541 1.213
5031000000.0 0.8176 0.9828
5034000000.0 1.274 0.002182
5038000000.0 0.8077 -0.9846
5041000000.0 -0.2284 -1.246
5044000000.0 -1.112 -0.662
5047000000.0 -1.185 0.451
5050000000.0 -0.4243 1.209
5053000000.0 0.6743 1.121
5056000000.0 1.266 0.228
5059000000.0 0.9878 -0.8372
5062000000.0 -0.02774 -1.297
5066000000.0 -0.9961 -0.8059
5069000000.0 -1.271 0.2511
5072000000.0 -0.6285 1.136
5075000000.0 0.477 1.2
5078000000.0 1.227 0.3872
5081000000.0 1.091 -0.6918
5084000000.0 0.136 -1.245
5088000000.0 -0.8127 -0.8918
5091000000.0 -1.217 0.06511
5094000000.0 -0.7198 0.9487
5097000000.0 0.2896 1.135
5100000000.0 1.038 0.5279
5103000000.0 1.004 -0.4735
5106000000.0 0.336 -1.075
5109000000.0 -0.6201 -0.9096
5112000000.0 -1.059 -0.1216
5116000000.0 -0.7798 0.7034
5119000000.0 0.0562 1.048
5122000000.0 0.8512 0.6429
5125000000.0 1.022 -0.2258
5128000000.0 0.4735 -0.934
5131000000.0 -0.4014 -0.9188
5134000000.0 -0.9489 -0.2636
5138000000.0 -0.7854 0.5599
5141000000.0 -0.07969 0.9696
5144000000.0 0.7033 0.6844
5147000000.0 0.9415 -0.1268
5150000000.0 0.5118 -0.8122
5153000000.0 -0.2904 -0.8872
5156000000.0 -0.8635 -0.3095
5159000000.0 -0.7791 0.4688
5162000000.0 -0.1476 0.8764
5166000000.0 0.6298 0.6602
5169000000.0 0.9006 -0.06079
5172000000.0 0.5321 -0.722
5175000000.0 -0.2222 -0.8941
5178000000.0 -0.7971 -0.3511
5181000000.0 -0.8183 0.4113
5184000000.0 -0.1658 0.8548
5188000000.0 0.5908 0.7204
5191000000.0 0.9271 -0.00943
5194000000.0 0.5536 -0.7163
5197000000.0 -0.2214 -0.8977
5200000000.0 -0.8594 -0.4141
5203000000.0 -0.8538 0.4127
5206000000.0 -0.2201 0.9342
5209000000.0 0.5876 0.7329
5212000000.0 0.9362 -0.001382
5216000000.0 0.5927 -0.7422
5219000000.0 -0.193 -0.9426
5222000000.0 -0.871 -0.4326
5225000000.0 -0.9101 0.407
5228000000.0 -0.2415 0.9393
5231000000.0 0.5892 0.8259
5234000000.0 1.005 0.06381
5238000000.0 0.7048 -0.7197
5241000000.0 -0.1267 -1.027
5244000000.0 -0.872 -0.5696
5247000000.0 -1.019 0.3299
5250000000.0 -0.384 0.9984
5253000000.0 0.5199 0.9345
5256000000.0 1.057 0.1948
5259000000.0 0.8548 -0.6486
5262000000.0 0.03045 -1.075
5266000000.0 -0.8265 -0.7
5269000000.0 -1.046 0.1746
5272000000.0 -0.577 0.9184
5275000000.0 0.3199 1.059
5278000000.0 1.027 0.3954
5281000000.0 0.9732 -0.492
5284000000.0 0.236 -1.05
5288000000.0 -0.6673 -0.8775
5291000000.0 -1.083 -0.07694
5294000000.0 -0.7752 0.8175
5297000000.0 0.1154 1.115
5300000000.0 0.9628 0.6126
5303000000.0 1.084 -0.2946
5306000000.0 0.4592 -1.053
5309000000.0 -0.4838 -1.028
5312000000.0 -1.095 -0.3125
5316000000.0 -0.9232 0.6561
5319000000.0 -0.1614 1.159
5322000000.0 0.8285 0.8071
5325000000.0 1.129 -0.1116
5328000000.0 0.6334 -0.9425
5331000000.0 -0.2809 -1.07
5334000000.0 -1.037 -0.4904
5338000000.0 -1.024 0.4914
5341000000.0 -0.2655 1.086
5344000000.0 0.6571 0.8961
5347000000.0 1.126 0.05453
5350000000.0 0.7573 -0.8535
5353000000.0 -0.1844 -1.075
5356000000.0 -0.943 -0.5903
5359000000.0 -0.9935 0.37
5362000000.0 -0.3666 1.003
5366000000.0 0.5599 0.9303
5369000000.0 1.037 0.1339
5372000000.0 0.7699 -0.7481
5375000000.0 -0.09825 -1.032
5378000000.0 -0.8763 -0.5774
5381000000.0 -0.965 0.3111
5384000000.0 -0.3601 0.937
5388000000.0 0.5171 0.8574
5391000000.0 0.9918 0.1102
5394000000.0 0.6825 -0.6779
5397000000.0 -0.1241 -0.9105
5400000000.0 -0.7691 -0.4822
5403000000.0 -0.8415 0.2974
5406000000.0 -0.2653 0.8609
5409000000.0 0.4749 0.7585
5412000000.0 0.8939 0.07575
5416000000.0 0.628 -0.6046
5419000000.0 -0.08686 -0.8431
5422000000.0 -0.7452 -0.4491
5425000000.0 -0.81 0.2957
5428000000.0 -0.2713 0.8237
5431000000.0 0.4666 0.719
5434000000.0 0.867 0.07781
5438000000.0 0.6029 -0.6324
5441000000.0 -0.1149 -0.8722
5444000000.0 -0.7503 -0.4734
5447000000.0 -0.8239 0.2839
5450000000.0 -0.2836 0.8636
5453000000.0 0.4737 0.7322
5456000000.0 0.856 0.1279
5459000000.0 0.6253 -0.5945
5462000000.0 -0.05702 -0.8728
5466000000.0 -0.7668 -0.5328
5469000000.0 -0.8501 0.2006
5472000000.0 -0.3672 0.8364
5475000000.0 0.4271 0.8454
5478000000.0 0.9064 0.2515
5481000000.0 0.765 -0.5346
5484000000.0 0.07564 -0.9473
5488000000.0 -0.7169 -0.6672
5491000000.0 -0.9696 0.1328
5494000000.0 -0.5667 0.816
5497000000.0 0.2434 0.947
5500000000.0 0.8979 0.3929
5503000000.0 0.898 -0.4702
5506000000.0 0.2478 -0.9304
5509000000.0 -0.6026 -0.7937
5512000000.0 -0.9868 -0.05
5516000000.0 -0.7027 0.72
5519000000.0 0.1076 1.011
5522000000.0 0.8472 0.5716
5525000000.0 1.034 -0.2902
5528000000.0 0.4468 -0.9627
5531000000.0 -0.4682 -0.9443
5534000000.0 -1.004 -0.2735
5538000000.0 -0.8654 0.6268
5541000000.0 -0.11 1.058
5544000000.0 0.7669 0.7436
5547000000.0 1.073 -0.09595
5550000000.0 0.6266 -0.9058
5553000000.0 -0.2627 -0.996
5556000000.0 -0.9574 -0.436
5559000000.0 -0.9438 0.4414
5562000000.0 -0.2549 1.012
5566000000.0 0.6325 0.8516
5569000000.0 1.052 0.03102
5572000000.0 0.7273 -0.763
5575000000.0 -0.1187 -0.9962
5578000000.0 -0.8351 -0.5361
5581000000.0 -0.9453 0.3197
5584000000.0 -0.3856 0.9389
5588000000.0 0.4851 0.8612
5591000000.0 0.9582 0.1805
5594000000.0 0.7342 -0.6123
5597000000.0 0.01452 -0.9331
5600000000.0 -0.7393 -0.5516
5603000000.0 -0.8875 0.1808
5606000000.0 -0.406 0.8067
5609000000.0 0.3636 0.8384
5612000000.0 0.8718 0.2402
5616000000.0 0.6993 -0.533
5619000000.0 0.05444 -0.8646
5622000000.0 -0.6394 -0.572
5625000000.0 -0.8393 0.1026
5628000000.0 -0.462 0.7181
5631000000.0 0.2966 0.7688
5634000000.0 0.7795 0.2295
5638000000.0 0.6819 -0.4497
5641000000.0 0.06903 -0.8315
5644000000.0 -0.6242 -0.5715
5647000000.0 -0.8274 0.09074
5650000000.0 -0.4094 0.7086
5653000000.0 0.2936 0.7854
5656000000.0 0.7992 0.276
5659000000.0 0.7364 -0.4614
5662000000.0 0.07862 -0.8581
5666000000.0 -0.6026 -0.6179
5669000000.0 -0.8673 0.09859
5672000000.0 -0.4585 0.7643
5675000000.0 0.2964 0.8244
5678000000.0 0.8226 0.3105
5681000000.0 0.7978 -0.4716
5684000000.0 0.1096 -0.9105
5688000000.0 -0.6316 -0.6614
5691000000.0 -0.957 0.07598
5694000000.0 -0.5296 0.7982
5697000000.0 0.2796 0.9018
5700000000.0 0.9063 0.3503
5703000000.0 0.8626 -0.4707
5706000000.0 0.1926 -1.002
5709000000.0 -0.666 -0.7549
5712000000.0 -1.018 0.001082
5716000000.0 -0.617 0.8307
5719000000.0 0.2106 0.9882
5722000000.0 0.9292 0.4511
5725000000.0 0.9437 -0.422
5728000000.0 0.2946 -1.007
5731000000.0 -0.5776 -0.8675
5734000000.0 -1.07 -0.1185
5738000000.0 -0.7734 0.7505
5741000000.0 0.09046 1.055
5744000000.0 0.8867 0.6425
5747000000.0 1.094 -0.2817
5750000000.0 0.4696 -0.9738
5753000000.0 -0.4515 -1.012
5756000000.0 -1.067 -0.2749
5759000000.0 -0.9011 0.6603
5762000000.0 -0.05969 1.117
5766000000.0 0.7878 0.7546
5769000000.0 1.085 -0.1193
5772000000.0 0.5924 -0.9178
5775000000.0 -0.3381 -1.028
5778000000.0 -0.9722 -0.435
5781000000.0 -0.9576 0.4884
5784000000.0 -0.2189 1.068
5788000000.0 0.641 0.8741
5791000000.0 1.06 0.05442
5794000000.0 0.7324 -0.8063
5797000000.0 -0.1154 -1.059
5800000000.0 -0.9042 -0.5518
5803000000.0 -0.9846 0.3135
5806000000.0 -0.3741 0.9756
5809000000.0 0.4994 0.9555
5812000000.0 1.069 0.1683
5816000000.0 0.7976 -0.6756
5819000000.0 -0.01878 -1.041
5822000000.0 -0.7507 -0.6174
5825000000.0 -1.01 0.1972
5828000000.0 -0.441 0.8787
5831000000.0 0.3663 0.8876
5834000000.0 0.9893 0.2649
5838000000.0 0.7802 -0.5336
5841000000.0 0.05787 -0.9695
5844000000.0 -0.692 -0.6639
5847000000.0 -0.9574 0.1219
5850000000.0 -0.4948 0.8034
5853000000.0 0.3402 0.8925
5856000000.0 0.8637 0.3301
5859000000.0 0.7884 -0.4993
5862000000.0 0.1034 -0.9239
5866000000.0 -0.603 -0.616
5869000000.0 -0.9454 0.08362
5872000000.0 -0.5134 0.7592
5875000000.0 0.297 0.8616
5878000000.0 0.8649 0.3206
5881000000.0 0.7629 -0.4491
5884000000.0 0.1198 -0.8478
5888000000.0 -0.6167 -0.6329
5891000000.0 -0.8617 0.05045
5894000000.0 -0.4876 0.7034
5897000000.0 0.2407 0.83
5900000000.0 0.7813 0.3376
5903000000.0 0.7494 -0.4028
5906000000.0 0.1725 -0.827
5909000000.0 -0.5623 -0.6218
5912000000.0 -0.8771 0.006767
5916000000.0 -0.5513 0.6872
5919000000.0 0.1911 0.8253
5922000000.0 0.7415 0.3821
5925000000.0 0.8229 -0.3109
5928000000.0 0.2617 -0.8383
5931000000.0 -0.4754 -0.7284
5934000000.0 -0.8882 -0.07976
5938000000.0 -0.6009 0.603
5941000000.0 0.0555 0.848
5944000000.0 0.7392 0.5257
5947000000.0 0.8765 -0.2156
5950000000.0 0.4023 -0.8182
5953000000.0 -0.4078 -0.835
5956000000.0 -0.9061 -0.246
5959000000.0 -0.7418 0.5408
5962000000.0 -0.06988 0.887
5966000000.0 0.6898 0.6769
5969000000.0 0.9525 -0.09716
5972000000.0 0.5493 -0.7181
5975000000.0 -0.2451 -0.9354
5978000000.0 -0.8725 -0.3972
5981000000.0 -0.8859 0.4486
5984000000.0 -0.2341 0.9483
5988000000.0 0.605 0.7765
5991000000.0 0.974 0.03536
5994000000.0 0.7035 -0.7079
5997000000.0 -0.1248 -0.9766
6000000000.0 -0.8218 -0.5335
6003000000.0 -0.9195 0.327
6006000000.0 -0.3852 0.9428
6009000000.0 0.4877 0.8569
6012000000.0 1.002 0.1668
6016000000.0 0.7858 -0.6372
6019000000.0 -0.01648 -0.9939
6022000000.0 -0.7642 -0.6144
6025000000.0 -0.9503 0.1877
6028000000.0 -0.446 0.8708
6031000000.0 0.3815 0.8993
6034000000.0 0.9342 0.276
6038000000.0 0.8023 -0.5713
6041000000.0 0.07326 -0.9425
6044000000.0 -0.6895 -0.6619
6047000000.0 -0.9861 0.1194
6050000000.0 -0.5291 0.8095
6053000000.0 0.2874 0.8838
6056000000.0 0.8936 0.3383
6059000000.0 0.807 -0.4817
6062000000.0 0.136 -0.896
6066000000.0 -0.6113 -0.668
6069000000.0 -0.9267 0.04749
6072000000.0 -0.52 0.7202
6075000000.0 0.2671 0.8459
6078000000.0 0.8209 0.3262
6081000000.0 0.782 -0.383
6084000000.0 0.1577 -0.8475
6088000000.0 -0.5882 -0.6754
6091000000.0 -0.8624 0.0147
6094000000.0 -0.5288 0.6653
6097000000.0 0.2022 0.8647
6100000000.0 0.7903 0.3665
6103000000.0 0.7564 -0.3776
6106000000.0 0.1975 -0.8082
6109000000.0 -0.5325 -0.6874
6112000000.0 -0.86 -0.01771
6116000000.0 -0.5578 0.6614
6119000000.0 0.1683 0.8509
6122000000.0 0.7436 0.4078
6125000000.0 0.772 -0.3585
6128000000.0 0.2191 -0.8412
6131000000.0 -0.5052 -0.7193
6134000000.0 -0.8587 -0.03884
6138000000.0 -0.5802 0.6351
6141000000.0 0.1269 0.842
6144000000.0 0.7575 0.4925
6147000000.0 0.8655 -0.3055
6150000000.0 0.284 -0.8529
6153000000.0 -0.4635 -0.7562
6156000000.0 -0.8838 -0.1376
6159000000.0 -0.646 0.6033
6162000000.0 0.0407 0.9069
6166000000.0 0.7533 0.5341
6169000000.0 0.917 -0.2097
6172000000.0 0.4107 -0.8433
6175000000.0 -0.4076 -0.8248
6178000000.0 -0.9116 -0.2301
6181000000.0 -0.7673 0.5631
6184000000.0 -0.02029 0.952
6188000000.0 0.7254 0.6593
6191000000.0 0.9552 -0.1626
6194000000.0 0.4622 -0.8374
6197000000.0 -0.339 -0.8736
6200000000.0 -0.917 -0.271
6203000000.0 -0.7933 0.4822
6206000000.0 -0.1502 0.9039
6209000000.0 0.6384 0.6831
6212000000.0 0.9319 -0.05224
6216000000.0 0.5619 -0.7567
6219000000.0 -0.1763 -0.9068
6222000000.0 -0.8421 -0.4142
6225000000.0 -0.8018 0.3625
6228000000.0 -0.206 0.8846
6231000000.0 0.5534 0.7242
6234000000.0 0.8632 0.04854
6238000000.0 0.5783 -0.6183
6241000000.0 -0.09618 -0.8527
6244000000.0 -0.7127 -0.4885
6247000000.0 -0.8259 0.2825
6250000000.0 -0.3204 0.7907
6253000000.0 0.3953 0.7545
6256000000.0 0.8313 0.1874
6259000000.0 0.6525 -0.5114
6262000000.0 0.03202 -0.7943
6266000000.0 -0.6002 -0.5395
6269000000.0 -0.796 0.1035
