! Created with skrf 1.8.0 (http://scikit-rf.org).
# Hz S RI R 50.0 
!freq ReS11 ImS11
4000000000.0 -0.9634 -1.21
4003000000.0 -1.537 -0.006143
4006000000.0 -0.908 1.202
4009000000.0 0.3765 1.485
4012000000.0 1.432 0.6719
4016000000.0 1.441 -0.7135
4019000000.0 0.3556 -1.606
4022000000.0 -1.079 -1.224
4025000000.0 -1.613 0.04706
4028000000.0 -1.018 1.348
4031000000.0 0.4646 1.643
4034000000.0 1.583 0.7054
4038000000.0 1.493 -0.8134
4041000000.0 0.2879 -1.676
4044000000.0 -1.125 -1.251
4047000000.0 -1.67 0.08991
4050000000.0 -0.9736 1.359
4053000000.0 0.4298 1.557
4056000000.0 1.538 0.6602
4059000000.0 1.475 -0.7428
4062000000.0 0.336 -1.599
4066000000.0 -0.9903 -1.28
4069000000.0 -1.658 -0.03253
4072000000.0 -1.065 1.195
4075000000.0 0.2583 1.577
4078000000.0 1.413 0.8006
4081000000.0 1.484 -0.5686
4084000000.0 0.5078 -1.493
4088000000.0 -0.7968 -1.369
4091000000.0 -1.538 -0.1833
4094000000.0 -1.153 1.088
4097000000.0 0.111 1.556
4100000000.0 1.281 0.891
4103000000.0 1.431 -0.4179
4106000000.0 0.5987 -1.357
4109000000.0 -0.6092 -1.328
4112000000.0 -1.399 -0.3384
4116000000.0 -1.138 0.8703
4119000000.0 -0.08923 1.414
4122000000.0 1.029 0.9861
4125000000.0 1.372 -0.1567
4128000000.0 0.7917 -1.139
4131000000.0 -0.3943 -1.275
4134000000.0 -1.267 -0.5365
4138000000.0 -1.226 0.6788
4141000000.0 -0.2571 1.383
4144000000.0 0.933 1.064
4147000000.0 1.419 -0.06564
4150000000.0 0.8035 -1.152
4153000000.0 -0.4072 -1.367
4156000000.0 -1.341 -0.5004
4159000000.0 -1.202 0.737
4162000000.0 -0.1191 1.446
4166000000.0 1.088 0.9134
4169000000.0 1.42 -0.3111
4172000000.0 0.648 -1.294
4175000000.0 -0.6539 -1.279
4178000000.0 -1.405 -0.1965
4181000000.0 -0.9984 1.019
4184000000.0 0.2566 1.385
4188000000.0 1.293 0.6357
4191000000.0 1.275 -0.6795
4194000000.0 0.1926 -1.43
4197000000.0 -1.072 -0.9799
4200000000.0 -1.421 0.2801
4203000000.0 -0.5762 1.344
4206000000.0 0.7248 1.219
4209000000.0 1.442 0.1578
4212000000.0 0.9666 -1.084
4216000000.0 -0.3057 -1.434
4219000000.0 -1.318 -0.5859
4222000000.0 -1.242 0.7106
4225000000.0 -0.1523 1.434
4228000000.0 1.026 0.9971
4231000000.0 1.445 -0.2287
4234000000.0 0.6857 -1.238
4238000000.0 -0.5282 -1.231
4241000000.0 -1.355 -0.3874
4244000000.0 -1.091 0.8534
4247000000.0 -0.04899 1.369
4250000000.0 1.047 0.863
4253000000.0 1.403 -0.2294
4256000000.0 0.6306 -1.251
4259000000.0 -0.5222 -1.274
4262000000.0 -1.314 -0.3687
4266000000.0 -1.142 0.822
4269000000.0 -0.07328 1.422
4272000000.0 1.07 1.008
4275000000.0 1.472 -0.2621
4278000000.0 0.7276 -1.282
4281000000.0 -0.5603 -1.377
4284000000.0 -1.413 -0.4378
4288000000.0 -1.194 0.8324
4291000000.0 -0.1079 1.454
4294000000.0 1.125 0.9917
4297000000.0 1.498 -0.2489
4300000000.0 0.7252 -1.315
4303000000.0 -0.5601 -1.416
4306000000.0 -1.453 -0.464
4309000000.0 -1.281 0.8716
4312000000.0 -0.07187 1.536
4316000000.0 1.173 1.032
4319000000.0 1.559 -0.2732
4322000000.0 0.7552 -1.416
4325000000.0 -0.7067 -1.418
4328000000.0 -1.628 -0.3218
4331000000.0 -1.257 1.058
4334000000.0 0.1056 1.659
4338000000.0 1.405 0.8715
4341000000.0 1.536 -0.6437
4344000000.0 0.4037 -1.584
4347000000.0 -1.065 -1.247
4350000000.0 -1.578 0.1055
4353000000.0 -0.8492 1.33
4356000000.0 0.5853 1.453
4359000000.0 1.473 0.3753
4362000000.0 1.158 -0.928
4366000000.0 -0.03535 -1.466
4369000000.0 -1.165 -0.8334
4372000000.0 -1.341 0.4429
4375000000.0 -0.4888 1.301
4378000000.0 0.7001 1.142
4381000000.0 1.395 0.1606
4384000000.0 0.9001 -0.9762
4388000000.0 -0.2137 -1.341
4391000000.0 -1.175 -0.6252
4394000000.0 -1.229 0.5169
4397000000.0 -0.3357 1.288
4400000000.0 0.8139 1.055
4403000000.0 1.333 0.04372
4406000000.0 0.8586 -1.004
4409000000.0 -0.2506 -1.312
4412000000.0 -1.183 -0.6175
4416000000.0 -1.212 0.5484
4419000000.0 -0.3363 1.267
4422000000.0 0.7866 1.102
4425000000.0 1.33 0.08442
4428000000.0 0.8978 -0.9831
4431000000.0 -0.1434 -1.346
4434000000.0 -1.149 -0.7085
4438000000.0 -1.307 0.44
4441000000.0 -0.5021 1.302
4444000000.0 0.6891 1.242
4447000000.0 1.408 0.2687
4450000000.0 1.106 -0.9287
4453000000.0 0.000974 -1.48
4456000000.0 -1.125 -0.932
4459000000.0 -1.489 0.2972
4462000000.0 -0.7139 1.37
4466000000.0 0.6241 1.396
4469000000.0 1.503 0.4316
4472000000.0 1.294 -0.9338
4475000000.0 0.1154 -1.593
4478000000.0 -1.149 -1.082
4481000000.0 -1.564 0.2343
4484000000.0 -0.8275 1.359
4488000000.0 0.5528 1.497
4491000000.0 1.506 0.5144
4494000000.0 1.306 -0.8565
4497000000.0 0.1725 -1.597
4500000000.0 -1.136 -1.132
4503000000.0 -1.5 0.1857
4506000000.0 -0.808 1.308
4509000000.0 0.5183 1.437
4512000000.0 1.442 0.4807
4516000000.0 1.29 -0.8224
4519000000.0 0.1214 -1.498
4522000000.0 -1.035 -1.032
4525000000.0 -1.456 0.221
4528000000.0 -0.732 1.262
4531000000.0 0.5366 1.289
4534000000.0 1.356 0.3488
4538000000.0 1.107 -0.8694
4541000000.0 0.01111 -1.372
4544000000.0 -1.026 -0.8141
4547000000.0 -1.261 0.33
4550000000.0 -0.5321 1.15
4553000000.0 0.5719 1.113
4556000000.0 1.202 0.2098
4559000000.0 0.9061 -0.8364
4562000000.0 -0.0826 -1.191
4566000000.0 -0.9853 -0.6429
4569000000.0 -1.099 0.377
4572000000.0 -0.3627 1.087
4575000000.0 0.5919 0.9286
4578000000.0 1.123 0.0896
4581000000.0 0.7376 -0.8266
4584000000.0 -0.1903 -1.104
4588000000.0 -1.004 -0.5136
4591000000.0 -1.015 0.4578
4594000000.0 -0.2526 1.078
4597000000.0 0.6932 0.8502
4600000000.0 1.092 -0.005812
4603000000.0 0.6866 -0.8559
4606000000.0 -0.2627 -1.084
4609000000.0 -1.04 -0.4394
4612000000.0 -0.9898 0.5087
4616000000.0 -0.2065 1.115
4619000000.0 0.7112 0.8548
4622000000.0 1.156 -0.0007233
4625000000.0 0.6931 -0.901
4628000000.0 -0.2678 -1.139
4631000000.0 -1.073 -0.5061
4634000000.0 -1.06 0.516
4638000000.0 -0.2882 1.162
4641000000.0 0.7462 0.965
4644000000.0 1.217 0.04122
4647000000.0 0.8202 -0.9422
4650000000.0 -0.212 -1.227
4653000000.0 -1.133 -0.5648
4656000000.0 -1.176 0.5138
4659000000.0 -0.3828 1.231
4662000000.0 0.7463 1.051
4666000000.0 1.283 0.07868
4669000000.0 0.8878 -0.9405
4672000000.0 -0.1583 -1.294
4675000000.0 -1.144 -0.682
4678000000.0 -1.287 0.4189
4681000000.0 -0.4296 1.252
4684000000.0 0.6962 1.19
4688000000.0 1.301 0.1886
4691000000.0 0.9921 -0.9071
4694000000.0 -0.0843 -1.366
4697000000.0 -1.156 -0.7828
4700000000.0 -1.348 0.3966
4703000000.0 -0.4769 1.31
4706000000.0 0.73 1.226
4709000000.0 1.396 0.1767
4712000000.0 0.974 -1.002
4716000000.0 -0.1663 -1.34
4719000000.0 -1.195 -0.6513
4722000000.0 -1.239 0.5361
4725000000.0 -0.3237 1.274
4728000000.0 0.7574 1.014
4731000000.0 1.285 -0.01434
4734000000.0 0.7303 -1.001
4738000000.0 -0.306 -1.196
4741000000.0 -1.095 -0.4457
4744000000.0 -1.007 0.5433
4747000000.0 -0.1578 1.129
4750000000.0 0.778 0.7661
4753000000.0 1.077 -0.163
4756000000.0 0.5326 -0.9264
4759000000.0 -0.4143 -0.9364
4762000000.0 -0.9911 -0.2522
4766000000.0 -0.7834 0.6375
4769000000.0 0.01445 0.9849
4772000000.0 0.7922 0.5664
4775000000.0 0.9183 -0.2908
4778000000.0 0.3066 -0.9121
4781000000.0 -0.513 -0.8036
4784000000.0 -0.9234 -0.08494
4788000000.0 -0.6382 0.6639
4791000000.0 0.1007 0.9297
4794000000.0 0.7974 0.45
4797000000.0 0.8529 -0.3413
4800000000.0 0.2819 -0.918
4803000000.0 -0.5054 -0.7633
4806000000.0 -0.9287 -0.06181
4809000000.0 -0.6572 0.6759
4812000000.0 0.1055 0.9493
4816000000.0 0.8501 0.4837
4819000000.0 0.9279 -0.3393
4822000000.0 0.3205 -0.9793
4825000000.0 -0.5346 -0.864
4828000000.0 -1.035 -0.1363
4831000000.0 -0.7547 0.7163
4834000000.0 0.1202 1.097
4838000000.0 0.9422 0.6221
4841000000.0 1.083 -0.3193
4844000000.0 0.4355 -1.038
4847000000.0 -0.5362 -1.003
4850000000.0 -1.147 -0.2347
4853000000.0 -0.9205 0.7318
4856000000.0 0.007565 1.204
4859000000.0 0.9518 0.778
4862000000.0 1.221 -0.238
4866000000.0 0.5825 -1.123
4869000000.0 -0.5106 -1.184
4872000000.0 -1.28 -0.3502
4875000000.0 -1.091 0.779
4878000000.0 -0.08531 1.336
4881000000.0 1.04 0.8757
4884000000.0 1.343 -0.2232
4888000000.0 0.6566 -1.197
4891000000.0 -0.5541 -1.264
4894000000.0 -1.326 -0.3919
4897000000.0 -1.087 0.8145
4900000000.0 -0.04965 1.338
4903000000.0 1.027 0.8571
4906000000.0 1.307 -0.2983
4909000000.0 0.5724 -1.159
4912000000.0 -0.5416 -1.163
4916000000.0 -1.225 -0.3012
4919000000.0 -1.001 0.7551
4922000000.0 -0.02642 1.196
4925000000.0 0.8771 0.7461
4928000000.0 1.108 -0.2262
4931000000.0 0.5339 -1.022
4934000000.0 -0.4263 -0.9858
4938000000.0 -1.071 -0.251
4941000000.0 -0.8595 0.6282
4944000000.0 -0.05473 1.033
4947000000.0 0.7646 0.6662
4950000000.0 1.0 -0.1651
4953000000.0 0.4908 -0.8825
4956000000.0 -0.3875 -0.936
4959000000.0 -0.9392 -0.2617
4962000000.0 -0.7713 0.5638
4966000000.0 -0.04631 0.9647
4969000000.0 0.7128 0.6053
4972000000.0 0.9176 -0.183
4975000000.0 0.4203 -0.8424
4978000000.0 -0.3635 -0.8373
4981000000.0 -0.9133 -0.2362
4984000000.0 -0.7138 0.5348
4988000000.0 -0.01813 0.912
4991000000.0 0.677 0.6073
4994000000.0 0.9193 -0.1334
4997000000.0 0.4569 -0.8039
5000000000.0 -0.3516 -0.8821
5003000000.0 -0.9064 -0.3179
5006000000.0 -0.7891 0.5656
5009000000.0 -0.09888 0.999
5012000000.0 0.7291 0.7174
5016000000.0 1.042 -0.1112
5019000000.0 0.5588 -0.8997
5022000000.0 -0.3486 -1.014
5025000000.0 -1.021 -0.3644
5028000000.0 -0.9455 0.5747
5031000000.0 -0.1495 1.13
5034000000.0 0.7894 0.8173
5038000000.0 1.149 -0.0835
5041000000.0 0.678 -0.9518
5044000000.0 -0.2978 -1.114
5047000000.0 -1.102 -0.4845
5050000000.0 -1.072 0.5155
5053000000.0 -0.2895 1.166
5056000000.0 0.7237 0.9922
5059000000.0 1.196 0.06129
5062000000.0 0.8518 -0.9434
5066000000.0 -0.1943 -1.271
5069000000.0 -1.11 -0.6692
5072000000.0 -1.202 0.4638
5075000000.0 -0.4289 1.214
5078000000.0 0.7044 1.081
5081000000.0 1.291 0.1621
5084000000.0 0.9616 -0.8796
5088000000.0 -0.08368 -1.277
5091000000.0 -1.027 -0.7622
5094000000.0 -1.208 0.2813
5097000000.0 -0.5195 1.113
5100000000.0 0.5604 1.106
5103000000.0 1.168 0.3397
5106000000.0 0.9611 -0.6746
5109000000.0 0.07229 -1.212
5112000000.0 -0.8562 -0.8713
5116000000.0 -1.171 0.1165
5119000000.0 -0.6926 0.9693
5122000000.0 0.2909 1.134
5125000000.0 1.006 0.4792
5128000000.0 1.025 -0.4836
5131000000.0 0.2902 -1.094
5134000000.0 -0.647 -0.8969
5138000000.0 -1.079 -0.05267
5141000000.0 -0.7381 0.7845
5144000000.0 0.1039 1.041
5147000000.0 0.8566 0.5744
5150000000.0 0.9959 -0.309
5153000000.0 0.4093 -0.9311
5156000000.0 -0.435 -0.8825
5159000000.0 -0.9532 -0.1764
5162000000.0 -0.783 0.6183
5166000000.0 -0.03507 0.9583
5169000000.0 0.7374 0.6223
5172000000.0 0.9522 -0.1842
5175000000.0 0.4323 -0.8303
5178000000.0 -0.315 -0.893
5181000000.0 -0.8802 -0.2696
5184000000.0 -0.7945 0.5345
5188000000.0 -0.08155 0.9344
5191000000.0 0.696 0.6258
5194000000.0 0.9263 -0.1099
5197000000.0 0.4778 -0.7766
5200000000.0 -0.3136 -0.8462
5203000000.0 -0.9012 -0.2901
5206000000.0 -0.7678 0.4938
5209000000.0 -0.08679 0.9725
5212000000.0 0.6926 0.6493
5216000000.0 0.9429 -0.1591
5219000000.0 0.4721 -0.8306
5222000000.0 -0.3484 -0.8839
5225000000.0 -0.9113 -0.276
5228000000.0 -0.7804 0.5604
5231000000.0 -0.08989 0.9741
5234000000.0 0.722 0.6678
5238000000.0 0.9749 -0.1573
5241000000.0 0.509 -0.8517
5244000000.0 -0.3645 -0.9201
5247000000.0 -1.003 -0.3243
5250000000.0 -0.8635 0.5505
5253000000.0 -0.1141 1.015
5256000000.0 0.7412 0.7325
5259000000.0 1.056 -0.07465
5262000000.0 0.6093 -0.8688
5266000000.0 -0.2746 -1.019
5269000000.0 -0.9634 -0.4294
5272000000.0 -0.9266 0.4658
5275000000.0 -0.2297 1.012
5278000000.0 0.642 0.8608
5281000000.0 1.072 0.03536
5284000000.0 0.7266 -0.8332
5288000000.0 -0.1644 -1.066
5291000000.0 -0.9202 -0.6028
5294000000.0 -1.061 0.3072
5297000000.0 -0.4169 1.007
5300000000.0 0.4816 1.001
5303000000.0 1.077 0.2627
5306000000.0 0.9167 -0.6629
5309000000.0 0.07654 -1.098
5312000000.0 -0.7888 -0.7711
5316000000.0 -1.132 0.06126
5319000000.0 -0.6339 0.928
5322000000.0 0.3067 1.109
5325000000.0 1.06 0.4977
5328000000.0 1.045 -0.4778
5331000000.0 0.3125 -1.109
5334000000.0 -0.663 -0.9468
5338000000.0 -1.144 -0.09884
5341000000.0 -0.8129 0.8241
5344000000.0 0.1045 1.163
5347000000.0 0.9274 0.6904
5350000000.0 1.098 -0.3123
5353000000.0 0.4764 -1.049
5356000000.0 -0.4616 -1.034
5359000000.0 -1.116 -0.2709
5362000000.0 -0.9194 0.6647
5366000000.0 -0.08644 1.14
5369000000.0 0.8048 0.769
5372000000.0 1.115 -0.1397
5375000000.0 0.6087 -0.9607
5378000000.0 -0.3869 -1.065
5381000000.0 -1.041 -0.3733
5384000000.0 -0.9564 0.5687
5388000000.0 -0.1519 1.068
5391000000.0 0.7502 0.7977
5394000000.0 1.074 -0.05567
5397000000.0 0.5534 -0.8489
5400000000.0 -0.3102 -0.9816
5403000000.0 -0.9653 -0.3345
5406000000.0 -0.8647 0.5153
5409000000.0 -0.1325 0.9673
5412000000.0 0.6619 0.6871
5416000000.0 0.9684 -0.06784
5419000000.0 0.5332 -0.7768
5422000000.0 -0.2828 -0.8933
5425000000.0 -0.8963 -0.3597
5428000000.0 -0.7979 0.4858
5431000000.0 -0.1051 0.887
5434000000.0 0.66 0.6345
5438000000.0 0.884 -0.1058
5441000000.0 0.4647 -0.7792
5444000000.0 -0.3117 -0.8313
5447000000.0 -0.8405 -0.2593
5450000000.0 -0.7158 0.5206
5453000000.0 -0.06514 0.8466
5456000000.0 0.6619 0.6129
5459000000.0 0.8282 -0.1371
5462000000.0 0.4409 -0.7637
5466000000.0 -0.2957 -0.7834
5469000000.0 -0.7941 -0.2956
5472000000.0 -0.7376 0.473
5475000000.0 -0.1203 0.882
5478000000.0 0.6271 0.6161
5481000000.0 0.9024 -0.05266
5484000000.0 0.5318 -0.7027
5488000000.0 -0.2112 -0.899
5491000000.0 -0.82 -0.3706
5494000000.0 -0.8201 0.4033
5497000000.0 -0.213 0.8854
5500000000.0 0.5602 0.7567
5503000000.0 0.9455 0.03775
5506000000.0 0.6447 -0.7046
5509000000.0 -0.1442 -0.912
5512000000.0 -0.7984 -0.5386
5516000000.0 -0.9059 0.3125
5519000000.0 -0.3626 0.894
5522000000.0 0.4713 0.8867
5525000000.0 0.9404 0.2053
5528000000.0 0.7942 -0.5719
5531000000.0 0.01987 -0.993
5534000000.0 -0.7341 -0.714
5538000000.0 -1.015 0.1231
5541000000.0 -0.562 0.8533
5544000000.0 0.2894 0.9755
5547000000.0 0.9328 0.4204
5550000000.0 0.9468 -0.4679
5553000000.0 0.2371 -1.006
5556000000.0 -0.6593 -0.8757
5559000000.0 -1.07 -0.04556
5562000000.0 -0.7139 0.796
5566000000.0 0.1305 1.062
5569000000.0 0.8832 0.5518
5572000000.0 1.026 -0.3134
5575000000.0 0.3985 -0.9695
5578000000.0 -0.5033 -0.9543
5581000000.0 -1.029 -0.2123
5584000000.0 -0.8466 0.6495
5588000000.0 -0.02356 1.017
5591000000.0 0.7654 0.6469
5594000000.0 1.031 -0.16
5597000000.0 0.5214 -0.8679
5600000000.0 -0.3298 -0.9103
5603000000.0 -0.9358 -0.353
5606000000.0 -0.8653 0.4975
5609000000.0 -0.1574 0.9688
5612000000.0 0.6476 0.7185
5616000000.0 0.9573 -0.05149
5619000000.0 0.5617 -0.747
5622000000.0 -0.2256 -0.9108
5625000000.0 -0.8273 -0.424
5628000000.0 -0.8329 0.4137
5631000000.0 -0.2321 0.8814
5634000000.0 0.5434 0.7226
5638000000.0 0.8835 0.03037
5641000000.0 0.5548 -0.679
5644000000.0 -0.1593 -0.8634
5647000000.0 -0.7679 -0.4248
5650000000.0 -0.8015 0.3591
5653000000.0 -0.2389 0.8359
5656000000.0 0.5541 0.6795
5659000000.0 0.8678 0.02989
5662000000.0 0.5677 -0.6379
5666000000.0 -0.1726 -0.865
5669000000.0 -0.7772 -0.4036
5672000000.0 -0.7956 0.3642
5675000000.0 -0.2051 0.8409
5678000000.0 0.5403 0.688
5681000000.0 0.8585 0.01247
5684000000.0 0.5893 -0.6823
5688000000.0 -0.1796 -0.8669
5691000000.0 -0.7877 -0.4041
5694000000.0 -0.8552 0.377
5697000000.0 -0.2438 0.9265
5700000000.0 0.5855 0.7396
5703000000.0 0.9566 0.04071
5706000000.0 0.6331 -0.702
5709000000.0 -0.1846 -0.9406
5712000000.0 -0.8601 -0.4177
5716000000.0 -0.8908 0.3593
5719000000.0 -0.262 0.9662
5722000000.0 0.5536 0.8117
5725000000.0 1.002 0.06407
5728000000.0 0.7056 -0.7259
5731000000.0 -0.1479 -1.038
5734000000.0 -0.8594 -0.5316
5738000000.0 -0.9892 0.3337
5741000000.0 -0.4025 1.006
5744000000.0 0.5112 0.9232
5747000000.0 1.035 0.187
5750000000.0 0.8259 -0.6888
5753000000.0 -0.02135 -1.038
5756000000.0 -0.8313 -0.6581
5759000000.0 -1.085 0.203
5762000000.0 -0.5449 0.9388
5766000000.0 0.405 1.02
5769000000.0 1.018 0.3704
5772000000.0 0.9322 -0.5757
5775000000.0 0.1552 -1.074
5778000000.0 -0.7359 -0.8236
5781000000.0 -1.099 -3.882e-05
5784000000.0 -0.6774 0.8427
5788000000.0 0.199 1.057
5791000000.0 0.994 0.5456
5794000000.0 1.01 -0.413
5797000000.0 0.344 -1.044
5800000000.0 -0.5993 -0.9029
5803000000.0 -1.056 -0.1251
5806000000.0 -0.8104 0.7216
5809000000.0 0.06747 1.077
5812000000.0 0.8249 0.6014
5816000000.0 1.031 -0.2442
5819000000.0 0.4204 -0.9682
5822000000.0 -0.4486 -0.9475
5825000000.0 -1.006 -0.2921
5828000000.0 -0.8532 0.6164
5831000000.0 -0.07313 1.031
5834000000.0 0.7382 0.6757
5838000000.0 1.034 -0.1048
5841000000.0 0.5941 -0.8416
5844000000.0 -0.2833 -0.9646
5847000000.0 -0.9017 -0.3892
5850000000.0 -0.8785 0.4891
5853000000.0 -0.1905 0.9631
5856000000.0 0.6264 0.7209
5859000000.0 0.9487 -0.008622
5862000000.0 0.5749 -0.7688
5866000000.0 -0.2364 -0.9357
5869000000.0 -0.8592 -0.3778
5872000000.0 -0.8149 0.4113
5875000000.0 -0.1976 0.9117
5878000000.0 0.5791 0.7046
5881000000.0 0.9124 -0.04318
5884000000.0 0.5314 -0.7269
5888000000.0 -0.1781 -0.8699
5891000000.0 -0.8119 -0.3937
5894000000.0 -0.7958 0.3526
5897000000.0 -0.2264 0.8508
5900000000.0 0.5309 0.7137
5903000000.0 0.8936 -0.01318
5906000000.0 0.5649 -0.658
5909000000.0 -0.1677 -0.8322
5912000000.0 -0.7597 -0.4065
5916000000.0 -0.7769 0.3289
5919000000.0 -0.2286 0.85
5922000000.0 0.4786 0.7504
5925000000.0 0.8286 0.05045
5928000000.0 0.6056 -0.6053
5931000000.0 -0.1106 -0.8439
5934000000.0 -0.6961 -0.4379
5938000000.0 -0.803 0.2614
5941000000.0 -0.3135 0.7813
5944000000.0 0.4146 0.7464
5947000000.0 0.879 0.1427
5950000000.0 0.7078 -0.5495
5953000000.0 -0.01689 -0.849
5956000000.0 -0.6872 -0.554
5959000000.0 -0.8532 0.1827
5962000000.0 -0.4587 0.7738
5966000000.0 0.3158 0.8422
5969000000.0 0.8588 0.307
5972000000.0 0.7733 -0.464
5975000000.0 0.1164 -0.9052
5978000000.0 -0.6341 -0.688
5981000000.0 -0.9297 0.03587
5984000000.0 -0.6049 0.73
5988000000.0 0.1979 0.9502
5991000000.0 0.8438 0.4378
5994000000.0 0.8841 -0.3735
5997000000.0 0.312 -0.8994
6000000000.0 -0.5149 -0.8046
6003000000.0 -0.9619 -0.1136
6006000000.0 -0.7167 0.6533
6009000000.0 0.06416 0.9616
6012000000.0 0.8038 0.5743
6016000000.0 0.9445 -0.2307
6019000000.0 0.4241 -0.8715
6022000000.0 -0.4202 -0.919
6025000000.0 -0.9538 -0.2571
6028000000.0 -0.7882 0.5921
6031000000.0 -0.05989 0.9725
6034000000.0 0.7137 0.6593
6038000000.0 0.9874 -0.1333
6041000000.0 0.5509 -0.83
6044000000.0 -0.2978 -0.9524
6047000000.0 -0.9402 -0.3319
6050000000.0 -0.8718 0.5124
6053000000.0 -0.1543 0.9904
6056000000.0 0.6414 0.6932
6059000000.0 0.9922 -0.05272
6062000000.0 0.5674 -0.7867
6066000000.0 -0.2402 -0.9296
6069000000.0 -0.899 -0.3774
6072000000.0 -0.8519 0.452
6075000000.0 -0.1859 0.9181
6078000000.0 0.5845 0.7099
6081000000.0 0.9568 0.01767
6084000000.0 0.5866 -0.6903
6088000000.0 -0.1897 -0.881
6091000000.0 -0.79 -0.3817
6094000000.0 -0.785 0.3673
6097000000.0 -0.2074 0.8488
6100000000.0 0.5014 0.7253
6103000000.0 0.8613 0.04391
6106000000.0 0.5985 -0.6585
6109000000.0 -0.1435 -0.851
6112000000.0 -0.7282 -0.4139
6116000000.0 -0.7883 0.3106
6119000000.0 -0.2404 0.8249
6122000000.0 0.4654 0.7039
6125000000.0 0.8515 0.05989
6128000000.0 0.5845 -0.6317
6131000000.0 -0.1364 -0.8678
6134000000.0 -0.7304 -0.4368
6138000000.0 -0.7939 0.3183
6141000000.0 -0.2695 0.8176
6144000000.0 0.4815 0.6838
6147000000.0 0.8555 0.118
6150000000.0 0.591 -0.6038
6153000000.0 -0.06744 -0.8606
6156000000.0 -0.6965 -0.4922
6159000000.0 -0.8347 0.2659
6162000000.0 -0.3446 0.8222
6166000000.0 0.4173 0.7824
6169000000.0 0.8503 0.1437
6172000000.0 0.7026 -0.5586
6175000000.0 -0.01701 -0.8963
6178000000.0 -0.6886 -0.5455
6181000000.0 -0.8796 0.2029
6184000000.0 -0.4074 0.8069
6188000000.0 0.3822 0.7855
6191000000.0 0.8991 0.2441
6194000000.0 0.7797 -0.5296
6197000000.0 0.08812 -0.93
6200000000.0 -0.6982 -0.5834
6203000000.0 -0.8897 0.08436
6206000000.0 -0.4904 0.749
6209000000.0 0.2842 0.8656
6212000000.0 0.8868 0.3106
6216000000.0 0.7938 -0.453
6219000000.0 0.1618 -0.9061
6222000000.0 -0.6017 -0.6889
6225000000.0 -0.9073 0.02014
6228000000.0 -0.5775 0.6809
6231000000.0 0.2018 0.8522
6234000000.0 0.7689 0.429
6238000000.0 0.8044 -0.3438
6241000000.0 0.2361 -0.8513
6244000000.0 -0.5083 -0.7333
6247000000.0 -0.8533 -0.1127
6250000000.0 -0.5952 0.6007
6253000000.0 0.06156 0.8446
6256000000.0 0.6622 0.4656
6259000000.0 0.7765 -0.2064
6262000000.0 0.3539 -0.7394
