! Created with skrf 1.8.0 (http://scikit-rf.org).
# Hz S RI R 50.0 
!freq ReS11 ImS11
4000000000.0 -0.4585 1.72
4003000000.0 1.08 1.362
4006000000.0 1.741 -0.1035
4009000000.0 0.9522 -1.482
4012000000.0 -0.6165 -1.575
4016000000.0 -1.634 -0.5431
4019000000.0 -1.384 1.021
4022000000.0 -0.01308 1.678
4025000000.0 1.325 1.027
4028000000.0 1.551 -0.494
4031000000.0 0.5089 -1.519
4034000000.0 -0.89 -1.329
4038000000.0 -1.513 -0.05477
4041000000.0 -0.9212 1.176
4044000000.0 0.3862 1.409
4047000000.0 1.294 0.5844
4050000000.0 1.185 -0.7161
4053000000.0 0.2047 -1.361
4056000000.0 -1.003 -0.8696
4059000000.0 -1.316 0.3098
4062000000.0 -0.5575 1.154
4066000000.0 0.5623 1.129
4069000000.0 1.27 0.2496
4072000000.0 0.9462 -0.8927
4075000000.0 -0.1386 -1.299
4078000000.0 -1.21 -0.6877
4081000000.0 -1.235 0.5716
4084000000.0 -0.3073 1.345
4088000000.0 0.913 1.053
4091000000.0 1.453 -0.1527
4094000000.0 0.7279 -1.276
4097000000.0 -0.6011 -1.325
4100000000.0 -1.447 -0.3354
4103000000.0 -1.093 0.9989
4106000000.0 0.1231 1.512
4109000000.0 1.255 0.7687
4112000000.0 1.368 -0.562
4116000000.0 0.4177 -1.437
4119000000.0 -0.8843 -1.179
4122000000.0 -1.472 0.003277
4125000000.0 -0.9614 1.146
4128000000.0 0.3128 1.46
4131000000.0 1.339 0.6614
4134000000.0 1.34 -0.6377
4138000000.0 0.3571 -1.466
4141000000.0 -0.9465 -1.23
4144000000.0 -1.525 -0.03504
4147000000.0 -0.9845 1.192
4150000000.0 0.2879 1.522
4153000000.0 1.361 0.7576
4156000000.0 1.438 -0.6008
4159000000.0 0.4438 -1.497
4162000000.0 -0.8446 -1.26
4166000000.0 -1.565 -0.1458
4169000000.0 -1.031 1.102
4172000000.0 0.1356 1.52
4175000000.0 1.222 0.8777
4178000000.0 1.43 -0.3639
4181000000.0 0.6609 -1.316
4184000000.0 -0.5829 -1.376
4188000000.0 -1.426 -0.4395
4191000000.0 -1.255 0.782
4194000000.0 -0.205 1.485
4197000000.0 0.9987 1.147
4200000000.0 1.552 -0.06508
4203000000.0 0.9827 -1.189
4206000000.0 -0.2753 -1.556
4209000000.0 -1.385 -0.7847
4212000000.0 -1.482 0.6376
4216000000.0 -0.4881 1.585
4219000000.0 0.9133 1.364
4222000000.0 1.639 0.1924
4225000000.0 1.193 -1.177
4228000000.0 -0.1345 -1.656
4231000000.0 -1.407 -0.885
4234000000.0 -1.622 0.4829
4238000000.0 -0.6407 1.584
4241000000.0 0.8043 1.468
4244000000.0 1.692 0.2773
4247000000.0 1.296 -1.145
4250000000.0 -0.05489 -1.709
4253000000.0 -1.347 -1.006
4256000000.0 -1.667 0.4523
4259000000.0 -0.6836 1.631
4262000000.0 0.8929 1.534
4266000000.0 1.761 0.2556
4269000000.0 1.293 -1.223
4272000000.0 -0.2221 -1.779
4275000000.0 -1.546 -0.8951
4278000000.0 -1.651 0.694
4281000000.0 -0.3969 1.673
4284000000.0 1.087 1.36
4288000000.0 1.702 -0.0532
4291000000.0 0.9902 -1.336
4294000000.0 -0.4625 -1.523
4297000000.0 -1.47 -0.5929
4300000000.0 -1.353 0.7929
4303000000.0 -0.2391 1.501
4306000000.0 1.086 1.052
4309000000.0 1.46 -0.184
4312000000.0 0.7912 -1.223
4316000000.0 -0.4643 -1.34
4319000000.0 -1.298 -0.47
4322000000.0 -1.203 0.7296
4325000000.0 -0.1959 1.408
4328000000.0 0.9525 1.026
4331000000.0 1.385 -0.1189
4334000000.0 0.7832 -1.16
4338000000.0 -0.376 -1.312
4341000000.0 -1.28 -0.5227
4344000000.0 -1.183 0.6637
4347000000.0 -0.219 1.406
4350000000.0 0.9162 1.035
4353000000.0 1.383 -0.03201
4356000000.0 0.8411 -1.069
4359000000.0 -0.3024 -1.35
4362000000.0 -1.201 -0.6387
4366000000.0 -1.243 0.5612
4369000000.0 -0.4142 1.313
4372000000.0 0.7264 1.151
4375000000.0 1.353 0.1751
4378000000.0 1.025 -0.9481
4381000000.0 -0.06006 -1.378
4384000000.0 -1.121 -0.83
4388000000.0 -1.398 0.3196
4391000000.0 -0.6551 1.267
4394000000.0 0.5431 1.349
4397000000.0 1.418 0.4303
4400000000.0 1.225 -0.7975
4403000000.0 0.1722 -1.513
4406000000.0 -1.055 -1.076
4409000000.0 -1.505 0.1377
4412000000.0 -0.8864 1.237
4416000000.0 0.419 1.486
4419000000.0 1.438 0.6395
4422000000.0 1.381 -0.6871
4425000000.0 0.3698 -1.501
4428000000.0 -0.927 -1.221
4431000000.0 -1.559 -0.0676
4434000000.0 -1.065 1.162
4438000000.0 0.2084 1.595
4441000000.0 1.386 0.8419
4444000000.0 1.483 -0.5349
4447000000.0 0.5265 -1.516
4450000000.0 -0.8756 -1.382
4453000000.0 -1.585 -0.1663
4456000000.0 -1.159 1.144
4459000000.0 0.1958 1.573
4462000000.0 1.38 0.8665
4466000000.0 1.488 -0.5574
4469000000.0 0.492 -1.515
4472000000.0 -0.8779 -1.315
4475000000.0 -1.572 -0.09587
4478000000.0 -1.022 1.158
4481000000.0 0.2573 1.465
4484000000.0 1.297 0.6939
4488000000.0 1.331 -0.5841
4491000000.0 0.3366 -1.358
4494000000.0 -0.8662 -1.069
4497000000.0 -1.353 0.00934
4500000000.0 -0.8194 1.066
4503000000.0 0.3103 1.182
4506000000.0 1.135 0.492
4509000000.0 1.082 -0.5749
4512000000.0 0.2096 -1.173
4516000000.0 -0.8106 -0.8837
4519000000.0 -1.172 0.1027
4522000000.0 -0.6117 0.9825
4525000000.0 0.3756 1.063
4528000000.0 1.059 0.3698
4531000000.0 0.9354 -0.6174
4534000000.0 0.06492 -1.093
4538000000.0 -0.7685 -0.7041
4541000000.0 -1.063 0.1975
4544000000.0 -0.5376 0.9211
4547000000.0 0.3742 0.9858
4550000000.0 1.044 0.2928
4553000000.0 0.8594 -0.628
4556000000.0 0.06388 -1.074
4559000000.0 -0.7582 -0.7108
4562000000.0 -1.058 0.1308
4566000000.0 -0.5396 0.9196
4569000000.0 0.3756 1.018
4572000000.0 1.027 0.338
4575000000.0 0.931 -0.5969
4578000000.0 0.1623 -1.095
4581000000.0 -0.7966 -0.8006
4584000000.0 -1.135 0.07614
4588000000.0 -0.6424 0.9514
4591000000.0 0.3075 1.127
4594000000.0 1.092 0.4666
4597000000.0 1.054 -0.5417
4600000000.0 0.2507 -1.186
4603000000.0 -0.7506 -0.9895
4606000000.0 -1.229 0.001028
4609000000.0 -0.8344 0.9277
4612000000.0 0.2157 1.222
4616000000.0 1.096 0.5934
4619000000.0 1.173 -0.4462
4622000000.0 0.4225 -1.204
4625000000.0 -0.6665 -1.104
4628000000.0 -1.294 -0.1833
4631000000.0 -0.9769 0.9098
4634000000.0 0.05223 1.353
4638000000.0 1.05 0.7843
4641000000.0 1.329 -0.3351
4644000000.0 0.567 -1.222
4647000000.0 -0.595 -1.228
4650000000.0 -1.349 -0.2877
4653000000.0 -1.086 0.8369
4656000000.0 0.0006736 1.39
4659000000.0 1.049 0.8867
4662000000.0 1.361 -0.2465
4666000000.0 0.6438 -1.23
4669000000.0 -0.5368 -1.28
4672000000.0 -1.298 -0.3106
4675000000.0 -1.057 0.7962
4678000000.0 -0.03421 1.351
4681000000.0 0.9909 0.8404
4684000000.0 1.294 -0.2337
4688000000.0 0.5943 -1.133
4691000000.0 -0.533 -1.185
4694000000.0 -1.221 -0.3127
4697000000.0 -1.007 0.7551
4700000000.0 -0.02903 1.233
4703000000.0 0.9695 0.7714
4706000000.0 1.182 -0.2975
4709000000.0 0.4857 -1.1
4712000000.0 -0.5808 -1.036
4716000000.0 -1.166 -0.1929
4719000000.0 -0.8354 0.7639
4722000000.0 0.131 1.113
4725000000.0 0.9281 0.5384
4728000000.0 0.9979 -0.3554
4731000000.0 0.3302 -1.005
4734000000.0 -0.59 -0.8341
4738000000.0 -0.9929 -0.0821
4741000000.0 -0.672 0.7298
4744000000.0 0.1531 0.9797
4747000000.0 0.8439 0.4826
4750000000.0 0.9006 -0.3813
4753000000.0 0.2381 -0.9277
4756000000.0 -0.6016 -0.813
4759000000.0 -0.9848 -0.04312
4762000000.0 -0.6551 0.7111
4766000000.0 0.1693 0.9786
4769000000.0 0.8724 0.4844
4772000000.0 0.9141 -0.3899
4775000000.0 0.264 -0.9572
4778000000.0 -0.5557 -0.8225
4781000000.0 -1.006 -0.07151
4784000000.0 -0.6816 0.7483
4788000000.0 0.1324 0.9867
4791000000.0 0.8689 0.5554
4794000000.0 0.9692 -0.3123
4797000000.0 0.4043 -0.9813
4800000000.0 -0.497 -0.9407
4803000000.0 -1.018 -0.2156
4806000000.0 -0.8334 0.6395
4809000000.0 -0.02767 1.09
4812000000.0 0.8409 0.7263
4816000000.0 1.104 -0.173
4819000000.0 0.5681 -0.9763
4822000000.0 -0.3903 -1.094
4825000000.0 -1.083 -0.4247
4828000000.0 -1.042 0.6103
4831000000.0 -0.189 1.221
4834000000.0 0.8246 0.9273
4838000000.0 1.257 -0.06099
4841000000.0 0.7609 -0.9981
4844000000.0 -0.2709 -1.267
4847000000.0 -1.178 -0.5714
4850000000.0 -1.206 0.5503
4853000000.0 -0.3599 1.288
4856000000.0 0.7893 1.1
4859000000.0 1.361 0.09109
4862000000.0 0.9404 -0.9714
4866000000.0 -0.1338 -1.344
4869000000.0 -1.157 -0.7464
4872000000.0 -1.333 0.4492
4875000000.0 -0.467 1.285
4878000000.0 0.7097 1.198
4881000000.0 1.405 0.1992
4884000000.0 1.009 -0.9529
4888000000.0 -0.1377 -1.363
4891000000.0 -1.123 -0.7248
4894000000.0 -1.279 0.3777
4897000000.0 -0.4774 1.251
4900000000.0 0.6587 1.131
4903000000.0 1.257 0.1864
4906000000.0 0.9068 -0.873
4909000000.0 -0.09191 -1.207
4912000000.0 -0.9734 -0.6556
4916000000.0 -1.127 0.3529
4919000000.0 -0.4212 1.058
4922000000.0 0.5383 0.9831
4925000000.0 1.06 0.2036
4928000000.0 0.8028 -0.6833
4931000000.0 -0.01269 -1.032
4934000000.0 -0.8238 -0.6154
4938000000.0 -1.002 0.2214
4941000000.0 -0.4083 0.8922
4944000000.0 0.4123 0.9072
4947000000.0 0.9436 0.2742
4950000000.0 0.7509 -0.5636
4953000000.0 0.06467 -0.9634
4956000000.0 -0.7056 -0.599
4959000000.0 -0.9203 0.1617
4962000000.0 -0.4631 0.829
4966000000.0 0.3635 0.8839
4969000000.0 0.9201 0.2494
4972000000.0 0.7816 -0.558
4975000000.0 0.06029 -0.9533
4978000000.0 -0.6719 -0.6617
4981000000.0 -0.9599 0.1472
4984000000.0 -0.4932 0.8042
4988000000.0 0.3121 0.8928
4991000000.0 0.9051 0.3285
4994000000.0 0.8265 -0.4934
4997000000.0 0.1414 -0.979
5000000000.0 -0.6428 -0.7694
5003000000.0 -1.017 0.07655
5006000000.0 -0.6291 0.8506
5009000000.0 0.2558 1.018
5012000000.0 0.9816 0.4812
5016000000.0 1.003 -0.4511
5019000000.0 0.2711 -1.081
5022000000.0 -0.7225 -0.876
5025000000.0 -1.144 -0.04073
5028000000.0 -0.7568 0.8792
5031000000.0 0.208 1.161
5034000000.0 1.021 0.5785
5038000000.0 1.127 -0.4146
5041000000.0 0.3976 -1.15
5044000000.0 -0.6025 -1.043
5047000000.0 -1.224 -0.1944
5050000000.0 -0.912 0.82
5053000000.0 0.05978 1.25
5056000000.0 1.027 0.7984
5059000000.0 1.244 -0.287
5062000000.0 0.5968 -1.155
5066000000.0 -0.5183 -1.216
5069000000.0 -1.253 -0.3931
5072000000.0 -1.081 0.7365
5075000000.0 -0.08868 1.295
5078000000.0 0.9476 0.9097
5081000000.0 1.292 -0.1525
5084000000.0 0.7265 -1.049
5088000000.0 -0.3697 -1.224
5091000000.0 -1.161 -0.5266
5094000000.0 -1.118 0.6024
5097000000.0 -0.2801 1.182
5100000000.0 0.7582 0.9794
5103000000.0 1.201 0.05718
5106000000.0 0.8357 -0.8774
5109000000.0 -0.1615 -1.173
5112000000.0 -0.9701 -0.6291
5116000000.0 -1.111 0.3313
5119000000.0 -0.421 1.011
5122000000.0 0.4887 1.007
5125000000.0 1.068 0.28
5128000000.0 0.8945 -0.6737
5131000000.0 0.06167 -1.073
5134000000.0 -0.8022 -0.7282
5138000000.0 -1.068 0.1377
5141000000.0 -0.5522 0.9053
5144000000.0 0.3345 0.9825
5147000000.0 0.9324 0.3263
5150000000.0 0.8489 -0.4805
5153000000.0 0.1859 -0.9841
5156000000.0 -0.6338 -0.7565
5159000000.0 -0.9722 -0.03522
5162000000.0 -0.5961 0.778
5166000000.0 0.1621 0.9365
5169000000.0 0.8179 0.4467
5172000000.0 0.8967 -0.3683
5175000000.0 0.2588 -0.8799
5178000000.0 -0.4881 -0.7735
5181000000.0 -0.9172 -0.08136
5184000000.0 -0.6368 0.6603
5188000000.0 0.1337 0.9522
5191000000.0 0.7776 0.4796
5194000000.0 0.8745 -0.3109
5197000000.0 0.2959 -0.8743
5200000000.0 -0.5046 -0.7607
5203000000.0 -0.907 -0.07766
5206000000.0 -0.6418 0.6693
5209000000.0 0.1056 0.9452
5212000000.0 0.7943 0.5168
5216000000.0 0.8801 -0.3482
5219000000.0 0.3109 -0.9025
5222000000.0 -0.5403 -0.8014
5225000000.0 -0.9677 -0.1251
5228000000.0 -0.6998 0.6973
5231000000.0 0.1026 0.9659
5234000000.0 0.8115 0.551
5238000000.0 0.9573 -0.3379
5241000000.0 0.3393 -0.9344
5244000000.0 -0.522 -0.869
5247000000.0 -1.013 -0.1562
5250000000.0 -0.7585 0.6771
5253000000.0 0.06049 1.063
5256000000.0 0.8458 0.6241
5259000000.0 1.022 -0.2278
5262000000.0 0.4553 -0.9384
5266000000.0 -0.4609 -0.9631
5269000000.0 -1.027 -0.2774
5272000000.0 -0.8628 0.6114
5275000000.0 -0.09381 1.088
5278000000.0 0.7811 0.7507
5281000000.0 1.063 -0.1327
5284000000.0 0.6116 -0.9136
5288000000.0 -0.2871 -1.028
5291000000.0 -1.014 -0.4587
5294000000.0 -1.006 0.4539
5297000000.0 -0.2928 1.078
5300000000.0 0.6287 0.9182
5303000000.0 1.141 0.1137
5306000000.0 0.8131 -0.7843
5309000000.0 -0.07057 -1.128
5312000000.0 -0.8959 -0.6841
5316000000.0 -1.122 0.2415
5319000000.0 -0.526 1.021
5322000000.0 0.4309 1.069
5325000000.0 1.096 0.3618
5328000000.0 1.012 -0.5856
5331000000.0 0.1731 -1.14
5334000000.0 -0.79 -0.8735
5338000000.0 -1.17 0.02284
5341000000.0 -0.7319 0.9287
5344000000.0 0.2537 1.099
5347000000.0 0.9974 0.5288
5350000000.0 1.092 -0.4289
5353000000.0 0.3425 -1.108
5356000000.0 -0.6029 -0.939
5359000000.0 -1.139 -0.1645
5362000000.0 -0.8539 0.7738
5366000000.0 0.06396 1.166
5369000000.0 0.8967 0.6586
5372000000.0 1.073 -0.2971
5375000000.0 0.4131 -1.027
5378000000.0 -0.4905 -0.9689
5381000000.0 -1.09 -0.194
5384000000.0 -0.8187 0.7056
5388000000.0 0.02332 1.064
5391000000.0 0.821 0.6573
5394000000.0 1.029 -0.2253
5397000000.0 0.4111 -0.9306
5400000000.0 -0.4544 -0.8776
5403000000.0 -0.9439 -0.2293
5406000000.0 -0.7379 0.6251
5409000000.0 0.02006 0.978
5412000000.0 0.7261 0.5813
5416000000.0 0.9345 -0.2272
5419000000.0 0.3939 -0.8291
5422000000.0 -0.4035 -0.823
5425000000.0 -0.9023 -0.2086
5428000000.0 -0.7199 0.5746
5431000000.0 0.01938 0.8994
5434000000.0 0.7233 0.5389
5438000000.0 0.8821 -0.2322
5441000000.0 0.3383 -0.8078
5444000000.0 -0.4122 -0.7853
5447000000.0 -0.8921 -0.1312
5450000000.0 -0.6509 0.6023
5453000000.0 0.05726 0.854
5456000000.0 0.7553 0.4876
5459000000.0 0.8292 -0.226
5462000000.0 0.3624 -0.8198
5466000000.0 -0.4214 -0.7609
5469000000.0 -0.8261 -0.1632
5472000000.0 -0.6849 0.5951
5475000000.0 0.009049 0.903
5478000000.0 0.6735 0.5661
5481000000.0 0.9026 -0.1695
5484000000.0 0.4357 -0.7715
5488000000.0 -0.38 -0.8593
5491000000.0 -0.8758 -0.299
5494000000.0 -0.7925 0.4998
5497000000.0 -0.1101 0.9457
5500000000.0 0.6676 0.7203
5503000000.0 0.8998 -0.05451
5506000000.0 0.5677 -0.7635
5509000000.0 -0.2152 -0.9693
5512000000.0 -0.8516 -0.4375
5516000000.0 -0.8747 0.3865
5519000000.0 -0.2712 0.9416
5522000000.0 0.5575 0.8429
5525000000.0 0.9586 0.133
5528000000.0 0.7146 -0.6788
5531000000.0 -0.04841 -1.033
5534000000.0 -0.8433 -0.6348
5538000000.0 -0.982 0.2227
5541000000.0 -0.481 0.9157
5544000000.0 0.3988 0.9602
5547000000.0 1.014 0.3317
5550000000.0 0.9057 -0.5532
5553000000.0 0.1511 -1.017
5556000000.0 -0.7284 -0.8009
5559000000.0 -1.08 0.02447
5562000000.0 -0.653 0.8505
5566000000.0 0.2273 1.02
5569000000.0 0.9195 0.5007
5572000000.0 0.9821 -0.3921
5575000000.0 0.2569 -0.985
5578000000.0 -0.5476 -0.8816
5581000000.0 -1.036 -0.1002
5584000000.0 -0.7339 0.7177
5588000000.0 0.09332 1.03
5591000000.0 0.821 0.6021
5594000000.0 0.9601 -0.2545
5597000000.0 0.3929 -0.9292
5600000000.0 -0.4276 -0.8748
5603000000.0 -0.9762 -0.264
5606000000.0 -0.7789 0.5637
5609000000.0 -0.05099 0.9498
5612000000.0 0.68 0.6307
5616000000.0 0.9314 -0.1338
5619000000.0 0.4854 -0.8057
5622000000.0 -0.2854 -0.8734
5625000000.0 -0.8819 -0.3162
5628000000.0 -0.7592 0.4537
5631000000.0 -0.1431 0.902
5634000000.0 0.5988 0.6527
5638000000.0 0.9058 -0.08369
5641000000.0 0.5171 -0.7186
5644000000.0 -0.2642 -0.8169
5647000000.0 -0.8075 -0.3334
5650000000.0 -0.7798 0.4339
5653000000.0 -0.1322 0.8656
5656000000.0 0.5755 0.6322
5659000000.0 0.8589 -0.03142
5662000000.0 0.4903 -0.6879
5666000000.0 -0.252 -0.8335
5669000000.0 -0.7924 -0.3262
5672000000.0 -0.7414 0.4381
5675000000.0 -0.1368 0.8438
5678000000.0 0.6065 0.649
5681000000.0 0.8611 -0.0579
5684000000.0 0.4965 -0.7428
5688000000.0 -0.2662 -0.8581
5691000000.0 -0.8497 -0.3399
5694000000.0 -0.7856 0.4641
5697000000.0 -0.1454 0.933
5700000000.0 0.6296 0.6987
5703000000.0 0.939 -0.08449
5706000000.0 0.5421 -0.7936
5709000000.0 -0.2635 -0.9591
5712000000.0 -0.9037 -0.3881
5716000000.0 -0.8536 0.4959
5719000000.0 -0.21 1.01
5722000000.0 0.6482 0.7746
5725000000.0 0.9965 -0.01531
5728000000.0 0.6332 -0.7628
5731000000.0 -0.2382 -1.017
5734000000.0 -0.9479 -0.4905
5738000000.0 -0.9987 0.3853
5741000000.0 -0.2919 1.016
5744000000.0 0.5872 0.8718
5747000000.0 1.086 0.1329
5750000000.0 0.8186 -0.7311
5753000000.0 -0.07076 -1.064
5756000000.0 -0.8772 -0.6345
5759000000.0 -1.061 0.2759
5762000000.0 -0.4578 0.947
5766000000.0 0.4676 0.9709
5769000000.0 1.063 0.2808
5772000000.0 0.8794 -0.6107
5775000000.0 0.1006 -1.072
5778000000.0 -0.7732 -0.7759
5781000000.0 -1.113 0.1094
5784000000.0 -0.6364 0.8768
5788000000.0 0.3242 1.032
5791000000.0 0.9738 0.4737
5794000000.0 0.9813 -0.4708
5797000000.0 0.2497 -1.071
5800000000.0 -0.6537 -0.8419
5803000000.0 -1.07 -0.06128
5806000000.0 -0.7395 0.787
5809000000.0 0.1141 1.094
5812000000.0 0.9633 0.5631
5816000000.0 1.02 -0.3134
5819000000.0 0.3892 -1.008
5822000000.0 -0.5248 -0.9513
5825000000.0 -1.0 -0.2153
5828000000.0 -0.7801 0.6469
5831000000.0 0.01678 0.9927
5834000000.0 0.7573 0.6769
5838000000.0 0.9893 -0.1932
5841000000.0 0.4597 -0.8523
5844000000.0 -0.3637 -0.9276
5847000000.0 -0.9675 -0.3031
5850000000.0 -0.8379 0.5209
5853000000.0 -0.08028 0.9647
5856000000.0 0.7245 0.7062
5859000000.0 0.9659 -0.1339
5862000000.0 0.495 -0.7985
5866000000.0 -0.3206 -0.8937
5869000000.0 -0.9032 -0.3289
5872000000.0 -0.7941 0.5108
5875000000.0 -0.143 0.9528
5878000000.0 0.6411 0.6314
5881000000.0 0.895 -0.07998
5884000000.0 0.4933 -0.7274
5888000000.0 -0.2756 -0.8563
5891000000.0 -0.8134 -0.3496
5894000000.0 -0.7576 0.437
5897000000.0 -0.1637 0.8608
5900000000.0 0.536 0.6531
5903000000.0 0.867 -0.02212
5906000000.0 0.5347 -0.7358
5909000000.0 -0.2077 -0.8278
5912000000.0 -0.7611 -0.3458
5916000000.0 -0.7871 0.3666
5919000000.0 -0.1907 0.8428
5922000000.0 0.5407 0.6563
5925000000.0 0.8446 3.225e-05
5928000000.0 0.5084 -0.6595
5931000000.0 -0.152 -0.8593
5934000000.0 -0.752 -0.3926
5938000000.0 -0.8218 0.3283
5941000000.0 -0.2676 0.835
5944000000.0 0.4889 0.7331
5947000000.0 0.8856 0.1094
5950000000.0 0.5927 -0.587
5953000000.0 -0.05809 -0.8568
5956000000.0 -0.709 -0.5287
5959000000.0 -0.8435 0.2266
5962000000.0 -0.4015 0.8133
5966000000.0 0.3664 0.8116
5969000000.0 0.8702 0.2387
5972000000.0 0.771 -0.5144
5975000000.0 0.07944 -0.8975
5978000000.0 -0.6371 -0.708
5981000000.0 -0.9348 0.09218
5984000000.0 -0.5736 0.7861
5988000000.0 0.2227 0.957
5991000000.0 0.8667 0.3953
5994000000.0 0.8472 -0.4088
5997000000.0 0.2469 -0.9531
6000000000.0 -0.5642 -0.8037
6003000000.0 -0.9527 -0.06859
6006000000.0 -0.6744 0.7082
6009000000.0 0.1225 0.9585
6012000000.0 0.8169 0.5214
6016000000.0 0.9539 -0.3095
6019000000.0 0.403 -0.9242
6022000000.0 -0.4617 -0.8815
6025000000.0 -0.9587 -0.1718
6028000000.0 -0.7717 0.6619
6031000000.0 0.0001057 0.9791
6034000000.0 0.7512 0.6516
6038000000.0 1.001 -0.174
6041000000.0 0.4787 -0.8667
6044000000.0 -0.3683 -0.9185
6047000000.0 -0.959 -0.301
6050000000.0 -0.8073 0.5427
6053000000.0 -0.09845 0.9923
6056000000.0 0.6785 0.6867
6059000000.0 0.9618 -0.102
6062000000.0 0.5326 -0.8095
6066000000.0 -0.3191 -0.9075
6069000000.0 -0.8673 -0.3228
6072000000.0 -0.811 0.4673
6075000000.0 -0.1291 0.92
6078000000.0 0.6252 0.674
6081000000.0 0.8957 -0.03975
6084000000.0 0.5008 -0.7227
6088000000.0 -0.2529 -0.8623
6091000000.0 -0.8159 -0.3734
6094000000.0 -0.7795 0.4054
6097000000.0 -0.1838 0.8668
6100000000.0 0.5575 0.6839
6103000000.0 0.875 0.009996
6106000000.0 0.5252 -0.6742
6109000000.0 -0.1755 -0.8359
6112000000.0 -0.8043 -0.3876
6116000000.0 -0.7888 0.3298
6119000000.0 -0.1779 0.8122
6122000000.0 0.513 0.685
6125000000.0 0.8651 0.01203
6128000000.0 0.5489 -0.6467
6131000000.0 -0.1593 -0.8291
6134000000.0 -0.7353 -0.393
6138000000.0 -0.7999 0.366
6141000000.0 -0.233 0.8143
6144000000.0 0.4807 0.7013
6147000000.0 0.8724 0.0703
6150000000.0 0.5685 -0.6404
6153000000.0 -0.1418 -0.8435
6156000000.0 -0.7211 -0.4498
6159000000.0 -0.8258 0.2917
6162000000.0 -0.3241 0.8069
6166000000.0 0.4455 0.7532
6169000000.0 0.87 0.1162
6172000000.0 0.6389 -0.6236
6175000000.0 -0.04319 -0.9142
6178000000.0 -0.733 -0.5133
6181000000.0 -0.9142 0.2502
6184000000.0 -0.3496 0.8252
6188000000.0 0.4098 0.8273
6191000000.0 0.9019 0.1966
6194000000.0 0.7015 -0.5553
6197000000.0 -0.003254 -0.9257
6200000000.0 -0.6884 -0.6048
6203000000.0 -0.9165 0.1682
6206000000.0 -0.4621 0.8144
6209000000.0 0.321 0.8699
6212000000.0 0.8837 0.2717
6216000000.0 0.7609 -0.5139
6219000000.0 0.1171 -0.8934
6222000000.0 -0.6297 -0.6689
6225000000.0 -0.8844 0.04818
6228000000.0 -0.5527 0.7054
6231000000.0 0.2065 0.8594
6234000000.0 0.8009 0.386
6238000000.0 0.779 -0.4114
6241000000.0 0.2276 -0.8478
6244000000.0 -0.5252 -0.7135
6247000000.0 -0.8645 -0.03665
6250000000.0 -0.5886 0.6172
6253000000.0 0.08646 0.8331
6256000000.0 0.7172 0.4627
6259000000.0 0.7642 -0.237
6262000000.0 0.3178 -0.7552
6266000000.0 -0.3544 -0.7109
