! Created with skrf 1.8.0 (http://scikit-rf.org).
# Hz S RI R 50.0 
!freq ReS11 ImS11
4000000000.0 0.5959 -1.378
4003000000.0 -0.7073 -1.263
4006000000.0 -1.465 -0.2643
4009000000.0 -1.15 0.9869
4012000000.0 0.05391 1.489
4016000000.0 1.182 0.8445
4019000000.0 1.467 -0.3901
4022000000.0 0.5866 -1.383
4025000000.0 -0.6951 -1.373
4028000000.0 -1.502 -0.2828
4031000000.0 -1.161 1.053
4034000000.0 0.04486 1.538
4038000000.0 1.267 0.9209
4041000000.0 1.51 -0.3896
4044000000.0 0.6002 -1.436
4047000000.0 -0.7025 -1.391
4050000000.0 -1.495 -0.2979
4053000000.0 -1.194 0.9992
4056000000.0 0.004304 1.568
4059000000.0 1.284 0.9754
4062000000.0 1.508 -0.3048
4066000000.0 0.6907 -1.371
4069000000.0 -0.6173 -1.451
4072000000.0 -1.503 -0.434
4075000000.0 -1.286 0.9067
4078000000.0 -0.1377 1.618
4081000000.0 1.157 1.134
4084000000.0 1.643 -0.173
4088000000.0 0.8723 -1.379
4091000000.0 -0.5176 -1.578
4094000000.0 -1.524 -0.5717
4097000000.0 -1.468 0.7927
4100000000.0 -0.2777 1.59
4103000000.0 1.085 1.219
4106000000.0 1.61 -0.02572
4109000000.0 0.9787 -1.257
4112000000.0 -0.2846 -1.531
4116000000.0 -1.377 -0.7321
4119000000.0 -1.403 0.5375
4122000000.0 -0.5294 1.428
4125000000.0 0.7021 1.325
4128000000.0 1.443 0.2787
4131000000.0 1.199 -0.8953
4134000000.0 0.07784 -1.512
4138000000.0 -1.083 -1.056
4141000000.0 -1.502 0.1246
4144000000.0 -0.8745 1.238
4147000000.0 0.3723 1.476
4150000000.0 1.375 0.6722
4153000000.0 1.426 -0.5813
4156000000.0 0.4285 -1.46
4159000000.0 -0.8336 -1.276
4162000000.0 -1.553 -0.1733
4166000000.0 -1.136 1.023
4169000000.0 0.05344 1.495
4172000000.0 1.177 0.9262
4175000000.0 1.511 -0.3071
4178000000.0 0.7473 -1.265
4181000000.0 -0.4969 -1.418
4184000000.0 -1.414 -0.5707
4188000000.0 -1.335 0.7016
4191000000.0 -0.3018 1.492
4194000000.0 0.919 1.249
4197000000.0 1.579 0.07903
4200000000.0 1.093 -1.155
4203000000.0 -0.1794 -1.577
4206000000.0 -1.339 -0.8493
4209000000.0 -1.527 0.4984
4212000000.0 -0.5679 1.579
4216000000.0 0.8152 1.456
4219000000.0 1.657 0.2458
4222000000.0 1.228 -1.181
4225000000.0 -0.1487 -1.696
4228000000.0 -1.429 -0.9236
4231000000.0 -1.614 0.5679
4234000000.0 -0.5845 1.639
4238000000.0 0.9296 1.478
4241000000.0 1.683 0.1487
4244000000.0 1.165 -1.218
4247000000.0 -0.2249 -1.676
4250000000.0 -1.445 -0.8274
4253000000.0 -1.532 0.641
4256000000.0 -0.4816 1.617
4259000000.0 1.004 1.315
4262000000.0 1.631 0.06266
4266000000.0 1.008 -1.247
4269000000.0 -0.4301 -1.609
4272000000.0 -1.474 -0.6211
4275000000.0 -1.422 0.7951
4278000000.0 -0.2024 1.556
4281000000.0 1.088 1.135
4284000000.0 1.466 -0.177
4288000000.0 0.8201 -1.286
4291000000.0 -0.5083 -1.364
4294000000.0 -1.371 -0.4403
4297000000.0 -1.195 0.767
4300000000.0 -0.1519 1.378
4303000000.0 0.9608 0.9488
4306000000.0 1.346 -0.1074
4309000000.0 0.7717 -1.124
4312000000.0 -0.3483 -1.271
4316000000.0 -1.204 -0.5039
4319000000.0 -1.194 0.5734
4322000000.0 -0.3372 1.251
4325000000.0 0.7424 1.062
4328000000.0 1.297 0.06566
4331000000.0 0.9387 -0.9597
4334000000.0 -0.1213 -1.319
4338000000.0 -1.146 -0.738
4341000000.0 -1.32 0.4036
4344000000.0 -0.5346 1.243
4347000000.0 0.636 1.228
4350000000.0 1.343 0.2723
4353000000.0 1.101 -0.8405
4356000000.0 0.02801 -1.385
4359000000.0 -1.031 -0.9052
4362000000.0 -1.411 0.215
4366000000.0 -0.7402 1.185
4369000000.0 0.437 1.341
4372000000.0 1.298 0.5666
4375000000.0 1.256 -0.6503
4378000000.0 0.2884 -1.391
4381000000.0 -0.8707 -1.193
4384000000.0 -1.456 -0.07946
4388000000.0 -1.011 1.086
4391000000.0 0.1924 1.45
4394000000.0 1.28 0.7886
4397000000.0 1.463 -0.4941
4400000000.0 0.5053 -1.443
4403000000.0 -0.8114 -1.351
4406000000.0 -1.563 -0.2535
4409000000.0 -1.133 1.022
4412000000.0 0.04247 1.565
4416000000.0 1.297 0.9632
4419000000.0 1.545 -0.3931
4422000000.0 0.6427 -1.438
4425000000.0 -0.7069 -1.414
4428000000.0 -1.518 -0.3207
4431000000.0 -1.236 0.9895
4434000000.0 -0.0108 1.528
4438000000.0 1.197 0.9484
4441000000.0 1.505 -0.3355
4444000000.0 0.6907 -1.37
4447000000.0 -0.6385 -1.374
4450000000.0 -1.441 -0.3465
4453000000.0 -1.167 0.9615
4456000000.0 0.021 1.498
4459000000.0 1.214 0.9342
4462000000.0 1.397 -0.3582
4466000000.0 0.5618 -1.349
4469000000.0 -0.7018 -1.227
4472000000.0 -1.361 -0.1398
4475000000.0 -0.9535 0.948
4478000000.0 0.1453 1.313
4481000000.0 1.087 0.6895
4484000000.0 1.17 -0.5077
4488000000.0 0.3282 -1.169
4491000000.0 -0.6937 -1.009
4494000000.0 -1.176 -0.01753
4497000000.0 -0.7982 0.8741
4500000000.0 0.1963 1.142
4503000000.0 0.989 0.5096
4506000000.0 1.006 -0.484
4509000000.0 0.2421 -1.048
4512000000.0 -0.6627 -0.8469
4516000000.0 -1.077 0.0007014
4519000000.0 -0.7062 0.8078
4522000000.0 0.2188 1.063
4525000000.0 0.9731 0.4668
4528000000.0 0.957 -0.4703
4531000000.0 0.249 -1.043
4534000000.0 -0.6578 -0.8428
4538000000.0 -1.083 -0.0007516
4541000000.0 -0.6976 0.8535
4544000000.0 0.221 1.066
4547000000.0 0.9584 0.4961
4550000000.0 0.9927 -0.4454
4553000000.0 0.3094 -1.054
4556000000.0 -0.6314 -0.9028
4559000000.0 -1.107 -0.1163
4562000000.0 -0.8024 0.7902
4566000000.0 0.0999 1.131
4569000000.0 0.9293 0.6363
4572000000.0 1.116 -0.3148
4575000000.0 0.4994 -1.072
4578000000.0 -0.4934 -1.076
4581000000.0 -1.155 -0.2857
4584000000.0 -0.9887 0.7172
4588000000.0 -0.07523 1.226
4591000000.0 0.9374 0.8481
4594000000.0 1.28 -0.149
4597000000.0 0.675 -1.077
4600000000.0 -0.4431 -1.229
4603000000.0 -1.222 -0.4633
4606000000.0 -1.145 0.6634
4609000000.0 -0.2198 1.323
4612000000.0 0.8823 1.008
4616000000.0 1.346 -0.03151
4619000000.0 0.8697 -1.049
4622000000.0 -0.2434 -1.345
4625000000.0 -1.214 -0.6503
4628000000.0 -1.228 0.5192
4631000000.0 -0.3785 1.316
4634000000.0 0.7634 1.133
4638000000.0 1.386 0.1248
4641000000.0 0.9934 -1.018
4644000000.0 -0.1452 -1.413
4647000000.0 -1.181 -0.7667
4650000000.0 -1.304 0.4668
4653000000.0 -0.4716 1.288
4656000000.0 0.6719 1.187
4659000000.0 1.347 0.1887
4662000000.0 0.9498 -0.9157
4666000000.0 -0.1493 -1.32
4669000000.0 -1.104 -0.7066
4672000000.0 -1.218 0.372
4675000000.0 -0.4286 1.221
4678000000.0 0.6838 1.085
4681000000.0 1.226 0.1643
4684000000.0 0.8944 -0.8284
4688000000.0 -0.1294 -1.214
4691000000.0 -1.018 -0.6528
4694000000.0 -1.119 0.3859
4697000000.0 -0.3802 1.128
4700000000.0 0.6326 1.02
4703000000.0 1.142 0.1121
4706000000.0 0.7955 -0.8357
4709000000.0 -0.1615 -1.108
4712000000.0 -0.9799 -0.544
4716000000.0 -1.011 0.4136
4719000000.0 -0.3216 1.071
4722000000.0 0.6558 0.8322
4725000000.0 1.043 0.02017
4728000000.0 0.6624 -0.8003
4731000000.0 -0.2352 -0.972
4734000000.0 -0.899 -0.4225
4738000000.0 -0.8898 0.4325
4741000000.0 -0.2071 0.9458
4744000000.0 0.5639 0.784
4747000000.0 0.9726 0.05482
4750000000.0 0.671 -0.7262
4753000000.0 -0.1896 -0.9595
4756000000.0 -0.8713 -0.4577
4759000000.0 -0.9441 0.3743
4762000000.0 -0.2904 0.9636
4766000000.0 0.5506 0.862
4769000000.0 1.063 0.08808
4772000000.0 0.7363 -0.7481
4775000000.0 -0.1036 -1.074
4778000000.0 -0.88 -0.5772
4781000000.0 -1.025 0.2888
4784000000.0 -0.4429 0.994
4788000000.0 0.4892 0.972
4791000000.0 1.052 0.2503
4794000000.0 0.8898 -0.6704
4797000000.0 0.09058 -1.116
4800000000.0 -0.8293 -0.7996
4803000000.0 -1.095 0.1165
4806000000.0 -0.6347 0.9364
4809000000.0 0.2906 1.108
4812000000.0 1.085 0.464
4816000000.0 1.056 -0.525
4819000000.0 0.308 -1.209
4822000000.0 -0.7472 -0.9848
4825000000.0 -1.253 -0.06585
4828000000.0 -0.8549 0.924
4831000000.0 0.165 1.26
4834000000.0 1.119 0.6826
4838000000.0 1.269 -0.402
4841000000.0 0.4557 -1.248
4844000000.0 -0.6747 -1.167
4847000000.0 -1.317 -0.2447
4850000000.0 -1.012 0.8816
4853000000.0 0.04297 1.366
4856000000.0 1.081 0.8595
4859000000.0 1.331 -0.2857
4862000000.0 0.6414 -1.246
4866000000.0 -0.5673 -1.294
4869000000.0 -1.311 -0.368
4872000000.0 -1.096 0.7917
4875000000.0 -0.08025 1.359
4878000000.0 1.011 0.9159
4881000000.0 1.344 -0.2473
4884000000.0 0.6631 -1.191
4888000000.0 -0.4652 -1.23
4891000000.0 -1.271 -0.3962
4894000000.0 -1.062 0.7104
4897000000.0 -0.1085 1.241
4900000000.0 0.9148 0.8478
4903000000.0 1.192 -0.1688
4906000000.0 0.6131 -1.007
4909000000.0 -0.3992 -1.081
4912000000.0 -1.08 -0.3864
4916000000.0 -0.9652 0.5813
4919000000.0 -0.1382 1.068
4922000000.0 0.7342 0.765
4925000000.0 1.043 -0.09038
4928000000.0 0.5908 -0.8422
4931000000.0 -0.2896 -0.9595
4934000000.0 -0.9252 -0.3957
4938000000.0 -0.8684 0.4684
4941000000.0 -0.2239 0.9358
4944000000.0 0.6329 0.7686
4947000000.0 0.974 0.02721
4950000000.0 0.6051 -0.76
4953000000.0 -0.1914 -0.9208
4956000000.0 -0.8301 -0.4165
4959000000.0 -0.8615 0.3875
4962000000.0 -0.2476 0.9246
4966000000.0 0.5606 0.7886
4969000000.0 0.9692 0.05265
4972000000.0 0.6474 -0.7042
4975000000.0 -0.1544 -0.9662
4978000000.0 -0.849 -0.476
4981000000.0 -0.9037 0.3248
4984000000.0 -0.3127 0.9055
4988000000.0 0.5158 0.8475
4991000000.0 0.9874 0.141
4994000000.0 0.7495 -0.6632
4997000000.0 -0.05286 -1.001
5000000000.0 -0.8356 -0.6375
5003000000.0 -1.024 0.2762
5006000000.0 -0.4666 0.9807
5009000000.0 0.4846 1.0
5012000000.0 1.077 0.2587
5016000000.0 0.9331 -0.6506
5019000000.0 0.04704 -1.173
5022000000.0 -0.8761 -0.7848
5025000000.0 -1.193 0.1972
5028000000.0 -0.5954 1.017
5031000000.0 0.4079 1.132
5034000000.0 1.153 0.421
5038000000.0 1.114 -0.6061
5041000000.0 0.217 -1.197
5044000000.0 -0.8219 -0.9343
5047000000.0 -1.266 0.05146
5050000000.0 -0.794 0.9809
5053000000.0 0.2444 1.263
5056000000.0 1.12 0.6302
5059000000.0 1.173 -0.4781
5062000000.0 0.38 -1.216
5066000000.0 -0.6935 -1.118
5069000000.0 -1.289 -0.1816
5072000000.0 -0.9667 0.8836
5075000000.0 0.06345 1.296
5078000000.0 1.048 0.7983
5081000000.0 1.252 -0.3219
5084000000.0 0.5362 -1.156
5088000000.0 -0.5327 -1.141
5091000000.0 -1.218 -0.3319
5094000000.0 -0.9961 0.6933
5097000000.0 -0.09146 1.205
5100000000.0 0.8665 0.8649
5103000000.0 1.148 -0.1461
5106000000.0 0.6783 -0.9608
5109000000.0 -0.2786 -1.136
5112000000.0 -1.01 -0.4764
5116000000.0 -1.072 0.4763
5119000000.0 -0.2881 1.033
5122000000.0 0.6048 0.8979
5125000000.0 1.095 0.08298
5128000000.0 0.7723 -0.7613
5131000000.0 -0.09502 -1.09
5134000000.0 -0.8301 -0.5524
5138000000.0 -0.9993 0.2765
5141000000.0 -0.443 0.9265
5144000000.0 0.4489 0.9287
5147000000.0 0.9668 0.2339
5150000000.0 0.7791 -0.5804
5153000000.0 0.02201 -0.9638
5156000000.0 -0.7048 -0.6363
5159000000.0 -0.9326 0.1264
5162000000.0 -0.4762 0.7825
5166000000.0 0.2986 0.8828
5169000000.0 0.8819 0.3001
5172000000.0 0.7576 -0.4829
5175000000.0 0.1238 -0.8839
5178000000.0 -0.6599 -0.6717
5181000000.0 -0.9015 0.06776
5184000000.0 -0.5289 0.7534
5188000000.0 0.2544 0.8586
5191000000.0 0.8498 0.3484
5194000000.0 0.7911 -0.4466
5197000000.0 0.147 -0.9149
5200000000.0 -0.5989 -0.6927
5203000000.0 -0.9288 0.05678
5206000000.0 -0.5342 0.7694
5209000000.0 0.2778 0.9084
5212000000.0 0.8965 0.365
5216000000.0 0.8528 -0.4619
5219000000.0 0.1643 -0.9501
5222000000.0 -0.6378 -0.755
5225000000.0 -0.9726 0.03985
5228000000.0 -0.5722 0.7627
5231000000.0 0.2686 0.9741
5234000000.0 0.8831 0.4348
5238000000.0 0.9013 -0.4338
5241000000.0 0.2314 -1.018
5244000000.0 -0.6408 -0.8023
5247000000.0 -1.035 -0.05083
5250000000.0 -0.6489 0.7812
5253000000.0 0.1677 1.011
5256000000.0 0.9091 0.5092
5259000000.0 0.9753 -0.3819
5262000000.0 0.3276 -0.9864
5266000000.0 -0.5384 -0.9077
5269000000.0 -1.065 -0.1431
5272000000.0 -0.8106 0.6859
5275000000.0 0.03678 1.103
5278000000.0 0.8466 0.6826
5281000000.0 1.045 -0.1744
5284000000.0 0.5246 -0.9447
5288000000.0 -0.4065 -1.037
5291000000.0 -1.032 -0.3748
5294000000.0 -0.9597 0.5397
5297000000.0 -0.1888 1.101
5300000000.0 0.7257 0.8881
5303000000.0 1.108 0.04503
5306000000.0 0.7608 -0.8363
5309000000.0 -0.1875 -1.1
5312000000.0 -0.9932 -0.6093
5316000000.0 -1.087 0.3287
5319000000.0 -0.4439 1.067
5322000000.0 0.5422 1.032
5325000000.0 1.127 0.2009
5328000000.0 0.8847 -0.7094
5331000000.0 0.07136 -1.164
5334000000.0 -0.8365 -0.7921
5338000000.0 -1.161 0.1368
5341000000.0 -0.5886 0.985
5344000000.0 0.3394 1.07
5347000000.0 1.049 0.4103
5350000000.0 1.004 -0.5383
5353000000.0 0.2409 -1.092
5356000000.0 -0.6909 -0.8986
5359000000.0 -1.12 -0.01212
5362000000.0 -0.7199 0.8363
5366000000.0 0.1989 1.079
5369000000.0 0.973 0.5346
5372000000.0 1.024 -0.4052
5375000000.0 0.3163 -1.039
5378000000.0 -0.6011 -0.8821
5381000000.0 -1.073 -0.1083
5384000000.0 -0.7225 0.7795
5388000000.0 0.1585 1.048
5391000000.0 0.8698 0.514
5394000000.0 0.9323 -0.3421
5397000000.0 0.2812 -0.8939
5400000000.0 -0.5237 -0.8318
5403000000.0 -0.9696 -0.07277
5406000000.0 -0.6716 0.6802
5409000000.0 0.1552 0.9304
5412000000.0 0.7871 0.4713
5416000000.0 0.8579 -0.3098
5419000000.0 0.2782 -0.8497
5422000000.0 -0.4925 -0.7664
5425000000.0 -0.8667 -0.08408
5428000000.0 -0.5869 0.6654
5431000000.0 0.1582 0.8631
5434000000.0 0.7885 0.4338
5438000000.0 0.8037 -0.3366
5441000000.0 0.2306 -0.8253
5444000000.0 -0.4922 -0.7029
5447000000.0 -0.8674 -0.04132
5450000000.0 -0.5771 0.667
5453000000.0 0.1672 0.843
5456000000.0 0.7533 0.3926
5459000000.0 0.7999 -0.323
5462000000.0 0.2428 -0.828
5466000000.0 -0.5023 -0.6929
5469000000.0 -0.8846 -0.04784
5472000000.0 -0.6207 0.6484
5475000000.0 0.07591 0.8922
5478000000.0 0.729 0.5097
5481000000.0 0.8544 -0.2668
5484000000.0 0.3595 -0.8694
5488000000.0 -0.4362 -0.7874
5491000000.0 -0.9089 -0.1758
5494000000.0 -0.7665 0.586
5497000000.0 -0.05114 0.9206
5500000000.0 0.6948 0.6589
5503000000.0 0.9626 -0.1277
5506000000.0 0.4831 -0.8512
5509000000.0 -0.2878 -0.8948
5512000000.0 -0.9308 -0.3421
5516000000.0 -0.8774 0.4988
5519000000.0 -0.2021 0.9796
5522000000.0 0.6074 0.8091
5525000000.0 0.9942 0.02298
5528000000.0 0.6892 -0.7263
5531000000.0 -0.1282 -1.003
5534000000.0 -0.8726 -0.5517
5538000000.0 -0.9756 0.2836
5541000000.0 -0.3963 0.951
5544000000.0 0.483 0.9383
5547000000.0 1.012 0.2829
5550000000.0 0.8603 -0.6595
5553000000.0 0.04436 -1.042
5556000000.0 -0.7967 -0.7263
5559000000.0 -1.064 0.1147
5562000000.0 -0.558 0.917
5566000000.0 0.3312 1.018
5569000000.0 0.9613 0.3904
5572000000.0 0.9404 -0.4845
5575000000.0 0.2356 -1.037
5578000000.0 -0.6373 -0.8135
5581000000.0 -0.9789 -0.02832
5584000000.0 -0.6756 0.7938
5588000000.0 0.1464 1.01
5591000000.0 0.8487 0.4993
5594000000.0 0.9513 -0.3273
5597000000.0 0.3594 -0.9013
5600000000.0 -0.496 -0.817
5603000000.0 -0.9557 -0.146
5606000000.0 -0.7249 0.6484
5609000000.0 0.02491 0.9458
5612000000.0 0.7525 0.5834
5616000000.0 0.917 -0.229
5619000000.0 0.4115 -0.817
5622000000.0 -0.3766 -0.814
5625000000.0 -0.8659 -0.2
5628000000.0 -0.7223 0.5268
5631000000.0 -0.06033 0.8473
5634000000.0 0.6264 0.5762
5638000000.0 0.8736 -0.1443
5641000000.0 0.4399 -0.7476
5644000000.0 -0.298 -0.825
5647000000.0 -0.8308 -0.2489
5650000000.0 -0.7016 0.4849
5653000000.0 -0.04715 0.8611
5656000000.0 0.6397 0.5666
5659000000.0 0.8454 -0.1302
5662000000.0 0.4327 -0.7556
5666000000.0 -0.3128 -0.7943
5669000000.0 -0.82 -0.2655
5672000000.0 -0.7064 0.5156
5675000000.0 -0.06647 0.8752
5678000000.0 0.6564 0.584
5681000000.0 0.8675 -0.1498
5684000000.0 0.4295 -0.7899
5688000000.0 -0.3519 -0.8401
5691000000.0 -0.8906 -0.2776
5694000000.0 -0.7586 0.5523
5697000000.0 -0.04734 0.9277
5700000000.0 0.6558 0.6548
5703000000.0 0.9415 -0.1312
5706000000.0 0.526 -0.8671
5709000000.0 -0.3561 -0.9143
5712000000.0 -0.9215 -0.3303
5716000000.0 -0.82 0.5358
5719000000.0 -0.1301 0.9972
5722000000.0 0.6927 0.7595
5725000000.0 1.007 -0.08599
5728000000.0 0.5848 -0.8379
5731000000.0 -0.274 -0.9863
5734000000.0 -0.9332 -0.4249
5738000000.0 -0.9658 0.476
5741000000.0 -0.2383 1.029
5744000000.0 0.647 0.84
5747000000.0 1.068 0.06674
5750000000.0 0.7222 -0.7848
5753000000.0 -0.1604 -1.071
5756000000.0 -0.9316 -0.5774
5759000000.0 -0.9822 0.3405
5762000000.0 -0.4312 1.029
5766000000.0 0.5101 0.9711
5769000000.0 1.097 0.2048
5772000000.0 0.8263 -0.7042
5775000000.0 -0.005896 -1.141
5778000000.0 -0.8141 -0.7007
5781000000.0 -1.057 0.198
5784000000.0 -0.5674 0.9543
5788000000.0 0.3309 1.005
5791000000.0 1.015 0.3765
5794000000.0 0.9419 -0.5205
5797000000.0 0.1914 -1.079
5800000000.0 -0.6947 -0.8386
5803000000.0 -1.089 0.007991
5806000000.0 -0.6773 0.8354
5809000000.0 0.1681 1.044
5812000000.0 0.9495 0.4997
5816000000.0 0.9693 -0.3648
5819000000.0 0.3389 -0.9448
5822000000.0 -0.5791 -0.8792
5825000000.0 -1.02 -0.1501
5828000000.0 -0.7358 0.7181
5831000000.0 0.09272 0.9859
5834000000.0 0.8169 0.5991
5838000000.0 0.9642 -0.2583
5841000000.0 0.4171 -0.8962
5844000000.0 -0.411 -0.8644
5847000000.0 -0.9508 -0.2243
5850000000.0 -0.8043 0.6018
5853000000.0 -0.04376 0.9574
5856000000.0 0.7417 0.5966
5859000000.0 0.9554 -0.1658
5862000000.0 0.4706 -0.8304
5866000000.0 -0.3362 -0.8529
5869000000.0 -0.9249 -0.2421
5872000000.0 -0.7233 0.5326
5875000000.0 -0.06836 0.8993
5878000000.0 0.6966 0.6252
5881000000.0 0.8882 -0.1368
5884000000.0 0.4431 -0.7398
5888000000.0 -0.3084 -0.8323
5891000000.0 -0.8147 -0.2505
5894000000.0 -0.7417 0.4473
5897000000.0 -0.06556 0.8627
5900000000.0 0.5967 0.5728
5903000000.0 0.8469 -0.1029
5906000000.0 0.4711 -0.7399
5909000000.0 -0.2538 -0.8074
5912000000.0 -0.7885 -0.3117
5916000000.0 -0.7193 0.4168
5919000000.0 -0.1185 0.8421
5922000000.0 0.5803 0.6417
5925000000.0 0.855 -0.05762
5928000000.0 0.5239 -0.6507
5931000000.0 -0.2061 -0.7919
5934000000.0 -0.7793 -0.3838
5938000000.0 -0.7762 0.3618
5941000000.0 -0.1964 0.8138
5944000000.0 0.5217 0.7143
5947000000.0 0.8632 0.0654
5950000000.0 0.6088 -0.6583
5953000000.0 -0.07956 -0.8914
5956000000.0 -0.7373 -0.4894
5959000000.0 -0.8569 0.2394
5962000000.0 -0.3483 0.8046
5966000000.0 0.3788 0.8062
5969000000.0 0.8805 0.1907
5972000000.0 0.7309 -0.5428
5975000000.0 0.05342 -0.9211
5978000000.0 -0.6978 -0.6345
5981000000.0 -0.9346 0.1119
5984000000.0 -0.4525 0.8009
5988000000.0 0.3313 0.8943
5991000000.0 0.9077 0.3588
5994000000.0 0.8394 -0.4525
5997000000.0 0.1902 -0.9551
6000000000.0 -0.6356 -0.7761
6003000000.0 -0.9645 -0.007953
6006000000.0 -0.6418 0.7502
6009000000.0 0.1686 0.9558
6012000000.0 0.8496 0.5002
6016000000.0 0.9518 -0.3361
6019000000.0 0.3123 -0.9344
6022000000.0 -0.5089 -0.8483
6025000000.0 -0.986 -0.1429
6028000000.0 -0.7401 0.6668
6031000000.0 0.03587 0.9727
6034000000.0 0.8043 0.5795
6038000000.0 0.9535 -0.2272
6041000000.0 0.4339 -0.882
6044000000.0 -0.4236 -0.8938
6047000000.0 -0.9615 -0.2395
6050000000.0 -0.7688 0.5974
6053000000.0 -0.04762 0.9798
6056000000.0 0.7326 0.6215
6059000000.0 0.9747 -0.174
6062000000.0 0.4754 -0.8551
6066000000.0 -0.3608 -0.8943
6069000000.0 -0.9067 -0.3085
6072000000.0 -0.791 0.5097
6075000000.0 -0.08349 0.9362
6078000000.0 0.6652 0.6477
6081000000.0 0.8909 -0.1098
6084000000.0 0.4798 -0.7588
6088000000.0 -0.285 -0.8428
6091000000.0 -0.8399 -0.2794
6094000000.0 -0.773 0.425
6097000000.0 -0.1121 0.8655
6100000000.0 0.5884 0.6472
6103000000.0 0.8746 -0.04575
6106000000.0 0.49 -0.7098
6109000000.0 -0.2115 -0.8418
6112000000.0 -0.7836 -0.3102
6116000000.0 -0.788 0.3932
6119000000.0 -0.1658 0.8374
6122000000.0 0.5671 0.6587
6125000000.0 0.8952 -0.0225
6128000000.0 0.5088 -0.6778
6131000000.0 -0.2194 -0.8627
6134000000.0 -0.7894 -0.3334
6138000000.0 -0.7449 0.3871
6141000000.0 -0.2221 0.8513
6144000000.0 0.5451 0.6474
6147000000.0 0.8669 0.02879
6150000000.0 0.5734 -0.6522
6153000000.0 -0.1495 -0.8375
6156000000.0 -0.7301 -0.4139
6159000000.0 -0.8109 0.3105
6162000000.0 -0.2694 0.8611
6166000000.0 0.4766 0.7484
6169000000.0 0.8886 0.08474
6172000000.0 0.6386 -0.5981
6175000000.0 -0.0942 -0.8981
6178000000.0 -0.7344 -0.5127
6181000000.0 -0.8871 0.2864
6184000000.0 -0.318 0.8286
6188000000.0 0.4557 0.7875
6191000000.0 0.9101 0.152
6194000000.0 0.6958 -0.6024
6197000000.0 -0.01475 -0.9181
6200000000.0 -0.7178 -0.5497
6203000000.0 -0.8764 0.2257
6206000000.0 -0.4131 0.8124
6209000000.0 0.3516 0.8145
6212000000.0 0.8566 0.2483
6216000000.0 0.7178 -0.5033
6219000000.0 0.09401 -0.8928
6222000000.0 -0.6317 -0.6362
6225000000.0 -0.8857 0.09904
6228000000.0 -0.504 0.7808
6231000000.0 0.2457 0.8224
6234000000.0 0.813 0.345
6238000000.0 0.7984 -0.4165
6241000000.0 0.1539 -0.8359
6244000000.0 -0.5306 -0.6566
6247000000.0 -0.8464 -0.0203
6250000000.0 -0.5697 0.6607
6253000000.0 0.154 0.8552
6256000000.0 0.7069 0.4154
6259000000.0 0.7635 -0.2946
