! Created with skrf 1.8.0 (http://scikit-rf.org).
# Hz S RI R 50.0 
!freq ReS11 ImS11
4000000000.0 -0.1477 -1.499
4003000000.0 -1.241 -0.8314
4006000000.0 -1.422 0.4869
4009000000.0 -0.5415 1.455
4012000000.0 0.7945 1.284
4016000000.0 1.543 0.2313
4019000000.0 1.133 -1.047
4022000000.0 -0.1169 -1.513
4025000000.0 -1.281 -0.8665
4028000000.0 -1.519 0.4794
4031000000.0 -0.6226 1.523
4034000000.0 0.7818 1.431
4038000000.0 1.585 0.2722
4041000000.0 1.242 -1.098
4044000000.0 -0.1118 -1.629
4047000000.0 -1.337 -0.9553
4050000000.0 -1.606 0.4864
4053000000.0 -0.625 1.46
4056000000.0 0.7615 1.462
4059000000.0 1.614 0.3409
4062000000.0 1.232 -1.001
4066000000.0 -0.01357 -1.62
4069000000.0 -1.214 -1.082
4072000000.0 -1.614 0.2419
4075000000.0 -0.794 1.39
4078000000.0 0.5638 1.567
4081000000.0 1.534 0.551
4084000000.0 1.43 -0.8054
4088000000.0 0.251 -1.638
4091000000.0 -1.103 -1.24
4094000000.0 -1.639 0.05685
4097000000.0 -1.006 1.351
4100000000.0 0.3998 1.566
4103000000.0 1.444 0.7357
4106000000.0 1.484 -0.6605
4109000000.0 0.4428 -1.49
4112000000.0 -0.7985 -1.294
4116000000.0 -1.52 -0.194
4119000000.0 -1.134 1.002
4122000000.0 0.01923 1.503
4125000000.0 1.153 0.956
4128000000.0 1.466 -0.2331
4131000000.0 0.7673 -1.22
4134000000.0 -0.3936 -1.441
4138000000.0 -1.36 -0.6006
4141000000.0 -1.348 0.6265
4144000000.0 -0.3963 1.451
4147000000.0 0.8434 1.208
4150000000.0 1.525 0.1475
4153000000.0 1.068 -1.104
4156000000.0 -0.1127 -1.537
4159000000.0 -1.217 -0.902
4162000000.0 -1.474 0.3935
4166000000.0 -0.6733 1.389
4169000000.0 0.5961 1.382
4172000000.0 1.453 0.3916
4175000000.0 1.259 -0.8153
4178000000.0 0.1328 -1.497
4181000000.0 -1.046 -1.128
4184000000.0 -1.483 0.08759
4188000000.0 -0.9066 1.229
4191000000.0 0.3501 1.47
4194000000.0 1.345 0.6567
4197000000.0 1.439 -0.6521
4200000000.0 0.3843 -1.544
4203000000.0 -0.9861 -1.259
4206000000.0 -1.632 -0.04581
4209000000.0 -1.101 1.245
4212000000.0 0.3224 1.654
4216000000.0 1.504 0.7293
4219000000.0 1.519 -0.7286
4222000000.0 0.3128 -1.65
4225000000.0 -1.109 -1.274
4228000000.0 -1.678 0.08911
4231000000.0 -0.9084 1.408
4234000000.0 0.531 1.645
4238000000.0 1.576 0.481
4241000000.0 1.364 -0.9442
4244000000.0 0.08406 -1.574
4247000000.0 -1.211 -1.046
4250000000.0 -1.581 0.3062
4253000000.0 -0.7033 1.393
4256000000.0 0.6858 1.384
4259000000.0 1.503 0.3121
4262000000.0 1.181 -0.9847
4266000000.0 -0.03641 -1.554
4269000000.0 -1.218 -0.85
4272000000.0 -1.458 0.4393
4275000000.0 -0.5366 1.346
4278000000.0 0.7372 1.276
4281000000.0 1.431 0.1647
4284000000.0 1.02 -0.9645
4288000000.0 -0.1506 -1.415
4291000000.0 -1.132 -0.7532
4294000000.0 -1.307 0.37
4297000000.0 -0.4677 1.256
4300000000.0 0.6373 1.153
4303000000.0 1.276 0.2432
4306000000.0 1.001 -0.8244
4309000000.0 0.04149 -1.302
4312000000.0 -1.01 -0.8269
4316000000.0 -1.251 0.1896
4319000000.0 -0.6992 1.091
4322000000.0 0.431 1.223
4325000000.0 1.186 0.5054
4328000000.0 1.19 -0.6258
4331000000.0 0.2987 -1.328
4334000000.0 -0.8894 -1.084
4338000000.0 -1.389 -0.06649
4341000000.0 -0.9172 1.064
4344000000.0 0.2079 1.372
4347000000.0 1.2 0.7367
4350000000.0 1.317 -0.4737
4353000000.0 0.495 -1.366
4356000000.0 -0.704 -1.263
4359000000.0 -1.445 -0.2303
4362000000.0 -1.11 0.9481
4366000000.0 0.01107 1.454
4369000000.0 1.148 0.9499
4372000000.0 1.438 -0.2905
4375000000.0 0.7169 -1.295
4378000000.0 -0.5545 -1.387
4381000000.0 -1.466 -0.4958
4384000000.0 -1.243 0.7998
4388000000.0 -0.2026 1.558
4391000000.0 1.068 1.143
4394000000.0 1.56 -0.1321
4397000000.0 0.8613 -1.326
4400000000.0 -0.5063 -1.503
4403000000.0 -1.486 -0.5389
4406000000.0 -1.359 0.8239
4409000000.0 -0.2094 1.581
4412000000.0 1.101 1.099
4416000000.0 1.537 -0.1997
4419000000.0 0.8096 -1.319
4422000000.0 -0.537 -1.439
4425000000.0 -1.471 -0.4345
4428000000.0 -1.222 0.8464
4431000000.0 -0.1264 1.465
4434000000.0 1.065 0.9445
4438000000.0 1.422 -0.2224
4441000000.0 0.6484 -1.246
4444000000.0 -0.5425 -1.267
4447000000.0 -1.35 -0.3028
4450000000.0 -1.017 0.8479
4453000000.0 0.02234 1.32
4456000000.0 1.03 0.7738
4459000000.0 1.228 -0.3517
4462000000.0 0.4742 -1.166
4466000000.0 -0.6238 -1.069
4469000000.0 -1.237 -0.1635
4472000000.0 -0.8598 0.8535
4475000000.0 0.1218 1.184
4478000000.0 1.021 0.6142
4481000000.0 1.109 -0.4278
4484000000.0 0.3199 -1.092
4488000000.0 -0.6608 -0.9442
4491000000.0 -1.141 -0.0763
4494000000.0 -0.7599 0.8119
4497000000.0 0.1738 1.135
4500000000.0 0.9807 0.5473
4503000000.0 0.9958 -0.3803
4506000000.0 0.3394 -1.073
4509000000.0 -0.6051 -0.9006
4512000000.0 -1.115 -0.1367
4516000000.0 -0.7659 0.7999
4519000000.0 0.1255 1.12
4522000000.0 0.9674 0.6385
4525000000.0 1.103 -0.3326
4528000000.0 0.3966 -1.059
4531000000.0 -0.5738 -1.023
4534000000.0 -1.165 -0.1852
4538000000.0 -0.8843 0.7675
4541000000.0 0.02287 1.179
4544000000.0 0.9211 0.7275
4547000000.0 1.163 -0.2531
4550000000.0 0.5537 -1.053
4553000000.0 -0.4746 -1.132
4556000000.0 -1.157 -0.369
4559000000.0 -1.051 0.6475
4562000000.0 -0.1785 1.231
4566000000.0 0.8407 0.9254
4569000000.0 1.291 -0.06098
4572000000.0 0.7673 -1.026
4575000000.0 -0.2612 -1.288
4578000000.0 -1.178 -0.617
4581000000.0 -1.232 0.5069
4584000000.0 -0.4142 1.275
4588000000.0 0.7427 1.129
4591000000.0 1.38 0.1409
4594000000.0 0.9694 -0.9464
4597000000.0 -0.07447 -1.341
4600000000.0 -1.144 -0.7884
4603000000.0 -1.349 0.3674
4606000000.0 -0.5663 1.276
4609000000.0 0.6253 1.266
4612000000.0 1.394 0.2908
4616000000.0 1.116 -0.8426
4619000000.0 0.01403 -1.386
4622000000.0 -1.064 -0.9134
4625000000.0 -1.367 0.2542
4628000000.0 -0.6767 1.22
4631000000.0 0.5256 1.265
4634000000.0 1.321 0.4089
4638000000.0 1.134 -0.7386
4641000000.0 0.1096 -1.368
4644000000.0 -1.002 -0.9498
4647000000.0 -1.339 0.2165
4650000000.0 -0.6762 1.161
4653000000.0 0.4791 1.246
4656000000.0 1.24 0.3538
4659000000.0 1.078 -0.7223
4662000000.0 0.0909 -1.277
4666000000.0 -0.9205 -0.8091
4669000000.0 -1.196 0.199
4672000000.0 -0.5878 1.046
4675000000.0 0.4411 1.083
4678000000.0 1.118 0.3182
4681000000.0 0.9542 -0.6684
4684000000.0 0.04392 -1.123
4688000000.0 -0.8207 -0.7535
4691000000.0 -1.104 0.1745
4694000000.0 -0.5527 0.9718
4697000000.0 0.4443 1.02
4700000000.0 1.048 0.2841
4703000000.0 0.8729 -0.6534
4706000000.0 0.0422 -1.115
4709000000.0 -0.8488 -0.7171
4712000000.0 -1.087 0.1956
4716000000.0 -0.4656 0.9742
4719000000.0 0.4684 0.9515
4722000000.0 1.043 0.2149
4725000000.0 0.8259 -0.6295
4728000000.0 0.0009974 -1.037
4731000000.0 -0.8046 -0.7202
4734000000.0 -1.012 0.1747
4738000000.0 -0.5126 0.942
4741000000.0 0.3449 0.9894
4744000000.0 1.011 0.3456
4747000000.0 0.9178 -0.5093
4750000000.0 0.17 -1.066
4753000000.0 -0.7172 -0.8109
4756000000.0 -1.09 0.03197
4759000000.0 -0.6391 0.8661
4762000000.0 0.234 1.097
4766000000.0 0.9881 0.5043
4769000000.0 1.04 -0.4435
4772000000.0 0.3453 -1.093
4775000000.0 -0.6314 -0.9878
4778000000.0 -1.182 -0.1486
4781000000.0 -0.8823 0.789
4784000000.0 0.0531 1.2
4788000000.0 0.9687 0.7223
4791000000.0 1.214 -0.2647
4794000000.0 0.5815 -1.095
4797000000.0 -0.4751 -1.146
4800000000.0 -1.201 -0.383
4803000000.0 -1.05 0.647
4806000000.0 -0.1353 1.243
4809000000.0 0.8419 0.9544
4812000000.0 1.276 -0.02969
4816000000.0 0.8324 -1.035
4819000000.0 -0.2719 -1.309
4822000000.0 -1.181 -0.6416
4825000000.0 -1.268 0.5349
4828000000.0 -0.3903 1.292
4831000000.0 0.7536 1.176
4834000000.0 1.416 0.1622
4838000000.0 0.9889 -0.996
4841000000.0 -0.1346 -1.378
4844000000.0 -1.17 -0.7653
4847000000.0 -1.329 0.4091
4850000000.0 -0.5213 1.29
4853000000.0 0.6644 1.208
4856000000.0 1.34 0.2873
4859000000.0 1.027 -0.8796
4862000000.0 -0.02852 -1.355
4866000000.0 -1.046 -0.8259
4869000000.0 -1.334 0.277
4872000000.0 -0.5986 1.181
4875000000.0 0.5519 1.195
4878000000.0 1.269 0.3387
4881000000.0 1.023 -0.7459
4884000000.0 0.06539 -1.246
4888000000.0 -0.9332 -0.8178
4891000000.0 -1.226 0.23
4894000000.0 -0.5964 1.043
4897000000.0 0.45 1.063
4900000000.0 1.115 0.3413
4903000000.0 0.9289 -0.648
4906000000.0 0.08128 -1.117
4909000000.0 -0.7912 -0.747
4912000000.0 -1.057 0.1465
4916000000.0 -0.5513 0.8892
4919000000.0 0.3251 0.9482
4922000000.0 0.9254 0.344
4925000000.0 0.8617 -0.4755
4928000000.0 0.1566 -0.942
4931000000.0 -0.6437 -0.6863
4934000000.0 -0.9566 0.02914
4938000000.0 -0.5579 0.7574
4941000000.0 0.2335 0.8882
4944000000.0 0.8458 0.3827
4947000000.0 0.8759 -0.3957
4950000000.0 0.2377 -0.9118
4953000000.0 -0.5547 -0.7566
4956000000.0 -0.9997 -0.05321
4959000000.0 -0.6295 0.7561
4962000000.0 0.1721 0.9718
4966000000.0 0.8619 0.5265
4969000000.0 0.9441 -0.3503
4972000000.0 0.3299 -0.9226
4975000000.0 -0.5358 -0.8645
4978000000.0 -1.022 -0.1332
4981000000.0 -0.7462 0.7333
4984000000.0 0.07782 1.04
4988000000.0 0.8424 0.6166
4991000000.0 1.028 -0.2311
4994000000.0 0.4499 -0.9976
4997000000.0 -0.4468 -1.007
5000000000.0 -1.093 -0.2891
5003000000.0 -0.9667 0.6507
5006000000.0 -0.08585 1.16
5009000000.0 0.8722 0.8053
5012000000.0 1.189 -0.1473
5016000000.0 0.6394 -1.054
5019000000.0 -0.3592 -1.184
5022000000.0 -1.147 -0.4637
5025000000.0 -1.137 0.5982
5028000000.0 -0.2564 1.273
5031000000.0 0.7948 0.9666
5034000000.0 1.292 -0.008274
5038000000.0 0.8322 -0.9868
5041000000.0 -0.234 -1.266
5044000000.0 -1.152 -0.5981
5047000000.0 -1.208 0.4644
5050000000.0 -0.4307 1.208
5053000000.0 0.6678 1.094
5056000000.0 1.269 0.1991
5059000000.0 0.988 -0.8763
5062000000.0 -0.01489 -1.284
5066000000.0 -1.022 -0.7788
5069000000.0 -1.253 0.2685
5072000000.0 -0.6059 1.152
5075000000.0 0.5031 1.196
5078000000.0 1.233 0.3751
5081000000.0 1.064 -0.653
5084000000.0 0.1618 -1.242
5088000000.0 -0.8718 -0.875
5091000000.0 -1.186 0.08816
5094000000.0 -0.6877 0.9621
5097000000.0 0.2924 1.14
5100000000.0 1.037 0.4995
5103000000.0 1.047 -0.4531
5106000000.0 0.3243 -1.045
5109000000.0 -0.6159 -0.9036
5112000000.0 -1.07 -0.1093
5116000000.0 -0.7441 0.7622
5119000000.0 0.07848 1.073
5122000000.0 0.8192 0.6046
5125000000.0 1.04 -0.2441
5128000000.0 0.4751 -0.9489
5131000000.0 -0.4281 -0.9045
5134000000.0 -0.9506 -0.2525
5138000000.0 -0.7737 0.5677
5141000000.0 -0.07002 0.9781
5144000000.0 0.6722 0.6438
5147000000.0 0.9439 -0.13
5150000000.0 0.5053 -0.8081
5153000000.0 -0.2936 -0.8746
5156000000.0 -0.8531 -0.3392
5159000000.0 -0.7522 0.4745
5162000000.0 -0.1339 0.8905
5166000000.0 0.5961 0.6779
5169000000.0 0.9024 -0.04547
5172000000.0 0.5108 -0.7324
5175000000.0 -0.2189 -0.8965
5178000000.0 -0.8153 -0.3571
5181000000.0 -0.818 0.4453
5184000000.0 -0.1902 0.9143
5188000000.0 0.5667 0.7007
5191000000.0 0.9497 -0.002163
5194000000.0 0.55 -0.7641
5197000000.0 -0.243 -0.898
5200000000.0 -0.837 -0.3689
5203000000.0 -0.8785 0.4502
5206000000.0 -0.186 0.9191
5209000000.0 0.5956 0.7757
5212000000.0 0.9521 -0.02354
5216000000.0 0.6315 -0.7833
5219000000.0 -0.2041 -0.9464
5222000000.0 -0.866 -0.4534
5225000000.0 -0.9304 0.3997
5228000000.0 -0.2808 0.9632
5231000000.0 0.5657 0.8255
5234000000.0 1.034 0.05321
5238000000.0 0.7044 -0.7814
5241000000.0 -0.1508 -1.043
5244000000.0 -0.8656 -0.5823
5247000000.0 -1.026 0.3042
5250000000.0 -0.3794 1.0
5253000000.0 0.5132 0.9457
5256000000.0 1.074 0.2154
5259000000.0 0.8475 -0.6915
5262000000.0 0.01186 -1.099
5266000000.0 -0.8264 -0.7247
5269000000.0 -1.101 0.1753
5272000000.0 -0.5698 0.9603
5275000000.0 0.3424 1.043
5278000000.0 1.03 0.3898
5281000000.0 0.9577 -0.5029
5284000000.0 0.2513 -1.104
5288000000.0 -0.6529 -0.885
5291000000.0 -1.122 -0.04701
5294000000.0 -0.7489 0.8036
5297000000.0 0.1054 1.119
5300000000.0 0.9634 0.6521
5303000000.0 1.082 -0.2855
5306000000.0 0.4766 -1.077
5309000000.0 -0.4796 -1.038
5312000000.0 -1.1 -0.2876
5316000000.0 -0.9427 0.657
5319000000.0 -0.08666 1.132
5322000000.0 0.7941 0.8143
5325000000.0 1.128 -0.09722
5328000000.0 0.6429 -0.9592
5331000000.0 -0.3081 -1.103
5334000000.0 -1.057 -0.45
5338000000.0 -1.007 0.493
5341000000.0 -0.2695 1.09
5344000000.0 0.6771 0.9161
5347000000.0 1.124 0.05603
5350000000.0 0.7507 -0.815
5353000000.0 -0.1372 -1.075
5356000000.0 -0.9321 -0.5194
5359000000.0 -1.03 0.3628
5362000000.0 -0.3806 1.037
5366000000.0 0.5911 0.9161
5369000000.0 1.083 0.1317
5372000000.0 0.7392 -0.7356
5375000000.0 -0.09323 -1.029
5378000000.0 -0.8833 -0.5724
5381000000.0 -0.9597 0.3199
5384000000.0 -0.3441 0.9536
5388000000.0 0.5467 0.848
5391000000.0 0.956 0.103
5394000000.0 0.6736 -0.6711
5397000000.0 -0.1021 -0.9374
5400000000.0 -0.7854 -0.4823
5403000000.0 -0.8632 0.3235
5406000000.0 -0.2942 0.8382
5409000000.0 0.4986 0.7245
5412000000.0 0.8735 0.05914
5416000000.0 0.6041 -0.6303
5419000000.0 -0.1252 -0.8681
5422000000.0 -0.7629 -0.4495
5425000000.0 -0.7974 0.3311
5428000000.0 -0.303 0.8159
5431000000.0 0.4683 0.7043
5434000000.0 0.8984 0.06144
5438000000.0 0.6209 -0.6415
5441000000.0 -0.1407 -0.8732
5444000000.0 -0.7536 -0.468
5447000000.0 -0.8124 0.3027
5450000000.0 -0.2709 0.8386
5453000000.0 0.5275 0.742
5456000000.0 0.8822 0.06494
5459000000.0 0.6429 -0.6132
5462000000.0 -0.05996 -0.8986
5466000000.0 -0.7526 -0.4863
5469000000.0 -0.8619 0.2127
5472000000.0 -0.3792 0.8501
5475000000.0 0.3937 0.8499
5478000000.0 0.8893 0.195
5481000000.0 0.7486 -0.5684
5484000000.0 0.09609 -0.9808
5488000000.0 -0.6641 -0.6917
5491000000.0 -0.9738 0.09524
5494000000.0 -0.5466 0.8185
5497000000.0 0.2908 0.9547
5500000000.0 0.9379 0.375
5503000000.0 0.9156 -0.4571
5506000000.0 0.2643 -0.9749
5509000000.0 -0.6089 -0.8021
5512000000.0 -1.003 -0.04727
5516000000.0 -0.6995 0.7264
5519000000.0 0.09984 1.046
5522000000.0 0.8548 0.5594
5525000000.0 0.9967 -0.284
5528000000.0 0.4429 -0.9836
5531000000.0 -0.4712 -0.9369
5534000000.0 -1.012 -0.2504
5538000000.0 -0.8878 0.6296
5541000000.0 -0.05447 1.056
5544000000.0 0.7597 0.7666
5547000000.0 1.093 -0.06123
5550000000.0 0.5976 -0.8562
5553000000.0 -0.29 -1.076
5556000000.0 -0.9998 -0.426
5559000000.0 -0.9612 0.4656
5562000000.0 -0.255 1.045
5566000000.0 0.6357 0.8413
5569000000.0 1.016 0.04052
5572000000.0 0.6783 -0.7796
5575000000.0 -0.1083 -0.9929
5578000000.0 -0.8538 -0.53
5581000000.0 -0.9301 0.3212
5584000000.0 -0.3618 0.9135
5588000000.0 0.5103 0.852
5591000000.0 0.9798 0.1644
5594000000.0 0.7334 -0.6255
5597000000.0 -0.008432 -0.9106
5600000000.0 -0.7298 -0.5487
5603000000.0 -0.91 0.1761
5606000000.0 -0.4037 0.807
5609000000.0 0.3689 0.8042
5612000000.0 0.8472 0.2079
5616000000.0 0.7136 -0.4948
5619000000.0 0.04714 -0.8633
5622000000.0 -0.6574 -0.5895
5625000000.0 -0.8467 0.122
5628000000.0 -0.4252 0.755
5631000000.0 0.3129 0.8021
5634000000.0 0.8091 0.2475
5638000000.0 0.7089 -0.4512
5641000000.0 0.07572 -0.8256
5644000000.0 -0.6211 -0.584
5647000000.0 -0.808 0.09599
5650000000.0 -0.4489 0.7323
5653000000.0 0.3126 0.7854
5656000000.0 0.7969 0.2647
5659000000.0 0.7164 -0.4444
5662000000.0 0.1065 -0.8827
5666000000.0 -0.6508 -0.6156
5669000000.0 -0.8532 0.1177
5672000000.0 -0.4682 0.762
5675000000.0 0.3048 0.8467
5678000000.0 0.8715 0.2853
5681000000.0 0.7515 -0.4837
5684000000.0 0.08992 -0.9148
5688000000.0 -0.6592 -0.6873
5691000000.0 -0.9557 0.09408
5694000000.0 -0.5454 0.8397
5697000000.0 0.3055 0.9331
5700000000.0 0.9079 0.3258
5703000000.0 0.8688 -0.5131
5706000000.0 0.1907 -0.9911
5709000000.0 -0.6798 -0.7563
5712000000.0 -1.034 0.01797
5716000000.0 -0.6459 0.8044
5719000000.0 0.2401 1.002
5722000000.0 0.9269 0.4829
5725000000.0 0.9828 -0.4371
5728000000.0 0.2948 -1.038
5731000000.0 -0.6006 -0.8881
5734000000.0 -1.043 -0.08264
5738000000.0 -0.7895 0.7504
5741000000.0 0.07946 1.109
5744000000.0 0.8913 0.6198
5747000000.0 1.074 -0.3102
5750000000.0 0.4662 -1.019
5753000000.0 -0.4657 -0.9994
5756000000.0 -1.07 -0.2171
5759000000.0 -0.9042 0.6708
5762000000.0 -0.05061 1.101
5766000000.0 0.8261 0.7653
5769000000.0 1.111 -0.1208
5772000000.0 0.6311 -0.9207
5775000000.0 -0.3328 -1.039
5778000000.0 -1.022 -0.4227
5781000000.0 -0.9994 0.52
5784000000.0 -0.2425 1.07
5788000000.0 0.672 0.8855
5791000000.0 1.076 0.06393
5794000000.0 0.7379 -0.7978
5797000000.0 -0.1669 -1.064
5800000000.0 -0.8972 -0.5556
5803000000.0 -1.048 0.3555
5806000000.0 -0.3472 1.014
5809000000.0 0.4928 0.9198
5812000000.0 1.025 0.1899
5816000000.0 0.7978 -0.6786
5819000000.0 -0.0295 -1.052
5822000000.0 -0.8037 -0.6485
5825000000.0 -1.038 0.1957
5828000000.0 -0.4643 0.8769
5831000000.0 0.4282 0.8963
5834000000.0 0.9577 0.2556
5838000000.0 0.8253 -0.5562
5841000000.0 0.07858 -0.9679
5844000000.0 -0.7225 -0.663
5847000000.0 -0.9234 0.1391
5850000000.0 -0.4904 0.8282
5853000000.0 0.3334 0.8763
5856000000.0 0.8904 0.3
5859000000.0 0.784 -0.5177
5862000000.0 0.07288 -0.9247
5866000000.0 -0.6566 -0.6367
5869000000.0 -0.8845 0.1238
5872000000.0 -0.4919 0.7539
5875000000.0 0.2894 0.8327
5878000000.0 0.8163 0.2689
5881000000.0 0.7639 -0.484
5884000000.0 0.1046 -0.8991
5888000000.0 -0.6085 -0.6376
5891000000.0 -0.8842 0.04943
5894000000.0 -0.4736 0.6731
5897000000.0 0.2362 0.8218
5900000000.0 0.8139 0.3399
5903000000.0 0.7758 -0.4146
5906000000.0 0.1439 -0.8644
5909000000.0 -0.559 -0.6324
5912000000.0 -0.8729 -0.0166
5916000000.0 -0.5206 0.7017
5919000000.0 0.1848 0.8931
5922000000.0 0.7819 0.3807
5925000000.0 0.7949 -0.3475
5928000000.0 0.2448 -0.8533
5931000000.0 -0.4704 -0.7319
5934000000.0 -0.8931 -0.05399
5938000000.0 -0.6293 0.6186
5941000000.0 0.07434 0.9126
5944000000.0 0.7295 0.5407
5947000000.0 0.861 -0.2526
5950000000.0 0.3717 -0.7991
5953000000.0 -0.4146 -0.8311
5956000000.0 -0.8652 -0.2304
5959000000.0 -0.7527 0.5457
5962000000.0 -0.05485 0.9077
5966000000.0 0.6718 0.6587
5969000000.0 0.9487 -0.1139
5972000000.0 0.5182 -0.8075
5975000000.0 -0.2682 -0.9036
5978000000.0 -0.8876 -0.3943
5981000000.0 -0.8667 0.4207
5984000000.0 -0.24 0.9359
5988000000.0 0.579 0.7823
5991000000.0 0.9896 0.05682
5994000000.0 0.6556 -0.7329
5997000000.0 -0.1645 -0.9837
6000000000.0 -0.8625 -0.5388
6003000000.0 -0.9364 0.3383
6006000000.0 -0.3697 0.9117
6009000000.0 0.4899 0.875
6012000000.0 0.9801 0.1726
6016000000.0 0.7715 -0.6385
6019000000.0 -0.03198 -1.001
6022000000.0 -0.7893 -0.5942
6025000000.0 -0.963 0.2096
6028000000.0 -0.4326 0.8726
6031000000.0 0.3852 0.9036
6034000000.0 0.9538 0.2542
6038000000.0 0.8125 -0.5816
6041000000.0 0.08075 -0.9854
6044000000.0 -0.6939 -0.6593
6047000000.0 -0.9609 0.1394
6050000000.0 -0.4968 0.8088
6053000000.0 0.3326 0.8907
6056000000.0 0.8981 0.3084
6059000000.0 0.7828 -0.4981
6062000000.0 0.1239 -0.9476
6066000000.0 -0.6563 -0.666
6069000000.0 -0.9121 0.05786
6072000000.0 -0.5168 0.7733
6075000000.0 0.26 0.8477
6078000000.0 0.8192 0.2979
6081000000.0 0.7297 -0.4207
6084000000.0 0.1548 -0.8748
6088000000.0 -0.5776 -0.6348
6091000000.0 -0.8574 0.04207
6094000000.0 -0.4956 0.6958
6097000000.0 0.2276 0.8531
6100000000.0 0.7564 0.3665
6103000000.0 0.7929 -0.3687
6106000000.0 0.1742 -0.8488
6109000000.0 -0.5303 -0.6697
6112000000.0 -0.8775 -0.01095
6116000000.0 -0.5427 0.6789
6119000000.0 0.1988 0.8207
6122000000.0 0.7376 0.3961
6125000000.0 0.7927 -0.3525
6128000000.0 0.2659 -0.8421
6131000000.0 -0.5273 -0.7493
6134000000.0 -0.8487 -0.07788
6138000000.0 -0.5827 0.6296
6141000000.0 0.1587 0.8562
6144000000.0 0.7536 0.4471
6147000000.0 0.8411 -0.2909
6150000000.0 0.3048 -0.8396
6153000000.0 -0.4431 -0.7971
6156000000.0 -0.8963 -0.1085
6159000000.0 -0.6589 0.6027
6162000000.0 0.09631 0.8752
6166000000.0 0.7234 0.5299
6169000000.0 0.875 -0.2484
6172000000.0 0.4081 -0.877
6175000000.0 -0.415 -0.8224
6178000000.0 -0.9262 -0.2015
6181000000.0 -0.7494 0.5813
6184000000.0 -0.01062 0.9686
6188000000.0 0.7244 0.589
6191000000.0 0.9433 -0.2064
6194000000.0 0.4465 -0.8402
6197000000.0 -0.35 -0.893
6200000000.0 -0.8737 -0.2731
6203000000.0 -0.7979 0.496
6206000000.0 -0.1073 0.9126
6209000000.0 0.6354 0.7054
6212000000.0 0.9074 -0.05872
6216000000.0 0.5298 -0.7537
6219000000.0 -0.2496 -0.8943
6222000000.0 -0.8363 -0.3985
6225000000.0 -0.8274 0.3716
6228000000.0 -0.2633 0.8697
6231000000.0 0.539 0.7258
6234000000.0 0.88 0.06232
6238000000.0 0.6104 -0.6627
6241000000.0 -0.08109 -0.8745
6244000000.0 -0.7324 -0.4696
6247000000.0 -0.8024 0.2646
6250000000.0 -0.3101 0.7751
6253000000.0 0.4107 0.7331
6256000000.0 0.786 0.1807
6259000000.0 0.6334 -0.502
6262000000.0 -0.02643 -0.8128
6266000000.0 -0.5998 -0.5549
6269000000.0 -0.8242 0.1048
