! Created with skrf 1.8.0 (http://scikit-rf.org).
# Hz S RI R 50.0 
!freq ReS11 ImS11
4000000000.0 -0.1584 -1.492
4003000000.0 -1.26 -0.8188
4006000000.0 -1.453 0.4832
4009000000.0 -0.553 1.392
4012000000.0 0.7536 1.299
4016000000.0 1.504 0.1863
4019000000.0 1.12 -1.035
4022000000.0 -0.1496 -1.525
4025000000.0 -1.309 -0.8834
4028000000.0 -1.511 0.5138
4031000000.0 -0.5849 1.482
4034000000.0 0.7912 1.424
4038000000.0 1.6 0.251
4041000000.0 1.202 -1.112
4044000000.0 -0.1257 -1.652
4047000000.0 -1.281 -0.93
4050000000.0 -1.552 0.4877
4053000000.0 -0.5961 1.475
4056000000.0 0.7317 1.444
4059000000.0 1.529 0.3346
4062000000.0 1.282 -1.005
4066000000.0 0.008667 -1.606
4069000000.0 -1.247 -1.054
4072000000.0 -1.584 0.2811
4075000000.0 -0.8391 1.436
4078000000.0 0.5558 1.546
4081000000.0 1.57 0.5304
4084000000.0 1.417 -0.8347
4088000000.0 0.2653 -1.638
4091000000.0 -1.08 -1.253
4094000000.0 -1.634 0.06557
4097000000.0 -0.9838 1.311
4100000000.0 0.3806 1.582
4103000000.0 1.436 0.7016
4106000000.0 1.453 -0.6453
4109000000.0 0.4369 -1.505
4112000000.0 -0.8492 -1.311
4116000000.0 -1.504 -0.1845
4119000000.0 -1.144 1.022
4122000000.0 0.05316 1.481
4125000000.0 1.167 0.9847
4128000000.0 1.477 -0.2192
4131000000.0 0.7856 -1.237
4134000000.0 -0.4138 -1.4
4138000000.0 -1.364 -0.6075
4141000000.0 -1.34 0.6515
4144000000.0 -0.389 1.424
4147000000.0 0.8768 1.231
4150000000.0 1.532 0.1693
4153000000.0 1.08 -1.045
4156000000.0 -0.1358 -1.539
4159000000.0 -1.193 -0.9104
4162000000.0 -1.47 0.4006
4166000000.0 -0.6257 1.395
4169000000.0 0.6182 1.371
4172000000.0 1.473 0.427
4175000000.0 1.232 -0.843
4178000000.0 0.1463 -1.472
4181000000.0 -1.04 -1.091
4184000000.0 -1.479 0.08089
4188000000.0 -0.9143 1.242
4191000000.0 0.3694 1.469
4194000000.0 1.41 0.6605
4197000000.0 1.41 -0.6731
4200000000.0 0.3956 -1.538
4203000000.0 -0.9568 -1.285
4206000000.0 -1.637 -0.03667
4209000000.0 -1.081 1.23
4212000000.0 0.3414 1.653
4216000000.0 1.509 0.7656
4219000000.0 1.472 -0.7217
4222000000.0 0.3148 -1.653
4225000000.0 -1.106 -1.254
4228000000.0 -1.674 0.09105
4231000000.0 -0.9273 1.398
4234000000.0 0.583 1.578
4238000000.0 1.553 0.5087
4241000000.0 1.319 -0.9243
4244000000.0 0.03544 -1.643
4247000000.0 -1.201 -1.02
4250000000.0 -1.551 0.3266
4253000000.0 -0.6887 1.403
4256000000.0 0.7017 1.358
4259000000.0 1.515 0.3463
4262000000.0 1.122 -0.9863
4266000000.0 -0.0798 -1.499
4269000000.0 -1.253 -0.8911
4272000000.0 -1.427 0.4383
4275000000.0 -0.4943 1.403
4278000000.0 0.7853 1.249
4281000000.0 1.433 0.2103
4284000000.0 0.9949 -1.049
4288000000.0 -0.1487 -1.368
4291000000.0 -1.167 -0.7604
4294000000.0 -1.253 0.4065
4297000000.0 -0.4867 1.245
4300000000.0 0.6397 1.147
4303000000.0 1.247 0.257
4306000000.0 1.049 -0.8106
4309000000.0 0.006398 -1.273
4312000000.0 -1.009 -0.8476
4316000000.0 -1.284 0.2039
4319000000.0 -0.6717 1.099
4322000000.0 0.3959 1.255
4325000000.0 1.241 0.5186
4328000000.0 1.197 -0.6142
4331000000.0 0.2706 -1.294
4334000000.0 -0.8774 -1.04
4338000000.0 -1.369 -0.03075
4341000000.0 -0.922 1.05
4344000000.0 0.2092 1.414
4347000000.0 1.19 0.7382
4350000000.0 1.317 -0.4915
4353000000.0 0.4783 -1.352
4356000000.0 -0.7241 -1.269
4359000000.0 -1.411 -0.2601
4362000000.0 -1.112 0.936
4366000000.0 0.01621 1.453
4369000000.0 1.142 0.9168
4372000000.0 1.44 -0.2761
4375000000.0 0.6874 -1.335
4378000000.0 -0.5659 -1.411
4381000000.0 -1.434 -0.4817
4384000000.0 -1.287 0.8389
4388000000.0 -0.1624 1.527
4391000000.0 1.132 1.117
4394000000.0 1.555 -0.1337
4397000000.0 0.8873 -1.307
4400000000.0 -0.5118 -1.525
4403000000.0 -1.515 -0.5344
4406000000.0 -1.357 0.8733
4409000000.0 -0.1935 1.574
4412000000.0 1.114 1.094
4416000000.0 1.569 -0.2243
4419000000.0 0.8004 -1.342
4422000000.0 -0.5185 -1.407
4425000000.0 -1.472 -0.4341
4428000000.0 -1.185 0.8199
4431000000.0 -0.07561 1.447
4434000000.0 1.098 0.9548
4438000000.0 1.403 -0.2787
4441000000.0 0.6446 -1.276
4444000000.0 -0.5765 -1.247
4447000000.0 -1.327 -0.2985
4450000000.0 -1.053 0.8686
4453000000.0 0.06152 1.323
4456000000.0 1.058 0.7635
4459000000.0 1.229 -0.3701
4462000000.0 0.462 -1.171
4466000000.0 -0.6523 -1.07
4469000000.0 -1.225 -0.1504
4472000000.0 -0.8942 0.846
4475000000.0 0.1747 1.197
4478000000.0 1.042 0.5958
4481000000.0 1.08 -0.43
4484000000.0 0.3116 -1.081
4488000000.0 -0.6824 -0.9238
4491000000.0 -1.141 -0.07146
4494000000.0 -0.7798 0.8242
4497000000.0 0.1805 1.118
4500000000.0 0.9979 0.5273
4503000000.0 1.006 -0.4049
4506000000.0 0.3051 -1.035
4509000000.0 -0.6245 -0.9014
4512000000.0 -1.122 -0.08868
4516000000.0 -0.7979 0.7851
4519000000.0 0.1394 1.091
4522000000.0 0.9604 0.6103
4525000000.0 1.09 -0.3696
4528000000.0 0.3997 -1.07
4531000000.0 -0.576 -1.004
4534000000.0 -1.13 -0.1583
4538000000.0 -0.8718 0.7582
4541000000.0 0.03685 1.158
4544000000.0 0.9468 0.7325
4547000000.0 1.163 -0.2562
4550000000.0 0.563 -1.066
4553000000.0 -0.4631 -1.12
4556000000.0 -1.181 -0.3835
4559000000.0 -1.035 0.6446
4562000000.0 -0.1728 1.217
4566000000.0 0.8203 0.9154
4569000000.0 1.274 -0.07266
4572000000.0 0.7727 -1.006
4575000000.0 -0.2455 -1.237
4578000000.0 -1.181 -0.6295
4581000000.0 -1.224 0.5165
4584000000.0 -0.3701 1.261
4588000000.0 0.7579 1.13
4591000000.0 1.341 0.16
4594000000.0 0.9664 -0.9325
4597000000.0 -0.1387 -1.386
4600000000.0 -1.143 -0.777
4603000000.0 -1.362 0.3652
4606000000.0 -0.5478 1.272
4609000000.0 0.637 1.245
4612000000.0 1.396 0.3073
4616000000.0 1.076 -0.8913
4619000000.0 0.05044 -1.391
4622000000.0 -1.102 -0.9037
4625000000.0 -1.359 0.2747
4628000000.0 -0.643 1.246
4631000000.0 0.5092 1.286
4634000000.0 1.363 0.3983
4638000000.0 1.144 -0.7913
4641000000.0 0.1182 -1.357
4644000000.0 -0.9982 -0.9133
4647000000.0 -1.317 0.1968
4650000000.0 -0.6678 1.144
4653000000.0 0.4734 1.248
4656000000.0 1.254 0.3911
4659000000.0 1.019 -0.7285
4662000000.0 0.06896 -1.248
4666000000.0 -0.9175 -0.8323
4669000000.0 -1.211 0.1996
4672000000.0 -0.5854 1.047
4675000000.0 0.4584 1.076
4678000000.0 1.112 0.3057
4681000000.0 0.9074 -0.677
4684000000.0 0.005929 -1.15
4688000000.0 -0.8469 -0.7252
4691000000.0 -1.083 0.2002
4694000000.0 -0.5261 0.9783
4697000000.0 0.4475 1.0
4700000000.0 1.041 0.2811
4703000000.0 0.8643 -0.6688
4706000000.0 0.02627 -1.052
4709000000.0 -0.8234 -0.6993
4712000000.0 -1.033 0.2335
4716000000.0 -0.4609 0.9684
4719000000.0 0.4553 0.9833
4722000000.0 1.016 0.2615
4725000000.0 0.8553 -0.6313
4728000000.0 0.01945 -1.049
4731000000.0 -0.8009 -0.6725
4734000000.0 -1.04 0.1966
4738000000.0 -0.5032 0.9097
4741000000.0 0.3881 0.9887
4744000000.0 0.9943 0.3495
4747000000.0 0.9112 -0.5386
4750000000.0 0.1392 -1.077
4753000000.0 -0.6904 -0.7972
4756000000.0 -1.078 0.06705
4759000000.0 -0.6875 0.9037
4762000000.0 0.2517 1.113
4766000000.0 1.014 0.556
4769000000.0 1.053 -0.4609
4772000000.0 0.3471 -1.11
4775000000.0 -0.6276 -0.981
4778000000.0 -1.157 -0.1575
4781000000.0 -0.878 0.8186
4784000000.0 0.0754 1.22
4788000000.0 0.9958 0.7164
4791000000.0 1.193 -0.2697
4794000000.0 0.5627 -1.076
4797000000.0 -0.4995 -1.148
4800000000.0 -1.199 -0.393
4803000000.0 -1.034 0.694
4806000000.0 -0.1598 1.225
4809000000.0 0.8351 0.9594
4812000000.0 1.3 -0.03983
4816000000.0 0.7882 -1.04
4819000000.0 -0.2743 -1.28
4822000000.0 -1.199 -0.5958
4825000000.0 -1.253 0.5247
4828000000.0 -0.414 1.311
4831000000.0 0.794 1.126
4834000000.0 1.385 0.1429
4838000000.0 0.9758 -0.9831
4841000000.0 -0.166 -1.404
4844000000.0 -1.166 -0.7365
4847000000.0 -1.314 0.4142
4850000000.0 -0.4915 1.293
4853000000.0 0.6814 1.207
4856000000.0 1.336 0.2667
4859000000.0 1.053 -0.8937
4862000000.0 -0.01736 -1.357
4866000000.0 -1.061 -0.8379
4869000000.0 -1.293 0.301
4872000000.0 -0.5842 1.191
4875000000.0 0.5738 1.191
4878000000.0 1.249 0.2982
4881000000.0 1.021 -0.7772
4884000000.0 0.04263 -1.255
4888000000.0 -0.965 -0.8284
4891000000.0 -1.188 0.2152
4894000000.0 -0.5804 1.031
4897000000.0 0.4421 1.06
4900000000.0 1.096 0.3061
4903000000.0 0.8974 -0.6436
4906000000.0 0.08882 -1.091
4909000000.0 -0.8011 -0.7111
4912000000.0 -1.022 0.1556
4916000000.0 -0.513 0.868
4919000000.0 0.3612 0.9378
4922000000.0 0.9309 0.3373
4925000000.0 0.8189 -0.4895
4928000000.0 0.1304 -0.9548
4931000000.0 -0.65 -0.7446
4934000000.0 -0.9289 0.03878
4938000000.0 -0.5372 0.7452
4941000000.0 0.2228 0.9094
4944000000.0 0.8418 0.3866
4947000000.0 0.8312 -0.4159
4950000000.0 0.2543 -0.9272
4953000000.0 -0.583 -0.7421
4956000000.0 -0.9575 -0.02759
4959000000.0 -0.6433 0.7553
4962000000.0 0.1432 0.9528
4966000000.0 0.851 0.5126
4969000000.0 0.932 -0.3684
4972000000.0 0.2908 -0.9453
4975000000.0 -0.5699 -0.8622
4978000000.0 -0.9994 -0.1274
4981000000.0 -0.7405 0.6994
4984000000.0 0.08684 1.033
4988000000.0 0.8608 0.5835
4991000000.0 1.028 -0.2512
4994000000.0 0.4757 -0.9997
4997000000.0 -0.4882 -0.9931
5000000000.0 -1.086 -0.2762
5003000000.0 -0.9331 0.662
5006000000.0 -0.0589 1.158
5009000000.0 0.8538 0.8213
5012000000.0 1.194 -0.1391
5016000000.0 0.689 -1.017
5019000000.0 -0.3845 -1.149
5022000000.0 -1.169 -0.4602
5025000000.0 -1.083 0.5907
5028000000.0 -0.2422 1.262
5031000000.0 0.8204 1.0
5034000000.0 1.272 0.004595
5038000000.0 0.8106 -0.9825
5041000000.0 -0.252 -1.233
5044000000.0 -1.116 -0.6337
5047000000.0 -1.21 0.4735
5050000000.0 -0.4125 1.219
5053000000.0 0.6943 1.115
5056000000.0 1.262 0.2016
5059000000.0 0.9865 -0.8488
5062000000.0 -0.05082 -1.29
5066000000.0 -1.011 -0.7811
5069000000.0 -1.271 0.2995
5072000000.0 -0.5561 1.154
5075000000.0 0.4802 1.162
5078000000.0 1.208 0.3841
5081000000.0 1.063 -0.6789
5084000000.0 0.1108 -1.24
5088000000.0 -0.8247 -0.8785
5091000000.0 -1.256 0.08005
5094000000.0 -0.7295 0.9659
5097000000.0 0.2932 1.168
5100000000.0 1.031 0.4964
5103000000.0 1.042 -0.468
5106000000.0 0.3305 -1.086
5109000000.0 -0.6151 -0.936
5112000000.0 -1.087 -0.1244
5116000000.0 -0.7626 0.7354
5119000000.0 0.05588 1.073
5122000000.0 0.8328 0.6318
5125000000.0 1.006 -0.2524
5128000000.0 0.4737 -0.9483
5131000000.0 -0.4626 -0.9203
5134000000.0 -0.9783 -0.261
5138000000.0 -0.7809 0.6163
5141000000.0 -0.08805 0.9686
5144000000.0 0.6825 0.6408
5147000000.0 0.9328 -0.1399
5150000000.0 0.4932 -0.8221
5153000000.0 -0.3221 -0.8749
5156000000.0 -0.8349 -0.2866
5159000000.0 -0.7569 0.4647
5162000000.0 -0.1747 0.8994
5166000000.0 0.6019 0.6517
5169000000.0 0.868 -0.07144
5172000000.0 0.5144 -0.7227
5175000000.0 -0.2552 -0.8823
5178000000.0 -0.835 -0.358
5181000000.0 -0.8236 0.4049
5184000000.0 -0.1743 0.8684
5188000000.0 0.6167 0.7079
5191000000.0 0.9407 -0.01193
5194000000.0 0.5466 -0.7436
5197000000.0 -0.2268 -0.9278
5200000000.0 -0.8621 -0.3785
5203000000.0 -0.8189 0.4503
5206000000.0 -0.2002 0.901
5209000000.0 0.5918 0.7414
5212000000.0 0.9543 -0.004162
5216000000.0 0.5957 -0.7635
5219000000.0 -0.2098 -0.949
5222000000.0 -0.8965 -0.4213
5225000000.0 -0.9383 0.4292
5228000000.0 -0.267 0.9834
5231000000.0 0.5947 0.8223
5234000000.0 1.025 0.0371
5238000000.0 0.7334 -0.7482
5241000000.0 -0.1294 -1.038
5244000000.0 -0.8745 -0.5514
5247000000.0 -0.99 0.3391
5250000000.0 -0.3876 0.9914
5253000000.0 0.5403 0.9318
5256000000.0 1.055 0.1943
5259000000.0 0.8459 -0.683
5262000000.0 0.01977 -1.1
5266000000.0 -0.8049 -0.6895
5269000000.0 -1.073 0.182
5272000000.0 -0.5518 0.9382
5275000000.0 0.3492 1.019
5278000000.0 1.054 0.392
5281000000.0 0.9539 -0.5176
5284000000.0 0.2106 -1.088
5288000000.0 -0.6986 -0.8993
5291000000.0 -1.089 -0.03961
5294000000.0 -0.7947 0.8365
5297000000.0 0.1436 1.089
5300000000.0 0.9198 0.5982
5303000000.0 1.112 -0.3163
5306000000.0 0.4716 -1.005
5309000000.0 -0.4629 -1.018
5312000000.0 -1.106 -0.3059
5316000000.0 -0.9549 0.6546
5319000000.0 -0.09024 1.127
5322000000.0 0.8328 0.8007
5325000000.0 1.112 -0.1226
5328000000.0 0.6741 -0.9521
5331000000.0 -0.3041 -1.104
5334000000.0 -1.055 -0.4692
5338000000.0 -1.008 0.4732
5341000000.0 -0.28 1.087
5344000000.0 0.6914 0.8857
5347000000.0 1.105 0.06728
5350000000.0 0.7347 -0.8112
5353000000.0 -0.1597 -1.094
5356000000.0 -0.9355 -0.5391
5359000000.0 -1.027 0.3538
5362000000.0 -0.3578 1.025
5366000000.0 0.5744 0.9224
5369000000.0 1.048 0.124
5372000000.0 0.7522 -0.7465
5375000000.0 -0.1223 -1.017
5378000000.0 -0.8871 -0.5787
5381000000.0 -0.9644 0.3516
5384000000.0 -0.3297 0.9481
5388000000.0 0.5582 0.8328
5391000000.0 0.9635 0.08687
5394000000.0 0.6852 -0.6963
5397000000.0 -0.1464 -0.9319
5400000000.0 -0.7983 -0.4929
5403000000.0 -0.8541 0.2959
5406000000.0 -0.2888 0.8476
5409000000.0 0.4667 0.739
5412000000.0 0.8588 0.0516
5416000000.0 0.6069 -0.6096
5419000000.0 -0.1177 -0.8574
5422000000.0 -0.7487 -0.4269
5425000000.0 -0.7649 0.275
5428000000.0 -0.2664 0.8344
5431000000.0 0.469 0.7192
5434000000.0 0.846 0.0776
5438000000.0 0.5804 -0.6129
5441000000.0 -0.1355 -0.869
5444000000.0 -0.7532 -0.4477
5447000000.0 -0.7924 0.2953
5450000000.0 -0.2949 0.8215
5453000000.0 0.4691 0.7343
5456000000.0 0.8788 0.0878
5459000000.0 0.6454 -0.6567
5462000000.0 -0.08645 -0.8826
5466000000.0 -0.7303 -0.5224
5469000000.0 -0.8734 0.2663
5472000000.0 -0.3485 0.8265
5475000000.0 0.4064 0.8
5478000000.0 0.8835 0.2601
5481000000.0 0.7797 -0.5678
5484000000.0 0.06043 -0.9597
5488000000.0 -0.7083 -0.6856
5491000000.0 -0.9611 0.1315
5494000000.0 -0.547 0.8102
5497000000.0 0.2857 0.9369
5500000000.0 0.9133 0.388
5503000000.0 0.9223 -0.4714
5506000000.0 0.2426 -0.9809
5509000000.0 -0.6066 -0.7857
5512000000.0 -1.009 -0.05834
5516000000.0 -0.7094 0.7393
5519000000.0 0.1457 1.035
5522000000.0 0.7928 0.6005
5525000000.0 1.009 -0.2722
5528000000.0 0.4369 -0.9348
5531000000.0 -0.4407 -0.9528
5534000000.0 -1.017 -0.2608
5538000000.0 -0.8704 0.6114
5541000000.0 -0.1099 1.061
5544000000.0 0.7662 0.7399
5547000000.0 1.124 -0.1199
5550000000.0 0.5991 -0.8776
5553000000.0 -0.3278 -1.005
5556000000.0 -0.9543 -0.4263
5559000000.0 -0.9556 0.4991
5562000000.0 -0.2334 1.004
5566000000.0 0.6577 0.8173
5569000000.0 1.03 0.05032
5572000000.0 0.6531 -0.7714
5575000000.0 -0.1487 -0.9973
5578000000.0 -0.8853 -0.5074
5581000000.0 -0.9148 0.3393
5584000000.0 -0.3221 0.9089
5588000000.0 0.5006 0.8358
5591000000.0 0.9235 0.1461
5594000000.0 0.6955 -0.5994
5597000000.0 -0.02082 -0.9267
5600000000.0 -0.7245 -0.557
5603000000.0 -0.8972 0.237
5606000000.0 -0.3979 0.8132
5609000000.0 0.3732 0.821
5612000000.0 0.8479 0.2434
5616000000.0 0.691 -0.5333
5619000000.0 0.04797 -0.8736
5622000000.0 -0.6377 -0.5592
5625000000.0 -0.8366 0.135
5628000000.0 -0.4172 0.7329
5631000000.0 0.3258 0.7886
5634000000.0 0.7911 0.249
5638000000.0 0.7142 -0.4769
5641000000.0 0.06538 -0.8506
5644000000.0 -0.6276 -0.5722
5647000000.0 -0.8461 0.104
5650000000.0 -0.4198 0.721
5653000000.0 0.3187 0.7959
5656000000.0 0.8245 0.2411
5659000000.0 0.7273 -0.4645
5662000000.0 0.07352 -0.8716
5666000000.0 -0.6511 -0.6107
5669000000.0 -0.8746 0.129
5672000000.0 -0.4516 0.7623
5675000000.0 0.3154 0.8658
5678000000.0 0.8521 0.3035
5681000000.0 0.7523 -0.492
5684000000.0 0.1178 -0.9512
5688000000.0 -0.6795 -0.6847
5691000000.0 -0.9508 0.1143
5694000000.0 -0.5261 0.8382
5697000000.0 0.2976 0.8854
5700000000.0 0.9302 0.3597
5703000000.0 0.879 -0.4969
5706000000.0 0.1578 -0.9972
5709000000.0 -0.7091 -0.7791
5712000000.0 -1.003 0.05214
5716000000.0 -0.6104 0.7972
5719000000.0 0.2299 0.9953
5722000000.0 0.9176 0.4436
5725000000.0 0.9463 -0.451
5728000000.0 0.2715 -1.019
5731000000.0 -0.6094 -0.8958
5734000000.0 -1.063 -0.08166
5738000000.0 -0.7587 0.7814
5741000000.0 0.1434 1.071
5744000000.0 0.9356 0.6266
5747000000.0 1.086 -0.3012
5750000000.0 0.4414 -1.011
5753000000.0 -0.4915 -0.9926
5756000000.0 -1.081 -0.2519
5759000000.0 -0.8917 0.6521
5762000000.0 -0.06443 1.153
5766000000.0 0.8403 0.7796
5769000000.0 1.08 -0.1517
5772000000.0 0.6033 -0.9067
5775000000.0 -0.3126 -1.069
5778000000.0 -1.042 -0.3869
5781000000.0 -0.982 0.5231
5784000000.0 -0.2379 1.09
5788000000.0 0.6749 0.8707
5791000000.0 1.05 0.02005
5794000000.0 0.7183 -0.8286
5797000000.0 -0.1756 -1.064
5800000000.0 -0.9461 -0.5689
5803000000.0 -1.013 0.3501
5806000000.0 -0.3858 0.9923
5809000000.0 0.5515 0.8869
5812000000.0 1.034 0.1492
5816000000.0 0.7738 -0.6912
5819000000.0 -0.03638 -1.048
5822000000.0 -0.804 -0.611
5825000000.0 -1.011 0.2162
5828000000.0 -0.4713 0.8946
5831000000.0 0.4019 0.9526
5834000000.0 0.9532 0.2519
5838000000.0 0.8003 -0.5629
5841000000.0 0.0508 -0.9589
5844000000.0 -0.7339 -0.6402
5847000000.0 -0.933 0.1775
5850000000.0 -0.4445 0.8479
5853000000.0 0.3617 0.8739
5856000000.0 0.8986 0.303
5859000000.0 0.7608 -0.5393
5862000000.0 0.08442 -0.9283
5866000000.0 -0.6694 -0.6321
5869000000.0 -0.8987 0.1018
5872000000.0 -0.4804 0.7647
5875000000.0 0.2994 0.8233
5878000000.0 0.8327 0.3103
5881000000.0 0.7348 -0.4812
5884000000.0 0.1319 -0.8661
5888000000.0 -0.6202 -0.6195
5891000000.0 -0.851 0.1004
5894000000.0 -0.4702 0.7177
5897000000.0 0.2564 0.794
5900000000.0 0.7891 0.3077
5903000000.0 0.7675 -0.4221
5906000000.0 0.152 -0.8451
5909000000.0 -0.5665 -0.6229
5912000000.0 -0.8401 -0.01748
5916000000.0 -0.5363 0.6733
5919000000.0 0.1889 0.8425
5922000000.0 0.805 0.4051
5925000000.0 0.8088 -0.3856
5928000000.0 0.2216 -0.8411
5931000000.0 -0.4894 -0.7166
5934000000.0 -0.8959 -0.05905
5938000000.0 -0.6093 0.656
5941000000.0 0.09167 0.8768
5944000000.0 0.7439 0.4846
5947000000.0 0.8801 -0.268
5950000000.0 0.3695 -0.8432
5953000000.0 -0.3762 -0.8191
5956000000.0 -0.8945 -0.249
5959000000.0 -0.7481 0.5866
5962000000.0 -0.07083 0.962
5966000000.0 0.7202 0.6572
5969000000.0 0.9512 -0.1547
5972000000.0 0.5088 -0.8165
5975000000.0 -0.2999 -0.9095
5978000000.0 -0.8847 -0.3675
5981000000.0 -0.8478 0.476
5984000000.0 -0.2143 0.9823
5988000000.0 0.5867 0.7643
5991000000.0 0.9917 0.01611
5994000000.0 0.6692 -0.7509
5997000000.0 -0.1368 -0.9856
6000000000.0 -0.919 -0.4972
6003000000.0 -0.9428 0.3169
6006000000.0 -0.3274 0.955
6009000000.0 0.493 0.8828
6012000000.0 0.9906 0.152
6016000000.0 0.7345 -0.6669
6019000000.0 -0.04187 -0.9939
6022000000.0 -0.7953 -0.5774
6025000000.0 -0.9855 0.2226
6028000000.0 -0.4226 0.8822
6031000000.0 0.4173 0.8648
6034000000.0 0.9534 0.2277
6038000000.0 0.7901 -0.5911
6041000000.0 0.01249 -0.9609
6044000000.0 -0.7212 -0.6674
6047000000.0 -0.9437 0.1269
6050000000.0 -0.4745 0.8276
6053000000.0 0.332 0.8844
6056000000.0 0.9102 0.3067
6059000000.0 0.7793 -0.5022
6062000000.0 0.1108 -0.9137
6066000000.0 -0.6467 -0.6436
6069000000.0 -0.8928 0.1025
6072000000.0 -0.505 0.7565
6075000000.0 0.303 0.8541
6078000000.0 0.8289 0.3145
6081000000.0 0.75 -0.4299
6084000000.0 0.1428 -0.8452
6088000000.0 -0.5949 -0.6427
6091000000.0 -0.8623 0.03312
6094000000.0 -0.5408 0.6916
6097000000.0 0.2309 0.8287
6100000000.0 0.7507 0.3588
6103000000.0 0.7384 -0.4138
6106000000.0 0.1608 -0.8212
6109000000.0 -0.5111 -0.645
6112000000.0 -0.8574 0.006044
6116000000.0 -0.5213 0.6858
6119000000.0 0.2013 0.8691
6122000000.0 0.7709 0.367
6125000000.0 0.7844 -0.3386
6128000000.0 0.2358 -0.8266
6131000000.0 -0.5429 -0.6844
6134000000.0 -0.8643 -0.04695
6138000000.0 -0.5859 0.6718
6141000000.0 0.1653 0.8869
6144000000.0 0.7832 0.4496
6147000000.0 0.8084 -0.3114
6150000000.0 0.2558 -0.8684
6153000000.0 -0.5061 -0.7584
6156000000.0 -0.8824 -0.1315
6159000000.0 -0.6477 0.6495
6162000000.0 0.06981 0.9151
6166000000.0 0.7711 0.5008
6169000000.0 0.9051 -0.29
6172000000.0 0.3807 -0.8935
6175000000.0 -0.4009 -0.7872
6178000000.0 -0.92 -0.1671
6181000000.0 -0.7322 0.6069
6184000000.0 0.01987 0.9292
6188000000.0 0.7624 0.5935
6191000000.0 0.9361 -0.1999
6194000000.0 0.4154 -0.8394
6197000000.0 -0.3513 -0.8742
6200000000.0 -0.9139 -0.3
6203000000.0 -0.793 0.4923
6206000000.0 -0.09964 0.9138
6209000000.0 0.6548 0.6589
6212000000.0 0.922 -0.08494
6216000000.0 0.5311 -0.7765
6219000000.0 -0.2893 -0.8825
6222000000.0 -0.8085 -0.3307
6225000000.0 -0.8087 0.416
6228000000.0 -0.2307 0.8782
6231000000.0 0.5742 0.7215
6234000000.0 0.9172 0.01612
6238000000.0 0.5838 -0.6592
6241000000.0 -0.1151 -0.8846
6244000000.0 -0.753 -0.4455
6247000000.0 -0.7917 0.3088
6250000000.0 -0.3242 0.7939
6253000000.0 0.4187 0.7402
6256000000.0 0.7971 0.1545
6259000000.0 0.6458 -0.4944
6262000000.0 0.001267 -0.7873
6266000000.0 -0.5992 -0.5481
6269000000.0 -0.7919 0.1264
