! Created with skrf 1.8.0 (http://scikit-rf.org).
# Hz S RI R 50.0 
!freq ReS11 ImS11
4000000000.0 -0.1263 -1.503
4003000000.0 -1.278 -0.8233
4006000000.0 -1.438 0.5313
4009000000.0 -0.5395 1.466
4012000000.0 0.8053 1.347
4016000000.0 1.542 0.2166
4019000000.0 1.164 -1.078
4022000000.0 -0.09107 -1.538
4025000000.0 -1.332 -0.9042
4028000000.0 -1.548 0.4935
4031000000.0 -0.6211 1.517
4034000000.0 0.7874 1.446
4038000000.0 1.658 0.2956
4041000000.0 1.203 -1.121
4044000000.0 -0.1074 -1.643
4047000000.0 -1.386 -0.9247
4050000000.0 -1.571 0.3845
4053000000.0 -0.6336 1.511
4056000000.0 0.8 1.447
4059000000.0 1.587 0.3424
4062000000.0 1.28 -1.06
4066000000.0 0.07123 -1.637
4069000000.0 -1.263 -1.07
4072000000.0 -1.624 0.2619
4075000000.0 -0.8455 1.43
4078000000.0 0.5623 1.574
4081000000.0 1.547 0.5252
4084000000.0 1.411 -0.8992
4088000000.0 0.2729 -1.65
4091000000.0 -1.113 -1.204
4094000000.0 -1.67 0.09658
4097000000.0 -1.044 1.289
4100000000.0 0.3647 1.574
4103000000.0 1.466 0.7231
4106000000.0 1.483 -0.6291
4109000000.0 0.4634 -1.527
4112000000.0 -0.8551 -1.312
4116000000.0 -1.554 -0.2159
4119000000.0 -1.17 0.9569
4122000000.0 0.01799 1.516
4125000000.0 1.132 0.9759
4128000000.0 1.503 -0.235
4131000000.0 0.78 -1.272
4134000000.0 -0.4588 -1.469
4138000000.0 -1.369 -0.6113
4141000000.0 -1.344 0.6633
4144000000.0 -0.3767 1.428
4147000000.0 0.8292 1.258
4150000000.0 1.53 0.1656
4153000000.0 1.111 -1.071
4156000000.0 -0.1056 -1.538
4159000000.0 -1.296 -0.9155
4162000000.0 -1.488 0.3769
4166000000.0 -0.6621 1.369
4169000000.0 0.6301 1.391
4172000000.0 1.504 0.4045
4175000000.0 1.255 -0.841
4178000000.0 0.1774 -1.513
4181000000.0 -1.03 -1.099
4184000000.0 -1.505 0.0779
4188000000.0 -0.9271 1.204
4191000000.0 0.3587 1.495
4194000000.0 1.378 0.6906
4197000000.0 1.424 -0.6555
4200000000.0 0.4218 -1.549
4203000000.0 -0.9654 -1.312
4206000000.0 -1.626 -0.07508
4209000000.0 -1.04 1.295
4212000000.0 0.3352 1.645
4216000000.0 1.517 0.7233
4219000000.0 1.514 -0.7593
4222000000.0 0.3601 -1.697
4225000000.0 -1.112 -1.32
4228000000.0 -1.675 0.1005
4231000000.0 -0.9359 1.433
4234000000.0 0.5229 1.618
4238000000.0 1.566 0.5268
4241000000.0 1.386 -0.944
4244000000.0 0.09389 -1.663
4247000000.0 -1.205 -1.067
4250000000.0 -1.579 0.3331
4253000000.0 -0.7179 1.394
4256000000.0 0.6804 1.426
4259000000.0 1.54 0.2925
4262000000.0 1.183 -1.029
4266000000.0 -0.04437 -1.525
4269000000.0 -1.228 -0.8528
4272000000.0 -1.437 0.4174
4275000000.0 -0.5467 1.388
4278000000.0 0.7337 1.273
4281000000.0 1.455 0.184
4284000000.0 1.05 -0.9941
4288000000.0 -0.1551 -1.409
4291000000.0 -1.183 -0.7626
4294000000.0 -1.325 0.4015
4297000000.0 -0.5275 1.268
4300000000.0 0.627 1.183
4303000000.0 1.302 0.2504
4306000000.0 1.049 -0.7923
4309000000.0 0.02684 -1.318
4312000000.0 -0.9864 -0.8815
4316000000.0 -1.286 0.2146
4319000000.0 -0.6927 1.117
4322000000.0 0.3944 1.258
4325000000.0 1.255 0.4984
4328000000.0 1.175 -0.6414
4331000000.0 0.2714 -1.329
4334000000.0 -0.8198 -1.111
4338000000.0 -1.399 -0.03974
4341000000.0 -0.926 1.084
4344000000.0 0.2229 1.432
4347000000.0 1.254 0.776
4350000000.0 1.362 -0.4533
4353000000.0 0.516 -1.347
4356000000.0 -0.6827 -1.238
4359000000.0 -1.472 -0.2673
4362000000.0 -1.121 0.9402
4366000000.0 0.01879 1.472
4369000000.0 1.132 0.9332
4372000000.0 1.486 -0.2444
4375000000.0 0.7212 -1.308
4378000000.0 -0.5437 -1.403
4381000000.0 -1.452 -0.4812
4384000000.0 -1.326 0.8413
4388000000.0 -0.1957 1.516
4391000000.0 1.115 1.093
4394000000.0 1.578 -0.1343
4397000000.0 0.9088 -1.336
4400000000.0 -0.5053 -1.56
4403000000.0 -1.534 -0.5536
4406000000.0 -1.393 0.8405
4409000000.0 -0.2185 1.599
4412000000.0 1.106 1.118
4416000000.0 1.571 -0.1651
4419000000.0 0.8337 -1.304
4422000000.0 -0.5261 -1.424
4425000000.0 -1.46 -0.4841
4428000000.0 -1.24 0.8189
4431000000.0 -0.09981 1.459
4434000000.0 1.084 0.967
4438000000.0 1.438 -0.2203
4441000000.0 0.6789 -1.222
4444000000.0 -0.5566 -1.303
4447000000.0 -1.34 -0.3553
4450000000.0 -1.062 0.8191
4453000000.0 0.0252 1.371
4456000000.0 1.038 0.7831
4459000000.0 1.257 -0.3471
4462000000.0 0.4901 -1.199
4466000000.0 -0.6098 -1.078
4469000000.0 -1.259 -0.1979
4472000000.0 -0.8675 0.8575
4475000000.0 0.1164 1.213
4478000000.0 1.031 0.6334
4481000000.0 1.108 -0.4272
4484000000.0 0.3205 -1.107
4488000000.0 -0.6556 -0.9604
4491000000.0 -1.159 -0.06404
4494000000.0 -0.785 0.8473
4497000000.0 0.1787 1.133
4500000000.0 0.9999 0.6258
4503000000.0 1.038 -0.4025
4506000000.0 0.321 -1.037
4509000000.0 -0.5994 -0.9184
4512000000.0 -1.143 -0.1094
4516000000.0 -0.7984 0.815
4519000000.0 0.1013 1.114
4522000000.0 0.9656 0.6384
4525000000.0 1.093 -0.3598
4528000000.0 0.3964 -1.078
4531000000.0 -0.5809 -1.009
4534000000.0 -1.161 -0.1913
4538000000.0 -0.8803 0.7728
4541000000.0 0.001864 1.199
4544000000.0 0.9221 0.7438
4547000000.0 1.19 -0.249
4550000000.0 0.5647 -1.075
4553000000.0 -0.4523 -1.154
4556000000.0 -1.19 -0.3806
4559000000.0 -1.034 0.6411
4562000000.0 -0.1603 1.211
4566000000.0 0.8686 0.9451
4569000000.0 1.29 -0.03182
4572000000.0 0.7853 -1.023
4575000000.0 -0.27 -1.279
4578000000.0 -1.149 -0.6189
4581000000.0 -1.232 0.5079
4584000000.0 -0.4037 1.304
4588000000.0 0.7291 1.132
4591000000.0 1.396 0.1669
4594000000.0 1.018 -0.9293
4597000000.0 -0.09936 -1.392
4600000000.0 -1.156 -0.8363
4603000000.0 -1.352 0.387
4606000000.0 -0.55 1.279
4609000000.0 0.6366 1.288
4612000000.0 1.365 0.3184
4616000000.0 1.126 -0.8744
4619000000.0 0.002207 -1.388
4622000000.0 -1.059 -0.9443
4625000000.0 -1.394 0.2398
4628000000.0 -0.6975 1.218
4631000000.0 0.5359 1.287
4634000000.0 1.313 0.4095
4638000000.0 1.143 -0.7859
4641000000.0 0.1312 -1.369
4644000000.0 -0.9813 -0.9536
4647000000.0 -1.35 0.1883
4650000000.0 -0.6907 1.169
4653000000.0 0.4419 1.265
4656000000.0 1.262 0.3951
4659000000.0 1.092 -0.7242
4662000000.0 0.06305 -1.303
4666000000.0 -0.9278 -0.8564
4669000000.0 -1.236 0.2021
4672000000.0 -0.5798 1.087
4675000000.0 0.4429 1.123
4678000000.0 1.13 0.3607
4681000000.0 0.9649 -0.6859
4684000000.0 0.06132 -1.167
4688000000.0 -0.8609 -0.7692
4691000000.0 -1.096 0.1863
4694000000.0 -0.5078 1.0
4697000000.0 0.4348 1.004
4700000000.0 1.072 0.3058
4703000000.0 0.8734 -0.6284
4706000000.0 0.07473 -1.095
4709000000.0 -0.8048 -0.7216
4712000000.0 -1.072 0.1575
4716000000.0 -0.5181 0.9707
4719000000.0 0.4221 0.9791
4722000000.0 1.028 0.2942
4725000000.0 0.8544 -0.6483
4728000000.0 0.03362 -1.034
4731000000.0 -0.8097 -0.7286
4734000000.0 -1.035 0.1711
4738000000.0 -0.5616 0.9382
4741000000.0 0.3612 0.982
4744000000.0 1.014 0.336
4747000000.0 0.9039 -0.548
4750000000.0 0.1655 -1.059
4753000000.0 -0.7126 -0.8137
4756000000.0 -1.092 0.05318
4759000000.0 -0.6801 0.8712
4762000000.0 0.2317 1.094
4766000000.0 1.009 0.4962
4769000000.0 1.093 -0.4337
4772000000.0 0.3374 -1.11
4775000000.0 -0.6581 -0.9956
4778000000.0 -1.173 -0.138
4781000000.0 -0.8649 0.8414
4784000000.0 0.06101 1.213
4788000000.0 0.9765 0.7374
4791000000.0 1.182 -0.2774
4794000000.0 0.5558 -1.097
4797000000.0 -0.4982 -1.147
4800000000.0 -1.205 -0.4005
4803000000.0 -1.071 0.6429
4806000000.0 -0.1691 1.25
4809000000.0 0.8525 0.9754
4812000000.0 1.293 -0.01368
4816000000.0 0.8373 -1.004
4819000000.0 -0.2528 -1.286
4822000000.0 -1.169 -0.6076
4825000000.0 -1.257 0.5511
4828000000.0 -0.4233 1.307
4831000000.0 0.764 1.147
4834000000.0 1.388 0.1485
4838000000.0 0.9859 -0.9661
4841000000.0 -0.1481 -1.395
4844000000.0 -1.209 -0.7747
4847000000.0 -1.328 0.3693
4850000000.0 -0.5409 1.304
4853000000.0 0.6537 1.23
4856000000.0 1.352 0.2706
4859000000.0 1.096 -0.8759
4862000000.0 0.004317 -1.354
4866000000.0 -1.098 -0.8365
4869000000.0 -1.318 0.3146
4872000000.0 -0.5978 1.174
4875000000.0 0.557 1.208
4878000000.0 1.265 0.3507
4881000000.0 1.059 -0.789
4884000000.0 0.07749 -1.256
4888000000.0 -0.9455 -0.8569
4891000000.0 -1.214 0.22
4894000000.0 -0.5662 1.032
4897000000.0 0.4269 1.092
4900000000.0 1.118 0.336
4903000000.0 0.9532 -0.6538
4906000000.0 0.08254 -1.123
4909000000.0 -0.8038 -0.7446
4912000000.0 -1.046 0.1236
4916000000.0 -0.563 0.8708
4919000000.0 0.3331 0.9555
4922000000.0 0.9358 0.3344
4925000000.0 0.8678 -0.4923
4928000000.0 0.1353 -0.9563
4931000000.0 -0.6214 -0.7225
4934000000.0 -0.9716 0.03688
4938000000.0 -0.5699 0.7697
4941000000.0 0.2377 0.9124
4944000000.0 0.8536 0.4469
4947000000.0 0.8749 -0.4378
4950000000.0 0.2507 -0.9356
4953000000.0 -0.5659 -0.7611
4956000000.0 -0.9498 -0.05393
4959000000.0 -0.6386 0.7459
4962000000.0 0.1575 0.9986
4966000000.0 0.8657 0.5239
4969000000.0 0.9395 -0.3458
4972000000.0 0.3138 -0.9421
4975000000.0 -0.5315 -0.8622
4978000000.0 -1.028 -0.1512
4981000000.0 -0.7288 0.7103
4984000000.0 0.09285 1.052
4988000000.0 0.8481 0.6508
4991000000.0 1.047 -0.2629
4994000000.0 0.4623 -1.002
4997000000.0 -0.4721 -1.031
5000000000.0 -1.094 -0.2883
5003000000.0 -0.9604 0.6875
5006000000.0 -0.07625 1.183
5009000000.0 0.8391 0.8293
5012000000.0 1.216 -0.1481
5016000000.0 0.6762 -1.027
5019000000.0 -0.3637 -1.212
5022000000.0 -1.187 -0.4972
5025000000.0 -1.075 0.618
5028000000.0 -0.2269 1.272
5031000000.0 0.8283 1.015
5034000000.0 1.282 0.01313
5038000000.0 0.8618 -1.045
5041000000.0 -0.2585 -1.274
5044000000.0 -1.13 -0.6367
5047000000.0 -1.202 0.4492
5050000000.0 -0.4347 1.228
5053000000.0 0.6625 1.165
5056000000.0 1.309 0.2341
5059000000.0 1.02 -0.8761
5062000000.0 -0.05359 -1.319
5066000000.0 -1.045 -0.8431
5069000000.0 -1.261 0.2749
5072000000.0 -0.6135 1.148
5075000000.0 0.5283 1.208
5078000000.0 1.218 0.4203
5081000000.0 1.084 -0.7165
5084000000.0 0.1563 -1.238
5088000000.0 -0.8746 -0.8919
5091000000.0 -1.197 0.08299
5094000000.0 -0.7228 0.9931
5097000000.0 0.2786 1.127
5100000000.0 1.055 0.5143
5103000000.0 1.045 -0.4848
5106000000.0 0.321 -1.099
5109000000.0 -0.6085 -0.9327
5112000000.0 -1.054 -0.1267
5116000000.0 -0.7979 0.7337
5119000000.0 0.08828 1.075
5122000000.0 0.8592 0.6314
5125000000.0 0.9944 -0.2354
5128000000.0 0.4595 -0.9806
5131000000.0 -0.451 -0.9421
5134000000.0 -1.001 -0.2413
5138000000.0 -0.7802 0.6119
5141000000.0 -0.07102 1.008
5144000000.0 0.7082 0.656
5147000000.0 0.9632 -0.1282
5150000000.0 0.5009 -0.8261
5153000000.0 -0.3017 -0.8836
5156000000.0 -0.852 -0.313
5159000000.0 -0.8028 0.4409
5162000000.0 -0.1938 0.9206
5166000000.0 0.6137 0.7016
5169000000.0 0.9075 -0.0399
5172000000.0 0.5533 -0.7238
5175000000.0 -0.247 -0.8953
5178000000.0 -0.8566 -0.3858
5181000000.0 -0.8239 0.4098
5184000000.0 -0.1798 0.899
5188000000.0 0.5958 0.7141
5191000000.0 0.9437 -0.01303
5194000000.0 0.5956 -0.7482
5197000000.0 -0.2592 -0.934
5200000000.0 -0.8813 -0.4435
5203000000.0 -0.8878 0.4365
5206000000.0 -0.2015 0.9671
5209000000.0 0.5987 0.7481
5212000000.0 0.9717 -0.006158
5216000000.0 0.6217 -0.7615
5219000000.0 -0.2275 -0.9762
5222000000.0 -0.8786 -0.4467
5225000000.0 -0.9268 0.4058
5228000000.0 -0.287 0.9766
5231000000.0 0.6008 0.861
5234000000.0 1.068 0.08096
5238000000.0 0.7284 -0.7491
5241000000.0 -0.1373 -1.027
5244000000.0 -0.9026 -0.5873
5247000000.0 -1.03 0.351
5250000000.0 -0.4033 0.9853
5253000000.0 0.5045 0.9532
5256000000.0 1.093 0.2219
5259000000.0 0.8514 -0.6592
5262000000.0 0.02226 -1.108
5266000000.0 -0.8533 -0.7185
5269000000.0 -1.115 0.17
5272000000.0 -0.5967 0.9373
5275000000.0 0.3681 1.05
5278000000.0 1.012 0.3971
5281000000.0 0.9909 -0.525
5284000000.0 0.2437 -1.111
5288000000.0 -0.6931 -0.9108
5291000000.0 -1.116 -0.06227
5294000000.0 -0.7593 0.8336
5297000000.0 0.1315 1.141
5300000000.0 0.9326 0.6104
5303000000.0 1.101 -0.3131
5306000000.0 0.4766 -1.014
5309000000.0 -0.4803 -1.027
5312000000.0 -1.102 -0.3061
5316000000.0 -0.949 0.6618
5319000000.0 -0.07837 1.174
5322000000.0 0.8155 0.8276
5325000000.0 1.181 -0.09938
5328000000.0 0.6775 -0.9998
5331000000.0 -0.3247 -1.151
5334000000.0 -1.058 -0.4851
5338000000.0 -1.019 0.4916
5341000000.0 -0.2459 1.124
5344000000.0 0.67 0.9031
5347000000.0 1.128 0.05728
5350000000.0 0.7446 -0.8406
5353000000.0 -0.1495 -1.153
5356000000.0 -0.9685 -0.5933
5359000000.0 -1.041 0.3551
5362000000.0 -0.3519 1.025
5366000000.0 0.5718 0.9192
5369000000.0 1.061 0.1305
5372000000.0 0.7717 -0.7748
5375000000.0 -0.08561 -1.064
5378000000.0 -0.8445 -0.5704
5381000000.0 -0.9932 0.3015
5384000000.0 -0.3583 0.9693
5388000000.0 0.5335 0.8333
5391000000.0 0.9812 0.1116
5394000000.0 0.701 -0.7019
5397000000.0 -0.1033 -0.9358
5400000000.0 -0.7865 -0.4896
5403000000.0 -0.8834 0.3146
5406000000.0 -0.3328 0.8677
5409000000.0 0.4793 0.7825
5412000000.0 0.866 0.1225
5416000000.0 0.6403 -0.6324
5419000000.0 -0.1006 -0.8893
5422000000.0 -0.7637 -0.4779
5425000000.0 -0.8148 0.2846
5428000000.0 -0.2905 0.8375
5431000000.0 0.4874 0.7429
5434000000.0 0.8679 0.09729
5438000000.0 0.5872 -0.6661
5441000000.0 -0.1171 -0.8686
5444000000.0 -0.7412 -0.4473
5447000000.0 -0.8455 0.2833
5450000000.0 -0.2837 0.8649
5453000000.0 0.4783 0.7168
5456000000.0 0.9024 0.1136
5459000000.0 0.6398 -0.6411
5462000000.0 -0.0369 -0.8974
5466000000.0 -0.7386 -0.5256
5469000000.0 -0.8751 0.2395
5472000000.0 -0.3721 0.8237
5475000000.0 0.4317 0.8761
5478000000.0 0.9429 0.2633
5481000000.0 0.7795 -0.5872
5484000000.0 0.1108 -0.9586
5488000000.0 -0.719 -0.6689
5491000000.0 -0.9565 0.1157
5494000000.0 -0.5276 0.8016
5497000000.0 0.2907 0.9656
5500000000.0 0.9431 0.4128
5503000000.0 0.9177 -0.4352
5506000000.0 0.2735 -0.9973
5509000000.0 -0.6348 -0.8624
5512000000.0 -1.048 -0.08479
5516000000.0 -0.7245 0.7634
5519000000.0 0.0938 1.064
5522000000.0 0.8806 0.6007
5525000000.0 1.009 -0.2649
5528000000.0 0.4251 -0.9514
5531000000.0 -0.4758 -0.9505
5534000000.0 -1.029 -0.287
5538000000.0 -0.9067 0.5713
5541000000.0 -0.06603 1.074
5544000000.0 0.7721 0.7487
5547000000.0 1.089 -0.08921
5550000000.0 0.6348 -0.8828
5553000000.0 -0.277 -1.057
5556000000.0 -0.9572 -0.4593
5559000000.0 -0.939 0.47
5562000000.0 -0.2199 1.011
5566000000.0 0.6077 0.8293
5569000000.0 1.046 0.05555
5572000000.0 0.6987 -0.7817
5575000000.0 -0.1283 -1.028
5578000000.0 -0.8736 -0.5456
5581000000.0 -0.9678 0.3221
5584000000.0 -0.3704 0.9112
5588000000.0 0.4603 0.8564
5591000000.0 0.9507 0.1789
5594000000.0 0.7411 -0.6077
5597000000.0 -0.02206 -0.9828
5600000000.0 -0.7379 -0.5791
5603000000.0 -0.9073 0.1803
5606000000.0 -0.3817 0.8401
5609000000.0 0.3595 0.8004
5612000000.0 0.8629 0.2538
5616000000.0 0.7143 -0.5333
5619000000.0 0.04679 -0.8564
5622000000.0 -0.6269 -0.5797
5625000000.0 -0.8559 0.1213
5628000000.0 -0.4536 0.7556
5631000000.0 0.3224 0.7862
5634000000.0 0.8184 0.25
5638000000.0 0.7548 -0.4458
5641000000.0 0.08364 -0.8386
5644000000.0 -0.6079 -0.593
5647000000.0 -0.856 0.08758
5650000000.0 -0.4509 0.7274
5653000000.0 0.2774 0.8131
5656000000.0 0.8117 0.268
5659000000.0 0.7156 -0.4746
5662000000.0 0.1144 -0.8615
5666000000.0 -0.6142 -0.6253
5669000000.0 -0.8797 0.09748
5672000000.0 -0.4686 0.7874
5675000000.0 0.3079 0.8637
5678000000.0 0.8702 0.3219
5681000000.0 0.8038 -0.5071
5684000000.0 0.1155 -0.9415
5688000000.0 -0.6764 -0.6763
5691000000.0 -0.9531 0.07889
5694000000.0 -0.5432 0.814
5697000000.0 0.2914 0.9414
5700000000.0 0.9116 0.3733
5703000000.0 0.8675 -0.487
5706000000.0 0.1616 -0.997
5709000000.0 -0.6647 -0.7637
5712000000.0 -1.022 0.06342
5716000000.0 -0.657 0.8071
5719000000.0 0.2191 1.042
5722000000.0 0.9542 0.4666
5725000000.0 0.9713 -0.4122
5728000000.0 0.2918 -1.031
5731000000.0 -0.5952 -0.898
5734000000.0 -1.069 -0.1214
5738000000.0 -0.7875 0.7962
5741000000.0 0.07122 1.088
5744000000.0 0.8852 0.6565
5747000000.0 1.103 -0.2996
5750000000.0 0.468 -1.012
5753000000.0 -0.4934 -0.992
5756000000.0 -1.094 -0.2614
5759000000.0 -0.9103 0.6499
5762000000.0 -0.05289 1.09
5766000000.0 0.7927 0.7636
5769000000.0 1.11 -0.1307
5772000000.0 0.6328 -0.9672
5775000000.0 -0.3173 -1.064
5778000000.0 -1.023 -0.4403
5781000000.0 -0.9736 0.4668
5784000000.0 -0.2419 1.062
5788000000.0 0.634 0.8623
5791000000.0 1.109 0.05101
5794000000.0 0.759 -0.7782
5797000000.0 -0.133 -1.087
5800000000.0 -0.9156 -0.5957
5803000000.0 -1.044 0.3618
5806000000.0 -0.402 1.013
5809000000.0 0.5336 0.9036
5812000000.0 1.013 0.2121
5816000000.0 0.8053 -0.6951
5819000000.0 0.01121 -1.048
5822000000.0 -0.8305 -0.6571
5825000000.0 -1.016 0.2163
5828000000.0 -0.4358 0.9035
5831000000.0 0.3994 0.9514
5834000000.0 0.9341 0.2921
5838000000.0 0.8192 -0.581
5841000000.0 0.07361 -0.9724
5844000000.0 -0.7134 -0.6782
5847000000.0 -0.9444 0.1094
5850000000.0 -0.4616 0.7974
5853000000.0 0.3319 0.855
5856000000.0 0.9203 0.3091
5859000000.0 0.826 -0.502
5862000000.0 0.1202 -0.9552
5866000000.0 -0.6337 -0.6883
5869000000.0 -0.8954 0.0807
5872000000.0 -0.4775 0.753
5875000000.0 0.294 0.8517
5878000000.0 0.8643 0.3336
5881000000.0 0.7327 -0.4667
5884000000.0 0.1341 -0.8487
5888000000.0 -0.6204 -0.6383
5891000000.0 -0.8867 0.07362
5894000000.0 -0.4987 0.6971
5897000000.0 0.2543 0.8075
5900000000.0 0.7963 0.3674
5903000000.0 0.7535 -0.4102
5906000000.0 0.1696 -0.8653
5909000000.0 -0.5498 -0.6664
5912000000.0 -0.8586 0.002681
5916000000.0 -0.5576 0.6735
5919000000.0 0.1833 0.8517
5922000000.0 0.7955 0.4124
5925000000.0 0.8017 -0.3558
5928000000.0 0.2632 -0.8348
5931000000.0 -0.4788 -0.7425
5934000000.0 -0.8793 -0.07139
5938000000.0 -0.6583 0.6475
5941000000.0 0.08167 0.8927
5944000000.0 0.7109 0.5043
5947000000.0 0.8754 -0.2367
5950000000.0 0.3912 -0.8364
5953000000.0 -0.4084 -0.8356
5956000000.0 -0.9102 -0.2313
5959000000.0 -0.7544 0.5412
5962000000.0 -0.0454 0.9388
5966000000.0 0.6901 0.6157
5969000000.0 0.9207 -0.1034
5972000000.0 0.5654 -0.8108
5975000000.0 -0.2929 -0.9283
5978000000.0 -0.9167 -0.4162
5981000000.0 -0.8975 0.4136
5984000000.0 -0.2099 0.9532
5988000000.0 0.5782 0.8236
5991000000.0 1.019 0.05836
5994000000.0 0.686 -0.7443
5997000000.0 -0.1092 -0.9704
6000000000.0 -0.8756 -0.5461
6003000000.0 -0.9483 0.3064
6006000000.0 -0.3695 0.9592
6009000000.0 0.4673 0.8846
6012000000.0 0.9863 0.1735
6016000000.0 0.7813 -0.6396
6019000000.0 -0.02753 -0.9959
6022000000.0 -0.8073 -0.6264
6025000000.0 -0.9745 0.197
6028000000.0 -0.44 0.8773
6031000000.0 0.3771 0.9201
6034000000.0 0.9697 0.2892
6038000000.0 0.8293 -0.5475
6041000000.0 0.0894 -0.9671
6044000000.0 -0.7177 -0.6707
6047000000.0 -0.971 0.1188
6050000000.0 -0.5339 0.8328
6053000000.0 0.3058 0.9139
6056000000.0 0.8805 0.3193
6059000000.0 0.804 -0.4785
6062000000.0 0.1281 -0.9455
6066000000.0 -0.6514 -0.6761
6069000000.0 -0.9287 0.07934
6072000000.0 -0.5311 0.7428
6075000000.0 0.239 0.8762
6078000000.0 0.8258 0.3523
6081000000.0 0.7939 -0.4175
6084000000.0 0.1796 -0.8705
6088000000.0 -0.5837 -0.6832
6091000000.0 -0.8785 0.0306
6094000000.0 -0.5332 0.697
6097000000.0 0.2218 0.84
6100000000.0 0.7772 0.39
6103000000.0 0.8008 -0.3489
6106000000.0 0.2258 -0.8471
6109000000.0 -0.5201 -0.6628
6112000000.0 -0.8747 -0.007424
6116000000.0 -0.5794 0.674
6119000000.0 0.1323 0.8636
6122000000.0 0.7424 0.4255
6125000000.0 0.8101 -0.3533
6128000000.0 0.2556 -0.8414
6131000000.0 -0.4921 -0.7276
6134000000.0 -0.9077 -0.06892
6138000000.0 -0.5896 0.6288
6141000000.0 0.1222 0.8639
6144000000.0 0.7493 0.4509
6147000000.0 0.8801 -0.2796
6150000000.0 0.336 -0.8742
6153000000.0 -0.4981 -0.7886
6156000000.0 -0.9121 -0.1183
6159000000.0 -0.6875 0.6228
6162000000.0 0.03491 0.9176
6166000000.0 0.7246 0.5333
6169000000.0 0.9202 -0.2291
6172000000.0 0.3648 -0.8539
6175000000.0 -0.4205 -0.8516
6178000000.0 -0.9075 -0.2261
6181000000.0 -0.7873 0.604
6184000000.0 -0.04813 0.9821
6188000000.0 0.7298 0.6631
6191000000.0 0.9192 -0.1843
6194000000.0 0.4881 -0.831
6197000000.0 -0.3215 -0.8682
6200000000.0 -0.9092 -0.3294
6203000000.0 -0.7767 0.5388
6206000000.0 -0.1349 0.9563
6209000000.0 0.6543 0.6769
6212000000.0 0.9625 -0.0486
6216000000.0 0.5471 -0.7743
6219000000.0 -0.245 -0.9116
6222000000.0 -0.8445 -0.3553
6225000000.0 -0.8533 0.3915
6228000000.0 -0.2203 0.8811
6231000000.0 0.5114 0.7401
6234000000.0 0.8811 0.06196
6238000000.0 0.6212 -0.6472
6241000000.0 -0.1205 -0.8964
6244000000.0 -0.7469 -0.5042
6247000000.0 -0.8496 0.2575
6250000000.0 -0.3221 0.814
6253000000.0 0.379 0.7751
6256000000.0 0.8116 0.1876
6259000000.0 0.6672 -0.4714
6262000000.0 0.009255 -0.8177
6266000000.0 -0.6133 -0.5498
