! Created with skrf 1.8.0 (http://scikit-rf.org).
# Hz S RI R 50.0 
!freq ReS11 ImS11
4000000000.0 -0.164 -1.559
4003000000.0 -1.287 -0.8052
4006000000.0 -1.401 0.4754
4009000000.0 -0.5553 1.409
4012000000.0 0.7631 1.35
4016000000.0 1.479 0.1944
4019000000.0 1.192 -1.076
4022000000.0 -0.136 -1.521
4025000000.0 -1.283 -0.8951
4028000000.0 -1.53 0.4522
4031000000.0 -0.5863 1.464
4034000000.0 0.7927 1.404
4038000000.0 1.627 0.2136
4041000000.0 1.2 -1.077
4044000000.0 -0.1173 -1.635
4047000000.0 -1.279 -0.9455
4050000000.0 -1.583 0.4275
4053000000.0 -0.6503 1.519
4056000000.0 0.741 1.4
4059000000.0 1.597 0.3478
4062000000.0 1.267 -1.026
4066000000.0 0.0181 -1.647
4069000000.0 -1.235 -1.056
4072000000.0 -1.605 0.2592
4075000000.0 -0.7845 1.395
4078000000.0 0.5601 1.527
4081000000.0 1.534 0.5543
4084000000.0 1.436 -0.8559
4088000000.0 0.2564 -1.632
4091000000.0 -1.118 -1.286
4094000000.0 -1.652 0.07315
4097000000.0 -0.9884 1.312
4100000000.0 0.3631 1.602
4103000000.0 1.472 0.7025
4106000000.0 1.427 -0.6311
4109000000.0 0.4464 -1.492
4112000000.0 -0.8243 -1.295
4116000000.0 -1.516 -0.1899
4119000000.0 -1.116 0.9821
4122000000.0 -0.00205 1.477
4125000000.0 1.133 0.9495
4128000000.0 1.458 -0.2269
4131000000.0 0.7931 -1.228
4134000000.0 -0.4476 -1.451
4138000000.0 -1.366 -0.6227
4141000000.0 -1.385 0.66
4144000000.0 -0.4079 1.433
4147000000.0 0.8858 1.242
4150000000.0 1.489 0.1679
4153000000.0 1.087 -1.05
4156000000.0 -0.1244 -1.535
4159000000.0 -1.226 -0.8735
4162000000.0 -1.437 0.3661
4166000000.0 -0.6596 1.367
4169000000.0 0.6109 1.359
4172000000.0 1.467 0.4133
4175000000.0 1.268 -0.8471
4178000000.0 0.174 -1.503
4181000000.0 -1.028 -1.085
4184000000.0 -1.502 0.08344
4188000000.0 -0.8981 1.211
4191000000.0 0.3294 1.48
4194000000.0 1.381 0.6781
4197000000.0 1.404 -0.6274
4200000000.0 0.3864 -1.527
4203000000.0 -0.9546 -1.281
4206000000.0 -1.638 -0.04697
4209000000.0 -1.082 1.229
4212000000.0 0.3544 1.645
4216000000.0 1.507 0.7497
4219000000.0 1.529 -0.7398
4222000000.0 0.3605 -1.626
4225000000.0 -1.125 -1.275
4228000000.0 -1.691 0.07865
4231000000.0 -0.9429 1.404
4234000000.0 0.5144 1.569
4238000000.0 1.555 0.5042
4241000000.0 1.379 -0.8988
4244000000.0 0.1102 -1.608
4247000000.0 -1.187 -1.051
4250000000.0 -1.593 0.3355
4253000000.0 -0.6788 1.408
4256000000.0 0.6445 1.425
4259000000.0 1.5 0.3285
4262000000.0 1.162 -0.9949
4266000000.0 -0.0615 -1.527
4269000000.0 -1.218 -0.871
4272000000.0 -1.493 0.4357
4275000000.0 -0.5543 1.367
4278000000.0 0.7481 1.272
4281000000.0 1.475 0.2204
4284000000.0 0.981 -0.9656
4288000000.0 -0.1433 -1.379
4291000000.0 -1.167 -0.7627
4294000000.0 -1.282 0.4235
4297000000.0 -0.5136 1.263
4300000000.0 0.6629 1.148
4303000000.0 1.269 0.2618
4306000000.0 1.018 -0.8475
4309000000.0 0.00539 -1.292
4312000000.0 -0.9379 -0.8259
4316000000.0 -1.278 0.2173
4319000000.0 -0.6753 1.074
4322000000.0 0.4161 1.215
4325000000.0 1.208 0.5098
4328000000.0 1.178 -0.5944
4331000000.0 0.3093 -1.314
4334000000.0 -0.8501 -1.055
4338000000.0 -1.41 -0.03862
4341000000.0 -0.9087 1.01
4344000000.0 0.1827 1.391
4347000000.0 1.207 0.7374
4350000000.0 1.33 -0.4401
4353000000.0 0.4916 -1.371
4356000000.0 -0.7257 -1.281
4359000000.0 -1.415 -0.2713
4362000000.0 -1.141 0.9292
4366000000.0 0.01024 1.479
4369000000.0 1.158 0.9159
4372000000.0 1.46 -0.2756
4375000000.0 0.7413 -1.299
4378000000.0 -0.524 -1.435
4381000000.0 -1.418 -0.4926
4384000000.0 -1.289 0.8042
4388000000.0 -0.1722 1.478
4391000000.0 1.057 1.123
4394000000.0 1.575 -0.1187
4397000000.0 0.9065 -1.317
4400000000.0 -0.4889 -1.53
4403000000.0 -1.52 -0.5653
4406000000.0 -1.376 0.8067
4409000000.0 -0.2127 1.561
4412000000.0 1.098 1.133
4416000000.0 1.533 -0.1611
4419000000.0 0.7863 -1.291
4422000000.0 -0.519 -1.405
4425000000.0 -1.416 -0.4488
4428000000.0 -1.228 0.8112
4431000000.0 -0.1117 1.47
4434000000.0 1.081 0.9822
4438000000.0 1.399 -0.2305
4441000000.0 0.6587 -1.235
4444000000.0 -0.5743 -1.271
4447000000.0 -1.321 -0.3202
4450000000.0 -1.063 0.8461
4453000000.0 0.006597 1.339
4456000000.0 0.9992 0.7951
4459000000.0 1.233 -0.3129
4462000000.0 0.4819 -1.182
4466000000.0 -0.6512 -1.106
4469000000.0 -1.209 -0.1931
4472000000.0 -0.8821 0.8672
4475000000.0 0.1584 1.204
4478000000.0 1.011 0.6083
4481000000.0 1.101 -0.4143
4484000000.0 0.3494 -1.115
4488000000.0 -0.6517 -0.9654
4491000000.0 -1.123 -0.07562
4494000000.0 -0.7643 0.8279
4497000000.0 0.1851 1.129
4500000000.0 0.993 0.5743
4503000000.0 1.024 -0.3873
4506000000.0 0.3559 -1.058
4509000000.0 -0.5934 -0.9459
4512000000.0 -1.104 -0.1172
4516000000.0 -0.7865 0.8105
4519000000.0 0.1175 1.13
4522000000.0 0.9618 0.6053
4525000000.0 1.099 -0.3339
4528000000.0 0.4304 -1.073
4531000000.0 -0.5568 -1.014
4534000000.0 -1.121 -0.173
4538000000.0 -0.8935 0.7302
4541000000.0 -0.003901 1.167
4544000000.0 0.9152 0.7236
4547000000.0 1.161 -0.2503
4550000000.0 0.5766 -1.05
4553000000.0 -0.4591 -1.143
4556000000.0 -1.145 -0.417
4559000000.0 -1.028 0.6484
4562000000.0 -0.176 1.203
4566000000.0 0.8282 0.926
4569000000.0 1.261 -0.04688
4572000000.0 0.8127 -0.9762
4575000000.0 -0.2749 -1.249
4578000000.0 -1.147 -0.6083
4581000000.0 -1.203 0.4818
4584000000.0 -0.4127 1.279
4588000000.0 0.7162 1.118
4591000000.0 1.351 0.1865
4594000000.0 0.9738 -0.9294
4597000000.0 -0.1067 -1.372
4600000000.0 -1.106 -0.804
4603000000.0 -1.329 0.3467
4606000000.0 -0.561 1.3
4609000000.0 0.6313 1.285
4612000000.0 1.371 0.3138
4616000000.0 1.104 -0.8348
4619000000.0 0.0178 -1.412
4622000000.0 -1.056 -0.8744
4625000000.0 -1.378 0.228
4628000000.0 -0.6724 1.238
4631000000.0 0.5184 1.291
4634000000.0 1.294 0.3984
4638000000.0 1.142 -0.7508
4641000000.0 0.1312 -1.351
4644000000.0 -0.9764 -0.8918
4647000000.0 -1.327 0.1654
4650000000.0 -0.664 1.133
4653000000.0 0.4736 1.217
4656000000.0 1.253 0.3915
4659000000.0 1.07 -0.7221
4662000000.0 0.08272 -1.255
4666000000.0 -0.8933 -0.8183
4669000000.0 -1.198 0.2334
4672000000.0 -0.6203 1.053
4675000000.0 0.4557 1.101
4678000000.0 1.101 0.3205
4681000000.0 0.9765 -0.6575
4684000000.0 0.07668 -1.161
4688000000.0 -0.8536 -0.7515
4691000000.0 -1.125 0.1807
4694000000.0 -0.5624 0.9472
4697000000.0 0.3986 0.9975
4700000000.0 1.066 0.3172
4703000000.0 0.8885 -0.6432
4706000000.0 0.04594 -1.079
4709000000.0 -0.8073 -0.7211
4712000000.0 -1.083 0.1872
4716000000.0 -0.5398 0.9592
4719000000.0 0.4608 0.9662
4722000000.0 0.9914 0.2454
4725000000.0 0.8565 -0.6271
4728000000.0 0.05532 -1.058
4731000000.0 -0.7835 -0.6837
4734000000.0 -1.03 0.1823
4738000000.0 -0.5264 0.9172
4741000000.0 0.3716 0.9543
4744000000.0 0.9826 0.3536
4747000000.0 0.8916 -0.5414
4750000000.0 0.1739 -1.051
4753000000.0 -0.6975 -0.7935
4756000000.0 -1.07 0.008511
4759000000.0 -0.6698 0.863
4762000000.0 0.2649 1.066
4766000000.0 1.014 0.535
4769000000.0 1.029 -0.4301
4772000000.0 0.3619 -1.102
4775000000.0 -0.6405 -0.9909
4778000000.0 -1.149 -0.1376
4781000000.0 -0.8446 0.7944
4784000000.0 0.05982 1.204
4788000000.0 0.9513 0.7133
4791000000.0 1.212 -0.2521
4794000000.0 0.5665 -1.107
4797000000.0 -0.4648 -1.15
4800000000.0 -1.185 -0.3847
4803000000.0 -1.052 0.6342
4806000000.0 -0.1996 1.243
4809000000.0 0.8221 0.9661
4812000000.0 1.298 -0.02863
4816000000.0 0.8085 -1.001
4819000000.0 -0.2612 -1.289
4822000000.0 -1.211 -0.6486
4825000000.0 -1.246 0.5169
4828000000.0 -0.3998 1.319
4831000000.0 0.7736 1.138
4834000000.0 1.389 0.1153
4838000000.0 1.003 -0.9912
4841000000.0 -0.1332 -1.383
4844000000.0 -1.146 -0.7764
4847000000.0 -1.339 0.3999
4850000000.0 -0.5596 1.306
4853000000.0 0.6448 1.234
4856000000.0 1.344 0.2542
4859000000.0 1.064 -0.8491
4862000000.0 -0.03589 -1.351
4866000000.0 -1.041 -0.8326
4869000000.0 -1.291 0.2759
4872000000.0 -0.604 1.194
4875000000.0 0.5086 1.226
4878000000.0 1.264 0.3104
4881000000.0 1.014 -0.7389
4884000000.0 0.05255 -1.284
4888000000.0 -0.9441 -0.8333
4891000000.0 -1.208 0.2096
4894000000.0 -0.594 1.051
4897000000.0 0.4472 1.081
4900000000.0 1.101 0.2998
4903000000.0 0.9423 -0.6551
4906000000.0 0.098 -1.112
4909000000.0 -0.7823 -0.748
4912000000.0 -1.04 0.1226
4916000000.0 -0.5451 0.8925
4919000000.0 0.3078 0.9285
4922000000.0 0.9136 0.3261
4925000000.0 0.8478 -0.4783
4928000000.0 0.1462 -0.9618
4931000000.0 -0.655 -0.7319
4934000000.0 -0.9425 0.05062
4938000000.0 -0.5799 0.721
4941000000.0 0.2296 0.9283
4944000000.0 0.8469 0.4403
4947000000.0 0.8689 -0.4087
4950000000.0 0.248 -0.9206
4953000000.0 -0.5691 -0.777
4956000000.0 -0.9608 -0.03102
4959000000.0 -0.6259 0.7075
4962000000.0 0.1658 0.957
4966000000.0 0.8402 0.5081
4969000000.0 0.9417 -0.346
4972000000.0 0.3059 -0.9515
4975000000.0 -0.5414 -0.8515
4978000000.0 -1.018 -0.1396
4981000000.0 -0.7517 0.7141
4984000000.0 0.05751 1.026
4988000000.0 0.854 0.6278
4991000000.0 1.046 -0.2493
4994000000.0 0.4806 -0.9729
4997000000.0 -0.4429 -1.001
5000000000.0 -1.106 -0.3058
5003000000.0 -0.8998 0.642
5006000000.0 -0.1075 1.142
5009000000.0 0.8639 0.8076
5012000000.0 1.201 -0.1376
5016000000.0 0.6577 -1.007
5019000000.0 -0.3796 -1.189
5022000000.0 -1.153 -0.4608
5025000000.0 -1.09 0.5788
5028000000.0 -0.2397 1.247
5031000000.0 0.8142 0.9721
5034000000.0 1.282 -0.009136
5038000000.0 0.8343 -0.999
5041000000.0 -0.2243 -1.258
5044000000.0 -1.131 -0.6119
5047000000.0 -1.204 0.4683
5050000000.0 -0.4283 1.2
5053000000.0 0.6553 1.11
5056000000.0 1.302 0.228
5059000000.0 0.9684 -0.8493
5062000000.0 -0.02115 -1.299
5066000000.0 -0.9898 -0.832
5069000000.0 -1.283 0.2763
5072000000.0 -0.6209 1.158
5075000000.0 0.451 1.191
5078000000.0 1.216 0.3721
5081000000.0 1.036 -0.7028
5084000000.0 0.1555 -1.21
5088000000.0 -0.8307 -0.8798
5091000000.0 -1.234 0.0801
5094000000.0 -0.7105 1.018
5097000000.0 0.2575 1.154
5100000000.0 1.016 0.5146
5103000000.0 1.034 -0.4497
5106000000.0 0.3318 -1.065
5109000000.0 -0.6317 -0.9517
5112000000.0 -1.083 -0.1089
5116000000.0 -0.7667 0.7575
5119000000.0 0.05493 1.091
5122000000.0 0.8277 0.623
5125000000.0 0.9866 -0.2467
5128000000.0 0.4509 -0.9536
5131000000.0 -0.4291 -0.9049
5134000000.0 -0.9356 -0.3005
5138000000.0 -0.838 0.6146
5141000000.0 -0.07182 0.9699
5144000000.0 0.7066 0.6689
5147000000.0 0.9354 -0.1151
5150000000.0 0.5054 -0.7698
5153000000.0 -0.3109 -0.8985
5156000000.0 -0.8544 -0.338
5159000000.0 -0.7832 0.4834
5162000000.0 -0.1439 0.8984
5166000000.0 0.5983 0.6864
5169000000.0 0.8913 -0.03689
5172000000.0 0.57 -0.7319
5175000000.0 -0.2366 -0.8596
5178000000.0 -0.8224 -0.3878
5181000000.0 -0.826 0.4523
5184000000.0 -0.2025 0.8899
5188000000.0 0.5764 0.6871
5191000000.0 0.9399 -0.01364
5194000000.0 0.5725 -0.7415
5197000000.0 -0.2329 -0.9056
5200000000.0 -0.8715 -0.3694
5203000000.0 -0.8619 0.4319
5206000000.0 -0.1918 0.9216
5209000000.0 0.6192 0.7771
5212000000.0 0.9473 0.004227
5216000000.0 0.6079 -0.7365
5219000000.0 -0.189 -0.9474
5222000000.0 -0.883 -0.464
5225000000.0 -0.9142 0.3834
5228000000.0 -0.281 0.9414
5231000000.0 0.5877 0.822
5234000000.0 1.038 0.1086
5238000000.0 0.7068 -0.7385
5241000000.0 -0.1348 -1.047
5244000000.0 -0.8734 -0.5506
5247000000.0 -1.031 0.3311
5250000000.0 -0.3725 0.9996
5253000000.0 0.5093 0.9438
5256000000.0 1.07 0.2019
5259000000.0 0.845 -0.6987
5262000000.0 0.01372 -1.066
5266000000.0 -0.8323 -0.7119
5269000000.0 -1.092 0.1605
5272000000.0 -0.5874 0.9273
5275000000.0 0.3524 1.029
5278000000.0 1.02 0.3729
5281000000.0 0.9738 -0.5189
5284000000.0 0.2433 -1.076
5288000000.0 -0.6658 -0.8665
5291000000.0 -1.088 -0.05766
5294000000.0 -0.7652 0.7816
5297000000.0 0.1044 1.107
5300000000.0 0.9396 0.6462
5303000000.0 1.083 -0.2878
5306000000.0 0.4789 -1.012
5309000000.0 -0.501 -1.035
5312000000.0 -1.121 -0.2995
5316000000.0 -0.9423 0.6458
5319000000.0 -0.1135 1.146
5322000000.0 0.8148 0.7952
5325000000.0 1.151 -0.1124
5328000000.0 0.6488 -0.9307
5331000000.0 -0.2759 -1.109
5334000000.0 -1.027 -0.4708
5338000000.0 -1.03 0.48
5341000000.0 -0.2471 1.097
5344000000.0 0.6752 0.9177
5347000000.0 1.067 0.05561
5350000000.0 0.7542 -0.8283
5353000000.0 -0.1514 -1.131
5356000000.0 -0.9869 -0.5703
5359000000.0 -1.056 0.3946
5362000000.0 -0.3674 1.002
5366000000.0 0.5548 0.8893
5369000000.0 1.05 0.1424
5372000000.0 0.7545 -0.7269
5375000000.0 -0.08251 -1.041
5378000000.0 -0.8551 -0.5605
5381000000.0 -0.9808 0.3133
5384000000.0 -0.3422 0.9643
5388000000.0 0.5266 0.8418
5391000000.0 0.9482 0.1095
5394000000.0 0.6823 -0.6808
5397000000.0 -0.1145 -0.912
5400000000.0 -0.7547 -0.4872
5403000000.0 -0.8395 0.3162
5406000000.0 -0.2684 0.8336
5409000000.0 0.4892 0.7528
5412000000.0 0.8681 0.08001
5416000000.0 0.6472 -0.6486
5419000000.0 -0.1049 -0.8837
5422000000.0 -0.7485 -0.4585
5425000000.0 -0.8062 0.3012
5428000000.0 -0.2758 0.8243
5431000000.0 0.4838 0.7112
5434000000.0 0.8584 0.09706
5438000000.0 0.6014 -0.6203
5441000000.0 -0.09856 -0.8427
5444000000.0 -0.7616 -0.4441
5447000000.0 -0.8316 0.2995
5450000000.0 -0.3045 0.859
5453000000.0 0.4952 0.7665
5456000000.0 0.8712 0.09564
5459000000.0 0.653 -0.5987
5462000000.0 -0.06572 -0.9088
5466000000.0 -0.7367 -0.5175
5469000000.0 -0.882 0.2375
5472000000.0 -0.3931 0.8207
5475000000.0 0.3828 0.8481
5478000000.0 0.8988 0.2228
5481000000.0 0.7608 -0.5413
5484000000.0 0.06146 -0.9307
5488000000.0 -0.6787 -0.6732
5491000000.0 -0.9655 0.1027
5494000000.0 -0.5604 0.8268
5497000000.0 0.2656 0.9655
5500000000.0 0.8904 0.4145
5503000000.0 0.9357 -0.4351
5506000000.0 0.2497 -1.004
5509000000.0 -0.6037 -0.8233
5512000000.0 -1.004 -0.06733
5516000000.0 -0.7377 0.775
5519000000.0 0.09725 1.004
5522000000.0 0.8652 0.6012
5525000000.0 1.031 -0.2726
5528000000.0 0.4659 -0.953
5531000000.0 -0.4503 -0.94
5534000000.0 -1.031 -0.2622
5538000000.0 -0.86 0.6202
5541000000.0 -0.1187 1.051
5544000000.0 0.7409 0.7667
5547000000.0 1.048 -0.1268
5550000000.0 0.6317 -0.8544
5553000000.0 -0.3085 -1.032
5556000000.0 -0.9627 -0.4575
5559000000.0 -0.9376 0.4441
5562000000.0 -0.2685 1.013
5566000000.0 0.6143 0.8544
5569000000.0 1.017 0.05575
5572000000.0 0.7043 -0.7577
5575000000.0 -0.1261 -1.007
5578000000.0 -0.8316 -0.5442
5581000000.0 -0.9516 0.3073
5584000000.0 -0.3692 0.9075
5588000000.0 0.4837 0.8419
5591000000.0 0.9495 0.1619
5594000000.0 0.7674 -0.6145
5597000000.0 -0.03206 -0.9472
5600000000.0 -0.7248 -0.5876
5603000000.0 -0.8902 0.2167
5606000000.0 -0.4312 0.8062
5609000000.0 0.3397 0.8536
5612000000.0 0.8749 0.2293
5616000000.0 0.701 -0.5205
5619000000.0 0.07497 -0.861
5622000000.0 -0.6141 -0.5907
5625000000.0 -0.8307 0.1241
5628000000.0 -0.4321 0.7398
5631000000.0 0.3045 0.7942
5634000000.0 0.7919 0.2703
5638000000.0 0.7228 -0.4422
5641000000.0 0.08791 -0.8418
5644000000.0 -0.5751 -0.5858
5647000000.0 -0.831 0.09314
5650000000.0 -0.4228 0.7215
5653000000.0 0.2922 0.8037
5656000000.0 0.7842 0.2494
5659000000.0 0.744 -0.4615
5662000000.0 0.07838 -0.8783
5666000000.0 -0.6196 -0.6117
5669000000.0 -0.8804 0.0878
5672000000.0 -0.4846 0.7494
5675000000.0 0.2816 0.85
5678000000.0 0.858 0.3152
5681000000.0 0.7787 -0.504
5684000000.0 0.08739 -0.9436
5688000000.0 -0.6469 -0.6659
5691000000.0 -0.9678 0.09878
5694000000.0 -0.5363 0.8157
5697000000.0 0.307 0.9509
5700000000.0 0.918 0.3581
5703000000.0 0.8834 -0.4628
5706000000.0 0.161 -0.9842
5709000000.0 -0.6695 -0.7536
5712000000.0 -1.042 0.02961
5716000000.0 -0.6398 0.8109
5719000000.0 0.2237 1.034
5722000000.0 0.9374 0.468
5725000000.0 0.9451 -0.4097
5728000000.0 0.3075 -1.01
5731000000.0 -0.6334 -0.908
5734000000.0 -1.074 -0.1058
5738000000.0 -0.8289 0.7593
5741000000.0 0.1066 1.065
5744000000.0 0.9132 0.66
5747000000.0 1.061 -0.2624
5750000000.0 0.4521 -1.023
5753000000.0 -0.4785 -1.016
5756000000.0 -1.086 -0.2609
5759000000.0 -0.8752 0.6289
5762000000.0 -0.08839 1.109
5766000000.0 0.8035 0.7354
5769000000.0 1.107 -0.1248
5772000000.0 0.5937 -0.9123
5775000000.0 -0.3023 -1.068
5778000000.0 -1.008 -0.4313
5781000000.0 -0.9795 0.495
5784000000.0 -0.2328 1.069
5788000000.0 0.6318 0.8974
5791000000.0 1.1 0.09404
5794000000.0 0.7506 -0.7942
5797000000.0 -0.1201 -1.075
5800000000.0 -0.9108 -0.5699
5803000000.0 -1.034 0.3422
5806000000.0 -0.4073 0.9656
5809000000.0 0.5076 0.9291
5812000000.0 1.042 0.1801
5816000000.0 0.7848 -0.6592
5819000000.0 -0.03762 -1.045
5822000000.0 -0.8108 -0.6432
5825000000.0 -1.012 0.1921
5828000000.0 -0.4924 0.9216
5831000000.0 0.4149 0.9298
5834000000.0 0.9355 0.2542
5838000000.0 0.7948 -0.536
5841000000.0 0.06765 -0.9528
5844000000.0 -0.6933 -0.6614
5847000000.0 -0.9508 0.1503
5850000000.0 -0.4934 0.8128
5853000000.0 0.3045 0.8793
5856000000.0 0.8917 0.3222
5859000000.0 0.7887 -0.543
5862000000.0 0.1091 -0.8982
5866000000.0 -0.6448 -0.6354
5869000000.0 -0.8877 0.0687
5872000000.0 -0.4841 0.7584
5875000000.0 0.2853 0.865
5878000000.0 0.8335 0.303
5881000000.0 0.7552 -0.4286
5884000000.0 0.1374 -0.8371
5888000000.0 -0.5832 -0.6292
5891000000.0 -0.8563 0.05365
5894000000.0 -0.4971 0.6953
5897000000.0 0.2268 0.84
5900000000.0 0.7969 0.3416
5903000000.0 0.7705 -0.4237
5906000000.0 0.1761 -0.8702
5909000000.0 -0.5478 -0.6631
5912000000.0 -0.8868 0.01995
5916000000.0 -0.5402 0.6662
5919000000.0 0.1759 0.8352
5922000000.0 0.7321 0.3987
5925000000.0 0.7844 -0.3386
5928000000.0 0.2256 -0.8377
5931000000.0 -0.4665 -0.6957
5934000000.0 -0.8776 -0.09066
5938000000.0 -0.6381 0.605
5941000000.0 0.06878 0.9275
5944000000.0 0.7109 0.5178
5947000000.0 0.8692 -0.2462
5950000000.0 0.3978 -0.7867
5953000000.0 -0.4082 -0.8412
5956000000.0 -0.8752 -0.2487
5959000000.0 -0.7688 0.547
5962000000.0 -0.05686 0.8977
5966000000.0 0.695 0.6406
5969000000.0 0.9474 -0.1132
5972000000.0 0.5236 -0.7752
5975000000.0 -0.2753 -0.9454
5978000000.0 -0.8804 -0.3981
5981000000.0 -0.8733 0.4267
5984000000.0 -0.2579 0.9435
5988000000.0 0.5908 0.7952
5991000000.0 1.015 0.07061
5994000000.0 0.663 -0.7501
5997000000.0 -0.1195 -1.005
6000000000.0 -0.8658 -0.54
6003000000.0 -0.9477 0.3292
6006000000.0 -0.3614 0.9581
6009000000.0 0.4717 0.8696
6012000000.0 0.9945 0.1753
6016000000.0 0.7766 -0.6333
6019000000.0 -0.02261 -0.9918
6022000000.0 -0.7705 -0.5979
6025000000.0 -0.9559 0.2164
6028000000.0 -0.4472 0.8624
6031000000.0 0.3998 0.9156
6034000000.0 0.9441 0.2818
6038000000.0 0.7935 -0.5614
6041000000.0 0.07156 -0.9681
6044000000.0 -0.6914 -0.6759
6047000000.0 -0.9513 0.09941
6050000000.0 -0.5194 0.8042
6053000000.0 0.2978 0.8892
6056000000.0 0.8837 0.3435
6059000000.0 0.8186 -0.4721
6062000000.0 0.1299 -0.9153
6066000000.0 -0.6037 -0.6564
6069000000.0 -0.9372 0.06247
6072000000.0 -0.5075 0.74
6075000000.0 0.2259 0.8632
6078000000.0 0.8086 0.3281
6081000000.0 0.7775 -0.4377
6084000000.0 0.1724 -0.8882
6088000000.0 -0.5383 -0.6604
6091000000.0 -0.8668 -0.001896
6094000000.0 -0.5155 0.6881
6097000000.0 0.2132 0.8298
6100000000.0 0.7633 0.4001
6103000000.0 0.7698 -0.3778
6106000000.0 0.1951 -0.8011
6109000000.0 -0.4972 -0.6577
6112000000.0 -0.8684 -0.0366
6116000000.0 -0.559 0.6401
6119000000.0 0.1792 0.874
6122000000.0 0.7702 0.43
6125000000.0 0.7967 -0.3181
6128000000.0 0.2529 -0.8539
6131000000.0 -0.4904 -0.6926
6134000000.0 -0.8701 -0.06227
6138000000.0 -0.5844 0.638
6141000000.0 0.1477 0.8772
6144000000.0 0.7631 0.4639
6147000000.0 0.8328 -0.31
6150000000.0 0.2967 -0.8276
6153000000.0 -0.4599 -0.7873
6156000000.0 -0.8966 -0.1219
6159000000.0 -0.6654 0.593
6162000000.0 0.06322 0.8924
6166000000.0 0.7248 0.5751
6169000000.0 0.8728 -0.2503
6172000000.0 0.3731 -0.8491
6175000000.0 -0.3845 -0.8438
6178000000.0 -0.9063 -0.2192
6181000000.0 -0.7497 0.5499
6184000000.0 -0.0243 0.9368
6188000000.0 0.7133 0.6
6191000000.0 0.9272 -0.148
6194000000.0 0.4799 -0.8299
6197000000.0 -0.3409 -0.8966
6200000000.0 -0.8635 -0.2891
6203000000.0 -0.8071 0.4959
6206000000.0 -0.1299 0.9405
6209000000.0 0.6679 0.6846
6212000000.0 0.9005 -0.03421
6216000000.0 0.564 -0.7821
6219000000.0 -0.2016 -0.8935
6222000000.0 -0.8449 -0.4195
6225000000.0 -0.8365 0.4074
6228000000.0 -0.2377 0.8728
6231000000.0 0.5045 0.735
6234000000.0 0.92 0.07345
6238000000.0 0.6525 -0.6554
6241000000.0 -0.1124 -0.8937
6244000000.0 -0.7474 -0.4604
6247000000.0 -0.84 0.2648
6250000000.0 -0.3379 0.8099
6253000000.0 0.3733 0.7563
6256000000.0 0.8263 0.1697
6259000000.0 0.6857 -0.5133
6262000000.0 0.07625 -0.8009
6266000000.0 -0.5893 -0.5444
