! Created with skrf 1.8.0 (http://scikit-rf.org).
# Hz S RI R 50.0 
!freq ReS11 ImS11
4000000000.0 -0.2372 -1.522
4003000000.0 -1.306 -0.7103
4006000000.0 -1.38 0.5743
4009000000.0 -0.4376 1.452
4012000000.0 0.8226 1.277
4016000000.0 1.519 0.1293
4019000000.0 1.072 -1.127
4022000000.0 -0.1689 -1.56
4025000000.0 -1.395 -0.8246
4028000000.0 -1.496 0.549
4031000000.0 -0.5058 1.521
4034000000.0 0.9593 1.355
4038000000.0 1.626 0.1358
4041000000.0 1.139 -1.186
4044000000.0 -0.2064 -1.609
4047000000.0 -1.371 -0.8708
4050000000.0 -1.549 0.5141
4053000000.0 -0.5324 1.563
4056000000.0 0.8319 1.377
4059000000.0 1.587 0.2516
4062000000.0 1.209 -1.115
4066000000.0 -0.05855 -1.604
4069000000.0 -1.27 -0.9938
4072000000.0 -1.586 0.4069
4075000000.0 -0.7277 1.457
4078000000.0 0.6801 1.508
4081000000.0 1.559 0.4675
4084000000.0 1.362 -0.8965
4088000000.0 0.1427 -1.645
4091000000.0 -1.175 -1.17
4094000000.0 -1.637 0.1614
4097000000.0 -0.925 1.37
4100000000.0 0.4498 1.578
4103000000.0 1.471 0.6552
4106000000.0 1.425 -0.7202
4109000000.0 0.337 -1.498
4112000000.0 -0.9069 -1.267
4116000000.0 -1.495 -0.1502
4119000000.0 -1.081 1.057
4122000000.0 0.09338 1.486
4125000000.0 1.161 0.8957
4128000000.0 1.455 -0.3013
4131000000.0 0.7048 -1.269
4134000000.0 -0.5184 -1.375
4138000000.0 -1.361 -0.5081
4141000000.0 -1.31 0.7026
4144000000.0 -0.2972 1.452
4147000000.0 0.928 1.177
4150000000.0 1.547 0.06962
4153000000.0 1.015 -1.128
4156000000.0 -0.1989 -1.501
4159000000.0 -1.29 -0.8181
4162000000.0 -1.444 0.4676
4166000000.0 -0.5661 1.413
4169000000.0 0.697 1.342
4172000000.0 1.441 0.3318
4175000000.0 1.164 -0.928
4178000000.0 0.04876 -1.518
4181000000.0 -1.09 -1.01
4184000000.0 -1.486 0.1908
4188000000.0 -0.7928 1.296
4191000000.0 0.4834 1.454
4194000000.0 1.429 0.5666
4197000000.0 1.372 -0.7977
4200000000.0 0.2395 -1.563
4203000000.0 -1.064 -1.211
4206000000.0 -1.616 0.1235
4209000000.0 -0.9495 1.356
4212000000.0 0.5151 1.571
4216000000.0 1.586 0.584
4219000000.0 1.434 -0.87
4222000000.0 0.1643 -1.682
4225000000.0 -1.248 -1.109
4228000000.0 -1.651 0.2834
4231000000.0 -0.7209 1.496
4234000000.0 0.7377 1.475
4238000000.0 1.592 0.3255
4241000000.0 1.201 -1.053
4244000000.0 -0.1024 -1.601
4247000000.0 -1.294 -0.8943
4250000000.0 -1.468 0.5099
4253000000.0 -0.514 1.446
4256000000.0 0.8349 1.286
4259000000.0 1.486 0.1415
4262000000.0 1.001 -1.118
4266000000.0 -0.2713 -1.466
4269000000.0 -1.319 -0.703
4272000000.0 -1.33 0.6033
4275000000.0 -0.3575 1.405
4278000000.0 0.897 1.145
4281000000.0 1.415 0.007741
4284000000.0 0.9149 -1.121
4288000000.0 -0.2678 -1.364
4291000000.0 -1.218 -0.6326
4294000000.0 -1.213 0.5512
4297000000.0 -0.3438 1.294
4300000000.0 0.7718 1.082
4303000000.0 1.298 0.1003
4306000000.0 0.9153 -0.9172
4309000000.0 -0.1197 -1.264
4312000000.0 -1.08 -0.7177
4316000000.0 -1.228 0.3297
4319000000.0 -0.5845 1.17
4322000000.0 0.5247 1.191
4325000000.0 1.277 0.3708
4328000000.0 1.116 -0.7668
4331000000.0 0.1291 -1.328
4334000000.0 -0.9324 -0.9835
4338000000.0 -1.388 0.1229
4341000000.0 -0.8455 1.164
4344000000.0 0.3542 1.399
4347000000.0 1.302 0.617
4350000000.0 1.313 -0.625
4353000000.0 0.3586 -1.382
4356000000.0 -0.8257 -1.182
4359000000.0 -1.454 -0.08996
4362000000.0 -1.031 1.05
4366000000.0 0.1756 1.465
4369000000.0 1.253 0.7905
4372000000.0 1.438 -0.4494
4375000000.0 0.5645 -1.435
4378000000.0 -0.7538 -1.342
4381000000.0 -1.473 -0.2932
4384000000.0 -1.173 1.017
4388000000.0 0.03548 1.591
4391000000.0 1.247 0.9621
4394000000.0 1.538 -0.3727
4397000000.0 0.6712 -1.451
4400000000.0 -0.7201 -1.407
4403000000.0 -1.55 -0.3157
4406000000.0 -1.192 1.013
4409000000.0 0.08476 1.553
4412000000.0 1.3 0.8946
4416000000.0 1.479 -0.443
4419000000.0 0.5088 -1.417
4422000000.0 -0.7926 -1.297
4425000000.0 -1.444 -0.1642
4428000000.0 -1.034 1.021
4431000000.0 0.172 1.415
4434000000.0 1.188 0.7037
4438000000.0 1.316 -0.5054
4441000000.0 0.3444 -1.314
4444000000.0 -0.7902 -1.128
4447000000.0 -1.315 -0.07393
4450000000.0 -0.8512 1.001
4453000000.0 0.3079 1.26
4456000000.0 1.12 0.5533
4459000000.0 1.106 -0.5509
4462000000.0 0.218 -1.215
4466000000.0 -0.7778 -0.9187
4469000000.0 -1.207 0.09499
4472000000.0 -0.6642 0.979
4475000000.0 0.3832 1.15
4478000000.0 1.123 0.4163
4481000000.0 0.9901 -0.6085
4484000000.0 0.1351 -1.18
4488000000.0 -0.834 -0.8075
4491000000.0 -1.125 0.1388
4494000000.0 -0.6239 0.9723
4497000000.0 0.3903 1.081
4500000000.0 1.059 0.3938
4503000000.0 0.9471 -0.6032
4506000000.0 0.1415 -1.107
4509000000.0 -0.7558 -0.806
4512000000.0 -1.122 0.0728
4516000000.0 -0.6511 0.9246
4519000000.0 0.2919 1.104
4522000000.0 1.064 0.4441
4525000000.0 1.057 -0.5349
4528000000.0 0.2724 -1.127
4531000000.0 -0.7388 -0.9282
4534000000.0 -1.185 -0.02676
4538000000.0 -0.7804 0.8989
4541000000.0 0.1949 1.193
4544000000.0 1.034 0.6132
4547000000.0 1.128 -0.4084
4550000000.0 0.3905 -1.154
4553000000.0 -0.6277 -1.083
4556000000.0 -1.224 -0.2002
4559000000.0 -0.9711 0.7973
4562000000.0 0.01134 1.268
4566000000.0 1.003 0.8003
4569000000.0 1.266 -0.2467
4572000000.0 0.6569 -1.124
4575000000.0 -0.4427 -1.263
4578000000.0 -1.268 -0.4451
4581000000.0 -1.156 0.6908
4584000000.0 -0.1976 1.354
4588000000.0 0.8899 1.024
4591000000.0 1.384 -0.03175
4594000000.0 0.8498 -1.084
4597000000.0 -0.3087 -1.343
4600000000.0 -1.261 -0.6182
4603000000.0 -1.275 0.5853
4606000000.0 -0.3733 1.346
4609000000.0 0.8179 1.148
4612000000.0 1.422 0.07459
4616000000.0 0.9585 -1.056
4619000000.0 -0.1853 -1.377
4622000000.0 -1.22 -0.714
4625000000.0 -1.28 0.4893
4628000000.0 -0.4715 1.306
4631000000.0 0.7434 1.184
4634000000.0 1.365 0.1627
4638000000.0 0.976 -0.9725
4641000000.0 -0.115 -1.372
4644000000.0 -1.137 -0.729
4647000000.0 -1.248 0.4173
4650000000.0 -0.4527 1.231
4653000000.0 0.7013 1.116
4656000000.0 1.26 0.1408
4659000000.0 0.9063 -0.9045
4662000000.0 -0.1552 -1.258
4666000000.0 -1.063 -0.6467
4669000000.0 -1.131 0.4167
4672000000.0 -0.3749 1.126
4675000000.0 0.6433 0.9816
4678000000.0 1.133 0.08844
4681000000.0 0.775 -0.7907
4684000000.0 -0.147 -1.135
4688000000.0 -0.9399 -0.5898
4691000000.0 -1.026 0.4098
4694000000.0 -0.3217 1.049
4697000000.0 0.6214 0.9041
4700000000.0 1.094 0.08746
4703000000.0 0.7202 -0.8262
4706000000.0 -0.1374 -1.096
4709000000.0 -0.943 -0.5582
4712000000.0 -0.9856 0.4027
4716000000.0 -0.3225 1.042
4719000000.0 0.6156 0.8705
4722000000.0 1.089 0.0766
4725000000.0 0.698 -0.7624
4728000000.0 -0.1332 -1.106
4731000000.0 -0.8976 -0.5773
4734000000.0 -1.005 0.3397
4738000000.0 -0.3651 1.003
4741000000.0 0.484 0.9133
4744000000.0 1.059 0.1716
4747000000.0 0.8269 -0.7077
4750000000.0 0.02773 -1.085
4753000000.0 -0.8472 -0.6992
4756000000.0 -1.074 0.1876
4759000000.0 -0.572 0.9428
4762000000.0 0.4056 1.081
4766000000.0 1.103 0.403
4769000000.0 1.002 -0.5885
4772000000.0 0.186 -1.155
4775000000.0 -0.769 -0.9121
4778000000.0 -1.194 0.01352
4781000000.0 -0.7542 0.9538
4784000000.0 0.2146 1.171
4788000000.0 1.046 0.5959
4791000000.0 1.185 -0.3992
4794000000.0 0.454 -1.174
4797000000.0 -0.6456 -1.089
4800000000.0 -1.28 -0.2129
4803000000.0 -0.9767 0.8079
4806000000.0 0.02786 1.268
4809000000.0 1.001 0.8402
4812000000.0 1.304 -0.1981
4816000000.0 0.68 -1.154
4819000000.0 -0.4376 -1.252
4822000000.0 -1.319 -0.467
4825000000.0 -1.192 0.6866
4828000000.0 -0.2304 1.343
4831000000.0 0.9137 1.074
4834000000.0 1.402 -0.07196
4838000000.0 0.8212 -1.134
4841000000.0 -0.3291 -1.378
4844000000.0 -1.257 -0.5956
4847000000.0 -1.278 0.6096
4850000000.0 -0.3302 1.32
4853000000.0 0.8376 1.098
4856000000.0 1.353 0.04593
4859000000.0 0.8869 -1.019
4862000000.0 -0.2341 -1.315
4866000000.0 -1.136 -0.6686
4869000000.0 -1.234 0.4522
4872000000.0 -0.3641 1.246
4875000000.0 0.738 1.068
4878000000.0 1.258 0.1271
4881000000.0 0.8931 -0.8748
4884000000.0 -0.1429 -1.22
4888000000.0 -1.049 -0.6553
4891000000.0 -1.112 0.3811
4894000000.0 -0.3931 1.085
4897000000.0 0.5856 0.998
4900000000.0 1.096 0.1228
4903000000.0 0.8032 -0.7387
4906000000.0 -0.06871 -1.068
4909000000.0 -0.8706 -0.5809
4912000000.0 -0.9798 0.3
4916000000.0 -0.3971 0.9024
4919000000.0 0.4774 0.8892
4922000000.0 0.964 0.1724
4925000000.0 0.7287 -0.6266
4928000000.0 -0.003806 -0.9753
4931000000.0 -0.7381 -0.6093
4934000000.0 -0.9262 0.1684
4938000000.0 -0.4415 0.8226
4941000000.0 0.3893 0.8719
4944000000.0 0.907 0.2883
4947000000.0 0.803 -0.498
4950000000.0 0.1191 -0.9147
4953000000.0 -0.6693 -0.6855
4956000000.0 -0.9689 0.08658
4959000000.0 -0.5357 0.8466
4962000000.0 0.2766 0.9507
4966000000.0 0.937 0.3682
4969000000.0 0.8674 -0.4974
4972000000.0 0.1729 -1.014
4975000000.0 -0.6555 -0.7968
4978000000.0 -1.022 0.002396
4981000000.0 -0.6575 0.8317
4984000000.0 0.2099 1.05
4988000000.0 0.946 0.4683
4991000000.0 1.02 -0.4285
4994000000.0 0.3388 -1.042
4997000000.0 -0.6245 -0.9525
5000000000.0 -1.133 -0.1433
5003000000.0 -0.8272 0.8017
5006000000.0 0.07919 1.174
5009000000.0 0.9636 0.6914
5012000000.0 1.178 -0.3194
5016000000.0 0.5373 -1.129
5019000000.0 -0.5379 -1.136
5022000000.0 -1.263 -0.2788
5025000000.0 -1.033 0.7847
5028000000.0 -0.03343 1.291
5031000000.0 0.9803 0.871
5034000000.0 1.266 -0.2248
5038000000.0 0.6729 -1.141
5041000000.0 -0.4173 -1.24
5044000000.0 -1.214 -0.4472
5047000000.0 -1.134 0.6627
5050000000.0 -0.2497 1.281
5053000000.0 0.8246 0.9976
5056000000.0 1.325 0.005201
5059000000.0 0.8444 -0.9723
5062000000.0 -0.1988 -1.278
5066000000.0 -1.129 -0.6587
5069000000.0 -1.208 0.4647
5072000000.0 -0.4254 1.201
5075000000.0 0.654 1.077
5078000000.0 1.19 0.1923
5081000000.0 0.9036 -0.8434
5084000000.0 -0.01696 -1.232
5088000000.0 -0.9392 -0.7509
5091000000.0 -1.162 0.2358
5094000000.0 -0.5649 1.008
5097000000.0 0.4052 1.053
5100000000.0 1.071 0.3279
5103000000.0 0.9447 -0.5764
5106000000.0 0.1559 -1.104
5109000000.0 -0.7243 -0.8062
5112000000.0 -1.047 0.04773
5116000000.0 -0.6197 0.8429
5119000000.0 0.2182 1.019
5122000000.0 0.9217 0.4612
5125000000.0 0.9804 -0.3967
5128000000.0 0.2789 -0.9666
5131000000.0 -0.5955 -0.8328
5134000000.0 -0.9603 -0.1026
5138000000.0 -0.6612 0.6949
5141000000.0 0.1227 0.9399
5144000000.0 0.8088 0.489
5147000000.0 0.902 -0.2855
5150000000.0 0.3088 -0.8631
5153000000.0 -0.479 -0.8063
5156000000.0 -0.8873 -0.1412
5159000000.0 -0.6662 0.5816
5162000000.0 0.08575 0.8845
5166000000.0 0.7257 0.5429
5169000000.0 0.8773 -0.1952
5172000000.0 0.3534 -0.8018
5175000000.0 -0.4423 -0.7777
5178000000.0 -0.8749 -0.1781
5181000000.0 -0.7081 0.6068
5184000000.0 0.02229 0.9307
5188000000.0 0.7207 0.5491
5191000000.0 0.8944 -0.2219
5194000000.0 0.3688 -0.8332
5197000000.0 -0.401 -0.8651
5200000000.0 -0.8761 -0.1995
5203000000.0 -0.7617 0.6003
5206000000.0 0.01276 0.9693
5209000000.0 0.744 0.6027
5212000000.0 0.9521 -0.1921
5216000000.0 0.4568 -0.9206
5219000000.0 -0.4018 -0.9269
5222000000.0 -0.9634 -0.2732
5225000000.0 -0.8091 0.6023
5228000000.0 -0.07024 1.015
5231000000.0 0.7506 0.7122
5234000000.0 1.026 -0.1251
5238000000.0 0.5619 -0.8848
5241000000.0 -0.3073 -1.004
5244000000.0 -0.9969 -0.3988
5247000000.0 -0.9469 0.5189
5250000000.0 -0.2036 1.063
5253000000.0 0.675 0.8468
5256000000.0 1.089 0.01693
5259000000.0 0.6965 -0.7995
5262000000.0 -0.2013 -1.108
5266000000.0 -0.9323 -0.5744
5269000000.0 -1.036 0.3563
5272000000.0 -0.3798 1.004
5275000000.0 0.5279 0.9505
5278000000.0 1.079 0.2064
5281000000.0 0.8598 -0.6808
5284000000.0 0.02544 -1.104
5288000000.0 -0.8311 -0.7407
5291000000.0 -1.095 0.1523
5294000000.0 -0.628 0.9395
5297000000.0 0.3364 1.092
5300000000.0 1.051 0.4366
5303000000.0 0.9948 -0.5321
5306000000.0 0.2456 -1.107
5309000000.0 -0.6636 -0.95
5312000000.0 -1.155 -0.09096
5316000000.0 -0.7979 0.8016
5319000000.0 0.1149 1.138
5322000000.0 0.9656 0.6424
5325000000.0 1.073 -0.3273
5328000000.0 0.4192 -1.059
5331000000.0 -0.5253 -1.023
5334000000.0 -1.115 -0.2053
5338000000.0 -0.8778 0.7029
5341000000.0 0.004173 1.12
5344000000.0 0.8209 0.6675
5347000000.0 1.059 -0.2123
5350000000.0 0.4967 -0.973
5353000000.0 -0.4359 -1.014
5356000000.0 -1.013 -0.2982
5359000000.0 -0.8693 0.6146
5362000000.0 -0.07391 1.055
5366000000.0 0.7681 0.7081
5369000000.0 0.9914 -0.1492
5372000000.0 0.4741 -0.8875
5375000000.0 -0.3966 -0.9392
5378000000.0 -0.9816 -0.2969
5381000000.0 -0.7549 0.5629
5384000000.0 -0.02973 0.9577
5388000000.0 0.7392 0.612
5391000000.0 0.8889 -0.1788
5394000000.0 0.4046 -0.8423
5397000000.0 -0.4107 -0.7917
5400000000.0 -0.8603 -0.1862
5403000000.0 -0.659 0.5465
5406000000.0 -0.001179 0.8431
5409000000.0 0.6759 0.5522
5412000000.0 0.836 -0.1927
5416000000.0 0.3801 -0.7555
5419000000.0 -0.3723 -0.7887
5422000000.0 -0.8275 -0.207
5425000000.0 -0.6968 0.5287
5428000000.0 -0.006661 0.896
5431000000.0 0.6885 0.5573
5434000000.0 0.8576 -0.1792
5438000000.0 0.3698 -0.7774
5441000000.0 -0.4043 -0.8188
5444000000.0 -0.8893 -0.2107
5447000000.0 -0.7181 0.5235
5450000000.0 -0.008909 0.9276
5453000000.0 0.6823 0.6285
5456000000.0 0.8918 -0.1561
5459000000.0 0.4537 -0.8132
5462000000.0 -0.313 -0.8942
5466000000.0 -0.8773 -0.3033
5469000000.0 -0.8166 0.5185
5472000000.0 -0.1441 0.9485
5475000000.0 0.6234 0.7517
5478000000.0 0.9752 -0.01815
5481000000.0 0.6039 -0.7661
5484000000.0 -0.1821 -1.011
5488000000.0 -0.8816 -0.4525
5491000000.0 -0.9419 0.3551
5494000000.0 -0.346 0.9653
5497000000.0 0.5508 0.8552
5500000000.0 1.023 0.1484
5503000000.0 0.7731 -0.6865
5506000000.0 -0.04472 -1.029
5509000000.0 -0.8441 -0.6511
5512000000.0 -1.059 0.2218
5516000000.0 -0.5383 0.9531
5519000000.0 0.3931 0.9457
5522000000.0 1.027 0.3219
5525000000.0 0.9269 -0.5535
5528000000.0 0.1667 -1.067
5531000000.0 -0.6856 -0.8279
5534000000.0 -1.082 0.03593
5538000000.0 -0.6507 0.8356
5541000000.0 0.2197 1.073
5544000000.0 0.9931 0.483
5547000000.0 0.9749 -0.4152
5550000000.0 0.2871 -1.013
5553000000.0 -0.589 -0.8721
5556000000.0 -1.039 -0.1015
5559000000.0 -0.7579 0.7459
5562000000.0 0.07094 1.024
5566000000.0 0.8524 0.5873
5569000000.0 0.9963 -0.2558
5572000000.0 0.4209 -0.9349
5575000000.0 -0.4722 -0.8898
5578000000.0 -0.9435 -0.1842
5581000000.0 -0.7766 0.621
5584000000.0 -0.003758 0.9393
5588000000.0 0.7061 0.611
5591000000.0 0.9005 -0.2152
5594000000.0 0.4187 -0.788
5597000000.0 -0.3544 -0.8124
5600000000.0 -0.8656 -0.2445
5603000000.0 -0.7243 0.4946
5606000000.0 -0.07048 0.8486
5609000000.0 0.6193 0.5838
5612000000.0 0.8339 -0.114
5616000000.0 0.4328 -0.72
5619000000.0 -0.2814 -0.7962
5622000000.0 -0.785 -0.2474
5625000000.0 -0.7063 0.4625
5628000000.0 -0.06674 0.8106
5631000000.0 0.6091 0.5847
5634000000.0 0.8238 -0.09759
5638000000.0 0.4355 -0.7363
5641000000.0 -0.2842 -0.7877
5644000000.0 -0.7826 -0.2581
5647000000.0 -0.7156 0.4486
5650000000.0 -0.07428 0.8314
5653000000.0 0.6168 0.6079
5656000000.0 0.8485 -0.09875
5659000000.0 0.4616 -0.7377
5662000000.0 -0.279 -0.8624
5666000000.0 -0.8209 -0.2874
5669000000.0 -0.775 0.4885
5672000000.0 -0.1101 0.9181
5675000000.0 0.6434 0.6751
5678000000.0 0.937 -0.08743
5681000000.0 0.5366 -0.809
5684000000.0 -0.2601 -0.9173
5688000000.0 -0.927 -0.3678
5691000000.0 -0.8532 0.4891
5694000000.0 -0.2026 1.01
5697000000.0 0.6947 0.781
5700000000.0 1.022 -0.01063
5703000000.0 0.6602 -0.8305
5706000000.0 -0.2271 -1.028
5709000000.0 -0.9288 -0.4677
5712000000.0 -0.941 0.467
5716000000.0 -0.2697 1.047
5719000000.0 0.6433 0.8771
5722000000.0 1.091 0.06212
5725000000.0 0.7789 -0.7688
5728000000.0 -0.1121 -1.089
5731000000.0 -0.901 -0.617
5734000000.0 -1.087 0.2908
5738000000.0 -0.4516 1.025
5741000000.0 0.5465 1.005
5744000000.0 1.141 0.2383
5747000000.0 0.8774 -0.7109
5750000000.0 0.0428 -1.117
5753000000.0 -0.8712 -0.7162
5756000000.0 -1.108 0.1691
5759000000.0 -0.5998 0.9779
5762000000.0 0.3746 1.033
5766000000.0 1.02 0.3897
5769000000.0 0.9507 -0.5634
5772000000.0 0.1904 -1.11
5775000000.0 -0.7078 -0.8257
5778000000.0 -1.072 0.05219
5781000000.0 -0.7215 0.843
5784000000.0 0.2443 1.092
5788000000.0 0.9666 0.5078
5791000000.0 0.991 -0.4006
5794000000.0 0.3369 -1.008
5797000000.0 -0.5795 -0.8803
5800000000.0 -1.077 -0.07069
5803000000.0 -0.7232 0.7248
5806000000.0 0.118 1.022
5809000000.0 0.8502 0.5357
5812000000.0 0.9654 -0.3203
5816000000.0 0.3503 -0.9483
5819000000.0 -0.501 -0.8476
5822000000.0 -0.9728 -0.1461
5825000000.0 -0.7173 0.646
5828000000.0 0.04702 0.9663
5831000000.0 0.7965 0.5463
5834000000.0 0.9184 -0.244
5838000000.0 0.3393 -0.867
5841000000.0 -0.4806 -0.8273
5844000000.0 -0.9137 -0.1587
5847000000.0 -0.6765 0.6298
5850000000.0 0.04277 0.9248
5853000000.0 0.6848 0.4981
5856000000.0 0.8525 -0.2598
5859000000.0 0.3305 -0.8241
5862000000.0 -0.4344 -0.7829
5866000000.0 -0.8779 -0.1585
5869000000.0 -0.6685 0.5987
5872000000.0 0.05328 0.8704
5875000000.0 0.734 0.4754
5878000000.0 0.8438 -0.2428
5881000000.0 0.3264 -0.7959
5884000000.0 -0.4295 -0.7794
5888000000.0 -0.8735 -0.1559
5891000000.0 -0.642 0.5799
5894000000.0 0.03665 0.8726
5897000000.0 0.7131 0.5233
5900000000.0 0.8558 -0.2166
5903000000.0 0.4047 -0.7922
5906000000.0 -0.346 -0.828
5909000000.0 -0.8616 -0.2266
5912000000.0 -0.7059 0.5353
5916000000.0 -0.03658 0.9052
5919000000.0 0.668 0.6324
5922000000.0 0.8698 -0.1404
5925000000.0 0.4546 -0.7594
5928000000.0 -0.3124 -0.8757
5931000000.0 -0.9096 -0.3658
5934000000.0 -0.8114 0.4566
5938000000.0 -0.1653 0.948
5941000000.0 0.5968 0.7384
5944000000.0 0.9492 -0.01854
5947000000.0 0.5923 -0.7609
5950000000.0 -0.2054 -0.9709
5953000000.0 -0.8646 -0.4513
5956000000.0 -0.8844 0.371
5959000000.0 -0.311 0.9751
5962000000.0 0.5189 0.8037
5966000000.0 0.9895 0.07924
5969000000.0 0.6922 -0.6884
5972000000.0 -0.09044 -1.001
5975000000.0 -0.8422 -0.5912
5978000000.0 -0.9579 0.3067
5981000000.0 -0.3799 0.9309
5984000000.0 0.4657 0.9139
5988000000.0 1.03 0.2147
5991000000.0 0.7749 -0.6341
5994000000.0 0.03157 -1.025
5997000000.0 -0.813 -0.6371
6000000000.0 -0.9922 0.2212
6003000000.0 -0.4284 0.8893
6006000000.0 0.4198 0.9133
6009000000.0 0.967 0.2573
6012000000.0 0.8086 -0.5893
6016000000.0 0.03947 -0.945
6019000000.0 -0.7424 -0.6203
6022000000.0 -0.9521 0.1649
6025000000.0 -0.4681 0.8304
6028000000.0 0.3451 0.845
6031000000.0 0.8742 0.2589
6034000000.0 0.7303 -0.5182
6038000000.0 0.02405 -0.8826
6041000000.0 -0.6856 -0.61
6044000000.0 -0.8919 0.1403
6047000000.0 -0.4294 0.7516
6050000000.0 0.3331 0.7996
6053000000.0 0.8651 0.2454
6056000000.0 0.7072 -0.4984
6059000000.0 0.03252 -0.8645
6062000000.0 -0.6528 -0.5676
6066000000.0 -0.8656 0.1147
6069000000.0 -0.415 0.7655
6072000000.0 0.3138 0.7939
6075000000.0 0.8176 0.2046
6078000000.0 0.6892 -0.4814
6081000000.0 0.05214 -0.8509
6084000000.0 -0.6186 -0.574
6088000000.0 -0.8744 0.1454
6091000000.0 -0.3918 0.7624
6094000000.0 0.2923 0.8099
6097000000.0 0.846 0.2292
6100000000.0 0.7455 -0.4747
6103000000.0 0.099 -0.9024
6106000000.0 -0.6389 -0.6063
6109000000.0 -0.8789 0.1207
6112000000.0 -0.4584 0.7612
6116000000.0 0.3303 0.8566
6119000000.0 0.8938 0.3162
6122000000.0 0.7849 -0.5116
6125000000.0 0.07064 -0.9208
6128000000.0 -0.6684 -0.6843
6131000000.0 -0.983 0.1234
6134000000.0 -0.5205 0.8241
6138000000.0 0.3381 0.923
6141000000.0 0.8839 0.3225
6144000000.0 0.8506 -0.5427
6147000000.0 0.1203 -0.9604
6150000000.0 -0.6996 -0.7242
6153000000.0 -1.026 0.1283
6156000000.0 -0.5755 0.8426
6159000000.0 0.3367 0.937
6162000000.0 0.8973 0.3586
6166000000.0 0.8813 -0.5006
6169000000.0 0.1675 -1.006
6172000000.0 -0.6634 -0.7536
6175000000.0 -1.003 0.06829
6178000000.0 -0.5621 0.8288
6181000000.0 0.2939 0.9465
6184000000.0 0.9254 0.3502
6188000000.0 0.8765 -0.4966
6191000000.0 0.1534 -0.9767
6194000000.0 -0.6586 -0.6943
6197000000.0 -0.9759 0.02324
6200000000.0 -0.5546 0.7799
6203000000.0 0.2512 0.9281
6206000000.0 0.8486 0.3792
6209000000.0 0.837 -0.428
6212000000.0 0.1483 -0.881
6216000000.0 -0.5729 -0.6917
6219000000.0 -0.8788 0.003985
6222000000.0 -0.5522 0.6946
6225000000.0 0.1298 0.8358
6228000000.0 0.7958 0.4215
6231000000.0 0.8002 -0.3698
6234000000.0 0.2142 -0.8252
6238000000.0 -0.4918 -0.6796
6241000000.0 -0.8706 -0.004166
6244000000.0 -0.5097 0.6614
6247000000.0 0.1298 0.867
6250000000.0 0.7581 0.3962
6253000000.0 0.7709 -0.3447
6256000000.0 0.1907 -0.7895
6259000000.0 -0.5094 -0.6854
6262000000.0 -0.8086 0.03177
6266000000.0 -0.5404 0.6452
6269000000.0 0.1718 0.8174
