! Created with skrf 1.8.0 (http://scikit-rf.org).
# Hz S RI R 50.0 
!freq ReS11 ImS11
4000000000.0 -0.127 -1.493
4003000000.0 -1.234 -0.8084
4006000000.0 -1.404 0.4746
4009000000.0 -0.4832 1.382
4012000000.0 0.7533 1.322
4016000000.0 1.541 0.1889
4019000000.0 1.183 -1.011
4022000000.0 -0.1533 -1.579
4025000000.0 -1.32 -0.8667
4028000000.0 -1.475 0.4793
4031000000.0 -0.5544 1.46
4034000000.0 0.7646 1.395
4038000000.0 1.6 0.2215
4041000000.0 1.234 -1.11
4044000000.0 -0.1111 -1.607
4047000000.0 -1.327 -0.9298
4050000000.0 -1.549 0.4072
4053000000.0 -0.6854 1.495
4056000000.0 0.7808 1.436
4059000000.0 1.575 0.3355
4062000000.0 1.254 -1.035
4066000000.0 0.03514 -1.615
4069000000.0 -1.214 -1.058
4072000000.0 -1.576 0.2746
4075000000.0 -0.8737 1.395
4078000000.0 0.5476 1.57
4081000000.0 1.547 0.5359
4084000000.0 1.433 -0.8543
4088000000.0 0.2629 -1.637
4091000000.0 -1.113 -1.221
4094000000.0 -1.612 0.09125
4097000000.0 -0.9574 1.27
4100000000.0 0.3951 1.611
4103000000.0 1.424 0.7267
4106000000.0 1.456 -0.6329
4109000000.0 0.4656 -1.531
4112000000.0 -0.8246 -1.295
4116000000.0 -1.512 -0.2215
4119000000.0 -1.13 1.003
4122000000.0 -0.001407 1.491
4125000000.0 1.134 0.9679
4128000000.0 1.457 -0.2188
4131000000.0 0.775 -1.253
4134000000.0 -0.4198 -1.426
4138000000.0 -1.351 -0.6063
4141000000.0 -1.376 0.6489
4144000000.0 -0.3537 1.451
4147000000.0 0.8544 1.243
4150000000.0 1.493 0.1505
4153000000.0 1.086 -1.077
4156000000.0 -0.1026 -1.509
4159000000.0 -1.237 -0.9099
4162000000.0 -1.453 0.3693
4166000000.0 -0.6898 1.374
4169000000.0 0.6174 1.373
4172000000.0 1.433 0.4133
4175000000.0 1.254 -0.842
4178000000.0 0.1643 -1.499
4181000000.0 -1.05 -1.084
4184000000.0 -1.492 0.08545
4188000000.0 -0.9282 1.233
4191000000.0 0.3467 1.51
4194000000.0 1.41 0.6616
4197000000.0 1.427 -0.6371
4200000000.0 0.3809 -1.553
4203000000.0 -0.9615 -1.268
4206000000.0 -1.587 -0.1067
4209000000.0 -1.077 1.249
4212000000.0 0.3171 1.632
4216000000.0 1.492 0.7624
4219000000.0 1.516 -0.7035
4222000000.0 0.3154 -1.617
4225000000.0 -1.111 -1.292
4228000000.0 -1.696 0.1166
4231000000.0 -0.9195 1.384
4234000000.0 0.5382 1.564
4238000000.0 1.562 0.5193
4241000000.0 1.33 -0.9197
4244000000.0 0.08696 -1.584
4247000000.0 -1.229 -1.023
4250000000.0 -1.556 0.2986
4253000000.0 -0.6669 1.413
4256000000.0 0.7041 1.372
4259000000.0 1.506 0.3217
4262000000.0 1.185 -0.9961
4266000000.0 -0.08968 -1.506
4269000000.0 -1.2 -0.8543
4272000000.0 -1.432 0.4177
4275000000.0 -0.5606 1.357
4278000000.0 0.7446 1.278
4281000000.0 1.445 0.1759
4284000000.0 1.056 -0.9551
4288000000.0 -0.1436 -1.392
4291000000.0 -1.141 -0.7408
4294000000.0 -1.297 0.4221
4297000000.0 -0.5061 1.244
4300000000.0 0.6211 1.191
4303000000.0 1.272 0.2764
4306000000.0 0.992 -0.8172
4309000000.0 0.03921 -1.294
4312000000.0 -0.941 -0.826
4316000000.0 -1.246 0.1874
4319000000.0 -0.6767 1.095
4322000000.0 0.4052 1.242
4325000000.0 1.214 0.4925
4328000000.0 1.202 -0.5941
4331000000.0 0.2989 -1.331
4334000000.0 -0.8169 -1.098
4338000000.0 -1.38 -0.02233
4341000000.0 -0.9375 1.034
4344000000.0 0.1885 1.398
4347000000.0 1.217 0.7316
4350000000.0 1.36 -0.4717
4353000000.0 0.4896 -1.353
4356000000.0 -0.7077 -1.268
4359000000.0 -1.446 -0.2495
4362000000.0 -1.099 0.9291
4366000000.0 0.01859 1.467
4369000000.0 1.128 0.9432
4372000000.0 1.452 -0.2565
4375000000.0 0.7392 -1.301
4378000000.0 -0.5214 -1.407
4381000000.0 -1.465 -0.5102
4384000000.0 -1.324 0.8165
4388000000.0 -0.1578 1.537
4391000000.0 1.059 1.107
4394000000.0 1.578 -0.1267
4397000000.0 0.8616 -1.31
4400000000.0 -0.4887 -1.503
4403000000.0 -1.504 -0.5272
4406000000.0 -1.36 0.8082
4409000000.0 -0.188 1.569
4412000000.0 1.098 1.123
4416000000.0 1.566 -0.1612
4419000000.0 0.8055 -1.332
4422000000.0 -0.5399 -1.398
4425000000.0 -1.411 -0.4591
4428000000.0 -1.225 0.8491
4431000000.0 -0.09656 1.475
4434000000.0 1.057 0.9548
4438000000.0 1.387 -0.2157
4441000000.0 0.6517 -1.208
4444000000.0 -0.5207 -1.241
4447000000.0 -1.313 -0.3541
4450000000.0 -1.078 0.8659
4453000000.0 0.02641 1.317
4456000000.0 1.062 0.7716
4459000000.0 1.247 -0.3463
4462000000.0 0.4877 -1.174
4466000000.0 -0.6228 -1.066
4469000000.0 -1.201 -0.1625
4472000000.0 -0.8535 0.8842
4475000000.0 0.1589 1.194
4478000000.0 0.9983 0.6018
4481000000.0 1.108 -0.405
4484000000.0 0.3472 -1.085
4488000000.0 -0.6469 -0.9494
4491000000.0 -1.132 -0.0812
4494000000.0 -0.779 0.8468
4497000000.0 0.1989 1.103
4500000000.0 0.9702 0.5586
4503000000.0 1.02 -0.4166
4506000000.0 0.3204 -1.039
4509000000.0 -0.5981 -0.9364
4512000000.0 -1.097 -0.1032
4516000000.0 -0.7811 0.7915
4519000000.0 0.1463 1.114
4522000000.0 0.9261 0.6085
4525000000.0 1.061 -0.3484
4528000000.0 0.4236 -1.066
4531000000.0 -0.5839 -1.006
4534000000.0 -1.127 -0.1874
4538000000.0 -0.8674 0.7616
4541000000.0 -0.009719 1.172
4544000000.0 0.9351 0.7409
4547000000.0 1.166 -0.2289
4550000000.0 0.5941 -1.061
4553000000.0 -0.4488 -1.113
4556000000.0 -1.14 -0.4005
4559000000.0 -1.053 0.6268
4562000000.0 -0.1688 1.201
4566000000.0 0.8315 0.9156
4569000000.0 1.263 -0.05322
4572000000.0 0.7757 -1.001
4575000000.0 -0.279 -1.269
4578000000.0 -1.153 -0.6071
4581000000.0 -1.2 0.4937
4584000000.0 -0.4122 1.256
4588000000.0 0.6866 1.111
4591000000.0 1.331 0.174
4594000000.0 1.001 -0.9603
4597000000.0 -0.1045 -1.388
4600000000.0 -1.117 -0.787
4603000000.0 -1.332 0.3619
4606000000.0 -0.5725 1.268
4609000000.0 0.6205 1.238
4612000000.0 1.39 0.3163
4616000000.0 1.109 -0.8599
4619000000.0 0.05169 -1.406
4622000000.0 -1.064 -0.9019
4625000000.0 -1.345 0.254
4628000000.0 -0.6937 1.24
4631000000.0 0.5189 1.246
4634000000.0 1.325 0.401
4638000000.0 1.117 -0.7615
4641000000.0 0.108 -1.343
4644000000.0 -0.9906 -0.9139
4647000000.0 -1.331 0.1753
4650000000.0 -0.6868 1.172
4653000000.0 0.4842 1.227
4656000000.0 1.236 0.387
4659000000.0 1.041 -0.711
4662000000.0 0.04876 -1.264
4666000000.0 -0.9172 -0.8403
4669000000.0 -1.212 0.1825
4672000000.0 -0.5743 1.066
4675000000.0 0.4301 1.108
4678000000.0 1.084 0.3131
4681000000.0 0.9443 -0.6794
4684000000.0 0.07579 -1.125
4688000000.0 -0.8088 -0.7584
4691000000.0 -1.102 0.2094
4694000000.0 -0.506 1.004
4697000000.0 0.4077 1.004
4700000000.0 1.048 0.2685
4703000000.0 0.8554 -0.6677
4706000000.0 0.06033 -1.097
4709000000.0 -0.8201 -0.7005
4712000000.0 -1.051 0.2027
4716000000.0 -0.5092 0.9767
4719000000.0 0.4599 0.9748
4722000000.0 1.04 0.2427
4725000000.0 0.834 -0.646
4728000000.0 0.03906 -1.059
4731000000.0 -0.7743 -0.7069
4734000000.0 -1.039 0.1942
4738000000.0 -0.5382 0.8958
4741000000.0 0.3654 0.9487
4744000000.0 1.007 0.3432
4747000000.0 0.8855 -0.5621
4750000000.0 0.1614 -1.035
4753000000.0 -0.7277 -0.8102
4756000000.0 -1.106 0.04069
4759000000.0 -0.6404 0.8879
4762000000.0 0.2297 1.093
4766000000.0 0.9968 0.514
4769000000.0 1.048 -0.4458
4772000000.0 0.3275 -1.103
4775000000.0 -0.6643 -0.9335
4778000000.0 -1.163 -0.1556
4781000000.0 -0.847 0.8109
4784000000.0 0.07918 1.189
4788000000.0 0.9378 0.7539
4791000000.0 1.176 -0.2862
4794000000.0 0.5603 -1.075
4797000000.0 -0.4431 -1.159
4800000000.0 -1.195 -0.3869
4803000000.0 -1.054 0.661
4806000000.0 -0.1939 1.235
4809000000.0 0.8374 0.9564
4812000000.0 1.287 -0.033
4816000000.0 0.7959 -1.026
4819000000.0 -0.2515 -1.284
4822000000.0 -1.197 -0.6151
4825000000.0 -1.254 0.5088
4828000000.0 -0.4293 1.304
4831000000.0 0.7553 1.128
4834000000.0 1.367 0.1332
4838000000.0 0.9746 -0.9885
4841000000.0 -0.1202 -1.395
4844000000.0 -1.132 -0.7772
4847000000.0 -1.326 0.4176
4850000000.0 -0.5258 1.294
4853000000.0 0.6545 1.221
4856000000.0 1.369 0.2636
4859000000.0 1.049 -0.8686
4862000000.0 -0.01179 -1.358
4866000000.0 -1.056 -0.8431
4869000000.0 -1.305 0.2801
4872000000.0 -0.6042 1.18
4875000000.0 0.5331 1.194
4878000000.0 1.261 0.3383
4881000000.0 1.028 -0.7646
4884000000.0 0.05726 -1.258
4888000000.0 -0.9284 -0.8217
4891000000.0 -1.233 0.2264
4894000000.0 -0.5611 1.054
4897000000.0 0.4397 1.033
4900000000.0 1.112 0.3145
4903000000.0 0.9186 -0.6279
4906000000.0 0.08907 -1.107
4909000000.0 -0.7921 -0.7396
4912000000.0 -1.048 0.1265
4916000000.0 -0.5369 0.8879
4919000000.0 0.3431 0.9552
4922000000.0 0.9225 0.3287
4925000000.0 0.8496 -0.474
4928000000.0 0.1708 -0.9385
4931000000.0 -0.6301 -0.728
4934000000.0 -0.9731 0.03306
4938000000.0 -0.5862 0.7608
4941000000.0 0.2213 0.9173
4944000000.0 0.8629 0.4174
4947000000.0 0.8748 -0.3925
4950000000.0 0.2253 -0.9056
4953000000.0 -0.5687 -0.783
4956000000.0 -0.966 -0.03932
4959000000.0 -0.6347 0.7103
4962000000.0 0.1576 0.955
4966000000.0 0.8124 0.4845
4969000000.0 0.9447 -0.3524
4972000000.0 0.3375 -0.9503
4975000000.0 -0.5153 -0.868
4978000000.0 -1.002 -0.1269
4981000000.0 -0.7373 0.7109
4984000000.0 0.07377 1.058
4988000000.0 0.8354 0.6279
4991000000.0 1.01 -0.272
4994000000.0 0.4725 -0.9467
4997000000.0 -0.4598 -0.9978
5000000000.0 -1.054 -0.273
5003000000.0 -0.922 0.6309
5006000000.0 -0.1062 1.146
5009000000.0 0.8469 0.8195
5012000000.0 1.213 -0.1437
5016000000.0 0.6667 -1.027
5019000000.0 -0.3977 -1.197
5022000000.0 -1.177 -0.4799
5025000000.0 -1.084 0.6042
5028000000.0 -0.2309 1.241
5031000000.0 0.8135 0.9808
5034000000.0 1.252 -0.00485
5038000000.0 0.8414 -1.01
5041000000.0 -0.2148 -1.242
5044000000.0 -1.095 -0.6645
5047000000.0 -1.218 0.4169
5050000000.0 -0.432 1.224
5053000000.0 0.6483 1.123
5056000000.0 1.266 0.1955
5059000000.0 1.0 -0.8551
5062000000.0 -0.006649 -1.311
5066000000.0 -1.026 -0.805
5069000000.0 -1.277 0.2912
5072000000.0 -0.6098 1.127
5075000000.0 0.4837 1.214
5078000000.0 1.188 0.3962
5081000000.0 1.042 -0.7076
5084000000.0 0.1649 -1.252
5088000000.0 -0.8349 -0.8644
5091000000.0 -1.157 0.08213
5094000000.0 -0.6532 0.9721
5097000000.0 0.2683 1.133
5100000000.0 1.03 0.5009
5103000000.0 1.024 -0.4761
5106000000.0 0.2884 -1.079
5109000000.0 -0.6034 -0.9077
5112000000.0 -1.081 -0.1284
5116000000.0 -0.7856 0.7527
5119000000.0 0.07349 1.059
5122000000.0 0.8448 0.604
5125000000.0 0.9947 -0.22
5128000000.0 0.4159 -0.9219
5131000000.0 -0.442 -0.9106
5134000000.0 -0.9787 -0.2665
5138000000.0 -0.8058 0.6044
5141000000.0 -0.06496 0.9228
5144000000.0 0.7171 0.6507
5147000000.0 0.932 -0.1251
5150000000.0 0.4878 -0.7865
5153000000.0 -0.2879 -0.8913
5156000000.0 -0.8635 -0.3036
5159000000.0 -0.7689 0.4735
5162000000.0 -0.1219 0.9153
5166000000.0 0.6332 0.6362
5169000000.0 0.8919 -0.05629
5172000000.0 0.5204 -0.7228
5175000000.0 -0.2358 -0.8654
5178000000.0 -0.8336 -0.3646
5181000000.0 -0.8292 0.4203
5184000000.0 -0.1692 0.8867
5188000000.0 0.5871 0.7272
5191000000.0 0.9198 -0.03759
5194000000.0 0.5728 -0.722
5197000000.0 -0.213 -0.92
5200000000.0 -0.8791 -0.4151
5203000000.0 -0.8543 0.4074
5206000000.0 -0.1781 0.9192
5209000000.0 0.6197 0.7607
5212000000.0 0.9511 -0.02156
5216000000.0 0.5963 -0.7561
5219000000.0 -0.1983 -0.9839
5222000000.0 -0.8658 -0.4787
5225000000.0 -0.9001 0.3917
5228000000.0 -0.2899 0.9755
5231000000.0 0.5844 0.8511
5234000000.0 1.032 0.08795
5238000000.0 0.703 -0.7221
5241000000.0 -0.1267 -1.043
5244000000.0 -0.902 -0.5446
5247000000.0 -1.02 0.3233
5250000000.0 -0.4001 0.9982
5253000000.0 0.5008 0.928
5256000000.0 1.004 0.1941
5259000000.0 0.8606 -0.6827
5262000000.0 0.03241 -1.095
5266000000.0 -0.8447 -0.7194
5269000000.0 -1.083 0.1499
5272000000.0 -0.5573 0.9491
5275000000.0 0.3422 1.039
5278000000.0 1.041 0.4187
5281000000.0 0.9875 -0.5249
5284000000.0 0.2026 -1.098
5288000000.0 -0.6632 -0.8617
5291000000.0 -1.114 -0.06258
5294000000.0 -0.7585 0.8022
5297000000.0 0.137 1.096
5300000000.0 0.9194 0.6312
5303000000.0 1.07 -0.3343
5306000000.0 0.4708 -0.98
5309000000.0 -0.4975 -1.031
5312000000.0 -1.104 -0.2636
5316000000.0 -0.9235 0.6514
5319000000.0 -0.1222 1.141
5322000000.0 0.8073 0.8072
5325000000.0 1.156 -0.08697
5328000000.0 0.6439 -0.9317
5331000000.0 -0.3257 -1.1
5334000000.0 -1.055 -0.4616
5338000000.0 -1.071 0.5189
5341000000.0 -0.2634 1.114
5344000000.0 0.6896 0.9157
5347000000.0 1.128 0.06675
5350000000.0 0.7477 -0.8174
5353000000.0 -0.1665 -1.072
5356000000.0 -0.9706 -0.5732
5359000000.0 -1.044 0.3608
5362000000.0 -0.3734 1.03
5366000000.0 0.5543 0.9167
5369000000.0 1.071 0.1207
5372000000.0 0.7759 -0.714
5375000000.0 -0.09988 -1.046
5378000000.0 -0.8722 -0.5721
5381000000.0 -0.9723 0.3069
5384000000.0 -0.325 0.9531
5388000000.0 0.4715 0.8174
5391000000.0 0.9921 0.09519
5394000000.0 0.6779 -0.6768
5397000000.0 -0.1172 -0.9396
5400000000.0 -0.7752 -0.4643
5403000000.0 -0.8463 0.3205
5406000000.0 -0.2759 0.8643
5409000000.0 0.488 0.7603
5412000000.0 0.8665 0.09162
5416000000.0 0.6151 -0.6273
5419000000.0 -0.122 -0.8747
5422000000.0 -0.7082 -0.4595
5425000000.0 -0.807 0.3112
5428000000.0 -0.2795 0.8244
5431000000.0 0.4697 0.7107
5434000000.0 0.8897 0.06238
5438000000.0 0.6217 -0.6313
5441000000.0 -0.1211 -0.8716
5444000000.0 -0.7512 -0.4652
5447000000.0 -0.8299 0.3376
5450000000.0 -0.2661 0.8434
5453000000.0 0.4627 0.7329
5456000000.0 0.8658 0.1105
5459000000.0 0.6512 -0.6124
5462000000.0 -0.08541 -0.8665
5466000000.0 -0.7389 -0.5164
5469000000.0 -0.8737 0.2463
5472000000.0 -0.4047 0.8162
5475000000.0 0.3741 0.8238
5478000000.0 0.9052 0.246
5481000000.0 0.7842 -0.5493
5484000000.0 0.08017 -0.9316
5488000000.0 -0.7025 -0.6501
5491000000.0 -0.9893 0.1253
5494000000.0 -0.5445 0.8266
5497000000.0 0.285 0.9555
5500000000.0 0.916 0.4188
5503000000.0 0.9095 -0.4722
5506000000.0 0.2507 -0.9745
5509000000.0 -0.5964 -0.7963
5512000000.0 -1.036 -0.07363
5516000000.0 -0.6934 0.7317
5519000000.0 0.1553 1.009
5522000000.0 0.8599 0.5852
5525000000.0 0.9918 -0.2867
5528000000.0 0.4199 -0.9693
5531000000.0 -0.4463 -0.9636
5534000000.0 -1.013 -0.259
5538000000.0 -0.8824 0.6115
5541000000.0 -0.1171 1.076
5544000000.0 0.7979 0.7545
5547000000.0 1.058 -0.1004
5550000000.0 0.6159 -0.8812
5553000000.0 -0.3059 -1.028
5556000000.0 -0.965 -0.4335
5559000000.0 -0.9575 0.4825
5562000000.0 -0.2728 1.013
5566000000.0 0.6277 0.8081
5569000000.0 1.029 0.07599
5572000000.0 0.6702 -0.7616
5575000000.0 -0.1281 -1.01
5578000000.0 -0.8462 -0.5458
5581000000.0 -0.9446 0.3252
5584000000.0 -0.3485 0.904
5588000000.0 0.4798 0.8707
5591000000.0 0.9573 0.1767
5594000000.0 0.7332 -0.6241
5597000000.0 -0.04695 -0.9533
5600000000.0 -0.7078 -0.5807
5603000000.0 -0.9004 0.1928
5606000000.0 -0.4155 0.8184
5609000000.0 0.3505 0.7929
5612000000.0 0.8627 0.2046
5616000000.0 0.7103 -0.5208
5619000000.0 0.05578 -0.8636
5622000000.0 -0.6259 -0.577
5625000000.0 -0.8388 0.1252
5628000000.0 -0.4292 0.7407
5631000000.0 0.291 0.7696
5634000000.0 0.7948 0.2539
5638000000.0 0.6756 -0.4561
5641000000.0 0.08203 -0.8195
5644000000.0 -0.6083 -0.5626
5647000000.0 -0.841 0.09192
5650000000.0 -0.4517 0.7277
5653000000.0 0.2841 0.8115
5656000000.0 0.8146 0.2685
5659000000.0 0.6932 -0.4768
5662000000.0 0.1078 -0.8544
5666000000.0 -0.6001 -0.6185
5669000000.0 -0.8774 0.08839
5672000000.0 -0.455 0.7528
5675000000.0 0.3162 0.8406
5678000000.0 0.8753 0.3299
5681000000.0 0.7759 -0.5025
5684000000.0 0.1041 -0.9202
5688000000.0 -0.6696 -0.6601
5691000000.0 -0.944 0.09195
5694000000.0 -0.5276 0.7947
5697000000.0 0.2968 0.9425
5700000000.0 0.9076 0.3788
5703000000.0 0.8769 -0.4951
5706000000.0 0.1815 -0.9874
5709000000.0 -0.6364 -0.7399
5712000000.0 -1.027 0.01495
5716000000.0 -0.6296 0.7876
5719000000.0 0.2334 1.033
5722000000.0 0.93 0.4738
5725000000.0 0.9608 -0.4216
5728000000.0 0.2857 -1.039
5731000000.0 -0.5953 -0.8771
5734000000.0 -1.092 -0.1156
5738000000.0 -0.7692 0.769
5741000000.0 0.111 1.104
5744000000.0 0.8925 0.63
5747000000.0 1.059 -0.2812
5750000000.0 0.4562 -1.014
5753000000.0 -0.509 -1.009
5756000000.0 -1.087 -0.2659
5759000000.0 -0.8995 0.6539
5762000000.0 -0.06875 1.095
5766000000.0 0.8045 0.7639
5769000000.0 1.076 -0.1155
5772000000.0 0.5759 -0.9105
5775000000.0 -0.2963 -1.026
5778000000.0 -1.027 -0.423
5781000000.0 -0.9641 0.4934
5784000000.0 -0.2696 1.099
5788000000.0 0.654 0.8599
5791000000.0 1.051 0.05958
5794000000.0 0.7337 -0.794
5797000000.0 -0.1311 -1.065
5800000000.0 -0.9267 -0.5699
5803000000.0 -1.016 0.3314
5806000000.0 -0.3801 0.9935
5809000000.0 0.4884 0.9316
5812000000.0 1.04 0.2112
5816000000.0 0.8072 -0.6589
5819000000.0 -0.00944 -1.009
5822000000.0 -0.8266 -0.6345
5825000000.0 -1.002 0.189
5828000000.0 -0.4419 0.9029
5831000000.0 0.3931 0.9087
5834000000.0 0.9597 0.296
5838000000.0 0.7807 -0.5639
5841000000.0 0.06677 -0.9585
5844000000.0 -0.696 -0.6741
5847000000.0 -0.9694 0.1491
5850000000.0 -0.4913 0.7772
5853000000.0 0.3067 0.8982
5856000000.0 0.8781 0.3042
5859000000.0 0.7792 -0.5043
5862000000.0 0.09995 -0.9209
5866000000.0 -0.6418 -0.654
5869000000.0 -0.9271 0.08896
5872000000.0 -0.5042 0.7859
5875000000.0 0.2812 0.8292
5878000000.0 0.7958 0.287
5881000000.0 0.7647 -0.4628
5884000000.0 0.1213 -0.8759
5888000000.0 -0.5958 -0.6483
5891000000.0 -0.8556 0.07013
5894000000.0 -0.4862 0.7334
5897000000.0 0.2522 0.8251
5900000000.0 0.8088 0.3297
5903000000.0 0.7367 -0.4185
5906000000.0 0.1598 -0.8646
5909000000.0 -0.5255 -0.6897
5912000000.0 -0.8558 -0.009114
5916000000.0 -0.5282 0.6868
5919000000.0 0.2162 0.8482
5922000000.0 0.7812 0.4292
5925000000.0 0.7922 -0.3383
5928000000.0 0.238 -0.8526
5931000000.0 -0.4993 -0.7457
5934000000.0 -0.8699 -0.1114
5938000000.0 -0.6068 0.6228
5941000000.0 0.06828 0.8878
5944000000.0 0.7268 0.5019
5947000000.0 0.8584 -0.2158
5950000000.0 0.3694 -0.8261
5953000000.0 -0.4077 -0.8544
5956000000.0 -0.8748 -0.2194
5959000000.0 -0.7298 0.5562
5962000000.0 -0.07021 0.9115
5966000000.0 0.6808 0.6683
5969000000.0 0.9482 -0.08705
5972000000.0 0.5224 -0.7817
5975000000.0 -0.2812 -0.9382
5978000000.0 -0.8861 -0.4047
5981000000.0 -0.9018 0.4286
5984000000.0 -0.2434 0.9362
5988000000.0 0.5875 0.775
5991000000.0 0.9881 0.05069
5994000000.0 0.6979 -0.7202
5997000000.0 -0.1497 -0.9795
6000000000.0 -0.8754 -0.5544
6003000000.0 -0.9429 0.289
6006000000.0 -0.3703 0.9387
6009000000.0 0.4943 0.8889
6012000000.0 0.977 0.1664
6016000000.0 0.7518 -0.6526
6019000000.0 -0.02025 -1.001
6022000000.0 -0.7727 -0.5906
6025000000.0 -0.9946 0.1935
6028000000.0 -0.4321 0.8728
6031000000.0 0.3985 0.8941
6034000000.0 0.9735 0.2586
6038000000.0 0.7853 -0.5812
6041000000.0 0.04139 -0.9652
6044000000.0 -0.6768 -0.6557
6047000000.0 -0.9612 0.1446
6050000000.0 -0.5035 0.8328
6053000000.0 0.3282 0.8721
6056000000.0 0.9091 0.3203
6059000000.0 0.7875 -0.4975
6062000000.0 0.1047 -0.9302
6066000000.0 -0.6476 -0.6616
6069000000.0 -0.9147 0.08289
6072000000.0 -0.5005 0.7366
6075000000.0 0.2799 0.8452
6078000000.0 0.8175 0.3356
6081000000.0 0.7746 -0.4113
6084000000.0 0.1553 -0.8536
6088000000.0 -0.6086 -0.6501
6091000000.0 -0.8512 0.02178
6094000000.0 -0.5095 0.6909
6097000000.0 0.1916 0.8291
6100000000.0 0.7645 0.37
6103000000.0 0.7615 -0.3746
6106000000.0 0.194 -0.8356
6109000000.0 -0.5097 -0.6995
6112000000.0 -0.871 -0.02456
6116000000.0 -0.5544 0.6462
6119000000.0 0.1699 0.8489
6122000000.0 0.7745 0.4109
6125000000.0 0.8103 -0.3548
6128000000.0 0.2163 -0.8431
6131000000.0 -0.5375 -0.7148
6134000000.0 -0.8515 -0.03986
6138000000.0 -0.6032 0.6367
6141000000.0 0.1141 0.8433
6144000000.0 0.7597 0.4451
6147000000.0 0.8492 -0.2852
6150000000.0 0.2782 -0.8449
6153000000.0 -0.4971 -0.756
6156000000.0 -0.8915 -0.09812
6159000000.0 -0.6325 0.6361
6162000000.0 0.06717 0.8775
6166000000.0 0.7569 0.5347
6169000000.0 0.8915 -0.2637
6172000000.0 0.4054 -0.8502
6175000000.0 -0.4086 -0.836
6178000000.0 -0.927 -0.2396
6181000000.0 -0.7503 0.596
6184000000.0 -0.01114 0.9563
6188000000.0 0.7337 0.6541
6191000000.0 0.9375 -0.198
6194000000.0 0.4651 -0.8425
6197000000.0 -0.3695 -0.899
6200000000.0 -0.8889 -0.3083
6203000000.0 -0.7953 0.5061
6206000000.0 -0.1149 0.9296
6209000000.0 0.6545 0.6719
6212000000.0 0.903 -0.06759
6216000000.0 0.5153 -0.734
6219000000.0 -0.2181 -0.8708
6222000000.0 -0.8292 -0.3956
6225000000.0 -0.7902 0.3619
6228000000.0 -0.1912 0.8626
6231000000.0 0.5075 0.7382
6234000000.0 0.8885 0.05972
6238000000.0 0.5933 -0.6571
6241000000.0 -0.09961 -0.8825
6244000000.0 -0.7349 -0.4694
6247000000.0 -0.7728 0.2534
6250000000.0 -0.345 0.7901
6253000000.0 0.3793 0.7046
6256000000.0 0.8174 0.1821
6259000000.0 0.6555 -0.4925
6262000000.0 0.04039 -0.818
6266000000.0 -0.5876 -0.5456
