! Created with skrf 1.8.0 (http://scikit-rf.org).
# Hz S RI R 50.0 
!freq ReS11 ImS11
4000000000.0 -0.2798 -1.464
4003000000.0 -1.316 -0.7085
4006000000.0 -1.367 0.5913
4009000000.0 -0.4787 1.434
4012000000.0 0.8189 1.264
4016000000.0 1.53 0.09073
4019000000.0 1.14 -1.116
4022000000.0 -0.1976 -1.556
4025000000.0 -1.346 -0.8296
4028000000.0 -1.561 0.5643
4031000000.0 -0.5256 1.496
4034000000.0 0.8303 1.344
4038000000.0 1.596 0.1355
4041000000.0 1.131 -1.168
4044000000.0 -0.2409 -1.58
4047000000.0 -1.349 -0.8676
4050000000.0 -1.569 0.5447
4053000000.0 -0.5437 1.55
4056000000.0 0.7937 1.388
4059000000.0 1.605 0.2201
4062000000.0 1.191 -1.086
4066000000.0 -0.05877 -1.635
4069000000.0 -1.276 -0.9715
4072000000.0 -1.577 0.3504
4075000000.0 -0.7543 1.494
4078000000.0 0.6678 1.473
4081000000.0 1.603 0.4572
4084000000.0 1.33 -0.9349
4088000000.0 0.1808 -1.613
4091000000.0 -1.118 -1.181
4094000000.0 -1.636 0.1616
4097000000.0 -0.907 1.33
4100000000.0 0.435 1.521
4103000000.0 1.439 0.6156
4106000000.0 1.398 -0.6751
4109000000.0 0.3868 -1.477
4112000000.0 -0.9087 -1.247
4116000000.0 -1.492 -0.1253
4119000000.0 -1.041 1.059
4122000000.0 0.1201 1.492
4125000000.0 1.165 0.8859
4128000000.0 1.422 -0.283
4131000000.0 0.7007 -1.286
4134000000.0 -0.5057 -1.4
4138000000.0 -1.367 -0.5291
4141000000.0 -1.294 0.7253
4144000000.0 -0.2875 1.456
4147000000.0 0.9308 1.142
4150000000.0 1.486 0.06471
4153000000.0 1.005 -1.085
4156000000.0 -0.2091 -1.518
4159000000.0 -1.274 -0.7953
4162000000.0 -1.445 0.4855
4166000000.0 -0.5797 1.398
4169000000.0 0.7004 1.333
4172000000.0 1.453 0.3267
4175000000.0 1.199 -0.9353
4178000000.0 0.05166 -1.495
4181000000.0 -1.097 -1.035
4184000000.0 -1.487 0.2232
4188000000.0 -0.7648 1.261
4191000000.0 0.4867 1.451
4194000000.0 1.41 0.5326
4197000000.0 1.359 -0.7753
4200000000.0 0.2528 -1.526
4203000000.0 -1.079 -1.171
4206000000.0 -1.588 0.1494
4209000000.0 -0.9366 1.355
4212000000.0 0.5062 1.559
4216000000.0 1.573 0.5517
4219000000.0 1.417 -0.8915
4222000000.0 0.1232 -1.634
4225000000.0 -1.23 -1.092
4228000000.0 -1.627 0.337
4231000000.0 -0.7228 1.458
4234000000.0 0.7264 1.464
4238000000.0 1.58 0.3201
4241000000.0 1.185 -1.037
4244000000.0 -0.149 -1.563
4247000000.0 -1.312 -0.8614
4250000000.0 -1.45 0.4784
4253000000.0 -0.4941 1.453
4256000000.0 0.8411 1.251
4259000000.0 1.481 0.1269
4262000000.0 0.9847 -1.081
4266000000.0 -0.251 -1.446
4269000000.0 -1.263 -0.6981
4272000000.0 -1.301 0.587
4275000000.0 -0.3362 1.37
4278000000.0 0.8652 1.13
4281000000.0 1.425 -0.009363
4284000000.0 0.8895 -1.107
4288000000.0 -0.3441 -1.344
4291000000.0 -1.228 -0.5948
4294000000.0 -1.208 0.5472
4297000000.0 -0.3465 1.261
4300000000.0 0.7534 1.067
4303000000.0 1.27 0.08414
4306000000.0 0.9008 -0.9036
4309000000.0 -0.1256 -1.282
4312000000.0 -1.012 -0.7054
4316000000.0 -1.208 0.3443
4319000000.0 -0.5697 1.153
4322000000.0 0.5592 1.15
4325000000.0 1.25 0.3586
4328000000.0 1.121 -0.7642
4331000000.0 0.1541 -1.311
4334000000.0 -0.9333 -1.019
4338000000.0 -1.394 0.1162
4341000000.0 -0.811 1.139
4344000000.0 0.3818 1.376
4347000000.0 1.301 0.5883
4350000000.0 1.29 -0.6117
4353000000.0 0.3293 -1.37
4356000000.0 -0.8298 -1.165
4359000000.0 -1.429 -0.07241
4362000000.0 -0.9891 1.079
4366000000.0 0.1798 1.441
4369000000.0 1.25 0.7538
4372000000.0 1.393 -0.4667
4375000000.0 0.5333 -1.392
4378000000.0 -0.6857 -1.3
4381000000.0 -1.497 -0.2342
4384000000.0 -1.126 0.9973
4388000000.0 0.05821 1.53
4391000000.0 1.239 0.9521
4394000000.0 1.534 -0.3806
4397000000.0 0.6238 -1.429
4400000000.0 -0.7478 -1.399
4403000000.0 -1.546 -0.2883
4406000000.0 -1.165 1.07
4409000000.0 0.1063 1.552
4412000000.0 1.303 0.8581
4416000000.0 1.445 -0.4725
4419000000.0 0.4976 -1.43
4422000000.0 -0.7959 -1.274
4425000000.0 -1.458 -0.1744
4428000000.0 -0.9752 1.029
4431000000.0 0.1896 1.405
4434000000.0 1.241 0.6583
4438000000.0 1.26 -0.5598
4441000000.0 0.3576 -1.295
4444000000.0 -0.8285 -1.08
4447000000.0 -1.328 -0.01161
4450000000.0 -0.823 1.03
4453000000.0 0.3122 1.227
4456000000.0 1.12 0.5181
4459000000.0 1.112 -0.581
4462000000.0 0.1917 -1.212
4466000000.0 -0.8693 -0.8758
4469000000.0 -1.221 0.104
4472000000.0 -0.6379 1.031
4475000000.0 0.3904 1.114
4478000000.0 1.096 0.3706
4481000000.0 0.9927 -0.6246
4484000000.0 0.1067 -1.159
4488000000.0 -0.821 -0.8152
4491000000.0 -1.143 0.1497
4494000000.0 -0.5769 0.958
4497000000.0 0.3935 1.048
4500000000.0 1.108 0.3948
4503000000.0 0.9323 -0.6096
4506000000.0 0.1185 -1.113
4509000000.0 -0.7404 -0.8078
4512000000.0 -1.114 0.1219
4516000000.0 -0.6483 0.9202
4519000000.0 0.3471 1.071
4522000000.0 1.065 0.414
4525000000.0 1.018 -0.5649
4528000000.0 0.2137 -1.123
4531000000.0 -0.7468 -0.9078
4534000000.0 -1.192 -0.008386
4538000000.0 -0.7473 0.9136
4541000000.0 0.196 1.189
4544000000.0 1.061 0.5675
4547000000.0 1.13 -0.4445
4550000000.0 0.3868 -1.154
4553000000.0 -0.6402 -1.054
4556000000.0 -1.216 -0.1647
4559000000.0 -0.9408 0.8351
4562000000.0 0.00572 1.255
4566000000.0 1.003 0.8001
4569000000.0 1.275 -0.2692
4572000000.0 0.6397 -1.155
4575000000.0 -0.4901 -1.223
4578000000.0 -1.264 -0.4305
4581000000.0 -1.135 0.6839
4584000000.0 -0.1783 1.337
4588000000.0 0.9296 1.028
4591000000.0 1.383 -0.04488
4594000000.0 0.8016 -1.104
4597000000.0 -0.3276 -1.355
4600000000.0 -1.276 -0.59
4603000000.0 -1.252 0.6049
4606000000.0 -0.341 1.351
4609000000.0 0.8526 1.156
4612000000.0 1.395 0.03671
4616000000.0 0.9285 -1.039
4619000000.0 -0.2434 -1.388
4622000000.0 -1.199 -0.6771
4625000000.0 -1.28 0.4956
4628000000.0 -0.4362 1.27
4631000000.0 0.7401 1.113
4634000000.0 1.378 0.1395
4638000000.0 0.9425 -0.9589
4641000000.0 -0.1784 -1.344
4644000000.0 -1.141 -0.6756
4647000000.0 -1.232 0.4664
4650000000.0 -0.4291 1.235
4653000000.0 0.7178 1.097
4656000000.0 1.263 0.1165
4659000000.0 0.8535 -0.8979
4662000000.0 -0.1625 -1.223
4666000000.0 -1.038 -0.5834
4669000000.0 -1.119 0.4409
4672000000.0 -0.3129 1.101
4675000000.0 0.635 0.9471
4678000000.0 1.132 0.07028
4681000000.0 0.7628 -0.8011
4684000000.0 -0.1663 -1.082
4688000000.0 -0.9834 -0.5405
4691000000.0 -1.009 0.376
4694000000.0 -0.3235 1.046
4697000000.0 0.6152 0.859
4700000000.0 1.084 0.05643
4703000000.0 0.7199 -0.826
4706000000.0 -0.1787 -1.084
4709000000.0 -0.9352 -0.5534
4712000000.0 -1.024 0.4048
4716000000.0 -0.3218 1.068
4719000000.0 0.6066 0.8514
4722000000.0 1.079 0.09778
4725000000.0 0.6941 -0.8
4728000000.0 -0.1402 -1.042
4731000000.0 -0.9074 -0.5479
4734000000.0 -1.033 0.3726
4738000000.0 -0.3923 1.016
4741000000.0 0.567 0.9313
4744000000.0 1.026 0.1722
4747000000.0 0.8272 -0.6598
4750000000.0 0.009423 -1.091
4753000000.0 -0.8754 -0.6754
4756000000.0 -1.109 0.1869
4759000000.0 -0.5391 0.9815
4762000000.0 0.4192 1.04
4766000000.0 1.088 0.3534
4769000000.0 0.9732 -0.6093
4772000000.0 0.1452 -1.148
4775000000.0 -0.7972 -0.8989
4778000000.0 -1.181 0.02415
4781000000.0 -0.7455 0.9407
4784000000.0 0.2453 1.191
4788000000.0 1.081 0.585
4791000000.0 1.16 -0.4427
4794000000.0 0.3924 -1.194
4797000000.0 -0.6323 -1.092
4800000000.0 -1.301 -0.2083
4803000000.0 -0.9529 0.8171
4806000000.0 -0.01487 1.258
4809000000.0 0.9728 0.8253
4812000000.0 1.279 -0.2173
4816000000.0 0.6665 -1.169
4819000000.0 -0.472 -1.259
4822000000.0 -1.26 -0.4588
4825000000.0 -1.195 0.6947
4828000000.0 -0.1955 1.406
4831000000.0 0.9512 1.013
4834000000.0 1.388 -0.06705
4838000000.0 0.8179 -1.13
4841000000.0 -0.3669 -1.337
4844000000.0 -1.272 -0.5666
4847000000.0 -1.23 0.6301
4850000000.0 -0.2972 1.338
4853000000.0 0.8489 1.074
4856000000.0 1.387 0.01892
4859000000.0 0.8571 -1.023
4862000000.0 -0.2553 -1.309
4866000000.0 -1.163 -0.6118
4869000000.0 -1.207 0.4933
4872000000.0 -0.3467 1.216
4875000000.0 0.7197 1.035
4878000000.0 1.214 0.1153
4881000000.0 0.8422 -0.8994
4884000000.0 -0.1538 -1.186
4888000000.0 -1.032 -0.6005
4891000000.0 -1.108 0.4093
4894000000.0 -0.3862 1.068
4897000000.0 0.587 0.953
4900000000.0 1.087 0.1427
4903000000.0 0.7933 -0.7756
4906000000.0 -0.112 -1.042
4909000000.0 -0.868 -0.5708
4912000000.0 -0.9616 0.2681
4916000000.0 -0.3522 0.9244
4919000000.0 0.4636 0.8535
4922000000.0 0.9308 0.158
4925000000.0 0.7215 -0.6251
4928000000.0 -0.007061 -0.9251
4931000000.0 -0.7243 -0.57
4934000000.0 -0.9288 0.186
4938000000.0 -0.4001 0.8224
4941000000.0 0.363 0.8631
4944000000.0 0.917 0.2551
4947000000.0 0.7851 -0.5404
4950000000.0 0.1084 -0.9367
4953000000.0 -0.6861 -0.655
4956000000.0 -0.9333 0.1267
4959000000.0 -0.4984 0.8296
4962000000.0 0.3102 0.9258
4966000000.0 0.9384 0.3493
4969000000.0 0.8335 -0.5247
4972000000.0 0.1727 -1.001
4975000000.0 -0.6757 -0.7747
4978000000.0 -1.032 0.03958
4981000000.0 -0.6359 0.8445
4984000000.0 0.2146 1.038
4988000000.0 0.9698 0.4906
4991000000.0 1.008 -0.4536
4994000000.0 0.3439 -1.065
4997000000.0 -0.6362 -0.9376
5000000000.0 -1.146 -0.1206
5003000000.0 -0.8316 0.8358
5006000000.0 0.09968 1.175
5009000000.0 0.994 0.6686
5012000000.0 1.171 -0.3132
5016000000.0 0.4951 -1.119
5019000000.0 -0.5631 -1.124
5022000000.0 -1.247 -0.2896
5025000000.0 -0.9747 0.8027
5028000000.0 -0.006787 1.327
5031000000.0 0.9988 0.8383
5034000000.0 1.256 -0.2228
5038000000.0 0.6317 -1.117
5041000000.0 -0.4293 -1.222
5044000000.0 -1.229 -0.4393
5047000000.0 -1.1 0.6515
5050000000.0 -0.2068 1.262
5053000000.0 0.8146 0.9799
5056000000.0 1.305 0.01538
5059000000.0 0.8244 -0.9824
5062000000.0 -0.2517 -1.267
5066000000.0 -1.096 -0.6123
5069000000.0 -1.152 0.4698
5072000000.0 -0.3805 1.218
5075000000.0 0.6835 1.057
5078000000.0 1.246 0.1549
5081000000.0 0.9311 -0.815
5084000000.0 -0.07412 -1.206
5088000000.0 -0.9786 -0.7272
5091000000.0 -1.143 0.2887
5094000000.0 -0.5051 1.043
5097000000.0 0.4325 1.069
5100000000.0 1.05 0.3342
5103000000.0 0.9339 -0.6289
5106000000.0 0.1064 -1.055
5109000000.0 -0.7405 -0.7765
5112000000.0 -1.053 0.0676
5116000000.0 -0.6278 0.8542
5119000000.0 0.2164 0.9765
5122000000.0 0.9218 0.4282
5125000000.0 0.8873 -0.4026
5128000000.0 0.3107 -0.9916
5131000000.0 -0.5554 -0.8076
5134000000.0 -0.9838 -0.05841
5138000000.0 -0.6695 0.6904
5141000000.0 0.1457 0.9616
5144000000.0 0.7883 0.4721
5147000000.0 0.9011 -0.2735
5150000000.0 0.3082 -0.8962
5153000000.0 -0.4618 -0.7583
5156000000.0 -0.9062 -0.1211
5159000000.0 -0.6774 0.6123
5162000000.0 0.09294 0.8718
5166000000.0 0.7128 0.522
5169000000.0 0.8435 -0.2684
5172000000.0 0.3289 -0.7888
5175000000.0 -0.4402 -0.7606
5178000000.0 -0.8947 -0.1924
5181000000.0 -0.6642 0.6106
5184000000.0 0.05521 0.9487
5188000000.0 0.7413 0.5405
5191000000.0 0.8503 -0.2434
5194000000.0 0.3877 -0.8577
5197000000.0 -0.4386 -0.8363
5200000000.0 -0.932 -0.1623
5203000000.0 -0.7004 0.6357
5206000000.0 0.04808 0.9559
5209000000.0 0.7643 0.6185
5212000000.0 0.9446 -0.2502
5216000000.0 0.3991 -0.8681
5219000000.0 -0.4279 -0.9113
5222000000.0 -0.9636 -0.2527
5225000000.0 -0.7718 0.6247
5228000000.0 -0.02603 1.039
5231000000.0 0.7454 0.6719
5234000000.0 0.999 -0.1654
5238000000.0 0.5511 -0.882
5241000000.0 -0.3309 -0.9767
5244000000.0 -1.005 -0.3814
5247000000.0 -0.9328 0.5545
5250000000.0 -0.1854 1.058
5253000000.0 0.7391 0.822
5256000000.0 1.088 -0.02705
5259000000.0 0.6455 -0.8325
5262000000.0 -0.2335 -1.083
5266000000.0 -0.9715 -0.5277
5269000000.0 -1.035 0.3675
5272000000.0 -0.3519 1.026
5275000000.0 0.5747 0.947
5278000000.0 1.099 0.2024
5281000000.0 0.8389 -0.692
5284000000.0 0.00701 -1.1
5288000000.0 -0.862 -0.72
5291000000.0 -1.094 0.1596
5294000000.0 -0.5648 0.9313
5297000000.0 0.3407 1.073
5300000000.0 1.028 0.4454
5303000000.0 0.982 -0.5123
5306000000.0 0.2288 -1.091
5309000000.0 -0.6869 -0.9116
5312000000.0 -1.133 -0.05041
5316000000.0 -0.742 0.8438
5319000000.0 0.1633 1.137
5322000000.0 0.9791 0.6049
5325000000.0 1.044 -0.3626
5328000000.0 0.389 -1.034
5331000000.0 -0.5737 -0.9407
5334000000.0 -1.092 -0.1599
5338000000.0 -0.8508 0.7563
5341000000.0 0.07125 1.113
5344000000.0 0.8785 0.6646
5347000000.0 1.022 -0.2465
5350000000.0 0.4634 -0.9776
5353000000.0 -0.4418 -0.9795
5356000000.0 -1.031 -0.234
5359000000.0 -0.8364 0.6399
5362000000.0 -0.02187 1.046
5366000000.0 0.7697 0.666
5369000000.0 0.9727 -0.22
5372000000.0 0.4097 -0.8972
5375000000.0 -0.4295 -0.9048
5378000000.0 -0.9349 -0.2538
5381000000.0 -0.7435 0.5799
5384000000.0 0.01401 0.9394
5388000000.0 0.7465 0.57
5391000000.0 0.8841 -0.2468
5394000000.0 0.3653 -0.8265
5397000000.0 -0.4226 -0.777
5400000000.0 -0.8758 -0.1601
5403000000.0 -0.6522 0.5889
5406000000.0 0.06526 0.8755
5409000000.0 0.7346 0.4656
5412000000.0 0.8129 -0.2103
5416000000.0 0.3355 -0.8024
5419000000.0 -0.4161 -0.7433
5422000000.0 -0.8561 -0.1706
5425000000.0 -0.6413 0.5551
5428000000.0 0.06239 0.8928
5431000000.0 0.6973 0.5017
5434000000.0 0.8667 -0.2338
5438000000.0 0.3269 -0.8177
5441000000.0 -0.4465 -0.7933
5444000000.0 -0.9214 -0.1496
5447000000.0 -0.7016 0.6013
5450000000.0 0.02717 0.9117
5453000000.0 0.7225 0.5698
5456000000.0 0.8788 -0.2037
5459000000.0 0.4031 -0.8373
5462000000.0 -0.3624 -0.8808
5466000000.0 -0.9037 -0.3026
5469000000.0 -0.7988 0.5215
5472000000.0 -0.1076 0.9808
5475000000.0 0.6606 0.7059
5478000000.0 0.9778 -0.05927
5481000000.0 0.5786 -0.7605
5484000000.0 -0.2128 -0.9731
5488000000.0 -0.8631 -0.4777
5491000000.0 -0.9204 0.4146
5494000000.0 -0.2795 1.012
5497000000.0 0.5576 0.8628
5500000000.0 1.028 0.08966
5503000000.0 0.7277 -0.7485
5506000000.0 -0.09526 -1.042
5509000000.0 -0.8474 -0.6156
5512000000.0 -1.032 0.2561
5516000000.0 -0.4365 0.9362
5519000000.0 0.4464 0.9718
5522000000.0 1.041 0.2693
5525000000.0 0.858 -0.6254
5528000000.0 0.1084 -1.064
5531000000.0 -0.7316 -0.7631
5534000000.0 -1.02 0.05892
5538000000.0 -0.6122 0.8632
5541000000.0 0.2751 1.008
5544000000.0 0.9615 0.4335
5547000000.0 0.9172 -0.4444
5550000000.0 0.2812 -1.017
5553000000.0 -0.624 -0.8486
5556000000.0 -1.036 -0.05753
5559000000.0 -0.6726 0.7321
5562000000.0 0.1392 1.015
5566000000.0 0.8536 0.5284
5569000000.0 0.9448 -0.3655
5572000000.0 0.3328 -0.924
5575000000.0 -0.5122 -0.8216
5578000000.0 -0.9397 -0.1347
5581000000.0 -0.6982 0.6444
5584000000.0 0.02909 0.9577
5588000000.0 0.7398 0.5125
5591000000.0 0.8693 -0.2291
5594000000.0 0.3632 -0.8188
5597000000.0 -0.4094 -0.779
5600000000.0 -0.8273 -0.1579
5603000000.0 -0.6615 0.5645
5606000000.0 0.006087 0.8381
5609000000.0 0.6473 0.5216
5612000000.0 0.8477 -0.1621
5616000000.0 0.3654 -0.7117
5619000000.0 -0.3699 -0.7622
5622000000.0 -0.7682 -0.1913
5625000000.0 -0.6145 0.4945
5628000000.0 -0.002121 0.8304
5631000000.0 0.6185 0.5302
5634000000.0 0.7757 -0.1739
5638000000.0 0.3753 -0.7496
5641000000.0 -0.3467 -0.7441
5644000000.0 -0.8081 -0.1979
5647000000.0 -0.6839 0.4935
5650000000.0 -0.02032 0.8597
5653000000.0 0.6759 0.5251
5656000000.0 0.832 -0.1775
5659000000.0 0.3672 -0.7755
5662000000.0 -0.3589 -0.82
5666000000.0 -0.8506 -0.2291
5669000000.0 -0.7275 0.5699
5672000000.0 -0.04247 0.9082
5675000000.0 0.7243 0.5956
5678000000.0 0.9405 -0.1566
5681000000.0 0.47 -0.8507
5684000000.0 -0.3711 -0.9272
5688000000.0 -0.9562 -0.2727
5691000000.0 -0.8284 0.5457
5694000000.0 -0.08011 1.027
5697000000.0 0.7153 0.7273
5700000000.0 1.023 -0.1264
5703000000.0 0.5315 -0.8683
5706000000.0 -0.3307 -1.016
5709000000.0 -0.9898 -0.3866
5712000000.0 -0.9348 0.5323
5716000000.0 -0.2082 1.05
5719000000.0 0.6929 0.8556
5722000000.0 1.107 -0.0216
5725000000.0 0.6885 -0.8531
5728000000.0 -0.1977 -1.079
5731000000.0 -0.9818 -0.5283
5734000000.0 -1.04 0.3607
5738000000.0 -0.3477 1.07
5741000000.0 0.581 0.9662
5744000000.0 1.107 0.1137
5747000000.0 0.7962 -0.7567
5750000000.0 -0.06936 -1.122
5753000000.0 -0.9174 -0.6705
5756000000.0 -1.066 0.2501
5759000000.0 -0.4853 1.006
5762000000.0 0.4859 0.9987
5766000000.0 1.047 0.2788
5769000000.0 0.8634 -0.6321
5772000000.0 0.05429 -1.069
5775000000.0 -0.78 -0.7484
5778000000.0 -1.115 0.1303
5781000000.0 -0.6026 0.9399
5784000000.0 0.2987 1.009
5788000000.0 0.9989 0.3915
5791000000.0 0.9167 -0.4868
5794000000.0 0.1864 -1.05
5797000000.0 -0.6626 -0.7891
5800000000.0 -1.023 0.00144
5803000000.0 -0.6483 0.8347
5806000000.0 0.2246 0.9772
5809000000.0 0.9114 0.4285
5812000000.0 0.8931 -0.436
5816000000.0 0.2041 -0.9771
5819000000.0 -0.5987 -0.7649
5822000000.0 -0.9886 -0.005829
5825000000.0 -0.6158 0.7692
5828000000.0 0.1867 0.9308
5831000000.0 0.8251 0.4124
5834000000.0 0.8164 -0.4066
5838000000.0 0.2301 -0.9049
5841000000.0 -0.564 -0.6953
5844000000.0 -0.9013 -0.0342
5847000000.0 -0.5696 0.7326
5850000000.0 0.1481 0.8724
5853000000.0 0.8161 0.3912
5856000000.0 0.8123 -0.3791
5859000000.0 0.2035 -0.8788
5862000000.0 -0.5555 -0.6713
5866000000.0 -0.9129 -0.009142
5869000000.0 -0.5317 0.6544
5872000000.0 0.2131 0.8611
5875000000.0 0.7837 0.3419
5878000000.0 0.7566 -0.3574
5881000000.0 0.2383 -0.8396
5884000000.0 -0.5692 -0.6697
5888000000.0 -0.8767 -0.03009
5891000000.0 -0.5155 0.6706
5894000000.0 0.1493 0.8563
5897000000.0 0.7585 0.4165
5900000000.0 0.8129 -0.3265
5903000000.0 0.2639 -0.8529
5906000000.0 -0.5046 -0.7373
5909000000.0 -0.8804 -0.07909
5912000000.0 -0.6395 0.653
5916000000.0 0.07782 0.9301
5919000000.0 0.7806 0.4904
5922000000.0 0.8893 -0.2827
5925000000.0 0.3537 -0.8541
5928000000.0 -0.4353 -0.8087
5931000000.0 -0.9249 -0.1863
5934000000.0 -0.7526 0.6328
5938000000.0 -0.01873 0.9864
5941000000.0 0.7178 0.6075
5944000000.0 0.9289 -0.1857
5947000000.0 0.4686 -0.8534
5950000000.0 -0.4057 -0.906
5953000000.0 -0.9637 -0.3097
5956000000.0 -0.8162 0.5228
5959000000.0 -0.09328 0.9829
5962000000.0 0.7118 0.7294
5966000000.0 1.0 -0.1133
5969000000.0 0.5871 -0.8273
5972000000.0 -0.2931 -0.9606
5975000000.0 -0.983 -0.3831
5978000000.0 -0.8962 0.4946
5981000000.0 -0.2028 1.004
5984000000.0 0.6401 0.7721
5988000000.0 1.033 -0.03681
5991000000.0 0.6499 -0.7681
5994000000.0 -0.2344 -0.9959
5997000000.0 -0.9535 -0.4013
6000000000.0 -0.8791 0.4221
6003000000.0 -0.1986 0.9551
6006000000.0 0.6251 0.7328
6009000000.0 0.9367 -0.0202
6012000000.0 0.5694 -0.7492
6016000000.0 -0.2312 -0.9068
6019000000.0 -0.8538 -0.3886
6022000000.0 -0.8009 0.4229
6025000000.0 -0.1786 0.9
6028000000.0 0.6032 0.6826
6031000000.0 0.9029 -0.02648
6034000000.0 0.5252 -0.6827
6038000000.0 -0.22 -0.8682
6041000000.0 -0.7958 -0.3538
6044000000.0 -0.7634 0.3912
6047000000.0 -0.1637 0.8288
6050000000.0 0.5388 0.6524
6053000000.0 0.8338 -0.03846
6056000000.0 0.5128 -0.6668
6059000000.0 -0.2227 -0.7971
6062000000.0 -0.7657 -0.3031
6066000000.0 -0.7364 0.4147
6069000000.0 -0.1392 0.823
6072000000.0 0.5638 0.615
6075000000.0 0.8406 -0.04073
6078000000.0 0.4655 -0.7078
6081000000.0 -0.2552 -0.8081
6084000000.0 -0.7741 -0.3314
6088000000.0 -0.7522 0.4056
6091000000.0 -0.1436 0.8652
6094000000.0 0.5732 0.6115
6097000000.0 0.8955 -0.04902
6100000000.0 0.5238 -0.7408
6103000000.0 -0.2636 -0.8614
6106000000.0 -0.8753 -0.338
6109000000.0 -0.8074 0.4589
6112000000.0 -0.1514 0.9435
6116000000.0 0.6589 0.7005
6119000000.0 0.9552 -0.06234
6122000000.0 0.5493 -0.7923
6125000000.0 -0.2785 -0.9746
6128000000.0 -0.9368 -0.3291
6131000000.0 -0.8522 0.4843
6134000000.0 -0.1239 0.9766
6138000000.0 0.7265 0.7324
6141000000.0 0.9906 -0.08838
6144000000.0 0.5677 -0.8745
6147000000.0 -0.3121 -0.9508
6150000000.0 -0.9742 -0.3545
6153000000.0 -0.871 0.5121
6156000000.0 -0.1154 1.021
6159000000.0 0.7304 0.7105
6162000000.0 1.001 -0.1195
6166000000.0 0.5503 -0.8455
6169000000.0 -0.3432 -0.9552
6172000000.0 -0.9509 -0.3103
6175000000.0 -0.8482 0.5302
6178000000.0 -0.09711 1.002
6181000000.0 0.7161 0.6858
6184000000.0 1.001 -0.1151
6188000000.0 0.4556 -0.8198
6191000000.0 -0.3622 -0.866
6194000000.0 -0.9298 -0.3159
6197000000.0 -0.7765 0.5128
6200000000.0 -0.05284 0.9048
6203000000.0 0.6369 0.6169
6206000000.0 0.8726 -0.1367
6209000000.0 0.4436 -0.7647
6212000000.0 -0.3465 -0.8407
6216000000.0 -0.8103 -0.1786
6219000000.0 -0.7153 0.531
6222000000.0 -0.04024 0.873
6225000000.0 0.657 0.5487
6228000000.0 0.8389 -0.1631
6231000000.0 0.3303 -0.759
6234000000.0 -0.3839 -0.7587
6238000000.0 -0.8107 -0.1568
6241000000.0 -0.6365 0.5263
6244000000.0 -0.002255 0.812
6247000000.0 0.6633 0.4993
6250000000.0 0.7934 -0.228
6253000000.0 0.3316 -0.7635
6256000000.0 -0.415 -0.7364
6259000000.0 -0.784 -0.1026
6262000000.0 -0.5552 0.6036
