! Created with skrf 1.8.0 (http://scikit-rf.org).
# Hz S RI R 50.0 
!freq ReS11 ImS11
4000000000.0 -0.1569 -1.52
4003000000.0 -1.286 -0.8481
4006000000.0 -1.423 0.4721
4009000000.0 -0.5527 1.436
4012000000.0 0.7968 1.334
4016000000.0 1.54 0.2288
4019000000.0 1.158 -0.9992
4022000000.0 -0.1104 -1.581
4025000000.0 -1.301 -0.9418
4028000000.0 -1.506 0.5106
4031000000.0 -0.6047 1.463
4034000000.0 0.8239 1.402
4038000000.0 1.634 0.2494
4041000000.0 1.225 -1.09
4044000000.0 -0.08744 -1.654
4047000000.0 -1.36 -0.9579
4050000000.0 -1.578 0.4486
4053000000.0 -0.7086 1.517
4056000000.0 0.7531 1.467
4059000000.0 1.58 0.3262
4062000000.0 1.271 -1.021
4066000000.0 0.04618 -1.607
4069000000.0 -1.242 -1.089
4072000000.0 -1.622 0.2625
4075000000.0 -0.8184 1.451
4078000000.0 0.5595 1.548
4081000000.0 1.549 0.5691
4084000000.0 1.437 -0.8474
4088000000.0 0.2346 -1.648
4091000000.0 -1.111 -1.227
4094000000.0 -1.686 0.04978
4097000000.0 -1.004 1.317
4100000000.0 0.3863 1.613
4103000000.0 1.446 0.7397
4106000000.0 1.459 -0.668
4109000000.0 0.4578 -1.505
4112000000.0 -0.8489 -1.322
4116000000.0 -1.547 -0.1968
4119000000.0 -1.163 1.012
4122000000.0 0.03448 1.517
4125000000.0 1.125 0.996
4128000000.0 1.515 -0.2356
4131000000.0 0.8084 -1.253
4134000000.0 -0.4156 -1.442
4138000000.0 -1.356 -0.6005
4141000000.0 -1.36 0.6425
4144000000.0 -0.3951 1.499
4147000000.0 0.8659 1.25
4150000000.0 1.508 0.1525
4153000000.0 1.085 -1.077
4156000000.0 -0.1203 -1.534
4159000000.0 -1.23 -0.8741
4162000000.0 -1.493 0.4037
4166000000.0 -0.6389 1.378
4169000000.0 0.6028 1.394
4172000000.0 1.461 0.4259
4175000000.0 1.279 -0.8373
4178000000.0 0.1509 -1.523
4181000000.0 -1.058 -1.112
4184000000.0 -1.518 0.07285
4188000000.0 -0.905 1.247
4191000000.0 0.3517 1.502
4194000000.0 1.399 0.6587
4197000000.0 1.43 -0.6488
4200000000.0 0.3683 -1.554
4203000000.0 -0.9683 -1.291
4206000000.0 -1.634 -0.06888
4209000000.0 -1.089 1.276
4212000000.0 0.3261 1.636
4216000000.0 1.542 0.7305
4219000000.0 1.529 -0.7447
4222000000.0 0.3727 -1.663
4225000000.0 -1.157 -1.291
4228000000.0 -1.749 0.09106
4231000000.0 -0.9906 1.425
4234000000.0 0.5571 1.613
4238000000.0 1.559 0.5324
4241000000.0 1.355 -0.9263
4244000000.0 0.05566 -1.639
4247000000.0 -1.203 -1.052
4250000000.0 -1.55 0.3027
4253000000.0 -0.6978 1.461
4256000000.0 0.6644 1.436
4259000000.0 1.52 0.3073
4262000000.0 1.179 -0.9968
4266000000.0 -0.07135 -1.523
4269000000.0 -1.268 -0.8376
4272000000.0 -1.447 0.456
4275000000.0 -0.5634 1.411
4278000000.0 0.7695 1.28
4281000000.0 1.43 0.221
4284000000.0 1.009 -1.012
4288000000.0 -0.1301 -1.414
4291000000.0 -1.18 -0.7773
4294000000.0 -1.294 0.3755
4297000000.0 -0.5123 1.277
4300000000.0 0.6496 1.165
4303000000.0 1.317 0.2738
4306000000.0 1.014 -0.8201
4309000000.0 0.02083 -1.325
4312000000.0 -1.024 -0.8614
4316000000.0 -1.285 0.2026
4319000000.0 -0.6792 1.124
4322000000.0 0.3977 1.261
4325000000.0 1.25 0.528
4328000000.0 1.169 -0.6291
4331000000.0 0.2877 -1.319
4334000000.0 -0.8869 -1.121
4338000000.0 -1.43 -0.04877
4341000000.0 -0.9596 1.039
4344000000.0 0.2115 1.419
4347000000.0 1.228 0.7506
4350000000.0 1.373 -0.4768
4353000000.0 0.4932 -1.354
4356000000.0 -0.7198 -1.276
4359000000.0 -1.454 -0.246
4362000000.0 -1.125 0.9641
4366000000.0 0.01281 1.414
4369000000.0 1.15 0.9664
4372000000.0 1.456 -0.2782
4375000000.0 0.7298 -1.32
4378000000.0 -0.5296 -1.393
4381000000.0 -1.463 -0.471
4384000000.0 -1.316 0.8325
4388000000.0 -0.1903 1.551
4391000000.0 1.096 1.135
4394000000.0 1.596 -0.1401
4397000000.0 0.8977 -1.33
4400000000.0 -0.4594 -1.505
4403000000.0 -1.485 -0.5615
4406000000.0 -1.362 0.8032
4409000000.0 -0.1915 1.63
4412000000.0 1.124 1.128
4416000000.0 1.562 -0.1817
4419000000.0 0.8314 -1.316
4422000000.0 -0.5171 -1.45
4425000000.0 -1.438 -0.4651
4428000000.0 -1.262 0.8192
4431000000.0 -0.124 1.486
4434000000.0 1.097 0.9653
4438000000.0 1.431 -0.2468
4441000000.0 0.6792 -1.272
4444000000.0 -0.5645 -1.243
4447000000.0 -1.352 -0.3403
4450000000.0 -1.075 0.842
4453000000.0 0.0001655 1.31
4456000000.0 1.054 0.8103
4459000000.0 1.25 -0.3266
4462000000.0 0.4615 -1.221
4466000000.0 -0.6645 -1.079
4469000000.0 -1.228 -0.1869
4472000000.0 -0.897 0.8119
4475000000.0 0.1504 1.218
4478000000.0 1.026 0.6517
4481000000.0 1.101 -0.4278
4484000000.0 0.3484 -1.12
4488000000.0 -0.649 -0.9778
4491000000.0 -1.154 -0.06826
4494000000.0 -0.7419 0.8293
4497000000.0 0.1684 1.128
4500000000.0 0.992 0.6125
4503000000.0 1.048 -0.383
4506000000.0 0.3314 -1.07
4509000000.0 -0.6333 -0.946
4512000000.0 -1.141 -0.1313
4516000000.0 -0.8128 0.8111
4519000000.0 0.1282 1.134
4522000000.0 0.9521 0.616
4525000000.0 1.083 -0.3329
4528000000.0 0.402 -1.087
4531000000.0 -0.556 -1.019
4534000000.0 -1.169 -0.224
4538000000.0 -0.9038 0.7811
4541000000.0 0.001669 1.196
4544000000.0 0.919 0.7351
4547000000.0 1.174 -0.2456
4550000000.0 0.5674 -1.067
4553000000.0 -0.4247 -1.126
4556000000.0 -1.163 -0.3871
4559000000.0 -1.043 0.6593
4562000000.0 -0.1904 1.25
4566000000.0 0.8224 0.9425
4569000000.0 1.257 -0.06079
4572000000.0 0.841 -1.005
4575000000.0 -0.3102 -1.296
4578000000.0 -1.182 -0.6299
4581000000.0 -1.225 0.4818
4584000000.0 -0.3978 1.277
4588000000.0 0.741 1.124
4591000000.0 1.374 0.1908
4594000000.0 1.003 -0.9539
4597000000.0 -0.08684 -1.371
4600000000.0 -1.148 -0.7858
4603000000.0 -1.357 0.3758
4606000000.0 -0.5756 1.29
4609000000.0 0.6225 1.268
4612000000.0 1.353 0.3268
4616000000.0 1.144 -0.8772
4619000000.0 0.06363 -1.419
4622000000.0 -1.081 -0.8977
4625000000.0 -1.368 0.2663
4628000000.0 -0.7009 1.228
4631000000.0 0.4988 1.298
4634000000.0 1.336 0.4271
4638000000.0 1.148 -0.7809
4641000000.0 0.1356 -1.351
4644000000.0 -1.014 -0.9648
4647000000.0 -1.35 0.1714
4650000000.0 -0.6929 1.154
4653000000.0 0.5001 1.244
4656000000.0 1.249 0.4014
4659000000.0 1.075 -0.7262
4662000000.0 0.08603 -1.255
4666000000.0 -0.9422 -0.8615
4669000000.0 -1.216 0.2243
4672000000.0 -0.5944 1.05
4675000000.0 0.4346 1.091
4678000000.0 1.123 0.3176
4681000000.0 0.9475 -0.6844
4684000000.0 0.06606 -1.152
4688000000.0 -0.8452 -0.7614
4691000000.0 -1.133 0.1592
4694000000.0 -0.5649 0.9781
4697000000.0 0.4062 1.041
4700000000.0 1.067 0.3241
4703000000.0 0.8922 -0.6425
4706000000.0 0.03824 -1.096
4709000000.0 -0.864 -0.6982
4712000000.0 -1.096 0.2254
4716000000.0 -0.5177 0.9722
4719000000.0 0.4616 0.9734
4722000000.0 1.031 0.2835
4725000000.0 0.8601 -0.6204
4728000000.0 0.05368 -1.048
4731000000.0 -0.7717 -0.7074
4734000000.0 -1.04 0.1829
4738000000.0 -0.5416 0.9023
4741000000.0 0.3636 0.9879
4744000000.0 1.007 0.346
4747000000.0 0.9137 -0.5364
4750000000.0 0.1547 -1.094
4753000000.0 -0.7009 -0.8095
4756000000.0 -1.102 0.0398
4759000000.0 -0.6986 0.8613
4762000000.0 0.2491 1.113
4766000000.0 1.001 0.5225
4769000000.0 1.078 -0.4602
4772000000.0 0.3498 -1.11
4775000000.0 -0.62 -0.9785
4778000000.0 -1.175 -0.1487
4781000000.0 -0.8833 0.8366
4784000000.0 0.04252 1.206
4788000000.0 0.9841 0.7171
4791000000.0 1.224 -0.2608
4794000000.0 0.5695 -1.128
4797000000.0 -0.4671 -1.154
4800000000.0 -1.198 -0.3744
4803000000.0 -1.08 0.6518
4806000000.0 -0.1685 1.24
4809000000.0 0.8223 0.9678
4812000000.0 1.301 -0.02798
4816000000.0 0.8182 -1.043
4819000000.0 -0.2755 -1.326
4822000000.0 -1.192 -0.6481
4825000000.0 -1.231 0.5199
4828000000.0 -0.4222 1.316
4831000000.0 0.7799 1.178
4834000000.0 1.403 0.1605
4838000000.0 0.9993 -1.006
4841000000.0 -0.1113 -1.4
4844000000.0 -1.183 -0.7651
4847000000.0 -1.346 0.399
4850000000.0 -0.5283 1.281
4853000000.0 0.6566 1.228
4856000000.0 1.381 0.2407
4859000000.0 1.049 -0.9181
4862000000.0 -0.01001 -1.365
4866000000.0 -1.069 -0.8377
4869000000.0 -1.317 0.2767
4872000000.0 -0.5881 1.184
4875000000.0 0.5327 1.187
4878000000.0 1.282 0.3163
4881000000.0 1.071 -0.7751
4884000000.0 0.03333 -1.292
4888000000.0 -0.9243 -0.824
4891000000.0 -1.183 0.2314
4894000000.0 -0.5808 1.025
4897000000.0 0.4603 1.118
4900000000.0 1.126 0.3338
4903000000.0 0.9534 -0.6266
4906000000.0 0.09594 -1.104
4909000000.0 -0.7784 -0.7717
4912000000.0 -1.059 0.1449
4916000000.0 -0.571 0.9061
4919000000.0 0.3272 0.9519
4922000000.0 0.929 0.3472
4925000000.0 0.8481 -0.4976
4928000000.0 0.1601 -0.9533
4931000000.0 -0.654 -0.7172
4934000000.0 -0.9876 0.04241
4938000000.0 -0.5754 0.7682
4941000000.0 0.2018 0.9368
4944000000.0 0.8469 0.3862
4947000000.0 0.8536 -0.4085
4950000000.0 0.2277 -0.9172
4953000000.0 -0.5631 -0.7649
4956000000.0 -0.9837 -0.04325
4959000000.0 -0.6554 0.729
4962000000.0 0.1431 0.9419
4966000000.0 0.8714 0.5082
4969000000.0 0.9258 -0.3567
4972000000.0 0.3259 -0.9604
4975000000.0 -0.5363 -0.8629
4978000000.0 -1.017 -0.1284
4981000000.0 -0.7354 0.6746
4984000000.0 0.06523 1.05
4988000000.0 0.864 0.6351
4991000000.0 1.065 -0.2506
4994000000.0 0.4938 -1.024
4997000000.0 -0.4552 -1.002
5000000000.0 -1.081 -0.2947
5003000000.0 -0.946 0.6364
5006000000.0 -0.1121 1.169
5009000000.0 0.8566 0.7998
5012000000.0 1.225 -0.1687
5016000000.0 0.6564 -1.031
5019000000.0 -0.3908 -1.2
5022000000.0 -1.182 -0.4727
5025000000.0 -1.095 0.6202
5028000000.0 -0.2419 1.239
5031000000.0 0.8478 0.993
5034000000.0 1.287 0.04015
5038000000.0 0.8464 -0.9989
5041000000.0 -0.2169 -1.33
5044000000.0 -1.126 -0.6404
5047000000.0 -1.21 0.4659
5050000000.0 -0.4395 1.233
5053000000.0 0.6846 1.111
5056000000.0 1.302 0.2338
5059000000.0 0.9866 -0.8364
5062000000.0 -0.01302 -1.323
5066000000.0 -1.054 -0.8339
5069000000.0 -1.258 0.2667
5072000000.0 -0.6291 1.141
5075000000.0 0.4969 1.222
5078000000.0 1.218 0.3507
5081000000.0 1.084 -0.6794
5084000000.0 0.1659 -1.242
5088000000.0 -0.8939 -0.8883
5091000000.0 -1.252 0.04883
5094000000.0 -0.7142 0.9739
5097000000.0 0.2851 1.175
5100000000.0 1.013 0.5327
5103000000.0 1.043 -0.4365
5106000000.0 0.3026 -1.072
5109000000.0 -0.622 -0.9033
5112000000.0 -1.095 -0.1112
5116000000.0 -0.7931 0.7559
5119000000.0 0.03737 1.09
5122000000.0 0.8539 0.6543
5125000000.0 1.017 -0.274
5128000000.0 0.484 -0.9019
5131000000.0 -0.4143 -0.9301
5134000000.0 -0.9521 -0.2626
5138000000.0 -0.8095 0.5896
5141000000.0 -0.04082 0.975
5144000000.0 0.7302 0.6754
5147000000.0 0.9548 -0.1177
5150000000.0 0.5255 -0.7824
5153000000.0 -0.2806 -0.9207
5156000000.0 -0.853 -0.313
5159000000.0 -0.7966 0.4831
5162000000.0 -0.156 0.8928
5166000000.0 0.6061 0.6681
5169000000.0 0.8785 -0.0596
5172000000.0 0.5302 -0.7381
5175000000.0 -0.2513 -0.8959
5178000000.0 -0.8465 -0.4063
5181000000.0 -0.7848 0.4093
5184000000.0 -0.1548 0.8979
5188000000.0 0.5976 0.729
5191000000.0 0.9401 -0.01776
5194000000.0 0.5808 -0.7417
5197000000.0 -0.2386 -0.8973
5200000000.0 -0.8633 -0.3957
5203000000.0 -0.859 0.4424
5206000000.0 -0.2076 0.9546
5209000000.0 0.587 0.7476
5212000000.0 0.9493 -0.01748
5216000000.0 0.6425 -0.7896
5219000000.0 -0.176 -0.9493
5222000000.0 -0.8925 -0.445
5225000000.0 -0.9164 0.4096
5228000000.0 -0.2843 0.9573
5231000000.0 0.5878 0.8296
5234000000.0 1.037 0.06267
5238000000.0 0.7371 -0.7548
5241000000.0 -0.1238 -1.058
5244000000.0 -0.8929 -0.5783
5247000000.0 -1.018 0.3351
5250000000.0 -0.3994 0.9947
5253000000.0 0.5318 0.9546
5256000000.0 1.068 0.1957
5259000000.0 0.8646 -0.6803
5262000000.0 0.02058 -1.1
5266000000.0 -0.8249 -0.7284
5269000000.0 -1.086 0.1884
5272000000.0 -0.5683 0.9155
5275000000.0 0.3492 1.043
5278000000.0 1.008 0.3816
5281000000.0 1.004 -0.5301
5284000000.0 0.2348 -1.086
5288000000.0 -0.6665 -0.9005
5291000000.0 -1.099 -0.02462
5294000000.0 -0.7627 0.8134
5297000000.0 0.1339 1.096
5300000000.0 0.9419 0.6237
5303000000.0 1.108 -0.2925
5306000000.0 0.4963 -1.058
5309000000.0 -0.4533 -1.083
5312000000.0 -1.125 -0.3219
5316000000.0 -0.9444 0.6669
5319000000.0 -0.09226 1.183
5322000000.0 0.7773 0.8206
5325000000.0 1.14 -0.1122
5328000000.0 0.6573 -0.9825
5331000000.0 -0.3011 -1.094
5334000000.0 -1.046 -0.4433
5338000000.0 -1.036 0.4905
5341000000.0 -0.2817 1.122
5344000000.0 0.6895 0.9214
5347000000.0 1.126 0.06528
5350000000.0 0.7704 -0.8319
5353000000.0 -0.1446 -1.103
5356000000.0 -0.9389 -0.5244
5359000000.0 -1.031 0.3772
5362000000.0 -0.391 1.045
5366000000.0 0.5539 0.9437
5369000000.0 1.064 0.1228
5372000000.0 0.7524 -0.755
5375000000.0 -0.09489 -1.027
5378000000.0 -0.8698 -0.5888
5381000000.0 -0.9686 0.3242
5384000000.0 -0.3743 0.9256
5388000000.0 0.5505 0.8337
5391000000.0 0.9837 0.1371
5394000000.0 0.6538 -0.6771
5397000000.0 -0.1028 -0.9386
5400000000.0 -0.8168 -0.4889
5403000000.0 -0.8456 0.3357
5406000000.0 -0.3147 0.844
5409000000.0 0.5006 0.776
5412000000.0 0.8881 0.09408
5416000000.0 0.6315 -0.6208
5419000000.0 -0.09826 -0.878
5422000000.0 -0.7405 -0.4536
5425000000.0 -0.8139 0.2916
5428000000.0 -0.2479 0.8449
5431000000.0 0.4648 0.7234
5434000000.0 0.8775 0.09216
5438000000.0 0.5771 -0.6639
5441000000.0 -0.08996 -0.8567
5444000000.0 -0.7418 -0.4556
5447000000.0 -0.8649 0.3178
5450000000.0 -0.2834 0.8553
5453000000.0 0.4794 0.7508
5456000000.0 0.8875 0.08031
5459000000.0 0.6652 -0.6561
5462000000.0 -0.06378 -0.8862
5466000000.0 -0.7378 -0.5532
5469000000.0 -0.889 0.2666
5472000000.0 -0.3917 0.8245
5475000000.0 0.3675 0.8427
5478000000.0 0.9065 0.2397
5481000000.0 0.7664 -0.5737
5484000000.0 0.05839 -0.9646
5488000000.0 -0.7051 -0.6928
5491000000.0 -1.009 0.077
5494000000.0 -0.5794 0.834
5497000000.0 0.2922 0.984
5500000000.0 0.905 0.4033
5503000000.0 0.9387 -0.4592
5506000000.0 0.2564 -1.012
5509000000.0 -0.6432 -0.8049
5512000000.0 -1.037 -0.04914
5516000000.0 -0.7192 0.788
5519000000.0 0.0985 1.062
5522000000.0 0.8433 0.5765
5525000000.0 0.9903 -0.2955
5528000000.0 0.4351 -0.9613
5531000000.0 -0.4618 -0.9628
5534000000.0 -1.021 -0.2782
5538000000.0 -0.8904 0.6349
5541000000.0 -0.08555 1.07
5544000000.0 0.7622 0.7395
5547000000.0 1.086 -0.1071
5550000000.0 0.6268 -0.8983
5553000000.0 -0.3152 -1.079
5556000000.0 -0.977 -0.4431
5559000000.0 -0.944 0.4814
5562000000.0 -0.2482 1.042
5566000000.0 0.6283 0.8576
5569000000.0 1.038 0.07079
5572000000.0 0.6937 -0.7603
5575000000.0 -0.1339 -0.9829
5578000000.0 -0.8796 -0.5868
5581000000.0 -0.9542 0.3218
5584000000.0 -0.3759 0.9355
5588000000.0 0.4727 0.8652
5591000000.0 0.9709 0.1925
5594000000.0 0.7277 -0.6322
5597000000.0 0.008904 -0.9641
5600000000.0 -0.7301 -0.5751
5603000000.0 -0.8907 0.2001
5606000000.0 -0.4086 0.8477
5609000000.0 0.3653 0.8481
5612000000.0 0.8961 0.2734
5616000000.0 0.7231 -0.5186
5619000000.0 0.04001 -0.8882
5622000000.0 -0.6239 -0.6021
5625000000.0 -0.8791 0.1198
5628000000.0 -0.4392 0.7337
5631000000.0 0.3043 0.7998
5634000000.0 0.7996 0.2792
5638000000.0 0.7132 -0.4648
5641000000.0 0.08005 -0.8317
5644000000.0 -0.6173 -0.5985
5647000000.0 -0.8335 0.1167
5650000000.0 -0.4589 0.7375
5653000000.0 0.2912 0.8029
5656000000.0 0.8347 0.282
5659000000.0 0.7332 -0.4741
5662000000.0 0.1031 -0.8721
5666000000.0 -0.6254 -0.6311
5669000000.0 -0.876 0.09122
5672000000.0 -0.4736 0.7545
5675000000.0 0.2972 0.8546
5678000000.0 0.8791 0.2764
5681000000.0 0.7729 -0.4707
5684000000.0 0.1081 -0.9335
5688000000.0 -0.6625 -0.6963
5691000000.0 -0.9777 0.07406
5694000000.0 -0.5433 0.8087
5697000000.0 0.2915 0.9145
5700000000.0 0.9447 0.3595
5703000000.0 0.89 -0.522
5706000000.0 0.1862 -1.021
5709000000.0 -0.6631 -0.7747
5712000000.0 -1.047 0.01269
5716000000.0 -0.6323 0.8108
5719000000.0 0.2277 1.022
5722000000.0 0.9319 0.4686
5725000000.0 0.9416 -0.4427
5728000000.0 0.3022 -1.027
5731000000.0 -0.6113 -0.8943
5734000000.0 -1.089 -0.08043
5738000000.0 -0.7781 0.7398
5741000000.0 0.1182 1.119
5744000000.0 0.8947 0.6593
5747000000.0 1.091 -0.262
5750000000.0 0.4601 -1.017
5753000000.0 -0.4807 -1.007
5756000000.0 -1.102 -0.2963
5759000000.0 -0.9094 0.688
5762000000.0 -0.05454 1.113
5766000000.0 0.8116 0.7502
5769000000.0 1.116 -0.1049
5772000000.0 0.628 -0.9247
5775000000.0 -0.3277 -1.065
5778000000.0 -1.008 -0.4476
5781000000.0 -1.006 0.5122
5784000000.0 -0.2619 1.116
5788000000.0 0.6342 0.8645
5791000000.0 1.087 0.05979
5794000000.0 0.758 -0.8218
5797000000.0 -0.1727 -1.121
5800000000.0 -0.933 -0.6255
5803000000.0 -1.028 0.3554
5806000000.0 -0.4189 1.016
5809000000.0 0.4923 0.9282
5812000000.0 1.016 0.249
5816000000.0 0.8219 -0.6747
5819000000.0 0.001676 -1.03
5822000000.0 -0.7854 -0.6604
5825000000.0 -1.007 0.2138
5828000000.0 -0.4608 0.8781
5831000000.0 0.3892 0.9285
5834000000.0 0.9947 0.2335
5838000000.0 0.8269 -0.592
5841000000.0 0.05681 -0.9891
5844000000.0 -0.7176 -0.6792
5847000000.0 -0.9842 0.1312
5850000000.0 -0.5083 0.8017
5853000000.0 0.318 0.8953
5856000000.0 0.8818 0.3182
5859000000.0 0.7833 -0.4855
5862000000.0 0.07969 -0.9045
5866000000.0 -0.6887 -0.6619
5869000000.0 -0.9032 0.09096
5872000000.0 -0.4913 0.7733
5875000000.0 0.281 0.8661
5878000000.0 0.8386 0.323
5881000000.0 0.7708 -0.4605
5884000000.0 0.1261 -0.8878
5888000000.0 -0.5853 -0.6615
5891000000.0 -0.8548 0.07876
5894000000.0 -0.4805 0.7042
5897000000.0 0.2557 0.8645
5900000000.0 0.7811 0.3461
5903000000.0 0.7406 -0.4088
5906000000.0 0.1596 -0.8744
5909000000.0 -0.5513 -0.6774
5912000000.0 -0.893 -0.04596
5916000000.0 -0.5761 0.6726
5919000000.0 0.1511 0.8879
5922000000.0 0.7712 0.4055
5925000000.0 0.7981 -0.3422
5928000000.0 0.2809 -0.8805
5931000000.0 -0.4862 -0.724
5934000000.0 -0.89 -0.08718
5938000000.0 -0.6429 0.6262
5941000000.0 0.08076 0.8915
5944000000.0 0.74 0.5371
5947000000.0 0.8807 -0.2409
5950000000.0 0.3739 -0.8175
5953000000.0 -0.3871 -0.8319
5956000000.0 -0.8704 -0.222
5959000000.0 -0.7486 0.5402
5962000000.0 -0.0404 0.9453
5966000000.0 0.661 0.6604
5969000000.0 0.9654 -0.08411
5972000000.0 0.5456 -0.8125
5975000000.0 -0.269 -0.9194
5978000000.0 -0.9161 -0.4255
5981000000.0 -0.8922 0.4441
5984000000.0 -0.2338 0.9632
5988000000.0 0.5922 0.8129
5991000000.0 1.009 0.05227
5994000000.0 0.7124 -0.7581
5997000000.0 -0.1232 -1.033
6000000000.0 -0.8994 -0.5461
6003000000.0 -0.9561 0.2966
6006000000.0 -0.3757 0.9348
6009000000.0 0.452 0.8867
6012000000.0 0.9869 0.1905
6016000000.0 0.791 -0.6462
6019000000.0 -0.01618 -1.015
6022000000.0 -0.7906 -0.6172
6025000000.0 -0.9754 0.1956
6028000000.0 -0.4752 0.8922
6031000000.0 0.4072 0.9153
6034000000.0 0.9578 0.2907
6038000000.0 0.7926 -0.5621
6041000000.0 0.0807 -0.993
6044000000.0 -0.7148 -0.6828
6047000000.0 -0.9412 0.1314
6050000000.0 -0.5031 0.8215
6053000000.0 0.3204 0.9066
6056000000.0 0.8931 0.3175
6059000000.0 0.82 -0.4937
6062000000.0 0.1202 -0.9272
6066000000.0 -0.6204 -0.6888
6069000000.0 -0.924 0.07072
6072000000.0 -0.5049 0.7622
6075000000.0 0.2682 0.8769
6078000000.0 0.8198 0.3606
6081000000.0 0.7899 -0.4084
6084000000.0 0.1673 -0.8595
6088000000.0 -0.5642 -0.6656
6091000000.0 -0.8782 0.03555
6094000000.0 -0.5403 0.6873
6097000000.0 0.1919 0.8555
6100000000.0 0.821 0.3749
6103000000.0 0.7723 -0.3773
6106000000.0 0.2282 -0.835
6109000000.0 -0.5246 -0.6952
6112000000.0 -0.8589 0.002895
6116000000.0 -0.5586 0.6753
6119000000.0 0.1554 0.8688
6122000000.0 0.7715 0.4117
6125000000.0 0.8091 -0.3267
6128000000.0 0.2612 -0.8571
6131000000.0 -0.5024 -0.727
6134000000.0 -0.8972 -0.07456
6138000000.0 -0.5806 0.6613
6141000000.0 0.1218 0.8729
6144000000.0 0.7806 0.4497
6147000000.0 0.8503 -0.3196
6150000000.0 0.3123 -0.8438
6153000000.0 -0.4923 -0.7693
6156000000.0 -0.893 -0.1404
6159000000.0 -0.6691 0.6237
6162000000.0 0.09647 0.9057
6166000000.0 0.7248 0.5488
6169000000.0 0.9112 -0.2383
6172000000.0 0.3825 -0.8544
6175000000.0 -0.4103 -0.8424
6178000000.0 -0.9034 -0.1995
6181000000.0 -0.7337 0.5821
6184000000.0 -0.03174 0.9309
6188000000.0 0.7171 0.6213
6191000000.0 0.9562 -0.1722
6194000000.0 0.4608 -0.8457
6197000000.0 -0.376 -0.8975
6200000000.0 -0.8547 -0.3101
6203000000.0 -0.8047 0.4692
6206000000.0 -0.1439 0.9573
6209000000.0 0.6237 0.674
6212000000.0 0.9115 -0.0209
6216000000.0 0.5488 -0.7488
6219000000.0 -0.2167 -0.911
6222000000.0 -0.8271 -0.4198
6225000000.0 -0.8739 0.4019
6228000000.0 -0.2139 0.8462
6231000000.0 0.5485 0.7419
6234000000.0 0.904 0.06112
6238000000.0 0.648 -0.6346
6241000000.0 -0.1103 -0.9094
6244000000.0 -0.7427 -0.4961
6247000000.0 -0.8576 0.2807
6250000000.0 -0.3156 0.7734
6253000000.0 0.3681 0.7336
6256000000.0 0.8386 0.1857
6259000000.0 0.6532 -0.501
6262000000.0 0.04742 -0.8304
6266000000.0 -0.5955 -0.537
6269000000.0 -0.828 0.09271
