! Created with skrf 1.8.0 (http://scikit-rf.org).
# Hz S RI R 50.0 
!freq ReS11 ImS11
4000000000.0 -0.1589 -1.463
4003000000.0 -1.264 -0.8033
4006000000.0 -1.444 0.5267
4009000000.0 -0.5247 1.401
4012000000.0 0.7478 1.356
4016000000.0 1.494 0.2521
4019000000.0 1.167 -1.038
4022000000.0 -0.1074 -1.578
4025000000.0 -1.297 -0.8696
4028000000.0 -1.557 0.463
4031000000.0 -0.6257 1.498
4034000000.0 0.795 1.381
4038000000.0 1.606 0.2211
4041000000.0 1.199 -1.129
4044000000.0 -0.0876 -1.615
4047000000.0 -1.33 -0.9182
4050000000.0 -1.58 0.4699
4053000000.0 -0.623 1.51
4056000000.0 0.7688 1.486
4059000000.0 1.588 0.283
4062000000.0 1.238 -1.027
4066000000.0 0.02917 -1.569
4069000000.0 -1.241 -1.045
4072000000.0 -1.596 0.3274
4075000000.0 -0.8088 1.436
4078000000.0 0.6026 1.529
4081000000.0 1.534 0.5509
4084000000.0 1.413 -0.8424
4088000000.0 0.2365 -1.642
4091000000.0 -1.105 -1.214
4094000000.0 -1.708 0.06841
4097000000.0 -0.9763 1.279
4100000000.0 0.3613 1.579
4103000000.0 1.46 0.7279
4106000000.0 1.456 -0.5939
4109000000.0 0.4192 -1.51
4112000000.0 -0.8471 -1.296
4116000000.0 -1.511 -0.1974
4119000000.0 -1.116 1.002
4122000000.0 0.00919 1.503
4125000000.0 1.119 0.9725
4128000000.0 1.45 -0.2311
4131000000.0 0.7741 -1.265
4134000000.0 -0.4467 -1.426
4138000000.0 -1.342 -0.6142
4141000000.0 -1.354 0.6396
4144000000.0 -0.3671 1.459
4147000000.0 0.8564 1.25
4150000000.0 1.522 0.137
4153000000.0 1.096 -1.069
4156000000.0 -0.1301 -1.484
4159000000.0 -1.234 -0.8605
4162000000.0 -1.484 0.3994
4166000000.0 -0.6613 1.366
4169000000.0 0.6322 1.359
4172000000.0 1.451 0.4157
4175000000.0 1.249 -0.8363
4178000000.0 0.1688 -1.493
4181000000.0 -1.047 -1.13
4184000000.0 -1.487 0.1062
4188000000.0 -0.9015 1.214
4191000000.0 0.3633 1.469
4194000000.0 1.38 0.6825
4197000000.0 1.398 -0.6678
4200000000.0 0.3601 -1.535
4203000000.0 -0.9739 -1.263
4206000000.0 -1.611 -0.04294
4209000000.0 -1.044 1.297
4212000000.0 0.3466 1.632
4216000000.0 1.501 0.7567
4219000000.0 1.522 -0.7351
4222000000.0 0.3098 -1.644
4225000000.0 -1.143 -1.288
4228000000.0 -1.706 0.1371
4231000000.0 -0.9368 1.423
4234000000.0 0.5518 1.55
4238000000.0 1.533 0.5077
4241000000.0 1.366 -0.9273
4244000000.0 0.09568 -1.629
4247000000.0 -1.194 -1.021
4250000000.0 -1.548 0.3393
4253000000.0 -0.6822 1.408
4256000000.0 0.6885 1.39
4259000000.0 1.494 0.2831
4262000000.0 1.144 -0.9891
4266000000.0 -0.09009 -1.509
4269000000.0 -1.197 -0.8563
4272000000.0 -1.384 0.4473
4275000000.0 -0.5027 1.389
4278000000.0 0.7605 1.26
4281000000.0 1.409 0.1827
4284000000.0 0.9754 -0.9639
4288000000.0 -0.1455 -1.381
4291000000.0 -1.147 -0.7624
4294000000.0 -1.28 0.4282
4297000000.0 -0.5103 1.254
4300000000.0 0.6605 1.17
4303000000.0 1.282 0.23
4306000000.0 0.9962 -0.7975
4309000000.0 0.02378 -1.3
4312000000.0 -0.972 -0.807
4316000000.0 -1.274 0.1873
4319000000.0 -0.6788 1.14
4322000000.0 0.4119 1.224
4325000000.0 1.224 0.4715
4328000000.0 1.171 -0.6292
4331000000.0 0.2965 -1.344
4334000000.0 -0.8677 -1.059
4338000000.0 -1.378 -0.0571
4341000000.0 -0.9426 1.055
4344000000.0 0.2235 1.378
4347000000.0 1.249 0.7609
4350000000.0 1.342 -0.4854
4353000000.0 0.4858 -1.333
4356000000.0 -0.7473 -1.237
4359000000.0 -1.445 -0.2472
4362000000.0 -1.08 0.9584
4366000000.0 -0.001764 1.47
4369000000.0 1.177 0.9467
4372000000.0 1.433 -0.2656
4375000000.0 0.7244 -1.325
4378000000.0 -0.5312 -1.404
4381000000.0 -1.442 -0.4857
4384000000.0 -1.277 0.8203
4388000000.0 -0.1823 1.568
4391000000.0 1.111 1.106
4394000000.0 1.546 -0.1683
4397000000.0 0.8688 -1.315
4400000000.0 -0.4979 -1.492
4403000000.0 -1.497 -0.5333
4406000000.0 -1.346 0.8369
4409000000.0 -0.1636 1.596
4412000000.0 1.116 1.101
4416000000.0 1.555 -0.1724
4419000000.0 0.7908 -1.316
4422000000.0 -0.5263 -1.398
4425000000.0 -1.427 -0.4406
4428000000.0 -1.188 0.8313
4431000000.0 -0.04802 1.463
4434000000.0 1.046 0.9252
4438000000.0 1.414 -0.2808
4441000000.0 0.6405 -1.197
4444000000.0 -0.5678 -1.257
4447000000.0 -1.32 -0.2954
4450000000.0 -1.047 0.88
4453000000.0 0.06199 1.301
4456000000.0 1.037 0.7515
4459000000.0 1.237 -0.3583
4462000000.0 0.4659 -1.195
4466000000.0 -0.6379 -1.087
4469000000.0 -1.252 -0.1268
4472000000.0 -0.8406 0.8787
4475000000.0 0.1568 1.179
4478000000.0 1.044 0.5853
4481000000.0 1.12 -0.4184
4484000000.0 0.3166 -1.095
4488000000.0 -0.6753 -0.9671
4491000000.0 -1.127 -0.06441
4494000000.0 -0.7342 0.8332
4497000000.0 0.2039 1.098
4500000000.0 0.9838 0.5408
4503000000.0 1.023 -0.4073
4506000000.0 0.3182 -1.036
4509000000.0 -0.6101 -0.9094
4512000000.0 -1.123 -0.1112
4516000000.0 -0.7773 0.8121
4519000000.0 0.1629 1.125
4522000000.0 0.9318 0.5848
4525000000.0 1.085 -0.3793
4528000000.0 0.42 -1.076
4531000000.0 -0.5802 -1.032
4534000000.0 -1.159 -0.1878
4538000000.0 -0.8679 0.7661
4541000000.0 0.04499 1.165
4544000000.0 0.913 0.7233
4547000000.0 1.181 -0.2546
4550000000.0 0.5742 -1.082
4553000000.0 -0.4735 -1.115
4556000000.0 -1.156 -0.3494
4559000000.0 -1.027 0.672
4562000000.0 -0.1606 1.224
4566000000.0 0.8569 0.9162
4569000000.0 1.279 -0.03999
4572000000.0 0.7524 -1.014
4575000000.0 -0.2992 -1.27
4578000000.0 -1.184 -0.588
4581000000.0 -1.206 0.5127
4584000000.0 -0.407 1.294
4588000000.0 0.7424 1.111
4591000000.0 1.366 0.1589
4594000000.0 0.9878 -0.9512
4597000000.0 -0.1192 -1.371
4600000000.0 -1.155 -0.7705
4603000000.0 -1.345 0.3942
4606000000.0 -0.5564 1.256
4609000000.0 0.6084 1.244
4612000000.0 1.403 0.2972
4616000000.0 1.069 -0.8921
4619000000.0 0.01201 -1.407
4622000000.0 -1.055 -0.8761
4625000000.0 -1.368 0.2697
4628000000.0 -0.6315 1.232
4631000000.0 0.5437 1.269
4634000000.0 1.329 0.3671
4638000000.0 1.115 -0.7917
4641000000.0 0.07387 -1.333
4644000000.0 -0.9838 -0.9262
4647000000.0 -1.334 0.2003
4650000000.0 -0.6271 1.16
4653000000.0 0.4882 1.217
4656000000.0 1.254 0.3688
4659000000.0 1.037 -0.7378
4662000000.0 0.06123 -1.263
4666000000.0 -0.9384 -0.8231
4669000000.0 -1.191 0.1809
4672000000.0 -0.5771 1.056
4675000000.0 0.5002 1.1
4678000000.0 1.114 0.2817
4681000000.0 0.922 -0.6918
4684000000.0 0.03308 -1.134
4688000000.0 -0.842 -0.7236
4691000000.0 -1.115 0.214
4694000000.0 -0.5336 0.9395
4697000000.0 0.4795 1.02
4700000000.0 1.088 0.2847
4703000000.0 0.8947 -0.6437
4706000000.0 0.05612 -1.106
4709000000.0 -0.8103 -0.6894
4712000000.0 -1.039 0.2095
4716000000.0 -0.4958 0.9593
4719000000.0 0.4693 0.9644
4722000000.0 1.02 0.2389
4725000000.0 0.8018 -0.6426
4728000000.0 0.03676 -1.083
4731000000.0 -0.8054 -0.6891
4734000000.0 -0.9955 0.1715
4738000000.0 -0.5408 0.9028
4741000000.0 0.4066 0.974
4744000000.0 0.9981 0.3401
4747000000.0 0.8926 -0.5676
4750000000.0 0.1492 -1.064
4753000000.0 -0.7339 -0.8035
4756000000.0 -1.103 0.05162
4759000000.0 -0.644 0.8872
4762000000.0 0.2546 1.089
4766000000.0 1.005 0.5327
4769000000.0 1.031 -0.4466
4772000000.0 0.3611 -1.102
4775000000.0 -0.6413 -0.9661
4778000000.0 -1.178 -0.1206
4781000000.0 -0.8559 0.8511
4784000000.0 0.06291 1.174
4788000000.0 0.9627 0.739
4791000000.0 1.186 -0.2622
4794000000.0 0.5723 -1.096
4797000000.0 -0.4877 -1.127
4800000000.0 -1.172 -0.3702
4803000000.0 -1.026 0.6564
4806000000.0 -0.1675 1.228
4809000000.0 0.8412 0.9605
4812000000.0 1.297 -0.03086
4816000000.0 0.8015 -1.031
4819000000.0 -0.2917 -1.279
4822000000.0 -1.174 -0.6192
4825000000.0 -1.225 0.5371
4828000000.0 -0.3726 1.321
4831000000.0 0.7979 1.132
4834000000.0 1.361 0.1476
4838000000.0 0.9698 -0.985
4841000000.0 -0.1281 -1.387
4844000000.0 -1.165 -0.76
4847000000.0 -1.331 0.4289
4850000000.0 -0.5454 1.301
4853000000.0 0.6675 1.217
4856000000.0 1.338 0.248
4859000000.0 1.002 -0.8799
4862000000.0 -0.02577 -1.373
4866000000.0 -1.065 -0.8186
4869000000.0 -1.314 0.2943
4872000000.0 -0.5825 1.174
4875000000.0 0.546 1.185
4878000000.0 1.261 0.2957
4881000000.0 1.038 -0.7764
4884000000.0 0.03031 -1.275
4888000000.0 -0.9555 -0.7963
4891000000.0 -1.191 0.1988
4894000000.0 -0.5608 1.057
4897000000.0 0.4614 1.07
4900000000.0 1.092 0.3426
4903000000.0 0.8985 -0.6403
4906000000.0 0.08709 -1.091
4909000000.0 -0.793 -0.7378
4912000000.0 -1.054 0.155
4916000000.0 -0.5397 0.8794
4919000000.0 0.349 0.9345
4922000000.0 0.91 0.3346
4925000000.0 0.8349 -0.4819
4928000000.0 0.1715 -0.9664
4931000000.0 -0.6163 -0.7185
4934000000.0 -0.9365 0.05306
4938000000.0 -0.5673 0.7566
4941000000.0 0.2167 0.9169
4944000000.0 0.8447 0.3982
4947000000.0 0.8555 -0.3966
4950000000.0 0.2274 -0.923
4953000000.0 -0.5767 -0.762
4956000000.0 -0.9908 -0.03449
4959000000.0 -0.6433 0.7421
4962000000.0 0.1742 0.9693
4966000000.0 0.8566 0.4804
4969000000.0 0.9353 -0.3623
4972000000.0 0.2963 -0.9568
4975000000.0 -0.5623 -0.8286
4978000000.0 -1.025 -0.1132
4981000000.0 -0.7422 0.7233
4984000000.0 0.08412 1.026
4988000000.0 0.8681 0.6242
4991000000.0 1.036 -0.2932
4994000000.0 0.4885 -0.9973
4997000000.0 -0.4693 -1.011
5000000000.0 -1.114 -0.3052
5003000000.0 -0.9046 0.6628
5006000000.0 -0.09361 1.167
5009000000.0 0.8548 0.807
5012000000.0 1.198 -0.1589
5016000000.0 0.6461 -1.034
5019000000.0 -0.3861 -1.179
5022000000.0 -1.171 -0.455
5025000000.0 -1.115 0.63
5028000000.0 -0.2182 1.25
5031000000.0 0.8291 0.99
5034000000.0 1.276 -0.02477
5038000000.0 0.8301 -0.998
5041000000.0 -0.2415 -1.239
5044000000.0 -1.143 -0.6286
5047000000.0 -1.211 0.4706
5050000000.0 -0.4267 1.232
5053000000.0 0.6539 1.113
5056000000.0 1.291 0.2005
5059000000.0 0.9738 -0.8723
5062000000.0 -0.04899 -1.278
5066000000.0 -1.045 -0.7848
5069000000.0 -1.268 0.2763
5072000000.0 -0.6026 1.161
5075000000.0 0.5059 1.218
5078000000.0 1.219 0.362
5081000000.0 1.075 -0.7335
5084000000.0 0.1545 -1.225
5088000000.0 -0.8124 -0.9124
5091000000.0 -1.193 0.09172
5094000000.0 -0.6747 0.9634
5097000000.0 0.3069 1.138
5100000000.0 1.034 0.4874
5103000000.0 1.023 -0.4513
5106000000.0 0.2704 -1.075
5109000000.0 -0.6339 -0.9318
5112000000.0 -1.077 -0.1043
5116000000.0 -0.7676 0.7298
5119000000.0 0.0427 1.041
5122000000.0 0.8641 0.656
5125000000.0 1.009 -0.2602
5128000000.0 0.4551 -0.9327
5131000000.0 -0.4172 -0.9104
5134000000.0 -0.9637 -0.2555
5138000000.0 -0.7997 0.5712
5141000000.0 -0.04979 0.9628
5144000000.0 0.7157 0.688
5147000000.0 0.9208 -0.1425
5150000000.0 0.4637 -0.7938
5153000000.0 -0.3084 -0.8711
5156000000.0 -0.8736 -0.332
5159000000.0 -0.7932 0.4641
5162000000.0 -0.1191 0.9129
5166000000.0 0.5892 0.6679
5169000000.0 0.9157 -0.1005
5172000000.0 0.5351 -0.7419
5175000000.0 -0.2331 -0.882
5178000000.0 -0.8211 -0.3412
5181000000.0 -0.8074 0.437
5184000000.0 -0.1712 0.9076
5188000000.0 0.5777 0.6815
5191000000.0 0.9299 0.004965
5194000000.0 0.5739 -0.7219
5197000000.0 -0.2256 -0.8912
5200000000.0 -0.8692 -0.3861
5203000000.0 -0.8447 0.4298
5206000000.0 -0.1865 0.9347
5209000000.0 0.6115 0.7421
5212000000.0 0.9748 -0.02299
5216000000.0 0.6175 -0.7675
5219000000.0 -0.2118 -0.9769
5222000000.0 -0.9009 -0.4283
5225000000.0 -0.9258 0.4215
5228000000.0 -0.2769 0.9829
5231000000.0 0.5726 0.8279
5234000000.0 1.019 0.04105
5238000000.0 0.6891 -0.7521
5241000000.0 -0.1607 -1.051
5244000000.0 -0.887 -0.5617
5247000000.0 -0.9876 0.3285
5250000000.0 -0.3689 0.9976
5253000000.0 0.5133 0.9014
5256000000.0 1.071 0.1894
5259000000.0 0.8289 -0.677
5262000000.0 0.02753 -1.088
5266000000.0 -0.827 -0.6778
5269000000.0 -1.09 0.185
5272000000.0 -0.537 0.9317
5275000000.0 0.3563 1.035
5278000000.0 1.029 0.4172
5281000000.0 0.966 -0.5309
5284000000.0 0.2115 -1.078
5288000000.0 -0.6929 -0.8487
5291000000.0 -1.083 -0.01895
5294000000.0 -0.7523 0.8183
5297000000.0 0.1244 1.095
5300000000.0 0.9456 0.63
5303000000.0 1.056 -0.3038
5306000000.0 0.4488 -1.056
5309000000.0 -0.4852 -1.03
5312000000.0 -1.119 -0.2955
5316000000.0 -0.9127 0.6419
5319000000.0 -0.07301 1.159
5322000000.0 0.8081 0.7978
5325000000.0 1.124 -0.09532
5328000000.0 0.6683 -0.9546
5331000000.0 -0.3162 -1.109
5334000000.0 -1.06 -0.4488
5338000000.0 -1.001 0.4922
5341000000.0 -0.2556 1.13
5344000000.0 0.6774 0.8962
5347000000.0 1.148 0.0558
5350000000.0 0.7427 -0.8417
5353000000.0 -0.193 -1.091
5356000000.0 -0.9682 -0.5671
5359000000.0 -1.018 0.3982
5362000000.0 -0.3387 1.043
5366000000.0 0.6099 0.9051
5369000000.0 1.065 0.1101
5372000000.0 0.7389 -0.7478
5375000000.0 -0.1101 -1.006
5378000000.0 -0.8733 -0.5655
5381000000.0 -0.9668 0.3294
5384000000.0 -0.3188 0.9477
5388000000.0 0.5622 0.8215
5391000000.0 0.9646 0.08885
5394000000.0 0.6603 -0.6959
5397000000.0 -0.125 -0.9181
5400000000.0 -0.7954 -0.4833
5403000000.0 -0.8398 0.3272
5406000000.0 -0.2817 0.8286
5409000000.0 0.4999 0.7331
5412000000.0 0.9002 0.06759
5416000000.0 0.5831 -0.64
5419000000.0 -0.1261 -0.8755
5422000000.0 -0.7059 -0.4041
5425000000.0 -0.8156 0.3204
5428000000.0 -0.2596 0.8411
5431000000.0 0.4828 0.7076
5434000000.0 0.8554 0.03875
5438000000.0 0.5749 -0.6199
5441000000.0 -0.1894 -0.8604
5444000000.0 -0.7635 -0.4408
5447000000.0 -0.8292 0.3215
5450000000.0 -0.2544 0.8464
5453000000.0 0.4659 0.7505
5456000000.0 0.9083 0.05363
5459000000.0 0.6388 -0.6463
5462000000.0 -0.08015 -0.872
5466000000.0 -0.7459 -0.5165
5469000000.0 -0.8537 0.2676
5472000000.0 -0.3876 0.8506
5475000000.0 0.4213 0.8365
5478000000.0 0.8718 0.2025
5481000000.0 0.7965 -0.5489
5484000000.0 0.06922 -0.9455
5488000000.0 -0.7269 -0.6916
5491000000.0 -0.9871 0.1071
5494000000.0 -0.5654 0.8158
5497000000.0 0.3303 0.9736
5500000000.0 0.9443 0.3775
5503000000.0 0.8741 -0.478
5506000000.0 0.2266 -1.027
5509000000.0 -0.6382 -0.7936
5512000000.0 -1.027 -0.05867
5516000000.0 -0.697 0.7789
5519000000.0 0.1179 1.043
5522000000.0 0.8948 0.5304
5525000000.0 1.001 -0.3108
5528000000.0 0.4278 -0.9324
5531000000.0 -0.4249 -0.9417
5534000000.0 -1.044 -0.245
5538000000.0 -0.8738 0.6049
5541000000.0 -0.05463 1.069
5544000000.0 0.7741 0.7471
5547000000.0 1.088 -0.1483
5550000000.0 0.6244 -0.8915
5553000000.0 -0.2909 -1.049
5556000000.0 -0.98 -0.3891
5559000000.0 -0.9309 0.457
5562000000.0 -0.2306 1.022
5566000000.0 0.6062 0.8223
5569000000.0 1.045 0.02647
5572000000.0 0.709 -0.7728
5575000000.0 -0.2007 -0.9941
5578000000.0 -0.8359 -0.5454
5581000000.0 -0.9246 0.3467
5584000000.0 -0.3455 0.9487
5588000000.0 0.5182 0.8285
5591000000.0 0.9511 0.1576
5594000000.0 0.7231 -0.6335
5597000000.0 -0.03695 -0.954
5600000000.0 -0.7168 -0.5768
5603000000.0 -0.9008 0.1841
5606000000.0 -0.4117 0.8227
5609000000.0 0.425 0.8074
5612000000.0 0.8755 0.2259
5616000000.0 0.6935 -0.5214
5619000000.0 0.03299 -0.8619
5622000000.0 -0.653 -0.5672
5625000000.0 -0.8525 0.1577
5628000000.0 -0.4038 0.7458
5631000000.0 0.3164 0.7832
5634000000.0 0.8197 0.2577
5638000000.0 0.7021 -0.4913
5641000000.0 0.07788 -0.8149
5644000000.0 -0.6084 -0.5653
5647000000.0 -0.8198 0.1112
5650000000.0 -0.4236 0.7239
5653000000.0 0.2949 0.7786
5656000000.0 0.8202 0.291
5659000000.0 0.7176 -0.4892
5662000000.0 0.06571 -0.8376
5666000000.0 -0.6253 -0.5831
5669000000.0 -0.8575 0.1251
5672000000.0 -0.4683 0.7583
5675000000.0 0.2921 0.8484
5678000000.0 0.8692 0.2756
5681000000.0 0.7704 -0.5021
5684000000.0 0.09501 -0.927
5688000000.0 -0.656 -0.6696
5691000000.0 -0.9401 0.1083
5694000000.0 -0.5159 0.8238
5697000000.0 0.2724 0.9159
5700000000.0 0.9299 0.3205
5703000000.0 0.8783 -0.4905
5706000000.0 0.1495 -0.9782
5709000000.0 -0.6714 -0.7516
5712000000.0 -1.079 0.02755
5716000000.0 -0.6237 0.8349
5719000000.0 0.2385 1.03
5722000000.0 0.9485 0.4463
5725000000.0 0.9779 -0.4178
5728000000.0 0.2567 -1.063
5731000000.0 -0.6157 -0.8768
5734000000.0 -1.101 -0.06378
5738000000.0 -0.7518 0.801
5741000000.0 0.1208 1.116
5744000000.0 0.9389 0.6092
5747000000.0 1.028 -0.3134
5750000000.0 0.4217 -1.016
5753000000.0 -0.5187 -1.006
5756000000.0 -1.109 -0.2799
5759000000.0 -0.8807 0.703
5762000000.0 -0.03464 1.086
5766000000.0 0.7886 0.7534
5769000000.0 1.101 -0.1507
5772000000.0 0.6107 -0.9045
5775000000.0 -0.3501 -1.047
5778000000.0 -1.002 -0.3922
5781000000.0 -0.9741 0.5418
5784000000.0 -0.1825 1.092
5788000000.0 0.6791 0.8778
5791000000.0 1.083 0.01442
5794000000.0 0.7227 -0.8071
5797000000.0 -0.1722 -1.035
5800000000.0 -0.9268 -0.5485
5803000000.0 -1.001 0.3349
5806000000.0 -0.3379 0.9867
5809000000.0 0.5428 0.9119
5812000000.0 1.009 0.1512
5816000000.0 0.7935 -0.6615
5819000000.0 -0.01641 -1.031
5822000000.0 -0.8089 -0.6058
5825000000.0 -0.9819 0.262
5828000000.0 -0.4346 0.8899
5831000000.0 0.4213 0.8935
5834000000.0 0.9476 0.2546
5838000000.0 0.7948 -0.5913
5841000000.0 0.06765 -0.9603
5844000000.0 -0.7174 -0.644
5847000000.0 -0.9818 0.1532
5850000000.0 -0.457 0.832
5853000000.0 0.355 0.8981
5856000000.0 0.8807 0.2831
5859000000.0 0.7758 -0.5207
5862000000.0 0.09966 -0.9329
5866000000.0 -0.6814 -0.606
5869000000.0 -0.9181 0.1318
5872000000.0 -0.4704 0.7804
5875000000.0 0.3196 0.8219
5878000000.0 0.8329 0.2684
5881000000.0 0.7302 -0.4827
5884000000.0 0.1025 -0.8356
5888000000.0 -0.6262 -0.6161
5891000000.0 -0.844 0.0979
5894000000.0 -0.4833 0.7163
5897000000.0 0.2723 0.8295
5900000000.0 0.8204 0.3143
5903000000.0 0.7333 -0.4293
5906000000.0 0.1538 -0.8436
5909000000.0 -0.5651 -0.6348
5912000000.0 -0.8667 -0.005549
5916000000.0 -0.4982 0.6737
5919000000.0 0.1783 0.8489
5922000000.0 0.7985 0.386
5925000000.0 0.7922 -0.3651
5928000000.0 0.2086 -0.8402
5931000000.0 -0.5018 -0.7312
5934000000.0 -0.858 -0.06964
5938000000.0 -0.6321 0.6305
5941000000.0 0.07425 0.8813
5944000000.0 0.75 0.483
5947000000.0 0.8572 -0.2474
5950000000.0 0.3683 -0.8767
5953000000.0 -0.4277 -0.8245
5956000000.0 -0.871 -0.2193
5959000000.0 -0.7075 0.5464
5962000000.0 -0.04346 0.9433
5966000000.0 0.6961 0.6448
5969000000.0 0.9343 -0.1442
5972000000.0 0.5146 -0.8357
5975000000.0 -0.3091 -0.905
5978000000.0 -0.9007 -0.375
5981000000.0 -0.8567 0.4386
5984000000.0 -0.1912 0.9345
5988000000.0 0.6522 0.7693
5991000000.0 1.011 0.0351
5994000000.0 0.682 -0.7696
5997000000.0 -0.1512 -1.012
6000000000.0 -0.8893 -0.5132
6003000000.0 -0.9381 0.3521
6006000000.0 -0.347 0.9099
6009000000.0 0.4925 0.864
6012000000.0 0.9748 0.1449
6016000000.0 0.7377 -0.6656
6019000000.0 -0.0583 -0.9903
6022000000.0 -0.7973 -0.5877
6025000000.0 -0.9372 0.2369
6028000000.0 -0.4016 0.9034
6031000000.0 0.4163 0.8553
6034000000.0 0.9604 0.2439
6038000000.0 0.7986 -0.581
6041000000.0 0.06877 -0.9555
6044000000.0 -0.7144 -0.6602
6047000000.0 -0.9493 0.1564
6050000000.0 -0.4758 0.8382
6053000000.0 0.3384 0.8931
6056000000.0 0.9065 0.2501
6059000000.0 0.7768 -0.521
6062000000.0 0.09703 -0.9343
6066000000.0 -0.6862 -0.6176
6069000000.0 -0.8888 0.09469
6072000000.0 -0.4958 0.7656
6075000000.0 0.3064 0.8591
6078000000.0 0.8248 0.292
6081000000.0 0.778 -0.4386
6084000000.0 0.1278 -0.8308
6088000000.0 -0.5632 -0.6533
6091000000.0 -0.8649 0.06913
6094000000.0 -0.5016 0.7067
6097000000.0 0.2298 0.8318
6100000000.0 0.7688 0.3359
6103000000.0 0.7648 -0.3774
6106000000.0 0.1628 -0.8595
6109000000.0 -0.5367 -0.6538
6112000000.0 -0.8253 0.04113
6116000000.0 -0.5634 0.6783
6119000000.0 0.1737 0.8381
6122000000.0 0.7646 0.3545
6125000000.0 0.7992 -0.3445
6128000000.0 0.2145 -0.8487
6131000000.0 -0.5481 -0.697
6134000000.0 -0.8866 -0.03097
6138000000.0 -0.56 0.6614
6141000000.0 0.1454 0.8531
6144000000.0 0.7464 0.4433
6147000000.0 0.8286 -0.3065
6150000000.0 0.2923 -0.9034
6153000000.0 -0.5114 -0.7382
6156000000.0 -0.9025 -0.0939
6159000000.0 -0.6243 0.6195
6162000000.0 0.06779 0.9136
6166000000.0 0.7549 0.5127
6169000000.0 0.8951 -0.2698
6172000000.0 0.3562 -0.8657
6175000000.0 -0.4441 -0.8114
6178000000.0 -0.9248 -0.1832
6181000000.0 -0.7443 0.5805
6184000000.0 0.007454 0.9702
6188000000.0 0.7178 0.5911
6191000000.0 0.9154 -0.1643
6194000000.0 0.4261 -0.8599
6197000000.0 -0.3883 -0.8716
6200000000.0 -0.8957 -0.2795
6203000000.0 -0.7793 0.517
6206000000.0 -0.0762 0.9337
6209000000.0 0.6809 0.6664
6212000000.0 0.9403 -0.0903
6216000000.0 0.5212 -0.7309
6219000000.0 -0.2463 -0.8856
6222000000.0 -0.8505 -0.3669
6225000000.0 -0.791 0.4507
6228000000.0 -0.1896 0.8903
6231000000.0 0.554 0.7396
6234000000.0 0.8988 0.01428
6238000000.0 0.6036 -0.6796
6241000000.0 -0.1299 -0.8551
6244000000.0 -0.7248 -0.4191
6247000000.0 -0.8208 0.3125
6250000000.0 -0.2872 0.7815
6253000000.0 0.4477 0.7384
6256000000.0 0.8201 0.1683
6259000000.0 0.6337 -0.5419
6262000000.0 -0.00711 -0.8085
6266000000.0 -0.5994 -0.539
