! Created with skrf 1.8.0 (http://scikit-rf.org).
# Hz S RI R 50.0 
!freq ReS11 ImS11
4000000000.0 -0.1962 -1.475
4003000000.0 -1.237 -0.7471
4006000000.0 -1.441 0.5456
4009000000.0 -0.5441 1.399
4012000000.0 0.7462 1.319
4016000000.0 1.54 0.2155
4019000000.0 1.086 -1.061
4022000000.0 -0.124 -1.553
4025000000.0 -1.34 -0.782
4028000000.0 -1.542 0.4742
4031000000.0 -0.5439 1.486
4034000000.0 0.8303 1.352
4038000000.0 1.606 0.2856
4041000000.0 1.159 -1.175
4044000000.0 -0.1134 -1.585
4047000000.0 -1.328 -0.916
4050000000.0 -1.518 0.4747
4053000000.0 -0.6305 1.491
4056000000.0 0.7633 1.369
4059000000.0 1.548 0.3248
4062000000.0 1.225 -1.019
4066000000.0 -0.006923 -1.595
4069000000.0 -1.237 -1.022
4072000000.0 -1.605 0.2795
4075000000.0 -0.7736 1.406
4078000000.0 0.5782 1.53
4081000000.0 1.563 0.502
4084000000.0 1.39 -0.869
4088000000.0 0.2248 -1.643
4091000000.0 -1.114 -1.234
4094000000.0 -1.597 0.08836
4097000000.0 -0.9215 1.287
4100000000.0 0.3966 1.565
4103000000.0 1.451 0.6704
4106000000.0 1.489 -0.6487
4109000000.0 0.4069 -1.509
4112000000.0 -0.8527 -1.265
4116000000.0 -1.508 -0.1777
4119000000.0 -1.123 0.9921
4122000000.0 0.03718 1.5
4125000000.0 1.145 0.9036
4128000000.0 1.427 -0.233
4131000000.0 0.7312 -1.255
4134000000.0 -0.4585 -1.394
4138000000.0 -1.365 -0.5618
4141000000.0 -1.333 0.6675
4144000000.0 -0.3469 1.467
4147000000.0 0.8987 1.222
4150000000.0 1.5 0.1181
4153000000.0 1.096 -1.119
4156000000.0 -0.1552 -1.496
4159000000.0 -1.264 -0.8456
4162000000.0 -1.474 0.3878
4166000000.0 -0.6249 1.396
4169000000.0 0.6681 1.328
4172000000.0 1.446 0.3757
4175000000.0 1.231 -0.8669
4178000000.0 0.1159 -1.469
4181000000.0 -1.053 -1.058
4184000000.0 -1.517 0.1209
4188000000.0 -0.8805 1.207
4191000000.0 0.3959 1.482
4194000000.0 1.398 0.6354
4197000000.0 1.442 -0.6729
4200000000.0 0.341 -1.559
4203000000.0 -0.9779 -1.215
4206000000.0 -1.604 -0.007943
4209000000.0 -1.012 1.249
4212000000.0 0.4157 1.581
4216000000.0 1.511 0.6753
4219000000.0 1.511 -0.7872
4222000000.0 0.2813 -1.644
4225000000.0 -1.164 -1.224
4228000000.0 -1.676 0.1741
4231000000.0 -0.8223 1.403
4234000000.0 0.607 1.538
4238000000.0 1.568 0.4602
4241000000.0 1.29 -0.96
4244000000.0 0.01964 -1.595
4247000000.0 -1.213 -1.004
4250000000.0 -1.481 0.3905
4253000000.0 -0.6486 1.446
4256000000.0 0.7212 1.344
4259000000.0 1.494 0.2366
4262000000.0 1.104 -1.039
4266000000.0 -0.1474 -1.487
4269000000.0 -1.207 -0.8216
4272000000.0 -1.38 0.4902
4275000000.0 -0.5003 1.396
4278000000.0 0.8152 1.224
4281000000.0 1.44 0.169
4284000000.0 0.9759 -1.017
4288000000.0 -0.1912 -1.35
4291000000.0 -1.164 -0.6704
4294000000.0 -1.241 0.4586
4297000000.0 -0.4401 1.229
4300000000.0 0.6359 1.13
4303000000.0 1.277 0.2227
4306000000.0 0.9898 -0.8744
4309000000.0 -0.05404 -1.292
4312000000.0 -1.007 -0.8329
4316000000.0 -1.286 0.216
4319000000.0 -0.637 1.114
4322000000.0 0.437 1.195
4325000000.0 1.218 0.4317
4328000000.0 1.171 -0.6539
4331000000.0 0.222 -1.296
4334000000.0 -0.8602 -1.022
4338000000.0 -1.378 -0.01361
4341000000.0 -0.8659 1.057
4344000000.0 0.2505 1.362
4347000000.0 1.239 0.673
4350000000.0 1.351 -0.4954
4353000000.0 0.4508 -1.368
4356000000.0 -0.7757 -1.244
4359000000.0 -1.45 -0.2023
4362000000.0 -1.08 0.9748
4366000000.0 0.09223 1.453
4369000000.0 1.163 0.8581
4372000000.0 1.454 -0.3045
4375000000.0 0.6382 -1.285
4378000000.0 -0.6162 -1.372
4381000000.0 -1.45 -0.3936
4384000000.0 -1.237 0.8749
4388000000.0 -0.1176 1.536
4391000000.0 1.127 1.082
4394000000.0 1.552 -0.2011
4397000000.0 0.7819 -1.349
4400000000.0 -0.5402 -1.456
4403000000.0 -1.51 -0.4879
4406000000.0 -1.319 0.857
4409000000.0 -0.1324 1.569
4412000000.0 1.155 1.031
4416000000.0 1.497 -0.2927
4419000000.0 0.7215 -1.33
4422000000.0 -0.6078 -1.37
4425000000.0 -1.437 -0.3426
4428000000.0 -1.18 0.9
4431000000.0 -0.008092 1.437
4434000000.0 1.131 0.8602
4438000000.0 1.357 -0.3144
4441000000.0 0.5612 -1.26
4444000000.0 -0.6281 -1.205
4447000000.0 -1.311 -0.2117
4450000000.0 -0.9806 0.8898
4453000000.0 0.0981 1.311
4456000000.0 1.066 0.6908
4459000000.0 1.205 -0.435
4462000000.0 0.4044 -1.177
4466000000.0 -0.6617 -1.015
4469000000.0 -1.248 -0.0416
4472000000.0 -0.7782 0.8821
4475000000.0 0.2082 1.181
4478000000.0 1.052 0.5422
4481000000.0 1.062 -0.4713
4484000000.0 0.2707 -1.144
4488000000.0 -0.6989 -0.9135
4491000000.0 -1.149 -0.03197
4494000000.0 -0.7286 0.8797
4497000000.0 0.2501 1.11
4500000000.0 1.023 0.5054
4503000000.0 1.006 -0.4642
4506000000.0 0.3163 -1.041
4509000000.0 -0.6662 -0.8965
4512000000.0 -1.111 -0.02477
4516000000.0 -0.7434 0.8283
4519000000.0 0.1755 1.106
4522000000.0 1.009 0.5576
4525000000.0 1.039 -0.4043
4528000000.0 0.3764 -1.076
4531000000.0 -0.6156 -0.9907
4534000000.0 -1.137 -0.1346
4538000000.0 -0.8662 0.8043
4541000000.0 0.1017 1.159
4544000000.0 0.9629 0.7013
4547000000.0 1.183 -0.2845
4550000000.0 0.4918 -1.095
4553000000.0 -0.543 -1.081
4556000000.0 -1.161 -0.3045
4559000000.0 -0.9974 0.6998
4562000000.0 -0.1269 1.233
4566000000.0 0.843 0.9063
4569000000.0 1.247 -0.1054
4572000000.0 0.7233 -1.043
4575000000.0 -0.3044 -1.247
4578000000.0 -1.173 -0.5559
4581000000.0 -1.182 0.5558
4584000000.0 -0.329 1.274
4588000000.0 0.7867 1.069
4591000000.0 1.381 0.1053
4594000000.0 0.9423 -0.971
4597000000.0 -0.1954 -1.375
4600000000.0 -1.132 -0.7399
4603000000.0 -1.328 0.4192
4606000000.0 -0.5226 1.283
4609000000.0 0.6642 1.238
4612000000.0 1.366 0.2172
4616000000.0 1.022 -0.9024
4619000000.0 -0.04137 -1.403
4622000000.0 -1.101 -0.8388
4625000000.0 -1.358 0.3062
4628000000.0 -0.6202 1.24
4631000000.0 0.5897 1.213
4634000000.0 1.331 0.2968
4638000000.0 1.096 -0.8408
4641000000.0 0.0004836 -1.358
4644000000.0 -1.049 -0.8542
4647000000.0 -1.31 0.2858
4650000000.0 -0.6039 1.19
4653000000.0 0.5691 1.201
4656000000.0 1.252 0.2979
4659000000.0 1.014 -0.7894
4662000000.0 0.005772 -1.254
4666000000.0 -0.9769 -0.7634
4669000000.0 -1.156 0.2583
4672000000.0 -0.4973 1.061
4675000000.0 0.4906 1.023
4678000000.0 1.112 0.2358
4681000000.0 0.8747 -0.7065
4684000000.0 0.002325 -1.117
4688000000.0 -0.8361 -0.7091
4691000000.0 -1.063 0.2547
4694000000.0 -0.4712 1.005
4697000000.0 0.4445 1.0
4700000000.0 1.09 0.2158
4703000000.0 0.8222 -0.699
4706000000.0 -0.01789 -1.084
4709000000.0 -0.8652 -0.6196
4712000000.0 -1.047 0.2718
4716000000.0 -0.4013 0.966
4719000000.0 0.4885 0.9357
4722000000.0 1.079 0.1984
4725000000.0 0.8127 -0.6467
4728000000.0 -0.00848 -1.031
4731000000.0 -0.8143 -0.5983
4734000000.0 -1.03 0.2106
4738000000.0 -0.4689 0.925
4741000000.0 0.4226 0.9394
4744000000.0 1.01 0.2869
4747000000.0 0.8575 -0.6024
4750000000.0 0.1085 -1.067
4753000000.0 -0.7696 -0.7717
4756000000.0 -1.075 0.115
4759000000.0 -0.6472 0.8989
4762000000.0 0.2676 1.07
4766000000.0 1.015 0.4619
4769000000.0 0.9907 -0.471
4772000000.0 0.2878 -1.113
4775000000.0 -0.6787 -0.9486
4778000000.0 -1.16 -0.06694
4781000000.0 -0.86 0.8404
4784000000.0 0.1257 1.186
4788000000.0 0.9918 0.6756
4791000000.0 1.173 -0.3043
4794000000.0 0.5191 -1.097
4797000000.0 -0.5385 -1.132
4800000000.0 -1.193 -0.326
4803000000.0 -1.012 0.6711
4806000000.0 -0.1227 1.224
4809000000.0 0.8997 0.9237
4812000000.0 1.266 -0.08968
4816000000.0 0.7656 -1.062
4819000000.0 -0.3182 -1.278
4822000000.0 -1.178 -0.5756
4825000000.0 -1.234 0.5732
4828000000.0 -0.3073 1.299
4831000000.0 0.8256 1.102
4834000000.0 1.392 0.08929
4838000000.0 0.9203 -1.02
4841000000.0 -0.2089 -1.386
4844000000.0 -1.183 -0.7267
4847000000.0 -1.32 0.4722
4850000000.0 -0.4624 1.302
4853000000.0 0.7065 1.181
4856000000.0 1.343 0.1868
4859000000.0 1.009 -0.9304
4862000000.0 -0.08636 -1.348
4866000000.0 -1.085 -0.7889
4869000000.0 -1.27 0.3226
4872000000.0 -0.5235 1.202
4875000000.0 0.5646 1.172
4878000000.0 1.255 0.2593
4881000000.0 0.9915 -0.7847
4884000000.0 0.0164 -1.236
4888000000.0 -0.9646 -0.7892
4891000000.0 -1.193 0.2819
4894000000.0 -0.4934 1.047
4897000000.0 0.4673 0.9914
4900000000.0 1.1 0.2659
4903000000.0 0.8698 -0.6876
4906000000.0 0.03459 -1.076
4909000000.0 -0.8034 -0.7038
4912000000.0 -1.003 0.1934
4916000000.0 -0.5161 0.8822
4919000000.0 0.3759 0.9248
4922000000.0 0.9402 0.3038
4925000000.0 0.812 -0.4938
4928000000.0 0.08971 -0.9531
4931000000.0 -0.6433 -0.687
4934000000.0 -0.9403 0.1017
4938000000.0 -0.5254 0.7843
4941000000.0 0.2518 0.8891
4944000000.0 0.8912 0.3835
4947000000.0 0.8199 -0.4408
4950000000.0 0.1724 -0.9414
4953000000.0 -0.5929 -0.7344
4956000000.0 -0.9806 0.01284
4959000000.0 -0.6035 0.7709
4962000000.0 0.1685 0.9348
4966000000.0 0.8653 0.4274
4969000000.0 0.8947 -0.3843
4972000000.0 0.2813 -0.9715
4975000000.0 -0.5793 -0.8155
4978000000.0 -1.023 -0.08324
4981000000.0 -0.7184 0.7555
4984000000.0 0.09839 1.031
4988000000.0 0.8661 0.591
4991000000.0 1.016 -0.3043
4994000000.0 0.4141 -1.007
4997000000.0 -0.5072 -0.993
5000000000.0 -1.116 -0.2401
5003000000.0 -0.906 0.6871
5006000000.0 -0.05439 1.158
5009000000.0 0.9002 0.7789
5012000000.0 1.213 -0.164
5016000000.0 0.6315 -1.048
5019000000.0 -0.4295 -1.16
5022000000.0 -1.202 -0.4286
5025000000.0 -1.079 0.6682
5028000000.0 -0.2046 1.248
5031000000.0 0.8537 0.9329
5034000000.0 1.276 -0.06082
5038000000.0 0.7581 -1.02
5041000000.0 -0.3055 -1.241
5044000000.0 -1.133 -0.5735
5047000000.0 -1.199 0.5003
5050000000.0 -0.3702 1.24
5053000000.0 0.716 1.09
5056000000.0 1.286 0.1637
5059000000.0 0.9488 -0.8598
5062000000.0 -0.09809 -1.288
5066000000.0 -1.056 -0.7701
5069000000.0 -1.247 0.3422
5072000000.0 -0.5745 1.169
5075000000.0 0.5214 1.124
5078000000.0 1.25 0.2984
5081000000.0 1.031 -0.7014
5084000000.0 0.08525 -1.236
5088000000.0 -0.8729 -0.8615
5091000000.0 -1.183 0.1095
5094000000.0 -0.6612 0.982
5097000000.0 0.3235 1.096
5100000000.0 1.003 0.4606
5103000000.0 1.009 -0.4509
5106000000.0 0.2832 -1.07
5109000000.0 -0.6505 -0.8999
5112000000.0 -1.055 -0.05745
5116000000.0 -0.7169 0.762
5119000000.0 0.1385 1.053
5122000000.0 0.8577 0.577
5125000000.0 0.9977 -0.2916
5128000000.0 0.4201 -0.9155
5131000000.0 -0.4792 -0.873
5134000000.0 -0.9718 -0.2241
5138000000.0 -0.7619 0.6384
5141000000.0 -0.006698 0.9695
5144000000.0 0.7467 0.609
5147000000.0 0.9552 -0.1874
5150000000.0 0.4508 -0.8017
5153000000.0 -0.3358 -0.8435
5156000000.0 -0.8576 -0.2779
5159000000.0 -0.7658 0.5402
5162000000.0 -0.06619 0.8903
5166000000.0 0.6402 0.6531
5169000000.0 0.861 -0.102
5172000000.0 0.4816 -0.774
5175000000.0 -0.2628 -0.8369
5178000000.0 -0.8389 -0.3068
5181000000.0 -0.8028 0.4553
5184000000.0 -0.1574 0.9041
5188000000.0 0.6383 0.6654
5191000000.0 0.9161 -0.07296
5194000000.0 0.5188 -0.7779
5197000000.0 -0.2978 -0.9041
5200000000.0 -0.8599 -0.3318
5203000000.0 -0.816 0.4801
5206000000.0 -0.1431 0.9227
5209000000.0 0.6607 0.686
5212000000.0 0.9721 -0.0544
5216000000.0 0.5852 -0.8028
5219000000.0 -0.2434 -0.9375
5222000000.0 -0.8968 -0.3875
5225000000.0 -0.8915 0.4436
5228000000.0 -0.2018 0.9952
5231000000.0 0.6233 0.7832
5234000000.0 1.023 0.00341
5238000000.0 0.6608 -0.807
5241000000.0 -0.1635 -1.053
5244000000.0 -0.9132 -0.496
5247000000.0 -0.9817 0.3881
5250000000.0 -0.3565 1.01
5253000000.0 0.5465 0.9071
5256000000.0 1.041 0.1666
5259000000.0 0.8224 -0.7057
5262000000.0 -0.02616 -1.104
5266000000.0 -0.8347 -0.6887
5269000000.0 -1.055 0.2366
5272000000.0 -0.499 0.9412
5275000000.0 0.401 1.032
5278000000.0 1.051 0.3441
5281000000.0 0.9609 -0.5569
5284000000.0 0.1752 -1.095
5288000000.0 -0.7228 -0.8714
5291000000.0 -1.104 0.005053
5294000000.0 -0.7503 0.8649
5297000000.0 0.1566 1.107
5300000000.0 0.9742 0.5894
5303000000.0 1.061 -0.3334
5306000000.0 0.4151 -1.046
5309000000.0 -0.5339 -0.9947
5312000000.0 -1.095 -0.2435
5316000000.0 -0.8982 0.7126
5319000000.0 -0.06637 1.144
5322000000.0 0.8739 0.7941
5325000000.0 1.143 -0.2086
5328000000.0 0.6047 -0.9878
5331000000.0 -0.3355 -1.058
5334000000.0 -1.057 -0.3892
5338000000.0 -0.994 0.5608
5341000000.0 -0.2143 1.095
5344000000.0 0.7115 0.8556
5347000000.0 1.092 -0.006705
5350000000.0 0.6919 -0.8702
5353000000.0 -0.2352 -1.069
5356000000.0 -0.9908 -0.4755
5359000000.0 -0.9831 0.4527
5362000000.0 -0.2698 1.012
5366000000.0 0.6147 0.8481
5369000000.0 1.055 0.05217
5372000000.0 0.6787 -0.766
5375000000.0 -0.2019 -1.012
5378000000.0 -0.892 -0.4818
5381000000.0 -0.9313 0.4085
5384000000.0 -0.2597 0.9266
5388000000.0 0.5771 0.8015
5391000000.0 0.9427 0.04271
5394000000.0 0.6281 -0.7396
5397000000.0 -0.1834 -0.9178
5400000000.0 -0.7994 -0.4025
5403000000.0 -0.821 0.3719
5406000000.0 -0.2224 0.839
5409000000.0 0.533 0.6839
5412000000.0 0.8715 0.001194
5416000000.0 0.552 -0.6622
5419000000.0 -0.1873 -0.8277
5422000000.0 -0.7553 -0.3813
5425000000.0 -0.7843 0.3614
5428000000.0 -0.1877 0.8302
5431000000.0 0.5386 0.6798
5434000000.0 0.9131 0.00664
5438000000.0 0.5457 -0.6568
5441000000.0 -0.201 -0.8449
5444000000.0 -0.7852 -0.397
5447000000.0 -0.8116 0.3613
5450000000.0 -0.1937 0.8596
5453000000.0 0.5237 0.6726
5456000000.0 0.8812 0.04363
5459000000.0 0.6075 -0.666
5462000000.0 -0.1152 -0.8598
5466000000.0 -0.7479 -0.4582
5469000000.0 -0.8635 0.3087
5472000000.0 -0.3394 0.8567
5475000000.0 0.4716 0.8196
5478000000.0 0.9207 0.2126
5481000000.0 0.7215 -0.6087
5484000000.0 -0.008086 -0.9543
5488000000.0 -0.7285 -0.6304
5491000000.0 -0.9651 0.1694
5494000000.0 -0.4813 0.8732
5497000000.0 0.3438 0.9259
5500000000.0 0.9507 0.3393
5503000000.0 0.9095 -0.5009
5506000000.0 0.1687 -0.9953
5509000000.0 -0.6678 -0.7928
5512000000.0 -1.044 -0.01537
5516000000.0 -0.676 0.7865
5519000000.0 0.1741 1.017
5522000000.0 0.8913 0.5437
5525000000.0 1.006 -0.3429
5528000000.0 0.3596 -0.9891
5531000000.0 -0.5054 -0.916
5534000000.0 -1.05 -0.1884
5538000000.0 -0.8206 0.6817
5541000000.0 -0.07194 1.085
5544000000.0 0.7914 0.7047
5547000000.0 1.077 -0.1487
5550000000.0 0.5612 -0.9353
5553000000.0 -0.34 -1.02
5556000000.0 -1.023 -0.3532
5559000000.0 -0.9031 0.5272
5562000000.0 -0.1681 1.024
5566000000.0 0.6749 0.7799
5569000000.0 1.022 -0.04019
5572000000.0 0.6428 -0.8196
5575000000.0 -0.2317 -0.9826
5578000000.0 -0.8975 -0.4417
5581000000.0 -0.8589 0.371
5584000000.0 -0.2778 0.9549
5588000000.0 0.557 0.7818
5591000000.0 0.962 0.08655
5594000000.0 0.6577 -0.6835
5597000000.0 -0.1226 -0.9218
5600000000.0 -0.766 -0.5022
5603000000.0 -0.8434 0.2829
5606000000.0 -0.2998 0.8149
5609000000.0 0.4292 0.773
5612000000.0 0.8777 0.133
5616000000.0 0.6698 -0.5948
5619000000.0 -0.04205 -0.8384
5622000000.0 -0.6909 -0.4925
5625000000.0 -0.8107 0.2135
5628000000.0 -0.343 0.7854
5631000000.0 0.3653 0.7226
5634000000.0 0.8138 0.1892
5638000000.0 0.6359 -0.5165
5641000000.0 0.0007621 -0.8273
5644000000.0 -0.6606 -0.5159
5647000000.0 -0.8232 0.2071
5650000000.0 -0.3558 0.7313
5653000000.0 0.3652 0.7512
5656000000.0 0.8539 0.1849
5659000000.0 0.6739 -0.5355
5662000000.0 -0.004843 -0.8542
5666000000.0 -0.6608 -0.5424
5669000000.0 -0.8705 0.1968
5672000000.0 -0.3891 0.8054
5675000000.0 0.3604 0.8037
5678000000.0 0.8883 0.2165
5681000000.0 0.7569 -0.5329
5684000000.0 0.04375 -0.9263
5688000000.0 -0.748 -0.6025
5691000000.0 -0.9154 0.1865
5694000000.0 -0.4544 0.8585
5697000000.0 0.402 0.8863
5700000000.0 0.9598 0.3059
5703000000.0 0.8395 -0.5963
5706000000.0 0.0718 -1.036
5709000000.0 -0.7402 -0.7258
5712000000.0 -1.067 0.1187
5716000000.0 -0.5438 0.8734
5719000000.0 0.3596 0.9877
5722000000.0 0.984 0.3988
5725000000.0 0.9026 -0.5053
5728000000.0 0.2023 -1.041
5731000000.0 -0.6489 -0.8312
5734000000.0 -1.108 -0.000915
5738000000.0 -0.6949 0.8275
5741000000.0 0.1768 1.079
5744000000.0 0.9504 0.5315
5747000000.0 1.037 -0.3909
5750000000.0 0.3617 -1.059
5753000000.0 -0.5765 -0.9394
5756000000.0 -1.087 -0.1875
5759000000.0 -0.8471 0.7366
5762000000.0 0.0155 1.128
5766000000.0 0.8499 0.6957
5769000000.0 1.09 -0.2488
5772000000.0 0.4948 -0.9788
5775000000.0 -0.3931 -0.9993
5778000000.0 -1.06 -0.3291
5781000000.0 -0.9181 0.5807
5784000000.0 -0.145 1.101
5788000000.0 0.733 0.7891
5791000000.0 1.071 -0.04582
5794000000.0 0.6679 -0.8585
5797000000.0 -0.2422 -1.022
5800000000.0 -0.9498 -0.4613
5803000000.0 -0.9468 0.452
5806000000.0 -0.282 1.011
5809000000.0 0.6269 0.8646
5812000000.0 1.002 0.05178
5816000000.0 0.723 -0.7366
5819000000.0 -0.1379 -0.9988
5822000000.0 -0.8491 -0.5546
5825000000.0 -0.9469 0.3173
5828000000.0 -0.3356 0.9309
5831000000.0 0.4728 0.8427
5834000000.0 0.9578 0.1945
5838000000.0 0.7337 -0.6263
5841000000.0 -0.03352 -0.9399
5844000000.0 -0.7646 -0.5753
5847000000.0 -0.8902 0.2113
5850000000.0 -0.4026 0.8858
5853000000.0 0.416 0.8149
5856000000.0 0.9 0.1834
5859000000.0 0.7149 -0.5782
5862000000.0 -0.008286 -0.8995
5866000000.0 -0.7216 -0.5121
5869000000.0 -0.8689 0.2001
5872000000.0 -0.4 0.7787
5875000000.0 0.4035 0.7986
5878000000.0 0.8251 0.1945
5881000000.0 0.7183 -0.5364
5884000000.0 0.019 -0.858
5888000000.0 -0.6698 -0.5601
5891000000.0 -0.8178 0.1722
5894000000.0 -0.4082 0.7604
5897000000.0 0.3562 0.7722
5900000000.0 0.8042 0.2476
5903000000.0 0.7328 -0.4936
5906000000.0 0.05461 -0.8447
5909000000.0 -0.6419 -0.5756
5912000000.0 -0.8432 0.1157
5916000000.0 -0.4381 0.7262
5919000000.0 0.2617 0.8226
5922000000.0 0.8142 0.3396
5925000000.0 0.7753 -0.4179
5928000000.0 0.1624 -0.8688
5931000000.0 -0.5727 -0.6598
5934000000.0 -0.8723 0.01829
5938000000.0 -0.5563 0.6771
5941000000.0 0.1699 0.897
5944000000.0 0.7504 0.4156
5947000000.0 0.8525 -0.3643
5950000000.0 0.2641 -0.8916
5953000000.0 -0.4801 -0.7812
5956000000.0 -0.9138 -0.1195
5959000000.0 -0.641 0.6287
5962000000.0 0.03579 0.936
5966000000.0 0.7483 0.5672
5969000000.0 0.9407 -0.1925
5972000000.0 0.4615 -0.8641
5975000000.0 -0.35 -0.9147
5978000000.0 -0.9335 -0.2779
5981000000.0 -0.8072 0.5283
5984000000.0 -0.1403 0.9561
5988000000.0 0.6549 0.7116
5991000000.0 0.9828 -0.05326
5994000000.0 0.5624 -0.8094
5997000000.0 -0.241 -0.9479
6000000000.0 -0.9345 -0.4465
6003000000.0 -0.8964 0.4519
6006000000.0 -0.2574 0.9754
6009000000.0 0.5864 0.7705
6012000000.0 0.9783 0.03105
6016000000.0 0.6646 -0.7266
6019000000.0 -0.131 -0.9769
6022000000.0 -0.8474 -0.4961
6025000000.0 -0.9035 0.3444
6028000000.0 -0.3495 0.9051
6031000000.0 0.4984 0.8443
6034000000.0 0.97 0.1467
6038000000.0 0.6881 -0.6611
6041000000.0 -0.05559 -0.963
6044000000.0 -0.7996 -0.5621
6047000000.0 -0.9094 0.256
6050000000.0 -0.3772 0.862
6053000000.0 0.4518 0.807
6056000000.0 0.9223 0.1797
6059000000.0 0.7161 -0.5729
6062000000.0 -0.005621 -0.9009
6066000000.0 -0.6954 -0.5584
6069000000.0 -0.8796 0.2235
6072000000.0 -0.3551 0.7886
6075000000.0 0.3491 0.7979
6078000000.0 0.8146 0.2164
6081000000.0 0.6888 -0.4884
6084000000.0 0.03982 -0.8457
6088000000.0 -0.6758 -0.548
6091000000.0 -0.8631 0.1637
6094000000.0 -0.4032 0.765
6097000000.0 0.3171 0.8063
6100000000.0 0.7922 0.248
6103000000.0 0.7119 -0.4868
6106000000.0 0.07067 -0.8303
6109000000.0 -0.5994 -0.5832
6112000000.0 -0.8364 0.113
6116000000.0 -0.4453 0.7213
6119000000.0 0.3011 0.8041
6122000000.0 0.8349 0.2769
6125000000.0 0.7361 -0.4761
6128000000.0 0.107 -0.8803
6131000000.0 -0.589 -0.6204
6134000000.0 -0.8769 0.07398
6138000000.0 -0.4946 0.7453
6141000000.0 0.2619 0.8355
6144000000.0 0.7956 0.3451
6147000000.0 0.7726 -0.4035
6150000000.0 0.1881 -0.8778
6153000000.0 -0.6086 -0.697
6156000000.0 -0.89 0.01573
6159000000.0 -0.5981 0.7204
6162000000.0 0.1782 0.9061
6166000000.0 0.8178 0.4457
6169000000.0 0.8727 -0.3983
6172000000.0 0.2622 -0.8816
6175000000.0 -0.5417 -0.776
6178000000.0 -0.9489 -0.05543
6181000000.0 -0.6709 0.6892
6184000000.0 0.1233 0.9553
6188000000.0 0.8385 0.4918
6191000000.0 0.8971 -0.3086
6194000000.0 0.2989 -0.906
6197000000.0 -0.4706 -0.7926
6200000000.0 -0.9492 -0.1464
6203000000.0 -0.6819 0.6349
6206000000.0 0.03235 0.9255
6209000000.0 0.7172 0.5747
6212000000.0 0.9258 -0.2149
6216000000.0 0.4253 -0.836
6219000000.0 -0.3807 -0.8402
6222000000.0 -0.8433 -0.2508
6225000000.0 -0.7451 0.4912
6228000000.0 -0.06766 0.9028
6231000000.0 0.6351 0.6563
6234000000.0 0.8927 -0.06694
6238000000.0 0.4969 -0.7193
6241000000.0 -0.231 -0.8444
6244000000.0 -0.8199 -0.3743
6247000000.0 -0.7723 0.4009
6250000000.0 -0.1913 0.8441
6253000000.0 0.4938 0.6699
6256000000.0 0.786 0.04467
6259000000.0 0.5274 -0.6034
6262000000.0 -0.09782 -0.8274
6266000000.0 -0.6856 -0.4545
