! Created with skrf 1.8.0 (http://scikit-rf.org).
# Hz S RI R 50.0 
!freq ReS11 ImS11
4000000000.0 -0.1472 -1.505
4003000000.0 -1.329 -0.8466
4006000000.0 -1.409 0.4525
4009000000.0 -0.5294 1.472
4012000000.0 0.829 1.347
4016000000.0 1.538 0.2018
4019000000.0 1.138 -1.093
4022000000.0 -0.09774 -1.585
4025000000.0 -1.332 -0.9235
4028000000.0 -1.533 0.5012
4031000000.0 -0.5873 1.512
4034000000.0 0.7874 1.386
4038000000.0 1.626 0.2603
4041000000.0 1.191 -1.115
4044000000.0 -0.09341 -1.666
4047000000.0 -1.339 -0.9647
4050000000.0 -1.585 0.4376
4053000000.0 -0.6586 1.527
4056000000.0 0.7594 1.474
4059000000.0 1.584 0.3871
4062000000.0 1.269 -1.032
4066000000.0 0.0706 -1.611
4069000000.0 -1.265 -1.075
4072000000.0 -1.63 0.2664
4075000000.0 -0.8244 1.443
4078000000.0 0.5857 1.562
4081000000.0 1.569 0.5726
4084000000.0 1.415 -0.8445
4088000000.0 0.2786 -1.629
4091000000.0 -1.102 -1.255
4094000000.0 -1.665 0.1136
4097000000.0 -0.9851 1.347
4100000000.0 0.3874 1.633
4103000000.0 1.436 0.7255
4106000000.0 1.488 -0.6561
4109000000.0 0.4709 -1.501
4112000000.0 -0.8377 -1.312
4116000000.0 -1.511 -0.1919
4119000000.0 -1.157 0.999
4122000000.0 0.02522 1.529
4125000000.0 1.159 0.9757
4128000000.0 1.474 -0.2387
4131000000.0 0.7579 -1.294
4134000000.0 -0.4184 -1.463
4138000000.0 -1.351 -0.6051
4141000000.0 -1.402 0.65
4144000000.0 -0.392 1.49
4147000000.0 0.882 1.22
4150000000.0 1.525 0.1307
4153000000.0 1.088 -1.082
4156000000.0 -0.09494 -1.54
4159000000.0 -1.24 -0.91
4162000000.0 -1.499 0.3881
4166000000.0 -0.6419 1.379
4169000000.0 0.6406 1.405
4172000000.0 1.473 0.4142
4175000000.0 1.279 -0.8273
4178000000.0 0.1747 -1.505
4181000000.0 -1.035 -1.099
4184000000.0 -1.498 0.08762
4188000000.0 -0.9549 1.223
4191000000.0 0.3927 1.521
4194000000.0 1.417 0.7061
4197000000.0 1.441 -0.649
4200000000.0 0.4053 -1.547
4203000000.0 -1.003 -1.314
4206000000.0 -1.651 -0.06285
4209000000.0 -1.094 1.274
4212000000.0 0.3609 1.66
4216000000.0 1.531 0.7374
4219000000.0 1.566 -0.7713
4222000000.0 0.355 -1.665
4225000000.0 -1.09 -1.301
4228000000.0 -1.693 0.1333
4231000000.0 -0.9316 1.429
4234000000.0 0.5211 1.607
4238000000.0 1.604 0.5308
4241000000.0 1.375 -0.9243
4244000000.0 0.09811 -1.617
4247000000.0 -1.209 -1.057
4250000000.0 -1.572 0.2936
4253000000.0 -0.6926 1.401
4256000000.0 0.6908 1.402
4259000000.0 1.532 0.3123
4262000000.0 1.182 -1.027
4266000000.0 -0.07312 -1.509
4269000000.0 -1.21 -0.8767
4272000000.0 -1.435 0.4379
4275000000.0 -0.5333 1.399
4278000000.0 0.7248 1.28
4281000000.0 1.449 0.2209
4284000000.0 1.063 -1.014
4288000000.0 -0.1234 -1.409
4291000000.0 -1.179 -0.8058
4294000000.0 -1.312 0.4392
4297000000.0 -0.5062 1.278
4300000000.0 0.6251 1.172
4303000000.0 1.288 0.2647
4306000000.0 1.021 -0.8
4309000000.0 0.03644 -1.344
4312000000.0 -0.9635 -0.8377
4316000000.0 -1.287 0.1742
4319000000.0 -0.7233 1.1
4322000000.0 0.3881 1.261
4325000000.0 1.249 0.5107
4328000000.0 1.189 -0.6406
4331000000.0 0.2796 -1.354
4334000000.0 -0.8444 -1.095
4338000000.0 -1.405 -0.06109
4341000000.0 -0.9637 1.054
4344000000.0 0.1942 1.425
4347000000.0 1.222 0.7508
4350000000.0 1.36 -0.4721
4353000000.0 0.5139 -1.346
4356000000.0 -0.7571 -1.288
4359000000.0 -1.439 -0.2736
4362000000.0 -1.141 0.9586
4366000000.0 0.02057 1.511
4369000000.0 1.139 0.9563
4372000000.0 1.481 -0.3114
4375000000.0 0.7376 -1.319
4378000000.0 -0.5312 -1.412
4381000000.0 -1.45 -0.4949
4384000000.0 -1.335 0.8408
4388000000.0 -0.19 1.553
4391000000.0 1.079 1.097
4394000000.0 1.594 -0.1234
4397000000.0 0.8822 -1.342
4400000000.0 -0.4859 -1.512
4403000000.0 -1.505 -0.5656
4406000000.0 -1.36 0.8086
4409000000.0 -0.2069 1.608
4412000000.0 1.122 1.101
4416000000.0 1.586 -0.1557
4419000000.0 0.8118 -1.329
4422000000.0 -0.5298 -1.424
4425000000.0 -1.451 -0.4994
4428000000.0 -1.257 0.8832
4431000000.0 -0.1197 1.45
4434000000.0 1.06 0.9952
4438000000.0 1.412 -0.2177
4441000000.0 0.6692 -1.246
4444000000.0 -0.5608 -1.285
4447000000.0 -1.361 -0.3136
4450000000.0 -1.062 0.8522
4453000000.0 0.0269 1.352
4456000000.0 1.058 0.8029
4459000000.0 1.242 -0.3687
4462000000.0 0.5126 -1.172
4466000000.0 -0.657 -1.079
4469000000.0 -1.241 -0.1797
4472000000.0 -0.8582 0.8523
4475000000.0 0.1841 1.223
4478000000.0 1.041 0.6228
4481000000.0 1.091 -0.4126
4484000000.0 0.3858 -1.116
4488000000.0 -0.6134 -0.9793
4491000000.0 -1.161 -0.07531
4494000000.0 -0.7932 0.8556
4497000000.0 0.1754 1.13
4500000000.0 1.016 0.5705
4503000000.0 0.9983 -0.3961
4506000000.0 0.3497 -1.071
4509000000.0 -0.6167 -0.9395
4512000000.0 -1.106 -0.1638
4516000000.0 -0.8291 0.7911
4519000000.0 0.1118 1.136
4522000000.0 0.9658 0.6111
4525000000.0 1.117 -0.3573
4528000000.0 0.425 -1.084
4531000000.0 -0.5611 -1.017
4534000000.0 -1.161 -0.209
4538000000.0 -0.9007 0.7545
4541000000.0 0.003451 1.199
4544000000.0 0.9451 0.7723
4547000000.0 1.198 -0.2242
4550000000.0 0.563 -1.045
4553000000.0 -0.4196 -1.14
4556000000.0 -1.177 -0.3892
4559000000.0 -1.041 0.6421
4562000000.0 -0.1761 1.258
4566000000.0 0.8325 0.9268
4569000000.0 1.26 -0.02623
4572000000.0 0.7821 -0.9909
4575000000.0 -0.2524 -1.28
4578000000.0 -1.145 -0.6394
4581000000.0 -1.247 0.504
4584000000.0 -0.3881 1.278
4588000000.0 0.7448 1.161
4591000000.0 1.349 0.1647
4594000000.0 1.007 -0.9435
4597000000.0 -0.1099 -1.369
4600000000.0 -1.143 -0.8191
4603000000.0 -1.379 0.3699
4606000000.0 -0.5836 1.303
4609000000.0 0.6257 1.278
4612000000.0 1.353 0.3237
4616000000.0 1.09 -0.8462
4619000000.0 0.03794 -1.414
4622000000.0 -1.05 -0.9249
4625000000.0 -1.358 0.247
4628000000.0 -0.6976 1.24
4631000000.0 0.4919 1.337
4634000000.0 1.313 0.3906
4638000000.0 1.143 -0.7688
4641000000.0 0.1309 -1.354
4644000000.0 -1.002 -0.9372
4647000000.0 -1.34 0.1834
4650000000.0 -0.6877 1.161
4653000000.0 0.4805 1.253
4656000000.0 1.254 0.3961
4659000000.0 1.1 -0.717
4662000000.0 0.07124 -1.291
4666000000.0 -0.9271 -0.8503
4669000000.0 -1.222 0.1858
4672000000.0 -0.6239 1.102
4675000000.0 0.4581 1.132
4678000000.0 1.156 0.3192
4681000000.0 0.9324 -0.6266
4684000000.0 0.07355 -1.164
4688000000.0 -0.8625 -0.7344
4691000000.0 -1.113 0.1872
4694000000.0 -0.5613 0.9728
4697000000.0 0.424 1.053
4700000000.0 1.089 0.3077
4703000000.0 0.9028 -0.6438
4706000000.0 0.03469 -1.091
4709000000.0 -0.8299 -0.7144
4712000000.0 -1.093 0.1842
4716000000.0 -0.4878 0.966
4719000000.0 0.4206 0.9527
4722000000.0 1.068 0.276
4725000000.0 0.8522 -0.6793
4728000000.0 0.03391 -1.053
4731000000.0 -0.8149 -0.687
4734000000.0 -1.028 0.1876
4738000000.0 -0.498 0.9129
4741000000.0 0.3669 1.004
4744000000.0 1.002 0.353
4747000000.0 0.9023 -0.56
4750000000.0 0.1741 -1.042
4753000000.0 -0.7203 -0.8072
4756000000.0 -1.094 0.0138
4759000000.0 -0.6696 0.9083
4762000000.0 0.2524 1.097
4766000000.0 0.9858 0.519
4769000000.0 1.068 -0.437
4772000000.0 0.3687 -1.116
4775000000.0 -0.6741 -0.9667
4778000000.0 -1.146 -0.1271
4781000000.0 -0.8803 0.821
4784000000.0 0.0582 1.205
4788000000.0 0.9701 0.7476
4791000000.0 1.19 -0.2943
4794000000.0 0.5822 -1.103
4797000000.0 -0.4658 -1.15
4800000000.0 -1.213 -0.3782
4803000000.0 -1.055 0.6704
4806000000.0 -0.2034 1.256
4809000000.0 0.845 0.963
4812000000.0 1.303 -0.03757
4816000000.0 0.8182 -1.029
4819000000.0 -0.3024 -1.334
4822000000.0 -1.192 -0.6494
4825000000.0 -1.263 0.5324
4828000000.0 -0.4082 1.322
4831000000.0 0.7696 1.166
4834000000.0 1.392 0.1423
4838000000.0 0.9964 -0.9717
4841000000.0 -0.1236 -1.395
4844000000.0 -1.145 -0.7852
4847000000.0 -1.367 0.4107
4850000000.0 -0.55 1.302
4853000000.0 0.6748 1.208
4856000000.0 1.376 0.2629
4859000000.0 1.051 -0.8812
4862000000.0 -0.02083 -1.374
4866000000.0 -1.058 -0.8442
4869000000.0 -1.338 0.2668
4872000000.0 -0.6043 1.189
4875000000.0 0.5572 1.201
4878000000.0 1.27 0.3053
4881000000.0 1.032 -0.7563
4884000000.0 0.06319 -1.276
4888000000.0 -0.9423 -0.8416
4891000000.0 -1.224 0.2033
4894000000.0 -0.5646 1.075
4897000000.0 0.4586 1.101
4900000000.0 1.122 0.3347
4903000000.0 0.9225 -0.6502
4906000000.0 0.1005 -1.118
4909000000.0 -0.7863 -0.7571
4912000000.0 -1.061 0.1127
4916000000.0 -0.5145 0.8963
4919000000.0 0.3352 0.9833
4922000000.0 0.9411 0.3274
4925000000.0 0.8683 -0.4901
4928000000.0 0.1622 -0.9629
4931000000.0 -0.6454 -0.7084
4934000000.0 -0.9528 0.05179
4938000000.0 -0.5737 0.7667
4941000000.0 0.2243 0.9218
4944000000.0 0.865 0.4057
4947000000.0 0.8858 -0.4009
4950000000.0 0.2456 -0.9155
4953000000.0 -0.578 -0.7809
4956000000.0 -0.9766 -0.03831
4959000000.0 -0.6417 0.7379
4962000000.0 0.17 0.9949
4966000000.0 0.8771 0.4932
4969000000.0 0.9158 -0.3511
4972000000.0 0.3143 -0.9571
4975000000.0 -0.5394 -0.8573
4978000000.0 -1.014 -0.1312
4981000000.0 -0.7617 0.7157
4984000000.0 0.06648 1.037
4988000000.0 0.8352 0.6022
4991000000.0 1.049 -0.2573
4994000000.0 0.4763 -0.9915
4997000000.0 -0.4455 -1.025
5000000000.0 -1.087 -0.273
5003000000.0 -0.9402 0.6456
5006000000.0 -0.1022 1.177
5009000000.0 0.8519 0.8202
5012000000.0 1.2 -0.1747
5016000000.0 0.6877 -1.05
5019000000.0 -0.3522 -1.174
5022000000.0 -1.181 -0.4894
5025000000.0 -1.12 0.6154
5028000000.0 -0.2293 1.232
5031000000.0 0.8223 0.9843
5034000000.0 1.284 0.02489
5038000000.0 0.8149 -0.9922
5041000000.0 -0.2257 -1.27
5044000000.0 -1.164 -0.6429
5047000000.0 -1.206 0.4771
5050000000.0 -0.3961 1.203
5053000000.0 0.6798 1.111
5056000000.0 1.308 0.2111
5059000000.0 1.012 -0.8479
5062000000.0 -0.054 -1.321
5066000000.0 -1.024 -0.8175
5069000000.0 -1.292 0.2701
5072000000.0 -0.6166 1.162
5075000000.0 0.4843 1.222
5078000000.0 1.247 0.3913
5081000000.0 1.051 -0.7121
5084000000.0 0.1144 -1.263
5088000000.0 -0.8447 -0.8773
5091000000.0 -1.217 0.04735
5094000000.0 -0.7231 0.9636
5097000000.0 0.3052 1.156
5100000000.0 1.064 0.5036
5103000000.0 1.04 -0.4597
5106000000.0 0.3294 -1.104
5109000000.0 -0.5969 -0.9288
5112000000.0 -1.141 -0.0919
5116000000.0 -0.7986 0.7408
5119000000.0 0.05172 1.092
5122000000.0 0.8168 0.6246
5125000000.0 1.017 -0.2638
5128000000.0 0.4461 -0.9364
5131000000.0 -0.4315 -0.9131
5134000000.0 -0.9639 -0.2518
5138000000.0 -0.8169 0.6053
5141000000.0 -0.03901 0.974
5144000000.0 0.7255 0.6842
5147000000.0 0.948 -0.1309
5150000000.0 0.4687 -0.8123
5153000000.0 -0.2934 -0.9067
5156000000.0 -0.8726 -0.3319
5159000000.0 -0.7921 0.4303
5162000000.0 -0.1482 0.88
5166000000.0 0.6116 0.7046
5169000000.0 0.9163 -0.04628
5172000000.0 0.5432 -0.7365
5175000000.0 -0.2419 -0.8707
5178000000.0 -0.8729 -0.3829
5181000000.0 -0.8322 0.422
5184000000.0 -0.1753 0.919
5188000000.0 0.5938 0.7537
5191000000.0 0.9365 -0.001123
5194000000.0 0.5612 -0.7613
5197000000.0 -0.2233 -0.902
5200000000.0 -0.8598 -0.3964
5203000000.0 -0.8642 0.4377
5206000000.0 -0.1825 0.918
5209000000.0 0.6179 0.76
5212000000.0 0.9746 0.02576
5216000000.0 0.631 -0.7595
5219000000.0 -0.1983 -0.9706
5222000000.0 -0.8991 -0.4441
5225000000.0 -0.911 0.3899
5228000000.0 -0.2914 0.9714
5231000000.0 0.5982 0.8547
5234000000.0 1.065 0.06499
5238000000.0 0.7051 -0.7567
5241000000.0 -0.1117 -1.036
5244000000.0 -0.8859 -0.5902
5247000000.0 -1.026 0.3241
5250000000.0 -0.426 1.002
5253000000.0 0.5063 0.9731
5256000000.0 1.069 0.214
5259000000.0 0.8437 -0.6924
5262000000.0 0.000722 -1.114
5266000000.0 -0.8368 -0.7115
5269000000.0 -1.086 0.1543
5272000000.0 -0.5795 0.9328
5275000000.0 0.353 1.051
5278000000.0 1.023 0.4095
5281000000.0 0.9578 -0.5218
5284000000.0 0.2252 -1.111
5288000000.0 -0.6851 -0.8787
5291000000.0 -1.129 -0.05975
5294000000.0 -0.8039 0.8419
5297000000.0 0.1253 1.151
5300000000.0 0.9346 0.6398
5303000000.0 1.108 -0.2854
5306000000.0 0.4777 -1.035
5309000000.0 -0.5118 -1.072
5312000000.0 -1.122 -0.316
5316000000.0 -0.9747 0.6472
5319000000.0 -0.125 1.194
5322000000.0 0.8207 0.8428
5325000000.0 1.168 -0.09731
5328000000.0 0.6646 -0.9348
5331000000.0 -0.2881 -1.145
5334000000.0 -1.056 -0.4922
5338000000.0 -1.056 0.4922
5341000000.0 -0.2955 1.118
5344000000.0 0.6544 0.903
5347000000.0 1.135 0.05505
5350000000.0 0.7802 -0.8012
5353000000.0 -0.1826 -1.107
5356000000.0 -0.9711 -0.5709
5359000000.0 -1.057 0.3708
5362000000.0 -0.3563 1.043
5366000000.0 0.5522 0.9347
5369000000.0 1.073 0.1375
5372000000.0 0.776 -0.7413
5375000000.0 -0.1195 -1.055
5378000000.0 -0.8746 -0.5549
5381000000.0 -0.9984 0.3349
5384000000.0 -0.3597 0.9482
5388000000.0 0.5305 0.85
5391000000.0 0.9963 0.1064
5394000000.0 0.671 -0.6872
5397000000.0 -0.1255 -0.9566
5400000000.0 -0.8067 -0.4957
5403000000.0 -0.8513 0.3209
5406000000.0 -0.322 0.8552
5409000000.0 0.4828 0.7411
5412000000.0 0.8931 0.09042
5416000000.0 0.6183 -0.6086
5419000000.0 -0.1449 -0.8742
5422000000.0 -0.7586 -0.4319
5425000000.0 -0.7967 0.323
5428000000.0 -0.2834 0.8449
5431000000.0 0.5027 0.75
5434000000.0 0.8744 0.09287
5438000000.0 0.6146 -0.6161
5441000000.0 -0.1174 -0.9105
5444000000.0 -0.7463 -0.4484
5447000000.0 -0.8178 0.3272
5450000000.0 -0.2831 0.8811
5453000000.0 0.5069 0.7691
5456000000.0 0.8972 0.1045
5459000000.0 0.6574 -0.6188
5462000000.0 -0.05584 -0.9003
5466000000.0 -0.7363 -0.5096
5469000000.0 -0.892 0.2432
5472000000.0 -0.3433 0.8406
5475000000.0 0.4258 0.8514
5478000000.0 0.9457 0.2541
5481000000.0 0.7931 -0.5449
5484000000.0 0.07376 -0.9399
5488000000.0 -0.7245 -0.6656
5491000000.0 -0.9575 0.0912
5494000000.0 -0.5291 0.8284
5497000000.0 0.2862 0.9451
5500000000.0 0.9297 0.4033
5503000000.0 0.8797 -0.4295
5506000000.0 0.2666 -1.001
5509000000.0 -0.6051 -0.8126
5512000000.0 -1.036 -0.02197
5516000000.0 -0.7506 0.7571
5519000000.0 0.07741 1.049
5522000000.0 0.8752 0.6088
5525000000.0 1.031 -0.2842
5528000000.0 0.4427 -0.9689
5531000000.0 -0.4177 -0.994
5534000000.0 -1.02 -0.2877
5538000000.0 -0.8947 0.6116
5541000000.0 -0.07432 1.076
5544000000.0 0.7672 0.7333
5547000000.0 1.078 -0.1176
5550000000.0 0.6163 -0.9051
5553000000.0 -0.263 -1.023
5556000000.0 -0.9689 -0.4424
5559000000.0 -0.9641 0.4644
5562000000.0 -0.2614 1.062
5566000000.0 0.6047 0.844
5569000000.0 1.059 0.05471
5572000000.0 0.6753 -0.7583
5575000000.0 -0.147 -1.032
5578000000.0 -0.8762 -0.5612
5581000000.0 -0.9478 0.3118
5584000000.0 -0.3779 0.9249
5588000000.0 0.5087 0.8701
5591000000.0 0.9813 0.1825
5594000000.0 0.7306 -0.6134
5597000000.0 -0.03942 -0.9494
5600000000.0 -0.7136 -0.628
5603000000.0 -0.912 0.1869
5606000000.0 -0.4276 0.8023
5609000000.0 0.3528 0.838
5612000000.0 0.8535 0.2388
5616000000.0 0.7204 -0.5096
5619000000.0 0.06076 -0.8694
5622000000.0 -0.6606 -0.5517
5625000000.0 -0.8557 0.1215
5628000000.0 -0.4293 0.7247
5631000000.0 0.2899 0.8062
5634000000.0 0.8042 0.2542
5638000000.0 0.7045 -0.4642
5641000000.0 0.08211 -0.842
5644000000.0 -0.6121 -0.6173
5647000000.0 -0.836 0.09109
5650000000.0 -0.4653 0.7055
5653000000.0 0.2765 0.8098
5656000000.0 0.8118 0.2929
5659000000.0 0.7128 -0.4833
5662000000.0 0.09689 -0.8825
5666000000.0 -0.6582 -0.626
5669000000.0 -0.8821 0.09463
5672000000.0 -0.4857 0.7333
5675000000.0 0.2789 0.8797
5678000000.0 0.863 0.2991
5681000000.0 0.798 -0.4985
5684000000.0 0.1191 -0.9349
5688000000.0 -0.6793 -0.6824
5691000000.0 -0.9464 0.07197
5694000000.0 -0.5364 0.8518
5697000000.0 0.2732 0.9381
5700000000.0 0.9216 0.3441
5703000000.0 0.8847 -0.4617
5706000000.0 0.1477 -1.044
5709000000.0 -0.6884 -0.7829
5712000000.0 -1.017 0.05687
5716000000.0 -0.6438 0.8
5719000000.0 0.2249 1.025
5722000000.0 0.9356 0.4619
5725000000.0 0.9787 -0.4085
5728000000.0 0.3222 -1.034
5731000000.0 -0.6277 -0.9091
5734000000.0 -1.059 -0.07968
5738000000.0 -0.7943 0.7777
5741000000.0 0.05515 1.071
5744000000.0 0.9029 0.6462
5747000000.0 1.09 -0.2805
5750000000.0 0.491 -0.981
5753000000.0 -0.4719 -1.004
5756000000.0 -1.093 -0.2445
5759000000.0 -0.8948 0.6594
5762000000.0 -0.0954 1.109
5766000000.0 0.8263 0.7779
5769000000.0 1.084 -0.1429
5772000000.0 0.5987 -0.9426
5775000000.0 -0.3212 -1.049
5778000000.0 -1.022 -0.4463
5781000000.0 -0.9898 0.4928
5784000000.0 -0.2428 1.071
5788000000.0 0.6532 0.8904
5791000000.0 1.061 0.07662
5794000000.0 0.7589 -0.8179
5797000000.0 -0.1483 -1.104
5800000000.0 -0.9505 -0.5372
5803000000.0 -1.016 0.3421
5806000000.0 -0.3554 1.032
5809000000.0 0.5211 0.9441
5812000000.0 1.058 0.2049
5816000000.0 0.8232 -0.6636
5819000000.0 -0.004485 -1.07
5822000000.0 -0.8348 -0.6148
5825000000.0 -1.039 0.2096
5828000000.0 -0.5026 0.8824
5831000000.0 0.4222 0.9423
5834000000.0 0.9694 0.281
5838000000.0 0.8315 -0.5771
5841000000.0 0.07398 -0.9854
5844000000.0 -0.6995 -0.6593
5847000000.0 -0.9826 0.1053
5850000000.0 -0.4857 0.8132
5853000000.0 0.3293 0.921
5856000000.0 0.871 0.2993
5859000000.0 0.825 -0.5233
5862000000.0 0.1409 -0.9309
5866000000.0 -0.6252 -0.6323
5869000000.0 -0.9158 0.05304
5872000000.0 -0.4909 0.7626
5875000000.0 0.2846 0.8305
5878000000.0 0.8505 0.3198
5881000000.0 0.7721 -0.4332
5884000000.0 0.1731 -0.8804
5888000000.0 -0.6067 -0.6458
5891000000.0 -0.8605 0.07157
5894000000.0 -0.5318 0.696
5897000000.0 0.2351 0.8303
5900000000.0 0.779 0.3254
5903000000.0 0.7366 -0.402
5906000000.0 0.1699 -0.8798
5909000000.0 -0.5274 -0.6537
5912000000.0 -0.8962 0.01914
5916000000.0 -0.5414 0.677
5919000000.0 0.1357 0.831
5922000000.0 0.8163 0.4221
5925000000.0 0.7956 -0.3343
5928000000.0 0.2438 -0.8506
5931000000.0 -0.5046 -0.7705
5934000000.0 -0.8691 -0.09943
5938000000.0 -0.6589 0.6588
5941000000.0 0.05854 0.9209
5944000000.0 0.7351 0.5266
5947000000.0 0.9228 -0.2398
5950000000.0 0.3642 -0.8307
5953000000.0 -0.3955 -0.8163
5956000000.0 -0.8944 -0.2392
5959000000.0 -0.7664 0.5217
5962000000.0 -0.06198 0.9417
5966000000.0 0.6717 0.6606
5969000000.0 0.9688 -0.09436
5972000000.0 0.5414 -0.8162
5975000000.0 -0.2395 -0.9296
5978000000.0 -0.8826 -0.402
5981000000.0 -0.8955 0.4365
5984000000.0 -0.2485 0.9785
5988000000.0 0.5959 0.8082
5991000000.0 1.018 0.04405
5994000000.0 0.6844 -0.7489
5997000000.0 -0.1215 -1.001
6000000000.0 -0.864 -0.566
6003000000.0 -0.9615 0.3079
6006000000.0 -0.3838 0.9212
6009000000.0 0.4816 0.8789
6012000000.0 0.9962 0.1588
6016000000.0 0.7583 -0.6438
6019000000.0 -0.006207 -0.9986
6022000000.0 -0.7911 -0.6251
6025000000.0 -0.9641 0.1914
6028000000.0 -0.4739 0.8856
6031000000.0 0.3933 0.9091
6034000000.0 0.9502 0.2857
6038000000.0 0.8113 -0.5399
6041000000.0 0.1062 -0.9692
6044000000.0 -0.7066 -0.6819
6047000000.0 -0.9526 0.1246
6050000000.0 -0.5235 0.8037
6053000000.0 0.3264 0.9193
6056000000.0 0.9117 0.3708
6059000000.0 0.8043 -0.496
6062000000.0 0.1245 -0.9392
6066000000.0 -0.6407 -0.643
6069000000.0 -0.8997 0.07335
6072000000.0 -0.5293 0.7428
6075000000.0 0.2389 0.8548
6078000000.0 0.8355 0.3502
6081000000.0 0.8013 -0.4368
6084000000.0 0.1374 -0.8477
6088000000.0 -0.5797 -0.6751
6091000000.0 -0.8429 0.01849
6094000000.0 -0.5078 0.6865
6097000000.0 0.2076 0.8482
6100000000.0 0.7932 0.4016
6103000000.0 0.8085 -0.3755
6106000000.0 0.1893 -0.8178
6109000000.0 -0.5292 -0.653
6112000000.0 -0.873 -0.02516
6116000000.0 -0.5816 0.6744
6119000000.0 0.1765 0.8633
6122000000.0 0.7812 0.4158
6125000000.0 0.8005 -0.3618
6128000000.0 0.2483 -0.8198
6131000000.0 -0.496 -0.7502
6134000000.0 -0.8864 -0.05896
6138000000.0 -0.5997 0.6592
6141000000.0 0.1545 0.8635
6144000000.0 0.7987 0.4487
6147000000.0 0.8353 -0.2826
6150000000.0 0.3253 -0.8675
6153000000.0 -0.4731 -0.7731
6156000000.0 -0.8737 -0.1186
6159000000.0 -0.6867 0.6285
6162000000.0 0.03878 0.9251
6166000000.0 0.7395 0.5727
6169000000.0 0.9117 -0.2446
6172000000.0 0.3832 -0.8586
6175000000.0 -0.4146 -0.8475
6178000000.0 -0.9359 -0.2111
6181000000.0 -0.7769 0.5727
6184000000.0 -0.03092 0.9418
6188000000.0 0.7216 0.6168
6191000000.0 0.961 -0.1668
6194000000.0 0.4992 -0.8283
6197000000.0 -0.3274 -0.8737
6200000000.0 -0.9122 -0.2777
6203000000.0 -0.806 0.5202
6206000000.0 -0.1255 0.9013
6209000000.0 0.6286 0.7033
6212000000.0 0.9346 -0.06879
6216000000.0 0.5723 -0.7635
6219000000.0 -0.2373 -0.9085
6222000000.0 -0.8256 -0.3722
6225000000.0 -0.8413 0.3915
6228000000.0 -0.2366 0.871
6231000000.0 0.5523 0.7328
6234000000.0 0.8859 0.09284
6238000000.0 0.6098 -0.6734
6241000000.0 -0.09788 -0.8787
6244000000.0 -0.7268 -0.498
6247000000.0 -0.8404 0.269
6250000000.0 -0.3182 0.7896
6253000000.0 0.41 0.7879
6256000000.0 0.8475 0.1908
6259000000.0 0.6664 -0.4979
6262000000.0 0.03449 -0.8364
6266000000.0 -0.595 -0.5602
6269000000.0 -0.8284 0.109
