! Created with skrf 1.8.0 (http://scikit-rf.org).
# Hz S RI R 50.0 
!freq ReS11 ImS11
4000000000.0 -0.1337 -1.481
4003000000.0 -1.264 -0.8093
4006000000.0 -1.424 0.4646
4009000000.0 -0.5432 1.365
4012000000.0 0.7716 1.303
4016000000.0 1.486 0.1777
4019000000.0 1.139 -1.026
4022000000.0 -0.09504 -1.554
4025000000.0 -1.342 -0.8551
4028000000.0 -1.523 0.5172
4031000000.0 -0.6437 1.457
4034000000.0 0.7773 1.412
4038000000.0 1.655 0.233
4041000000.0 1.198 -1.076
4044000000.0 -0.1159 -1.631
4047000000.0 -1.287 -0.952
4050000000.0 -1.539 0.4473
4053000000.0 -0.6401 1.493
4056000000.0 0.7361 1.425
4059000000.0 1.575 0.3355
4062000000.0 1.24 -1.008
4066000000.0 0.02861 -1.59
4069000000.0 -1.206 -1.063
4072000000.0 -1.593 0.2397
4075000000.0 -0.7912 1.421
4078000000.0 0.5762 1.547
4081000000.0 1.558 0.5628
4084000000.0 1.4 -0.8625
4088000000.0 0.2468 -1.626
4091000000.0 -1.097 -1.215
4094000000.0 -1.683 0.111
4097000000.0 -0.9762 1.309
4100000000.0 0.3651 1.586
4103000000.0 1.435 0.7249
4106000000.0 1.421 -0.649
4109000000.0 0.4556 -1.513
4112000000.0 -0.8327 -1.289
4116000000.0 -1.455 -0.2013
4119000000.0 -1.106 0.9957
4122000000.0 0.02506 1.467
4125000000.0 1.128 0.9411
4128000000.0 1.459 -0.2196
4131000000.0 0.7467 -1.238
4134000000.0 -0.4185 -1.38
4138000000.0 -1.361 -0.5944
4141000000.0 -1.353 0.6092
4144000000.0 -0.3745 1.435
4147000000.0 0.8654 1.253
4150000000.0 1.479 0.1264
4153000000.0 1.064 -1.018
4156000000.0 -0.1019 -1.519
4159000000.0 -1.218 -0.887
4162000000.0 -1.423 0.3496
4166000000.0 -0.7088 1.335
4169000000.0 0.6223 1.37
4172000000.0 1.426 0.4333
4175000000.0 1.231 -0.7885
4178000000.0 0.1599 -1.453
4181000000.0 -1.012 -1.068
4184000000.0 -1.479 0.09668
4188000000.0 -0.9008 1.207
4191000000.0 0.3367 1.473
4194000000.0 1.371 0.6585
4197000000.0 1.386 -0.6368
4200000000.0 0.4135 -1.517
4203000000.0 -0.97 -1.277
4206000000.0 -1.601 -0.06589
4209000000.0 -1.042 1.264
4212000000.0 0.3218 1.615
4216000000.0 1.482 0.7498
4219000000.0 1.5 -0.7449
4222000000.0 0.3502 -1.629
4225000000.0 -1.102 -1.236
4228000000.0 -1.7 0.07397
4231000000.0 -0.9549 1.369
4234000000.0 0.5707 1.556
4238000000.0 1.565 0.5003
4241000000.0 1.328 -0.9172
4244000000.0 0.06004 -1.587
4247000000.0 -1.201 -1.011
4250000000.0 -1.557 0.2966
4253000000.0 -0.7029 1.427
4256000000.0 0.6895 1.392
4259000000.0 1.465 0.3272
4262000000.0 1.144 -0.974
4266000000.0 -0.07336 -1.527
4269000000.0 -1.187 -0.8406
4272000000.0 -1.415 0.4117
4275000000.0 -0.5344 1.364
4278000000.0 0.737 1.239
4281000000.0 1.451 0.1771
4284000000.0 1.017 -0.9843
4288000000.0 -0.1339 -1.397
4291000000.0 -1.141 -0.7232
4294000000.0 -1.28 0.4277
4297000000.0 -0.4923 1.257
4300000000.0 0.629 1.151
4303000000.0 1.277 0.2434
4306000000.0 1.029 -0.7989
4309000000.0 0.01196 -1.304
4312000000.0 -0.961 -0.8329
4316000000.0 -1.253 0.1741
4319000000.0 -0.6657 1.081
4322000000.0 0.3965 1.256
4325000000.0 1.213 0.4985
4328000000.0 1.191 -0.5943
4331000000.0 0.2991 -1.289
4334000000.0 -0.8288 -1.108
4338000000.0 -1.36 -0.05411
4341000000.0 -0.933 1.058
4344000000.0 0.2147 1.38
4347000000.0 1.214 0.7382
4350000000.0 1.305 -0.4613
4353000000.0 0.4999 -1.33
4356000000.0 -0.732 -1.287
4359000000.0 -1.449 -0.2376
4362000000.0 -1.069 0.933
4366000000.0 0.00893 1.432
4369000000.0 1.154 0.9137
4372000000.0 1.466 -0.2654
4375000000.0 0.6994 -1.309
4378000000.0 -0.5444 -1.396
4381000000.0 -1.427 -0.4689
4384000000.0 -1.279 0.8192
4388000000.0 -0.1794 1.533
4391000000.0 1.054 1.096
4394000000.0 1.597 -0.1416
4397000000.0 0.8896 -1.295
4400000000.0 -0.5191 -1.516
4403000000.0 -1.457 -0.5511
4406000000.0 -1.344 0.8158
4409000000.0 -0.2075 1.526
4412000000.0 1.089 1.087
4416000000.0 1.538 -0.1586
4419000000.0 0.795 -1.319
4422000000.0 -0.5246 -1.421
4425000000.0 -1.417 -0.4743
4428000000.0 -1.206 0.8237
4431000000.0 -0.08571 1.438
4434000000.0 1.055 0.9288
4438000000.0 1.406 -0.2845
4441000000.0 0.6609 -1.227
4444000000.0 -0.5886 -1.245
4447000000.0 -1.343 -0.3182
4450000000.0 -1.054 0.8518
4453000000.0 0.03555 1.314
4456000000.0 1.025 0.7821
4459000000.0 1.253 -0.3273
4462000000.0 0.4988 -1.155
4466000000.0 -0.6396 -1.085
4469000000.0 -1.23 -0.1517
4472000000.0 -0.8745 0.8322
4475000000.0 0.1115 1.198
4478000000.0 1.023 0.6234
4481000000.0 1.113 -0.4509
4484000000.0 0.3392 -1.117
4488000000.0 -0.6558 -0.9514
4491000000.0 -1.155 -0.07898
4494000000.0 -0.7205 0.8418
4497000000.0 0.1636 1.111
4500000000.0 0.9661 0.5435
4503000000.0 1.013 -0.4005
4506000000.0 0.3238 -1.044
4509000000.0 -0.6089 -0.9469
4512000000.0 -1.099 -0.1198
4516000000.0 -0.7668 0.7997
4519000000.0 0.1249 1.068
4522000000.0 0.9404 0.6077
4525000000.0 1.075 -0.3681
4528000000.0 0.4333 -1.074
4531000000.0 -0.5678 -0.9892
4534000000.0 -1.15 -0.189
4538000000.0 -0.8752 0.7573
4541000000.0 0.03177 1.158
4544000000.0 0.8979 0.7313
4547000000.0 1.167 -0.234
4550000000.0 0.5716 -1.071
4553000000.0 -0.4381 -1.112
4556000000.0 -1.131 -0.3707
4559000000.0 -1.038 0.6346
4562000000.0 -0.1714 1.214
4566000000.0 0.835 0.942
4569000000.0 1.258 -0.0242
4572000000.0 0.7761 -1.001
4575000000.0 -0.2581 -1.235
4578000000.0 -1.164 -0.5959
4581000000.0 -1.234 0.5108
4584000000.0 -0.4211 1.242
4588000000.0 0.7073 1.123
4591000000.0 1.306 0.1919
4594000000.0 0.9639 -0.9402
4597000000.0 -0.1356 -1.359
4600000000.0 -1.119 -0.7834
4603000000.0 -1.337 0.3513
4606000000.0 -0.568 1.287
4609000000.0 0.6162 1.241
4612000000.0 1.35 0.2792
4616000000.0 1.085 -0.861
4619000000.0 0.04283 -1.403
4622000000.0 -1.062 -0.907
4625000000.0 -1.349 0.2386
4628000000.0 -0.674 1.205
4631000000.0 0.5246 1.246
4634000000.0 1.325 0.3707
4638000000.0 1.124 -0.7705
4641000000.0 0.1279 -1.365
4644000000.0 -0.9976 -0.9192
4647000000.0 -1.335 0.1992
4650000000.0 -0.6484 1.143
4653000000.0 0.4672 1.249
4656000000.0 1.264 0.3879
4659000000.0 1.044 -0.7289
4662000000.0 0.08917 -1.222
4666000000.0 -0.9252 -0.8149
4669000000.0 -1.187 0.1877
4672000000.0 -0.5868 1.035
4675000000.0 0.4279 1.081
4678000000.0 1.11 0.2688
4681000000.0 0.9024 -0.6739
4684000000.0 0.07409 -1.122
4688000000.0 -0.8239 -0.7584
4691000000.0 -1.088 0.1722
4694000000.0 -0.5476 0.9667
4697000000.0 0.426 1.014
4700000000.0 1.077 0.3357
4703000000.0 0.843 -0.6466
4706000000.0 0.0418 -1.058
4709000000.0 -0.8303 -0.7265
4712000000.0 -1.028 0.2078
4716000000.0 -0.4859 0.9571
4719000000.0 0.4157 0.962
4722000000.0 1.045 0.2135
4725000000.0 0.8515 -0.6172
4728000000.0 0.04289 -1.063
4731000000.0 -0.7732 -0.6678
4734000000.0 -1.019 0.1492
4738000000.0 -0.4858 0.911
4741000000.0 0.4014 0.9658
4744000000.0 0.9854 0.33
4747000000.0 0.9056 -0.5302
4750000000.0 0.1373 -1.035
4753000000.0 -0.6941 -0.824
4756000000.0 -1.094 0.06284
4759000000.0 -0.6822 0.8593
4762000000.0 0.2459 1.078
4766000000.0 1.01 0.4833
4769000000.0 1.016 -0.4431
4772000000.0 0.3481 -1.09
4775000000.0 -0.6226 -0.9352
4778000000.0 -1.177 -0.1435
4781000000.0 -0.853 0.7942
4784000000.0 0.0673 1.178
4788000000.0 0.9655 0.7284
4791000000.0 1.161 -0.2725
4794000000.0 0.5761 -1.097
4797000000.0 -0.4591 -1.134
4800000000.0 -1.213 -0.4031
4803000000.0 -1.045 0.6496
4806000000.0 -0.1722 1.23
4809000000.0 0.8236 0.9379
4812000000.0 1.274 -0.01598
4816000000.0 0.8124 -1.024
4819000000.0 -0.2661 -1.311
4822000000.0 -1.182 -0.6217
4825000000.0 -1.259 0.5286
4828000000.0 -0.3923 1.291
4831000000.0 0.7671 1.137
4834000000.0 1.359 0.1434
4838000000.0 0.977 -1.003
4841000000.0 -0.1453 -1.375
4844000000.0 -1.156 -0.7514
4847000000.0 -1.328 0.4022
4850000000.0 -0.5095 1.276
4853000000.0 0.6415 1.223
4856000000.0 1.346 0.2503
4859000000.0 1.032 -0.8635
4862000000.0 -0.02807 -1.369
4866000000.0 -1.05 -0.833
4869000000.0 -1.291 0.3049
4872000000.0 -0.6003 1.165
4875000000.0 0.5262 1.182
4878000000.0 1.228 0.2903
4881000000.0 0.9985 -0.7509
4884000000.0 0.04485 -1.248
4888000000.0 -0.9254 -0.8135
4891000000.0 -1.212 0.2295
4894000000.0 -0.5853 1.028
4897000000.0 0.4369 1.07
4900000000.0 1.078 0.3365
4903000000.0 0.9149 -0.6371
4906000000.0 0.07785 -1.094
4909000000.0 -0.7607 -0.7238
4912000000.0 -1.045 0.1276
4916000000.0 -0.5456 0.8618
4919000000.0 0.3117 0.9484
4922000000.0 0.9033 0.3267
4925000000.0 0.8432 -0.476
4928000000.0 0.1426 -0.9438
4931000000.0 -0.6089 -0.7061
4934000000.0 -0.9427 0.04663
4938000000.0 -0.5934 0.7448
4941000000.0 0.2272 0.9329
4944000000.0 0.8474 0.4109
4947000000.0 0.8543 -0.3909
4950000000.0 0.2483 -0.9372
4953000000.0 -0.5645 -0.7751
4956000000.0 -0.9602 -0.05943
4959000000.0 -0.6321 0.7313
4962000000.0 0.145 0.9367
4966000000.0 0.8506 0.4782
4969000000.0 0.9245 -0.3247
4972000000.0 0.3054 -0.9638
4975000000.0 -0.5136 -0.8613
4978000000.0 -0.9829 -0.1334
4981000000.0 -0.7396 0.6725
4984000000.0 0.06769 1.014
4988000000.0 0.8322 0.6007
4991000000.0 1.05 -0.2754
4994000000.0 0.4761 -0.9575
4997000000.0 -0.477 -1.001
5000000000.0 -1.092 -0.2933
5003000000.0 -0.921 0.6489
5006000000.0 -0.09536 1.162
5009000000.0 0.854 0.8228
5012000000.0 1.193 -0.1377
5016000000.0 0.6505 -1.009
5019000000.0 -0.3899 -1.172
5022000000.0 -1.152 -0.4595
5025000000.0 -1.107 0.604
5028000000.0 -0.2261 1.252
5031000000.0 0.8152 0.9924
5034000000.0 1.25 -0.01851
5038000000.0 0.8107 -0.9988
5041000000.0 -0.2148 -1.246
5044000000.0 -1.12 -0.6188
5047000000.0 -1.21 0.4615
5050000000.0 -0.4016 1.229
5053000000.0 0.6379 1.088
5056000000.0 1.285 0.1991
5059000000.0 0.9693 -0.8436
5062000000.0 -0.0371 -1.286
5066000000.0 -1.016 -0.8066
5069000000.0 -1.278 0.285
5072000000.0 -0.5885 1.125
5075000000.0 0.4762 1.165
5078000000.0 1.231 0.3928
5081000000.0 1.03 -0.6691
5084000000.0 0.1422 -1.244
5088000000.0 -0.8505 -0.8884
5091000000.0 -1.202 0.09067
5094000000.0 -0.6718 0.9918
5097000000.0 0.3037 1.14
5100000000.0 0.9907 0.528
5103000000.0 1.042 -0.4732
5106000000.0 0.3472 -1.06
5109000000.0 -0.5931 -0.9091
5112000000.0 -1.073 -0.1189
5116000000.0 -0.7636 0.7408
5119000000.0 0.04994 1.02
5122000000.0 0.8273 0.6263
5125000000.0 1.02 -0.2595
5128000000.0 0.4347 -0.945
5131000000.0 -0.4482 -0.9122
5134000000.0 -0.9736 -0.2407
5138000000.0 -0.8027 0.5398
5141000000.0 -0.0742 0.9735
5144000000.0 0.6854 0.6242
5147000000.0 0.9848 -0.1339
5150000000.0 0.4574 -0.7526
5153000000.0 -0.3022 -0.8654
5156000000.0 -0.86 -0.3299
5159000000.0 -0.782 0.4452
5162000000.0 -0.1744 0.8832
5166000000.0 0.6268 0.6749
5169000000.0 0.9213 -0.06344
5172000000.0 0.5193 -0.7275
5175000000.0 -0.2268 -0.8418
5178000000.0 -0.8597 -0.3549
5181000000.0 -0.8187 0.3989
5184000000.0 -0.1863 0.8901
5188000000.0 0.5812 0.6864
5191000000.0 0.9238 -0.02069
5194000000.0 0.5595 -0.7371
5197000000.0 -0.2106 -0.9158
5200000000.0 -0.8242 -0.3725
5203000000.0 -0.8408 0.4187
5206000000.0 -0.2015 0.9258
5209000000.0 0.5918 0.7404
5212000000.0 0.9863 0.005193
5216000000.0 0.5939 -0.7553
5219000000.0 -0.2051 -0.9818
5222000000.0 -0.8837 -0.4647
5225000000.0 -0.9092 0.4216
5228000000.0 -0.2691 0.9678
5231000000.0 0.608 0.8218
5234000000.0 1.002 0.05747
5238000000.0 0.7065 -0.7737
5241000000.0 -0.1167 -1.044
5244000000.0 -0.8831 -0.5606
5247000000.0 -1.013 0.3263
5250000000.0 -0.3934 0.9769
5253000000.0 0.5139 0.9493
5256000000.0 1.048 0.2158
5259000000.0 0.8413 -0.6715
5262000000.0 0.02726 -1.047
5266000000.0 -0.8137 -0.7098
5269000000.0 -1.077 0.1632
5272000000.0 -0.5549 0.9336
5275000000.0 0.3406 1.036
5278000000.0 1.001 0.3946
5281000000.0 0.9502 -0.5052
5284000000.0 0.2136 -1.05
5288000000.0 -0.6628 -0.8479
5291000000.0 -1.094 -0.06014
5294000000.0 -0.7707 0.7916
5297000000.0 0.1184 1.116
5300000000.0 0.9281 0.6384
5303000000.0 1.085 -0.3136
5306000000.0 0.4737 -1.042
5309000000.0 -0.4894 -1.039
5312000000.0 -1.109 -0.2876
5316000000.0 -0.9237 0.6521
5319000000.0 -0.1097 1.152
5322000000.0 0.7926 0.807
5325000000.0 1.12 -0.0901
5328000000.0 0.6096 -0.9141
5331000000.0 -0.3183 -1.09
5334000000.0 -1.055 -0.424
5338000000.0 -1.026 0.5184
5341000000.0 -0.2852 1.086
5344000000.0 0.6878 0.9032
5347000000.0 1.114 0.02774
5350000000.0 0.7348 -0.8143
5353000000.0 -0.1504 -1.078
5356000000.0 -0.9603 -0.5186
5359000000.0 -1.032 0.3728
5362000000.0 -0.3347 1.008
5366000000.0 0.5582 0.9138
5369000000.0 1.028 0.1199
5372000000.0 0.7464 -0.7405
5375000000.0 -0.1022 -1.035
5378000000.0 -0.8475 -0.5644
5381000000.0 -0.9672 0.338
5384000000.0 -0.334 0.9658
5388000000.0 0.5278 0.844
5391000000.0 0.9624 0.1167
5394000000.0 0.6722 -0.651
5397000000.0 -0.1128 -0.9319
5400000000.0 -0.8189 -0.4596
5403000000.0 -0.864 0.2826
5406000000.0 -0.2795 0.8479
5409000000.0 0.5086 0.7308
5412000000.0 0.8734 0.08447
5416000000.0 0.612 -0.6246
5419000000.0 -0.1025 -0.85
5422000000.0 -0.7325 -0.4513
5425000000.0 -0.821 0.3278
5428000000.0 -0.2642 0.8212
5431000000.0 0.4922 0.705
5434000000.0 0.8605 0.08432
5438000000.0 0.6168 -0.6242
5441000000.0 -0.1672 -0.8575
5444000000.0 -0.7637 -0.4414
5447000000.0 -0.8347 0.3026
5450000000.0 -0.279 0.8515
5453000000.0 0.4942 0.743
5456000000.0 0.8751 0.1202
5459000000.0 0.6192 -0.5815
5462000000.0 -0.08751 -0.8993
5466000000.0 -0.7395 -0.5044
5469000000.0 -0.9147 0.2268
5472000000.0 -0.3878 0.7845
5475000000.0 0.4096 0.8498
5478000000.0 0.8705 0.243
5481000000.0 0.7765 -0.5513
5484000000.0 0.06592 -0.9501
5488000000.0 -0.6849 -0.6803
5491000000.0 -0.9843 0.08711
5494000000.0 -0.5681 0.8278
5497000000.0 0.265 0.9381
5500000000.0 0.9311 0.374
5503000000.0 0.9051 -0.429
5506000000.0 0.2271 -0.9645
5509000000.0 -0.6004 -0.8161
5512000000.0 -1.014 -0.04708
5516000000.0 -0.7088 0.7461
5519000000.0 0.1153 1.033
5522000000.0 0.8472 0.5932
5525000000.0 0.982 -0.2833
5528000000.0 0.4478 -0.9663
5531000000.0 -0.3963 -0.9554
5534000000.0 -1.034 -0.2574
5538000000.0 -0.8425 0.6137
5541000000.0 -0.0725 1.058
5544000000.0 0.7531 0.7551
5547000000.0 1.077 -0.104
5550000000.0 0.5921 -0.8899
5553000000.0 -0.2638 -1.055
5556000000.0 -1.011 -0.4188
5559000000.0 -0.9332 0.472
5562000000.0 -0.2796 0.992
5566000000.0 0.6165 0.8222
5569000000.0 1.012 0.04748
5572000000.0 0.6913 -0.7595
5575000000.0 -0.1126 -1.048
5578000000.0 -0.8177 -0.5469
5581000000.0 -0.9403 0.2869
5584000000.0 -0.3633 0.902
5588000000.0 0.5094 0.8494
5591000000.0 0.9661 0.1827
5594000000.0 0.701 -0.6163
5597000000.0 -0.03797 -0.9205
5600000000.0 -0.7274 -0.5666
5603000000.0 -0.9011 0.1911
5606000000.0 -0.4021 0.81
5609000000.0 0.3556 0.8087
5612000000.0 0.8419 0.2583
5616000000.0 0.7259 -0.5269
5619000000.0 0.04327 -0.8697
5622000000.0 -0.6119 -0.6134
5625000000.0 -0.843 0.1111
5628000000.0 -0.4253 0.7251
5631000000.0 0.2817 0.7789
5634000000.0 0.7864 0.2614
5638000000.0 0.6887 -0.4481
5641000000.0 0.1102 -0.8027
5644000000.0 -0.6118 -0.5787
5647000000.0 -0.8414 0.1024
5650000000.0 -0.4549 0.7088
5653000000.0 0.2908 0.777
5656000000.0 0.8133 0.2648
5659000000.0 0.7174 -0.4731
5662000000.0 0.08623 -0.8623
5666000000.0 -0.6246 -0.6103
5669000000.0 -0.866 0.08894
5672000000.0 -0.4705 0.7572
5675000000.0 0.2845 0.8569
5678000000.0 0.8663 0.2781
5681000000.0 0.7623 -0.4745
5684000000.0 0.1141 -0.9144
5688000000.0 -0.6624 -0.6698
5691000000.0 -0.9567 0.09118
5694000000.0 -0.5172 0.8239
5697000000.0 0.2994 0.9452
5700000000.0 0.9036 0.3628
5703000000.0 0.8561 -0.5072
5706000000.0 0.1513 -0.9817
5709000000.0 -0.6609 -0.747
5712000000.0 -1.039 0.03721
5716000000.0 -0.6283 0.809
5719000000.0 0.1976 1.01
5722000000.0 0.9367 0.4591
5725000000.0 0.9504 -0.4345
5728000000.0 0.3196 -1.048
5731000000.0 -0.5761 -0.866
5734000000.0 -1.051 -0.09402
5738000000.0 -0.7597 0.7336
5741000000.0 0.1118 1.076
5744000000.0 0.8987 0.6109
5747000000.0 1.054 -0.2741
5750000000.0 0.4509 -0.9986
5753000000.0 -0.4823 -0.9524
5756000000.0 -1.06 -0.2794
5759000000.0 -0.9211 0.6578
5762000000.0 -0.0668 1.111
5766000000.0 0.8024 0.7475
5769000000.0 1.096 -0.1328
5772000000.0 0.6114 -0.9038
5775000000.0 -0.3098 -1.008
5778000000.0 -0.998 -0.434
5781000000.0 -0.9714 0.5009
5784000000.0 -0.2353 1.037
5788000000.0 0.6398 0.8628
5791000000.0 1.068 0.04596
5794000000.0 0.7162 -0.7717
5797000000.0 -0.1315 -1.043
5800000000.0 -0.9181 -0.5935
5803000000.0 -0.9941 0.3507
5806000000.0 -0.3743 0.9775
5809000000.0 0.4971 0.9289
5812000000.0 1.022 0.1924
5816000000.0 0.8166 -0.6527
5819000000.0 0.0009745 -1.049
5822000000.0 -0.8003 -0.6234
5825000000.0 -0.9707 0.2113
5828000000.0 -0.4622 0.8819
5831000000.0 0.3947 0.9366
5834000000.0 0.9543 0.2638
5838000000.0 0.8045 -0.5555
5841000000.0 0.07207 -0.9865
5844000000.0 -0.714 -0.657
5847000000.0 -0.9364 0.1298
5850000000.0 -0.4829 0.8307
5853000000.0 0.3098 0.8879
5856000000.0 0.89 0.3111
5859000000.0 0.8107 -0.4908
5862000000.0 0.07888 -0.9206
5866000000.0 -0.615 -0.6579
5869000000.0 -0.8979 0.08065
5872000000.0 -0.4903 0.7429
5875000000.0 0.3085 0.8587
5878000000.0 0.8216 0.2978
5881000000.0 0.7325 -0.4743
5884000000.0 0.123 -0.8745
5888000000.0 -0.5964 -0.6011
5891000000.0 -0.8622 0.1012
5894000000.0 -0.5129 0.7192
5897000000.0 0.2653 0.8594
5900000000.0 0.7918 0.3479
5903000000.0 0.768 -0.4041
5906000000.0 0.1664 -0.8104
5909000000.0 -0.5424 -0.6507
5912000000.0 -0.8602 0.01248
5916000000.0 -0.5257 0.6884
5919000000.0 0.1537 0.8411
5922000000.0 0.7814 0.3921
5925000000.0 0.797 -0.3485
5928000000.0 0.2498 -0.8452
5931000000.0 -0.476 -0.71
5934000000.0 -0.898 -0.09551
5938000000.0 -0.6308 0.6225
5941000000.0 0.08513 0.8687
5944000000.0 0.7577 0.5048
5947000000.0 0.8471 -0.2345
5950000000.0 0.3441 -0.824
5953000000.0 -0.3794 -0.8209
5956000000.0 -0.9069 -0.215
5959000000.0 -0.7547 0.5532
5962000000.0 -0.06084 0.9151
5966000000.0 0.6732 0.6407
5969000000.0 0.9434 -0.08443
5972000000.0 0.5133 -0.7848
5975000000.0 -0.2659 -0.9121
5978000000.0 -0.8555 -0.4054
5981000000.0 -0.8655 0.4318
5984000000.0 -0.21 0.9703
5988000000.0 0.5809 0.7955
5991000000.0 0.971 0.08661
5994000000.0 0.6432 -0.7306
5997000000.0 -0.1234 -1.015
6000000000.0 -0.8559 -0.5224
6003000000.0 -0.9082 0.3188
6006000000.0 -0.333 0.9147
6009000000.0 0.4983 0.87
6012000000.0 0.9995 0.1662
6016000000.0 0.7473 -0.6598
6019000000.0 -0.03447 -0.9786
6022000000.0 -0.8115 -0.6253
6025000000.0 -0.9546 0.2085
6028000000.0 -0.4355 0.8933
6031000000.0 0.3906 0.9098
6034000000.0 0.9357 0.2555
6038000000.0 0.7904 -0.5681
6041000000.0 0.1108 -0.975
6044000000.0 -0.7222 -0.6726
6047000000.0 -0.9161 0.1122
6050000000.0 -0.4853 0.8096
6053000000.0 0.3379 0.8787
6056000000.0 0.8899 0.3008
6059000000.0 0.7768 -0.5098
6062000000.0 0.1101 -0.9238
6066000000.0 -0.6538 -0.6458
6069000000.0 -0.9054 0.09348
6072000000.0 -0.5031 0.7402
6075000000.0 0.2701 0.8237
6078000000.0 0.803 0.3434
6081000000.0 0.7471 -0.4351
6084000000.0 0.1547 -0.8558
6088000000.0 -0.5586 -0.6484
6091000000.0 -0.8541 0.02701
6094000000.0 -0.51 0.6769
6097000000.0 0.2076 0.8193
6100000000.0 0.7772 0.3883
6103000000.0 0.7552 -0.3895
6106000000.0 0.1778 -0.8379
6109000000.0 -0.5555 -0.6688
6112000000.0 -0.8681 -0.02124
6116000000.0 -0.5227 0.6731
6119000000.0 0.183 0.8413
6122000000.0 0.7823 0.3789
6125000000.0 0.79 -0.3497
6128000000.0 0.2444 -0.8349
6131000000.0 -0.5159 -0.7361
6134000000.0 -0.8908 -0.06524
6138000000.0 -0.5608 0.6547
6141000000.0 0.1296 0.8619
6144000000.0 0.7653 0.441
6147000000.0 0.8214 -0.3011
6150000000.0 0.2923 -0.8261
6153000000.0 -0.4855 -0.7536
6156000000.0 -0.8803 -0.1388
6159000000.0 -0.6671 0.621
6162000000.0 0.07153 0.9217
6166000000.0 0.7283 0.5134
6169000000.0 0.9112 -0.2411
6172000000.0 0.3129 -0.8314
6175000000.0 -0.4049 -0.8148
6178000000.0 -0.9118 -0.1974
6181000000.0 -0.7108 0.5949
6184000000.0 0.02168 0.928
6188000000.0 0.6989 0.5989
6191000000.0 0.9193 -0.1481
6194000000.0 0.4612 -0.8179
6197000000.0 -0.3595 -0.842
6200000000.0 -0.8717 -0.2921
6203000000.0 -0.7441 0.5052
6206000000.0 -0.1067 0.9579
6209000000.0 0.6513 0.6515
6212000000.0 0.9456 -0.06238
6216000000.0 0.5372 -0.7484
6219000000.0 -0.2515 -0.897
6222000000.0 -0.8436 -0.4097
6225000000.0 -0.8297 0.3822
6228000000.0 -0.1979 0.8725
6231000000.0 0.5393 0.7296
6234000000.0 0.8739 0.02119
6238000000.0 0.6131 -0.6479
6241000000.0 -0.1132 -0.8424
6244000000.0 -0.7272 -0.4764
6247000000.0 -0.8358 0.256
6250000000.0 -0.2954 0.7944
6253000000.0 0.4215 0.716
6256000000.0 0.8091 0.1481
6259000000.0 0.6202 -0.539
6262000000.0 0.05807 -0.8325
6266000000.0 -0.5888 -0.5355
6269000000.0 -0.792 0.09692
