! Created with skrf 1.8.0 (http://scikit-rf.org).
# Hz S RI R 50.0 
!freq ReS11 ImS11
4000000000.0 -0.1966 -1.525
4003000000.0 -1.259 -0.7839
4006000000.0 -1.448 0.4783
4009000000.0 -0.515 1.494
4012000000.0 0.7781 1.345
4016000000.0 1.543 0.1797
4019000000.0 1.144 -1.097
4022000000.0 -0.1727 -1.559
4025000000.0 -1.387 -0.8778
4028000000.0 -1.511 0.5282
4031000000.0 -0.5312 1.488
4034000000.0 0.8536 1.379
4038000000.0 1.618 0.1964
4041000000.0 1.182 -1.147
4044000000.0 -0.179 -1.676
4047000000.0 -1.386 -0.8738
4050000000.0 -1.57 0.4383
4053000000.0 -0.6121 1.517
4056000000.0 0.8195 1.442
4059000000.0 1.604 0.251
4062000000.0 1.241 -0.993
4066000000.0 -0.01321 -1.631
4069000000.0 -1.282 -1.063
4072000000.0 -1.628 0.2794
4075000000.0 -0.8131 1.473
4078000000.0 0.5849 1.527
4081000000.0 1.562 0.5174
4084000000.0 1.444 -0.8888
4088000000.0 0.1924 -1.644
4091000000.0 -1.162 -1.228
4094000000.0 -1.678 0.1517
4097000000.0 -0.9841 1.389
4100000000.0 0.4153 1.587
4103000000.0 1.457 0.6694
4106000000.0 1.449 -0.6752
4109000000.0 0.4374 -1.536
4112000000.0 -0.8628 -1.289
4116000000.0 -1.509 -0.1933
4119000000.0 -1.104 1.038
4122000000.0 0.06342 1.486
4125000000.0 1.158 0.965
4128000000.0 1.453 -0.2468
4131000000.0 0.7726 -1.299
4134000000.0 -0.4528 -1.431
4138000000.0 -1.377 -0.5707
4141000000.0 -1.337 0.7087
4144000000.0 -0.3422 1.462
4147000000.0 0.8851 1.252
4150000000.0 1.518 0.08505
4153000000.0 1.082 -1.116
4156000000.0 -0.1738 -1.518
4159000000.0 -1.313 -0.854
4162000000.0 -1.456 0.4068
4166000000.0 -0.6393 1.403
4169000000.0 0.6861 1.362
4172000000.0 1.474 0.3839
4175000000.0 1.244 -0.8653
4178000000.0 0.08161 -1.476
4181000000.0 -1.069 -1.063
4184000000.0 -1.509 0.1442
4188000000.0 -0.8644 1.274
4191000000.0 0.4309 1.487
4194000000.0 1.437 0.639
4197000000.0 1.44 -0.703
4200000000.0 0.3328 -1.56
4203000000.0 -1.029 -1.236
4206000000.0 -1.624 0.01505
4209000000.0 -1.038 1.285
4212000000.0 0.469 1.633
4216000000.0 1.564 0.6734
4219000000.0 1.51 -0.8166
4222000000.0 0.2473 -1.692
4225000000.0 -1.175 -1.247
4228000000.0 -1.719 0.2094
4231000000.0 -0.861 1.451
4234000000.0 0.608 1.516
4238000000.0 1.586 0.4072
4241000000.0 1.317 -1.004
4244000000.0 -0.03827 -1.629
4247000000.0 -1.248 -0.9961
4250000000.0 -1.532 0.3749
4253000000.0 -0.623 1.45
4256000000.0 0.7781 1.341
4259000000.0 1.515 0.2458
4262000000.0 1.111 -1.077
4266000000.0 -0.1488 -1.49
4269000000.0 -1.248 -0.7942
4272000000.0 -1.386 0.5197
4275000000.0 -0.4429 1.379
4278000000.0 0.8389 1.249
4281000000.0 1.46 0.1375
4284000000.0 0.963 -1.063
4288000000.0 -0.2302 -1.395
4291000000.0 -1.197 -0.6976
4294000000.0 -1.268 0.4889
4297000000.0 -0.4105 1.251
4300000000.0 0.6796 1.162
4303000000.0 1.32 0.1907
4306000000.0 0.9897 -0.8712
4309000000.0 -0.03308 -1.335
4312000000.0 -1.035 -0.8063
4316000000.0 -1.291 0.2616
4319000000.0 -0.6399 1.155
4322000000.0 0.4468 1.242
4325000000.0 1.245 0.5136
4328000000.0 1.121 -0.6931
4331000000.0 0.2631 -1.346
4334000000.0 -0.8841 -1.052
4338000000.0 -1.414 -0.01107
4341000000.0 -0.9006 1.111
4344000000.0 0.2912 1.381
4347000000.0 1.292 0.6834
4350000000.0 1.347 -0.5286
4353000000.0 0.4406 -1.394
4356000000.0 -0.8323 -1.235
4359000000.0 -1.442 -0.1958
4362000000.0 -1.088 0.9838
4366000000.0 0.08111 1.458
4369000000.0 1.181 0.8749
4372000000.0 1.462 -0.3684
4375000000.0 0.68 -1.365
4378000000.0 -0.6329 -1.391
4381000000.0 -1.476 -0.3992
4384000000.0 -1.267 0.8875
4388000000.0 -0.06183 1.569
4391000000.0 1.177 1.083
4394000000.0 1.557 -0.2434
4397000000.0 0.7632 -1.418
4400000000.0 -0.5658 -1.463
4403000000.0 -1.539 -0.4667
4406000000.0 -1.291 0.9417
4409000000.0 -0.05327 1.553
4412000000.0 1.231 1.029
4416000000.0 1.576 -0.3128
4419000000.0 0.7044 -1.394
4422000000.0 -0.6575 -1.388
4425000000.0 -1.468 -0.3246
4428000000.0 -1.143 0.9481
4431000000.0 0.03954 1.481
4434000000.0 1.155 0.8831
4438000000.0 1.386 -0.3331
4441000000.0 0.532 -1.267
4444000000.0 -0.6944 -1.2
4447000000.0 -1.355 -0.1997
4450000000.0 -0.9531 0.9071
4453000000.0 0.1161 1.291
4456000000.0 1.094 0.7
4459000000.0 1.217 -0.4632
4462000000.0 0.3575 -1.213
4466000000.0 -0.7188 -1.046
4469000000.0 -1.247 -0.08746
4472000000.0 -0.7811 0.9519
4475000000.0 0.2629 1.19
4478000000.0 1.052 0.5523
4481000000.0 1.064 -0.4838
4484000000.0 0.2563 -1.143
4488000000.0 -0.743 -0.9131
4491000000.0 -1.145 -0.009754
4494000000.0 -0.731 0.9107
4497000000.0 0.265 1.101
4500000000.0 1.012 0.501
4503000000.0 1.015 -0.4955
4506000000.0 0.2746 -1.073
4509000000.0 -0.6918 -0.891
4512000000.0 -1.122 -0.02474
4516000000.0 -0.7414 0.8796
4519000000.0 0.2181 1.127
4522000000.0 0.9948 0.5582
4525000000.0 1.084 -0.4289
4528000000.0 0.3566 -1.117
4531000000.0 -0.6676 -0.9791
4534000000.0 -1.17 -0.1034
4538000000.0 -0.858 0.8288
4541000000.0 0.1143 1.175
4544000000.0 0.9976 0.6846
4547000000.0 1.177 -0.3066
4550000000.0 0.5167 -1.094
4553000000.0 -0.5381 -1.105
4556000000.0 -1.204 -0.3119
4559000000.0 -1.014 0.726
4562000000.0 -0.09318 1.265
4566000000.0 0.9181 0.8614
4569000000.0 1.279 -0.1287
4572000000.0 0.7447 -1.053
4575000000.0 -0.3707 -1.241
4578000000.0 -1.215 -0.55
4581000000.0 -1.214 0.5981
4584000000.0 -0.3142 1.336
4588000000.0 0.8268 1.108
4591000000.0 1.387 0.1135
4594000000.0 0.9297 -1.031
4597000000.0 -0.1765 -1.419
4600000000.0 -1.205 -0.7368
4603000000.0 -1.34 0.4907
4606000000.0 -0.501 1.329
4609000000.0 0.7072 1.226
4612000000.0 1.382 0.2126
4616000000.0 1.059 -0.945
4619000000.0 -0.06364 -1.408
4622000000.0 -1.162 -0.844
4625000000.0 -1.357 0.364
4628000000.0 -0.6 1.286
4631000000.0 0.6447 1.256
4634000000.0 1.369 0.2925
4638000000.0 1.11 -0.8699
4641000000.0 0.02115 -1.359
4644000000.0 -1.074 -0.8711
4647000000.0 -1.321 0.3029
4650000000.0 -0.5838 1.206
4653000000.0 0.5645 1.188
4656000000.0 1.251 0.274
4659000000.0 1.013 -0.8042
4662000000.0 -0.03577 -1.284
4666000000.0 -0.9956 -0.7394
4669000000.0 -1.194 0.2944
4672000000.0 -0.4815 1.087
4675000000.0 0.5204 1.058
4678000000.0 1.146 0.2377
4681000000.0 0.8698 -0.7071
4684000000.0 -0.0369 -1.145
4688000000.0 -0.8909 -0.6944
4691000000.0 -1.08 0.2452
4694000000.0 -0.4648 1.006
4697000000.0 0.5013 0.9794
4700000000.0 1.056 0.2215
4703000000.0 0.8386 -0.7163
4706000000.0 -0.02408 -1.088
4709000000.0 -0.9177 -0.6361
4712000000.0 -1.062 0.2813
4716000000.0 -0.4125 0.9863
4719000000.0 0.4761 0.9552
4722000000.0 1.081 0.1814
4725000000.0 0.7885 -0.7019
4728000000.0 -0.03606 -1.06
4731000000.0 -0.8288 -0.6453
4734000000.0 -1.008 0.2649
4738000000.0 -0.465 0.9484
4741000000.0 0.4212 0.9687
4744000000.0 1.023 0.2737
4747000000.0 0.904 -0.6208
4750000000.0 0.07205 -1.067
4753000000.0 -0.7838 -0.7778
4756000000.0 -1.078 0.1153
4759000000.0 -0.6417 0.9224
4762000000.0 0.3048 1.107
4766000000.0 1.065 0.4656
4769000000.0 1.041 -0.4945
4772000000.0 0.2733 -1.141
4775000000.0 -0.7054 -0.9634
4778000000.0 -1.199 -0.1001
4781000000.0 -0.8311 0.8824
4784000000.0 0.1176 1.214
4788000000.0 1.008 0.6821
4791000000.0 1.189 -0.3477
4794000000.0 0.5231 -1.158
4797000000.0 -0.5451 -1.162
4800000000.0 -1.241 -0.3332
4803000000.0 -1.009 0.6902
4806000000.0 -0.1289 1.258
4809000000.0 0.9185 0.9149
4812000000.0 1.324 -0.09122
4816000000.0 0.7538 -1.083
4819000000.0 -0.3738 -1.314
4822000000.0 -1.222 -0.5492
4825000000.0 -1.244 0.6051
4828000000.0 -0.3319 1.357
4831000000.0 0.8456 1.122
4834000000.0 1.404 0.05687
4838000000.0 0.927 -1.058
4841000000.0 -0.2151 -1.421
4844000000.0 -1.224 -0.7203
4847000000.0 -1.336 0.5033
4850000000.0 -0.4453 1.323
4853000000.0 0.7489 1.176
4856000000.0 1.387 0.1588
4859000000.0 0.9872 -0.9694
4862000000.0 -0.092 -1.371
4866000000.0 -1.12 -0.7619
4869000000.0 -1.28 0.373
4872000000.0 -0.4972 1.206
4875000000.0 0.6282 1.158
4878000000.0 1.292 0.227
4881000000.0 0.9742 -0.829
4884000000.0 0.004605 -1.27
4888000000.0 -0.9817 -0.772
4891000000.0 -1.211 0.3013
4894000000.0 -0.5324 1.092
4897000000.0 0.5291 1.053
4900000000.0 1.107 0.252
4903000000.0 0.877 -0.703
4906000000.0 0.02031 -1.11
4909000000.0 -0.8218 -0.7053
4912000000.0 -1.011 0.2127
4916000000.0 -0.4973 0.8938
4919000000.0 0.3933 0.9336
4922000000.0 0.968 0.305
4925000000.0 0.793 -0.5256
4928000000.0 0.1016 -0.9694
4931000000.0 -0.6653 -0.6617
4934000000.0 -0.9357 0.09202
4938000000.0 -0.5356 0.7884
4941000000.0 0.2705 0.9103
4944000000.0 0.9074 0.3435
4947000000.0 0.8522 -0.4413
4950000000.0 0.1729 -0.9313
4953000000.0 -0.6297 -0.731
4956000000.0 -0.9758 0.0347
4959000000.0 -0.5987 0.7828
4962000000.0 0.2016 0.9494
4966000000.0 0.8793 0.4354
4969000000.0 0.9225 -0.441
4972000000.0 0.2529 -0.9892
4975000000.0 -0.5854 -0.835
4978000000.0 -1.017 -0.05009
4981000000.0 -0.7287 0.7808
4984000000.0 0.1302 1.066
4988000000.0 0.9134 0.5737
4991000000.0 1.018 -0.3289
4994000000.0 0.4369 -1.003
4997000000.0 -0.5469 -0.9628
5000000000.0 -1.113 -0.2248
5003000000.0 -0.9112 0.7244
5006000000.0 -0.01609 1.188
5009000000.0 0.9039 0.7934
5012000000.0 1.229 -0.2109
5016000000.0 0.6281 -1.087
5019000000.0 -0.465 -1.191
5022000000.0 -1.191 -0.4024
5025000000.0 -1.089 0.6718
5028000000.0 -0.1688 1.283
5031000000.0 0.8775 0.9574
5034000000.0 1.297 -0.05198
5038000000.0 0.7865 -1.053
5041000000.0 -0.3151 -1.273
5044000000.0 -1.183 -0.5753
5047000000.0 -1.205 0.5582
5050000000.0 -0.3575 1.275
5053000000.0 0.7334 1.104
5056000000.0 1.316 0.138
5059000000.0 0.9557 -0.9234
5062000000.0 -0.1094 -1.306
5066000000.0 -1.073 -0.767
5069000000.0 -1.251 0.3208
5072000000.0 -0.5351 1.207
5075000000.0 0.5645 1.145
5078000000.0 1.242 0.3234
5081000000.0 1.011 -0.7585
5084000000.0 0.06331 -1.25
5088000000.0 -0.9068 -0.8601
5091000000.0 -1.206 0.1643
5094000000.0 -0.6225 1.015
5097000000.0 0.3356 1.118
5100000000.0 1.049 0.4483
5103000000.0 1.006 -0.5198
5106000000.0 0.2494 -1.099
5109000000.0 -0.6909 -0.8732
5112000000.0 -1.123 -0.05864
5116000000.0 -0.7502 0.7581
5119000000.0 0.1231 1.064
5122000000.0 0.8711 0.571
5125000000.0 0.9767 -0.3108
5128000000.0 0.3866 -0.9377
5131000000.0 -0.4974 -0.8939
5134000000.0 -0.9823 -0.184
5138000000.0 -0.7908 0.6636
5141000000.0 -0.0174 0.9707
5144000000.0 0.7796 0.6172
5147000000.0 0.969 -0.1959
5150000000.0 0.4188 -0.8496
5153000000.0 -0.3427 -0.8695
5156000000.0 -0.8718 -0.2486
5159000000.0 -0.7676 0.5286
5162000000.0 -0.04508 0.9446
5166000000.0 0.6709 0.6363
5169000000.0 0.9163 -0.1236
5172000000.0 0.4956 -0.7392
5175000000.0 -0.2823 -0.8366
5178000000.0 -0.8754 -0.3348
5181000000.0 -0.7754 0.4967
5184000000.0 -0.1225 0.9009
5188000000.0 0.6446 0.6663
5191000000.0 0.9232 -0.1127
5194000000.0 0.5147 -0.7696
5197000000.0 -0.307 -0.9022
5200000000.0 -0.9044 -0.3125
5203000000.0 -0.8055 0.5095
5206000000.0 -0.1528 0.9552
5209000000.0 0.7014 0.6861
5212000000.0 0.9883 -0.08972
5216000000.0 0.5344 -0.8166
5219000000.0 -0.2946 -0.953
5222000000.0 -0.9161 -0.376
5225000000.0 -0.9209 0.4937
5228000000.0 -0.1882 1.002
5231000000.0 0.6456 0.8166
5234000000.0 1.032 0.001835
5238000000.0 0.684 -0.8135
5241000000.0 -0.1924 -1.047
5244000000.0 -0.9333 -0.5204
5247000000.0 -0.9774 0.3766
5250000000.0 -0.3338 1.02
5253000000.0 0.5714 0.909
5256000000.0 1.09 0.1277
5259000000.0 0.8199 -0.7426
5262000000.0 -0.04237 -1.125
5266000000.0 -0.8752 -0.6539
5269000000.0 -1.088 0.2434
5272000000.0 -0.4755 0.9635
5275000000.0 0.402 1.023
5278000000.0 1.036 0.3184
5281000000.0 0.9397 -0.5791
5284000000.0 0.1833 -1.11
5288000000.0 -0.7567 -0.8408
5291000000.0 -1.136 -0.02369
5294000000.0 -0.7017 0.8611
5297000000.0 0.1871 1.101
5300000000.0 0.9716 0.5832
5303000000.0 1.063 -0.3817
5306000000.0 0.4041 -1.076
5309000000.0 -0.5534 -1.03
5312000000.0 -1.148 -0.2021
5316000000.0 -0.869 0.7423
5319000000.0 -0.02113 1.17
5322000000.0 0.8739 0.7706
5325000000.0 1.167 -0.212
5328000000.0 0.6116 -1.004
5331000000.0 -0.4039 -1.099
5334000000.0 -1.068 -0.378
5338000000.0 -0.9668 0.5632
5341000000.0 -0.1777 1.141
5344000000.0 0.752 0.8602
5347000000.0 1.123 -0.05995
5350000000.0 0.7011 -0.8999
5353000000.0 -0.258 -1.063
5356000000.0 -0.986 -0.4853
5359000000.0 -0.9921 0.4939
5362000000.0 -0.2915 1.055
5366000000.0 0.6899 0.8423
5369000000.0 1.057 0.04162
5372000000.0 0.6774 -0.8161
5375000000.0 -0.1884 -1.027
5378000000.0 -0.9205 -0.4709
5381000000.0 -0.9303 0.418
5384000000.0 -0.2547 0.968
5388000000.0 0.5947 0.7925
5391000000.0 0.9599 -0.008495
5394000000.0 0.606 -0.7497
5397000000.0 -0.1993 -0.9366
5400000000.0 -0.8407 -0.3998
5403000000.0 -0.8325 0.4221
5406000000.0 -0.1827 0.8716
5409000000.0 0.5515 0.6673
5412000000.0 0.8971 -0.02316
5416000000.0 0.5387 -0.7179
5419000000.0 -0.2078 -0.8303
5422000000.0 -0.78 -0.379
5425000000.0 -0.7675 0.3839
5428000000.0 -0.1836 0.8386
5431000000.0 0.5263 0.7043
5434000000.0 0.882 -0.03921
5438000000.0 0.5466 -0.7244
5441000000.0 -0.2203 -0.8771
5444000000.0 -0.797 -0.3538
5447000000.0 -0.8057 0.4178
5450000000.0 -0.2042 0.8703
5453000000.0 0.5618 0.7051
5456000000.0 0.8998 -0.01336
5459000000.0 0.621 -0.7001
5462000000.0 -0.1477 -0.8909
5466000000.0 -0.8031 -0.4718
5469000000.0 -0.8479 0.3277
5472000000.0 -0.2926 0.8728
5475000000.0 0.4506 0.7956
5478000000.0 0.9348 0.1732
5481000000.0 0.7338 -0.6064
5484000000.0 -0.01347 -0.9616
5488000000.0 -0.7703 -0.6095
5491000000.0 -0.9893 0.2226
5494000000.0 -0.5064 0.9009
5497000000.0 0.4069 0.9332
5500000000.0 0.9955 0.3181
5503000000.0 0.8871 -0.5468
5506000000.0 0.1607 -1.049
5509000000.0 -0.6863 -0.7644
5512000000.0 -1.031 0.04489
5516000000.0 -0.6651 0.79
5519000000.0 0.1935 1.048
5522000000.0 0.9299 0.5078
5525000000.0 0.9761 -0.3715
5528000000.0 0.375 -0.9998
5531000000.0 -0.5336 -0.9308
5534000000.0 -1.054 -0.2158
5538000000.0 -0.8172 0.7124
5541000000.0 0.04128 1.091
5544000000.0 0.8287 0.662
5547000000.0 1.066 -0.1997
5550000000.0 0.5131 -0.9281
5553000000.0 -0.4223 -0.9745
5556000000.0 -1.033 -0.3321
5559000000.0 -0.8911 0.5784
5562000000.0 -0.1221 1.02
5566000000.0 0.7245 0.7431
5569000000.0 1.029 -0.06317
5572000000.0 0.6193 -0.8302
5575000000.0 -0.256 -0.9747
5578000000.0 -0.9213 -0.4338
5581000000.0 -0.9171 0.3901
5584000000.0 -0.2512 0.9733
5588000000.0 0.5633 0.7997
5591000000.0 0.9561 0.06989
5594000000.0 0.6747 -0.6959
5597000000.0 -0.1135 -0.937
5600000000.0 -0.802 -0.4896
5603000000.0 -0.8711 0.3038
5606000000.0 -0.3443 0.8594
5609000000.0 0.4699 0.7619
5612000000.0 0.885 0.141
5616000000.0 0.6173 -0.6052
5619000000.0 -0.06187 -0.8718
5622000000.0 -0.7 -0.498
5625000000.0 -0.8123 0.2504
5628000000.0 -0.3081 0.7926
5631000000.0 0.3795 0.7503
5634000000.0 0.8108 0.1554
5638000000.0 0.6365 -0.5534
5641000000.0 -0.06018 -0.8615
5644000000.0 -0.6831 -0.4939
5647000000.0 -0.8171 0.2053
5650000000.0 -0.3323 0.7871
5653000000.0 0.4141 0.7604
5656000000.0 0.8417 0.1511
5659000000.0 0.6526 -0.5656
5662000000.0 -0.03205 -0.869
5666000000.0 -0.7266 -0.5323
5669000000.0 -0.8697 0.2224
5672000000.0 -0.3746 0.822
5675000000.0 0.4265 0.8188
5678000000.0 0.9029 0.1896
5681000000.0 0.7476 -0.5986
5684000000.0 -0.01124 -0.9568
5688000000.0 -0.7614 -0.5951
5691000000.0 -0.9722 0.2248
5694000000.0 -0.4201 0.9002
5697000000.0 0.4168 0.9058
5700000000.0 0.9595 0.2588
5703000000.0 0.807 -0.6142
5706000000.0 0.04062 -1.027
5709000000.0 -0.7839 -0.6867
5712000000.0 -1.017 0.1429
5716000000.0 -0.5351 0.885
5719000000.0 0.3484 1.017
5722000000.0 1.027 0.3815
5725000000.0 0.9554 -0.5355
5728000000.0 0.188 -1.094
5731000000.0 -0.7111 -0.8476
5734000000.0 -1.08 0.00533
5738000000.0 -0.7214 0.8313
5741000000.0 0.1857 1.096
5744000000.0 0.9797 0.5327
5747000000.0 1.013 -0.4101
5750000000.0 0.3312 -1.065
5753000000.0 -0.6303 -0.9528
5756000000.0 -1.119 -0.1627
5759000000.0 -0.822 0.7834
5762000000.0 0.08079 1.112
5766000000.0 0.8968 0.7034
5769000000.0 1.096 -0.2643
5772000000.0 0.4854 -1.026
5775000000.0 -0.4602 -1.019
5778000000.0 -1.081 -0.3209
5781000000.0 -0.925 0.6218
5784000000.0 -0.1266 1.086
5788000000.0 0.7743 0.8324
5791000000.0 1.114 -0.06246
5794000000.0 0.6061 -0.8985
5797000000.0 -0.2721 -1.081
5800000000.0 -0.9708 -0.4283
5803000000.0 -0.9825 0.4593
5806000000.0 -0.2694 1.021
5809000000.0 0.6673 0.8689
5812000000.0 1.037 0.02596
5816000000.0 0.7069 -0.7642
5819000000.0 -0.2006 -1.027
5822000000.0 -0.8807 -0.4867
5825000000.0 -0.9309 0.3501
5828000000.0 -0.3101 0.956
5831000000.0 0.5291 0.811
5834000000.0 1.016 0.1423
5838000000.0 0.6904 -0.6556
5841000000.0 -0.06406 -0.943
5844000000.0 -0.8248 -0.5285
5847000000.0 -0.9351 0.3048
5850000000.0 -0.3514 0.9122
5853000000.0 0.4352 0.8251
5856000000.0 0.9389 0.1372
5859000000.0 0.7124 -0.5817
5862000000.0 -0.03967 -0.9219
5866000000.0 -0.7327 -0.5182
5869000000.0 -0.8547 0.2478
5872000000.0 -0.3532 0.8113
5875000000.0 0.4464 0.7961
5878000000.0 0.8821 0.1728
5881000000.0 0.6735 -0.5882
5884000000.0 -0.04865 -0.8358
5888000000.0 -0.728 -0.5358
5891000000.0 -0.8447 0.2276
5894000000.0 -0.3889 0.7873
5897000000.0 0.3648 0.7644
5900000000.0 0.8295 0.1942
5903000000.0 0.7037 -0.5393
5906000000.0 0.05475 -0.9021
5909000000.0 -0.6482 -0.5825
5912000000.0 -0.8426 0.1292
5916000000.0 -0.4698 0.7684
5919000000.0 0.3188 0.8414
5922000000.0 0.8356 0.2757
5925000000.0 0.7355 -0.4849
5928000000.0 0.1384 -0.89
5931000000.0 -0.6164 -0.6728
5934000000.0 -0.8884 0.05279
5938000000.0 -0.5489 0.7365
5941000000.0 0.2131 0.9135
5944000000.0 0.8514 0.424
5947000000.0 0.8698 -0.3803
5950000000.0 0.2522 -0.903
5953000000.0 -0.5432 -0.783
5956000000.0 -0.927 -0.1052
5959000000.0 -0.6739 0.6605
5962000000.0 0.09675 0.9545
5966000000.0 0.7845 0.5402
5969000000.0 0.9434 -0.2307
5972000000.0 0.3943 -0.8985
5975000000.0 -0.4092 -0.8897
5978000000.0 -0.9471 -0.2551
5981000000.0 -0.8095 0.6012
5984000000.0 -0.06691 1.015
5988000000.0 0.7093 0.7177
5991000000.0 0.9957 -0.1114
5994000000.0 0.5619 -0.8774
5997000000.0 -0.3043 -1.02
6000000000.0 -0.9696 -0.3999
6003000000.0 -0.8598 0.4679
6006000000.0 -0.169 0.9734
6009000000.0 0.6189 0.7957
6012000000.0 1.019 0.01884
6016000000.0 0.6394 -0.7863
6019000000.0 -0.1812 -0.9857
6022000000.0 -0.896 -0.4565
6025000000.0 -0.9358 0.3812
6028000000.0 -0.2605 0.9609
6031000000.0 0.556 0.8146
6034000000.0 0.9549 0.07959
6038000000.0 0.6673 -0.6924
6041000000.0 -0.1119 -0.9486
6044000000.0 -0.7974 -0.5028
6047000000.0 -0.9028 0.3108
6050000000.0 -0.3535 0.865
6053000000.0 0.4833 0.8019
6056000000.0 0.9437 0.1248
6059000000.0 0.6779 -0.629
6062000000.0 -0.08701 -0.9223
6066000000.0 -0.7525 -0.5197
6069000000.0 -0.8803 0.2407
6072000000.0 -0.3187 0.8252
6075000000.0 0.427 0.7726
6078000000.0 0.8531 0.1556
6081000000.0 0.6675 -0.5601
6084000000.0 -0.03588 -0.8488
6088000000.0 -0.7058 -0.5233
6091000000.0 -0.8243 0.2111
6094000000.0 -0.3653 0.7971
6097000000.0 0.386 0.7739
6100000000.0 0.8488 0.1818
6103000000.0 0.692 -0.5401
6106000000.0 0.03821 -0.8971
6109000000.0 -0.6596 -0.5735
6112000000.0 -0.847 0.1751
6116000000.0 -0.4105 0.804
6119000000.0 0.3429 0.825
6122000000.0 0.8378 0.242
6125000000.0 0.7653 -0.5075
6128000000.0 0.05387 -0.886
6131000000.0 -0.637 -0.6041
6134000000.0 -0.8826 0.1441
6138000000.0 -0.4648 0.7611
6141000000.0 0.3116 0.8545
6144000000.0 0.8834 0.2791
6147000000.0 0.766 -0.4885
6150000000.0 0.1086 -0.9196
6153000000.0 -0.6328 -0.686
6156000000.0 -0.9065 0.07023
6159000000.0 -0.521 0.7569
6162000000.0 0.2606 0.9074
6166000000.0 0.8632 0.4141
6169000000.0 0.8608 -0.4139
6172000000.0 0.2024 -0.93
6175000000.0 -0.5598 -0.7355
6178000000.0 -0.9976 0.004944
6181000000.0 -0.5951 0.7317
6184000000.0 0.2043 0.9556
6188000000.0 0.8608 0.4546
6191000000.0 0.8945 -0.3618
6194000000.0 0.2914 -0.9393
6197000000.0 -0.5316 -0.7595
6200000000.0 -0.953 -0.06074
6203000000.0 -0.6654 0.6878
6206000000.0 0.09119 0.9431
6209000000.0 0.7774 0.5771
6212000000.0 0.9164 -0.2514
6216000000.0 0.3901 -0.8721
6219000000.0 -0.3996 -0.8387
6222000000.0 -0.9061 -0.1876
6225000000.0 -0.7271 0.5715
6228000000.0 -0.03049 0.9501
6231000000.0 0.6924 0.6211
6234000000.0 0.9127 -0.1729
6238000000.0 0.4543 -0.7574
6241000000.0 -0.2857 -0.827
6244000000.0 -0.8368 -0.3182
6247000000.0 -0.7736 0.4241
6250000000.0 -0.1335 0.8569
6253000000.0 0.5713 0.6577
6256000000.0 0.8313 -0.01015
6259000000.0 0.5483 -0.6569
6262000000.0 -0.1591 -0.8149
6266000000.0 -0.6879 -0.4205
6269000000.0 -0.7833 0.2812
