! Created with skrf 1.8.0 (http://scikit-rf.org).
# Hz S RI R 50.0 
!freq ReS11 ImS11
4000000000.0 -0.1619 -1.525
4003000000.0 -1.273 -0.8208
4006000000.0 -1.414 0.4783
4009000000.0 -0.5409 1.402
4012000000.0 0.7963 1.335
4016000000.0 1.539 0.2178
4019000000.0 1.201 -1.046
4022000000.0 -0.1132 -1.564
4025000000.0 -1.269 -0.8965
4028000000.0 -1.551 0.4478
4031000000.0 -0.6061 1.487
4034000000.0 0.8234 1.378
4038000000.0 1.585 0.2395
4041000000.0 1.194 -1.109
4044000000.0 -0.09374 -1.63
4047000000.0 -1.334 -0.8988
4050000000.0 -1.531 0.4223
4053000000.0 -0.6545 1.479
4056000000.0 0.7732 1.416
4059000000.0 1.573 0.3303
4062000000.0 1.231 -1.016
4066000000.0 0.03725 -1.601
4069000000.0 -1.224 -1.027
4072000000.0 -1.578 0.2127
4075000000.0 -0.8178 1.383
4078000000.0 0.5757 1.526
4081000000.0 1.538 0.5873
4084000000.0 1.412 -0.8264
4088000000.0 0.2653 -1.65
4091000000.0 -1.123 -1.219
4094000000.0 -1.629 0.09084
4097000000.0 -0.9762 1.285
4100000000.0 0.3861 1.61
4103000000.0 1.405 0.6967
4106000000.0 1.448 -0.6318
4109000000.0 0.484 -1.498
4112000000.0 -0.849 -1.28
4116000000.0 -1.51 -0.2289
4119000000.0 -1.112 1.007
4122000000.0 0.02314 1.509
4125000000.0 1.123 0.961
4128000000.0 1.453 -0.2079
4131000000.0 0.7884 -1.234
4134000000.0 -0.4095 -1.394
4138000000.0 -1.359 -0.5964
4141000000.0 -1.354 0.6424
4144000000.0 -0.421 1.432
4147000000.0 0.8782 1.235
4150000000.0 1.501 0.1639
4153000000.0 1.089 -1.047
4156000000.0 -0.07563 -1.504
4159000000.0 -1.231 -0.8804
4162000000.0 -1.486 0.3868
4166000000.0 -0.6374 1.394
4169000000.0 0.6325 1.364
4172000000.0 1.449 0.421
4175000000.0 1.24 -0.8341
4178000000.0 0.1535 -1.511
4181000000.0 -1.046 -1.056
4184000000.0 -1.524 0.05413
4188000000.0 -0.9121 1.256
4191000000.0 0.3244 1.499
4194000000.0 1.387 0.6922
4197000000.0 1.396 -0.6655
4200000000.0 0.3782 -1.558
4203000000.0 -0.9463 -1.26
4206000000.0 -1.622 0.001523
4209000000.0 -1.056 1.235
4212000000.0 0.3315 1.608
4216000000.0 1.485 0.7631
4219000000.0 1.542 -0.7538
4222000000.0 0.3404 -1.667
4225000000.0 -1.124 -1.237
4228000000.0 -1.667 0.09592
4231000000.0 -0.9513 1.406
4234000000.0 0.5462 1.579
4238000000.0 1.582 0.5221
4241000000.0 1.378 -0.9189
4244000000.0 0.07623 -1.611
4247000000.0 -1.207 -1.054
4250000000.0 -1.553 0.3364
4253000000.0 -0.6819 1.407
4256000000.0 0.6867 1.356
4259000000.0 1.544 0.3205
4262000000.0 1.179 -0.9864
4266000000.0 -0.06227 -1.492
4269000000.0 -1.239 -0.8428
4272000000.0 -1.438 0.4553
4275000000.0 -0.5339 1.401
4278000000.0 0.7038 1.27
4281000000.0 1.442 0.152
4284000000.0 0.9978 -0.986
4288000000.0 -0.1113 -1.405
4291000000.0 -1.149 -0.7379
4294000000.0 -1.286 0.4123
4297000000.0 -0.4856 1.249
4300000000.0 0.6083 1.178
4303000000.0 1.286 0.2521
4306000000.0 0.9885 -0.8189
4309000000.0 0.01952 -1.3
4312000000.0 -0.9783 -0.8612
4316000000.0 -1.249 0.1927
4319000000.0 -0.6953 1.119
4322000000.0 0.4014 1.254
4325000000.0 1.213 0.5035
4328000000.0 1.17 -0.6089
4331000000.0 0.2941 -1.332
4334000000.0 -0.8404 -1.098
4338000000.0 -1.377 -0.05079
4341000000.0 -0.9096 1.077
4344000000.0 0.2265 1.361
4347000000.0 1.23 0.742
4350000000.0 1.371 -0.4813
4353000000.0 0.5133 -1.339
4356000000.0 -0.7422 -1.224
4359000000.0 -1.434 -0.2372
4362000000.0 -1.08 0.9642
4366000000.0 0.008699 1.473
4369000000.0 1.144 0.926
4372000000.0 1.454 -0.2925
4375000000.0 0.7211 -1.312
4378000000.0 -0.5681 -1.406
4381000000.0 -1.431 -0.4678
4384000000.0 -1.295 0.8129
4388000000.0 -0.152 1.555
4391000000.0 1.096 1.134
4394000000.0 1.554 -0.1526
4397000000.0 0.8847 -1.343
4400000000.0 -0.5101 -1.514
4403000000.0 -1.526 -0.5766
4406000000.0 -1.331 0.8376
4409000000.0 -0.2138 1.555
4412000000.0 1.119 1.115
4416000000.0 1.526 -0.2024
4419000000.0 0.8185 -1.336
4422000000.0 -0.5183 -1.411
4425000000.0 -1.441 -0.4651
4428000000.0 -1.229 0.844
4431000000.0 -0.07836 1.444
4434000000.0 1.108 0.9456
4438000000.0 1.385 -0.2315
4441000000.0 0.6616 -1.222
4444000000.0 -0.582 -1.249
4447000000.0 -1.332 -0.3126
4450000000.0 -1.057 0.8501
4453000000.0 0.0167 1.365
4456000000.0 1.016 0.8231
4459000000.0 1.184 -0.3241
4462000000.0 0.5021 -1.162
4466000000.0 -0.6204 -1.048
4469000000.0 -1.219 -0.1635
4472000000.0 -0.8513 0.8809
4475000000.0 0.1438 1.168
4478000000.0 1.012 0.6069
4481000000.0 1.109 -0.426
4484000000.0 0.3301 -1.1
4488000000.0 -0.6448 -0.9081
4491000000.0 -1.132 -0.07605
4494000000.0 -0.7499 0.8584
4497000000.0 0.1487 1.137
4500000000.0 0.9764 0.5749
4503000000.0 1.008 -0.3938
4506000000.0 0.3028 -1.029
4509000000.0 -0.6032 -0.9049
4512000000.0 -1.079 -0.09857
4516000000.0 -0.7642 0.7833
4519000000.0 0.1022 1.104
4522000000.0 0.9718 0.6096
4525000000.0 1.06 -0.3499
4528000000.0 0.4169 -1.075
4531000000.0 -0.5645 -1.013
4534000000.0 -1.147 -0.2159
4538000000.0 -0.8829 0.7741
4541000000.0 0.01947 1.207
4544000000.0 0.9156 0.7522
4547000000.0 1.182 -0.2366
4550000000.0 0.5854 -1.082
4553000000.0 -0.4577 -1.101
4556000000.0 -1.171 -0.3824
4559000000.0 -1.057 0.6488
4562000000.0 -0.1713 1.223
4566000000.0 0.8427 0.9266
4569000000.0 1.281 -0.04691
4572000000.0 0.7937 -1.016
4575000000.0 -0.2867 -1.255
4578000000.0 -1.172 -0.5771
4581000000.0 -1.217 0.4995
4584000000.0 -0.3898 1.276
4588000000.0 0.7334 1.125
4591000000.0 1.336 0.1488
4594000000.0 0.9627 -0.9784
4597000000.0 -0.0984 -1.394
4600000000.0 -1.131 -0.7826
4603000000.0 -1.346 0.3937
4606000000.0 -0.5917 1.301
4609000000.0 0.6368 1.243
4612000000.0 1.351 0.3129
4616000000.0 1.115 -0.8783
4619000000.0 0.003608 -1.405
4622000000.0 -1.053 -0.9043
4625000000.0 -1.373 0.2569
4628000000.0 -0.6599 1.22
4631000000.0 0.5005 1.286
4634000000.0 1.307 0.3716
4638000000.0 1.115 -0.7649
4641000000.0 0.09298 -1.374
4644000000.0 -0.984 -0.908
4647000000.0 -1.35 0.2045
4650000000.0 -0.6998 1.135
4653000000.0 0.4692 1.186
4656000000.0 1.249 0.3663
4659000000.0 1.038 -0.7211
4662000000.0 0.0825 -1.264
4666000000.0 -0.9285 -0.8316
4669000000.0 -1.228 0.2294
4672000000.0 -0.5774 1.047
4675000000.0 0.4512 1.091
4678000000.0 1.134 0.3122
4681000000.0 0.9229 -0.6919
4684000000.0 0.07134 -1.164
4688000000.0 -0.8688 -0.7514
4691000000.0 -1.104 0.1834
4694000000.0 -0.5162 0.9655
4697000000.0 0.4389 1.048
4700000000.0 1.036 0.2544
4703000000.0 0.8642 -0.6371
4706000000.0 0.03894 -1.094
4709000000.0 -0.8381 -0.6922
4712000000.0 -1.077 0.2256
4716000000.0 -0.5322 0.9627
4719000000.0 0.4255 0.9754
4722000000.0 1.035 0.229
4725000000.0 0.8285 -0.6601
4728000000.0 0.01536 -1.038
4731000000.0 -0.8049 -0.6888
4734000000.0 -1.048 0.1749
4738000000.0 -0.4947 0.9175
4741000000.0 0.3622 0.9847
4744000000.0 1.011 0.3092
4747000000.0 0.8952 -0.5396
4750000000.0 0.1095 -1.049
4753000000.0 -0.7185 -0.8007
4756000000.0 -1.099 0.06704
4759000000.0 -0.6572 0.8564
4762000000.0 0.2252 1.094
4766000000.0 1.021 0.51
4769000000.0 1.038 -0.4676
4772000000.0 0.3221 -1.086
4775000000.0 -0.657 -0.9548
4778000000.0 -1.174 -0.1107
4781000000.0 -0.859 0.8169
4784000000.0 0.0681 1.214
4788000000.0 0.9679 0.7138
4791000000.0 1.159 -0.268
4794000000.0 0.596 -1.09
4797000000.0 -0.4769 -1.17
4800000000.0 -1.215 -0.3728
4803000000.0 -1.038 0.6702
4806000000.0 -0.1616 1.263
4809000000.0 0.8244 0.9193
4812000000.0 1.292 -0.02591
4816000000.0 0.8005 -1.026
4819000000.0 -0.2667 -1.33
4822000000.0 -1.156 -0.616
4825000000.0 -1.245 0.5171
4828000000.0 -0.3914 1.318
4831000000.0 0.8024 1.165
4834000000.0 1.383 0.1288
4838000000.0 1.006 -0.9818
4841000000.0 -0.1492 -1.403
4844000000.0 -1.158 -0.7653
4847000000.0 -1.35 0.4207
4850000000.0 -0.5133 1.293
4853000000.0 0.6795 1.21
4856000000.0 1.391 0.245
4859000000.0 1.051 -0.8889
4862000000.0 -0.02162 -1.367
4866000000.0 -1.034 -0.8301
4869000000.0 -1.329 0.2878
4872000000.0 -0.5958 1.207
4875000000.0 0.553 1.209
4878000000.0 1.249 0.3112
4881000000.0 1.019 -0.7395
4884000000.0 0.03278 -1.25
4888000000.0 -0.9471 -0.7717
4891000000.0 -1.191 0.2268
4894000000.0 -0.5763 1.037
4897000000.0 0.4382 1.078
4900000000.0 1.121 0.3219
4903000000.0 0.9062 -0.6499
4906000000.0 0.08417 -1.101
4909000000.0 -0.796 -0.7362
4912000000.0 -1.038 0.1543
4916000000.0 -0.5593 0.8763
4919000000.0 0.3433 0.9468
4922000000.0 0.911 0.3364
4925000000.0 0.8557 -0.4721
4928000000.0 0.1263 -0.9699
4931000000.0 -0.6452 -0.689
4934000000.0 -0.9657 0.05183
4938000000.0 -0.5588 0.7725
4941000000.0 0.2161 0.9278
4944000000.0 0.8544 0.4153
4947000000.0 0.8566 -0.4152
4950000000.0 0.2357 -0.9188
4953000000.0 -0.5717 -0.7733
4956000000.0 -0.9654 -0.05895
4959000000.0 -0.6351 0.7488
4962000000.0 0.1748 0.9541
4966000000.0 0.8251 0.474
4969000000.0 0.9098 -0.3411
4972000000.0 0.3217 -0.963
4975000000.0 -0.5323 -0.8517
4978000000.0 -1.009 -0.1383
4981000000.0 -0.7553 0.6971
4984000000.0 0.08418 1.016
4988000000.0 0.8096 0.6226
4991000000.0 1.033 -0.2612
4994000000.0 0.4765 -0.9932
4997000000.0 -0.4849 -1.003
5000000000.0 -1.108 -0.2953
5003000000.0 -0.9561 0.6404
5006000000.0 -0.09248 1.17
5009000000.0 0.8705 0.8034
5012000000.0 1.228 -0.1468
5016000000.0 0.6602 -1.024
5019000000.0 -0.3828 -1.18
5022000000.0 -1.148 -0.4804
5025000000.0 -1.075 0.6332
5028000000.0 -0.2463 1.24
5031000000.0 0.795 0.9673
5034000000.0 1.263 -0.004369
5038000000.0 0.7966 -1.005
5041000000.0 -0.2501 -1.259
5044000000.0 -1.157 -0.6394
5047000000.0 -1.208 0.4507
5050000000.0 -0.4173 1.228
5053000000.0 0.6867 1.114
5056000000.0 1.276 0.1914
5059000000.0 0.9619 -0.8771
5062000000.0 -0.05653 -1.308
5066000000.0 -0.9956 -0.8248
5069000000.0 -1.237 0.2694
5072000000.0 -0.5879 1.167
5075000000.0 0.4571 1.204
5078000000.0 1.256 0.4012
5081000000.0 1.06 -0.7002
5084000000.0 0.1259 -1.227
5088000000.0 -0.8789 -0.8912
5091000000.0 -1.24 0.1126
5094000000.0 -0.7041 0.9521
5097000000.0 0.3145 1.116
5100000000.0 1.003 0.5063
5103000000.0 0.9824 -0.4449
5106000000.0 0.3318 -1.104
5109000000.0 -0.618 -0.8875
5112000000.0 -1.088 -0.1316
5116000000.0 -0.7848 0.7245
5119000000.0 0.09946 1.032
5122000000.0 0.8426 0.6258
5125000000.0 0.9936 -0.2485
5128000000.0 0.4238 -0.9364
5131000000.0 -0.4284 -0.8906
5134000000.0 -1.006 -0.2521
5138000000.0 -0.8281 0.5509
5141000000.0 -0.05401 1.015
5144000000.0 0.7248 0.6685
5147000000.0 0.9409 -0.1602
5150000000.0 0.5042 -0.818
5153000000.0 -0.3097 -0.8841
5156000000.0 -0.8552 -0.315
5159000000.0 -0.773 0.4486
5162000000.0 -0.13 0.9099
5166000000.0 0.612 0.6923
5169000000.0 0.872 -0.08075
5172000000.0 0.5156 -0.7288
5175000000.0 -0.2243 -0.8769
5178000000.0 -0.853 -0.3714
5181000000.0 -0.8054 0.4405
5184000000.0 -0.1746 0.9014
5188000000.0 0.6209 0.7101
5191000000.0 0.9425 -0.02329
5194000000.0 0.5693 -0.7494
5197000000.0 -0.2448 -0.9141
5200000000.0 -0.8405 -0.3464
5203000000.0 -0.8552 0.4289
5206000000.0 -0.1824 0.9438
5209000000.0 0.6188 0.7091
5212000000.0 0.9587 -0.001881
5216000000.0 0.6032 -0.7996
5219000000.0 -0.2162 -0.9735
5222000000.0 -0.902 -0.463
5225000000.0 -0.8766 0.3838
5228000000.0 -0.28 0.9624
5231000000.0 0.5799 0.8269
5234000000.0 1.013 0.06253
5238000000.0 0.7056 -0.7307
5241000000.0 -0.1284 -1.041
5244000000.0 -0.8909 -0.5677
5247000000.0 -1.003 0.3354
5250000000.0 -0.3746 0.9883
5253000000.0 0.4976 0.9313
5256000000.0 1.037 0.2092
5259000000.0 0.8451 -0.6866
5262000000.0 0.004085 -1.101
5266000000.0 -0.8204 -0.7031
5269000000.0 -1.044 0.1731
5272000000.0 -0.5576 0.9465
5275000000.0 0.3763 1.044
5278000000.0 1.037 0.3929
5281000000.0 1.004 -0.54
5284000000.0 0.2361 -1.099
5288000000.0 -0.6947 -0.8752
5291000000.0 -1.106 -0.04851
5294000000.0 -0.7658 0.8439
5297000000.0 0.1236 1.113
5300000000.0 0.9372 0.6131
5303000000.0 1.098 -0.3217
5306000000.0 0.5039 -1.009
5309000000.0 -0.4814 -1.018
5312000000.0 -1.094 -0.2958
5316000000.0 -0.936 0.6408
5319000000.0 -0.0902 1.16
5322000000.0 0.8561 0.8214
5325000000.0 1.154 -0.1125
5328000000.0 0.6829 -0.926
5331000000.0 -0.3107 -1.106
5334000000.0 -1.031 -0.4607
5338000000.0 -1.04 0.5038
5341000000.0 -0.2657 1.079
5344000000.0 0.6652 0.8993
5347000000.0 1.106 0.03212
5350000000.0 0.7256 -0.8301
5353000000.0 -0.1805 -1.128
5356000000.0 -0.9825 -0.563
5359000000.0 -1.038 0.3672
5362000000.0 -0.3621 1.048
5366000000.0 0.5835 0.9438
5369000000.0 1.042 0.09626
5372000000.0 0.7487 -0.7351
5375000000.0 -0.1052 -1.061
5378000000.0 -0.8811 -0.5737
5381000000.0 -0.9589 0.3232
5384000000.0 -0.3528 0.9359
5388000000.0 0.5265 0.8348
5391000000.0 0.962 0.08874
5394000000.0 0.6535 -0.6687
5397000000.0 -0.1147 -0.9186
5400000000.0 -0.7967 -0.4634
5403000000.0 -0.8581 0.3024
5406000000.0 -0.3008 0.865
5409000000.0 0.5258 0.7135
5412000000.0 0.8762 0.08767
5416000000.0 0.5874 -0.6476
5419000000.0 -0.1154 -0.8632
5422000000.0 -0.7597 -0.4389
5425000000.0 -0.8303 0.2863
5428000000.0 -0.2628 0.8432
5431000000.0 0.4943 0.7473
5434000000.0 0.9004 0.08425
5438000000.0 0.5923 -0.654
5441000000.0 -0.1237 -0.8766
5444000000.0 -0.7403 -0.426
5447000000.0 -0.8444 0.2851
5450000000.0 -0.2487 0.8351
5453000000.0 0.4796 0.7671
5456000000.0 0.8764 0.09567
5459000000.0 0.6346 -0.6382
5462000000.0 -0.06363 -0.8674
5466000000.0 -0.7403 -0.5207
5469000000.0 -0.8989 0.2533
5472000000.0 -0.391 0.8335
5475000000.0 0.4086 0.8114
5478000000.0 0.8854 0.2035
5481000000.0 0.7588 -0.5667
5484000000.0 0.06031 -0.9513
5488000000.0 -0.7204 -0.6595
5491000000.0 -0.9652 0.1489
5494000000.0 -0.535 0.8424
5497000000.0 0.3311 0.9746
5500000000.0 0.9392 0.4169
5503000000.0 0.9168 -0.4605
5506000000.0 0.2434 -1.002
5509000000.0 -0.6271 -0.8109
5512000000.0 -1.056 -0.05775
5516000000.0 -0.7109 0.7548
5519000000.0 0.1475 1.028
5522000000.0 0.8791 0.5637
5525000000.0 0.989 -0.3128
5528000000.0 0.4637 -0.9303
5531000000.0 -0.4206 -0.9651
5534000000.0 -1.028 -0.2878
5538000000.0 -0.8687 0.6145
5541000000.0 -0.09069 1.066
5544000000.0 0.733 0.7376
5547000000.0 1.048 -0.08919
5550000000.0 0.5729 -0.8875
5553000000.0 -0.276 -1.003
5556000000.0 -0.9972 -0.4092
5559000000.0 -0.9382 0.4738
5562000000.0 -0.2345 1.011
5566000000.0 0.637 0.8254
5569000000.0 1.068 0.03758
5572000000.0 0.7004 -0.7637
5575000000.0 -0.1714 -1.021
5578000000.0 -0.8468 -0.5339
5581000000.0 -0.9292 0.3274
5584000000.0 -0.3206 0.9322
5588000000.0 0.4897 0.8182
5591000000.0 0.9625 0.1406
5594000000.0 0.7417 -0.6171
5597000000.0 -0.03821 -0.9747
5600000000.0 -0.734 -0.5485
5603000000.0 -0.8764 0.2429
5606000000.0 -0.3916 0.8238
5609000000.0 0.3537 0.8136
5612000000.0 0.8625 0.2209
5616000000.0 0.725 -0.5145
5619000000.0 0.01767 -0.8684
5622000000.0 -0.6428 -0.5929
5625000000.0 -0.8597 0.1376
5628000000.0 -0.4336 0.727
5631000000.0 0.2838 0.7948
5634000000.0 0.8157 0.2302
5638000000.0 0.6733 -0.475
5641000000.0 0.0497 -0.8601
5644000000.0 -0.6079 -0.598
5647000000.0 -0.8279 0.1223
5650000000.0 -0.4075 0.7433
5653000000.0 0.2932 0.8076
5656000000.0 0.8017 0.2784
5659000000.0 0.7196 -0.4599
5662000000.0 0.08554 -0.8596
5666000000.0 -0.6417 -0.597
5669000000.0 -0.8633 0.1231
5672000000.0 -0.4472 0.7632
5675000000.0 0.326 0.818
5678000000.0 0.8556 0.2967
5681000000.0 0.775 -0.5118
5684000000.0 0.07442 -0.9502
5688000000.0 -0.6707 -0.6601
5691000000.0 -0.9522 0.08107
5694000000.0 -0.5135 0.7696
5697000000.0 0.299 0.9341
5700000000.0 0.9314 0.3278
5703000000.0 0.8773 -0.493
5706000000.0 0.1693 -1.004
5709000000.0 -0.6667 -0.7678
5712000000.0 -0.9951 0.03256
5716000000.0 -0.6326 0.8094
5719000000.0 0.2313 1.009
5722000000.0 0.9542 0.4425
5725000000.0 0.9378 -0.4318
5728000000.0 0.29 -1.046
5731000000.0 -0.6474 -0.8865
5734000000.0 -1.078 -0.08758
5738000000.0 -0.7642 0.7668
5741000000.0 0.13 1.1
5744000000.0 0.9167 0.6132
5747000000.0 1.062 -0.2865
5750000000.0 0.4414 -1.002
5753000000.0 -0.472 -1.021
5756000000.0 -1.102 -0.2722
5759000000.0 -0.8904 0.6735
5762000000.0 -0.07372 1.128
5766000000.0 0.8173 0.7858
5769000000.0 1.113 -0.122
5772000000.0 0.5938 -0.9334
5775000000.0 -0.3137 -1.071
5778000000.0 -1.002 -0.4203
5781000000.0 -0.9629 0.5165
5784000000.0 -0.2247 1.053
5788000000.0 0.672 0.8685
5791000000.0 1.085 0.02197
5794000000.0 0.7652 -0.7893
5797000000.0 -0.1521 -1.078
5800000000.0 -0.9177 -0.5536
5803000000.0 -1.004 0.3614
5806000000.0 -0.3423 0.9849
5809000000.0 0.5266 0.9182
5812000000.0 1.042 0.1634
5816000000.0 0.7829 -0.6913
5819000000.0 0.01061 -1.019
5822000000.0 -0.7907 -0.6315
5825000000.0 -0.9654 0.2131
5828000000.0 -0.4848 0.9139
5831000000.0 0.4239 0.8963
5834000000.0 0.9517 0.2442
5838000000.0 0.7677 -0.5982
5841000000.0 0.04771 -0.97
5844000000.0 -0.6664 -0.6465
5847000000.0 -0.9391 0.1659
5850000000.0 -0.4619 0.8037
5853000000.0 0.3089 0.8326
5856000000.0 0.8941 0.2981
5859000000.0 0.8045 -0.5221
5862000000.0 0.09806 -0.8969
5866000000.0 -0.6576 -0.65
5869000000.0 -0.9259 0.1048
5872000000.0 -0.4777 0.7582
5875000000.0 0.2893 0.818
5878000000.0 0.8205 0.3097
5881000000.0 0.7499 -0.4592
5884000000.0 0.09741 -0.8756
5888000000.0 -0.6237 -0.61
5891000000.0 -0.8322 0.05917
5894000000.0 -0.4976 0.7315
5897000000.0 0.2621 0.8457
5900000000.0 0.8065 0.3395
5903000000.0 0.7664 -0.4026
5906000000.0 0.1564 -0.8479
5909000000.0 -0.5668 -0.6831
5912000000.0 -0.8182 0.02777
5916000000.0 -0.5332 0.6918
5919000000.0 0.1931 0.8437
5922000000.0 0.7768 0.3916
5925000000.0 0.8167 -0.3873
5928000000.0 0.2734 -0.8571
5931000000.0 -0.5205 -0.7394
5934000000.0 -0.8846 -0.08171
5938000000.0 -0.6252 0.6584
5941000000.0 0.05413 0.8875
5944000000.0 0.7401 0.4959
5947000000.0 0.865 -0.2492
5950000000.0 0.3625 -0.7897
5953000000.0 -0.4141 -0.8156
5956000000.0 -0.9067 -0.2647
5959000000.0 -0.7416 0.535
5962000000.0 -0.05461 0.9118
5966000000.0 0.6764 0.6419
5969000000.0 0.9321 -0.1072
5972000000.0 0.542 -0.797
5975000000.0 -0.2548 -0.9288
5978000000.0 -0.8771 -0.3893
5981000000.0 -0.8582 0.445
5984000000.0 -0.1967 0.9367
5988000000.0 0.5791 0.7733
5991000000.0 0.9888 0.05341
5994000000.0 0.6586 -0.7415
5997000000.0 -0.1404 -0.9874
6000000000.0 -0.8661 -0.5195
6003000000.0 -0.924 0.3164
6006000000.0 -0.3273 0.9442
6009000000.0 0.5188 0.8715
6012000000.0 0.9941 0.1836
6016000000.0 0.749 -0.6796
6019000000.0 -0.0115 -1.022
6022000000.0 -0.8121 -0.6022
6025000000.0 -0.9899 0.2236
6028000000.0 -0.4456 0.8743
6031000000.0 0.3968 0.9057
6034000000.0 0.9538 0.2619
6038000000.0 0.7928 -0.5538
6041000000.0 0.05309 -0.9819
6044000000.0 -0.6927 -0.6733
6047000000.0 -0.9491 0.1529
6050000000.0 -0.4893 0.8072
6053000000.0 0.3197 0.8819
6056000000.0 0.8938 0.2751
6059000000.0 0.7879 -0.4788
6062000000.0 0.1024 -0.9216
6066000000.0 -0.6283 -0.6745
6069000000.0 -0.8977 0.06405
6072000000.0 -0.488 0.7503
6075000000.0 0.2723 0.8598
6078000000.0 0.8168 0.3202
6081000000.0 0.7735 -0.4161
6084000000.0 0.1563 -0.8687
6088000000.0 -0.5646 -0.6392
6091000000.0 -0.8592 0.02943
6094000000.0 -0.5131 0.6497
6097000000.0 0.2095 0.8413
6100000000.0 0.7637 0.3542
6103000000.0 0.7766 -0.3802
6106000000.0 0.1789 -0.8019
6109000000.0 -0.5446 -0.6857
6112000000.0 -0.893 -0.005153
6116000000.0 -0.5336 0.6608
6119000000.0 0.2067 0.8542
6122000000.0 0.7579 0.4079
6125000000.0 0.8071 -0.3517
6128000000.0 0.2386 -0.8496
6131000000.0 -0.5142 -0.7299
6134000000.0 -0.8656 -0.03364
6138000000.0 -0.5823 0.6508
6141000000.0 0.1641 0.8732
6144000000.0 0.7598 0.4683
6147000000.0 0.8256 -0.3148
6150000000.0 0.2738 -0.8472
6153000000.0 -0.457 -0.793
6156000000.0 -0.8934 -0.09695
6159000000.0 -0.6944 0.6138
6162000000.0 0.07318 0.9328
6166000000.0 0.7982 0.5335
6169000000.0 0.903 -0.2584
6172000000.0 0.3531 -0.8668
6175000000.0 -0.4382 -0.833
6178000000.0 -0.8894 -0.1933
6181000000.0 -0.7345 0.5937
6184000000.0 -0.002093 0.9829
6188000000.0 0.7288 0.6116
6191000000.0 0.9077 -0.1804
6194000000.0 0.4348 -0.8293
6197000000.0 -0.3398 -0.8519
6200000000.0 -0.9147 -0.2659
6203000000.0 -0.7945 0.5263
6206000000.0 -0.128 0.9325
6209000000.0 0.7188 0.6565
6212000000.0 0.9479 -0.07925
6216000000.0 0.5211 -0.7469
6219000000.0 -0.2379 -0.8656
6222000000.0 -0.8286 -0.3865
6225000000.0 -0.7871 0.3958
6228000000.0 -0.2128 0.8951
6231000000.0 0.5315 0.7055
6234000000.0 0.8838 0.02784
6238000000.0 0.5865 -0.6364
6241000000.0 -0.09426 -0.873
6244000000.0 -0.7509 -0.4589
6247000000.0 -0.8179 0.3013
6250000000.0 -0.3068 0.7854
6253000000.0 0.3852 0.7343
6256000000.0 0.8329 0.152
6259000000.0 0.6488 -0.5294
6262000000.0 0.01775 -0.8437
6266000000.0 -0.623 -0.56
