! Created with skrf 1.8.0 (http://scikit-rf.org).
# Hz S RI R 50.0 
!freq ReS11 ImS11
4000000000.0 -0.2072 -1.498
4003000000.0 -1.26 -0.8359
4006000000.0 -1.434 0.5009
4009000000.0 -0.5391 1.421
4012000000.0 0.8175 1.375
4016000000.0 1.526 0.3077
4019000000.0 1.12 -1.025
4022000000.0 -0.07284 -1.548
4025000000.0 -1.298 -0.9121
4028000000.0 -1.539 0.4885
4031000000.0 -0.5973 1.488
4034000000.0 0.8033 1.382
4038000000.0 1.61 0.2472
4041000000.0 1.222 -1.152
4044000000.0 -0.1302 -1.647
4047000000.0 -1.324 -0.9304
4050000000.0 -1.57 0.4319
4053000000.0 -0.6354 1.454
4056000000.0 0.7332 1.431
4059000000.0 1.564 0.3734
4062000000.0 1.256 -1.044
4066000000.0 0.06189 -1.633
4069000000.0 -1.212 -1.063
4072000000.0 -1.615 0.2462
4075000000.0 -0.8609 1.442
4078000000.0 0.5339 1.533
4081000000.0 1.586 0.567
4084000000.0 1.418 -0.8904
4088000000.0 0.2353 -1.623
4091000000.0 -1.087 -1.239
4094000000.0 -1.658 0.04453
4097000000.0 -0.988 1.323
4100000000.0 0.3964 1.603
4103000000.0 1.489 0.7428
4106000000.0 1.455 -0.6061
4109000000.0 0.4527 -1.492
4112000000.0 -0.8354 -1.301
4116000000.0 -1.505 -0.2248
4119000000.0 -1.134 0.9809
4122000000.0 0.02319 1.478
4125000000.0 1.15 0.9585
4128000000.0 1.514 -0.2307
4131000000.0 0.7824 -1.265
4134000000.0 -0.4613 -1.432
4138000000.0 -1.359 -0.6153
4141000000.0 -1.356 0.637
4144000000.0 -0.378 1.458
4147000000.0 0.8822 1.219
4150000000.0 1.526 0.1578
4153000000.0 1.064 -1.06
4156000000.0 -0.1032 -1.518
4159000000.0 -1.274 -0.9109
4162000000.0 -1.465 0.3831
4166000000.0 -0.6467 1.353
4169000000.0 0.6424 1.371
4172000000.0 1.423 0.4119
4175000000.0 1.288 -0.7951
4178000000.0 0.1364 -1.483
4181000000.0 -1.059 -1.105
4184000000.0 -1.485 0.08647
4188000000.0 -0.8941 1.213
4191000000.0 0.3675 1.48
4194000000.0 1.384 0.6874
4197000000.0 1.425 -0.6454
4200000000.0 0.3939 -1.52
4203000000.0 -0.9337 -1.291
4206000000.0 -1.638 -0.07567
4209000000.0 -1.043 1.257
4212000000.0 0.3362 1.625
4216000000.0 1.505 0.7408
4219000000.0 1.51 -0.7284
4222000000.0 0.3758 -1.647
4225000000.0 -1.14 -1.253
4228000000.0 -1.695 0.1324
4231000000.0 -0.8827 1.424
4234000000.0 0.5392 1.543
4238000000.0 1.55 0.533
4241000000.0 1.327 -0.9162
4244000000.0 0.1394 -1.618
4247000000.0 -1.21 -1.046
4250000000.0 -1.587 0.298
4253000000.0 -0.6778 1.415
4256000000.0 0.6926 1.395
4259000000.0 1.49 0.3147
4262000000.0 1.148 -0.9656
4266000000.0 -0.07824 -1.53
4269000000.0 -1.228 -0.8729
4272000000.0 -1.43 0.4588
4275000000.0 -0.5483 1.382
4278000000.0 0.746 1.224
4281000000.0 1.458 0.2035
4284000000.0 1.035 -0.9797
4288000000.0 -0.1167 -1.442
4291000000.0 -1.175 -0.7478
4294000000.0 -1.295 0.4287
4297000000.0 -0.4839 1.209
4300000000.0 0.6367 1.194
4303000000.0 1.292 0.247
4306000000.0 1.033 -0.8231
4309000000.0 0.04711 -1.278
4312000000.0 -0.9835 -0.8763
4316000000.0 -1.286 0.1762
4319000000.0 -0.6942 1.099
4322000000.0 0.3975 1.233
4325000000.0 1.208 0.4883
4328000000.0 1.204 -0.6059
4331000000.0 0.2762 -1.296
4334000000.0 -0.8724 -1.098
4338000000.0 -1.355 -0.02957
4341000000.0 -0.9042 1.002
4344000000.0 0.2406 1.388
4347000000.0 1.231 0.7185
4350000000.0 1.34 -0.4771
4353000000.0 0.5108 -1.316
4356000000.0 -0.7243 -1.255
4359000000.0 -1.439 -0.2297
4362000000.0 -1.099 0.9391
4366000000.0 0.03732 1.462
4369000000.0 1.132 0.9336
4372000000.0 1.45 -0.2512
4375000000.0 0.7388 -1.301
4378000000.0 -0.5233 -1.375
4381000000.0 -1.431 -0.4893
4384000000.0 -1.311 0.7925
4388000000.0 -0.1626 1.529
4391000000.0 1.069 1.154
4394000000.0 1.55 -0.1423
4397000000.0 0.8642 -1.315
4400000000.0 -0.5138 -1.51
4403000000.0 -1.503 -0.5205
4406000000.0 -1.368 0.7987
4409000000.0 -0.1639 1.573
4412000000.0 1.113 1.117
4416000000.0 1.527 -0.1466
4419000000.0 0.8013 -1.31
4422000000.0 -0.4979 -1.414
4425000000.0 -1.452 -0.4272
4428000000.0 -1.229 0.8158
4431000000.0 -0.06089 1.479
4434000000.0 1.043 0.9458
4438000000.0 1.424 -0.2387
4441000000.0 0.6596 -1.237
4444000000.0 -0.5751 -1.277
4447000000.0 -1.335 -0.3286
4450000000.0 -1.058 0.855
4453000000.0 0.03589 1.31
4456000000.0 1.043 0.8036
4459000000.0 1.243 -0.3521
4462000000.0 0.4771 -1.172
4466000000.0 -0.6574 -1.084
4469000000.0 -1.236 -0.1383
4472000000.0 -0.8713 0.809
4475000000.0 0.1442 1.184
4478000000.0 1.012 0.6231
4481000000.0 1.108 -0.4227
4484000000.0 0.3653 -1.07
4488000000.0 -0.7024 -0.9347
4491000000.0 -1.131 -0.09975
4494000000.0 -0.7709 0.8386
4497000000.0 0.1913 1.138
4500000000.0 0.9736 0.5546
4503000000.0 1.023 -0.3885
4506000000.0 0.3382 -1.06
4509000000.0 -0.6 -0.9325
4512000000.0 -1.098 -0.112
4516000000.0 -0.7781 0.759
4519000000.0 0.1104 1.105
4522000000.0 0.9433 0.6161
4525000000.0 1.074 -0.3145
4528000000.0 0.4185 -1.08
4531000000.0 -0.5535 -1.001
4534000000.0 -1.134 -0.1928
4538000000.0 -0.872 0.7619
4541000000.0 0.007092 1.171
4544000000.0 0.9158 0.7428
4547000000.0 1.169 -0.2155
4550000000.0 0.5517 -1.068
4553000000.0 -0.4392 -1.116
4556000000.0 -1.157 -0.4112
4559000000.0 -1.055 0.6475
4562000000.0 -0.1869 1.218
4566000000.0 0.8531 0.9337
4569000000.0 1.24 -0.03016
4572000000.0 0.7973 -1.0
4575000000.0 -0.2535 -1.277
4578000000.0 -1.152 -0.6135
4581000000.0 -1.231 0.4961
4584000000.0 -0.3692 1.274
4588000000.0 0.6876 1.103
4591000000.0 1.334 0.1406
4594000000.0 0.9848 -0.9458
4597000000.0 -0.1115 -1.386
4600000000.0 -1.122 -0.7849
4603000000.0 -1.314 0.3544
4606000000.0 -0.5753 1.258
4609000000.0 0.6012 1.26
4612000000.0 1.382 0.2924
4616000000.0 1.099 -0.8579
4619000000.0 0.05187 -1.38
4622000000.0 -1.062 -0.9221
4625000000.0 -1.379 0.2255
4628000000.0 -0.6863 1.203
4631000000.0 0.5188 1.285
4634000000.0 1.317 0.4123
4638000000.0 1.12 -0.7465
4641000000.0 0.1036 -1.35
4644000000.0 -0.9956 -0.9558
4647000000.0 -1.338 0.1912
4650000000.0 -0.6776 1.163
4653000000.0 0.4827 1.228
4656000000.0 1.273 0.3906
4659000000.0 1.058 -0.7362
4662000000.0 0.09583 -1.236
4666000000.0 -0.8928 -0.8279
4669000000.0 -1.208 0.1782
4672000000.0 -0.5719 1.038
4675000000.0 0.4471 1.101
4678000000.0 1.108 0.3023
4681000000.0 0.9298 -0.6765
4684000000.0 0.06922 -1.131
4688000000.0 -0.8336 -0.7651
4691000000.0 -1.1 0.1883
4694000000.0 -0.5225 0.9444
4697000000.0 0.3946 1.012
4700000000.0 1.064 0.2992
4703000000.0 0.897 -0.6073
4706000000.0 0.034 -1.124
4709000000.0 -0.8217 -0.6795
4712000000.0 -1.031 0.2006
4716000000.0 -0.5013 0.9505
4719000000.0 0.4423 0.9812
4722000000.0 1.062 0.2725
4725000000.0 0.8501 -0.6118
4728000000.0 0.04436 -1.046
4731000000.0 -0.7929 -0.7022
4734000000.0 -1.026 0.1584
4738000000.0 -0.5419 0.8741
4741000000.0 0.3599 0.976
4744000000.0 0.998 0.3422
4747000000.0 0.9173 -0.5321
4750000000.0 0.1512 -1.037
4753000000.0 -0.694 -0.8023
4756000000.0 -1.095 0.02781
4759000000.0 -0.6769 0.8736
4762000000.0 0.2003 1.133
4766000000.0 0.9726 0.5313
4769000000.0 1.034 -0.4305
4772000000.0 0.3397 -1.101
4775000000.0 -0.6351 -0.9778
4778000000.0 -1.138 -0.143
4781000000.0 -0.8618 0.786
4784000000.0 0.06274 1.169
4788000000.0 0.9533 0.7121
4791000000.0 1.183 -0.2639
4794000000.0 0.5602 -1.084
4797000000.0 -0.4702 -1.135
4800000000.0 -1.213 -0.3899
4803000000.0 -1.05 0.6184
4806000000.0 -0.1922 1.222
4809000000.0 0.8208 0.923
4812000000.0 1.263 -0.04399
4816000000.0 0.8269 -1.034
4819000000.0 -0.2803 -1.31
4822000000.0 -1.181 -0.6037
4825000000.0 -1.254 0.5082
4828000000.0 -0.4097 1.28
4831000000.0 0.763 1.145
4834000000.0 1.393 0.161
4838000000.0 0.9629 -0.9823
4841000000.0 -0.1179 -1.4
4844000000.0 -1.152 -0.7768
4847000000.0 -1.34 0.4244
4850000000.0 -0.5569 1.289
4853000000.0 0.6628 1.214
4856000000.0 1.339 0.2584
4859000000.0 1.043 -0.873
4862000000.0 -0.01681 -1.348
4866000000.0 -1.041 -0.8417
4869000000.0 -1.328 0.3003
4872000000.0 -0.5905 1.19
4875000000.0 0.5369 1.182
4878000000.0 1.243 0.3019
4881000000.0 1.052 -0.7449
4884000000.0 0.05005 -1.254
4888000000.0 -0.9226 -0.8249
4891000000.0 -1.208 0.1912
4894000000.0 -0.5885 1.062
4897000000.0 0.4374 1.072
4900000000.0 1.084 0.3419
4903000000.0 0.9452 -0.6598
4906000000.0 0.07012 -1.082
4909000000.0 -0.7524 -0.7373
4912000000.0 -1.049 0.1358
4916000000.0 -0.5702 0.8749
4919000000.0 0.3221 0.9448
4922000000.0 0.9468 0.3184
4925000000.0 0.8298 -0.4904
4928000000.0 0.1631 -0.9412
4931000000.0 -0.6096 -0.734
4934000000.0 -0.9306 0.03701
4938000000.0 -0.5917 0.7404
4941000000.0 0.2272 0.9048
4944000000.0 0.8351 0.4072
4947000000.0 0.8542 -0.3702
4950000000.0 0.271 -0.9089
4953000000.0 -0.5823 -0.7734
4956000000.0 -0.9714 -0.03269
4959000000.0 -0.6528 0.7246
4962000000.0 0.1671 0.9883
4966000000.0 0.8436 0.5115
4969000000.0 0.9446 -0.3337
4972000000.0 0.3282 -0.9459
4975000000.0 -0.5228 -0.8676
4978000000.0 -1.009 -0.1145
4981000000.0 -0.7329 0.6982
4984000000.0 0.07853 1.039
4988000000.0 0.8599 0.6304
4991000000.0 1.026 -0.2593
4994000000.0 0.4852 -0.971
4997000000.0 -0.4277 -1.011
5000000000.0 -1.094 -0.2866
5003000000.0 -0.9152 0.6578
5006000000.0 -0.1121 1.16
5009000000.0 0.8481 0.8173
5012000000.0 1.192 -0.1403
5016000000.0 0.673 -1.027
5019000000.0 -0.3932 -1.154
5022000000.0 -1.165 -0.4406
5025000000.0 -1.097 0.6035
5028000000.0 -0.2404 1.268
5031000000.0 0.7922 1.006
5034000000.0 1.307 0.02783
5038000000.0 0.8173 -1.014
5041000000.0 -0.2524 -1.272
5044000000.0 -1.119 -0.6368
5047000000.0 -1.2 0.4528
5050000000.0 -0.4446 1.222
5053000000.0 0.6685 1.127
5056000000.0 1.283 0.2258
5059000000.0 0.9869 -0.8632
5062000000.0 -0.02939 -1.27
5066000000.0 -1.024 -0.8213
5069000000.0 -1.276 0.2622
5072000000.0 -0.6177 1.109
5075000000.0 0.4718 1.197
5078000000.0 1.24 0.3971
5081000000.0 1.056 -0.6981
5084000000.0 0.1347 -1.244
5088000000.0 -0.8476 -0.9248
5091000000.0 -1.211 0.1208
5094000000.0 -0.7085 0.9727
5097000000.0 0.2757 1.133
5100000000.0 1.038 0.5322
5103000000.0 1.023 -0.4426
5106000000.0 0.3168 -1.083
5109000000.0 -0.6432 -0.935
5112000000.0 -1.07 -0.1176
5116000000.0 -0.7477 0.738
5119000000.0 0.0982 1.062
5122000000.0 0.8263 0.6158
5125000000.0 1.005 -0.2465
5128000000.0 0.4187 -0.951
5131000000.0 -0.4367 -0.9182
5134000000.0 -0.9707 -0.2865
5138000000.0 -0.8153 0.5873
5141000000.0 -0.04444 0.9837
5144000000.0 0.677 0.6482
5147000000.0 0.938 -0.124
5150000000.0 0.4951 -0.8173
5153000000.0 -0.3084 -0.8312
5156000000.0 -0.8607 -0.2989
5159000000.0 -0.7599 0.4446
5162000000.0 -0.1475 0.8918
5166000000.0 0.628 0.6886
5169000000.0 0.8954 -0.03352
5172000000.0 0.5695 -0.7269
5175000000.0 -0.2449 -0.8939
5178000000.0 -0.8284 -0.3701
5181000000.0 -0.8063 0.4198
5184000000.0 -0.1884 0.8924
5188000000.0 0.611 0.7206
5191000000.0 0.9151 -0.03966
5194000000.0 0.6056 -0.7267
5197000000.0 -0.2267 -0.9068
5200000000.0 -0.8554 -0.3734
5203000000.0 -0.8638 0.4458
5206000000.0 -0.1869 0.9289
5209000000.0 0.6035 0.7327
5212000000.0 0.9602 0.0104
5216000000.0 0.5915 -0.7593
5219000000.0 -0.1839 -0.9731
5222000000.0 -0.8899 -0.4607
5225000000.0 -0.9293 0.3924
5228000000.0 -0.2718 0.9731
5231000000.0 0.5927 0.8133
5234000000.0 1.033 0.08802
5238000000.0 0.7255 -0.7313
5241000000.0 -0.1166 -1.034
5244000000.0 -0.9046 -0.5618
5247000000.0 -0.9876 0.3545
5250000000.0 -0.4244 0.9817
5253000000.0 0.5046 0.927
5256000000.0 1.055 0.226
5259000000.0 0.8261 -0.6891
5262000000.0 0.03616 -1.056
5266000000.0 -0.8188 -0.7202
5269000000.0 -1.07 0.2018
5272000000.0 -0.5571 0.9518
5275000000.0 0.3638 1.049
5278000000.0 1.015 0.3665
5281000000.0 0.9797 -0.5212
5284000000.0 0.217 -1.089
5288000000.0 -0.6928 -0.9033
5291000000.0 -1.108 -0.04793
5294000000.0 -0.7618 0.8205
5297000000.0 0.1282 1.085
5300000000.0 0.9298 0.6382
5303000000.0 1.089 -0.3004
5306000000.0 0.473 -1.017
5309000000.0 -0.4675 -1.052
5312000000.0 -1.085 -0.2901
5316000000.0 -0.9642 0.6516
5319000000.0 -0.09142 1.155
5322000000.0 0.8018 0.8029
5325000000.0 1.149 -0.1026
5328000000.0 0.6551 -0.9336
5331000000.0 -0.3243 -1.125
5334000000.0 -1.013 -0.4985
5338000000.0 -1.035 0.4821
5341000000.0 -0.2827 1.089
5344000000.0 0.6987 0.9153
5347000000.0 1.18 0.04324
5350000000.0 0.7472 -0.8485
5353000000.0 -0.1432 -1.061
5356000000.0 -0.9282 -0.5593
5359000000.0 -1.01 0.3556
5362000000.0 -0.3629 1.044
5366000000.0 0.552 0.9172
5369000000.0 1.058 0.1183
5372000000.0 0.7476 -0.7287
5375000000.0 -0.1055 -1.03
5378000000.0 -0.859 -0.5463
5381000000.0 -0.9722 0.3326
5384000000.0 -0.3648 0.9477
5388000000.0 0.5244 0.8685
5391000000.0 0.957 0.1151
5394000000.0 0.6596 -0.6864
5397000000.0 -0.1261 -0.937
5400000000.0 -0.7747 -0.4804
5403000000.0 -0.8473 0.3247
5406000000.0 -0.2987 0.8614
5409000000.0 0.496 0.7479
5412000000.0 0.9041 0.08527
5416000000.0 0.5833 -0.6356
5419000000.0 -0.1032 -0.8326
5422000000.0 -0.733 -0.4603
5425000000.0 -0.7944 0.3036
5428000000.0 -0.291 0.8357
5431000000.0 0.4754 0.7386
5434000000.0 0.8694 0.1064
5438000000.0 0.6031 -0.6426
5441000000.0 -0.1285 -0.881
5444000000.0 -0.7227 -0.4494
5447000000.0 -0.8076 0.3128
5450000000.0 -0.2954 0.8697
5453000000.0 0.4753 0.7335
5456000000.0 0.8925 0.1317
5459000000.0 0.6401 -0.6251
5462000000.0 -0.05938 -0.9007
5466000000.0 -0.7658 -0.5327
5469000000.0 -0.8205 0.2564
5472000000.0 -0.3876 0.8477
5475000000.0 0.3849 0.8373
5478000000.0 0.8863 0.2327
5481000000.0 0.7338 -0.5363
5484000000.0 0.0378 -0.9491
5488000000.0 -0.66 -0.6504
5491000000.0 -0.9841 0.1083
5494000000.0 -0.5657 0.8186
5497000000.0 0.2885 0.9737
5500000000.0 0.9585 0.4182
5503000000.0 0.8858 -0.4423
5506000000.0 0.2562 -0.9813
5509000000.0 -0.614 -0.801
5512000000.0 -1.035 -0.05488
5516000000.0 -0.7329 0.7306
5519000000.0 0.1057 1.061
5522000000.0 0.8577 0.6104
5525000000.0 1.007 -0.2602
5528000000.0 0.4294 -0.987
5531000000.0 -0.4628 -0.9575
5534000000.0 -1.018 -0.2783
5538000000.0 -0.8957 0.6004
5541000000.0 -0.1007 1.05
5544000000.0 0.7361 0.7669
5547000000.0 1.076 -0.09379
5550000000.0 0.5885 -0.8625
5553000000.0 -0.2727 -1.036
5556000000.0 -0.9827 -0.4279
5559000000.0 -0.9642 0.448
5562000000.0 -0.2456 1.016
5566000000.0 0.6178 0.8192
5569000000.0 1.038 0.05266
5572000000.0 0.6741 -0.7483
5575000000.0 -0.1351 -1.017
5578000000.0 -0.8688 -0.5437
5581000000.0 -0.9398 0.3172
5584000000.0 -0.3661 0.9237
5588000000.0 0.4988 0.8151
5591000000.0 0.9681 0.1708
5594000000.0 0.7067 -0.6285
5597000000.0 -0.0009518 -0.9403
5600000000.0 -0.7283 -0.5527
5603000000.0 -0.9113 0.2095
5606000000.0 -0.4238 0.8212
5609000000.0 0.3736 0.8123
5612000000.0 0.8659 0.2241
5616000000.0 0.7089 -0.5127
5619000000.0 0.04813 -0.8635
5622000000.0 -0.6498 -0.5753
5625000000.0 -0.8675 0.1142
5628000000.0 -0.4323 0.7241
5631000000.0 0.2975 0.788
5634000000.0 0.7855 0.2698
5638000000.0 0.7002 -0.4591
5641000000.0 0.09719 -0.824
5644000000.0 -0.6066 -0.5623
5647000000.0 -0.8515 0.1113
5650000000.0 -0.444 0.71
5653000000.0 0.2825 0.7946
5656000000.0 0.7877 0.2649
5659000000.0 0.7431 -0.4771
5662000000.0 0.1087 -0.8375
5666000000.0 -0.584 -0.5859
5669000000.0 -0.8934 0.09993
5672000000.0 -0.5028 0.7868
5675000000.0 0.2878 0.8622
5678000000.0 0.8457 0.2885
5681000000.0 0.781 -0.4707
5684000000.0 0.09107 -0.9161
5688000000.0 -0.6478 -0.6819
5691000000.0 -0.9589 0.08606
5694000000.0 -0.532 0.8036
5697000000.0 0.3166 0.9296
5700000000.0 0.9247 0.3618
5703000000.0 0.8611 -0.5002
5706000000.0 0.2251 -1.014
5709000000.0 -0.6638 -0.7434
5712000000.0 -1.036 0.02269
5716000000.0 -0.6511 0.8171
5719000000.0 0.1901 1.019
5722000000.0 0.9487 0.4742
5725000000.0 0.9748 -0.4353
5728000000.0 0.307 -1.029
5731000000.0 -0.5952 -0.8833
5734000000.0 -1.081 -0.0986
5738000000.0 -0.7829 0.7837
5741000000.0 0.08011 1.078
5744000000.0 0.8993 0.6126
5747000000.0 1.055 -0.2637
5750000000.0 0.466 -1.023
5753000000.0 -0.4655 -0.9957
5756000000.0 -1.116 -0.2788
5759000000.0 -0.8774 0.6588
5762000000.0 -0.06232 1.1
5766000000.0 0.7781 0.7715
5769000000.0 1.106 -0.09892
5772000000.0 0.5862 -0.8903
5775000000.0 -0.3019 -1.08
5778000000.0 -1.033 -0.462
5781000000.0 -0.9736 0.495
5784000000.0 -0.2677 1.038
5788000000.0 0.6353 0.8682
5791000000.0 1.098 0.04805
5794000000.0 0.7312 -0.8044
5797000000.0 -0.1355 -1.071
5800000000.0 -0.9077 -0.5359
5803000000.0 -1.002 0.3328
5806000000.0 -0.3793 1.017
5809000000.0 0.5146 0.8929
5812000000.0 1.004 0.1871
5816000000.0 0.8127 -0.6504
5819000000.0 -0.01001 -1.024
5822000000.0 -0.7715 -0.6786
5825000000.0 -0.986 0.211
5828000000.0 -0.4615 0.8875
5831000000.0 0.411 0.9057
5834000000.0 0.9459 0.2762
5838000000.0 0.7801 -0.5155
5841000000.0 0.05961 -0.9649
5844000000.0 -0.6879 -0.641
5847000000.0 -0.9023 0.1429
5850000000.0 -0.4995 0.8151
5853000000.0 0.3342 0.8895
5856000000.0 0.9029 0.3157
5859000000.0 0.8092 -0.4914
5862000000.0 0.131 -0.9394
5866000000.0 -0.634 -0.6454
5869000000.0 -0.9279 0.07582
5872000000.0 -0.5301 0.7386
5875000000.0 0.2725 0.8714
5878000000.0 0.7971 0.2949
5881000000.0 0.7589 -0.4502
5884000000.0 0.1158 -0.8787
5888000000.0 -0.5854 -0.6236
5891000000.0 -0.8621 0.07407
5894000000.0 -0.5109 0.7157
5897000000.0 0.2683 0.8413
5900000000.0 0.7713 0.3404
5903000000.0 0.7765 -0.3842
5906000000.0 0.1602 -0.8659
5909000000.0 -0.5637 -0.6757
5912000000.0 -0.877 -0.009582
5916000000.0 -0.5591 0.6343
5919000000.0 0.1502 0.8554
5922000000.0 0.7709 0.3941
5925000000.0 0.8272 -0.3183
5928000000.0 0.2384 -0.8328
5931000000.0 -0.4713 -0.7308
5934000000.0 -0.8657 -0.07554
5938000000.0 -0.6335 0.6004
5941000000.0 0.06447 0.929
5944000000.0 0.737 0.4936
5947000000.0 0.8561 -0.2222
5950000000.0 0.3764 -0.8181
5953000000.0 -0.4134 -0.8187
5956000000.0 -0.904 -0.2065
5959000000.0 -0.7546 0.5219
5962000000.0 -0.06781 0.9457
5966000000.0 0.6539 0.6467
5969000000.0 0.9448 -0.1021
5972000000.0 0.5267 -0.7646
5975000000.0 -0.2455 -0.9362
5978000000.0 -0.8712 -0.4104
5981000000.0 -0.906 0.4306
5984000000.0 -0.2219 0.9577
5988000000.0 0.5877 0.7886
5991000000.0 0.9724 0.04398
5994000000.0 0.6937 -0.7464
5997000000.0 -0.1435 -0.9781
6000000000.0 -0.8493 -0.524
6003000000.0 -0.9611 0.297
6006000000.0 -0.3728 0.938
6009000000.0 0.4599 0.8681
6012000000.0 0.9721 0.1689
6016000000.0 0.7731 -0.6399
6019000000.0 -0.01728 -0.9939
6022000000.0 -0.7755 -0.6384
6025000000.0 -0.9745 0.2016
6028000000.0 -0.4432 0.8727
6031000000.0 0.4042 0.8939
6034000000.0 0.941 0.2624
6038000000.0 0.7805 -0.5502
6041000000.0 0.07006 -0.9753
6044000000.0 -0.6903 -0.6843
6047000000.0 -0.9388 0.1386
6050000000.0 -0.4929 0.8087
6053000000.0 0.2855 0.9036
6056000000.0 0.9039 0.3128
6059000000.0 0.8057 -0.4712
6062000000.0 0.1335 -0.9055
6066000000.0 -0.6374 -0.6854
6069000000.0 -0.9076 0.06713
6072000000.0 -0.5007 0.7644
6075000000.0 0.2606 0.866
6078000000.0 0.8375 0.323
6081000000.0 0.7781 -0.3945
6084000000.0 0.1404 -0.863
6088000000.0 -0.5686 -0.6629
6091000000.0 -0.8458 0.02035
6094000000.0 -0.5217 0.675
6097000000.0 0.1965 0.8222
6100000000.0 0.7866 0.365
6103000000.0 0.7617 -0.3671
6106000000.0 0.176 -0.8481
6109000000.0 -0.558 -0.6843
6112000000.0 -0.8533 -0.03941
6116000000.0 -0.5796 0.6497
6119000000.0 0.1285 0.837
6122000000.0 0.7471 0.4123
6125000000.0 0.7786 -0.3329
6128000000.0 0.2341 -0.838
6131000000.0 -0.5045 -0.738
6134000000.0 -0.914 -0.0339
6138000000.0 -0.5913 0.6262
6141000000.0 0.1204 0.8551
6144000000.0 0.7557 0.4695
6147000000.0 0.8457 -0.2863
6150000000.0 0.2962 -0.8684
6153000000.0 -0.4697 -0.7822
6156000000.0 -0.8889 -0.09842
6159000000.0 -0.7068 0.6027
6162000000.0 0.05628 0.9241
6166000000.0 0.7376 0.5839
6169000000.0 0.8918 -0.2376
6172000000.0 0.368 -0.8651
6175000000.0 -0.3908 -0.8445
6178000000.0 -0.9094 -0.209
6181000000.0 -0.7379 0.599
6184000000.0 -0.02506 0.9636
6188000000.0 0.7095 0.5992
6191000000.0 0.9112 -0.155
6194000000.0 0.4699 -0.8241
6197000000.0 -0.3439 -0.8648
6200000000.0 -0.8552 -0.2742
6203000000.0 -0.8166 0.4831
6206000000.0 -0.1155 0.9002
6209000000.0 0.6403 0.6978
6212000000.0 0.9239 -0.03183
6216000000.0 0.5696 -0.759
6219000000.0 -0.2204 -0.9121
6222000000.0 -0.8184 -0.399
6225000000.0 -0.8041 0.3702
6228000000.0 -0.2395 0.8997
6231000000.0 0.5178 0.7229
6234000000.0 0.9205 0.05542
6238000000.0 0.6035 -0.6486
6241000000.0 -0.107 -0.8425
6244000000.0 -0.7639 -0.4668
6247000000.0 -0.8219 0.2607
6250000000.0 -0.3526 0.7914
6253000000.0 0.3798 0.7431
6256000000.0 0.8436 0.1667
6259000000.0 0.6623 -0.5168
6262000000.0 0.01696 -0.8285
6266000000.0 -0.6153 -0.5528
6269000000.0 -0.7961 0.1203
