! Created with skrf 1.8.0 (http://scikit-rf.org).
# Hz S RI R 50.0 
!freq ReS11 ImS11
4000000000.0 -0.2599 -1.464
4003000000.0 -1.337 -0.6932
4006000000.0 -1.405 0.5771
4009000000.0 -0.3594 1.479
4012000000.0 0.9051 1.221
4016000000.0 1.587 0.06938
4019000000.0 1.077 -1.173
4022000000.0 -0.2702 -1.586
4025000000.0 -1.417 -0.7733
4028000000.0 -1.475 0.5965
4031000000.0 -0.4361 1.564
4034000000.0 0.9408 1.327
4038000000.0 1.583 0.0966
4041000000.0 1.077 -1.229
4044000000.0 -0.2918 -1.595
4047000000.0 -1.456 -0.7696
4050000000.0 -1.514 0.583
4053000000.0 -0.4991 1.54
4056000000.0 0.8574 1.355
4059000000.0 1.595 0.1526
4062000000.0 1.166 -1.118
4066000000.0 -0.1105 -1.601
4069000000.0 -1.374 -0.9349
4072000000.0 -1.532 0.4194
4075000000.0 -0.6761 1.514
4078000000.0 0.7009 1.511
4081000000.0 1.546 0.4111
4084000000.0 1.293 -0.9624
4088000000.0 0.1211 -1.674
4091000000.0 -1.217 -1.091
4094000000.0 -1.653 0.2318
4097000000.0 -0.8499 1.399
4100000000.0 0.5239 1.543
4103000000.0 1.489 0.5542
4106000000.0 1.386 -0.751
4109000000.0 0.3131 -1.506
4112000000.0 -0.9384 -1.214
4116000000.0 -1.538 -0.05315
4119000000.0 -1.046 1.089
4122000000.0 0.1572 1.447
4125000000.0 1.188 0.8241
4128000000.0 1.42 -0.3815
4131000000.0 0.6481 -1.308
4134000000.0 -0.5832 -1.351
4138000000.0 -1.41 -0.4487
4141000000.0 -1.278 0.7621
4144000000.0 -0.2335 1.471
4147000000.0 0.9816 1.154
4150000000.0 1.495 -0.004519
4153000000.0 0.9526 -1.144
4156000000.0 -0.2785 -1.507
4159000000.0 -1.301 -0.7695
4162000000.0 -1.4 0.5481
4166000000.0 -0.5115 1.425
4169000000.0 0.8077 1.291
4172000000.0 1.482 0.249
4175000000.0 1.132 -0.991
4178000000.0 -0.04697 -1.529
4181000000.0 -1.198 -0.9196
4184000000.0 -1.476 0.3005
4188000000.0 -0.724 1.354
4191000000.0 0.5756 1.436
4194000000.0 1.497 0.4273
4197000000.0 1.279 -0.8614
4200000000.0 0.152 -1.58
4203000000.0 -1.203 -1.102
4206000000.0 -1.617 0.2582
4209000000.0 -0.8081 1.437
4212000000.0 0.6397 1.545
4216000000.0 1.588 0.4364
4219000000.0 1.363 -1.003
4222000000.0 -0.0418 -1.642
4225000000.0 -1.387 -1.003
4228000000.0 -1.606 0.4688
4231000000.0 -0.549 1.509
4234000000.0 0.8908 1.395
4238000000.0 1.632 0.1267
4241000000.0 1.078 -1.206
4244000000.0 -0.2895 -1.56
4247000000.0 -1.407 -0.6961
4250000000.0 -1.441 0.6606
4253000000.0 -0.3566 1.475
4256000000.0 0.9508 1.149
4259000000.0 1.506 -0.04865
4262000000.0 0.837 -1.173
4266000000.0 -0.4045 -1.41
4269000000.0 -1.373 -0.5653
4272000000.0 -1.263 0.7421
4275000000.0 -0.1736 1.465
4278000000.0 0.9946 1.019
4281000000.0 1.38 -0.1243
4284000000.0 0.7419 -1.164
4288000000.0 -0.4392 -1.304
4291000000.0 -1.256 -0.4868
4294000000.0 -1.184 0.6445
4297000000.0 -0.2251 1.315
4300000000.0 0.8588 1.022
4303000000.0 1.292 -0.02859
4306000000.0 0.8281 -0.9747
4309000000.0 -0.2672 -1.26
4312000000.0 -1.125 -0.6256
4316000000.0 -1.192 0.4521
4319000000.0 -0.4242 1.204
4322000000.0 0.6485 1.168
4325000000.0 1.281 0.2038
4328000000.0 1.008 -0.8727
4331000000.0 0.01987 -1.388
4334000000.0 -1.047 -0.9369
4338000000.0 -1.379 0.2404
4341000000.0 -0.7325 1.212
4344000000.0 0.5072 1.356
4347000000.0 1.385 0.4581
4350000000.0 1.245 -0.7764
4353000000.0 0.2015 -1.453
4356000000.0 -1.007 -1.099
4359000000.0 -1.46 0.0484
4362000000.0 -0.8831 1.225
4366000000.0 0.3804 1.416
4369000000.0 1.372 0.6401
4372000000.0 1.363 -0.6694
4375000000.0 0.3685 -1.475
4378000000.0 -0.8964 -1.241
4381000000.0 -1.553 -0.09008
4384000000.0 -1.042 1.141
4388000000.0 0.2793 1.537
4391000000.0 1.351 0.7856
4394000000.0 1.466 -0.6156
4397000000.0 0.4376 -1.524
4400000000.0 -0.9247 -1.312
4403000000.0 -1.583 -0.09159
4406000000.0 -0.9936 1.199
4409000000.0 0.3203 1.492
4412000000.0 1.407 0.6901
4416000000.0 1.36 -0.7232
4419000000.0 0.2921 -1.494
4422000000.0 -0.9734 -1.07
4425000000.0 -1.443 0.07748
4428000000.0 -0.7875 1.147
4431000000.0 0.4758 1.323
4434000000.0 1.333 0.4532
4438000000.0 1.159 -0.7176
4441000000.0 0.09904 -1.319
4444000000.0 -0.9449 -0.9094
4447000000.0 -1.311 0.1826
4450000000.0 -0.6297 1.102
4453000000.0 0.5589 1.137
4456000000.0 1.207 0.2924
4459000000.0 0.9664 -0.7994
4462000000.0 -0.003121 -1.206
4466000000.0 -0.9413 -0.7372
4469000000.0 -1.157 0.2994
4472000000.0 -0.4312 1.109
4475000000.0 0.5532 0.9839
4478000000.0 1.181 0.1759
4481000000.0 0.8615 -0.7608
4484000000.0 -0.1053 -1.175
4488000000.0 -0.9682 -0.6407
4491000000.0 -1.135 0.2994
4494000000.0 -0.4189 1.053
4497000000.0 0.5622 1.021
4500000000.0 1.148 0.1841
4503000000.0 0.8138 -0.7441
4506000000.0 -0.05263 -1.126
4509000000.0 -0.8965 -0.6992
4512000000.0 -1.131 0.2714
4516000000.0 -0.5115 1.054
4519000000.0 0.4682 1.058
4522000000.0 1.139 0.3152
4525000000.0 0.9681 -0.6689
4528000000.0 0.08039 -1.193
4531000000.0 -0.908 -0.8486
4534000000.0 -1.226 0.1702
4538000000.0 -0.6584 1.046
4541000000.0 0.3564 1.151
4544000000.0 1.161 0.4556
4547000000.0 1.104 -0.592
4550000000.0 0.2446 -1.242
4553000000.0 -0.7977 -0.9723
4556000000.0 -1.255 -0.03484
4559000000.0 -0.8862 0.9514
4562000000.0 0.1691 1.301
4566000000.0 1.12 0.6817
4569000000.0 1.238 -0.4264
4572000000.0 0.5065 -1.245
4575000000.0 -0.6468 -1.162
4578000000.0 -1.321 -0.238
4581000000.0 -1.06 0.8658
4584000000.0 0.01313 1.395
4588000000.0 1.056 0.8945
4591000000.0 1.381 -0.2575
4594000000.0 0.6959 -1.244
4597000000.0 -0.5425 -1.306
4600000000.0 -1.359 -0.4033
4603000000.0 -1.168 0.7953
4606000000.0 -0.1291 1.417
4609000000.0 1.01 0.9934
4612000000.0 1.4 -0.159
4616000000.0 0.7828 -1.185
4619000000.0 -0.4329 -1.363
4622000000.0 -1.328 -0.4763
4625000000.0 -1.18 0.6971
4628000000.0 -0.1738 1.367
4631000000.0 0.9373 0.9984
4634000000.0 1.359 -0.09591
4638000000.0 0.7692 -1.089
4641000000.0 -0.3891 -1.307
4644000000.0 -1.206 -0.5107
4647000000.0 -1.131 0.6428
4650000000.0 -0.1859 1.281
4653000000.0 0.8417 0.9282
4656000000.0 1.241 -0.1016
4659000000.0 0.6492 -1.027
4662000000.0 -0.3747 -1.162
4666000000.0 -1.133 -0.416
4669000000.0 -0.9623 0.5922
4672000000.0 -0.1426 1.168
4675000000.0 0.8256 0.7908
4678000000.0 1.117 -0.09701
4681000000.0 0.5781 -0.9074
4684000000.0 -0.3552 -1.028
4688000000.0 -1.022 -0.3501
4691000000.0 -0.9232 0.5619
4694000000.0 -0.1357 1.074
4697000000.0 0.7663 0.7871
4700000000.0 1.086 -0.1054
4703000000.0 0.6128 -0.9272
4706000000.0 -0.3671 -1.039
4709000000.0 -1.024 -0.3767
4712000000.0 -0.9312 0.5772
4716000000.0 -0.1284 1.08
4719000000.0 0.7297 0.7851
4722000000.0 1.078 -0.113
4725000000.0 0.6047 -0.8961
4728000000.0 -0.3142 -1.023
4731000000.0 -1.027 -0.4266
4734000000.0 -0.9373 0.4917
4738000000.0 -0.222 1.1
4741000000.0 0.7117 0.8317
4744000000.0 1.099 0.04058
4747000000.0 0.7181 -0.8171
4750000000.0 -0.168 -1.098
4753000000.0 -0.9739 -0.5832
4756000000.0 -1.122 0.3508
4759000000.0 -0.4388 1.066
4762000000.0 0.5487 1.039
4766000000.0 1.164 0.2321
4769000000.0 0.9639 -0.7326
4772000000.0 0.0251 -1.225
4775000000.0 -0.9544 -0.8283
4778000000.0 -1.249 0.1935
4781000000.0 -0.6513 1.058
4784000000.0 0.4284 1.2
4788000000.0 1.162 0.4598
4791000000.0 1.121 -0.6098
4794000000.0 0.2337 -1.265
4797000000.0 -0.8003 -1.015
4800000000.0 -1.299 -0.0332
4803000000.0 -0.8481 0.9317
4806000000.0 0.1879 1.294
4809000000.0 1.12 0.7157
4812000000.0 1.264 -0.407
4816000000.0 0.5004 -1.268
4819000000.0 -0.6712 -1.198
4822000000.0 -1.358 -0.2647
4825000000.0 -1.078 0.8818
4828000000.0 0.02518 1.41
4831000000.0 1.13 0.8923
4834000000.0 1.358 -0.3029
4838000000.0 0.6359 -1.227
4841000000.0 -0.5677 -1.279
4844000000.0 -1.381 -0.3526
4847000000.0 -1.114 0.8091
4850000000.0 -0.08 1.377
4853000000.0 1.006 0.9084
4856000000.0 1.336 -0.2174
4859000000.0 0.6772 -1.147
4862000000.0 -0.4779 -1.215
4866000000.0 -1.245 -0.4164
4869000000.0 -1.102 0.6914
4872000000.0 -0.1415 1.264
4875000000.0 0.8383 0.914
4878000000.0 1.217 -0.1156
4881000000.0 0.6512 -1.027
4884000000.0 -0.3538 -1.126
4888000000.0 -1.073 -0.3923
4891000000.0 -1.011 0.5753
4894000000.0 -0.1833 1.096
4897000000.0 0.7328 0.8286
4900000000.0 1.051 -0.06116
4903000000.0 0.6193 -0.8647
4906000000.0 -0.2743 -0.9857
4909000000.0 -0.9213 -0.4002
4912000000.0 -0.8881 0.4379
4916000000.0 -0.1848 0.9565
4919000000.0 0.6076 0.7491
4922000000.0 0.9584 -0.03855
4925000000.0 0.5977 -0.7426
4928000000.0 -0.1964 -0.9216
4931000000.0 -0.8179 -0.4548
4934000000.0 -0.8793 0.3509
4938000000.0 -0.2635 0.9145
4941000000.0 0.5013 0.7673
4944000000.0 0.9167 0.08556
4947000000.0 0.6724 -0.6836
4950000000.0 -0.09471 -0.9808
4953000000.0 -0.8252 -0.554
4956000000.0 -0.952 0.2994
4959000000.0 -0.3747 0.9574
4962000000.0 0.5183 0.881
4966000000.0 1.007 0.1879
4969000000.0 0.8034 -0.6709
4972000000.0 0.001536 -1.046
4975000000.0 -0.832 -0.6593
4978000000.0 -1.053 0.2368
4981000000.0 -0.4904 0.9661
4984000000.0 0.4174 1.038
4988000000.0 1.055 0.3202
4991000000.0 0.9368 -0.6083
4994000000.0 0.115 -1.148
4997000000.0 -0.824 -0.8549
5000000000.0 -1.203 0.0927
5003000000.0 -0.7136 1.0
5006000000.0 0.3295 1.195
5009000000.0 1.155 0.533
5012000000.0 1.146 -0.5378
5016000000.0 0.3101 -1.249
5019000000.0 -0.781 -1.023
5022000000.0 -1.304 -0.05422
5025000000.0 -0.8478 1.018
5028000000.0 0.1973 1.307
5031000000.0 1.151 0.6334
5034000000.0 1.232 -0.4359
5038000000.0 0.4526 -1.234
5041000000.0 -0.6545 -1.133
5044000000.0 -1.306 -0.2024
5047000000.0 -0.955 0.8555
5050000000.0 0.02271 1.31
5053000000.0 1.004 0.8179
5056000000.0 1.244 -0.2524
5059000000.0 0.6186 -1.139
5062000000.0 -0.4844 -1.181
5066000000.0 -1.205 -0.4089
5069000000.0 -1.069 0.6594
5072000000.0 -0.1858 1.212
5075000000.0 0.842 0.916
5078000000.0 1.188 -0.06052
5081000000.0 0.7417 -0.9698
5084000000.0 -0.2754 -1.186
5088000000.0 -1.049 -0.5018
5091000000.0 -1.057 0.5013
5094000000.0 -0.2974 1.102
5097000000.0 0.6359 0.8528
5100000000.0 1.081 0.108
5103000000.0 0.7745 -0.7885
5106000000.0 -0.09043 -1.027
5109000000.0 -0.8865 -0.5836
5112000000.0 -1.004 0.2773
5116000000.0 -0.3888 0.9328
5119000000.0 0.4563 0.8795
5122000000.0 1.015 0.2264
5125000000.0 0.7913 -0.6027
5128000000.0 0.02243 -0.9675
5131000000.0 -0.7426 -0.6006
5134000000.0 -0.9203 0.2213
5138000000.0 -0.4361 0.824
5141000000.0 0.3656 0.8242
5144000000.0 0.8828 0.2372
5147000000.0 0.7194 -0.5403
5150000000.0 0.02816 -0.8912
5153000000.0 -0.6877 -0.5918
5156000000.0 -0.8959 0.1565
5159000000.0 -0.4238 0.7824
5162000000.0 0.3356 0.8334
5166000000.0 0.89 0.2664
5169000000.0 0.7222 -0.4819
5172000000.0 0.08466 -0.8932
5175000000.0 -0.663 -0.5976
5178000000.0 -0.9001 0.1414
5181000000.0 -0.4726 0.7838
5184000000.0 0.3432 0.8516
5188000000.0 0.9235 0.2955
5191000000.0 0.7826 -0.5597
5194000000.0 0.07456 -0.9466
5197000000.0 -0.7052 -0.6517
5200000000.0 -0.9723 0.1517
5203000000.0 -0.4912 0.8463
5206000000.0 0.3338 0.9246
5209000000.0 0.9289 0.3193
5212000000.0 0.8423 -0.518
5216000000.0 0.1348 -1.034
5219000000.0 -0.7411 -0.7283
5222000000.0 -1.013 0.09317
5225000000.0 -0.5904 0.8146
5228000000.0 0.2611 0.995
5231000000.0 0.9571 0.4157
5234000000.0 0.9462 -0.4406
5238000000.0 0.2505 -1.04
5241000000.0 -0.6544 -0.8752
5244000000.0 -1.088 -0.07238
5247000000.0 -0.726 0.7809
5250000000.0 0.1377 1.085
5253000000.0 0.9256 0.5791
5256000000.0 1.061 -0.3535
5259000000.0 0.4016 -1.021
5262000000.0 -0.5353 -0.9608
5266000000.0 -1.11 -0.2291
5269000000.0 -0.8841 0.6906
5272000000.0 -0.04886 1.123
5275000000.0 0.8146 0.7463
5278000000.0 1.099 -0.1491
5281000000.0 0.5714 -0.9542
5284000000.0 -0.3186 -1.044
5288000000.0 -1.051 -0.423
5291000000.0 -0.9394 0.4989
5294000000.0 -0.2318 1.104
5297000000.0 0.7041 0.8536
5300000000.0 1.108 0.0209
5303000000.0 0.7586 -0.8388
5306000000.0 -0.1958 -1.11
5309000000.0 -0.9579 -0.5787
5312000000.0 -1.047 0.3516
5316000000.0 -0.3652 1.046
5319000000.0 0.5993 0.9611
5322000000.0 1.121 0.09905
5325000000.0 0.7986 -0.7685
5328000000.0 -0.1001 -1.082
5331000000.0 -0.8919 -0.6131
5334000000.0 -1.014 0.3139
5338000000.0 -0.3845 0.9771
5341000000.0 0.5472 0.9284
5344000000.0 1.032 0.13
5347000000.0 0.7587 -0.7164
5350000000.0 -0.1017 -1.023
5353000000.0 -0.8715 -0.5428
5356000000.0 -0.9352 0.316
5359000000.0 -0.3323 0.9101
5362000000.0 0.4953 0.8279
5366000000.0 0.945 0.07798
5369000000.0 0.6385 -0.7076
5372000000.0 -0.1393 -0.916
5375000000.0 -0.8136 -0.4404
5378000000.0 -0.8296 0.3851
5381000000.0 -0.2189 0.8846
5384000000.0 0.5567 0.7018
5388000000.0 0.8961 -0.01522
5391000000.0 0.5104 -0.6997
5394000000.0 -0.2268 -0.8129
5397000000.0 -0.8006 -0.3277
5400000000.0 -0.7647 0.3806
5403000000.0 -0.1542 0.8533
5406000000.0 0.5679 0.624
5409000000.0 0.8384 -0.0354
5412000000.0 0.5061 -0.6965
5416000000.0 -0.2251 -0.8291
5419000000.0 -0.7953 -0.3672
5422000000.0 -0.7992 0.4509
5425000000.0 -0.1828 0.9009
5428000000.0 0.5793 0.7104
5431000000.0 0.9073 -0.01853
5434000000.0 0.5491 -0.7632
5438000000.0 -0.2042 -0.9384
5441000000.0 -0.8806 -0.4266
5444000000.0 -0.8933 0.4391
5447000000.0 -0.235 0.9333
5450000000.0 0.5873 0.8107
5453000000.0 0.993 0.05204
5456000000.0 0.6654 -0.7526
5459000000.0 -0.1634 -0.9898
5462000000.0 -0.8497 -0.555
5466000000.0 -0.9734 0.3263
5469000000.0 -0.3538 0.9787
5472000000.0 0.5067 0.9301
5475000000.0 1.031 0.1915
5478000000.0 0.8186 -0.6521
5481000000.0 -0.00277 -1.047
5484000000.0 -0.8333 -0.7265
5488000000.0 -1.081 0.1805
5491000000.0 -0.5144 0.9825
5494000000.0 0.4264 1.006
5497000000.0 1.052 0.3646
5500000000.0 0.9553 -0.6305
5503000000.0 0.1204 -1.121
5506000000.0 -0.7889 -0.7916
5509000000.0 -1.082 0.1194
5512000000.0 -0.5962 0.9025
5516000000.0 0.3369 1.023
5519000000.0 1.015 0.3828
5522000000.0 0.9129 -0.5417
5525000000.0 0.1794 -1.074
5528000000.0 -0.6793 -0.8058
5531000000.0 -1.052 0.06236
5534000000.0 -0.5793 0.8242
5538000000.0 0.2781 0.9781
5541000000.0 0.933 0.391
5544000000.0 0.8545 -0.469
5547000000.0 0.1545 -0.9505
5550000000.0 -0.6596 -0.6878
5553000000.0 -0.9738 0.04472
5556000000.0 -0.5126 0.7729
5559000000.0 0.2848 0.8779
5562000000.0 0.8316 0.3139
5566000000.0 0.7536 -0.4897
5569000000.0 0.119 -0.8477
5572000000.0 -0.5897 -0.5777
5575000000.0 -0.8249 0.09945
5578000000.0 -0.4264 0.7185
5581000000.0 0.2996 0.7722
5584000000.0 0.7955 0.2364
5588000000.0 0.629 -0.4981
5591000000.0 0.04114 -0.8185
5594000000.0 -0.6151 -0.5558
5597000000.0 -0.7805 0.1468
5600000000.0 -0.3403 0.7211
5603000000.0 0.3512 0.6972
5606000000.0 0.7727 0.1476
5609000000.0 0.6361 -0.528
5612000000.0 -0.02308 -0.7999
5616000000.0 -0.6631 -0.4889
5619000000.0 -0.783 0.2517
5622000000.0 -0.332 0.7914
5625000000.0 0.4305 0.7404
5628000000.0 0.8765 0.1584
5631000000.0 0.6576 -0.6105
5634000000.0 -0.07916 -0.9244
5638000000.0 -0.7508 -0.5282
5641000000.0 -0.8801 0.2637
5644000000.0 -0.3317 0.8881
5647000000.0 0.4992 0.838
5650000000.0 1.005 0.1552
5653000000.0 0.749 -0.7006
5656000000.0 -0.07707 -1.014
5659000000.0 -0.8754 -0.589
5662000000.0 -0.9949 0.3186
5666000000.0 -0.3938 0.9722
5669000000.0 0.554 0.9438
5672000000.0 1.072 0.1615
5675000000.0 0.8386 -0.7669
5678000000.0 -0.07934 -1.117
5681000000.0 -0.9179 -0.6446
5684000000.0 -1.112 0.3012
5688000000.0 -0.4213 1.017
5691000000.0 0.593 1.001
5694000000.0 1.147 0.1833
5697000000.0 0.8303 -0.7712
5700000000.0 -0.08884 -1.14
5703000000.0 -0.9546 -0.6557
5706000000.0 -1.105 0.3383
5709000000.0 -0.3866 1.033
5712000000.0 0.5728 0.9696
5716000000.0 1.118 0.1405
5719000000.0 0.7562 -0.7681
5722000000.0 -0.148 -1.095
5725000000.0 -0.9346 -0.5532
5728000000.0 -1.036 0.3839
5731000000.0 -0.3241 1.029
5734000000.0 0.6464 0.8886
5738000000.0 1.02 0.008597
5741000000.0 0.6591 -0.8175
5744000000.0 -0.2027 -0.9805
5747000000.0 -0.9374 -0.3602
5750000000.0 -0.8888 0.486
5753000000.0 -0.1229 0.9991
5756000000.0 0.7127 0.6675
5759000000.0 0.9409 -0.1664
5762000000.0 0.4176 -0.8332
5766000000.0 -0.4259 -0.8552
5769000000.0 -0.9252 -0.156
5772000000.0 -0.6818 0.6245
5775000000.0 0.08824 0.8973
5778000000.0 0.8027 0.4774
5781000000.0 0.8264 -0.3451
5784000000.0 0.2239 -0.8672
5788000000.0 -0.5749 -0.6937
5791000000.0 -0.9349 0.02534
5794000000.0 -0.5054 0.7478
5797000000.0 0.2845 0.8597
5800000000.0 0.9015 0.2965
5803000000.0 0.7977 -0.5066
5806000000.0 0.06853 -0.9321
5809000000.0 -0.7299 -0.6043
5812000000.0 -0.9295 0.1824
5816000000.0 -0.4036 0.8349
5819000000.0 0.4262 0.8466
5822000000.0 0.9918 0.2067
5825000000.0 0.7541 -0.6321
5828000000.0 -0.03428 -0.9706
5831000000.0 -0.7656 -0.5992
5834000000.0 -0.9655 0.2252
5838000000.0 -0.4165 0.9112
5841000000.0 0.4741 0.8895
5844000000.0 1.02 0.2012
5847000000.0 0.8462 -0.6612
5850000000.0 -0.01897 -1.058
5853000000.0 -0.8374 -0.6729
5856000000.0 -1.04 0.2334
5859000000.0 -0.4174 0.9653
5862000000.0 0.5127 0.9472
5866000000.0 1.041 0.1866
5869000000.0 0.829 -0.6882
5872000000.0 -0.06016 -1.061
5875000000.0 -0.8458 -0.6264
5878000000.0 -1.038 0.2722
5881000000.0 -0.4316 0.9708
5884000000.0 0.4828 0.9324
5888000000.0 1.026 0.1683
5891000000.0 0.758 -0.6931
5894000000.0 -0.07959 -1.033
5897000000.0 -0.8324 -0.5743
5900000000.0 -0.97 0.3295
5903000000.0 -0.3361 0.9543
5906000000.0 0.5224 0.8187
5909000000.0 0.9875 0.06889
5912000000.0 0.6996 -0.71
5916000000.0 -0.1502 -1.008
5919000000.0 -0.844 -0.449
5922000000.0 -0.8752 0.3985
5925000000.0 -0.2206 0.9266
5928000000.0 0.5726 0.7143
5931000000.0 0.9026 -0.003537
5934000000.0 0.5284 -0.6636
5938000000.0 -0.2136 -0.8379
5941000000.0 -0.8217 -0.3538
5944000000.0 -0.7615 0.4228
5947000000.0 -0.1124 0.8485
5950000000.0 0.587 0.6561
5953000000.0 0.8468 -0.06363
5956000000.0 0.4688 -0.6888
5959000000.0 -0.2753 -0.7768
5962000000.0 -0.7931 -0.27
5966000000.0 -0.7387 0.4389
5969000000.0 -0.0859 0.8438
5972000000.0 0.5891 0.6038
5975000000.0 0.8393 -0.1157
5978000000.0 0.4277 -0.7066
5981000000.0 -0.2885 -0.7765
5984000000.0 -0.8089 -0.2828
5988000000.0 -0.7347 0.443
5991000000.0 -0.11 0.8613
5994000000.0 0.5788 0.616
5997000000.0 0.8758 -0.1111
6000000000.0 0.5164 -0.7402
6003000000.0 -0.2383 -0.8267
6006000000.0 -0.8176 -0.3251
6009000000.0 -0.7775 0.4166
6012000000.0 -0.1502 0.866
6016000000.0 0.5911 0.688
6019000000.0 0.9108 -0.01732
6022000000.0 0.5593 -0.7395
6025000000.0 -0.2101 -0.8916
6028000000.0 -0.8456 -0.4
6031000000.0 -0.879 0.3841
6034000000.0 -0.2135 0.9272
6038000000.0 0.5717 0.7691
6041000000.0 0.9668 0.06914
6044000000.0 0.653 -0.7136
6047000000.0 -0.1413 -0.963
6050000000.0 -0.8482 -0.515
6053000000.0 -0.9567 0.3613
6056000000.0 -0.315 0.9554
6059000000.0 0.5459 0.8486
6062000000.0 1.029 0.08671
6066000000.0 0.7052 -0.7298
6069000000.0 -0.1355 -1.017
6072000000.0 -0.8626 -0.5427
6075000000.0 -0.9684 0.3454
6078000000.0 -0.3269 0.9731
6081000000.0 0.5423 0.8508
6084000000.0 0.9963 0.09649
6088000000.0 0.6623 -0.7008
6091000000.0 -0.1116 -0.9534
6094000000.0 -0.8284 -0.5405
6097000000.0 -0.9112 0.3355
6100000000.0 -0.3334 0.9241
6103000000.0 0.5222 0.8375
6106000000.0 0.9428 0.08652
6109000000.0 0.6758 -0.6888
6112000000.0 -0.1019 -0.9392
6116000000.0 -0.7514 -0.4768
6119000000.0 -0.8573 0.3204
6122000000.0 -0.262 0.8633
6125000000.0 0.4978 0.7355
6128000000.0 0.8779 0.06241
6131000000.0 0.5876 -0.6385
6134000000.0 -0.1217 -0.8514
6138000000.0 -0.7573 -0.4367
6141000000.0 -0.7695 0.3272
6144000000.0 -0.2232 0.7921
6147000000.0 0.5016 0.651
6150000000.0 0.8375 0.06866
6153000000.0 0.5779 -0.6141
6156000000.0 -0.1098 -0.8387
6159000000.0 -0.7311 -0.4061
6162000000.0 -0.7954 0.3226
6166000000.0 -0.2581 0.7889
6169000000.0 0.4769 0.7067
6172000000.0 0.8304 0.05734
6175000000.0 0.5814 -0.6254
6178000000.0 -0.09825 -0.8513
6181000000.0 -0.7539 -0.4105
6184000000.0 -0.8051 0.3254
6188000000.0 -0.2705 0.828
6191000000.0 0.4515 0.7081
6194000000.0 0.8671 0.0801
6197000000.0 0.5909 -0.6191
6200000000.0 -0.1072 -0.8637
6203000000.0 -0.737 -0.4732
6206000000.0 -0.8254 0.3199
6209000000.0 -0.269 0.824
6212000000.0 0.466 0.769
6216000000.0 0.8997 0.09976
6219000000.0 0.6123 -0.6076
6222000000.0 -0.09475 -0.8496
6225000000.0 -0.7259 -0.5088
6228000000.0 -0.8501 0.2132
6231000000.0 -0.3537 0.8345
6234000000.0 0.4379 0.7421
6238000000.0 0.8858 0.1497
6241000000.0 0.6723 -0.5807
6244000000.0 -0.02056 -0.8614
6247000000.0 -0.6923 -0.5424
6250000000.0 -0.8437 0.1882
6253000000.0 -0.3606 0.7259
6256000000.0 0.327 0.7673
6259000000.0 0.7929 0.2524
6262000000.0 0.6804 -0.435
6266000000.0 0.07559 -0.8165
