! Created with skrf 1.8.0 (http://scikit-rf.org).
# Hz S RI R 50.0 
!freq ReS11 ImS11
4000000000.0 -0.1958 -1.475
4003000000.0 -1.311 -0.7569
4006000000.0 -1.413 0.5316
4009000000.0 -0.5001 1.41
4012000000.0 0.8469 1.254
4016000000.0 1.551 0.1649
4019000000.0 1.091 -1.115
4022000000.0 -0.1813 -1.499
4025000000.0 -1.316 -0.8342
4028000000.0 -1.473 0.5242
4031000000.0 -0.462 1.53
4034000000.0 0.8018 1.352
4038000000.0 1.611 0.1767
4041000000.0 1.132 -1.131
4044000000.0 -0.1484 -1.652
4047000000.0 -1.37 -0.8774
4050000000.0 -1.529 0.5141
4053000000.0 -0.5449 1.529
4056000000.0 0.8345 1.428
4059000000.0 1.588 0.2577
4062000000.0 1.219 -1.041
4066000000.0 -0.02773 -1.616
4069000000.0 -1.292 -0.9779
4072000000.0 -1.624 0.3606
4075000000.0 -0.7466 1.426
4078000000.0 0.6087 1.514
4081000000.0 1.551 0.4797
4084000000.0 1.37 -0.8768
4088000000.0 0.183 -1.671
4091000000.0 -1.151 -1.149
4094000000.0 -1.634 0.1188
4097000000.0 -0.9346 1.379
4100000000.0 0.4443 1.53
4103000000.0 1.437 0.6492
4106000000.0 1.404 -0.6692
4109000000.0 0.4078 -1.464
4112000000.0 -0.8703 -1.241
4116000000.0 -1.521 -0.1406
4119000000.0 -1.071 1.087
4122000000.0 0.09578 1.49
4125000000.0 1.152 0.9206
4128000000.0 1.43 -0.3022
4131000000.0 0.759 -1.254
4134000000.0 -0.4845 -1.39
4138000000.0 -1.357 -0.5245
4141000000.0 -1.282 0.7192
4144000000.0 -0.3219 1.438
4147000000.0 0.9103 1.16
4150000000.0 1.5 0.06991
4153000000.0 0.9911 -1.115
4156000000.0 -0.1677 -1.48
4159000000.0 -1.278 -0.8172
4162000000.0 -1.44 0.4333
4166000000.0 -0.5651 1.413
4169000000.0 0.6638 1.324
4172000000.0 1.455 0.3191
4175000000.0 1.166 -0.9313
4178000000.0 0.05788 -1.478
4181000000.0 -1.105 -0.9985
4184000000.0 -1.492 0.1756
4188000000.0 -0.8152 1.249
4191000000.0 0.4785 1.431
4194000000.0 1.427 0.5562
4197000000.0 1.334 -0.7299
4200000000.0 0.2612 -1.596
4203000000.0 -1.064 -1.207
4206000000.0 -1.6 0.08694
4209000000.0 -0.9572 1.366
4212000000.0 0.4788 1.549
4216000000.0 1.542 0.6175
4219000000.0 1.444 -0.8265
4222000000.0 0.2025 -1.663
4225000000.0 -1.26 -1.132
4228000000.0 -1.633 0.2727
4231000000.0 -0.7804 1.487
4234000000.0 0.6842 1.469
4238000000.0 1.581 0.3307
4241000000.0 1.234 -1.026
4244000000.0 -0.1177 -1.594
4247000000.0 -1.271 -0.8919
4250000000.0 -1.467 0.4383
4253000000.0 -0.5167 1.447
4256000000.0 0.8026 1.322
4259000000.0 1.524 0.1357
4262000000.0 1.045 -1.097
4266000000.0 -0.2203 -1.479
4269000000.0 -1.281 -0.7244
4272000000.0 -1.368 0.5536
4275000000.0 -0.3672 1.398
4278000000.0 0.8919 1.145
4281000000.0 1.444 0.04116
4284000000.0 0.8938 -1.121
4288000000.0 -0.3097 -1.353
4291000000.0 -1.214 -0.6104
4294000000.0 -1.229 0.5561
4297000000.0 -0.3388 1.241
4300000000.0 0.7419 1.089
4303000000.0 1.314 0.1441
4306000000.0 0.946 -0.9198
4309000000.0 -0.08044 -1.255
4312000000.0 -1.035 -0.7574
4316000000.0 -1.249 0.2816
4319000000.0 -0.5679 1.157
4322000000.0 0.5333 1.187
4325000000.0 1.269 0.3782
4328000000.0 1.074 -0.7137
4331000000.0 0.1814 -1.343
4334000000.0 -0.9362 -0.9878
4338000000.0 -1.377 0.05946
4341000000.0 -0.8617 1.139
4344000000.0 0.3367 1.401
4347000000.0 1.282 0.6532
4350000000.0 1.295 -0.6164
4353000000.0 0.3732 -1.397
4356000000.0 -0.8282 -1.183
4359000000.0 -1.438 -0.09761
4362000000.0 -0.9997 1.049
4366000000.0 0.1687 1.438
4369000000.0 1.252 0.8161
4372000000.0 1.416 -0.4074
4375000000.0 0.5693 -1.36
4378000000.0 -0.725 -1.331
4381000000.0 -1.478 -0.2845
4384000000.0 -1.187 0.9862
4388000000.0 -0.001217 1.536
4391000000.0 1.185 0.9574
4394000000.0 1.54 -0.3676
4397000000.0 0.682 -1.446
4400000000.0 -0.7066 -1.391
4403000000.0 -1.561 -0.3565
4406000000.0 -1.206 0.9872
4409000000.0 0.02971 1.547
4412000000.0 1.247 0.9142
4416000000.0 1.489 -0.3926
4419000000.0 0.5836 -1.415
4422000000.0 -0.7117 -1.286
4425000000.0 -1.44 -0.204
4428000000.0 -1.045 0.9975
4431000000.0 0.1243 1.433
4434000000.0 1.185 0.7591
4438000000.0 1.282 -0.4545
4441000000.0 0.4017 -1.309
4444000000.0 -0.7434 -1.112
4447000000.0 -1.32 -0.08011
4450000000.0 -0.8662 0.9449
4453000000.0 0.2329 1.269
4456000000.0 1.109 0.5705
4459000000.0 1.108 -0.5517
4462000000.0 0.2448 -1.209
4466000000.0 -0.7614 -0.9484
4469000000.0 -1.201 0.06515
4472000000.0 -0.6677 0.9673
4475000000.0 0.3389 1.149
4478000000.0 1.107 0.4368
4481000000.0 0.9658 -0.5919
4484000000.0 0.1521 -1.144
4488000000.0 -0.818 -0.8287
4491000000.0 -1.142 0.121
4494000000.0 -0.6053 0.9552
4497000000.0 0.381 1.087
4500000000.0 1.065 0.424
4503000000.0 0.9312 -0.5405
4506000000.0 0.1776 -1.086
4509000000.0 -0.7265 -0.8208
4512000000.0 -1.131 0.04863
4516000000.0 -0.6556 0.9161
4519000000.0 0.2909 1.098
4522000000.0 1.037 0.4688
4525000000.0 1.02 -0.5008
4528000000.0 0.2604 -1.112
4531000000.0 -0.7188 -0.9215
4534000000.0 -1.191 -0.03873
4538000000.0 -0.7865 0.8697
4541000000.0 0.2039 1.193
4544000000.0 1.029 0.6259
4547000000.0 1.162 -0.404
4550000000.0 0.4388 -1.164
4553000000.0 -0.5987 -1.098
4556000000.0 -1.204 -0.228
4559000000.0 -0.935 0.8017
4562000000.0 -0.01957 1.283
4566000000.0 0.95 0.8236
4569000000.0 1.272 -0.1997
4572000000.0 0.6633 -1.104
4575000000.0 -0.3992 -1.231
4578000000.0 -1.249 -0.4647
4581000000.0 -1.149 0.6619
4584000000.0 -0.2249 1.322
4588000000.0 0.888 1.032
4591000000.0 1.387 -0.01199
4594000000.0 0.8705 -1.08
4597000000.0 -0.2665 -1.351
4600000000.0 -1.245 -0.6533
4603000000.0 -1.314 0.5459
4606000000.0 -0.3968 1.349
4609000000.0 0.8118 1.155
4612000000.0 1.407 0.1007
4616000000.0 0.962 -0.9759
4619000000.0 -0.1737 -1.378
4622000000.0 -1.168 -0.7232
4625000000.0 -1.308 0.4993
4628000000.0 -0.4928 1.289
4631000000.0 0.7195 1.193
4634000000.0 1.372 0.1659
4638000000.0 0.989 -0.9582
4641000000.0 -0.09459 -1.343
4644000000.0 -1.087 -0.7537
4647000000.0 -1.27 0.3762
4650000000.0 -0.4526 1.217
4653000000.0 0.6642 1.09
4656000000.0 1.247 0.1446
4659000000.0 0.901 -0.8662
4662000000.0 -0.1134 -1.202
4666000000.0 -1.051 -0.6307
4669000000.0 -1.133 0.3735
4672000000.0 -0.3908 1.113
4675000000.0 0.6076 0.9816
4678000000.0 1.106 0.1028
4681000000.0 0.7908 -0.809
4684000000.0 -0.09939 -1.123
4688000000.0 -0.8946 -0.582
4691000000.0 -1.017 0.3965
4694000000.0 -0.3652 1.048
4697000000.0 0.5435 0.9366
4700000000.0 1.089 0.1123
4703000000.0 0.7416 -0.7738
4706000000.0 -0.145 -1.08
4709000000.0 -0.9259 -0.549
4712000000.0 -1.001 0.384
4716000000.0 -0.3311 1.015
4719000000.0 0.5945 0.9203
4722000000.0 1.055 0.09321
4725000000.0 0.7582 -0.7428
4728000000.0 -0.1432 -1.041
4731000000.0 -0.861 -0.5692
4734000000.0 -0.9775 0.333
4738000000.0 -0.3935 0.989
4741000000.0 0.5001 0.9608
4744000000.0 1.022 0.2113
4747000000.0 0.8123 -0.6712
4750000000.0 0.03227 -1.093
4753000000.0 -0.8356 -0.7356
4756000000.0 -1.101 0.2005
4759000000.0 -0.5535 0.9643
4762000000.0 0.3705 1.084
4766000000.0 1.063 0.3917
4769000000.0 0.9984 -0.574
4772000000.0 0.1888 -1.155
4775000000.0 -0.7859 -0.9311
4778000000.0 -1.215 -0.004879
4781000000.0 -0.7504 0.9159
4784000000.0 0.2264 1.178
4788000000.0 1.06 0.6179
4791000000.0 1.146 -0.4232
4794000000.0 0.4548 -1.16
4797000000.0 -0.6058 -1.1
4800000000.0 -1.273 -0.24
4803000000.0 -0.9831 0.7716
4806000000.0 -0.02975 1.273
4809000000.0 0.9797 0.863
4812000000.0 1.289 -0.178
4816000000.0 0.6922 -1.099
4819000000.0 -0.4297 -1.258
4822000000.0 -1.278 -0.4735
4825000000.0 -1.19 0.666
4828000000.0 -0.2354 1.367
4831000000.0 0.8896 1.062
4834000000.0 1.383 -0.058
4838000000.0 0.8517 -1.114
4841000000.0 -0.3273 -1.345
4844000000.0 -1.228 -0.6213
4847000000.0 -1.255 0.5837
4850000000.0 -0.3549 1.344
4853000000.0 0.8271 1.107
4856000000.0 1.374 0.06835
4859000000.0 0.8994 -1.002
4862000000.0 -0.217 -1.311
4866000000.0 -1.161 -0.6617
4869000000.0 -1.215 0.4522
4872000000.0 -0.4405 1.228
4875000000.0 0.6653 1.086
4878000000.0 1.267 0.1369
4881000000.0 0.9017 -0.8651
4884000000.0 -0.1203 -1.227
4888000000.0 -1.008 -0.636
4891000000.0 -1.109 0.3328
4894000000.0 -0.4261 1.057
4897000000.0 0.5546 0.9932
4900000000.0 1.094 0.1405
4903000000.0 0.7965 -0.7579
4906000000.0 -0.06742 -1.071
4909000000.0 -0.8673 -0.6046
4912000000.0 -1.004 0.2543
4916000000.0 -0.4057 0.9028
4919000000.0 0.4592 0.8725
4922000000.0 0.952 0.2027
4925000000.0 0.7558 -0.6139
4928000000.0 0.01161 -0.9359
4931000000.0 -0.7323 -0.6052
4934000000.0 -0.918 0.1518
4938000000.0 -0.4511 0.844
4941000000.0 0.3556 0.8396
4944000000.0 0.8902 0.291
4947000000.0 0.8099 -0.505
4950000000.0 0.1031 -0.9375
4953000000.0 -0.6585 -0.6589
4956000000.0 -0.9678 0.06025
4959000000.0 -0.5439 0.8065
4962000000.0 0.2801 0.9586
4966000000.0 0.912 0.3755
4969000000.0 0.8681 -0.4804
4972000000.0 0.2079 -0.9731
4975000000.0 -0.6478 -0.7861
4978000000.0 -1.038 0.02888
4981000000.0 -0.6665 0.7865
4984000000.0 0.1976 1.028
4988000000.0 0.9331 0.4969
4991000000.0 1.028 -0.3962
4994000000.0 0.3575 -1.046
4997000000.0 -0.5911 -0.9539
5000000000.0 -1.138 -0.156
5003000000.0 -0.8653 0.7844
5006000000.0 0.07036 1.187
5009000000.0 0.9639 0.7424
5012000000.0 1.203 -0.2663
5016000000.0 0.5363 -1.102
5019000000.0 -0.5407 -1.143
5022000000.0 -1.222 -0.3147
5025000000.0 -1.026 0.7221
5028000000.0 -0.07928 1.29
5031000000.0 0.9415 0.8977
5034000000.0 1.27 -0.1636
5038000000.0 0.659 -1.084
5041000000.0 -0.407 -1.193
5044000000.0 -1.167 -0.4799
5047000000.0 -1.152 0.5948
5050000000.0 -0.2961 1.25
5053000000.0 0.7787 0.9806
5056000000.0 1.315 0.02189
5059000000.0 0.8477 -0.9566
5062000000.0 -0.1788 -1.273
5066000000.0 -1.102 -0.6579
5069000000.0 -1.199 0.3954
5072000000.0 -0.4363 1.186
5075000000.0 0.6159 1.097
5078000000.0 1.231 0.2069
5081000000.0 0.9253 -0.7814
5084000000.0 -0.01803 -1.215
5088000000.0 -0.9067 -0.778
5091000000.0 -1.179 0.2345
5094000000.0 -0.538 0.9823
5097000000.0 0.4123 1.053
5100000000.0 1.054 0.3434
5103000000.0 0.9451 -0.564
5106000000.0 0.1733 -1.09
5109000000.0 -0.7205 -0.8337
5112000000.0 -1.071 0.01547
5116000000.0 -0.6266 0.8328
5119000000.0 0.1795 0.9898
5122000000.0 0.8877 0.4668
5125000000.0 0.9758 -0.353
5128000000.0 0.2923 -0.9809
5131000000.0 -0.5363 -0.8297
5134000000.0 -0.9776 -0.1184
5138000000.0 -0.6934 0.7147
5141000000.0 0.07815 0.932
5144000000.0 0.782 0.5066
5147000000.0 0.8692 -0.2904
5150000000.0 0.3425 -0.8477
5153000000.0 -0.432 -0.8044
5156000000.0 -0.9001 -0.1782
5159000000.0 -0.6973 0.5749
5162000000.0 0.0282 0.9
5166000000.0 0.6983 0.5204
5169000000.0 0.8751 -0.2169
5172000000.0 0.406 -0.788
5175000000.0 -0.3532 -0.8209
5178000000.0 -0.8712 -0.2266
5181000000.0 -0.7339 0.552
5184000000.0 5.791e-05 0.9158
5188000000.0 0.6908 0.5892
5191000000.0 0.9134 -0.2246
5194000000.0 0.4114 -0.8224
5197000000.0 -0.3995 -0.8541
5200000000.0 -0.9239 -0.2366
5203000000.0 -0.7517 0.5865
5206000000.0 -0.006378 0.9714
5209000000.0 0.7389 0.6279
5212000000.0 0.973 -0.1974
5216000000.0 0.4559 -0.8526
5219000000.0 -0.3966 -0.9001
5222000000.0 -0.9878 -0.3064
5225000000.0 -0.8508 0.5412
5228000000.0 -0.08571 1.012
5231000000.0 0.7189 0.7341
5234000000.0 1.013 -0.0992
5238000000.0 0.5848 -0.8505
5241000000.0 -0.2891 -1.007
5244000000.0 -0.979 -0.4004
5247000000.0 -0.9347 0.5016
5250000000.0 -0.2072 1.026
5253000000.0 0.674 0.8359
5256000000.0 1.09 0.03912
5259000000.0 0.7306 -0.8002
5262000000.0 -0.1719 -1.097
5266000000.0 -0.9147 -0.5738
5269000000.0 -1.026 0.3091
5272000000.0 -0.4261 0.9981
5275000000.0 0.5109 0.96
5278000000.0 1.074 0.233
5281000000.0 0.9081 -0.6669
5284000000.0 0.03143 -1.117
5288000000.0 -0.7784 -0.7606
5291000000.0 -1.119 0.1273
5294000000.0 -0.6358 0.9258
5297000000.0 0.302 1.091
5300000000.0 0.9992 0.4663
5303000000.0 1.011 -0.4491
5306000000.0 0.2645 -1.131
5309000000.0 -0.6199 -0.9665
5312000000.0 -1.137 -0.06892
5316000000.0 -0.7991 0.7831
5319000000.0 0.09472 1.129
5322000000.0 0.9399 0.6603
5325000000.0 1.116 -0.3086
5328000000.0 0.476 -1.044
5331000000.0 -0.4988 -1.028
5334000000.0 -1.075 -0.2471
5338000000.0 -0.8922 0.6781
5341000000.0 -0.03134 1.091
5344000000.0 0.831 0.7323
5347000000.0 1.104 -0.1765
5350000000.0 0.5502 -0.9475
5353000000.0 -0.3649 -1.029
5356000000.0 -1.022 -0.3273
5359000000.0 -0.9129 0.5761
5362000000.0 -0.08346 1.044
5366000000.0 0.7442 0.7202
5369000000.0 1.016 -0.1137
5372000000.0 0.4965 -0.8622
5375000000.0 -0.348 -0.9466
5378000000.0 -0.9402 -0.305
5381000000.0 -0.8231 0.5541
5384000000.0 -0.08843 0.9377
5388000000.0 0.6676 0.6424
5391000000.0 0.9273 -0.1155
5394000000.0 0.4254 -0.7815
5397000000.0 -0.3549 -0.8488
5400000000.0 -0.8758 -0.2326
5403000000.0 -0.6856 0.5256
5406000000.0 -0.03891 0.8929
5409000000.0 0.6505 0.5697
5412000000.0 0.8625 -0.1578
5416000000.0 0.401 -0.7702
5419000000.0 -0.3475 -0.8088
5422000000.0 -0.8203 -0.2242
5425000000.0 -0.7053 0.5084
5428000000.0 -0.03404 0.8821
5431000000.0 0.6437 0.5554
5434000000.0 0.8329 -0.143
5438000000.0 0.4416 -0.7843
5441000000.0 -0.3479 -0.8272
5444000000.0 -0.8469 -0.2439
5447000000.0 -0.7568 0.5215
5450000000.0 -0.04144 0.9042
5453000000.0 0.6613 0.6268
5456000000.0 0.9166 -0.08968
5459000000.0 0.4735 -0.8104
5462000000.0 -0.2881 -0.8882
5466000000.0 -0.8595 -0.344
5469000000.0 -0.7976 0.4245
5472000000.0 -0.164 0.9009
5475000000.0 0.6212 0.7062
5478000000.0 0.9623 0.0327
5481000000.0 0.6187 -0.7299
5484000000.0 -0.1553 -0.9885
5488000000.0 -0.8535 -0.489
5491000000.0 -0.9321 0.3165
5494000000.0 -0.3572 0.944
5497000000.0 0.4976 0.8754
5500000000.0 1.017 0.1697
5503000000.0 0.8046 -0.613
5506000000.0 0.006945 -1.036
5509000000.0 -0.7833 -0.7052
5512000000.0 -1.015 0.1947
5516000000.0 -0.5336 0.874
5519000000.0 0.3588 1.015
5522000000.0 0.9922 0.366
5525000000.0 0.9292 -0.5337
5528000000.0 0.1489 -1.046
5531000000.0 -0.6459 -0.7982
5534000000.0 -1.05 -0.02738
5538000000.0 -0.6877 0.817
5541000000.0 0.1705 1.05
5544000000.0 0.9111 0.52
5547000000.0 0.9941 -0.3479
5550000000.0 0.3539 -1.004
5553000000.0 -0.5468 -0.8882
5556000000.0 -1.027 -0.1609
5559000000.0 -0.7652 0.6997
5562000000.0 0.04628 1.042
5566000000.0 0.8498 0.6214
5569000000.0 1.009 -0.2022
5572000000.0 0.4378 -0.89
5575000000.0 -0.422 -0.8804
5578000000.0 -0.9173 -0.2654
5581000000.0 -0.8131 0.5563
5584000000.0 -0.04635 0.9276
5588000000.0 0.6741 0.6534
5591000000.0 0.9013 -0.1171
5594000000.0 0.4738 -0.7805
5597000000.0 -0.3074 -0.8613
5600000000.0 -0.8132 -0.2985
5603000000.0 -0.7451 0.4539
5606000000.0 -0.104 0.8798
5609000000.0 0.5937 0.6144
5612000000.0 0.8531 -0.06688
5616000000.0 0.4696 -0.7032
5619000000.0 -0.2575 -0.8034
5622000000.0 -0.7624 -0.3149
5625000000.0 -0.7178 0.4166
5628000000.0 -0.1097 0.8142
5631000000.0 0.5579 0.614
5634000000.0 0.8185 -0.06309
5638000000.0 0.4618 -0.6579
5641000000.0 -0.2287 -0.7992
5644000000.0 -0.7647 -0.308
5647000000.0 -0.7259 0.3655
5650000000.0 -0.1436 0.7954
5653000000.0 0.5699 0.6319
5656000000.0 0.8552 -0.05019
5659000000.0 0.5026 -0.7052
5662000000.0 -0.2355 -0.8104
5666000000.0 -0.8097 -0.3536
5669000000.0 -0.7839 0.4333
5672000000.0 -0.1695 0.8968
5675000000.0 0.5939 0.6935
5678000000.0 0.9421 -0.0318
5681000000.0 0.5925 -0.7645
5684000000.0 -0.2351 -0.9204
5688000000.0 -0.9031 -0.4126
5691000000.0 -0.8945 0.4117
5694000000.0 -0.2573 0.976
5697000000.0 0.6006 0.781
5700000000.0 1.011 0.0469
5703000000.0 0.676 -0.8019
5706000000.0 -0.1513 -1.025
5709000000.0 -0.9119 -0.5189
5712000000.0 -1.003 0.3823
5716000000.0 -0.3271 1.026
5719000000.0 0.5875 0.9183
5722000000.0 1.052 0.186
5725000000.0 0.7788 -0.7284
5728000000.0 -0.01357 -1.129
5731000000.0 -0.8791 -0.6545
5734000000.0 -1.066 0.2689
5738000000.0 -0.4616 0.9989
5741000000.0 0.4298 1.028
5744000000.0 1.064 0.3159
5747000000.0 0.9548 -0.6341
5750000000.0 0.09429 -1.117
5753000000.0 -0.7805 -0.803
5756000000.0 -1.104 0.1046
5759000000.0 -0.643 0.92
5762000000.0 0.3096 1.091
5766000000.0 1.003 0.4749
5769000000.0 0.9576 -0.5196
5772000000.0 0.2282 -1.074
5775000000.0 -0.6647 -0.8823
5778000000.0 -1.08 -0.02178
5781000000.0 -0.7216 0.8037
5784000000.0 0.1435 1.056
5788000000.0 0.9055 0.565
5791000000.0 1.014 -0.3479
5794000000.0 0.3686 -0.9885
5797000000.0 -0.5176 -0.9167
5800000000.0 -1.049 -0.172
5803000000.0 -0.7755 0.6873
5806000000.0 0.02933 1.041
5809000000.0 0.8158 0.6072
5812000000.0 0.9854 -0.2444
5816000000.0 0.4178 -0.908
5819000000.0 -0.4509 -0.8723
5822000000.0 -0.9511 -0.2538
5825000000.0 -0.7696 0.5881
5828000000.0 -0.05427 0.9773
5831000000.0 0.6996 0.5962
5834000000.0 0.9158 -0.1863
5838000000.0 0.4666 -0.8147
5841000000.0 -0.3969 -0.8826
5844000000.0 -0.9226 -0.2324
5847000000.0 -0.762 0.5131
5850000000.0 -0.01275 0.8991
5853000000.0 0.7001 0.6147
5856000000.0 0.8866 -0.1772
5859000000.0 0.4222 -0.7808
5862000000.0 -0.3505 -0.8218
5866000000.0 -0.8708 -0.2162
5869000000.0 -0.696 0.5059
5872000000.0 -0.04227 0.8429
5875000000.0 0.662 0.5642
5878000000.0 0.8529 -0.1311
5881000000.0 0.4251 -0.7594
5884000000.0 -0.3175 -0.7902
5888000000.0 -0.832 -0.2375
5891000000.0 -0.6982 0.4697
5894000000.0 -0.06897 0.8392
5897000000.0 0.6093 0.6153
5900000000.0 0.8843 -0.1196
5903000000.0 0.4669 -0.7168
5906000000.0 -0.2672 -0.8376
5909000000.0 -0.8461 -0.3106
5912000000.0 -0.7618 0.4476
5916000000.0 -0.1509 0.8872
5919000000.0 0.5772 0.6784
5922000000.0 0.8749 0.0005896
5925000000.0 0.5709 -0.718
5928000000.0 -0.1664 -0.9065
5931000000.0 -0.8352 -0.3972
5934000000.0 -0.8533 0.3455
5938000000.0 -0.2533 0.8876
5941000000.0 0.5373 0.7779
5944000000.0 0.9293 0.102
5947000000.0 0.6507 -0.6837
5950000000.0 -0.05787 -0.9562
5953000000.0 -0.7815 -0.5576
5956000000.0 -0.9238 0.2591
5959000000.0 -0.4142 0.9041
5962000000.0 0.4354 0.8989
5966000000.0 0.9515 0.2587
5969000000.0 0.7773 -0.5909
5972000000.0 0.04548 -1.007
5975000000.0 -0.7557 -0.6421
5978000000.0 -1.014 0.1408
5981000000.0 -0.5051 0.8557
5984000000.0 0.3405 0.959
5988000000.0 0.9398 0.3668
5991000000.0 0.851 -0.5311
5994000000.0 0.1863 -1.008
5997000000.0 -0.683 -0.7601
6000000000.0 -1.039 0.01782
6003000000.0 -0.6217 0.7697
6006000000.0 0.2717 0.9514
6009000000.0 0.8801 0.4112
6012000000.0 0.8671 -0.437
6016000000.0 0.197 -0.9264
6019000000.0 -0.6263 -0.745
6022000000.0 -0.9653 0.0105
6025000000.0 -0.596 0.755
6028000000.0 0.2194 0.9049
6031000000.0 0.8348 0.4091
6034000000.0 0.8329 -0.4074
6038000000.0 0.2379 -0.8933
6041000000.0 -0.5631 -0.7143
6044000000.0 -0.9134 -0.01741
6047000000.0 -0.5807 0.6675
6050000000.0 0.1437 0.8634
6053000000.0 0.7998 0.3768
6056000000.0 0.8192 -0.3424
6059000000.0 0.2165 -0.8303
6062000000.0 -0.5232 -0.6799
6066000000.0 -0.8647 -0.04255
6069000000.0 -0.5648 0.6375
6072000000.0 0.161 0.8332
6075000000.0 0.7238 0.4091
6078000000.0 0.7585 -0.325
6081000000.0 0.2426 -0.8042
6084000000.0 -0.4714 -0.6938
6088000000.0 -0.8277 -0.02091
6091000000.0 -0.5789 0.6276
6094000000.0 0.1357 0.8625
6097000000.0 0.7189 0.4342
6100000000.0 0.8206 -0.3088
6103000000.0 0.2602 -0.833
6106000000.0 -0.5012 -0.7258
6109000000.0 -0.842 -0.07432
6112000000.0 -0.6042 0.6346
6116000000.0 0.1258 0.8936
6119000000.0 0.79 0.4882
6122000000.0 0.8678 -0.306
6125000000.0 0.2773 -0.8757
6128000000.0 -0.4848 -0.8183
6131000000.0 -0.9089 -0.1017
6134000000.0 -0.6661 0.6595
6138000000.0 0.08823 0.9219
6141000000.0 0.797 0.521
6144000000.0 0.9364 -0.2746
6147000000.0 0.3188 -0.8912
6150000000.0 -0.4609 -0.8074
6153000000.0 -0.9469 -0.1619
6156000000.0 -0.7308 0.6418
6159000000.0 0.04621 1.01
6162000000.0 0.8207 0.5862
6166000000.0 0.962 -0.242
6169000000.0 0.4098 -0.8994
6172000000.0 -0.4522 -0.9052
6175000000.0 -0.9548 -0.2354
6178000000.0 -0.7957 0.6264
6181000000.0 0.001686 0.9714
6184000000.0 0.7473 0.6082
6188000000.0 0.9315 -0.2221
6191000000.0 0.4343 -0.8836
6194000000.0 -0.4202 -0.9038
6197000000.0 -0.9702 -0.2629
6200000000.0 -0.7735 0.5393
6203000000.0 -0.06244 0.9472
6206000000.0 0.6964 0.6379
6209000000.0 0.9297 -0.1062
6212000000.0 0.4875 -0.8165
6216000000.0 -0.3098 -0.837
6219000000.0 -0.8409 -0.2908
6222000000.0 -0.7568 0.4519
6225000000.0 -0.118 0.9025
6228000000.0 0.6014 0.6374
6231000000.0 0.8727 -0.06329
6234000000.0 0.4826 -0.7282
6238000000.0 -0.2341 -0.8149
6241000000.0 -0.7859 -0.3347
6244000000.0 -0.7682 0.4175
6247000000.0 -0.183 0.8384
6250000000.0 0.4924 0.6534
6253000000.0 0.8099 -0.004425
6256000000.0 0.5257 -0.6505
6259000000.0 -0.1735 -0.8043
6262000000.0 -0.7358 -0.3994
6266000000.0 -0.7912 0.3325
