! Created with skrf 1.8.0 (http://scikit-rf.org).
# Hz S RI R 50.0 
!freq ReS11 ImS11
4000000000.0 -0.2314 -1.464
4003000000.0 -1.28 -0.7899
4006000000.0 -1.429 0.491
4009000000.0 -0.4972 1.406
4012000000.0 0.8383 1.28
4016000000.0 1.579 0.1928
4019000000.0 1.108 -1.122
4022000000.0 -0.1947 -1.597
4025000000.0 -1.301 -0.8338
4028000000.0 -1.568 0.506
4031000000.0 -0.5347 1.485
4034000000.0 0.8592 1.458
4038000000.0 1.642 0.2003
4041000000.0 1.213 -1.154
4044000000.0 -0.1745 -1.669
4047000000.0 -1.365 -0.9006
4050000000.0 -1.551 0.4616
4053000000.0 -0.6204 1.555
4056000000.0 0.7467 1.397
4059000000.0 1.603 0.2754
4062000000.0 1.246 -1.046
4066000000.0 0.04183 -1.63
4069000000.0 -1.254 -1.035
4072000000.0 -1.603 0.2707
4075000000.0 -0.8188 1.473
4078000000.0 0.5658 1.526
4081000000.0 1.557 0.5374
4084000000.0 1.427 -0.8848
4088000000.0 0.189 -1.641
4091000000.0 -1.142 -1.223
4094000000.0 -1.694 0.09598
4097000000.0 -0.9712 1.384
4100000000.0 0.3842 1.58
4103000000.0 1.479 0.6927
4106000000.0 1.44 -0.6619
4109000000.0 0.4388 -1.546
4112000000.0 -0.8601 -1.321
4116000000.0 -1.508 -0.1631
4119000000.0 -1.101 1.015
4122000000.0 0.05201 1.514
4125000000.0 1.15 0.9098
4128000000.0 1.46 -0.2797
4131000000.0 0.7897 -1.283
4134000000.0 -0.4585 -1.423
4138000000.0 -1.36 -0.5609
4141000000.0 -1.356 0.6859
4144000000.0 -0.3735 1.498
4147000000.0 0.9304 1.237
4150000000.0 1.534 0.1317
4153000000.0 1.076 -1.103
4156000000.0 -0.1654 -1.549
4159000000.0 -1.291 -0.8747
4162000000.0 -1.478 0.4375
4166000000.0 -0.6606 1.395
4169000000.0 0.6661 1.364
4172000000.0 1.497 0.3925
4175000000.0 1.199 -0.8803
4178000000.0 0.1097 -1.481
4181000000.0 -1.104 -1.04
4184000000.0 -1.517 0.117
4188000000.0 -0.9058 1.271
4191000000.0 0.4404 1.508
4194000000.0 1.466 0.6347
4197000000.0 1.42 -0.6976
4200000000.0 0.3493 -1.519
4203000000.0 -1.024 -1.254
4206000000.0 -1.642 -0.02614
4209000000.0 -1.012 1.288
4212000000.0 0.3846 1.624
4216000000.0 1.561 0.6547
4219000000.0 1.502 -0.7715
4222000000.0 0.2794 -1.715
4225000000.0 -1.149 -1.229
4228000000.0 -1.7 0.1694
4231000000.0 -0.8879 1.449
4234000000.0 0.616 1.566
4238000000.0 1.616 0.459
4241000000.0 1.345 -1.017
4244000000.0 0.02914 -1.627
4247000000.0 -1.285 -1.022
4250000000.0 -1.488 0.4351
4253000000.0 -0.5857 1.431
4256000000.0 0.7492 1.356
4259000000.0 1.484 0.2663
4262000000.0 1.143 -1.067
4266000000.0 -0.1639 -1.492
4269000000.0 -1.272 -0.8131
4272000000.0 -1.418 0.5101
4275000000.0 -0.4577 1.376
4278000000.0 0.8146 1.196
4281000000.0 1.426 0.1135
4284000000.0 0.9657 -1.035
4288000000.0 -0.1917 -1.388
4291000000.0 -1.185 -0.7445
4294000000.0 -1.297 0.4818
4297000000.0 -0.458 1.237
4300000000.0 0.6817 1.149
4303000000.0 1.304 0.2403
4306000000.0 0.9871 -0.8396
4309000000.0 -0.01625 -1.332
4312000000.0 -1.009 -0.8267
4316000000.0 -1.269 0.241
4319000000.0 -0.6464 1.169
4322000000.0 0.452 1.246
4325000000.0 1.234 0.4644
4328000000.0 1.171 -0.6755
4331000000.0 0.2469 -1.317
4334000000.0 -0.9102 -1.052
4338000000.0 -1.368 0.001741
4341000000.0 -0.9093 1.099
4344000000.0 0.2675 1.413
4347000000.0 1.251 0.6688
4350000000.0 1.331 -0.5293
4353000000.0 0.4603 -1.367
4356000000.0 -0.7679 -1.246
4359000000.0 -1.45 -0.1922
4362000000.0 -1.081 0.9955
4366000000.0 0.06436 1.495
4369000000.0 1.178 0.9374
4372000000.0 1.464 -0.3562
4375000000.0 0.671 -1.338
4378000000.0 -0.66 -1.382
4381000000.0 -1.495 -0.4414
4384000000.0 -1.254 0.8602
4388000000.0 -0.127 1.558
4391000000.0 1.147 1.069
4394000000.0 1.586 -0.1899
4397000000.0 0.8478 -1.383
4400000000.0 -0.5853 -1.483
4403000000.0 -1.546 -0.4855
4406000000.0 -1.287 0.9326
4409000000.0 -0.1085 1.571
4412000000.0 1.201 1.067
4416000000.0 1.563 -0.2976
4419000000.0 0.7201 -1.35
4422000000.0 -0.6249 -1.401
4425000000.0 -1.453 -0.382
4428000000.0 -1.181 0.9277
4431000000.0 -0.004332 1.483
4434000000.0 1.135 0.86
4438000000.0 1.369 -0.3303
4441000000.0 0.5727 -1.262
4444000000.0 -0.6153 -1.213
4447000000.0 -1.317 -0.2348
4450000000.0 -1.003 0.9176
4453000000.0 0.1245 1.393
4456000000.0 1.126 0.6988
4459000000.0 1.196 -0.4099
4462000000.0 0.4065 -1.194
4466000000.0 -0.7201 -1.052
4469000000.0 -1.251 -0.0828
4472000000.0 -0.8232 0.9346
4475000000.0 0.2259 1.213
4478000000.0 1.064 0.5463
4481000000.0 1.068 -0.4805
4484000000.0 0.2762 -1.129
4488000000.0 -0.7463 -0.9333
4491000000.0 -1.135 -0.0007912
4494000000.0 -0.7107 0.888
4497000000.0 0.2249 1.136
4500000000.0 1.033 0.5261
4503000000.0 0.9927 -0.4559
4506000000.0 0.2802 -1.056
4509000000.0 -0.6654 -0.8883
4512000000.0 -1.097 -0.07223
4516000000.0 -0.7764 0.8451
4519000000.0 0.2018 1.125
4522000000.0 0.9904 0.5702
4525000000.0 1.11 -0.4049
4528000000.0 0.3575 -1.086
4531000000.0 -0.616 -0.9925
4534000000.0 -1.174 -0.1707
4538000000.0 -0.8754 0.8273
4541000000.0 0.0928 1.202
4544000000.0 0.9861 0.6932
4547000000.0 1.185 -0.311
4550000000.0 0.5111 -1.099
4553000000.0 -0.5276 -1.133
4556000000.0 -1.212 -0.3331
4559000000.0 -1.008 0.725
4562000000.0 -0.1044 1.248
4566000000.0 0.9026 0.9239
4569000000.0 1.293 -0.1059
4572000000.0 0.7519 -1.035
4575000000.0 -0.3449 -1.272
4578000000.0 -1.215 -0.5425
4581000000.0 -1.211 0.5772
4584000000.0 -0.3389 1.318
4588000000.0 0.7875 1.12
4591000000.0 1.371 0.1023
4594000000.0 0.9635 -1.024
4597000000.0 -0.1848 -1.416
4600000000.0 -1.18 -0.7603
4603000000.0 -1.354 0.4499
4606000000.0 -0.4977 1.324
4609000000.0 0.6943 1.234
4612000000.0 1.387 0.2373
4616000000.0 1.075 -0.9298
4619000000.0 -0.06904 -1.394
4622000000.0 -1.131 -0.8546
4625000000.0 -1.354 0.3243
4628000000.0 -0.5947 1.255
4631000000.0 0.5846 1.238
4634000000.0 1.365 0.3535
4638000000.0 1.137 -0.833
4641000000.0 0.02365 -1.355
4644000000.0 -1.043 -0.8655
4647000000.0 -1.348 0.2674
4650000000.0 -0.6012 1.205
4653000000.0 0.5687 1.19
4656000000.0 1.223 0.2872
4659000000.0 1.019 -0.8147
4662000000.0 0.01802 -1.262
4666000000.0 -0.9952 -0.7899
4669000000.0 -1.213 0.27
4672000000.0 -0.5108 1.09
4675000000.0 0.5163 1.029
4678000000.0 1.133 0.2596
4681000000.0 0.8862 -0.7571
4684000000.0 -0.04204 -1.161
4688000000.0 -0.8737 -0.6978
4691000000.0 -1.115 0.2529
4694000000.0 -0.4459 1.007
4697000000.0 0.4607 0.9513
4700000000.0 1.062 0.2311
4703000000.0 0.8644 -0.707
4706000000.0 -0.02282 -1.088
4709000000.0 -0.9042 -0.6618
4712000000.0 -1.042 0.2654
4716000000.0 -0.4155 1.0
4719000000.0 0.5023 0.9511
4722000000.0 1.046 0.2013
4725000000.0 0.8327 -0.6777
4728000000.0 -0.04855 -1.072
4731000000.0 -0.8557 -0.6511
4734000000.0 -1.016 0.2299
4738000000.0 -0.4834 0.9375
4741000000.0 0.4144 0.9552
4744000000.0 1.003 0.3076
4747000000.0 0.9035 -0.6229
4750000000.0 0.1162 -1.046
4753000000.0 -0.8067 -0.7888
4756000000.0 -1.139 0.09917
4759000000.0 -0.6692 0.9124
4762000000.0 0.3252 1.125
4766000000.0 1.049 0.4673
4769000000.0 1.044 -0.496
4772000000.0 0.316 -1.126
4775000000.0 -0.6931 -0.9674
4778000000.0 -1.196 -0.1058
4781000000.0 -0.8227 0.8714
4784000000.0 0.114 1.243
4788000000.0 1.013 0.6987
4791000000.0 1.195 -0.3258
4794000000.0 0.5279 -1.123
4797000000.0 -0.5424 -1.157
4800000000.0 -1.225 -0.3264
4803000000.0 -1.036 0.7299
4806000000.0 -0.1196 1.233
4809000000.0 0.8706 0.926
4812000000.0 1.303 -0.09803
4816000000.0 0.7563 -1.044
4819000000.0 -0.3156 -1.307
4822000000.0 -1.247 -0.59
4825000000.0 -1.237 0.6058
4828000000.0 -0.3344 1.325
4831000000.0 0.8187 1.128
4834000000.0 1.447 0.08517
4838000000.0 0.9568 -1.032
4841000000.0 -0.1983 -1.4
4844000000.0 -1.179 -0.7067
4847000000.0 -1.323 0.4663
4850000000.0 -0.4863 1.314
4853000000.0 0.737 1.187
4856000000.0 1.394 0.2181
4859000000.0 1.019 -0.9368
4862000000.0 -0.09007 -1.374
4866000000.0 -1.126 -0.7838
4869000000.0 -1.297 0.3487
4872000000.0 -0.561 1.249
4875000000.0 0.6087 1.181
4878000000.0 1.291 0.2283
4881000000.0 0.9888 -0.8104
4884000000.0 -0.01973 -1.257
4888000000.0 -0.9706 -0.7694
4891000000.0 -1.214 0.2715
4894000000.0 -0.5274 1.06
4897000000.0 0.5153 1.038
4900000000.0 1.103 0.2365
4903000000.0 0.883 -0.6921
4906000000.0 0.00658 -1.093
4909000000.0 -0.8091 -0.7225
4912000000.0 -1.036 0.1887
4916000000.0 -0.5073 0.9117
4919000000.0 0.3579 0.9231
4922000000.0 0.9791 0.2843
4925000000.0 0.8292 -0.5516
4928000000.0 0.08875 -0.973
4931000000.0 -0.6741 -0.6761
4934000000.0 -0.9595 0.09862
4938000000.0 -0.5316 0.7883
4941000000.0 0.2575 0.9324
4944000000.0 0.8594 0.4016
4947000000.0 0.8435 -0.4495
4950000000.0 0.1912 -0.9392
4953000000.0 -0.6072 -0.7328
4956000000.0 -1.002 0.01022
4959000000.0 -0.6187 0.7687
4962000000.0 0.2102 0.9582
4966000000.0 0.904 0.4702
4969000000.0 0.9471 -0.3955
4972000000.0 0.2743 -0.9717
4975000000.0 -0.6026 -0.8306
4978000000.0 -1.042 -0.08985
4981000000.0 -0.7261 0.7673
4984000000.0 0.1079 1.056
4988000000.0 0.8793 0.5833
4991000000.0 1.041 -0.3135
4994000000.0 0.4503 -1.015
4997000000.0 -0.4901 -0.9842
5000000000.0 -1.107 -0.2583
5003000000.0 -0.9258 0.7313
5006000000.0 -0.02819 1.173
5009000000.0 0.9149 0.8102
5012000000.0 1.192 -0.1842
5016000000.0 0.6157 -1.086
5019000000.0 -0.4417 -1.189
5022000000.0 -1.209 -0.4106
5025000000.0 -1.104 0.6796
5028000000.0 -0.2239 1.305
5031000000.0 0.9137 0.9716
5034000000.0 1.31 -0.05388
5038000000.0 0.793 -1.019
5041000000.0 -0.2873 -1.256
5044000000.0 -1.186 -0.5836
5047000000.0 -1.204 0.5208
5050000000.0 -0.3811 1.252
5053000000.0 0.7304 1.082
5056000000.0 1.327 0.1588
5059000000.0 0.9381 -0.9308
5062000000.0 -0.1007 -1.293
5066000000.0 -1.068 -0.7736
5069000000.0 -1.289 0.3654
5072000000.0 -0.5619 1.179
5075000000.0 0.5542 1.165
5078000000.0 1.237 0.3255
5081000000.0 1.066 -0.7323
5084000000.0 0.1307 -1.239
5088000000.0 -0.8717 -0.8535
5091000000.0 -1.194 0.1302
5094000000.0 -0.6862 0.9942
5097000000.0 0.3425 1.139
5100000000.0 1.065 0.485
5103000000.0 1.035 -0.5004
5106000000.0 0.2691 -1.08
5109000000.0 -0.6421 -0.8993
5112000000.0 -1.112 -0.08447
5116000000.0 -0.7334 0.7797
5119000000.0 0.1058 1.037
5122000000.0 0.894 0.572
5125000000.0 1.006 -0.2491
5128000000.0 0.4124 -0.9457
5131000000.0 -0.4693 -0.8693
5134000000.0 -0.9895 -0.2166
5138000000.0 -0.7767 0.6474
5141000000.0 -0.01253 0.9797
5144000000.0 0.7387 0.6409
5147000000.0 0.9467 -0.1855
5150000000.0 0.4213 -0.8502
5153000000.0 -0.3574 -0.8606
5156000000.0 -0.8699 -0.2557
5159000000.0 -0.7301 0.5054
5162000000.0 -0.1062 0.9096
5166000000.0 0.6248 0.6433
5169000000.0 0.9408 -0.11
5172000000.0 0.5094 -0.7805
5175000000.0 -0.2568 -0.89
5178000000.0 -0.8796 -0.346
5181000000.0 -0.8043 0.4687
5184000000.0 -0.1131 0.915
5188000000.0 0.6323 0.6705
5191000000.0 0.9337 -0.08228
5194000000.0 0.5064 -0.7951
5197000000.0 -0.302 -0.9268
5200000000.0 -0.887 -0.3464
5203000000.0 -0.817 0.4652
5206000000.0 -0.1247 0.9457
5209000000.0 0.6576 0.7261
5212000000.0 0.9788 -0.06072
5216000000.0 0.565 -0.8201
5219000000.0 -0.2699 -0.9426
5222000000.0 -0.9214 -0.3937
5225000000.0 -0.8976 0.4532
5228000000.0 -0.2116 1.003
5231000000.0 0.6365 0.8065
5234000000.0 1.032 0.005118
5238000000.0 0.6956 -0.7819
5241000000.0 -0.1735 -1.037
5244000000.0 -0.9534 -0.4931
5247000000.0 -0.9871 0.3855
5250000000.0 -0.3414 1.026
5253000000.0 0.5506 0.96
5256000000.0 1.09 0.1413
5259000000.0 0.8108 -0.746
5262000000.0 -0.03533 -1.088
5266000000.0 -0.8721 -0.676
5269000000.0 -1.078 0.2127
5272000000.0 -0.533 0.982
5275000000.0 0.4137 1.035
5278000000.0 1.057 0.3353
5281000000.0 0.9472 -0.5598
5284000000.0 0.1465 -1.103
5288000000.0 -0.706 -0.8748
5291000000.0 -1.127 -0.01818
5294000000.0 -0.7274 0.8348
5297000000.0 0.183 1.109
5300000000.0 0.9637 0.5694
5303000000.0 1.074 -0.3391
5306000000.0 0.4335 -1.063
5309000000.0 -0.5425 -0.9899
5312000000.0 -1.132 -0.27
5316000000.0 -0.9072 0.7471
5319000000.0 -0.05314 1.163
5322000000.0 0.8393 0.7499
5325000000.0 1.161 -0.1284
5328000000.0 0.6062 -1.01
5331000000.0 -0.3757 -1.095
5334000000.0 -1.063 -0.4179
5338000000.0 -0.9717 0.5832
5341000000.0 -0.1784 1.121
5344000000.0 0.7225 0.8729
5347000000.0 1.14 -0.01045
5350000000.0 0.7217 -0.8753
5353000000.0 -0.2213 -1.077
5356000000.0 -0.9695 -0.5073
5359000000.0 -0.971 0.4478
5362000000.0 -0.2754 1.049
5366000000.0 0.6126 0.8707
5369000000.0 1.078 0.06476
5372000000.0 0.7066 -0.8233
5375000000.0 -0.1964 -1.011
5378000000.0 -0.8915 -0.5064
5381000000.0 -0.9245 0.3936
5384000000.0 -0.237 0.9396
5388000000.0 0.5866 0.7781
5391000000.0 0.9524 0.04969
5394000000.0 0.6094 -0.7165
5397000000.0 -0.2075 -0.9305
5400000000.0 -0.8237 -0.4177
5403000000.0 -0.8241 0.38
5406000000.0 -0.196 0.8928
5409000000.0 0.555 0.6937
5412000000.0 0.8713 -0.0006902
5416000000.0 0.5563 -0.6851
5419000000.0 -0.2003 -0.8312
5422000000.0 -0.7853 -0.3406
5425000000.0 -0.7855 0.3828
5428000000.0 -0.2126 0.8521
5431000000.0 0.523 0.7058
5434000000.0 0.9196 0.01597
5438000000.0 0.557 -0.6683
5441000000.0 -0.1757 -0.8636
5444000000.0 -0.8133 -0.3939
5447000000.0 -0.7974 0.3722
5450000000.0 -0.2342 0.8718
5453000000.0 0.5233 0.7311
5456000000.0 0.8768 0.04488
5459000000.0 0.5795 -0.6914
5462000000.0 -0.1577 -0.9001
5466000000.0 -0.7894 -0.4941
5469000000.0 -0.8944 0.3091
5472000000.0 -0.3336 0.8719
5475000000.0 0.4552 0.8326
5478000000.0 0.9188 0.1908
5481000000.0 0.7575 -0.6192
5484000000.0 0.004523 -0.9813
5488000000.0 -0.7396 -0.6327
5491000000.0 -0.9895 0.1072
5494000000.0 -0.501 0.8782
5497000000.0 0.3299 0.9511
5500000000.0 0.9811 0.3436
5503000000.0 0.8927 -0.5119
5506000000.0 0.1451 -1.026
5509000000.0 -0.6704 -0.7946
5512000000.0 -1.051 -0.0136
5516000000.0 -0.6577 0.747
5519000000.0 0.2193 1.079
5522000000.0 0.9303 0.5667
5525000000.0 0.9976 -0.3801
5528000000.0 0.3805 -0.9908
5531000000.0 -0.5333 -0.9328
5534000000.0 -1.072 -0.1648
5538000000.0 -0.8228 0.6833
5541000000.0 -0.003124 1.077
5544000000.0 0.8305 0.7103
5547000000.0 1.063 -0.1647
5550000000.0 0.5638 -0.9381
5553000000.0 -0.3608 -1.001
5556000000.0 -0.9982 -0.3769
5559000000.0 -0.9108 0.5337
5562000000.0 -0.1833 1.049
5566000000.0 0.6709 0.7611
5569000000.0 1.056 -0.01857
5572000000.0 0.614 -0.8448
5575000000.0 -0.2408 -1.034
5578000000.0 -0.94 -0.4766
5581000000.0 -0.9085 0.4261
5584000000.0 -0.2677 0.9578
5588000000.0 0.5699 0.7978
5591000000.0 0.9581 0.07505
5594000000.0 0.6843 -0.6862
5597000000.0 -0.1013 -0.9381
5600000000.0 -0.7855 -0.49
5603000000.0 -0.8894 0.2812
5606000000.0 -0.3364 0.8695
5609000000.0 0.4302 0.8036
5612000000.0 0.8636 0.1548
5616000000.0 0.6746 -0.5773
5619000000.0 -0.03594 -0.8739
5622000000.0 -0.713 -0.5072
5625000000.0 -0.8183 0.2192
5628000000.0 -0.3421 0.7657
5631000000.0 0.3776 0.7616
5634000000.0 0.8119 0.1927
5638000000.0 0.6725 -0.5039
5641000000.0 -0.02021 -0.8094
5644000000.0 -0.6568 -0.5272
5647000000.0 -0.8311 0.1957
5650000000.0 -0.343 0.7983
5653000000.0 0.3805 0.7701
5656000000.0 0.8457 0.1852
5659000000.0 0.6994 -0.5347
5662000000.0 -0.002166 -0.8822
5666000000.0 -0.7122 -0.5546
5669000000.0 -0.8732 0.1957
5672000000.0 -0.3968 0.8072
5675000000.0 0.3683 0.8317
5678000000.0 0.8899 0.2101
5681000000.0 0.7558 -0.5733
5684000000.0 0.005418 -0.943
5688000000.0 -0.7169 -0.6093
5691000000.0 -0.9768 0.2028
5694000000.0 -0.4812 0.855
5697000000.0 0.3827 0.9412
5700000000.0 0.9478 0.2839
5703000000.0 0.8536 -0.5705
5706000000.0 0.1006 -1.064
5709000000.0 -0.7342 -0.7354
5712000000.0 -1.07 0.1067
5716000000.0 -0.5611 0.8843
5719000000.0 0.3579 1.002
5722000000.0 1.024 0.416
5725000000.0 0.9445 -0.5028
5728000000.0 0.2014 -1.057
5731000000.0 -0.6798 -0.8523
5734000000.0 -1.102 -0.01887
5738000000.0 -0.6898 0.8371
5741000000.0 0.2044 1.098
5744000000.0 0.9806 0.5744
5747000000.0 1.053 -0.3986
5750000000.0 0.3779 -1.08
5753000000.0 -0.5856 -0.9839
5756000000.0 -1.109 -0.1792
5759000000.0 -0.8343 0.7206
5762000000.0 0.002977 1.127
5766000000.0 0.8736 0.7001
5769000000.0 1.113 -0.2154
5772000000.0 0.5294 -0.9873
5775000000.0 -0.3833 -1.041
5778000000.0 -1.067 -0.3429
5781000000.0 -0.9142 0.602
5784000000.0 -0.1511 1.102
5788000000.0 0.7871 0.815
5791000000.0 1.098 -0.06749
5794000000.0 0.669 -0.8877
5797000000.0 -0.2666 -1.069
5800000000.0 -0.9688 -0.4585
5803000000.0 -0.9936 0.4088
5806000000.0 -0.2758 1.019
5809000000.0 0.6165 0.9026
5812000000.0 1.048 0.0662
5816000000.0 0.7336 -0.7582
5819000000.0 -0.08718 -1.04
5822000000.0 -0.8644 -0.5209
5825000000.0 -0.9684 0.3015
5828000000.0 -0.362 0.9243
5831000000.0 0.5172 0.8456
5834000000.0 0.9615 0.1471
5838000000.0 0.7414 -0.6383
5841000000.0 -0.05369 -0.9405
5844000000.0 -0.7658 -0.5777
5847000000.0 -0.9164 0.2522
5850000000.0 -0.4126 0.8628
5853000000.0 0.4389 0.8478
5856000000.0 0.9251 0.1867
5859000000.0 0.6995 -0.5852
5862000000.0 -0.03995 -0.9301
5866000000.0 -0.7151 -0.5795
5869000000.0 -0.8766 0.2227
5872000000.0 -0.3834 0.8084
5875000000.0 0.4282 0.7886
5878000000.0 0.8465 0.1727
5881000000.0 0.6912 -0.5415
5884000000.0 -0.004489 -0.8991
5888000000.0 -0.6799 -0.5505
5891000000.0 -0.8428 0.2024
5894000000.0 -0.3641 0.7522
5897000000.0 0.3535 0.7827
5900000000.0 0.8561 0.2261
5903000000.0 0.7151 -0.4968
5906000000.0 0.05587 -0.8602
5909000000.0 -0.6246 -0.6225
5912000000.0 -0.8745 0.08787
5916000000.0 -0.4868 0.7645
5919000000.0 0.2695 0.8307
5922000000.0 0.8645 0.2985
5925000000.0 0.7766 -0.4218
5928000000.0 0.1715 -0.8528
5931000000.0 -0.5756 -0.6846
5934000000.0 -0.8954 0.01883
5938000000.0 -0.5618 0.7245
5941000000.0 0.1781 0.874
5944000000.0 0.7888 0.4101
5947000000.0 0.8545 -0.3408
5950000000.0 0.2961 -0.8852
5953000000.0 -0.5177 -0.8059
5956000000.0 -0.9257 -0.1175
5959000000.0 -0.7326 0.6162
5962000000.0 0.02368 0.9712
5966000000.0 0.7767 0.602
5969000000.0 0.9177 -0.2023
5972000000.0 0.4436 -0.8573
5975000000.0 -0.3809 -0.9076
5978000000.0 -0.9335 -0.3019
5981000000.0 -0.8264 0.5686
5984000000.0 -0.117 0.9733
5988000000.0 0.7028 0.7312
5991000000.0 1.0 -0.0681
5994000000.0 0.5724 -0.8143
5997000000.0 -0.2804 -0.9947
6000000000.0 -0.9289 -0.4338
6003000000.0 -0.9096 0.4376
6006000000.0 -0.2457 0.9719
6009000000.0 0.5893 0.827
6012000000.0 1.003 0.04086
6016000000.0 0.6799 -0.7743
6019000000.0 -0.165 -1.009
6022000000.0 -0.8593 -0.4851
6025000000.0 -0.9299 0.3624
6028000000.0 -0.3075 0.8993
6031000000.0 0.5254 0.8424
6034000000.0 0.9659 0.1411
6038000000.0 0.7113 -0.6689
6041000000.0 -0.07153 -0.9415
6044000000.0 -0.7833 -0.5631
6047000000.0 -0.9226 0.2679
6050000000.0 -0.4017 0.8441
6053000000.0 0.4388 0.8525
6056000000.0 0.9019 0.1932
6059000000.0 0.7074 -0.6004
6062000000.0 -0.02695 -0.9191
6066000000.0 -0.7232 -0.5487
6069000000.0 -0.8568 0.1984
6072000000.0 -0.4085 0.8082
6075000000.0 0.3933 0.7949
6078000000.0 0.8641 0.2096
6081000000.0 0.7077 -0.5354
6084000000.0 0.003655 -0.8716
6088000000.0 -0.6633 -0.5702
6091000000.0 -0.8867 0.1508
6094000000.0 -0.4371 0.748
6097000000.0 0.3244 0.7819
6100000000.0 0.8069 0.2578
6103000000.0 0.7274 -0.5121
6106000000.0 0.09871 -0.8966
6109000000.0 -0.6547 -0.5864
6112000000.0 -0.8397 0.1113
6116000000.0 -0.4361 0.7373
6119000000.0 0.3075 0.8477
6122000000.0 0.8219 0.2836
6125000000.0 0.747 -0.4832
6128000000.0 0.1061 -0.8684
6131000000.0 -0.6248 -0.6648
6134000000.0 -0.8925 0.07369
6138000000.0 -0.5208 0.7142
6141000000.0 0.2474 0.8555
6144000000.0 0.8277 0.3211
6147000000.0 0.7846 -0.429
6150000000.0 0.1473 -0.921
6153000000.0 -0.5997 -0.6864
6156000000.0 -0.9389 0.04021
6159000000.0 -0.5686 0.7316
6162000000.0 0.2104 0.9052
6166000000.0 0.8533 0.4038
6169000000.0 0.8597 -0.3412
6172000000.0 0.3006 -0.9384
6175000000.0 -0.5217 -0.791
6178000000.0 -0.9542 -0.05346
6181000000.0 -0.6662 0.7244
6184000000.0 0.1123 0.946
6188000000.0 0.8023 0.4943
6191000000.0 0.8872 -0.2995
6194000000.0 0.3512 -0.8952
6197000000.0 -0.4812 -0.8097
6200000000.0 -0.924 -0.1663
6203000000.0 -0.6935 0.6512
6206000000.0 0.04695 0.9532
6209000000.0 0.7453 0.5681
6212000000.0 0.9087 -0.1756
6216000000.0 0.4641 -0.8658
6219000000.0 -0.3658 -0.8762
6222000000.0 -0.8725 -0.2628
6225000000.0 -0.7479 0.5089
6228000000.0 -0.08542 0.92
6231000000.0 0.6533 0.6885
6234000000.0 0.9017 -0.1031
6238000000.0 0.5095 -0.7711
6241000000.0 -0.249 -0.869
6244000000.0 -0.8075 -0.3502
6247000000.0 -0.7731 0.3462
6250000000.0 -0.2092 0.8246
6253000000.0 0.4969 0.655
6256000000.0 0.8027 0.04426
6259000000.0 0.5946 -0.5776
6262000000.0 -0.06292 -0.8107
6266000000.0 -0.6813 -0.4505
