! Created with skrf 1.8.0 (http://scikit-rf.org).
# Hz S RI R 50.0 
!freq ReS11 ImS11
4000000000.0 -0.1542 -1.524
4003000000.0 -1.258 -0.8297
4006000000.0 -1.443 0.461
4009000000.0 -0.5378 1.399
4012000000.0 0.7974 1.316
4016000000.0 1.534 0.218
4019000000.0 1.145 -1.063
4022000000.0 -0.1348 -1.591
4025000000.0 -1.335 -0.9062
4028000000.0 -1.541 0.4902
4031000000.0 -0.6202 1.516
4034000000.0 0.828 1.383
4038000000.0 1.586 0.2335
4041000000.0 1.174 -1.125
4044000000.0 -0.1414 -1.616
4047000000.0 -1.367 -0.9128
4050000000.0 -1.523 0.491
4053000000.0 -0.6334 1.493
4056000000.0 0.7537 1.467
4059000000.0 1.583 0.3078
4062000000.0 1.28 -1.008
4066000000.0 0.04533 -1.616
4069000000.0 -1.219 -1.027
4072000000.0 -1.626 0.2572
4075000000.0 -0.844 1.428
4078000000.0 0.5808 1.559
4081000000.0 1.558 0.5331
4084000000.0 1.385 -0.8646
4088000000.0 0.2396 -1.663
4091000000.0 -1.084 -1.202
4094000000.0 -1.667 0.07475
4097000000.0 -0.9557 1.343
4100000000.0 0.3999 1.574
4103000000.0 1.45 0.7235
4106000000.0 1.472 -0.6282
4109000000.0 0.4417 -1.482
4112000000.0 -0.8152 -1.283
4116000000.0 -1.531 -0.1915
4119000000.0 -1.139 1.032
4122000000.0 0.02601 1.494
4125000000.0 1.113 0.9833
4128000000.0 1.486 -0.2303
4131000000.0 0.8053 -1.281
4134000000.0 -0.4609 -1.44
4138000000.0 -1.348 -0.5916
4141000000.0 -1.322 0.6413
4144000000.0 -0.3902 1.48
4147000000.0 0.8917 1.262
4150000000.0 1.52 0.1544
4153000000.0 1.073 -1.053
4156000000.0 -0.1259 -1.5
4159000000.0 -1.25 -0.8921
4162000000.0 -1.471 0.3709
4166000000.0 -0.6643 1.346
4169000000.0 0.6236 1.396
4172000000.0 1.444 0.3825
4175000000.0 1.191 -0.8478
4178000000.0 0.168 -1.489
4181000000.0 -1.029 -1.092
4184000000.0 -1.485 0.0609
4188000000.0 -0.872 1.222
4191000000.0 0.3472 1.495
4194000000.0 1.396 0.6744
4197000000.0 1.432 -0.6498
4200000000.0 0.3908 -1.533
4203000000.0 -0.9403 -1.271
4206000000.0 -1.621 -0.007133
4209000000.0 -1.067 1.223
4212000000.0 0.3577 1.627
4216000000.0 1.507 0.7316
4219000000.0 1.492 -0.7616
4222000000.0 0.3207 -1.635
4225000000.0 -1.131 -1.305
4228000000.0 -1.695 0.1376
4231000000.0 -0.9341 1.403
4234000000.0 0.5524 1.575
4238000000.0 1.566 0.5104
4241000000.0 1.332 -0.9405
4244000000.0 0.08903 -1.627
4247000000.0 -1.218 -1.058
4250000000.0 -1.547 0.3411
4253000000.0 -0.6623 1.421
4256000000.0 0.6979 1.371
4259000000.0 1.496 0.2901
4262000000.0 1.147 -0.9758
4266000000.0 -0.06626 -1.528
4269000000.0 -1.254 -0.8498
4272000000.0 -1.409 0.4295
4275000000.0 -0.5112 1.353
4278000000.0 0.7572 1.218
4281000000.0 1.471 0.1865
4284000000.0 1.004 -0.9923
4288000000.0 -0.1534 -1.392
4291000000.0 -1.163 -0.7238
4294000000.0 -1.306 0.4058
4297000000.0 -0.4706 1.225
4300000000.0 0.6824 1.112
4303000000.0 1.308 0.207
4306000000.0 0.9952 -0.841
4309000000.0 -0.0193 -1.302
4312000000.0 -0.9757 -0.8517
4316000000.0 -1.285 0.2022
4319000000.0 -0.6793 1.097
4322000000.0 0.4202 1.263
4325000000.0 1.219 0.4975
4328000000.0 1.168 -0.6399
4331000000.0 0.2842 -1.313
4334000000.0 -0.8555 -1.059
4338000000.0 -1.379 -0.03327
4341000000.0 -0.9146 1.05
4344000000.0 0.1883 1.385
4347000000.0 1.225 0.7315
4350000000.0 1.373 -0.4771
4353000000.0 0.5474 -1.372
4356000000.0 -0.7459 -1.246
4359000000.0 -1.442 -0.2299
4362000000.0 -1.118 0.9174
4366000000.0 0.01098 1.471
4369000000.0 1.164 0.9069
4372000000.0 1.476 -0.3413
4375000000.0 0.715 -1.331
4378000000.0 -0.56 -1.417
4381000000.0 -1.44 -0.4466
4384000000.0 -1.317 0.8164
4388000000.0 -0.1468 1.517
4391000000.0 1.11 1.106
4394000000.0 1.592 -0.1585
4397000000.0 0.8406 -1.356
4400000000.0 -0.5169 -1.506
4403000000.0 -1.473 -0.5424
4406000000.0 -1.316 0.8429
4409000000.0 -0.1822 1.616
4412000000.0 1.131 1.099
4416000000.0 1.504 -0.2109
4419000000.0 0.7999 -1.323
4422000000.0 -0.5753 -1.398
4425000000.0 -1.43 -0.442
4428000000.0 -1.244 0.8616
4431000000.0 -0.07835 1.449
4434000000.0 1.087 0.9451
4438000000.0 1.387 -0.2925
4441000000.0 0.6346 -1.246
4444000000.0 -0.5819 -1.218
4447000000.0 -1.327 -0.3026
4450000000.0 -1.026 0.8765
4453000000.0 0.03168 1.33
4456000000.0 1.051 0.7944
4459000000.0 1.257 -0.3757
4462000000.0 0.4704 -1.2
4466000000.0 -0.6378 -1.078
4469000000.0 -1.209 -0.121
4472000000.0 -0.8234 0.8651
4475000000.0 0.1624 1.187
4478000000.0 1.021 0.6155
4481000000.0 1.091 -0.4309
4484000000.0 0.3379 -1.113
4488000000.0 -0.671 -0.9444
4491000000.0 -1.108 -0.07426
4494000000.0 -0.7327 0.8213
4497000000.0 0.1634 1.107
4500000000.0 1.001 0.5527
4503000000.0 1.03 -0.3963
4506000000.0 0.3127 -1.059
4509000000.0 -0.6088 -0.9067
4512000000.0 -1.129 -0.1054
4516000000.0 -0.7758 0.8389
4519000000.0 0.1627 1.118
4522000000.0 0.9738 0.6066
4525000000.0 1.076 -0.3742
4528000000.0 0.392 -1.068
4531000000.0 -0.5749 -1.015
4534000000.0 -1.136 -0.183
4538000000.0 -0.8829 0.7826
4541000000.0 0.05975 1.16
4544000000.0 0.9232 0.7282
4547000000.0 1.174 -0.2515
4550000000.0 0.5442 -1.078
4553000000.0 -0.5061 -1.128
4556000000.0 -1.157 -0.3601
4559000000.0 -1.06 0.6696
4562000000.0 -0.1771 1.21
4566000000.0 0.8611 0.9254
4569000000.0 1.277 -0.05908
4572000000.0 0.7815 -1.031
4575000000.0 -0.2986 -1.248
4578000000.0 -1.179 -0.592
4581000000.0 -1.22 0.5282
4584000000.0 -0.3757 1.299
4588000000.0 0.7452 1.137
4591000000.0 1.344 0.1374
4594000000.0 0.9741 -0.9667
4597000000.0 -0.1258 -1.368
4600000000.0 -1.135 -0.7778
4603000000.0 -1.331 0.3892
4606000000.0 -0.565 1.286
4609000000.0 0.6287 1.249
4612000000.0 1.365 0.2708
4616000000.0 1.077 -0.8831
4619000000.0 0.0009383 -1.375
4622000000.0 -1.094 -0.9
4625000000.0 -1.363 0.2751
4628000000.0 -0.6474 1.228
4631000000.0 0.5432 1.239
4634000000.0 1.304 0.3893
4638000000.0 1.104 -0.7955
4641000000.0 0.08835 -1.371
4644000000.0 -1.007 -0.9113
4647000000.0 -1.318 0.2022
4650000000.0 -0.6369 1.181
4653000000.0 0.5102 1.224
4656000000.0 1.277 0.351
4659000000.0 1.034 -0.7349
4662000000.0 0.06542 -1.275
4666000000.0 -0.9449 -0.8071
4669000000.0 -1.166 0.1928
4672000000.0 -0.5682 1.053
4675000000.0 0.4891 1.116
4678000000.0 1.103 0.3102
4681000000.0 0.9723 -0.6564
4684000000.0 0.03972 -1.132
4688000000.0 -0.821 -0.7298
4691000000.0 -1.113 0.2047
4694000000.0 -0.5274 0.9957
4697000000.0 0.4436 1.013
4700000000.0 1.061 0.263
4703000000.0 0.8678 -0.6174
4706000000.0 0.003749 -1.1
4709000000.0 -0.8531 -0.6955
4712000000.0 -1.058 0.2351
4716000000.0 -0.4778 0.9907
4719000000.0 0.4274 0.949
4722000000.0 1.023 0.2388
4725000000.0 0.8383 -0.6727
4728000000.0 0.03181 -1.07
4731000000.0 -0.8065 -0.6616
4734000000.0 -1.011 0.1764
4738000000.0 -0.4904 0.9031
4741000000.0 0.3659 0.9918
4744000000.0 1.002 0.3411
4747000000.0 0.9079 -0.5408
4750000000.0 0.1465 -1.025
4753000000.0 -0.7383 -0.7732
4756000000.0 -1.059 0.0778
4759000000.0 -0.6788 0.898
4762000000.0 0.2615 1.094
4766000000.0 0.9953 0.5026
4769000000.0 1.027 -0.4541
4772000000.0 0.3287 -1.098
4775000000.0 -0.6392 -0.9718
4778000000.0 -1.179 -0.1045
4781000000.0 -0.8518 0.8235
4784000000.0 0.06111 1.202
4788000000.0 0.9424 0.7084
4791000000.0 1.171 -0.2895
4794000000.0 0.5738 -1.089
4797000000.0 -0.467 -1.146
4800000000.0 -1.199 -0.3639
4803000000.0 -1.041 0.675
4806000000.0 -0.1688 1.261
4809000000.0 0.8262 0.958
4812000000.0 1.295 -0.05301
4816000000.0 0.8243 -1.035
4819000000.0 -0.2845 -1.308
4822000000.0 -1.184 -0.5972
4825000000.0 -1.265 0.5228
4828000000.0 -0.3821 1.308
4831000000.0 0.7734 1.142
4834000000.0 1.392 0.1284
4838000000.0 0.9892 -0.9963
4841000000.0 -0.1407 -1.389
4844000000.0 -1.17 -0.7698
4847000000.0 -1.316 0.3932
4850000000.0 -0.5148 1.3
4853000000.0 0.6852 1.202
4856000000.0 1.348 0.2439
4859000000.0 1.034 -0.882
4862000000.0 -0.01878 -1.36
4866000000.0 -1.062 -0.8294
4869000000.0 -1.34 0.3189
4872000000.0 -0.5858 1.175
4875000000.0 0.5345 1.193
4878000000.0 1.238 0.3156
4881000000.0 1.044 -0.7642
4884000000.0 0.03983 -1.252
4888000000.0 -0.9647 -0.7777
4891000000.0 -1.188 0.2141
4894000000.0 -0.5409 1.055
4897000000.0 0.4655 1.072
4900000000.0 1.084 0.3172
4903000000.0 0.9317 -0.648
4906000000.0 0.07907 -1.096
4909000000.0 -0.7614 -0.7116
4912000000.0 -1.037 0.1446
4916000000.0 -0.5122 0.8775
4919000000.0 0.3416 0.9373
4922000000.0 0.9578 0.3527
4925000000.0 0.8547 -0.5
4928000000.0 0.1284 -0.9714
4931000000.0 -0.6422 -0.7169
4934000000.0 -0.9667 0.04542
4938000000.0 -0.574 0.7761
4941000000.0 0.2493 0.9239
4944000000.0 0.8539 0.406
4947000000.0 0.8565 -0.4247
4950000000.0 0.2558 -0.9112
4953000000.0 -0.5799 -0.7657
4956000000.0 -0.9771 -0.04103
4959000000.0 -0.6523 0.7335
4962000000.0 0.1482 0.9693
4966000000.0 0.8368 0.4666
4969000000.0 0.9271 -0.3699
4972000000.0 0.3101 -0.9392
4975000000.0 -0.5366 -0.8429
4978000000.0 -1.009 -0.1156
4981000000.0 -0.7427 0.7354
4984000000.0 0.07276 1.041
4988000000.0 0.8587 0.6005
4991000000.0 1.03 -0.2538
4994000000.0 0.4528 -0.9992
4997000000.0 -0.4661 -0.9877
5000000000.0 -1.087 -0.2653
5003000000.0 -0.9231 0.6527
5006000000.0 -0.09825 1.148
5009000000.0 0.8859 0.7811
5012000000.0 1.186 -0.1592
5016000000.0 0.6521 -1.046
5019000000.0 -0.3846 -1.16
5022000000.0 -1.167 -0.448
5025000000.0 -1.099 0.6169
5028000000.0 -0.24 1.277
5031000000.0 0.8354 0.9698
5034000000.0 1.268 -0.01964
5038000000.0 0.8338 -0.9941
5041000000.0 -0.279 -1.268
5044000000.0 -1.154 -0.5782
5047000000.0 -1.236 0.469
5050000000.0 -0.3976 1.231
5053000000.0 0.6747 1.122
5056000000.0 1.303 0.2394
5059000000.0 0.9701 -0.8686
5062000000.0 -0.01589 -1.319
5066000000.0 -1.038 -0.8016
5069000000.0 -1.267 0.2823
5072000000.0 -0.5902 1.156
5075000000.0 0.5026 1.206
5078000000.0 1.158 0.3748
5081000000.0 1.047 -0.6782
5084000000.0 0.1259 -1.196
5088000000.0 -0.8697 -0.8517
5091000000.0 -1.204 0.09477
5094000000.0 -0.681 0.9355
5097000000.0 0.3063 1.112
5100000000.0 1.032 0.5224
5103000000.0 1.042 -0.4526
5106000000.0 0.2982 -1.08
5109000000.0 -0.6017 -0.899
5112000000.0 -1.083 -0.1428
5116000000.0 -0.776 0.7633
5119000000.0 0.08409 1.067
5122000000.0 0.8517 0.6146
5125000000.0 0.9779 -0.2777
5128000000.0 0.4311 -0.9319
5131000000.0 -0.381 -0.8653
5134000000.0 -0.9294 -0.2382
5138000000.0 -0.8189 0.5947
5141000000.0 -0.04118 0.9484
5144000000.0 0.6942 0.6605
5147000000.0 0.9301 -0.1266
5150000000.0 0.4753 -0.8121
5153000000.0 -0.3143 -0.8738
5156000000.0 -0.8782 -0.3187
5159000000.0 -0.7705 0.4893
5162000000.0 -0.1568 0.8569
5166000000.0 0.6239 0.6877
5169000000.0 0.8971 -0.05991
5172000000.0 0.5364 -0.7406
5175000000.0 -0.2462 -0.8507
5178000000.0 -0.8312 -0.3687
5181000000.0 -0.7908 0.4268
5184000000.0 -0.1846 0.8849
5188000000.0 0.6024 0.7074
5191000000.0 0.9181 -0.05039
5194000000.0 0.5741 -0.7536
5197000000.0 -0.2402 -0.8818
5200000000.0 -0.8513 -0.3891
5203000000.0 -0.8243 0.4355
5206000000.0 -0.2124 0.9388
5209000000.0 0.626 0.7499
5212000000.0 0.921 -0.01182
5216000000.0 0.63 -0.7777
5219000000.0 -0.2229 -0.9688
5222000000.0 -0.8917 -0.451
5225000000.0 -0.8953 0.4211
5228000000.0 -0.2366 0.9713
5231000000.0 0.5921 0.8245
5234000000.0 1.0 0.0494
5238000000.0 0.7007 -0.7439
5241000000.0 -0.1206 -1.036
5244000000.0 -0.8961 -0.5686
5247000000.0 -1.011 0.36
5250000000.0 -0.3912 0.991
5253000000.0 0.5091 0.9236
5256000000.0 1.074 0.1952
5259000000.0 0.8347 -0.6871
5262000000.0 -0.0006246 -1.085
5266000000.0 -0.8093 -0.7421
5269000000.0 -1.055 0.1706
5272000000.0 -0.5541 0.91
5275000000.0 0.3567 1.043
5278000000.0 1.03 0.3912
5281000000.0 0.976 -0.5403
5284000000.0 0.2282 -1.074
5288000000.0 -0.6893 -0.8531
5291000000.0 -1.101 -0.008641
5294000000.0 -0.7416 0.8031
5297000000.0 0.1255 1.125
5300000000.0 0.9419 0.6072
5303000000.0 1.079 -0.3397
5306000000.0 0.4643 -1.034
5309000000.0 -0.5427 -1.007
5312000000.0 -1.115 -0.2346
5316000000.0 -0.9479 0.7052
5319000000.0 -0.09792 1.142
5322000000.0 0.8008 0.8028
5325000000.0 1.179 -0.1248
5328000000.0 0.6384 -0.941
5331000000.0 -0.3316 -1.116
5334000000.0 -1.025 -0.4055
5338000000.0 -1.004 0.5232
5341000000.0 -0.2374 1.106
5344000000.0 0.7239 0.9004
5347000000.0 1.115 0.05197
5350000000.0 0.7409 -0.8343
5353000000.0 -0.1454 -1.07
5356000000.0 -0.9351 -0.5431
5359000000.0 -1.008 0.375
5362000000.0 -0.3387 0.9919
5366000000.0 0.6037 0.8732
5369000000.0 1.044 0.09343
5372000000.0 0.7186 -0.7649
5375000000.0 -0.1296 -1.005
5378000000.0 -0.8922 -0.5628
5381000000.0 -0.9703 0.3338
5384000000.0 -0.3178 0.9759
5388000000.0 0.541 0.8532
5391000000.0 0.9961 0.09224
5394000000.0 0.681 -0.7048
5397000000.0 -0.09627 -0.935
5400000000.0 -0.8155 -0.4611
5403000000.0 -0.8204 0.3172
5406000000.0 -0.2774 0.8442
5409000000.0 0.4925 0.7446
5412000000.0 0.858 0.05867
5416000000.0 0.6041 -0.6472
5419000000.0 -0.128 -0.848
5422000000.0 -0.7526 -0.4382
5425000000.0 -0.8311 0.3032
5428000000.0 -0.2431 0.8292
5431000000.0 0.4772 0.7158
5434000000.0 0.8681 0.06018
5438000000.0 0.5846 -0.6612
5441000000.0 -0.1361 -0.884
5444000000.0 -0.7544 -0.4257
5447000000.0 -0.8121 0.3051
5450000000.0 -0.2516 0.8548
5453000000.0 0.4994 0.7591
5456000000.0 0.8925 0.1064
5459000000.0 0.6385 -0.63
5462000000.0 -0.07784 -0.8647
5466000000.0 -0.7652 -0.5014
5469000000.0 -0.882 0.2395
5472000000.0 -0.3566 0.839
5475000000.0 0.4208 0.8357
5478000000.0 0.9143 0.178
5481000000.0 0.7848 -0.5573
5484000000.0 0.06757 -0.9314
5488000000.0 -0.7185 -0.6375
5491000000.0 -0.9623 0.1419
5494000000.0 -0.5123 0.8206
5497000000.0 0.2901 0.955
5500000000.0 0.9285 0.3859
5503000000.0 0.8962 -0.4548
5506000000.0 0.2094 -1.03
5509000000.0 -0.6426 -0.8228
5512000000.0 -1.02 -0.04699
5516000000.0 -0.6887 0.769
5519000000.0 0.1106 1.01
5522000000.0 0.865 0.5631
5525000000.0 0.9869 -0.2979
5528000000.0 0.3977 -0.9424
5531000000.0 -0.4798 -0.9532
5534000000.0 -1.027 -0.2656
5538000000.0 -0.8772 0.6203
5541000000.0 -0.06606 1.079
5544000000.0 0.756 0.7674
5547000000.0 1.063 -0.1347
5550000000.0 0.5959 -0.8874
5553000000.0 -0.2867 -1.052
5556000000.0 -0.9715 -0.3651
5559000000.0 -0.9406 0.4846
5562000000.0 -0.2337 1.018
5566000000.0 0.6557 0.8432
5569000000.0 1.027 0.03522
5572000000.0 0.6881 -0.7631
5575000000.0 -0.171 -0.9637
5578000000.0 -0.8787 -0.513
5581000000.0 -0.908 0.3412
5584000000.0 -0.3244 0.9217
5588000000.0 0.4923 0.8568
5591000000.0 0.9524 0.1459
5594000000.0 0.7076 -0.6513
5597000000.0 -0.04027 -0.9295
5600000000.0 -0.7313 -0.546
5603000000.0 -0.8802 0.199
5606000000.0 -0.3955 0.8254
5609000000.0 0.3771 0.8038
5612000000.0 0.8654 0.2423
5616000000.0 0.6988 -0.5294
5619000000.0 0.02797 -0.8405
5622000000.0 -0.6112 -0.5587
5625000000.0 -0.857 0.132
5628000000.0 -0.4146 0.7532
5631000000.0 0.3128 0.7909
5634000000.0 0.8061 0.2384
5638000000.0 0.7134 -0.4789
5641000000.0 0.05347 -0.8301
5644000000.0 -0.6137 -0.587
5647000000.0 -0.8402 0.1336
5650000000.0 -0.4207 0.729
5653000000.0 0.2802 0.8039
5656000000.0 0.8346 0.2593
5659000000.0 0.6844 -0.4868
5662000000.0 0.05623 -0.8526
5666000000.0 -0.6411 -0.6045
5669000000.0 -0.8841 0.1323
5672000000.0 -0.4501 0.7876
5675000000.0 0.3204 0.8328
5678000000.0 0.8777 0.2813
5681000000.0 0.7658 -0.4901
5684000000.0 0.1004 -0.9177
5688000000.0 -0.6952 -0.6361
5691000000.0 -0.9547 0.1123
5694000000.0 -0.5279 0.8259
5697000000.0 0.3184 0.9371
5700000000.0 0.9076 0.3427
5703000000.0 0.8569 -0.5078
5706000000.0 0.1454 -1.025
5709000000.0 -0.6597 -0.7722
5712000000.0 -1.027 0.03397
5716000000.0 -0.6146 0.844
5719000000.0 0.233 0.9929
5722000000.0 0.9582 0.4692
5725000000.0 0.9877 -0.4278
5728000000.0 0.2906 -1.051
5731000000.0 -0.6304 -0.8725
5734000000.0 -1.071 -0.1052
5738000000.0 -0.7955 0.7485
5741000000.0 0.116 1.085
5744000000.0 0.9211 0.5667
5747000000.0 1.051 -0.2972
5750000000.0 0.4236 -1.002
5753000000.0 -0.501 -0.9795
5756000000.0 -1.089 -0.2048
5759000000.0 -0.8919 0.662
5762000000.0 -0.0787 1.121
5766000000.0 0.8284 0.7445
5769000000.0 1.108 -0.1257
5772000000.0 0.5803 -0.919
5775000000.0 -0.3549 -1.027
5778000000.0 -1.002 -0.4065
5781000000.0 -0.9669 0.5206
5784000000.0 -0.2257 1.037
5788000000.0 0.6611 0.8518
5791000000.0 1.1 0.01397
5794000000.0 0.7084 -0.8156
5797000000.0 -0.1616 -1.063
5800000000.0 -0.9355 -0.5398
5803000000.0 -1.023 0.3821
5806000000.0 -0.3918 0.9879
5809000000.0 0.5354 0.8876
5812000000.0 1.029 0.1598
5816000000.0 0.8182 -0.686
5819000000.0 -0.05477 -1.031
5822000000.0 -0.8199 -0.62
5825000000.0 -0.9578 0.2456
5828000000.0 -0.4119 0.8941
5831000000.0 0.4128 0.927
5834000000.0 0.9456 0.2387
5838000000.0 0.7691 -0.5794
5841000000.0 0.06061 -0.9998
5844000000.0 -0.7247 -0.6569
5847000000.0 -0.9466 0.1333
5850000000.0 -0.4479 0.8673
5853000000.0 0.338 0.8883
5856000000.0 0.8788 0.2643
5859000000.0 0.7578 -0.5432
5862000000.0 0.09734 -0.8777
5866000000.0 -0.6987 -0.5969
5869000000.0 -0.8905 0.1371
5872000000.0 -0.469 0.7677
5875000000.0 0.2801 0.8475
5878000000.0 0.8351 0.2872
5881000000.0 0.753 -0.4963
5884000000.0 0.09522 -0.8481
5888000000.0 -0.5827 -0.6031
5891000000.0 -0.8282 0.1236
5894000000.0 -0.4654 0.7448
5897000000.0 0.2747 0.797
5900000000.0 0.822 0.2854
5903000000.0 0.7471 -0.4239
5906000000.0 0.1443 -0.832
5909000000.0 -0.5654 -0.6361
5912000000.0 -0.8753 0.03761
5916000000.0 -0.5025 0.6847
5919000000.0 0.2308 0.8708
5922000000.0 0.8046 0.3456
5925000000.0 0.7947 -0.3477
5928000000.0 0.2147 -0.8534
5931000000.0 -0.5 -0.7124
5934000000.0 -0.8892 -0.06315
5938000000.0 -0.6362 0.6115
5941000000.0 0.08092 0.8854
5944000000.0 0.7326 0.4933
5947000000.0 0.8822 -0.2658
5950000000.0 0.3666 -0.8491
5953000000.0 -0.4157 -0.8115
5956000000.0 -0.8981 -0.2122
5959000000.0 -0.7303 0.5449
5962000000.0 -0.01791 0.9507
5966000000.0 0.6735 0.6455
5969000000.0 0.9557 -0.09511
5972000000.0 0.5192 -0.8082
5975000000.0 -0.2679 -0.9005
5978000000.0 -0.8961 -0.3903
5981000000.0 -0.8923 0.4723
5984000000.0 -0.1933 0.9341
5988000000.0 0.5955 0.7736
5991000000.0 1.0 0.03995
5994000000.0 0.6687 -0.7512
5997000000.0 -0.1347 -0.9911
6000000000.0 -0.9015 -0.4732
6003000000.0 -0.9129 0.3467
6006000000.0 -0.3018 0.93
6009000000.0 0.5247 0.8556
6012000000.0 0.9764 0.1314
6016000000.0 0.7398 -0.67
6019000000.0 -0.04703 -0.9987
6022000000.0 -0.7921 -0.6006
6025000000.0 -0.9628 0.2462
6028000000.0 -0.4172 0.8855
6031000000.0 0.4027 0.8869
6034000000.0 0.9708 0.232
6038000000.0 0.7738 -0.544
6041000000.0 0.02916 -0.9578
6044000000.0 -0.7228 -0.6412
6047000000.0 -0.9364 0.1459
6050000000.0 -0.4556 0.8261
6053000000.0 0.3509 0.8713
6056000000.0 0.8692 0.2819
6059000000.0 0.7614 -0.5063
6062000000.0 0.08721 -0.8995
6066000000.0 -0.6733 -0.6158
6069000000.0 -0.9105 0.08681
6072000000.0 -0.4885 0.7723
6075000000.0 0.3085 0.8324
6078000000.0 0.8031 0.306
6081000000.0 0.7367 -0.4495
6084000000.0 0.1177 -0.8611
6088000000.0 -0.5899 -0.6427
6091000000.0 -0.8872 0.06597
6094000000.0 -0.4817 0.7233
6097000000.0 0.2584 0.8416
6100000000.0 0.7742 0.3575
6103000000.0 0.7887 -0.3667
6106000000.0 0.1595 -0.8697
6109000000.0 -0.5363 -0.6533
6112000000.0 -0.8562 0.03356
6116000000.0 -0.5404 0.6785
6119000000.0 0.1758 0.8457
6122000000.0 0.7647 0.3926
6125000000.0 0.8025 -0.3729
6128000000.0 0.219 -0.8291
6131000000.0 -0.4896 -0.6948
6134000000.0 -0.8545 -0.03179
6138000000.0 -0.5923 0.6598
6141000000.0 0.1388 0.82
6144000000.0 0.766 0.4165
6147000000.0 0.8269 -0.3292
6150000000.0 0.2594 -0.8609
6153000000.0 -0.465 -0.7753
6156000000.0 -0.9173 -0.07961
6159000000.0 -0.63 0.6314
6162000000.0 0.116 0.9449
6166000000.0 0.7738 0.5183
6169000000.0 0.9002 -0.2681
6172000000.0 0.375 -0.8169
6175000000.0 -0.4328 -0.7996
6178000000.0 -0.9091 -0.1822
6181000000.0 -0.6965 0.6048
6184000000.0 0.02041 0.9319
6188000000.0 0.7294 0.6035
6191000000.0 0.9208 -0.1963
6194000000.0 0.4368 -0.8284
6197000000.0 -0.3692 -0.8344
6200000000.0 -0.9168 -0.2696
6203000000.0 -0.7745 0.5374
6206000000.0 -0.09866 0.9049
6209000000.0 0.6602 0.6462
6212000000.0 0.9539 -0.08571
6216000000.0 0.5095 -0.7532
6219000000.0 -0.2623 -0.8833
6222000000.0 -0.85 -0.3706
6225000000.0 -0.8139 0.4129
6228000000.0 -0.2142 0.9274
6231000000.0 0.5248 0.72
6234000000.0 0.8671 0.02085
6238000000.0 0.5907 -0.6694
6241000000.0 -0.115 -0.8516
6244000000.0 -0.7669 -0.4429
6247000000.0 -0.8192 0.2913
6250000000.0 -0.2999 0.8128
6253000000.0 0.4133 0.736
6256000000.0 0.8239 0.1517
6259000000.0 0.6425 -0.5369
6262000000.0 0.02574 -0.7992
6266000000.0 -0.6306 -0.5328
6269000000.0 -0.7802 0.1383
