! Created with skrf 1.8.0 (http://scikit-rf.org).
# Hz S RI R 50.0 
!freq ReS11 ImS11
4000000000.0 -0.1315 -1.5
4003000000.0 -1.273 -0.7517
4006000000.0 -1.418 0.4944
4009000000.0 -0.5085 1.393
4012000000.0 0.8003 1.291
4016000000.0 1.501 0.2192
4019000000.0 1.158 -1.071
4022000000.0 -0.1037 -1.538
4025000000.0 -1.309 -0.8571
4028000000.0 -1.47 0.4634
4031000000.0 -0.6045 1.519
4034000000.0 0.8015 1.405
4038000000.0 1.566 0.2336
4041000000.0 1.171 -1.09
4044000000.0 -0.08821 -1.625
4047000000.0 -1.313 -0.92
4050000000.0 -1.513 0.4648
4053000000.0 -0.6534 1.473
4056000000.0 0.6946 1.446
4059000000.0 1.56 0.2953
4062000000.0 1.24 -0.9577
4066000000.0 -0.01242 -1.58
4069000000.0 -1.209 -1.038
4072000000.0 -1.583 0.2657
4075000000.0 -0.7805 1.395
4078000000.0 0.5426 1.563
4081000000.0 1.527 0.5793
4084000000.0 1.393 -0.8496
4088000000.0 0.2421 -1.632
4091000000.0 -1.144 -1.205
4094000000.0 -1.638 0.07451
4097000000.0 -0.9653 1.328
4100000000.0 0.3758 1.575
4103000000.0 1.428 0.7283
4106000000.0 1.416 -0.6658
4109000000.0 0.4663 -1.49
4112000000.0 -0.8464 -1.285
4116000000.0 -1.5 -0.1793
4119000000.0 -1.139 0.9895
4122000000.0 0.01841 1.513
4125000000.0 1.102 0.9438
4128000000.0 1.459 -0.2518
4131000000.0 0.7856 -1.263
4134000000.0 -0.4531 -1.398
4138000000.0 -1.34 -0.5689
4141000000.0 -1.376 0.6587
4144000000.0 -0.3949 1.45
4147000000.0 0.8583 1.222
4150000000.0 1.493 0.1377
4153000000.0 1.062 -1.07
4156000000.0 -0.1245 -1.534
4159000000.0 -1.237 -0.8828
4162000000.0 -1.489 0.3588
4166000000.0 -0.6161 1.359
4169000000.0 0.6115 1.35
4172000000.0 1.466 0.4114
4175000000.0 1.219 -0.8281
4178000000.0 0.1739 -1.508
4181000000.0 -1.054 -1.045
4184000000.0 -1.512 0.1117
4188000000.0 -0.8787 1.199
4191000000.0 0.4038 1.471
4194000000.0 1.379 0.667
4197000000.0 1.399 -0.6644
4200000000.0 0.3688 -1.524
4203000000.0 -0.9616 -1.278
4206000000.0 -1.581 -0.04749
4209000000.0 -1.044 1.239
4212000000.0 0.3199 1.61
4216000000.0 1.5 0.7163
4219000000.0 1.517 -0.7591
4222000000.0 0.2795 -1.657
4225000000.0 -1.115 -1.284
4228000000.0 -1.657 0.1382
4231000000.0 -0.9072 1.398
4234000000.0 0.558 1.543
4238000000.0 1.595 0.5094
4241000000.0 1.359 -0.9293
4244000000.0 0.05796 -1.622
4247000000.0 -1.21 -1.008
4250000000.0 -1.534 0.3485
4253000000.0 -0.6668 1.402
4256000000.0 0.688 1.383
4259000000.0 1.492 0.2895
4262000000.0 1.13 -1.011
4266000000.0 -0.09474 -1.52
4269000000.0 -1.25 -0.849
4272000000.0 -1.427 0.4492
4275000000.0 -0.5262 1.4
4278000000.0 0.7768 1.241
4281000000.0 1.441 0.1796
4284000000.0 1.021 -1.006
4288000000.0 -0.1518 -1.392
4291000000.0 -1.163 -0.7272
4294000000.0 -1.272 0.3991
4297000000.0 -0.4434 1.271
4300000000.0 0.6628 1.136
4303000000.0 1.268 0.233
4306000000.0 0.9921 -0.8223
4309000000.0 0.009016 -1.261
4312000000.0 -0.9553 -0.8393
4316000000.0 -1.26 0.2426
4319000000.0 -0.6743 1.112
4322000000.0 0.4047 1.196
4325000000.0 1.212 0.4754
4328000000.0 1.164 -0.6053
4331000000.0 0.2966 -1.317
4334000000.0 -0.8317 -1.041
4338000000.0 -1.367 -0.01292
4341000000.0 -0.911 1.034
4344000000.0 0.2239 1.42
4347000000.0 1.232 0.706
4350000000.0 1.314 -0.48
4353000000.0 0.4665 -1.35
4356000000.0 -0.7397 -1.267
4359000000.0 -1.423 -0.2197
4362000000.0 -1.09 0.9501
4366000000.0 0.01631 1.446
4369000000.0 1.126 0.9105
4372000000.0 1.418 -0.3224
4375000000.0 0.6803 -1.313
4378000000.0 -0.5839 -1.387
4381000000.0 -1.455 -0.4206
4384000000.0 -1.26 0.8558
4388000000.0 -0.1559 1.548
4391000000.0 1.076 1.097
4394000000.0 1.569 -0.1765
4397000000.0 0.856 -1.311
4400000000.0 -0.4723 -1.503
4403000000.0 -1.479 -0.506
4406000000.0 -1.34 0.8242
4409000000.0 -0.1536 1.558
4412000000.0 1.139 1.088
4416000000.0 1.521 -0.2279
4419000000.0 0.8109 -1.297
4422000000.0 -0.5231 -1.387
4425000000.0 -1.438 -0.4094
4428000000.0 -1.196 0.8755
4431000000.0 -0.08272 1.408
4434000000.0 1.111 0.9121
4438000000.0 1.404 -0.2582
4441000000.0 0.651 -1.222
4444000000.0 -0.5839 -1.267
4447000000.0 -1.329 -0.2783
4450000000.0 -1.048 0.835
4453000000.0 0.07163 1.338
4456000000.0 1.07 0.7714
4459000000.0 1.221 -0.3491
4462000000.0 0.4476 -1.204
4466000000.0 -0.646 -1.072
4469000000.0 -1.222 -0.1327
4472000000.0 -0.8398 0.8464
4475000000.0 0.1583 1.169
4478000000.0 1.059 0.5834
4481000000.0 1.088 -0.42
4484000000.0 0.3312 -1.088
4488000000.0 -0.6429 -0.9333
4491000000.0 -1.135 -0.08424
4494000000.0 -0.7397 0.8531
4497000000.0 0.1645 1.095
4500000000.0 0.9975 0.5484
4503000000.0 1.005 -0.4037
4506000000.0 0.3214 -1.041
4509000000.0 -0.6044 -0.9039
4512000000.0 -1.095 -0.0664
4516000000.0 -0.7787 0.7965
4519000000.0 0.1446 1.107
4522000000.0 0.9448 0.5899
4525000000.0 1.074 -0.361
4528000000.0 0.4125 -1.107
4531000000.0 -0.5815 -0.9969
4534000000.0 -1.166 -0.2069
4538000000.0 -0.8665 0.7765
4541000000.0 0.04312 1.161
4544000000.0 0.917 0.7108
4547000000.0 1.183 -0.241
4550000000.0 0.5749 -1.068
4553000000.0 -0.4532 -1.106
4556000000.0 -1.133 -0.3438
4559000000.0 -1.033 0.6614
4562000000.0 -0.1644 1.232
4566000000.0 0.8664 0.9051
4569000000.0 1.251 -0.07067
4572000000.0 0.7523 -0.9997
4575000000.0 -0.3113 -1.259
4578000000.0 -1.166 -0.5946
4581000000.0 -1.205 0.5098
4584000000.0 -0.39 1.256
4588000000.0 0.7566 1.139
4591000000.0 1.346 0.1252
4594000000.0 0.9765 -0.9484
4597000000.0 -0.1311 -1.362
4600000000.0 -1.136 -0.763
4603000000.0 -1.34 0.3951
4606000000.0 -0.5744 1.264
4609000000.0 0.6459 1.255
4612000000.0 1.354 0.2632
4616000000.0 1.079 -0.879
4619000000.0 -0.003618 -1.367
4622000000.0 -1.052 -0.8932
4625000000.0 -1.37 0.2533
4628000000.0 -0.651 1.211
4631000000.0 0.5659 1.256
4634000000.0 1.295 0.3793
4638000000.0 1.103 -0.8004
4641000000.0 0.07995 -1.341
4644000000.0 -0.9674 -0.9075
4647000000.0 -1.321 0.2109
4650000000.0 -0.5996 1.163
4653000000.0 0.5085 1.183
4656000000.0 1.237 0.362
4659000000.0 1.014 -0.7185
4662000000.0 0.05979 -1.261
4666000000.0 -0.9607 -0.814
4669000000.0 -1.199 0.2057
4672000000.0 -0.5952 1.059
4675000000.0 0.4737 1.068
4678000000.0 1.128 0.3422
4681000000.0 0.9143 -0.645
4684000000.0 0.03664 -1.116
4688000000.0 -0.8447 -0.7347
4691000000.0 -1.055 0.214
4694000000.0 -0.5403 1.0
4697000000.0 0.4308 1.009
4700000000.0 1.059 0.2749
4703000000.0 0.873 -0.6494
4706000000.0 0.0179 -1.045
4709000000.0 -0.8255 -0.6623
4712000000.0 -1.054 0.228
4716000000.0 -0.4696 0.9478
4719000000.0 0.4647 0.9825
4722000000.0 1.044 0.2779
4725000000.0 0.8151 -0.6205
4728000000.0 0.0006301 -1.049
4731000000.0 -0.7927 -0.6476
4734000000.0 -1.037 0.1726
4738000000.0 -0.489 0.8496
4741000000.0 0.4085 0.9723
4744000000.0 0.9633 0.3474
4747000000.0 0.8927 -0.5521
4750000000.0 0.1409 -1.034
4753000000.0 -0.7171 -0.7994
4756000000.0 -1.07 0.04156
4759000000.0 -0.6603 0.8724
4762000000.0 0.2627 1.089
4766000000.0 1.028 0.4861
4769000000.0 1.041 -0.4372
4772000000.0 0.3455 -1.084
4775000000.0 -0.6606 -0.9406
4778000000.0 -1.163 -0.09812
4781000000.0 -0.8324 0.827
4784000000.0 0.06898 1.19
4788000000.0 0.9629 0.6906
4791000000.0 1.182 -0.2618
4794000000.0 0.5695 -1.061
4797000000.0 -0.4916 -1.14
4800000000.0 -1.207 -0.3958
4803000000.0 -1.015 0.633
4806000000.0 -0.1617 1.215
4809000000.0 0.8456 0.9375
4812000000.0 1.264 -0.05782
4816000000.0 0.7987 -1.041
4819000000.0 -0.2934 -1.299
4822000000.0 -1.174 -0.6156
4825000000.0 -1.258 0.5275
4828000000.0 -0.3866 1.326
4831000000.0 0.7773 1.12
4834000000.0 1.353 0.1366
4838000000.0 0.944 -0.9649
4841000000.0 -0.1654 -1.378
4844000000.0 -1.165 -0.79
4847000000.0 -1.317 0.4297
4850000000.0 -0.5183 1.267
4853000000.0 0.6774 1.201
4856000000.0 1.353 0.2485
4859000000.0 1.041 -0.8713
4862000000.0 -0.05431 -1.349
4866000000.0 -1.084 -0.8199
4869000000.0 -1.285 0.3015
4872000000.0 -0.5486 1.187
4875000000.0 0.5495 1.174
4878000000.0 1.262 0.2986
4881000000.0 1.055 -0.7652
4884000000.0 0.03794 -1.249
4888000000.0 -0.9305 -0.8281
4891000000.0 -1.184 0.2255
4894000000.0 -0.5852 1.045
4897000000.0 0.4558 1.088
4900000000.0 1.096 0.2946
4903000000.0 0.8918 -0.6223
4906000000.0 0.06096 -1.096
4909000000.0 -0.8019 -0.7335
4912000000.0 -1.033 0.1511
4916000000.0 -0.5238 0.8823
4919000000.0 0.3066 0.9513
4922000000.0 0.9375 0.2969
4925000000.0 0.8321 -0.4856
4928000000.0 0.1424 -0.927
4931000000.0 -0.6485 -0.7147
4934000000.0 -0.9479 0.06081
4938000000.0 -0.597 0.7536
4941000000.0 0.2292 0.9171
4944000000.0 0.8184 0.3983
4947000000.0 0.833 -0.4308
4950000000.0 0.2205 -0.9315
4953000000.0 -0.5753 -0.7479
4956000000.0 -0.9528 -0.05095
4959000000.0 -0.6454 0.7406
4962000000.0 0.1711 0.9685
4966000000.0 0.8422 0.4919
4969000000.0 0.9073 -0.3737
4972000000.0 0.3175 -0.9536
4975000000.0 -0.5555 -0.8463
4978000000.0 -1.006 -0.1214
4981000000.0 -0.7316 0.7278
4984000000.0 0.07777 0.9935
4988000000.0 0.8571 0.6294
4991000000.0 1.026 -0.281
4994000000.0 0.4548 -0.9795
4997000000.0 -0.4766 -0.9965
5000000000.0 -1.07 -0.2786
5003000000.0 -0.9188 0.6616
5006000000.0 -0.07446 1.138
5009000000.0 0.8707 0.806
5012000000.0 1.164 -0.1497
5016000000.0 0.6394 -1.012
5019000000.0 -0.3867 -1.17
5022000000.0 -1.154 -0.4502
5025000000.0 -1.107 0.5977
5028000000.0 -0.236 1.245
5031000000.0 0.8063 0.9618
5034000000.0 1.253 -0.00757
5038000000.0 0.8043 -0.9936
5041000000.0 -0.2586 -1.237
5044000000.0 -1.119 -0.5982
5047000000.0 -1.17 0.4709
5050000000.0 -0.4154 1.199
5053000000.0 0.692 1.108
5056000000.0 1.288 0.1861
5059000000.0 0.972 -0.8523
5062000000.0 -0.04448 -1.246
5066000000.0 -1.01 -0.8001
5069000000.0 -1.241 0.2392
5072000000.0 -0.6193 1.138
5075000000.0 0.4961 1.187
5078000000.0 1.229 0.3925
5081000000.0 0.9955 -0.7392
5084000000.0 0.09432 -1.219
5088000000.0 -0.8602 -0.8721
5091000000.0 -1.215 0.1232
5094000000.0 -0.7181 0.9476
5097000000.0 0.2814 1.097
5100000000.0 1.038 0.5182
5103000000.0 1.036 -0.43
5106000000.0 0.3236 -1.076
5109000000.0 -0.6469 -0.9
5112000000.0 -1.096 -0.1407
5116000000.0 -0.7955 0.7319
5119000000.0 0.0585 1.044
5122000000.0 0.8454 0.6227
5125000000.0 0.9862 -0.2739
5128000000.0 0.4525 -0.9165
5131000000.0 -0.4366 -0.9079
5134000000.0 -0.963 -0.247
5138000000.0 -0.8209 0.5881
5141000000.0 -0.07896 0.9755
5144000000.0 0.7249 0.6276
5147000000.0 0.9361 -0.1274
5150000000.0 0.4851 -0.8101
5153000000.0 -0.3264 -0.8695
5156000000.0 -0.8603 -0.2904
5159000000.0 -0.7762 0.4809
5162000000.0 -0.1252 0.8704
5166000000.0 0.6089 0.662
5169000000.0 0.9006 -0.04996
5172000000.0 0.5289 -0.7385
5175000000.0 -0.234 -0.862
5178000000.0 -0.813 -0.3399
5181000000.0 -0.8143 0.4285
5184000000.0 -0.1633 0.8937
5188000000.0 0.5958 0.6859
5191000000.0 0.9058 -0.02766
5194000000.0 0.5642 -0.7371
5197000000.0 -0.2713 -0.8757
5200000000.0 -0.8466 -0.3433
5203000000.0 -0.8287 0.4446
5206000000.0 -0.1954 0.9296
5209000000.0 0.633 0.7286
5212000000.0 0.9613 -0.006494
5216000000.0 0.601 -0.7456
5219000000.0 -0.2188 -0.951
5222000000.0 -0.8821 -0.4619
5225000000.0 -0.9018 0.4244
5228000000.0 -0.2588 0.9624
5231000000.0 0.5912 0.8273
5234000000.0 1.035 0.05503
5238000000.0 0.6891 -0.7778
5241000000.0 -0.1591 -1.054
5244000000.0 -0.8849 -0.5377
5247000000.0 -0.9997 0.3351
5250000000.0 -0.4194 0.9852
5253000000.0 0.509 0.9498
5256000000.0 1.035 0.2063
5259000000.0 0.8196 -0.6946
5262000000.0 0.01407 -1.079
5266000000.0 -0.8642 -0.7017
5269000000.0 -1.076 0.1823
5272000000.0 -0.5419 0.952
5275000000.0 0.3931 1.04
5278000000.0 1.005 0.3775
5281000000.0 0.952 -0.5072
5284000000.0 0.2189 -1.102
5288000000.0 -0.6706 -0.8628
5291000000.0 -1.102 -0.06511
5294000000.0 -0.7519 0.8336
5297000000.0 0.1429 1.102
5300000000.0 0.9438 0.6218
5303000000.0 1.084 -0.3008
5306000000.0 0.4221 -1.023
5309000000.0 -0.4819 -1.001
5312000000.0 -1.086 -0.2878
5316000000.0 -0.9357 0.6631
5319000000.0 -0.08985 1.152
5322000000.0 0.822 0.8151
5325000000.0 1.138 -0.1072
5328000000.0 0.6254 -0.9993
5331000000.0 -0.3374 -1.098
5334000000.0 -1.062 -0.4741
5338000000.0 -1.005 0.5024
5341000000.0 -0.2652 1.097
5344000000.0 0.7081 0.9124
5347000000.0 1.108 0.01031
5350000000.0 0.7013 -0.8407
5353000000.0 -0.1657 -1.09
5356000000.0 -0.9501 -0.5752
5359000000.0 -1.046 0.3712
5362000000.0 -0.3432 1.015
5366000000.0 0.5669 0.886
5369000000.0 1.043 0.1071
5372000000.0 0.7231 -0.7362
5375000000.0 -0.1334 -1.027
5378000000.0 -0.8659 -0.523
5381000000.0 -0.9313 0.3473
5384000000.0 -0.3156 0.9445
5388000000.0 0.5293 0.8041
5391000000.0 0.9584 0.08414
5394000000.0 0.655 -0.7042
5397000000.0 -0.1273 -0.9582
5400000000.0 -0.7765 -0.4727
5403000000.0 -0.8523 0.3288
5406000000.0 -0.2431 0.8294
5409000000.0 0.4639 0.7362
5412000000.0 0.8985 0.04003
5416000000.0 0.567 -0.6217
5419000000.0 -0.1039 -0.8457
5422000000.0 -0.7654 -0.4594
5425000000.0 -0.8251 0.3253
5428000000.0 -0.2733 0.8248
5431000000.0 0.4777 0.7027
5434000000.0 0.8427 0.0595
5438000000.0 0.5831 -0.6442
5441000000.0 -0.12 -0.8467
5444000000.0 -0.7604 -0.4441
5447000000.0 -0.8017 0.3481
5450000000.0 -0.2634 0.8579
5453000000.0 0.4838 0.7228
5456000000.0 0.868 0.07793
5459000000.0 0.6419 -0.6502
5462000000.0 -0.06569 -0.9035
5466000000.0 -0.73 -0.4777
5469000000.0 -0.8796 0.2356
5472000000.0 -0.3818 0.8141
5475000000.0 0.3834 0.8174
5478000000.0 0.9384 0.2183
5481000000.0 0.7302 -0.5494
5484000000.0 0.03472 -0.9418
5488000000.0 -0.709 -0.6708
5491000000.0 -0.9732 0.1416
5494000000.0 -0.5405 0.8447
5497000000.0 0.2789 0.943
5500000000.0 0.9372 0.3809
5503000000.0 0.8991 -0.445
5506000000.0 0.2061 -0.9792
5509000000.0 -0.6392 -0.8298
5512000000.0 -1.066 -0.04989
5516000000.0 -0.6873 0.7356
5519000000.0 0.1097 0.9922
5522000000.0 0.863 0.5534
5525000000.0 1.001 -0.3171
5528000000.0 0.4395 -0.9844
5531000000.0 -0.4772 -0.9544
5534000000.0 -1.031 -0.2428
5538000000.0 -0.8789 0.6264
5541000000.0 -0.0587 1.052
5544000000.0 0.7744 0.6975
5547000000.0 1.051 -0.1116
5550000000.0 0.5858 -0.9025
5553000000.0 -0.3017 -1.032
5556000000.0 -0.9744 -0.4114
5559000000.0 -0.9252 0.4928
5562000000.0 -0.219 1.009
5566000000.0 0.6551 0.8284
5569000000.0 1.027 0.004809
5572000000.0 0.6548 -0.7666
5575000000.0 -0.1477 -1.005
5578000000.0 -0.8894 -0.507
5581000000.0 -0.9368 0.3463
5584000000.0 -0.3528 0.919
5588000000.0 0.5173 0.82
5591000000.0 0.944 0.1819
5594000000.0 0.7046 -0.6302
5597000000.0 -0.0527 -0.9274
5600000000.0 -0.7476 -0.555
5603000000.0 -0.8859 0.2096
5606000000.0 -0.3897 0.8072
5609000000.0 0.3658 0.8101
5612000000.0 0.8671 0.2111
5616000000.0 0.6766 -0.5092
5619000000.0 0.03181 -0.8605
5622000000.0 -0.6589 -0.5582
5625000000.0 -0.8457 0.1477
5628000000.0 -0.3925 0.7259
5631000000.0 0.3046 0.7584
5634000000.0 0.7905 0.2525
5638000000.0 0.6859 -0.4801
5641000000.0 0.05326 -0.8353
5644000000.0 -0.6063 -0.568
5647000000.0 -0.8355 0.1198
5650000000.0 -0.3966 0.738
5653000000.0 0.3028 0.7693
5656000000.0 0.8066 0.2366
5659000000.0 0.6938 -0.5021
5662000000.0 0.07292 -0.8691
5666000000.0 -0.6229 -0.5914
5669000000.0 -0.8522 0.135
5672000000.0 -0.4492 0.7801
5675000000.0 0.3412 0.8321
5678000000.0 0.845 0.2551
5681000000.0 0.7779 -0.4985
5684000000.0 0.09001 -0.9269
5688000000.0 -0.668 -0.6468
5691000000.0 -0.9538 0.1352
5694000000.0 -0.5026 0.8138
5697000000.0 0.3232 0.9257
5700000000.0 0.9264 0.3404
5703000000.0 0.8616 -0.5048
5706000000.0 0.1542 -0.9813
5709000000.0 -0.6763 -0.7721
5712000000.0 -0.9885 0.0537
5716000000.0 -0.6311 0.8493
5719000000.0 0.2557 1.006
5722000000.0 0.8955 0.469
5725000000.0 0.9324 -0.4546
5728000000.0 0.3014 -1.029
5731000000.0 -0.6351 -0.8654
5734000000.0 -1.07 -0.07252
5738000000.0 -0.7495 0.7598
5741000000.0 0.08063 1.064
5744000000.0 0.9031 0.5887
5747000000.0 1.009 -0.3029
5750000000.0 0.4553 -1.01
5753000000.0 -0.5233 -0.95
5756000000.0 -1.091 -0.2491
5759000000.0 -0.8798 0.671
5762000000.0 -0.06068 1.111
5766000000.0 0.8218 0.7538
5769000000.0 1.09 -0.1444
5772000000.0 0.5553 -0.9238
5775000000.0 -0.3381 -1.052
5778000000.0 -1.02 -0.4068
5781000000.0 -0.9479 0.5174
5784000000.0 -0.2047 1.086
5788000000.0 0.6805 0.874
5791000000.0 1.078 0.007715
5794000000.0 0.7238 -0.8367
5797000000.0 -0.1821 -1.027
5800000000.0 -0.9108 -0.5162
5803000000.0 -0.9887 0.3759
5806000000.0 -0.3211 0.9918
5809000000.0 0.5539 0.9219
5812000000.0 1.001 0.1702
5816000000.0 0.7812 -0.6721
5819000000.0 -0.05585 -1.055
5822000000.0 -0.7714 -0.6229
5825000000.0 -0.9887 0.2319
5828000000.0 -0.4186 0.9032
5831000000.0 0.4347 0.8897
5834000000.0 0.9652 0.2585
5838000000.0 0.7497 -0.5881
5841000000.0 0.02266 -0.9815
5844000000.0 -0.7347 -0.5873
5847000000.0 -0.9517 0.1737
5850000000.0 -0.4187 0.8313
5853000000.0 0.3608 0.8544
5856000000.0 0.8791 0.2765
5859000000.0 0.7801 -0.5213
5862000000.0 0.06418 -0.897
5866000000.0 -0.6727 -0.6337
5869000000.0 -0.9025 0.12
5872000000.0 -0.4373 0.7601
5875000000.0 0.3088 0.7981
5878000000.0 0.8375 0.284
5881000000.0 0.7601 -0.4686
5884000000.0 0.07463 -0.8568
5888000000.0 -0.6002 -0.6178
5891000000.0 -0.8166 0.1229
5894000000.0 -0.4576 0.7139
5897000000.0 0.2698 0.8242
5900000000.0 0.8007 0.3074
5903000000.0 0.7532 -0.4456
5906000000.0 0.1476 -0.8141
5909000000.0 -0.5312 -0.6542
5912000000.0 -0.8857 0.01798
5916000000.0 -0.5516 0.6708
5919000000.0 0.1945 0.8207
5922000000.0 0.7924 0.3539
5925000000.0 0.8029 -0.34
5928000000.0 0.1895 -0.8621
5931000000.0 -0.4992 -0.7222
5934000000.0 -0.8939 -0.04671
5938000000.0 -0.6156 0.6364
5941000000.0 0.1229 0.867
5944000000.0 0.7544 0.5021
5947000000.0 0.8507 -0.2536
5950000000.0 0.3302 -0.8072
5953000000.0 -0.4344 -0.8056
5956000000.0 -0.8855 -0.179
5959000000.0 -0.7193 0.5492
5962000000.0 -0.05503 0.9325
5966000000.0 0.6848 0.6415
5969000000.0 0.9618 -0.1272
5972000000.0 0.5037 -0.787
5975000000.0 -0.3125 -0.9065
5978000000.0 -0.9029 -0.3962
5981000000.0 -0.8664 0.4437
5984000000.0 -0.2008 0.9662
5988000000.0 0.6243 0.7746
5991000000.0 0.9915 0.02678
5994000000.0 0.6537 -0.754
5997000000.0 -0.1801 -0.9697
6000000000.0 -0.8817 -0.5132
6003000000.0 -0.9054 0.3336
6006000000.0 -0.3298 0.9317
6009000000.0 0.5032 0.846
6012000000.0 0.972 0.1657
6016000000.0 0.7192 -0.6646
6019000000.0 -0.03715 -0.9922
6022000000.0 -0.7766 -0.5897
6025000000.0 -0.9196 0.2554
6028000000.0 -0.4087 0.9248
6031000000.0 0.4121 0.9059
6034000000.0 0.9426 0.2399
6038000000.0 0.7758 -0.5818
6041000000.0 0.04772 -0.9601
6044000000.0 -0.6976 -0.6518
6047000000.0 -0.9291 0.1742
6050000000.0 -0.457 0.8252
6053000000.0 0.3479 0.8782
6056000000.0 0.892 0.28
6059000000.0 0.7745 -0.4938
6062000000.0 0.078 -0.9088
6066000000.0 -0.657 -0.641
6069000000.0 -0.9105 0.112
6072000000.0 -0.4602 0.7691
6075000000.0 0.2798 0.8219
6078000000.0 0.8073 0.2954
6081000000.0 0.7573 -0.4294
6084000000.0 0.125 -0.855
6088000000.0 -0.5882 -0.6447
6091000000.0 -0.8507 0.06352
6094000000.0 -0.5269 0.7104
6097000000.0 0.2309 0.8177
6100000000.0 0.8171 0.351
6103000000.0 0.7551 -0.3736
6106000000.0 0.1565 -0.8141
6109000000.0 -0.5645 -0.6823
6112000000.0 -0.8471 0.04062
6116000000.0 -0.4955 0.6745
6119000000.0 0.207 0.8062
6122000000.0 0.802 0.377
6125000000.0 0.7902 -0.3735
6128000000.0 0.2049 -0.8644
6131000000.0 -0.5465 -0.6829
6134000000.0 -0.866 -0.02643
6138000000.0 -0.5673 0.7047
6141000000.0 0.1425 0.8533
6144000000.0 0.7614 0.4324
6147000000.0 0.8077 -0.3403
6150000000.0 0.2753 -0.8536
6153000000.0 -0.4739 -0.7464
6156000000.0 -0.8895 -0.07313
6159000000.0 -0.6748 0.6411
6162000000.0 0.09001 0.9464
6166000000.0 0.7691 0.5132
6169000000.0 0.8972 -0.2849
6172000000.0 0.3154 -0.8427
6175000000.0 -0.4219 -0.8024
6178000000.0 -0.9142 -0.166
6181000000.0 -0.7408 0.6367
6184000000.0 0.02042 0.9481
6188000000.0 0.7299 0.6003
6191000000.0 0.9113 -0.2137
6194000000.0 0.4102 -0.8696
6197000000.0 -0.3855 -0.8799
6200000000.0 -0.8795 -0.2813
6203000000.0 -0.7717 0.507
6206000000.0 -0.07578 0.9044
6209000000.0 0.6537 0.643
6212000000.0 0.913 -0.09135
6216000000.0 0.5077 -0.7625
6219000000.0 -0.2948 -0.8817
6222000000.0 -0.8288 -0.3404
6225000000.0 -0.8042 0.4272
6228000000.0 -0.2003 0.8724
6231000000.0 0.569 0.7027
6234000000.0 0.9216 0.03482
6238000000.0 0.5607 -0.6503
6241000000.0 -0.1401 -0.8655
6244000000.0 -0.7254 -0.4457
6247000000.0 -0.7984 0.29
6250000000.0 -0.304 0.7844
6253000000.0 0.4065 0.7266
6256000000.0 0.7979 0.1601
6259000000.0 0.6465 -0.5283
6262000000.0 0.02065 -0.8049
6266000000.0 -0.6028 -0.4922
6269000000.0 -0.8097 0.1065
