! Created with skrf 1.8.0 (http://scikit-rf.org).
# Hz S RI R 50.0 
!freq ReS11 ImS11
4000000000.0 -0.2533 -1.482
4003000000.0 -1.302 -0.7306
4006000000.0 -1.405 0.5535
4009000000.0 -0.4299 1.433
4012000000.0 0.8619 1.294
4016000000.0 1.565 0.1422
4019000000.0 1.073 -1.088
4022000000.0 -0.2309 -1.554
4025000000.0 -1.364 -0.8113
4028000000.0 -1.474 0.5686
4031000000.0 -0.5029 1.549
4034000000.0 0.8831 1.368
4038000000.0 1.619 0.1369
4041000000.0 1.12 -1.198
4044000000.0 -0.1877 -1.564
4047000000.0 -1.363 -0.8364
4050000000.0 -1.524 0.5343
4053000000.0 -0.5348 1.555
4056000000.0 0.8302 1.391
4059000000.0 1.593 0.2536
4062000000.0 1.178 -1.061
4066000000.0 -0.03428 -1.648
4069000000.0 -1.28 -0.9668
4072000000.0 -1.596 0.381
4075000000.0 -0.7656 1.45
4078000000.0 0.6376 1.524
4081000000.0 1.605 0.4531
4084000000.0 1.399 -0.9147
4088000000.0 0.1736 -1.645
4091000000.0 -1.139 -1.152
4094000000.0 -1.622 0.1558
4097000000.0 -0.8917 1.368
4100000000.0 0.4742 1.521
4103000000.0 1.481 0.6363
4106000000.0 1.388 -0.7241
4109000000.0 0.3971 -1.497
4112000000.0 -0.9362 -1.232
4116000000.0 -1.506 -0.1143
4119000000.0 -1.066 1.082
4122000000.0 0.0942 1.5
4125000000.0 1.177 0.8645
4128000000.0 1.444 -0.2948
4131000000.0 0.707 -1.299
4134000000.0 -0.5267 -1.362
4138000000.0 -1.412 -0.5381
4141000000.0 -1.265 0.7375
4144000000.0 -0.286 1.443
4147000000.0 0.9424 1.175
4150000000.0 1.506 0.04729
4153000000.0 1.027 -1.155
4156000000.0 -0.2289 -1.523
4159000000.0 -1.279 -0.8214
4162000000.0 -1.42 0.4678
4166000000.0 -0.54 1.41
4169000000.0 0.6939 1.3
4172000000.0 1.44 0.2953
4175000000.0 1.175 -0.9302
4178000000.0 0.05092 -1.461
4181000000.0 -1.14 -0.9909
4184000000.0 -1.5 0.2045
4188000000.0 -0.787 1.301
4191000000.0 0.4759 1.454
4194000000.0 1.443 0.5239
4197000000.0 1.33 -0.7981
4200000000.0 0.2549 -1.57
4203000000.0 -1.075 -1.212
4206000000.0 -1.638 0.1111
4209000000.0 -0.9002 1.369
4212000000.0 0.5396 1.565
4216000000.0 1.623 0.5619
4219000000.0 1.452 -0.9127
4222000000.0 0.132 -1.675
4225000000.0 -1.303 -1.111
4228000000.0 -1.636 0.3515
4231000000.0 -0.7079 1.497
4234000000.0 0.7522 1.487
4238000000.0 1.594 0.2916
4241000000.0 1.235 -1.116
4244000000.0 -0.1684 -1.595
4247000000.0 -1.338 -0.8649
4250000000.0 -1.484 0.5136
4253000000.0 -0.4751 1.462
4256000000.0 0.8445 1.252
4259000000.0 1.503 0.07192
4262000000.0 0.9805 -1.098
4266000000.0 -0.255 -1.447
4269000000.0 -1.292 -0.6675
4272000000.0 -1.311 0.6104
4275000000.0 -0.3569 1.391
4278000000.0 0.8643 1.122
4281000000.0 1.416 -0.005614
4284000000.0 0.8635 -1.077
4288000000.0 -0.3131 -1.341
4291000000.0 -1.216 -0.6026
4294000000.0 -1.207 0.5747
4297000000.0 -0.3664 1.299
4300000000.0 0.7982 1.09
4303000000.0 1.321 0.09784
4306000000.0 0.8838 -0.9234
4309000000.0 -0.1429 -1.272
4312000000.0 -1.098 -0.7229
4316000000.0 -1.259 0.3513
4319000000.0 -0.5481 1.208
4322000000.0 0.5556 1.174
4325000000.0 1.315 0.3443
4328000000.0 1.112 -0.7441
4331000000.0 0.1263 -1.359
4334000000.0 -0.9512 -0.9867
4338000000.0 -1.362 0.1472
4341000000.0 -0.8302 1.187
4344000000.0 0.4023 1.349
4347000000.0 1.318 0.5656
4350000000.0 1.291 -0.6568
4353000000.0 0.3322 -1.41
4356000000.0 -0.8872 -1.161
4359000000.0 -1.464 -0.03989
4362000000.0 -0.9993 1.09
4366000000.0 0.1956 1.471
4369000000.0 1.281 0.7843
4372000000.0 1.423 -0.4925
4375000000.0 0.5302 -1.408
4378000000.0 -0.7762 -1.301
4381000000.0 -1.49 -0.2365
4384000000.0 -1.16 0.9967
4388000000.0 0.08612 1.562
4391000000.0 1.252 0.9342
4394000000.0 1.53 -0.4214
4397000000.0 0.6243 -1.455
4400000000.0 -0.744 -1.403
4403000000.0 -1.547 -0.2598
4406000000.0 -1.17 1.052
4409000000.0 0.1117 1.576
4412000000.0 1.277 0.8652
4416000000.0 1.44 -0.4753
4419000000.0 0.4849 -1.413
4422000000.0 -0.8093 -1.274
4425000000.0 -1.485 -0.1573
4428000000.0 -0.9883 1.045
4431000000.0 0.2564 1.415
4434000000.0 1.213 0.6944
4438000000.0 1.303 -0.5344
4441000000.0 0.3237 -1.304
4444000000.0 -0.8242 -1.06
4447000000.0 -1.337 -0.01297
4450000000.0 -0.8102 1.032
4453000000.0 0.3193 1.253
4456000000.0 1.173 0.5214
4459000000.0 1.092 -0.5934
4462000000.0 0.2025 -1.229
4466000000.0 -0.8326 -0.9108
4469000000.0 -1.18 0.07975
4472000000.0 -0.6247 1.007
4475000000.0 0.3989 1.095
4478000000.0 1.075 0.3976
4481000000.0 0.9805 -0.622
4484000000.0 0.1148 -1.15
4488000000.0 -0.8182 -0.7734
4491000000.0 -1.12 0.1472
4494000000.0 -0.5832 0.9835
4497000000.0 0.3914 1.071
4500000000.0 1.063 0.3252
4503000000.0 0.9316 -0.5946
4506000000.0 0.113 -1.092
4509000000.0 -0.7804 -0.7847
4512000000.0 -1.132 0.1108
4516000000.0 -0.6389 0.9452
4519000000.0 0.3293 1.103
4522000000.0 1.093 0.4406
4525000000.0 1.048 -0.5448
4528000000.0 0.2324 -1.177
4531000000.0 -0.7567 -0.9021
4534000000.0 -1.212 -0.0053
4538000000.0 -0.766 0.9665
4541000000.0 0.2382 1.196
4544000000.0 1.067 0.5936
4547000000.0 1.171 -0.4349
4550000000.0 0.3912 -1.175
4553000000.0 -0.6444 -1.057
4556000000.0 -1.223 -0.1855
4559000000.0 -0.9556 0.8338
4562000000.0 0.0431 1.271
4566000000.0 0.9991 0.7963
4569000000.0 1.265 -0.2798
4572000000.0 0.6307 -1.125
4575000000.0 -0.4751 -1.23
4578000000.0 -1.264 -0.4054
4581000000.0 -1.125 0.7035
4584000000.0 -0.1698 1.356
4588000000.0 0.9293 1.023
4591000000.0 1.346 -0.09789
4594000000.0 0.8449 -1.117
4597000000.0 -0.3201 -1.332
4600000000.0 -1.278 -0.589
4603000000.0 -1.263 0.6157
4606000000.0 -0.3426 1.377
4609000000.0 0.8368 1.126
4612000000.0 1.413 0.06166
4616000000.0 0.9315 -1.076
4619000000.0 -0.2326 -1.364
4622000000.0 -1.168 -0.6589
4625000000.0 -1.274 0.509
4628000000.0 -0.3824 1.321
4631000000.0 0.7705 1.127
4634000000.0 1.377 0.09054
4638000000.0 0.9542 -0.9553
4641000000.0 -0.1559 -1.333
4644000000.0 -1.133 -0.696
4647000000.0 -1.261 0.4748
4650000000.0 -0.4174 1.249
4653000000.0 0.711 1.088
4656000000.0 1.257 0.08557
4659000000.0 0.872 -0.9255
4662000000.0 -0.1788 -1.221
4666000000.0 -1.053 -0.5809
4669000000.0 -1.114 0.4324
4672000000.0 -0.3661 1.126
4675000000.0 0.6729 0.9118
4678000000.0 1.109 0.0832
4681000000.0 0.7383 -0.8383
4684000000.0 -0.1665 -1.12
4688000000.0 -0.9734 -0.5122
4691000000.0 -1.016 0.435
4694000000.0 -0.3575 1.046
4697000000.0 0.6322 0.8927
4700000000.0 1.09 0.05048
4703000000.0 0.73 -0.7689
4706000000.0 -0.1637 -1.092
4709000000.0 -0.9547 -0.4871
4712000000.0 -0.9915 0.4111
4716000000.0 -0.2949 1.071
4719000000.0 0.6197 0.8522
4722000000.0 1.071 0.06443
4725000000.0 0.7262 -0.779
4728000000.0 -0.1545 -1.062
4731000000.0 -0.9127 -0.5588
4734000000.0 -1.018 0.3388
4738000000.0 -0.3774 1.0
4741000000.0 0.5543 0.9267
4744000000.0 1.029 0.1589
4747000000.0 0.8196 -0.6904
4750000000.0 -0.02036 -1.105
4753000000.0 -0.8642 -0.6901
4756000000.0 -1.082 0.2011
4759000000.0 -0.5516 1.002
4762000000.0 0.4087 1.064
4766000000.0 1.083 0.3653
4769000000.0 1.001 -0.63
4772000000.0 0.1384 -1.191
4775000000.0 -0.7883 -0.9001
4778000000.0 -1.191 0.04537
4781000000.0 -0.7563 0.9374
4784000000.0 0.217 1.202
4788000000.0 1.1 0.604
4791000000.0 1.163 -0.4603
4794000000.0 0.4206 -1.19
4797000000.0 -0.6657 -1.118
4800000000.0 -1.272 -0.2192
4803000000.0 -0.9497 0.8261
4806000000.0 0.01542 1.288
4809000000.0 0.9957 0.8302
4812000000.0 1.307 -0.2394
4816000000.0 0.666 -1.19
4819000000.0 -0.4876 -1.262
4822000000.0 -1.309 -0.4559
4825000000.0 -1.156 0.7331
4828000000.0 -0.2265 1.376
4831000000.0 0.9572 1.019
4834000000.0 1.416 -0.08785
4838000000.0 0.821 -1.153
4841000000.0 -0.3665 -1.337
4844000000.0 -1.288 -0.5539
4847000000.0 -1.263 0.6228
4850000000.0 -0.2986 1.354
4853000000.0 0.8412 1.024
4856000000.0 1.349 0.01785
4859000000.0 0.8587 -1.026
4862000000.0 -0.2511 -1.311
4866000000.0 -1.154 -0.6379
4869000000.0 -1.213 0.4982
4872000000.0 -0.3669 1.254
4875000000.0 0.7321 1.048
4878000000.0 1.254 0.1069
4881000000.0 0.8454 -0.9081
4884000000.0 -0.165 -1.199
4888000000.0 -1.047 -0.6107
4891000000.0 -1.078 0.4074
4894000000.0 -0.3595 1.104
4897000000.0 0.6053 0.9792
4900000000.0 1.099 0.09423
4903000000.0 0.7914 -0.7474
4906000000.0 -0.09245 -1.059
4909000000.0 -0.8739 -0.5647
4912000000.0 -0.9883 0.3147
4916000000.0 -0.3563 0.9261
4919000000.0 0.4952 0.8104
4922000000.0 0.9539 0.182
4925000000.0 0.7079 -0.6239
4928000000.0 -0.03539 -0.9291
4931000000.0 -0.7456 -0.562
4934000000.0 -0.8831 0.1799
4938000000.0 -0.4032 0.8455
4941000000.0 0.3889 0.8575
4944000000.0 0.9154 0.2382
4947000000.0 0.7559 -0.5574
4950000000.0 0.07978 -0.9562
4953000000.0 -0.7004 -0.6835
4956000000.0 -0.9833 0.1035
4959000000.0 -0.5031 0.8253
4962000000.0 0.3183 0.9134
4966000000.0 0.9334 0.3372
4969000000.0 0.8609 -0.4981
4972000000.0 0.1727 -1.014
4975000000.0 -0.6864 -0.7813
4978000000.0 -1.048 0.06792
4981000000.0 -0.6494 0.8609
4984000000.0 0.2488 1.06
4988000000.0 0.9844 0.4902
4991000000.0 0.9984 -0.4371
4994000000.0 0.2988 -1.064
4997000000.0 -0.6434 -0.9201
5000000000.0 -1.153 -0.1379
5003000000.0 -0.8471 0.8426
5006000000.0 0.1038 1.192
5009000000.0 1.019 0.696
5012000000.0 1.165 -0.35
5016000000.0 0.4856 -1.156
5019000000.0 -0.5968 -1.118
5022000000.0 -1.258 -0.2743
5025000000.0 -1.008 0.7971
5028000000.0 -0.004213 1.288
5031000000.0 0.9877 0.8042
5034000000.0 1.278 -0.2318
5038000000.0 0.6632 -1.166
5041000000.0 -0.4459 -1.219
5044000000.0 -1.248 -0.4553
5047000000.0 -1.132 0.6602
5050000000.0 -0.2179 1.293
5053000000.0 0.8565 1.016
5056000000.0 1.308 -0.02153
5059000000.0 0.8191 -0.9759
5062000000.0 -0.272 -1.261
5066000000.0 -1.122 -0.6412
5069000000.0 -1.208 0.4625
5072000000.0 -0.4074 1.221
5075000000.0 0.668 1.045
5078000000.0 1.2 0.1544
5081000000.0 0.8792 -0.8557
5084000000.0 -0.1044 -1.249
5088000000.0 -0.9593 -0.7141
5091000000.0 -1.13 0.2714
5094000000.0 -0.4973 1.031
5097000000.0 0.4343 1.078
5100000000.0 1.062 0.3154
5103000000.0 0.921 -0.6242
5106000000.0 0.1162 -1.081
5109000000.0 -0.7456 -0.7705
5112000000.0 -1.062 0.05766
5116000000.0 -0.6089 0.8573
5119000000.0 0.2405 1.003
5122000000.0 0.9327 0.4305
5125000000.0 0.8857 -0.432
5128000000.0 0.2527 -0.9386
5131000000.0 -0.5582 -0.8167
5134000000.0 -0.9725 -0.04828
5138000000.0 -0.6173 0.7206
5141000000.0 0.1597 0.9674
5144000000.0 0.8233 0.4535
5147000000.0 0.8524 -0.2923
5150000000.0 0.2768 -0.873
5153000000.0 -0.477 -0.7626
5156000000.0 -0.8518 -0.1193
5159000000.0 -0.6408 0.6203
5162000000.0 0.1015 0.8668
5166000000.0 0.737 0.4958
5169000000.0 0.8468 -0.2844
5172000000.0 0.3406 -0.8045
5175000000.0 -0.438 -0.7745
5178000000.0 -0.8964 -0.1557
5181000000.0 -0.6741 0.6326
5184000000.0 0.0694 0.9211
5188000000.0 0.7578 0.5519
5191000000.0 0.9128 -0.2878
5194000000.0 0.3551 -0.8487
5197000000.0 -0.4257 -0.8358
5200000000.0 -0.9404 -0.1676
5203000000.0 -0.731 0.6434
5206000000.0 0.05404 0.9812
5209000000.0 0.8039 0.5806
5212000000.0 0.9535 -0.2388
5216000000.0 0.3985 -0.9165
5219000000.0 -0.4401 -0.8795
5222000000.0 -0.9611 -0.2215
5225000000.0 -0.7986 0.6302
5228000000.0 -0.03332 1.014
5231000000.0 0.7699 0.6759
5234000000.0 1.046 -0.1692
5238000000.0 0.5225 -0.9189
5241000000.0 -0.3515 -0.9751
5244000000.0 -1.014 -0.3565
5247000000.0 -0.9051 0.537
5250000000.0 -0.1935 1.078
5253000000.0 0.7141 0.8219
5256000000.0 1.076 -0.03617
5259000000.0 0.697 -0.839
5262000000.0 -0.208 -1.061
5266000000.0 -0.9792 -0.5273
5269000000.0 -1.015 0.4122
5272000000.0 -0.3425 1.049
5275000000.0 0.5493 0.9445
5278000000.0 1.078 0.1685
5281000000.0 0.8188 -0.7367
5284000000.0 0.007047 -1.11
5288000000.0 -0.8232 -0.7004
5291000000.0 -1.105 0.1805
5294000000.0 -0.5708 0.9698
5297000000.0 0.3569 1.022
5300000000.0 1.031 0.413
5303000000.0 1.002 -0.5445
5306000000.0 0.2172 -1.115
5309000000.0 -0.7025 -0.8823
5312000000.0 -1.15 -0.04394
5316000000.0 -0.7839 0.8326
5319000000.0 0.1774 1.116
5322000000.0 0.9939 0.6073
5325000000.0 1.102 -0.3944
5328000000.0 0.3665 -1.059
5331000000.0 -0.5865 -0.9697
5334000000.0 -1.114 -0.1647
5338000000.0 -0.8329 0.7167
5341000000.0 0.06235 1.134
5344000000.0 0.8774 0.6718
5347000000.0 1.056 -0.2712
5350000000.0 0.4421 -0.9727
5353000000.0 -0.4509 -0.9598
5356000000.0 -1.033 -0.2364
5359000000.0 -0.8114 0.6285
5362000000.0 -0.02733 1.06
5366000000.0 0.7958 0.6575
5369000000.0 1.006 -0.2451
5372000000.0 0.4455 -0.9046
5375000000.0 -0.4483 -0.8915
5378000000.0 -0.9466 -0.1859
5381000000.0 -0.7663 0.6011
5384000000.0 0.01858 0.9787
5388000000.0 0.7741 0.5453
5391000000.0 0.9016 -0.2613
5394000000.0 0.3342 -0.824
5397000000.0 -0.4296 -0.7743
5400000000.0 -0.8955 -0.1353
5403000000.0 -0.6405 0.6115
5406000000.0 0.05903 0.8822
5409000000.0 0.7209 0.4778
5412000000.0 0.8347 -0.2322
5416000000.0 0.3073 -0.7933
5419000000.0 -0.4381 -0.749
5422000000.0 -0.8466 -0.1297
5425000000.0 -0.6158 0.6077
5428000000.0 0.09338 0.8508
5431000000.0 0.6956 0.5084
5434000000.0 0.837 -0.2431
5438000000.0 0.3581 -0.8154
5441000000.0 -0.4537 -0.7892
5444000000.0 -0.8812 -0.1575
5447000000.0 -0.7087 0.5979
5450000000.0 0.02755 0.8991
5453000000.0 0.7176 0.5659
5456000000.0 0.9223 -0.1998
5459000000.0 0.3948 -0.8349
5462000000.0 -0.3897 -0.8451
5466000000.0 -0.8909 -0.2717
5469000000.0 -0.7623 0.5371
5472000000.0 -0.08701 0.9972
5475000000.0 0.6746 0.6874
5478000000.0 0.9638 -0.07803
5481000000.0 0.5663 -0.8071
5484000000.0 -0.2461 -0.9823
5488000000.0 -0.9168 -0.4581
5491000000.0 -0.9354 0.4422
5494000000.0 -0.2834 0.9997
5497000000.0 0.644 0.8266
5500000000.0 1.065 0.08789
5503000000.0 0.7395 -0.7519
5506000000.0 -0.1214 -1.046
5509000000.0 -0.882 -0.5889
5512000000.0 -1.048 0.265
5516000000.0 -0.4135 0.958
5519000000.0 0.4566 0.9956
5522000000.0 1.063 0.2767
5525000000.0 0.8478 -0.5882
5528000000.0 0.102 -1.052
5531000000.0 -0.7801 -0.7364
5534000000.0 -1.071 0.116
5538000000.0 -0.6171 0.9115
5541000000.0 0.3062 1.051
5544000000.0 0.9935 0.419
5547000000.0 0.9168 -0.4476
5550000000.0 0.2306 -1.047
5553000000.0 -0.6641 -0.8667
5556000000.0 -1.053 -0.0347
5559000000.0 -0.6691 0.794
5562000000.0 0.1857 0.9902
5566000000.0 0.8995 0.4777
5569000000.0 0.9391 -0.3483
5572000000.0 0.3028 -0.9448
5575000000.0 -0.4939 -0.8219
5578000000.0 -0.9361 -0.1202
5581000000.0 -0.6742 0.6738
5584000000.0 0.0622 0.948
5588000000.0 0.7562 0.5218
5591000000.0 0.8331 -0.2427
5594000000.0 0.3488 -0.8365
5597000000.0 -0.4055 -0.7853
5600000000.0 -0.8751 -0.1425
5603000000.0 -0.6504 0.5841
5606000000.0 0.03485 0.8437
5609000000.0 0.681 0.5217
5612000000.0 0.8275 -0.1966
5616000000.0 0.3264 -0.7313
5619000000.0 -0.3678 -0.7302
5622000000.0 -0.8035 -0.151
5625000000.0 -0.6285 0.5293
5628000000.0 -0.0005923 0.8226
5631000000.0 0.6281 0.4913
5634000000.0 0.7799 -0.1814
5638000000.0 0.3247 -0.7436
5641000000.0 -0.3737 -0.7457
5644000000.0 -0.8277 -0.1667
5647000000.0 -0.6467 0.5476
5650000000.0 0.0252 0.8516
5653000000.0 0.6726 0.5051
5656000000.0 0.8276 -0.1648
5659000000.0 0.4016 -0.7929
5662000000.0 -0.3946 -0.7984
5666000000.0 -0.9157 -0.2036
5669000000.0 -0.7242 0.5573
5672000000.0 -0.01798 0.9499
5675000000.0 0.7374 0.6113
5678000000.0 0.9476 -0.1555
5681000000.0 0.4279 -0.8706
5684000000.0 -0.3702 -0.9132
5688000000.0 -0.9531 -0.2514
5691000000.0 -0.8229 0.6069
5694000000.0 -0.06744 0.9984
5697000000.0 0.7723 0.7158
5700000000.0 1.047 -0.1623
5703000000.0 0.5429 -0.9113
5706000000.0 -0.3432 -0.9976
5709000000.0 -0.9975 -0.3744
5712000000.0 -0.9367 0.5443
5716000000.0 -0.1587 1.08
5719000000.0 0.7335 0.8233
5722000000.0 1.109 -0.05159
5725000000.0 0.6819 -0.877
5728000000.0 -0.2411 -1.056
5731000000.0 -0.9867 -0.4989
5734000000.0 -1.023 0.3957
5738000000.0 -0.3191 1.062
5741000000.0 0.6086 0.9408
5744000000.0 1.122 0.133
5747000000.0 0.8026 -0.7976
5750000000.0 -0.09656 -1.145
5753000000.0 -0.9465 -0.6289
5756000000.0 -1.105 0.3258
5759000000.0 -0.4671 1.035
5762000000.0 0.4825 1.011
5766000000.0 1.079 0.2607
5769000000.0 0.8679 -0.6845
5772000000.0 0.03702 -1.081
5775000000.0 -0.8398 -0.7488
5778000000.0 -1.064 0.1708
5781000000.0 -0.5594 0.9197
5784000000.0 0.3568 1.052
5788000000.0 1.028 0.3734
5791000000.0 0.9219 -0.5499
5794000000.0 0.1573 -1.036
5797000000.0 -0.7063 -0.7711
5800000000.0 -1.038 0.07483
5803000000.0 -0.6163 0.8652
5806000000.0 0.2639 1.002
5809000000.0 0.9291 0.367
5812000000.0 0.8961 -0.4594
5816000000.0 0.1812 -0.9952
5819000000.0 -0.675 -0.7656
5822000000.0 -0.9783 0.05061
5825000000.0 -0.5621 0.7562
5828000000.0 0.2343 0.9129
5831000000.0 0.8493 0.3686
5834000000.0 0.7972 -0.4545
5838000000.0 0.1406 -0.8891
5841000000.0 -0.6052 -0.6781
5844000000.0 -0.9153 0.0388
5847000000.0 -0.5491 0.7085
5850000000.0 0.2726 0.8467
5853000000.0 0.832 0.3561
5856000000.0 0.8057 -0.4446
5859000000.0 0.1623 -0.8908
5862000000.0 -0.6076 -0.6502
5866000000.0 -0.897 0.03113
5869000000.0 -0.5152 0.7352
5872000000.0 0.2507 0.8502
5875000000.0 0.8201 0.3215
5878000000.0 0.7744 -0.4149
5881000000.0 0.1702 -0.8688
5884000000.0 -0.6029 -0.6822
5888000000.0 -0.8766 0.03846
5891000000.0 -0.5123 0.7035
5894000000.0 0.2094 0.8561
5897000000.0 0.828 0.3498
5900000000.0 0.7847 -0.3909
5903000000.0 0.2053 -0.8945
5906000000.0 -0.5542 -0.6787
5909000000.0 -0.8989 -0.04595
5912000000.0 -0.6114 0.6883
5916000000.0 0.1307 0.9212
5919000000.0 0.8312 0.456
5922000000.0 0.8774 -0.331
5925000000.0 0.2856 -0.8735
5928000000.0 -0.5202 -0.8154
5931000000.0 -0.94 -0.127
5934000000.0 -0.7125 0.6692
5938000000.0 0.06218 0.9337
5941000000.0 0.7654 0.5648
5944000000.0 0.9565 -0.2469
5947000000.0 0.4149 -0.8988
5950000000.0 -0.4353 -0.8791
5953000000.0 -0.9762 -0.198
5956000000.0 -0.7773 0.6275
5959000000.0 -0.02871 1.024
5962000000.0 0.728 0.6746
5966000000.0 0.998 -0.1576
5969000000.0 0.4844 -0.868
5972000000.0 -0.3606 -0.9832
5975000000.0 -0.9651 -0.2909
5978000000.0 -0.8344 0.5738
5981000000.0 -0.1032 0.9951
5984000000.0 0.74 0.7341
5988000000.0 1.033 -0.1295
5991000000.0 0.5699 -0.8744
5994000000.0 -0.3572 -0.984
5997000000.0 -0.9719 -0.3389
6000000000.0 -0.8458 0.5402
6003000000.0 -0.1124 0.9601
6006000000.0 0.6966 0.6749
6009000000.0 0.9749 -0.09929
6012000000.0 0.4984 -0.7907
6016000000.0 -0.2971 -0.8558
6019000000.0 -0.8901 -0.279
6022000000.0 -0.7828 0.4921
6025000000.0 -0.08306 0.8888
6028000000.0 0.6429 0.6026
6031000000.0 0.8615 -0.1168
6034000000.0 0.4383 -0.7525
6038000000.0 -0.3034 -0.8183
6041000000.0 -0.8178 -0.2541
6044000000.0 -0.72 0.4822
6047000000.0 -0.04605 0.8527
6050000000.0 0.6229 0.5678
6053000000.0 0.8292 -0.1563
6056000000.0 0.4127 -0.7585
6059000000.0 -0.3233 -0.7995
6062000000.0 -0.8177 -0.2079
6066000000.0 -0.668 0.4975
6069000000.0 -0.04164 0.8486
6072000000.0 0.6417 0.5465
6075000000.0 0.8362 -0.1889
6078000000.0 0.3988 -0.7475
6081000000.0 -0.3428 -0.7904
6084000000.0 -0.8675 -0.2029
6088000000.0 -0.6903 0.5371
6091000000.0 -0.01675 0.9174
6094000000.0 0.698 0.5627
6097000000.0 0.8784 -0.1745
6100000000.0 0.4232 -0.7987
6103000000.0 -0.408 -0.8565
6106000000.0 -0.9125 -0.2325
6109000000.0 -0.7419 0.5967
6112000000.0 -0.01685 0.9803
6116000000.0 0.7617 0.631
6119000000.0 0.9644 -0.2367
6122000000.0 0.423 -0.9046
6125000000.0 -0.4548 -0.8909
6128000000.0 -0.9988 -0.2261
6131000000.0 -0.7617 0.6455
6134000000.0 0.04293 1.023
6138000000.0 0.8264 0.6344
6141000000.0 1.01 -0.2664
6144000000.0 0.4364 -0.9478
6147000000.0 -0.4893 -0.8795
6150000000.0 -1.005 -0.1667
6153000000.0 -0.7862 0.6556
6156000000.0 0.04081 1.035
6159000000.0 0.839 0.6135
6162000000.0 0.9445 -0.3019
6166000000.0 0.3663 -0.9059
6169000000.0 -0.5402 -0.86
6172000000.0 -0.9918 -0.1443
6175000000.0 -0.7306 0.6956
6178000000.0 0.06474 0.9586
6181000000.0 0.8511 0.5142
6184000000.0 0.9128 -0.3144
6188000000.0 0.3183 -0.9134
6191000000.0 -0.4951 -0.7921
6194000000.0 -0.948 -0.05942
6197000000.0 -0.6368 0.6841
6200000000.0 0.1161 0.9205
6203000000.0 0.7652 0.4512
6206000000.0 0.8316 -0.3384
6209000000.0 0.2645 -0.8359
6212000000.0 -0.4745 -0.6993
6216000000.0 -0.8436 -0.05774
6219000000.0 -0.565 0.6211
6222000000.0 0.1948 0.8422
6225000000.0 0.764 0.3782
6228000000.0 0.7797 -0.3564
6231000000.0 0.1786 -0.827
6234000000.0 -0.5211 -0.6317
6238000000.0 -0.8285 0.05092
6241000000.0 -0.4828 0.6812
6244000000.0 0.2548 0.8018
6247000000.0 0.7548 0.2839
6250000000.0 0.6608 -0.4355
6253000000.0 0.06836 -0.8166
6256000000.0 -0.623 -0.5453
6259000000.0 -0.8159 0.1507
6262000000.0 -0.3549 0.7611
6266000000.0 0.3562 0.7032
