! Created with skrf 1.8.0 (http://scikit-rf.org).
# Hz S RI R 50.0 
!freq ReS11 ImS11
4000000000.0 -0.1871 -1.51
4003000000.0 -1.288 -0.8658
4006000000.0 -1.432 0.524
4009000000.0 -0.5532 1.414
4012000000.0 0.8061 1.296
4016000000.0 1.522 0.2042
4019000000.0 1.126 -1.062
4022000000.0 -0.1064 -1.581
4025000000.0 -1.283 -0.9007
4028000000.0 -1.503 0.4764
4031000000.0 -0.5491 1.506
4034000000.0 0.8267 1.407
4038000000.0 1.658 0.2409
4041000000.0 1.211 -1.103
4044000000.0 -0.1173 -1.634
4047000000.0 -1.314 -0.9001
4050000000.0 -1.593 0.4651
4053000000.0 -0.6495 1.493
4056000000.0 0.7026 1.377
4059000000.0 1.578 0.3371
4062000000.0 1.243 -0.9933
4066000000.0 0.03196 -1.613
4069000000.0 -1.25 -1.016
4072000000.0 -1.612 0.2524
4075000000.0 -0.8097 1.382
4078000000.0 0.52 1.533
4081000000.0 1.504 0.5019
4084000000.0 1.393 -0.8604
4088000000.0 0.2498 -1.602
4091000000.0 -1.119 -1.229
4094000000.0 -1.628 0.1071
4097000000.0 -1.002 1.304
4100000000.0 0.3726 1.598
4103000000.0 1.434 0.6843
4106000000.0 1.423 -0.6686
4109000000.0 0.4473 -1.474
4112000000.0 -0.8458 -1.291
4116000000.0 -1.51 -0.1912
4119000000.0 -1.142 1.011
4122000000.0 0.01091 1.505
4125000000.0 1.131 0.9404
4128000000.0 1.456 -0.2445
4131000000.0 0.7575 -1.24
4134000000.0 -0.4274 -1.392
4138000000.0 -1.356 -0.5943
4141000000.0 -1.325 0.6338
4144000000.0 -0.4021 1.452
4147000000.0 0.8543 1.254
4150000000.0 1.495 0.1051
4153000000.0 1.078 -1.05
4156000000.0 -0.07813 -1.475
4159000000.0 -1.239 -0.9015
4162000000.0 -1.472 0.3708
4166000000.0 -0.6404 1.392
4169000000.0 0.6052 1.369
4172000000.0 1.418 0.4195
4175000000.0 1.265 -0.8504
4178000000.0 0.1754 -1.477
4181000000.0 -1.033 -1.063
4184000000.0 -1.506 0.1084
4188000000.0 -0.9199 1.241
4191000000.0 0.3793 1.484
4194000000.0 1.415 0.6592
4197000000.0 1.403 -0.6764
4200000000.0 0.3851 -1.546
4203000000.0 -0.9491 -1.278
4206000000.0 -1.614 -0.02918
4209000000.0 -1.035 1.286
4212000000.0 0.3356 1.644
4216000000.0 1.532 0.7124
4219000000.0 1.465 -0.7332
4222000000.0 0.3038 -1.664
4225000000.0 -1.12 -1.243
4228000000.0 -1.658 0.1387
4231000000.0 -0.9268 1.352
4234000000.0 0.5529 1.575
4238000000.0 1.562 0.4968
4241000000.0 1.319 -0.9295
4244000000.0 0.04824 -1.614
4247000000.0 -1.219 -1.022
4250000000.0 -1.56 0.3291
4253000000.0 -0.6749 1.377
4256000000.0 0.6583 1.402
4259000000.0 1.467 0.2808
4262000000.0 1.18 -1.023
4266000000.0 -0.09204 -1.504
4269000000.0 -1.257 -0.8352
4272000000.0 -1.364 0.4415
4275000000.0 -0.5102 1.385
4278000000.0 0.7759 1.227
4281000000.0 1.433 0.1712
4284000000.0 1.01 -1.019
4288000000.0 -0.1228 -1.359
4291000000.0 -1.124 -0.7395
4294000000.0 -1.255 0.4144
4297000000.0 -0.4386 1.21
4300000000.0 0.63 1.131
4303000000.0 1.27 0.21
4306000000.0 0.9769 -0.8106
4309000000.0 -0.0004996 -1.285
4312000000.0 -0.9554 -0.8449
4316000000.0 -1.238 0.1833
4319000000.0 -0.6511 1.123
4322000000.0 0.4244 1.213
4325000000.0 1.234 0.4804
4328000000.0 1.169 -0.6405
4331000000.0 0.2245 -1.286
4334000000.0 -0.8298 -1.077
4338000000.0 -1.389 -0.01288
4341000000.0 -0.9077 1.058
4344000000.0 0.2421 1.407
4347000000.0 1.22 0.7192
4350000000.0 1.339 -0.4763
4353000000.0 0.4497 -1.352
4356000000.0 -0.7471 -1.258
4359000000.0 -1.41 -0.2135
4362000000.0 -1.104 0.9778
4366000000.0 0.03721 1.44
4369000000.0 1.144 0.8985
4372000000.0 1.463 -0.3014
4375000000.0 0.7117 -1.294
4378000000.0 -0.5663 -1.384
4381000000.0 -1.44 -0.4387
4384000000.0 -1.289 0.832
4388000000.0 -0.1688 1.569
4391000000.0 1.131 1.091
4394000000.0 1.542 -0.1866
4397000000.0 0.8383 -1.331
4400000000.0 -0.49 -1.437
4403000000.0 -1.49 -0.5434
4406000000.0 -1.33 0.8415
4409000000.0 -0.1406 1.56
4412000000.0 1.121 1.069
4416000000.0 1.563 -0.2088
4419000000.0 0.735 -1.359
4422000000.0 -0.582 -1.396
4425000000.0 -1.431 -0.3802
4428000000.0 -1.207 0.8682
4431000000.0 -0.08155 1.441
4434000000.0 1.113 0.9152
4438000000.0 1.405 -0.2699
4441000000.0 0.61 -1.246
4444000000.0 -0.578 -1.239
4447000000.0 -1.316 -0.2516
4450000000.0 -1.023 0.8622
4453000000.0 0.05952 1.309
4456000000.0 1.052 0.7713
4459000000.0 1.207 -0.3826
4462000000.0 0.468 -1.159
4466000000.0 -0.6809 -1.035
4469000000.0 -1.239 -0.1136
4472000000.0 -0.8317 0.9031
4475000000.0 0.1876 1.161
4478000000.0 1.014 0.5951
4481000000.0 1.073 -0.4395
4484000000.0 0.3189 -1.093
4488000000.0 -0.6734 -0.9182
4491000000.0 -1.146 -0.03944
4494000000.0 -0.7335 0.8185
4497000000.0 0.1875 1.104
4500000000.0 1.009 0.5283
4503000000.0 1.0 -0.4134
4506000000.0 0.3318 -1.044
4509000000.0 -0.6295 -0.9297
4512000000.0 -1.109 -0.1045
4516000000.0 -0.7663 0.8127
4519000000.0 0.1397 1.136
4522000000.0 0.9745 0.5811
4525000000.0 1.091 -0.3848
4528000000.0 0.4091 -1.051
4531000000.0 -0.5664 -0.9747
4534000000.0 -1.161 -0.1551
4538000000.0 -0.8865 0.7821
4541000000.0 0.04608 1.211
4544000000.0 0.9484 0.7339
4547000000.0 1.146 -0.2647
4550000000.0 0.5423 -1.061
4553000000.0 -0.4691 -1.111
4556000000.0 -1.165 -0.362
4559000000.0 -1.019 0.6634
4562000000.0 -0.1429 1.238
4566000000.0 0.8611 0.9082
4569000000.0 1.257 -0.0484
4572000000.0 0.7468 -1.015
4575000000.0 -0.3041 -1.252
4578000000.0 -1.123 -0.583
4581000000.0 -1.207 0.5302
4584000000.0 -0.3798 1.28
4588000000.0 0.7667 1.107
4591000000.0 1.374 0.1375
4594000000.0 0.9868 -0.9729
4597000000.0 -0.1151 -1.363
4600000000.0 -1.143 -0.7809
4603000000.0 -1.329 0.376
4606000000.0 -0.5388 1.305
4609000000.0 0.6399 1.245
4612000000.0 1.374 0.3123
4616000000.0 1.082 -0.887
4619000000.0 -0.004759 -1.38
4622000000.0 -1.037 -0.8864
4625000000.0 -1.36 0.2897
4628000000.0 -0.6027 1.239
4631000000.0 0.533 1.244
4634000000.0 1.313 0.3563
4638000000.0 1.102 -0.798
4641000000.0 0.07561 -1.353
4644000000.0 -1.018 -0.9172
4647000000.0 -1.339 0.2143
4650000000.0 -0.6633 1.147
4653000000.0 0.4906 1.211
4656000000.0 1.23 0.3219
4659000000.0 1.043 -0.7203
4662000000.0 0.07787 -1.242
4666000000.0 -0.9349 -0.8078
4669000000.0 -1.229 0.2461
4672000000.0 -0.5436 1.04
4675000000.0 0.4573 1.058
4678000000.0 1.118 0.2918
4681000000.0 0.8884 -0.6953
4684000000.0 0.03604 -1.13
4688000000.0 -0.8359 -0.7366
4691000000.0 -1.08 0.2024
4694000000.0 -0.5107 0.9532
4697000000.0 0.4489 0.9757
4700000000.0 1.079 0.2378
4703000000.0 0.8612 -0.6075
4706000000.0 0.005587 -1.054
4709000000.0 -0.8328 -0.6493
4712000000.0 -1.072 0.2174
4716000000.0 -0.4781 0.9685
4719000000.0 0.4631 0.9541
4722000000.0 1.04 0.252
4725000000.0 0.8288 -0.6426
4728000000.0 0.00765 -1.039
4731000000.0 -0.7911 -0.6654
4734000000.0 -1.026 0.194
4738000000.0 -0.4893 0.9078
4741000000.0 0.3976 0.9429
4744000000.0 1.004 0.3309
4747000000.0 0.8799 -0.5825
4750000000.0 0.1272 -1.016
4753000000.0 -0.7224 -0.7886
4756000000.0 -1.101 0.06871
4759000000.0 -0.6729 0.8732
4762000000.0 0.2463 1.082
4766000000.0 1.019 0.4991
4769000000.0 1.042 -0.4309
4772000000.0 0.3199 -1.089
4775000000.0 -0.6511 -0.9865
4778000000.0 -1.17 -0.1309
4781000000.0 -0.8526 0.8129
4784000000.0 0.0797 1.189
4788000000.0 0.9723 0.6952
4791000000.0 1.162 -0.2947
4794000000.0 0.5498 -1.083
4797000000.0 -0.4869 -1.11
4800000000.0 -1.177 -0.3668
4803000000.0 -1.019 0.6771
4806000000.0 -0.1619 1.228
4809000000.0 0.8394 0.9266
4812000000.0 1.296 -0.03167
4816000000.0 0.7928 -1.027
4819000000.0 -0.3059 -1.267
4822000000.0 -1.175 -0.6043
4825000000.0 -1.224 0.5414
4828000000.0 -0.3736 1.325
4831000000.0 0.7798 1.141
4834000000.0 1.379 0.09959
4838000000.0 0.9747 -1.021
4841000000.0 -0.1587 -1.372
4844000000.0 -1.158 -0.7575
4847000000.0 -1.311 0.4278
4850000000.0 -0.4917 1.28
4853000000.0 0.6437 1.207
4856000000.0 1.359 0.24
4859000000.0 1.016 -0.8984
4862000000.0 -0.04683 -1.35
4866000000.0 -1.083 -0.8033
4869000000.0 -1.28 0.3112
4872000000.0 -0.578 1.181
4875000000.0 0.5476 1.18
4878000000.0 1.266 0.2957
4881000000.0 1.014 -0.7676
4884000000.0 0.03787 -1.234
4888000000.0 -0.9213 -0.7785
4891000000.0 -1.171 0.2207
4894000000.0 -0.5806 1.042
4897000000.0 0.4755 1.072
4900000000.0 1.11 0.3049
4903000000.0 0.9199 -0.6642
4906000000.0 0.05161 -1.122
4909000000.0 -0.7772 -0.7219
4912000000.0 -1.025 0.1269
4916000000.0 -0.5277 0.8884
4919000000.0 0.3499 0.9544
4922000000.0 0.9257 0.2899
4925000000.0 0.8226 -0.494
4928000000.0 0.1045 -0.9534
4931000000.0 -0.6172 -0.7313
4934000000.0 -0.9178 0.0611
4938000000.0 -0.5325 0.7448
4941000000.0 0.2231 0.8914
4944000000.0 0.8238 0.3645
4947000000.0 0.8421 -0.4078
4950000000.0 0.2367 -0.9227
4953000000.0 -0.5661 -0.7362
4956000000.0 -0.9484 -0.03909
4959000000.0 -0.6577 0.7326
4962000000.0 0.1775 0.9336
4966000000.0 0.8526 0.4738
4969000000.0 0.9232 -0.37
4972000000.0 0.2879 -0.9592
4975000000.0 -0.5462 -0.8549
4978000000.0 -1.005 -0.1194
4981000000.0 -0.734 0.7352
4984000000.0 0.07645 1.013
4988000000.0 0.8571 0.6067
4991000000.0 0.9975 -0.2741
4994000000.0 0.4597 -0.9736
4997000000.0 -0.4839 -0.9906
5000000000.0 -1.091 -0.2727
5003000000.0 -0.9363 0.6582
5006000000.0 -0.05764 1.153
5009000000.0 0.8542 0.8135
5012000000.0 1.175 -0.1695
5016000000.0 0.6345 -1.048
5019000000.0 -0.3756 -1.17
5022000000.0 -1.153 -0.4443
5025000000.0 -1.092 0.6334
5028000000.0 -0.2312 1.248
5031000000.0 0.8582 0.9673
5034000000.0 1.283 -0.01309
5038000000.0 0.8311 -0.9995
5041000000.0 -0.2647 -1.25
5044000000.0 -1.142 -0.5911
5047000000.0 -1.215 0.4678
5050000000.0 -0.3943 1.228
5053000000.0 0.6739 1.115
5056000000.0 1.298 0.1891
5059000000.0 0.9913 -0.844
5062000000.0 -0.06004 -1.322
5066000000.0 -1.025 -0.7958
5069000000.0 -1.264 0.2859
5072000000.0 -0.5756 1.146
5075000000.0 0.5115 1.201
5078000000.0 1.216 0.3632
5081000000.0 1.033 -0.7117
5084000000.0 0.1402 -1.208
5088000000.0 -0.823 -0.8684
5091000000.0 -1.191 0.1159
5094000000.0 -0.688 0.966
5097000000.0 0.3102 1.117
5100000000.0 1.059 0.5072
5103000000.0 1.017 -0.4769
5106000000.0 0.313 -1.089
5109000000.0 -0.6242 -0.8922
5112000000.0 -1.067 -0.09757
5116000000.0 -0.7462 0.738
5119000000.0 0.05859 1.043
5122000000.0 0.8349 0.5719
5125000000.0 0.9527 -0.2843
5128000000.0 0.4336 -0.9491
5131000000.0 -0.4093 -0.9204
5134000000.0 -0.9207 -0.2368
5138000000.0 -0.7605 0.5916
5141000000.0 -0.01394 0.9873
5144000000.0 0.7325 0.6136
5147000000.0 0.9641 -0.1632
5150000000.0 0.501 -0.8184
5153000000.0 -0.3242 -0.8635
5156000000.0 -0.8671 -0.296
5159000000.0 -0.7662 0.4931
5162000000.0 -0.1198 0.8829
5166000000.0 0.6036 0.6765
5169000000.0 0.9005 -0.05256
5172000000.0 0.506 -0.7563
5175000000.0 -0.2631 -0.8569
5178000000.0 -0.8153 -0.357
5181000000.0 -0.7887 0.4221
5184000000.0 -0.1859 0.9066
5188000000.0 0.6001 0.6967
5191000000.0 0.9157 -0.03301
5194000000.0 0.5702 -0.7314
5197000000.0 -0.2408 -0.8802
5200000000.0 -0.8651 -0.374
5203000000.0 -0.8296 0.445
5206000000.0 -0.1979 0.9388
5209000000.0 0.6543 0.7348
5212000000.0 0.9579 -0.0187
5216000000.0 0.571 -0.7645
5219000000.0 -0.2475 -0.956
5222000000.0 -0.9124 -0.4207
5225000000.0 -0.916 0.4274
5228000000.0 -0.2538 0.9878
5231000000.0 0.6003 0.8018
5234000000.0 1.049 0.06841
5238000000.0 0.6708 -0.7861
5241000000.0 -0.1486 -1.018
5244000000.0 -0.9144 -0.5527
5247000000.0 -0.9981 0.3361
5250000000.0 -0.3889 0.9823
5253000000.0 0.5331 0.9202
5256000000.0 1.039 0.1698
5259000000.0 0.8364 -0.6892
5262000000.0 0.007166 -1.084
5266000000.0 -0.8383 -0.6966
5269000000.0 -1.067 0.1879
5272000000.0 -0.5335 0.936
5275000000.0 0.3702 1.035
5278000000.0 1.014 0.3832
5281000000.0 0.9558 -0.5331
5284000000.0 0.2136 -1.065
5288000000.0 -0.6866 -0.8721
5291000000.0 -1.109 -0.05128
5294000000.0 -0.7327 0.8078
5297000000.0 0.1477 1.096
5300000000.0 0.9308 0.6266
5303000000.0 1.077 -0.32
5306000000.0 0.4308 -1.043
5309000000.0 -0.4932 -1.015
5312000000.0 -1.08 -0.2696
5316000000.0 -0.9319 0.6598
5319000000.0 -0.07438 1.14
5322000000.0 0.8111 0.8075
5325000000.0 1.126 -0.1353
5328000000.0 0.6367 -0.9347
5331000000.0 -0.3023 -1.074
5334000000.0 -1.046 -0.4718
5338000000.0 -0.9691 0.5228
5341000000.0 -0.2401 1.097
5344000000.0 0.6924 0.87
5347000000.0 1.131 0.04606
5350000000.0 0.7163 -0.8167
5353000000.0 -0.2056 -1.077
5356000000.0 -0.9659 -0.5487
5359000000.0 -1.007 0.3878
5362000000.0 -0.3306 1.025
5366000000.0 0.6032 0.869
5369000000.0 1.041 0.1093
5372000000.0 0.7577 -0.7768
5375000000.0 -0.1091 -1.044
5378000000.0 -0.8589 -0.5167
5381000000.0 -0.9764 0.3489
5384000000.0 -0.2822 0.9515
5388000000.0 0.5393 0.8306
5391000000.0 0.9538 0.05741
5394000000.0 0.6587 -0.6714
5397000000.0 -0.1309 -0.9219
5400000000.0 -0.7968 -0.4764
5403000000.0 -0.8251 0.3334
5406000000.0 -0.2581 0.8377
5409000000.0 0.5039 0.7075
5412000000.0 0.8388 0.06739
5416000000.0 0.5799 -0.6512
5419000000.0 -0.1348 -0.8394
5422000000.0 -0.7714 -0.4248
5425000000.0 -0.7833 0.3133
5428000000.0 -0.2298 0.8193
5431000000.0 0.4782 0.7222
5434000000.0 0.8813 0.05829
5438000000.0 0.5798 -0.6481
5441000000.0 -0.1547 -0.8436
5444000000.0 -0.7458 -0.3907
5447000000.0 -0.8402 0.3118
5450000000.0 -0.2375 0.8406
5453000000.0 0.4817 0.7216
5456000000.0 0.8572 0.08067
5459000000.0 0.6024 -0.6298
5462000000.0 -0.1054 -0.9118
5466000000.0 -0.7486 -0.4878
5469000000.0 -0.9012 0.2712
5472000000.0 -0.3596 0.8269
5475000000.0 0.4448 0.8335
5478000000.0 0.9224 0.223
5481000000.0 0.7327 -0.5693
5484000000.0 0.0656 -0.9245
5488000000.0 -0.6939 -0.6355
5491000000.0 -0.9486 0.1383
5494000000.0 -0.5416 0.8286
5497000000.0 0.3002 0.9151
5500000000.0 0.9319 0.4048
5503000000.0 0.9023 -0.4723
5506000000.0 0.2546 -1.004
5509000000.0 -0.6377 -0.8135
5512000000.0 -0.9915 -0.0406
5516000000.0 -0.7026 0.794
5519000000.0 0.1377 1.04
5522000000.0 0.8772 0.5739
5525000000.0 1.006 -0.3055
5528000000.0 0.4009 -0.9468
5531000000.0 -0.4643 -0.9539
5534000000.0 -1.034 -0.2484
5538000000.0 -0.8746 0.6461
5541000000.0 -0.07512 1.045
5544000000.0 0.7583 0.7112
5547000000.0 1.045 -0.08161
5550000000.0 0.588 -0.8957
5553000000.0 -0.3056 -1.02
5556000000.0 -0.9911 -0.4344
5559000000.0 -0.9255 0.5127
5562000000.0 -0.1933 1.028
5566000000.0 0.6424 0.7892
5569000000.0 0.9934 0.01324
5572000000.0 0.6636 -0.7561
5575000000.0 -0.1841 -0.9784
5578000000.0 -0.8758 -0.4988
5581000000.0 -0.9198 0.3474
5584000000.0 -0.3024 0.9251
5588000000.0 0.5189 0.8245
5591000000.0 0.9513 0.1496
5594000000.0 0.6828 -0.6239
5597000000.0 -0.03772 -0.9737
5600000000.0 -0.7542 -0.5591
5603000000.0 -0.8644 0.2394
5606000000.0 -0.3873 0.8041
5609000000.0 0.364 0.79
5612000000.0 0.8552 0.1965
5616000000.0 0.652 -0.5354
5619000000.0 0.02695 -0.8614
5622000000.0 -0.6531 -0.5674
5625000000.0 -0.8397 0.1777
5628000000.0 -0.3876 0.7425
5631000000.0 0.3168 0.7719
5634000000.0 0.7905 0.2332
5638000000.0 0.6809 -0.5061
5641000000.0 0.06606 -0.8128
5644000000.0 -0.6223 -0.5636
5647000000.0 -0.8086 0.1516
5650000000.0 -0.4081 0.7262
5653000000.0 0.3278 0.7818
5656000000.0 0.8277 0.244
5659000000.0 0.708 -0.5007
5662000000.0 0.05941 -0.8637
5666000000.0 -0.6422 -0.5825
5669000000.0 -0.8463 0.1668
5672000000.0 -0.4192 0.7812
5675000000.0 0.3081 0.8246
5678000000.0 0.9013 0.2613
5681000000.0 0.729 -0.5113
5684000000.0 0.1139 -0.9296
5688000000.0 -0.6999 -0.6573
5691000000.0 -0.9631 0.1073
5694000000.0 -0.5216 0.8289
5697000000.0 0.3316 0.9198
5700000000.0 0.9285 0.3153
5703000000.0 0.8613 -0.5021
5706000000.0 0.1332 -1.008
5709000000.0 -0.7046 -0.7296
5712000000.0 -1.031 0.06538
5716000000.0 -0.6059 0.8203
5719000000.0 0.2658 1.024
5722000000.0 0.9552 0.4505
5725000000.0 0.928 -0.4534
5728000000.0 0.263 -1.019
5731000000.0 -0.6151 -0.8658
5734000000.0 -1.054 -0.079
5738000000.0 -0.7692 0.7604
5741000000.0 0.1504 1.073
5744000000.0 0.9103 0.6119
5747000000.0 1.026 -0.3308
5750000000.0 0.4235 -1.027
5753000000.0 -0.4835 -0.9575
5756000000.0 -1.1 -0.2149
5759000000.0 -0.8785 0.6577
5762000000.0 -0.04466 1.133
5766000000.0 0.8142 0.7219
5769000000.0 1.097 -0.1643
5772000000.0 0.5757 -0.963
5775000000.0 -0.334 -1.019
5778000000.0 -1.019 -0.3862
5781000000.0 -0.9596 0.5495
5784000000.0 -0.2098 1.056
5788000000.0 0.6746 0.832
5791000000.0 1.075 0.01442
5794000000.0 0.7009 -0.8105
5797000000.0 -0.1649 -1.042
5800000000.0 -0.9512 -0.549
5803000000.0 -1.002 0.3876
5806000000.0 -0.325 0.9745
5809000000.0 0.5398 0.8978
5812000000.0 1.049 0.1593
5816000000.0 0.761 -0.6935
5819000000.0 -0.04826 -1.026
5822000000.0 -0.8172 -0.611
5825000000.0 -0.9425 0.2161
5828000000.0 -0.4207 0.8987
5831000000.0 0.4091 0.8759
5834000000.0 0.9325 0.2343
5838000000.0 0.7656 -0.6063
5841000000.0 0.01963 -0.9669
5844000000.0 -0.7169 -0.5964
5847000000.0 -0.9407 0.1681
5850000000.0 -0.444 0.8114
5853000000.0 0.3406 0.8682
5856000000.0 0.8939 0.2802
5859000000.0 0.753 -0.5355
5862000000.0 0.05486 -0.9304
5866000000.0 -0.668 -0.6064
5869000000.0 -0.8631 0.1485
5872000000.0 -0.4557 0.7778
5875000000.0 0.3178 0.8005
5878000000.0 0.8464 0.2564
5881000000.0 0.7365 -0.4627
5884000000.0 0.05381 -0.8868
5888000000.0 -0.6189 -0.6149
5891000000.0 -0.8519 0.09897
5894000000.0 -0.4622 0.7345
5897000000.0 0.2984 0.8136
5900000000.0 0.8005 0.3183
5903000000.0 0.74 -0.4455
5906000000.0 0.132 -0.8475
5909000000.0 -0.5691 -0.6325
5912000000.0 -0.8656 0.05407
5916000000.0 -0.5333 0.7026
5919000000.0 0.2405 0.8546
5922000000.0 0.8253 0.3464
5925000000.0 0.7781 -0.3794
5928000000.0 0.2033 -0.8315
5931000000.0 -0.5332 -0.7116
5934000000.0 -0.8873 -0.05111
5938000000.0 -0.593 0.6477
5941000000.0 0.1154 0.9024
5944000000.0 0.785 0.4744
5947000000.0 0.8464 -0.2789
5950000000.0 0.3222 -0.8377
5953000000.0 -0.4244 -0.8291
5956000000.0 -0.9015 -0.1924
5959000000.0 -0.7115 0.5733
5962000000.0 -0.03582 0.9277
5966000000.0 0.6992 0.6218
5969000000.0 0.9466 -0.1398
5972000000.0 0.5074 -0.7922
5975000000.0 -0.3339 -0.9146
5978000000.0 -0.8988 -0.3458
5981000000.0 -0.8688 0.4844
5984000000.0 -0.2106 0.9736
5988000000.0 0.6101 0.7389
5991000000.0 0.9873 0.01914
5994000000.0 0.6236 -0.7524
5997000000.0 -0.1715 -0.9836
6000000000.0 -0.8894 -0.4749
6003000000.0 -0.9339 0.3651
6006000000.0 -0.299 0.9524
6009000000.0 0.52 0.8128
6012000000.0 0.973 0.1275
6016000000.0 0.7259 -0.6734
6019000000.0 -0.07134 -0.9956
6022000000.0 -0.7896 -0.5695
6025000000.0 -0.9596 0.2687
6028000000.0 -0.3823 0.8858
6031000000.0 0.429 0.8677
6034000000.0 0.9445 0.217
6038000000.0 0.7723 -0.5746
6041000000.0 0.006713 -0.9507
6044000000.0 -0.7144 -0.6363
6047000000.0 -0.9375 0.1669
6050000000.0 -0.4614 0.8092
6053000000.0 0.3628 0.8441
6056000000.0 0.9091 0.2693
6059000000.0 0.7777 -0.5313
6062000000.0 0.06017 -0.9125
6066000000.0 -0.6652 -0.6291
6069000000.0 -0.9073 0.1491
6072000000.0 -0.4498 0.7794
6075000000.0 0.3001 0.8241
6078000000.0 0.8426 0.3044
6081000000.0 0.756 -0.4443
6084000000.0 0.09924 -0.8582
6088000000.0 -0.5946 -0.633
6091000000.0 -0.8543 0.0955
6094000000.0 -0.4561 0.7095
6097000000.0 0.245 0.8003
6100000000.0 0.806 0.3064
6103000000.0 0.7249 -0.4062
6106000000.0 0.1304 -0.8385
6109000000.0 -0.5599 -0.6653
6112000000.0 -0.8561 0.02298
6116000000.0 -0.5096 0.6817
6119000000.0 0.2133 0.8322
6122000000.0 0.7663 0.3883
6125000000.0 0.7602 -0.3876
6128000000.0 0.1855 -0.8228
6131000000.0 -0.5649 -0.6809
6134000000.0 -0.8977 -0.02738
6138000000.0 -0.5499 0.6719
6141000000.0 0.1983 0.8336
6144000000.0 0.786 0.4294
6147000000.0 0.8267 -0.3479
6150000000.0 0.2901 -0.8652
6153000000.0 -0.504 -0.7611
6156000000.0 -0.9057 -0.07704
6159000000.0 -0.633 0.6558
6162000000.0 0.09413 0.87
6166000000.0 0.7716 0.4979
6169000000.0 0.8774 -0.291
6172000000.0 0.336 -0.902
6175000000.0 -0.4532 -0.8235
6178000000.0 -0.9207 -0.1252
6181000000.0 -0.6963 0.6294
6184000000.0 0.04888 0.9457
6188000000.0 0.7282 0.5721
6191000000.0 0.9353 -0.2237
6194000000.0 0.407 -0.8401
6197000000.0 -0.3937 -0.84
6200000000.0 -0.9316 -0.2378
6203000000.0 -0.7713 0.5441
6206000000.0 -0.07182 0.9029
6209000000.0 0.6846 0.6924
6212000000.0 0.942 -0.1215
6216000000.0 0.4916 -0.7698
6219000000.0 -0.272 -0.8683
6222000000.0 -0.8445 -0.3448
6225000000.0 -0.759 0.4339
6228000000.0 -0.1521 0.8954
6231000000.0 0.5727 0.7121
6234000000.0 0.896 0.03245
6238000000.0 0.5537 -0.6767
6241000000.0 -0.1995 -0.8587
6244000000.0 -0.7699 -0.373
6247000000.0 -0.8129 0.3304
6250000000.0 -0.2739 0.7979
6253000000.0 0.4439 0.6925
6256000000.0 0.8276 0.1217
6259000000.0 0.6301 -0.5495
6262000000.0 0.02075 -0.8309
6266000000.0 -0.6484 -0.5327
