! Created with skrf 1.8.0 (http://scikit-rf.org).
# Hz S RI R 50.0 
!freq ReS11 ImS11
4000000000.0 -0.4697 -1.45
4003000000.0 -1.427 -0.5201
4006000000.0 -1.324 0.6983
4009000000.0 -0.2373 1.508
4012000000.0 1.025 1.161
4016000000.0 1.556 -0.07094
4019000000.0 0.9449 -1.25
4022000000.0 -0.3806 -1.525
4025000000.0 -1.486 -0.6439
4028000000.0 -1.436 0.7684
4031000000.0 -0.2435 1.584
4034000000.0 1.106 1.236
4038000000.0 1.653 -0.1082
4041000000.0 0.99 -1.308
4044000000.0 -0.4707 -1.56
4047000000.0 -1.529 -0.6631
4050000000.0 -1.499 0.7485
4053000000.0 -0.3883 1.603
4056000000.0 1.032 1.271
4059000000.0 1.603 -0.002073
4062000000.0 1.033 -1.195
4066000000.0 -0.2881 -1.605
4069000000.0 -1.432 -0.7724
4072000000.0 -1.512 0.5587
4075000000.0 -0.5621 1.552
4078000000.0 0.857 1.394
4081000000.0 1.63 0.2493
4084000000.0 1.213 -1.076
4088000000.0 -0.08458 -1.668
4091000000.0 -1.29 -0.982
4094000000.0 -1.557 0.3676
4097000000.0 -0.7292 1.445
4100000000.0 0.6561 1.461
4103000000.0 1.54 0.4158
4106000000.0 1.276 -0.8942
4109000000.0 0.186 -1.511
4112000000.0 -1.063 -1.11
4116000000.0 -1.483 0.07417
4119000000.0 -0.8753 1.183
4122000000.0 0.3024 1.431
4125000000.0 1.261 0.7206
4128000000.0 1.366 -0.4778
4131000000.0 0.5202 -1.369
4134000000.0 -0.6846 -1.285
4138000000.0 -1.395 -0.2922
4141000000.0 -1.157 0.9076
4144000000.0 -0.1106 1.495
4147000000.0 1.077 1.011
4150000000.0 1.484 -0.1889
4153000000.0 0.8059 -1.276
4156000000.0 -0.4437 -1.435
4159000000.0 -1.4 -0.5442
4162000000.0 -1.351 0.7476
4166000000.0 -0.3171 1.476
4169000000.0 0.9451 1.178
4172000000.0 1.477 0.04001
4175000000.0 0.966 -1.162
4178000000.0 -0.2468 -1.492
4181000000.0 -1.298 -0.7555
4184000000.0 -1.375 0.553
4188000000.0 -0.4466 1.463
4191000000.0 0.7869 1.249
4194000000.0 1.493 0.1635
4197000000.0 1.097 -1.074
4200000000.0 -0.1738 -1.548
4203000000.0 -1.347 -0.8092
4206000000.0 -1.48 0.558
4209000000.0 -0.4429 1.572
4212000000.0 0.9713 1.313
4216000000.0 1.659 0.02811
4219000000.0 0.9989 -1.296
4222000000.0 -0.4429 -1.597
4225000000.0 -1.539 -0.5733
4228000000.0 -1.407 0.8292
4231000000.0 -0.1248 1.568
4234000000.0 1.198 1.051
4238000000.0 1.554 -0.3009
4241000000.0 0.6601 -1.367
4244000000.0 -0.6676 -1.386
4247000000.0 -1.499 -0.3015
4250000000.0 -1.102 0.9823
4253000000.0 0.1276 1.437
4256000000.0 1.193 0.8206
4259000000.0 1.389 -0.4487
4262000000.0 0.4835 -1.356
4266000000.0 -0.7132 -1.201
4269000000.0 -1.411 -0.1763
4272000000.0 -0.9878 1.06
4275000000.0 0.1572 1.348
4278000000.0 1.225 0.7284
4281000000.0 1.315 -0.4774
4284000000.0 0.4171 -1.308
4288000000.0 -0.743 -1.122
4291000000.0 -1.313 -0.1936
4294000000.0 -0.9574 0.8906
4297000000.0 0.1485 1.325
4300000000.0 1.079 0.7547
4303000000.0 1.226 -0.3014
4306000000.0 0.595 -1.135
4309000000.0 -0.515 -1.179
4312000000.0 -1.214 -0.3168
4316000000.0 -1.091 0.7184
4319000000.0 -0.1626 1.321
4322000000.0 0.9363 0.9481
4325000000.0 1.378 -0.1054
4328000000.0 0.7778 -1.095
4331000000.0 -0.3232 -1.335
4334000000.0 -1.281 -0.6013
4338000000.0 -1.334 0.5898
4341000000.0 -0.334 1.354
4344000000.0 0.8649 1.166
4347000000.0 1.493 0.07373
4350000000.0 1.02 -1.103
4353000000.0 -0.2157 -1.478
4356000000.0 -1.309 -0.7709
4359000000.0 -1.415 0.5507
4362000000.0 -0.5083 1.43
4366000000.0 0.7918 1.308
4369000000.0 1.511 0.1884
4372000000.0 1.107 -1.054
4375000000.0 -0.1139 -1.517
4378000000.0 -1.283 -0.8452
4381000000.0 -1.454 0.4493
4384000000.0 -0.5482 1.451
4388000000.0 0.8412 1.301
4391000000.0 1.516 0.1884
4394000000.0 1.118 -1.121
4397000000.0 -0.2035 -1.534
4400000000.0 -1.351 -0.7825
4403000000.0 -1.419 0.5982
4406000000.0 -0.3792 1.475
4409000000.0 0.9384 1.19
4412000000.0 1.465 -0.02327
4416000000.0 0.8333 -1.158
4419000000.0 -0.4054 -1.343
4422000000.0 -1.289 -0.4753
4425000000.0 -1.156 0.7225
4428000000.0 -0.1515 1.326
4431000000.0 0.9402 0.8998
4434000000.0 1.258 -0.2148
4438000000.0 0.6258 -1.138
4441000000.0 -0.4927 -1.124
4444000000.0 -1.182 -0.3381
4447000000.0 -0.9477 0.7483
4450000000.0 0.009505 1.195
4453000000.0 0.9625 0.7474
4456000000.0 1.173 -0.3086
4459000000.0 0.4936 -1.091
4462000000.0 -0.5602 -1.052
4466000000.0 -1.127 -0.2046
4469000000.0 -0.8571 0.8242
4472000000.0 0.1021 1.175
4475000000.0 0.9533 0.6802
4478000000.0 1.143 -0.3226
4481000000.0 0.4305 -1.112
4484000000.0 -0.5905 -1.051
4488000000.0 -1.174 -0.2204
4491000000.0 -0.9029 0.8179
4494000000.0 0.04434 1.211
4497000000.0 0.9539 0.7099
4500000000.0 1.175 -0.2943
4503000000.0 0.5142 -1.08
4506000000.0 -0.515 -1.081
4509000000.0 -1.155 -0.287
4512000000.0 -0.9803 0.7011
4516000000.0 -0.09908 1.242
4519000000.0 0.8787 0.8726
4522000000.0 1.246 -0.1416
4525000000.0 0.6969 -1.053
4528000000.0 -0.3864 -1.199
4531000000.0 -1.224 -0.4882
4534000000.0 -1.139 0.6559
4538000000.0 -0.2374 1.286
4541000000.0 0.837 1.033
4544000000.0 1.317 -0.006649
4547000000.0 0.8294 -1.026
4550000000.0 -0.2568 -1.33
4553000000.0 -1.193 -0.6353
4556000000.0 -1.27 0.4654
4559000000.0 -0.4434 1.295
4562000000.0 0.7206 1.196
4566000000.0 1.349 0.2089
4569000000.0 1.015 -0.885
4572000000.0 -0.0326 -1.398
4575000000.0 -1.121 -0.8728
4578000000.0 -1.366 0.3067
4581000000.0 -0.6349 1.278
4584000000.0 0.5524 1.288
4588000000.0 1.389 0.363
4591000000.0 1.163 -0.843
4594000000.0 0.06912 -1.403
4597000000.0 -1.073 -0.9394
4600000000.0 -1.393 0.2414
4603000000.0 -0.6965 1.239
4606000000.0 0.5529 1.3
4609000000.0 1.332 0.4133
4612000000.0 1.18 -0.7469
4616000000.0 0.09601 -1.379
4619000000.0 -1.004 -0.909
4622000000.0 -1.347 0.1968
4625000000.0 -0.6576 1.13
4628000000.0 0.4879 1.213
4631000000.0 1.254 0.4122
4634000000.0 1.04 -0.7323
4638000000.0 0.07317 -1.272
4641000000.0 -0.9238 -0.8813
4644000000.0 -1.208 0.1771
4647000000.0 -0.5707 1.084
4650000000.0 0.4695 1.099
4653000000.0 1.146 0.2889
4656000000.0 0.9322 -0.7241
4659000000.0 0.01206 -1.156
4662000000.0 -0.8895 -0.7234
4666000000.0 -1.124 0.2355
4669000000.0 -0.4807 1.021
4672000000.0 0.4747 0.9977
4675000000.0 1.052 0.2454
4678000000.0 0.867 -0.6505
4681000000.0 -0.005177 -1.08
4684000000.0 -0.8238 -0.6847
4688000000.0 -1.07 0.2079
4691000000.0 -0.4807 0.9579
4694000000.0 0.4486 1.0
4697000000.0 1.088 0.3026
4700000000.0 0.8782 -0.6501
4703000000.0 0.06419 -1.138
4706000000.0 -0.835 -0.7484
4709000000.0 -1.135 0.2028
4712000000.0 -0.5502 0.9798
4716000000.0 0.4064 1.039
4719000000.0 1.099 0.3185
4722000000.0 0.9539 -0.6202
4725000000.0 0.08326 -1.113
4728000000.0 -0.8125 -0.8196
4731000000.0 -1.13 0.09018
4734000000.0 -0.6932 0.9054
4738000000.0 0.2858 1.128
4741000000.0 1.083 0.4719
4744000000.0 1.102 -0.4794
4747000000.0 0.3083 -1.145
4750000000.0 -0.6666 -1.021
4753000000.0 -1.217 -0.1154
4756000000.0 -0.9106 0.8637
4759000000.0 0.08113 1.262
4762000000.0 1.044 0.7183
4766000000.0 1.243 -0.3033
4769000000.0 0.5555 -1.164
4772000000.0 -0.584 -1.19
4775000000.0 -1.281 -0.3296
4778000000.0 -1.094 0.8111
4781000000.0 -0.09891 1.34
4784000000.0 0.9871 0.9577
4788000000.0 1.373 -0.1296
4791000000.0 0.7527 -1.129
4794000000.0 -0.399 -1.322
4797000000.0 -1.271 -0.5366
4800000000.0 -1.238 0.6732
4803000000.0 -0.2808 1.331
4806000000.0 0.8596 1.099
4809000000.0 1.367 0.0212
4812000000.0 0.8904 -1.07
4816000000.0 -0.2567 -1.358
4819000000.0 -1.211 -0.677
4822000000.0 -1.291 0.5294
4825000000.0 -0.3901 1.331
4828000000.0 0.7924 1.139
4831000000.0 1.377 0.06351
4834000000.0 0.9307 -1.03
4838000000.0 -0.2261 -1.344
4841000000.0 -1.148 -0.6472
4844000000.0 -1.206 0.501
4847000000.0 -0.3914 1.229
4850000000.0 0.7171 1.053
4853000000.0 1.235 0.08398
4856000000.0 0.8318 -0.8818
4859000000.0 -0.1794 -1.185
4862000000.0 -0.9894 -0.5718
4866000000.0 -1.049 0.4104
4869000000.0 -0.3458 1.033
4872000000.0 0.609 0.9064
4875000000.0 1.058 0.09956
4878000000.0 0.7416 -0.7678
4881000000.0 -0.1343 -1.05
4884000000.0 -0.8691 -0.5195
4888000000.0 -0.9502 0.3531
4891000000.0 -0.2818 0.9283
4894000000.0 0.5257 0.8115
4897000000.0 0.9704 0.08443
4900000000.0 0.6813 -0.7126
4903000000.0 -0.1199 -0.9596
4906000000.0 -0.8121 -0.4792
4909000000.0 -0.8942 0.3274
4912000000.0 -0.2859 0.8959
4916000000.0 0.4983 0.8078
4919000000.0 0.939 0.08976
4922000000.0 0.6791 -0.6824
4925000000.0 -0.1085 -0.952
4928000000.0 -0.7823 -0.5133
4931000000.0 -0.9046 0.2925
4934000000.0 -0.3698 0.9238
4938000000.0 0.4842 0.8848
4941000000.0 1.012 0.1625
4944000000.0 0.7824 -0.7009
4947000000.0 -0.05056 -1.047
4950000000.0 -0.841 -0.6755
4953000000.0 -1.086 0.2488
4956000000.0 -0.4875 0.9677
4959000000.0 0.5056 1.012
4962000000.0 1.117 0.2487
4966000000.0 0.9231 -0.7192
4969000000.0 0.01598 -1.195
4972000000.0 -0.9357 -0.7804
4975000000.0 -1.184 0.2308
4978000000.0 -0.5701 1.085
4981000000.0 0.4771 1.136
4984000000.0 1.209 0.3317
4988000000.0 1.045 -0.7005
4991000000.0 0.1026 -1.274
4994000000.0 -0.9308 -0.8959
4997000000.0 -1.284 0.1851
5000000000.0 -0.7006 1.117
5003000000.0 0.442 1.247
5006000000.0 1.267 0.4188
5009000000.0 1.116 -0.714
5012000000.0 0.1663 -1.316
5016000000.0 -0.9559 -0.9115
5019000000.0 -1.284 0.1555
5022000000.0 -0.6533 1.099
5025000000.0 0.4329 1.22
5028000000.0 1.185 0.4034
5031000000.0 1.036 -0.6594
5034000000.0 0.1478 -1.197
5038000000.0 -0.8448 -0.8282
5041000000.0 -1.169 0.1227
5044000000.0 -0.6004 0.9684
5047000000.0 0.3218 1.065
5050000000.0 1.038 0.3645
5053000000.0 0.8981 -0.5346
5056000000.0 0.1555 -1.043
5059000000.0 -0.733 -0.7912
5062000000.0 -1.016 0.07646
5066000000.0 -0.5545 0.8542
5069000000.0 0.3043 0.9419
5072000000.0 0.9288 0.3149
5075000000.0 0.8045 -0.5006
5078000000.0 0.08147 -0.9562
5081000000.0 -0.7108 -0.599
5084000000.0 -0.9076 0.1675
5088000000.0 -0.4024 0.8393
5091000000.0 0.404 0.8083
5094000000.0 0.9038 0.1536
5097000000.0 0.6882 -0.6051
5100000000.0 -0.08267 -0.8506
5103000000.0 -0.7428 -0.4558
5106000000.0 -0.8585 0.3178
5109000000.0 -0.2506 0.8227
5112000000.0 0.5282 0.6873
5116000000.0 0.8982 0.02956
5119000000.0 0.5352 -0.7035
5122000000.0 -0.2412 -0.9184
5125000000.0 -0.827 -0.3175
5128000000.0 -0.7886 0.5559
5131000000.0 -0.05024 0.9959
5134000000.0 0.7432 0.6491
5138000000.0 0.9879 -0.219
5141000000.0 0.4014 -0.9468
5144000000.0 -0.5215 -0.923
5147000000.0 -1.024 -0.187
5150000000.0 -0.7738 0.6737
5153000000.0 0.09685 1.04
5156000000.0 0.8789 0.5428
5159000000.0 0.9695 -0.3751
5162000000.0 0.3492 -1.007
5166000000.0 -0.5773 -0.9255
5169000000.0 -1.079 -0.1099
5172000000.0 -0.7389 0.7413
5175000000.0 0.131 1.058
5178000000.0 0.961 0.5337
5181000000.0 1.004 -0.3539
5184000000.0 0.3239 -1.016
5188000000.0 -0.6061 -0.8906
5191000000.0 -1.049 -0.1122
5194000000.0 -0.759 0.7959
5197000000.0 0.1697 1.051
5200000000.0 0.93 0.5414
5203000000.0 1.011 -0.3884
5206000000.0 0.3182 -1.013
5209000000.0 -0.6088 -0.8809
5212000000.0 -1.043 -0.08954
5216000000.0 -0.7262 0.7818
5219000000.0 0.1813 1.019
5222000000.0 0.9117 0.5055
5225000000.0 0.9167 -0.4087
5228000000.0 0.236 -1.01
5231000000.0 -0.6349 -0.7938
5234000000.0 -1.016 -0.003415
5238000000.0 -0.616 0.7853
5241000000.0 0.3029 0.9625
5244000000.0 0.9074 0.3274
5247000000.0 0.8294 -0.5264
5250000000.0 0.06678 -0.9778
5253000000.0 -0.7584 -0.6313
5256000000.0 -0.96 0.2442
5259000000.0 -0.3694 0.9061
5262000000.0 0.5018 0.8077
5266000000.0 0.951 0.08518
5269000000.0 0.6326 -0.7061
5272000000.0 -0.2142 -0.9307
5275000000.0 -0.8501 -0.4025
5278000000.0 -0.8462 0.444
5281000000.0 -0.1334 0.9416
5284000000.0 0.6496 0.6547
5288000000.0 0.9608 -0.1165
5291000000.0 0.5218 -0.8307
5294000000.0 -0.3594 -0.884
5297000000.0 -0.9361 -0.2285
5300000000.0 -0.7796 0.614
5303000000.0 0.006972 0.9856
5306000000.0 0.7753 0.6121
5309000000.0 0.9732 -0.2489
5312000000.0 0.4264 -0.8727
5316000000.0 -0.4441 -0.9206
5319000000.0 -0.994 -0.1885
5322000000.0 -0.7866 0.6515
5325000000.0 -0.009438 1.083
5328000000.0 0.8083 0.6379
5331000000.0 1.057 -0.2048
5334000000.0 0.4769 -0.9211
5338000000.0 -0.4377 -0.9981
5341000000.0 -1.037 -0.2683
5344000000.0 -0.9083 0.6101
5347000000.0 -0.08776 1.087
5350000000.0 0.7681 0.7528
5353000000.0 1.112 -0.09786
5356000000.0 0.5846 -0.8982
5359000000.0 -0.3286 -1.084
5362000000.0 -1.053 -0.4542
5366000000.0 -1.018 0.5086
5369000000.0 -0.2316 1.089
5372000000.0 0.7141 0.9133
5375000000.0 1.144 0.02582
5378000000.0 0.7744 -0.8636
5381000000.0 -0.1993 -1.143
5384000000.0 -0.9997 -0.5828
5388000000.0 -1.104 0.4471
5391000000.0 -0.3576 1.108
5394000000.0 0.6644 0.9755
5397000000.0 1.14 0.1112
5400000000.0 0.8118 -0.8215
5403000000.0 -0.1423 -1.121
5406000000.0 -0.9361 -0.5976
5409000000.0 -1.06 0.3508
5412000000.0 -0.3669 1.05
5416000000.0 0.5593 0.9409
5419000000.0 1.086 0.1363
5422000000.0 0.7777 -0.7797
5425000000.0 -0.1388 -1.063
5428000000.0 -0.9176 -0.5737
5431000000.0 -1.012 0.375
5434000000.0 -0.317 0.9925
5438000000.0 0.6461 0.8433
5441000000.0 1.044 0.01693
5444000000.0 0.6206 -0.773
5447000000.0 -0.2014 -0.961
5450000000.0 -0.8869 -0.4109
5453000000.0 -0.8733 0.4563
5456000000.0 -0.1473 0.8854
5459000000.0 0.6185 0.6382
5462000000.0 0.885 -0.06942
5466000000.0 0.4874 -0.752
5469000000.0 -0.2778 -0.8446
5472000000.0 -0.8062 -0.2876
5475000000.0 -0.7484 0.464
5478000000.0 -0.03243 0.8452
5481000000.0 0.6298 0.6027
5484000000.0 0.8701 -0.1152
5488000000.0 0.4517 -0.7097
5491000000.0 -0.2919 -0.781
5494000000.0 -0.8226 -0.2756
5497000000.0 -0.7219 0.4792
5500000000.0 -0.07497 0.8823
5503000000.0 0.6467 0.6085
5506000000.0 0.8619 -0.133
5509000000.0 0.4442 -0.7906
5512000000.0 -0.2854 -0.8264
5516000000.0 -0.858 -0.2717
5519000000.0 -0.7621 0.4518
5522000000.0 -0.1224 0.8811
5525000000.0 0.6228 0.6634
5528000000.0 0.906 -0.06064
5531000000.0 0.5292 -0.7443
5534000000.0 -0.2275 -0.9253
5538000000.0 -0.8296 -0.3924
5541000000.0 -0.8875 0.3953
5544000000.0 -0.2518 0.9297
5547000000.0 0.5622 0.8367
5550000000.0 1.008 0.1046
5553000000.0 0.7309 -0.7129
5556000000.0 -0.1368 -0.9941
5559000000.0 -0.8485 -0.5779
5562000000.0 -0.968 0.2895
5566000000.0 -0.418 0.9493
5569000000.0 0.4535 0.9397
5572000000.0 1.028 0.2388
5575000000.0 0.8412 -0.6424
5578000000.0 0.06162 -1.046
5581000000.0 -0.7316 -0.6985
5584000000.0 -1.036 0.1576
5588000000.0 -0.5549 0.8964
5591000000.0 0.357 0.9864
5594000000.0 1.012 0.3842
5597000000.0 0.8919 -0.4864
5600000000.0 0.1883 -1.041
5603000000.0 -0.6667 -0.7907
5606000000.0 -1.025 -0.01125
5609000000.0 -0.6494 0.7933
5612000000.0 0.1705 0.9932
5616000000.0 0.8823 0.4844
5619000000.0 0.9149 -0.3961
5622000000.0 0.2535 -0.9828
5625000000.0 -0.5522 -0.8367
5628000000.0 -1.006 -0.09282
5631000000.0 -0.6953 0.7085
5634000000.0 0.1055 0.9519
5638000000.0 0.7988 0.5306
5641000000.0 0.893 -0.3121
5644000000.0 0.3312 -0.8888
5647000000.0 -0.4656 -0.8072
5650000000.0 -0.9147 -0.1217
5653000000.0 -0.6578 0.631
5656000000.0 0.09127 0.902
5659000000.0 0.7602 0.5149
5662000000.0 0.8459 -0.269
5666000000.0 0.3043 -0.8441
5669000000.0 -0.4688 -0.8064
5672000000.0 -0.8857 -0.1136
5675000000.0 -0.6169 0.6269
5678000000.0 0.1154 0.8781
5681000000.0 0.7629 0.468
5684000000.0 0.824 -0.3327
5688000000.0 0.2738 -0.8623
5691000000.0 -0.5121 -0.7497
5694000000.0 -0.8916 -0.06198
5697000000.0 -0.5667 0.7001
5700000000.0 0.16 0.9074
5703000000.0 0.8039 0.4084
5706000000.0 0.8744 -0.3693
5709000000.0 0.2344 -0.8787
5712000000.0 -0.5575 -0.7601
5716000000.0 -0.9626 -0.01173
5719000000.0 -0.5867 0.7462
5722000000.0 0.1753 0.928
5725000000.0 0.8611 0.4168
5728000000.0 0.9072 -0.4164
5731000000.0 0.2496 -0.9559
5734000000.0 -0.5813 -0.8207
5738000000.0 -1.003 -0.05145
5741000000.0 -0.6724 0.7245
5744000000.0 0.1507 1.015
5747000000.0 0.8981 0.5065
5750000000.0 0.9743 -0.3554
5753000000.0 0.3131 -0.975
5756000000.0 -0.5113 -0.9163
5759000000.0 -1.066 -0.1298
5762000000.0 -0.7734 0.689
5766000000.0 0.03779 1.057
5769000000.0 0.8813 0.6463
5772000000.0 1.003 -0.2425
5775000000.0 0.4837 -0.9674
5778000000.0 -0.4268 -0.9752
5781000000.0 -1.004 -0.2869
5784000000.0 -0.8697 0.6094
5788000000.0 -0.08741 1.107
5791000000.0 0.7203 0.7667
5794000000.0 1.085 -0.1226
5797000000.0 0.5968 -0.879
5800000000.0 -0.2871 -1.064
5803000000.0 -0.9858 -0.4361
5806000000.0 -0.9707 0.4766
5809000000.0 -0.2904 1.019
5812000000.0 0.6351 0.8589
5816000000.0 1.103 0.08456
5819000000.0 0.7033 -0.7627
5822000000.0 -0.1181 -1.063
5825000000.0 -0.8956 -0.5401
5828000000.0 -0.9736 0.3254
5831000000.0 -0.4124 0.966
5834000000.0 0.5208 0.91
5838000000.0 1.01 0.1898
5841000000.0 0.8284 -0.6694
5844000000.0 0.003102 -1.035
5847000000.0 -0.8217 -0.6379
5850000000.0 -0.9736 0.2088
5853000000.0 -0.4308 0.9226
5856000000.0 0.4154 0.9412
5859000000.0 0.985 0.2487
5862000000.0 0.7638 -0.5957
5866000000.0 0.00814 -0.9786
5869000000.0 -0.7336 -0.6207
5872000000.0 -0.9638 0.1568
5875000000.0 -0.4487 0.8516
5878000000.0 0.3661 0.8615
5881000000.0 0.8918 0.2495
5884000000.0 0.7555 -0.4834
5888000000.0 0.05018 -0.9092
5891000000.0 -0.6491 -0.5951
5894000000.0 -0.8674 0.1511
5897000000.0 -0.4611 0.7672
5900000000.0 0.336 0.8178
5903000000.0 0.8615 0.2608
5906000000.0 0.7322 -0.4808
5909000000.0 0.1106 -0.8817
5912000000.0 -0.6157 -0.6329
5916000000.0 -0.8808 0.1043
5919000000.0 -0.4252 0.7266
5922000000.0 0.2682 0.796
5925000000.0 0.7886 0.2656
5928000000.0 0.7248 -0.4361
5931000000.0 0.1161 -0.8364
5934000000.0 -0.5672 -0.6226
5938000000.0 -0.8688 0.06502
5941000000.0 -0.5105 0.7045
5944000000.0 0.2258 0.8334
5947000000.0 0.7829 0.3593
5950000000.0 0.7444 -0.3901
5953000000.0 0.2002 -0.8156
5956000000.0 -0.5032 -0.68
5959000000.0 -0.8912 -0.03644
5962000000.0 -0.5887 0.6581
5966000000.0 0.1165 0.8719
5969000000.0 0.7467 0.4544
5972000000.0 0.8276 -0.3023
5975000000.0 0.3209 -0.8527
5978000000.0 -0.4454 -0.7754
5981000000.0 -0.8778 -0.1801
5984000000.0 -0.7197 0.589
5988000000.0 -0.01022 0.9337
5991000000.0 0.6975 0.6106
5994000000.0 0.9207 -0.1697
5997000000.0 0.4848 -0.8449
6000000000.0 -0.3321 -0.8971
6003000000.0 -0.9046 -0.3087
6006000000.0 -0.8143 0.4775
6009000000.0 -0.1281 0.9522
6012000000.0 0.6642 0.722
6016000000.0 0.9653 -0.04025
6019000000.0 0.5508 -0.7632
6022000000.0 -0.2165 -0.9615
6025000000.0 -0.8957 -0.41
6028000000.0 -0.9008 0.3984
6031000000.0 -0.256 0.9507
6034000000.0 0.554 0.8187
6038000000.0 1.001 0.06334
6041000000.0 0.6902 -0.7142
6044000000.0 -0.1046 -0.9938
6047000000.0 -0.856 -0.5348
6050000000.0 -0.9453 0.2868
6053000000.0 -0.3607 0.9352
6056000000.0 0.5022 0.8566
6059000000.0 0.96 0.1794
6062000000.0 0.7167 -0.6688
6066000000.0 -0.06021 -0.9732
6069000000.0 -0.8021 -0.5572
6072000000.0 -0.9254 0.241
6075000000.0 -0.3869 0.8667
6078000000.0 0.4541 0.8317
6081000000.0 0.911 0.1829
6084000000.0 0.7197 -0.5859
6088000000.0 -0.01281 -0.9171
6091000000.0 -0.7306 -0.5707
6094000000.0 -0.8724 0.2172
6097000000.0 -0.3825 0.814
6100000000.0 0.3285 0.8031
6103000000.0 0.8726 0.2679
6106000000.0 0.7174 -0.544
6109000000.0 0.04986 -0.9014
6112000000.0 -0.6983 -0.5425
6116000000.0 -0.8771 0.1905
6119000000.0 -0.4304 0.7658
6122000000.0 0.3389 0.7913
6125000000.0 0.8451 0.2132
6128000000.0 0.6852 -0.4835
6131000000.0 0.04002 -0.8459
6134000000.0 -0.6484 -0.5731
6138000000.0 -0.8426 0.1382
6141000000.0 -0.4241 0.7138
6144000000.0 0.3311 0.8101
6147000000.0 0.8267 0.2472
6150000000.0 0.6821 -0.4687
6153000000.0 0.06991 -0.8742
6156000000.0 -0.5813 -0.6193
6159000000.0 -0.8552 0.09493
6162000000.0 -0.4586 0.7239
6166000000.0 0.2878 0.7935
6169000000.0 0.8209 0.3182
6172000000.0 0.7535 -0.4118
6175000000.0 0.1429 -0.8755
6178000000.0 -0.5521 -0.6524
6181000000.0 -0.8858 0.04701
6184000000.0 -0.5194 0.7214
6188000000.0 0.2096 0.8551
6191000000.0 0.8183 0.374
6194000000.0 0.8053 -0.3908
6197000000.0 0.2026 -0.8844
6200000000.0 -0.5482 -0.6924
6203000000.0 -0.9028 -0.03474
6206000000.0 -0.5865 0.674
6209000000.0 0.1088 0.8805
6212000000.0 0.7745 0.4346
6216000000.0 0.8309 -0.3213
6219000000.0 0.2631 -0.8424
6222000000.0 -0.4718 -0.7672
6225000000.0 -0.9041 -0.1089
6228000000.0 -0.6326 0.6098
6231000000.0 0.07552 0.9191
6234000000.0 0.7326 0.4928
6238000000.0 0.8308 -0.2294
6241000000.0 0.379 -0.7736
6244000000.0 -0.3934 -0.7785
6247000000.0 -0.8507 -0.1799
6250000000.0 -0.6728 0.5239
6253000000.0 -0.02918 0.8494
6256000000.0 0.6426 0.545
6259000000.0 0.8463 -0.1062
6262000000.0 0.4595 -0.6926
