! Created with skrf 1.8.0 (http://scikit-rf.org).
# Hz S RI R 50.0 
!freq ReS11 ImS11
4000000000.0 -0.1938 -1.496
4003000000.0 -1.254 -0.8232
4006000000.0 -1.388 0.4717
4009000000.0 -0.5327 1.426
4012000000.0 0.7802 1.264
4016000000.0 1.511 0.1715
4019000000.0 1.098 -1.088
4022000000.0 -0.1263 -1.521
4025000000.0 -1.28 -0.8772
4028000000.0 -1.56 0.4308
4031000000.0 -0.5982 1.539
4034000000.0 0.773 1.402
4038000000.0 1.618 0.2915
4041000000.0 1.193 -1.063
4044000000.0 -0.1078 -1.58
4047000000.0 -1.315 -0.9637
4050000000.0 -1.548 0.4583
4053000000.0 -0.6648 1.464
4056000000.0 0.7477 1.424
4059000000.0 1.613 0.3119
4062000000.0 1.259 -0.9552
4066000000.0 0.07947 -1.611
4069000000.0 -1.223 -1.074
4072000000.0 -1.556 0.266
4075000000.0 -0.8499 1.444
4078000000.0 0.5655 1.543
4081000000.0 1.536 0.5925
4084000000.0 1.387 -0.8679
4088000000.0 0.2582 -1.604
4091000000.0 -1.111 -1.181
4094000000.0 -1.653 0.06754
4097000000.0 -1.001 1.314
4100000000.0 0.3328 1.581
4103000000.0 1.463 0.7128
4106000000.0 1.463 -0.6
4109000000.0 0.4649 -1.509
4112000000.0 -0.835 -1.295
4116000000.0 -1.502 -0.2311
4119000000.0 -1.14 0.9835
4122000000.0 -0.009927 1.472
4125000000.0 1.156 0.971
4128000000.0 1.456 -0.24
4131000000.0 0.7992 -1.273
4134000000.0 -0.4626 -1.401
4138000000.0 -1.336 -0.6286
4141000000.0 -1.355 0.6594
4144000000.0 -0.3708 1.442
4147000000.0 0.8199 1.254
4150000000.0 1.53 0.1477
4153000000.0 1.092 -1.064
4156000000.0 -0.1036 -1.512
4159000000.0 -1.245 -0.9021
4162000000.0 -1.469 0.3798
4166000000.0 -0.6558 1.379
4169000000.0 0.5865 1.373
4172000000.0 1.44 0.421
4175000000.0 1.249 -0.8205
4178000000.0 0.1675 -1.491
4181000000.0 -1.008 -1.069
4184000000.0 -1.5 0.06711
4188000000.0 -0.8739 1.204
4191000000.0 0.3743 1.496
4194000000.0 1.379 0.6737
4197000000.0 1.445 -0.6635
4200000000.0 0.4196 -1.541
4203000000.0 -0.9532 -1.248
4206000000.0 -1.614 -0.05863
4209000000.0 -1.065 1.244
4212000000.0 0.3196 1.619
4216000000.0 1.504 0.7703
4219000000.0 1.52 -0.7417
4222000000.0 0.3499 -1.662
4225000000.0 -1.087 -1.279
4228000000.0 -1.687 0.08774
4231000000.0 -0.8951 1.412
4234000000.0 0.5245 1.573
4238000000.0 1.524 0.5256
4241000000.0 1.315 -0.9297
4244000000.0 0.1014 -1.634
4247000000.0 -1.2 -1.063
4250000000.0 -1.539 0.3072
4253000000.0 -0.6815 1.426
4256000000.0 0.6748 1.368
4259000000.0 1.503 0.3468
4262000000.0 1.181 -1.022
4266000000.0 -0.05212 -1.502
4269000000.0 -1.207 -0.8717
4272000000.0 -1.45 0.4366
4275000000.0 -0.5232 1.334
4278000000.0 0.743 1.225
4281000000.0 1.429 0.1741
4284000000.0 1.016 -0.98
4288000000.0 -0.1517 -1.36
4291000000.0 -1.12 -0.7857
4294000000.0 -1.286 0.4038
4297000000.0 -0.4544 1.249
4300000000.0 0.6209 1.157
4303000000.0 1.283 0.268
4306000000.0 1.015 -0.7969
4309000000.0 0.0439 -1.313
4312000000.0 -0.9743 -0.8398
4316000000.0 -1.273 0.1677
4319000000.0 -0.6583 1.109
4322000000.0 0.3917 1.265
4325000000.0 1.227 0.4736
4328000000.0 1.167 -0.6342
4331000000.0 0.2851 -1.313
4334000000.0 -0.8367 -1.092
4338000000.0 -1.376 -0.0745
4341000000.0 -0.9329 1.033
4344000000.0 0.1901 1.394
4347000000.0 1.23 0.7643
4350000000.0 1.367 -0.4847
4353000000.0 0.5233 -1.353
4356000000.0 -0.7022 -1.25
4359000000.0 -1.443 -0.2649
4362000000.0 -1.133 0.9389
4366000000.0 0.006499 1.488
4369000000.0 1.156 0.9664
4372000000.0 1.435 -0.2799
4375000000.0 0.7418 -1.282
4378000000.0 -0.5604 -1.403
4381000000.0 -1.455 -0.482
4384000000.0 -1.287 0.8069
4388000000.0 -0.2399 1.481
4391000000.0 1.062 1.11
4394000000.0 1.562 -0.1396
4397000000.0 0.8877 -1.321
4400000000.0 -0.4949 -1.505
4403000000.0 -1.475 -0.5656
4406000000.0 -1.33 0.8056
4409000000.0 -0.2054 1.565
4412000000.0 1.075 1.169
4416000000.0 1.561 -0.1724
4419000000.0 0.8098 -1.32
4422000000.0 -0.5296 -1.446
4425000000.0 -1.449 -0.4486
4428000000.0 -1.226 0.8113
4431000000.0 -0.1013 1.473
4434000000.0 1.053 0.9659
4438000000.0 1.398 -0.2319
4441000000.0 0.6579 -1.212
4444000000.0 -0.5522 -1.257
4447000000.0 -1.313 -0.3245
4450000000.0 -1.051 0.8221
4453000000.0 0.02583 1.328
4456000000.0 1.029 0.7912
4459000000.0 1.25 -0.3135
4462000000.0 0.5171 -1.224
4466000000.0 -0.6197 -1.077
4469000000.0 -1.246 -0.1412
4472000000.0 -0.8703 0.8838
4475000000.0 0.1107 1.185
4478000000.0 0.9909 0.6195
4481000000.0 1.098 -0.4026
4484000000.0 0.3585 -1.112
4488000000.0 -0.6401 -0.9825
4491000000.0 -1.118 -0.08682
4494000000.0 -0.7965 0.8323
4497000000.0 0.174 1.133
4500000000.0 0.9702 0.5777
4503000000.0 0.9939 -0.4155
4506000000.0 0.3151 -1.026
4509000000.0 -0.6024 -0.9448
4512000000.0 -1.123 -0.1041
4516000000.0 -0.7938 0.7852
4519000000.0 0.09247 1.113
4522000000.0 0.9479 0.6067
4525000000.0 1.098 -0.3659
4528000000.0 0.4209 -1.061
4531000000.0 -0.5427 -0.9984
4534000000.0 -1.157 -0.2259
4538000000.0 -0.8825 0.7872
4541000000.0 0.01572 1.174
4544000000.0 0.909 0.7751
4547000000.0 1.183 -0.2399
4550000000.0 0.5365 -1.055
4553000000.0 -0.4483 -1.142
4556000000.0 -1.152 -0.3921
4559000000.0 -1.063 0.6333
4562000000.0 -0.1772 1.235
4566000000.0 0.859 0.927
4569000000.0 1.259 -0.04833
4572000000.0 0.8161 -0.9901
4575000000.0 -0.2843 -1.28
4578000000.0 -1.15 -0.6119
4581000000.0 -1.22 0.4918
4584000000.0 -0.4064 1.298
4588000000.0 0.7344 1.097
4591000000.0 1.333 0.1589
4594000000.0 1.004 -0.9361
4597000000.0 -0.1149 -1.371
4600000000.0 -1.116 -0.8023
4603000000.0 -1.343 0.3373
4606000000.0 -0.5689 1.268
4609000000.0 0.6204 1.265
4612000000.0 1.35 0.3166
4616000000.0 1.116 -0.8737
4619000000.0 0.01366 -1.395
4622000000.0 -1.064 -0.9118
4625000000.0 -1.382 0.2507
4628000000.0 -0.6914 1.228
4631000000.0 0.521 1.303
4634000000.0 1.338 0.4087
4638000000.0 1.131 -0.7639
4641000000.0 0.1084 -1.362
4644000000.0 -0.984 -0.9316
4647000000.0 -1.339 0.1789
4650000000.0 -0.6795 1.152
4653000000.0 0.4708 1.255
4656000000.0 1.268 0.3884
4659000000.0 1.059 -0.6945
4662000000.0 0.1028 -1.247
4666000000.0 -0.9122 -0.8371
4669000000.0 -1.238 0.2024
4672000000.0 -0.5777 1.055
4675000000.0 0.4648 1.101
4678000000.0 1.123 0.3142
4681000000.0 0.9593 -0.6592
4684000000.0 0.08364 -1.137
4688000000.0 -0.844 -0.7505
4691000000.0 -1.095 0.2042
4694000000.0 -0.5543 0.9588
4697000000.0 0.4578 1.0
4700000000.0 1.05 0.2796
4703000000.0 0.884 -0.6511
4706000000.0 0.02689 -1.063
4709000000.0 -0.8379 -0.7089
4712000000.0 -1.074 0.2271
4716000000.0 -0.4983 0.9548
4719000000.0 0.4624 0.9482
4722000000.0 1.026 0.274
4725000000.0 0.88 -0.6581
4728000000.0 -0.005848 -1.06
4731000000.0 -0.7725 -0.7056
4734000000.0 -1.016 0.1626
4738000000.0 -0.5202 0.892
4741000000.0 0.3223 1.0
4744000000.0 1.005 0.3471
4747000000.0 0.9304 -0.5406
4750000000.0 0.1793 -1.065
4753000000.0 -0.7019 -0.8158
4756000000.0 -1.093 0.05799
4759000000.0 -0.6928 0.855
4762000000.0 0.2189 1.099
4766000000.0 0.9865 0.4923
4769000000.0 1.061 -0.4418
4772000000.0 0.3297 -1.105
4775000000.0 -0.6193 -0.9826
4778000000.0 -1.144 -0.1662
4781000000.0 -0.8706 0.779
4784000000.0 0.07991 1.197
4788000000.0 0.9536 0.732
4791000000.0 1.184 -0.2631
4794000000.0 0.5521 -1.094
4797000000.0 -0.4739 -1.162
4800000000.0 -1.179 -0.389
4803000000.0 -1.049 0.6626
4806000000.0 -0.175 1.243
4809000000.0 0.8307 0.9321
4812000000.0 1.286 -0.007103
4816000000.0 0.8075 -1.022
4819000000.0 -0.2897 -1.292
4822000000.0 -1.176 -0.638
4825000000.0 -1.261 0.4874
4828000000.0 -0.4185 1.307
4831000000.0 0.7684 1.146
4834000000.0 1.354 0.1427
4838000000.0 0.9818 -0.9748
4841000000.0 -0.1321 -1.375
4844000000.0 -1.15 -0.7751
4847000000.0 -1.351 0.395
4850000000.0 -0.5384 1.281
4853000000.0 0.661 1.205
4856000000.0 1.366 0.2678
4859000000.0 1.058 -0.8895
4862000000.0 0.001782 -1.365
4866000000.0 -1.059 -0.8499
4869000000.0 -1.291 0.2779
4872000000.0 -0.5805 1.185
4875000000.0 0.5495 1.2
4878000000.0 1.24 0.3163
4881000000.0 1.045 -0.7423
4884000000.0 0.06293 -1.238
4888000000.0 -0.9305 -0.837
4891000000.0 -1.205 0.2359
4894000000.0 -0.5787 1.05
4897000000.0 0.4218 1.094
4900000000.0 1.096 0.3198
4903000000.0 0.9262 -0.6231
4906000000.0 0.1094 -1.065
4909000000.0 -0.7982 -0.7269
4912000000.0 -1.052 0.1073
4916000000.0 -0.5436 0.8744
4919000000.0 0.3322 0.9513
4922000000.0 0.9267 0.3498
4925000000.0 0.8444 -0.4714
4928000000.0 0.1499 -0.9467
4931000000.0 -0.6244 -0.7181
4934000000.0 -0.9511 0.05365
4938000000.0 -0.5737 0.7607
4941000000.0 0.1946 0.9292
4944000000.0 0.8471 0.3846
4947000000.0 0.8764 -0.3937
4950000000.0 0.2354 -0.9025
4953000000.0 -0.5876 -0.7771
4956000000.0 -0.978 -0.03348
4959000000.0 -0.6562 0.7234
4962000000.0 0.1364 0.9658
4966000000.0 0.8376 0.5042
4969000000.0 0.9076 -0.3579
4972000000.0 0.2896 -0.948
4975000000.0 -0.5451 -0.8759
4978000000.0 -0.983 -0.1335
4981000000.0 -0.7536 0.6897
4984000000.0 0.0724 1.045
4988000000.0 0.8684 0.6279
4991000000.0 1.03 -0.2454
4994000000.0 0.4493 -0.9398
4997000000.0 -0.4602 -1.011
5000000000.0 -1.102 -0.2878
5003000000.0 -0.9348 0.6419
5006000000.0 -0.09479 1.153
5009000000.0 0.8534 0.8391
5012000000.0 1.202 -0.1264
5016000000.0 0.6576 -1.023
5019000000.0 -0.375 -1.193
5022000000.0 -1.167 -0.4524
5025000000.0 -1.097 0.6287
5028000000.0 -0.2318 1.249
5031000000.0 0.8197 1.003
5034000000.0 1.271 -0.006631
5038000000.0 0.816 -0.9839
5041000000.0 -0.2318 -1.283
5044000000.0 -1.121 -0.6244
5047000000.0 -1.193 0.4292
5050000000.0 -0.451 1.216
5053000000.0 0.6568 1.129
5056000000.0 1.264 0.1827
5059000000.0 0.977 -0.8651
5062000000.0 -0.03526 -1.318
5066000000.0 -1.009 -0.8163
5069000000.0 -1.303 0.2656
5072000000.0 -0.6232 1.158
5075000000.0 0.4731 1.204
5078000000.0 1.178 0.3707
5081000000.0 1.055 -0.68
5084000000.0 0.1652 -1.256
5088000000.0 -0.83 -0.9236
5091000000.0 -1.228 0.0737
5094000000.0 -0.7055 0.9596
5097000000.0 0.2729 1.148
5100000000.0 1.06 0.4815
5103000000.0 1.054 -0.4686
5106000000.0 0.3527 -1.094
5109000000.0 -0.6152 -0.9075
5112000000.0 -1.097 -0.111
5116000000.0 -0.789 0.7481
5119000000.0 0.08568 1.05
5122000000.0 0.8456 0.623
5125000000.0 1.038 -0.2172
5128000000.0 0.4679 -0.9185
5131000000.0 -0.4023 -0.9301
5134000000.0 -0.9655 -0.2789
5138000000.0 -0.8059 0.561
5141000000.0 -0.05461 0.9775
5144000000.0 0.6895 0.6513
5147000000.0 0.9535 -0.1186
5150000000.0 0.506 -0.806
5153000000.0 -0.3038 -0.8865
5156000000.0 -0.8677 -0.3222
5159000000.0 -0.8124 0.4711
5162000000.0 -0.1284 0.8875
5166000000.0 0.5789 0.6844
5169000000.0 0.9042 -0.01491
5172000000.0 0.5516 -0.7449
5175000000.0 -0.2442 -0.8799
5178000000.0 -0.7999 -0.3784
5181000000.0 -0.8026 0.4303
5184000000.0 -0.1866 0.9018
5188000000.0 0.598 0.7027
5191000000.0 0.9296 -0.005491
5194000000.0 0.5865 -0.7316
5197000000.0 -0.2086 -0.9074
5200000000.0 -0.8411 -0.3942
5203000000.0 -0.8265 0.4351
5206000000.0 -0.2206 0.9624
5209000000.0 0.6246 0.7443
5212000000.0 0.947 0.008579
5216000000.0 0.6289 -0.7511
5219000000.0 -0.209 -0.942
5222000000.0 -0.8782 -0.4546
5225000000.0 -0.9056 0.3945
5228000000.0 -0.2668 0.9795
5231000000.0 0.5472 0.8082
5234000000.0 1.016 0.0541
5238000000.0 0.7351 -0.7425
5241000000.0 -0.1199 -1.06
5244000000.0 -0.8759 -0.5554
5247000000.0 -0.9925 0.3246
5250000000.0 -0.39 0.9674
5253000000.0 0.5178 0.9207
5256000000.0 1.058 0.2028
5259000000.0 0.8403 -0.6864
5262000000.0 0.01064 -1.118
5266000000.0 -0.7873 -0.7056
5269000000.0 -1.072 0.1793
5272000000.0 -0.5968 0.9454
5275000000.0 0.3517 1.042
5278000000.0 1.005 0.3753
5281000000.0 0.9678 -0.522
5284000000.0 0.2287 -1.088
5288000000.0 -0.6797 -0.867
5291000000.0 -1.089 -0.06607
5294000000.0 -0.7751 0.8158
5297000000.0 0.124 1.094
5300000000.0 0.9229 0.6266
5303000000.0 1.107 -0.3029
5306000000.0 0.4966 -1.044
5309000000.0 -0.4592 -1.02
5312000000.0 -1.121 -0.3078
5316000000.0 -0.9553 0.6457
5319000000.0 -0.1154 1.17
5322000000.0 0.8084 0.8168
5325000000.0 1.14 -0.08979
5328000000.0 0.667 -0.9366
5331000000.0 -0.293 -1.105
5334000000.0 -1.075 -0.4725
5338000000.0 -0.9931 0.462
5341000000.0 -0.279 1.104
5344000000.0 0.6448 0.909
5347000000.0 1.106 0.06405
5350000000.0 0.7471 -0.827
5353000000.0 -0.1568 -1.107
5356000000.0 -0.9444 -0.5814
5359000000.0 -1.01 0.3782
5362000000.0 -0.3559 0.9972
5366000000.0 0.5445 0.9211
5369000000.0 1.052 0.1222
5372000000.0 0.76 -0.7515
5375000000.0 -0.1051 -1.047
5378000000.0 -0.8952 -0.5852
5381000000.0 -0.9265 0.311
5384000000.0 -0.3569 0.9632
5388000000.0 0.52 0.8345
5391000000.0 0.9719 0.1115
5394000000.0 0.6965 -0.7188
5397000000.0 -0.1359 -0.9474
5400000000.0 -0.7845 -0.4755
5403000000.0 -0.8796 0.3251
5406000000.0 -0.278 0.8088
5409000000.0 0.4963 0.7448
5412000000.0 0.8839 0.07996
5416000000.0 0.6039 -0.6368
5419000000.0 -0.09544 -0.8938
5422000000.0 -0.7322 -0.4408
5425000000.0 -0.8139 0.2714
5428000000.0 -0.2753 0.7982
5431000000.0 0.5197 0.7445
5434000000.0 0.8573 0.07724
5438000000.0 0.6223 -0.6077
5441000000.0 -0.1088 -0.8902
5444000000.0 -0.7538 -0.4552
5447000000.0 -0.8292 0.2978
5450000000.0 -0.2868 0.8377
5453000000.0 0.4604 0.7625
5456000000.0 0.8954 0.08984
5459000000.0 0.6461 -0.6495
5462000000.0 -0.08214 -0.8925
5466000000.0 -0.7447 -0.5562
5469000000.0 -0.8775 0.2484
5472000000.0 -0.3787 0.8323
5475000000.0 0.4084 0.8356
5478000000.0 0.9142 0.2269
5481000000.0 0.7672 -0.5456
5484000000.0 0.04742 -0.9394
5488000000.0 -0.6967 -0.7029
5491000000.0 -0.9472 0.05641
5494000000.0 -0.5785 0.8183
5497000000.0 0.2996 0.985
5500000000.0 0.9252 0.4304
5503000000.0 0.8771 -0.46
5506000000.0 0.2332 -0.9961
5509000000.0 -0.6097 -0.812
5512000000.0 -1.03 -0.0828
5516000000.0 -0.6843 0.7383
5519000000.0 0.07614 1.031
5522000000.0 0.8482 0.5708
5525000000.0 0.9865 -0.2876
5528000000.0 0.4229 -0.9638
5531000000.0 -0.4354 -0.9566
5534000000.0 -1.015 -0.2761
5538000000.0 -0.855 0.5963
5541000000.0 -0.08176 1.083
5544000000.0 0.7656 0.7453
5547000000.0 1.077 -0.08638
5550000000.0 0.5923 -0.8801
5553000000.0 -0.2654 -1.045
5556000000.0 -0.9778 -0.4639
5559000000.0 -0.9896 0.4715
5562000000.0 -0.2865 0.9964
5566000000.0 0.6216 0.8148
5569000000.0 0.9791 0.03355
5572000000.0 0.7098 -0.7204
5575000000.0 -0.1451 -1.04
5578000000.0 -0.8322 -0.5388
5581000000.0 -0.9438 0.2799
5584000000.0 -0.3678 0.915
5588000000.0 0.4722 0.8645
5591000000.0 0.9358 0.1844
5594000000.0 0.7204 -0.6257
5597000000.0 -0.004459 -0.9619
5600000000.0 -0.7317 -0.5977
5603000000.0 -0.8713 0.1848
5606000000.0 -0.4123 0.8
5609000000.0 0.3656 0.85
5612000000.0 0.8777 0.2381
5616000000.0 0.7051 -0.499
5619000000.0 0.04167 -0.8714
5622000000.0 -0.6367 -0.5972
5625000000.0 -0.8496 0.1483
5628000000.0 -0.4233 0.7337
5631000000.0 0.2903 0.7873
5634000000.0 0.8078 0.2539
5638000000.0 0.6916 -0.4726
5641000000.0 0.09109 -0.8422
5644000000.0 -0.598 -0.6065
5647000000.0 -0.8411 0.07752
5650000000.0 -0.4533 0.7391
5653000000.0 0.2797 0.7968
5656000000.0 0.797 0.2876
5659000000.0 0.7254 -0.4674
5662000000.0 0.07717 -0.8519
5666000000.0 -0.629 -0.6027
5669000000.0 -0.8804 0.1171
5672000000.0 -0.474 0.7601
5675000000.0 0.3269 0.8427
5678000000.0 0.8536 0.309
5681000000.0 0.7941 -0.4641
5684000000.0 0.08575 -0.9177
5688000000.0 -0.6508 -0.6723
5691000000.0 -0.957 0.09338
5694000000.0 -0.5495 0.8093
5697000000.0 0.2734 0.9385
5700000000.0 0.889 0.372
5703000000.0 0.8968 -0.4948
5706000000.0 0.1849 -0.9971
5709000000.0 -0.6453 -0.7544
5712000000.0 -1.028 0.02584
5716000000.0 -0.6367 0.8136
5719000000.0 0.2413 0.9963
5722000000.0 0.9126 0.5174
5725000000.0 0.976 -0.4215
5728000000.0 0.2549 -0.9995
5731000000.0 -0.6061 -0.8768
5734000000.0 -1.09 -0.1105
5738000000.0 -0.7624 0.7363
5741000000.0 0.0989 1.121
5744000000.0 0.8771 0.6373
5747000000.0 1.063 -0.2803
5750000000.0 0.4778 -1.005
5753000000.0 -0.4741 -1.002
5756000000.0 -1.109 -0.2577
5759000000.0 -0.8772 0.5961
5762000000.0 -0.08803 1.136
5766000000.0 0.8283 0.7948
5769000000.0 1.094 -0.105
5772000000.0 0.6156 -0.8897
5775000000.0 -0.2899 -1.06
5778000000.0 -1.013 -0.4414
5781000000.0 -0.9623 0.5008
5784000000.0 -0.2312 1.056
5788000000.0 0.6506 0.8765
5791000000.0 1.116 0.03759
5794000000.0 0.7323 -0.7904
5797000000.0 -0.1444 -1.073
5800000000.0 -0.8759 -0.5765
5803000000.0 -1.019 0.3434
5806000000.0 -0.3926 0.9973
5809000000.0 0.4987 0.9384
5812000000.0 1.018 0.17
5816000000.0 0.7799 -0.6739
5819000000.0 -0.05824 -1.018
5822000000.0 -0.8067 -0.653
5825000000.0 -0.9575 0.1898
5828000000.0 -0.4552 0.8755
5831000000.0 0.375 0.926
5834000000.0 0.9472 0.3154
5838000000.0 0.8052 -0.5623
5841000000.0 0.05631 -0.9672
5844000000.0 -0.7003 -0.6835
5847000000.0 -0.945 0.09522
5850000000.0 -0.5158 0.7929
5853000000.0 0.3141 0.8642
5856000000.0 0.8846 0.3116
5859000000.0 0.7761 -0.4817
5862000000.0 0.1126 -0.9342
5866000000.0 -0.6488 -0.6594
5869000000.0 -0.895 0.08661
5872000000.0 -0.4999 0.7409
5875000000.0 0.2919 0.8376
5878000000.0 0.8332 0.3038
5881000000.0 0.756 -0.4318
5884000000.0 0.1556 -0.8434
5888000000.0 -0.6004 -0.6275
5891000000.0 -0.8791 0.04224
5894000000.0 -0.4807 0.7077
5897000000.0 0.2255 0.8484
5900000000.0 0.7809 0.3246
5903000000.0 0.792 -0.3803
5906000000.0 0.156 -0.8631
5909000000.0 -0.5331 -0.6691
5912000000.0 -0.8838 0.01615
5916000000.0 -0.5087 0.663
5919000000.0 0.1942 0.86
5922000000.0 0.7837 0.3761
5925000000.0 0.829 -0.323
5928000000.0 0.2597 -0.8511
5931000000.0 -0.5055 -0.7383
5934000000.0 -0.8606 -0.09131
5938000000.0 -0.6425 0.5996
5941000000.0 0.04459 0.89
5944000000.0 0.7364 0.5555
5947000000.0 0.8681 -0.2477
5950000000.0 0.3676 -0.8195
5953000000.0 -0.4045 -0.8005
5956000000.0 -0.8855 -0.2131
5959000000.0 -0.7489 0.5389
5962000000.0 -0.09396 0.9421
5966000000.0 0.6565 0.6759
5969000000.0 0.9341 -0.1046
5972000000.0 0.5345 -0.7969
5975000000.0 -0.2427 -0.9297
5978000000.0 -0.8923 -0.3757
5981000000.0 -0.883 0.3888
5984000000.0 -0.256 0.9547
5988000000.0 0.5855 0.7847
5991000000.0 1.012 0.06497
5994000000.0 0.682 -0.732
5997000000.0 -0.1119 -0.9953
6000000000.0 -0.8654 -0.5403
6003000000.0 -0.927 0.3137
6006000000.0 -0.3875 0.9176
6009000000.0 0.4891 0.8984
6012000000.0 0.9822 0.1781
6016000000.0 0.7719 -0.621
6019000000.0 -0.01867 -1.007
6022000000.0 -0.7668 -0.6394
6025000000.0 -0.9758 0.1944
6028000000.0 -0.4798 0.8817
6031000000.0 0.3961 0.8947
6034000000.0 0.9481 0.2933
6038000000.0 0.8096 -0.5819
6041000000.0 0.09538 -0.9505
6044000000.0 -0.7211 -0.6782
6047000000.0 -0.9435 0.1038
6050000000.0 -0.498 0.8005
6053000000.0 0.2951 0.9082
6056000000.0 0.8665 0.3208
6059000000.0 0.7915 -0.4925
6062000000.0 0.1368 -0.9105
6066000000.0 -0.6129 -0.6694
6069000000.0 -0.9006 0.06939
6072000000.0 -0.5268 0.7309
6075000000.0 0.2568 0.846
6078000000.0 0.838 0.3091
6081000000.0 0.7777 -0.4471
6084000000.0 0.1641 -0.8632
6088000000.0 -0.5549 -0.6723
6091000000.0 -0.8465 0.02888
6094000000.0 -0.4989 0.677
6097000000.0 0.1877 0.822
6100000000.0 0.78 0.3692
6103000000.0 0.7835 -0.3591
6106000000.0 0.1859 -0.84
6109000000.0 -0.4976 -0.6811
6112000000.0 -0.8443 -0.03398
6116000000.0 -0.5518 0.6461
6119000000.0 0.1811 0.8234
6122000000.0 0.7642 0.4133
6125000000.0 0.7888 -0.3202
6128000000.0 0.2621 -0.8294
6131000000.0 -0.5136 -0.7041
6134000000.0 -0.8488 -0.06457
6138000000.0 -0.6242 0.6381
6141000000.0 0.1291 0.8877
6144000000.0 0.7435 0.4762
6147000000.0 0.8345 -0.2842
6150000000.0 0.2898 -0.8147
6153000000.0 -0.4786 -0.7964
6156000000.0 -0.8649 -0.1554
6159000000.0 -0.6489 0.628
6162000000.0 0.02384 0.9018
6166000000.0 0.7107 0.5728
6169000000.0 0.8818 -0.2622
6172000000.0 0.376 -0.8053
6175000000.0 -0.3835 -0.8575
6178000000.0 -0.8725 -0.1965
6181000000.0 -0.7367 0.5458
6184000000.0 -0.01379 0.9687
6188000000.0 0.7096 0.6308
6191000000.0 0.9222 -0.1719
6194000000.0 0.444 -0.8342
6197000000.0 -0.3359 -0.8753
6200000000.0 -0.884 -0.2941
6203000000.0 -0.8002 0.4976
6206000000.0 -0.119 0.9152
6209000000.0 0.6296 0.6882
6212000000.0 0.921 -0.05295
6216000000.0 0.5778 -0.7655
6219000000.0 -0.2444 -0.8928
6222000000.0 -0.801 -0.3851
6225000000.0 -0.84 0.4144
6228000000.0 -0.2232 0.8741
6231000000.0 0.5161 0.7667
6234000000.0 0.9119 0.07517
6238000000.0 0.6054 -0.6387
6241000000.0 -0.1035 -0.8802
6244000000.0 -0.7194 -0.4486
6247000000.0 -0.8328 0.2729
6250000000.0 -0.3381 0.7754
6253000000.0 0.4257 0.7699
6256000000.0 0.7851 0.193
6259000000.0 0.6535 -0.4948
6262000000.0 0.04407 -0.8336
6266000000.0 -0.5856 -0.5569
6269000000.0 -0.8067 0.0789
