! Created with skrf 1.8.0 (http://scikit-rf.org).
# Hz S RI R 50.0 
!freq ReS11 ImS11
4000000000.0 -0.1418 -1.489
4003000000.0 -1.283 -0.8208
4006000000.0 -1.383 0.4499
4009000000.0 -0.5405 1.42
4012000000.0 0.7761 1.276
4016000000.0 1.529 0.2251
4019000000.0 1.145 -0.9819
4022000000.0 -0.1462 -1.549
4025000000.0 -1.306 -0.922
4028000000.0 -1.515 0.4707
4031000000.0 -0.5918 1.46
4034000000.0 0.7935 1.407
4038000000.0 1.593 0.2746
4041000000.0 1.192 -1.07
4044000000.0 -0.04741 -1.617
4047000000.0 -1.353 -0.9027
4050000000.0 -1.547 0.4455
4053000000.0 -0.6237 1.482
4056000000.0 0.7418 1.416
4059000000.0 1.586 0.343
4062000000.0 1.236 -0.9562
4066000000.0 0.03046 -1.566
4069000000.0 -1.221 -1.064
4072000000.0 -1.623 0.2876
4075000000.0 -0.8173 1.436
4078000000.0 0.6153 1.506
4081000000.0 1.57 0.559
4084000000.0 1.409 -0.851
4088000000.0 0.2204 -1.63
4091000000.0 -1.088 -1.206
4094000000.0 -1.643 0.09004
4097000000.0 -0.9975 1.291
4100000000.0 0.3775 1.62
4103000000.0 1.414 0.7183
4106000000.0 1.431 -0.6392
4109000000.0 0.4549 -1.52
4112000000.0 -0.8477 -1.281
4116000000.0 -1.525 -0.1984
4119000000.0 -1.104 0.9622
4122000000.0 0.004673 1.457
4125000000.0 1.138 0.9529
4128000000.0 1.466 -0.2009
4131000000.0 0.7881 -1.235
4134000000.0 -0.417 -1.413
4138000000.0 -1.339 -0.6288
4141000000.0 -1.363 0.6785
4144000000.0 -0.3817 1.47
4147000000.0 0.8366 1.249
4150000000.0 1.506 0.1295
4153000000.0 1.075 -1.072
4156000000.0 -0.1282 -1.538
4159000000.0 -1.208 -0.9023
4162000000.0 -1.446 0.3617
4166000000.0 -0.6455 1.367
4169000000.0 0.6099 1.384
4172000000.0 1.435 0.3704
4175000000.0 1.245 -0.8299
4178000000.0 0.1814 -1.481
4181000000.0 -1.027 -1.096
4184000000.0 -1.502 0.09042
4188000000.0 -0.9078 1.185
4191000000.0 0.3711 1.484
4194000000.0 1.386 0.6592
4197000000.0 1.371 -0.6822
4200000000.0 0.3869 -1.553
4203000000.0 -0.9603 -1.265
4206000000.0 -1.591 -0.08706
4209000000.0 -1.07 1.248
4212000000.0 0.2998 1.603
4216000000.0 1.476 0.7401
4219000000.0 1.497 -0.7222
4222000000.0 0.3491 -1.623
4225000000.0 -1.1 -1.263
4228000000.0 -1.632 0.09359
4231000000.0 -0.9425 1.388
4234000000.0 0.5192 1.6
4238000000.0 1.553 0.5401
4241000000.0 1.345 -0.9347
4244000000.0 0.1129 -1.587
4247000000.0 -1.206 -1.052
4250000000.0 -1.551 0.3396
4253000000.0 -0.7042 1.426
4256000000.0 0.6596 1.399
4259000000.0 1.499 0.3042
4262000000.0 1.163 -1.002
4266000000.0 -0.06383 -1.511
4269000000.0 -1.191 -0.8788
4272000000.0 -1.391 0.4
4275000000.0 -0.5484 1.405
4278000000.0 0.7248 1.239
4281000000.0 1.438 0.1955
4284000000.0 0.9985 -0.9931
4288000000.0 -0.1641 -1.383
4291000000.0 -1.133 -0.7313
4294000000.0 -1.312 0.4119
4297000000.0 -0.4913 1.221
4300000000.0 0.6398 1.15
4303000000.0 1.298 0.258
4306000000.0 0.9832 -0.8317
4309000000.0 0.02195 -1.281
4312000000.0 -0.9688 -0.8395
4316000000.0 -1.265 0.2086
4319000000.0 -0.713 1.078
4322000000.0 0.4308 1.218
4325000000.0 1.239 0.4923
4328000000.0 1.165 -0.6393
4331000000.0 0.2574 -1.285
4334000000.0 -0.8292 -1.052
4338000000.0 -1.354 -0.08037
4341000000.0 -0.9356 1.074
4344000000.0 0.1974 1.385
4347000000.0 1.211 0.7128
4350000000.0 1.345 -0.4574
4353000000.0 0.5012 -1.375
4356000000.0 -0.7039 -1.266
4359000000.0 -1.418 -0.2707
4362000000.0 -1.095 0.9124
4366000000.0 0.005506 1.454
4369000000.0 1.134 0.9503
4372000000.0 1.416 -0.2658
4375000000.0 0.6954 -1.271
4378000000.0 -0.5448 -1.385
4381000000.0 -1.41 -0.4937
4384000000.0 -1.313 0.8036
4388000000.0 -0.2054 1.523
4391000000.0 1.087 1.107
4394000000.0 1.584 -0.1437
4397000000.0 0.8837 -1.287
4400000000.0 -0.5118 -1.503
4403000000.0 -1.494 -0.5702
4406000000.0 -1.358 0.8079
4409000000.0 -0.1955 1.542
4412000000.0 1.111 1.133
4416000000.0 1.53 -0.171
4419000000.0 0.8005 -1.327
4422000000.0 -0.5318 -1.433
4425000000.0 -1.412 -0.4727
4428000000.0 -1.246 0.8216
4431000000.0 -0.1137 1.476
4434000000.0 1.015 0.954
4438000000.0 1.388 -0.2327
4441000000.0 0.6559 -1.213
4444000000.0 -0.5572 -1.262
4447000000.0 -1.341 -0.3184
4450000000.0 -1.074 0.8397
4453000000.0 0.03067 1.335
4456000000.0 1.047 0.779
4459000000.0 1.235 -0.3384
4462000000.0 0.4844 -1.16
4466000000.0 -0.6344 -1.071
4469000000.0 -1.23 -0.1253
4472000000.0 -0.856 0.8343
4475000000.0 0.1457 1.183
4478000000.0 1.003 0.6211
4481000000.0 1.054 -0.3863
4484000000.0 0.3165 -1.117
4488000000.0 -0.6568 -0.939
4491000000.0 -1.151 -0.08657
4494000000.0 -0.755 0.8466
4497000000.0 0.154 1.13
4500000000.0 0.9616 0.5821
4503000000.0 1.018 -0.3955
4506000000.0 0.3493 -1.015
4509000000.0 -0.577 -0.8972
4512000000.0 -1.093 -0.1267
4516000000.0 -0.7742 0.7786
4519000000.0 0.1146 1.093
4522000000.0 0.9692 0.6143
4525000000.0 1.084 -0.3565
4528000000.0 0.4085 -1.082
4531000000.0 -0.569 -0.9898
4534000000.0 -1.152 -0.189
4538000000.0 -0.8674 0.7528
4541000000.0 0.006727 1.157
4544000000.0 0.9157 0.7533
4547000000.0 1.162 -0.2174
4550000000.0 0.5859 -1.058
4553000000.0 -0.4443 -1.134
4556000000.0 -1.147 -0.3668
4559000000.0 -1.019 0.6562
4562000000.0 -0.1657 1.229
4566000000.0 0.8305 0.9562
4569000000.0 1.251 -0.0161
4572000000.0 0.7913 -0.9956
4575000000.0 -0.2576 -1.251
4578000000.0 -1.153 -0.6066
4581000000.0 -1.212 0.5129
4584000000.0 -0.3845 1.26
4588000000.0 0.7187 1.115
4591000000.0 1.344 0.1586
4594000000.0 0.9749 -0.9513
4597000000.0 -0.06393 -1.367
4600000000.0 -1.136 -0.8099
4603000000.0 -1.329 0.3728
4606000000.0 -0.5764 1.256
4609000000.0 0.5998 1.231
4612000000.0 1.384 0.3026
4616000000.0 1.11 -0.8484
4619000000.0 0.06323 -1.392
4622000000.0 -1.017 -0.8964
4625000000.0 -1.357 0.2329
4628000000.0 -0.6672 1.223
4631000000.0 0.5052 1.255
4634000000.0 1.298 0.4155
4638000000.0 1.136 -0.7831
4641000000.0 0.1217 -1.327
4644000000.0 -0.985 -0.9309
4647000000.0 -1.292 0.18
4650000000.0 -0.6724 1.135
4653000000.0 0.4858 1.212
4656000000.0 1.257 0.3559
4659000000.0 1.052 -0.7404
4662000000.0 0.07897 -1.274
4666000000.0 -0.9081 -0.8087
4669000000.0 -1.204 0.1898
4672000000.0 -0.5739 1.057
4675000000.0 0.4431 1.073
4678000000.0 1.112 0.3305
4681000000.0 0.9061 -0.676
4684000000.0 0.06835 -1.148
4688000000.0 -0.8627 -0.7248
4691000000.0 -1.102 0.1768
4694000000.0 -0.5243 0.9744
4697000000.0 0.4255 1.013
4700000000.0 1.046 0.3177
4703000000.0 0.8737 -0.6129
4706000000.0 0.03361 -1.099
4709000000.0 -0.8174 -0.7011
4712000000.0 -1.042 0.1991
4716000000.0 -0.4793 0.9401
4719000000.0 0.4428 0.9601
4722000000.0 0.9885 0.278
4725000000.0 0.8576 -0.6432
4728000000.0 0.04042 -1.049
4731000000.0 -0.8109 -0.7011
4734000000.0 -1.035 0.1721
4738000000.0 -0.511 0.8744
4741000000.0 0.3817 0.9643
4744000000.0 0.9992 0.344
4747000000.0 0.897 -0.5542
4750000000.0 0.1501 -1.048
4753000000.0 -0.697 -0.8121
4756000000.0 -1.079 0.02968
4759000000.0 -0.6488 0.8443
4762000000.0 0.2342 1.085
4766000000.0 0.9783 0.5187
4769000000.0 1.035 -0.4381
4772000000.0 0.329 -1.114
4775000000.0 -0.6029 -0.9568
4778000000.0 -1.188 -0.1694
4781000000.0 -0.8598 0.7961
4784000000.0 0.06903 1.206
4788000000.0 0.9552 0.6921
4791000000.0 1.191 -0.2686
4794000000.0 0.5827 -1.085
4797000000.0 -0.4625 -1.148
4800000000.0 -1.206 -0.3914
4803000000.0 -1.02 0.6412
4806000000.0 -0.1826 1.268
4809000000.0 0.8424 0.9499
4812000000.0 1.277 -0.02187
4816000000.0 0.8118 -1.024
4819000000.0 -0.2634 -1.303
4822000000.0 -1.173 -0.62
4825000000.0 -1.243 0.5028
4828000000.0 -0.3945 1.26
4831000000.0 0.7607 1.14
4834000000.0 1.394 0.1616
4838000000.0 0.9826 -0.9827
4841000000.0 -0.1511 -1.39
4844000000.0 -1.15 -0.7556
4847000000.0 -1.36 0.3927
4850000000.0 -0.5402 1.273
4853000000.0 0.6683 1.221
4856000000.0 1.349 0.2573
4859000000.0 1.03 -0.8852
4862000000.0 -0.02017 -1.35
4866000000.0 -1.067 -0.8585
4869000000.0 -1.287 0.299
4872000000.0 -0.5839 1.19
4875000000.0 0.5294 1.207
4878000000.0 1.245 0.3588
4881000000.0 0.9986 -0.7515
4884000000.0 0.04185 -1.279
4888000000.0 -0.9047 -0.83
4891000000.0 -1.163 0.1991
4894000000.0 -0.5717 1.051
4897000000.0 0.4644 1.094
4900000000.0 1.069 0.341
4903000000.0 0.919 -0.6342
4906000000.0 0.08511 -1.073
4909000000.0 -0.7673 -0.7281
4912000000.0 -1.058 0.1273
4916000000.0 -0.5211 0.8874
4919000000.0 0.3286 0.9313
4922000000.0 0.9333 0.3345
4925000000.0 0.829 -0.5058
4928000000.0 0.1406 -0.9336
4931000000.0 -0.6446 -0.7183
4934000000.0 -0.9315 0.0402
4938000000.0 -0.57 0.766
4941000000.0 0.2168 0.918
4944000000.0 0.8474 0.4174
4947000000.0 0.8419 -0.402
4950000000.0 0.2165 -0.8891
4953000000.0 -0.5565 -0.7147
4956000000.0 -0.9451 -0.05967
4959000000.0 -0.6276 0.6967
4962000000.0 0.1415 0.9628
4966000000.0 0.8271 0.4918
4969000000.0 0.8983 -0.3665
4972000000.0 0.328 -0.9486
4975000000.0 -0.5473 -0.8425
4978000000.0 -0.9887 -0.155
4981000000.0 -0.7522 0.6757
4984000000.0 0.04643 1.021
4988000000.0 0.8678 0.6351
4991000000.0 1.04 -0.2457
4994000000.0 0.4718 -0.9489
4997000000.0 -0.4815 -1.011
5000000000.0 -1.071 -0.2817
5003000000.0 -0.944 0.6334
5006000000.0 -0.08159 1.162
5009000000.0 0.8491 0.8151
5012000000.0 1.186 -0.1613
5016000000.0 0.6524 -0.9899
5019000000.0 -0.3727 -1.157
5022000000.0 -1.153 -0.4601
5025000000.0 -1.105 0.585
5028000000.0 -0.2356 1.222
5031000000.0 0.805 0.9771
5034000000.0 1.25 0.01593
5038000000.0 0.8146 -0.9806
5041000000.0 -0.2487 -1.256
5044000000.0 -1.147 -0.6036
5047000000.0 -1.191 0.4523
5050000000.0 -0.4197 1.212
5053000000.0 0.6521 1.094
5056000000.0 1.293 0.1871
5059000000.0 0.9771 -0.8388
5062000000.0 -0.02334 -1.306
5066000000.0 -0.9802 -0.7951
5069000000.0 -1.241 0.2471
5072000000.0 -0.6245 1.146
5075000000.0 0.4755 1.188
5078000000.0 1.229 0.3648
5081000000.0 1.06 -0.6999
5084000000.0 0.1411 -1.254
5088000000.0 -0.8617 -0.8873
5091000000.0 -1.163 0.09586
5094000000.0 -0.7041 0.9436
5097000000.0 0.2817 1.083
5100000000.0 1.027 0.5124
5103000000.0 1.034 -0.4666
5106000000.0 0.3119 -1.073
5109000000.0 -0.638 -0.9005
5112000000.0 -1.048 -0.1312
5116000000.0 -0.7703 0.715
5119000000.0 0.07958 1.075
5122000000.0 0.8556 0.6462
5125000000.0 1.015 -0.2387
5128000000.0 0.4477 -0.9236
5131000000.0 -0.43 -0.9032
5134000000.0 -0.9538 -0.2137
5138000000.0 -0.7878 0.5575
5141000000.0 -0.06883 1.015
5144000000.0 0.7127 0.6524
5147000000.0 0.9536 -0.1213
5150000000.0 0.495 -0.7949
5153000000.0 -0.3258 -0.8907
5156000000.0 -0.8698 -0.3276
5159000000.0 -0.7764 0.4556
5162000000.0 -0.08791 0.9001
5166000000.0 0.5852 0.6589
5169000000.0 0.8929 -0.02507
5172000000.0 0.5474 -0.7239
5175000000.0 -0.2553 -0.8744
5178000000.0 -0.8197 -0.3725
5181000000.0 -0.7894 0.4088
5184000000.0 -0.188 0.8409
5188000000.0 0.5902 0.7083
5191000000.0 0.9162 -0.03122
5194000000.0 0.5714 -0.7473
5197000000.0 -0.2294 -0.8887
5200000000.0 -0.8403 -0.417
5203000000.0 -0.8297 0.4277
5206000000.0 -0.2094 0.9407
5209000000.0 0.5932 0.7382
5212000000.0 0.9432 0.001527
5216000000.0 0.6007 -0.7541
5219000000.0 -0.1925 -0.954
5222000000.0 -0.8915 -0.4198
5225000000.0 -0.9049 0.4109
5228000000.0 -0.298 0.9543
5231000000.0 0.5871 0.8626
5234000000.0 0.9802 0.06149
5238000000.0 0.7248 -0.7501
5241000000.0 -0.111 -1.029
5244000000.0 -0.8693 -0.5721
5247000000.0 -0.9897 0.3409
5250000000.0 -0.3792 0.9907
5253000000.0 0.5148 0.924
5256000000.0 1.047 0.1979
5259000000.0 0.8309 -0.6555
5262000000.0 0.03269 -1.068
5266000000.0 -0.8243 -0.7001
5269000000.0 -1.076 0.1682
5272000000.0 -0.5519 0.9186
5275000000.0 0.3278 1.032
5278000000.0 1.016 0.4072
5281000000.0 0.9629 -0.5194
5284000000.0 0.2338 -1.06
5288000000.0 -0.6667 -0.879
5291000000.0 -1.142 -0.05607
5294000000.0 -0.7481 0.7861
5297000000.0 0.09836 1.124
5300000000.0 0.9099 0.6519
5303000000.0 1.089 -0.3026
5306000000.0 0.4907 -1.031
5309000000.0 -0.4897 -1.04
5312000000.0 -1.05 -0.2761
5316000000.0 -0.9296 0.6478
5319000000.0 -0.09483 1.143
5322000000.0 0.8333 0.8294
5325000000.0 1.118 -0.1545
5328000000.0 0.6543 -0.9512
5331000000.0 -0.3156 -1.065
5334000000.0 -1.021 -0.4657
5338000000.0 -0.982 0.4841
5341000000.0 -0.2698 1.096
5344000000.0 0.6517 0.8743
5347000000.0 1.095 0.04776
5350000000.0 0.7521 -0.8132
5353000000.0 -0.1568 -1.067
5356000000.0 -0.9359 -0.5371
5359000000.0 -1.019 0.3508
5362000000.0 -0.3488 1.01
5366000000.0 0.5458 0.917
5369000000.0 1.065 0.1526
5372000000.0 0.7509 -0.729
5375000000.0 -0.1072 -1.036
5378000000.0 -0.9012 -0.5522
5381000000.0 -0.9829 0.3079
5384000000.0 -0.3125 0.9444
5388000000.0 0.5161 0.8262
5391000000.0 0.9682 0.1095
5394000000.0 0.632 -0.6489
5397000000.0 -0.1003 -0.931
5400000000.0 -0.7958 -0.4818
5403000000.0 -0.876 0.2952
5406000000.0 -0.3039 0.865
5409000000.0 0.4291 0.776
5412000000.0 0.8639 0.0907
5416000000.0 0.5966 -0.6346
5419000000.0 -0.1187 -0.8491
5422000000.0 -0.7244 -0.4555
5425000000.0 -0.8167 0.2982
5428000000.0 -0.2702 0.7928
5431000000.0 0.4876 0.733
5434000000.0 0.8519 0.05944
5438000000.0 0.6045 -0.5976
5441000000.0 -0.09349 -0.8903
5444000000.0 -0.736 -0.4514
5447000000.0 -0.8122 0.3452
5450000000.0 -0.3163 0.8368
5453000000.0 0.4968 0.7287
5456000000.0 0.8587 0.1043
5459000000.0 0.6395 -0.6332
5462000000.0 -0.04601 -0.859
5466000000.0 -0.7098 -0.4759
5469000000.0 -0.8839 0.2333
5472000000.0 -0.3767 0.8179
5475000000.0 0.4043 0.8321
5478000000.0 0.884 0.2105
5481000000.0 0.7384 -0.5496
5484000000.0 0.1024 -0.9148
5488000000.0 -0.7039 -0.656
5491000000.0 -0.9736 0.1221
5494000000.0 -0.5628 0.811
5497000000.0 0.2599 0.9415
5500000000.0 0.9166 0.3893
5503000000.0 0.9251 -0.435
5506000000.0 0.2636 -1.009
5509000000.0 -0.5812 -0.8589
5512000000.0 -1.012 -0.06924
5516000000.0 -0.7125 0.7535
5519000000.0 0.1016 1.036
5522000000.0 0.818 0.5602
5525000000.0 1.014 -0.2492
5528000000.0 0.4353 -0.935
5531000000.0 -0.4586 -0.9694
5534000000.0 -1.0 -0.2765
5538000000.0 -0.8564 0.6037
5541000000.0 -0.09939 1.053
5544000000.0 0.7643 0.7291
5547000000.0 1.082 -0.08241
5550000000.0 0.6175 -0.8499
5553000000.0 -0.2599 -1.049
5556000000.0 -0.9689 -0.4534
5559000000.0 -0.92 0.4741
5562000000.0 -0.2539 1.025
5566000000.0 0.6151 0.8218
5569000000.0 1.017 0.04
5572000000.0 0.6873 -0.7336
5575000000.0 -0.1439 -1.01
5578000000.0 -0.8356 -0.5179
5581000000.0 -0.9305 0.3072
5584000000.0 -0.3606 0.9125
5588000000.0 0.4528 0.8651
5591000000.0 0.9234 0.1609
5594000000.0 0.7017 -0.5929
5597000000.0 -0.002425 -0.9482
5600000000.0 -0.6984 -0.5715
5603000000.0 -0.9259 0.1817
5606000000.0 -0.4328 0.8091
5609000000.0 0.366 0.7965
5612000000.0 0.8634 0.2346
5616000000.0 0.6956 -0.5367
5619000000.0 0.0686 -0.8532
5622000000.0 -0.6363 -0.5762
5625000000.0 -0.8476 0.08918
5628000000.0 -0.4333 0.7442
5631000000.0 0.295 0.7854
5634000000.0 0.8169 0.2813
5638000000.0 0.6866 -0.4532
5641000000.0 0.08538 -0.8509
5644000000.0 -0.6008 -0.589
5647000000.0 -0.8389 0.1146
5650000000.0 -0.4056 0.7168
5653000000.0 0.2743 0.7703
5656000000.0 0.8024 0.257
5659000000.0 0.701 -0.4532
5662000000.0 0.07436 -0.8751
5666000000.0 -0.629 -0.5876
5669000000.0 -0.8518 0.1065
5672000000.0 -0.4586 0.7741
5675000000.0 0.3015 0.853
5678000000.0 0.8621 0.2939
5681000000.0 0.7969 -0.4847
5684000000.0 0.09718 -0.9016
5688000000.0 -0.6717 -0.6606
5691000000.0 -0.9516 0.09057
5694000000.0 -0.5476 0.7968
5697000000.0 0.3035 0.9409
5700000000.0 0.9063 0.3594
5703000000.0 0.8739 -0.4889
5706000000.0 0.1454 -0.9679
5709000000.0 -0.6874 -0.761
5712000000.0 -1.002 0.02368
5716000000.0 -0.6559 0.8167
5719000000.0 0.2444 1.005
5722000000.0 0.9179 0.4851
5725000000.0 0.9602 -0.424
5728000000.0 0.2898 -1.037
5731000000.0 -0.6066 -0.9172
5734000000.0 -1.06 -0.08152
5738000000.0 -0.785 0.7337
5741000000.0 0.1089 1.075
5744000000.0 0.888 0.6349
5747000000.0 1.073 -0.278
5750000000.0 0.455 -1.01
5753000000.0 -0.4793 -0.9907
5756000000.0 -1.048 -0.2591
5759000000.0 -0.8877 0.6455
5762000000.0 -0.058 1.13
5766000000.0 0.8042 0.7543
5769000000.0 1.089 -0.1021
5772000000.0 0.6469 -0.9205
5775000000.0 -0.3252 -1.073
5778000000.0 -0.9633 -0.4045
5781000000.0 -0.9597 0.4667
5784000000.0 -0.2457 1.056
5788000000.0 0.6715 0.8618
5791000000.0 1.093 0.08343
5794000000.0 0.7398 -0.7547
5797000000.0 -0.1579 -1.1
5800000000.0 -0.8812 -0.5622
5803000000.0 -1.003 0.285
5806000000.0 -0.3875 0.9633
5809000000.0 0.5264 0.8997
5812000000.0 1.024 0.1825
5816000000.0 0.7569 -0.6612
5819000000.0 -0.002706 -1.023
5822000000.0 -0.8157 -0.6274
5825000000.0 -0.9539 0.229
5828000000.0 -0.4851 0.8993
5831000000.0 0.3814 0.9117
5834000000.0 0.9292 0.223
5838000000.0 0.8015 -0.5286
5841000000.0 0.07118 -0.9663
5844000000.0 -0.6718 -0.6847
5847000000.0 -0.9214 0.145
5850000000.0 -0.5212 0.8251
5853000000.0 0.3245 0.8791
5856000000.0 0.8952 0.2948
5859000000.0 0.7798 -0.507
5862000000.0 0.06437 -0.8987
5866000000.0 -0.6633 -0.6578
5869000000.0 -0.9081 0.08309
5872000000.0 -0.4871 0.746
5875000000.0 0.2961 0.8135
5878000000.0 0.8381 0.2815
5881000000.0 0.7372 -0.45
5884000000.0 0.1184 -0.8875
5888000000.0 -0.5851 -0.6082
5891000000.0 -0.8483 0.05271
5894000000.0 -0.4969 0.6683
5897000000.0 0.2329 0.8341
5900000000.0 0.795 0.3526
5903000000.0 0.7422 -0.3939
5906000000.0 0.1834 -0.8389
5909000000.0 -0.5569 -0.6379
5912000000.0 -0.8916 -0.008354
5916000000.0 -0.5539 0.6751
5919000000.0 0.1496 0.8559
5922000000.0 0.7676 0.404
5925000000.0 0.7754 -0.3549
5928000000.0 0.2495 -0.8219
5931000000.0 -0.4823 -0.7156
5934000000.0 -0.8647 -0.09222
5938000000.0 -0.6214 0.6288
5941000000.0 0.08426 0.8836
5944000000.0 0.7187 0.5196
5947000000.0 0.8846 -0.208
5950000000.0 0.3448 -0.8324
5953000000.0 -0.3729 -0.7947
5956000000.0 -0.9006 -0.1951
5959000000.0 -0.7657 0.5418
5962000000.0 -0.04674 0.9355
5966000000.0 0.6962 0.638
5969000000.0 0.95 -0.1087
5972000000.0 0.538 -0.7887
5975000000.0 -0.2327 -0.9396
5978000000.0 -0.8746 -0.392
5981000000.0 -0.8758 0.429
5984000000.0 -0.2308 0.9245
5988000000.0 0.5781 0.8156
5991000000.0 0.9775 0.07886
5994000000.0 0.6881 -0.7188
5997000000.0 -0.1378 -0.9832
6000000000.0 -0.8535 -0.5113
6003000000.0 -0.9365 0.3161
6006000000.0 -0.3649 0.9002
6009000000.0 0.4852 0.8679
6012000000.0 0.9666 0.1856
6016000000.0 0.7243 -0.6521
6019000000.0 -0.03745 -1.001
6022000000.0 -0.7572 -0.6354
6025000000.0 -0.9741 0.1881
6028000000.0 -0.4712 0.8895
6031000000.0 0.3736 0.8863
6034000000.0 0.9166 0.2829
6038000000.0 0.7963 -0.5504
6041000000.0 0.05641 -0.9651
6044000000.0 -0.6809 -0.6771
6047000000.0 -0.9702 0.1078
6050000000.0 -0.5043 0.8337
6053000000.0 0.3032 0.862
6056000000.0 0.8915 0.3084
6059000000.0 0.8247 -0.4706
6062000000.0 0.09315 -0.9328
6066000000.0 -0.6527 -0.658
6069000000.0 -0.8936 0.07606
6072000000.0 -0.5056 0.7474
6075000000.0 0.2725 0.8399
6078000000.0 0.8311 0.3395
6081000000.0 0.7829 -0.4233
6084000000.0 0.1426 -0.8744
6088000000.0 -0.5691 -0.6543
6091000000.0 -0.8878 0.02427
6094000000.0 -0.5267 0.6883
6097000000.0 0.1983 0.825
6100000000.0 0.7813 0.3618
6103000000.0 0.7722 -0.365
6106000000.0 0.1926 -0.8393
6109000000.0 -0.5157 -0.6725
6112000000.0 -0.8464 -0.003424
6116000000.0 -0.5493 0.6618
6119000000.0 0.1676 0.8316
6122000000.0 0.7599 0.3906
6125000000.0 0.8011 -0.3568
6128000000.0 0.2294 -0.8311
6131000000.0 -0.4864 -0.7135
6134000000.0 -0.873 -0.07991
6138000000.0 -0.5862 0.6223
6141000000.0 0.1603 0.8815
6144000000.0 0.7702 0.4456
6147000000.0 0.7904 -0.2711
6150000000.0 0.2751 -0.8353
6153000000.0 -0.4512 -0.7499
6156000000.0 -0.9161 -0.1276
6159000000.0 -0.655 0.5928
6162000000.0 0.07661 0.8847
6166000000.0 0.7365 0.5598
6169000000.0 0.8652 -0.2568
6172000000.0 0.3889 -0.8386
6175000000.0 -0.4103 -0.8025
6178000000.0 -0.9074 -0.2029
6181000000.0 -0.7351 0.5714
6184000000.0 -0.001311 0.9274
6188000000.0 0.7127 0.5853
6191000000.0 0.9139 -0.1732
6194000000.0 0.4319 -0.8118
6197000000.0 -0.3521 -0.8651
6200000000.0 -0.8804 -0.3095
6203000000.0 -0.8071 0.5094
6206000000.0 -0.1167 0.9391
6209000000.0 0.6308 0.6547
6212000000.0 0.9063 -0.03927
6216000000.0 0.5431 -0.7296
6219000000.0 -0.2418 -0.8992
6222000000.0 -0.8175 -0.3967
6225000000.0 -0.7996 0.3997
6228000000.0 -0.1955 0.8642
6231000000.0 0.5091 0.7305
6234000000.0 0.8629 0.04442
6238000000.0 0.5941 -0.6261
6241000000.0 -0.09936 -0.8635
6244000000.0 -0.7176 -0.4731
6247000000.0 -0.8348 0.2634
6250000000.0 -0.3153 0.7745
6253000000.0 0.4022 0.7545
6256000000.0 0.807 0.1697
6259000000.0 0.6536 -0.505
6262000000.0 -0.008489 -0.858
6266000000.0 -0.5943 -0.5247
