! Created with skrf 1.8.0 (http://scikit-rf.org).
# Hz S RI R 50.0 
!freq ReS11 ImS11
4000000000.0 -0.2399 -1.483
4003000000.0 -1.299 -0.6875
4006000000.0 -1.406 0.5522
4009000000.0 -0.4312 1.41
4012000000.0 0.884 1.22
4016000000.0 1.568 0.1322
4019000000.0 1.079 -1.082
4022000000.0 -0.1976 -1.579
4025000000.0 -1.374 -0.7504
4028000000.0 -1.524 0.5783
4031000000.0 -0.4671 1.548
4034000000.0 0.9054 1.353
4038000000.0 1.613 0.1211
4041000000.0 1.143 -1.203
4044000000.0 -0.2516 -1.605
4047000000.0 -1.418 -0.8322
4050000000.0 -1.572 0.5417
4053000000.0 -0.541 1.517
4056000000.0 0.8817 1.396
4059000000.0 1.611 0.2396
4062000000.0 1.214 -1.097
4066000000.0 -0.06017 -1.655
4069000000.0 -1.305 -0.984
4072000000.0 -1.663 0.3997
4075000000.0 -0.7144 1.448
4078000000.0 0.6283 1.496
4081000000.0 1.576 0.4542
4084000000.0 1.354 -0.9678
4088000000.0 0.1218 -1.635
4091000000.0 -1.172 -1.191
4094000000.0 -1.616 0.1981
4097000000.0 -0.8979 1.371
4100000000.0 0.4718 1.543
4103000000.0 1.492 0.6193
4106000000.0 1.414 -0.7491
4109000000.0 0.3339 -1.505
4112000000.0 -0.9156 -1.228
4116000000.0 -1.509 -0.111
4119000000.0 -1.062 1.107
4122000000.0 0.1178 1.481
4125000000.0 1.177 0.8626
4128000000.0 1.437 -0.3236
4131000000.0 0.6774 -1.326
4134000000.0 -0.5053 -1.356
4138000000.0 -1.372 -0.4921
4141000000.0 -1.309 0.737
4144000000.0 -0.2844 1.485
4147000000.0 0.9535 1.151
4150000000.0 1.496 0.04264
4153000000.0 0.9862 -1.131
4156000000.0 -0.2113 -1.483
4159000000.0 -1.31 -0.8001
4162000000.0 -1.429 0.4941
4166000000.0 -0.5543 1.428
4169000000.0 0.7101 1.33
4172000000.0 1.485 0.2738
4175000000.0 1.173 -0.9305
4178000000.0 0.0196 -1.511
4181000000.0 -1.133 -0.9782
4184000000.0 -1.493 0.2616
4188000000.0 -0.7897 1.289
4191000000.0 0.5169 1.451
4194000000.0 1.466 0.5167
4197000000.0 1.332 -0.8125
4200000000.0 0.1927 -1.559
4203000000.0 -1.115 -1.175
4206000000.0 -1.599 0.1619
4209000000.0 -0.8789 1.356
4212000000.0 0.5623 1.546
4216000000.0 1.563 0.5264
4219000000.0 1.383 -0.9183
4222000000.0 0.0808 -1.68
4225000000.0 -1.258 -1.045
4228000000.0 -1.627 0.3802
4231000000.0 -0.7055 1.487
4234000000.0 0.7857 1.447
4238000000.0 1.6 0.2238
4241000000.0 1.181 -1.111
4244000000.0 -0.1971 -1.575
4247000000.0 -1.329 -0.8161
4250000000.0 -1.47 0.5579
4253000000.0 -0.425 1.485
4256000000.0 0.8701 1.209
4259000000.0 1.49 0.04918
4262000000.0 0.9108 -1.129
4266000000.0 -0.312 -1.449
4269000000.0 -1.378 -0.6261
4272000000.0 -1.33 0.6591
4275000000.0 -0.2901 1.409
4278000000.0 0.9394 1.074
4281000000.0 1.424 -0.05207
4284000000.0 0.8381 -1.149
4288000000.0 -0.3528 -1.335
4291000000.0 -1.253 -0.5458
4294000000.0 -1.229 0.6362
4297000000.0 -0.3073 1.298
4300000000.0 0.8038 1.028
4303000000.0 1.279 0.03765
4306000000.0 0.8834 -0.9588
4309000000.0 -0.169 -1.303
4312000000.0 -1.065 -0.6991
4316000000.0 -1.246 0.3841
4319000000.0 -0.5171 1.223
4322000000.0 0.5481 1.175
4325000000.0 1.285 0.3237
4328000000.0 1.084 -0.769
4331000000.0 0.07037 -1.383
4334000000.0 -1.006 -0.9823
4338000000.0 -1.39 0.1803
4341000000.0 -0.77 1.165
4344000000.0 0.3859 1.377
4347000000.0 1.328 0.5481
4350000000.0 1.257 -0.6756
4353000000.0 0.2917 -1.412
4356000000.0 -0.921 -1.154
4359000000.0 -1.501 -0.02746
4362000000.0 -0.9699 1.114
4366000000.0 0.2488 1.442
4369000000.0 1.294 0.719
4372000000.0 1.409 -0.5053
4375000000.0 0.4966 -1.421
4378000000.0 -0.8121 -1.283
4381000000.0 -1.521 -0.1863
4384000000.0 -1.114 1.056
4388000000.0 0.1371 1.551
4391000000.0 1.255 0.8929
4394000000.0 1.499 -0.4727
4397000000.0 0.5877 -1.469
4400000000.0 -0.798 -1.363
4403000000.0 -1.583 -0.2513
4406000000.0 -1.128 1.097
4409000000.0 0.1874 1.553
4412000000.0 1.316 0.7923
4416000000.0 1.449 -0.5064
4419000000.0 0.4835 -1.398
4422000000.0 -0.865 -1.215
4425000000.0 -1.462 -0.0941
4428000000.0 -0.9626 1.088
4431000000.0 0.255 1.426
4434000000.0 1.247 0.6186
4438000000.0 1.226 -0.5886
4441000000.0 0.2644 -1.329
4444000000.0 -0.8488 -1.076
4447000000.0 -1.304 0.05051
4450000000.0 -0.7556 1.026
4453000000.0 0.3834 1.213
4456000000.0 1.193 0.4463
4459000000.0 1.087 -0.6639
4462000000.0 0.1639 -1.237
4466000000.0 -0.8477 -0.8192
4469000000.0 -1.199 0.1924
4472000000.0 -0.5696 1.043
4475000000.0 0.4256 1.105
4478000000.0 1.132 0.3145
4481000000.0 0.9301 -0.6816
4484000000.0 0.05515 -1.153
4488000000.0 -0.8728 -0.7846
4491000000.0 -1.113 0.1994
4494000000.0 -0.5195 0.9855
4497000000.0 0.4279 1.056
4500000000.0 1.103 0.3338
4503000000.0 0.908 -0.6262
4506000000.0 0.07336 -1.108
4509000000.0 -0.8203 -0.7469
4512000000.0 -1.137 0.1203
4516000000.0 -0.5751 0.9561
4519000000.0 0.3567 1.107
4522000000.0 1.084 0.4546
4525000000.0 1.013 -0.5845
4528000000.0 0.207 -1.153
4531000000.0 -0.8012 -0.8879
4534000000.0 -1.196 0.06861
4538000000.0 -0.7266 0.966
4541000000.0 0.269 1.171
4544000000.0 1.099 0.5998
4547000000.0 1.134 -0.4989
4550000000.0 0.3476 -1.19
4553000000.0 -0.682 -1.058
4556000000.0 -1.25 -0.1305
4559000000.0 -0.9338 0.8873
4562000000.0 0.06663 1.261
4566000000.0 1.033 0.7833
4569000000.0 1.296 -0.2828
4572000000.0 0.5812 -1.181
4575000000.0 -0.529 -1.205
4578000000.0 -1.29 -0.3566
4581000000.0 -1.129 0.7277
4584000000.0 -0.1389 1.35
4588000000.0 0.9609 0.9913
4591000000.0 1.39 -0.1465
4594000000.0 0.7922 -1.149
4597000000.0 -0.3916 -1.376
4600000000.0 -1.317 -0.5389
4603000000.0 -1.261 0.6704
4606000000.0 -0.2642 1.361
4609000000.0 0.9187 1.1
4612000000.0 1.426 -0.0007381
4616000000.0 0.8516 -1.113
4619000000.0 -0.2827 -1.363
4622000000.0 -1.257 -0.6408
4625000000.0 -1.283 0.5771
4628000000.0 -0.3819 1.319
4631000000.0 0.8243 1.107
4634000000.0 1.347 0.05195
4638000000.0 0.9019 -0.9664
4641000000.0 -0.2149 -1.335
4644000000.0 -1.198 -0.6488
4647000000.0 -1.207 0.5081
4650000000.0 -0.3531 1.262
4653000000.0 0.7554 1.062
4656000000.0 1.27 0.05857
4659000000.0 0.8101 -0.9561
4662000000.0 -0.251 -1.22
4666000000.0 -1.084 -0.5472
4669000000.0 -1.087 0.5135
4672000000.0 -0.2748 1.144
4675000000.0 0.7122 0.922
4678000000.0 1.135 0.03331
4681000000.0 0.7052 -0.8831
4684000000.0 -0.2273 -1.065
4688000000.0 -1.005 -0.4876
4691000000.0 -1.0 0.4367
4694000000.0 -0.2777 1.048
4697000000.0 0.6584 0.8813
4700000000.0 1.09 0.01084
4703000000.0 0.6922 -0.8272
4706000000.0 -0.2269 -1.046
4709000000.0 -0.9496 -0.4877
4712000000.0 -0.944 0.4501
4716000000.0 -0.2569 1.071
4719000000.0 0.6584 0.8793
4722000000.0 1.081 0.007217
4725000000.0 0.6715 -0.8163
4728000000.0 -0.2007 -1.071
4731000000.0 -0.9361 -0.4935
4734000000.0 -0.9933 0.4046
4738000000.0 -0.3141 1.022
4741000000.0 0.5882 0.8924
4744000000.0 1.062 0.1255
4747000000.0 0.8087 -0.7436
4750000000.0 -0.03841 -1.091
4753000000.0 -0.9032 -0.6727
4756000000.0 -1.087 0.2793
4759000000.0 -0.5126 1.015
4762000000.0 0.4431 1.059
4766000000.0 1.131 0.3188
4769000000.0 0.9762 -0.6349
4772000000.0 0.107 -1.21
4775000000.0 -0.8189 -0.873
4778000000.0 -1.224 0.09342
4781000000.0 -0.7353 0.9933
4784000000.0 0.301 1.21
4788000000.0 1.098 0.5409
4791000000.0 1.168 -0.5
4794000000.0 0.3671 -1.215
4797000000.0 -0.7195 -1.106
4800000000.0 -1.285 -0.1516
4803000000.0 -0.935 0.8728
4806000000.0 0.04841 1.297
4809000000.0 1.046 0.7934
4812000000.0 1.282 -0.2766
4816000000.0 0.6074 -1.175
4819000000.0 -0.5251 -1.245
4822000000.0 -1.326 -0.3818
4825000000.0 -1.141 0.7796
4828000000.0 -0.1353 1.389
4831000000.0 0.9975 0.9963
4834000000.0 1.388 -0.1369
4838000000.0 0.7824 -1.174
4841000000.0 -0.4167 -1.356
4844000000.0 -1.325 -0.4904
4847000000.0 -1.212 0.6661
4850000000.0 -0.2676 1.357
4853000000.0 0.9026 1.052
4856000000.0 1.368 -0.05041
4859000000.0 0.8159 -1.091
4862000000.0 -0.2945 -1.271
4866000000.0 -1.194 -0.592
4869000000.0 -1.175 0.528
4872000000.0 -0.3043 1.264
4875000000.0 0.7541 0.9946
4878000000.0 1.257 0.02197
4881000000.0 0.8105 -0.9505
4884000000.0 -0.229 -1.192
4888000000.0 -1.054 -0.5887
4891000000.0 -1.073 0.4563
4894000000.0 -0.3142 1.11
4897000000.0 0.6579 0.9073
4900000000.0 1.127 0.03829
4903000000.0 0.7266 -0.8162
4906000000.0 -0.1358 -1.054
4909000000.0 -0.8894 -0.521
4912000000.0 -0.9499 0.3611
4916000000.0 -0.3311 0.9534
4919000000.0 0.5077 0.832
4922000000.0 0.9712 0.1112
4925000000.0 0.6783 -0.6573
4928000000.0 -0.08147 -0.9481
4931000000.0 -0.7603 -0.5851
4934000000.0 -0.893 0.2499
4938000000.0 -0.3813 0.8506
4941000000.0 0.4272 0.8362
4944000000.0 0.9254 0.2222
4947000000.0 0.7451 -0.6063
4950000000.0 -0.0001378 -0.9611
4953000000.0 -0.7272 -0.6231
4956000000.0 -0.9887 0.1928
4959000000.0 -0.4984 0.838
4962000000.0 0.345 0.9144
4966000000.0 0.9379 0.2961
4969000000.0 0.8435 -0.5641
4972000000.0 0.1208 -1.024
4975000000.0 -0.7114 -0.7573
4978000000.0 -1.034 0.08312
4981000000.0 -0.6147 0.8764
4984000000.0 0.3051 1.011
4988000000.0 0.9956 0.4559
4991000000.0 0.9846 -0.5062
4994000000.0 0.2686 -1.093
4997000000.0 -0.6707 -0.8978
5000000000.0 -1.148 -0.08211
5003000000.0 -0.8111 0.8721
5006000000.0 0.1655 1.186
5009000000.0 1.055 0.6527
5012000000.0 1.2 -0.4037
5016000000.0 0.4322 -1.164
5019000000.0 -0.6397 -1.088
5022000000.0 -1.283 -0.2179
5025000000.0 -0.9562 0.8278
5028000000.0 0.02726 1.31
5031000000.0 1.014 0.7766
5034000000.0 1.262 -0.2539
5038000000.0 0.6147 -1.163
5041000000.0 -0.5282 -1.202
5044000000.0 -1.213 -0.3664
5047000000.0 -1.083 0.7332
5050000000.0 -0.1501 1.311
5053000000.0 0.893 0.9265
5056000000.0 1.291 -0.08547
5059000000.0 0.7653 -1.02
5062000000.0 -0.2833 -1.266
5066000000.0 -1.132 -0.5736
5069000000.0 -1.142 0.5063
5072000000.0 -0.3324 1.214
5075000000.0 0.7252 1.057
5078000000.0 1.244 0.07549
5081000000.0 0.8548 -0.883
5084000000.0 -0.1381 -1.196
5088000000.0 -0.9894 -0.6879
5091000000.0 -1.115 0.378
5094000000.0 -0.4488 1.072
5097000000.0 0.5181 1.021
5100000000.0 1.046 0.2614
5103000000.0 0.8783 -0.6434
5106000000.0 0.04788 -1.081
5109000000.0 -0.7696 -0.753
5112000000.0 -1.024 0.1307
5116000000.0 -0.5784 0.8719
5119000000.0 0.2908 0.9648
5122000000.0 0.9669 0.3681
5125000000.0 0.8872 -0.4351
5128000000.0 0.2246 -0.984
5131000000.0 -0.6397 -0.7386
5134000000.0 -0.9833 -0.0227
5138000000.0 -0.6364 0.7123
5141000000.0 0.1883 0.9287
5144000000.0 0.8454 0.4331
5147000000.0 0.8467 -0.3684
5150000000.0 0.2313 -0.8897
5153000000.0 -0.5627 -0.7226
5156000000.0 -0.912 -0.0616
5159000000.0 -0.6236 0.657
5162000000.0 0.1281 0.8934
5166000000.0 0.7969 0.4433
5169000000.0 0.8503 -0.323
5172000000.0 0.2529 -0.8594
5175000000.0 -0.4913 -0.7486
5178000000.0 -0.9267 -0.07427
5181000000.0 -0.6715 0.6657
5184000000.0 0.09374 0.8953
5188000000.0 0.7925 0.4749
5191000000.0 0.8833 -0.3114
5194000000.0 0.3093 -0.8961
5197000000.0 -0.5113 -0.8175
5200000000.0 -0.9651 -0.08262
5203000000.0 -0.6668 0.6979
5206000000.0 0.1204 0.9632
5209000000.0 0.8353 0.5353
5212000000.0 0.9098 -0.32
5216000000.0 0.3585 -0.9351
5219000000.0 -0.4788 -0.897
5222000000.0 -1.008 -0.1764
5225000000.0 -0.7674 0.6775
5228000000.0 0.01155 1.042
5231000000.0 0.8093 0.6295
5234000000.0 1.028 -0.2386
5238000000.0 0.4767 -0.9421
5241000000.0 -0.4282 -0.9732
5244000000.0 -1.028 -0.2981
5247000000.0 -0.9242 0.6004
5250000000.0 -0.08989 1.082
5253000000.0 0.7989 0.7881
5256000000.0 1.103 -0.09447
5259000000.0 0.6325 -0.9046
5262000000.0 -0.2818 -1.075
5266000000.0 -0.9904 -0.4496
5269000000.0 -1.016 0.4491
5272000000.0 -0.3126 1.086
5275000000.0 0.6363 0.9202
5278000000.0 1.088 0.1225
5281000000.0 0.7797 -0.7662
5284000000.0 -0.06154 -1.119
5288000000.0 -0.8742 -0.6615
5291000000.0 -1.1 0.2379
5294000000.0 -0.4968 1.004
5297000000.0 0.4441 1.022
5300000000.0 1.056 0.3222
5303000000.0 0.9334 -0.6267
5306000000.0 0.1342 -1.135
5309000000.0 -0.7808 -0.8223
5312000000.0 -1.121 0.02158
5316000000.0 -0.6713 0.9083
5319000000.0 0.2572 1.121
5322000000.0 1.018 0.5187
5325000000.0 1.041 -0.4825
5328000000.0 0.2792 -1.06
5331000000.0 -0.6588 -0.9271
5334000000.0 -1.13 -0.06999
5338000000.0 -0.7717 0.8298
5341000000.0 0.1383 1.085
5344000000.0 0.9661 0.5797
5347000000.0 1.002 -0.3634
5350000000.0 0.3303 -1.006
5353000000.0 -0.5562 -0.8913
5356000000.0 -1.046 -0.1418
5359000000.0 -0.7407 0.7564
5362000000.0 0.119 1.004
5366000000.0 0.8556 0.5588
5369000000.0 0.9481 -0.3497
5372000000.0 0.3347 -0.9535
5375000000.0 -0.5443 -0.8584
5378000000.0 -0.9719 -0.0818
5381000000.0 -0.6442 0.6843
5384000000.0 0.1436 0.9419
5388000000.0 0.7939 0.4703
5391000000.0 0.8216 -0.3356
5394000000.0 0.2325 -0.8717
5397000000.0 -0.5163 -0.6924
5400000000.0 -0.8696 -0.03945
5403000000.0 -0.5325 0.6596
5406000000.0 0.1807 0.841
5409000000.0 0.7669 0.3869
5412000000.0 0.7751 -0.3278
5416000000.0 0.2164 -0.8117
5419000000.0 -0.5164 -0.6849
5422000000.0 -0.8625 -0.0248
5425000000.0 -0.5626 0.6508
5428000000.0 0.1697 0.8731
5431000000.0 0.7859 0.4043
5434000000.0 0.7986 -0.3673
5438000000.0 0.2333 -0.881
5441000000.0 -0.5133 -0.7361
5444000000.0 -0.9167 -0.03895
5447000000.0 -0.6137 0.6689
5450000000.0 0.1385 0.8982
5453000000.0 0.784 0.4801
5456000000.0 0.8923 -0.3358
5459000000.0 0.34 -0.865
5462000000.0 -0.4803 -0.8374
5466000000.0 -0.962 -0.1221
5469000000.0 -0.7316 0.6054
5472000000.0 0.0112 0.9662
5475000000.0 0.7642 0.6211
5478000000.0 0.9497 -0.1929
5481000000.0 0.5296 -0.8958
5484000000.0 -0.3809 -0.971
5488000000.0 -0.9833 -0.3234
5491000000.0 -0.8991 0.5141
5494000000.0 -0.1959 1.051
5497000000.0 0.7072 0.8276
5500000000.0 1.066 -0.01678
5503000000.0 0.6562 -0.858
5506000000.0 -0.2032 -1.044
5509000000.0 -0.9458 -0.5202
5512000000.0 -1.012 0.3971
5516000000.0 -0.3096 1.042
5519000000.0 0.5894 0.8959
5522000000.0 1.087 0.1519
5525000000.0 0.802 -0.7558
5528000000.0 -0.06602 -1.072
5531000000.0 -0.8436 -0.6419
5534000000.0 -1.052 0.2548
5538000000.0 -0.4756 0.9712
5541000000.0 0.4595 0.9679
5544000000.0 1.058 0.249
5547000000.0 0.8705 -0.6102
5550000000.0 0.0774 -1.051
5553000000.0 -0.7373 -0.737
5556000000.0 -1.035 0.1189
5559000000.0 -0.5271 0.8263
5562000000.0 0.3193 0.9451
5566000000.0 0.9538 0.3141
5569000000.0 0.8202 -0.4758
5572000000.0 0.15 -0.9494
5575000000.0 -0.6231 -0.7158
5578000000.0 -0.9308 0.05216
5581000000.0 -0.5441 0.7569
5584000000.0 0.2386 0.8853
5588000000.0 0.8281 0.3249
5591000000.0 0.7847 -0.3887
5594000000.0 0.1854 -0.8553
5597000000.0 -0.5339 -0.6603
5600000000.0 -0.8505 0.02261
5603000000.0 -0.5092 0.6532
5606000000.0 0.2019 0.8047
5609000000.0 0.7564 0.3373
5612000000.0 0.7221 -0.3824
5616000000.0 0.1723 -0.8003
5619000000.0 -0.5351 -0.6112
5622000000.0 -0.8182 -0.001359
5625000000.0 -0.4942 0.6407
5628000000.0 0.188 0.8201
5631000000.0 0.747 0.3512
5634000000.0 0.7356 -0.3552
5638000000.0 0.1559 -0.8206
5641000000.0 -0.528 -0.6245
5644000000.0 -0.832 -0.02974
5647000000.0 -0.5322 0.6582
5650000000.0 0.2026 0.8241
5653000000.0 0.7901 0.359
5656000000.0 0.7877 -0.3843
5659000000.0 0.1702 -0.9022
5662000000.0 -0.5581 -0.7083
5666000000.0 -0.9373 0.001374
5669000000.0 -0.5982 0.7359
5672000000.0 0.2062 0.9365
5675000000.0 0.8623 0.4393
5678000000.0 0.8949 -0.4231
5681000000.0 0.2485 -0.9785
5684000000.0 -0.5811 -0.8327
5688000000.0 -1.017 -0.05968
5691000000.0 -0.6916 0.7732
5694000000.0 0.1373 1.025
5697000000.0 0.9218 0.5324
5700000000.0 0.9977 -0.3828
5703000000.0 0.3555 -1.034
5706000000.0 -0.6107 -0.9689
5709000000.0 -1.108 -0.14
5712000000.0 -0.8024 0.7695
5716000000.0 0.06135 1.111
5719000000.0 0.9385 0.6544
5722000000.0 1.088 -0.3076
5725000000.0 0.4712 -1.001
5728000000.0 -0.4914 -1.002
5731000000.0 -1.08 -0.248
5734000000.0 -0.9136 0.6908
5738000000.0 -0.09441 1.126
5741000000.0 0.8225 0.787
5744000000.0 1.131 -0.1731
5747000000.0 0.6082 -1.009
5750000000.0 -0.3455 -1.066
5753000000.0 -1.063 -0.4217
5756000000.0 -0.9629 0.559
5759000000.0 -0.1541 1.06
5762000000.0 0.7172 0.8275
5766000000.0 1.087 -0.03585
5769000000.0 0.6642 -0.8838
5772000000.0 -0.2967 -1.039
5775000000.0 -0.9691 -0.4616
5778000000.0 -0.9431 0.4674
5781000000.0 -0.2382 1.034
5784000000.0 0.6353 0.7962
5788000000.0 1.034 0.01051
5791000000.0 0.6479 -0.8039
5794000000.0 -0.1948 -1.018
5797000000.0 -0.9305 -0.4763
5800000000.0 -0.9196 0.414
5803000000.0 -0.2693 0.9646
5806000000.0 0.5834 0.7957
5809000000.0 0.9541 0.06534
5812000000.0 0.5957 -0.7662
5816000000.0 -0.2047 -0.944
5819000000.0 -0.848 -0.3983
5822000000.0 -0.8542 0.4145
5825000000.0 -0.1867 0.8756
5828000000.0 0.594 0.7279
5831000000.0 0.9385 -0.02526
5834000000.0 0.5674 -0.7223
5838000000.0 -0.249 -0.8611
5841000000.0 -0.8236 -0.3539
5844000000.0 -0.8017 0.4246
5847000000.0 -0.1484 0.8847
5850000000.0 0.6174 0.676
5853000000.0 0.907 -0.09534
5856000000.0 0.4853 -0.7529
5859000000.0 -0.267 -0.8875
5862000000.0 -0.8644 -0.3043
5866000000.0 -0.7693 0.4556
5869000000.0 -0.1045 0.8666
5872000000.0 0.6317 0.615
5875000000.0 0.9195 -0.09473
5878000000.0 0.457 -0.7546
5881000000.0 -0.2975 -0.868
5884000000.0 -0.8497 -0.3045
5888000000.0 -0.7722 0.5117
5891000000.0 -0.1387 0.9223
5894000000.0 0.6219 0.6976
5897000000.0 0.9303 -0.1013
5900000000.0 0.5364 -0.7721
5903000000.0 -0.2652 -0.9068
5906000000.0 -0.8844 -0.3818
5909000000.0 -0.8354 0.4826
5912000000.0 -0.1716 0.9597
5916000000.0 0.6597 0.72
5919000000.0 1.018 -0.006209
5922000000.0 0.5974 -0.7914
5925000000.0 -0.2312 -0.9466
5928000000.0 -0.9024 -0.4315
5931000000.0 -0.8885 0.4452
5934000000.0 -0.2323 0.9739
5938000000.0 0.5981 0.8186
5941000000.0 1.029 0.04556
5944000000.0 0.6797 -0.7703
5947000000.0 -0.1958 -1.004
5950000000.0 -0.9196 -0.4495
5953000000.0 -0.9572 0.4069
5956000000.0 -0.2673 0.9973
5959000000.0 0.606 0.8447
5962000000.0 1.056 0.01501
5966000000.0 0.6432 -0.7916
5969000000.0 -0.1892 -0.9675
5972000000.0 -0.9072 -0.4536
5975000000.0 -0.9257 0.4466
5978000000.0 -0.2363 0.943
5981000000.0 0.667 0.7457
5984000000.0 0.996 -0.04638
5988000000.0 0.5659 -0.7981
5991000000.0 -0.278 -0.9352
5994000000.0 -0.9208 -0.3353
5997000000.0 -0.8059 0.4749
6000000000.0 -0.1028 0.9543
6003000000.0 0.6497 0.6275
6006000000.0 0.9004 -0.168
6009000000.0 0.443 -0.7864
6012000000.0 -0.342 -0.8308
6016000000.0 -0.8269 -0.2292
6019000000.0 -0.6599 0.5274
6022000000.0 0.008387 0.8223
6025000000.0 0.6707 0.5142
6028000000.0 0.8105 -0.2224
6031000000.0 0.3471 -0.7506
6034000000.0 -0.4035 -0.7351
6038000000.0 -0.8023 -0.114
6041000000.0 -0.5875 0.5505
6044000000.0 0.07992 0.8255
6047000000.0 0.721 0.4567
6050000000.0 0.7937 -0.3044
6053000000.0 0.2606 -0.7953
6056000000.0 -0.4901 -0.7134
6059000000.0 -0.8439 -0.06597
6062000000.0 -0.5943 0.6392
6066000000.0 0.1431 0.8572
6069000000.0 0.8095 0.4057
6072000000.0 0.8201 -0.3723
6075000000.0 0.2243 -0.8758
6078000000.0 -0.548 -0.7184
6081000000.0 -0.9221 -0.02541
6084000000.0 -0.6161 0.7155
6088000000.0 0.2219 0.9377
6091000000.0 0.872 0.3991
6094000000.0 0.9113 -0.4552
6097000000.0 0.2029 -0.9837
6100000000.0 -0.6824 -0.7842
6103000000.0 -1.057 0.04082
6106000000.0 -0.6111 0.872
6109000000.0 0.3032 0.9887
6112000000.0 1.006 0.3639
6116000000.0 0.9028 -0.5527
6119000000.0 0.09588 -1.053
6122000000.0 -0.7307 -0.7408
6125000000.0 -1.055 0.1705
6128000000.0 -0.5233 0.9149
6131000000.0 0.431 0.9705
6134000000.0 1.017 0.2439
6138000000.0 0.8374 -0.6404
6141000000.0 -0.02589 -0.9977
6144000000.0 -0.7868 -0.6093
6147000000.0 -0.9373 0.2506
6150000000.0 -0.3888 0.9275
6153000000.0 0.4851 0.8677
6156000000.0 0.9582 0.1386
6159000000.0 0.6571 -0.6817
6162000000.0 -0.1149 -0.9162
6166000000.0 -0.7603 -0.455
6169000000.0 -0.8447 0.3168
6172000000.0 -0.2389 0.8301
6175000000.0 0.5341 0.7395
6178000000.0 0.8616 0.01054
6181000000.0 0.5241 -0.6894
6184000000.0 -0.1978 -0.8338
6188000000.0 -0.7815 -0.3732
6191000000.0 -0.7391 0.3822
6194000000.0 -0.1219 0.8499
6197000000.0 0.5886 0.6015
6200000000.0 0.8137 -0.07045
6203000000.0 0.421 -0.6846
6206000000.0 -0.2893 -0.7303
6209000000.0 -0.7571 -0.2294
6212000000.0 -0.6793 0.4851
6216000000.0 -0.03889 0.8362
6219000000.0 0.6302 0.5212
6222000000.0 0.8058 -0.1952
6225000000.0 0.3245 -0.7303
6228000000.0 -0.4175 -0.6828
6231000000.0 -0.768 -0.166
6234000000.0 -0.6582 0.5153
6238000000.0 0.03766 0.8311
6241000000.0 0.6781 0.4414
6244000000.0 0.7761 -0.2304
6247000000.0 0.2867 -0.7735
6250000000.0 -0.4598 -0.694
6253000000.0 -0.8229 -0.09204
6256000000.0 -0.5645 0.5738
6259000000.0 0.0982 0.7992
6262000000.0 0.6873 0.4202
6266000000.0 0.7591 -0.2966
