! Created with skrf 1.8.0 (http://scikit-rf.org).
# Hz S RI R 50.0 
!freq ReS11 ImS11
4000000000.0 -0.2325 -1.535
4003000000.0 -1.263 -0.7894
4006000000.0 -1.458 0.5231
4009000000.0 -0.5065 1.424
4012000000.0 0.792 1.291
4016000000.0 1.516 0.181
4019000000.0 1.121 -1.076
4022000000.0 -0.1988 -1.582
4025000000.0 -1.332 -0.8806
4028000000.0 -1.518 0.4438
4031000000.0 -0.567 1.506
4034000000.0 0.8324 1.399
4038000000.0 1.656 0.2362
4041000000.0 1.19 -1.112
4044000000.0 -0.152 -1.644
4047000000.0 -1.315 -0.9479
4050000000.0 -1.559 0.4677
4053000000.0 -0.5816 1.472
4056000000.0 0.8122 1.435
4059000000.0 1.628 0.3418
4062000000.0 1.243 -1.07
4066000000.0 0.01392 -1.611
4069000000.0 -1.243 -1.049
4072000000.0 -1.604 0.2761
4075000000.0 -0.7781 1.389
4078000000.0 0.5736 1.542
4081000000.0 1.551 0.5719
4084000000.0 1.372 -0.8559
4088000000.0 0.2298 -1.613
4091000000.0 -1.094 -1.201
4094000000.0 -1.647 0.12
4097000000.0 -0.969 1.289
4100000000.0 0.4026 1.571
4103000000.0 1.447 0.6807
4106000000.0 1.439 -0.6638
4109000000.0 0.4346 -1.478
4112000000.0 -0.8379 -1.287
4116000000.0 -1.514 -0.1745
4119000000.0 -1.076 0.9926
4122000000.0 0.02582 1.492
4125000000.0 1.15 0.9381
4128000000.0 1.462 -0.2986
4131000000.0 0.7632 -1.278
4134000000.0 -0.4358 -1.431
4138000000.0 -1.35 -0.5443
4141000000.0 -1.352 0.6937
4144000000.0 -0.363 1.481
4147000000.0 0.876 1.251
4150000000.0 1.533 0.08968
4153000000.0 1.064 -1.076
4156000000.0 -0.1585 -1.536
4159000000.0 -1.225 -0.8569
4162000000.0 -1.479 0.4153
4166000000.0 -0.6391 1.382
4169000000.0 0.6215 1.366
4172000000.0 1.443 0.4108
4175000000.0 1.241 -0.8603
4178000000.0 0.1279 -1.477
4181000000.0 -1.069 -1.079
4184000000.0 -1.476 0.1295
4188000000.0 -0.8505 1.279
4191000000.0 0.3927 1.467
4194000000.0 1.427 0.6477
4197000000.0 1.355 -0.696
4200000000.0 0.3534 -1.585
4203000000.0 -1.011 -1.303
4206000000.0 -1.609 -0.0115
4209000000.0 -1.05 1.254
4212000000.0 0.3991 1.619
4216000000.0 1.54 0.686
4219000000.0 1.518 -0.8044
4222000000.0 0.3091 -1.692
4225000000.0 -1.149 -1.284
4228000000.0 -1.691 0.1637
4231000000.0 -0.8586 1.415
4234000000.0 0.5857 1.555
4238000000.0 1.561 0.423
4241000000.0 1.278 -0.9353
4244000000.0 0.006729 -1.602
4247000000.0 -1.222 -1.006
4250000000.0 -1.534 0.3654
4253000000.0 -0.6404 1.419
4256000000.0 0.7641 1.354
4259000000.0 1.498 0.2366
4262000000.0 1.14 -1.041
4266000000.0 -0.113 -1.503
4269000000.0 -1.239 -0.8137
4272000000.0 -1.41 0.5068
4275000000.0 -0.4936 1.407
4278000000.0 0.8238 1.216
4281000000.0 1.413 0.128
4284000000.0 0.9672 -0.9999
4288000000.0 -0.1711 -1.388
4291000000.0 -1.164 -0.7004
4294000000.0 -1.26 0.4456
4297000000.0 -0.4407 1.279
4300000000.0 0.6752 1.136
4303000000.0 1.297 0.1841
4306000000.0 0.9795 -0.8678
4309000000.0 -0.07356 -1.302
4312000000.0 -0.9919 -0.8073
4316000000.0 -1.273 0.2292
4319000000.0 -0.6318 1.119
4322000000.0 0.4562 1.243
4325000000.0 1.251 0.433
4328000000.0 1.159 -0.6807
4331000000.0 0.2586 -1.297
4334000000.0 -0.872 -1.044
4338000000.0 -1.39 -0.007379
4341000000.0 -0.9019 1.111
4344000000.0 0.2597 1.398
4347000000.0 1.248 0.6983
4350000000.0 1.357 -0.5125
4353000000.0 0.4457 -1.371
4356000000.0 -0.7502 -1.222
4359000000.0 -1.42 -0.1905
4362000000.0 -1.12 0.9856
4366000000.0 0.06373 1.47
4369000000.0 1.186 0.9081
4372000000.0 1.446 -0.3459
4375000000.0 0.686 -1.358
4378000000.0 -0.6012 -1.374
4381000000.0 -1.469 -0.4131
4384000000.0 -1.271 0.9036
4388000000.0 -0.1313 1.554
4391000000.0 1.118 1.027
4394000000.0 1.592 -0.2423
4397000000.0 0.7487 -1.351
4400000000.0 -0.5847 -1.479
4403000000.0 -1.537 -0.4503
4406000000.0 -1.314 0.9157
4409000000.0 -0.1142 1.576
4412000000.0 1.175 1.037
4416000000.0 1.548 -0.2956
4419000000.0 0.6983 -1.337
4422000000.0 -0.6041 -1.39
4425000000.0 -1.477 -0.3347
4428000000.0 -1.167 0.9305
4431000000.0 -0.007585 1.419
4434000000.0 1.133 0.9005
4438000000.0 1.37 -0.2942
4441000000.0 0.5817 -1.278
4444000000.0 -0.648 -1.221
4447000000.0 -1.315 -0.2256
4450000000.0 -0.965 0.9106
4453000000.0 0.1331 1.285
4456000000.0 1.121 0.7022
4459000000.0 1.168 -0.3961
4462000000.0 0.4036 -1.215
4466000000.0 -0.6947 -1.021
4469000000.0 -1.196 -0.09613
4472000000.0 -0.7897 0.9279
4475000000.0 0.2201 1.189
4478000000.0 1.047 0.536
4481000000.0 1.047 -0.4894
4484000000.0 0.2801 -1.121
4488000000.0 -0.7147 -0.8989
4491000000.0 -1.15 -0.02438
4494000000.0 -0.7135 0.881
4497000000.0 0.2151 1.096
4500000000.0 1.028 0.5107
4503000000.0 0.9982 -0.4716
4506000000.0 0.273 -1.061
4509000000.0 -0.6561 -0.8838
4512000000.0 -1.123 -0.04749
4516000000.0 -0.7627 0.8332
4519000000.0 0.1994 1.112
4522000000.0 0.9865 0.5605
4525000000.0 1.102 -0.4113
4528000000.0 0.3592 -1.09
4531000000.0 -0.6009 -0.9601
4534000000.0 -1.167 -0.1442
4538000000.0 -0.8384 0.8125
4541000000.0 0.08376 1.193
4544000000.0 0.9684 0.7008
4547000000.0 1.149 -0.3039
4550000000.0 0.5094 -1.07
4553000000.0 -0.5038 -1.103
4556000000.0 -1.184 -0.3255
4559000000.0 -1.016 0.7237
4562000000.0 -0.1135 1.242
4566000000.0 0.8712 0.9055
4569000000.0 1.257 -0.1183
4572000000.0 0.7268 -1.027
4575000000.0 -0.3437 -1.259
4578000000.0 -1.186 -0.5589
4581000000.0 -1.194 0.5605
4584000000.0 -0.3423 1.287
4588000000.0 0.7797 1.097
4591000000.0 1.316 0.08338
4594000000.0 0.9409 -0.9895
4597000000.0 -0.1651 -1.394
4600000000.0 -1.166 -0.7261
4603000000.0 -1.308 0.4411
4606000000.0 -0.4986 1.318
4609000000.0 0.7037 1.213
4612000000.0 1.361 0.2228
4616000000.0 1.062 -0.9221
4619000000.0 -0.03005 -1.432
4622000000.0 -1.081 -0.8242
4625000000.0 -1.348 0.3413
4628000000.0 -0.5989 1.246
4631000000.0 0.6006 1.215
4634000000.0 1.336 0.3341
4638000000.0 1.084 -0.847
4641000000.0 0.02924 -1.363
4644000000.0 -1.02 -0.8524
4647000000.0 -1.287 0.2758
4650000000.0 -0.6178 1.162
4653000000.0 0.5733 1.212
4656000000.0 1.273 0.2918
4659000000.0 1.008 -0.7794
4662000000.0 0.02833 -1.266
4666000000.0 -0.9818 -0.7815
4669000000.0 -1.166 0.2534
4672000000.0 -0.5248 1.086
4675000000.0 0.4867 1.055
4678000000.0 1.122 0.2426
4681000000.0 0.8906 -0.7436
4684000000.0 -0.02433 -1.127
4688000000.0 -0.8783 -0.6953
4691000000.0 -1.093 0.2336
4694000000.0 -0.4617 1.062
4697000000.0 0.4982 0.971
4700000000.0 1.036 0.2423
4703000000.0 0.8562 -0.7031
4706000000.0 -0.0289 -1.103
4709000000.0 -0.8707 -0.6566
4712000000.0 -1.041 0.2535
4716000000.0 -0.4387 0.9896
4719000000.0 0.5255 0.9449
4722000000.0 1.046 0.1908
4725000000.0 0.814 -0.6635
4728000000.0 0.0005659 -1.049
4731000000.0 -0.8315 -0.6271
4734000000.0 -1.037 0.2013
4738000000.0 -0.4854 0.9424
4741000000.0 0.4137 0.9701
4744000000.0 1.027 0.299
4747000000.0 0.8872 -0.5777
4750000000.0 0.08757 -1.092
4753000000.0 -0.7334 -0.7657
4756000000.0 -1.086 0.07436
4759000000.0 -0.6373 0.9029
4762000000.0 0.2737 1.081
4766000000.0 1.023 0.484
4769000000.0 1.025 -0.5054
4772000000.0 0.3011 -1.132
4775000000.0 -0.6792 -0.9663
4778000000.0 -1.163 -0.06591
4781000000.0 -0.8242 0.8554
4784000000.0 0.11 1.202
4788000000.0 1.006 0.7034
4791000000.0 1.19 -0.3383
4794000000.0 0.5172 -1.126
4797000000.0 -0.5246 -1.131
4800000000.0 -1.19 -0.3325
4803000000.0 -1.029 0.7091
4806000000.0 -0.1251 1.262
4809000000.0 0.8886 0.9355
4812000000.0 1.25 -0.07543
4816000000.0 0.7689 -1.058
4819000000.0 -0.3214 -1.274
4822000000.0 -1.213 -0.5867
4825000000.0 -1.248 0.5733
4828000000.0 -0.3565 1.338
4831000000.0 0.8262 1.131
4834000000.0 1.381 0.07993
4838000000.0 0.931 -1.021
4841000000.0 -0.1898 -1.403
4844000000.0 -1.211 -0.7388
4847000000.0 -1.311 0.4599
4850000000.0 -0.4601 1.306
4853000000.0 0.7122 1.203
4856000000.0 1.356 0.1953
4859000000.0 1.002 -0.9184
4862000000.0 -0.1061 -1.357
4866000000.0 -1.093 -0.7943
4869000000.0 -1.301 0.3511
4872000000.0 -0.5511 1.209
4875000000.0 0.5974 1.14
4878000000.0 1.247 0.2438
4881000000.0 0.9495 -0.7839
4884000000.0 -0.03553 -1.272
4888000000.0 -0.9841 -0.7677
4891000000.0 -1.147 0.251
4894000000.0 -0.5241 1.083
4897000000.0 0.4912 1.028
4900000000.0 1.12 0.2813
4903000000.0 0.8794 -0.652
4906000000.0 0.01167 -1.088
4909000000.0 -0.7934 -0.7096
4912000000.0 -1.025 0.1872
4916000000.0 -0.4914 0.8951
4919000000.0 0.3585 0.9249
4922000000.0 0.9653 0.2996
4925000000.0 0.8146 -0.5068
4928000000.0 0.0936 -0.9251
4931000000.0 -0.6715 -0.6785
4934000000.0 -0.9255 0.08777
4938000000.0 -0.5456 0.7938
4941000000.0 0.267 0.9132
4944000000.0 0.8777 0.3842
4947000000.0 0.8334 -0.4425
4950000000.0 0.2092 -0.921
4953000000.0 -0.6107 -0.7447
4956000000.0 -0.9699 -0.003827
4959000000.0 -0.6057 0.7677
4962000000.0 0.1966 0.947
4966000000.0 0.8603 0.4634
4969000000.0 0.909 -0.3732
4972000000.0 0.2567 -0.9772
4975000000.0 -0.5769 -0.8241
4978000000.0 -1.025 -0.09806
4981000000.0 -0.7439 0.7595
4984000000.0 0.1259 1.071
4988000000.0 0.8741 0.5642
4991000000.0 1.025 -0.3168
4994000000.0 0.4492 -1.019
4997000000.0 -0.5091 -0.9763
5000000000.0 -1.082 -0.2495
5003000000.0 -0.919 0.7253
5006000000.0 -0.03201 1.177
5009000000.0 0.9176 0.7687
5012000000.0 1.215 -0.1848
5016000000.0 0.6051 -1.057
5019000000.0 -0.4201 -1.166
5022000000.0 -1.217 -0.4538
5025000000.0 -1.083 0.6345
5028000000.0 -0.1929 1.262
5031000000.0 0.847 0.9701
5034000000.0 1.276 -0.07563
5038000000.0 0.78 -1.026
5041000000.0 -0.2864 -1.263
5044000000.0 -1.138 -0.5935
5047000000.0 -1.18 0.4879
5050000000.0 -0.3959 1.24
5053000000.0 0.7136 1.106
5056000000.0 1.317 0.1561
5059000000.0 0.9355 -0.8959
5062000000.0 -0.0813 -1.283
5066000000.0 -1.043 -0.7808
5069000000.0 -1.278 0.3245
5072000000.0 -0.5415 1.173
5075000000.0 0.5574 1.141
5078000000.0 1.25 0.3332
5081000000.0 1.07 -0.7517
5084000000.0 0.1003 -1.242
5088000000.0 -0.9105 -0.857
5091000000.0 -1.208 0.1457
5094000000.0 -0.6404 0.9999
5097000000.0 0.2942 1.124
5100000000.0 1.036 0.4663
5103000000.0 1.045 -0.4803
5106000000.0 0.298 -1.065
5109000000.0 -0.6174 -0.9191
5112000000.0 -1.075 -0.05781
5116000000.0 -0.7686 0.7756
5119000000.0 0.123 1.036
5122000000.0 0.8746 0.6069
5125000000.0 1.014 -0.2983
5128000000.0 0.4226 -0.944
5131000000.0 -0.4531 -0.9318
5134000000.0 -0.9874 -0.2341
5138000000.0 -0.7638 0.6125
5141000000.0 -0.002632 0.9642
5144000000.0 0.7367 0.6092
5147000000.0 0.9454 -0.1944
5150000000.0 0.4593 -0.8346
5153000000.0 -0.3383 -0.862
5156000000.0 -0.8936 -0.2456
5159000000.0 -0.7771 0.5111
5162000000.0 -0.08025 0.8982
5166000000.0 0.6262 0.6407
5169000000.0 0.8906 -0.1256
5172000000.0 0.4604 -0.7428
5175000000.0 -0.2966 -0.8578
5178000000.0 -0.8604 -0.3278
5181000000.0 -0.7677 0.4635
5184000000.0 -0.1527 0.9192
5188000000.0 0.6491 0.6658
5191000000.0 0.9097 -0.05306
5194000000.0 0.517 -0.8008
5197000000.0 -0.2696 -0.897
5200000000.0 -0.8789 -0.3712
5203000000.0 -0.8199 0.4876
5206000000.0 -0.1668 0.9331
5209000000.0 0.6414 0.6877
5212000000.0 0.9615 -0.04369
5216000000.0 0.5407 -0.7554
5219000000.0 -0.2494 -0.9484
5222000000.0 -0.9313 -0.4297
5225000000.0 -0.8724 0.4268
5228000000.0 -0.2255 0.9785
5231000000.0 0.6404 0.8013
5234000000.0 1.012 0.01771
5238000000.0 0.7006 -0.7952
5241000000.0 -0.1643 -1.044
5244000000.0 -0.9241 -0.5242
5247000000.0 -0.9932 0.4017
5250000000.0 -0.3467 1.011
5253000000.0 0.541 0.8984
5256000000.0 1.085 0.1391
5259000000.0 0.7993 -0.7236
5262000000.0 -0.04181 -1.078
5266000000.0 -0.8485 -0.6791
5269000000.0 -1.074 0.2275
5272000000.0 -0.5189 0.9802
5275000000.0 0.389 1.03
5278000000.0 1.054 0.3717
5281000000.0 0.9437 -0.5603
5284000000.0 0.2168 -1.079
5288000000.0 -0.7167 -0.8341
5291000000.0 -1.109 -0.01476
5294000000.0 -0.7289 0.8282
5297000000.0 0.1797 1.113
5300000000.0 0.9715 0.5888
5303000000.0 1.034 -0.3594
5306000000.0 0.4123 -1.07
5309000000.0 -0.5259 -0.9745
5312000000.0 -1.098 -0.2389
5316000000.0 -0.9047 0.7056
5319000000.0 -0.04598 1.168
5322000000.0 0.8719 0.7679
5325000000.0 1.144 -0.1693
5328000000.0 0.5952 -1.009
5331000000.0 -0.4064 -1.105
5334000000.0 -1.05 -0.4243
5338000000.0 -0.9901 0.548
5341000000.0 -0.185 1.127
5344000000.0 0.7272 0.8354
5347000000.0 1.107 -0.01194
5350000000.0 0.6682 -0.8835
5353000000.0 -0.2178 -1.067
5356000000.0 -0.9391 -0.4897
5359000000.0 -0.9854 0.4243
5362000000.0 -0.2919 1.061
5366000000.0 0.6296 0.8815
5369000000.0 1.062 0.07521
5372000000.0 0.7142 -0.7856
5375000000.0 -0.1596 -1.052
5378000000.0 -0.8748 -0.5161
5381000000.0 -0.9615 0.4072
5384000000.0 -0.287 0.9563
5388000000.0 0.5881 0.8006
5391000000.0 0.9855 0.02313
5394000000.0 0.6052 -0.7025
5397000000.0 -0.2047 -0.9
5400000000.0 -0.8056 -0.4298
5403000000.0 -0.817 0.3702
5406000000.0 -0.1817 0.8505
5409000000.0 0.5402 0.7203
5412000000.0 0.8884 0.01102
5416000000.0 0.5391 -0.6739
5419000000.0 -0.1972 -0.8378
5422000000.0 -0.7878 -0.3941
5425000000.0 -0.7527 0.3515
5428000000.0 -0.1933 0.8431
5431000000.0 0.5423 0.704
5434000000.0 0.8641 0.002813
5438000000.0 0.5408 -0.6881
5441000000.0 -0.1844 -0.8664
5444000000.0 -0.8154 -0.3795
5447000000.0 -0.8028 0.3863
5450000000.0 -0.2134 0.8711
5453000000.0 0.5374 0.7376
5456000000.0 0.9231 0.03606
5459000000.0 0.5965 -0.6696
5462000000.0 -0.1281 -0.8921
5466000000.0 -0.778 -0.4922
5469000000.0 -0.8579 0.297
5472000000.0 -0.2996 0.8665
5475000000.0 0.4605 0.8312
5478000000.0 0.9416 0.1924
5481000000.0 0.743 -0.6059
5484000000.0 -0.01331 -0.9736
5488000000.0 -0.741 -0.6509
5491000000.0 -0.9853 0.1741
5494000000.0 -0.4939 0.82
5497000000.0 0.3462 0.9539
5500000000.0 0.959 0.3754
5503000000.0 0.9136 -0.4953
5506000000.0 0.1883 -1.013
5509000000.0 -0.6752 -0.7856
5512000000.0 -1.04 -0.02692
5516000000.0 -0.6755 0.835
5519000000.0 0.1886 1.045
5522000000.0 0.8823 0.5432
5525000000.0 1.011 -0.3232
5528000000.0 0.3597 -0.9599
5531000000.0 -0.5171 -0.9154
5534000000.0 -1.019 -0.2017
5538000000.0 -0.8236 0.6886
5541000000.0 0.02447 1.052
5544000000.0 0.8119 0.6951
5547000000.0 1.093 -0.1884
5550000000.0 0.5666 -0.8908
5553000000.0 -0.3839 -1.048
5556000000.0 -0.979 -0.3706
5559000000.0 -0.9318 0.5218
5562000000.0 -0.1588 1.06
5566000000.0 0.6837 0.7852
5569000000.0 1.038 0.006387
5572000000.0 0.6377 -0.8238
5575000000.0 -0.1989 -0.9788
5578000000.0 -0.9215 -0.4618
5581000000.0 -0.9235 0.3848
5584000000.0 -0.2572 0.9301
5588000000.0 0.5508 0.7744
5591000000.0 0.9628 0.06493
5594000000.0 0.6634 -0.6838
5597000000.0 -0.1184 -0.9198
5600000000.0 -0.7459 -0.4903
5603000000.0 -0.8505 0.2927
5606000000.0 -0.3277 0.8126
5609000000.0 0.4691 0.7505
5612000000.0 0.8455 0.1526
5616000000.0 0.6644 -0.5918
5619000000.0 -0.01939 -0.8765
5622000000.0 -0.6937 -0.5066
5625000000.0 -0.8066 0.2278
5628000000.0 -0.3508 0.7543
5631000000.0 0.3774 0.7698
5634000000.0 0.8001 0.185
5638000000.0 0.6353 -0.5223
5641000000.0 0.00737 -0.8395
5644000000.0 -0.6656 -0.5094
5647000000.0 -0.792 0.2038
5650000000.0 -0.3634 0.7557
5653000000.0 0.3596 0.7728
5656000000.0 0.8386 0.1856
5659000000.0 0.6967 -0.5461
5662000000.0 -0.006423 -0.8537
5666000000.0 -0.6759 -0.5479
5669000000.0 -0.8765 0.1873
5672000000.0 -0.4209 0.8207
5675000000.0 0.3913 0.845
5678000000.0 0.8842 0.2114
5681000000.0 0.7424 -0.5243
5684000000.0 0.006397 -0.9003
5688000000.0 -0.7525 -0.6145
5691000000.0 -0.9274 0.2029
5694000000.0 -0.4841 0.8455
5697000000.0 0.3854 0.9296
5700000000.0 0.9458 0.2765
5703000000.0 0.8282 -0.5597
5706000000.0 0.1053 -1.02
5709000000.0 -0.7312 -0.7166
5712000000.0 -1.032 0.1149
5716000000.0 -0.5789 0.9167
5719000000.0 0.3315 0.9689
5722000000.0 0.9865 0.4205
5725000000.0 0.9426 -0.5296
5728000000.0 0.2038 -1.069
5731000000.0 -0.6956 -0.8528
5734000000.0 -1.098 -0.01684
5738000000.0 -0.6878 0.8166
5741000000.0 0.1803 1.054
5744000000.0 0.9259 0.5567
5747000000.0 1.045 -0.3874
5750000000.0 0.3592 -1.064
5753000000.0 -0.5839 -0.9745
5756000000.0 -1.125 -0.176
5759000000.0 -0.8469 0.7124
5762000000.0 0.01906 1.137
5766000000.0 0.8689 0.6829
5769000000.0 1.075 -0.2198
5772000000.0 0.5356 -0.9873
5775000000.0 -0.404 -1.035
5778000000.0 -1.058 -0.3824
5781000000.0 -0.9225 0.5897
5784000000.0 -0.1284 1.103
5788000000.0 0.7162 0.8339
5791000000.0 1.074 -0.04414
5794000000.0 0.6663 -0.8354
5797000000.0 -0.225 -1.043
5800000000.0 -0.9485 -0.4473
5803000000.0 -0.9819 0.4602
5806000000.0 -0.2856 1.041
5809000000.0 0.6146 0.8615
5812000000.0 1.028 0.08494
5816000000.0 0.7415 -0.747
5819000000.0 -0.1271 -1.01
5822000000.0 -0.8523 -0.5461
5825000000.0 -0.9299 0.2967
5828000000.0 -0.3649 0.9424
5831000000.0 0.5113 0.8723
5834000000.0 0.9869 0.168
5838000000.0 0.7374 -0.6384
5841000000.0 -0.04695 -0.9751
5844000000.0 -0.7664 -0.5986
5847000000.0 -0.9251 0.2193
5850000000.0 -0.4042 0.8295
5853000000.0 0.4206 0.8586
5856000000.0 0.9141 0.2031
5859000000.0 0.7198 -0.5767
5862000000.0 -0.01662 -0.9093
5866000000.0 -0.7069 -0.542
5869000000.0 -0.8951 0.19
5872000000.0 -0.4016 0.8127
5875000000.0 0.3557 0.8017
5878000000.0 0.8797 0.1775
5881000000.0 0.6914 -0.5789
5884000000.0 -0.00664 -0.8757
5888000000.0 -0.6815 -0.5617
5891000000.0 -0.8287 0.2181
5894000000.0 -0.4019 0.8009
5897000000.0 0.3403 0.8193
5900000000.0 0.8194 0.2445
5903000000.0 0.6969 -0.5257
5906000000.0 0.02884 -0.828
5909000000.0 -0.6435 -0.5998
5912000000.0 -0.8576 0.08839
5916000000.0 -0.4678 0.7475
5919000000.0 0.2776 0.8265
5922000000.0 0.8291 0.3346
5925000000.0 0.7289 -0.433
5928000000.0 0.1452 -0.8506
5931000000.0 -0.5981 -0.6907
5934000000.0 -0.8966 0.02323
5938000000.0 -0.5667 0.6699
5941000000.0 0.1988 0.8546
5944000000.0 0.8195 0.445
5947000000.0 0.8434 -0.359
5950000000.0 0.2793 -0.8518
5953000000.0 -0.4974 -0.8047
5956000000.0 -0.9269 -0.1123
5959000000.0 -0.6834 0.6142
5962000000.0 0.06481 0.9555
5966000000.0 0.7429 0.5978
5969000000.0 0.9452 -0.1736
5972000000.0 0.4493 -0.8535
5975000000.0 -0.3823 -0.9213
5978000000.0 -0.9628 -0.2851
5981000000.0 -0.8338 0.5427
5984000000.0 -0.1198 0.9914
5988000000.0 0.7112 0.7242
5991000000.0 0.9664 -0.09576
5994000000.0 0.5941 -0.8194
5997000000.0 -0.2466 -0.9866
6000000000.0 -0.9155 -0.4696
6003000000.0 -0.9058 0.4342
6006000000.0 -0.2421 0.9831
6009000000.0 0.5852 0.7951
6012000000.0 0.9905 0.03647
6016000000.0 0.6794 -0.7506
6019000000.0 -0.1481 -0.988
6022000000.0 -0.8566 -0.5107
6025000000.0 -0.9205 0.3413
6028000000.0 -0.3245 0.9215
6031000000.0 0.5354 0.8423
6034000000.0 0.9584 0.1193
6038000000.0 0.7011 -0.6469
6041000000.0 -0.08246 -0.9659
6044000000.0 -0.7606 -0.5342
6047000000.0 -0.9282 0.276
6050000000.0 -0.3882 0.8959
6053000000.0 0.4432 0.8267
6056000000.0 0.8838 0.1634
6059000000.0 0.7097 -0.6113
6062000000.0 0.01063 -0.9123
6066000000.0 -0.719 -0.526
6069000000.0 -0.8868 0.2181
6072000000.0 -0.3716 0.7931
6075000000.0 0.3663 0.8165
6078000000.0 0.854 0.2231
6081000000.0 0.7027 -0.523
6084000000.0 0.0253 -0.8599
6088000000.0 -0.6555 -0.5379
6091000000.0 -0.8439 0.1607
6094000000.0 -0.4087 0.7545
6097000000.0 0.3226 0.7888
6100000000.0 0.8165 0.2591
6103000000.0 0.7003 -0.4505
6106000000.0 0.05821 -0.8556
6109000000.0 -0.6098 -0.5871
6112000000.0 -0.852 0.1185
6116000000.0 -0.4622 0.7494
6119000000.0 0.3023 0.8207
6122000000.0 0.8115 0.2853
6125000000.0 0.7662 -0.4706
6128000000.0 0.1233 -0.8487
6131000000.0 -0.6226 -0.6273
6134000000.0 -0.8999 0.08168
6138000000.0 -0.4985 0.7445
6141000000.0 0.2627 0.8143
6144000000.0 0.8488 0.3408
6147000000.0 0.7909 -0.4247
6150000000.0 0.1753 -0.8851
6153000000.0 -0.5983 -0.7024
6156000000.0 -0.8953 0.009818
6159000000.0 -0.6018 0.7378
6162000000.0 0.1648 0.9077
6166000000.0 0.8013 0.3814
6169000000.0 0.8805 -0.3798
6172000000.0 0.2599 -0.919
6175000000.0 -0.5463 -0.7618
6178000000.0 -0.9318 -0.05192
6181000000.0 -0.6457 0.6877
6184000000.0 0.1139 0.9103
6188000000.0 0.8074 0.5068
6191000000.0 0.894 -0.3124
6194000000.0 0.3377 -0.9041
6197000000.0 -0.4556 -0.8104
6200000000.0 -0.9284 -0.1847
6203000000.0 -0.7439 0.6115
6206000000.0 0.03687 0.9551
6209000000.0 0.7475 0.5895
6212000000.0 0.895 -0.2037
6216000000.0 0.4204 -0.8178
6219000000.0 -0.3824 -0.8504
6222000000.0 -0.8782 -0.2706
6225000000.0 -0.7476 0.5049
6228000000.0 -0.1025 0.9068
6231000000.0 0.6562 0.6215
6234000000.0 0.9191 -0.09578
6238000000.0 0.5032 -0.7104
6241000000.0 -0.2403 -0.8497
6244000000.0 -0.8091 -0.3725
6247000000.0 -0.7684 0.3748
6250000000.0 -0.169 0.8025
6253000000.0 0.5242 0.6686
6256000000.0 0.8411 0.01405
6259000000.0 0.5547 -0.6151
6262000000.0 -0.09769 -0.8137
