! Created with skrf 1.8.0 (http://scikit-rf.org).
# Hz S RI R 50.0 
!freq ReS11 ImS11
4000000000.0 -0.2888 -1.509
4003000000.0 -1.351 -0.6892
4006000000.0 -1.392 0.6201
4009000000.0 -0.4381 1.485
4012000000.0 0.8508 1.225
4016000000.0 1.567 0.07198
4019000000.0 1.043 -1.158
4022000000.0 -0.2303 -1.553
4025000000.0 -1.377 -0.7982
4028000000.0 -1.48 0.6237
4031000000.0 -0.4743 1.511
4034000000.0 0.9333 1.356
4038000000.0 1.608 0.02762
4041000000.0 1.097 -1.211
4044000000.0 -0.2342 -1.606
4047000000.0 -1.423 -0.8401
4050000000.0 -1.585 0.5969
4053000000.0 -0.5103 1.551
4056000000.0 0.8239 1.391
4059000000.0 1.626 0.2248
4062000000.0 1.127 -1.096
4066000000.0 -0.1087 -1.601
4069000000.0 -1.306 -0.9771
4072000000.0 -1.579 0.422
4075000000.0 -0.7188 1.494
4078000000.0 0.6622 1.445
4081000000.0 1.611 0.3928
4084000000.0 1.334 -0.936
4088000000.0 0.1321 -1.641
4091000000.0 -1.172 -1.108
4094000000.0 -1.639 0.2182
4097000000.0 -0.9228 1.413
4100000000.0 0.5242 1.538
4103000000.0 1.504 0.6155
4106000000.0 1.444 -0.7406
4109000000.0 0.3318 -1.522
4112000000.0 -0.9483 -1.22
4116000000.0 -1.526 -0.07176
4119000000.0 -1.037 1.097
4122000000.0 0.1367 1.478
4125000000.0 1.213 0.8446
4128000000.0 1.403 -0.3397
4131000000.0 0.7034 -1.274
4134000000.0 -0.5578 -1.38
4138000000.0 -1.411 -0.4766
4141000000.0 -1.283 0.7683
4144000000.0 -0.2575 1.47
4147000000.0 0.9656 1.146
4150000000.0 1.516 0.0101
4153000000.0 0.9816 -1.2
4156000000.0 -0.2432 -1.484
4159000000.0 -1.302 -0.7602
4162000000.0 -1.425 0.5087
4166000000.0 -0.5304 1.404
4169000000.0 0.7548 1.33
4172000000.0 1.469 0.264
4175000000.0 1.127 -0.9662
4178000000.0 -0.02616 -1.511
4181000000.0 -1.2 -0.9552
4184000000.0 -1.456 0.2571
4188000000.0 -0.7733 1.309
4191000000.0 0.524 1.436
4194000000.0 1.472 0.5096
4197000000.0 1.332 -0.8639
4200000000.0 0.1715 -1.56
4203000000.0 -1.144 -1.128
4206000000.0 -1.606 0.1973
4209000000.0 -0.8652 1.413
4212000000.0 0.5446 1.564
4216000000.0 1.596 0.4612
4219000000.0 1.363 -0.9811
4222000000.0 0.01531 -1.657
4225000000.0 -1.299 -1.025
4228000000.0 -1.6 0.4432
4231000000.0 -0.6143 1.509
4234000000.0 0.8085 1.399
4238000000.0 1.604 0.1948
4241000000.0 1.134 -1.157
4244000000.0 -0.233 -1.555
4247000000.0 -1.331 -0.7583
4250000000.0 -1.435 0.6054
4253000000.0 -0.3795 1.469
4256000000.0 0.9527 1.191
4259000000.0 1.515 -0.02108
4262000000.0 0.9211 -1.119
4266000000.0 -0.3741 -1.415
4269000000.0 -1.319 -0.6031
4272000000.0 -1.245 0.666
4275000000.0 -0.2697 1.436
4278000000.0 0.905 1.085
4281000000.0 1.429 -0.08354
4284000000.0 0.8027 -1.13
4288000000.0 -0.402 -1.307
4291000000.0 -1.239 -0.5246
4294000000.0 -1.191 0.6471
4297000000.0 -0.2398 1.314
4300000000.0 0.8416 1.021
4303000000.0 1.261 -0.02324
4306000000.0 0.842 -0.9792
4309000000.0 -0.2276 -1.25
4312000000.0 -1.103 -0.6954
4316000000.0 -1.223 0.3997
4319000000.0 -0.4935 1.2
4322000000.0 0.6185 1.165
4325000000.0 1.288 0.2624
4328000000.0 1.069 -0.834
4331000000.0 0.07589 -1.362
4334000000.0 -1.049 -0.9294
4338000000.0 -1.386 0.2
4341000000.0 -0.7525 1.191
4344000000.0 0.4652 1.367
4347000000.0 1.332 0.4937
4350000000.0 1.29 -0.7165
4353000000.0 0.2242 -1.461
4356000000.0 -0.989 -1.114
4359000000.0 -1.473 0.06331
4362000000.0 -0.917 1.143
4366000000.0 0.2827 1.448
4369000000.0 1.287 0.684
4372000000.0 1.348 -0.5814
4375000000.0 0.4328 -1.434
4378000000.0 -0.8374 -1.256
4381000000.0 -1.519 -0.167
4384000000.0 -1.1 1.113
4388000000.0 0.177 1.553
4391000000.0 1.322 0.8058
4394000000.0 1.498 -0.5437
4397000000.0 0.5619 -1.497
4400000000.0 -0.8754 -1.305
4403000000.0 -1.564 -0.1462
4406000000.0 -1.062 1.166
4409000000.0 0.2522 1.507
4412000000.0 1.329 0.7637
4416000000.0 1.394 -0.6196
4419000000.0 0.3608 -1.444
4422000000.0 -0.9166 -1.129
4425000000.0 -1.442 0.001315
4428000000.0 -0.894 1.132
4431000000.0 0.3464 1.366
4434000000.0 1.261 0.5513
4438000000.0 1.167 -0.6735
4441000000.0 0.2123 -1.316
4444000000.0 -0.916 -0.9629
4447000000.0 -1.296 0.1302
4450000000.0 -0.7135 1.062
4453000000.0 0.4325 1.227
4456000000.0 1.185 0.387
4459000000.0 1.022 -0.7093
4462000000.0 0.08132 -1.24
4466000000.0 -0.9024 -0.7825
4469000000.0 -1.21 0.2257
4472000000.0 -0.5298 1.063
4475000000.0 0.5079 1.075
4478000000.0 1.109 0.2782
4481000000.0 0.8962 -0.749
4484000000.0 0.003803 -1.149
4488000000.0 -0.9204 -0.7077
4491000000.0 -1.095 0.2735
4494000000.0 -0.513 1.029
4497000000.0 0.4965 1.036
4500000000.0 1.143 0.2537
4503000000.0 0.8821 -0.6883
4506000000.0 0.02722 -1.122
4509000000.0 -0.8603 -0.7381
4512000000.0 -1.122 0.1814
4516000000.0 -0.5858 1.005
4519000000.0 0.3996 1.084
4522000000.0 1.128 0.3394
4525000000.0 1.005 -0.6148
4528000000.0 0.1531 -1.163
4531000000.0 -0.8058 -0.8551
4534000000.0 -1.185 0.08845
4538000000.0 -0.6914 0.9899
4541000000.0 0.3219 1.197
4544000000.0 1.102 0.503
4547000000.0 1.099 -0.541
4550000000.0 0.2902 -1.224
4553000000.0 -0.7545 -0.9942
4556000000.0 -1.27 -0.1165
4559000000.0 -0.8795 0.921
4562000000.0 0.1198 1.296
4566000000.0 1.073 0.7338
4569000000.0 1.242 -0.359
4572000000.0 0.5434 -1.221
4575000000.0 -0.591 -1.206
4578000000.0 -1.326 -0.3231
4581000000.0 -1.09 0.811
4584000000.0 -0.06694 1.376
4588000000.0 1.033 0.9203
4591000000.0 1.374 -0.2303
4594000000.0 0.7379 -1.214
4597000000.0 -0.4701 -1.326
4600000000.0 -1.324 -0.4776
4603000000.0 -1.202 0.708
4606000000.0 -0.2283 1.39
4609000000.0 0.9227 1.034
4612000000.0 1.452 -0.1076
4616000000.0 0.8262 -1.133
4619000000.0 -0.3878 -1.358
4622000000.0 -1.23 -0.567
4625000000.0 -1.233 0.6452
4628000000.0 -0.2933 1.339
4631000000.0 0.8602 1.081
4634000000.0 1.338 -0.01804
4638000000.0 0.8515 -1.039
4641000000.0 -0.2983 -1.319
4644000000.0 -1.223 -0.5897
4647000000.0 -1.163 0.5686
4650000000.0 -0.2939 1.237
4653000000.0 0.8408 1.012
4656000000.0 1.28 -0.04386
4659000000.0 0.7416 -0.9691
4662000000.0 -0.3348 -1.193
4666000000.0 -1.125 -0.4996
4669000000.0 -1.037 0.5305
4672000000.0 -0.2219 1.181
4675000000.0 0.7525 0.8819
4678000000.0 1.125 -0.07539
4681000000.0 0.6627 -0.891
4684000000.0 -0.293 -1.059
4688000000.0 -1.021 -0.4435
4691000000.0 -0.9564 0.4942
4694000000.0 -0.2144 1.082
4697000000.0 0.7358 0.8699
4700000000.0 1.082 -0.02808
4703000000.0 0.6479 -0.8482
4706000000.0 -0.2831 -1.054
4709000000.0 -1.019 -0.4437
4712000000.0 -0.9475 0.5446
4716000000.0 -0.1808 1.076
4719000000.0 0.7015 0.8078
4722000000.0 1.071 -0.03476
4725000000.0 0.6481 -0.8511
4728000000.0 -0.2556 -1.049
4731000000.0 -0.9394 -0.4829
4734000000.0 -0.9833 0.4259
4738000000.0 -0.2761 1.021
4741000000.0 0.5918 0.891
4744000000.0 1.095 0.09065
4747000000.0 0.7491 -0.7975
4750000000.0 -0.09145 -1.074
4753000000.0 -0.9103 -0.6405
4756000000.0 -1.111 0.2963
4759000000.0 -0.4835 1.033
4762000000.0 0.498 1.024
4766000000.0 1.146 0.3064
4769000000.0 0.98 -0.6943
4772000000.0 0.06312 -1.215
4775000000.0 -0.8468 -0.8128
4778000000.0 -1.21 0.1284
4781000000.0 -0.6883 1.018
4784000000.0 0.3292 1.188
4788000000.0 1.137 0.5137
4791000000.0 1.131 -0.5436
4794000000.0 0.3351 -1.219
4797000000.0 -0.7375 -1.067
4800000000.0 -1.297 -0.1112
4803000000.0 -0.9008 0.8876
4806000000.0 0.1166 1.314
4809000000.0 1.057 0.7457
4812000000.0 1.298 -0.3386
4816000000.0 0.5664 -1.221
4819000000.0 -0.5851 -1.215
4822000000.0 -1.299 -0.3453
4825000000.0 -1.12 0.8337
4828000000.0 -0.0463 1.412
4831000000.0 1.036 0.9381
4834000000.0 1.381 -0.2242
4838000000.0 0.7018 -1.213
4841000000.0 -0.4884 -1.292
4844000000.0 -1.336 -0.4569
4847000000.0 -1.166 0.7376
4850000000.0 -0.1753 1.387
4853000000.0 0.9411 0.9803
4856000000.0 1.37 -0.1052
4859000000.0 0.7565 -1.111
4862000000.0 -0.3877 -1.28
4866000000.0 -1.193 -0.5254
4869000000.0 -1.146 0.6035
4872000000.0 -0.2345 1.234
4875000000.0 0.8115 0.9547
4878000000.0 1.246 -0.05021
4881000000.0 0.7512 -0.9692
4884000000.0 -0.2849 -1.167
4888000000.0 -1.055 -0.4993
4891000000.0 -1.031 0.4923
4894000000.0 -0.2371 1.113
4897000000.0 0.7012 0.8891
4900000000.0 1.092 0.008906
4903000000.0 0.6799 -0.8166
4906000000.0 -0.2333 -1.028
4909000000.0 -0.9123 -0.4935
4912000000.0 -0.9237 0.4018
4916000000.0 -0.2819 0.9435
4919000000.0 0.5589 0.7971
4922000000.0 0.9724 0.0669
4925000000.0 0.6231 -0.6991
4928000000.0 -0.1218 -0.9156
4931000000.0 -0.8019 -0.5018
4934000000.0 -0.8686 0.2807
4938000000.0 -0.3215 0.8914
4941000000.0 0.4882 0.834
4944000000.0 0.9404 0.1639
4947000000.0 0.7144 -0.6174
4950000000.0 -0.04634 -0.9523
4953000000.0 -0.7738 -0.6374
4956000000.0 -0.9475 0.2026
4959000000.0 -0.4336 0.9147
4962000000.0 0.4214 0.8847
4966000000.0 0.9581 0.2401
4969000000.0 0.844 -0.6054
4972000000.0 0.06713 -1.038
4975000000.0 -0.7631 -0.7034
4978000000.0 -1.046 0.1517
4981000000.0 -0.5584 0.887
4984000000.0 0.3573 1.006
4988000000.0 1.024 0.4011
4991000000.0 0.9876 -0.5539
4994000000.0 0.1946 -1.122
4997000000.0 -0.7556 -0.9008
5000000000.0 -1.194 -0.002118
5003000000.0 -0.7624 0.9238
5006000000.0 0.2657 1.184
5009000000.0 1.063 0.5835
5012000000.0 1.147 -0.4423
5016000000.0 0.3998 -1.228
5019000000.0 -0.6989 -1.077
5022000000.0 -1.295 -0.1593
5025000000.0 -0.9393 0.9128
5028000000.0 0.114 1.304
5031000000.0 1.062 0.7374
5034000000.0 1.284 -0.3353
5038000000.0 0.5328 -1.191
5041000000.0 -0.5664 -1.179
5044000000.0 -1.27 -0.2865
5047000000.0 -1.043 0.7776
5050000000.0 -0.07578 1.308
5053000000.0 0.9627 0.9145
5056000000.0 1.264 -0.1475
5059000000.0 0.6808 -1.082
5062000000.0 -0.3766 -1.258
5066000000.0 -1.16 -0.4949
5069000000.0 -1.129 0.5785
5072000000.0 -0.2557 1.232
5075000000.0 0.8032 1.004
5078000000.0 1.212 0.03965
5081000000.0 0.7984 -0.9393
5084000000.0 -0.1972 -1.171
5088000000.0 -1.019 -0.6117
5091000000.0 -1.08 0.3608
5094000000.0 -0.3557 1.094
5097000000.0 0.5857 0.959
5100000000.0 1.094 0.1771
5103000000.0 0.8068 -0.7264
5106000000.0 -0.02662 -1.052
5109000000.0 -0.8303 -0.7201
5112000000.0 -0.9902 0.1845
5116000000.0 -0.5238 0.8744
5119000000.0 0.3658 0.9353
5122000000.0 0.9071 0.3499
5125000000.0 0.8265 -0.5539
5128000000.0 0.1279 -0.9599
5131000000.0 -0.6667 -0.7216
5134000000.0 -0.9644 0.06151
5138000000.0 -0.5277 0.805
5141000000.0 0.272 0.9161
5144000000.0 0.8512 0.3439
5147000000.0 0.7879 -0.4195
5150000000.0 0.1703 -0.925
5153000000.0 -0.6173 -0.69
5156000000.0 -0.8899 0.02197
5159000000.0 -0.5352 0.7294
5162000000.0 0.2349 0.881
5166000000.0 0.7999 0.3673
5169000000.0 0.7916 -0.4064
5172000000.0 0.1951 -0.8609
5175000000.0 -0.5717 -0.7324
5178000000.0 -0.9071 0.0005595
5181000000.0 -0.601 0.7085
5184000000.0 0.2142 0.8866
5188000000.0 0.8334 0.4055
5191000000.0 0.8498 -0.416
5194000000.0 0.2118 -0.9226
5197000000.0 -0.6056 -0.7387
5200000000.0 -0.9704 0.01863
5203000000.0 -0.6075 0.7594
5206000000.0 0.2027 0.9537
5209000000.0 0.8707 0.4184
5212000000.0 0.8902 -0.4266
5216000000.0 0.2768 -0.9788
5219000000.0 -0.5977 -0.8177
5222000000.0 -1.036 -0.07909
5225000000.0 -0.7058 0.75
5228000000.0 0.142 1.023
5231000000.0 0.8842 0.5597
5234000000.0 0.9949 -0.3307
5238000000.0 0.3782 -0.9981
5241000000.0 -0.5042 -0.9349
5244000000.0 -1.087 -0.195
5247000000.0 -0.8449 0.712
5250000000.0 -0.004279 1.056
5253000000.0 0.8564 0.6753
5256000000.0 1.098 -0.1963
5259000000.0 0.5301 -0.9511
5262000000.0 -0.3772 -0.9996
5266000000.0 -1.03 -0.3677
5269000000.0 -0.9473 0.5844
5272000000.0 -0.1951 1.096
5275000000.0 0.7182 0.8881
5278000000.0 1.113 -0.005438
5281000000.0 0.7208 -0.8565
5284000000.0 -0.167 -1.089
5288000000.0 -0.9581 -0.5588
5291000000.0 -1.057 0.3664
5294000000.0 -0.378 1.051
5297000000.0 0.5286 0.9856
5300000000.0 1.11 0.2166
5303000000.0 0.901 -0.6974
5306000000.0 0.006536 -1.119
5309000000.0 -0.8611 -0.7366
5312000000.0 -1.137 0.1898
5316000000.0 -0.5789 0.9697
5319000000.0 0.3917 1.072
5322000000.0 1.061 0.371
5325000000.0 0.9596 -0.5658
5328000000.0 0.1593 -1.098
5331000000.0 -0.744 -0.7905
5334000000.0 -1.074 0.08076
5338000000.0 -0.6213 0.9099
5341000000.0 0.3036 1.066
5344000000.0 1.014 0.4145
5347000000.0 0.9526 -0.5052
5350000000.0 0.167 -1.046
5353000000.0 -0.6848 -0.8011
5356000000.0 -1.013 0.06319
5359000000.0 -0.5969 0.817
5362000000.0 0.2817 0.9787
5366000000.0 0.9345 0.3668
5369000000.0 0.8546 -0.5139
5372000000.0 0.1279 -0.963
5375000000.0 -0.6677 -0.6902
5378000000.0 -0.9359 0.09801
5381000000.0 -0.5101 0.7792
5384000000.0 0.3277 0.8256
5388000000.0 0.8555 0.2548
5391000000.0 0.7616 -0.4973
5394000000.0 0.08509 -0.8712
5397000000.0 -0.6825 -0.593
5400000000.0 -0.8495 0.1577
5403000000.0 -0.4167 0.7597
5406000000.0 0.3331 0.7649
5409000000.0 0.8373 0.1846
5412000000.0 0.7057 -0.4938
5416000000.0 0.04548 -0.8639
5419000000.0 -0.6371 -0.5669
5422000000.0 -0.8356 0.1459
5425000000.0 -0.4364 0.764
5428000000.0 0.3311 0.8389
5431000000.0 0.8429 0.2367
5434000000.0 0.7695 -0.5239
5438000000.0 0.06797 -0.9279
5441000000.0 -0.6752 -0.6454
5444000000.0 -0.9194 0.1286
5447000000.0 -0.4747 0.8057
5450000000.0 0.2918 0.8975
5453000000.0 0.8915 0.3443
5456000000.0 0.8395 -0.4829
5459000000.0 0.1627 -0.9293
5462000000.0 -0.6266 -0.7429
5466000000.0 -0.9699 0.0248
5469000000.0 -0.6032 0.7738
5472000000.0 0.1772 0.985
5475000000.0 0.9063 0.4614
5478000000.0 0.9573 -0.3514
5481000000.0 0.3263 -0.9916
5484000000.0 -0.5377 -0.8745
5488000000.0 -1.06 -0.1426
5491000000.0 -0.8026 0.7245
5494000000.0 0.02917 1.062
5497000000.0 0.8602 0.6324
5500000000.0 1.038 -0.2567
5503000000.0 0.4931 -0.9646
5506000000.0 -0.4601 -0.9976
5509000000.0 -1.056 -0.2836
5512000000.0 -0.8959 0.6436
5516000000.0 -0.1167 1.099
5519000000.0 0.7443 0.7301
5522000000.0 1.063 -0.06172
5525000000.0 0.6105 -0.8841
5528000000.0 -0.2847 -1.016
5531000000.0 -1.002 -0.4037
5534000000.0 -0.9526 0.4715
5538000000.0 -0.2405 1.022
5541000000.0 0.6444 0.8113
5544000000.0 1.055 -0.01494
5547000000.0 0.6722 -0.8148
5550000000.0 -0.1893 -1.016
5553000000.0 -0.9325 -0.4826
5556000000.0 -0.9106 0.407
5559000000.0 -0.2603 0.9298
5562000000.0 0.5443 0.7791
5566000000.0 0.9361 0.04086
5569000000.0 0.6126 -0.6667
5572000000.0 -0.1355 -0.9099
5575000000.0 -0.802 -0.3963
5578000000.0 -0.853 0.3831
5581000000.0 -0.2323 0.8504
5584000000.0 0.5088 0.6977
5588000000.0 0.8568 0.02387
5591000000.0 0.5711 -0.6593
5594000000.0 -0.1388 -0.7955
5597000000.0 -0.7498 -0.3994
5600000000.0 -0.7359 0.2956
5603000000.0 -0.237 0.7774
5606000000.0 0.4891 0.6348
5609000000.0 0.7843 0.02693
5612000000.0 0.5286 -0.586
5616000000.0 -0.1535 -0.7921
5619000000.0 -0.7088 -0.3357
5622000000.0 -0.7284 0.3298
5625000000.0 -0.1916 0.7859
5628000000.0 0.5163 0.6598
5631000000.0 0.8204 -0.01316
5634000000.0 0.5273 -0.6498
5638000000.0 -0.1731 -0.8189
5641000000.0 -0.7513 -0.3555
5644000000.0 -0.7654 0.3773
5647000000.0 -0.2056 0.8459
5650000000.0 0.5525 0.7362
5653000000.0 0.9247 0.02012
5656000000.0 0.5856 -0.7213
5659000000.0 -0.1961 -0.9207
5662000000.0 -0.8572 -0.4295
5666000000.0 -0.915 0.403
5669000000.0 -0.2566 0.9599
5672000000.0 0.5985 0.8442
5675000000.0 1.027 0.05392
5678000000.0 0.6476 -0.7956
5681000000.0 -0.1986 -1.043
5684000000.0 -0.9459 -0.5125
5688000000.0 -0.9872 0.3906
5691000000.0 -0.3357 1.044
5694000000.0 0.6025 0.8999
5697000000.0 1.091 0.09572
5700000000.0 0.7586 -0.8008
5703000000.0 -0.1311 -1.105
5706000000.0 -0.9716 -0.6022
5709000000.0 -1.08 0.3608
5712000000.0 -0.4084 1.09
5716000000.0 0.564 0.9646
5719000000.0 1.146 0.1499
5722000000.0 0.8278 -0.7659
5725000000.0 -0.06138 -1.134
5728000000.0 -0.92 -0.6774
5731000000.0 -1.084 0.2796
5734000000.0 -0.4665 1.084
5738000000.0 0.5037 1.03
5741000000.0 1.064 0.2315
5744000000.0 0.8226 -0.6873
5747000000.0 -0.01931 -1.112
5750000000.0 -0.8384 -0.6805
5753000000.0 -1.074 0.2632
5756000000.0 -0.4625 0.9887
5759000000.0 0.4683 0.9538
5762000000.0 1.035 0.2669
5766000000.0 0.8297 -0.6646
5769000000.0 0.004773 -1.065
5772000000.0 -0.8202 -0.636
5775000000.0 -0.9736 0.2355
5778000000.0 -0.3708 0.9055
5781000000.0 0.4434 0.8537
5784000000.0 0.9854 0.1269
5788000000.0 0.7365 -0.6729
5791000000.0 -0.1014 -0.9507
5794000000.0 -0.7886 -0.5005
5797000000.0 -0.8712 0.3397
5800000000.0 -0.2627 0.8979
5803000000.0 0.5402 0.7639
5806000000.0 0.9088 0.02978
5809000000.0 0.5813 -0.7287
5812000000.0 -0.2164 -0.8912
5816000000.0 -0.8271 -0.3151
5819000000.0 -0.7773 0.4416
5822000000.0 -0.1231 0.9024
5825000000.0 0.6181 0.6226
5828000000.0 0.8491 -0.09265
5831000000.0 0.4489 -0.777
5834000000.0 -0.317 -0.8268
5838000000.0 -0.8942 -0.2223
5841000000.0 -0.7348 0.5315
5844000000.0 -0.01671 0.9256
5847000000.0 0.7131 0.5888
5850000000.0 0.9082 -0.2052
5853000000.0 0.3933 -0.861
5856000000.0 -0.3753 -0.8655
5859000000.0 -0.8869 -0.1772
5862000000.0 -0.7054 0.6058
5866000000.0 0.03828 0.939
5869000000.0 0.7865 0.5496
5872000000.0 0.9403 -0.2643
5875000000.0 0.3557 -0.9026
5878000000.0 -0.4318 -0.8637
5881000000.0 -0.9822 -0.1777
5884000000.0 -0.7594 0.6808
5888000000.0 0.04144 1.02
5891000000.0 0.8262 0.5528
5894000000.0 0.9992 -0.2963
5897000000.0 0.3955 -0.9297
5900000000.0 -0.4937 -0.8918
5903000000.0 -1.046 -0.1492
5906000000.0 -0.7656 0.7362
5909000000.0 0.09279 1.04
5912000000.0 0.8742 0.5653
5916000000.0 0.9872 -0.3467
5919000000.0 0.3116 -0.9976
5922000000.0 -0.5735 -0.8864
5925000000.0 -1.055 -0.07766
5928000000.0 -0.7041 0.7785
5931000000.0 0.1716 0.9822
5934000000.0 0.9029 0.4456
5938000000.0 0.9267 -0.3813
5941000000.0 0.2573 -0.9713
5944000000.0 -0.6401 -0.7569
5947000000.0 -0.9646 0.04355
5950000000.0 -0.5527 0.7927
5953000000.0 0.3328 0.9234
5956000000.0 0.8803 0.3118
5959000000.0 0.7681 -0.4949
5962000000.0 0.05551 -0.9199
5966000000.0 -0.6663 -0.6087
5969000000.0 -0.8592 0.1955
5972000000.0 -0.389 0.8237
5975000000.0 0.4117 0.7752
5978000000.0 0.8338 0.1481
5981000000.0 0.6474 -0.5517
5984000000.0 -0.07787 -0.9001
5988000000.0 -0.6683 -0.465
5991000000.0 -0.7885 0.3026
5994000000.0 -0.2806 0.8121
5997000000.0 0.4733 0.6921
6000000000.0 0.8626 0.03219
6003000000.0 0.5022 -0.6167
6006000000.0 -0.1496 -0.8055
6009000000.0 -0.7454 -0.3686
6012000000.0 -0.714 0.3465
6016000000.0 -0.19 0.8517
6019000000.0 0.5247 0.6494
6022000000.0 0.8582 -0.01871
6025000000.0 0.5209 -0.6793
6028000000.0 -0.1975 -0.8563
6031000000.0 -0.7904 -0.3515
6034000000.0 -0.7751 0.3844
6038000000.0 -0.158 0.8773
6041000000.0 0.5649 0.7064
6044000000.0 0.9092 -0.01985
6047000000.0 0.5753 -0.7385
6050000000.0 -0.2097 -0.9469
6053000000.0 -0.8804 -0.4217
6056000000.0 -0.8566 0.4406
6059000000.0 -0.2055 0.9383
6062000000.0 0.6398 0.7722
6066000000.0 0.9996 -0.02409
6069000000.0 0.5862 -0.799
6072000000.0 -0.2456 -0.9757
6075000000.0 -0.955 -0.4075
6078000000.0 -0.8948 0.4534
6081000000.0 -0.1976 1.018
6084000000.0 0.6633 0.7692
6088000000.0 1.034 -0.05431
6091000000.0 0.5938 -0.8569
6094000000.0 -0.2914 -1.013
6097000000.0 -0.9409 -0.3722
6100000000.0 -0.894 0.5133
6103000000.0 -0.1426 1.015
6106000000.0 0.7197 0.7371
6109000000.0 0.9915 -0.1005
6112000000.0 0.5157 -0.8791
6116000000.0 -0.3395 -0.9389
6119000000.0 -0.9322 -0.2861
6122000000.0 -0.7993 0.5526
6125000000.0 -0.03601 0.9498
6128000000.0 0.7105 0.6355
6131000000.0 0.9077 -0.1793
6134000000.0 0.4372 -0.8178
6138000000.0 -0.3624 -0.8208
6141000000.0 -0.8997 -0.2159
6144000000.0 -0.6785 0.5454
6147000000.0 -0.01179 0.8502
6150000000.0 0.6504 0.537
6153000000.0 0.8284 -0.2172
6156000000.0 0.3579 -0.7307
6159000000.0 -0.3563 -0.7748
6162000000.0 -0.8261 -0.1217
6166000000.0 -0.63 0.5473
6169000000.0 0.05773 0.8455
6172000000.0 0.6421 0.5165
6175000000.0 0.7719 -0.2298
6178000000.0 0.2998 -0.7449
6181000000.0 -0.4095 -0.7064
6184000000.0 -0.8203 -0.1232
6188000000.0 -0.606 0.5699
6191000000.0 0.1007 0.8081
6194000000.0 0.6807 0.4689
6197000000.0 0.7694 -0.2761
6200000000.0 0.275 -0.7548
6203000000.0 -0.4372 -0.714
6206000000.0 -0.852 -0.09556
6209000000.0 -0.5675 0.5855
6212000000.0 0.1056 0.8412
6216000000.0 0.7336 0.4465
6219000000.0 0.8058 -0.2743
6222000000.0 0.2626 -0.8162
6225000000.0 -0.4429 -0.7486
6228000000.0 -0.827 -0.1125
6231000000.0 -0.5986 0.5917
6234000000.0 0.1012 0.8432
6238000000.0 0.7133 0.4745
6241000000.0 0.807 -0.2745
6244000000.0 0.2895 -0.7954
6247000000.0 -0.4156 -0.7229
6250000000.0 -0.8422 -0.1335
6253000000.0 -0.6095 0.5883
6256000000.0 0.06156 0.8109
6259000000.0 0.6733 0.4659
6262000000.0 0.7959 -0.2065
