! Created with skrf 1.8.0 (http://scikit-rf.org).
# Hz S RI R 50.0 
!freq ReS11 ImS11
4000000000.0 -0.1307 -1.541
4003000000.0 -1.272 -0.7569
4006000000.0 -1.427 0.4752
4009000000.0 -0.5891 1.455
4012000000.0 0.8111 1.327
4016000000.0 1.516 0.2366
4019000000.0 1.18 -1.085
4022000000.0 -0.057 -1.555
4025000000.0 -1.36 -0.9163
4028000000.0 -1.499 0.4812
4031000000.0 -0.598 1.522
4034000000.0 0.8065 1.442
4038000000.0 1.639 0.2615
4041000000.0 1.197 -1.107
4044000000.0 -0.1033 -1.626
4047000000.0 -1.347 -0.9217
4050000000.0 -1.555 0.4307
4053000000.0 -0.6778 1.529
4056000000.0 0.7158 1.452
4059000000.0 1.611 0.3313
4062000000.0 1.293 -1.008
4066000000.0 0.06511 -1.653
4069000000.0 -1.242 -1.05
4072000000.0 -1.657 0.2555
4075000000.0 -0.8662 1.419
4078000000.0 0.5478 1.547
4081000000.0 1.577 0.5187
4084000000.0 1.443 -0.8742
4088000000.0 0.2645 -1.634
4091000000.0 -1.094 -1.246
4094000000.0 -1.638 0.06315
4097000000.0 -0.999 1.33
4100000000.0 0.3892 1.584
4103000000.0 1.425 0.7182
4106000000.0 1.483 -0.6247
4109000000.0 0.4552 -1.528
4112000000.0 -0.8439 -1.323
4116000000.0 -1.522 -0.2066
4119000000.0 -1.129 1.016
4122000000.0 0.04437 1.557
4125000000.0 1.138 0.9818
4128000000.0 1.468 -0.2403
4131000000.0 0.7812 -1.254
4134000000.0 -0.4296 -1.431
4138000000.0 -1.37 -0.6066
4141000000.0 -1.385 0.628
4144000000.0 -0.3877 1.477
4147000000.0 0.8572 1.283
4150000000.0 1.536 0.1374
4153000000.0 1.097 -1.077
4156000000.0 -0.1179 -1.522
4159000000.0 -1.261 -0.9328
4162000000.0 -1.452 0.387
4166000000.0 -0.6704 1.372
4169000000.0 0.6078 1.395
4172000000.0 1.455 0.4119
4175000000.0 1.279 -0.8608
4178000000.0 0.189 -1.516
4181000000.0 -1.056 -1.102
4184000000.0 -1.52 0.09519
4188000000.0 -0.9447 1.226
4191000000.0 0.3717 1.525
4194000000.0 1.406 0.696
4197000000.0 1.436 -0.6336
4200000000.0 0.3913 -1.558
4203000000.0 -0.9524 -1.312
4206000000.0 -1.642 -0.05679
4209000000.0 -1.082 1.245
4212000000.0 0.3349 1.653
4216000000.0 1.506 0.7557
4219000000.0 1.573 -0.7451
4222000000.0 0.3859 -1.634
4225000000.0 -1.111 -1.296
4228000000.0 -1.697 0.1154
4231000000.0 -0.9557 1.412
4234000000.0 0.5644 1.617
4238000000.0 1.569 0.5653
4241000000.0 1.369 -0.9198
4244000000.0 0.1063 -1.615
4247000000.0 -1.246 -1.067
4250000000.0 -1.572 0.2778
4253000000.0 -0.6975 1.422
4256000000.0 0.7067 1.442
4259000000.0 1.525 0.3474
4262000000.0 1.202 -1.005
4266000000.0 -0.05669 -1.522
4269000000.0 -1.261 -0.8557
4272000000.0 -1.458 0.4662
4275000000.0 -0.5344 1.419
4278000000.0 0.7878 1.294
4281000000.0 1.436 0.1821
4284000000.0 1.028 -0.9989
4288000000.0 -0.1185 -1.406
4291000000.0 -1.144 -0.7434
4294000000.0 -1.284 0.4287
4297000000.0 -0.4983 1.234
4300000000.0 0.6608 1.208
4303000000.0 1.281 0.2657
4306000000.0 1.014 -0.8
4309000000.0 -0.01273 -1.276
4312000000.0 -1.001 -0.8298
4316000000.0 -1.293 0.2118
4319000000.0 -0.6794 1.105
4322000000.0 0.3809 1.244
4325000000.0 1.223 0.5006
4328000000.0 1.188 -0.6092
4331000000.0 0.2985 -1.325
4334000000.0 -0.8595 -1.106
4338000000.0 -1.425 -0.06782
4341000000.0 -0.9664 1.042
4344000000.0 0.2119 1.392
4347000000.0 1.235 0.7477
4350000000.0 1.354 -0.4899
4353000000.0 0.5159 -1.358
4356000000.0 -0.74 -1.287
4359000000.0 -1.46 -0.2666
4362000000.0 -1.137 0.9749
4366000000.0 -0.008297 1.474
4369000000.0 1.184 0.9506
4372000000.0 1.476 -0.2909
4375000000.0 0.7123 -1.326
4378000000.0 -0.5219 -1.406
4381000000.0 -1.473 -0.4993
4384000000.0 -1.329 0.867
4388000000.0 -0.1863 1.547
4391000000.0 1.077 1.137
4394000000.0 1.583 -0.1562
4397000000.0 0.8731 -1.333
4400000000.0 -0.5132 -1.532
4403000000.0 -1.485 -0.5722
4406000000.0 -1.388 0.8372
4409000000.0 -0.2034 1.611
4412000000.0 1.14 1.121
4416000000.0 1.591 -0.1449
4419000000.0 0.8276 -1.323
4422000000.0 -0.5258 -1.447
4425000000.0 -1.437 -0.4612
4428000000.0 -1.252 0.8269
4431000000.0 -0.09515 1.503
4434000000.0 1.073 1.026
4438000000.0 1.401 -0.2105
4441000000.0 0.6664 -1.287
4444000000.0 -0.5574 -1.295
4447000000.0 -1.29 -0.3001
4450000000.0 -1.062 0.8524
4453000000.0 0.002746 1.319
4456000000.0 1.043 0.8129
4459000000.0 1.273 -0.3398
4462000000.0 0.4774 -1.194
4466000000.0 -0.6516 -1.06
4469000000.0 -1.26 -0.1663
4472000000.0 -0.8545 0.874
4475000000.0 0.1164 1.213
4478000000.0 1.04 0.6202
4481000000.0 1.079 -0.4119
4484000000.0 0.3744 -1.136
4488000000.0 -0.6665 -0.9621
4491000000.0 -1.187 -0.0864
4494000000.0 -0.8025 0.8608
4497000000.0 0.1877 1.112
4500000000.0 0.9602 0.5851
4503000000.0 1.046 -0.4011
4506000000.0 0.3398 -1.035
4509000000.0 -0.6135 -0.9158
4512000000.0 -1.13 -0.1155
4516000000.0 -0.7932 0.8113
4519000000.0 0.1294 1.11
4522000000.0 0.974 0.6195
4525000000.0 1.133 -0.3418
4528000000.0 0.4274 -1.11
4531000000.0 -0.5542 -1.021
4534000000.0 -1.151 -0.2004
4538000000.0 -0.9026 0.7795
4541000000.0 0.03829 1.179
4544000000.0 0.9254 0.7401
4547000000.0 1.156 -0.2482
4550000000.0 0.5814 -1.092
4553000000.0 -0.4397 -1.128
4556000000.0 -1.212 -0.3881
4559000000.0 -1.065 0.6557
4562000000.0 -0.172 1.221
4566000000.0 0.8492 0.922
4569000000.0 1.282 -0.02907
4572000000.0 0.7937 -1.053
4575000000.0 -0.2538 -1.274
4578000000.0 -1.161 -0.6178
4581000000.0 -1.239 0.5211
4584000000.0 -0.4275 1.268
4588000000.0 0.7357 1.164
4591000000.0 1.364 0.1551
4594000000.0 0.9992 -0.9848
4597000000.0 -0.1011 -1.386
4600000000.0 -1.144 -0.8335
4603000000.0 -1.36 0.3508
4606000000.0 -0.5766 1.292
4609000000.0 0.638 1.257
4612000000.0 1.39 0.3177
4616000000.0 1.108 -0.8653
4619000000.0 0.07206 -1.415
4622000000.0 -1.07 -0.9118
4625000000.0 -1.383 0.2481
4628000000.0 -0.6712 1.225
4631000000.0 0.5034 1.298
4634000000.0 1.341 0.3995
4638000000.0 1.16 -0.7849
4641000000.0 0.1002 -1.357
4644000000.0 -1.005 -0.9556
4647000000.0 -1.322 0.2149
4650000000.0 -0.6983 1.168
4653000000.0 0.476 1.239
4656000000.0 1.238 0.4044
4659000000.0 1.082 -0.7175
4662000000.0 0.08802 -1.28
4666000000.0 -0.9443 -0.8553
4669000000.0 -1.218 0.2017
4672000000.0 -0.5894 1.065
4675000000.0 0.4876 1.106
4678000000.0 1.123 0.2915
4681000000.0 0.9424 -0.6693
4684000000.0 0.05962 -1.15
4688000000.0 -0.8499 -0.8154
4691000000.0 -1.127 0.1719
4694000000.0 -0.5336 1.001
4697000000.0 0.4303 1.039
4700000000.0 1.084 0.2835
4703000000.0 0.8955 -0.636
4706000000.0 0.08071 -1.063
4709000000.0 -0.8366 -0.7355
4712000000.0 -1.097 0.1922
4716000000.0 -0.5122 0.9739
4719000000.0 0.3964 1.003
4722000000.0 1.046 0.2865
4725000000.0 0.8298 -0.6487
4728000000.0 0.01092 -1.041
4731000000.0 -0.7971 -0.6896
4734000000.0 -1.058 0.1549
4738000000.0 -0.5316 0.9307
4741000000.0 0.3774 1.019
4744000000.0 1.026 0.3475
4747000000.0 0.908 -0.5357
4750000000.0 0.161 -1.031
4753000000.0 -0.7266 -0.8259
4756000000.0 -1.097 0.03945
4759000000.0 -0.7102 0.9102
4762000000.0 0.257 1.091
4766000000.0 1.003 0.5377
4769000000.0 1.089 -0.4495
4772000000.0 0.3264 -1.113
4775000000.0 -0.6475 -1.021
4778000000.0 -1.176 -0.1386
4781000000.0 -0.8608 0.7937
4784000000.0 0.0665 1.217
4788000000.0 0.9581 0.7482
4791000000.0 1.173 -0.2836
4794000000.0 0.5714 -1.087
4797000000.0 -0.489 -1.154
4800000000.0 -1.206 -0.3454
4803000000.0 -1.045 0.6452
4806000000.0 -0.1906 1.254
4809000000.0 0.8577 0.921
4812000000.0 1.328 -0.02771
4816000000.0 0.8002 -1.014
4819000000.0 -0.2692 -1.305
4822000000.0 -1.209 -0.6172
4825000000.0 -1.265 0.4993
4828000000.0 -0.4257 1.324
4831000000.0 0.7729 1.171
4834000000.0 1.403 0.1631
4838000000.0 0.9981 -0.9976
4841000000.0 -0.1509 -1.395
4844000000.0 -1.18 -0.7945
4847000000.0 -1.338 0.4339
4850000000.0 -0.5427 1.307
4853000000.0 0.6435 1.237
4856000000.0 1.351 0.2566
4859000000.0 1.075 -0.9058
4862000000.0 -0.01619 -1.364
4866000000.0 -1.074 -0.8893
4869000000.0 -1.324 0.2909
4872000000.0 -0.6073 1.196
4875000000.0 0.5508 1.23
4878000000.0 1.267 0.3112
4881000000.0 1.092 -0.8151
4884000000.0 0.04864 -1.232
4888000000.0 -0.9612 -0.8559
4891000000.0 -1.229 0.2262
4894000000.0 -0.5761 1.065
4897000000.0 0.4549 1.108
4900000000.0 1.146 0.3517
4903000000.0 0.9419 -0.6696
4906000000.0 0.07162 -1.061
4909000000.0 -0.7846 -0.7366
4912000000.0 -1.056 0.1403
4916000000.0 -0.56 0.9157
4919000000.0 0.3411 0.98
4922000000.0 0.9474 0.3376
4925000000.0 0.8675 -0.4924
4928000000.0 0.1573 -0.9806
4931000000.0 -0.6554 -0.7246
4934000000.0 -0.9704 0.02936
4938000000.0 -0.5701 0.7836
4941000000.0 0.2133 0.9391
4944000000.0 0.8335 0.428
4947000000.0 0.8663 -0.3989
4950000000.0 0.2541 -0.9263
4953000000.0 -0.5798 -0.7593
4956000000.0 -0.9824 -0.06236
4959000000.0 -0.6454 0.7399
4962000000.0 0.136 0.9708
4966000000.0 0.865 0.506
4969000000.0 0.9299 -0.385
4972000000.0 0.3234 -0.9425
4975000000.0 -0.5293 -0.8617
4978000000.0 -1.015 -0.1449
4981000000.0 -0.7471 0.7177
4984000000.0 0.07499 1.059
4988000000.0 0.8634 0.6377
4991000000.0 1.036 -0.2699
4994000000.0 0.4898 -0.9701
4997000000.0 -0.4509 -1.034
5000000000.0 -1.111 -0.3091
5003000000.0 -0.9464 0.6681
5006000000.0 -0.09762 1.158
5009000000.0 0.8494 0.8347
5012000000.0 1.236 -0.143
5016000000.0 0.7019 -1.027
5019000000.0 -0.3764 -1.175
5022000000.0 -1.157 -0.4766
5025000000.0 -1.104 0.6226
5028000000.0 -0.2442 1.272
5031000000.0 0.8455 0.9654
5034000000.0 1.285 -0.009754
5038000000.0 0.8279 -1.017
5041000000.0 -0.228 -1.291
5044000000.0 -1.144 -0.6393
5047000000.0 -1.231 0.4506
5050000000.0 -0.4242 1.249
5053000000.0 0.6386 1.123
5056000000.0 1.317 0.2171
5059000000.0 1.014 -0.8388
5062000000.0 -0.04484 -1.316
5066000000.0 -1.019 -0.8475
5069000000.0 -1.304 0.2612
5072000000.0 -0.5979 1.172
5075000000.0 0.5039 1.203
5078000000.0 1.265 0.3803
5081000000.0 1.061 -0.6977
5084000000.0 0.1939 -1.264
5088000000.0 -0.8556 -0.9193
5091000000.0 -1.235 0.07883
5094000000.0 -0.7096 0.9426
5097000000.0 0.2737 1.144
5100000000.0 1.051 0.5167
5103000000.0 1.062 -0.447
5106000000.0 0.299 -1.083
5109000000.0 -0.5943 -0.9516
5112000000.0 -1.107 -0.1449
5116000000.0 -0.8021 0.7526
5119000000.0 0.03402 1.046
5122000000.0 0.8827 0.6291
5125000000.0 0.9924 -0.2826
5128000000.0 0.4605 -0.9238
5131000000.0 -0.3806 -0.9202
5134000000.0 -0.984 -0.2749
5138000000.0 -0.8058 0.5544
5141000000.0 -0.07413 1.044
5144000000.0 0.7365 0.6479
5147000000.0 0.9715 -0.09607
5150000000.0 0.4873 -0.8158
5153000000.0 -0.3129 -0.8869
5156000000.0 -0.8677 -0.3579
5159000000.0 -0.8334 0.4556
5162000000.0 -0.1365 0.9178
5166000000.0 0.607 0.696
5169000000.0 0.9206 -0.006027
5172000000.0 0.5504 -0.7281
5175000000.0 -0.2142 -0.8752
5178000000.0 -0.8419 -0.3841
5181000000.0 -0.836 0.4287
5184000000.0 -0.177 0.9324
5188000000.0 0.5935 0.7035
5191000000.0 0.9345 -0.04253
5194000000.0 0.5632 -0.7605
5197000000.0 -0.221 -0.9037
5200000000.0 -0.8392 -0.3878
5203000000.0 -0.8442 0.4419
5206000000.0 -0.2014 0.9362
5209000000.0 0.6165 0.7572
5212000000.0 0.9685 0.01041
5216000000.0 0.6055 -0.7621
5219000000.0 -0.1791 -0.9876
5222000000.0 -0.8941 -0.4702
5225000000.0 -0.9318 0.4001
5228000000.0 -0.2876 0.9865
5231000000.0 0.5958 0.8419
5234000000.0 1.008 0.06978
5238000000.0 0.736 -0.734
5241000000.0 -0.1326 -1.073
5244000000.0 -0.8617 -0.5658
5247000000.0 -0.999 0.3433
5250000000.0 -0.3965 1.017
5253000000.0 0.5024 0.9195
5256000000.0 1.085 0.1955
5259000000.0 0.8408 -0.6738
5262000000.0 0.03594 -1.096
5266000000.0 -0.8207 -0.7274
5269000000.0 -1.087 0.1628
5272000000.0 -0.5751 0.939
5275000000.0 0.3628 1.019
5278000000.0 1.053 0.4168
5281000000.0 0.9702 -0.5362
5284000000.0 0.2191 -1.083
5288000000.0 -0.6646 -0.8793
5291000000.0 -1.121 -0.08424
5294000000.0 -0.7944 0.816
5297000000.0 0.1182 1.146
5300000000.0 0.954 0.6295
5303000000.0 1.094 -0.3179
5306000000.0 0.4496 -1.043
5309000000.0 -0.487 -1.051
5312000000.0 -1.124 -0.286
5316000000.0 -0.9102 0.6715
5319000000.0 -0.1134 1.116
5322000000.0 0.8169 0.7926
5325000000.0 1.148 -0.1028
5328000000.0 0.6634 -0.9751
5331000000.0 -0.3192 -1.132
5334000000.0 -1.068 -0.4878
5338000000.0 -1.046 0.4845
5341000000.0 -0.2647 1.159
5344000000.0 0.7137 0.8956
5347000000.0 1.141 0.03739
5350000000.0 0.7471 -0.8304
5353000000.0 -0.1483 -1.127
5356000000.0 -0.9483 -0.5727
5359000000.0 -1.027 0.3755
5362000000.0 -0.33 1.034
5366000000.0 0.5915 0.9658
5369000000.0 1.079 0.1415
5372000000.0 0.7923 -0.7528
5375000000.0 -0.0961 -1.049
5378000000.0 -0.8621 -0.567
5381000000.0 -0.9564 0.3327
5384000000.0 -0.3731 0.9412
5388000000.0 0.5417 0.8585
5391000000.0 0.986 0.08715
5394000000.0 0.6666 -0.7241
5397000000.0 -0.1047 -0.9489
5400000000.0 -0.8161 -0.4961
5403000000.0 -0.8534 0.3135
5406000000.0 -0.2896 0.8461
5409000000.0 0.4736 0.7613
5412000000.0 0.9103 0.07794
5416000000.0 0.6237 -0.6131
5419000000.0 -0.1163 -0.8567
5422000000.0 -0.7495 -0.4608
5425000000.0 -0.8206 0.2996
5428000000.0 -0.2808 0.8415
5431000000.0 0.5085 0.7322
5434000000.0 0.8791 0.07488
5438000000.0 0.6168 -0.6311
5441000000.0 -0.1207 -0.8697
5444000000.0 -0.7278 -0.4617
5447000000.0 -0.8431 0.3106
5450000000.0 -0.2683 0.8592
5453000000.0 0.4695 0.769
5456000000.0 0.8656 0.1286
5459000000.0 0.6397 -0.6051
5462000000.0 -0.05597 -0.9367
5466000000.0 -0.7393 -0.5357
5469000000.0 -0.9193 0.2372
5472000000.0 -0.3649 0.8401
5475000000.0 0.4047 0.861
5478000000.0 0.9117 0.1964
5481000000.0 0.781 -0.5447
5484000000.0 0.0388 -0.9932
5488000000.0 -0.7311 -0.6735
5491000000.0 -0.9665 0.08186
5494000000.0 -0.573 0.7816
5497000000.0 0.2603 0.9738
5500000000.0 0.9168 0.416
5503000000.0 0.9242 -0.4761
5506000000.0 0.2275 -1.01
5509000000.0 -0.6054 -0.8718
5512000000.0 -1.013 -0.06449
5516000000.0 -0.7297 0.7457
5519000000.0 0.1023 1.036
5522000000.0 0.8698 0.6196
5525000000.0 1.029 -0.2583
5528000000.0 0.4455 -0.9837
5531000000.0 -0.4415 -0.977
5534000000.0 -1.022 -0.265
5538000000.0 -0.8673 0.6023
5541000000.0 -0.107 1.108
5544000000.0 0.7463 0.7576
5547000000.0 1.1 -0.09491
5550000000.0 0.599 -0.8855
5553000000.0 -0.2774 -1.039
5556000000.0 -0.9813 -0.4553
5559000000.0 -0.9668 0.4864
5562000000.0 -0.2484 1.03
5566000000.0 0.603 0.88
5569000000.0 1.075 0.0737
5572000000.0 0.6929 -0.7591
5575000000.0 -0.1273 -1.034
5578000000.0 -0.8528 -0.5726
5581000000.0 -0.9688 0.2948
5584000000.0 -0.3465 0.9336
5588000000.0 0.4949 0.8587
5591000000.0 0.9519 0.1601
5594000000.0 0.7174 -0.6162
5597000000.0 -0.002769 -0.9759
5600000000.0 -0.7247 -0.5903
5603000000.0 -0.9037 0.215
5606000000.0 -0.4346 0.8364
5609000000.0 0.3688 0.8459
5612000000.0 0.8733 0.2041
5616000000.0 0.7255 -0.5289
5619000000.0 0.05247 -0.8688
5622000000.0 -0.6402 -0.5661
5625000000.0 -0.8481 0.1368
5628000000.0 -0.4453 0.7726
5631000000.0 0.2956 0.7705
5634000000.0 0.8156 0.2579
5638000000.0 0.704 -0.4637
5641000000.0 0.08126 -0.8662
5644000000.0 -0.6129 -0.5796
5647000000.0 -0.84 0.09346
5650000000.0 -0.4768 0.6935
5653000000.0 0.2958 0.8191
5656000000.0 0.8129 0.27
5659000000.0 0.7246 -0.4553
5662000000.0 0.09883 -0.8778
5666000000.0 -0.6187 -0.6103
5669000000.0 -0.8952 0.1128
5672000000.0 -0.4632 0.7545
5675000000.0 0.2777 0.8683
5678000000.0 0.8747 0.3269
5681000000.0 0.7978 -0.4513
5684000000.0 0.1069 -0.921
5688000000.0 -0.6275 -0.6835
5691000000.0 -0.9472 0.07266
5694000000.0 -0.5476 0.8053
5697000000.0 0.2691 0.9689
5700000000.0 0.9036 0.3622
5703000000.0 0.8831 -0.4699
5706000000.0 0.1692 -1.021
5709000000.0 -0.6633 -0.8106
5712000000.0 -1.051 0.02618
5716000000.0 -0.6336 0.8337
5719000000.0 0.2284 1.057
5722000000.0 0.9777 0.4588
5725000000.0 0.9669 -0.4571
5728000000.0 0.3368 -1.034
5731000000.0 -0.6339 -0.9007
5734000000.0 -1.097 -0.1167
5738000000.0 -0.7931 0.774
5741000000.0 0.09321 1.11
5744000000.0 0.8928 0.6446
5747000000.0 1.075 -0.2823
5750000000.0 0.4342 -1.005
5753000000.0 -0.4375 -0.9993
5756000000.0 -1.109 -0.2856
5759000000.0 -0.9095 0.6749
5762000000.0 -0.08166 1.129
5766000000.0 0.8242 0.7682
5769000000.0 1.111 -0.1549
5772000000.0 0.5956 -0.9216
5775000000.0 -0.3222 -1.082
5778000000.0 -1.037 -0.4733
5781000000.0 -0.953 0.4947
5784000000.0 -0.2164 1.077
5788000000.0 0.6923 0.9113
5791000000.0 1.069 0.04949
5794000000.0 0.7533 -0.743
5797000000.0 -0.1459 -1.052
5800000000.0 -0.9234 -0.5914
5803000000.0 -1.044 0.34
5806000000.0 -0.4068 1.007
5809000000.0 0.5356 0.9205
5812000000.0 1.065 0.1905
5816000000.0 0.8252 -0.6919
5819000000.0 -0.0114 -1.03
5822000000.0 -0.7923 -0.65
5825000000.0 -1.001 0.2311
5828000000.0 -0.4955 0.8644
5831000000.0 0.425 0.9403
5834000000.0 0.9582 0.2817
5838000000.0 0.7963 -0.5636
5841000000.0 0.04763 -0.9659
5844000000.0 -0.7044 -0.6558
5847000000.0 -0.9302 0.1422
5850000000.0 -0.5254 0.8325
5853000000.0 0.2573 0.9011
5856000000.0 0.9154 0.3299
5859000000.0 0.8023 -0.4954
5862000000.0 0.1034 -0.9113
5866000000.0 -0.6431 -0.6384
5869000000.0 -0.9075 0.08253
5872000000.0 -0.4948 0.7945
5875000000.0 0.2512 0.852
5878000000.0 0.8612 0.3174
5881000000.0 0.759 -0.4749
5884000000.0 0.1071 -0.8839
5888000000.0 -0.619 -0.6347
5891000000.0 -0.8561 0.05029
5894000000.0 -0.5093 0.7248
5897000000.0 0.2167 0.8281
5900000000.0 0.7794 0.3615
5903000000.0 0.7956 -0.4195
5906000000.0 0.1757 -0.8452
5909000000.0 -0.5575 -0.6938
5912000000.0 -0.8719 -0.005057
5916000000.0 -0.5745 0.6857
5919000000.0 0.1731 0.8325
5922000000.0 0.7788 0.4259
5925000000.0 0.8034 -0.3536
5928000000.0 0.286 -0.8297
5931000000.0 -0.5006 -0.7459
5934000000.0 -0.884 -0.09497
5938000000.0 -0.6463 0.6281
5941000000.0 0.08212 0.91
5944000000.0 0.7575 0.5485
5947000000.0 0.904 -0.2618
5950000000.0 0.3757 -0.843
5953000000.0 -0.3965 -0.8176
5956000000.0 -0.9004 -0.2428
5959000000.0 -0.782 0.5235
5962000000.0 -0.06922 0.9294
5966000000.0 0.6439 0.6646
5969000000.0 0.9851 -0.1016
5972000000.0 0.5552 -0.7991
5975000000.0 -0.2639 -0.9609
5978000000.0 -0.9093 -0.4032
5981000000.0 -0.8851 0.447
5984000000.0 -0.2498 0.9702
5988000000.0 0.6012 0.788
5991000000.0 1.001 0.0705
5994000000.0 0.6966 -0.7279
5997000000.0 -0.1383 -1.031
6000000000.0 -0.8724 -0.5587
6003000000.0 -0.9612 0.3078
6006000000.0 -0.334 0.925
6009000000.0 0.4887 0.8798
6012000000.0 1.017 0.1922
6016000000.0 0.7797 -0.6691
6019000000.0 -0.02159 -1.005
6022000000.0 -0.8121 -0.6354
6025000000.0 -0.9771 0.2051
6028000000.0 -0.43 0.8874
6031000000.0 0.3813 0.9118
6034000000.0 0.9718 0.2915
6038000000.0 0.811 -0.5424
6041000000.0 0.09155 -0.9983
6044000000.0 -0.7097 -0.6831
6047000000.0 -0.9651 0.125
6050000000.0 -0.5196 0.819
6053000000.0 0.29 0.896
6056000000.0 0.9254 0.3524
6059000000.0 0.8179 -0.4923
6062000000.0 0.1233 -0.9559
6066000000.0 -0.6537 -0.6675
6069000000.0 -0.9232 0.07489
6072000000.0 -0.5428 0.7615
6075000000.0 0.2534 0.8865
6078000000.0 0.8397 0.3298
6081000000.0 0.8045 -0.4173
6084000000.0 0.1809 -0.8395
6088000000.0 -0.583 -0.6733
6091000000.0 -0.8775 0.02354
6094000000.0 -0.5289 0.7049
6097000000.0 0.1742 0.8634
6100000000.0 0.7603 0.3836
6103000000.0 0.8048 -0.3652
6106000000.0 0.2531 -0.8608
6109000000.0 -0.5367 -0.6737
6112000000.0 -0.8723 -0.01264
6116000000.0 -0.5606 0.6614
6119000000.0 0.1667 0.836
6122000000.0 0.764 0.411
6125000000.0 0.8121 -0.3336
6128000000.0 0.2515 -0.8441
6131000000.0 -0.5141 -0.7299
6134000000.0 -0.8681 -0.06312
6138000000.0 -0.5892 0.6482
6141000000.0 0.1052 0.8795
6144000000.0 0.7693 0.4915
6147000000.0 0.8552 -0.3036
6150000000.0 0.2877 -0.8629
6153000000.0 -0.4751 -0.7903
6156000000.0 -0.9209 -0.1547
6159000000.0 -0.7043 0.6066
6162000000.0 0.0641 0.9493
6166000000.0 0.7422 0.5632
6169000000.0 0.921 -0.2508
6172000000.0 0.3775 -0.8431
6175000000.0 -0.4139 -0.8453
6178000000.0 -0.9234 -0.2337
6181000000.0 -0.7477 0.5662
6184000000.0 -0.0286 0.9727
6188000000.0 0.7212 0.6418
6191000000.0 0.9427 -0.1653
6194000000.0 0.4711 -0.8258
6197000000.0 -0.3489 -0.885
6200000000.0 -0.8891 -0.3176
6203000000.0 -0.8153 0.4715
6206000000.0 -0.1381 0.9462
6209000000.0 0.6279 0.7009
6212000000.0 0.9214 -0.06029
6216000000.0 0.5566 -0.7689
6219000000.0 -0.2065 -0.9472
6222000000.0 -0.8428 -0.427
6225000000.0 -0.8476 0.4094
6228000000.0 -0.2351 0.8785
6231000000.0 0.553 0.7321
6234000000.0 0.89 0.06965
6238000000.0 0.6102 -0.6576
6241000000.0 -0.1021 -0.9208
6244000000.0 -0.7485 -0.4582
6247000000.0 -0.827 0.2512
6250000000.0 -0.3277 0.7738
6253000000.0 0.4097 0.7773
6256000000.0 0.7885 0.1667
6259000000.0 0.6587 -0.5113
6262000000.0 0.04335 -0.8157
6266000000.0 -0.5918 -0.5597
6269000000.0 -0.8256 0.1195
