! Created with skrf 1.8.0 (http://scikit-rf.org).
# Hz S RI R 50.0 
!freq ReS11 ImS11
4000000000.0 -0.2321 -1.489
4003000000.0 -1.295 -0.7734
4006000000.0 -1.372 0.5195
4009000000.0 -0.4555 1.444
4012000000.0 0.8558 1.301
4016000000.0 1.543 0.1357
4019000000.0 1.087 -1.107
4022000000.0 -0.1811 -1.594
4025000000.0 -1.353 -0.8193
4028000000.0 -1.477 0.5825
4031000000.0 -0.5264 1.495
4034000000.0 0.8994 1.386
4038000000.0 1.596 0.1506
4041000000.0 1.144 -1.171
4044000000.0 -0.2373 -1.637
4047000000.0 -1.409 -0.8545
4050000000.0 -1.526 0.5177
4053000000.0 -0.5316 1.544
4056000000.0 0.8079 1.392
4059000000.0 1.596 0.2363
4062000000.0 1.209 -1.103
4066000000.0 -0.07845 -1.659
4069000000.0 -1.306 -0.9837
4072000000.0 -1.584 0.3503
4075000000.0 -0.743 1.424
4078000000.0 0.6677 1.56
4081000000.0 1.582 0.4692
4084000000.0 1.384 -0.9029
4088000000.0 0.1489 -1.658
4091000000.0 -1.148 -1.165
4094000000.0 -1.622 0.1363
4097000000.0 -0.9493 1.337
4100000000.0 0.4258 1.564
4103000000.0 1.444 0.6245
4106000000.0 1.44 -0.698
4109000000.0 0.3783 -1.546
4112000000.0 -0.8953 -1.226
4116000000.0 -1.531 -0.1392
4119000000.0 -1.063 1.054
4122000000.0 0.1235 1.477
4125000000.0 1.183 0.8984
4128000000.0 1.433 -0.3273
4131000000.0 0.7281 -1.3
4134000000.0 -0.5234 -1.384
4138000000.0 -1.375 -0.5019
4141000000.0 -1.33 0.7234
4144000000.0 -0.2913 1.479
4147000000.0 0.931 1.168
4150000000.0 1.499 0.05819
4153000000.0 1.052 -1.103
4156000000.0 -0.215 -1.524
4159000000.0 -1.261 -0.8037
4162000000.0 -1.468 0.4703
4166000000.0 -0.5694 1.431
4169000000.0 0.7075 1.339
4172000000.0 1.507 0.3246
4175000000.0 1.182 -0.9438
4178000000.0 0.05402 -1.488
4181000000.0 -1.13 -0.9922
4184000000.0 -1.499 0.2007
4188000000.0 -0.8139 1.278
4191000000.0 0.5119 1.46
4194000000.0 1.444 0.5588
4197000000.0 1.395 -0.7701
4200000000.0 0.2601 -1.581
4203000000.0 -1.103 -1.189
4206000000.0 -1.602 0.1068
4209000000.0 -0.9545 1.347
4212000000.0 0.5029 1.591
4216000000.0 1.547 0.5708
4219000000.0 1.392 -0.9119
4222000000.0 0.1515 -1.691
4225000000.0 -1.27 -1.139
4228000000.0 -1.649 0.3049
4231000000.0 -0.7522 1.489
4234000000.0 0.7139 1.513
4238000000.0 1.575 0.2868
4241000000.0 1.201 -1.033
4244000000.0 -0.1274 -1.592
4247000000.0 -1.329 -0.8285
4250000000.0 -1.492 0.4935
4253000000.0 -0.5007 1.465
4256000000.0 0.8599 1.29
4259000000.0 1.504 0.1356
4262000000.0 1.04 -1.089
4266000000.0 -0.2366 -1.455
4269000000.0 -1.332 -0.6916
4272000000.0 -1.326 0.6095
4275000000.0 -0.3581 1.432
4278000000.0 0.8723 1.14
4281000000.0 1.453 0.01438
4284000000.0 0.844 -1.073
4288000000.0 -0.274 -1.345
4291000000.0 -1.21 -0.6308
4294000000.0 -1.249 0.5874
4297000000.0 -0.3931 1.276
4300000000.0 0.7627 1.057
4303000000.0 1.28 0.1092
4306000000.0 0.9077 -0.9141
4309000000.0 -0.09937 -1.276
4312000000.0 -1.072 -0.733
4316000000.0 -1.26 0.3151
4319000000.0 -0.5838 1.165
4322000000.0 0.5077 1.179
4325000000.0 1.26 0.3727
4328000000.0 1.145 -0.736
4331000000.0 0.1289 -1.347
4334000000.0 -0.9653 -0.9866
4338000000.0 -1.367 0.1071
4341000000.0 -0.8272 1.142
4344000000.0 0.353 1.378
4347000000.0 1.316 0.6149
4350000000.0 1.307 -0.6752
4353000000.0 0.3634 -1.385
4356000000.0 -0.8962 -1.158
4359000000.0 -1.454 -0.05823
4362000000.0 -1.025 1.059
4366000000.0 0.2073 1.456
4369000000.0 1.27 0.7852
4372000000.0 1.406 -0.462
4375000000.0 0.5502 -1.409
4378000000.0 -0.7202 -1.306
4381000000.0 -1.508 -0.2737
4384000000.0 -1.166 0.9859
4388000000.0 0.04012 1.573
4391000000.0 1.224 0.9585
4394000000.0 1.545 -0.3735
4397000000.0 0.6745 -1.456
4400000000.0 -0.7254 -1.423
4403000000.0 -1.555 -0.3338
4406000000.0 -1.211 1.028
4409000000.0 0.05367 1.59
4412000000.0 1.274 0.8928
4416000000.0 1.49 -0.4454
4419000000.0 0.546 -1.437
4422000000.0 -0.7541 -1.285
4425000000.0 -1.455 -0.1599
4428000000.0 -1.029 1.047
4431000000.0 0.1921 1.435
4434000000.0 1.197 0.7286
4438000000.0 1.286 -0.5199
4441000000.0 0.3727 -1.324
4444000000.0 -0.7971 -1.103
4447000000.0 -1.337 -0.05681
4450000000.0 -0.8631 1.033
4453000000.0 0.2842 1.271
4456000000.0 1.154 0.5485
4459000000.0 1.084 -0.5882
4462000000.0 0.2316 -1.226
4466000000.0 -0.8307 -0.9091
4469000000.0 -1.234 0.05558
4472000000.0 -0.6794 0.9933
4475000000.0 0.3722 1.133
4478000000.0 1.098 0.3803
4481000000.0 0.9787 -0.6488
4484000000.0 0.1303 -1.149
4488000000.0 -0.8081 -0.7946
4491000000.0 -1.136 0.1487
4494000000.0 -0.5959 0.9942
4497000000.0 0.3631 1.097
4500000000.0 1.079 0.3855
4503000000.0 0.9432 -0.5723
4506000000.0 0.1669 -1.074
4509000000.0 -0.7879 -0.854
4512000000.0 -1.124 0.07209
4516000000.0 -0.6629 0.961
4519000000.0 0.3191 1.109
4522000000.0 1.054 0.4856
4525000000.0 1.024 -0.5308
4528000000.0 0.2476 -1.171
4531000000.0 -0.7644 -0.934
4534000000.0 -1.183 0.01007
4538000000.0 -0.7787 0.8911
4541000000.0 0.2302 1.183
4544000000.0 1.045 0.5759
4547000000.0 1.145 -0.4053
4550000000.0 0.4067 -1.16
4553000000.0 -0.6126 -1.07
4556000000.0 -1.224 -0.1969
4559000000.0 -0.942 0.8203
4562000000.0 0.01407 1.276
4566000000.0 0.9719 0.8129
4569000000.0 1.285 -0.2443
4572000000.0 0.6479 -1.138
4575000000.0 -0.4294 -1.23
4578000000.0 -1.248 -0.4725
4581000000.0 -1.146 0.6792
4584000000.0 -0.201 1.329
4588000000.0 0.9342 1.054
4591000000.0 1.368 -0.07838
4594000000.0 0.8508 -1.104
4597000000.0 -0.3049 -1.345
4600000000.0 -1.255 -0.5986
4603000000.0 -1.287 0.5838
4606000000.0 -0.3661 1.35
4609000000.0 0.8365 1.144
4612000000.0 1.396 0.07059
4616000000.0 0.944 -1.058
4619000000.0 -0.2132 -1.396
4622000000.0 -1.194 -0.7554
4625000000.0 -1.286 0.483
4628000000.0 -0.4373 1.294
4631000000.0 0.7194 1.186
4634000000.0 1.355 0.1407
4638000000.0 0.9683 -0.9511
4641000000.0 -0.1297 -1.334
4644000000.0 -1.121 -0.7184
4647000000.0 -1.272 0.4331
4650000000.0 -0.4043 1.235
4653000000.0 0.7131 1.077
4656000000.0 1.293 0.1118
4659000000.0 0.8822 -0.8985
4662000000.0 -0.1734 -1.217
4666000000.0 -1.076 -0.5985
4669000000.0 -1.126 0.4147
4672000000.0 -0.3658 1.151
4675000000.0 0.6732 0.9663
4678000000.0 1.159 0.1068
4681000000.0 0.7838 -0.8057
4684000000.0 -0.1627 -1.117
4688000000.0 -0.9695 -0.593
4691000000.0 -1.048 0.396
4694000000.0 -0.352 1.033
4697000000.0 0.5951 0.8977
4700000000.0 1.081 0.1044
4703000000.0 0.7149 -0.797
4706000000.0 -0.1622 -1.075
4709000000.0 -0.926 -0.5597
4712000000.0 -0.9953 0.3912
4716000000.0 -0.3181 1.026
4719000000.0 0.5928 0.8735
4722000000.0 1.106 0.09514
4725000000.0 0.7217 -0.8033
4728000000.0 -0.1472 -1.031
4731000000.0 -0.9061 -0.555
4734000000.0 -0.9965 0.3394
4738000000.0 -0.3683 0.9968
4741000000.0 0.5512 0.9367
4744000000.0 1.068 0.1637
4747000000.0 0.8497 -0.6959
4750000000.0 0.02891 -1.097
4753000000.0 -0.8578 -0.7012
4756000000.0 -1.125 0.2153
4759000000.0 -0.5508 0.9906
4762000000.0 0.3948 1.083
4766000000.0 1.082 0.387
4769000000.0 0.9866 -0.5985
4772000000.0 0.1814 -1.15
4775000000.0 -0.7676 -0.8974
4778000000.0 -1.193 0.02127
4781000000.0 -0.78 0.9331
4784000000.0 0.2538 1.203
4788000000.0 1.091 0.61
4791000000.0 1.186 -0.4626
4794000000.0 0.4524 -1.174
4797000000.0 -0.629 -1.097
4800000000.0 -1.276 -0.2386
4803000000.0 -0.9979 0.7965
4806000000.0 -0.02702 1.281
4809000000.0 0.9855 0.8684
4812000000.0 1.314 -0.2173
4816000000.0 0.6888 -1.146
4819000000.0 -0.444 -1.289
4822000000.0 -1.303 -0.4537
4825000000.0 -1.178 0.7029
4828000000.0 -0.2181 1.374
4831000000.0 0.9473 1.045
4834000000.0 1.391 -0.07634
4838000000.0 0.8355 -1.14
4841000000.0 -0.3571 -1.373
4844000000.0 -1.257 -0.5819
4847000000.0 -1.256 0.6005
4850000000.0 -0.3248 1.348
4853000000.0 0.8261 1.083
4856000000.0 1.344 0.03569
4859000000.0 0.8616 -1.03
4862000000.0 -0.2499 -1.341
4866000000.0 -1.157 -0.6494
4869000000.0 -1.229 0.4952
4872000000.0 -0.3944 1.255
4875000000.0 0.7069 1.075
4878000000.0 1.262 0.1158
4881000000.0 0.8526 -0.8941
4884000000.0 -0.1318 -1.211
4888000000.0 -1.017 -0.6294
4891000000.0 -1.109 0.3967
4894000000.0 -0.3753 1.1
4897000000.0 0.5978 0.9602
4900000000.0 1.105 0.1217
4903000000.0 0.7919 -0.7611
4906000000.0 -0.08741 -1.06
4909000000.0 -0.8837 -0.5884
4912000000.0 -0.986 0.2787
4916000000.0 -0.4008 0.9254
4919000000.0 0.4963 0.9027
4922000000.0 0.9631 0.1679
4925000000.0 0.7436 -0.6058
4928000000.0 -0.001541 -0.9601
4931000000.0 -0.7327 -0.5936
4934000000.0 -0.9284 0.1781
4938000000.0 -0.425 0.8511
4941000000.0 0.3812 0.8748
4944000000.0 0.9311 0.2716
4947000000.0 0.8168 -0.527
4950000000.0 0.07822 -0.9487
4953000000.0 -0.6705 -0.6699
4956000000.0 -0.9576 0.1441
4959000000.0 -0.5381 0.8106
4962000000.0 0.3088 0.9274
4966000000.0 0.9645 0.3684
4969000000.0 0.8838 -0.5015
4972000000.0 0.1697 -1.003
4975000000.0 -0.6629 -0.7797
4978000000.0 -1.033 0.03321
4981000000.0 -0.6632 0.844
4984000000.0 0.2325 1.032
4988000000.0 0.9477 0.4819
4991000000.0 1.001 -0.4098
4994000000.0 0.3351 -1.081
4997000000.0 -0.611 -0.9354
5000000000.0 -1.141 -0.1177
5003000000.0 -0.8346 0.8226
5006000000.0 0.09465 1.196
5009000000.0 0.9878 0.7074
5012000000.0 1.178 -0.3208
5016000000.0 0.5094 -1.128
5019000000.0 -0.5507 -1.124
5022000000.0 -1.256 -0.2915
5025000000.0 -1.046 0.7706
5028000000.0 -0.04672 1.293
5031000000.0 0.9658 0.8523
5034000000.0 1.291 -0.2324
5038000000.0 0.6702 -1.111
5041000000.0 -0.4338 -1.232
5044000000.0 -1.23 -0.4684
5047000000.0 -1.136 0.637
5050000000.0 -0.204 1.278
5053000000.0 0.8335 1.002
5056000000.0 1.281 0.008217
5059000000.0 0.8589 -0.992
5062000000.0 -0.2267 -1.268
5066000000.0 -1.128 -0.6744
5069000000.0 -1.193 0.4512
5072000000.0 -0.4242 1.208
5075000000.0 0.6711 1.107
5078000000.0 1.217 0.1798
5081000000.0 0.9374 -0.8395
5084000000.0 -0.05316 -1.199
5088000000.0 -0.9631 -0.7386
5091000000.0 -1.189 0.2795
5094000000.0 -0.5342 1.036
5097000000.0 0.4483 1.087
5100000000.0 1.091 0.3471
5103000000.0 0.928 -0.5908
5106000000.0 0.148 -1.101
5109000000.0 -0.7176 -0.8109
5112000000.0 -1.067 0.03848
5116000000.0 -0.608 0.8131
5119000000.0 0.2392 0.9956
5122000000.0 0.9563 0.4538
5125000000.0 0.9294 -0.4161
5128000000.0 0.2666 -0.983
5131000000.0 -0.5546 -0.8061
5134000000.0 -0.9931 -0.06027
5138000000.0 -0.6682 0.7216
5141000000.0 0.1133 0.9744
5144000000.0 0.7738 0.4987
5147000000.0 0.8724 -0.303
5150000000.0 0.3491 -0.8571
5153000000.0 -0.4554 -0.7987
5156000000.0 -0.9244 -0.1306
5159000000.0 -0.6636 0.6241
5162000000.0 0.04856 0.9247
5166000000.0 0.7416 0.5373
5169000000.0 0.864 -0.201
5172000000.0 0.3607 -0.8161
5175000000.0 -0.3824 -0.7895
5178000000.0 -0.879 -0.1825
5181000000.0 -0.6767 0.5665
5184000000.0 0.004487 0.9164
5188000000.0 0.7488 0.5477
5191000000.0 0.9011 -0.2099
5194000000.0 0.4078 -0.8363
5197000000.0 -0.4318 -0.8561
5200000000.0 -0.9445 -0.1828
5203000000.0 -0.7157 0.6057
5206000000.0 0.0082 0.9899
5209000000.0 0.7244 0.5869
5212000000.0 0.9624 -0.1968
5216000000.0 0.4421 -0.9104
5219000000.0 -0.4158 -0.918
5222000000.0 -0.9782 -0.2614
5225000000.0 -0.7914 0.6026
5228000000.0 -0.05056 1.018
5231000000.0 0.7402 0.7009
5234000000.0 1.002 -0.112
5238000000.0 0.5414 -0.888
5241000000.0 -0.3349 -0.9958
5244000000.0 -0.9958 -0.3795
5247000000.0 -0.956 0.4784
5250000000.0 -0.216 1.041
5253000000.0 0.7005 0.8482
5256000000.0 1.082 -0.008599
5259000000.0 0.685 -0.8832
5262000000.0 -0.2146 -1.059
5266000000.0 -0.9443 -0.5637
5269000000.0 -1.033 0.3751
5272000000.0 -0.3894 1.043
5275000000.0 0.5463 0.9413
5278000000.0 1.055 0.2083
5281000000.0 0.8382 -0.6823
5284000000.0 0.03856 -1.107
5288000000.0 -0.8228 -0.7631
5291000000.0 -1.111 0.1322
5294000000.0 -0.5781 0.9481
5297000000.0 0.3492 1.087
5300000000.0 1.032 0.4335
5303000000.0 1.003 -0.5163
5306000000.0 0.243 -1.113
5309000000.0 -0.708 -0.9114
5312000000.0 -1.132 -0.06711
5316000000.0 -0.7839 0.8394
5319000000.0 0.1067 1.128
5322000000.0 0.9647 0.6376
5325000000.0 1.103 -0.3254
5328000000.0 0.3998 -1.063
5331000000.0 -0.533 -0.9655
5334000000.0 -1.101 -0.2121
5338000000.0 -0.9068 0.7155
5341000000.0 -0.03374 1.11
5344000000.0 0.8627 0.7113
5347000000.0 1.064 -0.225
5350000000.0 0.4996 -0.9716
5353000000.0 -0.4103 -1.006
5356000000.0 -1.022 -0.2696
5359000000.0 -0.8302 0.6195
5362000000.0 -0.04134 1.044
5366000000.0 0.7862 0.6701
5369000000.0 1.009 -0.1879
5372000000.0 0.4529 -0.8953
5375000000.0 -0.4108 -0.9138
5378000000.0 -0.9666 -0.2583
5381000000.0 -0.7629 0.6098
5384000000.0 -0.0323 0.9862
5388000000.0 0.7242 0.594
5391000000.0 0.9154 -0.2084
5394000000.0 0.3953 -0.8204
5397000000.0 -0.3935 -0.8395
5400000000.0 -0.8695 -0.1949
5403000000.0 -0.7071 0.5462
5406000000.0 -0.00211 0.8782
5409000000.0 0.7122 0.5246
5412000000.0 0.831 -0.2191
5416000000.0 0.3583 -0.7866
5419000000.0 -0.3748 -0.7705
5422000000.0 -0.8215 -0.1768
5425000000.0 -0.6275 0.539
5428000000.0 0.005157 0.8478
5431000000.0 0.7002 0.5798
5434000000.0 0.8174 -0.2065
5438000000.0 0.3837 -0.842
5441000000.0 -0.3777 -0.8424
5444000000.0 -0.8697 -0.2024
5447000000.0 -0.691 0.5719
5450000000.0 -0.03394 0.9223
5453000000.0 0.6571 0.5922
5456000000.0 0.9189 -0.1769
5459000000.0 0.436 -0.8019
5462000000.0 -0.3474 -0.8672
5466000000.0 -0.9013 -0.2952
5469000000.0 -0.7871 0.4886
5472000000.0 -0.1468 0.9226
5475000000.0 0.6511 0.7189
5478000000.0 0.9665 -0.02794
5481000000.0 0.5972 -0.7705
5484000000.0 -0.2101 -0.9784
5488000000.0 -0.9023 -0.4916
5491000000.0 -0.9751 0.3496
5494000000.0 -0.3059 0.981
5497000000.0 0.5312 0.8668
5500000000.0 1.033 0.1655
5503000000.0 0.7618 -0.7099
5506000000.0 -0.0597 -1.039
5509000000.0 -0.8451 -0.601
5512000000.0 -1.05 0.2196
5516000000.0 -0.4815 0.9408
5519000000.0 0.4043 0.9948
5522000000.0 1.004 0.3175
5525000000.0 0.9059 -0.5706
5528000000.0 0.1221 -1.066
5531000000.0 -0.7111 -0.823
5534000000.0 -1.097 0.05924
5538000000.0 -0.6737 0.8665
5541000000.0 0.2213 1.032
5544000000.0 0.9541 0.4762
5547000000.0 0.9484 -0.4143
5550000000.0 0.3024 -1.026
5553000000.0 -0.6147 -0.8932
5556000000.0 -1.058 -0.08617
5559000000.0 -0.7033 0.7228
5562000000.0 0.1113 1.008
5566000000.0 0.8738 0.5406
5569000000.0 0.957 -0.3183
5572000000.0 0.3515 -0.9111
5575000000.0 -0.4613 -0.8527
5578000000.0 -0.9565 -0.1825
5581000000.0 -0.7578 0.6063
5584000000.0 0.008324 0.9463
5588000000.0 0.7406 0.5878
5591000000.0 0.8902 -0.218
5594000000.0 0.3987 -0.7933
5597000000.0 -0.3527 -0.8497
5600000000.0 -0.8524 -0.2293
5603000000.0 -0.6758 0.512
5606000000.0 -0.02963 0.865
5609000000.0 0.6476 0.5557
5612000000.0 0.8555 -0.1421
5616000000.0 0.4031 -0.757
5619000000.0 -0.3107 -0.7568
5622000000.0 -0.8002 -0.2205
5625000000.0 -0.6677 0.4518
5628000000.0 -0.05178 0.8034
5631000000.0 0.6277 0.5465
5634000000.0 0.8289 -0.09133
5638000000.0 0.4146 -0.708
5641000000.0 -0.2912 -0.7875
5644000000.0 -0.7757 -0.2435
5647000000.0 -0.6964 0.4633
5650000000.0 -0.07237 0.8561
5653000000.0 0.6144 0.5992
5656000000.0 0.8432 -0.1146
5659000000.0 0.4671 -0.7505
5662000000.0 -0.306 -0.8061
5666000000.0 -0.8275 -0.2805
5669000000.0 -0.7602 0.4779
5672000000.0 -0.09425 0.9009
5675000000.0 0.6914 0.6564
5678000000.0 0.9412 -0.09317
5681000000.0 0.51 -0.8157
5684000000.0 -0.3078 -0.9212
5688000000.0 -0.943 -0.3594
5691000000.0 -0.8826 0.5081
5694000000.0 -0.1664 1.005
5697000000.0 0.6846 0.7896
5700000000.0 1.039 -0.04759
5703000000.0 0.6165 -0.8572
5706000000.0 -0.2466 -1.044
5709000000.0 -0.9824 -0.4584
5712000000.0 -0.9826 0.4717
5716000000.0 -0.2851 1.055
5719000000.0 0.6631 0.8921
5722000000.0 1.066 0.06218
5725000000.0 0.7561 -0.7978
5728000000.0 -0.1852 -1.111
5731000000.0 -0.9399 -0.5934
5734000000.0 -1.042 0.343
5738000000.0 -0.4064 1.04
5741000000.0 0.5418 0.9892
5744000000.0 1.077 0.229
5747000000.0 0.8607 -0.7393
5750000000.0 0.01024 -1.13
5753000000.0 -0.8749 -0.7373
5756000000.0 -1.113 0.1977
5759000000.0 -0.5338 0.9638
5762000000.0 0.4047 1.056
5766000000.0 1.03 0.3551
5769000000.0 0.9625 -0.5788
5772000000.0 0.1424 -1.11
5775000000.0 -0.7151 -0.8053
5778000000.0 -1.089 0.06708
5781000000.0 -0.6646 0.8832
5784000000.0 0.2349 1.056
5788000000.0 1.006 0.4683
5791000000.0 0.9842 -0.4434
5794000000.0 0.2642 -1.025
5797000000.0 -0.6464 -0.847
5800000000.0 -1.011 -0.07995
5803000000.0 -0.7109 0.7918
5806000000.0 0.1935 1.026
5809000000.0 0.9121 0.5048
5812000000.0 0.9661 -0.3664
5816000000.0 0.3418 -0.9682
5819000000.0 -0.5276 -0.8003
5822000000.0 -0.9533 -0.08637
5825000000.0 -0.693 0.6593
5828000000.0 0.09088 0.9424
5831000000.0 0.8165 0.5202
5834000000.0 0.8905 -0.3133
5838000000.0 0.3146 -0.8626
5841000000.0 -0.4851 -0.7796
5844000000.0 -0.9019 -0.09807
5847000000.0 -0.6555 0.6242
5850000000.0 0.07046 0.8862
5853000000.0 0.772 0.4775
5856000000.0 0.863 -0.2843
5859000000.0 0.3173 -0.8387
5862000000.0 -0.472 -0.7608
5866000000.0 -0.8895 -0.1208
5869000000.0 -0.6 0.6239
5872000000.0 0.08945 0.8861
5875000000.0 0.7544 0.4758
5878000000.0 0.8388 -0.2721
5881000000.0 0.3025 -0.7951
5884000000.0 -0.4571 -0.7859
5888000000.0 -0.8547 -0.1289
5891000000.0 -0.6299 0.5531
5894000000.0 0.09613 0.8585
5897000000.0 0.6994 0.4962
5900000000.0 0.8595 -0.267
5903000000.0 0.3541 -0.8222
5906000000.0 -0.4158 -0.7763
5909000000.0 -0.8757 -0.1697
5912000000.0 -0.7275 0.5525
5916000000.0 -0.02141 0.931
5919000000.0 0.7034 0.5473
5922000000.0 0.9179 -0.1937
5925000000.0 0.4622 -0.8275
5928000000.0 -0.3382 -0.8795
5931000000.0 -0.8676 -0.3017
5934000000.0 -0.7916 0.5206
5938000000.0 -0.1095 0.9219
5941000000.0 0.6752 0.6943
5944000000.0 0.9695 -0.1016
5947000000.0 0.5649 -0.7644
5950000000.0 -0.2429 -0.9311
5953000000.0 -0.9018 -0.4007
5956000000.0 -0.8708 0.4139
5959000000.0 -0.2187 0.9373
5962000000.0 0.6166 0.8178
5966000000.0 0.995 0.03958
5969000000.0 0.7076 -0.7277
5972000000.0 -0.1619 -0.9786
5975000000.0 -0.9006 -0.5215
5978000000.0 -0.9766 0.3258
5981000000.0 -0.3381 0.958
5984000000.0 0.5322 0.8574
5988000000.0 1.022 0.1717
5991000000.0 0.767 -0.7089
5994000000.0 -0.07699 -1.038
5997000000.0 -0.8347 -0.5909
6000000000.0 -1.004 0.2549
6003000000.0 -0.3755 0.9171
6006000000.0 0.4477 0.8679
6009000000.0 0.9399 0.1606
6012000000.0 0.7448 -0.6648
6016000000.0 -0.07748 -1.0
6019000000.0 -0.7475 -0.5641
6022000000.0 -0.929 0.2582
6025000000.0 -0.3851 0.8378
6028000000.0 0.4375 0.855
6031000000.0 0.878 0.1706
6034000000.0 0.7082 -0.587
6038000000.0 -0.02304 -0.9247
6041000000.0 -0.7052 -0.5554
6044000000.0 -0.8669 0.2187
6047000000.0 -0.3449 0.8023
6050000000.0 0.4346 0.7789
6053000000.0 0.8404 0.1599
6056000000.0 0.6797 -0.5275
6059000000.0 -0.02446 -0.863
6062000000.0 -0.7008 -0.513
6066000000.0 -0.8191 0.2116
6069000000.0 -0.3454 0.777
6072000000.0 0.4059 0.7316
6075000000.0 0.8385 0.1505
6078000000.0 0.6302 -0.5587
6081000000.0 -0.02781 -0.8337
6084000000.0 -0.6858 -0.4965
6088000000.0 -0.8169 0.203
6091000000.0 -0.3308 0.7786
6094000000.0 0.392 0.7763
6097000000.0 0.8714 0.1686
6100000000.0 0.6779 -0.5699
6103000000.0 -0.0205 -0.8818
6106000000.0 -0.7194 -0.5545
6109000000.0 -0.9159 0.1901
6112000000.0 -0.3927 0.8514
6116000000.0 0.3901 0.8293
6119000000.0 0.926 0.2331
6122000000.0 0.7336 -0.5898
6125000000.0 -0.01765 -0.9607
6128000000.0 -0.7643 -0.6094
6131000000.0 -0.962 0.2409
6134000000.0 -0.4293 0.8839
6138000000.0 0.4061 0.8973
6141000000.0 0.9556 0.2116
6144000000.0 0.7974 -0.5881
6147000000.0 0.01794 -0.9941
6150000000.0 -0.7662 -0.6751
6153000000.0 -1.004 0.2413
6156000000.0 -0.4512 0.9398
6159000000.0 0.4021 0.9382
6162000000.0 0.9509 0.2356
6166000000.0 0.8247 -0.6061
6169000000.0 0.01619 -1.023
6172000000.0 -0.7535 -0.6406
6175000000.0 -0.9942 0.1732
6178000000.0 -0.4467 0.8795
6181000000.0 0.4179 0.9584
6184000000.0 0.9601 0.246
6188000000.0 0.8232 -0.5702
6191000000.0 0.04199 -0.9874
6194000000.0 -0.7446 -0.6348
6197000000.0 -0.9516 0.1909
6200000000.0 -0.4525 0.8247
6203000000.0 0.3611 0.8266
6206000000.0 0.907 0.2416
6209000000.0 0.7148 -0.5392
6212000000.0 0.07556 -0.908
6216000000.0 -0.6707 -0.619
6219000000.0 -0.9125 0.1208
6222000000.0 -0.4098 0.7619
6225000000.0 0.3327 0.8093
6228000000.0 0.8231 0.2423
6231000000.0 0.7307 -0.4584
6234000000.0 0.04372 -0.8633
6238000000.0 -0.6248 -0.5817
6241000000.0 -0.85 0.1289
6244000000.0 -0.4197 0.733
6247000000.0 0.2909 0.7702
6250000000.0 0.8097 0.2123
6253000000.0 0.6697 -0.4889
6256000000.0 0.005172 -0.8268
6259000000.0 -0.6207 -0.5702
6262000000.0 -0.8152 0.1413
6266000000.0 -0.3876 0.7326
