! Created with skrf 1.8.0 (http://scikit-rf.org).
# Hz S RI R 50.0 
!freq ReS11 ImS11
4000000000.0 -0.1701 -1.458
4003000000.0 -1.252 -0.7809
4006000000.0 -1.447 0.5062
4009000000.0 -0.56 1.417
4012000000.0 0.7709 1.308
4016000000.0 1.541 0.1606
4019000000.0 1.084 -1.079
4022000000.0 -0.1286 -1.511
4025000000.0 -1.304 -0.8849
4028000000.0 -1.491 0.5177
4031000000.0 -0.5584 1.484
4034000000.0 0.8378 1.362
4038000000.0 1.603 0.1933
4041000000.0 1.146 -1.153
4044000000.0 -0.1436 -1.63
4047000000.0 -1.325 -0.8767
4050000000.0 -1.553 0.4585
4053000000.0 -0.5993 1.495
4056000000.0 0.8069 1.396
4059000000.0 1.606 0.3055
4062000000.0 1.228 -0.9969
4066000000.0 0.002975 -1.606
4069000000.0 -1.183 -0.9654
4072000000.0 -1.572 0.2809
4075000000.0 -0.7569 1.424
4078000000.0 0.597 1.507
4081000000.0 1.519 0.5064
4084000000.0 1.418 -0.9248
4088000000.0 0.2207 -1.601
4091000000.0 -1.145 -1.221
4094000000.0 -1.621 0.09684
4097000000.0 -0.9263 1.316
4100000000.0 0.3832 1.54
4103000000.0 1.425 0.6987
4106000000.0 1.437 -0.6403
4109000000.0 0.42 -1.494
4112000000.0 -0.8548 -1.299
4116000000.0 -1.508 -0.1691
4119000000.0 -1.114 0.9926
4122000000.0 0.03529 1.436
4125000000.0 1.136 0.945
4128000000.0 1.442 -0.2717
4131000000.0 0.7703 -1.272
4134000000.0 -0.4542 -1.437
4138000000.0 -1.371 -0.5738
4141000000.0 -1.318 0.6436
4144000000.0 -0.3894 1.45
4147000000.0 0.8741 1.207
4150000000.0 1.526 0.122
4153000000.0 1.057 -1.076
4156000000.0 -0.1422 -1.502
4159000000.0 -1.238 -0.8919
4162000000.0 -1.477 0.4231
4166000000.0 -0.6508 1.366
4169000000.0 0.6336 1.336
4172000000.0 1.452 0.3719
4175000000.0 1.245 -0.8587
4178000000.0 0.1629 -1.478
4181000000.0 -1.061 -1.063
4184000000.0 -1.494 0.1068
4188000000.0 -0.851 1.213
4191000000.0 0.3893 1.453
4194000000.0 1.397 0.6489
4197000000.0 1.426 -0.6809
4200000000.0 0.3606 -1.545
4203000000.0 -0.9488 -1.213
4206000000.0 -1.603 0.0212
4209000000.0 -1.029 1.283
4212000000.0 0.3855 1.578
4216000000.0 1.517 0.6861
4219000000.0 1.482 -0.7695
4222000000.0 0.2838 -1.692
4225000000.0 -1.129 -1.199
4228000000.0 -1.651 0.1781
4231000000.0 -0.8762 1.425
4234000000.0 0.5814 1.565
4238000000.0 1.584 0.4838
4241000000.0 1.306 -0.9914
4244000000.0 0.003052 -1.581
4247000000.0 -1.232 -0.9816
4250000000.0 -1.488 0.3925
4253000000.0 -0.6391 1.456
4256000000.0 0.7588 1.331
4259000000.0 1.465 0.2582
4262000000.0 1.128 -1.02
4266000000.0 -0.1744 -1.502
4269000000.0 -1.264 -0.8093
4272000000.0 -1.378 0.4782
4275000000.0 -0.5119 1.405
4278000000.0 0.786 1.241
4281000000.0 1.404 0.1503
4284000000.0 0.9702 -1.009
4288000000.0 -0.1789 -1.386
4291000000.0 -1.163 -0.7104
4294000000.0 -1.255 0.4758
4297000000.0 -0.4392 1.256
4300000000.0 0.669 1.121
4303000000.0 1.285 0.2108
4306000000.0 0.9617 -0.8332
4309000000.0 -0.03012 -1.296
4312000000.0 -1.005 -0.8236
4316000000.0 -1.262 0.2534
4319000000.0 -0.6454 1.113
4322000000.0 0.4432 1.204
4325000000.0 1.209 0.4409
4328000000.0 1.148 -0.6587
4331000000.0 0.26 -1.311
4334000000.0 -0.8586 -1.031
4338000000.0 -1.388 -0.004775
4341000000.0 -0.8862 1.098
4344000000.0 0.2772 1.368
4347000000.0 1.225 0.6954
4350000000.0 1.344 -0.5154
4353000000.0 0.4678 -1.35
4356000000.0 -0.7954 -1.233
4359000000.0 -1.383 -0.2089
4362000000.0 -1.093 0.9819
4366000000.0 0.07688 1.452
4369000000.0 1.181 0.8689
4372000000.0 1.441 -0.3386
4375000000.0 0.6857 -1.333
4378000000.0 -0.6065 -1.355
4381000000.0 -1.455 -0.4485
4384000000.0 -1.253 0.8433
4388000000.0 -0.1247 1.553
4391000000.0 1.128 1.091
4394000000.0 1.519 -0.2156
4397000000.0 0.8109 -1.366
4400000000.0 -0.5717 -1.472
4403000000.0 -1.532 -0.4542
4406000000.0 -1.285 0.8807
4409000000.0 -0.1035 1.586
4412000000.0 1.166 1.05
4416000000.0 1.502 -0.2301
4419000000.0 0.7164 -1.359
4422000000.0 -0.599 -1.354
4425000000.0 -1.434 -0.359
4428000000.0 -1.171 0.8859
4431000000.0 -0.02632 1.455
4434000000.0 1.117 0.8838
4438000000.0 1.389 -0.3374
4441000000.0 0.5879 -1.244
4444000000.0 -0.6412 -1.199
4447000000.0 -1.312 -0.2231
4450000000.0 -1.003 0.8592
4453000000.0 0.09914 1.278
4456000000.0 1.032 0.714
4459000000.0 1.198 -0.4385
4462000000.0 0.4088 -1.191
4466000000.0 -0.6961 -0.9927
4469000000.0 -1.201 -0.08903
4472000000.0 -0.802 0.9199
4475000000.0 0.2 1.155
4478000000.0 1.023 0.5023
4481000000.0 1.049 -0.4854
4484000000.0 0.2788 -1.104
4488000000.0 -0.7159 -0.9123
4491000000.0 -1.132 -0.006778
4494000000.0 -0.6922 0.8583
4497000000.0 0.2162 1.134
4500000000.0 0.9919 0.5269
4503000000.0 0.9967 -0.4134
4506000000.0 0.2705 -1.02
4509000000.0 -0.6506 -0.8646
4512000000.0 -1.101 -0.04766
4516000000.0 -0.7534 0.8741
4519000000.0 0.1595 1.102
4522000000.0 0.986 0.5594
4525000000.0 1.076 -0.4204
4528000000.0 0.3794 -1.074
4531000000.0 -0.61 -0.9845
4534000000.0 -1.171 -0.1469
4538000000.0 -0.8629 0.8197
4541000000.0 0.07349 1.168
4544000000.0 0.9416 0.7043
4547000000.0 1.162 -0.2977
4550000000.0 0.5256 -1.097
4553000000.0 -0.5255 -1.143
4556000000.0 -1.165 -0.345
4559000000.0 -1.012 0.6969
4562000000.0 -0.1378 1.234
4566000000.0 0.8855 0.8967
4569000000.0 1.27 -0.09449
4572000000.0 0.7156 -1.046
4575000000.0 -0.3046 -1.238
4578000000.0 -1.152 -0.5736
4581000000.0 -1.212 0.5785
4584000000.0 -0.3295 1.289
4588000000.0 0.7895 1.106
4591000000.0 1.352 0.09788
4594000000.0 0.9485 -0.9871
4597000000.0 -0.1624 -1.375
4600000000.0 -1.159 -0.7463
4603000000.0 -1.345 0.4382
4606000000.0 -0.5055 1.296
4609000000.0 0.7013 1.225
4612000000.0 1.396 0.2311
4616000000.0 1.059 -0.8986
4619000000.0 -0.03796 -1.399
4622000000.0 -1.092 -0.8485
4625000000.0 -1.361 0.3129
4628000000.0 -0.5986 1.249
4631000000.0 0.5798 1.239
4634000000.0 1.331 0.3313
4638000000.0 1.084 -0.8207
4641000000.0 0.04649 -1.338
4644000000.0 -1.045 -0.8436
4647000000.0 -1.325 0.2557
4650000000.0 -0.6134 1.173
4653000000.0 0.536 1.194
4656000000.0 1.234 0.2933
4659000000.0 0.9975 -0.7672
4662000000.0 0.006933 -1.216
4666000000.0 -0.943 -0.7688
4669000000.0 -1.207 0.2598
4672000000.0 -0.51 1.084
4675000000.0 0.4739 1.078
4678000000.0 1.111 0.2533
4681000000.0 0.8738 -0.7092
4684000000.0 0.003778 -1.136
4688000000.0 -0.8766 -0.6537
4691000000.0 -1.092 0.2633
4694000000.0 -0.496 0.9825
4697000000.0 0.4929 0.9646
4700000000.0 1.069 0.2438
4703000000.0 0.8268 -0.7005
4706000000.0 -0.001641 -1.105
4709000000.0 -0.8343 -0.6608
4712000000.0 -1.036 0.3003
4716000000.0 -0.435 0.9548
4719000000.0 0.4592 0.9555
4722000000.0 1.012 0.1803
4725000000.0 0.8156 -0.664
4728000000.0 -0.01384 -1.007
4731000000.0 -0.7932 -0.6703
4734000000.0 -1.03 0.2033
4738000000.0 -0.4743 0.9067
4741000000.0 0.4132 0.9512
4744000000.0 1.003 0.2743
4747000000.0 0.8808 -0.5999
4750000000.0 0.1284 -1.084
4753000000.0 -0.7377 -0.7626
4756000000.0 -1.088 0.08842
4759000000.0 -0.6186 0.9087
4762000000.0 0.243 1.086
4766000000.0 1.046 0.4512
4769000000.0 1.057 -0.4943
4772000000.0 0.3005 -1.136
4775000000.0 -0.6814 -0.9641
4778000000.0 -1.166 -0.09667
4781000000.0 -0.8367 0.8326
4784000000.0 0.1327 1.202
4788000000.0 0.9971 0.7042
4791000000.0 1.17 -0.3152
4794000000.0 0.5209 -1.111
4797000000.0 -0.5204 -1.12
4800000000.0 -1.18 -0.3363
4803000000.0 -1.019 0.6887
4806000000.0 -0.1487 1.235
4809000000.0 0.8858 0.9135
4812000000.0 1.28 -0.09155
4816000000.0 0.7779 -1.05
4819000000.0 -0.3181 -1.265
4822000000.0 -1.204 -0.5762
4825000000.0 -1.204 0.5713
4828000000.0 -0.3478 1.335
4831000000.0 0.7989 1.113
4834000000.0 1.408 0.05838
4838000000.0 0.9053 -1.017
4841000000.0 -0.1885 -1.39
4844000000.0 -1.191 -0.7396
4847000000.0 -1.307 0.4641
4850000000.0 -0.4995 1.294
4853000000.0 0.6921 1.178
4856000000.0 1.349 0.1901
4859000000.0 0.9836 -0.9352
4862000000.0 -0.05913 -1.341
4866000000.0 -1.091 -0.7698
4869000000.0 -1.28 0.3677
4872000000.0 -0.5127 1.203
4875000000.0 0.5861 1.144
4878000000.0 1.249 0.2646
4881000000.0 0.9639 -0.8252
4884000000.0 0.001221 -1.251
4888000000.0 -0.9347 -0.7802
4891000000.0 -1.176 0.2454
4894000000.0 -0.5344 1.069
4897000000.0 0.4805 1.062
4900000000.0 1.074 0.2748
4903000000.0 0.9248 -0.6478
4906000000.0 0.02132 -1.06
4909000000.0 -0.7961 -0.6925
4912000000.0 -1.026 0.1802
4916000000.0 -0.4979 0.8863
4919000000.0 0.3768 0.9209
4922000000.0 0.9458 0.3041
4925000000.0 0.8283 -0.5461
4928000000.0 0.09987 -0.9283
4931000000.0 -0.6604 -0.6686
4934000000.0 -0.9433 0.04586
4938000000.0 -0.5525 0.7854
4941000000.0 0.2642 0.895
4944000000.0 0.8797 0.3639
4947000000.0 0.85 -0.4319
4950000000.0 0.185 -0.9355
4953000000.0 -0.6071 -0.7482
4956000000.0 -0.9476 -0.001999
4959000000.0 -0.6338 0.7646
4962000000.0 0.2196 0.9493
4966000000.0 0.874 0.4477
4969000000.0 0.9123 -0.3923
4972000000.0 0.2854 -0.9622
4975000000.0 -0.568 -0.8395
4978000000.0 -1.022 -0.1019
4981000000.0 -0.7018 0.742
4984000000.0 0.1099 1.024
4988000000.0 0.8787 0.5981
4991000000.0 1.031 -0.3223
4994000000.0 0.429 -0.9829
4997000000.0 -0.5055 -0.997
5000000000.0 -1.08 -0.2443
5003000000.0 -0.9233 0.6964
5006000000.0 -0.05434 1.191
5009000000.0 0.8658 0.7867
5012000000.0 1.175 -0.2013
5016000000.0 0.614 -1.025
5019000000.0 -0.4066 -1.168
5022000000.0 -1.182 -0.4027
5025000000.0 -1.073 0.647
5028000000.0 -0.188 1.262
5031000000.0 0.8599 0.9764
5034000000.0 1.278 -0.05118
5038000000.0 0.8143 -1.034
5041000000.0 -0.2827 -1.248
5044000000.0 -1.144 -0.5813
5047000000.0 -1.189 0.5156
5050000000.0 -0.3688 1.197
5053000000.0 0.7352 1.055
5056000000.0 1.292 0.1642
5059000000.0 0.9508 -0.8674
5062000000.0 -0.09812 -1.321
5066000000.0 -1.025 -0.7732
5069000000.0 -1.257 0.3147
5072000000.0 -0.5644 1.165
5075000000.0 0.5199 1.172
5078000000.0 1.205 0.3118
5081000000.0 1.012 -0.7122
5084000000.0 0.06544 -1.256
5088000000.0 -0.8951 -0.862
5091000000.0 -1.197 0.1078
5094000000.0 -0.6481 0.9572
5097000000.0 0.3345 1.128
5100000000.0 1.04 0.4333
5103000000.0 1.0 -0.4487
5106000000.0 0.3056 -1.041
5109000000.0 -0.6233 -0.871
5112000000.0 -1.086 -0.1194
5116000000.0 -0.7305 0.775
5119000000.0 0.1402 1.044
5122000000.0 0.8357 0.5906
5125000000.0 1.012 -0.284
5128000000.0 0.4048 -0.8995
5131000000.0 -0.4382 -0.8906
5134000000.0 -0.9851 -0.1763
5138000000.0 -0.7799 0.5712
5141000000.0 -0.01284 0.9836
5144000000.0 0.7616 0.6255
5147000000.0 0.9193 -0.1737
5150000000.0 0.4575 -0.8623
5153000000.0 -0.3657 -0.8281
5156000000.0 -0.8714 -0.2743
5159000000.0 -0.7868 0.4835
5162000000.0 -0.07527 0.8854
5166000000.0 0.6447 0.6497
5169000000.0 0.8581 -0.1004
5172000000.0 0.519 -0.7424
5175000000.0 -0.2957 -0.8455
5178000000.0 -0.8223 -0.3037
5181000000.0 -0.7974 0.4446
5184000000.0 -0.1654 0.9225
5188000000.0 0.606 0.6851
5191000000.0 0.939 -0.07368
5194000000.0 0.5279 -0.7576
5197000000.0 -0.2854 -0.8968
5200000000.0 -0.8678 -0.3503
5203000000.0 -0.8082 0.4729
5206000000.0 -0.1602 0.9454
5209000000.0 0.644 0.7202
5212000000.0 0.9599 -0.07627
5216000000.0 0.5767 -0.777
5219000000.0 -0.2658 -0.9291
5222000000.0 -0.8801 -0.3762
5225000000.0 -0.8998 0.4338
5228000000.0 -0.2043 0.9785
5231000000.0 0.6383 0.8236
5234000000.0 1.008 -0.001855
5238000000.0 0.6705 -0.779
5241000000.0 -0.1911 -1.006
5244000000.0 -0.916 -0.5034
5247000000.0 -0.9684 0.389
5250000000.0 -0.3422 0.9988
5253000000.0 0.5616 0.9331
5256000000.0 1.085 0.1489
5259000000.0 0.7969 -0.7322
5262000000.0 -0.02524 -1.074
5266000000.0 -0.8639 -0.6784
5269000000.0 -1.038 0.2216
5272000000.0 -0.5341 0.9506
5275000000.0 0.413 1.015
5278000000.0 1.029 0.3569
5281000000.0 0.9199 -0.564
5284000000.0 0.1678 -1.071
5288000000.0 -0.7037 -0.8543
5291000000.0 -1.1 -0.02056
5294000000.0 -0.7379 0.8193
5297000000.0 0.1527 1.088
5300000000.0 0.9136 0.5764
5303000000.0 1.085 -0.3752
5306000000.0 0.4238 -1.031
5309000000.0 -0.5372 -1.02
5312000000.0 -1.119 -0.2321
5316000000.0 -0.8984 0.6869
5319000000.0 -0.04052 1.165
5322000000.0 0.8628 0.753
5325000000.0 1.099 -0.173
5328000000.0 0.6035 -0.9681
5331000000.0 -0.3584 -1.088
5334000000.0 -1.028 -0.3879
5338000000.0 -0.9577 0.5704
5341000000.0 -0.1839 1.102
5344000000.0 0.7155 0.8806
5347000000.0 1.086 -0.02004
5350000000.0 0.6978 -0.8493
5353000000.0 -0.2493 -1.06
5356000000.0 -0.9463 -0.4924
5359000000.0 -0.9793 0.4515
5362000000.0 -0.2713 1.036
5366000000.0 0.6301 0.8607
5369000000.0 1.06 0.01647
5372000000.0 0.6888 -0.8026
5375000000.0 -0.1895 -1.013
5378000000.0 -0.8809 -0.4742
5381000000.0 -0.9197 0.4233
5384000000.0 -0.2406 0.9179
5388000000.0 0.5758 0.791
5391000000.0 0.9568 0.05099
5394000000.0 0.6343 -0.7276
5397000000.0 -0.1821 -0.8975
5400000000.0 -0.7967 -0.4135
5403000000.0 -0.8076 0.3629
5406000000.0 -0.2155 0.8643
5409000000.0 0.5273 0.7052
5412000000.0 0.8983 -8.574e-05
5416000000.0 0.5609 -0.6557
5419000000.0 -0.2007 -0.8441
5422000000.0 -0.7741 -0.3886
5425000000.0 -0.7911 0.3563
5428000000.0 -0.2203 0.8248
5431000000.0 0.566 0.7024
5434000000.0 0.8754 0.02795
5438000000.0 0.5737 -0.6685
5441000000.0 -0.2095 -0.8699
5444000000.0 -0.7644 -0.3859
5447000000.0 -0.792 0.3478
5450000000.0 -0.2361 0.8428
5453000000.0 0.504 0.756
5456000000.0 0.8713 0.02713
5459000000.0 0.6061 -0.6795
5462000000.0 -0.124 -0.9087
5466000000.0 -0.759 -0.4396
5469000000.0 -0.8586 0.2982
5472000000.0 -0.3255 0.8373
5475000000.0 0.4453 0.8414
5478000000.0 0.9406 0.185
5481000000.0 0.7426 -0.6025
5484000000.0 0.03944 -0.9641
5488000000.0 -0.7276 -0.6348
5491000000.0 -0.982 0.1902
5494000000.0 -0.5 0.8614
5497000000.0 0.3688 0.9168
5500000000.0 0.9511 0.3374
5503000000.0 0.8979 -0.5043
5506000000.0 0.1842 -1.016
5509000000.0 -0.6635 -0.7799
5512000000.0 -1.049 0.01511
5516000000.0 -0.6309 0.7958
5519000000.0 0.1983 1.021
5522000000.0 0.8555 0.5178
5525000000.0 0.9995 -0.3239
5528000000.0 0.3691 -0.9668
5531000000.0 -0.5029 -0.9356
5534000000.0 -1.054 -0.2278
5538000000.0 -0.8237 0.6412
5541000000.0 0.0003615 1.062
5544000000.0 0.8148 0.69
5547000000.0 1.051 -0.1706
5550000000.0 0.5178 -0.9094
5553000000.0 -0.3579 -0.9906
5556000000.0 -1.014 -0.3611
5559000000.0 -0.9129 0.5301
5562000000.0 -0.1927 1.007
5566000000.0 0.7001 0.7879
5569000000.0 1.03 -0.02515
5572000000.0 0.6029 -0.7886
5575000000.0 -0.2299 -0.9914
5578000000.0 -0.8747 -0.473
5581000000.0 -0.8865 0.3776
5584000000.0 -0.2574 0.9446
5588000000.0 0.532 0.8191
5591000000.0 0.9531 0.05916
5594000000.0 0.6364 -0.6718
5597000000.0 -0.1235 -0.9316
5600000000.0 -0.7915 -0.5229
5603000000.0 -0.8782 0.2577
5606000000.0 -0.3209 0.8189
5609000000.0 0.4361 0.7613
5612000000.0 0.8669 0.1397
5616000000.0 0.6391 -0.5559
5619000000.0 -0.01933 -0.8463
5622000000.0 -0.6898 -0.5263
5625000000.0 -0.8103 0.1962
5628000000.0 -0.3771 0.7783
5631000000.0 0.3491 0.7503
5634000000.0 0.7806 0.1853
5638000000.0 0.6491 -0.5479
5641000000.0 -0.01066 -0.8314
5644000000.0 -0.6446 -0.4918
5647000000.0 -0.8061 0.1775
5650000000.0 -0.3564 0.7503
5653000000.0 0.3544 0.7654
5656000000.0 0.8579 0.176
5659000000.0 0.6572 -0.5332
5662000000.0 -0.01304 -0.8536
5666000000.0 -0.7098 -0.5639
5669000000.0 -0.8368 0.1677
5672000000.0 -0.3897 0.781
5675000000.0 0.3609 0.8244
5678000000.0 0.8989 0.2319
5681000000.0 0.718 -0.5528
5684000000.0 0.02909 -0.963
5688000000.0 -0.7143 -0.607
5691000000.0 -0.9312 0.1805
5694000000.0 -0.4761 0.828
5697000000.0 0.3846 0.9023
5700000000.0 0.9337 0.292
5703000000.0 0.8207 -0.5845
5706000000.0 0.08235 -1.002
5709000000.0 -0.7547 -0.6955
5712000000.0 -1.042 0.1394
5716000000.0 -0.5627 0.8509
5719000000.0 0.3095 1.025
5722000000.0 0.9679 0.4165
5725000000.0 0.9397 -0.5166
5728000000.0 0.216 -1.023
5731000000.0 -0.6792 -0.8407
5734000000.0 -1.08 -0.0126
5738000000.0 -0.7387 0.7842
5741000000.0 0.1736 1.102
5744000000.0 0.989 0.5172
5747000000.0 1.047 -0.3697
5750000000.0 0.3748 -1.027
5753000000.0 -0.5603 -0.9435
5756000000.0 -1.099 -0.164
5759000000.0 -0.8553 0.7447
5762000000.0 0.05622 1.091
5766000000.0 0.8827 0.671
5769000000.0 1.1 -0.2081
5772000000.0 0.5485 -0.9784
5775000000.0 -0.411 -1.014
5778000000.0 -1.059 -0.3505
5781000000.0 -0.9122 0.5842
5784000000.0 -0.1719 1.102
5788000000.0 0.6904 0.8041
5791000000.0 1.078 -0.04261
5794000000.0 0.6666 -0.8524
5797000000.0 -0.2161 -1.02
5800000000.0 -0.9527 -0.48
5803000000.0 -0.941 0.4197
5806000000.0 -0.2915 0.9946
5809000000.0 0.604 0.8779
5812000000.0 1.051 0.06189
5816000000.0 0.7186 -0.7494
5819000000.0 -0.1172 -0.9968
5822000000.0 -0.8731 -0.5434
5825000000.0 -0.9709 0.3141
5828000000.0 -0.3938 0.9472
5831000000.0 0.5043 0.8676
5834000000.0 0.9325 0.1859
5838000000.0 0.7398 -0.6239
5841000000.0 -0.04535 -0.9549
5844000000.0 -0.7947 -0.5578
5847000000.0 -0.9077 0.2378
5850000000.0 -0.3831 0.8671
5853000000.0 0.3675 0.8333
5856000000.0 0.8744 0.2081
5859000000.0 0.6988 -0.5866
5862000000.0 0.0008186 -0.8943
5866000000.0 -0.6939 -0.5733
5869000000.0 -0.8865 0.2138
5872000000.0 -0.3894 0.7978
5875000000.0 0.3996 0.7919
5878000000.0 0.8164 0.1787
5881000000.0 0.6965 -0.5481
5884000000.0 -0.00297 -0.8856
5888000000.0 -0.653 -0.5516
5891000000.0 -0.8264 0.1832
5894000000.0 -0.4363 0.7325
5897000000.0 0.3342 0.8147
5900000000.0 0.8385 0.2408
5903000000.0 0.707 -0.4931
5906000000.0 0.05485 -0.8758
5909000000.0 -0.6312 -0.5864
5912000000.0 -0.8538 0.1282
5916000000.0 -0.4524 0.7341
5919000000.0 0.2739 0.8133
5922000000.0 0.7806 0.2907
5925000000.0 0.7611 -0.4255
5928000000.0 0.18 -0.8453
5931000000.0 -0.5632 -0.6489
5934000000.0 -0.9231 0.003473
5938000000.0 -0.5728 0.6875
5941000000.0 0.1611 0.8868
5944000000.0 0.7974 0.4648
5947000000.0 0.8182 -0.3388
5950000000.0 0.3081 -0.8459
5953000000.0 -0.4737 -0.7974
5956000000.0 -0.9218 -0.1614
5959000000.0 -0.6721 0.6075
5962000000.0 -0.007063 0.9411
5966000000.0 0.7377 0.602
5969000000.0 0.9192 -0.1843
5972000000.0 0.4599 -0.8126
5975000000.0 -0.3576 -0.9097
5978000000.0 -0.9403 -0.2948
5981000000.0 -0.8076 0.5273
5984000000.0 -0.1302 0.9581
5988000000.0 0.6716 0.7031
5991000000.0 0.9844 -0.0637
5994000000.0 0.5849 -0.8215
5997000000.0 -0.2395 -0.9656
6000000000.0 -0.9229 -0.4367
6003000000.0 -0.8832 0.4039
6006000000.0 -0.2552 0.9702
6009000000.0 0.5561 0.8194
6012000000.0 0.9924 0.03229
6016000000.0 0.6987 -0.7442
6019000000.0 -0.179 -0.981
6022000000.0 -0.8471 -0.5114
6025000000.0 -0.9221 0.3546
6028000000.0 -0.3162 0.9136
6031000000.0 0.4844 0.8259
6034000000.0 0.9769 0.1602
6038000000.0 0.6917 -0.6723
6041000000.0 -0.08137 -0.9716
6044000000.0 -0.7864 -0.5382
6047000000.0 -0.9003 0.254
6050000000.0 -0.3644 0.8462
6053000000.0 0.425 0.8384
6056000000.0 0.9041 0.1848
6059000000.0 0.7214 -0.5814
6062000000.0 -0.02424 -0.911
6066000000.0 -0.7 -0.5651
6069000000.0 -0.8623 0.1961
6072000000.0 -0.3954 0.7762
6075000000.0 0.3483 0.8095
6078000000.0 0.8719 0.216
6081000000.0 0.6811 -0.519
6084000000.0 0.03606 -0.8613
6088000000.0 -0.6439 -0.5427
6091000000.0 -0.845 0.1382
6094000000.0 -0.4002 0.7299
6097000000.0 0.2992 0.8079
6100000000.0 0.802 0.2796
6103000000.0 0.7084 -0.4874
6106000000.0 0.07126 -0.8319
6109000000.0 -0.6064 -0.6226
6112000000.0 -0.856 0.07155
6116000000.0 -0.4326 0.7291
6119000000.0 0.2746 0.8277
6122000000.0 0.8202 0.2935
6125000000.0 0.7415 -0.4338
6128000000.0 0.1074 -0.8685
6131000000.0 -0.6153 -0.658
6134000000.0 -0.9012 0.09931
6138000000.0 -0.4669 0.7316
6141000000.0 0.2737 0.8639
6144000000.0 0.8392 0.3414
6147000000.0 0.7758 -0.3995
6150000000.0 0.1787 -0.8689
6153000000.0 -0.58 -0.6938
6156000000.0 -0.8939 -0.01755
6159000000.0 -0.5627 0.7068
6162000000.0 0.1925 0.9165
6166000000.0 0.8074 0.4263
6169000000.0 0.8448 -0.3572
6172000000.0 0.2396 -0.9035
6175000000.0 -0.5541 -0.7603
6178000000.0 -0.9266 -0.06042
6181000000.0 -0.6586 0.6531
6184000000.0 0.1123 0.9618
6188000000.0 0.7895 0.4904
6191000000.0 0.9005 -0.3141
6194000000.0 0.3386 -0.8863
6197000000.0 -0.4583 -0.7791
6200000000.0 -0.9247 -0.1726
6203000000.0 -0.6905 0.5946
6206000000.0 0.008182 0.9373
6209000000.0 0.7162 0.5733
6212000000.0 0.9061 -0.184
6216000000.0 0.3854 -0.818
6219000000.0 -0.3475 -0.8287
6222000000.0 -0.8633 -0.2492
6225000000.0 -0.7292 0.5077
6228000000.0 -0.09786 0.9127
6231000000.0 0.6339 0.6338
6234000000.0 0.9287 -0.0904
6238000000.0 0.5047 -0.7199
6241000000.0 -0.2283 -0.8412
6244000000.0 -0.7999 -0.3388
6247000000.0 -0.7737 0.3732
6250000000.0 -0.2113 0.8283
6253000000.0 0.4905 0.6806
6256000000.0 0.8309 0.05829
6259000000.0 0.5542 -0.623
6262000000.0 -0.1209 -0.8317
