! Created with skrf 1.8.0 (http://scikit-rf.org).
# Hz S RI R 50.0 
!freq ReS11 ImS11
4000000000.0 -0.1851 -1.479
4003000000.0 -1.254 -0.8049
4006000000.0 -1.432 0.4564
4009000000.0 -0.53 1.404
4012000000.0 0.7823 1.313
4016000000.0 1.502 0.2231
4019000000.0 1.136 -1.069
4022000000.0 -0.0956 -1.593
4025000000.0 -1.332 -0.8949
4028000000.0 -1.539 0.4745
4031000000.0 -0.6208 1.506
4034000000.0 0.7582 1.396
4038000000.0 1.613 0.2053
4041000000.0 1.186 -1.133
4044000000.0 -0.1198 -1.629
4047000000.0 -1.342 -0.8938
4050000000.0 -1.553 0.4587
4053000000.0 -0.6087 1.514
4056000000.0 0.7496 1.433
4059000000.0 1.556 0.3179
4062000000.0 1.266 -1.049
4066000000.0 0.008825 -1.614
4069000000.0 -1.244 -1.022
4072000000.0 -1.593 0.2539
4075000000.0 -0.8463 1.407
4078000000.0 0.567 1.499
4081000000.0 1.547 0.5629
4084000000.0 1.411 -0.8793
4088000000.0 0.2152 -1.649
4091000000.0 -1.143 -1.25
4094000000.0 -1.658 0.07347
4097000000.0 -1.011 1.348
4100000000.0 0.3929 1.578
4103000000.0 1.477 0.6978
4106000000.0 1.455 -0.6465
4109000000.0 0.4286 -1.501
4112000000.0 -0.8405 -1.286
4116000000.0 -1.492 -0.1905
4119000000.0 -1.113 1.015
4122000000.0 0.04816 1.464
4125000000.0 1.162 0.9386
4128000000.0 1.445 -0.2316
4131000000.0 0.7748 -1.292
4134000000.0 -0.4225 -1.433
4138000000.0 -1.376 -0.6088
4141000000.0 -1.291 0.6427
4144000000.0 -0.3601 1.469
4147000000.0 0.8826 1.232
4150000000.0 1.53 0.1382
4153000000.0 1.059 -1.041
4156000000.0 -0.1208 -1.51
4159000000.0 -1.269 -0.9032
4162000000.0 -1.461 0.4026
4166000000.0 -0.6367 1.373
4169000000.0 0.6255 1.355
4172000000.0 1.456 0.4033
4175000000.0 1.217 -0.85
4178000000.0 0.1373 -1.469
4181000000.0 -1.046 -1.09
4184000000.0 -1.499 0.0834
4188000000.0 -0.8634 1.198
4191000000.0 0.3696 1.455
4194000000.0 1.385 0.6682
4197000000.0 1.414 -0.6531
4200000000.0 0.3825 -1.527
4203000000.0 -0.9523 -1.278
4206000000.0 -1.606 -0.03218
4209000000.0 -1.061 1.255
4212000000.0 0.347 1.615
4216000000.0 1.515 0.687
4219000000.0 1.485 -0.7595
4222000000.0 0.2937 -1.656
4225000000.0 -1.12 -1.276
4228000000.0 -1.695 0.1403
4231000000.0 -0.8668 1.418
4234000000.0 0.6 1.562
4238000000.0 1.586 0.4897
4241000000.0 1.321 -0.9347
4244000000.0 0.07812 -1.588
4247000000.0 -1.223 -1.025
4250000000.0 -1.531 0.3411
4253000000.0 -0.6643 1.431
4256000000.0 0.7187 1.4
4259000000.0 1.516 0.2669
4262000000.0 1.157 -1.031
4266000000.0 -0.07672 -1.506
4269000000.0 -1.266 -0.8374
4272000000.0 -1.447 0.4597
4275000000.0 -0.4947 1.398
4278000000.0 0.7882 1.253
4281000000.0 1.439 0.1627
4284000000.0 1.017 -1.035
4288000000.0 -0.153 -1.373
4291000000.0 -1.172 -0.7308
4294000000.0 -1.289 0.4847
4297000000.0 -0.4672 1.244
4300000000.0 0.6691 1.157
4303000000.0 1.292 0.2386
4306000000.0 0.9688 -0.8402
4309000000.0 -0.005971 -1.292
4312000000.0 -0.9841 -0.8157
4316000000.0 -1.238 0.2179
4319000000.0 -0.6837 1.107
4322000000.0 0.4161 1.235
4325000000.0 1.245 0.4715
4328000000.0 1.187 -0.6508
4331000000.0 0.2585 -1.318
4334000000.0 -0.8406 -1.051
4338000000.0 -1.378 -0.04323
4341000000.0 -0.9233 1.069
4344000000.0 0.2159 1.393
4347000000.0 1.207 0.7077
4350000000.0 1.374 -0.4966
4353000000.0 0.4922 -1.358
4356000000.0 -0.7061 -1.236
4359000000.0 -1.44 -0.2235
4362000000.0 -1.09 0.9834
4366000000.0 0.05958 1.451
4369000000.0 1.158 0.9306
4372000000.0 1.457 -0.3142
4375000000.0 0.7112 -1.327
4378000000.0 -0.5774 -1.378
4381000000.0 -1.47 -0.4596
4384000000.0 -1.276 0.847
4388000000.0 -0.1639 1.544
4391000000.0 1.114 1.129
4394000000.0 1.566 -0.1821
4397000000.0 0.8423 -1.359
4400000000.0 -0.5314 -1.484
4403000000.0 -1.489 -0.5599
4406000000.0 -1.332 0.8543
4409000000.0 -0.1636 1.599
4412000000.0 1.15 1.068
4416000000.0 1.552 -0.2386
4419000000.0 0.7859 -1.344
4422000000.0 -0.5807 -1.42
4425000000.0 -1.458 -0.4161
4428000000.0 -1.172 0.8667
4431000000.0 -0.06506 1.452
4434000000.0 1.119 0.9298
4438000000.0 1.369 -0.2648
4441000000.0 0.5758 -1.246
4444000000.0 -0.6118 -1.244
4447000000.0 -1.341 -0.2688
4450000000.0 -1.036 0.8348
4453000000.0 0.08299 1.334
4456000000.0 1.074 0.7373
4459000000.0 1.244 -0.3896
4462000000.0 0.4428 -1.157
4466000000.0 -0.6722 -1.064
4469000000.0 -1.216 -0.1302
4472000000.0 -0.8505 0.8954
4475000000.0 0.1537 1.182
4478000000.0 1.03 0.5859
4481000000.0 1.073 -0.4477
4484000000.0 0.3154 -1.092
4488000000.0 -0.6419 -0.9623
4491000000.0 -1.131 -0.06285
4494000000.0 -0.746 0.8493
4497000000.0 0.235 1.145
4500000000.0 0.9985 0.5014
4503000000.0 1.008 -0.4043
4506000000.0 0.2947 -1.08
4509000000.0 -0.6198 -0.9021
4512000000.0 -1.109 -0.07851
4516000000.0 -0.7492 0.822
4519000000.0 0.1616 1.121
4522000000.0 0.963 0.5779
4525000000.0 1.071 -0.3791
4528000000.0 0.4196 -1.085
4531000000.0 -0.5744 -1.007
4534000000.0 -1.167 -0.2156
4538000000.0 -0.8705 0.7921
4541000000.0 0.02509 1.212
4544000000.0 0.9236 0.7195
4547000000.0 1.162 -0.2579
4550000000.0 0.5641 -1.065
4553000000.0 -0.4907 -1.119
4556000000.0 -1.173 -0.3409
4559000000.0 -1.029 0.6794
4562000000.0 -0.1623 1.228
4566000000.0 0.8614 0.9234
4569000000.0 1.268 -0.06525
4572000000.0 0.7838 -1.037
4575000000.0 -0.2876 -1.275
4578000000.0 -1.176 -0.5698
4581000000.0 -1.214 0.5452
4584000000.0 -0.3646 1.282
4588000000.0 0.7553 1.118
4591000000.0 1.342 0.1228
4594000000.0 0.9665 -0.9443
4597000000.0 -0.1585 -1.42
4600000000.0 -1.169 -0.7735
4603000000.0 -1.374 0.375
4606000000.0 -0.5585 1.29
4609000000.0 0.6553 1.234
4612000000.0 1.366 0.2565
4616000000.0 1.086 -0.9027
4619000000.0 -0.0001067 -1.407
4622000000.0 -1.056 -0.8702
4625000000.0 -1.37 0.2663
4628000000.0 -0.6318 1.246
4631000000.0 0.5674 1.264
4634000000.0 1.337 0.3682
4638000000.0 1.104 -0.8082
4641000000.0 0.07987 -1.353
4644000000.0 -1.009 -0.916
4647000000.0 -1.32 0.2454
4650000000.0 -0.6402 1.172
4653000000.0 0.5171 1.205
4656000000.0 1.267 0.3411
4659000000.0 1.041 -0.7667
4662000000.0 0.07646 -1.263
4666000000.0 -0.9792 -0.798
4669000000.0 -1.202 0.2424
4672000000.0 -0.5349 1.086
4675000000.0 0.4858 1.081
4678000000.0 1.135 0.2805
4681000000.0 0.946 -0.6908
4684000000.0 0.009622 -1.161
4688000000.0 -0.8397 -0.7275
4691000000.0 -1.093 0.2349
4694000000.0 -0.51 1.012
4697000000.0 0.464 1.023
4700000000.0 1.04 0.2848
4703000000.0 0.8894 -0.6958
4706000000.0 -0.01809 -1.116
4709000000.0 -0.8309 -0.6913
4712000000.0 -1.062 0.2143
4716000000.0 -0.4761 0.95
4719000000.0 0.4437 0.936
4722000000.0 1.036 0.2336
4725000000.0 0.8555 -0.6386
4728000000.0 0.0004947 -1.069
4731000000.0 -0.797 -0.6561
4734000000.0 -1.046 0.1851
4738000000.0 -0.5111 0.9121
4741000000.0 0.372 0.9844
4744000000.0 1.017 0.3536
4747000000.0 0.9095 -0.5985
4750000000.0 0.1138 -1.058
4753000000.0 -0.7098 -0.7958
4756000000.0 -1.073 0.05449
4759000000.0 -0.6494 0.8879
4762000000.0 0.2776 1.09
4766000000.0 1.004 0.49
4769000000.0 1.041 -0.4786
4772000000.0 0.2927 -1.102
4775000000.0 -0.655 -0.9501
4778000000.0 -1.174 -0.1
4781000000.0 -0.8337 0.8389
4784000000.0 0.07952 1.186
4788000000.0 1.001 0.6945
4791000000.0 1.193 -0.3123
4794000000.0 0.55 -1.099
4797000000.0 -0.5019 -1.125
4800000000.0 -1.226 -0.3601
4803000000.0 -1.049 0.6745
4806000000.0 -0.1606 1.264
4809000000.0 0.8493 0.9312
4812000000.0 1.289 -0.06138
4816000000.0 0.7912 -1.063
4819000000.0 -0.3087 -1.339
4822000000.0 -1.209 -0.6085
4825000000.0 -1.248 0.5498
4828000000.0 -0.3759 1.336
4831000000.0 0.7665 1.11
4834000000.0 1.381 0.1097
4838000000.0 0.9731 -1.006
4841000000.0 -0.1763 -1.386
4844000000.0 -1.193 -0.7835
4847000000.0 -1.331 0.4431
4850000000.0 -0.4865 1.31
4853000000.0 0.6904 1.203
4856000000.0 1.363 0.2421
4859000000.0 1.024 -0.8961
4862000000.0 -0.04061 -1.333
4866000000.0 -1.061 -0.8255
4869000000.0 -1.278 0.3163
4872000000.0 -0.5599 1.217
4875000000.0 0.5442 1.184
4878000000.0 1.248 0.2991
4881000000.0 0.979 -0.7815
4884000000.0 0.02897 -1.25
4888000000.0 -0.9482 -0.7776
4891000000.0 -1.194 0.2354
4894000000.0 -0.5569 1.053
4897000000.0 0.4701 1.062
4900000000.0 1.085 0.3026
4903000000.0 0.9206 -0.6406
4906000000.0 0.0641 -1.097
4909000000.0 -0.789 -0.7085
4912000000.0 -1.021 0.1582
4916000000.0 -0.5291 0.8928
4919000000.0 0.3417 0.9719
4922000000.0 0.9141 0.3285
4925000000.0 0.8335 -0.4992
4928000000.0 0.1337 -0.9697
4931000000.0 -0.6593 -0.6917
4934000000.0 -0.9415 0.03698
4938000000.0 -0.5357 0.7536
4941000000.0 0.2227 0.916
4944000000.0 0.8639 0.3777
4947000000.0 0.8361 -0.4704
4950000000.0 0.2195 -0.9541
4953000000.0 -0.6094 -0.7665
4956000000.0 -0.9878 -0.03357
4959000000.0 -0.6369 0.7284
4962000000.0 0.1792 0.9693
4966000000.0 0.8563 0.4457
4969000000.0 0.915 -0.3595
4972000000.0 0.3117 -0.9529
4975000000.0 -0.5636 -0.8736
4978000000.0 -1.025 -0.1061
4981000000.0 -0.7329 0.7222
4984000000.0 0.07252 1.024
4988000000.0 0.8638 0.6073
4991000000.0 1.042 -0.2782
4994000000.0 0.4692 -1.001
4997000000.0 -0.4924 -1.016
5000000000.0 -1.124 -0.2688
5003000000.0 -0.9215 0.6725
5006000000.0 -0.07366 1.145
5009000000.0 0.8948 0.8226
5012000000.0 1.19 -0.1352
5016000000.0 0.6466 -1.069
5019000000.0 -0.3877 -1.193
5022000000.0 -1.178 -0.4328
5025000000.0 -1.112 0.638
5028000000.0 -0.2113 1.248
5031000000.0 0.84 0.9479
5034000000.0 1.294 -0.0479
5038000000.0 0.8053 -0.997
5041000000.0 -0.2577 -1.266
5044000000.0 -1.127 -0.6151
5047000000.0 -1.215 0.494
5050000000.0 -0.3777 1.238
5053000000.0 0.6695 1.095
5056000000.0 1.29 0.1894
5059000000.0 0.9185 -0.8758
5062000000.0 -0.03691 -1.288
5066000000.0 -1.039 -0.7914
5069000000.0 -1.253 0.2888
5072000000.0 -0.5545 1.138
5075000000.0 0.4811 1.159
5078000000.0 1.2 0.3343
5081000000.0 1.035 -0.7266
5084000000.0 0.1299 -1.241
5088000000.0 -0.8547 -0.8452
5091000000.0 -1.199 0.1008
5094000000.0 -0.6902 1.008
5097000000.0 0.3007 1.105
5100000000.0 1.074 0.4758
5103000000.0 1.025 -0.4682
5106000000.0 0.2899 -1.061
5109000000.0 -0.6144 -0.8807
5112000000.0 -1.097 -0.125
5116000000.0 -0.8046 0.7649
5119000000.0 0.08736 1.076
5122000000.0 0.8309 0.6368
5125000000.0 1.0 -0.3022
5128000000.0 0.4182 -0.9485
5131000000.0 -0.4378 -0.9101
5134000000.0 -0.9625 -0.2646
5138000000.0 -0.8041 0.5914
5141000000.0 -0.04496 0.965
5144000000.0 0.7071 0.6286
5147000000.0 0.9488 -0.1353
5150000000.0 0.4859 -0.7935
5153000000.0 -0.3643 -0.897
5156000000.0 -0.8734 -0.3109
5159000000.0 -0.7688 0.4836
5162000000.0 -0.1053 0.923
5166000000.0 0.6266 0.6547
5169000000.0 0.891 -0.05916
5172000000.0 0.5176 -0.7376
5175000000.0 -0.2181 -0.8726
5178000000.0 -0.8587 -0.355
5181000000.0 -0.8286 0.4366
5184000000.0 -0.1785 0.8922
5188000000.0 0.6175 0.6883
5191000000.0 0.9537 -0.05485
5194000000.0 0.5722 -0.7572
5197000000.0 -0.2331 -0.9059
5200000000.0 -0.8588 -0.3772
5203000000.0 -0.8426 0.4273
5206000000.0 -0.163 0.9444
5209000000.0 0.6081 0.7311
5212000000.0 0.96 -0.006854
5216000000.0 0.6006 -0.7683
5219000000.0 -0.232 -0.9824
5222000000.0 -0.8786 -0.4076
5225000000.0 -0.9042 0.3993
5228000000.0 -0.2344 0.9732
5231000000.0 0.6155 0.8224
5234000000.0 1.032 0.02822
5238000000.0 0.698 -0.7618
5241000000.0 -0.1602 -1.02
5244000000.0 -0.9179 -0.5623
5247000000.0 -1.0 0.3644
5250000000.0 -0.3722 1.006
5253000000.0 0.5201 0.9303
5256000000.0 1.052 0.1625
5259000000.0 0.8239 -0.7072
5262000000.0 0.01728 -1.102
5266000000.0 -0.845 -0.6662
5269000000.0 -1.081 0.2003
5272000000.0 -0.5455 0.9683
5275000000.0 0.3756 1.022
5278000000.0 1.033 0.3813
5281000000.0 0.9361 -0.551
5284000000.0 0.2055 -1.068
5288000000.0 -0.675 -0.8665
5291000000.0 -1.148 -0.02373
5294000000.0 -0.7464 0.8158
5297000000.0 0.1532 1.131
5300000000.0 0.9567 0.6044
5303000000.0 1.076 -0.3515
5306000000.0 0.4343 -1.051
5309000000.0 -0.513 -1.034
5312000000.0 -1.108 -0.256
5316000000.0 -0.9158 0.6651
5319000000.0 -0.07538 1.146
5322000000.0 0.8371 0.8003
5325000000.0 1.147 -0.141
5328000000.0 0.6296 -0.9408
5331000000.0 -0.3491 -1.094
5334000000.0 -1.047 -0.4406
5338000000.0 -0.995 0.4894
5341000000.0 -0.2229 1.089
5344000000.0 0.707 0.8601
5347000000.0 1.114 0.04418
5350000000.0 0.7156 -0.8591
5353000000.0 -0.1845 -1.114
5356000000.0 -0.947 -0.5256
5359000000.0 -1.007 0.4314
5362000000.0 -0.3087 1.014
5366000000.0 0.5831 0.8967
5369000000.0 1.061 0.1136
5372000000.0 0.7372 -0.7613
5375000000.0 -0.1309 -1.054
5378000000.0 -0.8667 -0.5645
5381000000.0 -0.9415 0.3363
5384000000.0 -0.322 0.954
5388000000.0 0.5299 0.8067
5391000000.0 0.9571 0.06115
5394000000.0 0.642 -0.6919
5397000000.0 -0.1698 -0.9489
5400000000.0 -0.8186 -0.4413
5403000000.0 -0.8497 0.3444
5406000000.0 -0.243 0.8744
5409000000.0 0.5274 0.7329
5412000000.0 0.8967 0.0514
5416000000.0 0.5774 -0.6442
5419000000.0 -0.1573 -0.8389
5422000000.0 -0.768 -0.4295
5425000000.0 -0.8184 0.3174
5428000000.0 -0.2543 0.8175
5431000000.0 0.5058 0.7193
5434000000.0 0.8827 0.05539
5438000000.0 0.6089 -0.6406
5441000000.0 -0.148 -0.8834
5444000000.0 -0.7793 -0.4398
5447000000.0 -0.8229 0.3679
5450000000.0 -0.2447 0.8364
5453000000.0 0.4945 0.7145
5456000000.0 0.8746 0.09998
5459000000.0 0.6477 -0.6372
5462000000.0 -0.1091 -0.8951
5466000000.0 -0.7424 -0.5181
5469000000.0 -0.8533 0.2727
5472000000.0 -0.3641 0.8594
5475000000.0 0.4314 0.8575
5478000000.0 0.9223 0.2124
5481000000.0 0.7439 -0.5564
5484000000.0 0.0228 -0.942
5488000000.0 -0.6839 -0.6416
5491000000.0 -1.001 0.1058
5494000000.0 -0.5451 0.8117
5497000000.0 0.2826 0.9565
5500000000.0 0.9348 0.3849
5503000000.0 0.9316 -0.4672
5506000000.0 0.2348 -1.002
5509000000.0 -0.6655 -0.7875
5512000000.0 -1.018 -0.06373
5516000000.0 -0.7186 0.7636
5519000000.0 0.1643 1.056
5522000000.0 0.8917 0.552
5525000000.0 0.9929 -0.3432
5528000000.0 0.3875 -0.9596
5531000000.0 -0.4636 -0.9389
5534000000.0 -1.066 -0.2449
5538000000.0 -0.8691 0.6653
5541000000.0 -0.06009 1.078
5544000000.0 0.7699 0.7407
5547000000.0 1.052 -0.1376
5550000000.0 0.5969 -0.87
5553000000.0 -0.2837 -1.015
5556000000.0 -0.991 -0.4214
5559000000.0 -0.9332 0.5056
5562000000.0 -0.2165 1.038
5566000000.0 0.6539 0.8
5569000000.0 1.036 -0.004768
5572000000.0 0.6542 -0.7824
5575000000.0 -0.1651 -1.006
5578000000.0 -0.8912 -0.4667
5581000000.0 -0.9378 0.3419
5584000000.0 -0.3052 0.9133
5588000000.0 0.5217 0.8368
5591000000.0 0.9275 0.1157
5594000000.0 0.7163 -0.66
5597000000.0 -0.05801 -0.9402
5600000000.0 -0.7281 -0.5465
5603000000.0 -0.9014 0.242
5606000000.0 -0.3745 0.8186
5609000000.0 0.3984 0.798
5612000000.0 0.8721 0.2059
5616000000.0 0.6858 -0.5427
5619000000.0 0.009771 -0.8803
5622000000.0 -0.6534 -0.5439
5625000000.0 -0.8628 0.1715
5628000000.0 -0.4089 0.7554
5631000000.0 0.3381 0.7654
5634000000.0 0.8105 0.2258
5638000000.0 0.6642 -0.482
5641000000.0 0.03564 -0.8207
5644000000.0 -0.624 -0.5432
5647000000.0 -0.8376 0.1449
5650000000.0 -0.4007 0.744
5653000000.0 0.3208 0.7802
5656000000.0 0.8313 0.2214
5659000000.0 0.7086 -0.4914
5662000000.0 0.04359 -0.8515
5666000000.0 -0.6761 -0.5783
5669000000.0 -0.858 0.1615
5672000000.0 -0.4601 0.7484
5675000000.0 0.3507 0.8252
5678000000.0 0.859 0.2731
5681000000.0 0.7562 -0.5414
5684000000.0 0.06313 -0.9249
5688000000.0 -0.7061 -0.6398
5691000000.0 -0.9329 0.1148
5694000000.0 -0.482 0.8087
5697000000.0 0.3196 0.9181
5700000000.0 0.9351 0.3402
5703000000.0 0.8603 -0.5237
5706000000.0 0.1427 -0.9619
5709000000.0 -0.6927 -0.7505
5712000000.0 -1.017 0.04898
5716000000.0 -0.6173 0.834
5719000000.0 0.2972 1.014
5722000000.0 0.9731 0.4612
5725000000.0 0.9666 -0.4497
5728000000.0 0.2599 -1.037
5731000000.0 -0.6495 -0.8472
5734000000.0 -1.072 -0.02703
5738000000.0 -0.7505 0.7915
5741000000.0 0.1246 1.106
5744000000.0 0.9174 0.6221
5747000000.0 1.068 -0.3274
5750000000.0 0.4296 -1.045
5753000000.0 -0.5254 -0.9882
5756000000.0 -1.087 -0.2552
5759000000.0 -0.8701 0.6713
5762000000.0 -0.03084 1.144
5766000000.0 0.844 0.7373
5769000000.0 1.1 -0.1668
5772000000.0 0.578 -0.9685
5775000000.0 -0.3855 -1.05
5778000000.0 -1.022 -0.3829
5781000000.0 -0.9252 0.5424
5784000000.0 -0.1931 1.079
5788000000.0 0.7043 0.8666
5791000000.0 1.084 -0.0134
5794000000.0 0.6829 -0.843
5797000000.0 -0.1991 -1.079
5800000000.0 -0.928 -0.5322
5803000000.0 -1.022 0.403
5806000000.0 -0.3137 1.024
5809000000.0 0.5276 0.8827
5812000000.0 1.03 0.1526
5816000000.0 0.7369 -0.7055
5819000000.0 -0.05629 -1.029
5822000000.0 -0.8446 -0.622
5825000000.0 -0.9685 0.2742
5828000000.0 -0.4144 0.9145
5831000000.0 0.4516 0.8644
5834000000.0 0.9442 0.2522
5838000000.0 0.7602 -0.5708
5841000000.0 0.06754 -0.9589
5844000000.0 -0.7498 -0.613
5847000000.0 -0.9035 0.1928
5850000000.0 -0.4342 0.8259
5853000000.0 0.3731 0.8523
5856000000.0 0.9019 0.2697
5859000000.0 0.7691 -0.5639
5862000000.0 0.07009 -0.9155
5866000000.0 -0.681 -0.6201
5869000000.0 -0.8989 0.1639
5872000000.0 -0.4441 0.7444
5875000000.0 0.3446 0.8239
5878000000.0 0.8511 0.2602
5881000000.0 0.7269 -0.4822
5884000000.0 0.04658 -0.8691
5888000000.0 -0.5953 -0.6035
5891000000.0 -0.8539 0.08806
5894000000.0 -0.4436 0.7432
5897000000.0 0.2654 0.7987
5900000000.0 0.8011 0.2897
5903000000.0 0.7135 -0.463
5906000000.0 0.1312 -0.8437
5909000000.0 -0.6136 -0.6271
5912000000.0 -0.8649 0.08033
5916000000.0 -0.5302 0.7166
5919000000.0 0.2448 0.8238
5922000000.0 0.8107 0.35
5925000000.0 0.8122 -0.386
5928000000.0 0.2292 -0.8548
5931000000.0 -0.5261 -0.7213
5934000000.0 -0.9098 -0.03642
5938000000.0 -0.5732 0.6339
5941000000.0 0.1006 0.8985
5944000000.0 0.7477 0.5098
5947000000.0 0.861 -0.2958
5950000000.0 0.3337 -0.8527
5953000000.0 -0.453 -0.8384
5956000000.0 -0.8804 -0.1678
5959000000.0 -0.7359 0.5922
5962000000.0 -0.01748 0.9403
5966000000.0 0.7249 0.6187
5969000000.0 0.9556 -0.1313
5972000000.0 0.5185 -0.7974
5975000000.0 -0.2951 -0.9278
5978000000.0 -0.9157 -0.3329
5981000000.0 -0.8529 0.4755
5984000000.0 -0.1778 0.9695
5988000000.0 0.6251 0.7633
5991000000.0 1.009 0.008098
5994000000.0 0.657 -0.7693
5997000000.0 -0.179 -0.9827
6000000000.0 -0.8984 -0.4911
6003000000.0 -0.9181 0.3747
6006000000.0 -0.3276 0.9397
6009000000.0 0.5355 0.8598
6012000000.0 0.9808 0.1051
6016000000.0 0.7138 -0.7156
6019000000.0 -0.0707 -0.983
6022000000.0 -0.8044 -0.5572
6025000000.0 -0.9445 0.2533
6028000000.0 -0.4047 0.9032
6031000000.0 0.4456 0.8949
6034000000.0 0.9394 0.2255
6038000000.0 0.754 -0.5898
6041000000.0 0.02038 -0.9832
6044000000.0 -0.7328 -0.6344
6047000000.0 -0.9232 0.173
6050000000.0 -0.4439 0.8433
6053000000.0 0.3493 0.8449
6056000000.0 0.9075 0.2657
6059000000.0 0.7683 -0.4993
6062000000.0 0.05803 -0.936
6066000000.0 -0.6659 -0.6157
6069000000.0 -0.8777 0.1223
6072000000.0 -0.4498 0.7908
6075000000.0 0.3117 0.8305
6078000000.0 0.8018 0.2985
6081000000.0 0.7568 -0.4834
6084000000.0 0.094 -0.857
6088000000.0 -0.6017 -0.6328
6091000000.0 -0.8459 0.07178
6094000000.0 -0.5048 0.6889
6097000000.0 0.2521 0.7906
6100000000.0 0.787 0.2986
6103000000.0 0.7364 -0.4073
6106000000.0 0.1534 -0.8117
6109000000.0 -0.5808 -0.6486
6112000000.0 -0.8578 0.05595
6116000000.0 -0.5205 0.7274
6119000000.0 0.2172 0.8214
6122000000.0 0.7945 0.3452
6125000000.0 0.7747 -0.3983
6128000000.0 0.1952 -0.876
6131000000.0 -0.5309 -0.6994
6134000000.0 -0.9058 -0.01229
6138000000.0 -0.5519 0.7074
6141000000.0 0.1792 0.8848
6144000000.0 0.7959 0.409
6147000000.0 0.8081 -0.353
6150000000.0 0.2595 -0.8771
6153000000.0 -0.5129 -0.7126
6156000000.0 -0.9379 -0.06752
6159000000.0 -0.6396 0.664
6162000000.0 0.1139 0.9359
6166000000.0 0.7779 0.5105
6169000000.0 0.8911 -0.2882
6172000000.0 0.3411 -0.8811
6175000000.0 -0.5011 -0.7949
6178000000.0 -0.9259 -0.1358
6181000000.0 -0.6996 0.6269
6184000000.0 0.0417 0.9132
6188000000.0 0.7433 0.5885
6191000000.0 0.9332 -0.2205
6194000000.0 0.4307 -0.854
6197000000.0 -0.3826 -0.8542
6200000000.0 -0.9114 -0.2135
6203000000.0 -0.783 0.5275
6206000000.0 -0.02336 0.942
6209000000.0 0.6623 0.6521
6212000000.0 0.9215 -0.1066
6216000000.0 0.5066 -0.7649
6219000000.0 -0.2778 -0.8576
6222000000.0 -0.8521 -0.3207
6225000000.0 -0.8281 0.4517
6228000000.0 -0.1766 0.8938
6231000000.0 0.5668 0.7047
6234000000.0 0.8887 0.03378
6238000000.0 0.5961 -0.6901
6241000000.0 -0.1772 -0.8535
6244000000.0 -0.7391 -0.4613
6247000000.0 -0.7787 0.3403
6250000000.0 -0.2741 0.7778
6253000000.0 0.4016 0.7218
6256000000.0 0.846 0.1483
6259000000.0 0.6664 -0.5664
6262000000.0 -0.02334 -0.8285
6266000000.0 -0.6769 -0.5131
6269000000.0 -0.8011 0.1678
