! Created with skrf 1.8.0 (http://scikit-rf.org).
# Hz S RI R 50.0 
!freq ReS11 ImS11
4000000000.0 -0.1693 -1.53
4003000000.0 -1.301 -0.8088
4006000000.0 -1.38 0.491
4009000000.0 -0.5551 1.433
4012000000.0 0.7578 1.299
4016000000.0 1.527 0.2053
4019000000.0 1.138 -1.033
4022000000.0 -0.1367 -1.567
4025000000.0 -1.299 -0.9252
4028000000.0 -1.493 0.4414
4031000000.0 -0.6064 1.512
4034000000.0 0.7748 1.428
4038000000.0 1.582 0.2467
4041000000.0 1.19 -1.082
4044000000.0 -0.08382 -1.666
4047000000.0 -1.327 -0.9926
4050000000.0 -1.572 0.4172
4053000000.0 -0.6281 1.486
4056000000.0 0.7377 1.428
4059000000.0 1.58 0.3448
4062000000.0 1.22 -0.9857
4066000000.0 0.03285 -1.613
4069000000.0 -1.187 -1.02
4072000000.0 -1.601 0.2428
4075000000.0 -0.845 1.392
4078000000.0 0.5938 1.559
4081000000.0 1.534 0.5686
4084000000.0 1.386 -0.8665
4088000000.0 0.25 -1.603
4091000000.0 -1.09 -1.223
4094000000.0 -1.638 0.05767
4097000000.0 -1.004 1.296
4100000000.0 0.384 1.567
4103000000.0 1.419 0.7524
4106000000.0 1.445 -0.612
4109000000.0 0.4104 -1.477
4112000000.0 -0.8264 -1.311
4116000000.0 -1.492 -0.2252
4119000000.0 -1.111 0.9595
4122000000.0 0.01724 1.504
4125000000.0 1.112 0.9291
4128000000.0 1.446 -0.2296
4131000000.0 0.7723 -1.244
4134000000.0 -0.463 -1.421
4138000000.0 -1.38 -0.6066
4141000000.0 -1.34 0.6538
4144000000.0 -0.3798 1.436
4147000000.0 0.8475 1.238
4150000000.0 1.513 0.1321
4153000000.0 1.095 -1.063
4156000000.0 -0.1199 -1.518
4159000000.0 -1.243 -0.8607
4162000000.0 -1.477 0.3742
4166000000.0 -0.6356 1.373
4169000000.0 0.6223 1.388
4172000000.0 1.437 0.4369
4175000000.0 1.244 -0.8277
4178000000.0 0.1925 -1.485
4181000000.0 -1.037 -1.063
4184000000.0 -1.509 0.06132
4188000000.0 -0.9039 1.22
4191000000.0 0.3802 1.448
4194000000.0 1.397 0.6778
4197000000.0 1.422 -0.6248
4200000000.0 0.3938 -1.521
4203000000.0 -0.924 -1.291
4206000000.0 -1.612 -0.06172
4209000000.0 -1.054 1.225
4212000000.0 0.3033 1.624
4216000000.0 1.489 0.7586
4219000000.0 1.483 -0.7315
4222000000.0 0.328 -1.619
4225000000.0 -1.093 -1.268
4228000000.0 -1.693 0.09984
4231000000.0 -0.9516 1.368
4234000000.0 0.5238 1.597
4238000000.0 1.539 0.5311
4241000000.0 1.321 -0.9067
4244000000.0 0.09437 -1.612
4247000000.0 -1.195 -1.036
4250000000.0 -1.559 0.3081
4253000000.0 -0.6883 1.37
4256000000.0 0.6616 1.379
4259000000.0 1.504 0.3385
4262000000.0 1.161 -0.97
4266000000.0 -0.05665 -1.499
4269000000.0 -1.212 -0.9027
4272000000.0 -1.425 0.4228
4275000000.0 -0.5554 1.352
4278000000.0 0.7274 1.227
4281000000.0 1.419 0.207
4284000000.0 1.033 -0.9957
4288000000.0 -0.09007 -1.395
4291000000.0 -1.146 -0.7774
4294000000.0 -1.271 0.3931
4297000000.0 -0.4821 1.234
4300000000.0 0.6083 1.147
4303000000.0 1.271 0.2691
4306000000.0 1.018 -0.8128
4309000000.0 0.041 -1.295
4312000000.0 -0.9573 -0.8199
4316000000.0 -1.27 0.2051
4319000000.0 -0.6833 1.072
4322000000.0 0.4221 1.212
4325000000.0 1.211 0.4964
4328000000.0 1.164 -0.618
4331000000.0 0.2997 -1.321
4334000000.0 -0.8313 -1.082
4338000000.0 -1.365 -0.05111
4341000000.0 -0.9202 1.047
4344000000.0 0.1999 1.389
4347000000.0 1.211 0.7221
4350000000.0 1.36 -0.4658
4353000000.0 0.5223 -1.339
4356000000.0 -0.6909 -1.25
4359000000.0 -1.423 -0.2824
4362000000.0 -1.092 0.9117
4366000000.0 0.004034 1.453
4369000000.0 1.105 0.9233
4372000000.0 1.424 -0.266
4375000000.0 0.7021 -1.27
4378000000.0 -0.5136 -1.387
4381000000.0 -1.405 -0.473
4384000000.0 -1.28 0.8016
4388000000.0 -0.1762 1.544
4391000000.0 1.06 1.128
4394000000.0 1.561 -0.1498
4397000000.0 0.9009 -1.301
4400000000.0 -0.4372 -1.491
4403000000.0 -1.421 -0.5592
4406000000.0 -1.362 0.7804
4409000000.0 -0.2317 1.56
4412000000.0 1.09 1.127
4416000000.0 1.532 -0.1674
4419000000.0 0.8047 -1.302
4422000000.0 -0.5061 -1.441
4425000000.0 -1.434 -0.4813
4428000000.0 -1.221 0.8034
4431000000.0 -0.1305 1.433
4434000000.0 1.097 0.9476
4438000000.0 1.381 -0.2325
4441000000.0 0.6698 -1.234
4444000000.0 -0.5486 -1.233
4447000000.0 -1.279 -0.3418
4450000000.0 -1.04 0.8391
4453000000.0 0.002237 1.325
4456000000.0 1.028 0.7904
4459000000.0 1.261 -0.3282
4462000000.0 0.486 -1.188
4466000000.0 -0.6256 -1.092
4469000000.0 -1.221 -0.1546
4472000000.0 -0.8802 0.8375
4475000000.0 0.1208 1.153
4478000000.0 1.0 0.5966
4481000000.0 1.106 -0.4169
4484000000.0 0.3299 -1.114
4488000000.0 -0.6027 -0.9535
4491000000.0 -1.159 -0.08643
4494000000.0 -0.7589 0.8571
4497000000.0 0.1677 1.089
4500000000.0 0.9738 0.5651
4503000000.0 1.011 -0.3907
4506000000.0 0.3485 -1.044
4509000000.0 -0.5717 -0.9067
4512000000.0 -1.098 -0.1072
4516000000.0 -0.764 0.7917
4519000000.0 0.09568 1.1
4522000000.0 0.9341 0.6135
4525000000.0 1.077 -0.3343
4528000000.0 0.4225 -1.073
4531000000.0 -0.5735 -1.017
4534000000.0 -1.142 -0.2144
4538000000.0 -0.8933 0.7514
4541000000.0 0.02508 1.174
4544000000.0 0.8776 0.731
4547000000.0 1.167 -0.2397
4550000000.0 0.5821 -1.045
4553000000.0 -0.4292 -1.125
4556000000.0 -1.136 -0.4026
4559000000.0 -1.031 0.6322
4562000000.0 -0.1535 1.203
4566000000.0 0.8196 0.9346
4569000000.0 1.253 -0.02702
4572000000.0 0.7783 -0.995
4575000000.0 -0.2745 -1.258
4578000000.0 -1.146 -0.6032
4581000000.0 -1.199 0.478
4584000000.0 -0.4078 1.284
4588000000.0 0.7367 1.12
4591000000.0 1.337 0.1585
4594000000.0 0.9738 -0.935
4597000000.0 -0.09212 -1.359
4600000000.0 -1.099 -0.8136
4603000000.0 -1.339 0.3703
4606000000.0 -0.5632 1.26
4609000000.0 0.6068 1.259
4612000000.0 1.337 0.3033
4616000000.0 1.113 -0.825
4619000000.0 0.05082 -1.403
4622000000.0 -1.065 -0.9
4625000000.0 -1.356 0.2143
4628000000.0 -0.6774 1.184
4631000000.0 0.5015 1.293
4634000000.0 1.307 0.4105
4638000000.0 1.128 -0.7641
4641000000.0 0.104 -1.338
4644000000.0 -0.9627 -0.9365
4647000000.0 -1.321 0.1734
4650000000.0 -0.7128 1.159
4653000000.0 0.4896 1.233
4656000000.0 1.254 0.3971
4659000000.0 1.03 -0.7059
4662000000.0 0.1029 -1.266
4666000000.0 -0.9097 -0.8515
4669000000.0 -1.157 0.2042
4672000000.0 -0.5829 1.018
4675000000.0 0.4569 1.098
4678000000.0 1.134 0.3367
4681000000.0 0.9514 -0.6735
4684000000.0 0.07322 -1.115
4688000000.0 -0.814 -0.7532
4691000000.0 -1.087 0.1624
4694000000.0 -0.5679 0.9338
4697000000.0 0.4142 1.047
4700000000.0 1.069 0.3155
4703000000.0 0.9001 -0.6629
4706000000.0 0.05945 -1.056
4709000000.0 -0.7957 -0.706
4712000000.0 -1.049 0.1867
4716000000.0 -0.4442 0.9082
4719000000.0 0.4013 0.9921
4722000000.0 1.027 0.283
4725000000.0 0.8556 -0.5996
4728000000.0 0.04675 -1.062
4731000000.0 -0.7763 -0.6873
4734000000.0 -1.055 0.1228
4738000000.0 -0.5059 0.8832
4741000000.0 0.3661 0.9673
4744000000.0 1.015 0.3434
4747000000.0 0.8883 -0.5597
4750000000.0 0.1701 -1.047
4753000000.0 -0.7066 -0.7888
4756000000.0 -1.069 0.0427
4759000000.0 -0.6762 0.8428
4762000000.0 0.2367 1.076
4766000000.0 0.9923 0.4979
4769000000.0 1.031 -0.4328
4772000000.0 0.3158 -1.085
4775000000.0 -0.631 -0.9594
4778000000.0 -1.15 -0.1352
4781000000.0 -0.8701 0.8046
4784000000.0 0.07409 1.182
4788000000.0 0.9418 0.7082
4791000000.0 1.156 -0.2338
4794000000.0 0.5586 -1.06
4797000000.0 -0.4712 -1.154
4800000000.0 -1.198 -0.3933
4803000000.0 -1.05 0.6229
4806000000.0 -0.1615 1.236
4809000000.0 0.8184 0.9431
4812000000.0 1.254 -0.01613
4816000000.0 0.7945 -0.9889
4819000000.0 -0.2459 -1.273
4822000000.0 -1.138 -0.6189
4825000000.0 -1.246 0.509
4828000000.0 -0.4106 1.317
4831000000.0 0.7737 1.126
4834000000.0 1.396 0.1872
4838000000.0 0.9956 -0.9754
4841000000.0 -0.1215 -1.368
4844000000.0 -1.138 -0.7684
4847000000.0 -1.287 0.3627
4850000000.0 -0.531 1.308
4853000000.0 0.6366 1.212
4856000000.0 1.354 0.2559
4859000000.0 1.055 -0.8727
4862000000.0 0.003445 -1.36
4866000000.0 -1.036 -0.8632
4869000000.0 -1.278 0.2868
4872000000.0 -0.6179 1.154
4875000000.0 0.5384 1.226
4878000000.0 1.263 0.3183
4881000000.0 1.004 -0.7726
4884000000.0 0.06679 -1.26
4888000000.0 -0.9369 -0.8154
4891000000.0 -1.191 0.2246
4894000000.0 -0.5919 1.011
4897000000.0 0.4429 1.07
4900000000.0 1.103 0.332
4903000000.0 0.934 -0.6182
4906000000.0 0.07173 -1.09
4909000000.0 -0.7897 -0.7467
4912000000.0 -1.025 0.1281
4916000000.0 -0.5973 0.8372
4919000000.0 0.3317 0.953
4922000000.0 0.9293 0.3519
4925000000.0 0.8393 -0.4748
4928000000.0 0.1807 -0.9452
4931000000.0 -0.6457 -0.6987
4934000000.0 -0.922 0.05095
4938000000.0 -0.5666 0.7276
4941000000.0 0.2188 0.9077
4944000000.0 0.8458 0.4032
4947000000.0 0.8732 -0.3947
4950000000.0 0.2485 -0.9195
4953000000.0 -0.513 -0.7824
4956000000.0 -0.944 -0.04743
4959000000.0 -0.6548 0.7199
4962000000.0 0.1298 0.9255
4966000000.0 0.8391 0.4933
4969000000.0 0.9232 -0.3405
4972000000.0 0.3254 -0.9561
4975000000.0 -0.515 -0.853
4978000000.0 -0.994 -0.1401
4981000000.0 -0.7496 0.7114
4984000000.0 0.06095 1.025
4988000000.0 0.8395 0.6356
4991000000.0 1.009 -0.2449
4994000000.0 0.4711 -0.9312
4997000000.0 -0.4636 -0.9693
5000000000.0 -1.084 -0.3111
5003000000.0 -0.9331 0.6559
5006000000.0 -0.08783 1.126
5009000000.0 0.8389 0.8281
5012000000.0 1.2 -0.1354
5016000000.0 0.6658 -1.009
5019000000.0 -0.3702 -1.164
5022000000.0 -1.158 -0.4585
5025000000.0 -1.109 0.6141
5028000000.0 -0.2321 1.204
5031000000.0 0.829 0.9861
5034000000.0 1.291 -0.003715
5038000000.0 0.8171 -0.9761
5041000000.0 -0.2383 -1.26
5044000000.0 -1.126 -0.6448
5047000000.0 -1.187 0.453
5050000000.0 -0.4386 1.229
5053000000.0 0.66 1.09
5056000000.0 1.272 0.1585
5059000000.0 0.9757 -0.8335
5062000000.0 0.01005 -1.302
5066000000.0 -1.012 -0.8029
5069000000.0 -1.248 0.2636
5072000000.0 -0.6183 1.144
5075000000.0 0.4706 1.176
5078000000.0 1.201 0.3776
5081000000.0 1.056 -0.6894
5084000000.0 0.136 -1.228
5088000000.0 -0.836 -0.872
5091000000.0 -1.221 0.07946
5094000000.0 -0.6892 0.9884
5097000000.0 0.2675 1.151
5100000000.0 1.033 0.5237
5103000000.0 0.9949 -0.4577
5106000000.0 0.3123 -1.071
5109000000.0 -0.6128 -0.8984
5112000000.0 -1.069 -0.113
5116000000.0 -0.7772 0.7441
5119000000.0 0.04414 1.078
5122000000.0 0.8556 0.6243
5125000000.0 1.036 -0.2395
5128000000.0 0.4636 -0.9453
5131000000.0 -0.418 -0.9159
5134000000.0 -0.9597 -0.2854
5138000000.0 -0.7927 0.556
5141000000.0 -0.06871 0.992
5144000000.0 0.7019 0.678
5147000000.0 0.9191 -0.1265
5150000000.0 0.4764 -0.818
5153000000.0 -0.2857 -0.8821
5156000000.0 -0.8312 -0.3004
5159000000.0 -0.8137 0.4505
5162000000.0 -0.1444 0.8721
5166000000.0 0.6073 0.6587
5169000000.0 0.8844 -0.0466
5172000000.0 0.5427 -0.7371
5175000000.0 -0.2134 -0.857
5178000000.0 -0.8222 -0.3699
5181000000.0 -0.7927 0.3964
5184000000.0 -0.1984 0.9078
5188000000.0 0.5692 0.7096
5191000000.0 0.934 -0.02424
5194000000.0 0.5548 -0.7326
5197000000.0 -0.212 -0.9019
5200000000.0 -0.8483 -0.4161
5203000000.0 -0.8214 0.4115
5206000000.0 -0.1983 0.9139
5209000000.0 0.5911 0.7326
5212000000.0 0.9388 0.01189
5216000000.0 0.619 -0.7332
5219000000.0 -0.1885 -0.9556
5222000000.0 -0.8705 -0.4423
5225000000.0 -0.9146 0.3917
5228000000.0 -0.2405 0.9837
5231000000.0 0.5523 0.8461
5234000000.0 1.002 0.06874
5238000000.0 0.7157 -0.7281
5241000000.0 -0.09682 -1.032
5244000000.0 -0.8858 -0.5846
5247000000.0 -0.9996 0.3239
5250000000.0 -0.3741 0.9355
5253000000.0 0.5084 0.9266
5256000000.0 1.03 0.1914
5259000000.0 0.8526 -0.6873
5262000000.0 0.03353 -1.077
5266000000.0 -0.8099 -0.7382
5269000000.0 -1.071 0.17
5272000000.0 -0.5618 0.9395
5275000000.0 0.3396 1.011
5278000000.0 1.004 0.3955
5281000000.0 0.9687 -0.5081
5284000000.0 0.2084 -1.078
5288000000.0 -0.6851 -0.8712
5291000000.0 -1.124 -0.07402
5294000000.0 -0.7667 0.7864
5297000000.0 0.1246 1.105
5300000000.0 0.9396 0.6355
5303000000.0 1.079 -0.2992
5306000000.0 0.4738 -1.015
5309000000.0 -0.4712 -1.054
5312000000.0 -1.091 -0.2979
5316000000.0 -0.9286 0.64
5319000000.0 -0.113 1.127
5322000000.0 0.7962 0.7904
5325000000.0 1.122 -0.07783
5328000000.0 0.6553 -0.9441
5331000000.0 -0.3409 -1.091
5334000000.0 -1.021 -0.4829
5338000000.0 -1.018 0.4999
5341000000.0 -0.2697 1.096
5344000000.0 0.6569 0.9023
5347000000.0 1.113 0.06023
5350000000.0 0.7534 -0.7895
5353000000.0 -0.1732 -1.098
5356000000.0 -0.9389 -0.5784
5359000000.0 -1.034 0.3693
5362000000.0 -0.3424 1.013
5366000000.0 0.5733 0.9139
5369000000.0 1.026 0.1499
5372000000.0 0.736 -0.6951
5375000000.0 -0.1131 -1.036
5378000000.0 -0.8722 -0.547
5381000000.0 -0.9609 0.289
5384000000.0 -0.3543 0.9574
5388000000.0 0.5037 0.8292
5391000000.0 0.9721 0.1196
5394000000.0 0.6848 -0.6793
5397000000.0 -0.0997 -0.937
5400000000.0 -0.8383 -0.4915
5403000000.0 -0.8648 0.3076
5406000000.0 -0.2935 0.8236
5409000000.0 0.4587 0.766
5412000000.0 0.86 0.1061
5416000000.0 0.6084 -0.6084
5419000000.0 -0.08663 -0.8717
5422000000.0 -0.7184 -0.4613
5425000000.0 -0.8227 0.2897
5428000000.0 -0.2723 0.8172
5431000000.0 0.4626 0.7314
5434000000.0 0.882 0.1114
5438000000.0 0.6286 -0.6351
5441000000.0 -0.1218 -0.8585
5444000000.0 -0.7529 -0.4713
5447000000.0 -0.8354 0.2947
5450000000.0 -0.2896 0.8246
5453000000.0 0.4759 0.7259
5456000000.0 0.866 0.09352
5459000000.0 0.639 -0.6079
5462000000.0 -0.05751 -0.8873
5466000000.0 -0.7241 -0.5474
5469000000.0 -0.878 0.2251
5472000000.0 -0.4011 0.7986
5475000000.0 0.4182 0.8359
5478000000.0 0.8964 0.2588
5481000000.0 0.7538 -0.5202
5484000000.0 0.06717 -0.962
5488000000.0 -0.6799 -0.6724
5491000000.0 -0.9646 0.114
5494000000.0 -0.5629 0.7973
5497000000.0 0.2698 0.9231
5500000000.0 0.9146 0.3801
5503000000.0 0.9367 -0.4384
5506000000.0 0.2459 -0.9928
5509000000.0 -0.6294 -0.8275
5512000000.0 -0.9988 -0.09194
5516000000.0 -0.7057 0.7222
5519000000.0 0.09763 1.045
5522000000.0 0.8757 0.5856
5525000000.0 1.011 -0.293
5528000000.0 0.4339 -0.9504
5531000000.0 -0.4269 -0.9671
5534000000.0 -1.061 -0.2575
5538000000.0 -0.868 0.5879
5541000000.0 -0.1105 1.06
5544000000.0 0.7281 0.7579
5547000000.0 1.052 -0.1083
5550000000.0 0.5944 -0.8586
5553000000.0 -0.282 -1.073
5556000000.0 -0.9648 -0.4372
5559000000.0 -0.9677 0.4601
5562000000.0 -0.2405 1.032
5566000000.0 0.6069 0.8222
5569000000.0 1.007 0.05271
5572000000.0 0.7027 -0.7238
5575000000.0 -0.1357 -1.022
5578000000.0 -0.8346 -0.544
5581000000.0 -0.9577 0.2938
5584000000.0 -0.352 0.9288
5588000000.0 0.4634 0.8313
5591000000.0 0.9755 0.1909
5594000000.0 0.7532 -0.6009
5597000000.0 -0.01337 -0.9427
5600000000.0 -0.7063 -0.5729
5603000000.0 -0.8716 0.166
5606000000.0 -0.3923 0.8031
5609000000.0 0.3626 0.8336
5612000000.0 0.8559 0.2099
5616000000.0 0.718 -0.5166
5619000000.0 0.02859 -0.8605
5622000000.0 -0.6235 -0.5691
5625000000.0 -0.8115 0.1461
5628000000.0 -0.4288 0.7196
5631000000.0 0.3018 0.7808
5634000000.0 0.7923 0.2465
5638000000.0 0.7106 -0.44
5641000000.0 0.09391 -0.832
5644000000.0 -0.5759 -0.5963
5647000000.0 -0.8214 0.06472
5650000000.0 -0.4394 0.692
5653000000.0 0.2828 0.8044
5656000000.0 0.7949 0.2834
5659000000.0 0.7171 -0.4585
5662000000.0 0.08878 -0.8482
5666000000.0 -0.608 -0.6048
5669000000.0 -0.8614 0.1013
5672000000.0 -0.4917 0.7355
5675000000.0 0.3097 0.8325
5678000000.0 0.8497 0.288
5681000000.0 0.7802 -0.4761
5684000000.0 0.1068 -0.9217
5688000000.0 -0.6521 -0.6851
5691000000.0 -0.9423 0.0645
5694000000.0 -0.5739 0.7942
5697000000.0 0.2497 0.9328
5700000000.0 0.9048 0.3904
5703000000.0 0.8587 -0.4723
5706000000.0 0.1769 -0.9793
5709000000.0 -0.6667 -0.7604
5712000000.0 -1.011 0.009568
5716000000.0 -0.6144 0.7709
5719000000.0 0.2087 0.972
5722000000.0 0.8998 0.4668
5725000000.0 1.001 -0.4022
5728000000.0 0.3143 -1.015
5731000000.0 -0.5945 -0.883
5734000000.0 -1.055 -0.1072
5738000000.0 -0.7824 0.7626
5741000000.0 0.07271 1.073
5744000000.0 0.8964 0.6336
5747000000.0 1.052 -0.2811
5750000000.0 0.4691 -0.9735
5753000000.0 -0.4957 -0.9815
5756000000.0 -1.069 -0.265
5759000000.0 -0.9016 0.6441
5762000000.0 -0.09035 1.103
5766000000.0 0.7856 0.771
5769000000.0 1.096 -0.1127
5772000000.0 0.6208 -0.9276
5775000000.0 -0.2956 -1.048
5778000000.0 -1.003 -0.4539
5781000000.0 -0.9454 0.5058
5784000000.0 -0.2852 1.089
5788000000.0 0.6357 0.8817
5791000000.0 1.085 0.04121
5794000000.0 0.7117 -0.7944
5797000000.0 -0.1348 -1.038
5800000000.0 -0.9028 -0.6077
5803000000.0 -1.018 0.3225
5806000000.0 -0.3969 0.9782
5809000000.0 0.5032 0.9529
5812000000.0 0.9892 0.2022
5816000000.0 0.7887 -0.6811
5819000000.0 0.008464 -1.014
5822000000.0 -0.7698 -0.6377
5825000000.0 -0.9964 0.2164
5828000000.0 -0.4625 0.9141
5831000000.0 0.3899 0.9247
5834000000.0 0.9057 0.2749
5838000000.0 0.8259 -0.5493
5841000000.0 0.07938 -0.9754
5844000000.0 -0.6712 -0.6746
5847000000.0 -0.9566 0.1278
5850000000.0 -0.4936 0.8053
5853000000.0 0.3162 0.855
5856000000.0 0.8722 0.2828
5859000000.0 0.7676 -0.4702
5862000000.0 0.0824 -0.9456
5866000000.0 -0.6324 -0.6583
5869000000.0 -0.9102 0.1136
5872000000.0 -0.5207 0.6976
5875000000.0 0.2755 0.8508
5878000000.0 0.8414 0.3126
5881000000.0 0.7346 -0.4491
5884000000.0 0.1186 -0.87
5888000000.0 -0.579 -0.6406
5891000000.0 -0.8782 0.04908
5894000000.0 -0.4848 0.7004
5897000000.0 0.252 0.7996
5900000000.0 0.7765 0.3458
5903000000.0 0.7345 -0.3825
5906000000.0 0.195 -0.8387
5909000000.0 -0.5633 -0.6817
5912000000.0 -0.8376 -0.01847
5916000000.0 -0.5562 0.6722
5919000000.0 0.1599 0.8395
5922000000.0 0.7655 0.3993
5925000000.0 0.7854 -0.334
5928000000.0 0.2846 -0.8145
5931000000.0 -0.5092 -0.7248
5934000000.0 -0.8865 -0.08172
5938000000.0 -0.6369 0.6328
5941000000.0 0.0606 0.8944
5944000000.0 0.7247 0.4879
5947000000.0 0.8661 -0.2495
5950000000.0 0.3807 -0.8312
5953000000.0 -0.3993 -0.8254
5956000000.0 -0.8843 -0.2612
5959000000.0 -0.75 0.5399
5962000000.0 -0.06684 0.9198
5966000000.0 0.6551 0.6651
5969000000.0 0.9524 -0.08037
5972000000.0 0.5144 -0.7757
5975000000.0 -0.2508 -0.907
5978000000.0 -0.8861 -0.3849
5981000000.0 -0.8709 0.4288
5984000000.0 -0.2587 0.9494
5988000000.0 0.5926 0.7745
5991000000.0 0.9964 0.05198
5994000000.0 0.6758 -0.7082
5997000000.0 -0.1356 -0.9929
6000000000.0 -0.8361 -0.5269
6003000000.0 -0.9303 0.2958
6006000000.0 -0.3939 0.8808
6009000000.0 0.5079 0.8957
6012000000.0 0.9553 0.1768
6016000000.0 0.7675 -0.6384
6019000000.0 -0.01798 -0.9744
6022000000.0 -0.7526 -0.5907
6025000000.0 -0.9688 0.2042
6028000000.0 -0.4448 0.86
6031000000.0 0.373 0.8961
6034000000.0 0.9255 0.229
6038000000.0 0.7764 -0.5496
6041000000.0 0.08433 -0.9695
6044000000.0 -0.679 -0.6511
6047000000.0 -0.9237 0.1305
6050000000.0 -0.5327 0.8056
6053000000.0 0.288 0.9008
6056000000.0 0.8688 0.3437
6059000000.0 0.804 -0.4871
6062000000.0 0.1506 -0.9231
6066000000.0 -0.6192 -0.6618
6069000000.0 -0.8924 0.05849
6072000000.0 -0.495 0.7481
6075000000.0 0.2547 0.8536
6078000000.0 0.7939 0.3522
6081000000.0 0.7937 -0.4214
6084000000.0 0.1577 -0.8471
6088000000.0 -0.5716 -0.6635
6091000000.0 -0.8587 -0.01806
6094000000.0 -0.5491 0.6632
6097000000.0 0.1826 0.8326
6100000000.0 0.7668 0.3719
6103000000.0 0.7819 -0.3802
6106000000.0 0.2113 -0.8291
6109000000.0 -0.5333 -0.6632
6112000000.0 -0.8569 -0.005469
6116000000.0 -0.5672 0.6449
6119000000.0 0.1503 0.8389
6122000000.0 0.7845 0.4177
6125000000.0 0.8089 -0.324
6128000000.0 0.2399 -0.8538
6131000000.0 -0.4889 -0.7212
6134000000.0 -0.8535 -0.07843
6138000000.0 -0.6021 0.6203
6141000000.0 0.1107 0.8433
6144000000.0 0.7643 0.4597
6147000000.0 0.8346 -0.2878
6150000000.0 0.2911 -0.8057
6153000000.0 -0.4527 -0.7805
6156000000.0 -0.8701 -0.1345
6159000000.0 -0.6897 0.6076
6162000000.0 0.05238 0.9106
6166000000.0 0.7649 0.5361
6169000000.0 0.9148 -0.2513
6172000000.0 0.4038 -0.8333
6175000000.0 -0.3917 -0.8125
6178000000.0 -0.9257 -0.2248
6181000000.0 -0.7695 0.5834
6184000000.0 -0.05254 0.9418
6188000000.0 0.716 0.6333
6191000000.0 0.9549 -0.1411
6194000000.0 0.4897 -0.7927
6197000000.0 -0.339 -0.8766
6200000000.0 -0.8845 -0.3218
6203000000.0 -0.7678 0.4805
6206000000.0 -0.1094 0.8969
6209000000.0 0.6208 0.6756
6212000000.0 0.9017 -0.05027
6216000000.0 0.5301 -0.7278
6219000000.0 -0.199 -0.9234
6222000000.0 -0.8153 -0.3977
6225000000.0 -0.8188 0.399
6228000000.0 -0.23 0.859
6231000000.0 0.5033 0.7479
6234000000.0 0.8989 0.08441
6238000000.0 0.5999 -0.6056
6241000000.0 -0.1156 -0.8647
6244000000.0 -0.7013 -0.428
6247000000.0 -0.799 0.272
6250000000.0 -0.3466 0.8007
6253000000.0 0.3812 0.7238
6256000000.0 0.7952 0.1733
6259000000.0 0.6315 -0.4699
6262000000.0 0.03356 -0.8055
6266000000.0 -0.5961 -0.5621
