! Created with skrf 1.8.0 (http://scikit-rf.org).
# Hz S RI R 50.0 
!freq ReS11 ImS11
4000000000.0 -0.1637 -1.488
4003000000.0 -1.219 -0.8411
4006000000.0 -1.467 0.5321
4009000000.0 -0.5359 1.467
4012000000.0 0.799 1.313
4016000000.0 1.524 0.1587
4019000000.0 1.169 -1.097
4022000000.0 -0.1406 -1.581
4025000000.0 -1.293 -0.8936
4028000000.0 -1.53 0.4451
4031000000.0 -0.577 1.468
4034000000.0 0.8122 1.39
4038000000.0 1.603 0.2199
4041000000.0 1.175 -1.098
4044000000.0 -0.1245 -1.608
4047000000.0 -1.362 -0.9255
4050000000.0 -1.571 0.4786
4053000000.0 -0.6045 1.51
4056000000.0 0.7663 1.412
4059000000.0 1.596 0.2939
4062000000.0 1.252 -1.016
4066000000.0 0.005572 -1.603
4069000000.0 -1.243 -1.03
4072000000.0 -1.597 0.3364
4075000000.0 -0.7962 1.428
4078000000.0 0.5766 1.504
4081000000.0 1.559 0.5114
4084000000.0 1.412 -0.8608
4088000000.0 0.252 -1.624
4091000000.0 -1.125 -1.201
4094000000.0 -1.625 0.08809
4097000000.0 -0.9967 1.289
4100000000.0 0.3738 1.593
4103000000.0 1.422 0.692
4106000000.0 1.428 -0.6487
4109000000.0 0.4391 -1.501
4112000000.0 -0.8559 -1.263
4116000000.0 -1.503 -0.2061
4119000000.0 -1.084 1.012
4122000000.0 0.04789 1.468
4125000000.0 1.137 0.9321
4128000000.0 1.436 -0.2652
4131000000.0 0.7802 -1.258
4134000000.0 -0.4481 -1.4
4138000000.0 -1.377 -0.5797
4141000000.0 -1.333 0.6491
4144000000.0 -0.3646 1.441
4147000000.0 0.9312 1.213
4150000000.0 1.499 0.1243
4153000000.0 1.057 -1.064
4156000000.0 -0.1359 -1.518
4159000000.0 -1.208 -0.8652
4162000000.0 -1.457 0.3714
4166000000.0 -0.6042 1.358
4169000000.0 0.6101 1.352
4172000000.0 1.433 0.3959
4175000000.0 1.22 -0.8323
4178000000.0 0.1566 -1.502
4181000000.0 -1.059 -1.055
4184000000.0 -1.502 0.1195
4188000000.0 -0.8619 1.217
4191000000.0 0.3804 1.443
4194000000.0 1.419 0.6102
4197000000.0 1.396 -0.6771
4200000000.0 0.3684 -1.526
4203000000.0 -1.003 -1.245
4206000000.0 -1.603 -0.01433
4209000000.0 -1.039 1.259
4212000000.0 0.3834 1.594
4216000000.0 1.518 0.6713
4219000000.0 1.521 -0.7641
4222000000.0 0.2931 -1.658
4225000000.0 -1.133 -1.227
4228000000.0 -1.688 0.1663
4231000000.0 -0.8657 1.394
4234000000.0 0.5838 1.554
4238000000.0 1.554 0.4788
4241000000.0 1.335 -0.9391
4244000000.0 0.04697 -1.556
4247000000.0 -1.246 -0.9784
4250000000.0 -1.507 0.3629
4253000000.0 -0.6235 1.399
4256000000.0 0.747 1.348
4259000000.0 1.491 0.2497
4262000000.0 1.11 -1.041
4266000000.0 -0.1137 -1.49
4269000000.0 -1.226 -0.8067
4272000000.0 -1.418 0.4891
4275000000.0 -0.5168 1.381
4278000000.0 0.7974 1.186
4281000000.0 1.436 0.1306
4284000000.0 0.9728 -1.022
4288000000.0 -0.1836 -1.355
4291000000.0 -1.16 -0.6843
4294000000.0 -1.302 0.4535
4297000000.0 -0.4229 1.243
4300000000.0 0.677 1.163
4303000000.0 1.287 0.247
4306000000.0 0.96 -0.8429
4309000000.0 0.00424 -1.294
4312000000.0 -1.002 -0.8245
4316000000.0 -1.292 0.2058
4319000000.0 -0.6288 1.127
4322000000.0 0.431 1.228
4325000000.0 1.248 0.4924
4328000000.0 1.167 -0.6408
4331000000.0 0.2619 -1.326
4334000000.0 -0.8869 -1.036
4338000000.0 -1.36 -0.01858
4341000000.0 -0.9209 1.051
4344000000.0 0.28 1.416
4347000000.0 1.229 0.6757
4350000000.0 1.345 -0.5075
4353000000.0 0.4618 -1.346
4356000000.0 -0.7475 -1.235
4359000000.0 -1.44 -0.2121
4362000000.0 -1.072 0.9619
4366000000.0 0.05478 1.476
4369000000.0 1.157 0.9152
4372000000.0 1.427 -0.3147
4375000000.0 0.6767 -1.319
4378000000.0 -0.5915 -1.354
4381000000.0 -1.437 -0.4543
4384000000.0 -1.251 0.8469
4388000000.0 -0.136 1.539
4391000000.0 1.132 1.068
4394000000.0 1.544 -0.1896
4397000000.0 0.83 -1.351
4400000000.0 -0.5231 -1.469
4403000000.0 -1.495 -0.4697
4406000000.0 -1.32 0.8578
4409000000.0 -0.1146 1.578
4412000000.0 1.123 1.05
4416000000.0 1.549 -0.2495
4419000000.0 0.6991 -1.338
4422000000.0 -0.5832 -1.395
4425000000.0 -1.439 -0.3881
4428000000.0 -1.175 0.881
4431000000.0 -0.01143 1.445
4434000000.0 1.125 0.8985
4438000000.0 1.361 -0.3254
4441000000.0 0.6032 -1.248
4444000000.0 -0.6359 -1.198
4447000000.0 -1.303 -0.2577
4450000000.0 -0.979 0.8927
4453000000.0 0.09825 1.334
4456000000.0 1.084 0.7108
4459000000.0 1.214 -0.3858
4462000000.0 0.4214 -1.2
4466000000.0 -0.6647 -1.043
4469000000.0 -1.201 -0.1065
4472000000.0 -0.812 0.9104
4475000000.0 0.2104 1.189
4478000000.0 1.062 0.5674
4481000000.0 1.091 -0.4308
4484000000.0 0.2877 -1.128
4488000000.0 -0.6897 -0.8989
4491000000.0 -1.13 -0.03732
4494000000.0 -0.7585 0.8533
4497000000.0 0.2107 1.103
4500000000.0 1.025 0.5196
4503000000.0 0.9697 -0.4151
4506000000.0 0.2806 -1.059
4509000000.0 -0.625 -0.908
4512000000.0 -1.094 -0.04346
4516000000.0 -0.7334 0.8435
4519000000.0 0.1811 1.131
4522000000.0 0.9752 0.5773
4525000000.0 1.053 -0.3857
4528000000.0 0.3741 -1.091
4531000000.0 -0.6043 -0.9652
4534000000.0 -1.19 -0.1286
4538000000.0 -0.8709 0.8216
4541000000.0 0.09518 1.174
4544000000.0 0.9258 0.6863
4547000000.0 1.153 -0.2865
4550000000.0 0.5369 -1.051
4553000000.0 -0.4622 -1.125
4556000000.0 -1.153 -0.3532
4559000000.0 -0.9973 0.6903
4562000000.0 -0.1227 1.224
4566000000.0 0.8575 0.9189
4569000000.0 1.253 -0.09228
4572000000.0 0.7737 -1.023
4575000000.0 -0.3087 -1.223
4578000000.0 -1.172 -0.564
4581000000.0 -1.187 0.5516
4584000000.0 -0.3634 1.284
4588000000.0 0.7636 1.092
4591000000.0 1.355 0.08895
4594000000.0 0.9584 -0.9834
4597000000.0 -0.1502 -1.366
4600000000.0 -1.15 -0.7701
4603000000.0 -1.326 0.4157
4606000000.0 -0.5005 1.292
4609000000.0 0.6754 1.221
4612000000.0 1.386 0.2479
4616000000.0 1.068 -0.8991
4619000000.0 -0.03704 -1.41
4622000000.0 -1.119 -0.8262
4625000000.0 -1.319 0.3198
4628000000.0 -0.6153 1.239
4631000000.0 0.5339 1.232
4634000000.0 1.323 0.3405
4638000000.0 1.093 -0.7957
4641000000.0 0.04122 -1.396
4644000000.0 -1.018 -0.8816
4647000000.0 -1.323 0.2604
4650000000.0 -0.6181 1.166
4653000000.0 0.5021 1.196
4656000000.0 1.246 0.3004
4659000000.0 1.006 -0.775
4662000000.0 0.05272 -1.232
4666000000.0 -0.9219 -0.7968
4669000000.0 -1.187 0.2225
4672000000.0 -0.5232 1.071
4675000000.0 0.4924 1.079
4678000000.0 1.1 0.2504
4681000000.0 0.9183 -0.7002
4684000000.0 0.02054 -1.101
4688000000.0 -0.8561 -0.6797
4691000000.0 -1.075 0.2479
4694000000.0 -0.4681 0.9735
4697000000.0 0.4527 0.9972
4700000000.0 1.077 0.2275
4703000000.0 0.893 -0.6756
4706000000.0 -0.004066 -1.086
4709000000.0 -0.8702 -0.6391
4712000000.0 -1.055 0.2315
4716000000.0 -0.5059 0.9977
4719000000.0 0.4825 0.957
4722000000.0 1.035 0.2113
4725000000.0 0.8547 -0.639
4728000000.0 0.006273 -1.041
4731000000.0 -0.8263 -0.661
4734000000.0 -1.006 0.2217
4738000000.0 -0.488 0.9159
4741000000.0 0.409 0.9842
4744000000.0 0.992 0.3249
4747000000.0 0.8825 -0.5598
4750000000.0 0.1252 -1.061
4753000000.0 -0.7634 -0.7634
4756000000.0 -1.098 0.1165
4759000000.0 -0.6378 0.8735
4762000000.0 0.2821 1.105
4766000000.0 0.9963 0.4839
4769000000.0 1.031 -0.4625
4772000000.0 0.3027 -1.064
4775000000.0 -0.6846 -0.9417
4778000000.0 -1.197 -0.1154
4781000000.0 -0.8376 0.8461
4784000000.0 0.1075 1.203
4788000000.0 0.9861 0.7087
4791000000.0 1.189 -0.2835
4794000000.0 0.5387 -1.095
4797000000.0 -0.5019 -1.158
4800000000.0 -1.196 -0.3629
4803000000.0 -1.028 0.6809
4806000000.0 -0.1542 1.259
4809000000.0 0.8847 0.9501
4812000000.0 1.303 -0.08677
4816000000.0 0.7619 -1.068
4819000000.0 -0.322 -1.277
4822000000.0 -1.214 -0.6029
4825000000.0 -1.252 0.5353
4828000000.0 -0.3645 1.311
4831000000.0 0.8158 1.124
4834000000.0 1.37 0.09382
4838000000.0 0.9816 -0.9958
4841000000.0 -0.1985 -1.386
4844000000.0 -1.184 -0.7305
4847000000.0 -1.32 0.4595
4850000000.0 -0.4934 1.287
4853000000.0 0.6881 1.177
4856000000.0 1.371 0.1799
4859000000.0 1.022 -0.918
4862000000.0 -0.09471 -1.329
4866000000.0 -1.091 -0.8041
4869000000.0 -1.294 0.3256
4872000000.0 -0.5183 1.206
4875000000.0 0.5851 1.156
4878000000.0 1.237 0.2758
4881000000.0 0.9647 -0.7762
4884000000.0 -0.009374 -1.24
4888000000.0 -0.9709 -0.7941
4891000000.0 -1.196 0.2568
4894000000.0 -0.5107 1.053
4897000000.0 0.4676 1.05
4900000000.0 1.088 0.2625
4903000000.0 0.8666 -0.6553
4906000000.0 0.03448 -1.065
4909000000.0 -0.799 -0.694
4912000000.0 -0.9948 0.1748
4916000000.0 -0.4733 0.8903
4919000000.0 0.3533 0.9262
4922000000.0 0.9432 0.2964
4925000000.0 0.8093 -0.5302
4928000000.0 0.1357 -0.9653
4931000000.0 -0.6434 -0.6595
4934000000.0 -0.9297 0.08231
4938000000.0 -0.5443 0.7695
4941000000.0 0.2597 0.8857
4944000000.0 0.8589 0.3761
4947000000.0 0.8132 -0.4495
4950000000.0 0.1912 -0.9302
4953000000.0 -0.6257 -0.758
4956000000.0 -0.991 -0.009747
4959000000.0 -0.6228 0.7236
4962000000.0 0.1838 0.948
4966000000.0 0.8815 0.4586
4969000000.0 0.9336 -0.3799
4972000000.0 0.2857 -0.9682
4975000000.0 -0.564 -0.853
4978000000.0 -1.041 -0.08691
4981000000.0 -0.748 0.7231
4984000000.0 0.1121 1.06
4988000000.0 0.8499 0.5922
4991000000.0 1.025 -0.2582
4994000000.0 0.4668 -0.9722
4997000000.0 -0.4831 -0.9874
5000000000.0 -1.097 -0.2422
5003000000.0 -0.8982 0.6893
5006000000.0 -0.06597 1.171
5009000000.0 0.8589 0.8034
5012000000.0 1.182 -0.1772
5016000000.0 0.626 -1.044
5019000000.0 -0.4251 -1.175
5022000000.0 -1.18 -0.4016
5025000000.0 -1.077 0.6293
5028000000.0 -0.2009 1.253
5031000000.0 0.834 0.9432
5034000000.0 1.313 -0.03936
5038000000.0 0.7887 -0.9962
5041000000.0 -0.27 -1.242
5044000000.0 -1.141 -0.575
5047000000.0 -1.204 0.4675
5050000000.0 -0.3771 1.234
5053000000.0 0.6995 1.112
5056000000.0 1.308 0.1449
5059000000.0 0.9418 -0.8681
5062000000.0 -0.08291 -1.307
5066000000.0 -1.046 -0.7716
5069000000.0 -1.27 0.3139
5072000000.0 -0.572 1.145
5075000000.0 0.5432 1.162
5078000000.0 1.228 0.3552
5081000000.0 1.033 -0.7091
5084000000.0 0.1016 -1.197
5088000000.0 -0.8956 -0.8357
5091000000.0 -1.184 0.1218
5094000000.0 -0.6705 0.9669
5097000000.0 0.2902 1.133
5100000000.0 1.075 0.4625
5103000000.0 0.9937 -0.4921
5106000000.0 0.2908 -1.079
5109000000.0 -0.6561 -0.9113
5112000000.0 -1.046 -0.074
5116000000.0 -0.7267 0.7543
5119000000.0 0.1172 1.029
5122000000.0 0.8461 0.5703
5125000000.0 1.009 -0.3227
5128000000.0 0.4375 -0.9357
5131000000.0 -0.456 -0.9147
5134000000.0 -0.9928 -0.1948
5138000000.0 -0.7602 0.6147
5141000000.0 -0.01034 0.9822
5144000000.0 0.7049 0.6242
5147000000.0 0.9238 -0.1596
5150000000.0 0.4488 -0.8133
5153000000.0 -0.3328 -0.8735
5156000000.0 -0.8753 -0.2554
5159000000.0 -0.7614 0.4872
5162000000.0 -0.08644 0.88
5166000000.0 0.6264 0.6383
5169000000.0 0.9177 -0.08773
5172000000.0 0.4815 -0.7571
5175000000.0 -0.2747 -0.8341
5178000000.0 -0.8574 -0.3493
5181000000.0 -0.7817 0.4565
5184000000.0 -0.1347 0.9042
5188000000.0 0.5856 0.668
5191000000.0 0.9308 -0.06326
5194000000.0 0.5131 -0.7526
5197000000.0 -0.2927 -0.9145
5200000000.0 -0.8606 -0.3664
5203000000.0 -0.8113 0.4491
5206000000.0 -0.1424 0.9428
5209000000.0 0.6429 0.6956
5212000000.0 0.9617 -0.03802
5216000000.0 0.5794 -0.8016
5219000000.0 -0.2245 -0.9347
5222000000.0 -0.9123 -0.4091
5225000000.0 -0.9075 0.436
5228000000.0 -0.2354 0.9917
5231000000.0 0.6212 0.7991
5234000000.0 1.021 0.04797
5238000000.0 0.6897 -0.7781
5241000000.0 -0.1702 -1.026
5244000000.0 -0.9096 -0.5512
5247000000.0 -1.002 0.3458
5250000000.0 -0.3565 0.9997
5253000000.0 0.5419 0.9161
5256000000.0 1.07 0.1713
5259000000.0 0.8262 -0.7226
5262000000.0 -0.02392 -1.106
5266000000.0 -0.8362 -0.6805
5269000000.0 -1.069 0.1644
5272000000.0 -0.5512 0.9403
5275000000.0 0.3863 1.025
5278000000.0 0.9988 0.3525
5281000000.0 0.9145 -0.5558
5284000000.0 0.212 -1.089
5288000000.0 -0.7097 -0.8588
5291000000.0 -1.093 0.00762
5294000000.0 -0.77 0.8581
5297000000.0 0.147 1.122
5300000000.0 0.9677 0.5811
5303000000.0 1.067 -0.3413
5306000000.0 0.4234 -1.051
5309000000.0 -0.5139 -1.018
5312000000.0 -1.087 -0.2655
5316000000.0 -0.9094 0.6854
5319000000.0 -0.04465 1.133
5322000000.0 0.7873 0.7697
5325000000.0 1.147 -0.1539
5328000000.0 0.6023 -0.9648
5331000000.0 -0.3578 -1.111
5334000000.0 -1.036 -0.4367
5338000000.0 -0.9865 0.5298
5341000000.0 -0.2182 1.077
5344000000.0 0.7346 0.8832
5347000000.0 1.123 -0.009116
5350000000.0 0.699 -0.8843
5353000000.0 -0.1941 -1.084
5356000000.0 -0.9558 -0.5138
5359000000.0 -1.009 0.3947
5362000000.0 -0.294 1.037
5366000000.0 0.611 0.8944
5369000000.0 1.061 0.06984
5372000000.0 0.694 -0.7705
5375000000.0 -0.1654 -1.018
5378000000.0 -0.8908 -0.5279
5381000000.0 -0.9541 0.3904
5384000000.0 -0.275 0.9595
5388000000.0 0.5529 0.7962
5391000000.0 0.9412 0.04768
5394000000.0 0.6351 -0.7086
5397000000.0 -0.1769 -0.9062
5400000000.0 -0.8197 -0.4212
5403000000.0 -0.841 0.3832
5406000000.0 -0.2194 0.8659
5409000000.0 0.5054 0.7067
5412000000.0 0.8673 0.01513
5416000000.0 0.5637 -0.653
5419000000.0 -0.1584 -0.8387
5422000000.0 -0.7715 -0.3864
5425000000.0 -0.8134 0.3585
5428000000.0 -0.2052 0.8171
5431000000.0 0.5335 0.67
5434000000.0 0.8777 0.02633
5438000000.0 0.5669 -0.662
5441000000.0 -0.1483 -0.8508
5444000000.0 -0.7671 -0.3914
5447000000.0 -0.7717 0.3165
5450000000.0 -0.2186 0.8694
5453000000.0 0.5221 0.7328
5456000000.0 0.886 0.06567
5459000000.0 0.6228 -0.6349
5462000000.0 -0.1129 -0.8779
5466000000.0 -0.7916 -0.4978
5469000000.0 -0.865 0.2994
5472000000.0 -0.3258 0.8769
5475000000.0 0.4469 0.8082
5478000000.0 0.9254 0.1833
5481000000.0 0.751 -0.5954
5484000000.0 -0.003336 -0.9584
5488000000.0 -0.742 -0.6608
5491000000.0 -0.9781 0.185
5494000000.0 -0.527 0.8177
5497000000.0 0.3056 0.9416
5500000000.0 0.9445 0.3764
5503000000.0 0.8921 -0.4928
5506000000.0 0.1775 -0.9972
5509000000.0 -0.6655 -0.7876
5512000000.0 -1.017 -0.01556
5516000000.0 -0.6761 0.7941
5519000000.0 0.1199 1.005
5522000000.0 0.9139 0.5178
5525000000.0 0.994 -0.3323
5528000000.0 0.383 -0.9658
5531000000.0 -0.5096 -0.9115
5534000000.0 -1.022 -0.245
5538000000.0 -0.8287 0.6502
5541000000.0 -0.05263 1.101
5544000000.0 0.8129 0.7317
5547000000.0 1.062 -0.1387
5550000000.0 0.521 -0.926
5553000000.0 -0.335 -1.02
5556000000.0 -0.9782 -0.3891
5559000000.0 -0.9058 0.5202
5562000000.0 -0.1587 1.021
5566000000.0 0.6626 0.8014
5569000000.0 1.071 -0.003767
5572000000.0 0.6368 -0.8144
5575000000.0 -0.198 -0.9966
5578000000.0 -0.8573 -0.4673
5581000000.0 -0.9156 0.4113
5584000000.0 -0.3013 0.9181
5588000000.0 0.5248 0.7951
5591000000.0 0.9621 0.1248
5594000000.0 0.6663 -0.665
5597000000.0 -0.06899 -0.9246
5600000000.0 -0.7353 -0.4923
5603000000.0 -0.8698 0.2652
5606000000.0 -0.3575 0.8283
5609000000.0 0.4007 0.7938
5612000000.0 0.8503 0.161
5616000000.0 0.6413 -0.5465
5619000000.0 -0.01477 -0.8668
5622000000.0 -0.6925 -0.5119
5625000000.0 -0.823 0.1628
5628000000.0 -0.3902 0.7661
5631000000.0 0.361 0.7396
5634000000.0 0.8245 0.1927
5638000000.0 0.6549 -0.5163
5641000000.0 0.01915 -0.831
5644000000.0 -0.6451 -0.5386
5647000000.0 -0.8347 0.1835
5650000000.0 -0.3902 0.7764
5653000000.0 0.3554 0.7597
5656000000.0 0.8255 0.2093
5659000000.0 0.6648 -0.5229
5662000000.0 0.0237 -0.87
5666000000.0 -0.6656 -0.5685
5669000000.0 -0.8475 0.1796
5672000000.0 -0.4136 0.7639
5675000000.0 0.3534 0.8141
5678000000.0 0.8768 0.2366
5681000000.0 0.7328 -0.5476
5684000000.0 0.02554 -0.9359
5688000000.0 -0.6999 -0.6218
5691000000.0 -0.9024 0.1658
5694000000.0 -0.4841 0.8679
5697000000.0 0.357 0.9108
5700000000.0 0.9428 0.3124
5703000000.0 0.8256 -0.5464
5706000000.0 0.1172 -0.9898
5709000000.0 -0.689 -0.7098
5712000000.0 -1.023 0.1056
5716000000.0 -0.576 0.8179
5719000000.0 0.2854 0.9881
5722000000.0 0.9787 0.4154
5725000000.0 0.9408 -0.5136
5728000000.0 0.2296 -1.032
5731000000.0 -0.6617 -0.8302
5734000000.0 -1.079 -0.03177
5738000000.0 -0.7259 0.7767
5741000000.0 0.1689 1.087
5744000000.0 0.9544 0.5759
5747000000.0 1.05 -0.3367
5750000000.0 0.3906 -1.007
5753000000.0 -0.552 -0.9457
5756000000.0 -1.076 -0.194
5759000000.0 -0.8764 0.6914
5762000000.0 -0.003605 1.128
5766000000.0 0.8677 0.7125
5769000000.0 1.093 -0.1936
5772000000.0 0.5493 -0.9602
5775000000.0 -0.4086 -1.06
5778000000.0 -1.027 -0.3353
5781000000.0 -0.9734 0.5432
5784000000.0 -0.1746 1.093
5788000000.0 0.7279 0.8347
5791000000.0 1.095 -0.04559
5794000000.0 0.6681 -0.8403
5797000000.0 -0.2124 -1.05
5800000000.0 -0.9234 -0.5072
5803000000.0 -0.9732 0.4138
5806000000.0 -0.3143 1.004
5809000000.0 0.5821 0.8667
5812000000.0 1.004 0.0928
5816000000.0 0.7388 -0.6914
5819000000.0 -0.0949 -1.03
5822000000.0 -0.8228 -0.5496
5825000000.0 -0.961 0.2797
5828000000.0 -0.3693 0.9276
5831000000.0 0.4378 0.8837
5834000000.0 0.9472 0.1977
5838000000.0 0.791 -0.622
5841000000.0 -0.0202 -0.9485
5844000000.0 -0.7843 -0.5779
5847000000.0 -0.9148 0.2234
5850000000.0 -0.4143 0.8397
5853000000.0 0.3771 0.8591
5856000000.0 0.9037 0.2136
5859000000.0 0.7199 -0.5548
5862000000.0 0.03386 -0.9323
5866000000.0 -0.6928 -0.5871
5869000000.0 -0.88 0.1837
5872000000.0 -0.4266 0.8286
5875000000.0 0.3536 0.8083
5878000000.0 0.8549 0.2077
5881000000.0 0.7043 -0.515
5884000000.0 0.006523 -0.8707
5888000000.0 -0.6448 -0.5567
5891000000.0 -0.851 0.1417
5894000000.0 -0.4367 0.753
5897000000.0 0.313 0.8241
5900000000.0 0.8225 0.2745
5903000000.0 0.7313 -0.4878
5906000000.0 0.1047 -0.8558
5909000000.0 -0.6206 -0.6523
5912000000.0 -0.8355 0.04552
5916000000.0 -0.4764 0.7278
5919000000.0 0.2414 0.8199
5922000000.0 0.8312 0.3283
5925000000.0 0.768 -0.418
5928000000.0 0.1729 -0.8579
5931000000.0 -0.5724 -0.6948
5934000000.0 -0.8807 -0.002703
5938000000.0 -0.5776 0.6834
5941000000.0 0.1492 0.8614
5944000000.0 0.7933 0.4647
5947000000.0 0.8879 -0.2987
5950000000.0 0.2847 -0.839
5953000000.0 -0.4565 -0.7991
5956000000.0 -0.923 -0.1454
5959000000.0 -0.7092 0.6146
5962000000.0 -0.002961 0.9293
5966000000.0 0.7585 0.5803
5969000000.0 0.9244 -0.1908
5972000000.0 0.465 -0.8301
5975000000.0 -0.3386 -0.8939
5978000000.0 -0.9086 -0.301
5981000000.0 -0.853 0.5341
5984000000.0 -0.1612 0.9863
5988000000.0 0.6522 0.7487
5991000000.0 0.9898 -0.04409
5994000000.0 0.5843 -0.7754
5997000000.0 -0.2301 -0.9775
6000000000.0 -0.91 -0.4999
6003000000.0 -0.8965 0.3965
6006000000.0 -0.2884 0.9604
6009000000.0 0.5615 0.8126
6012000000.0 0.9891 0.0699
6016000000.0 0.6831 -0.7291
6019000000.0 -0.1003 -0.9976
6022000000.0 -0.8333 -0.5107
6025000000.0 -0.9295 0.3099
6028000000.0 -0.3284 0.9294
6031000000.0 0.4805 0.8506
6034000000.0 0.9537 0.1471
6038000000.0 0.7176 -0.6179
6041000000.0 -0.04929 -0.9598
6044000000.0 -0.7456 -0.5745
6047000000.0 -0.9108 0.2335
6050000000.0 -0.3946 0.8495
6053000000.0 0.4012 0.8332
6056000000.0 0.927 0.2189
6059000000.0 0.7472 -0.5712
6062000000.0 0.02988 -0.9109
6066000000.0 -0.6837 -0.6016
6069000000.0 -0.8866 0.1926
6072000000.0 -0.3948 0.7907
6075000000.0 0.3781 0.8056
6078000000.0 0.8096 0.2473
6081000000.0 0.7021 -0.5005
6084000000.0 0.04509 -0.8563
6088000000.0 -0.6365 -0.5803
6091000000.0 -0.8272 0.1286
6094000000.0 -0.438 0.7186
6097000000.0 0.2846 0.8374
6100000000.0 0.805 0.2785
6103000000.0 0.7036 -0.4254
6106000000.0 0.1267 -0.8496
6109000000.0 -0.5773 -0.615
6112000000.0 -0.8627 0.08246
6116000000.0 -0.4608 0.7383
6119000000.0 0.2686 0.8168
6122000000.0 0.8136 0.3148
6125000000.0 0.745 -0.4445
6128000000.0 0.1405 -0.8556
6131000000.0 -0.5854 -0.6515
6134000000.0 -0.8908 0.04731
6138000000.0 -0.5105 0.7084
6141000000.0 0.2358 0.8596
6144000000.0 0.8231 0.3565
6147000000.0 0.8127 -0.3899
6150000000.0 0.1963 -0.8814
6153000000.0 -0.5492 -0.7288
6156000000.0 -0.9115 -0.04147
6159000000.0 -0.6182 0.6661
6162000000.0 0.1588 0.9226
6166000000.0 0.8491 0.4476
6169000000.0 0.8632 -0.3639
6172000000.0 0.2768 -0.8903
6175000000.0 -0.5182 -0.7968
6178000000.0 -0.9429 -0.1461
6181000000.0 -0.6677 0.6778
6184000000.0 0.08982 0.9319
6188000000.0 0.7916 0.5363
6191000000.0 0.882 -0.3064
6194000000.0 0.349 -0.8529
6197000000.0 -0.4271 -0.8428
6200000000.0 -0.9058 -0.1836
6203000000.0 -0.71 0.5717
6206000000.0 0.007274 0.951
6209000000.0 0.706 0.6104
6212000000.0 0.9086 -0.1329
6216000000.0 0.4614 -0.7895
6219000000.0 -0.3603 -0.8165
6222000000.0 -0.8534 -0.3003
6225000000.0 -0.7436 0.4856
6228000000.0 -0.103 0.9045
6231000000.0 0.6055 0.6529
6234000000.0 0.8874 -0.08397
6238000000.0 0.5694 -0.6942
6241000000.0 -0.2096 -0.8305
6244000000.0 -0.7704 -0.3775
6247000000.0 -0.7961 0.3575
6250000000.0 -0.2338 0.8279
6253000000.0 0.4679 0.6754
6256000000.0 0.8178 0.07053
6259000000.0 0.5942 -0.5672
6262000000.0 -0.0606 -0.8126
6266000000.0 -0.6722 -0.4369
