! Created with skrf 1.8.0 (http://scikit-rf.org).
# Hz S RI R 50.0 
!freq ReS11 ImS11
4000000000.0 -0.1645 -1.512
4003000000.0 -1.227 -0.8156
4006000000.0 -1.421 0.5031
4009000000.0 -0.5849 1.404
4012000000.0 0.8008 1.332
4016000000.0 1.538 0.2547
4019000000.0 1.163 -1.108
4022000000.0 -0.08629 -1.596
4025000000.0 -1.307 -0.8756
4028000000.0 -1.525 0.4333
4031000000.0 -0.6195 1.53
4034000000.0 0.799 1.373
4038000000.0 1.602 0.2206
4041000000.0 1.189 -1.105
4044000000.0 -0.1084 -1.64
4047000000.0 -1.348 -0.9244
4050000000.0 -1.628 0.4568
4053000000.0 -0.6123 1.502
4056000000.0 0.7357 1.455
4059000000.0 1.634 0.3155
4062000000.0 1.254 -1.022
4066000000.0 0.01242 -1.64
4069000000.0 -1.261 -1.09
4072000000.0 -1.603 0.2605
4075000000.0 -0.8374 1.431
4078000000.0 0.5635 1.572
4081000000.0 1.547 0.5593
4084000000.0 1.45 -0.8773
4088000000.0 0.2518 -1.661
4091000000.0 -1.14 -1.24
4094000000.0 -1.679 0.07215
4097000000.0 -0.9965 1.338
4100000000.0 0.3584 1.621
4103000000.0 1.469 0.771
4106000000.0 1.478 -0.6681
4109000000.0 0.4619 -1.487
4112000000.0 -0.8564 -1.305
4116000000.0 -1.527 -0.2244
4119000000.0 -1.124 0.9863
4122000000.0 0.04767 1.524
4125000000.0 1.155 0.9897
4128000000.0 1.467 -0.2236
4131000000.0 0.8188 -1.282
4134000000.0 -0.4262 -1.452
4138000000.0 -1.393 -0.6111
4141000000.0 -1.345 0.6685
4144000000.0 -0.3884 1.473
4147000000.0 0.8475 1.236
4150000000.0 1.54 0.1512
4153000000.0 1.108 -1.065
4156000000.0 -0.1069 -1.575
4159000000.0 -1.218 -0.8983
4162000000.0 -1.489 0.3973
4166000000.0 -0.6689 1.4
4169000000.0 0.6248 1.387
4172000000.0 1.461 0.4221
4175000000.0 1.258 -0.8331
4178000000.0 0.1504 -1.499
4181000000.0 -1.045 -1.107
4184000000.0 -1.497 0.09584
4188000000.0 -0.9237 1.216
4191000000.0 0.3905 1.535
4194000000.0 1.404 0.6994
4197000000.0 1.433 -0.6597
4200000000.0 0.3644 -1.549
4203000000.0 -0.9553 -1.308
4206000000.0 -1.67 -0.09161
4209000000.0 -1.061 1.263
4212000000.0 0.3102 1.644
4216000000.0 1.497 0.7733
4219000000.0 1.534 -0.7731
4222000000.0 0.3463 -1.662
4225000000.0 -1.131 -1.31
4228000000.0 -1.674 0.1236
4231000000.0 -0.9363 1.394
4234000000.0 0.5308 1.606
4238000000.0 1.589 0.5302
4241000000.0 1.372 -0.9436
4244000000.0 0.08991 -1.65
4247000000.0 -1.184 -1.029
4250000000.0 -1.555 0.2882
4253000000.0 -0.6903 1.423
4256000000.0 0.6586 1.409
4259000000.0 1.505 0.3486
4262000000.0 1.203 -0.9692
4266000000.0 -0.0843 -1.532
4269000000.0 -1.237 -0.8834
4272000000.0 -1.428 0.4589
4275000000.0 -0.5721 1.371
4278000000.0 0.7657 1.267
4281000000.0 1.429 0.2234
4284000000.0 1.027 -0.9947
4288000000.0 -0.1221 -1.431
4291000000.0 -1.168 -0.7504
4294000000.0 -1.312 0.4318
4297000000.0 -0.4931 1.264
4300000000.0 0.6566 1.175
4303000000.0 1.323 0.2737
4306000000.0 1.013 -0.8495
4309000000.0 0.04127 -1.293
4312000000.0 -0.9849 -0.8855
4316000000.0 -1.297 0.181
4319000000.0 -0.6862 1.118
4322000000.0 0.3916 1.268
4325000000.0 1.203 0.5135
4328000000.0 1.197 -0.631
4331000000.0 0.3126 -1.36
4334000000.0 -0.8515 -1.111
4338000000.0 -1.411 -0.03148
4341000000.0 -0.9413 1.081
4344000000.0 0.1764 1.453
4347000000.0 1.26 0.719
4350000000.0 1.39 -0.4874
4353000000.0 0.4851 -1.373
4356000000.0 -0.722 -1.247
4359000000.0 -1.435 -0.2413
4362000000.0 -1.091 0.9429
4366000000.0 0.01194 1.484
4369000000.0 1.152 0.9501
4372000000.0 1.456 -0.2445
4375000000.0 0.7322 -1.307
4378000000.0 -0.5435 -1.422
4381000000.0 -1.45 -0.4904
4384000000.0 -1.305 0.8161
4388000000.0 -0.2044 1.54
4391000000.0 1.084 1.143
4394000000.0 1.587 -0.1211
4397000000.0 0.8842 -1.345
4400000000.0 -0.5014 -1.525
4403000000.0 -1.502 -0.5665
4406000000.0 -1.384 0.8526
4409000000.0 -0.184 1.585
4412000000.0 1.106 1.147
4416000000.0 1.581 -0.1726
4419000000.0 0.7991 -1.343
4422000000.0 -0.5236 -1.44
4425000000.0 -1.448 -0.4526
4428000000.0 -1.243 0.8175
4431000000.0 -0.1186 1.482
4434000000.0 1.067 1.009
4438000000.0 1.411 -0.2451
4441000000.0 0.6582 -1.228
4444000000.0 -0.5954 -1.258
4447000000.0 -1.345 -0.3587
4450000000.0 -1.071 0.8629
4453000000.0 -0.01617 1.304
4456000000.0 1.072 0.7768
4459000000.0 1.279 -0.3147
4462000000.0 0.4967 -1.207
4466000000.0 -0.6259 -1.124
4469000000.0 -1.209 -0.1766
4472000000.0 -0.8921 0.8847
4475000000.0 0.1555 1.243
4478000000.0 1.017 0.6265
4481000000.0 1.101 -0.4213
4484000000.0 0.3427 -1.175
4488000000.0 -0.6384 -0.9647
4491000000.0 -1.152 -0.0762
4494000000.0 -0.768 0.8453
4497000000.0 0.1749 1.142
4500000000.0 0.9974 0.57
4503000000.0 1.026 -0.3716
4506000000.0 0.3426 -1.036
4509000000.0 -0.629 -0.9473
4512000000.0 -1.107 -0.1096
4516000000.0 -0.8151 0.815
4519000000.0 0.1136 1.119
4522000000.0 0.9748 0.6055
4525000000.0 1.109 -0.3453
4528000000.0 0.4292 -1.095
4531000000.0 -0.5769 -1.032
4534000000.0 -1.14 -0.2085
4538000000.0 -0.8897 0.7711
4541000000.0 0.006725 1.224
4544000000.0 0.9152 0.7648
4547000000.0 1.179 -0.228
4550000000.0 0.5822 -1.075
4553000000.0 -0.4722 -1.127
4556000000.0 -1.149 -0.3955
4559000000.0 -1.061 0.6355
4562000000.0 -0.1871 1.243
4566000000.0 0.8539 0.9704
4569000000.0 1.283 -0.04691
4572000000.0 0.8013 -1.01
4575000000.0 -0.2672 -1.273
4578000000.0 -1.18 -0.6192
4581000000.0 -1.226 0.5156
4584000000.0 -0.4066 1.293
4588000000.0 0.7383 1.113
4591000000.0 1.353 0.1634
4594000000.0 0.9771 -0.9591
4597000000.0 -0.1111 -1.392
4600000000.0 -1.168 -0.8087
4603000000.0 -1.349 0.3526
4606000000.0 -0.551 1.264
4609000000.0 0.6612 1.272
4612000000.0 1.377 0.3392
4616000000.0 1.113 -0.8984
4619000000.0 0.01795 -1.379
4622000000.0 -1.081 -0.9325
4625000000.0 -1.406 0.2521
4628000000.0 -0.6782 1.229
4631000000.0 0.5083 1.313
4634000000.0 1.337 0.4201
4638000000.0 1.137 -0.77
4641000000.0 0.1225 -1.39
4644000000.0 -0.9925 -0.9212
4647000000.0 -1.357 0.2007
4650000000.0 -0.6582 1.148
4653000000.0 0.4697 1.22
4656000000.0 1.288 0.4033
4659000000.0 1.073 -0.7458
4662000000.0 0.08879 -1.271
4666000000.0 -0.9249 -0.8488
4669000000.0 -1.233 0.1588
4672000000.0 -0.6098 1.065
4675000000.0 0.4771 1.087
4678000000.0 1.143 0.3227
4681000000.0 0.9257 -0.6322
4684000000.0 0.05324 -1.169
4688000000.0 -0.8387 -0.7492
4691000000.0 -1.109 0.185
4694000000.0 -0.552 0.9747
4697000000.0 0.4022 1.014
4700000000.0 1.094 0.3221
4703000000.0 0.8949 -0.6522
4706000000.0 0.06145 -1.094
4709000000.0 -0.8211 -0.705
4712000000.0 -1.083 0.2245
4716000000.0 -0.4939 0.9666
4719000000.0 0.4388 1.009
4722000000.0 1.054 0.287
4725000000.0 0.8522 -0.6427
4728000000.0 0.03796 -1.041
4731000000.0 -0.7826 -0.7122
4734000000.0 -1.017 0.1959
4738000000.0 -0.5297 0.9139
4741000000.0 0.388 0.9939
4744000000.0 0.9835 0.3404
4747000000.0 0.9098 -0.5183
4750000000.0 0.1818 -1.065
4753000000.0 -0.7453 -0.8307
4756000000.0 -1.076 0.01382
4759000000.0 -0.6939 0.8876
4762000000.0 0.2242 1.114
4766000000.0 0.9972 0.5207
4769000000.0 1.059 -0.4475
4772000000.0 0.368 -1.111
4775000000.0 -0.6594 -0.9592
4778000000.0 -1.175 -0.1334
4781000000.0 -0.8828 0.8063
4784000000.0 0.06188 1.215
4788000000.0 0.957 0.7355
4791000000.0 1.223 -0.2698
4794000000.0 0.5802 -1.092
4797000000.0 -0.4748 -1.147
4800000000.0 -1.227 -0.3914
4803000000.0 -1.049 0.63
4806000000.0 -0.1927 1.229
4809000000.0 0.8398 0.9597
4812000000.0 1.302 -0.02651
4816000000.0 0.8326 -1.033
4819000000.0 -0.308 -1.312
4822000000.0 -1.187 -0.6311
4825000000.0 -1.278 0.5322
4828000000.0 -0.4125 1.322
4831000000.0 0.767 1.153
4834000000.0 1.401 0.1239
4838000000.0 1.017 -0.9912
4841000000.0 -0.1315 -1.417
4844000000.0 -1.164 -0.7912
4847000000.0 -1.333 0.4072
4850000000.0 -0.5212 1.313
4853000000.0 0.6734 1.22
4856000000.0 1.413 0.2494
4859000000.0 1.07 -0.8535
4862000000.0 -0.02906 -1.388
4866000000.0 -1.088 -0.8463
4869000000.0 -1.352 0.3189
4872000000.0 -0.6077 1.204
4875000000.0 0.5427 1.222
4878000000.0 1.26 0.3634
4881000000.0 1.033 -0.7662
4884000000.0 0.05448 -1.291
4888000000.0 -0.9642 -0.8286
4891000000.0 -1.194 0.2127
4894000000.0 -0.5836 1.041
4897000000.0 0.446 1.096
4900000000.0 1.115 0.3565
4903000000.0 0.9138 -0.6478
4906000000.0 0.08122 -1.101
4909000000.0 -0.7981 -0.7525
4912000000.0 -1.072 0.1425
4916000000.0 -0.5467 0.8746
4919000000.0 0.3152 0.9714
4922000000.0 0.9585 0.3691
4925000000.0 0.8575 -0.4954
4928000000.0 0.1636 -0.9667
4931000000.0 -0.6309 -0.6966
4934000000.0 -0.9571 0.0472
4938000000.0 -0.5642 0.7411
4941000000.0 0.2141 0.9243
4944000000.0 0.8517 0.4361
4947000000.0 0.8716 -0.4122
4950000000.0 0.2641 -0.9057
4953000000.0 -0.57 -0.7732
4956000000.0 -0.9644 -0.07278
4959000000.0 -0.6794 0.7012
4962000000.0 0.1503 0.9969
4966000000.0 0.8493 0.5013
4969000000.0 0.9212 -0.3701
4972000000.0 0.3105 -0.9614
4975000000.0 -0.5476 -0.8372
4978000000.0 -1.015 -0.1266
4981000000.0 -0.7609 0.6764
4984000000.0 0.05806 1.055
4988000000.0 0.8592 0.6425
4991000000.0 1.044 -0.265
4994000000.0 0.4641 -0.9815
4997000000.0 -0.4735 -1.027
5000000000.0 -1.101 -0.3038
5003000000.0 -0.9376 0.6474
5006000000.0 -0.0734 1.184
5009000000.0 0.8599 0.8452
5012000000.0 1.195 -0.1488
5016000000.0 0.6739 -1.053
5019000000.0 -0.3698 -1.201
5022000000.0 -1.189 -0.4659
5025000000.0 -1.118 0.6041
5028000000.0 -0.233 1.253
5031000000.0 0.8048 1.012
5034000000.0 1.268 -0.009069
5038000000.0 0.8146 -0.9894
5041000000.0 -0.2564 -1.282
5044000000.0 -1.132 -0.6645
5047000000.0 -1.214 0.4642
5050000000.0 -0.4251 1.201
5053000000.0 0.6475 1.123
5056000000.0 1.305 0.2187
5059000000.0 0.992 -0.8834
5062000000.0 -0.03072 -1.313
5066000000.0 -1.029 -0.8375
5069000000.0 -1.317 0.2594
5072000000.0 -0.6262 1.138
5075000000.0 0.4818 1.176
5078000000.0 1.239 0.3982
5081000000.0 1.08 -0.673
5084000000.0 0.177 -1.232
5088000000.0 -0.8295 -0.9269
5091000000.0 -1.239 0.05121
5094000000.0 -0.7537 0.987
5097000000.0 0.2746 1.137
5100000000.0 1.043 0.5194
5103000000.0 1.06 -0.4728
5106000000.0 0.3272 -1.063
5109000000.0 -0.6113 -0.94
5112000000.0 -1.079 -0.1658
5116000000.0 -0.7924 0.7139
5119000000.0 0.01554 1.069
5122000000.0 0.8884 0.622
5125000000.0 1.019 -0.2316
5128000000.0 0.4845 -0.9311
5131000000.0 -0.404 -0.9625
5134000000.0 -0.9817 -0.2579
5138000000.0 -0.8577 0.5799
5141000000.0 -0.07394 0.9809
5144000000.0 0.7178 0.6577
5147000000.0 0.9578 -0.127
5150000000.0 0.4945 -0.7985
5153000000.0 -0.3187 -0.8786
5156000000.0 -0.8514 -0.3374
5159000000.0 -0.805 0.4585
5162000000.0 -0.1314 0.8877
5166000000.0 0.6089 0.6569
5169000000.0 0.918 -0.0516
5172000000.0 0.518 -0.7016
5175000000.0 -0.2222 -0.8638
5178000000.0 -0.8272 -0.3809
5181000000.0 -0.8427 0.4447
5184000000.0 -0.1933 0.8915
5188000000.0 0.5968 0.73
5191000000.0 0.9307 -0.001842
5194000000.0 0.5645 -0.723
5197000000.0 -0.2184 -0.9361
5200000000.0 -0.8628 -0.386
5203000000.0 -0.8261 0.4347
5206000000.0 -0.2246 0.9615
5209000000.0 0.6196 0.7773
5212000000.0 0.9605 -0.001473
5216000000.0 0.628 -0.7816
5219000000.0 -0.1927 -0.9933
5222000000.0 -0.8891 -0.4562
5225000000.0 -0.9174 0.4289
5228000000.0 -0.2852 0.9911
5231000000.0 0.5724 0.8241
5234000000.0 1.035 0.07289
5238000000.0 0.7367 -0.7819
5241000000.0 -0.1349 -1.077
5244000000.0 -0.9009 -0.5509
5247000000.0 -1.0 0.348
5250000000.0 -0.4082 0.977
5253000000.0 0.5216 0.9578
5256000000.0 1.075 0.2221
5259000000.0 0.8388 -0.6937
5262000000.0 0.02056 -1.089
5266000000.0 -0.8548 -0.7409
5269000000.0 -1.106 0.1874
5272000000.0 -0.5921 0.9388
5275000000.0 0.3682 1.046
5278000000.0 1.012 0.4015
5281000000.0 0.9791 -0.5271
5284000000.0 0.2059 -1.081
5288000000.0 -0.6812 -0.9036
5291000000.0 -1.129 -0.05925
5294000000.0 -0.7868 0.8431
5297000000.0 0.1238 1.132
5300000000.0 0.9219 0.62
5303000000.0 1.129 -0.2968
5306000000.0 0.454 -1.063
5309000000.0 -0.5156 -1.039
5312000000.0 -1.106 -0.2984
5316000000.0 -0.9429 0.6695
5319000000.0 -0.1159 1.18
5322000000.0 0.815 0.807
5325000000.0 1.171 -0.1024
5328000000.0 0.6508 -0.9262
5331000000.0 -0.3186 -1.125
5334000000.0 -1.095 -0.4714
5338000000.0 -1.058 0.505
5341000000.0 -0.2707 1.105
5344000000.0 0.6874 0.9253
5347000000.0 1.13 0.06399
5350000000.0 0.7542 -0.8147
5353000000.0 -0.1492 -1.128
5356000000.0 -0.9504 -0.5493
5359000000.0 -1.011 0.3508
5362000000.0 -0.3852 1.039
5366000000.0 0.5856 0.9399
5369000000.0 1.084 0.1323
5372000000.0 0.7703 -0.7746
5375000000.0 -0.09159 -1.062
5378000000.0 -0.8806 -0.5593
5381000000.0 -0.9858 0.339
5384000000.0 -0.3593 0.965
5388000000.0 0.517 0.8408
5391000000.0 0.9934 0.1126
5394000000.0 0.7106 -0.6602
5397000000.0 -0.1104 -0.9451
5400000000.0 -0.7899 -0.4988
5403000000.0 -0.9029 0.326
5406000000.0 -0.3173 0.8277
5409000000.0 0.49 0.7584
5412000000.0 0.8949 0.08407
5416000000.0 0.6269 -0.6188
5419000000.0 -0.1285 -0.8892
5422000000.0 -0.7505 -0.4343
5425000000.0 -0.8305 0.3133
5428000000.0 -0.2964 0.8265
5431000000.0 0.5009 0.7448
5434000000.0 0.8744 0.09167
5438000000.0 0.6262 -0.6596
5441000000.0 -0.1044 -0.8882
5444000000.0 -0.736 -0.4965
5447000000.0 -0.8452 0.2937
5450000000.0 -0.2916 0.8588
5453000000.0 0.469 0.7392
5456000000.0 0.8879 0.1085
5459000000.0 0.6747 -0.6334
5462000000.0 -0.05573 -0.9107
5466000000.0 -0.7262 -0.5381
5469000000.0 -0.8895 0.2328
5472000000.0 -0.4198 0.8526
5475000000.0 0.4091 0.8577
5478000000.0 0.9035 0.2401
5481000000.0 0.758 -0.5724
5484000000.0 0.04595 -0.961
5488000000.0 -0.6887 -0.6881
5491000000.0 -0.962 0.08395
5494000000.0 -0.5751 0.819
5497000000.0 0.29 0.9704
5500000000.0 0.9426 0.4328
5503000000.0 0.8843 -0.4396
5506000000.0 0.2546 -1.01
5509000000.0 -0.6115 -0.8372
5512000000.0 -1.031 -0.06701
5516000000.0 -0.7602 0.7682
5519000000.0 0.1285 1.016
5522000000.0 0.8708 0.5951
5525000000.0 1.023 -0.2711
5528000000.0 0.4431 -0.9681
5531000000.0 -0.3988 -0.9456
5534000000.0 -1.027 -0.282
5538000000.0 -0.872 0.601
5541000000.0 -0.12 1.03
5544000000.0 0.768 0.7689
5547000000.0 1.088 -0.1353
5550000000.0 0.6449 -0.8721
5553000000.0 -0.2949 -1.063
5556000000.0 -0.9994 -0.4323
5559000000.0 -0.9442 0.4755
5562000000.0 -0.2339 1.037
5566000000.0 0.6241 0.8637
5569000000.0 1.04 0.07178
5572000000.0 0.7192 -0.7776
5575000000.0 -0.1899 -1.022
5578000000.0 -0.8733 -0.543
5581000000.0 -0.9696 0.3418
5584000000.0 -0.3465 0.897
5588000000.0 0.4807 0.8481
5591000000.0 0.9644 0.1615
5594000000.0 0.7277 -0.6328
5597000000.0 -0.007943 -0.95
5600000000.0 -0.755 -0.58
5603000000.0 -0.8932 0.1742
5606000000.0 -0.4355 0.8394
5609000000.0 0.3501 0.8443
5612000000.0 0.8489 0.254
5616000000.0 0.7064 -0.5397
5619000000.0 0.06442 -0.8797
5622000000.0 -0.652 -0.5826
5625000000.0 -0.8792 0.1483
5628000000.0 -0.4532 0.7567
5631000000.0 0.2956 0.7585
5634000000.0 0.807 0.2579
5638000000.0 0.7087 -0.4707
5641000000.0 0.07306 -0.8354
5644000000.0 -0.6065 -0.6159
5647000000.0 -0.8576 0.08513
5650000000.0 -0.4281 0.7344
5653000000.0 0.2826 0.8206
5656000000.0 0.82 0.2783
5659000000.0 0.7339 -0.4616
5662000000.0 0.104 -0.8652
5666000000.0 -0.6155 -0.6394
5669000000.0 -0.8844 0.07406
5672000000.0 -0.4579 0.7614
5675000000.0 0.3044 0.8612
5678000000.0 0.8706 0.3178
5681000000.0 0.7876 -0.4692
5684000000.0 0.1172 -0.9423
5688000000.0 -0.6511 -0.7015
5691000000.0 -0.9515 0.1147
5694000000.0 -0.5568 0.8213
5697000000.0 0.2919 0.9458
5700000000.0 0.9356 0.3531
5703000000.0 0.8672 -0.5126
5706000000.0 0.186 -1.002
5709000000.0 -0.6418 -0.7749
5712000000.0 -1.015 0.02549
5716000000.0 -0.6252 0.817
5719000000.0 0.1962 1.015
5722000000.0 0.9491 0.4581
5725000000.0 0.9751 -0.4272
5728000000.0 0.2731 -1.029
5731000000.0 -0.5949 -0.9252
5734000000.0 -1.098 -0.09065
5738000000.0 -0.7825 0.7583
5741000000.0 0.06412 1.084
5744000000.0 0.9182 0.6345
5747000000.0 1.081 -0.296
5750000000.0 0.4774 -1.0
5753000000.0 -0.4334 -1.026
5756000000.0 -1.066 -0.2296
5759000000.0 -0.8973 0.6564
5762000000.0 -0.04792 1.118
5766000000.0 0.7945 0.7622
5769000000.0 1.133 -0.1552
5772000000.0 0.618 -0.9364
5775000000.0 -0.3431 -1.049
5778000000.0 -1.05 -0.4152
5781000000.0 -0.9817 0.5272
5784000000.0 -0.2597 1.048
5788000000.0 0.679 0.8803
5791000000.0 1.085 0.05908
5794000000.0 0.7443 -0.7875
5797000000.0 -0.1337 -1.079
5800000000.0 -0.8983 -0.5638
5803000000.0 -1.034 0.3537
5806000000.0 -0.3891 0.9727
5809000000.0 0.564 0.92
5812000000.0 1.026 0.1654
5816000000.0 0.864 -0.6722
5819000000.0 0.007347 -1.022
5822000000.0 -0.7966 -0.6552
5825000000.0 -1.027 0.2078
5828000000.0 -0.4505 0.9027
5831000000.0 0.4135 0.9538
5834000000.0 0.9506 0.2642
5838000000.0 0.7921 -0.5618
5841000000.0 0.1223 -0.9699
5844000000.0 -0.7225 -0.6654
5847000000.0 -0.964 0.1008
5850000000.0 -0.5259 0.8151
5853000000.0 0.3019 0.9065
5856000000.0 0.8795 0.3234
5859000000.0 0.813 -0.4947
5862000000.0 0.1171 -0.9153
5866000000.0 -0.646 -0.6607
5869000000.0 -0.9046 0.1043
5872000000.0 -0.4715 0.7625
5875000000.0 0.2769 0.8335
5878000000.0 0.8315 0.288
5881000000.0 0.7589 -0.4427
5884000000.0 0.1348 -0.8943
5888000000.0 -0.5624 -0.6351
5891000000.0 -0.8773 0.05564
5894000000.0 -0.5019 0.7082
5897000000.0 0.271 0.8368
5900000000.0 0.8092 0.3215
5903000000.0 0.7538 -0.4234
5906000000.0 0.168 -0.8704
5909000000.0 -0.5648 -0.6824
5912000000.0 -0.8728 -0.00641
5916000000.0 -0.5572 0.6641
5919000000.0 0.2109 0.8398
5922000000.0 0.7807 0.4045
5925000000.0 0.7983 -0.3055
5928000000.0 0.2719 -0.8685
5931000000.0 -0.4632 -0.7326
5934000000.0 -0.864 -0.1224
5938000000.0 -0.6656 0.6326
5941000000.0 0.08804 0.8777
5944000000.0 0.7779 0.5515
5947000000.0 0.8715 -0.2521
5950000000.0 0.3769 -0.8339
5953000000.0 -0.3631 -0.821
5956000000.0 -0.8981 -0.2249
5959000000.0 -0.7741 0.5551
5962000000.0 -0.05248 0.9338
5966000000.0 0.6794 0.6608
5969000000.0 0.9549 -0.1023
5972000000.0 0.5132 -0.7957
5975000000.0 -0.2767 -0.9348
5978000000.0 -0.9057 -0.3981
5981000000.0 -0.8687 0.4182
5984000000.0 -0.2331 0.9549
5988000000.0 0.5759 0.8056
5991000000.0 1.006 0.03589
5994000000.0 0.674 -0.7538
5997000000.0 -0.0963 -0.9937
6000000000.0 -0.8566 -0.5252
6003000000.0 -0.9565 0.3038
6006000000.0 -0.3646 0.9276
6009000000.0 0.4902 0.8721
6012000000.0 0.9745 0.1917
6016000000.0 0.7601 -0.6447
6019000000.0 -0.01512 -0.969
6022000000.0 -0.771 -0.639
6025000000.0 -0.991 0.1931
6028000000.0 -0.4525 0.8567
6031000000.0 0.3876 0.9137
6034000000.0 0.971 0.2904
6038000000.0 0.8208 -0.57
6041000000.0 0.06369 -0.9588
6044000000.0 -0.7004 -0.6841
6047000000.0 -0.9845 0.1124
6050000000.0 -0.5162 0.7874
6053000000.0 0.3039 0.9055
6056000000.0 0.8886 0.3259
6059000000.0 0.8132 -0.4841
6062000000.0 0.1445 -0.9385
6066000000.0 -0.6257 -0.6737
6069000000.0 -0.91 0.07434
6072000000.0 -0.4994 0.7489
6075000000.0 0.24 0.8291
6078000000.0 0.8337 0.3497
6081000000.0 0.7897 -0.4035
6084000000.0 0.159 -0.8503
6088000000.0 -0.5699 -0.6862
6091000000.0 -0.8512 0.01394
6094000000.0 -0.5381 0.6735
6097000000.0 0.2255 0.8265
6100000000.0 0.7645 0.3685
6103000000.0 0.8077 -0.3963
6106000000.0 0.2056 -0.8282
6109000000.0 -0.5191 -0.7036
6112000000.0 -0.8527 0.009559
6116000000.0 -0.5595 0.6494
6119000000.0 0.1796 0.8549
6122000000.0 0.7609 0.4057
6125000000.0 0.8366 -0.3681
6128000000.0 0.2306 -0.8348
6131000000.0 -0.5397 -0.7225
6134000000.0 -0.8934 -0.0506
6138000000.0 -0.6189 0.6495
6141000000.0 0.09732 0.89
6144000000.0 0.7416 0.4722
6147000000.0 0.84 -0.2987
6150000000.0 0.3081 -0.8511
6153000000.0 -0.4821 -0.757
6156000000.0 -0.9276 -0.1377
6159000000.0 -0.658 0.6275
6162000000.0 0.06298 0.9273
6166000000.0 0.7304 0.5323
6169000000.0 0.9076 -0.2055
6172000000.0 0.3865 -0.9003
6175000000.0 -0.4119 -0.8541
6178000000.0 -0.9172 -0.2189
6181000000.0 -0.7695 0.5874
6184000000.0 -0.03082 0.9505
6188000000.0 0.7156 0.6373
6191000000.0 0.9253 -0.1352
6194000000.0 0.4784 -0.839
6197000000.0 -0.3287 -0.8679
6200000000.0 -0.9104 -0.2986
6203000000.0 -0.77 0.4941
6206000000.0 -0.1189 0.9338
6209000000.0 0.6086 0.7022
6212000000.0 0.946 -0.03873
6216000000.0 0.5608 -0.7689
6219000000.0 -0.2438 -0.8988
6222000000.0 -0.8165 -0.376
6225000000.0 -0.8241 0.3488
6228000000.0 -0.248 0.8618
6231000000.0 0.5208 0.7239
6234000000.0 0.8803 0.04545
6238000000.0 0.6256 -0.6332
6241000000.0 -0.09332 -0.839
6244000000.0 -0.7169 -0.4967
6247000000.0 -0.82 0.2277
6250000000.0 -0.3411 0.823
6253000000.0 0.4147 0.7465
6256000000.0 0.823 0.1543
6259000000.0 0.6818 -0.501
6262000000.0 0.07183 -0.8657
6266000000.0 -0.6103 -0.5729
6269000000.0 -0.8136 0.0771
6272000000.0 -0.4582 0.6807
