! Created with skrf 1.8.0 (http://scikit-rf.org).
# Hz S RI R 50.0 
!freq ReS11 ImS11
4000000000.0 -0.1859 -1.507
4003000000.0 -1.289 -0.7938
4006000000.0 -1.422 0.4827
4009000000.0 -0.4674 1.441
4012000000.0 0.8136 1.279
4016000000.0 1.495 0.2042
4019000000.0 1.1 -1.086
4022000000.0 -0.1821 -1.562
4025000000.0 -1.341 -0.8623
4028000000.0 -1.519 0.4411
4031000000.0 -0.5727 1.527
4034000000.0 0.7794 1.373
4038000000.0 1.584 0.2452
4041000000.0 1.202 -1.094
4044000000.0 -0.1362 -1.66
4047000000.0 -1.357 -0.8937
4050000000.0 -1.522 0.4159
4053000000.0 -0.608 1.481
4056000000.0 0.7668 1.396
4059000000.0 1.574 0.3004
4062000000.0 1.274 -1.044
4066000000.0 0.0378 -1.612
4069000000.0 -1.232 -1.022
4072000000.0 -1.608 0.2904
4075000000.0 -0.8007 1.401
4078000000.0 0.5881 1.519
4081000000.0 1.562 0.5075
4084000000.0 1.408 -0.8394
4088000000.0 0.2105 -1.657
4091000000.0 -1.119 -1.239
4094000000.0 -1.659 0.09997
4097000000.0 -0.9662 1.309
4100000000.0 0.3788 1.598
4103000000.0 1.452 0.7076
4106000000.0 1.443 -0.6415
4109000000.0 0.4264 -1.491
4112000000.0 -0.8747 -1.276
4116000000.0 -1.504 -0.2001
4119000000.0 -1.133 1.016
4122000000.0 0.04468 1.481
4125000000.0 1.165 0.9332
4128000000.0 1.463 -0.2505
4131000000.0 0.7791 -1.224
4134000000.0 -0.461 -1.386
4138000000.0 -1.354 -0.5791
4141000000.0 -1.363 0.6535
4144000000.0 -0.3504 1.46
4147000000.0 0.8834 1.242
4150000000.0 1.511 0.1247
4153000000.0 1.077 -1.067
4156000000.0 -0.1489 -1.512
4159000000.0 -1.263 -0.8457
4162000000.0 -1.48 0.389
4166000000.0 -0.661 1.363
4169000000.0 0.6521 1.377
4172000000.0 1.437 0.392
4175000000.0 1.205 -0.8249
4178000000.0 0.1515 -1.481
4181000000.0 -1.085 -1.07
4184000000.0 -1.479 0.1308
4188000000.0 -0.9107 1.237
4191000000.0 0.3667 1.501
4194000000.0 1.42 0.6306
4197000000.0 1.377 -0.6871
4200000000.0 0.3497 -1.546
4203000000.0 -0.9713 -1.29
4206000000.0 -1.603 -0.0342
4209000000.0 -1.017 1.257
4212000000.0 0.3711 1.614
4216000000.0 1.508 0.7025
4219000000.0 1.501 -0.7836
4222000000.0 0.2974 -1.687
4225000000.0 -1.133 -1.255
4228000000.0 -1.688 0.1661
4231000000.0 -0.8778 1.406
4234000000.0 0.5812 1.528
4238000000.0 1.594 0.4956
4241000000.0 1.333 -0.942
4244000000.0 0.07496 -1.611
4247000000.0 -1.227 -1.003
4250000000.0 -1.533 0.3419
4253000000.0 -0.6345 1.401
4256000000.0 0.7182 1.365
4259000000.0 1.47 0.283
4262000000.0 1.128 -0.9763
4266000000.0 -0.1456 -1.492
4269000000.0 -1.227 -0.8232
4272000000.0 -1.418 0.4674
4275000000.0 -0.5097 1.385
4278000000.0 0.7493 1.243
4281000000.0 1.426 0.1736
4284000000.0 0.9783 -1.026
4288000000.0 -0.1876 -1.372
4291000000.0 -1.178 -0.7221
4294000000.0 -1.278 0.4475
4297000000.0 -0.47 1.234
4300000000.0 0.6683 1.13
4303000000.0 1.289 0.2188
4306000000.0 0.9973 -0.8415
4309000000.0 -0.009303 -1.28
4312000000.0 -0.9844 -0.8122
4316000000.0 -1.239 0.2347
4319000000.0 -0.6542 1.144
4322000000.0 0.4209 1.238
4325000000.0 1.212 0.4717
4328000000.0 1.165 -0.6184
4331000000.0 0.2325 -1.298
4334000000.0 -0.8487 -1.086
4338000000.0 -1.377 -0.01515
4341000000.0 -0.8962 1.084
4344000000.0 0.2099 1.404
4347000000.0 1.21 0.7052
4350000000.0 1.361 -0.4963
4353000000.0 0.4537 -1.341
4356000000.0 -0.748 -1.232
4359000000.0 -1.449 -0.2079
4362000000.0 -1.111 0.97
4366000000.0 0.05 1.436
4369000000.0 1.154 0.8793
4372000000.0 1.454 -0.3151
4375000000.0 0.6942 -1.321
4378000000.0 -0.5799 -1.394
4381000000.0 -1.455 -0.4292
4384000000.0 -1.258 0.8417
4388000000.0 -0.155 1.51
4391000000.0 1.127 1.124
4394000000.0 1.547 -0.1746
4397000000.0 0.7931 -1.349
4400000000.0 -0.5326 -1.505
4403000000.0 -1.502 -0.5337
4406000000.0 -1.31 0.8545
4409000000.0 -0.09743 1.592
4412000000.0 1.132 1.049
4416000000.0 1.513 -0.2621
4419000000.0 0.755 -1.36
4422000000.0 -0.6173 -1.394
4425000000.0 -1.455 -0.4105
4428000000.0 -1.202 0.8826
4431000000.0 -0.02332 1.433
4434000000.0 1.104 0.9326
4438000000.0 1.402 -0.3093
4441000000.0 0.5997 -1.241
4444000000.0 -0.619 -1.217
4447000000.0 -1.335 -0.2884
4450000000.0 -1.009 0.8913
4453000000.0 0.06971 1.291
4456000000.0 1.069 0.7213
4459000000.0 1.197 -0.4141
4462000000.0 0.4162 -1.207
4466000000.0 -0.6633 -1.034
4469000000.0 -1.215 -0.1331
4472000000.0 -0.7964 0.8978
4475000000.0 0.2 1.181
4478000000.0 1.045 0.5387
4481000000.0 1.051 -0.4359
4484000000.0 0.3009 -1.114
4488000000.0 -0.6797 -0.9313
4491000000.0 -1.108 -0.04225
4494000000.0 -0.7357 0.8813
4497000000.0 0.2023 1.08
4500000000.0 1.016 0.5326
4503000000.0 1.002 -0.4374
4506000000.0 0.2671 -1.055
4509000000.0 -0.644 -0.9124
4512000000.0 -1.11 -0.04221
4516000000.0 -0.7439 0.8164
4519000000.0 0.1548 1.126
4522000000.0 0.9484 0.5902
4525000000.0 1.068 -0.3977
4528000000.0 0.3894 -1.088
4531000000.0 -0.6176 -1.006
4534000000.0 -1.157 -0.1626
4538000000.0 -0.8562 0.8034
4541000000.0 0.06614 1.187
4544000000.0 0.9551 0.7016
4547000000.0 1.158 -0.2892
4550000000.0 0.5223 -1.064
4553000000.0 -0.5129 -1.148
4556000000.0 -1.16 -0.3413
4559000000.0 -1.01 0.7065
4562000000.0 -0.1224 1.221
4566000000.0 0.8719 0.9204
4569000000.0 1.27 -0.08289
4572000000.0 0.7462 -1.041
4575000000.0 -0.2959 -1.281
4578000000.0 -1.204 -0.5699
4581000000.0 -1.202 0.5466
4584000000.0 -0.3726 1.279
4588000000.0 0.7897 1.126
4591000000.0 1.365 0.1045
4594000000.0 0.9676 -0.945
4597000000.0 -0.16 -1.355
4600000000.0 -1.14 -0.7539
4603000000.0 -1.336 0.401
4606000000.0 -0.5091 1.295
4609000000.0 0.6601 1.233
4612000000.0 1.339 0.2531
4616000000.0 1.045 -0.8771
4619000000.0 -0.03218 -1.415
4622000000.0 -1.061 -0.8429
4625000000.0 -1.37 0.3032
4628000000.0 -0.6288 1.228
4631000000.0 0.5607 1.239
4634000000.0 1.332 0.3454
4638000000.0 1.089 -0.8271
4641000000.0 0.04319 -1.345
4644000000.0 -1.029 -0.908
4647000000.0 -1.299 0.2552
4650000000.0 -0.6067 1.195
4653000000.0 0.5448 1.189
4656000000.0 1.23 0.3386
4659000000.0 1.021 -0.7649
4662000000.0 0.01179 -1.265
4666000000.0 -0.9346 -0.7974
4669000000.0 -1.222 0.276
4672000000.0 -0.5098 1.095
4675000000.0 0.5228 1.055
4678000000.0 1.149 0.2426
4681000000.0 0.9049 -0.6834
4684000000.0 0.01312 -1.125
4688000000.0 -0.8599 -0.6938
4691000000.0 -1.072 0.2449
4694000000.0 -0.489 0.9861
4697000000.0 0.4858 0.9672
4700000000.0 1.071 0.2395
4703000000.0 0.8708 -0.664
4706000000.0 0.01331 -1.092
4709000000.0 -0.8345 -0.6749
4712000000.0 -1.061 0.2695
4716000000.0 -0.4559 0.9756
4719000000.0 0.4752 0.9348
4722000000.0 1.029 0.2417
4725000000.0 0.7926 -0.6566
4728000000.0 0.02098 -1.03
4731000000.0 -0.8323 -0.6573
4734000000.0 -1.017 0.2222
4738000000.0 -0.5135 0.9262
4741000000.0 0.4002 0.9458
4744000000.0 1.003 0.3104
4747000000.0 0.864 -0.5452
4750000000.0 0.1213 -1.06
4753000000.0 -0.7784 -0.7754
4756000000.0 -1.072 0.03934
4759000000.0 -0.6442 0.9041
4762000000.0 0.2689 1.066
4766000000.0 1.007 0.4811
4769000000.0 1.041 -0.4754
4772000000.0 0.3089 -1.127
4775000000.0 -0.6905 -0.9622
4778000000.0 -1.17 -0.1142
4781000000.0 -0.8525 0.8264
4784000000.0 0.09189 1.221
4788000000.0 1.008 0.7168
4791000000.0 1.198 -0.2916
4794000000.0 0.5368 -1.117
4797000000.0 -0.5354 -1.124
4800000000.0 -1.2 -0.3387
4803000000.0 -1.042 0.7042
4806000000.0 -0.1377 1.238
4809000000.0 0.869 0.9079
4812000000.0 1.276 -0.09277
4816000000.0 0.7903 -1.056
4819000000.0 -0.3219 -1.298
4822000000.0 -1.212 -0.6046
4825000000.0 -1.26 0.5581
4828000000.0 -0.3502 1.341
4831000000.0 0.7775 1.13
4834000000.0 1.374 0.08371
4838000000.0 0.9435 -1.006
4841000000.0 -0.1716 -1.393
4844000000.0 -1.212 -0.728
4847000000.0 -1.327 0.4414
4850000000.0 -0.4848 1.31
4853000000.0 0.6801 1.18
4856000000.0 1.364 0.2085
4859000000.0 0.9977 -0.9203
4862000000.0 -0.06241 -1.365
4866000000.0 -1.076 -0.8089
4869000000.0 -1.299 0.3186
4872000000.0 -0.5333 1.19
4875000000.0 0.5866 1.149
4878000000.0 1.255 0.2931
4881000000.0 0.9947 -0.7728
4884000000.0 0.02645 -1.25
4888000000.0 -0.9716 -0.805
4891000000.0 -1.171 0.2615
4894000000.0 -0.5391 1.055
4897000000.0 0.453 1.056
4900000000.0 1.093 0.2706
4903000000.0 0.9224 -0.6282
4906000000.0 0.05935 -1.098
4909000000.0 -0.8163 -0.7111
4912000000.0 -1.015 0.1754
4916000000.0 -0.4998 0.8749
4919000000.0 0.3277 0.9248
4922000000.0 0.9156 0.3002
4925000000.0 0.8519 -0.5098
4928000000.0 0.1317 -0.9401
4931000000.0 -0.6839 -0.7389
4934000000.0 -0.9364 0.08959
4938000000.0 -0.5622 0.7703
4941000000.0 0.216 0.9087
4944000000.0 0.8603 0.4028
4947000000.0 0.8442 -0.4188
4950000000.0 0.2096 -0.9411
4953000000.0 -0.6032 -0.7471
4956000000.0 -0.9608 -0.005578
4959000000.0 -0.6494 0.7429
4962000000.0 0.1813 0.9564
4966000000.0 0.8594 0.4836
4969000000.0 0.9308 -0.3841
4972000000.0 0.2862 -0.9661
4975000000.0 -0.5593 -0.8642
4978000000.0 -1.009 -0.1096
4981000000.0 -0.6937 0.7179
4984000000.0 0.09807 1.057
4988000000.0 0.868 0.5841
4991000000.0 1.002 -0.2975
4994000000.0 0.4509 -0.9912
4997000000.0 -0.5102 -1.009
5000000000.0 -1.11 -0.2448
5003000000.0 -0.9316 0.6634
5006000000.0 -0.05555 1.141
5009000000.0 0.8569 0.803
5012000000.0 1.208 -0.1931
5016000000.0 0.6239 -1.034
5019000000.0 -0.4227 -1.159
5022000000.0 -1.186 -0.4135
5025000000.0 -1.102 0.6571
5028000000.0 -0.1917 1.264
5031000000.0 0.8537 0.9638
5034000000.0 1.29 -0.04588
5038000000.0 0.8066 -1.016
5041000000.0 -0.3126 -1.267
5044000000.0 -1.165 -0.5505
5047000000.0 -1.197 0.5104
5050000000.0 -0.4087 1.202
5053000000.0 0.7164 1.068
5056000000.0 1.273 0.207
5059000000.0 0.955 -0.882
5062000000.0 -0.05021 -1.303
5066000000.0 -1.017 -0.8037
5069000000.0 -1.252 0.2918
5072000000.0 -0.6108 1.171
5075000000.0 0.5388 1.165
5078000000.0 1.231 0.3388
5081000000.0 1.051 -0.7127
5084000000.0 0.1189 -1.257
5088000000.0 -0.8958 -0.8712
5091000000.0 -1.183 0.1311
5094000000.0 -0.6856 0.9558
5097000000.0 0.3185 1.155
5100000000.0 1.064 0.4695
5103000000.0 0.9943 -0.4899
5106000000.0 0.279 -1.09
5109000000.0 -0.6418 -0.8807
5112000000.0 -1.089 -0.0911
5116000000.0 -0.7685 0.7863
5119000000.0 0.09467 1.079
5122000000.0 0.9006 0.5655
5125000000.0 0.9835 -0.2772
5128000000.0 0.4053 -0.9063
5131000000.0 -0.4516 -0.8808
5134000000.0 -0.9551 -0.1982
5138000000.0 -0.7394 0.589
5141000000.0 -0.03926 1.005
5144000000.0 0.7279 0.6254
5147000000.0 0.9355 -0.1605
5150000000.0 0.4564 -0.8025
5153000000.0 -0.2862 -0.8691
5156000000.0 -0.8462 -0.2738
5159000000.0 -0.7677 0.4855
5162000000.0 -0.103 0.9192
5166000000.0 0.6373 0.6503
5169000000.0 0.8984 -0.08938
5172000000.0 0.5015 -0.7638
5175000000.0 -0.2739 -0.8618
5178000000.0 -0.8304 -0.2966
5181000000.0 -0.7821 0.4383
5184000000.0 -0.1519 0.9019
5188000000.0 0.5783 0.6875
5191000000.0 0.9185 -0.03686
5194000000.0 0.5096 -0.7525
5197000000.0 -0.2487 -0.8915
5200000000.0 -0.8879 -0.3468
5203000000.0 -0.823 0.4686
5206000000.0 -0.1633 0.9129
5209000000.0 0.6447 0.74
5212000000.0 0.9907 -0.04206
5216000000.0 0.5456 -0.7706
5219000000.0 -0.2178 -0.9446
5222000000.0 -0.8951 -0.3964
5225000000.0 -0.8963 0.444
5228000000.0 -0.2339 0.9715
5231000000.0 0.62 0.8064
5234000000.0 1.02 0.01492
5238000000.0 0.6917 -0.7915
5241000000.0 -0.1606 -1.043
5244000000.0 -0.9077 -0.5243
5247000000.0 -0.9889 0.369
5250000000.0 -0.369 0.9791
5253000000.0 0.5531 0.9372
5256000000.0 1.082 0.161
5259000000.0 0.8179 -0.7003
5262000000.0 -0.02244 -1.072
5266000000.0 -0.8448 -0.6829
5269000000.0 -1.081 0.2055
5272000000.0 -0.5273 0.9425
5275000000.0 0.3924 1.011
5278000000.0 1.033 0.4025
5281000000.0 0.9465 -0.5612
5284000000.0 0.1819 -1.095
5288000000.0 -0.704 -0.8504
5291000000.0 -1.096 -0.0009735
5294000000.0 -0.7244 0.8007
5297000000.0 0.159 1.088
5300000000.0 0.9487 0.5795
5303000000.0 1.079 -0.3582
5306000000.0 0.4445 -1.038
5309000000.0 -0.524 -0.9932
5312000000.0 -1.129 -0.2669
5316000000.0 -0.9171 0.6747
5319000000.0 -0.06689 1.164
5322000000.0 0.822 0.7833
5325000000.0 1.13 -0.1459
5328000000.0 0.654 -0.9694
5331000000.0 -0.3433 -1.075
5334000000.0 -1.048 -0.4304
5338000000.0 -0.9756 0.5551
5341000000.0 -0.2117 1.104
5344000000.0 0.7188 0.8379
5347000000.0 1.122 0.03201
5350000000.0 0.7161 -0.8681
5353000000.0 -0.194 -1.086
5356000000.0 -0.9771 -0.507
5359000000.0 -0.9948 0.4538
5362000000.0 -0.3025 1.033
5366000000.0 0.6076 0.8585
5369000000.0 1.082 0.0979
5372000000.0 0.706 -0.7665
5375000000.0 -0.1735 -0.9986
5378000000.0 -0.8811 -0.5303
5381000000.0 -0.9332 0.3745
5384000000.0 -0.2999 0.9968
5388000000.0 0.5601 0.782
5391000000.0 0.9913 0.03725
5394000000.0 0.6454 -0.7363
5397000000.0 -0.1835 -0.9093
5400000000.0 -0.8132 -0.4141
5403000000.0 -0.8003 0.3641
5406000000.0 -0.2318 0.823
5409000000.0 0.5299 0.6976
5412000000.0 0.8613 0.03927
5416000000.0 0.5547 -0.6911
5419000000.0 -0.172 -0.8667
5422000000.0 -0.7594 -0.433
5425000000.0 -0.8017 0.3136
5428000000.0 -0.2201 0.822
5431000000.0 0.4986 0.7102
5434000000.0 0.9062 0.04528
5438000000.0 0.5639 -0.6539
5441000000.0 -0.1921 -0.865
5444000000.0 -0.8043 -0.3916
5447000000.0 -0.7894 0.3455
5450000000.0 -0.2256 0.8624
5453000000.0 0.5344 0.723
5456000000.0 0.9189 0.05159
5459000000.0 0.5998 -0.6196
5462000000.0 -0.1259 -0.8771
5466000000.0 -0.78 -0.5038
5469000000.0 -0.8772 0.2937
5472000000.0 -0.364 0.8368
5475000000.0 0.4171 0.8359
5478000000.0 0.9244 0.2184
5481000000.0 0.7638 -0.5793
5484000000.0 0.02288 -0.9485
5488000000.0 -0.7381 -0.6432
5491000000.0 -0.9935 0.1418
5494000000.0 -0.5491 0.8642
5497000000.0 0.342 0.9735
5500000000.0 0.9426 0.3942
5503000000.0 0.8749 -0.4842
5506000000.0 0.1947 -0.9847
5509000000.0 -0.6677 -0.7903
5512000000.0 -1.022 -0.03388
5516000000.0 -0.7158 0.7958
5519000000.0 0.1091 1.015
5522000000.0 0.8961 0.5231
5525000000.0 0.9841 -0.3284
5528000000.0 0.4114 -0.9819
5531000000.0 -0.5096 -0.9064
5534000000.0 -1.028 -0.2139
5538000000.0 -0.8288 0.6418
5541000000.0 -0.0602 1.053
5544000000.0 0.8116 0.7106
5547000000.0 1.055 -0.1496
5550000000.0 0.5451 -0.9071
5553000000.0 -0.3359 -1.013
5556000000.0 -0.971 -0.4012
5559000000.0 -0.9225 0.5032
5562000000.0 -0.1932 1.076
5566000000.0 0.6271 0.8309
5569000000.0 1.009 0.006782
5572000000.0 0.6571 -0.8196
5575000000.0 -0.1772 -1.019
5578000000.0 -0.8693 -0.4582
5581000000.0 -0.9189 0.3674
5584000000.0 -0.3082 0.9272
5588000000.0 0.5201 0.8126
5591000000.0 0.9827 0.1009
5594000000.0 0.6828 -0.6414
5597000000.0 -0.08116 -0.9397
5600000000.0 -0.7404 -0.5231
5603000000.0 -0.8889 0.267
5606000000.0 -0.3546 0.8449
5609000000.0 0.3891 0.8031
5612000000.0 0.903 0.1978
5616000000.0 0.6615 -0.5903
5619000000.0 -0.03506 -0.871
5622000000.0 -0.6715 -0.5273
5625000000.0 -0.8266 0.2083
5628000000.0 -0.363 0.7727
5631000000.0 0.3297 0.7551
5634000000.0 0.8149 0.1899
5638000000.0 0.6789 -0.4967
5641000000.0 0.02515 -0.8494
5644000000.0 -0.6337 -0.528
5647000000.0 -0.8156 0.1791
5650000000.0 -0.3709 0.7447
5653000000.0 0.3259 0.7697
5656000000.0 0.8196 0.1974
5659000000.0 0.6993 -0.5089
5662000000.0 0.0406 -0.8871
5666000000.0 -0.6818 -0.5464
5669000000.0 -0.8438 0.1444
5672000000.0 -0.4023 0.8141
5675000000.0 0.3676 0.819
5678000000.0 0.8652 0.2687
5681000000.0 0.7575 -0.5292
5684000000.0 0.02967 -0.934
5688000000.0 -0.7137 -0.6451
5691000000.0 -0.9593 0.1382
5694000000.0 -0.49 0.8277
5697000000.0 0.3396 0.8988
5700000000.0 0.9491 0.294
5703000000.0 0.8516 -0.5388
5706000000.0 0.1092 -1.03
5709000000.0 -0.7282 -0.7466
5712000000.0 -1.034 0.04927
5716000000.0 -0.6017 0.8406
5719000000.0 0.3182 1.003
5722000000.0 0.9643 0.4005
5725000000.0 0.954 -0.4819
5728000000.0 0.2476 -1.053
5731000000.0 -0.6291 -0.8723
5734000000.0 -1.082 -0.01783
5738000000.0 -0.7187 0.8429
5741000000.0 0.1469 1.093
5744000000.0 0.9615 0.5857
5747000000.0 1.048 -0.334
5750000000.0 0.4091 -1.033
5753000000.0 -0.5322 -0.9553
5756000000.0 -1.081 -0.2168
5759000000.0 -0.8923 0.7005
5762000000.0 -0.04033 1.145
5766000000.0 0.8474 0.7233
5769000000.0 1.091 -0.2022
5772000000.0 0.5472 -0.9269
5775000000.0 -0.4141 -1.041
5778000000.0 -1.025 -0.3697
5781000000.0 -0.9564 0.5787
5784000000.0 -0.194 1.078
5788000000.0 0.6888 0.8474
5791000000.0 1.092 -0.01761
5794000000.0 0.6426 -0.7831
5797000000.0 -0.2234 -1.031
5800000000.0 -0.9898 -0.4855
5803000000.0 -0.9764 0.3655
5806000000.0 -0.3219 0.9935
5809000000.0 0.5607 0.9184
5812000000.0 1.048 0.1248
5816000000.0 0.7514 -0.7292
5819000000.0 -0.06275 -1.029
5822000000.0 -0.8533 -0.547
5825000000.0 -0.9636 0.2634
5828000000.0 -0.3818 0.8792
5831000000.0 0.4943 0.8714
5834000000.0 0.9706 0.1703
5838000000.0 0.7257 -0.6154
5841000000.0 -0.02214 -0.97
5844000000.0 -0.7314 -0.6061
5847000000.0 -0.9371 0.2152
5850000000.0 -0.4449 0.8035
5853000000.0 0.362 0.8637
5856000000.0 0.9208 0.2297
5859000000.0 0.7314 -0.5476
5862000000.0 0.04052 -0.907
5866000000.0 -0.7211 -0.5901
5869000000.0 -0.8943 0.1671
5872000000.0 -0.4235 0.7947
5875000000.0 0.32 0.8122
5878000000.0 0.8636 0.2164
5881000000.0 0.6966 -0.4926
5884000000.0 0.01951 -0.8658
5888000000.0 -0.6263 -0.5833
5891000000.0 -0.8386 0.1241
5894000000.0 -0.4119 0.735
5897000000.0 0.2957 0.8257
5900000000.0 0.8252 0.2615
5903000000.0 0.7381 -0.4715
5906000000.0 0.1021 -0.8514
5909000000.0 -0.6262 -0.5917
5912000000.0 -0.8879 0.05833
5916000000.0 -0.5018 0.7015
5919000000.0 0.2043 0.8256
5922000000.0 0.7934 0.3451
5925000000.0 0.7995 -0.4296
5928000000.0 0.2051 -0.8105
5931000000.0 -0.5529 -0.7258
5934000000.0 -0.8749 -0.008027
5938000000.0 -0.5967 0.6823
5941000000.0 0.1311 0.8971
5944000000.0 0.7834 0.4733
5947000000.0 0.8636 -0.3332
5950000000.0 0.3335 -0.8505
5953000000.0 -0.4665 -0.7904
5956000000.0 -0.9074 -0.1505
5959000000.0 -0.7207 0.6034
5962000000.0 -0.00803 0.9252
5966000000.0 0.7604 0.6294
5969000000.0 0.9395 -0.182
5972000000.0 0.4732 -0.8607
5975000000.0 -0.3461 -0.9131
5978000000.0 -0.9247 -0.3203
5981000000.0 -0.8236 0.5128
5984000000.0 -0.1633 0.9756
5988000000.0 0.6311 0.7499
5991000000.0 0.9921 -0.03597
5994000000.0 0.5964 -0.7823
5997000000.0 -0.22 -1.012
6000000000.0 -0.911 -0.4771
6003000000.0 -0.919 0.3834
6006000000.0 -0.2742 0.9897
6009000000.0 0.5646 0.8256
6012000000.0 1.0 0.06485
6016000000.0 0.6868 -0.7297
6019000000.0 -0.09751 -0.9996
6022000000.0 -0.8192 -0.5382
6025000000.0 -0.9211 0.2607
6028000000.0 -0.3725 0.9096
6031000000.0 0.4406 0.8771
6034000000.0 0.9939 0.1656
6038000000.0 0.7249 -0.6333
6041000000.0 -0.02625 -0.9427
6044000000.0 -0.7571 -0.6039
6047000000.0 -0.9508 0.203
6050000000.0 -0.4298 0.8551
6053000000.0 0.395 0.8475
6056000000.0 0.9093 0.2383
6059000000.0 0.7133 -0.5302
6062000000.0 0.01882 -0.9455
6066000000.0 -0.7079 -0.5877
6069000000.0 -0.8825 0.163
6072000000.0 -0.4328 0.7781
6075000000.0 0.3168 0.817
6078000000.0 0.8346 0.2604
6081000000.0 0.6781 -0.4843
6084000000.0 0.05612 -0.8709
6088000000.0 -0.6369 -0.611
6091000000.0 -0.8653 0.1165
6094000000.0 -0.4484 0.7156
6097000000.0 0.28 0.7967
6100000000.0 0.7982 0.274
6103000000.0 0.7197 -0.4672
6106000000.0 0.1039 -0.8264
6109000000.0 -0.5903 -0.623
6112000000.0 -0.8557 0.05383
6116000000.0 -0.4694 0.7004
6119000000.0 0.2236 0.8504
6122000000.0 0.8235 0.3145
6125000000.0 0.7867 -0.4329
6128000000.0 0.1489 -0.8645
6131000000.0 -0.5754 -0.6533
6134000000.0 -0.8966 0.02049
6138000000.0 -0.54 0.7027
6141000000.0 0.2228 0.8169
6144000000.0 0.8293 0.3584
6147000000.0 0.7986 -0.3908
6150000000.0 0.1968 -0.8915
6153000000.0 -0.577 -0.7195
6156000000.0 -0.8946 -0.05542
6159000000.0 -0.5849 0.6948
6162000000.0 0.1622 0.9293
6166000000.0 0.7842 0.4563
6169000000.0 0.8886 -0.3469
6172000000.0 0.298 -0.9064
6175000000.0 -0.538 -0.8247
6178000000.0 -0.9386 -0.1078
6181000000.0 -0.6666 0.64
6184000000.0 0.05675 0.9498
6188000000.0 0.8191 0.5303
6191000000.0 0.9145 -0.2405
6194000000.0 0.3671 -0.8798
6197000000.0 -0.4062 -0.8425
6200000000.0 -0.924 -0.203
6203000000.0 -0.7392 0.5616
6206000000.0 -0.06446 0.9328
6209000000.0 0.6761 0.6239
6212000000.0 0.9142 -0.1658
6216000000.0 0.4781 -0.8089
6219000000.0 -0.3132 -0.8699
6222000000.0 -0.8634 -0.3009
6225000000.0 -0.7996 0.4671
6228000000.0 -0.15 0.8939
6231000000.0 0.6246 0.6375
6234000000.0 0.8883 -0.01551
6238000000.0 0.5376 -0.6858
6241000000.0 -0.1841 -0.8598
6244000000.0 -0.7788 -0.3589
6247000000.0 -0.7913 0.3162
6250000000.0 -0.237 0.8344
6253000000.0 0.4583 0.7088
6256000000.0 0.823 0.09633
6259000000.0 0.6031 -0.5942
6262000000.0 -0.04161 -0.8282
6266000000.0 -0.672 -0.5068
6269000000.0 -0.8056 0.1953
