! Created with skrf 1.8.0 (http://scikit-rf.org).
# Hz S RI R 50.0 
!freq ReS11 ImS11
4000000000.0 -0.2882 -1.43
4003000000.0 -1.359 -0.6862
4006000000.0 -1.349 0.59
4009000000.0 -0.4312 1.435
4012000000.0 0.8592 1.222
4016000000.0 1.494 0.1051
4019000000.0 1.056 -1.203
4022000000.0 -0.2625 -1.514
4025000000.0 -1.357 -0.7785
4028000000.0 -1.514 0.627
4031000000.0 -0.4598 1.523
4034000000.0 0.9321 1.342
4038000000.0 1.645 0.08875
4041000000.0 1.096 -1.208
4044000000.0 -0.2493 -1.605
4047000000.0 -1.442 -0.8273
4050000000.0 -1.512 0.6462
4053000000.0 -0.4957 1.525
4056000000.0 0.8763 1.361
4059000000.0 1.642 0.1793
4062000000.0 1.186 -1.121
4066000000.0 -0.1293 -1.622
4069000000.0 -1.265 -0.948
4072000000.0 -1.567 0.3855
4075000000.0 -0.6845 1.472
4078000000.0 0.7175 1.511
4081000000.0 1.618 0.4369
4084000000.0 1.318 -0.9348
4088000000.0 0.1009 -1.619
4091000000.0 -1.149 -1.132
4094000000.0 -1.607 0.1967
4097000000.0 -0.8508 1.347
4100000000.0 0.4939 1.537
4103000000.0 1.487 0.5682
4106000000.0 1.396 -0.754
4109000000.0 0.3244 -1.505
4112000000.0 -0.925 -1.199
4116000000.0 -1.509 -0.06722
4119000000.0 -1.009 1.088
4122000000.0 0.1202 1.493
4125000000.0 1.208 0.8483
4128000000.0 1.419 -0.3616
4131000000.0 0.6618 -1.318
4134000000.0 -0.5671 -1.346
4138000000.0 -1.401 -0.4629
4141000000.0 -1.266 0.7421
4144000000.0 -0.2507 1.461
4147000000.0 0.9639 1.147
4150000000.0 1.515 0.01532
4153000000.0 1.003 -1.168
4156000000.0 -0.2591 -1.462
4159000000.0 -1.289 -0.7503
4162000000.0 -1.434 0.5041
4166000000.0 -0.5224 1.428
4169000000.0 0.7672 1.295
4172000000.0 1.458 0.2525
4175000000.0 1.15 -0.9739
4178000000.0 0.0009105 -1.495
4181000000.0 -1.168 -0.9511
4184000000.0 -1.443 0.2848
4188000000.0 -0.7655 1.302
4191000000.0 0.5611 1.419
4194000000.0 1.453 0.473
4197000000.0 1.323 -0.8546
4200000000.0 0.1546 -1.575
4203000000.0 -1.115 -1.101
4206000000.0 -1.601 0.2029
4209000000.0 -0.8252 1.409
4212000000.0 0.5673 1.519
4216000000.0 1.589 0.4977
4219000000.0 1.335 -0.9932
4222000000.0 0.01117 -1.653
4225000000.0 -1.318 -1.031
4228000000.0 -1.622 0.4821
4231000000.0 -0.6307 1.544
4234000000.0 0.8526 1.388
4238000000.0 1.594 0.1837
4241000000.0 1.108 -1.137
4244000000.0 -0.2447 -1.551
4247000000.0 -1.345 -0.7394
4250000000.0 -1.385 0.6099
4253000000.0 -0.3864 1.483
4256000000.0 0.9315 1.136
4259000000.0 1.466 -0.01607
4262000000.0 0.8914 -1.189
4266000000.0 -0.369 -1.444
4269000000.0 -1.353 -0.6305
4272000000.0 -1.256 0.6942
4275000000.0 -0.2213 1.426
4278000000.0 0.9603 1.023
4281000000.0 1.379 -0.07272
4284000000.0 0.8073 -1.149
4288000000.0 -0.4282 -1.341
4291000000.0 -1.29 -0.5282
4294000000.0 -1.138 0.6261
4297000000.0 -0.2459 1.306
4300000000.0 0.841 0.9895
4303000000.0 1.279 0.02019
4306000000.0 0.8414 -0.9649
4309000000.0 -0.2322 -1.281
4312000000.0 -1.129 -0.6764
4316000000.0 -1.224 0.4109
4319000000.0 -0.467 1.184
4322000000.0 0.6188 1.165
4325000000.0 1.275 0.2953
4328000000.0 1.078 -0.8082
4331000000.0 0.02247 -1.379
4334000000.0 -0.9922 -0.9316
4338000000.0 -1.369 0.2125
4341000000.0 -0.7365 1.222
4344000000.0 0.4465 1.319
4347000000.0 1.341 0.4858
4350000000.0 1.255 -0.7078
4353000000.0 0.2528 -1.453
4356000000.0 -0.96 -1.09
4359000000.0 -1.454 0.02089
4362000000.0 -0.8956 1.156
4366000000.0 0.3296 1.413
4369000000.0 1.304 0.6993
4372000000.0 1.385 -0.5768
4375000000.0 0.4198 -1.467
4378000000.0 -0.8857 -1.259
4381000000.0 -1.486 -0.0966
4384000000.0 -1.066 1.104
4388000000.0 0.1735 1.537
4391000000.0 1.35 0.8206
4394000000.0 1.448 -0.5271
4397000000.0 0.477 -1.502
4400000000.0 -0.8612 -1.266
4403000000.0 -1.563 -0.121
4406000000.0 -1.053 1.134
4409000000.0 0.2612 1.514
4412000000.0 1.375 0.7168
4416000000.0 1.402 -0.6397
4419000000.0 0.3344 -1.463
4422000000.0 -0.9283 -1.157
4425000000.0 -1.462 0.03136
4428000000.0 -0.8522 1.137
4431000000.0 0.3555 1.363
4434000000.0 1.259 0.5465
4438000000.0 1.172 -0.6589
4441000000.0 0.1826 -1.312
4444000000.0 -0.9347 -0.9254
4447000000.0 -1.265 0.169
4450000000.0 -0.6639 1.098
4453000000.0 0.4594 1.198
4456000000.0 1.179 0.3499
4459000000.0 1.007 -0.7414
4462000000.0 0.04618 -1.22
4466000000.0 -0.9066 -0.7849
4469000000.0 -1.185 0.2692
4472000000.0 -0.4814 1.096
4475000000.0 0.4955 1.033
4478000000.0 1.13 0.2302
4481000000.0 0.8932 -0.745
4484000000.0 -0.02965 -1.171
4488000000.0 -0.8918 -0.6852
4491000000.0 -1.129 0.2797
4494000000.0 -0.4852 1.032
4497000000.0 0.5067 1.013
4500000000.0 1.123 0.2317
4503000000.0 0.8699 -0.6787
4506000000.0 0.027 -1.123
4509000000.0 -0.8463 -0.7281
4512000000.0 -1.141 0.2147
4516000000.0 -0.5464 0.9962
4519000000.0 0.4288 1.036
4522000000.0 1.098 0.3248
4525000000.0 0.9672 -0.6436
4528000000.0 0.1241 -1.174
4531000000.0 -0.8389 -0.8652
4534000000.0 -1.179 0.1257
4538000000.0 -0.6928 1.015
4541000000.0 0.3301 1.15
4544000000.0 1.093 0.4973
4547000000.0 1.063 -0.531
4550000000.0 0.2822 -1.209
4553000000.0 -0.724 -0.982
4556000000.0 -1.297 -0.06105
4559000000.0 -0.8807 0.9072
4562000000.0 0.1554 1.296
4566000000.0 1.07 0.7113
4569000000.0 1.248 -0.3896
4572000000.0 0.5193 -1.221
4575000000.0 -0.6179 -1.185
4578000000.0 -1.3 -0.3108
4581000000.0 -1.095 0.8233
4584000000.0 -0.05154 1.371
4588000000.0 1.04 0.92
4591000000.0 1.388 -0.2058
4594000000.0 0.7175 -1.197
4597000000.0 -0.4839 -1.338
4600000000.0 -1.325 -0.466
4603000000.0 -1.2 0.7117
4606000000.0 -0.189 1.41
4609000000.0 0.9707 1.009
4612000000.0 1.419 -0.09761
4616000000.0 0.7824 -1.157
4619000000.0 -0.3799 -1.347
4622000000.0 -1.275 -0.5598
4625000000.0 -1.192 0.6582
4628000000.0 -0.2416 1.341
4631000000.0 0.8583 1.073
4634000000.0 1.378 -0.06382
4638000000.0 0.8092 -1.083
4641000000.0 -0.3251 -1.278
4644000000.0 -1.182 -0.5278
4647000000.0 -1.192 0.5878
4650000000.0 -0.2638 1.275
4653000000.0 0.8299 0.9519
4656000000.0 1.225 -0.04516
4659000000.0 0.7508 -0.9882
4662000000.0 -0.3277 -1.16
4666000000.0 -1.117 -0.425
4669000000.0 -1.034 0.5551
4672000000.0 -0.1799 1.121
4675000000.0 0.7334 0.8103
4678000000.0 1.119 -0.05979
4681000000.0 0.615 -0.8878
4684000000.0 -0.2781 -1.07
4688000000.0 -0.9973 -0.3901
4691000000.0 -0.9585 0.5087
4694000000.0 -0.1939 1.068
4697000000.0 0.7068 0.7951
4700000000.0 1.052 -0.0653
4703000000.0 0.6353 -0.902
4706000000.0 -0.2905 -1.03
4709000000.0 -1.018 -0.3931
4712000000.0 -0.9375 0.545
4716000000.0 -0.1783 1.078
4719000000.0 0.703 0.81
4722000000.0 1.071 -0.0563
4725000000.0 0.6337 -0.8607
4728000000.0 -0.2583 -1.056
4731000000.0 -0.9767 -0.4454
4734000000.0 -0.949 0.4905
4738000000.0 -0.2112 1.07
4741000000.0 0.6299 0.862
4744000000.0 1.086 0.05777
4747000000.0 0.7552 -0.8037
4750000000.0 -0.1254 -1.088
4753000000.0 -0.9236 -0.5996
4756000000.0 -1.088 0.3189
4759000000.0 -0.4467 1.044
4762000000.0 0.5094 1.037
4766000000.0 1.154 0.2526
4769000000.0 0.9474 -0.7275
4772000000.0 0.06678 -1.196
4775000000.0 -0.8893 -0.8507
4778000000.0 -1.227 0.1494
4781000000.0 -0.7006 1.055
4784000000.0 0.3652 1.172
4788000000.0 1.125 0.4874
4791000000.0 1.125 -0.5601
4794000000.0 0.3145 -1.232
4797000000.0 -0.7773 -1.061
4800000000.0 -1.304 -0.1102
4803000000.0 -0.9142 0.9081
4806000000.0 0.1244 1.276
4809000000.0 1.095 0.735
4812000000.0 1.272 -0.3759
4816000000.0 0.5403 -1.234
4819000000.0 -0.6054 -1.216
4822000000.0 -1.343 -0.3227
4825000000.0 -1.092 0.8466
4828000000.0 -0.03884 1.395
4831000000.0 1.062 0.9144
4834000000.0 1.397 -0.2484
4838000000.0 0.6772 -1.241
4841000000.0 -0.5194 -1.322
4844000000.0 -1.332 -0.4261
4847000000.0 -1.171 0.7494
4850000000.0 -0.1369 1.354
4853000000.0 0.9386 0.982
4856000000.0 1.334 -0.1375
4859000000.0 0.7656 -1.128
4862000000.0 -0.3864 -1.244
4866000000.0 -1.218 -0.4873
4869000000.0 -1.098 0.6113
4872000000.0 -0.1848 1.227
4875000000.0 0.8157 0.9388
4878000000.0 1.221 -0.06422
4881000000.0 0.7198 -0.9599
4884000000.0 -0.2939 -1.143
4888000000.0 -1.041 -0.4668
4891000000.0 -1.022 0.5344
4894000000.0 -0.2108 1.11
4897000000.0 0.6848 0.8295
4900000000.0 1.058 -0.0007672
4903000000.0 0.6429 -0.8085
4906000000.0 -0.2276 -1.041
4909000000.0 -0.9106 -0.4592
4912000000.0 -0.8886 0.3904
4916000000.0 -0.2509 0.964
4919000000.0 0.5833 0.7882
4922000000.0 0.9574 0.04214
4925000000.0 0.6303 -0.713
4928000000.0 -0.1019 -0.9265
4931000000.0 -0.8081 -0.4607
4934000000.0 -0.8988 0.2998
4938000000.0 -0.3141 0.8746
4941000000.0 0.486 0.7832
4944000000.0 0.9629 0.1146
4947000000.0 0.7122 -0.6192
4950000000.0 -0.04637 -0.9263
4953000000.0 -0.79 -0.559
4956000000.0 -0.9489 0.2351
4959000000.0 -0.4067 0.9026
4962000000.0 0.4271 0.898
4966000000.0 0.9753 0.2348
4969000000.0 0.8306 -0.6242
4972000000.0 0.05396 -1.03
4975000000.0 -0.7697 -0.6936
4978000000.0 -1.023 0.1793
4981000000.0 -0.5487 0.9369
4984000000.0 0.3724 1.024
4988000000.0 1.043 0.3754
4991000000.0 0.965 -0.5439
4994000000.0 0.1825 -1.147
4997000000.0 -0.7466 -0.8654
5000000000.0 -1.186 0.02206
5003000000.0 -0.7179 0.9404
5006000000.0 0.2476 1.18
5009000000.0 1.102 0.5674
5012000000.0 1.13 -0.4951
5016000000.0 0.3368 -1.222
5019000000.0 -0.715 -1.063
5022000000.0 -1.278 -0.1295
5025000000.0 -0.9301 0.9198
5028000000.0 0.1442 1.314
5031000000.0 1.057 0.7131
5034000000.0 1.247 -0.3459
5038000000.0 0.5197 -1.196
5041000000.0 -0.6056 -1.156
5044000000.0 -1.265 -0.2782
5047000000.0 -0.9961 0.7949
5050000000.0 -0.05463 1.288
5053000000.0 0.942 0.8873
5056000000.0 1.276 -0.1456
5059000000.0 0.6793 -1.099
5062000000.0 -0.38 -1.224
5066000000.0 -1.189 -0.4744
5069000000.0 -1.123 0.5682
5072000000.0 -0.2343 1.219
5075000000.0 0.7624 0.9772
5078000000.0 1.236 -0.00188
5081000000.0 0.7629 -0.8937
5084000000.0 -0.2348 -1.172
5088000000.0 -1.026 -0.5699
5091000000.0 -1.106 0.3913
5094000000.0 -0.3606 1.09
5097000000.0 0.583 0.9529
5100000000.0 1.063 0.1423
5103000000.0 0.817 -0.7137
5106000000.0 -0.01686 -1.058
5109000000.0 -0.8312 -0.62
5112000000.0 -1.026 0.1781
5116000000.0 -0.4903 0.8815
5119000000.0 0.3824 0.9427
5122000000.0 0.9517 0.2484
5125000000.0 0.8466 -0.5461
5128000000.0 0.07945 -1.002
5131000000.0 -0.6844 -0.6736
5134000000.0 -0.9374 0.1176
5138000000.0 -0.4641 0.7749
5141000000.0 0.2876 0.9021
5144000000.0 0.8567 0.3072
5147000000.0 0.8046 -0.4703
5150000000.0 0.1239 -0.9031
5153000000.0 -0.6235 -0.681
5156000000.0 -0.9048 0.0646
5159000000.0 -0.4881 0.7115
5162000000.0 0.2474 0.8398
5166000000.0 0.7829 0.3184
5169000000.0 0.7734 -0.4352
5172000000.0 0.1983 -0.8815
5175000000.0 -0.6115 -0.6713
5178000000.0 -0.9168 0.02816
5181000000.0 -0.5264 0.7264
5184000000.0 0.2458 0.8808
5188000000.0 0.8604 0.3877
5191000000.0 0.8146 -0.4456
5194000000.0 0.1956 -0.8978
5197000000.0 -0.6187 -0.7251
5200000000.0 -0.9315 0.02971
5203000000.0 -0.5718 0.7732
5206000000.0 0.2349 0.9459
5209000000.0 0.8938 0.4042
5212000000.0 0.8578 -0.4553
5216000000.0 0.2199 -0.9628
5219000000.0 -0.6209 -0.806
5222000000.0 -0.9886 -0.05677
5225000000.0 -0.6623 0.7391
5228000000.0 0.1607 1.031
5231000000.0 0.877 0.526
5234000000.0 0.9606 -0.3858
5238000000.0 0.3255 -1.021
5241000000.0 -0.5734 -0.9071
5244000000.0 -1.048 -0.1532
5247000000.0 -0.8033 0.7067
5250000000.0 0.04687 1.094
5253000000.0 0.8645 0.6657
5256000000.0 1.061 -0.216
5259000000.0 0.5079 -0.9623
5262000000.0 -0.4522 -1.024
5266000000.0 -1.035 -0.3311
5269000000.0 -0.9581 0.5911
5272000000.0 -0.1737 1.077
5275000000.0 0.739 0.8202
5278000000.0 1.1 -0.05536
5281000000.0 0.6728 -0.8757
5284000000.0 -0.2425 -1.071
5288000000.0 -0.9758 -0.5289
5291000000.0 -1.029 0.3968
5294000000.0 -0.3772 1.072
5297000000.0 0.5942 0.9468
5300000000.0 1.099 0.171
5303000000.0 0.8386 -0.7169
5306000000.0 -0.03756 -1.135
5309000000.0 -0.8854 -0.713
5312000000.0 -1.103 0.2487
5316000000.0 -0.5009 1.001
5319000000.0 0.4313 1.015
5322000000.0 1.089 0.3298
5325000000.0 0.8895 -0.6319
5328000000.0 0.09893 -1.099
5331000000.0 -0.7725 -0.7351
5334000000.0 -1.075 0.1056
5338000000.0 -0.549 0.9339
5341000000.0 0.3283 1.008
5344000000.0 0.9916 0.3756
5347000000.0 0.8779 -0.5497
5350000000.0 0.09288 -1.021
5353000000.0 -0.7058 -0.7093
5356000000.0 -0.9939 0.128
5359000000.0 -0.5215 0.8598
5362000000.0 0.3534 0.916
5366000000.0 0.9257 0.2924
5369000000.0 0.7884 -0.5445
5372000000.0 0.06438 -0.949
5375000000.0 -0.667 -0.6299
5378000000.0 -0.9195 0.1352
5381000000.0 -0.436 0.8306
5384000000.0 0.3931 0.8347
5388000000.0 0.8828 0.2251
5391000000.0 0.7045 -0.5437
5394000000.0 -0.002428 -0.8741
5397000000.0 -0.7055 -0.5029
5400000000.0 -0.8314 0.1871
5403000000.0 -0.3234 0.7855
5406000000.0 0.4016 0.7343
5409000000.0 0.8014 0.1637
5412000000.0 0.6621 -0.5527
5416000000.0 -0.02547 -0.8323
5419000000.0 -0.6474 -0.5145
5422000000.0 -0.8287 0.1893
5425000000.0 -0.3555 0.7941
5428000000.0 0.4092 0.8185
5431000000.0 0.8694 0.1888
5434000000.0 0.7109 -0.5829
5438000000.0 -0.02005 -0.9106
5441000000.0 -0.6922 -0.5661
5444000000.0 -0.9082 0.1977
5447000000.0 -0.4409 0.8196
5450000000.0 0.3489 0.8737
5453000000.0 0.9243 0.2626
5456000000.0 0.7723 -0.5692
5459000000.0 0.08991 -0.979
5462000000.0 -0.6896 -0.7157
5466000000.0 -1.024 0.08244
5469000000.0 -0.5626 0.8183
5472000000.0 0.2964 0.9831
5475000000.0 0.8988 0.4318
5478000000.0 0.9186 -0.4465
5481000000.0 0.2418 -1.009
5484000000.0 -0.605 -0.8776
5488000000.0 -1.023 -0.04683
5491000000.0 -0.736 0.7592
5494000000.0 0.1571 1.124
5497000000.0 0.9343 0.5618
5500000000.0 1.01 -0.3055
5503000000.0 0.4326 -1.007
5506000000.0 -0.5329 -0.9478
5509000000.0 -1.076 -0.2012
5512000000.0 -0.8164 0.6983
5516000000.0 -0.0003808 1.085
5519000000.0 0.8183 0.6581
5522000000.0 1.08 -0.2246
5525000000.0 0.4758 -0.9202
5528000000.0 -0.4143 -0.9541
5531000000.0 -0.9845 -0.3187
5534000000.0 -0.8754 0.5923
5538000000.0 -0.105 1.045
5541000000.0 0.7462 0.7348
5544000000.0 1.019 -0.09762
5547000000.0 0.5394 -0.8643
5550000000.0 -0.3122 -0.9536
5553000000.0 -0.9566 -0.3417
5556000000.0 -0.8457 0.527
5559000000.0 -0.09653 0.9425
5562000000.0 0.6674 0.6756
5566000000.0 0.8972 -0.0682
5569000000.0 0.4914 -0.7636
5572000000.0 -0.2457 -0.8484
5575000000.0 -0.814 -0.3281
5578000000.0 -0.7496 0.465
5581000000.0 -0.1152 0.8534
5584000000.0 0.5667 0.6027
5588000000.0 0.8315 -0.07518
5591000000.0 0.4216 -0.6958
5594000000.0 -0.2637 -0.7701
5597000000.0 -0.7647 -0.2636
5600000000.0 -0.6438 0.3924
5603000000.0 -0.06072 0.774
5606000000.0 0.6007 0.5549
5609000000.0 0.7736 -0.1362
5612000000.0 0.4047 -0.6781
5616000000.0 -0.2708 -0.7335
5619000000.0 -0.7684 -0.2198
5622000000.0 -0.6708 0.4512
5625000000.0 -0.04318 0.7974
5628000000.0 0.6179 0.5348
5631000000.0 0.7923 -0.1433
5634000000.0 0.3661 -0.7441
5638000000.0 -0.3437 -0.7866
5641000000.0 -0.8631 -0.2147
5644000000.0 -0.7007 0.5304
5647000000.0 -0.01489 0.8886
5650000000.0 0.682 0.5956
5653000000.0 0.9396 -0.1748
5656000000.0 0.4221 -0.8413
5659000000.0 -0.3796 -0.8808
5662000000.0 -0.9534 -0.2669
5666000000.0 -0.8019 0.562
5669000000.0 -0.05482 1.003
5672000000.0 0.7518 0.6931
5675000000.0 1.043 -0.1557
5678000000.0 0.5328 -0.9422
5681000000.0 -0.3865 -0.9965
5684000000.0 -1.007 -0.3192
5688000000.0 -0.9194 0.595
5691000000.0 -0.1168 1.101
5694000000.0 0.802 0.8035
5697000000.0 1.136 -0.1146
5700000000.0 0.6144 -0.9544
5703000000.0 -0.3619 -1.067
5706000000.0 -1.06 -0.3927
5709000000.0 -0.9631 0.5955
5712000000.0 -0.1543 1.124
5716000000.0 0.7668 0.8209
5719000000.0 1.114 -0.06521
5722000000.0 0.6381 -0.9348
5725000000.0 -0.3079 -1.087
5728000000.0 -1.037 -0.4486
5731000000.0 -0.9629 0.5726
5734000000.0 -0.1817 1.112
5738000000.0 0.7235 0.8093
5741000000.0 1.138 -0.08178
5744000000.0 0.6355 -0.9175
5747000000.0 -0.3097 -1.04
5750000000.0 -0.9782 -0.3747
5753000000.0 -0.9196 0.5531
5756000000.0 -0.139 1.056
5759000000.0 0.6689 0.7653
5762000000.0 1.038 -0.1151
5766000000.0 0.5424 -0.8488
5769000000.0 -0.3522 -0.9401
5772000000.0 -0.947 -0.2641
5775000000.0 -0.8237 0.5406
5778000000.0 -0.04329 0.9973
5781000000.0 0.7134 0.6182
5784000000.0 0.9487 -0.2093
5788000000.0 0.389 -0.8476
5791000000.0 -0.4227 -0.8249
5794000000.0 -0.8999 -0.1577
5797000000.0 -0.6813 0.6179
5800000000.0 0.1356 0.882
5803000000.0 0.7651 0.4628
5806000000.0 0.8542 -0.3566
5809000000.0 0.2502 -0.8681
5812000000.0 -0.5371 -0.6782
5816000000.0 -0.8883 -0.008521
5819000000.0 -0.5298 0.734
5822000000.0 0.2798 0.8546
5825000000.0 0.8745 0.3001
5828000000.0 0.763 -0.5133
5831000000.0 0.06725 -0.9098
5834000000.0 -0.6684 -0.6069
5838000000.0 -0.9167 0.1441
5841000000.0 -0.4433 0.8104
5844000000.0 0.3794 0.8326
5847000000.0 0.9076 0.2383
5850000000.0 0.7431 -0.5988
5853000000.0 -0.03984 -1.001
5856000000.0 -0.7785 -0.5777
5859000000.0 -0.9355 0.2309
5862000000.0 -0.4066 0.9185
5866000000.0 0.4298 0.8854
5869000000.0 0.9898 0.192
5872000000.0 0.7813 -0.656
5875000000.0 -0.05268 -1.014
5878000000.0 -0.8044 -0.5815
5881000000.0 -0.9994 0.2784
5884000000.0 -0.4028 0.932
5888000000.0 0.5006 0.8968
5891000000.0 1.027 0.1681
5894000000.0 0.8052 -0.6962
5897000000.0 -0.06047 -1.022
5900000000.0 -0.8811 -0.5965
5903000000.0 -1.018 0.3394
5906000000.0 -0.3545 0.9721
5909000000.0 0.5744 0.8812
5912000000.0 1.037 0.09064
5916000000.0 0.69 -0.7384
5919000000.0 -0.1582 -1.016
5922000000.0 -0.8827 -0.504
5925000000.0 -0.9447 0.4075
5928000000.0 -0.2252 0.9866
5931000000.0 0.6142 0.7149
5934000000.0 0.9553 -0.008487
5938000000.0 0.6128 -0.7704
5941000000.0 -0.2367 -0.9341
5944000000.0 -0.8574 -0.3638
5947000000.0 -0.7936 0.4766
5950000000.0 -0.07042 0.912
5953000000.0 0.6399 0.6591
5956000000.0 0.8933 -0.1379
5959000000.0 0.3904 -0.7792
5962000000.0 -0.3745 -0.8015
5966000000.0 -0.8173 -0.1802
5969000000.0 -0.6683 0.5544
5972000000.0 0.05683 0.8347
5975000000.0 0.6566 0.4979
5978000000.0 0.8274 -0.2302
5981000000.0 0.2718 -0.7885
5984000000.0 -0.4289 -0.7241
5988000000.0 -0.8328 -0.09898
5991000000.0 -0.5801 0.5894
5994000000.0 0.07912 0.8513
5997000000.0 0.7161 0.4238
6000000000.0 0.7863 -0.2918
6003000000.0 0.2584 -0.7816
6006000000.0 -0.4664 -0.683
6009000000.0 -0.8479 -0.1114
6012000000.0 -0.5553 0.6291
6016000000.0 0.1023 0.8357
6019000000.0 0.7464 0.4563
6022000000.0 0.8031 -0.3113
6025000000.0 0.2643 -0.8493
6028000000.0 -0.493 -0.7386
6031000000.0 -0.8984 -0.08668
6034000000.0 -0.6631 0.6406
6038000000.0 0.1252 0.9277
6041000000.0 0.7859 0.4764
6044000000.0 0.8808 -0.2966
6047000000.0 0.3127 -0.8972
6050000000.0 -0.5014 -0.8047
6053000000.0 -0.9663 -0.1053
6056000000.0 -0.6909 0.6937
6059000000.0 0.1213 1.004
6062000000.0 0.8405 0.5489
6066000000.0 0.9317 -0.3252
6069000000.0 0.3459 -0.9514
6072000000.0 -0.5165 -0.8882
6075000000.0 -1.033 -0.1022
6078000000.0 -0.7187 0.7084
6081000000.0 0.1008 0.9988
6084000000.0 0.8763 0.5615
6088000000.0 0.9556 -0.3416
6091000000.0 0.3059 -0.9577
6094000000.0 -0.5561 -0.8573
6097000000.0 -1.003 -0.1011
6100000000.0 -0.6911 0.7345
6103000000.0 0.1627 0.9535
6106000000.0 0.8571 0.4839
6109000000.0 0.9187 -0.3777
6112000000.0 0.2768 -0.9363
6116000000.0 -0.5464 -0.7542
6119000000.0 -0.9591 -0.04209
6122000000.0 -0.6127 0.7209
6125000000.0 0.162 0.8993
6128000000.0 0.8154 0.3899
6131000000.0 0.8267 -0.391
6134000000.0 0.1804 -0.8994
6138000000.0 -0.5529 -0.6904
6141000000.0 -0.8908 0.04751
6144000000.0 -0.5333 0.6627
6147000000.0 0.1958 0.8135
6150000000.0 0.7477 0.3762
6153000000.0 0.7221 -0.382
6156000000.0 0.1384 -0.8223
6159000000.0 -0.5346 -0.6478
6162000000.0 -0.8243 0.04564
6166000000.0 -0.491 0.6393
6169000000.0 0.227 0.8091
6172000000.0 0.7558 0.3117
6175000000.0 0.7327 -0.4086
6178000000.0 0.1449 -0.8109
6181000000.0 -0.533 -0.6009
6184000000.0 -0.8148 0.05133
6188000000.0 -0.4396 0.7019
6191000000.0 0.2529 0.7988
6194000000.0 0.7554 0.3225
6197000000.0 0.7034 -0.4014
6200000000.0 0.1387 -0.8128
6203000000.0 -0.5647 -0.6283
6206000000.0 -0.877 0.05641
6209000000.0 -0.47 0.7244
6212000000.0 0.2613 0.8097
6216000000.0 0.8008 0.3255
6219000000.0 0.7387 -0.3944
6222000000.0 0.1427 -0.8361
6225000000.0 -0.5519 -0.6386
6228000000.0 -0.8822 0.0185
6231000000.0 -0.5199 0.7011
6234000000.0 0.2346 0.8517
6238000000.0 0.7557 0.3595
6241000000.0 0.7618 -0.3646
6244000000.0 0.1817 -0.8559
6247000000.0 -0.5427 -0.6432
6250000000.0 -0.8258 0.009531
6253000000.0 -0.5359 0.6313
6256000000.0 0.1634 0.8298
6259000000.0 0.7324 0.386
6262000000.0 0.7585 -0.2985
