! Created with skrf 1.8.0 (http://scikit-rf.org).
# Hz S RI R 50.0 
!freq ReS11 ImS11
4000000000.0 -0.1745 -1.499
4003000000.0 -1.271 -0.7457
4006000000.0 -1.463 0.5093
4009000000.0 -0.4951 1.468
4012000000.0 0.8002 1.301
4016000000.0 1.544 0.1693
4019000000.0 1.162 -1.102
4022000000.0 -0.1508 -1.575
4025000000.0 -1.319 -0.8302
4028000000.0 -1.552 0.505
4031000000.0 -0.5017 1.514
4034000000.0 0.8785 1.39
4038000000.0 1.646 0.2374
4041000000.0 1.161 -1.179
4044000000.0 -0.1128 -1.675
4047000000.0 -1.397 -0.9192
4050000000.0 -1.554 0.5055
4053000000.0 -0.6145 1.515
4056000000.0 0.8113 1.424
4059000000.0 1.612 0.2908
4062000000.0 1.203 -1.05
4066000000.0 -0.02171 -1.626
4069000000.0 -1.306 -1.046
4072000000.0 -1.636 0.3087
4075000000.0 -0.8046 1.492
4078000000.0 0.6278 1.533
4081000000.0 1.559 0.525
4084000000.0 1.411 -0.8751
4088000000.0 0.1948 -1.647
4091000000.0 -1.113 -1.229
4094000000.0 -1.672 0.0969
4097000000.0 -0.9619 1.342
4100000000.0 0.4111 1.589
4103000000.0 1.485 0.7032
4106000000.0 1.45 -0.6744
4109000000.0 0.4073 -1.531
4112000000.0 -0.889 -1.277
4116000000.0 -1.503 -0.1765
4119000000.0 -1.098 1.049
4122000000.0 0.04645 1.504
4125000000.0 1.147 0.9329
4128000000.0 1.49 -0.2713
4131000000.0 0.7554 -1.305
4134000000.0 -0.491 -1.419
4138000000.0 -1.405 -0.555
4141000000.0 -1.36 0.7015
4144000000.0 -0.3325 1.477
4147000000.0 0.8878 1.245
4150000000.0 1.521 0.1075
4153000000.0 1.059 -1.097
4156000000.0 -0.1674 -1.522
4159000000.0 -1.268 -0.835
4162000000.0 -1.454 0.419
4166000000.0 -0.6235 1.412
4169000000.0 0.6909 1.377
4172000000.0 1.473 0.3467
4175000000.0 1.234 -0.8785
4178000000.0 0.08575 -1.5
4181000000.0 -1.103 -1.052
4184000000.0 -1.496 0.1916
4188000000.0 -0.8662 1.275
4191000000.0 0.4142 1.464
4194000000.0 1.47 0.6123
4197000000.0 1.401 -0.7077
4200000000.0 0.2977 -1.561
4203000000.0 -1.002 -1.221
4206000000.0 -1.635 0.06858
4209000000.0 -1.035 1.297
4212000000.0 0.4418 1.604
4216000000.0 1.534 0.6487
4219000000.0 1.509 -0.8241
4222000000.0 0.2308 -1.7
4225000000.0 -1.198 -1.249
4228000000.0 -1.687 0.2027
4231000000.0 -0.8523 1.469
4234000000.0 0.6673 1.537
4238000000.0 1.601 0.4041
4241000000.0 1.288 -1.017
4244000000.0 -0.004892 -1.619
4247000000.0 -1.288 -0.9295
4250000000.0 -1.506 0.387
4253000000.0 -0.578 1.463
4256000000.0 0.7731 1.322
4259000000.0 1.518 0.2173
4262000000.0 1.077 -1.05
4266000000.0 -0.1585 -1.525
4269000000.0 -1.263 -0.816
4272000000.0 -1.384 0.5287
4275000000.0 -0.4956 1.412
4278000000.0 0.8184 1.207
4281000000.0 1.46 0.09659
4284000000.0 0.9533 -1.029
4288000000.0 -0.1999 -1.389
4291000000.0 -1.214 -0.7201
4294000000.0 -1.262 0.5072
4297000000.0 -0.4141 1.285
4300000000.0 0.7442 1.155
4303000000.0 1.299 0.1912
4306000000.0 0.9836 -0.92
4309000000.0 -0.00878 -1.316
4312000000.0 -1.036 -0.7922
4316000000.0 -1.266 0.2457
4319000000.0 -0.6104 1.168
4322000000.0 0.5191 1.207
4325000000.0 1.241 0.4509
4328000000.0 1.177 -0.6628
4331000000.0 0.2031 -1.41
4334000000.0 -0.9117 -1.058
4338000000.0 -1.388 0.01478
4341000000.0 -0.8697 1.093
4344000000.0 0.2856 1.392
4347000000.0 1.287 0.6824
4350000000.0 1.352 -0.5241
4353000000.0 0.4515 -1.39
4356000000.0 -0.8106 -1.248
4359000000.0 -1.476 -0.1637
4362000000.0 -1.072 0.9963
4366000000.0 0.1209 1.505
4369000000.0 1.235 0.8591
4372000000.0 1.449 -0.3534
4375000000.0 0.6448 -1.353
4378000000.0 -0.6478 -1.392
4381000000.0 -1.532 -0.3977
4384000000.0 -1.239 0.956
4388000000.0 -0.06843 1.538
4391000000.0 1.164 1.027
4394000000.0 1.576 -0.2761
4397000000.0 0.7786 -1.385
4400000000.0 -0.6159 -1.496
4403000000.0 -1.539 -0.4452
4406000000.0 -1.301 0.9336
4409000000.0 -0.06784 1.635
4412000000.0 1.213 0.9962
4416000000.0 1.546 -0.3191
4419000000.0 0.7146 -1.373
4422000000.0 -0.6222 -1.377
4425000000.0 -1.483 -0.3157
4428000000.0 -1.142 0.9368
4431000000.0 0.05161 1.478
4434000000.0 1.143 0.8468
4438000000.0 1.365 -0.4374
4441000000.0 0.5205 -1.339
4444000000.0 -0.6621 -1.208
4447000000.0 -1.338 -0.1663
4450000000.0 -0.9484 0.9463
4453000000.0 0.141 1.315
4456000000.0 1.112 0.6703
4459000000.0 1.205 -0.4439
4462000000.0 0.3591 -1.194
4466000000.0 -0.7367 -1.023
4469000000.0 -1.237 -0.07611
4472000000.0 -0.7988 0.9284
4475000000.0 0.2468 1.167
4478000000.0 1.073 0.5252
4481000000.0 1.054 -0.5413
4484000000.0 0.252 -1.117
4488000000.0 -0.763 -0.9005
4491000000.0 -1.15 0.02011
4494000000.0 -0.6828 0.9016
4497000000.0 0.2851 1.148
4500000000.0 1.053 0.4865
4503000000.0 1.005 -0.4824
4506000000.0 0.2578 -1.089
4509000000.0 -0.6876 -0.8934
4512000000.0 -1.114 0.00162
4516000000.0 -0.7336 0.8587
4519000000.0 0.2369 1.096
4522000000.0 0.9958 0.5518
4525000000.0 1.068 -0.4536
4528000000.0 0.3432 -1.109
4531000000.0 -0.6561 -0.9976
4534000000.0 -1.17 -0.1144
4538000000.0 -0.8762 0.8455
4541000000.0 0.09291 1.187
4544000000.0 0.9728 0.6584
4547000000.0 1.16 -0.3343
4550000000.0 0.5034 -1.109
4553000000.0 -0.5639 -1.132
4556000000.0 -1.205 -0.3174
4559000000.0 -1.009 0.7496
4562000000.0 -0.08732 1.261
4566000000.0 0.9268 0.873
4569000000.0 1.255 -0.1463
4572000000.0 0.7353 -1.082
4575000000.0 -0.3568 -1.265
4578000000.0 -1.241 -0.5664
4581000000.0 -1.191 0.6179
4584000000.0 -0.3074 1.305
4588000000.0 0.8599 1.113
4591000000.0 1.376 0.06795
4594000000.0 0.9304 -1.029
4597000000.0 -0.2184 -1.372
4600000000.0 -1.22 -0.7177
4603000000.0 -1.336 0.5039
4606000000.0 -0.4909 1.333
4609000000.0 0.7306 1.208
4612000000.0 1.399 0.2056
4616000000.0 1.051 -0.9423
4619000000.0 -0.103 -1.427
4622000000.0 -1.153 -0.8304
4625000000.0 -1.349 0.3712
4628000000.0 -0.5596 1.213
4631000000.0 0.6191 1.241
4634000000.0 1.354 0.2787
4638000000.0 1.023 -0.8779
4641000000.0 -0.0394 -1.365
4644000000.0 -1.082 -0.8673
4647000000.0 -1.328 0.3258
4650000000.0 -0.5473 1.233
4653000000.0 0.5957 1.18
4656000000.0 1.271 0.2526
4659000000.0 0.9879 -0.7978
4662000000.0 -0.04453 -1.278
4666000000.0 -0.9943 -0.7581
4669000000.0 -1.159 0.3009
4672000000.0 -0.4943 1.139
4675000000.0 0.5556 1.028
4678000000.0 1.165 0.2178
4681000000.0 0.8504 -0.7505
4684000000.0 -0.02004 -1.134
4688000000.0 -0.9291 -0.6422
4691000000.0 -1.068 0.293
4694000000.0 -0.4579 1.01
4697000000.0 0.5156 0.9668
4700000000.0 1.05 0.1964
4703000000.0 0.8583 -0.7368
4706000000.0 -0.05557 -1.063
4709000000.0 -0.8971 -0.6418
4712000000.0 -1.045 0.312
4716000000.0 -0.421 1.022
4719000000.0 0.5274 0.9352
4722000000.0 1.015 0.2084
4725000000.0 0.8027 -0.7171
4728000000.0 -0.05377 -1.047
4731000000.0 -0.8386 -0.6488
4734000000.0 -1.028 0.2496
4738000000.0 -0.448 0.9384
4741000000.0 0.4414 0.9531
4744000000.0 1.055 0.2748
4747000000.0 0.8952 -0.6291
4750000000.0 0.09796 -1.131
4753000000.0 -0.7919 -0.7695
4756000000.0 -1.127 0.1186
4759000000.0 -0.6177 0.9373
4762000000.0 0.3279 1.1
4766000000.0 1.046 0.454
4769000000.0 1.05 -0.4982
4772000000.0 0.2726 -1.145
4775000000.0 -0.724 -0.9763
4778000000.0 -1.223 -0.08384
4781000000.0 -0.8584 0.8773
4784000000.0 0.1425 1.225
4788000000.0 1.016 0.6921
4791000000.0 1.18 -0.348
4794000000.0 0.4953 -1.133
4797000000.0 -0.5599 -1.133
4800000000.0 -1.248 -0.3309
4803000000.0 -1.03 0.7139
4806000000.0 -0.1035 1.251
4809000000.0 0.9074 0.8993
4812000000.0 1.313 -0.1183
4816000000.0 0.7519 -1.109
4819000000.0 -0.3412 -1.29
4822000000.0 -1.27 -0.555
4825000000.0 -1.245 0.6113
4828000000.0 -0.2968 1.359
4831000000.0 0.87 1.124
4834000000.0 1.394 0.04217
4838000000.0 0.9318 -1.043
4841000000.0 -0.2284 -1.4
4844000000.0 -1.231 -0.7153
4847000000.0 -1.306 0.4962
4850000000.0 -0.4232 1.33
4853000000.0 0.748 1.166
4856000000.0 1.375 0.1572
4859000000.0 0.9837 -0.9711
4862000000.0 -0.09447 -1.354
4866000000.0 -1.107 -0.755
4869000000.0 -1.296 0.377
4872000000.0 -0.5038 1.229
4875000000.0 0.6144 1.147
4878000000.0 1.272 0.2273
4881000000.0 0.9534 -0.8341
4884000000.0 -0.04878 -1.259
4888000000.0 -0.9931 -0.7385
4891000000.0 -1.16 0.2865
4894000000.0 -0.5031 1.083
4897000000.0 0.5186 1.049
4900000000.0 1.118 0.2531
4903000000.0 0.8833 -0.7081
4906000000.0 0.002604 -1.113
4909000000.0 -0.8247 -0.6838
4912000000.0 -1.038 0.2022
4916000000.0 -0.4875 0.924
4919000000.0 0.4216 0.9449
4922000000.0 0.9802 0.2593
4925000000.0 0.7947 -0.5568
4928000000.0 0.06244 -0.9455
4931000000.0 -0.7041 -0.6753
4934000000.0 -0.9671 0.1194
4938000000.0 -0.5072 0.7961
4941000000.0 0.3071 0.8942
4944000000.0 0.8709 0.3453
4947000000.0 0.8456 -0.4761
4950000000.0 0.1639 -0.9268
4953000000.0 -0.6334 -0.7404
4956000000.0 -0.9811 0.02979
4959000000.0 -0.599 0.7808
4962000000.0 0.2323 0.9854
4966000000.0 0.875 0.4009
4969000000.0 0.9063 -0.4205
4972000000.0 0.2555 -0.9795
4975000000.0 -0.6154 -0.8239
4978000000.0 -1.014 -0.05621
4981000000.0 -0.7382 0.7613
4984000000.0 0.1236 1.039
4988000000.0 0.9132 0.5544
4991000000.0 1.023 -0.3489
4994000000.0 0.3957 -1.019
4997000000.0 -0.5422 -1.001
5000000000.0 -1.116 -0.2232
5003000000.0 -0.9165 0.7389
5006000000.0 -0.002912 1.193
5009000000.0 0.9018 0.7787
5012000000.0 1.219 -0.2317
5016000000.0 0.6189 -1.098
5019000000.0 -0.4579 -1.186
5022000000.0 -1.214 -0.3878
5025000000.0 -1.065 0.6957
5028000000.0 -0.1647 1.303
5031000000.0 0.8857 0.9518
5034000000.0 1.314 -0.07634
5038000000.0 0.7464 -1.065
5041000000.0 -0.331 -1.263
5044000000.0 -1.17 -0.579
5047000000.0 -1.186 0.5401
5050000000.0 -0.3333 1.265
5053000000.0 0.7785 1.088
5056000000.0 1.323 0.113
5059000000.0 0.9211 -0.9274
5062000000.0 -0.1051 -1.303
5066000000.0 -1.112 -0.7133
5069000000.0 -1.287 0.3579
5072000000.0 -0.5625 1.188
5075000000.0 0.5909 1.144
5078000000.0 1.272 0.274
5081000000.0 0.981 -0.7744
5084000000.0 0.08621 -1.276
5088000000.0 -0.9155 -0.8305
5091000000.0 -1.225 0.1395
5094000000.0 -0.6613 0.9959
5097000000.0 0.3881 1.134
5100000000.0 1.047 0.4351
5103000000.0 1.001 -0.4979
5106000000.0 0.2489 -1.108
5109000000.0 -0.6716 -0.8564
5112000000.0 -1.079 -0.06564
5116000000.0 -0.7545 0.8198
5119000000.0 0.1549 1.045
5122000000.0 0.8898 0.5582
5125000000.0 0.9841 -0.3389
5128000000.0 0.3687 -0.9777
5131000000.0 -0.5277 -0.8876
5134000000.0 -0.9817 -0.1508
5138000000.0 -0.7445 0.6284
5141000000.0 0.03673 0.9841
5144000000.0 0.7692 0.6184
5147000000.0 0.9069 -0.2069
5150000000.0 0.4421 -0.8503
5153000000.0 -0.3864 -0.8789
5156000000.0 -0.9171 -0.2487
5159000000.0 -0.7676 0.5061
5162000000.0 -0.07968 0.9155
5166000000.0 0.6741 0.6134
5169000000.0 0.8917 -0.1528
5172000000.0 0.4622 -0.7995
5175000000.0 -0.3249 -0.8407
5178000000.0 -0.8458 -0.2856
5181000000.0 -0.7631 0.5083
5184000000.0 -0.09592 0.9113
5188000000.0 0.6759 0.6647
5191000000.0 0.9241 -0.1085
5194000000.0 0.5182 -0.7989
5197000000.0 -0.3072 -0.9029
5200000000.0 -0.8886 -0.314
5203000000.0 -0.8001 0.5243
5206000000.0 -0.1139 0.9544
5209000000.0 0.6873 0.6885
5212000000.0 0.9934 -0.1145
5216000000.0 0.5577 -0.7932
5219000000.0 -0.3075 -0.9394
5222000000.0 -0.9589 -0.3505
5225000000.0 -0.8806 0.4963
5228000000.0 -0.1947 0.9715
5231000000.0 0.6688 0.784
5234000000.0 1.044 -0.04873
5238000000.0 0.6685 -0.8438
5241000000.0 -0.2312 -1.025
5244000000.0 -0.962 -0.4873
5247000000.0 -0.9844 0.42
5250000000.0 -0.3045 1.03
5253000000.0 0.5913 0.9276
5256000000.0 1.073 0.1203
5259000000.0 0.796 -0.7506
5262000000.0 -0.06876 -1.115
5266000000.0 -0.9001 -0.6547
5269000000.0 -1.086 0.257
5272000000.0 -0.485 0.9861
5275000000.0 0.4493 1.014
5278000000.0 1.062 0.2964
5281000000.0 0.9198 -0.5814
5284000000.0 0.1714 -1.105
5288000000.0 -0.7307 -0.824
5291000000.0 -1.12 0.05812
5294000000.0 -0.7029 0.8704
5297000000.0 0.2098 1.1
5300000000.0 1.011 0.5459
5303000000.0 1.043 -0.3869
5306000000.0 0.3716 -1.062
5309000000.0 -0.5682 -0.9881
5312000000.0 -1.122 -0.1737
5316000000.0 -0.8753 0.749
5319000000.0 0.001229 1.173
5322000000.0 0.8876 0.7451
5325000000.0 1.152 -0.2202
5328000000.0 0.5689 -1.001
5331000000.0 -0.41 -1.073
5334000000.0 -1.106 -0.3612
5338000000.0 -0.9919 0.5941
5341000000.0 -0.1758 1.122
5344000000.0 0.769 0.8175
5347000000.0 1.134 -0.03816
5350000000.0 0.647 -0.8687
5353000000.0 -0.2653 -1.066
5356000000.0 -0.9887 -0.4238
5359000000.0 -0.986 0.4943
5362000000.0 -0.2437 1.067
5366000000.0 0.691 0.8232
5369000000.0 1.047 0.01683
5372000000.0 0.6627 -0.7975
5375000000.0 -0.2369 -1.021
5378000000.0 -0.9273 -0.4345
5381000000.0 -0.93 0.4524
5384000000.0 -0.2139 0.9905
5388000000.0 0.6191 0.7549
5391000000.0 0.9572 -0.01547
5394000000.0 0.5517 -0.778
5397000000.0 -0.2237 -0.9044
5400000000.0 -0.8347 -0.3824
5403000000.0 -0.7813 0.4277
5406000000.0 -0.153 0.8686
5409000000.0 0.574 0.6513
5412000000.0 0.8765 -0.009203
5416000000.0 0.5276 -0.7294
5419000000.0 -0.2492 -0.8142
5422000000.0 -0.8071 -0.362
5425000000.0 -0.784 0.3862
5428000000.0 -0.1075 0.8752
5431000000.0 0.5823 0.643
5434000000.0 0.8781 -0.04084
5438000000.0 0.5165 -0.7287
5441000000.0 -0.2326 -0.8812
5444000000.0 -0.8227 -0.3678
5447000000.0 -0.7778 0.3917
5450000000.0 -0.1845 0.8839
5453000000.0 0.5834 0.7097
5456000000.0 0.8883 0.02652
5459000000.0 0.5718 -0.7209
5462000000.0 -0.1702 -0.9241
5466000000.0 -0.8283 -0.4223
5469000000.0 -0.8753 0.3766
5472000000.0 -0.2809 0.872
5475000000.0 0.4781 0.8266
5478000000.0 0.9465 0.1355
5481000000.0 0.6945 -0.6213
5484000000.0 -0.03992 -1.01
5488000000.0 -0.7382 -0.594
5491000000.0 -0.967 0.1778
5494000000.0 -0.4804 0.8811
5497000000.0 0.4017 0.9443
5500000000.0 0.9431 0.2953
5503000000.0 0.8557 -0.5863
5506000000.0 0.1135 -1.009
5509000000.0 -0.6902 -0.7769
5512000000.0 -0.9969 0.04683
5516000000.0 -0.6214 0.8347
5519000000.0 0.1976 1.058
5522000000.0 0.931 0.5131
5525000000.0 0.9954 -0.4111
5528000000.0 0.3418 -1.007
5531000000.0 -0.561 -0.8874
5534000000.0 -1.058 -0.1603
5538000000.0 -0.8197 0.7116
5541000000.0 0.04111 1.072
5544000000.0 0.8652 0.6838
5547000000.0 1.068 -0.2143
5550000000.0 0.4724 -0.9527
5553000000.0 -0.4102 -0.9916
5556000000.0 -1.053 -0.3467
5559000000.0 -0.8568 0.5806
5562000000.0 -0.1476 1.055
5566000000.0 0.7348 0.7671
5569000000.0 1.034 -0.1026
5572000000.0 0.6321 -0.8452
5575000000.0 -0.2767 -0.9877
5578000000.0 -0.9178 -0.3785
5581000000.0 -0.8817 0.4653
5584000000.0 -0.2261 0.9602
5588000000.0 0.5953 0.7821
5591000000.0 0.9714 0.03396
5594000000.0 0.6246 -0.7019
5597000000.0 -0.135 -0.9131
5600000000.0 -0.8157 -0.4699
5603000000.0 -0.8254 0.3174
5606000000.0 -0.2912 0.8638
5609000000.0 0.4762 0.7837
5612000000.0 0.8753 0.08734
5616000000.0 0.6135 -0.6157
5619000000.0 -0.09178 -0.8788
5622000000.0 -0.7151 -0.4404
5625000000.0 -0.7864 0.2543
5628000000.0 -0.3146 0.7531
5631000000.0 0.4244 0.744
5634000000.0 0.8076 0.1214
5638000000.0 0.6208 -0.5575
5641000000.0 -0.06319 -0.8341
5644000000.0 -0.6959 -0.4917
5647000000.0 -0.8106 0.2522
5650000000.0 -0.3191 0.8062
5653000000.0 0.4268 0.7448
5656000000.0 0.8343 0.1463
5659000000.0 0.6465 -0.569
5662000000.0 -0.05988 -0.889
5666000000.0 -0.7219 -0.4813
5669000000.0 -0.8305 0.257
5672000000.0 -0.3147 0.8244
5675000000.0 0.429 0.8047
5678000000.0 0.9304 0.1746
5681000000.0 0.6838 -0.6154
5684000000.0 -0.03788 -0.9746
5688000000.0 -0.7635 -0.582
5691000000.0 -0.9367 0.2354
5694000000.0 -0.4139 0.8839
5697000000.0 0.4212 0.9186
5700000000.0 1.004 0.2267
5703000000.0 0.8222 -0.6136
5706000000.0 0.03037 -1.048
5709000000.0 -0.8085 -0.6851
5712000000.0 -1.029 0.1793
5716000000.0 -0.5274 0.8997
5719000000.0 0.3845 1.003
5722000000.0 1.034 0.3299
5725000000.0 0.9291 -0.5914
5728000000.0 0.1521 -1.057
5731000000.0 -0.727 -0.8095
5734000000.0 -1.091 0.07014
5738000000.0 -0.6726 0.8866
5741000000.0 0.2676 1.111
5744000000.0 0.988 0.4958
5747000000.0 1.017 -0.4222
5750000000.0 0.288 -1.125
5753000000.0 -0.6437 -0.9467
5756000000.0 -1.11 -0.1214
5759000000.0 -0.8256 0.795
5762000000.0 0.1086 1.12
5766000000.0 0.9292 0.6354
5769000000.0 1.1 -0.2762
5772000000.0 0.5075 -1.019
5775000000.0 -0.4477 -1.004
5778000000.0 -1.077 -0.2953
5781000000.0 -0.9134 0.6573
5784000000.0 -0.08321 1.14
5788000000.0 0.7923 0.7464
5791000000.0 1.084 -0.1236
5794000000.0 0.5757 -0.9023
5797000000.0 -0.2914 -1.049
5800000000.0 -1.006 -0.4311
5803000000.0 -0.9592 0.5013
5806000000.0 -0.2203 1.078
5809000000.0 0.6489 0.8185
5812000000.0 1.048 0.01407
5816000000.0 0.6491 -0.7822
5819000000.0 -0.1796 -1.039
5822000000.0 -0.8986 -0.4634
5825000000.0 -0.91 0.3896
5828000000.0 -0.275 0.9622
5831000000.0 0.5394 0.8151
5834000000.0 1.013 0.08268
5838000000.0 0.6982 -0.6876
5841000000.0 -0.1659 -0.9455
5844000000.0 -0.8016 -0.5257
5847000000.0 -0.9058 0.3141
5850000000.0 -0.319 0.8978
5853000000.0 0.5114 0.7996
5856000000.0 0.9312 0.1437
5859000000.0 0.6612 -0.6555
5862000000.0 -0.0636 -0.9124
5866000000.0 -0.7923 -0.5152
5869000000.0 -0.8709 0.2699
5872000000.0 -0.3163 0.8698
5875000000.0 0.4694 0.8011
5878000000.0 0.8823 0.0962
5881000000.0 0.6603 -0.6243
5884000000.0 -0.05696 -0.8968
5888000000.0 -0.7121 -0.5176
5891000000.0 -0.8223 0.2468
5894000000.0 -0.355 0.8308
5897000000.0 0.4202 0.7333
5900000000.0 0.8378 0.167
5903000000.0 0.691 -0.5405
5906000000.0 0.009417 -0.885
5909000000.0 -0.6775 -0.5467
5912000000.0 -0.8311 0.1823
5916000000.0 -0.3999 0.8004
5919000000.0 0.3425 0.8115
5922000000.0 0.8995 0.2608
5925000000.0 0.7427 -0.5343
5928000000.0 0.09297 -0.8888
5931000000.0 -0.637 -0.6447
5934000000.0 -0.8847 0.07056
5938000000.0 -0.4969 0.7559
5941000000.0 0.2648 0.8897
5944000000.0 0.8336 0.382
5947000000.0 0.8556 -0.3919
5950000000.0 0.231 -0.8882
5953000000.0 -0.5595 -0.7191
5956000000.0 -0.9383 -0.04992
5959000000.0 -0.6773 0.678
5962000000.0 0.1063 0.9524
5966000000.0 0.7992 0.5166
5969000000.0 0.9431 -0.2934
5972000000.0 0.3668 -0.9224
5975000000.0 -0.4664 -0.873
5978000000.0 -0.9865 -0.1816
5981000000.0 -0.7528 0.6281
5984000000.0 -0.02579 0.9909
5988000000.0 0.7938 0.6472
5991000000.0 1.002 -0.1531
5994000000.0 0.5307 -0.9128
5997000000.0 -0.3484 -0.9654
6000000000.0 -0.9783 -0.3489
6003000000.0 -0.8715 0.5213
6006000000.0 -0.1784 1.013
6009000000.0 0.6551 0.728
6012000000.0 1.003 -0.05034
6016000000.0 0.5714 -0.7896
6019000000.0 -0.2479 -0.9619
6022000000.0 -0.9144 -0.4205
6025000000.0 -0.9182 0.4191
6028000000.0 -0.2489 0.9875
6031000000.0 0.5903 0.7581
6034000000.0 0.9682 0.03525
6038000000.0 0.6384 -0.7241
6041000000.0 -0.1904 -0.9519
6044000000.0 -0.8463 -0.4667
6047000000.0 -0.8679 0.367
6050000000.0 -0.2599 0.8827
6053000000.0 0.5201 0.7856
6056000000.0 0.9383 0.09977
6059000000.0 0.6386 -0.6724
6062000000.0 -0.1239 -0.8993
6066000000.0 -0.7857 -0.4654
6069000000.0 -0.8398 0.2958
6072000000.0 -0.2826 0.8281
6075000000.0 0.492 0.7519
6078000000.0 0.858 0.1143
6081000000.0 0.6405 -0.6328
6084000000.0 -0.09125 -0.8547
6088000000.0 -0.7242 -0.4736
6091000000.0 -0.8291 0.2771
6094000000.0 -0.3064 0.7965
6097000000.0 0.4304 0.7629
6100000000.0 0.863 0.142
6103000000.0 0.6777 -0.5745
6106000000.0 -0.04873 -0.857
6109000000.0 -0.7262 -0.5107
6112000000.0 -0.8209 0.2217
6116000000.0 -0.3468 0.7949
6119000000.0 0.377 0.7775
6122000000.0 0.871 0.1616
6125000000.0 0.6916 -0.5277
6128000000.0 -0.02886 -0.9116
6131000000.0 -0.7147 -0.5685
6134000000.0 -0.8777 0.1969
6138000000.0 -0.3916 0.8179
6141000000.0 0.3778 0.8405
6144000000.0 0.8865 0.2368
6147000000.0 0.7527 -0.5442
6150000000.0 0.1152 -0.8928
6153000000.0 -0.6943 -0.6528
6156000000.0 -0.9165 0.129
6159000000.0 -0.5046 0.8076
6162000000.0 0.2985 0.9126
6166000000.0 0.8987 0.3369
6169000000.0 0.8006 -0.4852
6172000000.0 0.1307 -0.9315
6175000000.0 -0.6723 -0.738
6178000000.0 -0.9643 0.0816
6181000000.0 -0.5404 0.7834
6184000000.0 0.2324 0.9632
6188000000.0 0.8521 0.4141
6191000000.0 0.8762 -0.4041
6194000000.0 0.2359 -0.9559
6197000000.0 -0.5843 -0.7305
6200000000.0 -0.9622 -0.03331
6203000000.0 -0.6307 0.7411
6206000000.0 0.1704 0.9522
6209000000.0 0.8296 0.4766
6212000000.0 0.8683 -0.3309
6216000000.0 0.3057 -0.8768
6219000000.0 -0.4947 -0.8347
6222000000.0 -0.9536 -0.1579
6225000000.0 -0.7077 0.6193
6228000000.0 0.007509 0.9044
6231000000.0 0.7533 0.538
6234000000.0 0.925 -0.1953
6238000000.0 0.4036 -0.7744
6241000000.0 -0.4046 -0.8169
6244000000.0 -0.8709 -0.241
6247000000.0 -0.7039 0.4516
6250000000.0 -0.05148 0.8656
6253000000.0 0.5628 0.6061
6256000000.0 0.8578 -0.0601
6259000000.0 0.4818 -0.6737
6262000000.0 -0.2149 -0.7785
6266000000.0 -0.7463 -0.3688
