! Created with skrf 1.8.0 (http://scikit-rf.org).
# Hz S RI R 50.0 
!freq ReS11 ImS11
4000000000.0 -0.2346 -1.479
4003000000.0 -1.286 -0.7716
4006000000.0 -1.439 0.5042
4009000000.0 -0.5422 1.385
4012000000.0 0.7878 1.324
4016000000.0 1.487 0.2127
4019000000.0 1.092 -1.062
4022000000.0 -0.1078 -1.517
4025000000.0 -1.348 -0.8877
4028000000.0 -1.537 0.4997
4031000000.0 -0.5827 1.47
4034000000.0 0.8467 1.359
4038000000.0 1.596 0.2241
4041000000.0 1.218 -1.117
4044000000.0 -0.1351 -1.605
4047000000.0 -1.363 -0.8975
4050000000.0 -1.576 0.4555
4053000000.0 -0.6337 1.479
4056000000.0 0.765 1.415
4059000000.0 1.568 0.2928
4062000000.0 1.224 -1.038
4066000000.0 -0.002169 -1.566
4069000000.0 -1.215 -1.037
4072000000.0 -1.59 0.3035
4075000000.0 -0.8108 1.422
4078000000.0 0.5943 1.509
4081000000.0 1.55 0.5535
4084000000.0 1.394 -0.8501
4088000000.0 0.2302 -1.648
4091000000.0 -1.118 -1.199
4094000000.0 -1.599 0.1056
4097000000.0 -0.9744 1.289
4100000000.0 0.3936 1.585
4103000000.0 1.382 0.6991
4106000000.0 1.464 -0.628
4109000000.0 0.4046 -1.456
4112000000.0 -0.8386 -1.274
4116000000.0 -1.541 -0.1619
4119000000.0 -1.137 0.9824
4122000000.0 0.02108 1.483
4125000000.0 1.132 0.9172
4128000000.0 1.452 -0.2676
4131000000.0 0.7782 -1.252
4134000000.0 -0.4688 -1.404
4138000000.0 -1.378 -0.5773
4141000000.0 -1.332 0.6771
4144000000.0 -0.3898 1.469
4147000000.0 0.893 1.231
4150000000.0 1.513 0.1348
4153000000.0 1.054 -1.072
4156000000.0 -0.105 -1.518
4159000000.0 -1.243 -0.8525
4162000000.0 -1.459 0.3733
4166000000.0 -0.6648 1.383
4169000000.0 0.6547 1.371
4172000000.0 1.415 0.3865
4175000000.0 1.189 -0.875
4178000000.0 0.1362 -1.482
4181000000.0 -1.07 -1.058
4184000000.0 -1.512 0.1231
4188000000.0 -0.8404 1.226
4191000000.0 0.3886 1.467
4194000000.0 1.373 0.6294
4197000000.0 1.384 -0.6693
4200000000.0 0.3566 -1.55
4203000000.0 -0.9966 -1.253
4206000000.0 -1.597 -0.0474
4209000000.0 -1.011 1.274
4212000000.0 0.3582 1.609
4216000000.0 1.51 0.6854
4219000000.0 1.496 -0.7605
4222000000.0 0.2815 -1.675
4225000000.0 -1.149 -1.251
4228000000.0 -1.656 0.1823
4231000000.0 -0.8833 1.43
4234000000.0 0.5615 1.549
4238000000.0 1.577 0.4583
4241000000.0 1.291 -0.9457
4244000000.0 0.01611 -1.63
4247000000.0 -1.226 -0.9555
4250000000.0 -1.522 0.3614
4253000000.0 -0.6588 1.412
4256000000.0 0.6934 1.363
4259000000.0 1.52 0.2705
4262000000.0 1.077 -1.028
4266000000.0 -0.1174 -1.509
4269000000.0 -1.266 -0.8079
4272000000.0 -1.377 0.4546
4275000000.0 -0.4945 1.35
4278000000.0 0.7855 1.208
4281000000.0 1.43 0.1413
4284000000.0 0.9588 -0.9954
4288000000.0 -0.1968 -1.365
4291000000.0 -1.165 -0.7179
4294000000.0 -1.266 0.4585
4297000000.0 -0.4564 1.254
4300000000.0 0.6375 1.144
4303000000.0 1.258 0.2487
4306000000.0 0.9605 -0.8465
4309000000.0 -0.007289 -1.288
4312000000.0 -0.9958 -0.8187
4316000000.0 -1.25 0.2203
4319000000.0 -0.6201 1.121
4322000000.0 0.4187 1.218
4325000000.0 1.205 0.496
4328000000.0 1.138 -0.6358
4331000000.0 0.2462 -1.325
4334000000.0 -0.8703 -1.041
4338000000.0 -1.36 -0.03107
4341000000.0 -0.8746 1.106
4344000000.0 0.2247 1.378
4347000000.0 1.235 0.7102
4350000000.0 1.326 -0.5055
4353000000.0 0.4692 -1.388
4356000000.0 -0.7897 -1.27
4359000000.0 -1.41 -0.2068
4362000000.0 -1.071 0.9846
4366000000.0 0.05868 1.438
4369000000.0 1.143 0.9225
4372000000.0 1.456 -0.3366
4375000000.0 0.6669 -1.3
4378000000.0 -0.5739 -1.381
4381000000.0 -1.46 -0.3989
4384000000.0 -1.239 0.8839
4388000000.0 -0.1331 1.508
4391000000.0 1.114 1.073
4394000000.0 1.532 -0.1872
4397000000.0 0.821 -1.328
4400000000.0 -0.5337 -1.497
4403000000.0 -1.515 -0.4938
4406000000.0 -1.293 0.8882
4409000000.0 -0.08533 1.557
4412000000.0 1.152 1.045
4416000000.0 1.548 -0.2669
4419000000.0 0.7399 -1.333
4422000000.0 -0.5893 -1.389
4425000000.0 -1.415 -0.409
4428000000.0 -1.188 0.868
4431000000.0 -0.02969 1.44
4434000000.0 1.149 0.8853
4438000000.0 1.388 -0.3297
4441000000.0 0.5896 -1.235
4444000000.0 -0.6149 -1.238
4447000000.0 -1.334 -0.2509
4450000000.0 -0.979 0.881
4453000000.0 0.09126 1.299
4456000000.0 1.071 0.6954
4459000000.0 1.2 -0.4099
4462000000.0 0.4066 -1.21
4466000000.0 -0.7013 -1.049
4469000000.0 -1.213 -0.09024
4472000000.0 -0.8073 0.8847
4475000000.0 0.1856 1.181
4478000000.0 1.048 0.5412
4481000000.0 1.065 -0.4696
4484000000.0 0.2989 -1.091
4488000000.0 -0.7186 -0.9184
4491000000.0 -1.12 -0.009154
4494000000.0 -0.7313 0.8623
4497000000.0 0.2578 1.074
4500000000.0 0.9819 0.4961
4503000000.0 0.9843 -0.4275
4506000000.0 0.2815 -1.046
4509000000.0 -0.6296 -0.8831
4512000000.0 -1.101 -0.06592
4516000000.0 -0.7523 0.8146
4519000000.0 0.1719 1.108
4522000000.0 0.9981 0.5456
4525000000.0 1.064 -0.4005
4528000000.0 0.3835 -1.09
4531000000.0 -0.6116 -0.9765
4534000000.0 -1.155 -0.1303
4538000000.0 -0.8353 0.7948
4541000000.0 0.08213 1.178
4544000000.0 0.9598 0.6994
4547000000.0 1.162 -0.2633
4550000000.0 0.5233 -1.083
4553000000.0 -0.4652 -1.105
4556000000.0 -1.172 -0.3569
4559000000.0 -1.025 0.7075
4562000000.0 -0.1239 1.214
4566000000.0 0.8637 0.8985
4569000000.0 1.294 -0.06796
4572000000.0 0.7611 -1.051
4575000000.0 -0.3157 -1.257
4578000000.0 -1.162 -0.5639
4581000000.0 -1.184 0.5244
4584000000.0 -0.3775 1.289
4588000000.0 0.7739 1.121
4591000000.0 1.358 0.1161
4594000000.0 0.931 -0.9868
4597000000.0 -0.1836 -1.362
4600000000.0 -1.184 -0.73
4603000000.0 -1.32 0.4434
4606000000.0 -0.494 1.28
4609000000.0 0.6825 1.205
4612000000.0 1.378 0.2573
4616000000.0 1.036 -0.8924
4619000000.0 -0.01237 -1.4
4622000000.0 -1.084 -0.893
4625000000.0 -1.335 0.3238
4628000000.0 -0.5982 1.226
4631000000.0 0.5776 1.243
4634000000.0 1.317 0.3449
4638000000.0 1.078 -0.8132
4641000000.0 0.05889 -1.379
4644000000.0 -0.971 -0.8931
4647000000.0 -1.308 0.2753
4650000000.0 -0.6216 1.167
4653000000.0 0.5229 1.204
4656000000.0 1.257 0.2989
4659000000.0 0.992 -0.7647
4662000000.0 0.01638 -1.234
4666000000.0 -0.9524 -0.7574
4669000000.0 -1.174 0.2235
4672000000.0 -0.5337 1.064
4675000000.0 0.5055 1.043
4678000000.0 1.132 0.2472
4681000000.0 0.9222 -0.7073
4684000000.0 0.005344 -1.097
4688000000.0 -0.8473 -0.7027
4691000000.0 -1.086 0.2315
4694000000.0 -0.4979 0.9788
4697000000.0 0.4465 0.9776
4700000000.0 1.045 0.2504
4703000000.0 0.8607 -0.6731
4706000000.0 -0.02066 -1.072
4709000000.0 -0.8417 -0.6593
4712000000.0 -1.043 0.2592
4716000000.0 -0.4735 0.9944
4719000000.0 0.4967 0.9275
4722000000.0 1.003 0.1865
4725000000.0 0.7869 -0.654
4728000000.0 -0.01727 -1.049
4731000000.0 -0.8476 -0.6721
4734000000.0 -1.026 0.1734
4738000000.0 -0.4967 0.8911
4741000000.0 0.3653 0.9465
4744000000.0 0.99 0.3114
4747000000.0 0.9024 -0.5652
4750000000.0 0.1292 -1.071
4753000000.0 -0.7253 -0.7744
4756000000.0 -1.098 0.05921
4759000000.0 -0.64 0.9037
4762000000.0 0.2901 1.089
4766000000.0 1.002 0.4839
4769000000.0 1.064 -0.497
4772000000.0 0.3119 -1.08
4775000000.0 -0.6876 -0.9742
4778000000.0 -1.179 -0.1019
4781000000.0 -0.8363 0.8219
4784000000.0 0.08874 1.192
4788000000.0 1.005 0.7067
4791000000.0 1.173 -0.3147
4794000000.0 0.5502 -1.073
4797000000.0 -0.5053 -1.126
4800000000.0 -1.223 -0.3454
4803000000.0 -1.031 0.6982
4806000000.0 -0.1504 1.245
4809000000.0 0.8741 0.9327
4812000000.0 1.294 -0.06146
4816000000.0 0.7776 -1.051
4819000000.0 -0.3097 -1.282
4822000000.0 -1.185 -0.5848
4825000000.0 -1.232 0.5253
4828000000.0 -0.3664 1.321
4831000000.0 0.8311 1.113
4834000000.0 1.357 0.08591
4838000000.0 0.9393 -1.017
4841000000.0 -0.1849 -1.421
4844000000.0 -1.179 -0.7534
4847000000.0 -1.31 0.4496
4850000000.0 -0.4749 1.312
4853000000.0 0.7246 1.192
4856000000.0 1.343 0.1871
4859000000.0 1.0 -0.9021
4862000000.0 -0.07777 -1.342
4866000000.0 -1.058 -0.7778
4869000000.0 -1.309 0.3593
4872000000.0 -0.5696 1.184
4875000000.0 0.575 1.139
4878000000.0 1.234 0.267
4881000000.0 0.9714 -0.8078
4884000000.0 0.01034 -1.239
4888000000.0 -0.945 -0.783
4891000000.0 -1.187 0.2531
4894000000.0 -0.5159 1.076
4897000000.0 0.469 1.072
4900000000.0 1.091 0.2778
4903000000.0 0.878 -0.6694
4906000000.0 0.04037 -1.092
4909000000.0 -0.7713 -0.7091
4912000000.0 -1.049 0.2
4916000000.0 -0.4761 0.8894
4919000000.0 0.3669 0.9329
4922000000.0 0.9096 0.286
4925000000.0 0.8153 -0.5135
4928000000.0 0.1138 -0.9343
4931000000.0 -0.6793 -0.6854
4934000000.0 -0.953 0.06103
4938000000.0 -0.5527 0.7699
4941000000.0 0.2592 0.9198
4944000000.0 0.8727 0.3696
4947000000.0 0.8576 -0.4472
4950000000.0 0.1795 -0.9279
4953000000.0 -0.5765 -0.7465
4956000000.0 -0.9493 0.0173
4959000000.0 -0.6034 0.7721
4962000000.0 0.193 0.9471
4966000000.0 0.8626 0.4676
4969000000.0 0.909 -0.38
4972000000.0 0.3218 -0.9354
4975000000.0 -0.5556 -0.8308
4978000000.0 -1.0 -0.109
4981000000.0 -0.7252 0.7198
4984000000.0 0.1018 1.049
4988000000.0 0.8763 0.5701
4991000000.0 1.022 -0.3034
4994000000.0 0.4507 -0.9876
4997000000.0 -0.4665 -0.9726
5000000000.0 -1.108 -0.2466
5003000000.0 -0.9005 0.6818
5006000000.0 -0.05201 1.178
5009000000.0 0.8684 0.7794
5012000000.0 1.184 -0.1813
5016000000.0 0.6197 -1.064
5019000000.0 -0.42 -1.172
5022000000.0 -1.153 -0.4359
5025000000.0 -1.081 0.6334
5028000000.0 -0.1998 1.251
5031000000.0 0.8496 0.9579
5034000000.0 1.265 -0.04527
5038000000.0 0.7821 -1.02
5041000000.0 -0.2843 -1.242
5044000000.0 -1.15 -0.6244
5047000000.0 -1.181 0.483
5050000000.0 -0.3588 1.236
5053000000.0 0.7054 1.105
5056000000.0 1.271 0.1741
5059000000.0 0.9381 -0.8821
5062000000.0 -0.09037 -1.274
5066000000.0 -1.056 -0.751
5069000000.0 -1.275 0.2801
5072000000.0 -0.5846 1.156
5075000000.0 0.5344 1.164
5078000000.0 1.231 0.3497
5081000000.0 1.011 -0.7139
5084000000.0 0.07715 -1.258
5088000000.0 -0.8482 -0.8541
5091000000.0 -1.175 0.1234
5094000000.0 -0.6503 0.9845
5097000000.0 0.3197 1.092
5100000000.0 1.034 0.4697
5103000000.0 1.003 -0.4818
5106000000.0 0.2828 -1.079
5109000000.0 -0.6233 -0.8989
5112000000.0 -1.069 -0.08501
5116000000.0 -0.7638 0.762
5119000000.0 0.1215 1.045
5122000000.0 0.8495 0.54
5125000000.0 1.024 -0.2793
5128000000.0 0.3913 -0.9442
5131000000.0 -0.433 -0.9044
5134000000.0 -1.017 -0.2302
5138000000.0 -0.7626 0.6394
5141000000.0 -0.05339 1.001
5144000000.0 0.7213 0.5981
5147000000.0 0.9389 -0.1392
5150000000.0 0.4806 -0.8317
5153000000.0 -0.3412 -0.8652
5156000000.0 -0.889 -0.2953
5159000000.0 -0.7538 0.4858
5162000000.0 -0.1124 0.9144
5166000000.0 0.632 0.6205
5169000000.0 0.8813 -0.08927
5172000000.0 0.5139 -0.7524
5175000000.0 -0.2951 -0.8603
5178000000.0 -0.8355 -0.3213
5181000000.0 -0.7954 0.4308
5184000000.0 -0.1634 0.8798
5188000000.0 0.6094 0.6861
5191000000.0 0.9132 -0.05526
5194000000.0 0.5048 -0.7673
5197000000.0 -0.2898 -0.8289
5200000000.0 -0.8667 -0.3526
5203000000.0 -0.8244 0.442
5206000000.0 -0.1591 0.9384
5209000000.0 0.6488 0.6971
5212000000.0 0.9499 -0.07195
5216000000.0 0.5553 -0.7656
5219000000.0 -0.2494 -0.9554
5222000000.0 -0.9054 -0.4151
5225000000.0 -0.8723 0.4301
5228000000.0 -0.2109 0.9862
5231000000.0 0.6309 0.7845
5234000000.0 1.03 0.04445
5238000000.0 0.6856 -0.7654
5241000000.0 -0.1727 -1.022
5244000000.0 -0.9387 -0.5471
5247000000.0 -1.015 0.3642
5250000000.0 -0.3634 1.019
5253000000.0 0.5501 0.9396
5256000000.0 1.066 0.1534
5259000000.0 0.809 -0.72
5262000000.0 -0.04632 -1.066
5266000000.0 -0.8537 -0.7052
5269000000.0 -1.075 0.214
5272000000.0 -0.5293 0.9818
5275000000.0 0.3866 1.013
5278000000.0 1.019 0.3496
5281000000.0 0.978 -0.5671
5284000000.0 0.2109 -1.081
5288000000.0 -0.7005 -0.8489
5291000000.0 -1.131 -0.0289
5294000000.0 -0.7284 0.8415
5297000000.0 0.1708 1.107
5300000000.0 0.9282 0.5967
5303000000.0 1.057 -0.3335
5306000000.0 0.4441 -1.027
5309000000.0 -0.514 -0.9812
5312000000.0 -1.094 -0.243
5316000000.0 -0.8883 0.6997
5319000000.0 -0.06738 1.157
5322000000.0 0.8515 0.7485
5325000000.0 1.149 -0.1622
5328000000.0 0.6256 -0.9685
5331000000.0 -0.3735 -1.059
5334000000.0 -1.038 -0.4364
5338000000.0 -0.9873 0.5265
5341000000.0 -0.2119 1.079
5344000000.0 0.7304 0.8565
5347000000.0 1.105 -0.00341
5350000000.0 0.6877 -0.8801
5353000000.0 -0.2146 -1.054
5356000000.0 -0.9792 -0.5204
5359000000.0 -1.008 0.4001
5362000000.0 -0.2819 1.042
5366000000.0 0.6017 0.8742
5369000000.0 1.049 0.07901
5372000000.0 0.6873 -0.7593
5375000000.0 -0.143 -1.017
5378000000.0 -0.8923 -0.4908
5381000000.0 -0.9247 0.3546
5384000000.0 -0.2797 0.9315
5388000000.0 0.5592 0.7842
5391000000.0 0.9225 0.0368
5394000000.0 0.6078 -0.7279
5397000000.0 -0.165 -0.8745
5400000000.0 -0.804 -0.4101
5403000000.0 -0.8146 0.3701
5406000000.0 -0.2353 0.889
5409000000.0 0.5166 0.6894
5412000000.0 0.8767 0.002649
5416000000.0 0.5447 -0.6568
5419000000.0 -0.1556 -0.8375
5422000000.0 -0.7742 -0.3981
5425000000.0 -0.7883 0.3705
5428000000.0 -0.2043 0.8308
5431000000.0 0.5041 0.7416
5434000000.0 0.8745 0.04635
5438000000.0 0.5535 -0.6691
5441000000.0 -0.1581 -0.852
5444000000.0 -0.7814 -0.4158
5447000000.0 -0.8064 0.3609
5450000000.0 -0.2655 0.8663
5453000000.0 0.5403 0.7149
5456000000.0 0.8629 0.04124
5459000000.0 0.56 -0.6524
5462000000.0 -0.1106 -0.8844
5466000000.0 -0.7304 -0.4707
5469000000.0 -0.8347 0.2802
5472000000.0 -0.3393 0.8712
5475000000.0 0.4235 0.7875
5478000000.0 0.9125 0.1857
5481000000.0 0.743 -0.6189
5484000000.0 0.01874 -0.948
5488000000.0 -0.7105 -0.6223
5491000000.0 -0.9853 0.1459
5494000000.0 -0.5199 0.8421
5497000000.0 0.3191 0.8918
5500000000.0 0.9408 0.3439
5503000000.0 0.8877 -0.4746
5506000000.0 0.1718 -1.02
5509000000.0 -0.6372 -0.7395
5512000000.0 -1.027 -0.02086
5516000000.0 -0.6824 0.7772
5519000000.0 0.1474 1.009
5522000000.0 0.8859 0.5249
5525000000.0 1.017 -0.3184
5528000000.0 0.428 -0.9467
5531000000.0 -0.4957 -0.9275
5534000000.0 -1.047 -0.1855
5538000000.0 -0.8246 0.6673
5541000000.0 -0.01251 1.094
5544000000.0 0.7847 0.7051
5547000000.0 1.019 -0.1696
5550000000.0 0.5332 -0.9252
5553000000.0 -0.3408 -0.9802
5556000000.0 -1.023 -0.3524
5559000000.0 -0.9051 0.4949
5562000000.0 -0.1818 0.9987
5566000000.0 0.7056 0.7701
5569000000.0 0.9772 -0.01265
5572000000.0 0.6339 -0.8121
5575000000.0 -0.1857 -1.0
5578000000.0 -0.874 -0.458
5581000000.0 -0.9011 0.3563
5584000000.0 -0.2806 0.9507
5588000000.0 0.5255 0.7987
5591000000.0 0.9382 0.09651
5594000000.0 0.691 -0.6564
5597000000.0 -0.08505 -0.9193
5600000000.0 -0.7654 -0.5245
5603000000.0 -0.8638 0.2403
5606000000.0 -0.3398 0.8396
5609000000.0 0.4333 0.7842
5612000000.0 0.846 0.1577
5616000000.0 0.6815 -0.5668
5619000000.0 0.01261 -0.8678
5622000000.0 -0.6813 -0.5449
5625000000.0 -0.8278 0.193
5628000000.0 -0.3605 0.7626
5631000000.0 0.3474 0.7853
5634000000.0 0.8068 0.1828
5638000000.0 0.6557 -0.5253
5641000000.0 -0.002695 -0.8283
5644000000.0 -0.6513 -0.5611
5647000000.0 -0.809 0.1632
5650000000.0 -0.365 0.7514
5653000000.0 0.3545 0.747
5656000000.0 0.8068 0.2336
5659000000.0 0.6829 -0.5136
5662000000.0 0.01487 -0.87
5666000000.0 -0.6681 -0.5636
5669000000.0 -0.8723 0.1738
5672000000.0 -0.4147 0.8044
5675000000.0 0.357 0.8111
5678000000.0 0.8782 0.2359
5681000000.0 0.7207 -0.536
5684000000.0 0.03432 -0.9006
5688000000.0 -0.6828 -0.6234
5691000000.0 -0.9347 0.1646
5694000000.0 -0.4883 0.8533
5697000000.0 0.3737 0.9113
5700000000.0 0.9581 0.3085
5703000000.0 0.8502 -0.5586
5706000000.0 0.1043 -0.9806
5709000000.0 -0.7192 -0.7359
5712000000.0 -1.014 0.08023
5716000000.0 -0.6007 0.8568
5719000000.0 0.3126 1.003
5722000000.0 0.9746 0.4235
5725000000.0 0.9517 -0.494
5728000000.0 0.246 -1.052
5731000000.0 -0.6305 -0.8401
5734000000.0 -1.087 -0.04087
5738000000.0 -0.714 0.7938
5741000000.0 0.1636 1.117
5744000000.0 0.9595 0.5533
5747000000.0 1.035 -0.3389
5750000000.0 0.3887 -1.009
5753000000.0 -0.5119 -0.9543
5756000000.0 -1.12 -0.1852
5759000000.0 -0.8621 0.6876
5762000000.0 0.04085 1.104
5766000000.0 0.8579 0.7041
5769000000.0 1.103 -0.1833
5772000000.0 0.5416 -0.9617
5775000000.0 -0.4065 -1.008
5778000000.0 -1.043 -0.3569
5781000000.0 -0.9121 0.5589
5784000000.0 -0.1673 1.085
5788000000.0 0.7088 0.8132
5791000000.0 1.081 -0.05469
5794000000.0 0.6605 -0.8768
5797000000.0 -0.2164 -1.061
5800000000.0 -0.9536 -0.4987
5803000000.0 -0.9722 0.4062
5806000000.0 -0.2925 0.9905
5809000000.0 0.5862 0.8818
5812000000.0 1.032 0.07865
5816000000.0 0.7079 -0.7505
5819000000.0 -0.09649 -0.9828
5822000000.0 -0.8446 -0.5412
5825000000.0 -0.9488 0.2902
5828000000.0 -0.3756 0.8935
5831000000.0 0.4563 0.8716
5834000000.0 0.9212 0.1822
5838000000.0 0.7317 -0.6067
5841000000.0 -0.008059 -0.9735
5844000000.0 -0.7424 -0.576
5847000000.0 -0.9289 0.2008
5850000000.0 -0.3859 0.8265
5853000000.0 0.3915 0.8583
5856000000.0 0.924 0.2092
5859000000.0 0.7151 -0.5679
5862000000.0 0.02204 -0.9086
5866000000.0 -0.7122 -0.5831
5869000000.0 -0.861 0.2018
5872000000.0 -0.3961 0.8145
5875000000.0 0.3949 0.8315
5878000000.0 0.8496 0.1938
5881000000.0 0.6889 -0.5159
5884000000.0 0.02159 -0.8802
5888000000.0 -0.6455 -0.5746
5891000000.0 -0.8409 0.1698
5894000000.0 -0.4145 0.7429
5897000000.0 0.3134 0.824
5900000000.0 0.8228 0.2379
5903000000.0 0.7275 -0.4647
5906000000.0 0.1093 -0.8645
5909000000.0 -0.6159 -0.6017
5912000000.0 -0.8656 0.09589
5916000000.0 -0.5004 0.7325
5919000000.0 0.2481 0.834
5922000000.0 0.8124 0.3226
5925000000.0 0.7853 -0.4063
5928000000.0 0.1756 -0.8369
5931000000.0 -0.5423 -0.7029
5934000000.0 -0.8867 -0.02543
5938000000.0 -0.5971 0.6451
5941000000.0 0.1538 0.8501
5944000000.0 0.7767 0.4475
5947000000.0 0.8478 -0.2908
5950000000.0 0.3165 -0.8221
5953000000.0 -0.4808 -0.7795
5956000000.0 -0.8891 -0.1195
5959000000.0 -0.6815 0.6147
5962000000.0 0.00578 0.9267
5966000000.0 0.7192 0.6018
5969000000.0 0.9587 -0.1653
5972000000.0 0.4526 -0.8641
5975000000.0 -0.3505 -0.8869
5978000000.0 -0.9238 -0.293
5981000000.0 -0.833 0.5202
5984000000.0 -0.1455 0.9757
5988000000.0 0.6443 0.7458
5991000000.0 0.9659 -0.05811
5994000000.0 0.6262 -0.7828
5997000000.0 -0.2228 -0.989
6000000000.0 -0.9254 -0.4423
6003000000.0 -0.9236 0.3917
6006000000.0 -0.2573 0.9706
6009000000.0 0.5703 0.8179
6012000000.0 1.0 0.08002
6016000000.0 0.682 -0.7213
6019000000.0 -0.1341 -0.9668
6022000000.0 -0.8536 -0.5209
6025000000.0 -0.9335 0.3018
6028000000.0 -0.3341 0.9156
6031000000.0 0.4761 0.8572
6034000000.0 0.9754 0.1634
6038000000.0 0.7253 -0.6194
6041000000.0 -0.04413 -0.9693
6044000000.0 -0.7529 -0.5455
6047000000.0 -0.8938 0.2435
6050000000.0 -0.3905 0.8846
6053000000.0 0.4029 0.8353
6056000000.0 0.8891 0.1969
6059000000.0 0.738 -0.5524
6062000000.0 0.003997 -0.9164
6066000000.0 -0.7092 -0.5793
6069000000.0 -0.8693 0.1932
6072000000.0 -0.4003 0.815
6075000000.0 0.3482 0.8012
6078000000.0 0.8195 0.2455
6081000000.0 0.7044 -0.5051
6084000000.0 0.03391 -0.8932
6088000000.0 -0.6483 -0.5954
6091000000.0 -0.8509 0.1416
6094000000.0 -0.4364 0.7565
6097000000.0 0.3102 0.7901
6100000000.0 0.8266 0.2772
6103000000.0 0.7459 -0.4383
6106000000.0 0.08252 -0.8486
6109000000.0 -0.5931 -0.6022
6112000000.0 -0.8409 0.07953
6116000000.0 -0.4346 0.7184
6119000000.0 0.2763 0.8378
6122000000.0 0.7837 0.3247
6125000000.0 0.7552 -0.4149
6128000000.0 0.1357 -0.8386
6131000000.0 -0.5694 -0.6375
6134000000.0 -0.8646 0.0484
6138000000.0 -0.5208 0.7128
6141000000.0 0.2431 0.8681
6144000000.0 0.8215 0.3662
6147000000.0 0.7688 -0.3851
6150000000.0 0.1854 -0.8954
6153000000.0 -0.556 -0.6953
6156000000.0 -0.9028 -0.005574
6159000000.0 -0.6012 0.6749
6162000000.0 0.1484 0.8964
6166000000.0 0.7944 0.4657
6169000000.0 0.8994 -0.3721
6172000000.0 0.3078 -0.8927
6175000000.0 -0.5334 -0.8172
6178000000.0 -0.9014 -0.09649
6181000000.0 -0.6843 0.6556
6184000000.0 0.09557 0.9279
6188000000.0 0.7905 0.5382
6191000000.0 0.8972 -0.2742
6194000000.0 0.3742 -0.8895
6197000000.0 -0.4395 -0.827
6200000000.0 -0.9072 -0.1635
6203000000.0 -0.7101 0.5845
6206000000.0 -0.01234 0.9264
6209000000.0 0.706 0.5917
6212000000.0 0.9371 -0.146
6216000000.0 0.455 -0.7858
6219000000.0 -0.3079 -0.8487
6222000000.0 -0.8758 -0.3021
6225000000.0 -0.7938 0.4892
6228000000.0 -0.1365 0.8898
6231000000.0 0.6066 0.6701
6234000000.0 0.8775 -0.04037
6238000000.0 0.5492 -0.6925
6241000000.0 -0.2367 -0.8435
6244000000.0 -0.7917 -0.3956
6247000000.0 -0.7995 0.3539
6250000000.0 -0.2148 0.8319
6253000000.0 0.49 0.6947
6256000000.0 0.808 0.0381
6259000000.0 0.6079 -0.5632
6262000000.0 -0.04999 -0.8115
