! Created with skrf 1.8.0 (http://scikit-rf.org).
# Hz S RI R 50.0 
!freq ReS11 ImS11
4000000000.0 -0.2516 -1.495
4003000000.0 -1.284 -0.774
4006000000.0 -1.4 0.5527
4009000000.0 -0.4706 1.429
4012000000.0 0.8408 1.267
4016000000.0 1.495 0.1747
4019000000.0 1.078 -1.1
4022000000.0 -0.2187 -1.567
4025000000.0 -1.339 -0.8059
4028000000.0 -1.512 0.5515
4031000000.0 -0.5257 1.553
4034000000.0 0.8647 1.399
4038000000.0 1.607 0.152
4041000000.0 1.167 -1.151
4044000000.0 -0.211 -1.635
4047000000.0 -1.376 -0.8849
4050000000.0 -1.605 0.479
4053000000.0 -0.5312 1.531
4056000000.0 0.8578 1.368
4059000000.0 1.596 0.2805
4062000000.0 1.233 -1.072
4066000000.0 -0.07658 -1.613
4069000000.0 -1.264 -1.031
4072000000.0 -1.58 0.3152
4075000000.0 -0.7434 1.469
4078000000.0 0.6647 1.514
4081000000.0 1.592 0.492
4084000000.0 1.411 -0.9067
4088000000.0 0.1771 -1.672
4091000000.0 -1.195 -1.23
4094000000.0 -1.667 0.1081
4097000000.0 -0.8804 1.346
4100000000.0 0.4259 1.577
4103000000.0 1.43 0.6703
4106000000.0 1.41 -0.7399
4109000000.0 0.3831 -1.538
4112000000.0 -0.8554 -1.233
4116000000.0 -1.512 -0.15
4119000000.0 -1.098 1.057
4122000000.0 0.08567 1.503
4125000000.0 1.165 0.9189
4128000000.0 1.473 -0.2867
4131000000.0 0.7511 -1.288
4134000000.0 -0.4829 -1.375
4138000000.0 -1.375 -0.5453
4141000000.0 -1.314 0.714
4144000000.0 -0.3495 1.473
4147000000.0 0.9422 1.185
4150000000.0 1.519 0.07235
4153000000.0 1.026 -1.133
4156000000.0 -0.1796 -1.526
4159000000.0 -1.278 -0.822
4162000000.0 -1.444 0.456
4166000000.0 -0.5767 1.371
4169000000.0 0.6938 1.353
4172000000.0 1.441 0.34
4175000000.0 1.19 -0.9119
4178000000.0 0.06454 -1.493
4181000000.0 -1.146 -1.031
4184000000.0 -1.5 0.2013
4188000000.0 -0.7868 1.274
4191000000.0 0.4349 1.45
4194000000.0 1.431 0.5749
4197000000.0 1.406 -0.7819
4200000000.0 0.2275 -1.559
4203000000.0 -1.042 -1.221
4206000000.0 -1.574 0.09147
4209000000.0 -0.9406 1.308
4212000000.0 0.4942 1.61
4216000000.0 1.548 0.5784
4219000000.0 1.443 -0.8748
4222000000.0 0.2009 -1.659
4225000000.0 -1.267 -1.13
4228000000.0 -1.644 0.2769
4231000000.0 -0.799 1.502
4234000000.0 0.7012 1.474
4238000000.0 1.617 0.2811
4241000000.0 1.204 -1.059
4244000000.0 -0.1103 -1.577
4247000000.0 -1.332 -0.938
4250000000.0 -1.484 0.49
4253000000.0 -0.5204 1.457
4256000000.0 0.8347 1.306
4259000000.0 1.51 0.1378
4262000000.0 1.043 -1.101
4266000000.0 -0.2483 -1.47
4269000000.0 -1.291 -0.7346
4272000000.0 -1.341 0.5618
4275000000.0 -0.3867 1.422
4278000000.0 0.8694 1.166
4281000000.0 1.43 0.07725
4284000000.0 0.9029 -1.104
4288000000.0 -0.305 -1.339
4291000000.0 -1.25 -0.6107
4294000000.0 -1.214 0.5113
4297000000.0 -0.3768 1.294
4300000000.0 0.7077 1.105
4303000000.0 1.305 0.1086
4306000000.0 0.9171 -0.907
4309000000.0 -0.1378 -1.307
4312000000.0 -1.057 -0.7678
4316000000.0 -1.269 0.2825
4319000000.0 -0.5553 1.169
4322000000.0 0.5319 1.242
4325000000.0 1.243 0.3943
4328000000.0 1.117 -0.7655
4331000000.0 0.1275 -1.333
4334000000.0 -0.9638 -0.9573
4338000000.0 -1.378 0.07536
4341000000.0 -0.8332 1.129
4344000000.0 0.3462 1.387
4347000000.0 1.329 0.632
4350000000.0 1.333 -0.593
4353000000.0 0.3908 -1.392
4356000000.0 -0.8599 -1.177
4359000000.0 -1.457 -0.1107
4362000000.0 -0.9955 1.092
4366000000.0 0.139 1.465
4369000000.0 1.257 0.7894
4372000000.0 1.432 -0.4495
4375000000.0 0.5547 -1.384
4378000000.0 -0.7103 -1.347
4381000000.0 -1.477 -0.2874
4384000000.0 -1.157 0.9561
4388000000.0 0.002472 1.545
4391000000.0 1.189 0.9755
4394000000.0 1.534 -0.3364
4397000000.0 0.7093 -1.448
4400000000.0 -0.7039 -1.421
4403000000.0 -1.559 -0.3404
4406000000.0 -1.209 1.016
4409000000.0 0.02446 1.551
4412000000.0 1.262 0.9133
4416000000.0 1.463 -0.3924
4419000000.0 0.6209 -1.432
4422000000.0 -0.7646 -1.315
4425000000.0 -1.461 -0.2471
4428000000.0 -1.058 1.001
4431000000.0 0.1255 1.421
4434000000.0 1.189 0.7502
4438000000.0 1.327 -0.4679
4441000000.0 0.39 -1.308
4444000000.0 -0.7681 -1.091
4447000000.0 -1.354 -0.07433
4450000000.0 -0.8943 1.006
4453000000.0 0.2209 1.263
4456000000.0 1.161 0.5748
4459000000.0 1.121 -0.5618
4462000000.0 0.2521 -1.213
4466000000.0 -0.7857 -0.9126
4469000000.0 -1.216 0.07003
4472000000.0 -0.7151 0.9754
4475000000.0 0.3507 1.132
4478000000.0 1.086 0.4218
4481000000.0 0.998 -0.6166
4484000000.0 0.1361 -1.162
4488000000.0 -0.7953 -0.8713
4491000000.0 -1.142 0.131
4494000000.0 -0.6496 0.9429
4497000000.0 0.3378 1.081
4500000000.0 1.072 0.4212
4503000000.0 0.9438 -0.5556
4506000000.0 0.149 -1.083
4509000000.0 -0.712 -0.8416
4512000000.0 -1.158 0.08151
4516000000.0 -0.6892 0.9389
4519000000.0 0.2617 1.121
4522000000.0 1.037 0.4656
4525000000.0 1.072 -0.4795
4528000000.0 0.2514 -1.156
4531000000.0 -0.714 -0.9545
4534000000.0 -1.192 -0.0502
4538000000.0 -0.7972 0.8836
4541000000.0 0.1536 1.182
4544000000.0 1.039 0.6236
4547000000.0 1.157 -0.3718
4550000000.0 0.4042 -1.133
4553000000.0 -0.616 -1.039
4556000000.0 -1.223 -0.2283
4559000000.0 -0.9406 0.7956
4562000000.0 -0.006043 1.253
4566000000.0 0.9847 0.8233
4569000000.0 1.272 -0.2117
4572000000.0 0.675 -1.103
4575000000.0 -0.4403 -1.222
4578000000.0 -1.258 -0.4543
4581000000.0 -1.172 0.6808
4584000000.0 -0.2318 1.338
4588000000.0 0.8822 1.044
4591000000.0 1.371 -0.02431
4594000000.0 0.8728 -1.072
4597000000.0 -0.2816 -1.375
4600000000.0 -1.23 -0.6488
4603000000.0 -1.289 0.5675
4606000000.0 -0.4009 1.36
4609000000.0 0.8176 1.158
4612000000.0 1.397 0.1167
4616000000.0 0.9623 -1.002
4619000000.0 -0.1657 -1.399
4622000000.0 -1.182 -0.7566
4625000000.0 -1.303 0.4461
4628000000.0 -0.5045 1.316
4631000000.0 0.6962 1.189
4634000000.0 1.349 0.2069
4638000000.0 0.9797 -0.933
4641000000.0 -0.1202 -1.337
4644000000.0 -1.121 -0.74
4647000000.0 -1.272 0.4103
4650000000.0 -0.4848 1.214
4653000000.0 0.7066 1.114
4656000000.0 1.292 0.1479
4659000000.0 0.9039 -0.914
4662000000.0 -0.1402 -1.238
4666000000.0 -1.038 -0.6826
4669000000.0 -1.106 0.3891
4672000000.0 -0.3964 1.096
4675000000.0 0.6163 0.9777
4678000000.0 1.164 0.1449
4681000000.0 0.8065 -0.8051
4684000000.0 -0.1428 -1.128
4688000000.0 -0.9537 -0.5855
4691000000.0 -1.034 0.3555
4694000000.0 -0.3476 1.003
4697000000.0 0.583 0.928
4700000000.0 1.085 0.1108
4703000000.0 0.7358 -0.776
4706000000.0 -0.1502 -1.119
4709000000.0 -0.9067 -0.5747
4712000000.0 -1.026 0.3847
4716000000.0 -0.3412 0.9876
4719000000.0 0.5789 0.8611
4722000000.0 1.073 0.1118
4725000000.0 0.7563 -0.7393
4728000000.0 -0.1328 -1.061
4731000000.0 -0.9065 -0.5802
4734000000.0 -1.035 0.3212
4738000000.0 -0.417 1.019
4741000000.0 0.4793 0.9212
4744000000.0 1.04 0.2445
4747000000.0 0.8503 -0.6671
4750000000.0 0.02364 -1.104
4753000000.0 -0.8211 -0.7076
4756000000.0 -1.078 0.1375
4759000000.0 -0.5625 0.9446
4762000000.0 0.4004 1.079
4766000000.0 1.067 0.4254
4769000000.0 1.007 -0.5717
4772000000.0 0.2301 -1.16
4775000000.0 -0.7553 -0.9111
4778000000.0 -1.197 0.0124
4781000000.0 -0.785 0.922
4784000000.0 0.2222 1.211
4788000000.0 1.09 0.5905
4791000000.0 1.161 -0.4274
4794000000.0 0.4616 -1.14
4797000000.0 -0.6011 -1.11
4800000000.0 -1.251 -0.253
4803000000.0 -0.9763 0.7952
4806000000.0 -0.035 1.283
4809000000.0 0.9456 0.8572
4812000000.0 1.306 -0.1837
4816000000.0 0.6891 -1.141
4819000000.0 -0.423 -1.263
4822000000.0 -1.257 -0.4871
4825000000.0 -1.217 0.6552
4828000000.0 -0.2398 1.364
4831000000.0 0.9129 1.047
4834000000.0 1.409 -0.04314
4838000000.0 0.8579 -1.096
4841000000.0 -0.3076 -1.398
4844000000.0 -1.276 -0.6076
4847000000.0 -1.283 0.5844
4850000000.0 -0.3468 1.355
4853000000.0 0.8189 1.105
4856000000.0 1.383 0.08563
4859000000.0 0.9177 -1.021
4862000000.0 -0.2109 -1.355
4866000000.0 -1.152 -0.6515
4869000000.0 -1.228 0.4693
4872000000.0 -0.4279 1.241
4875000000.0 0.711 1.092
4878000000.0 1.274 0.1305
4881000000.0 0.9011 -0.8871
4884000000.0 -0.1233 -1.25
4888000000.0 -1.017 -0.6592
4891000000.0 -1.124 0.3704
4894000000.0 -0.4151 1.096
4897000000.0 0.612 0.9841
4900000000.0 1.107 0.1691
4903000000.0 0.8069 -0.7415
4906000000.0 -0.04979 -1.066
4909000000.0 -0.862 -0.6022
4912000000.0 -0.9929 0.293
4916000000.0 -0.4088 0.9053
4919000000.0 0.4479 0.8699
4922000000.0 0.9408 0.2113
4925000000.0 0.7569 -0.5922
4928000000.0 0.01128 -0.9329
4931000000.0 -0.7001 -0.6345
4934000000.0 -0.9119 0.1589
4938000000.0 -0.4446 0.8173
4941000000.0 0.3676 0.8791
4944000000.0 0.9042 0.2994
4947000000.0 0.8236 -0.5277
4950000000.0 0.0902 -0.9648
4953000000.0 -0.6731 -0.7022
4956000000.0 -0.9557 0.08543
4959000000.0 -0.551 0.8117
4962000000.0 0.3007 0.957
4966000000.0 0.9172 0.3743
4969000000.0 0.8888 -0.4641
4972000000.0 0.1785 -1.001
4975000000.0 -0.6661 -0.8149
4978000000.0 -1.032 0.01382
4981000000.0 -0.6884 0.822
4984000000.0 0.1889 1.043
4988000000.0 0.9361 0.4995
4991000000.0 1.017 -0.4089
4994000000.0 0.3501 -1.033
4997000000.0 -0.5814 -0.953
5000000000.0 -1.137 -0.1654
5003000000.0 -0.862 0.762
5006000000.0 0.05491 1.191
5009000000.0 0.9668 0.7086
5012000000.0 1.203 -0.3121
5016000000.0 0.5417 -1.118
5019000000.0 -0.5247 -1.165
5022000000.0 -1.231 -0.347
5025000000.0 -1.035 0.7519
5028000000.0 -0.08876 1.328
5031000000.0 0.9285 0.8723
5034000000.0 1.277 -0.1496
5038000000.0 0.711 -1.069
5041000000.0 -0.3983 -1.234
5044000000.0 -1.204 -0.4851
5047000000.0 -1.163 0.6091
5050000000.0 -0.246 1.274
5053000000.0 0.8031 1.023
5056000000.0 1.291 0.03305
5059000000.0 0.8794 -0.963
5062000000.0 -0.1715 -1.276
5066000000.0 -1.116 -0.6889
5069000000.0 -1.21 0.3953
5072000000.0 -0.488 1.179
5075000000.0 0.6111 1.124
5078000000.0 1.244 0.2236
5081000000.0 0.9278 -0.8488
5084000000.0 -0.01628 -1.248
5088000000.0 -0.9613 -0.7368
5091000000.0 -1.184 0.2482
5094000000.0 -0.5477 1.028
5097000000.0 0.3965 1.051
5100000000.0 1.073 0.3687
5103000000.0 0.9619 -0.5656
5106000000.0 0.1667 -1.123
5109000000.0 -0.746 -0.8547
5112000000.0 -1.09 0.007853
5116000000.0 -0.6501 0.814
5119000000.0 0.1877 1.017
5122000000.0 0.8877 0.4801
5125000000.0 0.9518 -0.3944
5128000000.0 0.3312 -0.9644
5131000000.0 -0.5429 -0.8294
5134000000.0 -0.9895 -0.1137
5138000000.0 -0.7156 0.6727
5141000000.0 0.0862 0.9706
5144000000.0 0.7513 0.5486
5147000000.0 0.8778 -0.2318
5150000000.0 0.3382 -0.8598
5153000000.0 -0.4181 -0.8187
5156000000.0 -0.8825 -0.1553
5159000000.0 -0.6768 0.6047
5162000000.0 -0.005981 0.9125
5166000000.0 0.7203 0.5542
5169000000.0 0.8735 -0.2099
5172000000.0 0.3891 -0.8327
5175000000.0 -0.3877 -0.8091
5178000000.0 -0.8914 -0.2335
5181000000.0 -0.7269 0.5828
5184000000.0 -0.01266 0.8938
5188000000.0 0.6922 0.6014
5191000000.0 0.9163 -0.1832
5194000000.0 0.4383 -0.8444
5197000000.0 -0.3863 -0.8456
5200000000.0 -0.9287 -0.225
5203000000.0 -0.7512 0.5594
5206000000.0 -0.02755 0.9288
5209000000.0 0.7132 0.6157
5212000000.0 0.947 -0.1763
5216000000.0 0.463 -0.8651
5219000000.0 -0.366 -0.9181
5222000000.0 -0.9183 -0.2912
5225000000.0 -0.8525 0.5477
5228000000.0 -0.1264 1.035
5231000000.0 0.7423 0.7125
5234000000.0 1.041 -0.09282
5238000000.0 0.6011 -0.8881
5241000000.0 -0.2771 -1.009
5244000000.0 -0.9873 -0.4202
5247000000.0 -0.9548 0.4975
5250000000.0 -0.2063 1.062
5253000000.0 0.6749 0.8306
5256000000.0 1.105 0.0553
5259000000.0 0.7474 -0.8077
5262000000.0 -0.1771 -1.093
5266000000.0 -0.9265 -0.6039
5269000000.0 -1.062 0.3122
5272000000.0 -0.4119 1.018
5275000000.0 0.5283 0.9979
5278000000.0 1.04 0.2329
5281000000.0 0.9052 -0.6852
5284000000.0 0.05907 -1.116
5288000000.0 -0.8126 -0.7885
5291000000.0 -1.093 0.1301
5294000000.0 -0.6108 0.9301
5297000000.0 0.3302 1.096
5300000000.0 1.032 0.4633
5303000000.0 1.024 -0.4627
5306000000.0 0.2862 -1.14
5309000000.0 -0.6403 -0.9233
5312000000.0 -1.147 -0.1295
5316000000.0 -0.8077 0.7963
5319000000.0 0.1115 1.134
5322000000.0 0.936 0.618
5325000000.0 1.094 -0.3052
5328000000.0 0.4658 -1.06
5331000000.0 -0.5087 -1.031
5334000000.0 -1.091 -0.2918
5338000000.0 -0.8907 0.6787
5341000000.0 -0.05883 1.114
5344000000.0 0.8244 0.7283
5347000000.0 1.094 -0.1615
5350000000.0 0.5426 -0.9696
5353000000.0 -0.3667 -1.028
5356000000.0 -1.023 -0.369
5359000000.0 -0.888 0.5961
5362000000.0 -0.1127 1.062
5366000000.0 0.7447 0.711
5369000000.0 0.9831 -0.1165
5372000000.0 0.5099 -0.8569
5375000000.0 -0.3759 -0.9186
5378000000.0 -0.9478 -0.3105
5381000000.0 -0.8158 0.5519
5384000000.0 -0.101 0.9705
5388000000.0 0.7182 0.6365
5391000000.0 0.9083 -0.1357
5394000000.0 0.4466 -0.8113
5397000000.0 -0.3509 -0.8063
5400000000.0 -0.8664 -0.2539
5403000000.0 -0.7231 0.5031
5406000000.0 -0.03374 0.8776
5409000000.0 0.6566 0.5844
5412000000.0 0.8411 -0.1566
5416000000.0 0.4332 -0.7723
5419000000.0 -0.3231 -0.7802
5422000000.0 -0.8523 -0.2217
5425000000.0 -0.7213 0.5269
5428000000.0 -0.04527 0.867
5431000000.0 0.6486 0.5886
5434000000.0 0.87 -0.1458
5438000000.0 0.4591 -0.7728
5441000000.0 -0.3578 -0.8372
5444000000.0 -0.845 -0.2342
5447000000.0 -0.749 0.5321
5450000000.0 -0.08277 0.9106
5453000000.0 0.6437 0.6457
5456000000.0 0.8929 -0.1022
5459000000.0 0.5122 -0.8071
5462000000.0 -0.2833 -0.8853
5466000000.0 -0.8342 -0.3149
5469000000.0 -0.8111 0.4751
5472000000.0 -0.1642 0.936
5475000000.0 0.5718 0.7259
5478000000.0 0.9623 0.03448
5481000000.0 0.6591 -0.7682
5484000000.0 -0.1714 -1.006
5488000000.0 -0.8423 -0.4858
5491000000.0 -0.9375 0.3398
5494000000.0 -0.3807 0.971
5497000000.0 0.5286 0.8816
5500000000.0 1.053 0.1805
5503000000.0 0.7852 -0.6555
5506000000.0 0.01364 -1.052
5509000000.0 -0.8074 -0.699
5512000000.0 -1.024 0.1895
5516000000.0 -0.5565 0.8963
5519000000.0 0.3442 0.9814
5522000000.0 0.95 0.3849
5525000000.0 0.8887 -0.496
5528000000.0 0.2022 -1.032
5531000000.0 -0.6789 -0.8351
5534000000.0 -1.1 -0.021
5538000000.0 -0.723 0.8162
5541000000.0 0.1605 1.09
5544000000.0 0.9562 0.5312
5547000000.0 1.009 -0.3431
5550000000.0 0.3527 -1.023
5553000000.0 -0.5515 -0.9149
5556000000.0 -1.065 -0.1697
5559000000.0 -0.781 0.6858
5562000000.0 0.05151 1.011
5566000000.0 0.8126 0.6286
5569000000.0 0.9672 -0.2009
5572000000.0 0.4633 -0.8989
5575000000.0 -0.4016 -0.8813
5578000000.0 -0.9115 -0.2549
5581000000.0 -0.7812 0.5718
5584000000.0 -0.08279 0.9478
5588000000.0 0.6883 0.6352
5591000000.0 0.8954 -0.1428
5594000000.0 0.5115 -0.7785
5597000000.0 -0.311 -0.8336
5600000000.0 -0.8275 -0.2945
5603000000.0 -0.7442 0.4486
5606000000.0 -0.1182 0.8612
5609000000.0 0.5926 0.6334
5612000000.0 0.8816 -0.06054
5616000000.0 0.4793 -0.6927
5619000000.0 -0.2253 -0.8114
5622000000.0 -0.7716 -0.336
5625000000.0 -0.7264 0.4216
5628000000.0 -0.1311 0.8134
5631000000.0 0.5471 0.6345
5634000000.0 0.8333 -0.03648
5638000000.0 0.4843 -0.6594
5641000000.0 -0.2233 -0.8134
5644000000.0 -0.7499 -0.3511
5647000000.0 -0.7509 0.3902
5650000000.0 -0.1312 0.8369
5653000000.0 0.5781 0.6513
5656000000.0 0.8758 -0.04216
5659000000.0 0.5328 -0.6929
5662000000.0 -0.2189 -0.8438
5666000000.0 -0.8351 -0.3448
5669000000.0 -0.7839 0.4105
5672000000.0 -0.1805 0.8902
5675000000.0 0.6151 0.6912
5678000000.0 0.9484 -0.03082
5681000000.0 0.5854 -0.7574
5684000000.0 -0.2186 -0.9248
5688000000.0 -0.8774 -0.4217
5691000000.0 -0.8955 0.4107
5694000000.0 -0.243 1.0
5697000000.0 0.6016 0.7874
5700000000.0 1.026 0.05426
5703000000.0 0.6773 -0.777
5706000000.0 -0.1884 -1.03
5709000000.0 -0.9234 -0.526
5712000000.0 -0.9933 0.3661
5716000000.0 -0.3595 1.032
5719000000.0 0.5546 0.9336
5722000000.0 1.059 0.156
5725000000.0 0.8215 -0.7249
5728000000.0 -0.03628 -1.087
5731000000.0 -0.8776 -0.6247
5734000000.0 -1.074 0.241
5738000000.0 -0.5182 1.002
5741000000.0 0.4409 1.019
5744000000.0 1.044 0.3058
5747000000.0 0.9521 -0.635
5750000000.0 0.1212 -1.117
5753000000.0 -0.7773 -0.8137
5756000000.0 -1.132 0.05691
5759000000.0 -0.6303 0.908
5762000000.0 0.28 1.08
5766000000.0 0.9984 0.4688
5769000000.0 1.017 -0.4918
5772000000.0 0.2541 -1.076
5775000000.0 -0.651 -0.8778
5778000000.0 -1.128 -0.05002
5781000000.0 -0.7627 0.7704
5784000000.0 0.138 1.054
5788000000.0 0.9221 0.5776
5791000000.0 1.029 -0.3353
5794000000.0 0.3634 -0.9581
5797000000.0 -0.5399 -0.9038
5800000000.0 -1.037 -0.1943
5803000000.0 -0.8149 0.675
5806000000.0 0.03087 1.061
5809000000.0 0.8382 0.6265
5812000000.0 1.002 -0.2204
5816000000.0 0.4677 -0.8964
5819000000.0 -0.4254 -0.9031
5822000000.0 -0.9647 -0.2271
5825000000.0 -0.7772 0.5892
5828000000.0 -0.002006 0.9526
5831000000.0 0.6975 0.6359
5834000000.0 0.949 -0.1346
5838000000.0 0.4606 -0.834
5841000000.0 -0.357 -0.8704
5844000000.0 -0.8732 -0.249
5847000000.0 -0.7585 0.5253
5850000000.0 -0.06574 0.9354
5853000000.0 0.7161 0.6113
5856000000.0 0.9169 -0.1231
5859000000.0 0.426 -0.8114
5862000000.0 -0.3127 -0.8531
5866000000.0 -0.8889 -0.2572
5869000000.0 -0.7442 0.5154
5872000000.0 -0.03963 0.9055
5875000000.0 0.6629 0.631
5878000000.0 0.8656 -0.1214
5881000000.0 0.4503 -0.7522
5884000000.0 -0.3256 -0.8051
5888000000.0 -0.8266 -0.2586
5891000000.0 -0.7126 0.4592
5894000000.0 -0.09634 0.8717
5897000000.0 0.6124 0.6148
5900000000.0 0.874 -0.1096
5903000000.0 0.4665 -0.7391
5906000000.0 -0.2589 -0.8643
5909000000.0 -0.8271 -0.3287
5912000000.0 -0.7807 0.4606
5916000000.0 -0.1374 0.8735
5919000000.0 0.5493 0.696
5922000000.0 0.8942 -0.00482
5925000000.0 0.579 -0.7079
5928000000.0 -0.1642 -0.9016
5931000000.0 -0.8376 -0.4241
5934000000.0 -0.862 0.3084
5938000000.0 -0.2894 0.8901
5941000000.0 0.4946 0.7969
5944000000.0 0.9149 0.1197
5947000000.0 0.6738 -0.6424
5950000000.0 -0.03491 -0.9439
5953000000.0 -0.7664 -0.5323
5956000000.0 -0.9069 0.2248
5959000000.0 -0.4191 0.856
5962000000.0 0.3963 0.8718
5966000000.0 0.9546 0.2707
5969000000.0 0.8228 -0.602
5972000000.0 0.1001 -0.9997
5975000000.0 -0.6968 -0.6936
5978000000.0 -0.9824 0.1312
5981000000.0 -0.534 0.8758
5984000000.0 0.3098 0.959
5988000000.0 0.9423 0.383
5991000000.0 0.914 -0.4821
5994000000.0 0.1809 -0.9939
5997000000.0 -0.6412 -0.7918
6000000000.0 -1.016 0.01375
6003000000.0 -0.6087 0.7885
6006000000.0 0.2114 0.9351
6009000000.0 0.8827 0.4167
6012000000.0 0.9218 -0.4199
6016000000.0 0.2387 -0.9621
6019000000.0 -0.5983 -0.7733
6022000000.0 -0.9751 -0.03339
6025000000.0 -0.6384 0.714
6028000000.0 0.1589 0.9238
6031000000.0 0.8167 0.4338
6034000000.0 0.8332 -0.353
6038000000.0 0.2719 -0.8823
6041000000.0 -0.5279 -0.7548
6044000000.0 -0.9078 -0.05318
6047000000.0 -0.6208 0.6527
6050000000.0 0.1272 0.8999
6053000000.0 0.7414 0.4441
6056000000.0 0.8286 -0.3505
6059000000.0 0.2525 -0.8373
6062000000.0 -0.4879 -0.7542
6066000000.0 -0.8841 -0.06695
6069000000.0 -0.5894 0.6027
6072000000.0 0.1313 0.8511
6075000000.0 0.7509 0.4224
6078000000.0 0.7966 -0.2917
6081000000.0 0.2409 -0.7792
6084000000.0 -0.4555 -0.6841
6088000000.0 -0.8181 -0.08046
6091000000.0 -0.5968 0.6099
6094000000.0 0.1022 0.8333
6097000000.0 0.7377 0.4719
6100000000.0 0.7994 -0.2575
6103000000.0 0.3013 -0.8209
6106000000.0 -0.452 -0.7635
6109000000.0 -0.8547 -0.1322
6112000000.0 -0.6881 0.6196
6116000000.0 0.09313 0.9057
6119000000.0 0.736 0.5144
6122000000.0 0.8536 -0.2746
6125000000.0 0.3238 -0.8879
6128000000.0 -0.4824 -0.818
6131000000.0 -0.946 -0.1486
6134000000.0 -0.6927 0.6155
6138000000.0 0.03353 0.9537
6141000000.0 0.7914 0.5971
6144000000.0 0.9646 -0.2496
6147000000.0 0.4095 -0.9123
6150000000.0 -0.4431 -0.884
6153000000.0 -0.9391 -0.1928
6156000000.0 -0.75 0.6284
6159000000.0 -0.008605 0.9855
6162000000.0 0.7803 0.6525
6166000000.0 0.9675 -0.215
6169000000.0 0.4376 -0.8843
6172000000.0 -0.4091 -0.9205
6175000000.0 -0.9706 -0.2788
6178000000.0 -0.8197 0.5961
6181000000.0 -0.03474 1.009
6184000000.0 0.7093 0.6767
6188000000.0 1.001 -0.1411
6191000000.0 0.515 -0.8578
6194000000.0 -0.3295 -0.91
6197000000.0 -0.9087 -0.2988
6200000000.0 -0.7939 0.4776
6203000000.0 -0.09376 0.9227
6206000000.0 0.6955 0.6911
6209000000.0 0.9266 -0.1044
6212000000.0 0.5096 -0.7729
6216000000.0 -0.2704 -0.9074
6219000000.0 -0.8512 -0.3481
6222000000.0 -0.7928 0.4091
6225000000.0 -0.2178 0.886
6228000000.0 0.584 0.701
6231000000.0 0.9065 0.01048
6234000000.0 0.5567 -0.6845
6238000000.0 -0.1536 -0.8546
6241000000.0 -0.7861 -0.3907
6244000000.0 -0.7995 0.3242
6247000000.0 -0.2513 0.8577
6250000000.0 0.4801 0.6954
6253000000.0 0.8213 0.02136
6256000000.0 0.5714 -0.6201
6259000000.0 -0.1097 -0.8053
6262000000.0 -0.6802 -0.424
6266000000.0 -0.7801 0.2559
6269000000.0 -0.2918 0.783
