! Created with skrf 1.8.0 (http://scikit-rf.org).
# Hz S RI R 50.0 
!freq ReS11 ImS11
4000000000.0 -0.2087 -1.518
4003000000.0 -1.266 -0.7467
4006000000.0 -1.365 0.487
4009000000.0 -0.5419 1.45
4012000000.0 0.7731 1.277
4016000000.0 1.562 0.2192
4019000000.0 1.145 -1.105
4022000000.0 -0.08764 -1.583
4025000000.0 -1.312 -0.8931
4028000000.0 -1.505 0.5247
4031000000.0 -0.5124 1.544
4034000000.0 0.7906 1.403
4038000000.0 1.644 0.2037
4041000000.0 1.172 -1.105
4044000000.0 -0.1567 -1.677
4047000000.0 -1.332 -0.8682
4050000000.0 -1.52 0.4743
4053000000.0 -0.59 1.537
4056000000.0 0.7789 1.4
4059000000.0 1.604 0.2911
4062000000.0 1.252 -1.043
4066000000.0 -0.0009974 -1.637
4069000000.0 -1.26 -1.029
4072000000.0 -1.614 0.294
4075000000.0 -0.7862 1.452
4078000000.0 0.6043 1.555
4081000000.0 1.565 0.5156
4084000000.0 1.378 -0.8756
4088000000.0 0.1884 -1.626
4091000000.0 -1.147 -1.223
4094000000.0 -1.626 0.104
4097000000.0 -0.935 1.297
4100000000.0 0.4056 1.568
4103000000.0 1.446 0.7141
4106000000.0 1.471 -0.6344
4109000000.0 0.4459 -1.502
4112000000.0 -0.8801 -1.261
4116000000.0 -1.515 -0.1914
4119000000.0 -1.127 0.9755
4122000000.0 0.06223 1.488
4125000000.0 1.121 0.9605
4128000000.0 1.477 -0.2606
4131000000.0 0.7555 -1.256
4134000000.0 -0.4352 -1.391
4138000000.0 -1.364 -0.5691
4141000000.0 -1.34 0.6282
4144000000.0 -0.3808 1.45
4147000000.0 0.8683 1.225
4150000000.0 1.476 0.1269
4153000000.0 1.045 -1.085
4156000000.0 -0.1426 -1.526
4159000000.0 -1.255 -0.879
4162000000.0 -1.428 0.3854
4166000000.0 -0.629 1.376
4169000000.0 0.6334 1.373
4172000000.0 1.466 0.3662
4175000000.0 1.25 -0.8548
4178000000.0 0.1442 -1.493
4181000000.0 -1.057 -1.073
4184000000.0 -1.5 0.169
4188000000.0 -0.8799 1.233
4191000000.0 0.4156 1.469
4194000000.0 1.399 0.6201
4197000000.0 1.432 -0.6921
4200000000.0 0.3276 -1.535
4203000000.0 -1.013 -1.278
4206000000.0 -1.623 -0.04269
4209000000.0 -1.004 1.274
4212000000.0 0.3505 1.604
4216000000.0 1.534 0.7058
4219000000.0 1.494 -0.7869
4222000000.0 0.3106 -1.668
4225000000.0 -1.192 -1.215
4228000000.0 -1.662 0.1838
4231000000.0 -0.8803 1.425
4234000000.0 0.6141 1.534
4238000000.0 1.541 0.4588
4241000000.0 1.333 -0.9667
4244000000.0 0.08329 -1.636
4247000000.0 -1.236 -1.018
4250000000.0 -1.547 0.3767
4253000000.0 -0.6475 1.429
4256000000.0 0.72 1.381
4259000000.0 1.524 0.2764
4262000000.0 1.113 -1.039
4266000000.0 -0.09236 -1.528
4269000000.0 -1.286 -0.8094
4272000000.0 -1.431 0.4948
4275000000.0 -0.5108 1.392
4278000000.0 0.8243 1.204
4281000000.0 1.427 0.1533
4284000000.0 0.976 -1.035
4288000000.0 -0.153 -1.374
4291000000.0 -1.18 -0.7324
4294000000.0 -1.281 0.4591
4297000000.0 -0.4264 1.262
4300000000.0 0.6861 1.113
4303000000.0 1.306 0.2204
4306000000.0 0.9973 -0.8457
4309000000.0 -0.03856 -1.283
4312000000.0 -0.9764 -0.8372
4316000000.0 -1.261 0.2151
4319000000.0 -0.6428 1.134
4322000000.0 0.4484 1.222
4325000000.0 1.235 0.4532
4328000000.0 1.158 -0.6146
4331000000.0 0.2127 -1.326
4334000000.0 -0.8587 -1.02
4338000000.0 -1.394 -0.001217
4341000000.0 -0.8955 1.085
4344000000.0 0.2728 1.382
4347000000.0 1.214 0.6898
4350000000.0 1.362 -0.4763
4353000000.0 0.4814 -1.356
4356000000.0 -0.7508 -1.247
4359000000.0 -1.451 -0.2341
4362000000.0 -1.062 0.9619
4366000000.0 0.08596 1.464
4369000000.0 1.164 0.9014
4372000000.0 1.489 -0.3214
4375000000.0 0.6902 -1.347
4378000000.0 -0.5917 -1.375
4381000000.0 -1.464 -0.4461
4384000000.0 -1.283 0.8709
4388000000.0 -0.1295 1.536
4391000000.0 1.127 1.088
4394000000.0 1.525 -0.1962
4397000000.0 0.8102 -1.366
4400000000.0 -0.5285 -1.453
4403000000.0 -1.512 -0.4751
4406000000.0 -1.317 0.8856
4409000000.0 -0.1304 1.539
4412000000.0 1.163 1.035
4416000000.0 1.54 -0.2629
4419000000.0 0.7365 -1.328
4422000000.0 -0.6192 -1.405
4425000000.0 -1.469 -0.4068
4428000000.0 -1.159 0.87
4431000000.0 -0.03962 1.424
4434000000.0 1.104 0.9242
4438000000.0 1.387 -0.3281
4441000000.0 0.6139 -1.265
4444000000.0 -0.5991 -1.206
4447000000.0 -1.376 -0.2384
4450000000.0 -0.9949 0.8662
4453000000.0 0.07259 1.322
4456000000.0 1.09 0.7146
4459000000.0 1.248 -0.4141
4462000000.0 0.4087 -1.192
4466000000.0 -0.6833 -1.046
4469000000.0 -1.268 -0.08284
4472000000.0 -0.7838 0.9099
4475000000.0 0.1995 1.165
4478000000.0 1.074 0.5377
4481000000.0 1.073 -0.4732
4484000000.0 0.2893 -1.112
4488000000.0 -0.7256 -0.8847
4491000000.0 -1.144 -0.02216
4494000000.0 -0.7188 0.8919
4497000000.0 0.2283 1.133
4500000000.0 1.004 0.5058
4503000000.0 0.9998 -0.4484
4506000000.0 0.271 -1.071
4509000000.0 -0.6516 -0.8626
4512000000.0 -1.137 -0.04294
4516000000.0 -0.7796 0.8212
4519000000.0 0.2073 1.133
4522000000.0 0.9792 0.5709
4525000000.0 1.074 -0.4002
4528000000.0 0.3834 -1.116
4531000000.0 -0.6153 -0.9713
4534000000.0 -1.165 -0.1648
4538000000.0 -0.8487 0.8063
4541000000.0 0.04691 1.174
4544000000.0 0.9929 0.7141
4547000000.0 1.183 -0.2966
4550000000.0 0.5331 -1.1
4553000000.0 -0.5103 -1.094
4556000000.0 -1.175 -0.3344
4559000000.0 -1.009 0.7014
4562000000.0 -0.1377 1.231
4566000000.0 0.8662 0.8935
4569000000.0 1.264 -0.08702
4572000000.0 0.7478 -1.054
4575000000.0 -0.3052 -1.253
4578000000.0 -1.195 -0.5798
4581000000.0 -1.232 0.5602
4584000000.0 -0.3545 1.312
4588000000.0 0.7693 1.099
4591000000.0 1.342 0.1057
4594000000.0 0.9543 -0.9672
4597000000.0 -0.1707 -1.345
4600000000.0 -1.178 -0.7479
4603000000.0 -1.349 0.4383
4606000000.0 -0.5064 1.278
4609000000.0 0.6713 1.233
4612000000.0 1.378 0.2455
4616000000.0 1.066 -0.9226
4619000000.0 -0.01065 -1.405
4622000000.0 -1.075 -0.851
4625000000.0 -1.337 0.3342
4628000000.0 -0.6115 1.241
4631000000.0 0.578 1.235
4634000000.0 1.324 0.3469
4638000000.0 1.088 -0.8064
4641000000.0 0.05552 -1.382
4644000000.0 -1.005 -0.8841
4647000000.0 -1.319 0.2602
4650000000.0 -0.6071 1.173
4653000000.0 0.5205 1.185
4656000000.0 1.25 0.3307
4659000000.0 1.01 -0.782
4662000000.0 0.02437 -1.245
4666000000.0 -0.9317 -0.7786
4669000000.0 -1.177 0.2808
4672000000.0 -0.5492 1.073
4675000000.0 0.4817 1.005
4678000000.0 1.131 0.2404
4681000000.0 0.9204 -0.7112
4684000000.0 -0.002817 -1.138
4688000000.0 -0.8616 -0.7224
4691000000.0 -1.113 0.2274
4694000000.0 -0.4979 1.004
4697000000.0 0.4914 0.9937
4700000000.0 1.062 0.2443
4703000000.0 0.855 -0.7098
4706000000.0 -0.02765 -1.116
4709000000.0 -0.8551 -0.674
4712000000.0 -1.035 0.2746
4716000000.0 -0.4736 0.9663
4719000000.0 0.4634 0.9232
4722000000.0 1.071 0.2075
4725000000.0 0.8092 -0.6729
4728000000.0 -0.001628 -1.057
4731000000.0 -0.8391 -0.6632
4734000000.0 -1.006 0.2396
4738000000.0 -0.4871 0.8896
4741000000.0 0.4132 0.9741
4744000000.0 0.9857 0.2986
4747000000.0 0.8744 -0.5893
4750000000.0 0.1138 -1.096
4753000000.0 -0.7575 -0.7698
4756000000.0 -1.098 0.07571
4759000000.0 -0.6679 0.9062
4762000000.0 0.2934 1.084
4766000000.0 1.039 0.5024
4769000000.0 1.059 -0.4887
4772000000.0 0.2896 -1.124
4775000000.0 -0.6749 -0.9445
4778000000.0 -1.172 -0.08658
4781000000.0 -0.8317 0.8414
4784000000.0 0.1004 1.2
4788000000.0 0.9765 0.6854
4791000000.0 1.175 -0.3224
4794000000.0 0.5391 -1.121
4797000000.0 -0.5232 -1.105
4800000000.0 -1.214 -0.3301
4803000000.0 -1.017 0.6779
4806000000.0 -0.1387 1.249
4809000000.0 0.8837 0.9354
4812000000.0 1.284 -0.0652
4816000000.0 0.7634 -1.054
4819000000.0 -0.3093 -1.295
4822000000.0 -1.206 -0.5885
4825000000.0 -1.254 0.5722
4828000000.0 -0.3564 1.343
4831000000.0 0.8107 1.135
4834000000.0 1.363 0.0802
4838000000.0 0.9651 -1.01
4841000000.0 -0.1978 -1.376
4844000000.0 -1.207 -0.7274
4847000000.0 -1.31 0.4886
4850000000.0 -0.4814 1.294
4853000000.0 0.6988 1.185
4856000000.0 1.369 0.1868
4859000000.0 1.009 -0.9183
4862000000.0 -0.07159 -1.344
4866000000.0 -1.068 -0.7877
4869000000.0 -1.261 0.3429
4872000000.0 -0.5415 1.19
4875000000.0 0.5945 1.151
4878000000.0 1.24 0.2717
4881000000.0 0.9841 -0.8045
4884000000.0 0.02524 -1.27
4888000000.0 -0.935 -0.7648
4891000000.0 -1.216 0.3031
4894000000.0 -0.5413 1.045
4897000000.0 0.4944 1.045
4900000000.0 1.1 0.2757
4903000000.0 0.9102 -0.6739
4906000000.0 0.03568 -1.082
4909000000.0 -0.8181 -0.7095
4912000000.0 -1.041 0.155
4916000000.0 -0.4962 0.8895
4919000000.0 0.3495 0.9347
4922000000.0 0.9306 0.314
4925000000.0 0.8098 -0.5282
4928000000.0 0.1168 -0.9451
4931000000.0 -0.6611 -0.6967
4934000000.0 -0.9477 0.05701
4938000000.0 -0.561 0.7809
4941000000.0 0.2527 0.8741
4944000000.0 0.8744 0.3541
4947000000.0 0.8364 -0.4242
4950000000.0 0.2288 -0.927
4953000000.0 -0.6025 -0.7435
4956000000.0 -0.9737 -0.003667
4959000000.0 -0.6178 0.7287
4962000000.0 0.1674 0.9505
4966000000.0 0.8814 0.4765
4969000000.0 0.9096 -0.3895
4972000000.0 0.2859 -0.9751
4975000000.0 -0.5562 -0.8295
4978000000.0 -1.012 -0.0843
4981000000.0 -0.7511 0.7479
4984000000.0 0.1002 1.02
4988000000.0 0.8772 0.5938
4991000000.0 1.026 -0.2957
4994000000.0 0.4373 -0.9743
4997000000.0 -0.4871 -0.9707
5000000000.0 -1.096 -0.2468
5003000000.0 -0.9266 0.6871
5006000000.0 -0.03645 1.188
5009000000.0 0.8913 0.7835
5012000000.0 1.193 -0.1919
5016000000.0 0.6215 -1.062
5019000000.0 -0.3931 -1.173
5022000000.0 -1.189 -0.4321
5025000000.0 -1.085 0.656
5028000000.0 -0.1982 1.251
5031000000.0 0.85 0.9465
5034000000.0 1.293 -0.02132
5038000000.0 0.7754 -1.015
5041000000.0 -0.2803 -1.244
5044000000.0 -1.132 -0.5748
5047000000.0 -1.18 0.5041
5050000000.0 -0.3899 1.222
5053000000.0 0.7203 1.087
5056000000.0 1.269 0.1444
5059000000.0 0.9647 -0.8504
5062000000.0 -0.05345 -1.303
5066000000.0 -1.026 -0.7633
5069000000.0 -1.273 0.3466
5072000000.0 -0.5896 1.169
5075000000.0 0.5429 1.149
5078000000.0 1.271 0.3478
5081000000.0 1.023 -0.7073
5084000000.0 0.13 -1.271
5088000000.0 -0.8803 -0.8149
5091000000.0 -1.214 0.1088
5094000000.0 -0.6958 0.9696
5097000000.0 0.2873 1.118
5100000000.0 1.042 0.4549
5103000000.0 1.023 -0.5456
5106000000.0 0.2581 -1.072
5109000000.0 -0.646 -0.902
5112000000.0 -1.05 -0.105
5116000000.0 -0.733 0.7658
5119000000.0 0.1128 1.04
5122000000.0 0.8335 0.6073
5125000000.0 1.011 -0.288
5128000000.0 0.417 -0.9287
5131000000.0 -0.4741 -0.9122
5134000000.0 -1.015 -0.2578
5138000000.0 -0.8282 0.5954
5141000000.0 -0.02071 0.9354
5144000000.0 0.7272 0.5974
5147000000.0 0.9169 -0.1589
5150000000.0 0.462 -0.8163
5153000000.0 -0.3453 -0.8576
5156000000.0 -0.8424 -0.2804
5159000000.0 -0.774 0.4864
5162000000.0 -0.0867 0.8981
5166000000.0 0.6271 0.6366
5169000000.0 0.8774 -0.1168
5172000000.0 0.4931 -0.7477
5175000000.0 -0.2678 -0.8689
5178000000.0 -0.8452 -0.3397
5181000000.0 -0.7912 0.45
5184000000.0 -0.1551 0.9131
5188000000.0 0.651 0.676
5191000000.0 0.91 -0.07739
5194000000.0 0.5253 -0.7831
5197000000.0 -0.2752 -0.9028
5200000000.0 -0.8565 -0.3509
5203000000.0 -0.8271 0.474
5206000000.0 -0.1561 0.943
5209000000.0 0.6293 0.6866
5212000000.0 0.9703 -0.06585
5216000000.0 0.5925 -0.7874
5219000000.0 -0.2594 -0.9415
5222000000.0 -0.8888 -0.3853
5225000000.0 -0.9118 0.455
5228000000.0 -0.222 0.9667
5231000000.0 0.6231 0.8108
5234000000.0 1.028 0.0114
5238000000.0 0.671 -0.7865
5241000000.0 -0.193 -1.032
5244000000.0 -0.8927 -0.5199
5247000000.0 -0.9849 0.3881
5250000000.0 -0.3739 1.028
5253000000.0 0.5194 0.9038
5256000000.0 1.077 0.1632
5259000000.0 0.7993 -0.6968
5262000000.0 -0.002916 -1.08
5266000000.0 -0.842 -0.6638
5269000000.0 -1.071 0.2292
5272000000.0 -0.5017 0.9526
5275000000.0 0.3906 1.015
5278000000.0 1.055 0.3337
5281000000.0 0.9293 -0.5722
5284000000.0 0.2026 -1.093
5288000000.0 -0.734 -0.8754
5291000000.0 -1.092 -0.0008423
5294000000.0 -0.7456 0.8297
5297000000.0 0.1669 1.095
5300000000.0 0.9876 0.5912
5303000000.0 1.096 -0.3528
5306000000.0 0.4424 -1.033
5309000000.0 -0.4969 -0.9942
5312000000.0 -1.116 -0.2482
5316000000.0 -0.9299 0.7088
5319000000.0 -0.04049 1.169
5322000000.0 0.8989 0.7866
5325000000.0 1.126 -0.1594
5328000000.0 0.5941 -0.96
5331000000.0 -0.343 -1.09
5334000000.0 -1.079 -0.3938
5338000000.0 -0.9967 0.5593
5341000000.0 -0.1995 1.109
5344000000.0 0.7222 0.8761
5347000000.0 1.127 0.004209
5350000000.0 0.6802 -0.8498
5353000000.0 -0.2369 -1.083
5356000000.0 -0.9613 -0.5172
5359000000.0 -0.9996 0.4217
5362000000.0 -0.3052 1.02
5366000000.0 0.591 0.8779
5369000000.0 1.075 0.0832
5372000000.0 0.7012 -0.7708
5375000000.0 -0.1508 -1.023
5378000000.0 -0.9089 -0.5112
5381000000.0 -0.9448 0.4151
5384000000.0 -0.283 0.9678
5388000000.0 0.5517 0.8087
5391000000.0 0.9958 0.03113
5394000000.0 0.6116 -0.6966
5397000000.0 -0.1683 -0.922
5400000000.0 -0.8275 -0.4382
5403000000.0 -0.8097 0.3324
5406000000.0 -0.2367 0.8532
5409000000.0 0.5309 0.6984
5412000000.0 0.8819 0.01984
5416000000.0 0.5288 -0.6731
5419000000.0 -0.1538 -0.8427
5422000000.0 -0.7464 -0.4145
5425000000.0 -0.8041 0.3437
5428000000.0 -0.2231 0.8251
5431000000.0 0.5275 0.6883
5434000000.0 0.846 0.02133
5438000000.0 0.5402 -0.6768
5441000000.0 -0.1833 -0.8712
5444000000.0 -0.7877 -0.399
5447000000.0 -0.8252 0.3341
5450000000.0 -0.2101 0.8445
5453000000.0 0.508 0.7456
5456000000.0 0.8818 0.05939
5459000000.0 0.5935 -0.6801
5462000000.0 -0.09309 -0.8978
5466000000.0 -0.7843 -0.4629
5469000000.0 -0.8634 0.2964
5472000000.0 -0.3635 0.8688
5475000000.0 0.4522 0.8458
5478000000.0 0.9201 0.186
5481000000.0 0.7075 -0.5874
5484000000.0 0.005844 -0.98
5488000000.0 -0.7151 -0.6123
5491000000.0 -1.011 0.1476
5494000000.0 -0.5045 0.8349
5497000000.0 0.2853 0.9504
5500000000.0 0.9517 0.3258
5503000000.0 0.8693 -0.5319
5506000000.0 0.1707 -1.004
5509000000.0 -0.6558 -0.7785
5512000000.0 -1.037 -0.02306
5516000000.0 -0.6862 0.7963
5519000000.0 0.1658 1.034
5522000000.0 0.9007 0.506
5525000000.0 0.9603 -0.3167
5528000000.0 0.3862 -0.938
5531000000.0 -0.4886 -0.9332
5534000000.0 -1.03 -0.2037
5538000000.0 -0.8326 0.6523
5541000000.0 -0.03592 1.068
5544000000.0 0.7865 0.7033
5547000000.0 1.074 -0.155
5550000000.0 0.5607 -0.9377
5553000000.0 -0.3856 -1.019
5556000000.0 -0.9799 -0.3692
5559000000.0 -0.9326 0.5292
5562000000.0 -0.1747 1.052
5566000000.0 0.6947 0.7949
5569000000.0 1.045 -0.01031
5572000000.0 0.6308 -0.783
5575000000.0 -0.1874 -0.9915
5578000000.0 -0.8837 -0.4773
5581000000.0 -0.9319 0.3827
5584000000.0 -0.314 0.915
5588000000.0 0.5392 0.8262
5591000000.0 0.9531 0.0998
5594000000.0 0.6813 -0.6481
5597000000.0 -0.1098 -0.9509
5600000000.0 -0.76 -0.5059
5603000000.0 -0.9043 0.264
5606000000.0 -0.3335 0.839
5609000000.0 0.4383 0.7776
5612000000.0 0.8871 0.1787
5616000000.0 0.6693 -0.543
5619000000.0 -0.001339 -0.8608
5622000000.0 -0.6822 -0.5146
5625000000.0 -0.8445 0.1867
5628000000.0 -0.3651 0.7361
5631000000.0 0.3829 0.7542
5634000000.0 0.7883 0.1941
5638000000.0 0.671 -0.4912
5641000000.0 0.01429 -0.8265
5644000000.0 -0.6461 -0.5429
5647000000.0 -0.8213 0.1855
5650000000.0 -0.3927 0.7514
5653000000.0 0.3558 0.7427
5656000000.0 0.8267 0.1811
5659000000.0 0.694 -0.5094
5662000000.0 0.02972 -0.8564
5666000000.0 -0.6762 -0.6009
5669000000.0 -0.8571 0.1743
5672000000.0 -0.4092 0.7685
5675000000.0 0.3621 0.8354
5678000000.0 0.8697 0.2375
5681000000.0 0.7383 -0.5504
5684000000.0 0.0285 -0.9383
5688000000.0 -0.7021 -0.6353
5691000000.0 -0.9356 0.1764
5694000000.0 -0.4854 0.8329
5697000000.0 0.3524 0.9122
5700000000.0 0.9635 0.3092
5703000000.0 0.8508 -0.5663
5706000000.0 0.1132 -1.014
5709000000.0 -0.7114 -0.7135
5712000000.0 -1.035 0.09342
5716000000.0 -0.5851 0.8763
5719000000.0 0.294 1.035
5722000000.0 0.9687 0.4034
5725000000.0 0.9401 -0.4715
5728000000.0 0.225 -1.083
5731000000.0 -0.6495 -0.8348
5734000000.0 -1.097 -0.06039
5738000000.0 -0.7241 0.841
5741000000.0 0.1832 1.062
5744000000.0 0.9616 0.5771
5747000000.0 1.056 -0.3829
5750000000.0 0.3832 -1.019
5753000000.0 -0.5521 -0.9783
5756000000.0 -1.085 -0.1715
5759000000.0 -0.8427 0.7233
5762000000.0 -0.01204 1.113
5766000000.0 0.8364 0.7237
5769000000.0 1.101 -0.2016
5772000000.0 0.5833 -0.9308
5775000000.0 -0.3799 -1.036
5778000000.0 -1.027 -0.3456
5781000000.0 -0.9419 0.5357
5784000000.0 -0.1749 1.108
5788000000.0 0.7409 0.789
5791000000.0 1.091 -0.03787
5794000000.0 0.6732 -0.8464
5797000000.0 -0.2589 -1.047
5800000000.0 -0.9517 -0.4688
5803000000.0 -0.9645 0.425
5806000000.0 -0.3107 1.001
5809000000.0 0.5891 0.8685
5812000000.0 1.043 0.1395
5816000000.0 0.7357 -0.7094
5819000000.0 -0.1149 -1.02
5822000000.0 -0.8591 -0.5497
5825000000.0 -0.9602 0.2927
5828000000.0 -0.3841 0.9283
5831000000.0 0.4537 0.8719
5834000000.0 0.9415 0.1726
5838000000.0 0.7344 -0.6498
5841000000.0 -0.04532 -0.943
5844000000.0 -0.7572 -0.5906
5847000000.0 -0.9126 0.2199
5850000000.0 -0.4239 0.8404
5853000000.0 0.3784 0.8539
5856000000.0 0.8977 0.2122
5859000000.0 0.7494 -0.5791
5862000000.0 0.02535 -0.9217
5866000000.0 -0.7241 -0.5937
5869000000.0 -0.8847 0.1685
5872000000.0 -0.383 0.833
5875000000.0 0.3745 0.8061
5878000000.0 0.8374 0.2448
5881000000.0 0.6923 -0.5228
5884000000.0 0.06449 -0.8775
5888000000.0 -0.6594 -0.5935
5891000000.0 -0.8529 0.136
5894000000.0 -0.402 0.7465
5897000000.0 0.3058 0.7819
5900000000.0 0.8281 0.2609
5903000000.0 0.7205 -0.4725
5906000000.0 0.07189 -0.8647
5909000000.0 -0.6352 -0.631
5912000000.0 -0.8483 0.06291
5916000000.0 -0.4936 0.7277
5919000000.0 0.277 0.8432
5922000000.0 0.7923 0.3435
5925000000.0 0.7925 -0.4131
5928000000.0 0.1802 -0.8532
5931000000.0 -0.557 -0.6728
5934000000.0 -0.89 -0.05877
5938000000.0 -0.5787 0.684
5941000000.0 0.1442 0.9049
5944000000.0 0.7718 0.4724
5947000000.0 0.8503 -0.299
5950000000.0 0.3021 -0.8492
5953000000.0 -0.4786 -0.7746
5956000000.0 -0.9427 -0.1381
5959000000.0 -0.7185 0.6155
5962000000.0 0.03642 0.9366
5966000000.0 0.7051 0.6108
5969000000.0 0.9725 -0.1673
5972000000.0 0.4557 -0.8632
5975000000.0 -0.3744 -0.9055
5978000000.0 -0.8839 -0.3177
5981000000.0 -0.8235 0.5321
5984000000.0 -0.1456 0.9707
5988000000.0 0.6869 0.7551
5991000000.0 1.014 -0.06897
5994000000.0 0.6105 -0.8102
5997000000.0 -0.246 -1.01
6000000000.0 -0.8984 -0.4545
6003000000.0 -0.9207 0.423
6006000000.0 -0.2709 0.9565
6009000000.0 0.5902 0.8356
6012000000.0 1.007 0.0749
6016000000.0 0.6969 -0.7041
6019000000.0 -0.1107 -0.9801
6022000000.0 -0.8592 -0.5395
6025000000.0 -0.9563 0.335
6028000000.0 -0.3655 0.9133
6031000000.0 0.4828 0.8417
6034000000.0 0.9584 0.1653
6038000000.0 0.7276 -0.6354
6041000000.0 -0.04128 -0.9836
6044000000.0 -0.7642 -0.5739
6047000000.0 -0.9195 0.2359
6050000000.0 -0.3971 0.8522
6053000000.0 0.4029 0.8435
6056000000.0 0.898 0.2048
6059000000.0 0.7717 -0.57
6062000000.0 -0.01839 -0.9109
6066000000.0 -0.692 -0.5834
6069000000.0 -0.8915 0.1703
6072000000.0 -0.4132 0.7783
6075000000.0 0.3638 0.8132
6078000000.0 0.8702 0.2465
6081000000.0 0.7231 -0.5003
6084000000.0 0.05577 -0.8906
6088000000.0 -0.6334 -0.5616
6091000000.0 -0.8357 0.1498
6094000000.0 -0.4338 0.7219
6097000000.0 0.3181 0.8093
6100000000.0 0.8133 0.2703
6103000000.0 0.7318 -0.4221
6106000000.0 0.0797 -0.8485
6109000000.0 -0.5919 -0.6291
6112000000.0 -0.8803 0.07633
6116000000.0 -0.4695 0.7001
6119000000.0 0.2712 0.791
6122000000.0 0.8114 0.2815
6125000000.0 0.7618 -0.4173
6128000000.0 0.1443 -0.8686
6131000000.0 -0.5887 -0.6475
6134000000.0 -0.8705 0.02714
6138000000.0 -0.5068 0.7245
6141000000.0 0.2309 0.8473
6144000000.0 0.821 0.3898
6147000000.0 0.7986 -0.405
6150000000.0 0.1958 -0.9022
6153000000.0 -0.568 -0.7319
6156000000.0 -0.8902 -0.01788
6159000000.0 -0.5706 0.6968
6162000000.0 0.1455 0.878
6166000000.0 0.7938 0.4462
6169000000.0 0.8435 -0.3527
6172000000.0 0.2838 -0.9233
6175000000.0 -0.5211 -0.7888
6178000000.0 -0.9533 -0.09341
6181000000.0 -0.6567 0.6695
6184000000.0 0.1118 0.938
6188000000.0 0.7979 0.546
6191000000.0 0.9103 -0.29
6194000000.0 0.3389 -0.843
6197000000.0 -0.4297 -0.8317
6200000000.0 -0.9265 -0.1708
6203000000.0 -0.7234 0.5902
6206000000.0 0.001705 0.957
6209000000.0 0.7246 0.6322
6212000000.0 0.9167 -0.1939
6216000000.0 0.4634 -0.8093
6219000000.0 -0.356 -0.901
6222000000.0 -0.8654 -0.2765
6225000000.0 -0.7518 0.4624
6228000000.0 -0.1241 0.9094
6231000000.0 0.5769 0.6478
6234000000.0 0.9102 -0.04885
6238000000.0 0.5442 -0.7361
6241000000.0 -0.2507 -0.8769
6244000000.0 -0.7813 -0.3477
6247000000.0 -0.7773 0.3635
6250000000.0 -0.193 0.8199
6253000000.0 0.4533 0.701
6256000000.0 0.8238 0.04701
6259000000.0 0.6058 -0.5834
6262000000.0 -0.0725 -0.8296
6266000000.0 -0.6646 -0.4841
