! Created with skrf 1.8.0 (http://scikit-rf.org).
# Hz S RI R 50.0 
!freq ReS11 ImS11
4000000000.0 -0.1757 -1.524
4003000000.0 -1.259 -0.8628
4006000000.0 -1.397 0.4676
4009000000.0 -0.5283 1.459
4012000000.0 0.7703 1.3
4016000000.0 1.54 0.1872
4019000000.0 1.123 -1.081
4022000000.0 -0.1271 -1.54
4025000000.0 -1.288 -0.9268
4028000000.0 -1.519 0.4706
4031000000.0 -0.5636 1.47
4034000000.0 0.7764 1.404
4038000000.0 1.6 0.2607
4041000000.0 1.178 -1.123
4044000000.0 -0.118 -1.651
4047000000.0 -1.339 -0.9307
4050000000.0 -1.602 0.4385
4053000000.0 -0.6264 1.482
4056000000.0 0.7604 1.428
4059000000.0 1.585 0.3464
4062000000.0 1.239 -1.003
4066000000.0 0.05391 -1.627
4069000000.0 -1.235 -1.046
4072000000.0 -1.646 0.3106
4075000000.0 -0.808 1.408
4078000000.0 0.5276 1.554
4081000000.0 1.572 0.5388
4084000000.0 1.411 -0.8595
4088000000.0 0.2377 -1.665
4091000000.0 -1.109 -1.241
4094000000.0 -1.655 0.09484
4097000000.0 -0.996 1.292
4100000000.0 0.3961 1.579
4103000000.0 1.45 0.7139
4106000000.0 1.427 -0.6231
4109000000.0 0.4438 -1.503
4112000000.0 -0.8271 -1.275
4116000000.0 -1.497 -0.2117
4119000000.0 -1.127 0.9711
4122000000.0 0.04829 1.492
4125000000.0 1.15 0.9619
4128000000.0 1.489 -0.2196
4131000000.0 0.7815 -1.259
4134000000.0 -0.4085 -1.388
4138000000.0 -1.393 -0.5927
4141000000.0 -1.37 0.6431
4144000000.0 -0.388 1.461
4147000000.0 0.8639 1.244
4150000000.0 1.517 0.1229
4153000000.0 1.057 -1.052
4156000000.0 -0.0887 -1.514
4159000000.0 -1.242 -0.9176
4162000000.0 -1.487 0.3862
4166000000.0 -0.6576 1.333
4169000000.0 0.6468 1.385
4172000000.0 1.45 0.4391
4175000000.0 1.232 -0.8439
4178000000.0 0.1756 -1.488
4181000000.0 -1.043 -1.067
4184000000.0 -1.487 0.08817
4188000000.0 -0.8805 1.217
4191000000.0 0.3353 1.475
4194000000.0 1.385 0.6648
4197000000.0 1.413 -0.6661
4200000000.0 0.3957 -1.512
4203000000.0 -0.9457 -1.282
4206000000.0 -1.611 -0.03515
4209000000.0 -1.054 1.246
4212000000.0 0.3378 1.656
4216000000.0 1.513 0.7714
4219000000.0 1.487 -0.7147
4222000000.0 0.3602 -1.644
4225000000.0 -1.12 -1.316
4228000000.0 -1.662 0.1214
4231000000.0 -0.9311 1.363
4234000000.0 0.5447 1.605
4238000000.0 1.576 0.5592
4241000000.0 1.37 -0.9062
4244000000.0 0.08658 -1.617
4247000000.0 -1.184 -1.075
4250000000.0 -1.546 0.3149
4253000000.0 -0.6523 1.393
4256000000.0 0.6595 1.374
4259000000.0 1.495 0.3212
4262000000.0 1.165 -0.953
4266000000.0 -0.04749 -1.494
4269000000.0 -1.272 -0.8995
4272000000.0 -1.445 0.4347
4275000000.0 -0.5085 1.37
4278000000.0 0.7427 1.253
4281000000.0 1.452 0.1892
4284000000.0 1.005 -0.9852
4288000000.0 -0.1439 -1.385
4291000000.0 -1.167 -0.7363
4294000000.0 -1.321 0.4402
4297000000.0 -0.4902 1.235
4300000000.0 0.6717 1.137
4303000000.0 1.285 0.2373
4306000000.0 0.9934 -0.8265
4309000000.0 0.04359 -1.253
4312000000.0 -0.9593 -0.8553
4316000000.0 -1.264 0.189
4319000000.0 -0.6743 1.107
4322000000.0 0.3996 1.259
4325000000.0 1.215 0.4921
4328000000.0 1.205 -0.5993
4331000000.0 0.3296 -1.324
4334000000.0 -0.8175 -1.094
4338000000.0 -1.393 -0.06382
4341000000.0 -0.91 1.039
4344000000.0 0.2096 1.432
4347000000.0 1.202 0.7369
4350000000.0 1.361 -0.4807
4353000000.0 0.4958 -1.351
4356000000.0 -0.7083 -1.272
4359000000.0 -1.421 -0.2557
4362000000.0 -1.138 0.9433
4366000000.0 -0.007837 1.462
4369000000.0 1.135 0.9822
4372000000.0 1.487 -0.2688
4375000000.0 0.7193 -1.297
4378000000.0 -0.5101 -1.418
4381000000.0 -1.442 -0.5127
4384000000.0 -1.301 0.8252
4388000000.0 -0.1927 1.565
4391000000.0 1.082 1.102
4394000000.0 1.579 -0.1013
4397000000.0 0.8765 -1.319
4400000000.0 -0.4897 -1.512
4403000000.0 -1.473 -0.5384
4406000000.0 -1.344 0.7944
4409000000.0 -0.2114 1.587
4412000000.0 1.127 1.134
4416000000.0 1.568 -0.182
4419000000.0 0.8327 -1.304
4422000000.0 -0.5548 -1.425
4425000000.0 -1.442 -0.4314
4428000000.0 -1.244 0.8417
4431000000.0 -0.104 1.443
4434000000.0 1.07 0.9832
4438000000.0 1.426 -0.2425
4441000000.0 0.6391 -1.225
4444000000.0 -0.5651 -1.264
4447000000.0 -1.292 -0.3244
4450000000.0 -1.07 0.8067
4453000000.0 0.00679 1.294
4456000000.0 1.052 0.7727
4459000000.0 1.276 -0.3321
4462000000.0 0.482 -1.175
4466000000.0 -0.6169 -1.096
4469000000.0 -1.221 -0.1716
4472000000.0 -0.8697 0.8373
4475000000.0 0.1187 1.173
4478000000.0 0.9731 0.6329
4481000000.0 1.083 -0.4127
4484000000.0 0.3353 -1.103
4488000000.0 -0.6561 -0.9679
4491000000.0 -1.139 -0.1098
4494000000.0 -0.774 0.8254
4497000000.0 0.173 1.124
4500000000.0 0.9493 0.5497
4503000000.0 1.025 -0.4077
4506000000.0 0.3427 -1.038
4509000000.0 -0.6175 -0.9405
4512000000.0 -1.13 -0.104
4516000000.0 -0.7944 0.7944
4519000000.0 0.1275 1.1
4522000000.0 0.9501 0.6209
4525000000.0 1.105 -0.3408
4528000000.0 0.4392 -1.059
4531000000.0 -0.5785 -1.01
4534000000.0 -1.132 -0.2313
4538000000.0 -0.8967 0.7756
4541000000.0 0.01175 1.187
4544000000.0 0.9283 0.7196
4547000000.0 1.162 -0.2251
4550000000.0 0.5757 -1.072
4553000000.0 -0.4843 -1.097
4556000000.0 -1.119 -0.3799
4559000000.0 -1.054 0.6554
4562000000.0 -0.1854 1.237
4566000000.0 0.8673 0.9368
4569000000.0 1.268 -0.01517
4572000000.0 0.8023 -0.9833
4575000000.0 -0.2481 -1.258
4578000000.0 -1.164 -0.6257
4581000000.0 -1.224 0.5133
4584000000.0 -0.4131 1.269
4588000000.0 0.7417 1.142
4591000000.0 1.34 0.1543
4594000000.0 1.007 -0.9445
4597000000.0 -0.07264 -1.381
4600000000.0 -1.162 -0.8055
4603000000.0 -1.354 0.374
4606000000.0 -0.5892 1.308
4609000000.0 0.6009 1.229
4612000000.0 1.362 0.2916
4616000000.0 1.123 -0.8493
4619000000.0 0.05972 -1.392
4622000000.0 -1.062 -0.8911
4625000000.0 -1.366 0.2501
4628000000.0 -0.7 1.211
4631000000.0 0.4938 1.278
4634000000.0 1.317 0.3995
4638000000.0 1.136 -0.77
4641000000.0 0.1314 -1.345
4644000000.0 -0.9823 -0.9396
4647000000.0 -1.333 0.1707
4650000000.0 -0.6657 1.134
4653000000.0 0.4796 1.214
4656000000.0 1.237 0.3862
4659000000.0 1.054 -0.7131
4662000000.0 0.1149 -1.262
4666000000.0 -0.9346 -0.8371
4669000000.0 -1.204 0.1857
4672000000.0 -0.5977 1.029
4675000000.0 0.4439 1.095
4678000000.0 1.116 0.3275
4681000000.0 0.9475 -0.6673
4684000000.0 0.09554 -1.195
4688000000.0 -0.8538 -0.7687
4691000000.0 -1.112 0.1659
4694000000.0 -0.5681 1.009
4697000000.0 0.4249 1.005
4700000000.0 1.035 0.3116
4703000000.0 0.894 -0.6192
4706000000.0 0.05056 -1.071
4709000000.0 -0.8285 -0.7046
4712000000.0 -1.05 0.203
4716000000.0 -0.5059 0.945
4719000000.0 0.456 0.968
4722000000.0 1.031 0.2925
4725000000.0 0.8707 -0.6344
4728000000.0 0.04217 -1.04
4731000000.0 -0.7689 -0.6804
4734000000.0 -1.047 0.1589
4738000000.0 -0.5063 0.9079
4741000000.0 0.3616 0.9925
4744000000.0 0.9733 0.3313
4747000000.0 0.9204 -0.5686
4750000000.0 0.1948 -1.056
4753000000.0 -0.7368 -0.7944
4756000000.0 -1.088 0.01811
4759000000.0 -0.7007 0.8715
4762000000.0 0.2401 1.098
4766000000.0 0.9982 0.5107
4769000000.0 1.057 -0.4458
4772000000.0 0.3699 -1.104
4775000000.0 -0.6267 -0.9794
4778000000.0 -1.162 -0.1565
4781000000.0 -0.8905 0.7878
4784000000.0 0.04695 1.202
4788000000.0 0.9585 0.7177
4791000000.0 1.185 -0.2736
4794000000.0 0.5591 -1.076
4797000000.0 -0.4854 -1.155
4800000000.0 -1.201 -0.3909
4803000000.0 -1.053 0.6366
4806000000.0 -0.1922 1.228
4809000000.0 0.8584 0.9587
4812000000.0 1.288 -0.01544
4816000000.0 0.8178 -1.024
4819000000.0 -0.2774 -1.276
4822000000.0 -1.185 -0.6274
4825000000.0 -1.24 0.5153
4828000000.0 -0.4096 1.28
4831000000.0 0.7699 1.172
4834000000.0 1.376 0.1701
4838000000.0 0.9865 -0.9648
4841000000.0 -0.121 -1.39
4844000000.0 -1.16 -0.7764
4847000000.0 -1.329 0.4021
4850000000.0 -0.5406 1.31
4853000000.0 0.6819 1.236
4856000000.0 1.334 0.2624
4859000000.0 1.04 -0.8751
4862000000.0 -0.03261 -1.356
4866000000.0 -1.082 -0.8291
4869000000.0 -1.324 0.284
4872000000.0 -0.5746 1.174
4875000000.0 0.532 1.215
4878000000.0 1.25 0.3292
4881000000.0 1.033 -0.7432
4884000000.0 0.06003 -1.28
4888000000.0 -0.9552 -0.8319
4891000000.0 -1.196 0.2172
4894000000.0 -0.5954 1.053
4897000000.0 0.4464 1.055
4900000000.0 1.099 0.3404
4903000000.0 0.9282 -0.6268
4906000000.0 0.1012 -1.072
4909000000.0 -0.7594 -0.7086
4912000000.0 -1.051 0.1431
4916000000.0 -0.5458 0.866
4919000000.0 0.3495 0.9607
4922000000.0 0.9352 0.3328
4925000000.0 0.8217 -0.4822
4928000000.0 0.1775 -0.9632
4931000000.0 -0.6305 -0.7029
4934000000.0 -0.9712 0.04287
4938000000.0 -0.5549 0.7715
4941000000.0 0.2111 0.9049
4944000000.0 0.8612 0.417
4947000000.0 0.8603 -0.3891
4950000000.0 0.253 -0.9187
4953000000.0 -0.5717 -0.7924
4956000000.0 -0.9517 -0.05039
4959000000.0 -0.6492 0.7419
4962000000.0 0.1285 0.9641
4966000000.0 0.85 0.4734
4969000000.0 0.9433 -0.3307
4972000000.0 0.3266 -0.9297
4975000000.0 -0.5429 -0.8445
4978000000.0 -1.002 -0.1569
4981000000.0 -0.7611 0.6879
4984000000.0 0.07001 1.041
4988000000.0 0.8608 0.6229
4991000000.0 1.031 -0.2364
4994000000.0 0.4561 -0.9524
4997000000.0 -0.4428 -1.009
5000000000.0 -1.073 -0.3121
5003000000.0 -0.9276 0.6424
5006000000.0 -0.08879 1.172
5009000000.0 0.8193 0.8281
5012000000.0 1.195 -0.1274
5016000000.0 0.6629 -1.019
5019000000.0 -0.3627 -1.163
5022000000.0 -1.153 -0.4838
5025000000.0 -1.104 0.6118
5028000000.0 -0.2647 1.256
5031000000.0 0.8018 0.9952
5034000000.0 1.271 0.01848
5038000000.0 0.8374 -0.9776
5041000000.0 -0.223 -1.253
5044000000.0 -1.089 -0.6368
5047000000.0 -1.217 0.4469
5050000000.0 -0.4174 1.225
5053000000.0 0.637 1.123
5056000000.0 1.292 0.2123
5059000000.0 0.9766 -0.8563
5062000000.0 -0.03051 -1.31
5066000000.0 -1.011 -0.7827
5069000000.0 -1.264 0.2619
5072000000.0 -0.6536 1.097
5075000000.0 0.5117 1.211
5078000000.0 1.199 0.4183
5081000000.0 1.077 -0.7092
5084000000.0 0.1602 -1.234
5088000000.0 -0.8807 -0.8835
5091000000.0 -1.25 0.07967
5094000000.0 -0.6783 0.939
5097000000.0 0.2822 1.106
5100000000.0 1.047 0.521
5103000000.0 1.046 -0.471
5106000000.0 0.3306 -1.077
5109000000.0 -0.6067 -0.9303
5112000000.0 -1.058 -0.1535
5116000000.0 -0.7805 0.7394
5119000000.0 0.06754 1.056
5122000000.0 0.8721 0.588
5125000000.0 1.05 -0.2559
5128000000.0 0.4339 -0.9115
5131000000.0 -0.4063 -0.9197
5134000000.0 -0.9457 -0.2521
5138000000.0 -0.8363 0.5787
5141000000.0 -0.05999 0.9804
5144000000.0 0.7121 0.6827
5147000000.0 0.9277 -0.102
5150000000.0 0.5105 -0.8417
5153000000.0 -0.2725 -0.8973
5156000000.0 -0.8744 -0.2943
5159000000.0 -0.774 0.4521
5162000000.0 -0.153 0.9038
5166000000.0 0.5969 0.6693
5169000000.0 0.8906 -0.05187
5172000000.0 0.5131 -0.7248
5175000000.0 -0.1704 -0.8791
5178000000.0 -0.8069 -0.3258
5181000000.0 -0.8202 0.3773
5184000000.0 -0.1803 0.8885
5188000000.0 0.5629 0.7259
5191000000.0 0.9363 -0.03568
5194000000.0 0.5685 -0.7172
5197000000.0 -0.2158 -0.8814
5200000000.0 -0.8412 -0.3667
5203000000.0 -0.8404 0.412
5206000000.0 -0.2041 0.9432
5209000000.0 0.5813 0.7504
5212000000.0 0.9678 0.01719
5216000000.0 0.6269 -0.7523
5219000000.0 -0.2236 -0.9639
5222000000.0 -0.8639 -0.4446
5225000000.0 -0.9278 0.398
5228000000.0 -0.2495 0.957
5231000000.0 0.5863 0.8405
5234000000.0 1.031 0.05908
5238000000.0 0.7025 -0.7583
5241000000.0 -0.1075 -1.046
5244000000.0 -0.8879 -0.5561
5247000000.0 -0.9982 0.3141
5250000000.0 -0.3967 0.9848
5253000000.0 0.5196 0.9406
5256000000.0 1.041 0.1987
5259000000.0 0.8241 -0.6999
5262000000.0 0.02073 -1.08
5266000000.0 -0.8213 -0.7049
5269000000.0 -1.095 0.1756
5272000000.0 -0.5544 0.9485
5275000000.0 0.3376 1.034
5278000000.0 0.9877 0.3947
5281000000.0 0.9795 -0.5449
5284000000.0 0.2332 -1.073
5288000000.0 -0.6569 -0.8794
5291000000.0 -1.09 -0.02382
5294000000.0 -0.7793 0.8229
5297000000.0 0.1095 1.13
5300000000.0 0.9395 0.631
5303000000.0 1.083 -0.297
5306000000.0 0.4716 -1.025
5309000000.0 -0.5062 -1.014
5312000000.0 -1.068 -0.2956
5316000000.0 -0.9432 0.6537
5319000000.0 -0.12 1.152
5322000000.0 0.818 0.8311
5325000000.0 1.147 -0.06108
5328000000.0 0.6953 -0.9569
5331000000.0 -0.3364 -1.117
5334000000.0 -1.073 -0.4902
5338000000.0 -1.035 0.5132
5341000000.0 -0.2699 1.103
5344000000.0 0.6589 0.9117
5347000000.0 1.136 0.06343
5350000000.0 0.7225 -0.8144
5353000000.0 -0.1686 -1.113
5356000000.0 -0.9294 -0.5578
5359000000.0 -1.02 0.35
5362000000.0 -0.3322 1.01
5366000000.0 0.5718 0.9363
5369000000.0 1.077 0.09459
5372000000.0 0.7801 -0.7585
5375000000.0 -0.09584 -1.045
5378000000.0 -0.8743 -0.5845
5381000000.0 -0.9927 0.3384
5384000000.0 -0.3347 0.9422
5388000000.0 0.5342 0.8393
5391000000.0 0.9716 0.1216
5394000000.0 0.6529 -0.6842
5397000000.0 -0.08903 -0.9688
5400000000.0 -0.7898 -0.4955
5403000000.0 -0.8531 0.3225
5406000000.0 -0.2732 0.8577
5409000000.0 0.4542 0.7442
5412000000.0 0.8905 0.1179
5416000000.0 0.6057 -0.6242
5419000000.0 -0.08071 -0.8602
5422000000.0 -0.7323 -0.4487
5425000000.0 -0.8174 0.3202
5428000000.0 -0.2554 0.8288
5431000000.0 0.4889 0.7196
5434000000.0 0.8901 0.08274
5438000000.0 0.5973 -0.6364
5441000000.0 -0.09979 -0.9003
5444000000.0 -0.7596 -0.4384
5447000000.0 -0.8201 0.3185
5450000000.0 -0.2856 0.8461
5453000000.0 0.4868 0.7446
5456000000.0 0.8317 0.1275
5459000000.0 0.627 -0.6303
5462000000.0 -0.0577 -0.9255
5466000000.0 -0.7343 -0.509
5469000000.0 -0.8869 0.2317
5472000000.0 -0.4001 0.8277
5475000000.0 0.4066 0.854
5478000000.0 0.8946 0.2223
5481000000.0 0.7454 -0.5489
5484000000.0 0.08331 -0.9405
5488000000.0 -0.6994 -0.6523
5491000000.0 -0.9922 0.08448
5494000000.0 -0.5555 0.8321
5497000000.0 0.2673 0.9747
5500000000.0 0.9359 0.4203
5503000000.0 0.8859 -0.4441
5506000000.0 0.2613 -1.001
5509000000.0 -0.6109 -0.835
5512000000.0 -1.008 -0.07793
5516000000.0 -0.7076 0.748
5519000000.0 0.121 1.003
5522000000.0 0.8374 0.5939
5525000000.0 0.9899 -0.2779
5528000000.0 0.4593 -0.9927
5531000000.0 -0.4641 -0.9445
5534000000.0 -1.011 -0.2694
5538000000.0 -0.8842 0.6031
5541000000.0 -0.06971 1.057
5544000000.0 0.7344 0.8047
5547000000.0 1.05 -0.0927
5550000000.0 0.6268 -0.8602
5553000000.0 -0.2974 -1.05
5556000000.0 -0.9558 -0.4451
5559000000.0 -0.9737 0.4703
5562000000.0 -0.2362 1.03
5566000000.0 0.6146 0.8457
5569000000.0 1.034 0.0574
5572000000.0 0.6964 -0.7966
5575000000.0 -0.155 -0.9909
5578000000.0 -0.8653 -0.5261
5581000000.0 -0.9407 0.3244
5584000000.0 -0.3491 0.9312
5588000000.0 0.451 0.8706
5591000000.0 0.9413 0.1769
5594000000.0 0.7266 -0.6171
5597000000.0 -0.01063 -0.9403
5600000000.0 -0.7094 -0.5927
5603000000.0 -0.9061 0.1908
5606000000.0 -0.4027 0.8344
5609000000.0 0.348 0.8407
5612000000.0 0.8813 0.2248
5616000000.0 0.6951 -0.5047
5619000000.0 0.05084 -0.8781
5622000000.0 -0.6374 -0.5768
5625000000.0 -0.8385 0.1354
5628000000.0 -0.4265 0.7182
5631000000.0 0.2724 0.7931
5634000000.0 0.7866 0.256
5638000000.0 0.7111 -0.4557
5641000000.0 0.09225 -0.841
5644000000.0 -0.5975 -0.5771
5647000000.0 -0.8424 0.1144
5650000000.0 -0.4205 0.7464
5653000000.0 0.2816 0.7875
5656000000.0 0.8199 0.2824
5659000000.0 0.731 -0.4607
5662000000.0 0.08369 -0.858
5666000000.0 -0.6264 -0.5985
5669000000.0 -0.8665 0.08643
5672000000.0 -0.4975 0.7457
5675000000.0 0.3165 0.8394
5678000000.0 0.8577 0.3071
5681000000.0 0.8054 -0.4962
5684000000.0 0.1059 -0.9172
5688000000.0 -0.6507 -0.672
5691000000.0 -0.9596 0.08291
5694000000.0 -0.5537 0.779
5697000000.0 0.315 0.9265
5700000000.0 0.9184 0.3585
5703000000.0 0.8705 -0.5048
5706000000.0 0.1972 -1.015
5709000000.0 -0.6543 -0.778
5712000000.0 -1.015 0.039
5716000000.0 -0.5952 0.8569
5719000000.0 0.224 1.008
5722000000.0 0.9021 0.5048
5725000000.0 0.97 -0.4231
5728000000.0 0.3163 -1.046
5731000000.0 -0.5892 -0.8953
5734000000.0 -1.068 -0.07902
5738000000.0 -0.781 0.7849
5741000000.0 0.08649 1.063
5744000000.0 0.9037 0.6323
5747000000.0 1.074 -0.2949
5750000000.0 0.4669 -0.9579
5753000000.0 -0.4514 -0.9992
5756000000.0 -1.092 -0.2246
5759000000.0 -0.9125 0.6745
5762000000.0 -0.06179 1.112
5766000000.0 0.8173 0.7746
5769000000.0 1.105 -0.1073
5772000000.0 0.6192 -0.913
5775000000.0 -0.3173 -1.038
5778000000.0 -0.985 -0.4423
5781000000.0 -0.9985 0.5078
5784000000.0 -0.2507 1.08
5788000000.0 0.653 0.8926
5791000000.0 1.118 0.1016
5794000000.0 0.7161 -0.7735
5797000000.0 -0.1269 -1.093
5800000000.0 -0.9253 -0.5824
5803000000.0 -1.017 0.3512
5806000000.0 -0.4309 1.002
5809000000.0 0.5138 0.9143
5812000000.0 1.024 0.1776
5816000000.0 0.78 -0.6752
5819000000.0 -0.02832 -1.04
5822000000.0 -0.8233 -0.6405
5825000000.0 -1.01 0.2057
5828000000.0 -0.4516 0.904
5831000000.0 0.4103 0.9412
5834000000.0 0.976 0.2753
5838000000.0 0.7971 -0.5354
5841000000.0 0.08908 -0.9765
5844000000.0 -0.7243 -0.6847
5847000000.0 -0.9496 0.1274
5850000000.0 -0.5158 0.8238
5853000000.0 0.3417 0.9058
5856000000.0 0.8998 0.3238
5859000000.0 0.811 -0.5052
5862000000.0 0.1042 -0.92
5866000000.0 -0.638 -0.6266
5869000000.0 -0.8831 0.08571
5872000000.0 -0.4752 0.7607
5875000000.0 0.2836 0.8401
5878000000.0 0.8111 0.3246
5881000000.0 0.7569 -0.4615
5884000000.0 0.1502 -0.857
5888000000.0 -0.6088 -0.6461
5891000000.0 -0.8402 0.07387
5894000000.0 -0.485 0.7089
5897000000.0 0.2571 0.841
5900000000.0 0.8238 0.3203
5903000000.0 0.7605 -0.3853
5906000000.0 0.1625 -0.8367
5909000000.0 -0.5573 -0.647
5912000000.0 -0.8542 -0.04976
5916000000.0 -0.5484 0.6638
5919000000.0 0.1622 0.8271
5922000000.0 0.7761 0.4026
5925000000.0 0.7936 -0.341
5928000000.0 0.264 -0.8397
5931000000.0 -0.4993 -0.7385
5934000000.0 -0.8717 -0.1022
5938000000.0 -0.6406 0.6369
5941000000.0 0.06791 0.879
5944000000.0 0.7378 0.4813
5947000000.0 0.8873 -0.253
5950000000.0 0.3883 -0.8144
5953000000.0 -0.3974 -0.8186
5956000000.0 -0.8853 -0.2408
5959000000.0 -0.772 0.5524
5962000000.0 -0.05816 0.9229
5966000000.0 0.6654 0.6449
5969000000.0 0.9131 -0.09638
5972000000.0 0.5611 -0.7676
5975000000.0 -0.2912 -0.9076
5978000000.0 -0.9079 -0.3864
5981000000.0 -0.9115 0.4147
5984000000.0 -0.2339 0.9602
5988000000.0 0.575 0.8017
5991000000.0 1.007 0.05413
5994000000.0 0.6976 -0.7462
5997000000.0 -0.1365 -1.003
6000000000.0 -0.8397 -0.5673
6003000000.0 -0.915 0.3063
6006000000.0 -0.3571 0.9316
6009000000.0 0.4724 0.9095
6012000000.0 0.9748 0.1876
6016000000.0 0.7675 -0.6313
6019000000.0 -0.02126 -0.9936
6022000000.0 -0.7544 -0.6168
6025000000.0 -0.988 0.2055
6028000000.0 -0.4543 0.86
6031000000.0 0.4037 0.8987
6034000000.0 0.9454 0.2675
6038000000.0 0.8187 -0.5743
6041000000.0 0.06509 -0.9633
6044000000.0 -0.7244 -0.6479
6047000000.0 -0.9276 0.1197
6050000000.0 -0.4818 0.819
6053000000.0 0.2867 0.9105
6056000000.0 0.9033 0.3199
6059000000.0 0.8059 -0.4868
6062000000.0 0.1357 -0.929
6066000000.0 -0.6261 -0.6636
6069000000.0 -0.9095 0.08003
6072000000.0 -0.5256 0.766
6075000000.0 0.254 0.8569
6078000000.0 0.8155 0.3347
6081000000.0 0.7693 -0.4328
6084000000.0 0.1639 -0.8706
6088000000.0 -0.5498 -0.6509
6091000000.0 -0.8629 0.04061
6094000000.0 -0.5228 0.6957
6097000000.0 0.1764 0.8228
6100000000.0 0.7802 0.3665
6103000000.0 0.7904 -0.3609
6106000000.0 0.1818 -0.8321
6109000000.0 -0.5308 -0.6601
6112000000.0 -0.8533 -0.04377
6116000000.0 -0.5221 0.6495
6119000000.0 0.1521 0.8529
6122000000.0 0.7478 0.4259
6125000000.0 0.7951 -0.3509
6128000000.0 0.2212 -0.8427
6131000000.0 -0.5318 -0.7152
6134000000.0 -0.8551 -0.04701
6138000000.0 -0.603 0.6584
6141000000.0 0.1027 0.8715
6144000000.0 0.7525 0.4487
6147000000.0 0.8412 -0.2806
6150000000.0 0.3072 -0.8415
6153000000.0 -0.4539 -0.7634
6156000000.0 -0.8996 -0.1336
6159000000.0 -0.6523 0.6232
6162000000.0 0.05625 0.9337
6166000000.0 0.7474 0.5341
6169000000.0 0.894 -0.2213
6172000000.0 0.3971 -0.848
6175000000.0 -0.4104 -0.8607
6178000000.0 -0.9066 -0.2109
6181000000.0 -0.7706 0.5976
6184000000.0 -0.00591 0.9506
6188000000.0 0.6999 0.5934
6191000000.0 0.9298 -0.1592
6194000000.0 0.4602 -0.8462
6197000000.0 -0.3102 -0.8911
6200000000.0 -0.8876 -0.2939
6203000000.0 -0.7798 0.5355
6206000000.0 -0.1368 0.9234
6209000000.0 0.647 0.6972
6212000000.0 0.922 -0.0901
6216000000.0 0.5603 -0.7639
6219000000.0 -0.2246 -0.8818
6222000000.0 -0.8165 -0.3718
6225000000.0 -0.8033 0.4112
6228000000.0 -0.2412 0.883
6231000000.0 0.5091 0.7737
6234000000.0 0.9042 0.04314
6238000000.0 0.6337 -0.6568
6241000000.0 -0.1027 -0.8633
6244000000.0 -0.7392 -0.4876
6247000000.0 -0.8186 0.2591
6250000000.0 -0.3351 0.789
6253000000.0 0.399 0.7511
6256000000.0 0.8182 0.1911
6259000000.0 0.6788 -0.5014
6262000000.0 0.03111 -0.7923
6266000000.0 -0.5826 -0.5446
6269000000.0 -0.8165 0.1064
