! Created with skrf 1.8.0 (http://scikit-rf.org).
# Hz S RI R 50.0 
!freq ReS11 ImS11
4000000000.0 -0.3838 -1.485
4003000000.0 -1.432 -0.6279
4006000000.0 -1.347 0.7152
4009000000.0 -0.2695 1.47
4012000000.0 1.03 1.174
4016000000.0 1.582 -0.02702
4019000000.0 0.9569 -1.224
4022000000.0 -0.3834 -1.543
4025000000.0 -1.463 -0.6775
4028000000.0 -1.389 0.6886
4031000000.0 -0.3138 1.593
4034000000.0 1.038 1.238
4038000000.0 1.652 -9.19e-05
4041000000.0 0.9736 -1.311
4044000000.0 -0.3848 -1.615
4047000000.0 -1.536 -0.6824
4050000000.0 -1.505 0.7228
4053000000.0 -0.3842 1.568
4056000000.0 0.9728 1.323
4059000000.0 1.661 0.07031
4062000000.0 1.094 -1.231
4066000000.0 -0.253 -1.623
4069000000.0 -1.375 -0.8159
4072000000.0 -1.532 0.5401
4075000000.0 -0.5656 1.521
4078000000.0 0.8059 1.414
4081000000.0 1.609 0.3054
4084000000.0 1.251 -1.049
4088000000.0 -0.003187 -1.634
4091000000.0 -1.296 -1.035
4094000000.0 -1.602 0.3944
4097000000.0 -0.7879 1.434
4100000000.0 0.6703 1.496
4103000000.0 1.532 0.4487
4106000000.0 1.296 -0.8529
4109000000.0 0.1849 -1.515
4112000000.0 -1.058 -1.13
4116000000.0 -1.52 0.07878
4119000000.0 -0.9315 1.166
4122000000.0 0.2659 1.445
4125000000.0 1.274 0.7387
4128000000.0 1.394 -0.4901
4131000000.0 0.5204 -1.365
4134000000.0 -0.6723 -1.317
4138000000.0 -1.412 -0.3297
4141000000.0 -1.192 0.8487
4144000000.0 -0.1127 1.512
4147000000.0 1.084 1.06
4150000000.0 1.489 -0.1294
4153000000.0 0.8527 -1.234
4156000000.0 -0.4536 -1.485
4159000000.0 -1.386 -0.6045
4162000000.0 -1.319 0.6763
4166000000.0 -0.3421 1.446
4169000000.0 0.9218 1.201
4172000000.0 1.482 0.05443
4175000000.0 0.9866 -1.116
4178000000.0 -0.2004 -1.478
4181000000.0 -1.283 -0.7805
4184000000.0 -1.423 0.4824
4188000000.0 -0.5337 1.435
4191000000.0 0.7594 1.316
4194000000.0 1.517 0.23
4197000000.0 1.148 -1.073
4200000000.0 -0.07359 -1.556
4203000000.0 -1.339 -0.9081
4206000000.0 -1.514 0.4732
4209000000.0 -0.5584 1.52
4212000000.0 0.9169 1.387
4216000000.0 1.613 0.1047
4219000000.0 1.086 -1.29
4222000000.0 -0.3166 -1.611
4225000000.0 -1.51 -0.6933
4228000000.0 -1.455 0.7487
4231000000.0 -0.2466 1.581
4234000000.0 1.146 1.11
4238000000.0 1.598 -0.2005
4241000000.0 0.7472 -1.368
4244000000.0 -0.5706 -1.434
4247000000.0 -1.453 -0.3652
4250000000.0 -1.165 0.9333
4253000000.0 0.009967 1.463
4256000000.0 1.16 0.9269
4259000000.0 1.427 -0.3592
4262000000.0 0.5958 -1.279
4266000000.0 -0.6884 -1.245
4269000000.0 -1.396 -0.2196
4272000000.0 -1.007 0.9858
4275000000.0 0.07605 1.418
4278000000.0 1.137 0.8213
4281000000.0 1.325 -0.3839
4284000000.0 0.5338 -1.298
4288000000.0 -0.6767 -1.204
4291000000.0 -1.294 -0.2207
4294000000.0 -1.013 0.8577
4297000000.0 0.07727 1.327
4300000000.0 1.021 0.7889
4303000000.0 1.283 -0.2604
4306000000.0 0.5926 -1.119
4309000000.0 -0.4764 -1.249
4312000000.0 -1.226 -0.4482
4316000000.0 -1.118 0.6759
4319000000.0 -0.2095 1.292
4322000000.0 0.8548 1.001
4325000000.0 1.354 -0.02617
4328000000.0 0.8427 -1.075
4331000000.0 -0.2514 -1.373
4334000000.0 -1.198 -0.7223
4338000000.0 -1.334 0.5167
4341000000.0 -0.4616 1.39
4344000000.0 0.7671 1.232
4347000000.0 1.459 0.1585
4350000000.0 1.046 -1.018
4353000000.0 -0.1014 -1.491
4356000000.0 -1.236 -0.8603
4359000000.0 -1.465 0.4237
4362000000.0 -0.6026 1.386
4366000000.0 0.6895 1.328
4369000000.0 1.475 0.3046
4372000000.0 1.172 -0.9553
4375000000.0 0.01201 -1.549
4378000000.0 -1.231 -0.9578
4381000000.0 -1.511 0.368
4384000000.0 -0.7011 1.408
4388000000.0 0.6863 1.423
4391000000.0 1.521 0.3289
4394000000.0 1.218 -1.011
4397000000.0 -0.0148 -1.586
4400000000.0 -1.276 -0.9348
4403000000.0 -1.492 0.4536
4406000000.0 -0.5431 1.42
4409000000.0 0.8153 1.299
4412000000.0 1.458 0.1229
4416000000.0 0.9868 -1.071
4419000000.0 -0.2277 -1.435
4422000000.0 -1.227 -0.6321
4425000000.0 -1.27 0.5827
4428000000.0 -0.316 1.309
4431000000.0 0.8542 1.041
4434000000.0 1.343 -0.02762
4438000000.0 0.7574 -1.03
4441000000.0 -0.3491 -1.207
4444000000.0 -1.161 -0.4448
4447000000.0 -1.067 0.6671
4450000000.0 -0.1454 1.199
4453000000.0 0.8473 0.8451
4456000000.0 1.221 -0.1478
4459000000.0 0.613 -1.051
4462000000.0 -0.4393 -1.121
4466000000.0 -1.178 -0.3818
4469000000.0 -0.9763 0.6768
4472000000.0 -0.02582 1.184
4475000000.0 0.9259 0.7673
4478000000.0 1.186 -0.2248
4481000000.0 0.5744 -1.06
4484000000.0 -0.464 -1.099
4488000000.0 -1.141 -0.325
4491000000.0 -0.9515 0.7064
4494000000.0 -0.07648 1.191
4497000000.0 0.8675 0.8432
4500000000.0 1.195 -0.1769
4503000000.0 0.592 -1.003
4506000000.0 -0.3532 -1.094
4509000000.0 -1.111 -0.4184
4512000000.0 -1.042 0.5781
4516000000.0 -0.1687 1.193
4519000000.0 0.8152 0.945
4522000000.0 1.225 -0.0527
4525000000.0 0.7754 -1.005
4528000000.0 -0.2709 -1.204
4531000000.0 -1.119 -0.5466
4534000000.0 -1.173 0.5222
4538000000.0 -0.3387 1.254
4541000000.0 0.7207 1.07
4544000000.0 1.301 0.15
4547000000.0 0.929 -0.9415
4550000000.0 -0.1304 -1.303
4553000000.0 -1.084 -0.7814
4556000000.0 -1.281 0.3546
4559000000.0 -0.5564 1.226
4562000000.0 0.559 1.211
4566000000.0 1.306 0.3438
4569000000.0 1.107 -0.8109
4572000000.0 0.1147 -1.403
4575000000.0 -1.0 -0.9333
4578000000.0 -1.364 0.1661
4581000000.0 -0.7557 1.182
4584000000.0 0.4232 1.36
4588000000.0 1.321 0.4837
4591000000.0 1.236 -0.6999
4594000000.0 0.2476 -1.419
4597000000.0 -0.9375 -1.074
4600000000.0 -1.41 0.05863
4603000000.0 -0.8196 1.127
4606000000.0 0.3648 1.352
4609000000.0 1.295 0.5714
4612000000.0 1.243 -0.6577
4616000000.0 0.2845 -1.336
4619000000.0 -0.8508 -1.054
4622000000.0 -1.376 0.03513
4625000000.0 -0.8017 1.071
4628000000.0 0.3093 1.306
4631000000.0 1.2 0.5524
4634000000.0 1.151 -0.5814
4638000000.0 0.2594 -1.281
4641000000.0 -0.8076 -0.9705
4644000000.0 -1.265 0.01488
4647000000.0 -0.7603 0.9914
4650000000.0 0.3235 1.202
4653000000.0 1.075 0.486
4656000000.0 1.059 -0.5835
4659000000.0 0.1997 -1.158
4662000000.0 -0.788 -0.8772
4666000000.0 -1.149 0.09009
4669000000.0 -0.6516 0.9617
4672000000.0 0.3691 1.056
4675000000.0 1.037 0.4329
4678000000.0 0.95 -0.5531
4681000000.0 0.1795 -1.093
4684000000.0 -0.7559 -0.7962
4688000000.0 -1.079 0.08698
4691000000.0 -0.6335 0.8784
4694000000.0 0.3435 1.037
4697000000.0 1.015 0.4451
4700000000.0 0.984 -0.5219
4703000000.0 0.2182 -1.088
4706000000.0 -0.7249 -0.8529
4709000000.0 -1.139 0.03529
4712000000.0 -0.6674 0.8793
4716000000.0 0.2678 1.1
4719000000.0 1.033 0.4788
4722000000.0 1.011 -0.4773
4725000000.0 0.2571 -1.105
4728000000.0 -0.6833 -0.9089
4731000000.0 -1.158 -0.04726
4734000000.0 -0.8111 0.8525
4738000000.0 0.1654 1.15
4741000000.0 0.9617 0.5913
4744000000.0 1.111 -0.3337
4747000000.0 0.4631 -1.063
4750000000.0 -0.563 -1.061
4753000000.0 -1.159 -0.2318
4756000000.0 -1.002 0.7288
4759000000.0 -0.06417 1.211
4762000000.0 0.9214 0.8438
4766000000.0 1.23 -0.1569
4769000000.0 0.7 -1.104
4772000000.0 -0.4067 -1.21
4775000000.0 -1.198 -0.4617
4778000000.0 -1.175 0.6406
4781000000.0 -0.3047 1.3
4784000000.0 0.8065 1.036
4788000000.0 1.359 0.0188
4791000000.0 0.8849 -1.013
4794000000.0 -0.218 -1.336
4797000000.0 -1.159 -0.7218
4800000000.0 -1.305 0.4647
4803000000.0 -0.4632 1.243
4806000000.0 0.6771 1.186
4809000000.0 1.344 0.2554
4812000000.0 1.048 -0.9045
4816000000.0 -0.02533 -1.408
4819000000.0 -1.098 -0.8672
4822000000.0 -1.354 0.3288
4825000000.0 -0.607 1.261
4828000000.0 0.5956 1.259
4831000000.0 1.365 0.3196
4834000000.0 1.105 -0.8429
4838000000.0 0.04383 -1.362
4841000000.0 -1.05 -0.8693
4844000000.0 -1.343 0.2799
4847000000.0 -0.6172 1.169
4850000000.0 0.4975 1.21
4853000000.0 1.226 0.3386
4856000000.0 1.022 -0.741
4859000000.0 0.06057 -1.237
4862000000.0 -0.874 -0.8048
4866000000.0 -1.186 0.1733
4869000000.0 -0.5811 1.042
4872000000.0 0.4283 1.059
4875000000.0 1.092 0.3401
4878000000.0 0.9228 -0.6318
4881000000.0 0.07012 -1.104
4884000000.0 -0.7763 -0.7317
4888000000.0 -1.04 0.1748
4891000000.0 -0.5063 0.9352
4894000000.0 0.3729 0.961
4897000000.0 0.9719 0.3032
4900000000.0 0.8393 -0.5329
4903000000.0 0.08828 -0.9559
4906000000.0 -0.7082 -0.6833
4909000000.0 -0.9511 0.139
4912000000.0 -0.487 0.8012
4916000000.0 0.3029 0.899
4919000000.0 0.8604 0.3238
4922000000.0 0.7916 -0.4881
4925000000.0 0.1232 -0.941
4928000000.0 -0.6516 -0.6996
4931000000.0 -0.9636 0.04699
4934000000.0 -0.5551 0.7718
4938000000.0 0.2573 0.9165
4941000000.0 0.9372 0.4252
4944000000.0 0.8927 -0.43
4947000000.0 0.2363 -0.9746
4950000000.0 -0.6449 -0.8178
4953000000.0 -1.06 -0.01655
4956000000.0 -0.6912 0.8262
4959000000.0 0.1924 1.046
4962000000.0 0.9797 0.5321
4966000000.0 1.044 -0.4488
4969000000.0 0.328 -1.099
4972000000.0 -0.6405 -0.9767
4975000000.0 -1.168 -0.1225
4978000000.0 -0.8208 0.8536
4981000000.0 0.1241 1.214
4984000000.0 1.015 0.6606
4988000000.0 1.207 -0.3556
4991000000.0 0.4874 -1.138
4994000000.0 -0.6023 -1.104
4997000000.0 -1.246 -0.2368
5000000000.0 -0.9812 0.8456
5003000000.0 0.03478 1.295
5006000000.0 1.023 0.791
5009000000.0 1.3 -0.2854
5012000000.0 0.5482 -1.201
5016000000.0 -0.6018 -1.221
5019000000.0 -1.294 -0.3013
5022000000.0 -1.051 0.7977
5025000000.0 -0.01546 1.33
5028000000.0 1.001 0.8344
5031000000.0 1.249 -0.2541
5034000000.0 0.6057 -1.1
5038000000.0 -0.4818 -1.193
5041000000.0 -1.193 -0.3927
5044000000.0 -0.9992 0.6647
5047000000.0 -0.1344 1.208
5050000000.0 0.8477 0.8393
5053000000.0 1.178 -0.0941
5056000000.0 0.6482 -0.9678
5059000000.0 -0.3618 -1.079
5062000000.0 -1.033 -0.4524
5066000000.0 -0.9707 0.5314
5069000000.0 -0.1904 1.104
5072000000.0 0.6625 0.7818
5075000000.0 1.052 -0.04765
5078000000.0 0.6131 -0.8325
5081000000.0 -0.2607 -1.012
5084000000.0 -0.9421 -0.3867
5088000000.0 -0.8641 0.4691
5091000000.0 -0.156 0.981
5094000000.0 0.6233 0.697
5097000000.0 0.9259 -0.05135
5100000000.0 0.5037 -0.7677
5103000000.0 -0.2673 -0.8943
5106000000.0 -0.8342 -0.317
5109000000.0 -0.7386 0.4518
5112000000.0 -0.1113 0.857
5116000000.0 0.6299 0.596
5119000000.0 0.8755 -0.131
5122000000.0 0.3983 -0.7884
5125000000.0 -0.3588 -0.8374
5128000000.0 -0.8881 -0.2262
5131000000.0 -0.6668 0.5668
5134000000.0 0.02582 0.905
5138000000.0 0.7301 0.5299
5141000000.0 0.8659 -0.2856
5144000000.0 0.29 -0.8643
5147000000.0 -0.5416 -0.7842
5150000000.0 -0.97 -0.06776
5153000000.0 -0.6456 0.7301
5156000000.0 0.153 0.9494
5159000000.0 0.8714 0.4743
5162000000.0 0.8855 -0.3973
5166000000.0 0.2161 -0.9439
5169000000.0 -0.6399 -0.7895
5172000000.0 -1.01 -0.02768
5175000000.0 -0.6186 0.8268
5178000000.0 0.2454 1.005
5181000000.0 0.9602 0.4196
5184000000.0 0.9506 -0.457
5188000000.0 0.217 -1.053
5191000000.0 -0.6867 -0.8216
5194000000.0 -1.076 0.04309
5197000000.0 -0.6667 0.848
5200000000.0 0.2471 1.034
5203000000.0 1.003 0.454
5206000000.0 0.9607 -0.5017
5209000000.0 0.2161 -1.078
5212000000.0 -0.6943 -0.8203
5216000000.0 -1.069 0.003473
5219000000.0 -0.6752 0.865
5222000000.0 0.257 1.046
5225000000.0 0.9952 0.4237
5228000000.0 0.9559 -0.5016
5231000000.0 0.2303 -1.062
5234000000.0 -0.677 -0.8296
5238000000.0 -1.072 0.0382
5241000000.0 -0.632 0.8681
5244000000.0 0.2591 1.012
5247000000.0 0.9692 0.4262
5250000000.0 0.9161 -0.5423
5253000000.0 0.1305 -1.022
5256000000.0 -0.7466 -0.6756
5259000000.0 -0.9865 0.1753
5262000000.0 -0.4583 0.8967
5266000000.0 0.4205 0.9034
5269000000.0 0.9915 0.1845
5272000000.0 0.7386 -0.6964
5275000000.0 -0.1052 -0.9514
5278000000.0 -0.8398 -0.4927
5281000000.0 -0.8803 0.3773
5284000000.0 -0.2024 0.9176
5288000000.0 0.6212 0.7077
5291000000.0 0.9199 -0.1102
5294000000.0 0.4699 -0.79
5297000000.0 -0.4023 -0.8858
5300000000.0 -0.8813 -0.1857
5303000000.0 -0.697 0.6147
5306000000.0 0.08582 0.9543
5309000000.0 0.7821 0.4977
5312000000.0 0.8811 -0.3565
5316000000.0 0.2485 -0.9099
5319000000.0 -0.5679 -0.7464
5322000000.0 -0.9591 -0.03081
5325000000.0 -0.5968 0.7679
5328000000.0 0.2471 0.9455
5331000000.0 0.885 0.3954
5334000000.0 0.8669 -0.4841
5338000000.0 0.1576 -0.9961
5341000000.0 -0.6674 -0.7765
5344000000.0 -1.044 0.07555
5347000000.0 -0.6062 0.8193
5350000000.0 0.2864 0.968
5353000000.0 0.9711 0.3849
5356000000.0 0.9199 -0.5269
5359000000.0 0.2032 -1.037
5362000000.0 -0.6625 -0.8466
5366000000.0 -1.051 -0.01608
5369000000.0 -0.7072 0.8492
5372000000.0 0.2364 1.097
5375000000.0 0.991 0.53
5378000000.0 1.062 -0.4693
5381000000.0 0.2897 -1.131
5384000000.0 -0.664 -0.9099
5388000000.0 -1.141 -0.1058
5391000000.0 -0.7796 0.8245
5394000000.0 0.1726 1.141
5397000000.0 0.9737 0.5965
5400000000.0 1.075 -0.3722
5403000000.0 0.407 -1.093
5406000000.0 -0.5873 -0.9971
5409000000.0 -1.161 -0.1322
5412000000.0 -0.8353 0.7792
5416000000.0 0.09043 1.153
5419000000.0 0.9423 0.6482
5422000000.0 1.085 -0.3297
5425000000.0 0.3835 -1.062
5428000000.0 -0.588 -0.9731
5431000000.0 -1.119 -0.1139
5434000000.0 -0.7619 0.8237
5438000000.0 0.1526 1.09
5441000000.0 0.9416 0.5474
5444000000.0 0.9818 -0.4535
5447000000.0 0.2544 -1.033
5450000000.0 -0.6216 -0.8123
5453000000.0 -1.023 0.0152
5456000000.0 -0.6033 0.7983
5459000000.0 0.2996 0.9384
5462000000.0 0.8855 0.3421
5466000000.0 0.7781 -0.4858
5469000000.0 0.08472 -0.928
5472000000.0 -0.6333 -0.6125
5475000000.0 -0.865 0.1677
5478000000.0 -0.4067 0.7789
5481000000.0 0.3859 0.7953
5484000000.0 0.8812 0.2136
5488000000.0 0.6653 -0.526
5491000000.0 -0.03805 -0.8555
5494000000.0 -0.6669 -0.5124
5497000000.0 -0.8204 0.2152
5500000000.0 -0.3432 0.768
5503000000.0 0.3991 0.7619
5506000000.0 0.8136 0.1633
5509000000.0 0.6174 -0.5918
5512000000.0 -0.03282 -0.8598
5516000000.0 -0.7209 -0.502
5519000000.0 -0.8369 0.2518
5522000000.0 -0.3538 0.7907
5525000000.0 0.4127 0.7636
5528000000.0 0.8479 0.1791
5531000000.0 0.7319 -0.5487
5534000000.0 0.01101 -0.8779
5538000000.0 -0.7039 -0.6024
5541000000.0 -0.8945 0.1667
5544000000.0 -0.479 0.8712
5547000000.0 0.3421 0.9063
5550000000.0 0.8929 0.2957
5553000000.0 0.8483 -0.5346
5556000000.0 0.08142 -0.9931
5559000000.0 -0.6558 -0.7576
5562000000.0 -1.026 0.05499
5566000000.0 -0.5855 0.8317
5569000000.0 0.2709 0.9749
5572000000.0 0.9224 0.4101
5575000000.0 0.9241 -0.412
5578000000.0 0.2763 -0.9767
5581000000.0 -0.6178 -0.8596
5584000000.0 -1.045 -0.05209
5588000000.0 -0.7029 0.7517
5591000000.0 0.1341 1.022
5594000000.0 0.8954 0.56
5597000000.0 0.985 -0.3438
5600000000.0 0.3974 -0.9923
5603000000.0 -0.5206 -0.9347
5606000000.0 -1.016 -0.2096
5609000000.0 -0.7941 0.6701
5612000000.0 -0.01306 1.026
5616000000.0 0.7988 0.6501
5619000000.0 1.005 -0.1963
5622000000.0 0.4719 -0.9335
5625000000.0 -0.4026 -0.9441
5628000000.0 -0.9518 -0.2814
5631000000.0 -0.8452 0.5684
5634000000.0 -0.0879 0.9769
5638000000.0 0.7385 0.6534
5641000000.0 0.9748 -0.1269
5644000000.0 0.5151 -0.8273
5647000000.0 -0.3362 -0.8975
5650000000.0 -0.871 -0.2843
5653000000.0 -0.8078 0.5093
5656000000.0 -0.08765 0.9549
5659000000.0 0.6587 0.6459
5662000000.0 0.941 -0.1064
5666000000.0 0.4654 -0.7848
5669000000.0 -0.3202 -0.8418
5672000000.0 -0.8908 -0.2317
5675000000.0 -0.731 0.5093
5678000000.0 -0.06994 0.919
5681000000.0 0.6603 0.5828
5684000000.0 0.8991 -0.1652
5688000000.0 0.4268 -0.8138
5691000000.0 -0.3907 -0.8
5694000000.0 -0.9065 -0.1925
5697000000.0 -0.7089 0.5637
5700000000.0 0.01691 0.9026
5703000000.0 0.7637 0.5668
5706000000.0 0.8712 -0.2468
5709000000.0 0.3716 -0.8577
5712000000.0 -0.4636 -0.8333
5716000000.0 -0.9117 -0.1617
5719000000.0 -0.7085 0.6399
5722000000.0 0.0556 0.9387
5725000000.0 0.8075 0.5783
5728000000.0 0.9483 -0.2702
5731000000.0 0.3916 -0.864
5734000000.0 -0.4889 -0.8719
5738000000.0 -0.9749 -0.1662
5741000000.0 -0.7403 0.6404
5744000000.0 -0.02193 1.017
5747000000.0 0.7881 0.6201
5750000000.0 1.028 -0.2518
5753000000.0 0.4608 -0.915
5756000000.0 -0.4261 -0.9588
5759000000.0 -1.013 -0.2876
5762000000.0 -0.8406 0.6005
5766000000.0 -0.05419 1.033
5769000000.0 0.7579 0.7357
5772000000.0 1.057 -0.1539
5775000000.0 0.539 -0.9053
5778000000.0 -0.3136 -1.007
5781000000.0 -0.9809 -0.3857
5784000000.0 -0.9164 0.5151
5788000000.0 -0.234 1.048
5791000000.0 0.6799 0.8084
5794000000.0 1.071 -0.006636
5797000000.0 0.6839 -0.8081
5800000000.0 -0.1903 -1.059
5803000000.0 -0.9655 -0.5318
5806000000.0 -1.035 0.3754
5809000000.0 -0.375 0.999
5812000000.0 0.5617 0.9269
5816000000.0 1.052 0.1321
5819000000.0 0.7957 -0.7128
5822000000.0 -0.04786 -1.064
5825000000.0 -0.8664 -0.6508
5828000000.0 -1.038 0.2342
5831000000.0 -0.4528 0.9482
5834000000.0 0.434 0.967
5838000000.0 1.021 0.2493
5841000000.0 0.8288 -0.5698
5844000000.0 0.06074 -1.052
5847000000.0 -0.7523 -0.7398
5850000000.0 -1.009 0.1412
5853000000.0 -0.5534 0.8585
5856000000.0 0.345 0.9691
5859000000.0 0.9593 0.3361
5862000000.0 0.8815 -0.547
5866000000.0 0.134 -0.976
5869000000.0 -0.6774 -0.6822
5872000000.0 -0.961 0.09037
5875000000.0 -0.5448 0.8136
5878000000.0 0.2908 0.9003
5881000000.0 0.8766 0.3447
5884000000.0 0.7945 -0.4429
5888000000.0 0.1333 -0.9415
5891000000.0 -0.6246 -0.6825
5894000000.0 -0.9024 0.0351
5897000000.0 -0.5334 0.7544
5900000000.0 0.2348 0.8696
5903000000.0 0.8245 0.3327
5906000000.0 0.7575 -0.4343
5909000000.0 0.1525 -0.877
5912000000.0 -0.573 -0.6535
5916000000.0 -0.8712 0.05095
5919000000.0 -0.5097 0.6877
5922000000.0 0.2025 0.8232
5925000000.0 0.7934 0.3583
5928000000.0 0.7619 -0.4139
5931000000.0 0.144 -0.8603
5934000000.0 -0.5218 -0.6484
5938000000.0 -0.839 0.006506
5941000000.0 -0.5167 0.6556
5944000000.0 0.1724 0.8504
5947000000.0 0.7094 0.3944
5950000000.0 0.7552 -0.3608
5953000000.0 0.2487 -0.7943
5956000000.0 -0.4747 -0.7221
5959000000.0 -0.8696 -0.06964
5962000000.0 -0.5983 0.6329
5966000000.0 0.06962 0.8808
5969000000.0 0.7229 0.5002
5972000000.0 0.8343 -0.216
5975000000.0 0.3742 -0.826
5978000000.0 -0.3901 -0.7996
5981000000.0 -0.8583 -0.2228
5984000000.0 -0.7356 0.5441
5988000000.0 -0.07748 0.9247
5991000000.0 0.6559 0.6321
5994000000.0 0.9395 -0.1047
5997000000.0 0.515 -0.8287
6000000000.0 -0.2912 -0.9059
6003000000.0 -0.8926 -0.3296
6006000000.0 -0.8338 0.4668
6009000000.0 -0.1729 0.9584
6012000000.0 0.6292 0.7532
6016000000.0 0.9798 0.01844
6019000000.0 0.6566 -0.7455
6022000000.0 -0.155 -0.9638
6025000000.0 -0.8409 -0.4558
6028000000.0 -0.9153 0.3517
6031000000.0 -0.3203 0.9458
6034000000.0 0.5288 0.849
6038000000.0 0.9836 0.148
6041000000.0 0.7321 -0.6787
6044000000.0 -0.04694 -0.9822
6047000000.0 -0.8063 -0.5719
6050000000.0 -0.9838 0.2767
6053000000.0 -0.3862 0.9004
6056000000.0 0.449 0.8937
6059000000.0 0.988 0.1877
6062000000.0 0.7605 -0.63
6066000000.0 -0.005326 -0.9868
6069000000.0 -0.7607 -0.6032
6072000000.0 -0.9302 0.2102
6075000000.0 -0.4523 0.8484
6078000000.0 0.3888 0.8446
6081000000.0 0.923 0.2531
6084000000.0 0.733 -0.5615
6088000000.0 0.02855 -0.9348
6091000000.0 -0.6835 -0.6146
6094000000.0 -0.8938 0.1483
6097000000.0 -0.4612 0.7752
6100000000.0 0.3277 0.8661
6103000000.0 0.8634 0.2612
6106000000.0 0.7183 -0.537
6109000000.0 0.07585 -0.9005
6112000000.0 -0.6495 -0.5994
6116000000.0 -0.8615 0.1232
6119000000.0 -0.4237 0.7542
6122000000.0 0.2854 0.8002
6125000000.0 0.816 0.2531
6128000000.0 0.7276 -0.4617
6131000000.0 0.1222 -0.8304
6134000000.0 -0.6169 -0.5798
6138000000.0 -0.865 0.09658
6141000000.0 -0.4202 0.7647
6144000000.0 0.2731 0.8026
6147000000.0 0.7915 0.2795
6150000000.0 0.7162 -0.4475
6153000000.0 0.1392 -0.8543
6156000000.0 -0.6049 -0.6244
6159000000.0 -0.8464 0.03563
6162000000.0 -0.4936 0.7019
6166000000.0 0.2492 0.8372
6169000000.0 0.7939 0.3384
6172000000.0 0.7868 -0.4001
6175000000.0 0.1819 -0.8577
6178000000.0 -0.582 -0.6886
6181000000.0 -0.8912 0.03921
6184000000.0 -0.5685 0.6963
6188000000.0 0.1575 0.8984
6191000000.0 0.7649 0.4054
6194000000.0 0.8207 -0.3715
6197000000.0 0.2512 -0.861
6200000000.0 -0.5051 -0.7264
6203000000.0 -0.8925 -0.1015
6206000000.0 -0.6154 0.6543
6209000000.0 0.1297 0.9094
6212000000.0 0.7511 0.4891
6216000000.0 0.8595 -0.2954
6219000000.0 0.3234 -0.8296
6222000000.0 -0.4573 -0.7757
6225000000.0 -0.8793 -0.1491
6228000000.0 -0.6587 0.5864
6231000000.0 0.02632 0.9069
6234000000.0 0.7194 0.5407
6238000000.0 0.8506 -0.2032
6241000000.0 0.3974 -0.805
6244000000.0 -0.3378 -0.79
6247000000.0 -0.8292 -0.2369
6250000000.0 -0.7192 0.454
6253000000.0 -0.02111 0.8465
6256000000.0 0.6037 0.5956
6259000000.0 0.7999 -0.07036
6262000000.0 0.4792 -0.6618
6266000000.0 -0.2173 -0.8109
6269000000.0 -0.737 -0.3469
