! Created with skrf 1.8.0 (http://scikit-rf.org).
# Hz S RI R 50.0 
!freq ReS11 ImS11
4000000000.0 -0.9229 -1.196
4003000000.0 -1.539 -0.04808
4006000000.0 -0.9701 1.16
4009000000.0 0.2813 1.551
4012000000.0 1.389 0.7102
4016000000.0 1.482 -0.6587
4019000000.0 0.4213 -1.569
4022000000.0 -1.001 -1.302
4025000000.0 -1.658 -0.02747
4028000000.0 -1.073 1.218
4031000000.0 0.3451 1.687
4034000000.0 1.517 0.7286
4038000000.0 1.505 -0.6969
4041000000.0 0.3699 -1.657
4044000000.0 -1.076 -1.276
4047000000.0 -1.685 0.03142
4050000000.0 -1.081 1.306
4053000000.0 0.3449 1.632
4056000000.0 1.469 0.7286
4059000000.0 1.517 -0.6289
4062000000.0 0.4465 -1.564
4066000000.0 -0.8782 -1.334
4069000000.0 -1.612 -0.1428
4072000000.0 -1.139 1.153
4075000000.0 0.137 1.581
4078000000.0 1.323 0.902
4081000000.0 1.528 -0.488
4084000000.0 0.6239 -1.47
4088000000.0 -0.7329 -1.381
4091000000.0 -1.542 -0.2947
4094000000.0 -1.211 1.013
4097000000.0 0.002894 1.558
4100000000.0 1.182 0.9404
4103000000.0 1.493 -0.3029
4106000000.0 0.7339 -1.282
4109000000.0 -0.5439 -1.405
4112000000.0 -1.4 -0.4283
4116000000.0 -1.204 0.7424
4119000000.0 -0.1994 1.43
4122000000.0 0.9336 1.051
4125000000.0 1.4 -0.0335
4128000000.0 0.8761 -1.121
4131000000.0 -0.2964 -1.402
4134000000.0 -1.249 -0.6771
4138000000.0 -1.289 0.5336
4141000000.0 -0.4237 1.387
4144000000.0 0.7746 1.164
4147000000.0 1.441 0.1062
4150000000.0 0.9679 -1.041
4153000000.0 -0.22 -1.426
4156000000.0 -1.257 -0.7086
4159000000.0 -1.339 0.5663
4162000000.0 -0.3588 1.377
4166000000.0 0.9116 1.128
4169000000.0 1.467 -0.02348
4172000000.0 0.856 -1.199
4175000000.0 -0.4108 -1.386
4178000000.0 -1.36 -0.4963
4181000000.0 -1.201 0.8018
4184000000.0 -0.08261 1.457
4188000000.0 1.126 0.9132
4191000000.0 1.386 -0.345
4194000000.0 0.5696 -1.359
4197000000.0 -0.8038 -1.227
4200000000.0 -1.453 -0.06638
4203000000.0 -0.9375 1.152
4206000000.0 0.4188 1.463
4209000000.0 1.373 0.5019
4212000000.0 1.229 -0.8211
4216000000.0 0.06745 -1.454
4219000000.0 -1.179 -0.9573
4222000000.0 -1.38 0.4126
4225000000.0 -0.4843 1.34
4228000000.0 0.7791 1.219
4231000000.0 1.439 0.08813
4234000000.0 0.9344 -1.095
4238000000.0 -0.2839 -1.36
4241000000.0 -1.238 -0.6111
4244000000.0 -1.279 0.5707
4247000000.0 -0.3477 1.343
4250000000.0 0.8575 1.104
4253000000.0 1.344 0.01901
4256000000.0 0.819 -1.097
4259000000.0 -0.2635 -1.369
4262000000.0 -1.222 -0.5972
4266000000.0 -1.289 0.5927
4269000000.0 -0.3609 1.375
4272000000.0 0.8486 1.145
4275000000.0 1.437 0.06688
4278000000.0 0.9326 -1.117
4281000000.0 -0.2676 -1.457
4284000000.0 -1.259 -0.6777
4288000000.0 -1.327 0.5973
4291000000.0 -0.4032 1.404
4294000000.0 0.8797 1.185
4297000000.0 1.449 0.08521
4300000000.0 0.9848 -1.108
4303000000.0 -0.246 -1.456
4306000000.0 -1.308 -0.7361
4309000000.0 -1.404 0.5336
4312000000.0 -0.457 1.433
4316000000.0 0.8894 1.268
4319000000.0 1.545 0.08412
4322000000.0 1.055 -1.191
4325000000.0 -0.3024 -1.56
4328000000.0 -1.448 -0.7471
4331000000.0 -1.444 0.6988
4334000000.0 -0.3311 1.625
4338000000.0 1.08 1.229
4341000000.0 1.654 -0.15
4344000000.0 0.8632 -1.413
4347000000.0 -0.6324 -1.527
4350000000.0 -1.59 -0.3743
4353000000.0 -1.224 1.038
4356000000.0 0.107 1.592
4359000000.0 1.317 0.8157
4362000000.0 1.451 -0.5414
4366000000.0 0.3775 -1.446
4369000000.0 -0.8882 -1.189
4372000000.0 -1.448 0.003509
4375000000.0 -0.8309 1.107
4378000000.0 0.3909 1.335
4381000000.0 1.308 0.5064
4384000000.0 1.152 -0.7208
4388000000.0 0.1158 -1.358
4391000000.0 -0.9696 -0.9032
4394000000.0 -1.359 0.1976
4397000000.0 -0.6489 1.156
4400000000.0 0.5663 1.235
4403000000.0 1.286 0.3238
4406000000.0 1.02 -0.8278
4409000000.0 0.01557 -1.32
4412000000.0 -1.025 -0.8202
4416000000.0 -1.277 0.2816
4419000000.0 -0.5952 1.165
4422000000.0 0.5538 1.207
4425000000.0 1.279 0.3409
4428000000.0 1.043 -0.7843
4431000000.0 0.07626 -1.338
4434000000.0 -0.9723 -0.9458
4438000000.0 -1.312 0.1868
4441000000.0 -0.7137 1.15
4444000000.0 0.4428 1.286
4447000000.0 1.347 0.5043
4450000000.0 1.195 -0.7068
4453000000.0 0.2301 -1.424
4456000000.0 -0.9793 -1.096
4459000000.0 -1.483 0.0296
4462000000.0 -0.9224 1.207
4466000000.0 0.3603 1.473
4469000000.0 1.399 0.6418
4472000000.0 1.37 -0.6542
4475000000.0 0.3866 -1.505
4478000000.0 -0.9331 -1.232
4481000000.0 -1.58 -0.03539
4484000000.0 -1.051 1.191
4488000000.0 0.2636 1.572
4491000000.0 1.385 0.7387
4494000000.0 1.491 -0.5921
4497000000.0 0.5019 -1.519
4500000000.0 -0.9038 -1.322
4503000000.0 -1.512 -0.1326
4506000000.0 -1.064 1.106
4509000000.0 0.2015 1.536
4512000000.0 1.32 0.8261
4516000000.0 1.447 -0.575
4519000000.0 0.4472 -1.457
4522000000.0 -0.8599 -1.245
4525000000.0 -1.505 -0.1033
4528000000.0 -1.002 1.102
4531000000.0 0.2707 1.453
4534000000.0 1.292 0.6672
4538000000.0 1.309 -0.5647
4541000000.0 0.324 -1.341
4544000000.0 -0.871 -1.07
4547000000.0 -1.39 0.01627
4550000000.0 -0.8174 1.055
4553000000.0 0.3403 1.25
4556000000.0 1.171 0.4749
4559000000.0 1.134 -0.6221
4562000000.0 0.1631 -1.215
4566000000.0 -0.8381 -0.8921
4569000000.0 -1.184 0.1233
4572000000.0 -0.6456 0.9867
4575000000.0 0.4147 1.119
4578000000.0 1.078 0.3506
4581000000.0 0.935 -0.6556
4584000000.0 0.05397 -1.167
4588000000.0 -0.8471 -0.7308
4591000000.0 -1.095 0.2362
4594000000.0 -0.4848 1.017
4597000000.0 0.5067 1.009
4600000000.0 1.097 0.223
4603000000.0 0.826 -0.6985
4606000000.0 -0.07976 -1.103
4609000000.0 -0.9101 -0.6512
4612000000.0 -1.058 0.27
4616000000.0 -0.4227 1.03
4619000000.0 0.4899 1.011
4622000000.0 1.107 0.1856
4625000000.0 0.8557 -0.7513
4628000000.0 -0.04421 -1.139
4631000000.0 -0.9209 -0.6656
4634000000.0 -1.134 0.2875
4638000000.0 -0.4458 1.092
4641000000.0 0.5482 1.052
4644000000.0 1.177 0.2286
4647000000.0 0.933 -0.7767
4650000000.0 -0.03569 -1.23
4653000000.0 -0.987 -0.7486
4656000000.0 -1.233 0.2494
4659000000.0 -0.5513 1.147
4662000000.0 0.5589 1.126
4666000000.0 1.259 0.3044
4669000000.0 1.014 -0.788
4672000000.0 0.06488 -1.323
4675000000.0 -1.006 -0.8605
4678000000.0 -1.328 0.2191
4681000000.0 -0.6584 1.151
4684000000.0 0.4514 1.236
4688000000.0 1.272 0.4177
4691000000.0 1.179 -0.7528
4694000000.0 0.1244 -1.358
4697000000.0 -0.9547 -0.998
4700000000.0 -1.391 0.1849
4703000000.0 -0.7315 1.199
4706000000.0 0.4824 1.319
4709000000.0 1.341 0.4485
4712000000.0 1.145 -0.7914
4716000000.0 0.09127 -1.395
4719000000.0 -1.048 -0.8916
4722000000.0 -1.387 0.2479
4725000000.0 -0.6291 1.201
4728000000.0 0.5945 1.192
4731000000.0 1.308 0.2547
4734000000.0 0.9948 -0.8183
4738000000.0 -0.06715 -1.27
4741000000.0 -1.021 -0.6607
4744000000.0 -1.126 0.3751
4747000000.0 -0.3667 1.152
4750000000.0 0.6387 0.9557
4753000000.0 1.13 0.07212
4756000000.0 0.7333 -0.8481
4759000000.0 -0.2243 -1.048
4762000000.0 -0.9627 -0.4571
4766000000.0 -0.8968 0.5232
4769000000.0 -0.1569 1.021
4772000000.0 0.6751 0.7437
4775000000.0 1.01 -0.1221
4778000000.0 0.5127 -0.8202
4781000000.0 -0.3469 -0.8986
4784000000.0 -0.8874 -0.2848
4788000000.0 -0.7525 0.567
4791000000.0 -0.02669 0.9624
4794000000.0 0.7067 0.5911
4797000000.0 0.8841 -0.192
4800000000.0 0.4124 -0.8406
4803000000.0 -0.395 -0.8098
4806000000.0 -0.9068 -0.1939
4809000000.0 -0.735 0.581
4812000000.0 0.004589 0.9405
4816000000.0 0.7504 0.6061
4819000000.0 0.9622 -0.1835
4822000000.0 0.4536 -0.8967
4825000000.0 -0.4439 -0.8985
4828000000.0 -0.9826 -0.233
4831000000.0 -0.8216 0.6301
4834000000.0 -0.03012 1.05
4838000000.0 0.8099 0.7078
4841000000.0 1.089 -0.2002
4844000000.0 0.5385 -0.9819
4847000000.0 -0.4494 -1.038
4850000000.0 -1.108 -0.3455
4853000000.0 -0.9715 0.6503
4856000000.0 -0.09641 1.21
4859000000.0 0.8582 0.8794
4862000000.0 1.236 -0.1181
4866000000.0 0.6786 -1.048
4869000000.0 -0.4029 -1.221
4872000000.0 -1.217 -0.5097
4875000000.0 -1.122 0.6633
4878000000.0 -0.1849 1.338
4881000000.0 0.9501 1.014
4884000000.0 1.336 -0.09697
4888000000.0 0.788 -1.126
4891000000.0 -0.3965 -1.34
4894000000.0 -1.269 -0.4937
4897000000.0 -1.213 0.7103
4900000000.0 -0.1704 1.355
4903000000.0 0.9613 0.9517
4906000000.0 1.333 -0.1424
4909000000.0 0.6828 -1.12
4912000000.0 -0.4253 -1.243
4916000000.0 -1.223 -0.4
4919000000.0 -1.05 0.6921
4922000000.0 -0.1107 1.229
4925000000.0 0.8633 0.8523
4928000000.0 1.154 -0.1335
4931000000.0 0.6414 -0.9642
4934000000.0 -0.376 -1.065
4938000000.0 -1.031 -0.3879
4941000000.0 -0.9247 0.5708
4944000000.0 -0.1493 1.051
4947000000.0 0.7432 0.7796
4950000000.0 1.01 -0.1099
4953000000.0 0.5366 -0.8383
4956000000.0 -0.2972 -0.9516
4959000000.0 -0.9317 -0.3412
4962000000.0 -0.8295 0.5094
4966000000.0 -0.1167 0.9828
4969000000.0 0.7017 0.6759
4972000000.0 0.9428 -0.1559
4975000000.0 0.5017 -0.8108
4978000000.0 -0.3136 -0.8364
4981000000.0 -0.8819 -0.2728
4984000000.0 -0.7828 0.5072
4988000000.0 -0.0969 0.9305
4991000000.0 0.6582 0.6506
4994000000.0 0.9349 -0.09054
4997000000.0 0.5132 -0.7725
5000000000.0 -0.3114 -0.9
5003000000.0 -0.8997 -0.3386
5006000000.0 -0.8378 0.5039
5009000000.0 -0.155 0.9732
5012000000.0 0.6837 0.7535
5016000000.0 1.035 -0.08453
5019000000.0 0.55 -0.8425
5022000000.0 -0.2826 -1.016
5025000000.0 -0.9821 -0.4032
5028000000.0 -0.9665 0.5496
5031000000.0 -0.2021 1.086
5034000000.0 0.6896 0.8524
5038000000.0 1.129 -0.01964
5041000000.0 0.7128 -0.884
5044000000.0 -0.2706 -1.126
5047000000.0 -1.055 -0.5146
5050000000.0 -1.116 0.4649
5053000000.0 -0.3381 1.137
5056000000.0 0.6948 1.031
5059000000.0 1.246 0.1043
5062000000.0 0.8813 -0.9139
5066000000.0 -0.108 -1.269
5069000000.0 -1.062 -0.7017
5072000000.0 -1.229 0.3779
5075000000.0 -0.4819 1.235
5078000000.0 0.6663 1.153
5081000000.0 1.28 0.2109
5084000000.0 0.9788 -0.8533
5088000000.0 -0.03357 -1.293
5091000000.0 -1.028 -0.7964
5094000000.0 -1.215 0.2762
5097000000.0 -0.5994 1.146
5100000000.0 0.4842 1.157
5103000000.0 1.188 0.3585
5106000000.0 1.005 -0.646
5109000000.0 0.1318 -1.173
5112000000.0 -0.8267 -0.8504
5116000000.0 -1.197 0.05992
5119000000.0 -0.6994 0.9193
5122000000.0 0.2655 1.12
5125000000.0 1.025 0.5334
5128000000.0 0.9955 -0.4564
5131000000.0 0.2958 -1.087
5134000000.0 -0.6131 -0.9076
5138000000.0 -1.069 -0.099
5141000000.0 -0.7712 0.7474
5144000000.0 0.09619 1.053
5147000000.0 0.8612 0.605
5150000000.0 1.008 -0.2849
5153000000.0 0.4297 -0.9405
5156000000.0 -0.4598 -0.9318
5159000000.0 -0.9359 -0.2386
5162000000.0 -0.7846 0.5972
5166000000.0 -0.06222 0.9773
5169000000.0 0.7219 0.6624
5172000000.0 0.9198 -0.1272
5175000000.0 0.5045 -0.8137
5178000000.0 -0.2998 -0.8776
5181000000.0 -0.8839 -0.2897
5184000000.0 -0.7865 0.4937
5188000000.0 -0.1171 0.9379
5191000000.0 0.633 0.6596
5194000000.0 0.9276 -0.08065
5197000000.0 0.484 -0.7939
5200000000.0 -0.2937 -0.879
5203000000.0 -0.8752 -0.3294
5206000000.0 -0.7971 0.4941
5209000000.0 -0.122 0.9382
5212000000.0 0.6634 0.6749
5216000000.0 0.9154 -0.09884
5219000000.0 0.5008 -0.7988
5222000000.0 -0.3008 -0.908
5225000000.0 -0.9158 -0.3215
5228000000.0 -0.8182 0.5328
5231000000.0 -0.09874 0.9567
5234000000.0 0.679 0.6751
5238000000.0 0.9844 -0.1236
5241000000.0 0.5511 -0.8389
5244000000.0 -0.3258 -0.9518
5247000000.0 -0.9323 -0.3265
5250000000.0 -0.8814 0.5188
5253000000.0 -0.1504 1.016
5256000000.0 0.7077 0.7592
5259000000.0 1.015 -0.09681
5262000000.0 0.6127 -0.8585
5266000000.0 -0.2931 -1.019
5269000000.0 -0.9424 -0.427
5272000000.0 -0.9487 0.4613
5275000000.0 -0.2402 1.034
5278000000.0 0.6246 0.8808
5281000000.0 1.089 0.06535
5284000000.0 0.7493 -0.7551
5288000000.0 -0.1134 -1.08
5291000000.0 -0.8814 -0.5745
5294000000.0 -1.047 0.3122
5297000000.0 -0.4502 0.9969
5300000000.0 0.495 1.001
5303000000.0 1.043 0.2913
5306000000.0 0.9321 -0.6607
5309000000.0 0.1002 -1.093
5312000000.0 -0.784 -0.8074
5316000000.0 -1.13 0.09662
5319000000.0 -0.6619 0.917
5322000000.0 0.2964 1.126
5325000000.0 1.041 0.4944
5328000000.0 1.038 -0.4591
5331000000.0 0.3286 -1.108
5334000000.0 -0.6446 -0.9751
5338000000.0 -1.141 -0.1189
5341000000.0 -0.8146 0.8073
5344000000.0 0.0341 1.14
5347000000.0 0.9366 0.6788
5350000000.0 1.109 -0.2759
5353000000.0 0.5189 -1.009
5356000000.0 -0.4713 -1.035
5359000000.0 -1.098 -0.3011
5362000000.0 -0.9366 0.6481
5366000000.0 -0.08473 1.153
5369000000.0 0.829 0.806
5372000000.0 1.146 -0.1084
5375000000.0 0.6308 -0.9397
5378000000.0 -0.3409 -1.073
5381000000.0 -1.004 -0.3933
5384000000.0 -0.9515 0.556
5388000000.0 -0.1699 1.061
5391000000.0 0.735 0.7924
5394000000.0 1.052 -0.08189
5397000000.0 0.6108 -0.8784
5400000000.0 -0.2815 -0.9732
5403000000.0 -0.942 -0.3459
5406000000.0 -0.8504 0.4663
5409000000.0 -0.1617 0.9862
5412000000.0 0.6535 0.7389
5416000000.0 0.9626 -0.07059
5419000000.0 0.5499 -0.7653
5422000000.0 -0.2688 -0.9108
5425000000.0 -0.874 -0.3489
5428000000.0 -0.7982 0.4345
5431000000.0 -0.1646 0.8981
5434000000.0 0.6102 0.641
5438000000.0 0.8902 -0.09003
5441000000.0 0.4877 -0.7839
5444000000.0 -0.2966 -0.8254
5447000000.0 -0.8552 -0.2952
5450000000.0 -0.7423 0.4971
5453000000.0 -0.05471 0.8466
5456000000.0 0.6294 0.6157
5459000000.0 0.8718 -0.1433
5462000000.0 0.4573 -0.7382
5466000000.0 -0.3077 -0.8299
5469000000.0 -0.8182 -0.2925
5472000000.0 -0.7392 0.4641
5475000000.0 -0.1238 0.8589
5478000000.0 0.5703 0.6562
5481000000.0 0.8664 -0.04039
5484000000.0 0.5274 -0.7263
5488000000.0 -0.2079 -0.8762
5491000000.0 -0.8269 -0.354
5494000000.0 -0.8563 0.3938
5497000000.0 -0.2304 0.8897
5500000000.0 0.5075 0.745
5503000000.0 0.9343 0.0786
5506000000.0 0.6535 -0.6963
5509000000.0 -0.1477 -0.9348
5512000000.0 -0.8042 -0.5188
5516000000.0 -0.9311 0.2592
5519000000.0 -0.3605 0.8777
5522000000.0 0.4563 0.8747
5525000000.0 0.9837 0.2198
5528000000.0 0.817 -0.6177
5531000000.0 0.07147 -1.038
5534000000.0 -0.7252 -0.6985
5538000000.0 -1.043 0.1025
5541000000.0 -0.5636 0.8498
5544000000.0 0.3023 0.9909
5547000000.0 0.9392 0.4384
5550000000.0 0.949 -0.4402
5553000000.0 0.2419 -1.032
5556000000.0 -0.6271 -0.8701
5559000000.0 -1.073 -0.06464
5562000000.0 -0.7347 0.7888
5566000000.0 0.1224 1.059
5569000000.0 0.8706 0.5633
5572000000.0 1.03 -0.3253
5575000000.0 0.4235 -0.9776
5578000000.0 -0.5059 -0.9314
5581000000.0 -1.036 -0.2122
5584000000.0 -0.8165 0.6194
5588000000.0 -0.04238 1.049
5591000000.0 0.7782 0.6842
5594000000.0 0.9834 -0.1325
5597000000.0 0.5236 -0.862
5600000000.0 -0.3219 -0.9511
5603000000.0 -0.9191 -0.355
5606000000.0 -0.8425 0.4835
5609000000.0 -0.154 0.9565
5612000000.0 0.6321 0.7128
5616000000.0 0.9615 -0.02819
5619000000.0 0.5703 -0.7586
5622000000.0 -0.1888 -0.9039
5625000000.0 -0.836 -0.3941
5628000000.0 -0.8169 0.3876
5631000000.0 -0.2202 0.8675
5634000000.0 0.5144 0.7239
5638000000.0 0.8955 0.03642
5641000000.0 0.573 -0.6774
5644000000.0 -0.151 -0.8388
5647000000.0 -0.7484 -0.4244
5650000000.0 -0.8059 0.3462
5653000000.0 -0.2157 0.8439
5656000000.0 0.5198 0.6965
5659000000.0 0.8622 0.0472
5662000000.0 0.5722 -0.6418
5666000000.0 -0.1459 -0.8682
5669000000.0 -0.7847 -0.4004
5672000000.0 -0.7979 0.3247
5675000000.0 -0.2341 0.8543
5678000000.0 0.5073 0.6998
5681000000.0 0.9046 0.04179
5684000000.0 0.5779 -0.6825
5688000000.0 -0.1925 -0.9272
5691000000.0 -0.8049 -0.4157
5694000000.0 -0.8398 0.3696
5697000000.0 -0.236 0.8646
5700000000.0 0.5681 0.7453
5703000000.0 0.9395 0.02686
5706000000.0 0.6363 -0.714
5709000000.0 -0.1601 -0.9281
5712000000.0 -0.8501 -0.4622
5716000000.0 -0.8858 0.3566
5719000000.0 -0.296 0.9714
5722000000.0 0.5734 0.8312
5725000000.0 1.013 0.07164
5728000000.0 0.7164 -0.7587
5731000000.0 -0.09501 -0.9854
5734000000.0 -0.862 -0.5727
5738000000.0 -0.9922 0.3084
5741000000.0 -0.3692 0.9559
5744000000.0 0.5076 0.9172
5747000000.0 1.039 0.2089
5750000000.0 0.8024 -0.6614
5753000000.0 0.01037 -1.079
5756000000.0 -0.8297 -0.6625
5759000000.0 -1.072 0.2042
5762000000.0 -0.5142 0.969
5766000000.0 0.4197 1.003
5769000000.0 0.9914 0.3673
5772000000.0 0.9587 -0.6018
5775000000.0 0.1223 -1.105
5778000000.0 -0.7115 -0.8216
5781000000.0 -1.102 0.01649
5784000000.0 -0.6973 0.8554
5788000000.0 0.2249 1.094
5791000000.0 0.9781 0.5262
5794000000.0 1.023 -0.3949
5797000000.0 0.3313 -1.048
5800000000.0 -0.5428 -0.9397
5803000000.0 -1.049 -0.1484
5806000000.0 -0.8043 0.7011
5809000000.0 0.04704 1.09
5812000000.0 0.8706 0.612
5816000000.0 1.056 -0.1981
5819000000.0 0.4508 -0.9344
5822000000.0 -0.4312 -0.9229
5825000000.0 -1.023 -0.2636
5828000000.0 -0.8796 0.5779
5831000000.0 -0.09054 1.044
5834000000.0 0.74 0.7296
5838000000.0 1.001 -0.1116
5841000000.0 0.572 -0.8548
5844000000.0 -0.2818 -0.9201
5847000000.0 -0.9191 -0.3665
5850000000.0 -0.8785 0.4999
5853000000.0 -0.1613 0.9625
5856000000.0 0.6471 0.7225
5859000000.0 1.01 -0.05371
5862000000.0 0.5761 -0.7648
5866000000.0 -0.2459 -0.9105
5869000000.0 -0.886 -0.4053
5872000000.0 -0.8185 0.4073
5875000000.0 -0.1848 0.9191
5878000000.0 0.5735 0.6978
5881000000.0 0.9159 0.004451
5884000000.0 0.5484 -0.7045
5888000000.0 -0.2064 -0.8236
5891000000.0 -0.8272 -0.3943
5894000000.0 -0.7925 0.3798
5897000000.0 -0.188 0.8798
5900000000.0 0.5411 0.6797
5903000000.0 0.872 0.01108
5906000000.0 0.5682 -0.6506
5909000000.0 -0.1731 -0.8514
5912000000.0 -0.7623 -0.3792
5916000000.0 -0.7597 0.365
5919000000.0 -0.2685 0.8271
5922000000.0 0.4862 0.6932
5925000000.0 0.8732 0.04621
5928000000.0 0.6165 -0.6111
5931000000.0 -0.1189 -0.8067
5934000000.0 -0.7222 -0.4377
5938000000.0 -0.8356 0.2904
5941000000.0 -0.3138 0.8014
5944000000.0 0.3965 0.7512
5947000000.0 0.8414 0.1363
5950000000.0 0.673 -0.5459
5953000000.0 0.01429 -0.8538
5956000000.0 -0.6451 -0.5659
5959000000.0 -0.8638 0.1833
5962000000.0 -0.4213 0.7574
5966000000.0 0.3054 0.8408
5969000000.0 0.8758 0.3255
5972000000.0 0.7835 -0.4675
5975000000.0 0.1401 -0.9171
5978000000.0 -0.6075 -0.6983
5981000000.0 -0.9207 0.03742
5984000000.0 -0.588 0.7347
5988000000.0 0.1842 0.9232
5991000000.0 0.8314 0.454
5994000000.0 0.9055 -0.3557
5997000000.0 0.3238 -0.9391
6000000000.0 -0.5146 -0.8411
6003000000.0 -0.9669 -0.1327
6006000000.0 -0.6709 0.6866
6009000000.0 0.03969 0.9735
6012000000.0 0.7883 0.5988
6016000000.0 0.954 -0.2343
6019000000.0 0.385 -0.8952
6022000000.0 -0.3869 -0.941
6025000000.0 -0.9593 -0.2664
6028000000.0 -0.8101 0.5655
6031000000.0 -0.05368 0.9856
6034000000.0 0.7374 0.6842
6038000000.0 0.9833 -0.1213
6041000000.0 0.5383 -0.834
6044000000.0 -0.3285 -0.9463
6047000000.0 -0.9414 -0.3492
6050000000.0 -0.8653 0.5066
6053000000.0 -0.1544 0.9751
6056000000.0 0.6673 0.7112
6059000000.0 0.984 -0.0582
6062000000.0 0.5659 -0.7867
6066000000.0 -0.248 -0.9226
6069000000.0 -0.8727 -0.4014
6072000000.0 -0.8735 0.418
6075000000.0 -0.1914 0.9158
6078000000.0 0.5838 0.6979
6081000000.0 0.9207 -0.0117
6084000000.0 0.5942 -0.7325
6088000000.0 -0.1857 -0.8764
6091000000.0 -0.7852 -0.4114
6094000000.0 -0.8241 0.3608
6097000000.0 -0.2159 0.8463
6100000000.0 0.5372 0.7107
6103000000.0 0.8858 0.0539
6106000000.0 0.5703 -0.6642
6109000000.0 -0.1153 -0.856
6112000000.0 -0.7551 -0.4134
6116000000.0 -0.8238 0.314
6119000000.0 -0.2448 0.812
6122000000.0 0.4819 0.6716
6125000000.0 0.8403 0.02185
6128000000.0 0.5554 -0.6478
6131000000.0 -0.109 -0.8541
6134000000.0 -0.6913 -0.4385
6138000000.0 -0.8126 0.2727
6141000000.0 -0.2831 0.8058
6144000000.0 0.4378 0.7153
6147000000.0 0.8533 0.1034
6150000000.0 0.6047 -0.6033
6153000000.0 -0.05759 -0.8797
6156000000.0 -0.7095 -0.48
6159000000.0 -0.8284 0.2153
6162000000.0 -0.3206 0.8136
6166000000.0 0.4429 0.7809
6169000000.0 0.847 0.2011
6172000000.0 0.6994 -0.5877
6175000000.0 0.02545 -0.9261
6178000000.0 -0.6963 -0.5643
6181000000.0 -0.8733 0.2121
6184000000.0 -0.4084 0.8033
6188000000.0 0.3665 0.8169
6191000000.0 0.8678 0.2485
6194000000.0 0.7385 -0.55
6197000000.0 0.05415 -0.9115
6200000000.0 -0.6812 -0.6157
6203000000.0 -0.884 0.1093
6206000000.0 -0.4678 0.7932
6209000000.0 0.2823 0.8553
6212000000.0 0.8635 0.3193
6216000000.0 0.7826 -0.4706
6219000000.0 0.1661 -0.88
6222000000.0 -0.6095 -0.7083
6225000000.0 -0.9079 0.03309
6228000000.0 -0.5859 0.7081
6231000000.0 0.2106 0.8786
6234000000.0 0.8044 0.4046
6238000000.0 0.8442 -0.3446
6241000000.0 0.2093 -0.8488
6244000000.0 -0.5007 -0.6947
6247000000.0 -0.8405 -0.07954
6250000000.0 -0.6057 0.5988
6253000000.0 0.07265 0.8214
6256000000.0 0.6614 0.5073
6259000000.0 0.7937 -0.1986
6262000000.0 0.3196 -0.7378
