! Created with skrf 1.8.0 (http://scikit-rf.org).
# Hz S RI R 50.0 
!freq ReS11 ImS11
4000000000.0 -0.5431 -1.424
4003000000.0 -1.453 -0.4752
4006000000.0 -1.289 0.8357
4009000000.0 -0.1689 1.515
4012000000.0 1.12 1.057
4016000000.0 1.507 -0.1844
4019000000.0 0.8203 -1.351
4022000000.0 -0.5454 -1.501
4025000000.0 -1.503 -0.4788
4028000000.0 -1.388 0.9052
4031000000.0 -0.2 1.623
4034000000.0 1.192 1.162
4038000000.0 1.644 -0.2564
4041000000.0 0.8428 -1.48
4044000000.0 -0.6011 -1.559
4047000000.0 -1.571 -0.5126
4050000000.0 -1.442 0.9141
4053000000.0 -0.158 1.618
4056000000.0 1.133 1.153
4059000000.0 1.648 -0.1651
4062000000.0 0.9055 -1.317
4066000000.0 -0.4392 -1.566
4069000000.0 -1.538 -0.6781
4072000000.0 -1.496 0.6979
4075000000.0 -0.4046 1.578
4078000000.0 0.9484 1.323
4081000000.0 1.685 0.08605
4084000000.0 1.088 -1.226
4088000000.0 -0.2474 -1.63
4091000000.0 -1.364 -0.8413
4094000000.0 -1.557 0.5303
4097000000.0 -0.5643 1.517
4100000000.0 0.7842 1.34
4103000000.0 1.553 0.298
4106000000.0 1.215 -0.9724
4109000000.0 0.004907 -1.526
4112000000.0 -1.155 -0.9901
4116000000.0 -1.464 0.2503
4119000000.0 -0.7865 1.237
4122000000.0 0.433 1.384
4125000000.0 1.342 0.5957
4128000000.0 1.33 -0.6409
4131000000.0 0.3725 -1.402
4134000000.0 -0.8118 -1.217
4138000000.0 -1.446 -0.1505
4141000000.0 -1.047 1.014
4144000000.0 0.07584 1.461
4147000000.0 1.209 0.8887
4150000000.0 1.439 -0.3704
4153000000.0 0.6472 -1.348
4156000000.0 -0.6152 -1.35
4159000000.0 -1.446 -0.3915
4162000000.0 -1.21 0.8922
4166000000.0 -0.077 1.499
4169000000.0 1.084 1.021
4172000000.0 1.466 -0.2005
4175000000.0 0.7471 -1.261
4178000000.0 -0.4862 -1.413
4181000000.0 -1.423 -0.4768
4184000000.0 -1.284 0.7867
4188000000.0 -0.2149 1.463
4191000000.0 1.061 1.049
4194000000.0 1.524 -0.1287
4197000000.0 0.8366 -1.33
4200000000.0 -0.5214 -1.457
4203000000.0 -1.472 -0.4637
4206000000.0 -1.3 0.9255
4209000000.0 -0.03628 1.633
4212000000.0 1.219 1.019
4216000000.0 1.544 -0.3961
4219000000.0 0.5958 -1.492
4222000000.0 -0.8438 -1.376
4225000000.0 -1.561 -0.1464
4228000000.0 -1.037 1.206
4231000000.0 0.311 1.547
4234000000.0 1.406 0.622
4238000000.0 1.351 -0.7264
4241000000.0 0.2361 -1.463
4244000000.0 -1.001 -1.069
4247000000.0 -1.415 0.1451
4250000000.0 -0.7227 1.219
4253000000.0 0.496 1.359
4256000000.0 1.358 0.4159
4259000000.0 1.161 -0.7898
4262000000.0 0.1062 -1.406
4266000000.0 -0.9814 -0.9325
4269000000.0 -1.364 0.2444
4272000000.0 -0.6498 1.238
4275000000.0 0.5349 1.273
4278000000.0 1.325 0.349
4281000000.0 1.117 -0.8125
4284000000.0 0.1216 -1.359
4288000000.0 -0.9941 -0.9131
4291000000.0 -1.327 0.1851
4294000000.0 -0.7018 1.113
4297000000.0 0.4357 1.228
4300000000.0 1.182 0.4562
4303000000.0 1.147 -0.6549
4306000000.0 0.2241 -1.282
4309000000.0 -0.8638 -1.029
4312000000.0 -1.33 -0.004771
4316000000.0 -0.8566 0.9884
4319000000.0 0.221 1.331
4322000000.0 1.217 0.6951
4325000000.0 1.297 -0.4652
4328000000.0 0.4917 -1.314
4331000000.0 -0.7276 -1.266
4334000000.0 -1.44 -0.237
4338000000.0 -1.07 0.9751
4341000000.0 0.03401 1.505
4344000000.0 1.211 0.897
4347000000.0 1.47 -0.4081
4350000000.0 0.6459 -1.416
4353000000.0 -0.7583 -1.341
4356000000.0 -1.511 -0.3314
4359000000.0 -1.18 1.011
4362000000.0 0.07638 1.553
4366000000.0 1.248 0.9062
4369000000.0 1.481 -0.424
4372000000.0 0.5969 -1.422
4375000000.0 -0.7607 -1.335
4378000000.0 -1.553 -0.2354
4381000000.0 -1.106 1.07
4384000000.0 0.1562 1.524
4388000000.0 1.314 0.8031
4391000000.0 1.451 -0.5719
4394000000.0 0.4031 -1.451
4397000000.0 -0.9105 -1.189
4400000000.0 -1.502 0.009255
4403000000.0 -0.9157 1.153
4406000000.0 0.4272 1.369
4409000000.0 1.344 0.5174
4412000000.0 1.166 -0.771
4416000000.0 0.09838 -1.379
4419000000.0 -0.9868 -0.8529
4422000000.0 -1.305 0.2378
4425000000.0 -0.5807 1.158
4428000000.0 0.5355 1.118
4431000000.0 1.206 0.2664
4434000000.0 0.9115 -0.8207
4438000000.0 -0.03293 -1.216
4441000000.0 -0.9998 -0.6858
4444000000.0 -1.167 0.3532
4447000000.0 -0.4414 1.14
4450000000.0 0.5592 1.028
4453000000.0 1.209 0.1797
4456000000.0 0.8872 -0.8355
4459000000.0 -0.1015 -1.214
4462000000.0 -1.023 -0.6335
4466000000.0 -1.173 0.3797
4469000000.0 -0.4517 1.144
4472000000.0 0.6455 1.054
4475000000.0 1.215 0.1648
4478000000.0 0.8854 -0.8595
4481000000.0 -0.08643 -1.256
4484000000.0 -1.045 -0.6943
4488000000.0 -1.21 0.3495
4491000000.0 -0.4862 1.192
4494000000.0 0.5881 1.135
4497000000.0 1.269 0.295
4500000000.0 1.015 -0.7825
4503000000.0 0.01797 -1.251
4506000000.0 -0.9454 -0.843
4509000000.0 -1.297 0.1874
4512000000.0 -0.6615 1.135
4516000000.0 0.432 1.287
4519000000.0 1.261 0.4443
4522000000.0 1.156 -0.6965
4525000000.0 0.1976 -1.354
4528000000.0 -0.9204 -0.9948
4531000000.0 -1.4 0.1071
4534000000.0 -0.8131 1.113
4538000000.0 0.3162 1.343
4541000000.0 1.248 0.6082
4544000000.0 1.28 -0.6133
4547000000.0 0.3531 -1.375
4550000000.0 -0.84 -1.122
4553000000.0 -1.4 -0.08066
4556000000.0 -0.938 1.031
4559000000.0 0.1986 1.396
4562000000.0 1.228 0.7531
4566000000.0 1.353 -0.4457
4569000000.0 0.4868 -1.345
4572000000.0 -0.7242 -1.238
4575000000.0 -1.412 -0.2028
4578000000.0 -1.063 0.9898
4581000000.0 0.1041 1.433
4584000000.0 1.157 0.8245
4588000000.0 1.35 -0.3904
4591000000.0 0.5266 -1.322
4594000000.0 -0.7203 -1.229
4597000000.0 -1.381 -0.2028
4600000000.0 -1.001 0.9474
4603000000.0 0.118 1.375
4606000000.0 1.151 0.7214
4609000000.0 1.274 -0.433
4612000000.0 0.4476 -1.253
4616000000.0 -0.681 -1.095
4619000000.0 -1.263 -0.1558
4622000000.0 -0.8896 0.8997
4625000000.0 0.1429 1.239
4628000000.0 1.058 0.6407
4631000000.0 1.117 -0.4252
4634000000.0 0.3648 -1.142
4638000000.0 -0.6567 -0.9874
4641000000.0 -1.164 -0.04532
4644000000.0 -0.7626 0.875
4647000000.0 0.2078 1.151
4650000000.0 1.021 0.4871
4653000000.0 1.048 -0.4604
4656000000.0 0.2551 -1.122
4659000000.0 -0.663 -0.873
4662000000.0 -1.113 0.02187
4666000000.0 -0.6771 0.8685
4669000000.0 0.2569 1.091
4672000000.0 0.9587 0.4728
4675000000.0 1.016 -0.4886
4678000000.0 0.2403 -1.094
4681000000.0 -0.657 -0.8807
4684000000.0 -1.076 -0.007816
4688000000.0 -0.6994 0.8244
4691000000.0 0.1847 1.123
4694000000.0 0.9831 0.5526
4697000000.0 1.072 -0.4035
4700000000.0 0.3366 -1.101
4703000000.0 -0.6439 -0.9977
4706000000.0 -1.202 -0.1509
4709000000.0 -0.8677 0.8269
4712000000.0 0.1292 1.214
4716000000.0 1.025 0.6885
4719000000.0 1.179 -0.3577
4722000000.0 0.4734 -1.153
4725000000.0 -0.57 -1.134
4728000000.0 -1.23 -0.257
4731000000.0 -0.9857 0.8105
4734000000.0 -0.03164 1.257
4738000000.0 0.9928 0.8573
4741000000.0 1.276 -0.2404
4744000000.0 0.6452 -1.144
4747000000.0 -0.4715 -1.23
4750000000.0 -1.255 -0.4371
4753000000.0 -1.156 0.6716
4756000000.0 -0.2053 1.352
4759000000.0 0.9463 1.033
4762000000.0 1.399 -0.08898
4766000000.0 0.806 -1.138
4769000000.0 -0.358 -1.381
4772000000.0 -1.333 -0.5991
4775000000.0 -1.31 0.6587
4778000000.0 -0.2822 1.44
4781000000.0 0.9235 1.095
4784000000.0 1.414 -0.04682
4788000000.0 0.8609 -1.101
4791000000.0 -0.3326 -1.385
4794000000.0 -1.271 -0.5803
4797000000.0 -1.24 0.6149
4800000000.0 -0.3128 1.363
4803000000.0 0.843 1.01
4806000000.0 1.309 -0.0474
4809000000.0 0.7671 -1.054
4812000000.0 -0.3366 -1.224
4816000000.0 -1.149 -0.4864
4819000000.0 -1.08 0.6156
4822000000.0 -0.1593 1.196
4825000000.0 0.8315 0.8508
4828000000.0 1.141 -0.1146
4831000000.0 0.6009 -0.9735
4834000000.0 -0.4035 -1.054
4838000000.0 -1.049 -0.2922
4841000000.0 -0.8702 0.6035
4844000000.0 -0.05604 1.009
4847000000.0 0.8013 0.6395
4850000000.0 0.9627 -0.2098
4853000000.0 0.3947 -0.8742
4856000000.0 -0.4343 -0.8442
4859000000.0 -0.9158 -0.1764
4862000000.0 -0.7223 0.6203
4866000000.0 0.03847 0.9179
4869000000.0 0.7595 0.5301
4872000000.0 0.8942 -0.2665
4875000000.0 0.3019 -0.8535
4878000000.0 -0.4767 -0.7817
4881000000.0 -0.9249 -0.1075
4884000000.0 -0.6634 0.7199
4888000000.0 0.1173 0.9796
4891000000.0 0.8273 0.5061
4894000000.0 0.9046 -0.3887
4897000000.0 0.2753 -0.9652
4900000000.0 -0.6407 -0.8157
4903000000.0 -1.049 -0.006108
4906000000.0 -0.6752 0.8319
4909000000.0 0.2507 1.035
4912000000.0 0.9602 0.4607
4916000000.0 0.9871 -0.4837
4919000000.0 0.2677 -1.11
4922000000.0 -0.702 -0.8913
4925000000.0 -1.162 -0.001948
4928000000.0 -0.7285 0.9401
4931000000.0 0.2752 1.159
4934000000.0 1.101 0.5119
4938000000.0 1.099 -0.5845
4941000000.0 0.2309 -1.226
4944000000.0 -0.8428 -0.9506
4947000000.0 -1.31 0.09156
4950000000.0 -0.7283 1.086
4953000000.0 0.4323 1.228
4956000000.0 1.25 0.4173
4959000000.0 1.083 -0.7209
4962000000.0 0.0801 -1.318
4966000000.0 -0.9957 -0.834
4969000000.0 -1.242 0.2674
4972000000.0 -0.5119 1.152
4975000000.0 0.5681 1.09
4978000000.0 1.164 0.196
4981000000.0 0.8392 -0.7777
4984000000.0 -0.1126 -1.13
4988000000.0 -0.956 -0.6007
4991000000.0 -1.025 0.3796
4994000000.0 -0.2997 0.9984
4997000000.0 0.6039 0.8325
5000000000.0 1.016 0.0436
5003000000.0 0.6045 -0.7613
5006000000.0 -0.2279 -0.9429
5009000000.0 -0.8865 -0.3792
5012000000.0 -0.8363 0.4278
5016000000.0 -0.1463 0.9008
5019000000.0 0.6531 0.6473
5022000000.0 0.9052 -0.1092
5025000000.0 0.4029 -0.7781
5028000000.0 -0.3251 -0.7991
5031000000.0 -0.878 -0.216
5034000000.0 -0.6978 0.549
5038000000.0 0.05964 0.8958
5041000000.0 0.7159 0.4993
5044000000.0 0.8493 -0.2376
5047000000.0 0.2528 -0.8625
5050000000.0 -0.5299 -0.7616
5053000000.0 -0.9339 -0.0449
5056000000.0 -0.6252 0.7089
5059000000.0 0.1865 0.9603
5062000000.0 0.885 0.4535
5066000000.0 0.9507 -0.4335
5069000000.0 0.2126 -1.011
5072000000.0 -0.6961 -0.8093
5075000000.0 -1.095 0.06481
5078000000.0 -0.6291 0.9141
5081000000.0 0.3598 1.088
5084000000.0 1.085 0.4095
5088000000.0 0.9998 -0.6072
5091000000.0 0.1303 -1.168
5094000000.0 -0.8313 -0.8154
5097000000.0 -1.196 0.1458
5100000000.0 -0.6464 1.004
5103000000.0 0.41 1.129
5106000000.0 1.148 0.374
5109000000.0 1.054 -0.6489
5112000000.0 0.1601 -1.192
5116000000.0 -0.8131 -0.8185
5119000000.0 -1.223 0.1402
5122000000.0 -0.6957 0.985
5125000000.0 0.365 1.166
5128000000.0 1.109 0.4866
5131000000.0 1.034 -0.5882
5134000000.0 0.2085 -1.174
5138000000.0 -0.7523 -0.8852
5141000000.0 -1.175 0.01288
5144000000.0 -0.7124 0.8549
5147000000.0 0.2513 1.077
5150000000.0 0.9866 0.4822
5153000000.0 1.018 -0.4439
5156000000.0 0.2894 -1.058
5159000000.0 -0.5745 -0.9197
5162000000.0 -1.051 -0.1068
5166000000.0 -0.7446 0.7394
5169000000.0 0.09037 1.01
5172000000.0 0.8835 0.5312
5175000000.0 0.9907 -0.299
5178000000.0 0.3732 -0.9756
5181000000.0 -0.4823 -0.8974
5184000000.0 -1.006 -0.1397
5188000000.0 -0.7655 0.6588
5191000000.0 0.02519 0.9512
5194000000.0 0.784 0.5713
5197000000.0 0.9553 -0.2688
5200000000.0 0.3601 -0.8877
5203000000.0 -0.4702 -0.8447
5206000000.0 -0.9554 -0.1576
5209000000.0 -0.6792 0.643
5212000000.0 0.08845 0.9581
5216000000.0 0.7878 0.5209
5219000000.0 0.8882 -0.3057
5222000000.0 0.3084 -0.8895
5225000000.0 -0.5188 -0.8018
5228000000.0 -0.9561 -0.1069
5231000000.0 -0.655 0.6952
5234000000.0 0.1529 0.9413
5238000000.0 0.829 0.4544
5241000000.0 0.9016 -0.362
5244000000.0 0.282 -0.9242
5247000000.0 -0.5972 -0.7714
5250000000.0 -0.9849 -0.006524
5253000000.0 -0.6054 0.7574
5256000000.0 0.2288 0.9758
5259000000.0 0.8948 0.4466
5262000000.0 0.9082 -0.4226
5266000000.0 0.2009 -1.018
5269000000.0 -0.644 -0.7902
5272000000.0 -0.9996 -0.0195
5275000000.0 -0.6469 0.8076
5278000000.0 0.1937 0.9828
5281000000.0 0.9317 0.4888
5284000000.0 0.9281 -0.4017
5288000000.0 0.2828 -0.9837
5291000000.0 -0.5604 -0.8793
5294000000.0 -1.05 -0.08679
5297000000.0 -0.7781 0.7369
5300000000.0 0.08199 1.043
5303000000.0 0.8922 0.6217
5306000000.0 1.069 -0.279
5309000000.0 0.4555 -0.9932
5312000000.0 -0.4664 -0.9964
5316000000.0 -1.073 -0.2599
5319000000.0 -0.9185 0.5995
5322000000.0 -0.08631 1.134
5325000000.0 0.7824 0.8264
5328000000.0 1.128 -0.1006
5331000000.0 0.6303 -0.9382
5334000000.0 -0.3026 -1.094
5338000000.0 -1.034 -0.4875
5341000000.0 -1.019 0.4603
5344000000.0 -0.3132 1.103
5347000000.0 0.6727 0.9294
5350000000.0 1.146 0.09708
5353000000.0 0.8241 -0.8026
5356000000.0 -0.1218 -1.125
5359000000.0 -0.9618 -0.6534
5362000000.0 -1.106 0.3121
5366000000.0 -0.4765 1.038
5369000000.0 0.4865 1.055
5372000000.0 1.098 0.2776
5375000000.0 0.8908 -0.6961
5378000000.0 0.03267 -1.156
5381000000.0 -0.8836 -0.7742
5384000000.0 -1.106 0.1907
5388000000.0 -0.5496 0.9872
5391000000.0 0.4071 1.033
5394000000.0 1.063 0.3333
5397000000.0 0.8933 -0.5989
5400000000.0 0.1109 -1.077
5403000000.0 -0.7797 -0.7204
5406000000.0 -1.026 0.1449
5409000000.0 -0.5186 0.9058
5412000000.0 0.3508 0.9948
5416000000.0 0.9436 0.3233
5419000000.0 0.8394 -0.5358
5422000000.0 0.09563 -0.998
5425000000.0 -0.7116 -0.6714
5428000000.0 -0.9674 0.1555
5431000000.0 -0.4856 0.83
5434000000.0 0.3617 0.8714
5438000000.0 0.9202 0.2439
5441000000.0 0.76 -0.5409
5444000000.0 -0.02632 -0.9047
5447000000.0 -0.7125 -0.5752
5450000000.0 -0.8493 0.1902
5453000000.0 -0.3712 0.7918
5456000000.0 0.4185 0.7762
5459000000.0 0.8788 0.1875
5462000000.0 0.6489 -0.5789
5466000000.0 0.006201 -0.8676
5469000000.0 -0.6822 -0.5302
5472000000.0 -0.8335 0.2027
5475000000.0 -0.3573 0.7536
5478000000.0 0.3814 0.7717
5481000000.0 0.8536 0.1816
5484000000.0 0.6754 -0.5271
5488000000.0 0.0195 -0.887
5491000000.0 -0.657 -0.5733
5494000000.0 -0.89 0.2016
5497000000.0 -0.4112 0.7975
5500000000.0 0.3431 0.8628
5503000000.0 0.8727 0.2394
5506000000.0 0.7677 -0.5
5509000000.0 0.1009 -0.9143
5512000000.0 -0.6407 -0.6806
5516000000.0 -0.9058 0.0694
5519000000.0 -0.5339 0.7843
5522000000.0 0.2178 0.9229
5525000000.0 0.88 0.4192
5528000000.0 0.9135 -0.4136
5531000000.0 0.2645 -0.9306
5534000000.0 -0.5535 -0.8317
5538000000.0 -1.001 -0.1129
5541000000.0 -0.7127 0.6931
5544000000.0 0.0867 0.9718
5547000000.0 0.862 0.6022
5550000000.0 0.9943 -0.2712
5553000000.0 0.4347 -0.9448
5556000000.0 -0.4635 -0.9346
5559000000.0 -1.025 -0.2739
5562000000.0 -0.8565 0.6031
5566000000.0 -0.09012 1.02
5569000000.0 0.7232 0.7227
5572000000.0 1.04 -0.1224
5575000000.0 0.6315 -0.8803
5578000000.0 -0.2715 -1.006
5581000000.0 -0.9214 -0.3891
5584000000.0 -0.9765 0.4405
5588000000.0 -0.2282 1.019
5591000000.0 0.6031 0.8624
5594000000.0 0.9964 0.05224
5597000000.0 0.708 -0.7386
5600000000.0 -0.1157 -1.017
5603000000.0 -0.8768 -0.5512
5606000000.0 -0.952 0.3294
5609000000.0 -0.3599 0.9316
5612000000.0 0.4632 0.8487
5616000000.0 0.9597 0.1573
5619000000.0 0.7426 -0.6381
5622000000.0 -0.02556 -0.9667
5625000000.0 -0.7487 -0.5947
5628000000.0 -0.9248 0.2036
5631000000.0 -0.4238 0.8457
5634000000.0 0.3779 0.8459
5638000000.0 0.8921 0.2311
5641000000.0 0.7291 -0.5335
5644000000.0 0.03576 -0.9272
5647000000.0 -0.659 -0.5902
5650000000.0 -0.8759 0.1586
5653000000.0 -0.4171 0.7813
5656000000.0 0.3612 0.8115
5659000000.0 0.8635 0.2376
5662000000.0 0.7125 -0.5221
5666000000.0 0.03784 -0.8856
5669000000.0 -0.661 -0.5935
5672000000.0 -0.8642 0.1806
5675000000.0 -0.409 0.7942
5678000000.0 0.3504 0.7858
5681000000.0 0.855 0.2201
5684000000.0 0.6973 -0.5471
5688000000.0 0.01821 -0.9009
5691000000.0 -0.7065 -0.5771
5694000000.0 -0.8941 0.1906
5697000000.0 -0.3889 0.8283
5700000000.0 0.3982 0.8386
5703000000.0 0.89 0.1991
5706000000.0 0.718 -0.5979
5709000000.0 -0.01179 -0.9439
5712000000.0 -0.7212 -0.5947
5716000000.0 -0.9413 0.2125
5719000000.0 -0.3775 0.8766
5722000000.0 0.4189 0.8813
5725000000.0 0.9835 0.2501
5728000000.0 0.7602 -0.6013
5731000000.0 0.03568 -1.033
5734000000.0 -0.7427 -0.6463
5738000000.0 -0.9776 0.1409
5741000000.0 -0.4964 0.9003
5744000000.0 0.3647 0.9759
5747000000.0 0.9757 0.3397
5750000000.0 0.8908 -0.5599
5753000000.0 0.1384 -1.028
5756000000.0 -0.7251 -0.7877
5759000000.0 -1.098 0.07127
5762000000.0 -0.6392 0.8619
5766000000.0 0.246 1.055
5769000000.0 0.9913 0.4906
5772000000.0 0.9813 -0.4084
5775000000.0 0.289 -1.053
5778000000.0 -0.6164 -0.9041
5781000000.0 -1.099 -0.1047
5784000000.0 -0.7847 0.7385
5788000000.0 0.08205 1.062
5791000000.0 0.8849 0.6017
5794000000.0 1.026 -0.2571
5797000000.0 0.4804 -1.016
5800000000.0 -0.479 -0.9796
5803000000.0 -1.053 -0.3014
5806000000.0 -0.8897 0.6364
5809000000.0 -0.08043 1.054
5812000000.0 0.7851 0.7497
5816000000.0 1.063 -0.1534
5819000000.0 0.5978 -0.8919
5822000000.0 -0.3274 -1.039
5825000000.0 -0.9751 -0.3997
5828000000.0 -0.955 0.4802
5831000000.0 -0.2421 1.034
5834000000.0 0.6509 0.8244
5838000000.0 1.014 0.03582
5841000000.0 0.691 -0.7799
5844000000.0 -0.189 -0.9467
5847000000.0 -0.9016 -0.503
5850000000.0 -0.9012 0.3742
5853000000.0 -0.2866 0.9769
5856000000.0 0.5342 0.7994
5859000000.0 0.9808 0.1048
5862000000.0 0.677 -0.6679
5866000000.0 -0.1321 -0.958
5869000000.0 -0.8353 -0.5242
5872000000.0 -0.9299 0.2947
5875000000.0 -0.3391 0.9212
5878000000.0 0.53 0.8189
5881000000.0 0.8955 0.1007
5884000000.0 0.6484 -0.6407
5888000000.0 -0.09972 -0.9244
5891000000.0 -0.7245 -0.4997
5894000000.0 -0.8307 0.2628
5897000000.0 -0.289 0.8118
5900000000.0 0.4289 0.7504
5903000000.0 0.8835 0.139
5906000000.0 0.6171 -0.5863
5909000000.0 -0.04914 -0.8632
5912000000.0 -0.7241 -0.4833
5916000000.0 -0.8435 0.2091
5919000000.0 -0.3487 0.7619
5922000000.0 0.4318 0.7496
5925000000.0 0.8336 0.1593
5928000000.0 0.6577 -0.5465
5931000000.0 -0.02673 -0.8719
5934000000.0 -0.6992 -0.5366
5938000000.0 -0.832 0.1888
5941000000.0 -0.4066 0.7533
5944000000.0 0.3396 0.8174
5947000000.0 0.8151 0.2286
5950000000.0 0.719 -0.447
5953000000.0 0.1063 -0.8691
5956000000.0 -0.6028 -0.6132
5959000000.0 -0.8842 0.07906
5962000000.0 -0.4728 0.6983
5966000000.0 0.2315 0.8832
5969000000.0 0.8351 0.3578
5972000000.0 0.818 -0.4065
5975000000.0 0.2527 -0.8765
5978000000.0 -0.5223 -0.7528
5981000000.0 -0.9333 -0.08491
5984000000.0 -0.6583 0.6675
5988000000.0 0.06936 0.9326
5991000000.0 0.789 0.5544
5994000000.0 0.9261 -0.2706
5997000000.0 0.3841 -0.882
6000000000.0 -0.4309 -0.8883
6003000000.0 -0.9511 -0.2211
6006000000.0 -0.7608 0.6052
6009000000.0 -0.03777 1.004
6012000000.0 0.7367 0.6503
6016000000.0 0.994 -0.1609
6019000000.0 0.4872 -0.846
6022000000.0 -0.3353 -0.9217
6025000000.0 -0.9252 -0.343
6028000000.0 -0.8558 0.4813
6031000000.0 -0.155 0.9846
6034000000.0 0.6518 0.7822
6038000000.0 0.9874 -0.0273
6041000000.0 0.6217 -0.7898
6044000000.0 -0.234 -0.9448
6047000000.0 -0.8746 -0.4418
6050000000.0 -0.9115 0.4395
6053000000.0 -0.2488 0.9564
6056000000.0 0.5818 0.8046
6059000000.0 0.9796 0.01449
6062000000.0 0.6625 -0.7135
6066000000.0 -0.1615 -0.9547
6069000000.0 -0.8345 -0.4576
6072000000.0 -0.8906 0.36
6075000000.0 -0.288 0.9183
6078000000.0 0.5074 0.7982
6081000000.0 0.9678 0.07472
6084000000.0 0.6734 -0.6621
6088000000.0 -0.1167 -0.8931
6091000000.0 -0.7869 -0.4824
6094000000.0 -0.8489 0.2756
6097000000.0 -0.3172 0.8442
6100000000.0 0.4478 0.801
6103000000.0 0.8453 0.1162
6106000000.0 0.61 -0.6227
6109000000.0 -0.05671 -0.8754
6112000000.0 -0.731 -0.47
6116000000.0 -0.8157 0.2409
6119000000.0 -0.3318 0.8279
6122000000.0 0.4005 0.7501
6125000000.0 0.878 0.1493
6128000000.0 0.5992 -0.5437
6131000000.0 -0.03301 -0.8431
6134000000.0 -0.7049 -0.5381
6138000000.0 -0.8174 0.2106
6141000000.0 -0.3309 0.7885
6144000000.0 0.3864 0.7652
6147000000.0 0.8149 0.1664
6150000000.0 0.6387 -0.5339
6153000000.0 0.009035 -0.838
6156000000.0 -0.665 -0.5494
6159000000.0 -0.84 0.1628
6162000000.0 -0.416 0.7802
6166000000.0 0.3377 0.7914
6169000000.0 0.8414 0.2713
6172000000.0 0.7207 -0.5211
6175000000.0 0.04006 -0.8778
6178000000.0 -0.6422 -0.5944
6181000000.0 -0.9044 0.1344
6184000000.0 -0.4688 0.7563
6188000000.0 0.3187 0.8447
6191000000.0 0.8399 0.3077
6194000000.0 0.7654 -0.4631
6197000000.0 0.1159 -0.9385
6200000000.0 -0.5952 -0.6489
6203000000.0 -0.9092 0.06963
6206000000.0 -0.5512 0.7683
6209000000.0 0.2157 0.8633
6212000000.0 0.8432 0.3791
6216000000.0 0.8351 -0.3818
6219000000.0 0.2173 -0.8572
6222000000.0 -0.5753 -0.6764
6225000000.0 -0.9056 -0.03308
6228000000.0 -0.5845 0.6846
6231000000.0 0.1112 0.9075
6234000000.0 0.7543 0.4822
6238000000.0 0.7985 -0.2923
6241000000.0 0.3218 -0.8214
6244000000.0 -0.4128 -0.7758
6247000000.0 -0.8505 -0.127
6250000000.0 -0.6606 0.5593
6253000000.0 0.02387 0.8371
6256000000.0 0.6426 0.518
6259000000.0 0.8369 -0.1525
6262000000.0 0.4095 -0.7155
6266000000.0 -0.3096 -0.743
6269000000.0 -0.7973 -0.2219
