! Created with skrf 1.8.0 (http://scikit-rf.org).
# Hz S RI R 50.0 
!freq ReS11 ImS11
4000000000.0 -0.2054 -1.516
4003000000.0 -1.309 -0.8053
4006000000.0 -1.479 0.4821
4009000000.0 -0.4823 1.406
4012000000.0 0.7812 1.343
4016000000.0 1.473 0.2153
4019000000.0 1.17 -1.036
4022000000.0 -0.09723 -1.58
4025000000.0 -1.31 -0.965
4028000000.0 -1.544 0.479
4031000000.0 -0.6241 1.539
4034000000.0 0.8357 1.423
4038000000.0 1.678 0.2421
4041000000.0 1.147 -1.09
4044000000.0 -0.1137 -1.645
4047000000.0 -1.346 -0.8918
4050000000.0 -1.572 0.4254
4053000000.0 -0.6738 1.51
4056000000.0 0.78 1.459
4059000000.0 1.589 0.3511
4062000000.0 1.263 -1.021
4066000000.0 0.04441 -1.609
4069000000.0 -1.232 -1.076
4072000000.0 -1.633 0.2708
4075000000.0 -0.8587 1.436
4078000000.0 0.5624 1.542
4081000000.0 1.559 0.5703
4084000000.0 1.424 -0.8693
4088000000.0 0.2579 -1.646
4091000000.0 -1.108 -1.236
4094000000.0 -1.675 0.07241
4097000000.0 -0.9798 1.328
4100000000.0 0.3999 1.604
4103000000.0 1.426 0.7393
4106000000.0 1.447 -0.6324
4109000000.0 0.4822 -1.518
4112000000.0 -0.8665 -1.331
4116000000.0 -1.56 -0.2001
4119000000.0 -1.125 0.9686
4122000000.0 0.005252 1.487
4125000000.0 1.121 0.9564
4128000000.0 1.491 -0.212
4131000000.0 0.8022 -1.268
4134000000.0 -0.4285 -1.437
4138000000.0 -1.34 -0.6276
4141000000.0 -1.354 0.6183
4144000000.0 -0.3506 1.471
4147000000.0 0.8776 1.252
4150000000.0 1.534 0.1329
4153000000.0 1.098 -1.098
4156000000.0 -0.0971 -1.526
4159000000.0 -1.243 -0.9191
4162000000.0 -1.462 0.3348
4166000000.0 -0.6981 1.362
4169000000.0 0.6143 1.386
4172000000.0 1.448 0.4216
4175000000.0 1.268 -0.8324
4178000000.0 0.1496 -1.509
4181000000.0 -1.046 -1.1
4184000000.0 -1.485 0.08603
4188000000.0 -0.9142 1.218
4191000000.0 0.3381 1.491
4194000000.0 1.431 0.6698
4197000000.0 1.429 -0.6683
4200000000.0 0.4086 -1.561
4203000000.0 -0.9862 -1.319
4206000000.0 -1.633 -0.06692
4209000000.0 -1.076 1.252
4212000000.0 0.3398 1.63
4216000000.0 1.498 0.7464
4219000000.0 1.548 -0.7234
4222000000.0 0.3449 -1.673
4225000000.0 -1.118 -1.288
4228000000.0 -1.729 0.04942
4231000000.0 -0.937 1.433
4234000000.0 0.5269 1.575
4238000000.0 1.577 0.5443
4241000000.0 1.367 -0.9615
4244000000.0 0.1073 -1.616
4247000000.0 -1.229 -1.059
4250000000.0 -1.561 0.2988
4253000000.0 -0.7314 1.4
4256000000.0 0.6935 1.407
4259000000.0 1.491 0.298
4262000000.0 1.196 -1.029
4266000000.0 -0.05091 -1.519
4269000000.0 -1.236 -0.8772
4272000000.0 -1.444 0.4257
4275000000.0 -0.522 1.397
4278000000.0 0.7283 1.263
4281000000.0 1.464 0.203
4284000000.0 1.062 -0.9641
4288000000.0 -0.1317 -1.395
4291000000.0 -1.196 -0.7713
4294000000.0 -1.306 0.4078
4297000000.0 -0.4847 1.277
4300000000.0 0.6442 1.146
4303000000.0 1.264 0.2331
4306000000.0 1.025 -0.8151
4309000000.0 0.03753 -1.302
4312000000.0 -0.9408 -0.8422
4316000000.0 -1.276 0.1987
4319000000.0 -0.6752 1.096
4322000000.0 0.425 1.242
4325000000.0 1.244 0.4796
4328000000.0 1.204 -0.6606
4331000000.0 0.2946 -1.339
4334000000.0 -0.8339 -1.069
4338000000.0 -1.393 -0.02915
4341000000.0 -0.9543 1.019
4344000000.0 0.197 1.388
4347000000.0 1.22 0.7316
4350000000.0 1.37 -0.4775
4353000000.0 0.4829 -1.362
4356000000.0 -0.7553 -1.279
4359000000.0 -1.429 -0.2932
4362000000.0 -1.127 0.9426
4366000000.0 0.03878 1.466
4369000000.0 1.136 0.9425
4372000000.0 1.46 -0.2856
4375000000.0 0.7279 -1.308
4378000000.0 -0.5491 -1.426
4381000000.0 -1.439 -0.4591
4384000000.0 -1.336 0.8038
4388000000.0 -0.2093 1.565
4391000000.0 1.089 1.129
4394000000.0 1.56 -0.1417
4397000000.0 0.8754 -1.349
4400000000.0 -0.4746 -1.539
4403000000.0 -1.505 -0.5486
4406000000.0 -1.377 0.8189
4409000000.0 -0.1849 1.596
4412000000.0 1.143 1.175
4416000000.0 1.55 -0.1566
4419000000.0 0.8061 -1.348
4422000000.0 -0.5493 -1.46
4425000000.0 -1.425 -0.4842
4428000000.0 -1.262 0.8243
4431000000.0 -0.0962 1.454
4434000000.0 1.06 0.998
4438000000.0 1.414 -0.2604
4441000000.0 0.6445 -1.264
4444000000.0 -0.5461 -1.299
4447000000.0 -1.334 -0.2756
4450000000.0 -1.051 0.8295
4453000000.0 0.02737 1.362
4456000000.0 1.057 0.7793
4459000000.0 1.256 -0.3469
4462000000.0 0.4871 -1.175
4466000000.0 -0.6309 -1.09
4469000000.0 -1.232 -0.1383
4472000000.0 -0.8346 0.8891
4475000000.0 0.1352 1.207
4478000000.0 1.04 0.6107
4481000000.0 1.13 -0.4107
4484000000.0 0.3457 -1.123
4488000000.0 -0.6479 -0.9951
4491000000.0 -1.142 -0.07278
4494000000.0 -0.7888 0.8718
4497000000.0 0.1709 1.121
4500000000.0 0.9797 0.5947
4503000000.0 1.013 -0.3965
4506000000.0 0.3263 -1.038
4509000000.0 -0.6211 -0.9106
4512000000.0 -1.083 -0.1239
4516000000.0 -0.7887 0.8152
4519000000.0 0.09969 1.155
4522000000.0 0.9451 0.6389
4525000000.0 1.088 -0.3348
4528000000.0 0.4377 -1.092
4531000000.0 -0.5751 -1.038
4534000000.0 -1.157 -0.1987
4538000000.0 -0.9267 0.7616
4541000000.0 0.01816 1.175
4544000000.0 0.9213 0.7235
4547000000.0 1.174 -0.2543
4550000000.0 0.5869 -1.06
4553000000.0 -0.4491 -1.127
4556000000.0 -1.162 -0.3789
4559000000.0 -1.057 0.6431
4562000000.0 -0.182 1.256
4566000000.0 0.8447 0.9448
4569000000.0 1.266 -0.03709
4572000000.0 0.8082 -1.017
4575000000.0 -0.2197 -1.301
4578000000.0 -1.156 -0.6274
4581000000.0 -1.245 0.5014
4584000000.0 -0.411 1.296
4588000000.0 0.7307 1.145
4591000000.0 1.341 0.1661
4594000000.0 0.9986 -0.9569
4597000000.0 -0.1021 -1.385
4600000000.0 -1.146 -0.786
4603000000.0 -1.345 0.3767
4606000000.0 -0.5785 1.296
4609000000.0 0.6232 1.273
4612000000.0 1.358 0.3149
4616000000.0 1.105 -0.8545
4619000000.0 0.03125 -1.396
4622000000.0 -1.062 -0.9256
4625000000.0 -1.387 0.2512
4628000000.0 -0.6941 1.212
4631000000.0 0.5136 1.3
4634000000.0 1.339 0.4241
4638000000.0 1.13 -0.7529
4641000000.0 0.1267 -1.377
4644000000.0 -1.013 -0.9348
4647000000.0 -1.363 0.2
4650000000.0 -0.681 1.148
4653000000.0 0.4774 1.227
4656000000.0 1.228 0.3764
4659000000.0 1.064 -0.7513
4662000000.0 0.07769 -1.26
4666000000.0 -0.9442 -0.8482
4669000000.0 -1.226 0.187
4672000000.0 -0.5895 1.018
4675000000.0 0.463 1.122
4678000000.0 1.113 0.3097
4681000000.0 0.9286 -0.7058
4684000000.0 0.07393 -1.153
4688000000.0 -0.8704 -0.7762
4691000000.0 -1.141 0.2069
4694000000.0 -0.5477 0.9863
4697000000.0 0.4215 1.049
4700000000.0 1.065 0.281
4703000000.0 0.8871 -0.6399
4706000000.0 0.01664 -1.095
4709000000.0 -0.8106 -0.7111
4712000000.0 -1.062 0.2016
4716000000.0 -0.4898 0.9508
4719000000.0 0.4529 1.011
4722000000.0 1.036 0.2681
4725000000.0 0.8572 -0.6446
4728000000.0 0.03033 -1.06
4731000000.0 -0.797 -0.6954
4734000000.0 -1.016 0.1799
4738000000.0 -0.5087 0.9225
4741000000.0 0.3815 0.9815
4744000000.0 0.993 0.3511
4747000000.0 0.8677 -0.5414
4750000000.0 0.1781 -1.061
4753000000.0 -0.7201 -0.823
4756000000.0 -1.119 0.04318
4759000000.0 -0.6797 0.8829
4762000000.0 0.2515 1.102
4766000000.0 0.9871 0.521
4769000000.0 1.02 -0.427
4772000000.0 0.3369 -1.11
4775000000.0 -0.6524 -0.9645
4778000000.0 -1.169 -0.1152
4781000000.0 -0.8628 0.8189
4784000000.0 0.04569 1.215
4788000000.0 0.9418 0.7311
4791000000.0 1.198 -0.2596
4794000000.0 0.5724 -1.106
4797000000.0 -0.4757 -1.155
4800000000.0 -1.195 -0.3989
4803000000.0 -1.06 0.6464
4806000000.0 -0.2005 1.252
4809000000.0 0.8304 0.9366
4812000000.0 1.281 -0.01469
4816000000.0 0.8227 -1.034
4819000000.0 -0.2742 -1.294
4822000000.0 -1.197 -0.6186
4825000000.0 -1.275 0.5187
4828000000.0 -0.4139 1.315
4831000000.0 0.7547 1.172
4834000000.0 1.38 0.1754
4838000000.0 0.9933 -0.9822
4841000000.0 -0.1089 -1.383
4844000000.0 -1.171 -0.8012
4847000000.0 -1.344 0.3945
4850000000.0 -0.5409 1.295
4853000000.0 0.6364 1.222
4856000000.0 1.352 0.2743
4859000000.0 1.06 -0.87
4862000000.0 -0.002519 -1.381
4866000000.0 -1.07 -0.8481
4869000000.0 -1.338 0.2895
4872000000.0 -0.603 1.21
4875000000.0 0.5716 1.215
4878000000.0 1.287 0.3276
4881000000.0 1.034 -0.7873
4884000000.0 0.05122 -1.275
4888000000.0 -0.9454 -0.8349
4891000000.0 -1.191 0.1968
4894000000.0 -0.5915 1.075
4897000000.0 0.4316 1.095
4900000000.0 1.113 0.3308
4903000000.0 0.9149 -0.639
4906000000.0 0.101 -1.098
4909000000.0 -0.7898 -0.7459
4912000000.0 -1.058 0.128
4916000000.0 -0.5689 0.8892
4919000000.0 0.3396 0.9491
4922000000.0 0.9353 0.3599
4925000000.0 0.8426 -0.4966
4928000000.0 0.1448 -0.949
4931000000.0 -0.646 -0.7396
4934000000.0 -0.9641 0.03115
4938000000.0 -0.5732 0.7545
4941000000.0 0.1889 0.9129
4944000000.0 0.8655 0.3827
4947000000.0 0.867 -0.4244
4950000000.0 0.2301 -0.9154
4953000000.0 -0.5697 -0.7583
4956000000.0 -0.9796 -0.04467
4959000000.0 -0.6552 0.6951
4962000000.0 0.1549 0.9631
4966000000.0 0.8395 0.483
4969000000.0 0.942 -0.3535
4972000000.0 0.343 -0.9346
4975000000.0 -0.542 -0.8401
4978000000.0 -1.04 -0.1326
4981000000.0 -0.7554 0.6929
4984000000.0 0.05856 1.041
4988000000.0 0.8674 0.5983
4991000000.0 1.031 -0.2641
4994000000.0 0.4657 -1.003
4997000000.0 -0.4535 -1.001
5000000000.0 -1.067 -0.2849
5003000000.0 -0.9531 0.6294
5006000000.0 -0.06976 1.151
5009000000.0 0.8422 0.8257
5012000000.0 1.232 -0.1273
5016000000.0 0.6724 -1.034
5019000000.0 -0.3686 -1.172
5022000000.0 -1.19 -0.4832
5025000000.0 -1.134 0.609
5028000000.0 -0.2396 1.276
5031000000.0 0.8194 0.9902
5034000000.0 1.274 0.005222
5038000000.0 0.8544 -0.9918
5041000000.0 -0.242 -1.292
5044000000.0 -1.11 -0.6312
5047000000.0 -1.239 0.4192
5050000000.0 -0.4742 1.209
5053000000.0 0.6742 1.139
5056000000.0 1.282 0.2293
5059000000.0 0.9916 -0.8757
5062000000.0 -0.05263 -1.292
5066000000.0 -1.031 -0.818
5069000000.0 -1.302 0.2881
5072000000.0 -0.6201 1.147
5075000000.0 0.4499 1.229
5078000000.0 1.234 0.3827
5081000000.0 1.109 -0.6684
5084000000.0 0.1335 -1.265
5088000000.0 -0.8758 -0.8706
5091000000.0 -1.188 0.09652
5094000000.0 -0.6984 0.9775
5097000000.0 0.2826 1.176
5100000000.0 1.035 0.5401
5103000000.0 1.051 -0.4614
5106000000.0 0.3521 -1.075
5109000000.0 -0.6165 -0.951
5112000000.0 -1.062 -0.1271
5116000000.0 -0.8011 0.764
5119000000.0 0.07418 1.052
5122000000.0 0.8205 0.6267
5125000000.0 1.064 -0.2495
5128000000.0 0.438 -0.9538
5131000000.0 -0.4435 -0.9168
5134000000.0 -0.9894 -0.2689
5138000000.0 -0.8351 0.6145
5141000000.0 -0.08263 0.9681
5144000000.0 0.7124 0.6725
5147000000.0 0.9461 -0.09741
5150000000.0 0.4887 -0.8047
5153000000.0 -0.2972 -0.8574
5156000000.0 -0.9173 -0.3344
5159000000.0 -0.8049 0.4365
5162000000.0 -0.1244 0.9139
5166000000.0 0.6026 0.6824
5169000000.0 0.9 -0.02422
5172000000.0 0.5134 -0.6942
5175000000.0 -0.2333 -0.8602
5178000000.0 -0.8332 -0.3613
5181000000.0 -0.8134 0.4322
5184000000.0 -0.207 0.8986
5188000000.0 0.6132 0.7325
5191000000.0 0.9476 -0.03329
5194000000.0 0.5297 -0.7459
5197000000.0 -0.2404 -0.9268
5200000000.0 -0.8682 -0.3813
5203000000.0 -0.852 0.4375
5206000000.0 -0.2195 0.9581
5209000000.0 0.6136 0.7777
5212000000.0 0.9778 0.0135
5216000000.0 0.614 -0.754
5219000000.0 -0.2126 -0.9732
5222000000.0 -0.8835 -0.4605
5225000000.0 -0.9158 0.3908
5228000000.0 -0.2741 0.964
5231000000.0 0.6203 0.8511
5234000000.0 1.046 0.0771
5238000000.0 0.701 -0.7372
5241000000.0 -0.1489 -1.05
5244000000.0 -0.8891 -0.5521
5247000000.0 -1.011 0.3252
5250000000.0 -0.4149 1.019
5253000000.0 0.4992 0.9655
5256000000.0 1.067 0.2392
5259000000.0 0.8671 -0.7014
5262000000.0 0.01455 -1.063
5266000000.0 -0.8037 -0.7069
5269000000.0 -1.09 0.1752
5272000000.0 -0.5726 0.9263
5275000000.0 0.3495 1.039
5278000000.0 1.011 0.4194
5281000000.0 0.9705 -0.5034
5284000000.0 0.2225 -1.072
5288000000.0 -0.6892 -0.8516
5291000000.0 -1.127 -0.04804
5294000000.0 -0.7638 0.8328
5297000000.0 0.1216 1.098
5300000000.0 0.9605 0.6478
5303000000.0 1.077 -0.3087
5306000000.0 0.489 -1.036
5309000000.0 -0.4881 -1.068
5312000000.0 -1.102 -0.3202
5316000000.0 -0.9774 0.6551
5319000000.0 -0.1132 1.128
5322000000.0 0.8246 0.8536
5325000000.0 1.159 -0.137
5328000000.0 0.682 -0.9719
5331000000.0 -0.3028 -1.111
5334000000.0 -1.055 -0.5001
5338000000.0 -1.03 0.524
5341000000.0 -0.2972 1.108
5344000000.0 0.6727 0.9136
5347000000.0 1.13 0.0338
5350000000.0 0.7485 -0.8433
5353000000.0 -0.1947 -1.102
5356000000.0 -0.9318 -0.5872
5359000000.0 -1.034 0.396
5362000000.0 -0.3674 1.054
5366000000.0 0.5857 0.9091
5369000000.0 1.081 0.1235
5372000000.0 0.7594 -0.731
5375000000.0 -0.07077 -1.061
5378000000.0 -0.8545 -0.566
5381000000.0 -0.9855 0.3141
5384000000.0 -0.3678 0.9721
5388000000.0 0.5324 0.8684
5391000000.0 0.979 0.115
5394000000.0 0.6899 -0.6983
5397000000.0 -0.1096 -0.9451
5400000000.0 -0.8053 -0.4974
5403000000.0 -0.8763 0.3121
5406000000.0 -0.2939 0.8678
5409000000.0 0.4707 0.734
5412000000.0 0.8808 0.06645
5416000000.0 0.62 -0.6085
5419000000.0 -0.1169 -0.8809
5422000000.0 -0.7482 -0.473
5425000000.0 -0.8442 0.3257
5428000000.0 -0.2921 0.8496
5431000000.0 0.4803 0.7663
5434000000.0 0.8597 0.09574
5438000000.0 0.6036 -0.6399
5441000000.0 -0.09965 -0.8758
5444000000.0 -0.7743 -0.4565
5447000000.0 -0.8393 0.3026
5450000000.0 -0.2845 0.8482
5453000000.0 0.4793 0.7516
5456000000.0 0.9004 0.1113
5459000000.0 0.6419 -0.6242
5462000000.0 -0.05593 -0.8811
5466000000.0 -0.7656 -0.5075
5469000000.0 -0.8675 0.2337
5472000000.0 -0.401 0.8044
5475000000.0 0.4283 0.8483
5478000000.0 0.9115 0.2297
5481000000.0 0.7692 -0.5408
5484000000.0 0.06791 -0.9337
5488000000.0 -0.6834 -0.6611
5491000000.0 -1.01 0.09246
5494000000.0 -0.5711 0.8475
5497000000.0 0.2736 0.9779
5500000000.0 0.9506 0.4157
5503000000.0 0.9491 -0.424
5506000000.0 0.2378 -0.988
5509000000.0 -0.6264 -0.8242
5512000000.0 -1.024 -0.08005
5516000000.0 -0.7331 0.7134
5519000000.0 0.1228 1.082
5522000000.0 0.8383 0.6001
5525000000.0 0.9915 -0.2554
5528000000.0 0.4145 -0.95
5531000000.0 -0.4198 -0.9518
5534000000.0 -1.041 -0.2367
5538000000.0 -0.8945 0.5815
5541000000.0 -0.1131 1.065
5544000000.0 0.7574 0.7621
5547000000.0 1.078 -0.105
5550000000.0 0.6046 -0.8876
5553000000.0 -0.2893 -1.069
5556000000.0 -1.006 -0.4188
5559000000.0 -0.9639 0.4755
5562000000.0 -0.296 1.053
5566000000.0 0.6357 0.8472
5569000000.0 1.054 0.04806
5572000000.0 0.7126 -0.7504
5575000000.0 -0.1369 -1.045
5578000000.0 -0.8389 -0.547
5581000000.0 -0.9508 0.2998
5584000000.0 -0.3676 0.9475
5588000000.0 0.4782 0.8648
5591000000.0 0.9818 0.1971
5594000000.0 0.7544 -0.6481
5597000000.0 -0.02065 -0.9592
5600000000.0 -0.7315 -0.5798
5603000000.0 -0.8936 0.2066
5606000000.0 -0.4058 0.8317
5609000000.0 0.3444 0.822
5612000000.0 0.8676 0.2433
5616000000.0 0.7286 -0.4985
5619000000.0 0.05414 -0.8875
5622000000.0 -0.6575 -0.6014
5625000000.0 -0.8652 0.1243
5628000000.0 -0.4322 0.7534
5631000000.0 0.3262 0.7998
5634000000.0 0.8006 0.2566
5638000000.0 0.7213 -0.4604
5641000000.0 0.1001 -0.8518
5644000000.0 -0.6009 -0.5848
5647000000.0 -0.8325 0.1072
5650000000.0 -0.4535 0.7294
5653000000.0 0.2817 0.7895
5656000000.0 0.7997 0.2697
5659000000.0 0.7338 -0.4396
5662000000.0 0.1234 -0.8598
5666000000.0 -0.6201 -0.6173
5669000000.0 -0.8671 0.1367
5672000000.0 -0.4598 0.7637
5675000000.0 0.2918 0.8608
5678000000.0 0.8575 0.3012
5681000000.0 0.7888 -0.4943
5684000000.0 0.1163 -0.9477
5688000000.0 -0.6594 -0.6646
5691000000.0 -0.9549 0.1063
5694000000.0 -0.5262 0.8086
5697000000.0 0.3022 0.9288
5700000000.0 0.9424 0.3662
5703000000.0 0.8912 -0.4947
5706000000.0 0.1561 -1.005
5709000000.0 -0.6559 -0.7618
5712000000.0 -1.042 0.02763
5716000000.0 -0.6366 0.7829
5719000000.0 0.2015 1.009
5722000000.0 0.9362 0.4878
5725000000.0 0.9674 -0.4252
5728000000.0 0.2748 -1.032
5731000000.0 -0.5809 -0.8954
5734000000.0 -1.057 -0.08205
5738000000.0 -0.7737 0.7343
5741000000.0 0.0711 1.104
5744000000.0 0.8844 0.6657
5747000000.0 1.074 -0.3001
5750000000.0 0.4386 -1.05
5753000000.0 -0.4945 -1.022
5756000000.0 -1.086 -0.2623
5759000000.0 -0.8852 0.6903
5762000000.0 -0.08516 1.115
5766000000.0 0.8132 0.7792
5769000000.0 1.119 -0.1105
5772000000.0 0.6099 -0.9187
5775000000.0 -0.3511 -1.068
5778000000.0 -1.04 -0.4424
5781000000.0 -0.9915 0.5111
5784000000.0 -0.2201 1.075
5788000000.0 0.6585 0.8781
5791000000.0 1.098 0.04279
5794000000.0 0.7178 -0.8014
5797000000.0 -0.1446 -1.092
5800000000.0 -0.9557 -0.6117
5803000000.0 -1.0 0.3167
5806000000.0 -0.3869 1.018
5809000000.0 0.5306 0.9013
5812000000.0 1.028 0.2005
5816000000.0 0.8276 -0.7012
5819000000.0 0.0128 -1.042
5822000000.0 -0.8032 -0.6413
5825000000.0 -0.9774 0.2246
5828000000.0 -0.4326 0.8684
5831000000.0 0.4283 0.8946
5834000000.0 0.9532 0.2727
5838000000.0 0.7996 -0.5578
5841000000.0 0.08069 -0.9524
5844000000.0 -0.7208 -0.6342
5847000000.0 -0.9556 0.1292
5850000000.0 -0.4976 0.8069
5853000000.0 0.3449 0.8706
5856000000.0 0.9091 0.3039
5859000000.0 0.7953 -0.5114
5862000000.0 0.1259 -0.9257
5866000000.0 -0.6275 -0.6494
5869000000.0 -0.8978 0.09024
5872000000.0 -0.4653 0.7846
5875000000.0 0.2771 0.8439
5878000000.0 0.8473 0.2998
5881000000.0 0.7677 -0.4321
5884000000.0 0.1106 -0.8703
5888000000.0 -0.6164 -0.6537
5891000000.0 -0.8896 0.06882
5894000000.0 -0.5019 0.7231
5897000000.0 0.2451 0.8423
5900000000.0 0.8206 0.3416
5903000000.0 0.7726 -0.4135
5906000000.0 0.1588 -0.8497
5909000000.0 -0.5449 -0.6816
5912000000.0 -0.8602 0.005147
5916000000.0 -0.5592 0.6779
5919000000.0 0.1531 0.8573
5922000000.0 0.7825 0.3985
5925000000.0 0.79 -0.3494
5928000000.0 0.2632 -0.8573
5931000000.0 -0.4946 -0.7639
5934000000.0 -0.8707 -0.07604
5938000000.0 -0.648 0.6221
5941000000.0 0.09612 0.8948
5944000000.0 0.747 0.5355
5947000000.0 0.8974 -0.2393
5950000000.0 0.3697 -0.8046
5953000000.0 -0.3834 -0.8507
5956000000.0 -0.8908 -0.2414
5959000000.0 -0.7621 0.5484
5962000000.0 -0.08813 0.949
5966000000.0 0.6906 0.6548
5969000000.0 0.9333 -0.09079
5972000000.0 0.5474 -0.7839
5975000000.0 -0.2547 -0.9291
5978000000.0 -0.8867 -0.4127
5981000000.0 -0.8862 0.4323
5984000000.0 -0.2426 0.9626
5988000000.0 0.5782 0.8144
5991000000.0 1.016 0.08587
5994000000.0 0.6664 -0.7491
5997000000.0 -0.1205 -1.009
6000000000.0 -0.8603 -0.5427
6003000000.0 -0.9355 0.3155
6006000000.0 -0.3926 0.9319
6009000000.0 0.4972 0.9064
6012000000.0 0.9866 0.1778
6016000000.0 0.7548 -0.6613
6019000000.0 -0.01481 -1.005
6022000000.0 -0.7852 -0.6258
6025000000.0 -0.9588 0.2185
6028000000.0 -0.4836 0.8919
6031000000.0 0.3898 0.9203
6034000000.0 0.9695 0.2518
6038000000.0 0.8164 -0.5715
6041000000.0 0.08766 -0.993
6044000000.0 -0.7152 -0.6938
6047000000.0 -0.9666 0.1185
6050000000.0 -0.5329 0.8105
6053000000.0 0.3166 0.9193
6056000000.0 0.9244 0.3336
6059000000.0 0.7907 -0.4822
6062000000.0 0.1051 -0.9075
6066000000.0 -0.6416 -0.6756
6069000000.0 -0.9137 0.03947
6072000000.0 -0.5288 0.752
6075000000.0 0.2481 0.8841
6078000000.0 0.8374 0.3297
6081000000.0 0.8098 -0.4001
6084000000.0 0.1511 -0.8741
6088000000.0 -0.5704 -0.6506
6091000000.0 -0.8509 0.008897
6094000000.0 -0.5214 0.6943
6097000000.0 0.1673 0.8431
6100000000.0 0.7847 0.3793
6103000000.0 0.7732 -0.3921
6106000000.0 0.2277 -0.8299
6109000000.0 -0.5292 -0.7031
6112000000.0 -0.9027 -0.003824
6116000000.0 -0.5535 0.6643
6119000000.0 0.1371 0.8348
6122000000.0 0.7906 0.4177
6125000000.0 0.8172 -0.3286
6128000000.0 0.2247 -0.8287
6131000000.0 -0.5274 -0.7046
6134000000.0 -0.8906 -0.06559
6138000000.0 -0.591 0.6477
6141000000.0 0.1017 0.9077
6144000000.0 0.7417 0.4542
6147000000.0 0.8461 -0.3082
6150000000.0 0.3084 -0.8531
6153000000.0 -0.4647 -0.7479
6156000000.0 -0.8791 -0.1222
6159000000.0 -0.6936 0.6198
6162000000.0 0.06498 0.8837
6166000000.0 0.7486 0.5399
6169000000.0 0.897 -0.2314
6172000000.0 0.3573 -0.8625
6175000000.0 -0.4206 -0.8505
6178000000.0 -0.9262 -0.2059
6181000000.0 -0.7018 0.5856
6184000000.0 -0.04692 0.9474
6188000000.0 0.743 0.6317
6191000000.0 0.9584 -0.1731
6194000000.0 0.465 -0.814
6197000000.0 -0.3681 -0.8429
6200000000.0 -0.9017 -0.3341
6203000000.0 -0.7965 0.4732
6206000000.0 -0.1172 0.9572
6209000000.0 0.6244 0.7103
6212000000.0 0.9449 -0.05065
6216000000.0 0.5602 -0.7577
6219000000.0 -0.2317 -0.9147
6222000000.0 -0.8279 -0.3685
6225000000.0 -0.8196 0.388
6228000000.0 -0.2691 0.9017
6231000000.0 0.5088 0.7406
6234000000.0 0.8735 0.01328
6238000000.0 0.6135 -0.6378
6241000000.0 -0.09407 -0.8812
6244000000.0 -0.7853 -0.5053
6247000000.0 -0.8578 0.2696
6250000000.0 -0.3238 0.8063
6253000000.0 0.3926 0.7371
6256000000.0 0.8365 0.1844
6259000000.0 0.6155 -0.5148
6262000000.0 0.02191 -0.8303
6266000000.0 -0.6229 -0.5235
