! Created with skrf 1.8.0 (http://scikit-rf.org).
# Hz S RI R 50.0 
!freq ReS11 ImS11
4000000000.0 0.6013648078984278 0.8141781585119141
4003000000.0 0.6127858240242446 0.8209059563218657
4006000000.0 0.6447972614609716 0.8022858884642625
4009000000.0 0.5955646212515219 0.8256127316211525
4012000000.0 0.6196601376995172 0.8276145566193643
4016000000.0 0.6734820660173223 0.7890234693179796
4019000000.0 0.6591119379944703 0.7698477722574469
4022000000.0 0.5827185359568388 0.8445169179706024
4025000000.0 0.7204678324302712 0.764551400969338
4028000000.0 0.7015368261022148 0.7863293948261685
4031000000.0 0.6643445054468067 0.7270537355562045
4034000000.0 0.6938606843554254 0.7336500906114152
4038000000.0 0.7036251880869903 0.6926347251454392
4041000000.0 0.7061959916938864 0.7634945502914302
4044000000.0 0.7405954181208301 0.8120440126466955
4047000000.0 0.7174787351500131 0.7863303039658293
4050000000.0 0.7288220921974453 0.7186570398523265
4053000000.0 0.7409331884575848 0.6987013074377109
4056000000.0 0.7585703092736932 0.6823365532465355
4059000000.0 0.7620259389219176 0.710887980933032
4062000000.0 0.787200991047123 0.6726009132121105
4066000000.0 0.7077885382786431 0.6379259241369912
4069000000.0 0.8024587751272227 0.6649786199887034
4072000000.0 0.7360761883210777 0.7051911050751924
4075000000.0 0.7795524798168324 0.7205571489756792
4078000000.0 0.8009837337817841 0.6699375067748513
4081000000.0 0.7383841042484942 0.7297140092978466
4084000000.0 0.8027569747313887 0.5957132101273235
4088000000.0 0.7247830268616177 0.6883005279572169
4091000000.0 0.8444425542686237 0.6931881339815011
4094000000.0 0.8075219983854444 0.6501368168624359
4097000000.0 0.839619044809589 0.6367658438396409
4100000000.0 0.8371326227543869 0.6003933615319668
4103000000.0 0.8345270700360425 0.6360497446915148
4106000000.0 0.8577848256672513 0.5984635352135395
4109000000.0 0.8334595906893141 0.5779773310394702
4112000000.0 0.8068639474257242 0.5850396452681128
4116000000.0 0.8390615838359831 0.6019686671956238
4119000000.0 0.8787978073890591 0.5420546122694753
4122000000.0 0.8885186093440324 0.5473278036659145
4125000000.0 0.8889616888210174 0.5499505745027042
4128000000.0 0.8255991650857433 0.5373280403211795
4131000000.0 0.8423317617109317 0.5375642173760492
4134000000.0 0.8399567413754211 0.5655832557488697
4138000000.0 0.8662088035206801 0.49577418064306317
4141000000.0 0.8807282890398733 0.4810438255072429
4144000000.0 0.8684550909727325 0.5494556729592961
4147000000.0 0.865151866335547 0.5222911357075914
4150000000.0 0.8857661779249933 0.5251978507460495
4153000000.0 0.8970084464119341 0.5073447097847535
4156000000.0 0.905655690007787 0.5051638948810807
4159000000.0 0.8653557157979415 0.4826817532357099
4162000000.0 0.8829026620776836 0.4832505776786683
4166000000.0 0.915310787354132 0.4943358433022892
4169000000.0 0.9200925327819034 0.4452159093575626
4172000000.0 0.9077261288609091 0.4618441152383553
4175000000.0 0.9227690499717452 0.45272799665854563
4178000000.0 0.9155770839142845 0.46534661556474355
4181000000.0 0.9162029485612249 0.43889378835466086
4184000000.0 0.9132585443207056 0.41179373865077057
4188000000.0 0.9207995235320927 0.40740654614465355
4191000000.0 0.9100128590095231 0.43386967329330767
4194000000.0 0.9044261012631365 0.3864673077319606
4197000000.0 0.9359307418818342 0.40956007927090604
4200000000.0 0.9551238709843008 0.39538121780206825
4203000000.0 0.948438333597224 0.3797680358487713
4206000000.0 0.9671629364872496 0.368797072025343
4209000000.0 0.9360191990567184 0.3650149297071476
4212000000.0 0.9585936926507971 0.33569247424892956
4216000000.0 0.9670161863216765 0.3596741945358353
4219000000.0 0.9754332603908489 0.34413876373772223
4222000000.0 0.9634835709715326 0.3036325976620408
4225000000.0 0.9629972781959619 0.32296971956711484
4228000000.0 0.985804121667808 0.33237797152896287
4231000000.0 0.9936789495352203 0.3016017901100235
4234000000.0 0.9692688958189352 0.3101042655518281
4238000000.0 0.9747860556675388 0.27817448883494345
4241000000.0 0.972634152027027 0.26878692541554183
4244000000.0 0.9731471040068147 0.2858371975827683
4247000000.0 0.9622178790492848 0.27701970998160286
4250000000.0 0.9670731312996153 0.2508466776452698
4253000000.0 0.9686223861044163 0.2325926526586184
4256000000.0 1.0022182316023562 0.23935603583062748
4259000000.0 0.9539013271235366 0.22375148000049364
4262000000.0 0.9980089609823029 0.20251985738049058
4266000000.0 0.9992106247264662 0.18840749482910735
4269000000.0 1.0032745635457245 0.20965214402729923
4272000000.0 0.9919674992873657 0.21111655340317032
4275000000.0 1.0058009579610452 0.20262098791187394
4278000000.0 0.9995237402601411 0.19170916402898946
4281000000.0 0.9999388181197001 0.17978234898135853
4284000000.0 1.0130172745335595 0.12912850124465453
4288000000.0 0.9932895258979804 0.194710171138656
4291000000.0 0.9769564958999729 0.14864769776684228
4294000000.0 0.9783567119814258 0.14822278145840795
4297000000.0 1.0006556298928941 0.16486124307843136
4300000000.0 0.9715943094610782 0.13449048351663578
4303000000.0 1.0039395277124317 0.09779510749514193
4306000000.0 1.0204586071929276 0.13169794431105872
4309000000.0 1.0123465402825549 0.09013989851813077
4312000000.0 0.9996945973517659 0.13935488933795306
4316000000.0 1.0170950604369726 0.08043757034759887
4319000000.0 0.9889868778516034 0.11468674080969331
4322000000.0 0.9809106750618578 0.05413667720854269
4325000000.0 1.0047204281003592 0.08390099392291324
4328000000.0 0.9964232957265486 0.05736050849186901
4331000000.0 1.0073183971161388 -0.009432152679296008
4334000000.0 1.0219062476414802 0.02167334643640309
4338000000.0 1.0182931143112381 0.015731719120432405
4341000000.0 0.9986179010252783 0.04849233782545764
4344000000.0 1.0180176735402802 0.020264282203442646
4347000000.0 1.0365190576572547 -0.012211080271698316
4350000000.0 0.9767563247201566 -0.022403055214251177
4353000000.0 0.979086074546113 0.018993479049886214
4356000000.0 1.0059488807948667 -0.04724740447866907
4359000000.0 0.9697958815178189 -0.02711692139618374
4362000000.0 1.0313254897461 -0.0973327289969334
4366000000.0 1.0282921503803473 -0.06835353685718762
4369000000.0 0.9751837488550194 -0.06101159514768181
4372000000.0 0.9901117948664755 -0.09297297891469468
4375000000.0 0.9929104380844891 -0.05847471299728191
4378000000.0 0.9739202987592376 -0.09825494963075872
4381000000.0 0.9753368322765257 -0.08484702799455823
4384000000.0 1.0676828136138552 -0.12250801893352467
4388000000.0 0.9958983310781502 -0.10554129859692503
4391000000.0 1.003934234647767 -0.1242582262625765
4394000000.0 0.9667719489421659 -0.14470768110270732
4397000000.0 0.9897553580201164 -0.14446095134960482
4400000000.0 1.031953694168165 -0.15458166662936457
4403000000.0 0.9919711950528246 -0.16354525251728064
4406000000.0 0.9955777086159334 -0.18653992749044038
4409000000.0 1.0204650005355793 -0.1849214158806398
4412000000.0 0.973622993980369 -0.24276450607191608
4416000000.0 0.9718146961114744 -0.20247635632181385
4419000000.0 0.9642988937884717 -0.23069787794864438
4422000000.0 0.972698598699471 -0.19836770042727359
4425000000.0 1.00364071116678 -0.19884834798956424
4428000000.0 0.9830836089499924 -0.24355631093913424
4431000000.0 1.0014989265342253 -0.2289238859612415
4434000000.0 0.9659071307916439 -0.23693116141538495
4438000000.0 1.0078109221495697 -0.26072677384903514
4441000000.0 0.98663511524517 -0.2691945093882243
4444000000.0 0.9497279249992117 -0.256028033363383
4447000000.0 0.9576612661957049 -0.300624209018951
4450000000.0 0.9598398249036966 -0.2607664829933817
4453000000.0 0.9800881284501024 -0.30647779870070324
4456000000.0 0.9195706407413093 -0.31646666297724246
4459000000.0 0.9145065638451253 -0.3154144944741869
4462000000.0 1.0099089254274372 -0.3391652323796924
4466000000.0 0.9852577549845933 -0.33921516566057586
4469000000.0 0.9700361303107117 -0.3266444856032499
4472000000.0 0.9501527230082155 -0.3744862201654297
4475000000.0 0.9131834813522114 -0.343069318592442
4478000000.0 0.9621578772564015 -0.4040379682372376
4481000000.0 0.8960196220968797 -0.37672178845637655
4484000000.0 0.906077890673723 -0.4149333494155968
4488000000.0 0.9130854385195308 -0.40401013633711064
4491000000.0 0.9155665653466849 -0.40816408904505574
4494000000.0 0.9264618023637052 -0.39665225114789976
4497000000.0 0.9228603598727001 -0.39365087932520876
4500000000.0 0.9128375981767733 -0.4133549610104634
4503000000.0 0.9338279197262869 -0.4270363739417994
4506000000.0 0.8927105363050198 -0.4451363937759684
4509000000.0 0.8923047324735824 -0.4308222749948242
4512000000.0 0.866172746085167 -0.45502868846289324
4516000000.0 0.9172389999326234 -0.46042942164346257
4519000000.0 0.8899370586267044 -0.46027170117921606
4522000000.0 0.8826984566802907 -0.48393514308805563
4525000000.0 0.897567170043021 -0.4601618977408609
4528000000.0 0.9128946318918938 -0.5032176390226533
4531000000.0 0.8717246602009987 -0.4893716901161157
4534000000.0 0.847913168948636 -0.4856750818305947
4538000000.0 0.8653488754908971 -0.5331821027569441
4541000000.0 0.8302112993470357 -0.5580562665752954
4544000000.0 0.8384748013781869 -0.5153024795380003
4547000000.0 0.8510847108357482 -0.5147573307934314
4550000000.0 0.8633732161410017 -0.5588444352164343
4553000000.0 0.8354677295000739 -0.5550278304992657
4556000000.0 0.8191458422102664 -0.5706050300418386
4559000000.0 0.8176794319738341 -0.5717608602876578
4562000000.0 0.8379794326150076 -0.5734815780941763
4566000000.0 0.8307883772919973 -0.6047303702974871
4569000000.0 0.8011746536828949 -0.5773065081166755
4572000000.0 0.8067471375623074 -0.5938726908447757
4575000000.0 0.8001398807348397 -0.6187296687702571
4578000000.0 0.8317677351875865 -0.6183745535241191
4581000000.0 0.8000629215668885 -0.6392685454454149
4584000000.0 0.7744919765773522 -0.6256051109126827
4588000000.0 0.8099748579111524 -0.634087797300991
4591000000.0 0.7766172919523416 -0.6347355901125623
4594000000.0 0.7549077110960135 -0.6508775422832688
4597000000.0 0.7768790303984938 -0.6773397796514341
4600000000.0 0.7439346459863512 -0.6628902004031582
4603000000.0 0.7487309206360754 -0.6585831271946018
4606000000.0 0.7640628918086576 -0.6752570327814389
4609000000.0 0.7484790939577279 -0.6794033598778773
4612000000.0 0.745493243393491 -0.6966061750600903
4616000000.0 0.7249340913170603 -0.6928395073146582
4619000000.0 0.7044340519913824 -0.693475666765554
4622000000.0 0.7111911664150077 -0.6974314423256335
4625000000.0 0.690002463605282 -0.6939841857858765
4628000000.0 0.6977028530650699 -0.7108808774084692
4631000000.0 0.6901416716636819 -0.7284225808812813
4634000000.0 0.6885037101936123 -0.7349650471952861
4638000000.0 0.6946678971814753 -0.7464870730127757
4641000000.0 0.6902760358178092 -0.7392759212696073
4644000000.0 0.6709020811511968 -0.7516065113953032
4647000000.0 0.6914406784977128 -0.7488257770409047
4650000000.0 0.6528654057853245 -0.7632252845102551
4653000000.0 0.6702427209995686 -0.7688974017394826
4656000000.0 0.6494662693690028 -0.7815044445375257
4659000000.0 0.6254751684482259 -0.8051217791508835
4662000000.0 0.6409066069857374 -0.7927097458262404
4666000000.0 0.6084627578963039 -0.7905745478676458
4669000000.0 0.6471720955744644 -0.7937616628815105
4672000000.0 0.585647610713451 -0.820993989616466
4675000000.0 0.6031902849933568 -0.8078879372408175
4678000000.0 0.5802851655708773 -0.8094994778474092
4681000000.0 0.5748790345421143 -0.8540670959527679
4684000000.0 0.5694073177641714 -0.847104935989261
4688000000.0 0.5305184864042051 -0.8366902432373569
4691000000.0 0.5867978561736165 -0.8184288355263196
4694000000.0 0.563125835478799 -0.8281137878217402
4697000000.0 0.5171889180064493 -0.8513942799960699
4700000000.0 0.5482843964118572 -0.8360582459071113
4703000000.0 0.5407047438011026 -0.8233029115814181
4706000000.0 0.514433735882032 -0.870456690303683
4709000000.0 0.5200962967857604 -0.8650030136745873
4712000000.0 0.5456599333253807 -0.8532333641331381
4716000000.0 0.5003716656918853 -0.879061152518076
4719000000.0 0.5406524445876947 -0.8601636690969746
4722000000.0 0.504127886591528 -0.8829381179355964
4725000000.0 0.46607748000998317 -0.876153667838053
4728000000.0 0.47598413162172915 -0.8912327389794676
4731000000.0 0.4941399774161278 -0.9148730308620725
4734000000.0 0.48767749916994946 -0.883108502555717
4738000000.0 0.48221413500630617 -0.9210427717415216
4741000000.0 0.4761830764759438 -0.9154081536163375
4744000000.0 0.4331569382642394 -0.9038285058558567
4747000000.0 0.44794355916821865 -0.8917570391614512
4750000000.0 0.4374815667643985 -0.914408309267842
4753000000.0 0.43328103522376543 -0.9407653391717992
4756000000.0 0.42626028282433626 -0.9409980444357864
4759000000.0 0.41798767585294033 -0.9459980939687069
4762000000.0 0.3856903682509232 -0.9602599543794719
4766000000.0 0.35442172368528435 -0.9397792618736617
4769000000.0 0.37436011820497206 -0.9654989544749276
4772000000.0 0.3461935442053578 -0.9604387871394369
4775000000.0 0.38743322389874996 -0.9814855143725829
4778000000.0 0.3500122411131452 -0.9619688588580367
4781000000.0 0.3655918309415051 -0.9414668223146474
4784000000.0 0.37033048565775245 -0.934204181960924
4788000000.0 0.3421546436706107 -0.9838600136223112
4791000000.0 0.3290687139257678 -0.9593906189125062
4794000000.0 0.34833220796258724 -0.9835656884098449
4797000000.0 0.29728177686362883 -0.9656453354218454
4800000000.0 0.2779012606162743 -0.9390074022051196
4803000000.0 0.22444500706371473 -0.97451213835497
4806000000.0 0.2846117068193431 -0.9847414976245705
4809000000.0 0.23995256045939406 -0.9796273042645994
4812000000.0 0.238434983698307 -0.9751902999926703
4816000000.0 0.28141365723944683 -0.9729442155781629
4819000000.0 0.2761966188717575 -1.0180125594648641
4822000000.0 0.272509921667976 -1.0275272219552463
4825000000.0 0.2444230017949114 -1.00598346285641
4828000000.0 0.224006808249041 -0.9778518518839551
4831000000.0 0.17951125679470417 -1.0162125843491852
4834000000.0 0.2331360578622808 -0.9894980630148951
4838000000.0 0.20087503256576128 -1.0338219838585445
4841000000.0 0.17401817198577074 -0.9863535476666488
4844000000.0 0.2254737540499065 -0.9969650733752661
4847000000.0 0.18884852337945873 -0.9812637942149554
4850000000.0 0.1497253506589651 -1.0483268727835537
4853000000.0 0.13704736872156556 -0.9717016415211344
4856000000.0 0.1574621441483799 -0.9948389058212824
4859000000.0 0.14449523598940686 -1.043070481383126
4862000000.0 0.15856865191561859 -0.9944074087916798
4866000000.0 0.11212738749327375 -1.032032500727959
4869000000.0 0.09592817321495202 -1.0158379044072616
4872000000.0 0.07943662948578878 -1.0476191414717857
4875000000.0 0.16825469546988087 -1.0601170193211513
4878000000.0 0.09023884882571484 -1.0375973515052874
4881000000.0 0.05223892251664401 -1.0693153305112062
4884000000.0 0.08640309621946105 -1.0149068304895703
4888000000.0 0.10130498824556768 -1.0247374296007679
4891000000.0 0.07625746135171316 -1.0459317767834844
4894000000.0 0.021942141090372715 -1.0313086750974856
4897000000.0 0.10104460914793095 -1.0177900881060589
4900000000.0 0.042686823736876114 -1.0273987223768584
4903000000.0 0.04032491354345523 -1.0594028585238309
4906000000.0 0.01837688859005747 -1.05831047714098
4909000000.0 -0.00742720053756785 -1.0049159307721038
4912000000.0 -0.0077793022971036005 -1.0638083283084003
4916000000.0 0.01802771886812197 -1.0529149308445025
4919000000.0 0.037153833074047585 -1.0231377189586104
4922000000.0 0.004514997252024866 -1.007685034919883
4925000000.0 -0.07527648843434498 -1.0253571828816583
4928000000.0 0.031420857407724594 -0.9960046579610332
4931000000.0 -0.0221462133419892 -1.0659363402786026
4934000000.0 -0.03381014029605903 -0.9656615512219698
4938000000.0 -0.10273882413737893 -1.0177249548648934
4941000000.0 -0.1040863590779514 -1.003013897534733
4944000000.0 -0.043856778485423104 -0.9488628002458634
4947000000.0 -0.07760572387258366 -0.9867791456411799
4950000000.0 -0.07066380632715623 -0.9997596365125433
4953000000.0 -0.16410962311923638 -1.036744915673855
4956000000.0 -0.11928320628871439 -0.9858615651845308
4959000000.0 -0.14092881639127405 -0.98745658814668
4962000000.0 -0.1349392458574166 -1.0394758832275595
4966000000.0 -0.1532877009400888 -1.0599906416246865
4969000000.0 -0.11140778184583422 -1.056792994871056
4972000000.0 -0.1291512549481099 -1.041094919901722
4975000000.0 -0.11055139444652476 -0.9990446904861878
4978000000.0 -0.17300349616229754 -1.0247884083233114
4981000000.0 -0.19157851291184827 -1.0104680300761057
4984000000.0 -0.1724376922961968 -1.0016987583971326
4988000000.0 -0.15042458485646293 -1.01087105002231
4991000000.0 -0.13612529765052284 -1.0543167399797253
4994000000.0 -0.19683145085117087 -1.001648946361988
4997000000.0 -0.22629700560495458 -0.9817080473010541
5000000000.0 -0.20048781635911272 -1.0189118223179756
5003000000.0 -0.22235768105890347 -1.0592051731457903
5006000000.0 -0.2545408164985383 -1.0701387318344089
5009000000.0 -0.2267306742008909 -1.0022076102044812
5012000000.0 -0.27860120408784 -0.9988474452453724
5016000000.0 -0.2526834411189953 -1.050347375626883
5019000000.0 -0.2814366258345188 -0.9971291416556822
5022000000.0 -0.281451130432134 -0.9989781498480446
5025000000.0 -0.29154650029188717 -1.05621290987917
5028000000.0 -0.30443655450979756 -0.9870117225872541
5031000000.0 -0.310088567637288 -0.9839565878629671
5034000000.0 -0.33670324155307796 -1.009014306354537
5038000000.0 -0.3165939097057887 -0.9352217607668907
5041000000.0 -0.2948034996558483 -1.014332962069223
5044000000.0 -0.2878085932655141 -0.9782254388053765
5047000000.0 -0.33166357029887045 -0.98316368528578
5050000000.0 -0.25144359815348516 -0.9883250469738893
5053000000.0 -0.38356458213913536 -0.9972731698619575
5056000000.0 -0.33428227652407805 -0.9451139350534559
5059000000.0 -0.3275108604356061 -0.9778637658884289
5062000000.0 -0.3874541287543075 -0.9778140209832156
5066000000.0 -0.34722149879295205 -0.9636624810891135
5069000000.0 -0.42625861350824157 -0.9549146366041149
5072000000.0 -0.36903273443038215 -0.944264892623992
5075000000.0 -0.407194905032755 -0.9525315180222105
5078000000.0 -0.45352702383415183 -0.9333558928135637
5081000000.0 -0.41375404336584853 -0.9167950822739709
5084000000.0 -0.44563444213558356 -0.9272334330352798
5088000000.0 -0.41893959698590183 -0.9353275491795869
5091000000.0 -0.47043663403839514 -0.9254291503535395
5094000000.0 -0.4624931723030536 -0.9056987068188324
5097000000.0 -0.4204580511152807 -0.9309243023362919
5100000000.0 -0.4175389887544216 -0.903728969250594
5103000000.0 -0.5001501261786808 -0.9418971998307751
5106000000.0 -0.5586818985331352 -0.9754216314895314
5109000000.0 -0.45036879716737105 -0.869306757478709
5112000000.0 -0.511943857515264 -0.888647872275353
5116000000.0 -0.4717427833595121 -0.8474590421098969
5119000000.0 -0.4879116167014645 -0.9205604604770337
5122000000.0 -0.5537146259347513 -0.9284196152557014
5125000000.0 -0.48099514271181 -0.8564475612316401
5128000000.0 -0.5394917782423249 -0.8722880817966499
5131000000.0 -0.5435501829489118 -0.8791182720758844
5134000000.0 -0.5465867792267157 -0.8792701658046383
5138000000.0 -0.5200949254525666 -0.8750901718308601
5141000000.0 -0.5197425036944143 -0.9057162447385145
5144000000.0 -0.5227422359997669 -0.904752390219415
5147000000.0 -0.591760499314665 -0.9113762282466714
5150000000.0 -0.5228055666302714 -0.8583494260194836
5153000000.0 -0.5692401646580452 -0.8741629993022486
5156000000.0 -0.5917736036296348 -0.8751009019985894
5159000000.0 -0.6359787543502695 -0.861960457020014
5162000000.0 -0.5945855911807159 -0.8220546744077896
5166000000.0 -0.6263800222281897 -0.8627514087491521
5169000000.0 -0.6267690848707173 -0.8720364142278081
5172000000.0 -0.6260311928563765 -0.8163851735109214
5175000000.0 -0.642905969095673 -0.8660204952372349
5178000000.0 -0.6553203592343835 -0.8488003645311898
5181000000.0 -0.6400546527853155 -0.8414207787910865
5184000000.0 -0.6246223100566388 -0.8095143502075495
5188000000.0 -0.6650593734018673 -0.8209166381051107
