! Created with skrf 1.8.0 (http://scikit-rf.org).
# Hz S RI R 50.0 
!freq ReS11 ImS11
4000000000.0 0.6415489352954313 0.8420647839736128
4003000000.0 0.684603834706369 0.831478267815569
4006000000.0 0.6889768218270054 0.7978920482193211
4009000000.0 0.701885841003369 0.8162155924393102
4012000000.0 0.5863592518441059 0.8709331092580203
4016000000.0 0.6848433163040806 0.811741255031935
4019000000.0 0.6911224113785339 0.7667232731174752
4022000000.0 0.6873512157342553 0.8287911706552727
4025000000.0 0.7405285097205764 0.7630072454590333
4028000000.0 0.7197974468784537 0.7397248298146442
4031000000.0 0.6822561365863102 0.7322112930000836
4034000000.0 0.7080125905699444 0.7620824682844487
4038000000.0 0.769672121106745 0.7531988806454671
4041000000.0 0.7770567322222754 0.7457732757291031
4044000000.0 0.7781445974958547 0.8015225953762389
4047000000.0 0.7636236891203654 0.7661702064865092
4050000000.0 0.8070194424247804 0.70301565957226
4053000000.0 0.7545142212739495 0.6942686622401737
4056000000.0 0.7835383853179259 0.707106069477437
4059000000.0 0.7338262351378226 0.7275899231922738
4062000000.0 0.7971339113781868 0.6550079136173934
4066000000.0 0.7298530820080098 0.6154704972663196
4069000000.0 0.8422283636925499 0.6823903929011297
4072000000.0 0.7277633641879745 0.7145352208327862
4075000000.0 0.8198664106257786 0.7234274799621476
4078000000.0 0.829821137871776 0.6935034876283753
4081000000.0 0.7944490170897837 0.7536985622430759
4084000000.0 0.837386666092043 0.6713506284516384
4088000000.0 0.8106111094168785 0.6918706496244921
4091000000.0 0.8867445246878245 0.6999968024015988
4094000000.0 0.8125028373895063 0.6736978214886179
4097000000.0 0.8577947653222557 0.6336625904145041
4100000000.0 0.8365037991486408 0.6357429763032441
4103000000.0 0.8546083386869294 0.652769432881271
4106000000.0 0.8825513917610663 0.6115894679763925
4109000000.0 0.8887963346232244 0.567147897846054
4112000000.0 0.8428624836048222 0.5873324031865528
4116000000.0 0.8285684611889689 0.6415560079867528
4119000000.0 0.8635990602654708 0.5719482691093599
4122000000.0 0.8561703658041827 0.5483917300388962
4125000000.0 0.9165529231648119 0.5663996332531869
4128000000.0 0.8640219434064533 0.5542419030494873
4131000000.0 0.874551357459509 0.5327815786597222
4134000000.0 0.8888825205469693 0.551930563997246
4138000000.0 0.8846890127510285 0.5054766630022067
4141000000.0 0.9078644973930953 0.5650899366773555
4144000000.0 0.9186682617593651 0.5298186319192475
4147000000.0 0.893752634101484 0.5098953435698539
4150000000.0 0.9282806006631518 0.5427733666188432
4153000000.0 0.9246042128663355 0.5018725629547374
4156000000.0 0.9451026378560063 0.5305081173880639
4159000000.0 0.9117916612295514 0.4928790919686708
4162000000.0 0.8683138567883353 0.5048211559859983
4166000000.0 0.9245645419538926 0.45769251844309966
4169000000.0 0.9386880703032261 0.47687237460022336
4172000000.0 0.9524941152505606 0.45159944007302005
4175000000.0 0.9351495669068609 0.46288347991952533
4178000000.0 0.9405840494839492 0.47656754170579063
4181000000.0 0.9606427656137451 0.4394849015361938
4184000000.0 0.9504738869998846 0.4559464710826772
4188000000.0 0.9656973261869424 0.39894600450014817
4191000000.0 0.9063135285992996 0.45485540959179055
4194000000.0 0.9356138409547202 0.390337477144836
4197000000.0 0.9701358896679564 0.4052007460858477
4200000000.0 0.9694812645216819 0.40702506777514313
4203000000.0 0.9691494825525998 0.4077559593680994
4206000000.0 0.9691867130850725 0.38409423994332165
4209000000.0 0.9507143050024126 0.3821014444672228
4212000000.0 0.9812968255960415 0.3357073501956026
4216000000.0 0.9503337545219693 0.3589605513282898
4219000000.0 0.9751523590790633 0.35188516151246274
4222000000.0 0.9822266582424584 0.31375161142788693
4225000000.0 0.9660876193345751 0.33734398833946233
4228000000.0 0.9802097771676026 0.3249592932257104
4231000000.0 0.9859289463662522 0.308888412084823
4234000000.0 0.9778578810417965 0.30494212280110794
4238000000.0 0.9829281669568228 0.2876734505372741
4241000000.0 0.9868216886952674 0.2710098296809073
4244000000.0 0.9801802785764646 0.2732393897704637
4247000000.0 0.9893321064652932 0.2723294324389254
4250000000.0 0.9932397040213834 0.24188450196281835
4253000000.0 0.9801029566333197 0.24181172805541468
4256000000.0 1.0135883407412825 0.24327209340007128
4259000000.0 0.9501932026685437 0.2177886094849865
4262000000.0 0.9992275296074307 0.20753575829023088
4266000000.0 1.0270302225691963 0.20009849489211318
4269000000.0 1.0082639433631668 0.21783534472931695
4272000000.0 0.9918563266134589 0.19026392016103705
4275000000.0 1.0113089572033784 0.1991890233091071
4278000000.0 1.0248142245708116 0.19314923884644158
4281000000.0 1.001359984761679 0.17410540462762497
4284000000.0 1.0317824387070524 0.14373616068778045
4288000000.0 0.9902294394238526 0.20341614834276503
4291000000.0 1.0015848690430742 0.13618944853414194
4294000000.0 1.0199996383249572 0.1263966498716303
4297000000.0 0.972443171911065 0.16027419093114675
4300000000.0 1.0114727600585605 0.12339726905825171
4303000000.0 1.0405725041198346 0.08241454062999175
4306000000.0 1.0098525222274821 0.12056268243643387
4309000000.0 1.0363513252451737 0.11471703716352814
4312000000.0 1.0349161947475007 0.11475152294181368
4316000000.0 1.0348279141710934 0.08540271593152059
4319000000.0 1.028290307501417 0.08403199592613274
4322000000.0 1.0295487489310762 0.03620796879583531
4325000000.0 1.027584671349414 0.05607506979203429
4328000000.0 1.0328164358498055 0.036807694340538724
4331000000.0 1.0368814779236053 0.013551286795234208
4334000000.0 1.048799497558437 0.014442642778918047
4338000000.0 1.0303935929939934 0.030202076553857746
4341000000.0 1.0072742755463235 0.04613465835552735
4344000000.0 1.0512694067591886 0.009593759175776956
4347000000.0 1.0164553495275805 -0.029773748232959085
4350000000.0 0.988016378013767 -0.037870268913454436
4353000000.0 1.0157216336010733 -0.011826908452375329
4356000000.0 1.0130631622380772 -0.0682457989180473
4359000000.0 0.9666420541521588 -0.021045471576548458
4362000000.0 1.0268946366920684 -0.1109237538791955
4366000000.0 1.039872138114756 -0.0865199610623916
4369000000.0 0.9775210570096967 -0.05975080543282146
4372000000.0 1.0088557768354105 -0.10165966452423476
4375000000.0 1.0131579182190897 -0.0735359069594952
4378000000.0 0.9919377175174648 -0.09376110637134716
4381000000.0 1.01450040164041 -0.08278455174374968
4384000000.0 1.0826515014044609 -0.12464660045439593
4388000000.0 0.9976842246541852 -0.1116285303692147
4391000000.0 1.0130927953615292 -0.11609874160231555
4394000000.0 0.9712520307611833 -0.14642238688709844
4397000000.0 1.010807868548616 -0.1413757224734198
4400000000.0 1.0322539310649343 -0.17520027325615511
4403000000.0 1.0183971358406603 -0.16299526493305633
4406000000.0 0.9957945780080073 -0.1928596852655509
4409000000.0 1.028229307229207 -0.19821459023160243
4412000000.0 0.986205811777027 -0.24813392774119641
4416000000.0 0.9779353434859193 -0.21657164573350618
4419000000.0 0.9846300305327272 -0.2266726740051761
4422000000.0 0.9954726448024551 -0.2114629911059256
4425000000.0 1.0116359087895526 -0.20200960937579038
4428000000.0 0.9816969226844043 -0.2362932666201515
4431000000.0 1.0061158220956339 -0.2362471622488267
4434000000.0 0.9690649428933946 -0.24203573121896033
4438000000.0 1.0108288805427361 -0.2687319084924853
4441000000.0 1.002751676613864 -0.27016304011287273
4444000000.0 0.9750927043876993 -0.27257650387959953
4447000000.0 0.9580918542207961 -0.29443374071394907
4450000000.0 0.9609007341329366 -0.27658234706603374
4453000000.0 0.9975716734995403 -0.31576626800636387
4456000000.0 0.9306604585674789 -0.3147044186597519
4459000000.0 0.9234533669106868 -0.320473883933598
4462000000.0 1.0085709163267915 -0.34987265055319805
4466000000.0 0.9860025607628645 -0.3629399822770173
4469000000.0 0.9579034074810718 -0.33925645396454696
4472000000.0 0.9670367657962572 -0.369100629934921
4475000000.0 0.9350272060988567 -0.3617500373848395
4478000000.0 0.9951821539271068 -0.4045203030856924
4481000000.0 0.9166885962315154 -0.381840779657736
4484000000.0 0.9051344414328091 -0.4249980776452571
4488000000.0 0.933745245525904 -0.40992145400051166
4491000000.0 0.9425734275856185 -0.3983756100125693
4494000000.0 0.9347774655347401 -0.40845353409636653
4497000000.0 0.9194211806818544 -0.41354022024598186
4500000000.0 0.9142854904866105 -0.42525003231376635
4503000000.0 0.9575697682532633 -0.43273814076025313
4506000000.0 0.8862399181800518 -0.44441814522380874
4509000000.0 0.8902582658563789 -0.45389515396937385
4512000000.0 0.8769694392765884 -0.4680844915214387
4516000000.0 0.894189279861055 -0.4892464238160903
4519000000.0 0.8915005185907089 -0.45717659400659433
4522000000.0 0.8922044262751039 -0.5071278213311724
4525000000.0 0.8965717084601024 -0.4537539012144125
4528000000.0 0.9138154386014214 -0.5157901059340305
4531000000.0 0.8887367880364143 -0.508197334584817
4534000000.0 0.8667125693743272 -0.4991274674122361
4538000000.0 0.8523178024848639 -0.520431318517994
4541000000.0 0.8538252990944273 -0.5475021073213039
4544000000.0 0.8584949773561019 -0.5417042257613774
4547000000.0 0.8535529376376243 -0.531797951666318
4550000000.0 0.8409023157777016 -0.5624470739426954
4553000000.0 0.8416589066610074 -0.5770237693453657
4556000000.0 0.8382327398318177 -0.5625717399425584
4559000000.0 0.8278777781876296 -0.575139904614212
4562000000.0 0.8422805451532007 -0.5649174140045439
4566000000.0 0.825465009371694 -0.5922133175839772
4569000000.0 0.8002187566041989 -0.589555464005864
4572000000.0 0.8102074223503324 -0.607278340571981
4575000000.0 0.8023224762924555 -0.6269595591198135
4578000000.0 0.8552248316355111 -0.6336305085169905
4581000000.0 0.7914698537250896 -0.6485028172734064
4584000000.0 0.785438394115522 -0.6424567916041999
4588000000.0 0.7963482016110245 -0.6600422023697478
4591000000.0 0.780728755199013 -0.6256547969185161
4594000000.0 0.7582318494276372 -0.6542874415816292
4597000000.0 0.7723626891083235 -0.6579990633056291
4600000000.0 0.7419388032776136 -0.6752433142888675
4603000000.0 0.7467266176575278 -0.6930697949531183
4606000000.0 0.7632271087122774 -0.68320320947669
4609000000.0 0.7539691661620742 -0.6888482561965475
4612000000.0 0.7442843147304997 -0.7058981896363954
4616000000.0 0.7376524929364554 -0.6858718817904282
4619000000.0 0.7453240847899815 -0.7175158198293743
4622000000.0 0.7272464842496127 -0.7194035683373929
4625000000.0 0.6867281163506431 -0.72922420126673
4628000000.0 0.6984416064463396 -0.7117912799233977
4631000000.0 0.6908232380989789 -0.7380178785967226
4634000000.0 0.7045830289944985 -0.7536264135833963
4638000000.0 0.6873057687291907 -0.7414413836030351
4641000000.0 0.6855218489374004 -0.7360792499754197
4644000000.0 0.6730374015407592 -0.767861069803252
4647000000.0 0.6729868036518379 -0.7772442424966163
4650000000.0 0.6602683473385811 -0.7770143447238925
4653000000.0 0.6851109314520263 -0.7784141336618712
4656000000.0 0.6474963431693912 -0.7855114316966638
4659000000.0 0.6411712344878429 -0.788737495013614
4662000000.0 0.6500906474816529 -0.7838102383696697
4666000000.0 0.6248024012438663 -0.8116038725180363
4669000000.0 0.6199604602483668 -0.8071189727309567
4672000000.0 0.6072362217056292 -0.83970452685504
4675000000.0 0.6148985655554351 -0.8216852633462839
4678000000.0 0.5959195847205317 -0.809332360523423
4681000000.0 0.5650365812399227 -0.839824405733119
4684000000.0 0.5866612375835374 -0.8352795468943202
4688000000.0 0.5449690284355391 -0.8484732573214439
4691000000.0 0.5799552107246034 -0.8381698833374258
4694000000.0 0.5378261646201321 -0.8477727137141329
4697000000.0 0.5308726285551654 -0.8498311328912205
4700000000.0 0.5452074207757635 -0.8771721404294395
4703000000.0 0.5553524026257719 -0.8132940578576613
4706000000.0 0.5171629195344936 -0.8823544837104008
4709000000.0 0.5339273167828191 -0.870525452975851
4712000000.0 0.5317264080987679 -0.881845114863154
4716000000.0 0.5359598979543999 -0.9067406704210601
4719000000.0 0.5256623802783501 -0.8956451792746258
4722000000.0 0.5272458563472364 -0.8859324544733729
4725000000.0 0.4874185535270916 -0.8842874050537316
4728000000.0 0.47698444830660164 -0.8671574221985687
4731000000.0 0.5004764962738226 -0.9246994522821104
4734000000.0 0.4879030405348135 -0.8919551080838212
4738000000.0 0.5019791001094759 -0.9397644050633512
4741000000.0 0.46228562872020273 -0.9410797891244703
4744000000.0 0.46158834769311236 -0.9372198026276194
4747000000.0 0.4549884619810243 -0.900861030422643
4750000000.0 0.4144452939300022 -0.9284873378988051
4753000000.0 0.44110961088893785 -0.94515101732007
4756000000.0 0.43061147385180887 -0.9500373050162558
4759000000.0 0.40621644367188964 -0.9514196082437796
4762000000.0 0.4065559807803403 -0.9693949253792463
4766000000.0 0.38083516641221327 -0.951531924521068
4769000000.0 0.372531854853897 -0.9667046268912766
4772000000.0 0.3768066485541895 -0.96469645585373
4775000000.0 0.3817971421183773 -1.0092788693180967
4778000000.0 0.3792632204885138 -0.9660511706213978
4781000000.0 0.3974261316560882 -0.958042610625724
4784000000.0 0.38391525221799194 -0.9720072693042087
4788000000.0 0.3248493082667968 -0.9780024345675413
4791000000.0 0.3191043060178125 -0.9686046471647386
4794000000.0 0.3656340391350978 -0.9955458736326996
4797000000.0 0.3017341426363699 -0.9723060799138917
4800000000.0 0.2842447748017553 -0.9715320328905552
4803000000.0 0.23097066089542276 -1.005302260542051
4806000000.0 0.2907411976267866 -0.9994946949405155
4809000000.0 0.25437712013646513 -0.9952826376116749
4812000000.0 0.2116881946860154 -1.0088578037134597
4816000000.0 0.2639613079769011 -0.9697787819724843
4819000000.0 0.2982169143713651 -1.0341239778485627
4822000000.0 0.27782674722711903 -1.0469312082989237
4825000000.0 0.2545645169990202 -1.007251434047476
4828000000.0 0.21269562278911053 -0.9863493735654495
4831000000.0 0.17438533630470382 -1.0265585069842231
4834000000.0 0.23339894172548944 -1.0022764077015311
4838000000.0 0.19196358487979898 -1.0351129433272608
4841000000.0 0.17944981051681633 -1.010151445429012
4844000000.0 0.22118710483836518 -1.01428275341631
4847000000.0 0.1988571655483829 -0.993535984008713
4850000000.0 0.15518309762458204 -1.044802166803257
4853000000.0 0.15794005334606281 -0.9994919655714154
4856000000.0 0.14390518972158506 -1.0150424374075875
4859000000.0 0.1373528884742581 -1.0573942134218912
4862000000.0 0.1573916220250912 -1.000629132663913
4866000000.0 0.1038331961873584 -1.0355072316227427
4869000000.0 0.09443794242328947 -1.027145710788681
4872000000.0 0.08514353412094355 -1.0687909701268044
4875000000.0 0.1716122685314933 -1.0601916018744042
4878000000.0 0.09002446413529792 -1.0276975519341434
4881000000.0 0.07845773522185735 -1.1071201571841363
4884000000.0 0.08016162961450304 -1.0480305071867462
4888000000.0 0.08824026412052173 -1.019413022739561
4891000000.0 0.07826133344377101 -1.0590400439593455
4894000000.0 0.03363241527856 -1.0243579130499378
4897000000.0 0.08012336569587389 -1.0424073761471242
4900000000.0 0.05306731022046296 -1.066404217412238
4903000000.0 0.05639048421910093 -1.0619661671567866
4906000000.0 -0.0013304091804361637 -1.0733242982247866
4909000000.0 -0.0037529997212158786 -1.0369846861875078
4912000000.0 0.010001083674116631 -1.093593996541166
4916000000.0 -0.012919358264599841 -1.0481059968463335
4919000000.0 0.027481641725162733 -1.0707499489886365
4922000000.0 0.00317723552957741 -1.03657828183767
4925000000.0 -0.061760607981167184 -1.0334425323442638
4928000000.0 -0.003941974107028609 -1.036738368439496
4931000000.0 -0.01827186326954583 -1.0824189944635378
4934000000.0 -0.04976880296783455 -1.0013659695844064
4938000000.0 -0.0983262011355792 -1.013922831328193
4941000000.0 -0.05509323063268222 -1.02007377759879
4944000000.0 -0.047868862845838356 -0.9737319746460229
4947000000.0 -0.06503011159673905 -1.034722288863747
4950000000.0 -0.12095376944919974 -0.9868491272844948
4953000000.0 -0.13987576034658333 -1.067950565733105
4956000000.0 -0.13573596044915143 -1.035958057559777
4959000000.0 -0.1546463799986538 -1.0059281753255882
4962000000.0 -0.17495640622191852 -1.0297926633848786
4966000000.0 -0.1239615577746192 -1.0653489779150787
4969000000.0 -0.14077545619512744 -1.0814376130997918
4972000000.0 -0.18698749607242812 -1.017333818298124
4975000000.0 -0.13693658380849003 -1.0606602578499031
4978000000.0 -0.20020223957398192 -1.0400495578778965
4981000000.0 -0.20955748246878417 -1.0329276039100237
4984000000.0 -0.1561080483524461 -1.023606376601708
4988000000.0 -0.1749140899839947 -1.0091498363724187
4991000000.0 -0.12773935968690114 -1.0929261689086816
4994000000.0 -0.21166955258509335 -1.026852897015729
4997000000.0 -0.22693959547568532 -0.9934758609084362
5000000000.0 -0.22484609808433204 -1.056769236794947
5003000000.0 -0.22252914652352146 -1.050299919679449
5006000000.0 -0.25475565893180496 -1.0737643869338525
5009000000.0 -0.22893352403623932 -1.041556788137528
5012000000.0 -0.31444312109646927 -0.9956506722634757
5016000000.0 -0.2696554464326599 -1.0678633507239363
5019000000.0 -0.30165932106175364 -0.9990106465021995
5022000000.0 -0.28913423649474856 -1.0083187337105675
5025000000.0 -0.28772709235478316 -1.0813334970724904
5028000000.0 -0.3181923396844676 -0.9962187299325904
5031000000.0 -0.3223610843744399 -0.9938135834101166
5034000000.0 -0.3728124462262937 -1.0451040982277633
5038000000.0 -0.3284542556470358 -0.9581793874123361
5041000000.0 -0.31126760134808285 -1.017691437647406
5044000000.0 -0.31367857641812336 -0.968827371545039
5047000000.0 -0.32462475910600946 -0.988394743670611
5050000000.0 -0.28213561584546054 -0.9852400406854374
5053000000.0 -0.40520600680900043 -1.0301226951100015
5056000000.0 -0.3644669112467709 -1.0109955560742523
5059000000.0 -0.3145607816909271 -1.0240001710309166
5062000000.0 -0.39096518630775146 -0.9787149055247568
5066000000.0 -0.3637998839561646 -0.9745259850363124
5069000000.0 -0.3825511521638367 -0.9797352160798106
5072000000.0 -0.3845876042221789 -0.9756973243154594
5075000000.0 -0.3592499258196472 -0.9634957546749363
5078000000.0 -0.4803564283980995 -0.9418839066420626
5081000000.0 -0.4107838801770812 -0.9149117910979149
5084000000.0 -0.4527624361443352 -0.9921147501513483
5088000000.0 -0.40902575690553616 -0.9474512192281164
5091000000.0 -0.5158520445970347 -0.9450691513469431
5094000000.0 -0.4860570218810159 -0.9626123765134961
5097000000.0 -0.45260153329343455 -0.9768943936158978
5100000000.0 -0.4841290602133364 -0.9479067744109942
5103000000.0 -0.49901895887424785 -0.9344914421345184
5106000000.0 -0.4480839440902648 -0.9652671422948864
5109000000.0 -0.4491286457907738 -0.9246572953539836
5112000000.0 -0.545309988612481 -0.9054953707657987
5116000000.0 -0.47770398749429105 -0.8703292053719247
5119000000.0 -0.5024417907241104 -0.9619583059207235
5122000000.0 -0.5120689700715793 -0.9335780628777757
5125000000.0 -0.5005624753244907 -0.9194689600532368
5128000000.0 -0.5083018643344627 -0.9236007415224774
5131000000.0 -0.5363676116158725 -0.9144607480108046
5134000000.0 -0.5404439975978401 -0.8705360134766572
5138000000.0 -0.5806739792316237 -0.9019996896144964
5141000000.0 -0.5379537632638349 -0.9231701690102503
5144000000.0 -0.5323258357055168 -0.9279752059861293
5147000000.0 -0.5881622028846467 -0.8661611364298495
5150000000.0 -0.5689611645621696 -0.9273982448837519
5153000000.0 -0.5857977084991091 -0.8992936639967797
5156000000.0 -0.5804532546479397 -0.9080449307304135
5159000000.0 -0.6040502695255627 -0.8651387587551296
5162000000.0 -0.6424607064622709 -0.853044897372759
5166000000.0 -0.6697682082276053 -0.862637238897969
5169000000.0 -0.6360995072782952 -0.8472008778237327
5172000000.0 -0.6199553655606677 -0.8454139243499068
5175000000.0 -0.6375373602401913 -0.9050466377120665
5178000000.0 -0.6603569281483892 -0.8311721534321742
5181000000.0 -0.6632416877855533 -0.8873426997373061
5184000000.0 -0.6640163922535586 -0.8321079340275326
5188000000.0 -0.6554567967365441 -0.8053868434392035
5191000000.0 -0.6728364064117723 -0.8253783947005927
