! Created with skrf 1.8.0 (http://scikit-rf.org).
# Hz S RI R 50.0 
!freq ReS11 ImS11
4000000000.0 0.9251364716243935 0.3966003045758611
4003000000.0 0.9674339040765142 0.40873194175052563
4006000000.0 0.9778487427874802 0.38665287405939686
4009000000.0 0.9807550939105637 0.3719901309363385
4012000000.0 0.9881229942148486 0.3715062848910704
4016000000.0 0.9628017235442312 0.32950045038589704
4019000000.0 0.9404570025696626 0.33282374010374993
4022000000.0 1.0015687558811972 0.3374888285362869
4025000000.0 0.9768607927226757 0.30180595086663053
4028000000.0 0.9727631589329684 0.26445276849695637
4031000000.0 0.9686846070038173 0.2878230423899173
4034000000.0 0.9775098932322059 0.2944581518172333
4038000000.0 1.0138960889260205 0.2722005478954087
4041000000.0 0.9928688518874407 0.26728125785462076
4044000000.0 0.9993514166177184 0.28536784716263996
4047000000.0 1.0076818851431721 0.23345539249316652
4050000000.0 1.024457525438071 0.22912073579142975
4053000000.0 1.008160056432708 0.1794258227558555
4056000000.0 1.0411282613283575 0.17919983422221666
4059000000.0 0.9843657429591797 0.1776379171790497
4062000000.0 1.0260211865592725 0.20059998241222665
4066000000.0 0.9800774872553308 0.15754453651898054
4069000000.0 1.0238384772910964 0.12420352222779446
4072000000.0 0.9870266904336465 0.13706492371540147
4075000000.0 1.0421951050970446 0.10668552478068666
4078000000.0 1.013938269677616 0.09243289290507234
4081000000.0 1.0547004012552414 0.09634377771181807
4084000000.0 1.043258373876988 0.07516523226921401
4088000000.0 1.0157369291311353 0.09756012092854432
4091000000.0 1.0481187906192326 0.05915956790579291
4094000000.0 1.0328786699130312 0.03156457036425259
4097000000.0 1.0251713005209042 0.03195706189679137
4100000000.0 1.012340197559085 0.0374275160924028
4103000000.0 1.0491205098071228 0.031117371736111288
4106000000.0 1.0436375988775808 -0.050956844141609114
4109000000.0 1.0286106159202115 -0.02738236625086138
4112000000.0 1.0118368797850499 -0.051184011099360216
4116000000.0 1.0331766210265172 -0.05631902535882305
4119000000.0 1.02878731964459 -0.0696923637631337
4122000000.0 1.007641032469888 -0.09991498651870195
4125000000.0 1.010668938225309 -0.10781539232100748
4128000000.0 0.9864180410874561 -0.06836169179421486
4131000000.0 1.0156077799776797 -0.14877792799514128
4134000000.0 0.99413025015791 -0.1092054031685803
4138000000.0 1.0103799340329607 -0.168913256181076
4141000000.0 1.0098440335803982 -0.14962661200301447
4144000000.0 0.9977519442939989 -0.14858791131543012
4147000000.0 1.0319196771601364 -0.18672297308319824
4150000000.0 1.0047657221371684 -0.2019673601204695
4153000000.0 0.9908285585620019 -0.17881791411736872
4156000000.0 1.0207992339756935 -0.19614508638373324
4159000000.0 0.9652500684862606 -0.22098342841715357
4162000000.0 0.9874615797765645 -0.23866615554183856
4166000000.0 0.9997601617695213 -0.24933654168353755
4169000000.0 0.9601011056650036 -0.303217197457055
4172000000.0 0.9720346753009613 -0.29053835191654237
4175000000.0 0.9989871755489211 -0.2945191122384706
4178000000.0 0.9755979864168889 -0.298489238136918
4181000000.0 0.9469556081492723 -0.35063349058704235
4184000000.0 0.9317651473190474 -0.3120550781158034
4188000000.0 0.9303030662441307 -0.35723264069006533
4191000000.0 0.9664572504889026 -0.34261146176369667
4194000000.0 0.9239848341817634 -0.3895123276735225
4197000000.0 0.9413581987988467 -0.38710161131714405
4200000000.0 0.9450318415582417 -0.3767596539566994
4203000000.0 0.9690446124384638 -0.4280366307636668
4206000000.0 0.9375225651732721 -0.4191261034462871
4209000000.0 0.8832177574850236 -0.45215717353278384
4212000000.0 0.891757276394378 -0.48596134334180496
4216000000.0 0.9344855838239079 -0.4691593673835886
4219000000.0 0.9035405880687204 -0.47932746526487846
4222000000.0 0.878526174557615 -0.47220057224162554
4225000000.0 0.8622240882796892 -0.5046737992521277
4228000000.0 0.8690189097049041 -0.5370753111945794
4231000000.0 0.857664564405592 -0.5622553584284787
4234000000.0 0.8213078293934442 -0.5722921279847208
4238000000.0 0.8285220380295807 -0.5910427478306081
4241000000.0 0.7805676615780619 -0.5908706659370975
4244000000.0 0.8055491716224243 -0.6000277971265524
4247000000.0 0.8059361703440262 -0.5985392567872551
4250000000.0 0.7773292554284392 -0.6001445155192942
4253000000.0 0.759535378812886 -0.6236781267823773
4256000000.0 0.8193993563223794 -0.6749400770539544
4259000000.0 0.7285687446771525 -0.6561184616223579
4262000000.0 0.7430314597034813 -0.699017067861758
4266000000.0 0.7280622410457819 -0.7091296403914058
4269000000.0 0.7202246376164364 -0.6937605524635563
4272000000.0 0.7268051237414704 -0.6851246887615501
4275000000.0 0.7520371389279605 -0.6932942431214022
4278000000.0 0.7235147401325228 -0.7390876880078141
4281000000.0 0.7161088687094304 -0.7644225636167907
4284000000.0 0.6515354157573828 -0.7789607354324503
4288000000.0 0.6847029081089757 -0.7245340297025453
4291000000.0 0.6320517491191286 -0.7308071838057254
4294000000.0 0.638478272597524 -0.7911053443000056
4297000000.0 0.644768627608622 -0.7849955566563135
4300000000.0 0.6025800856961495 -0.7998348451030186
4303000000.0 0.5698925553196953 -0.819652514249018
4306000000.0 0.603114830414417 -0.8137120232505181
4309000000.0 0.5819869760266105 -0.8294575237514806
4312000000.0 0.5713164004270076 -0.8461744490825555
4316000000.0 0.5323913357671792 -0.8706032069858773
4319000000.0 0.5276929710584737 -0.8536377266385433
4322000000.0 0.4745936801793508 -0.8749406639849139
4325000000.0 0.48593817437512216 -0.8956865390856182
4328000000.0 0.4696908792015162 -0.8962704658871238
4331000000.0 0.434941259998756 -0.9154130191705354
4334000000.0 0.4105524501234365 -0.9252108743466863
4338000000.0 0.42456759840005187 -0.9168048182446655
4341000000.0 0.4121416044849916 -0.936885976831182
4344000000.0 0.3956295321663649 -0.9491133626663172
4347000000.0 0.36394577933337835 -0.9563896823417869
4350000000.0 0.3197607048432568 -0.9430980080932077
4353000000.0 0.3398250377055244 -0.9497700768849701
4356000000.0 0.2825358321963674 -0.9614964017543368
4359000000.0 0.2764016605115934 -0.9603158884399792
4362000000.0 0.25193796594488405 -0.9937853320784173
4366000000.0 0.2544903444228297 -1.0041051794735694
4369000000.0 0.21629676360573685 -0.9665931747705355
4372000000.0 0.1932833035181219 -1.000750515777819
4375000000.0 0.19741872350369594 -0.9851880971719671
4378000000.0 0.1532675507788021 -0.9984424008701746
4381000000.0 0.14510460590555882 -0.9956037010419926
4384000000.0 0.12749871669982518 -1.0407157573540633
4388000000.0 0.100099595195989 -1.031209712826405
4391000000.0 0.06740877642977021 -1.0064482898971439
4394000000.0 0.051807983653600925 -1.017731990572105
4397000000.0 0.026205187560803866 -1.036590576531974
4400000000.0 0.007982177941676688 -1.0094353270476668
4403000000.0 -0.03245407099013373 -1.0426872846886006
4406000000.0 -0.03801588927665611 -1.032823119422655
4409000000.0 -0.07077666504551389 -0.9939001612045408
4412000000.0 -0.07865625909650445 -1.0001449865730905
4416000000.0 -0.0923713041163699 -1.0206102676626585
4419000000.0 -0.11818640721334187 -1.0338196145057077
4422000000.0 -0.131884234954685 -1.0109049369147791
4425000000.0 -0.19227159092533547 -0.995948518922559
4428000000.0 -0.1928363012889533 -1.0426565364779927
4431000000.0 -0.21573762165830274 -0.9908673959656459
4434000000.0 -0.25361014599036263 -1.0077169114969065
4438000000.0 -0.25651444273305274 -0.9789693309636174
4441000000.0 -0.29827285031871337 -0.980564244458533
4444000000.0 -0.3000023096744833 -0.9995074076879119
4447000000.0 -0.33216848025271684 -0.9722254997723172
4450000000.0 -0.3983429485351103 -0.9503975344275915
4453000000.0 -0.34520081932175817 -0.9336942167392314
4456000000.0 -0.41591121646386864 -0.9418954966816363
4459000000.0 -0.4650899814017799 -1.0012839120005608
4462000000.0 -0.4336966339370479 -0.883708022657006
4466000000.0 -0.48776562886314945 -0.9444825350836444
4469000000.0 -0.5381676461943151 -0.900313039543092
4472000000.0 -0.527926005290263 -0.8467755044532403
4475000000.0 -0.6122874125592822 -0.9075006295192971
4478000000.0 -0.567880610593629 -0.7878696389189155
4481000000.0 -0.6074564490599299 -0.8463096180781999
4484000000.0 -0.6434838121213033 -0.8237063137460928
4488000000.0 -0.6806502935201393 -0.8230236222410648
4491000000.0 -0.6518338093043496 -0.7720157783416118
4494000000.0 -0.6853170900323529 -0.8079072105928922
4497000000.0 -0.7300193426396118 -0.7600742122659631
4500000000.0 -0.7417472886470593 -0.7160133187112914
4503000000.0 -0.7498321332747655 -0.7050130456728974
4506000000.0 -0.7991354524960343 -0.695142480955281
4509000000.0 -0.8042185807480204 -0.6093240241100023
4512000000.0 -0.7911050031102264 -0.6558124989775814
4516000000.0 -0.860124447932641 -0.566283750188244
4519000000.0 -0.8802436274884036 -0.5830129578091726
4522000000.0 -0.8387729860273778 -0.5730315732694765
4525000000.0 -0.9509904493889318 -0.5337737757771075
4528000000.0 -0.9107756870162615 -0.512322241162779
4531000000.0 -0.9155007818578451 -0.45176033506835167
4534000000.0 -0.975261298108132 -0.43784483395214874
4538000000.0 -0.9731901265871103 -0.440915933686407
4541000000.0 -0.9245950682258229 -0.4064075878803496
4544000000.0 -0.9951254335308992 -0.3583550891497764
4547000000.0 -1.0262683553638126 -0.30958345618469674
4550000000.0 -1.0235764997124868 -0.3456079315987073
4553000000.0 -0.9991356053159315 -0.2326167335062205
4556000000.0 -1.0611450614905733 -0.294345769783507
4559000000.0 -1.0250816411209147 -0.23433082964219332
4562000000.0 -1.0104908501698155 -0.17404533703468814
4566000000.0 -1.0148406541635921 -0.1676496758888614
4569000000.0 -1.0653311826915837 -0.10441105408411322
4572000000.0 -1.0298271041430813 -0.06906424852007832
4575000000.0 -1.0014921419103877 -0.05274194374780289
4578000000.0 -1.0193743794495818 -0.0043754963034148345
4581000000.0 -0.999334335266992 -0.0017682695483540317
4584000000.0 -1.0599104068307281 0.027287534422486423
4588000000.0 -1.0003637315916527 0.09210956452478626
4591000000.0 -1.0515786882671365 0.1854068544991433
4594000000.0 -1.040044741383435 0.14743121190081923
4597000000.0 -1.0473064459503505 0.23971706003292753
4600000000.0 -1.0785964259127347 0.2065498833464269
4603000000.0 -0.9888605948134025 0.2622744498429826
4606000000.0 -1.056552893779521 0.2922308040773959
4609000000.0 -1.0150248094749375 0.30706683015634983
4612000000.0 -0.9383807589171353 0.33083094380346123
4616000000.0 -0.9974950506804663 0.43214551477092794
4619000000.0 -0.9386468964102502 0.42342318485165836
4622000000.0 -0.9068000819157703 0.5356319506206927
4625000000.0 -0.9376162810089903 0.5080108463325288
4628000000.0 -0.9438415111795356 0.5943342753480126
4631000000.0 -0.936786519056642 0.5345758562521307
4634000000.0 -0.8574094251375842 0.5945500749944019
4638000000.0 -0.8624110926328862 0.5699421763199244
4641000000.0 -0.7914225533216933 0.6293486716562491
4644000000.0 -0.8104918027900351 0.6645000982831121
4647000000.0 -0.7690826751857902 0.6634205553137027
4650000000.0 -0.767715578931938 0.7640555479628364
4653000000.0 -0.6842231854454506 0.7256022744843664
4656000000.0 -0.7225650836960889 0.8058230407727813
4659000000.0 -0.6675071416179086 0.7498276231121597
4662000000.0 -0.6353890429723426 0.7969863406059703
4666000000.0 -0.6116714108898352 0.895323062909152
4669000000.0 -0.5985108738244262 0.8979034038418264
4672000000.0 -0.576648469612204 0.9102390120542337
4675000000.0 -0.4833156044078179 0.869157429238602
4678000000.0 -0.5087816276228778 0.8630549123225065
4681000000.0 -0.43648754700007786 0.9121068333505938
4684000000.0 -0.44352237948635653 0.8918647117084717
4688000000.0 -0.4758535741811935 0.9790896880636109
4691000000.0 -0.39642179438996916 0.9658402554128458
4694000000.0 -0.38329772730107003 0.9713393796611718
4697000000.0 -0.2944909857044807 1.0062674539600158
4700000000.0 -0.2692564488933765 0.9754711523599113
4703000000.0 -0.23095815359191063 1.0041957146736575
4706000000.0 -0.2560079583366214 0.9427842663570888
4709000000.0 -0.2154898291958534 0.9873437192747078
4712000000.0 -0.14892541417304994 0.9854958991150555
4716000000.0 -0.13920527238629962 1.028936062665528
4719000000.0 -0.05156857766378181 1.0416595282559358
4722000000.0 -0.014540186318089177 1.0783626909593338
4725000000.0 -0.0009805439397612137 1.0082202060015548
4728000000.0 0.04705630115939208 1.0444232218681146
4731000000.0 0.02361259639800667 0.990692394730375
4734000000.0 0.08298351396325465 1.023218595359051
4738000000.0 0.0881551015746608 0.9803045434433242
4741000000.0 0.11707241514981773 0.9785830971634275
4744000000.0 0.1708731168096808 1.0150474681538764
4747000000.0 0.21047802746946237 1.0426128993062675
4750000000.0 0.26245742257793675 0.9708888700551357
4753000000.0 0.27978006319393744 1.0220578014075483
4756000000.0 0.2992600068054618 0.9374372600177019
4759000000.0 0.33307223520770657 0.9385613169981
4762000000.0 0.2979773254486992 0.9666103176488757
4766000000.0 0.4092111741209301 0.9019965035194768
4769000000.0 0.4342082889985237 0.9769820622297182
4772000000.0 0.4443268233333346 0.9063825949781212
4775000000.0 0.4458078316067119 0.8949431323621553
4778000000.0 0.44231910267792907 0.8992906721199636
4781000000.0 0.5058969702137122 0.899291432200514
4784000000.0 0.5224707195740281 0.9057687609989891
4788000000.0 0.5115221447029651 0.8637598821136075
4791000000.0 0.6139662517029643 0.83084924007505
4794000000.0 0.5930514671589572 0.7680522565072057
4797000000.0 0.6255000163305315 0.8359774088842525
4800000000.0 0.6918483790196083 0.7631111077338413
4803000000.0 0.6299832409209823 0.7857395410140484
4806000000.0 0.6855004633198649 0.7427575323698633
4809000000.0 0.6819775440602074 0.7303905083828869
4812000000.0 0.7032371142934164 0.7221018277961031
4816000000.0 0.7976522303499175 0.6679257732432595
4819000000.0 0.7910339867063092 0.6270490272697721
4822000000.0 0.7814165431181102 0.6150044636043086
4825000000.0 0.8016989089429751 0.5681869959908723
4828000000.0 0.7956800638322487 0.6109082331162472
4831000000.0 0.810592043696563 0.5982437037886381
4834000000.0 0.834568931725528 0.5085320508534459
4838000000.0 0.885579646697677 0.5348190507387419
4841000000.0 0.8897654839314948 0.550130180074148
4844000000.0 0.9164375582950066 0.4730587992258737
4847000000.0 0.9454358195862751 0.46499430967299593
4850000000.0 0.895945744896576 0.42606420944715834
4853000000.0 0.9466305732275913 0.4241788534967074
4856000000.0 0.9353263646323899 0.426868209682965
4859000000.0 0.9108614178818524 0.3605658307884667
4862000000.0 0.9650797073806336 0.3647622929705623
4866000000.0 0.9261955292311315 0.350155431432661
4869000000.0 0.9752663851136951 0.30519953010276013
4872000000.0 0.9514999684384193 0.27718005496000075
4875000000.0 0.9872474967737465 0.24794359619873457
4878000000.0 1.0086948863618712 0.23533271510379106
4881000000.0 0.9372355006802369 0.21870292007817665
4884000000.0 0.9789972985269484 0.21289336712877877
4888000000.0 1.0104237205464819 0.1909375567393759
4891000000.0 0.9890581735212558 0.15361990872747674
4894000000.0 1.0016985980866482 0.13972339573995132
4897000000.0 0.9991623732916054 0.12063869969859865
4900000000.0 0.9963038217344019 0.06309748601903412
4903000000.0 1.0118604548467207 0.08808868183488948
4906000000.0 1.0077464694230271 0.06293461033184002
4909000000.0 1.0081484482172554 0.019942388624058522
4912000000.0 0.9767270315253727 0.009999898625241678
4916000000.0 1.0112199028372617 -0.005296691815511623
4919000000.0 1.0106027184888056 -0.0616058414777825
4922000000.0 1.0261005929452305 -0.04440927702399229
4925000000.0 0.9977578080424903 -0.055979207949493785
4928000000.0 1.0106790159962296 -0.09211037795283145
4931000000.0 1.0238328096185758 -0.0957189084180181
4934000000.0 0.9924466238759977 -0.10778713239140818
4938000000.0 1.002312559678356 -0.14131995243924353
4941000000.0 0.9907048133310078 -0.16424930352932868
4944000000.0 1.0086753466961385 -0.19677251749168542
4947000000.0 0.9785831391523241 -0.2226088865597114
4950000000.0 0.9976922077279504 -0.21440341585177872
4953000000.0 0.9851407622434453 -0.2728070243398458
4956000000.0 0.9980541554470961 -0.26899439426495125
4959000000.0 0.9818647331484374 -0.28523606911406485
4962000000.0 0.9612458324346257 -0.3078929344739586
4966000000.0 0.9760553290805944 -0.32403154267880174
4969000000.0 0.9834827082153511 -0.306743484852843
4972000000.0 0.960447277282895 -0.36061928683127553
4975000000.0 0.933375239336223 -0.3581513550761633
4978000000.0 0.940983475326826 -0.3841266657059625
4981000000.0 0.9222673913793414 -0.3833457781448157
4984000000.0 0.9338846318362781 -0.40994981608401426
4988000000.0 0.9101798296731325 -0.44214488740087027
4991000000.0 0.9501278088917309 -0.4373947854274629
4994000000.0 0.8879908441465268 -0.4488382688667532
4997000000.0 0.907600170728748 -0.48850405346065134
5000000000.0 0.8971565816058144 -0.495223295198998
5003000000.0 0.9226781234531964 -0.5099279725867715
5006000000.0 0.8931460031034958 -0.5321408321944187
5009000000.0 0.887861404040497 -0.5427749052810388
5012000000.0 0.8552335993286921 -0.5545063397522838
5016000000.0 0.8920542204325297 -0.5537958585196234
5019000000.0 0.8326222842012517 -0.5685668990059659
5022000000.0 0.8222357851312073 -0.5858940456877382
5025000000.0 0.8635972731772423 -0.6212510573232616
5028000000.0 0.8186320988174766 -0.6308617238247588
5031000000.0 0.7914111256308877 -0.6327711981870529
5034000000.0 0.7969628902535391 -0.6719963027695672
5038000000.0 0.7499716090055963 -0.6558348056042392
5041000000.0 0.8042496086269313 -0.6508748722265216
5044000000.0 0.7514834893962642 -0.6479634955099957
5047000000.0 0.7944599776629935 -0.685060690353862
5050000000.0 0.8129895057548694 -0.6225550730388156
5053000000.0 0.743121956329362 -0.7687688422467123
5056000000.0 0.736907278214129 -0.7134416213665441
5059000000.0 0.799826585757013 -0.6907678963029971
5062000000.0 0.7022329150925641 -0.7598003912824117
5066000000.0 0.6858059538061057 -0.7081939691704142
5069000000.0 0.70202342796122 -0.7796640892229881
5072000000.0 0.614464009414675 -0.7459766099893328
5075000000.0 0.6874422554510197 -0.7756012292070544
5078000000.0 0.6286241121774703 -0.8153249049688124
5081000000.0 0.6132791115451823 -0.7792514959578082
5084000000.0 0.6686749641353923 -0.8458561970144494
5088000000.0 0.6187231865111663 -0.7689273083502286
5091000000.0 0.6128662385235624 -0.8859786005669164
5094000000.0 0.6125056940398982 -0.8539710562608517
5097000000.0 0.6289842044834055 -0.8674418727180377
5100000000.0 0.6117946547488979 -0.8209247561528382
5103000000.0 0.584539359987914 -0.8517488860905779
5106000000.0 0.5999156853459872 -0.910033779589092
5109000000.0 0.586258816219801 -0.8583530070421623
5112000000.0 0.5426210813250715 -0.8532080783075302
5116000000.0 0.4720067844402591 -0.8576626119400681
5119000000.0 0.5252453331338852 -0.8500815480057358
5122000000.0 0.542753208112087 -0.9127451800106445
5125000000.0 0.4798741529973931 -0.9172920064398516
5128000000.0 0.46927130029420344 -0.9505305696736137
5131000000.0 0.4413266087031557 -0.8866740308073778
5134000000.0 0.43017366479190366 -0.943868767176236
5138000000.0 0.4480821760499394 -0.945436021740678
5141000000.0 0.5089092446768189 -0.8988621629073537
5144000000.0 0.4311439004071408 -0.9779547508195084
5147000000.0 0.426715472717267 -0.9557092039201941
5150000000.0 0.4445251795608491 -0.920443890017936
5153000000.0 0.39141971398076947 -0.9272887552514786
5156000000.0 0.39847592875368815 -0.9969292378969066
5159000000.0 0.3882000304041504 -0.9775038971883104
5162000000.0 0.35647543415020655 -0.9153894665522987
5166000000.0 0.30081267437679615 -1.072230707624731
5169000000.0 0.29381734161294004 -1.0010380912139505
5172000000.0 0.3134441977980359 -0.951263532762205
5175000000.0 0.35418202346804956 -1.0279389005812511
5178000000.0 0.29975629417263944 -0.9801816062845199
5181000000.0 0.334588567348351 -0.9907286462839445
5184000000.0 0.22080069806348437 -1.0208878110902297
5188000000.0 0.2801438345257728 -0.9825608863154776
5191000000.0 0.25381963430446924 -1.0559443518209806
