! Created with skrf 1.8.0 (http://scikit-rf.org).
# Hz S RI R 50.0 
!freq ReS11 ImS11
4000000000.0 0.6122306939273269 0.8195692601143165
4003000000.0 0.6836978991994809 0.8552530472844702
4006000000.0 0.6784133686544196 0.7741349549764179
4009000000.0 0.6119449929894415 0.7964017026644881
4012000000.0 0.6275351311177235 0.8452426138362956
4016000000.0 0.6689160636429115 0.8134475110588477
4019000000.0 0.6782072955882763 0.7872715145804622
4022000000.0 0.6243151499002291 0.8482873829068401
4025000000.0 0.7605958811803064 0.7380151871946082
4028000000.0 0.6990854191778938 0.7500043833832313
4031000000.0 0.6709025754195677 0.7346070693587493
4034000000.0 0.6910732972661897 0.7480350682156008
4038000000.0 0.744610793819661 0.7374382145919239
4041000000.0 0.7509125317430689 0.7337676859873746
4044000000.0 0.8103705713265528 0.7923551862413583
4047000000.0 0.7291688112704308 0.780581782743785
4050000000.0 0.7727194203768872 0.6953711538485391
4053000000.0 0.7245756318534606 0.6575240579764834
4056000000.0 0.7365984145076026 0.71689485917598
4059000000.0 0.7326531334776124 0.6759400958992832
4062000000.0 0.8082278636680406 0.6723995057181986
4066000000.0 0.7017093165933879 0.6525174950680751
4069000000.0 0.8231255515051976 0.6832394988368258
4072000000.0 0.7461483258340965 0.7078400869091557
4075000000.0 0.8423017735758143 0.7167668293022564
4078000000.0 0.8020208362022514 0.6606763666750445
4081000000.0 0.7551136052560738 0.7443148247251676
4084000000.0 0.8241314854227965 0.6598469548737349
4088000000.0 0.7514339373977698 0.6707184020419991
4091000000.0 0.8804195031580346 0.6985586286523142
4094000000.0 0.8237800885178983 0.6261330071430659
4097000000.0 0.8369448921872501 0.6257683466074768
4100000000.0 0.8434620764626852 0.6187174995173055
4103000000.0 0.8379605644337318 0.6582029525898283
4106000000.0 0.8821353809071176 0.5977208449882618
4109000000.0 0.8564217579006814 0.5557779232162048
4112000000.0 0.8866296619522 0.5715948814118903
4116000000.0 0.8398372159155795 0.5766564473293007
4119000000.0 0.8763187526621319 0.5680101030987995
4122000000.0 0.8790807458361681 0.539675118841543
4125000000.0 0.9357333754047433 0.5691718345782364
4128000000.0 0.8620386886080936 0.5278774459571428
4131000000.0 0.857149798545087 0.528241602442814
4134000000.0 0.8538132438843364 0.5428112309498303
4138000000.0 0.855119092246911 0.47563307157560625
4141000000.0 0.892470621741578 0.5088133441772031
4144000000.0 0.909299352414781 0.5078975620016715
4147000000.0 0.8762300332226718 0.4860185588070279
4150000000.0 0.9578818782304619 0.4959092473137296
4153000000.0 0.899234885149171 0.4747156068336513
4156000000.0 0.9248500793960612 0.5184762722362214
4159000000.0 0.9016281735351879 0.4524839218875896
4162000000.0 0.9039061189951592 0.46794631900888106
4166000000.0 0.9286778980432986 0.4667238245808045
4169000000.0 0.931924559948609 0.41935722873142145
4172000000.0 0.9022034600267747 0.475519271264692
4175000000.0 0.9238678535399295 0.45705471183934904
4178000000.0 0.9406664066898444 0.43528363065963005
4181000000.0 0.9559975039469737 0.4275646670626414
4184000000.0 0.9507600703685973 0.41254324104039436
4188000000.0 0.9155917161668987 0.40232909347213774
4191000000.0 0.8970779707067214 0.42429908293422064
4194000000.0 0.9185543051400004 0.39591142714422267
4197000000.0 0.969655579977776 0.38938011857231897
4200000000.0 0.9621491289159416 0.3744850956503676
4203000000.0 0.9569700633926757 0.4180968144651913
4206000000.0 0.9727099061038358 0.3582472955091694
4209000000.0 0.9441793314234751 0.3609059018648931
4212000000.0 0.9754748013056599 0.3157054536800855
4216000000.0 0.9762834477144946 0.35556632974192054
4219000000.0 0.9772398697125901 0.3492722705232455
4222000000.0 0.973918046449685 0.32381350783627266
4225000000.0 0.9694268587111428 0.32691581728734853
4228000000.0 0.9807458090601 0.3152859947618134
4231000000.0 0.9805081509044348 0.306074099565526
4234000000.0 1.0117227228228567 0.29272444415383314
4238000000.0 0.9872041686339391 0.27586113544617374
4241000000.0 0.9829863311102323 0.2711415706065497
4244000000.0 0.9844217913409649 0.2816249536718964
4247000000.0 0.9774603061999912 0.26526535435962434
4250000000.0 0.9783532084105693 0.24366121988539657
4253000000.0 0.9720990619091696 0.23781239715621816
4256000000.0 0.9992259872171967 0.22551315137786881
4259000000.0 0.9602521619865225 0.20619987236218937
4262000000.0 0.9984910328084842 0.2184564400505096
4266000000.0 1.0170190017642842 0.19118309066889577
4269000000.0 1.0123171051759763 0.22019184434991948
4272000000.0 0.9973573091203481 0.18020375566553576
4275000000.0 0.9949450074131725 0.1984751437773432
4278000000.0 1.038145622691389 0.17460357210820138
4281000000.0 1.010385479203223 0.1932798332803357
4284000000.0 1.0217424650960947 0.10895422852912101
4288000000.0 1.0035305334173417 0.17628387703485338
4291000000.0 0.9912189059833408 0.17175104610248637
4294000000.0 0.9994416626955892 0.14022322566259526
4297000000.0 1.0038427728617425 0.1507421449311745
4300000000.0 0.971881049972249 0.12321840752946936
4303000000.0 1.0175170296376068 0.11134676796524352
4306000000.0 1.013860725963681 0.1203358552838259
4309000000.0 1.0123120069737315 0.0905147658672696
4312000000.0 1.0413770497259438 0.12332764910367428
4316000000.0 1.0252309004162887 0.10092115025967228
4319000000.0 0.9879834485342621 0.08716841428539597
4322000000.0 0.9904538674831149 0.040058237169680336
4325000000.0 1.020755271836244 0.07378933858878255
4328000000.0 1.0071561107305018 0.05808666802903974
4331000000.0 1.0165983142289972 0.01221184633311967
4334000000.0 1.0227335243971196 0.02049977266217229
4338000000.0 0.9928516616268203 0.028616208955106845
4341000000.0 1.038695187360698 0.03583920460561285
4344000000.0 1.0410030310395884 -0.005757670884881327
4347000000.0 1.0198817481659337 -0.03647020298088818
4350000000.0 0.954357242830421 -0.018778173922939234
4353000000.0 0.9851089192719096 -0.007924349785664891
4356000000.0 1.0197692803599074 -0.07349729306422809
4359000000.0 0.9845635272991374 -0.05547228253613866
4362000000.0 1.028002209459459 -0.08893012112151169
4366000000.0 1.0231390907881843 -0.08957911903240798
4369000000.0 0.9881164655527322 -0.0837813596656109
4372000000.0 0.9831642649121417 -0.12443677625092492
4375000000.0 1.0077992873187147 -0.06158246864348049
4378000000.0 0.9858698852767792 -0.08486993605316373
4381000000.0 0.980054775244046 -0.08732251406796876
4384000000.0 1.0619840360411463 -0.1202065634551626
4388000000.0 0.9848581915190008 -0.1122891386562229
4391000000.0 1.0205124162531738 -0.13450410484114877
4394000000.0 0.973492919068525 -0.14716784956504952
4397000000.0 1.010301897449954 -0.15825053494214752
4400000000.0 1.012434425404332 -0.17760613665052172
4403000000.0 1.006551443051963 -0.16174549038103841
4406000000.0 0.9942463178297659 -0.19230587949429365
4409000000.0 1.0240087311130734 -0.2146891753477638
4412000000.0 0.9731993375111688 -0.2502948894717257
4416000000.0 0.9999895009103363 -0.23514719280638957
4419000000.0 0.9848674632679939 -0.2300982330058879
4422000000.0 0.9923603551431794 -0.20842989207267323
4425000000.0 1.013630753518675 -0.20933002476678253
4428000000.0 0.9771883595775499 -0.25196873857418767
4431000000.0 1.0039866033560234 -0.25444481512619216
4434000000.0 0.9710981815929414 -0.2602087344790419
4438000000.0 1.0011526181255626 -0.2696912993184728
4441000000.0 0.9993209018333866 -0.27281065406390803
4444000000.0 0.948387403972605 -0.26852028477908385
4447000000.0 0.9514187728148992 -0.3049379169543048
4450000000.0 0.9593434901642696 -0.28928130358272175
4453000000.0 0.9855190825992919 -0.3077972870939031
4456000000.0 0.932857413353172 -0.3255702864217256
4459000000.0 0.9131882236140403 -0.31935914549567057
4462000000.0 1.0019646359706726 -0.36580503102568385
4466000000.0 0.9828625660531313 -0.36380024056291704
4469000000.0 0.9583082286268907 -0.3368294712185529
4472000000.0 0.9592262422556277 -0.39356705466395164
4475000000.0 0.9251214409171443 -0.34610656986774
4478000000.0 0.9742887874833502 -0.3989841983765864
4481000000.0 0.9025959176155519 -0.3883915882896048
4484000000.0 0.9054615990842174 -0.42867192164777035
4488000000.0 0.9204422070626347 -0.3986921996262522
4491000000.0 0.9093212264752647 -0.41306009743097377
4494000000.0 0.9188544347732389 -0.4058105275333206
4497000000.0 0.9075350372445665 -0.4206659113256897
4500000000.0 0.9185202046454009 -0.42272974300437793
4503000000.0 0.9393339753206376 -0.44333271870273105
4506000000.0 0.9001857035492973 -0.45414329359263983
4509000000.0 0.8970065715469646 -0.4572141687251836
4512000000.0 0.8766610175137687 -0.45660336081435837
4516000000.0 0.915799362368847 -0.4890285755264609
4519000000.0 0.8775470622376492 -0.45258133758818936
4522000000.0 0.8869844087706664 -0.4981193351105127
4525000000.0 0.8955797009804938 -0.4650167457849171
4528000000.0 0.9035034133454647 -0.5211808471428115
4531000000.0 0.8947138523164054 -0.49838600254480303
4534000000.0 0.8602167517604198 -0.5230167401426756
4538000000.0 0.8478932460397108 -0.517328547604125
4541000000.0 0.8309371924621486 -0.5572499639464538
4544000000.0 0.8482585079309455 -0.5258706095228775
4547000000.0 0.847140029722999 -0.5220928379498273
4550000000.0 0.8370258356029945 -0.5795445486804987
4553000000.0 0.8390612995048317 -0.5666431149062662
4556000000.0 0.8006247906504813 -0.5654704234908737
4559000000.0 0.8357711004926561 -0.5858517366726375
4562000000.0 0.8326015784393566 -0.595108575856298
4566000000.0 0.8389449194065357 -0.6006243142967571
4569000000.0 0.784979806828182 -0.6094903365777751
4572000000.0 0.7996490138980176 -0.6127810336756965
4575000000.0 0.778500289171832 -0.6363755820158608
4578000000.0 0.8295367509906131 -0.646328547757639
4581000000.0 0.791657645466377 -0.6363683011706707
4584000000.0 0.7762985662310244 -0.6409398244335944
4588000000.0 0.7942118014256077 -0.6486380967474678
4591000000.0 0.7753037140749723 -0.6276263667359885
4594000000.0 0.7542848331410468 -0.6696882614215401
4597000000.0 0.761411381268797 -0.6671751183549146
4600000000.0 0.7194769402592507 -0.6907343490789418
4603000000.0 0.7554287171228368 -0.6792372450801163
4606000000.0 0.756959027294571 -0.6838570002835704
4609000000.0 0.7284749808845998 -0.6858058220850529
4612000000.0 0.7430278127721142 -0.7066064040862641
4616000000.0 0.7169463276690755 -0.6981227562358733
4619000000.0 0.7326948690768822 -0.7018359608928092
4622000000.0 0.7277067328293567 -0.7007016557015895
4625000000.0 0.6633981963939959 -0.7224693917434611
4628000000.0 0.6978065855898201 -0.7156961464056214
4631000000.0 0.6852332011054219 -0.7423560523892955
4634000000.0 0.6718853609000399 -0.74174655132357
4638000000.0 0.6866953085752912 -0.7515467508076251
4641000000.0 0.6727323897969958 -0.7543969051234471
4644000000.0 0.6724233433411637 -0.7609804894783702
4647000000.0 0.662611541236288 -0.7749639174097054
4650000000.0 0.6472104892050846 -0.7742633950538537
4653000000.0 0.6462604753797445 -0.7795504688732995
4656000000.0 0.6223256441800078 -0.7819010061084202
4659000000.0 0.636254572803805 -0.7911922552594194
4662000000.0 0.6243214591096669 -0.817698156710288
4666000000.0 0.6138761013521264 -0.8113727662733264
4669000000.0 0.634052059350138 -0.8105049258762935
4672000000.0 0.6035716412657642 -0.8401603750063615
4675000000.0 0.5858085101522155 -0.8430792609864882
4678000000.0 0.5840082833604389 -0.8031010613072457
4681000000.0 0.570283262378398 -0.8655412933763669
4684000000.0 0.5492786265591004 -0.8489498121514032
4688000000.0 0.5396616906727272 -0.8512682643159352
4691000000.0 0.599032031493421 -0.866946332077422
4694000000.0 0.5484191902148281 -0.8321109173239105
4697000000.0 0.5100387587084958 -0.8526005062724331
4700000000.0 0.5372139061707536 -0.8436426683998985
4703000000.0 0.5361347613435165 -0.8358361378760921
4706000000.0 0.53236922570879 -0.8740359709999546
4709000000.0 0.48398966091942675 -0.8691235791600986
4712000000.0 0.4980312062443705 -0.8854205452105435
4716000000.0 0.4670295407052538 -0.8944677000941819
4719000000.0 0.507005006925501 -0.8845116679115556
4722000000.0 0.5095622048430953 -0.8911284625442768
4725000000.0 0.48079107211738986 -0.8822727682167082
4728000000.0 0.4631194078966263 -0.8801427847109802
4731000000.0 0.47646090570786265 -0.9315269313371286
4734000000.0 0.46821937187155516 -0.8928597434204438
4738000000.0 0.4871891172114463 -0.9425661147496869
4741000000.0 0.44928906375003597 -0.9526050906081225
4744000000.0 0.4138399608668092 -0.9397239245239414
4747000000.0 0.43977249860114265 -0.9134497075488509
4750000000.0 0.4177100063230277 -0.9370729416699518
4753000000.0 0.4310093078892639 -0.9387055943122581
4756000000.0 0.3976480619283416 -0.9553731381985358
4759000000.0 0.37873088632640006 -0.9436108989117706
4762000000.0 0.38153623277872584 -0.968759301018178
4766000000.0 0.37414085448619433 -0.9516832261541244
4769000000.0 0.37312848608820604 -0.9515107615432946
4772000000.0 0.34188476692142256 -0.9683151678075185
4775000000.0 0.3609266793274444 -0.9873562252337289
4778000000.0 0.34965318901533027 -0.9806617889492825
4781000000.0 0.3525878257365317 -0.9873186616171177
4784000000.0 0.347678312911448 -0.9308016675141176
4788000000.0 0.3430489077993731 -0.9782513156045516
4791000000.0 0.30722228265622203 -0.9548343392816719
4794000000.0 0.3329932969239755 -0.9845138886453462
4797000000.0 0.27819978504383625 -0.9715481975695149
4800000000.0 0.2874658557899419 -0.9855703675944032
4803000000.0 0.22662629222596387 -0.977505875261728
4806000000.0 0.28920555714290574 -0.9948945063188297
4809000000.0 0.23484777125299444 -0.9998971577678611
4812000000.0 0.25514453794281655 -0.9859508444456853
4816000000.0 0.28008873163585885 -0.9778550153899748
4819000000.0 0.26161120919606207 -1.035709629043763
4822000000.0 0.2418676097352341 -1.0185413744451994
4825000000.0 0.2541651990603137 -1.025439481920248
4828000000.0 0.22412936464306465 -0.9794763525105098
4831000000.0 0.1571024729467302 -1.0273206069010716
4834000000.0 0.2099285088184843 -1.0028978496517484
4838000000.0 0.17460327757135613 -1.0376160495010678
4841000000.0 0.17478072085511992 -1.0089524880467633
4844000000.0 0.1910589894607287 -1.014877333064543
4847000000.0 0.16923190136315455 -1.0002999985904297
4850000000.0 0.15012887747919318 -1.0336566231173239
4853000000.0 0.14451874935336176 -0.9935975981461755
4856000000.0 0.13561822152847688 -1.0013327795545146
4859000000.0 0.14259658612222229 -1.064528569938156
4862000000.0 0.16888621749984944 -1.0203873624343343
4866000000.0 0.09842084598887474 -1.053178202936804
4869000000.0 0.09894052188817824 -1.0340369256323445
4872000000.0 0.06561853060539834 -1.048908789310579
4875000000.0 0.17032799835641438 -1.053125248843938
4878000000.0 0.0759672671527096 -1.0381612301527905
4881000000.0 0.04252535857378326 -1.0899977178859246
4884000000.0 0.07745602127429102 -1.0250038658226197
4888000000.0 0.10380932668845091 -1.0157025376621163
4891000000.0 0.06644046053641336 -1.046805319691325
4894000000.0 0.018278449928514136 -1.0023126693253366
4897000000.0 0.06501947890507755 -1.0305311468746958
4900000000.0 0.03105950224337533 -1.035525637308192
4903000000.0 0.006775654253820051 -1.0557795244944148
4906000000.0 -0.019159983949850377 -1.0497101026949485
4909000000.0 -0.005088671769164124 -1.0300109435103242
4912000000.0 -0.05032442683873006 -1.0675848379938748
4916000000.0 0.01288577912078314 -1.0217812553965415
4919000000.0 -0.008482622738248818 -1.086738505222907
4922000000.0 -0.011397425879958858 -1.0290135177724753
4925000000.0 -0.07023966146965532 -1.0254940043615206
4928000000.0 0.02320396729624348 -1.0174063975205967
4931000000.0 -0.023359958465793806 -1.0491151402342178
4934000000.0 -0.0595518048722911 -1.0054954367105968
4938000000.0 -0.07926934500159062 -1.0040498758375371
4941000000.0 -0.08539393886391512 -1.0079134485179346
4944000000.0 -0.07469095983931678 -0.9509561985403434
4947000000.0 -0.0951062970948279 -1.0121787389937082
4950000000.0 -0.082954135223078 -0.9994439581557181
4953000000.0 -0.15540531196179003 -1.0601109166399199
4956000000.0 -0.13128521955532263 -1.0353527880198792
4959000000.0 -0.1689706239665051 -0.9953112032618078
4962000000.0 -0.14535148852289367 -1.0605385773909495
4966000000.0 -0.1320916473881345 -1.0536484706412843
4969000000.0 -0.128319406429862 -1.0420458488941888
4972000000.0 -0.1865907957546187 -1.0279324732180692
4975000000.0 -0.11141668643571498 -0.9827516283213412
4978000000.0 -0.19722589956812248 -1.0248324239560713
4981000000.0 -0.21654479097380527 -1.026843957303296
4984000000.0 -0.1788773383426898 -1.012705484718114
4988000000.0 -0.18380232883759523 -0.9780178272262378
4991000000.0 -0.16085412948326439 -1.0125671822534705
4994000000.0 -0.22268638092009296 -1.0183472667215756
4997000000.0 -0.2481948526959249 -1.0285219290212941
5000000000.0 -0.23779955781107026 -1.0696310233904986
5003000000.0 -0.2591940112242255 -1.0342110767426926
5006000000.0 -0.26338147662809086 -1.04286265939243
5009000000.0 -0.24553947127897394 -1.0075189839747267
5012000000.0 -0.26078917461807893 -1.0072927750477627
5016000000.0 -0.2700097480751293 -1.0528309717268298
5019000000.0 -0.2922002161114641 -0.9810697921871434
5022000000.0 -0.28261862304623064 -1.0148575803194042
5025000000.0 -0.3252719479824789 -1.0675056585455935
5028000000.0 -0.341372175464701 -1.0010194072517506
5031000000.0 -0.33287682432980914 -1.0030726126949217
5034000000.0 -0.3511512702137197 -1.0243040138409767
5038000000.0 -0.3759098297988679 -0.9698872191560637
5041000000.0 -0.3074739123838547 -1.008074468773132
5044000000.0 -0.3135516155786896 -0.9556255054856436
5047000000.0 -0.3282655373625388 -1.0017365401978746
5050000000.0 -0.27025978808335605 -0.9737550706516842
5053000000.0 -0.42587564192937466 -0.9884216827561401
5056000000.0 -0.34491123891133946 -0.989623402701753
5059000000.0 -0.350344073380675 -0.9998743920486818
5062000000.0 -0.45760072772902016 -0.9587532815008308
5066000000.0 -0.3734122973626566 -0.9633106671106326
5069000000.0 -0.4259504056778446 -0.9795187540958211
5072000000.0 -0.4027782400581291 -0.9065448884606075
5075000000.0 -0.42630576579124624 -0.99710936604101
5078000000.0 -0.46023216128013594 -0.9319628878704809
5081000000.0 -0.4186911496643379 -0.9415110713978901
5084000000.0 -0.47187494465241886 -0.9923429658715932
5088000000.0 -0.4680201252008148 -0.9563339657166341
5091000000.0 -0.49277153271574864 -0.8997701918427004
5094000000.0 -0.45735252118866626 -0.9242068896802375
5097000000.0 -0.4539088258384234 -0.9580340981671629
5100000000.0 -0.4754289879681535 -0.9163727826502909
5103000000.0 -0.5275226661197856 -0.8804190279033214
5106000000.0 -0.5291032860649725 -0.9806658700525215
5109000000.0 -0.5091688582618499 -0.8915307498637663
5112000000.0 -0.541185071924102 -0.8967722568787762
5116000000.0 -0.5082388090148499 -0.8725230392469219
5119000000.0 -0.549372568459436 -0.9097201851657715
5122000000.0 -0.48515850670197247 -0.89983898054411
5125000000.0 -0.48907037308049417 -0.9015091582771472
5128000000.0 -0.545973660391471 -0.8873993796600175
5131000000.0 -0.5618306362309843 -0.8524478324649183
5134000000.0 -0.5311605078658371 -0.8833148009939489
5138000000.0 -0.5354421758686051 -0.9149128295407689
5141000000.0 -0.5286145986520524 -0.9073817319548869
5144000000.0 -0.5313926050979227 -0.9215786236954799
5147000000.0 -0.5949872175109541 -0.8619337896697531
5150000000.0 -0.5727366506236864 -0.8533109376214949
5153000000.0 -0.578403615307665 -0.9109005013254028
5156000000.0 -0.5747074877761132 -0.8529600597847378
5159000000.0 -0.625926076487422 -0.8717001222925025
5162000000.0 -0.5930928975646346 -0.8351131314838988
5166000000.0 -0.6757079789045161 -0.8274910541438102
5169000000.0 -0.6170687133280067 -0.8609697855444004
5172000000.0 -0.6054875571827618 -0.8464782871972429
5175000000.0 -0.6466609173212896 -0.8500094616434754
5178000000.0 -0.6796079734258897 -0.8346372243210881
5181000000.0 -0.6734842072779705 -0.8334641452841499
5184000000.0 -0.6502078471173254 -0.8111927319482429
5188000000.0 -0.6309145754215669 -0.819736852101493
