! Created with skrf 1.8.0 (http://scikit-rf.org).
# Hz S RI R 50.0 
!freq ReS11 ImS11
4000000000.0 0.6377136643384846 0.780855426094845
4003000000.0 0.6953883559895411 0.8714169669938844
4006000000.0 0.6741623073925939 0.7353944090272408
4009000000.0 0.7285235171848005 0.8148951762578548
4012000000.0 0.6517208759728937 0.8192647218294159
4016000000.0 0.7468626657852275 0.7665665892534272
4019000000.0 0.7149206518578843 0.7286523554402927
4022000000.0 0.6623925503587623 0.7809114022252307
4025000000.0 0.7412572242098797 0.7438178854108868
4028000000.0 0.7674441521983988 0.7264937721334426
4031000000.0 0.6882936252971639 0.727814208810126
4034000000.0 0.752692053148118 0.7043549548431777
4038000000.0 0.7594967590029574 0.7341428437522942
4041000000.0 0.7281872085932979 0.6962307461399999
4044000000.0 0.786301431369196 0.7762106944583552
4047000000.0 0.7536256455335506 0.7428058689767906
4050000000.0 0.7767394095549881 0.7076370320986032
4053000000.0 0.761516194555777 0.6447648310905905
4056000000.0 0.7858539952234374 0.7290047150695999
4059000000.0 0.7277066315687485 0.6970472865183805
4062000000.0 0.7652651096228108 0.640175488429396
4066000000.0 0.7453034855671314 0.6254511182120696
4069000000.0 0.8467870322585717 0.6172866043385811
4072000000.0 0.7406080812557089 0.6794166318508237
4075000000.0 0.8288550468482674 0.6741903017745949
4078000000.0 0.8176849741413413 0.6441213491882776
4081000000.0 0.7818066252771707 0.6995958484992
4084000000.0 0.869026063103855 0.6110800459372132
4088000000.0 0.7888941946872047 0.6436830426181969
4091000000.0 0.8811303164747847 0.6490869803728296
4094000000.0 0.8308632899258308 0.5925808532411411
4097000000.0 0.8260030621154394 0.6029613217788183
4100000000.0 0.8250896901753787 0.6091299656860869
4103000000.0 0.8851025877531251 0.6080291329447336
4106000000.0 0.8632794220019753 0.5989187071329377
4109000000.0 0.8718662101558228 0.5332301836561624
4112000000.0 0.870001371433432 0.5548995091347546
4116000000.0 0.8451966055501557 0.5456984213077365
4119000000.0 0.9030473573532561 0.5205396875431028
4122000000.0 0.8760566887069093 0.5482802642552581
4125000000.0 0.9097087695170646 0.5292240946942546
4128000000.0 0.8428335449863987 0.5528881851906973
4131000000.0 0.9031039526991708 0.49490977707262485
4134000000.0 0.879870852658239 0.49819739752281944
4138000000.0 0.8972929889899572 0.4804029973260516
4141000000.0 0.8795999346695849 0.45992873878486185
4144000000.0 0.9004967277297276 0.5085489137498032
4147000000.0 0.9105918984110358 0.4710463969272252
4150000000.0 0.9449562586139132 0.4889159577625522
4153000000.0 0.9028048578926637 0.4345862359247642
4156000000.0 0.9348692100241833 0.4791852718432338
4159000000.0 0.929581478961732 0.46323699435400273
4162000000.0 0.9220348744208127 0.4197284136270212
4166000000.0 0.9401051358058752 0.41217650262801875
4169000000.0 0.9425155519067291 0.37743929310448476
4172000000.0 0.9426280082947678 0.4011259093636222
4175000000.0 0.9793323719811999 0.41505231364607337
4178000000.0 0.9479008878407513 0.4183869286691091
4181000000.0 0.9625294619622897 0.39404204827697376
4184000000.0 0.940229268584398 0.3952198384553666
4188000000.0 0.9667356495417292 0.3670054609925274
4191000000.0 0.9410268978141945 0.4043577405450179
4194000000.0 0.9363352840254894 0.3567675247918892
4197000000.0 0.9563409930811126 0.3505904018851393
4200000000.0 0.9768144863977675 0.3700566998235614
4203000000.0 0.9692387817183844 0.36109286384740213
4206000000.0 0.9831782790747453 0.3507345416490399
4209000000.0 0.9558358421561418 0.32370924223107594
4212000000.0 0.9829030713186646 0.2887112229100043
4216000000.0 0.9753295195085698 0.31709043570190837
4219000000.0 0.992153410337344 0.32277829611594533
4222000000.0 1.0032333872322166 0.2675817510328163
4225000000.0 0.9910552028015094 0.27610777477902204
4228000000.0 0.9975021317208606 0.2780538227276369
4231000000.0 0.9994075763086934 0.25878971094694225
4234000000.0 1.0085283383177275 0.2494546525649129
4238000000.0 1.006096231441553 0.22505942222237738
4241000000.0 0.9778063375947317 0.22369889458287767
4244000000.0 0.9832522825828919 0.2275243440444067
4247000000.0 0.9868557303515394 0.20775562551638904
4250000000.0 0.9986219022367069 0.20629010710244267
4253000000.0 0.9732636123024687 0.18853634867542618
4256000000.0 1.0223779244498985 0.16479733543713798
4259000000.0 0.9744939831315435 0.18118881791033561
4262000000.0 0.9997179311819562 0.14871153493937786
4266000000.0 1.0383512880293462 0.13794285073568552
4269000000.0 0.9903237548840728 0.17450755801721732
4272000000.0 1.0005917582340653 0.1405091868610381
4275000000.0 1.0218901960513669 0.15081910626375622
4278000000.0 1.0231578322171029 0.15366873572721218
4281000000.0 1.0123334834613664 0.13953654609669275
4284000000.0 1.0118284646469422 0.098327114325654
4288000000.0 1.0098056735359686 0.1447037360901958
4291000000.0 0.9827471441776833 0.0984176809570985
4294000000.0 1.0323831528056742 0.08519595469832665
4297000000.0 0.9980243857592401 0.09982103462984311
4300000000.0 0.9813177270305531 0.07715345817410652
4303000000.0 1.0247381300828204 0.04177174212636141
4306000000.0 1.0128943314503922 0.07407277477764013
4309000000.0 1.0055621857343522 0.05714120176074021
4312000000.0 1.038606924321585 0.07671135807485277
4316000000.0 1.045108722530828 0.0664732772809123
4319000000.0 0.9868331411240098 0.02543905041021148
4322000000.0 0.9883331003481195 -0.013552351889824746
4325000000.0 1.0149866459832904 0.036797091311470506
4328000000.0 1.0027779207644203 -0.0025556666153806196
4331000000.0 1.020226369014764 -0.04061119946404665
4334000000.0 1.0396779679532566 -0.033549064199287784
4338000000.0 1.0221560279314774 0.011852574780525385
4341000000.0 1.0262692384685823 -0.006474565812343944
4344000000.0 1.024206958129958 -0.04959225421546229
4347000000.0 1.032371698357909 -0.09919317852992011
4350000000.0 0.9692274437826541 -0.048597479120326095
4353000000.0 0.9980147835429156 -0.058076488958879735
4356000000.0 0.981652631680922 -0.10696909460668169
4359000000.0 0.9653597125160949 -0.06594407444370075
4362000000.0 1.0263671890637003 -0.16871272800164427
4366000000.0 1.036031866041787 -0.11081106418638285
4369000000.0 0.9724855477822042 -0.11304669312716638
4372000000.0 1.0008725960385578 -0.1526273599886605
4375000000.0 0.9859918695861143 -0.1231652750295294
4378000000.0 0.9714689756376438 -0.15990016024306092
4381000000.0 0.9949672633659346 -0.1408213613255416
4384000000.0 1.0608005577082906 -0.17388337116160663
4388000000.0 0.9841402517124362 -0.15364579306192416
4391000000.0 1.0102126914289453 -0.16856526424492013
4394000000.0 0.9628864198099246 -0.19372841980152758
4397000000.0 0.985021767629281 -0.18718307255022318
4400000000.0 1.016258813033698 -0.23127923271335016
4403000000.0 1.0025467135439643 -0.21788368767631858
4406000000.0 0.9810707920740875 -0.2410782183671864
4409000000.0 1.0098234388258787 -0.24881318166426622
4412000000.0 0.9565406329120334 -0.29065386949537014
4416000000.0 0.967050331000205 -0.26124121146114243
4419000000.0 0.9647344414266141 -0.2831623853416835
4422000000.0 0.9591203798409706 -0.25103462303981966
4425000000.0 1.0004153645098017 -0.2463991368158847
4428000000.0 0.9589517699657311 -0.2848216324220058
4431000000.0 0.9837344825814751 -0.2797591649316615
4434000000.0 0.953570334233728 -0.31207996680351313
4438000000.0 0.9883362943515328 -0.32060617426436955
4441000000.0 0.98005971938139 -0.31581759802164117
4444000000.0 0.933971856143391 -0.30896110755442635
4447000000.0 0.9453471399504781 -0.3407810470636803
4450000000.0 0.9471607658307433 -0.31885831956248645
4453000000.0 0.9756489884566869 -0.3518517278805348
4456000000.0 0.9256416051425306 -0.36503426284609375
4459000000.0 0.8806932762922679 -0.3665128942344259
4462000000.0 0.9863145181191519 -0.3988450578780185
4466000000.0 0.969775329573422 -0.414616784713631
4469000000.0 0.9414650850207416 -0.3768409264567143
4472000000.0 0.9352865075553716 -0.4257460711737704
4475000000.0 0.9168717347077081 -0.3961542308149395
4478000000.0 0.9442135754371076 -0.45202953960776737
4481000000.0 0.8843166195973048 -0.42449130941349505
4484000000.0 0.8902246123690769 -0.47679533340180846
4488000000.0 0.8765010443582544 -0.4494972976200359
4491000000.0 0.9035457043445541 -0.47551507417795197
4494000000.0 0.8905533065609686 -0.47377513050773473
4497000000.0 0.8908014940331408 -0.44301665675726337
4500000000.0 0.904431238748739 -0.4757599411362413
4503000000.0 0.9191905297422498 -0.469905538658631
4506000000.0 0.8782694791637962 -0.4918804725063615
4509000000.0 0.8694352008085602 -0.4942064357764583
4512000000.0 0.8353498887648797 -0.5025122388477598
4516000000.0 0.8777463438112066 -0.5243737262664446
4519000000.0 0.850805781708792 -0.5017675927433158
4522000000.0 0.8624512327087388 -0.5448085362387005
4525000000.0 0.8640084824185448 -0.49096563673799065
4528000000.0 0.8737092230699999 -0.5625774148765358
4531000000.0 0.8505622755371776 -0.5329353344409852
4534000000.0 0.8204706654441931 -0.5551905434297812
4538000000.0 0.8170739476369921 -0.557123285133255
4541000000.0 0.7898638947572837 -0.5875675980228261
4544000000.0 0.806512773779074 -0.5678285001413158
4547000000.0 0.8243956364444225 -0.5782240148915725
4550000000.0 0.8071682920452694 -0.6060997453077549
4553000000.0 0.7998866976475267 -0.6139557751757567
4556000000.0 0.7644872832584875 -0.6090155394159061
4559000000.0 0.7927961262677976 -0.6286600316511612
4562000000.0 0.7960110714785595 -0.6117994031991748
4566000000.0 0.7832750570442657 -0.6490707856118096
4569000000.0 0.7727353462333364 -0.6322562880067726
4572000000.0 0.7636060960416859 -0.6361959328228831
4575000000.0 0.7482392341044213 -0.6858355671366445
4578000000.0 0.7933256384529328 -0.6674548009462566
4581000000.0 0.7506615794190851 -0.679488964559084
4584000000.0 0.7270262531541192 -0.6862140613583163
4588000000.0 0.767049211905433 -0.6963574030911536
4591000000.0 0.753904000627042 -0.6815270566483259
4594000000.0 0.7229186741666762 -0.7058268450339816
4597000000.0 0.7153468394229117 -0.7111892177954231
4600000000.0 0.6917221015789632 -0.7208525631468764
4603000000.0 0.6949426116700687 -0.7196565495649077
4606000000.0 0.7166536202610918 -0.7443769536046978
4609000000.0 0.6910279772384883 -0.7183777255356136
4612000000.0 0.7119178936261009 -0.7511457655552817
4616000000.0 0.6789501260363 -0.7297874707296481
4619000000.0 0.6828408586874504 -0.723162814888359
4622000000.0 0.6631355789167859 -0.7595449929578972
4625000000.0 0.6442857242533685 -0.7557880796905974
4628000000.0 0.6764304017944143 -0.762152363296966
4631000000.0 0.6344392220862598 -0.7756852092837999
4634000000.0 0.6397175538039973 -0.7771446359166915
4638000000.0 0.6353759106547254 -0.7849458681234858
4641000000.0 0.6495405263015255 -0.7808818132617094
4644000000.0 0.616686992980847 -0.7964608846120266
4647000000.0 0.6224136217950751 -0.8081131976227781
4650000000.0 0.5989054090916308 -0.8046977995894817
4653000000.0 0.616064599930127 -0.8316993774021525
4656000000.0 0.596118878363973 -0.8178970848227483
4659000000.0 0.586261270567261 -0.8320429170593375
4662000000.0 0.5818674081342599 -0.8368694324370208
4666000000.0 0.5568983241852192 -0.8389727335283401
4669000000.0 0.5870586149697818 -0.8300606120935929
4672000000.0 0.5662989669934629 -0.8746681733833399
4675000000.0 0.5513006305919879 -0.8605795564303679
4678000000.0 0.5355855832483598 -0.8243503181731369
4681000000.0 0.5114432388458833 -0.8707864569233507
4684000000.0 0.5130107195633467 -0.8874198420332702
4688000000.0 0.5020966907822068 -0.8692318773827776
4691000000.0 0.5267690605187136 -0.8883006841970844
4694000000.0 0.5009235460117222 -0.8609894449004345
4697000000.0 0.4577086242718645 -0.8577807764163703
4700000000.0 0.5028955823113189 -0.888829637753366
4703000000.0 0.4830429757973146 -0.8352412768165662
4706000000.0 0.44965105277899653 -0.9199714744515175
4709000000.0 0.4441867017565183 -0.889870381312263
4712000000.0 0.459837489423446 -0.9109007119870317
4716000000.0 0.4652785251258268 -0.9094222538500079
4719000000.0 0.4662825465281388 -0.9100262753211695
4722000000.0 0.46533849505862557 -0.9020943756295685
4725000000.0 0.42214020310831324 -0.9164305118797808
4728000000.0 0.404516481133061 -0.9127692937138032
4731000000.0 0.43085167651785083 -0.9364881459638006
4734000000.0 0.4284600412477616 -0.9179424263639454
4738000000.0 0.4321726660463614 -0.9537478290358773
4741000000.0 0.3620689181962279 -0.9442076559359587
4744000000.0 0.3613622235703547 -0.966138234225155
4747000000.0 0.3871843828520164 -0.9368451887533756
4750000000.0 0.3601114660659528 -0.9574043638347627
4753000000.0 0.36254980032365525 -0.9444878086494365
4756000000.0 0.34503940850649945 -0.9874971894076814
4759000000.0 0.3373920492711124 -0.9724569589582455
4762000000.0 0.30453556343621374 -1.0037954745110211
4766000000.0 0.31277959574684894 -0.9544440132429907
4769000000.0 0.3024074348168815 -0.9839168679808813
4772000000.0 0.3245354594687379 -0.971967312613016
4775000000.0 0.2733200127239221 -1.0324775610362213
4778000000.0 0.3080082094092015 -0.9721699653595003
4781000000.0 0.31889301506151174 -0.9741439815578492
4784000000.0 0.2902018574572334 -0.9725082246183979
4788000000.0 0.25994329215910483 -1.000150423493082
4791000000.0 0.26197453825547184 -1.0022422353921319
4794000000.0 0.286177711781221 -1.0130212737888824
4797000000.0 0.2377685822082022 -0.9694971370989532
4800000000.0 0.22601262939079927 -0.9913075356913048
4803000000.0 0.16701966431749396 -1.0013861091639864
4806000000.0 0.22319408815198954 -1.0098027477573688
4809000000.0 0.17466644578046656 -1.0372457131641455
4812000000.0 0.14858074204620264 -1.0161826724257828
4816000000.0 0.1969873666997503 -0.9812948603807501
4819000000.0 0.18578908751504436 -1.0272275675002274
4822000000.0 0.21674489417423967 -1.0494852690661394
4825000000.0 0.18251349404815131 -1.0180465122155475
4828000000.0 0.14838784618995285 -1.0119046158921
4831000000.0 0.10873009204486717 -1.0455150749440236
4834000000.0 0.15398702243914597 -1.0270397034032226
4838000000.0 0.1292670806800236 -1.0518068089411965
4841000000.0 0.10603409876578633 -1.0214607226372818
4844000000.0 0.14954168341782537 -1.0344570603103727
4847000000.0 0.11380907867515623 -0.9863444017548002
4850000000.0 0.08287546586577081 -1.0489453449670276
4853000000.0 0.0997650818028337 -1.0159905598836048
4856000000.0 0.05524474904982405 -1.0176716825696752
4859000000.0 0.06781314537608506 -1.0586794171777605
4862000000.0 0.10743131327286144 -0.9991855503766695
4866000000.0 0.02666963991807954 -1.0367429917908348
4869000000.0 0.02699156694211955 -1.0391285984822136
4872000000.0 0.018200937301460062 -1.057241578177703
4875000000.0 0.08144903767394887 -1.0758685257782463
4878000000.0 0.029451398013344884 -1.0369065852812465
4881000000.0 -0.030317992118401353 -1.090823882914858
4884000000.0 0.01561018013349369 -1.0415338511361187
4888000000.0 0.014329830561648691 -1.0413271678395188
4891000000.0 0.00786183538812128 -1.038124849154425
4894000000.0 -0.04364476374553603 -1.0135905322265655
4897000000.0 0.008839028511963845 -1.0292509418338665
4900000000.0 -0.04686628693600088 -1.0329166211345409
4903000000.0 -0.03635216740136304 -1.0379422853733626
4906000000.0 -0.08432232067295423 -1.0726631370180875
4909000000.0 -0.09260009604483871 -1.0490613379133655
4912000000.0 -0.0967262994235638 -1.0688255724285418
4916000000.0 -0.07737200826114934 -1.0422023097609878
4919000000.0 -0.07546618798822065 -1.0599760325971666
4922000000.0 -0.09660101889549982 -1.027145282486518
4925000000.0 -0.136463304488498 -1.0256809321496374
4928000000.0 -0.07466031820716158 -1.0091071426075051
4931000000.0 -0.11204710923086829 -1.0770567275623937
4934000000.0 -0.09811453137043198 -0.9660951874435455
4938000000.0 -0.16154031622908988 -1.0309499235452055
4941000000.0 -0.14235468232036547 -1.0129137568864608
4944000000.0 -0.14404659255892358 -0.9507481796579951
4947000000.0 -0.14133626927701237 -1.0219505205073691
4950000000.0 -0.19982438530791002 -1.0261035641457692
4953000000.0 -0.20501096067239133 -1.07611343431252
4956000000.0 -0.19726336003323564 -1.0216691737295505
4959000000.0 -0.24457653891767825 -0.9811313739626499
4962000000.0 -0.24267617826514634 -1.0087679596327896
4966000000.0 -0.2362951669712337 -1.0519137972729666
4969000000.0 -0.1938364792799101 -1.0681344199809324
4972000000.0 -0.24050533218858702 -1.008606741299526
4975000000.0 -0.20686157591478785 -1.0278139908663588
4978000000.0 -0.27507641572047 -0.9986844557804064
4981000000.0 -0.25038044944745774 -1.0211867505176249
4984000000.0 -0.2531185671794237 -0.997481847094271
4988000000.0 -0.2380718296374129 -0.9795999662088863
4991000000.0 -0.2372650078882131 -1.0507483759342695
4994000000.0 -0.2654674414416674 -0.9682622645248868
4997000000.0 -0.32687010743404626 -0.9714477076866712
5000000000.0 -0.29580665982610177 -1.0395528908350855
5003000000.0 -0.3157771090779759 -1.045258523706877
5006000000.0 -0.29924845390921584 -1.045541890188616
5009000000.0 -0.33707960818101435 -1.0019860944365162
5012000000.0 -0.373125836782278 -0.9768710043888398
5016000000.0 -0.3066491700526582 -1.0036871805284584
5019000000.0 -0.3599598541589184 -0.9757718656740333
5022000000.0 -0.3474016090945209 -0.9823312607860855
5025000000.0 -0.41941159642479725 -1.03154617549385
5028000000.0 -0.4271327435214456 -0.9638170239438026
5031000000.0 -0.4021127105590552 -0.9506163313493913
5034000000.0 -0.41643180127504187 -1.0037512892094274
5038000000.0 -0.42082251711657603 -0.9529820912154867
5041000000.0 -0.3798324914729645 -0.9748213696342739
5044000000.0 -0.3673514577998632 -0.9373402011808988
5047000000.0 -0.4322550063835073 -0.9733766898081452
5050000000.0 -0.3384867626074133 -0.9488185452651525
5053000000.0 -0.44539909463876004 -0.9804909785292124
5056000000.0 -0.3801951904181313 -0.9759047705562063
5059000000.0 -0.4165846856004613 -0.953802669357592
5062000000.0 -0.4791935180281318 -0.9474796969885584
5066000000.0 -0.46782113882841103 -0.951151391678754
5069000000.0 -0.47022100474172757 -0.9121443891635465
5072000000.0 -0.47575997154364513 -0.8889104661046245
5075000000.0 -0.4629136394092279 -0.949037030839984
5078000000.0 -0.5242166739359284 -0.8804445858945484
5081000000.0 -0.5243450406208148 -0.8914580722192874
5084000000.0 -0.4918155776993868 -0.9230105371886501
5088000000.0 -0.46732976648095426 -0.8840841959342802
5091000000.0 -0.5499949714338574 -0.8933027271391023
5094000000.0 -0.5340175405810471 -0.9181123590923549
5097000000.0 -0.5071807764610851 -0.9575783718516429
5100000000.0 -0.5495782993209131 -0.9067590004673735
5103000000.0 -0.5688446259204012 -0.8448812452082924
5106000000.0 -0.5565608821553562 -0.9288131835798119
5109000000.0 -0.5251853371022711 -0.8656633672136445
5112000000.0 -0.594940034799718 -0.889806200181489
5116000000.0 -0.5621815003012979 -0.8415419006407954
5119000000.0 -0.5793344160907096 -0.8864761273348694
5122000000.0 -0.5741764440506661 -0.8419494758547641
5125000000.0 -0.5942905580179991 -0.850185705979789
5128000000.0 -0.6059094563532007 -0.8459104897384622
5131000000.0 -0.5818918209661209 -0.8461433564812263
5134000000.0 -0.6215638871068643 -0.8323853585926676
5138000000.0 -0.6129403988122223 -0.8831702532630328
5141000000.0 -0.5933034121909733 -0.8537065263746024
5144000000.0 -0.6295162709641219 -0.8468387337107834
5147000000.0 -0.6603564240308278 -0.8317254200806077
5150000000.0 -0.6573115343701106 -0.8591942016399378
5153000000.0 -0.6450993481909564 -0.8100679737826311
5156000000.0 -0.6563065966057092 -0.8380070697422871
5159000000.0 -0.6192744521054547 -0.8259354577891629
5162000000.0 -0.6736081677727715 -0.7644117741019899
5166000000.0 -0.7138478940133844 -0.8082138469870821
5169000000.0 -0.704749154997222 -0.782454368360132
5172000000.0 -0.6907813790080269 -0.8063571232942198
5175000000.0 -0.7240221668828165 -0.7974157509790717
5178000000.0 -0.7139439393800702 -0.7371093819260469
5181000000.0 -0.7115299726420198 -0.7670891682586969
5184000000.0 -0.7113705033457132 -0.7821017274273808
5188000000.0 -0.7409814694463724 -0.7767311467062477
