! Created with skrf 1.8.0 (http://scikit-rf.org).
# Hz S RI R 50.0 
!freq ReS11 ImS11
4000000000.0 0.6630639701603497 0.7399072026748552
4003000000.0 0.7323557324415317 0.7792915484473716
4006000000.0 0.7168980501538297 0.7288620099556372
4009000000.0 0.721740670846222 0.7810330985861342
4012000000.0 0.6778590107271858 0.7863037866974864
4016000000.0 0.75858516284776 0.7589892189310257
4019000000.0 0.7660212983579247 0.731267451590034
4022000000.0 0.7155998480108405 0.7763152610610944
4025000000.0 0.8260869263199674 0.6555833515947311
4028000000.0 0.7956367494991069 0.688950670814473
4031000000.0 0.7246538222228561 0.7043995171375284
4034000000.0 0.7741664951638899 0.6920388815334886
4038000000.0 0.8406697182445036 0.7053235480854404
4041000000.0 0.7833789535762966 0.6849050907743474
4044000000.0 0.7943569085604968 0.7068369408171375
4047000000.0 0.8191423541482161 0.7247745962646726
4050000000.0 0.8079336668612351 0.6575659826037287
4053000000.0 0.8175955027419728 0.6117419572488931
4056000000.0 0.8134219245057901 0.6813410315573303
4059000000.0 0.7893883724699995 0.6222875812367379
4062000000.0 0.8026739537243635 0.62360307684419
4066000000.0 0.7857641919831002 0.5912218921866104
4069000000.0 0.8813667577189234 0.6067534094915895
4072000000.0 0.8230581386478764 0.6131645845193532
4075000000.0 0.8720134774157099 0.6338429993918047
4078000000.0 0.8913215545328431 0.5820060264918111
4081000000.0 0.8137788899151963 0.6407433352062961
4084000000.0 0.9128828643206184 0.5891237927121666
4088000000.0 0.8400924649057299 0.5918791871219827
4091000000.0 0.8806040888892916 0.5959967248494327
4094000000.0 0.8697657442204424 0.5794779323480564
4097000000.0 0.8722014157962222 0.5424572901845359
4100000000.0 0.9293120937176367 0.5518104615614203
4103000000.0 0.9019895485182403 0.5556961619249001
4106000000.0 0.8997820934558451 0.527212251445158
4109000000.0 0.8937087591030974 0.5002842494620814
4112000000.0 0.8833051111965884 0.5168324443403949
4116000000.0 0.8685050105353024 0.5176318922929052
4119000000.0 0.9077948258095718 0.48508850149006444
4122000000.0 0.9144996564138301 0.4781749981811835
4125000000.0 0.9054316967402701 0.4543046600034432
4128000000.0 0.8593924829886747 0.46615464468547896
4131000000.0 0.8876787230236849 0.46794961065085705
4134000000.0 0.9175932073903662 0.4848700433269806
4138000000.0 0.921221383555958 0.4322979403815001
4141000000.0 0.9186397738755779 0.4528242483493571
4144000000.0 0.9418467713798405 0.4811980652475059
4147000000.0 0.9407955115743756 0.41539512648352145
4150000000.0 1.0013531129158322 0.4240944307616192
4153000000.0 0.9431974302120384 0.4046046258543279
4156000000.0 0.9612540168584043 0.4132326797911654
4159000000.0 0.9124996735720012 0.4020726131552617
4162000000.0 0.9603500755751411 0.3983718182390772
4166000000.0 0.9846017431238328 0.3786163936602496
4169000000.0 0.9568034012687312 0.35307243590833093
4172000000.0 0.9682302501630832 0.36305205699132553
4175000000.0 0.9789011447643091 0.3809395376996017
4178000000.0 0.9588360600329487 0.36389590883500866
4181000000.0 0.973738350216053 0.293618497224189
4184000000.0 0.9600547436592601 0.340529027305386
4188000000.0 0.9802226179652362 0.310800945144562
4191000000.0 0.9649960866324445 0.3569662641025824
4194000000.0 0.9424782618247395 0.2921960945481409
4197000000.0 0.995286954648378 0.30268763173263985
4200000000.0 0.9709741175143733 0.31911460302273853
4203000000.0 0.9878974419506628 0.2908507620415425
4206000000.0 1.0061123862550705 0.27229471306648595
4209000000.0 0.981528315328032 0.28123979807514304
4212000000.0 0.9741361527004562 0.22659840502053452
4216000000.0 1.00416185689435 0.26249804282997163
4219000000.0 1.019246668013058 0.25736560903204186
4222000000.0 0.9761659311325745 0.2148614348522026
4225000000.0 0.9924495194958436 0.2209609938747311
4228000000.0 0.9927958733865636 0.2204989757364418
4231000000.0 1.0095524950512829 0.2009063067142733
4234000000.0 1.0149003949061528 0.18143107758468524
4238000000.0 1.001041146034877 0.18347976409703307
4241000000.0 0.9964337435068871 0.16500959599559228
4244000000.0 0.9971314145163245 0.18263751946418488
4247000000.0 0.9992476317717761 0.15487428884773924
4250000000.0 0.9965304318350425 0.14744509830643587
4253000000.0 0.976821041511879 0.1218359225162084
4256000000.0 1.0434424541931304 0.12519111833609797
4259000000.0 0.978695434553052 0.12952304567551773
4262000000.0 1.0173512268225962 0.09997748124542108
4266000000.0 1.0133662427005816 0.07586722725262124
4269000000.0 1.0116211226682184 0.12844218052499423
4272000000.0 1.0097885467810697 0.0956991620677172
4275000000.0 1.0285196654723308 0.09796441500677858
4278000000.0 1.0299543664539952 0.08578956378801311
4281000000.0 1.011759710387074 0.08365440219205424
4284000000.0 1.0503325669730241 0.010360551183026617
4288000000.0 1.0246237349357998 0.0664446346022888
4291000000.0 0.9905945621777155 0.02728219188736307
4294000000.0 1.0070235071675544 0.010359480521023062
4297000000.0 1.0003436434889934 0.05834534421001693
4300000000.0 1.0047608958048442 0.014099119301650982
4303000000.0 1.006822875377847 -0.029582658285686528
4306000000.0 1.0203326235576275 0.012133985400836586
4309000000.0 1.0242523511646995 -0.02408496711785859
4312000000.0 1.0330307286870624 0.00362674357049117
4316000000.0 1.0375332714206271 -0.009865544741477661
4319000000.0 0.9943073423339058 -0.01943383926391702
4322000000.0 1.0013084970846453 -0.0821945828310234
4325000000.0 1.0462288364287284 -0.046311693389200215
4328000000.0 1.0164020712849144 -0.07310501771150202
4331000000.0 1.0165915235913263 -0.10271584598105128
4334000000.0 1.0257502256950979 -0.09656611026928302
4338000000.0 1.0155337274192457 -0.04446663127227282
4341000000.0 1.0494265690700235 -0.06252291809052737
4344000000.0 1.0172493888250298 -0.11241093683508964
4347000000.0 1.014434699691868 -0.15184549295471955
4350000000.0 0.9940233682659991 -0.16178895840642146
4353000000.0 0.9683325424468254 -0.11054495324690464
4356000000.0 0.9830270635798007 -0.16758032467362438
4359000000.0 0.945449325919898 -0.13777334491724524
4362000000.0 0.9947382469075043 -0.20237953869076258
4366000000.0 1.014156135281322 -0.18661665094035718
4369000000.0 0.9731004068385629 -0.1789113417984198
4372000000.0 0.9781405437016208 -0.21602563680150194
4375000000.0 0.9979864913160248 -0.19672639581645782
4378000000.0 0.9555103542554678 -0.2066795268771593
4381000000.0 0.9672808188786257 -0.20328527236411598
4384000000.0 1.029286686933688 -0.263801194630819
4388000000.0 0.9754749271141245 -0.22845059165178735
4391000000.0 0.9878545863887693 -0.2322389028616787
4394000000.0 0.9536804306311923 -0.2698136094155805
4397000000.0 0.9757911240552093 -0.2636019847968404
4400000000.0 0.99520192898562 -0.27934111684046825
4403000000.0 0.9853663331157309 -0.28658744139647424
4406000000.0 0.9698411044144327 -0.31219958818175986
4409000000.0 0.9962592553557197 -0.31868630664498365
4412000000.0 0.9424906923497361 -0.35683676007162274
4416000000.0 0.9366689434352158 -0.32872759247053385
4419000000.0 0.9457354518439655 -0.3439712544069932
4422000000.0 0.9553430259230404 -0.3170513551437434
4425000000.0 0.9746999582551633 -0.32711630012848913
4428000000.0 0.94176518477822 -0.36104777609494354
4431000000.0 0.9746778467024888 -0.3575351568605567
4434000000.0 0.9278924282881604 -0.37461185006883024
4438000000.0 0.9626465797989179 -0.391181815643981
4441000000.0 0.9530225730065456 -0.39439253534658586
4444000000.0 0.9207267837295814 -0.3865293383227191
4447000000.0 0.9059043834217222 -0.40677427599959026
4450000000.0 0.9197309623221869 -0.39291553829163106
4453000000.0 0.9455375755319799 -0.4120762472308439
4456000000.0 0.888737813399702 -0.4275323132299893
4459000000.0 0.8742354766862068 -0.43864810586921943
4462000000.0 0.9482566275760504 -0.46183689984963583
4466000000.0 0.9373773180405715 -0.4838658303338381
4469000000.0 0.9284844539833106 -0.4493718542339328
4472000000.0 0.9055497267522288 -0.49604515462951176
4475000000.0 0.8649803215824464 -0.4597882241156841
4478000000.0 0.9111029009131613 -0.5211866102111822
4481000000.0 0.8555953243035425 -0.49475120788392357
4484000000.0 0.8403074195975244 -0.5453459695379489
4488000000.0 0.8493070353923086 -0.5125308946797678
4491000000.0 0.8715985514554035 -0.529509776526601
4494000000.0 0.8560411633489284 -0.509754002460941
4497000000.0 0.8434610384253822 -0.506138939124481
4500000000.0 0.8468687997449091 -0.5214468023021063
4503000000.0 0.877056424200293 -0.5611193409877464
4506000000.0 0.8367490081276983 -0.5693043532359784
4509000000.0 0.8176903121658294 -0.5560944545026382
4512000000.0 0.8065968344259925 -0.585448576994223
4516000000.0 0.8371891587238565 -0.5959063574582304
4519000000.0 0.792367115422364 -0.5770260702918544
4522000000.0 0.8062837353160037 -0.5926766570075966
4525000000.0 0.8266442764984143 -0.5844266587279542
4528000000.0 0.8108349266301509 -0.5998250001723332
4531000000.0 0.8157522449608394 -0.6047427239392329
4534000000.0 0.7808438330158768 -0.6315962223019759
4538000000.0 0.7932817674695682 -0.6246364449643301
4541000000.0 0.7464371588521926 -0.6587417199745621
4544000000.0 0.7598273541162 -0.6332968642327954
4547000000.0 0.7697285705117295 -0.6441309715513615
4550000000.0 0.7456714129490754 -0.6799733768026799
4553000000.0 0.7561889325229469 -0.6731294427928145
4556000000.0 0.7385819603220651 -0.6751299776287051
4559000000.0 0.7407507175533293 -0.7052083924094623
4562000000.0 0.7501401467550033 -0.7004103831688019
4566000000.0 0.7245648962460243 -0.7184677151081089
4569000000.0 0.6993685316607443 -0.7002463771709191
4572000000.0 0.7212071775897936 -0.7096799462709958
4575000000.0 0.7134428972689728 -0.7425541832806659
4578000000.0 0.7269067232283164 -0.7082200459354969
4581000000.0 0.690325851219791 -0.7463978550922885
4584000000.0 0.6903787884300905 -0.7307223041596417
4588000000.0 0.6986332763180498 -0.7494901832426111
4591000000.0 0.673834269428161 -0.7417072580341089
4594000000.0 0.6614153452592232 -0.7841954207668058
4597000000.0 0.6755257168658431 -0.7895686140217902
4600000000.0 0.6299364460235569 -0.7733409914358063
4603000000.0 0.6348129892419949 -0.7883673201629938
4606000000.0 0.6579408489159592 -0.7763991468260503
4609000000.0 0.6423026365254335 -0.787170947357492
4612000000.0 0.6399552150765259 -0.8015343350866958
4616000000.0 0.6250904524263059 -0.8156445710772529
4619000000.0 0.6001483060837703 -0.8191862716170665
4622000000.0 0.6062887902138487 -0.8099199159333377
4625000000.0 0.5648976788892418 -0.8092334730414134
4628000000.0 0.600672766375185 -0.8268090020780738
4631000000.0 0.5807882005877454 -0.8416267923452957
4634000000.0 0.5899014966128013 -0.8478297150337788
4638000000.0 0.5710374216049191 -0.8407917044622554
4641000000.0 0.5690179671952791 -0.8406505312724573
4644000000.0 0.5575330049335214 -0.8385624668150958
4647000000.0 0.5602951451785254 -0.8671594499282314
4650000000.0 0.5162904698614589 -0.8541255192478793
4653000000.0 0.5401227444477498 -0.8625573623553806
4656000000.0 0.5132050685622511 -0.8752870346900234
4659000000.0 0.4904693980278325 -0.9023507926518217
4662000000.0 0.5110204569133715 -0.9045022581113314
4666000000.0 0.48732800585493435 -0.8932295171200144
4669000000.0 0.48416119805099994 -0.8912081939000089
4672000000.0 0.47290732492644216 -0.9212971275969518
4675000000.0 0.47319210766419045 -0.9345970080548206
4678000000.0 0.4553003615568947 -0.9011365230846676
4681000000.0 0.43129865865484635 -0.9332804459269354
4684000000.0 0.4235245229889252 -0.9530639595968988
4688000000.0 0.4065658148308354 -0.9418486492703502
4691000000.0 0.454036354601975 -0.9242162165539738
4694000000.0 0.4200459045217953 -0.9009791063030428
4697000000.0 0.3790547684965888 -0.8865872353765318
4700000000.0 0.40192251389421335 -0.932861285506061
4703000000.0 0.41888377131063637 -0.888241438061387
4706000000.0 0.38359912548172526 -0.9517158727204496
4709000000.0 0.365795301346998 -0.9468703745977275
4712000000.0 0.39455222755266395 -0.9773754860710256
4716000000.0 0.3615734607646559 -1.0128582667028105
4719000000.0 0.3957478437423263 -0.9640413144077414
4722000000.0 0.35563726141832613 -0.9076668894675557
4725000000.0 0.3470220966511464 -0.951748311450426
4728000000.0 0.32470119184807217 -0.9684520970004826
4731000000.0 0.3363689786095775 -0.984686108937364
4734000000.0 0.33485875127509107 -0.9518979047840251
4738000000.0 0.3273677007628729 -1.0211901847433966
4741000000.0 0.2829535284265875 -1.0034272588664226
4744000000.0 0.2711787334551928 -1.0001250501969752
4747000000.0 0.2910537943090345 -0.9435455298255522
4750000000.0 0.2845505118770383 -0.9921086835503133
4753000000.0 0.25332312840914106 -0.9945431364745511
4756000000.0 0.2634899112985148 -1.0091325444769936
4759000000.0 0.24257897150557725 -1.0290950061488786
4762000000.0 0.22202556301404197 -1.0461331355465493
4766000000.0 0.2204065697007702 -1.0034852214447196
4769000000.0 0.2169765154298806 -1.0274158956224806
4772000000.0 0.22778902636478665 -1.0041337717905041
4775000000.0 0.18302010156957998 -1.0392980604826776
4778000000.0 0.17547800545578535 -1.00375653153052
4781000000.0 0.19120984404868935 -1.0014032060389826
4784000000.0 0.20113485612587578 -0.976588697331857
4788000000.0 0.15990489614730813 -1.0291879525632224
4791000000.0 0.11903524845495686 -0.968745484426827
4794000000.0 0.19095674507747062 -1.05006856711947
4797000000.0 0.1466089447124489 -1.0116512297650513
4800000000.0 0.1183338639944388 -0.9920488348835796
4803000000.0 0.06970234566202275 -1.030981728717807
4806000000.0 0.11483502963006957 -1.0339164340954679
4809000000.0 0.05752903317818975 -1.0344223004296818
4812000000.0 0.044460184084357784 -0.9993872633274012
4816000000.0 0.09238813937494098 -1.0084470835680288
4819000000.0 0.09857302233659168 -1.0454417221017538
4822000000.0 0.06201585828615927 -1.0546825217363995
4825000000.0 0.08564479250003205 -1.0761955812078778
4828000000.0 0.03413169837327158 -1.0307137764224885
4831000000.0 -0.008417147778926617 -1.0677405003900056
4834000000.0 0.050500330869254595 -1.0329126647131859
4838000000.0 0.020557091378712325 -1.0304099141545573
4841000000.0 -0.015127348767917478 -0.9962440642845706
4844000000.0 0.0441024038931059 -1.039877177305119
4847000000.0 0.018838379443338896 -0.9985632990031761
4850000000.0 -0.03459091225527716 -1.0547530039688668
4853000000.0 -0.009067923513155468 -1.0131145060250264
4856000000.0 -0.03340594333607361 -1.0189082088433785
4859000000.0 -0.0365888494143154 -1.083031287715733
4862000000.0 -0.021120612606461975 -1.029180561948088
4866000000.0 -0.09957053921502798 -1.0395941246607256
4869000000.0 -0.09436153831352792 -1.0169422995658257
4872000000.0 -0.08714570754696933 -1.05108652217385
4875000000.0 -0.07857495742498181 -1.0903993035388755
4878000000.0 -0.1252607123707109 -1.023890625328885
4881000000.0 -0.14859424367809881 -1.0709616925299523
4884000000.0 -0.10680304113726558 -1.0141446556342828
4888000000.0 -0.10664672374933316 -1.0087381127190245
4891000000.0 -0.12051070638693792 -1.0569232638525885
4894000000.0 -0.16508304544545085 -1.0196346180014355
4897000000.0 -0.13503129465644836 -1.034375641819188
4900000000.0 -0.1423819868185907 -1.0319824295726747
4903000000.0 -0.1691508546850582 -1.0345763329291782
4906000000.0 -0.18371897064857878 -1.054807768729241
4909000000.0 -0.17528413912740962 -1.0337259208905205
4912000000.0 -0.20930058363044035 -1.0677537051534192
4916000000.0 -0.20163209881970245 -1.0864321062948477
4919000000.0 -0.19420670499130493 -1.0630471618986401
4922000000.0 -0.16552269658031593 -1.0519352985375832
4925000000.0 -0.24794222076760272 -0.9607168390143616
4928000000.0 -0.17745033892698464 -0.9819732108886363
4931000000.0 -0.23259686938508817 -1.0307910059397007
4934000000.0 -0.2481833682974014 -0.9719206412233121
4938000000.0 -0.29111620001098176 -0.9772308611032826
4941000000.0 -0.25608826544778834 -0.9793238364658421
4944000000.0 -0.2508052693584767 -0.9271238528168084
4947000000.0 -0.2765581066992856 -1.0125985542953435
4950000000.0 -0.2763929489218515 -1.012659847174449
4953000000.0 -0.3164218297981309 -1.0267784789402108
4956000000.0 -0.32755766994035496 -0.9818869427779326
4959000000.0 -0.3509278593473315 -0.9295962710484198
4962000000.0 -0.3587455632093999 -0.9998125026055641
4966000000.0 -0.33860646247827386 -1.025815029209991
4969000000.0 -0.37120013488049763 -1.0211971108088655
4972000000.0 -0.3676200134762009 -0.9508770616409008
4975000000.0 -0.3032870131914779 -0.9572080722654561
4978000000.0 -0.4025085994309111 -0.94232008750725
4981000000.0 -0.40884562762258314 -0.9807629525751006
4984000000.0 -0.38781429815272583 -0.94322881040384
4988000000.0 -0.3993123987400847 -0.9484221960913437
4991000000.0 -0.34759846237264697 -1.0066350537168656
4994000000.0 -0.4037623419311298 -0.9539179294592103
4997000000.0 -0.45234400057270635 -0.9341698092762134
5000000000.0 -0.42022037268780676 -0.9931448411692858
5003000000.0 -0.4258902044317667 -0.97249589900477
5006000000.0 -0.4719449615518123 -0.9842354935375116
5009000000.0 -0.4610689459331505 -0.9427429818416035
5012000000.0 -0.4976989631625474 -0.9326845333061788
5016000000.0 -0.430419687434666 -1.0082689809455336
5019000000.0 -0.48019140540613203 -0.9064481387481821
5022000000.0 -0.4854761229521981 -0.9009255815319497
5025000000.0 -0.5251790599570973 -0.976548367789295
5028000000.0 -0.5051909370089931 -0.9147778206522691
5031000000.0 -0.5407378689745709 -0.9071191203256316
5034000000.0 -0.548033116693536 -0.8988902750564766
5038000000.0 -0.5285501497041112 -0.835672175084765
5041000000.0 -0.49997367337331944 -0.9150583405528107
5044000000.0 -0.5278297503360815 -0.8657936915772596
5047000000.0 -0.5522939886519072 -0.9179283300652671
5050000000.0 -0.4710766181019763 -0.8922016099842289
5053000000.0 -0.6206127139045484 -0.924686656841684
5056000000.0 -0.5172859558558202 -0.9327827463743339
5059000000.0 -0.5283684294382467 -0.8981574915299083
5062000000.0 -0.5975254977701506 -0.8431912828481165
5066000000.0 -0.5366558604223716 -0.9114775352640714
5069000000.0 -0.6003309417771245 -0.8827419442945358
5072000000.0 -0.5876151161579658 -0.8333144261795804
5075000000.0 -0.5637516439517984 -0.8669329613032146
5078000000.0 -0.6278668843601447 -0.8558279379132405
5081000000.0 -0.6300307221907478 -0.7961871971704093
5084000000.0 -0.6639014145365884 -0.8084826507607716
5088000000.0 -0.6272604070711579 -0.8554764608560763
5091000000.0 -0.6656565831938834 -0.8201842534518606
5094000000.0 -0.6717642555841296 -0.7929612103836301
5097000000.0 -0.6322100634151625 -0.8257475111106451
5100000000.0 -0.6752274432830537 -0.8192917703626285
5103000000.0 -0.706232543299764 -0.7864267317736544
5106000000.0 -0.7132794730070052 -0.8172484568008062
5109000000.0 -0.6699721425110851 -0.8132504768527338
5112000000.0 -0.7040305711917478 -0.7607051969364653
5116000000.0 -0.6867721288424617 -0.7993170073773948
5119000000.0 -0.7313966767483348 -0.7465064667747334
5122000000.0 -0.6856671797189545 -0.761073555880694
5125000000.0 -0.6698828700857263 -0.7809551150646405
5128000000.0 -0.7409708922389723 -0.7520350605621011
5131000000.0 -0.7186654371555204 -0.7410107911754629
5134000000.0 -0.7220419820079115 -0.6969309062994251
5138000000.0 -0.7167910285136402 -0.776004143611271
5141000000.0 -0.7081156592171285 -0.8234305427405113
5144000000.0 -0.7259622839488573 -0.7780635678638477
5147000000.0 -0.7881191008049159 -0.7509893834905886
5150000000.0 -0.7410685270804952 -0.7275552074485871
5153000000.0 -0.7820587221328914 -0.698782036100729
5156000000.0 -0.7594704024894058 -0.6734930990122164
5159000000.0 -0.7999111733040462 -0.7085904701803515
5162000000.0 -0.811652223279802 -0.6578054952261561
5166000000.0 -0.7939137194499344 -0.6729180150821564
5169000000.0 -0.8378262771744681 -0.7066814914704014
5172000000.0 -0.806484656893301 -0.7113607562236395
5175000000.0 -0.820617814106476 -0.6795467139299444
5178000000.0 -0.8268426172071339 -0.6264210474185472
5181000000.0 -0.8559732310786393 -0.6666340017978325
5184000000.0 -0.805886588204527 -0.6290673292548944
5188000000.0 -0.8537775599306223 -0.618454533949628
