! Created with skrf 1.8.0 (http://scikit-rf.org).
# Hz S RI R 50.0 
!freq ReS11 ImS11
4000000000.0 1.0154112258483858 0.01488222590057886
4003000000.0 1.041530879982887 -0.006612264328766826
4006000000.0 0.993866542262652 -0.008644303102581796
4009000000.0 1.0190725297116472 -0.026636472142669426
4012000000.0 1.0174860838746038 -0.015171692087873306
4016000000.0 1.0058807792749094 -0.05690524934149983
4019000000.0 0.9842514072302659 -0.04743360032153665
4022000000.0 1.0582342034925556 -0.11029317170460523
4025000000.0 0.9873480501461074 -0.11138482758610885
4028000000.0 0.9751249423411548 -0.13342552119648934
4031000000.0 1.0042229531733802 -0.10183609669048344
4034000000.0 0.9759401239287329 -0.14267647785840068
4038000000.0 0.9912050786959133 -0.15732775248526612
4041000000.0 0.9998799313908007 -0.1912248559768012
4044000000.0 1.0088874971538075 -0.21084303260536771
4047000000.0 1.005457696493546 -0.2508217053450007
4050000000.0 0.9791965760578729 -0.22735459043080158
4053000000.0 0.9535998187481163 -0.22472579697923417
4056000000.0 0.9699730133198073 -0.25048985583754607
4059000000.0 0.9537639282155279 -0.30182345779862274
4062000000.0 0.934144549333841 -0.26940475180626344
4066000000.0 0.9483213435287714 -0.31640389591228507
4069000000.0 0.9319631372905637 -0.3466052602653111
4072000000.0 0.9052401302038058 -0.3892351867370796
4075000000.0 0.9206237379622036 -0.39521305558323994
4078000000.0 0.9003828449452078 -0.3829729852428998
4081000000.0 0.8817537530544154 -0.4364050500284581
4084000000.0 0.9256777957141854 -0.4408663887679999
4088000000.0 0.8933416270854858 -0.45072858461928
4091000000.0 0.9031130197541034 -0.45784198757308453
4094000000.0 0.8323570562040881 -0.46409236523395864
4097000000.0 0.8590560548256592 -0.4886846944545288
4100000000.0 0.8256106179457111 -0.5241024945659851
4103000000.0 0.8663571700924169 -0.5359241594172309
4106000000.0 0.8424790568119556 -0.5653512074439999
4109000000.0 0.853906588139338 -0.5585103775254091
4112000000.0 0.8205348428899875 -0.5862719803488852
4116000000.0 0.7805085031359768 -0.604473006299812
4119000000.0 0.7963979245966195 -0.6043787208850451
4122000000.0 0.7356123797919837 -0.6411521937831078
4125000000.0 0.7473889930043441 -0.6313161164853976
4128000000.0 0.7551717926307033 -0.66367195737209
4131000000.0 0.6972425365336173 -0.6891210719807617
4134000000.0 0.7044365531335885 -0.7008282762624907
4138000000.0 0.6833880936437713 -0.7226441831924273
4141000000.0 0.7055848526130208 -0.7203703786136629
4144000000.0 0.6809963938168799 -0.7401114366751479
4147000000.0 0.6799512103996641 -0.7840169361324376
4150000000.0 0.6048879879049739 -0.7938989059553186
4153000000.0 0.6104957006791174 -0.7704514039906353
4156000000.0 0.6147060869632401 -0.8042733438531183
4159000000.0 0.5370640819389332 -0.8090867391682902
4162000000.0 0.5513512683883761 -0.8342209807699903
4166000000.0 0.5527458460397445 -0.8559178958187237
4169000000.0 0.49626958589971826 -0.8447539915594272
4172000000.0 0.49281153357428015 -0.8777948492132592
4175000000.0 0.4902617759551204 -0.922486249279822
4178000000.0 0.4640977172962477 -0.8891695252851511
4181000000.0 0.38102914620652706 -0.8908854269090363
4184000000.0 0.39109490452783313 -0.873188272477726
4188000000.0 0.357166056505169 -0.9102026994158161
4191000000.0 0.34951809964734404 -0.9442837891770537
4194000000.0 0.31278496397327993 -0.9592683037942159
4197000000.0 0.30022477222198785 -0.9691164129010212
4200000000.0 0.2976821151368092 -0.9758608432116819
4203000000.0 0.25378375236305356 -0.9891920748967363
4206000000.0 0.2292400595297186 -0.9727570067781166
4209000000.0 0.19319654446632184 -0.972212164657301
4212000000.0 0.15009300260827071 -0.9936277512688456
4216000000.0 0.16318174441416616 -1.0247401324976915
4219000000.0 0.13033675799199404 -0.9928385021586856
4222000000.0 0.09978066501152555 -0.9766180554062709
4225000000.0 0.034971658370731074 -1.0044121868023164
4228000000.0 0.0006034637807544874 -1.0194660902555137
4231000000.0 -0.017594521583061906 -0.998737618526077
4234000000.0 -0.05311986070190747 -1.0187667602517536
4238000000.0 -0.08979643752475097 -0.9975558374083444
4241000000.0 -0.10704699797025319 -0.9713405605468466
4244000000.0 -0.09104466324184765 -0.9864721406340353
4247000000.0 -0.16529995369579897 -0.9987372671978968
4250000000.0 -0.17399897233810802 -1.00469301267835
4253000000.0 -0.2214216750592925 -0.9967655022008398
4256000000.0 -0.2611421044885683 -1.0169823931962794
4259000000.0 -0.27247670687076686 -0.9730052877074924
4262000000.0 -0.32638691329537645 -0.949320169178899
4266000000.0 -0.3244604728141589 -0.9119121423076172
4269000000.0 -0.3563663546853091 -0.9435028752992081
4272000000.0 -0.3839778388400771 -0.9082185525575948
4275000000.0 -0.4216067686851425 -0.9131471219984044
4278000000.0 -0.45533591770782134 -0.8893198501232277
4281000000.0 -0.493110654761737 -0.8607341530882059
4284000000.0 -0.5310718538275293 -0.8907428557616357
4288000000.0 -0.5639272374441473 -0.8078556829246286
4291000000.0 -0.5560727315501313 -0.8359503544189585
4294000000.0 -0.6283577697883111 -0.8206857089067182
4297000000.0 -0.662078829110211 -0.7913817580988625
4300000000.0 -0.7099683776526646 -0.7890564189630759
4303000000.0 -0.6987739917698971 -0.7751157489254447
4306000000.0 -0.7587390287959025 -0.7239183751458901
4309000000.0 -0.7707611332570877 -0.6797642496968518
4312000000.0 -0.7703024570906334 -0.6301899470330113
4316000000.0 -0.7753974866588921 -0.6135534443819093
4319000000.0 -0.827920630482871 -0.6481185475306729
4322000000.0 -0.8579636150716038 -0.56059472782081
4325000000.0 -0.8542518675073042 -0.5646091662949402
4328000000.0 -0.8961285254538831 -0.4985491622059609
4331000000.0 -0.8874821945523764 -0.4950620116959047
4334000000.0 -0.9221661220389729 -0.4784352803313624
4338000000.0 -0.9346871549115302 -0.4120675083096173
4341000000.0 -0.9392236419759231 -0.3790107360369478
4344000000.0 -0.9440673599285981 -0.3581313507191355
4347000000.0 -0.9659870409918808 -0.36800057210016945
4350000000.0 -1.0054953502253894 -0.2876980049158165
4353000000.0 -1.0309839121011322 -0.24283599714777998
4356000000.0 -1.0155746497196927 -0.2626488258148748
4359000000.0 -1.0401231291523456 -0.2060394865604866
4362000000.0 -0.9937493285115304 -0.1939230369023449
4366000000.0 -0.97152828527888 -0.08568578256492686
4369000000.0 -1.0163972202014615 -0.09719636121391653
4372000000.0 -0.9879473079867471 -0.0758867342108249
4375000000.0 -1.0030538287530681 0.007842435186004831
4378000000.0 -1.0938145510944064 0.021683839651271603
4381000000.0 -1.0457373206011573 0.06686829067907299
4384000000.0 -0.9020033144422664 0.09383199053756491
4388000000.0 -1.0399754411398674 0.14262784066955947
4391000000.0 -0.9568476069155558 0.16582938504117137
4394000000.0 -1.025591312851908 0.19344013829137793
4397000000.0 -1.0047290826645718 0.17407442909727097
4400000000.0 -0.9750206603309444 0.23545055688033537
4403000000.0 -0.9555008642388528 0.29274875805592104
4406000000.0 -0.943464528693611 0.37786460341955097
4409000000.0 -0.9271489322854709 0.35686518031744746
4412000000.0 -0.9579945195229336 0.33793682044708556
4416000000.0 -0.9381937937943563 0.4393723738907882
4419000000.0 -0.9274702409716513 0.3900807322397825
4422000000.0 -0.8625839599264853 0.5231746153219372
4425000000.0 -0.8662015613157237 0.555783712572401
4428000000.0 -0.8843104269345934 0.5438728993011159
4431000000.0 -0.8007283303905051 0.5843661891686239
4434000000.0 -0.874082444327498 0.6034233409765883
4438000000.0 -0.7685269140459199 0.6026254515343727
4441000000.0 -0.76226750168996 0.6372729288793848
4444000000.0 -0.7462322872088945 0.7332454308060663
4447000000.0 -0.7797088870310166 0.6879239882402123
4450000000.0 -0.7464821352750508 0.7536411165353236
4453000000.0 -0.6755927535712638 0.7323676941310591
4456000000.0 -0.7262335938977567 0.7965508520269173
4459000000.0 -0.6767168255717178 0.824681685326858
4462000000.0 -0.6024578005685033 0.7840904449444369
4466000000.0 -0.6255185021336261 0.8489339562818058
4469000000.0 -0.5433100058452321 0.8746319412453001
4472000000.0 -0.5054595934152225 0.8580625768148712
4475000000.0 -0.5265466012648528 0.9506226858648805
4478000000.0 -0.5043492786860506 0.8680531898493477
4481000000.0 -0.47390829838549053 0.9520444620628749
4484000000.0 -0.42326742144730517 0.9411377715632904
4488000000.0 -0.3965610420606308 0.9752392250560459
4491000000.0 -0.37781810700459173 0.9810663068059731
4494000000.0 -0.35393009248954066 0.9570335424177077
4497000000.0 -0.3282145620128422 0.9988891180193568
4500000000.0 -0.2662591157156076 0.9744351273579883
4503000000.0 -0.25719365517889653 1.0076136966767062
4506000000.0 -0.24761789922006866 0.9780686208210908
4509000000.0 -0.1939484262254061 0.9923606698639623
4512000000.0 -0.20178629008676086 0.970895485306294
4516000000.0 -0.13634489586929482 1.0107060588048251
4519000000.0 -0.11624953882367683 0.9853512889540992
4522000000.0 -0.07613266207482483 0.9852974092440921
4525000000.0 -0.06361031475595441 1.02260525593069
4528000000.0 -0.038128680475798926 1.0429761389037109
4531000000.0 0.0038157076457351335 0.9978261017832677
4534000000.0 0.011887513733910865 0.9966650678869855
4538000000.0 0.0750280371752236 1.0211390677486667
4541000000.0 0.06977234738122298 1.031892555963494
4544000000.0 0.08396172207094646 0.9973423323952733
4547000000.0 0.11771409830657914 1.0142124394795338
4550000000.0 0.15906895682842678 1.0045317407700498
4553000000.0 0.18414050784559305 1.0100365075937745
4556000000.0 0.2261467295928701 0.970055811536982
4559000000.0 0.22707463182963825 1.0007786345186562
4562000000.0 0.2524811847606555 1.026861418899745
4566000000.0 0.25890668230466274 0.9654913807470225
4569000000.0 0.2664819903612544 0.945310651274196
4572000000.0 0.3185430388270072 0.9443332801264354
4575000000.0 0.32856640124669145 0.9530472332648199
4578000000.0 0.32876712118100915 0.9682777313115848
4581000000.0 0.40882754332122195 0.982858818676417
4584000000.0 0.3898527974139283 0.9298942915770488
4588000000.0 0.41292574451788433 0.9179172923236817
4591000000.0 0.3999628922140415 0.9094007184832752
4594000000.0 0.4368597916808049 0.9020738197812062
4597000000.0 0.4921502167970315 0.8923743116589139
4600000000.0 0.4737731533587506 0.8214071384955958
4603000000.0 0.49958362588703636 0.8765940681520752
4606000000.0 0.4974377772780304 0.8647751410567643
4609000000.0 0.5696568941730122 0.8043014197556881
4612000000.0 0.5769851880496483 0.8439351978446182
4616000000.0 0.5964329246731843 0.8012620493885998
4619000000.0 0.5802322918086731 0.8425585686294739
4622000000.0 0.5654169356383404 0.7951326119720344
4625000000.0 0.591991120412523 0.7423678327720847
4628000000.0 0.6233420120527854 0.7651294001909478
4631000000.0 0.7021598451806632 0.712340806357902
4634000000.0 0.6544943634298372 0.7683521533583081
4638000000.0 0.6808591519784756 0.720896783102286
4641000000.0 0.724399885774043 0.7229679941432164
4644000000.0 0.7432197143146905 0.6983663420638158
4647000000.0 0.7623376347975886 0.6988353290591087
4650000000.0 0.7844383220866163 0.6517112466806637
4653000000.0 0.7787891641479474 0.6641869797831924
4656000000.0 0.8074981473200291 0.6031679461167216
4659000000.0 0.7613430903759529 0.6212527026157517
4662000000.0 0.7648412754606594 0.6061586594104733
4666000000.0 0.7729077147893267 0.6208886836544718
4669000000.0 0.7907286073672635 0.5951747878209106
4672000000.0 0.8382220536295663 0.5091504295023653
4675000000.0 0.8408793730340558 0.4793476703688928
4678000000.0 0.8575642862013158 0.519853938887156
4681000000.0 0.8879093794155157 0.47976222902790455
4684000000.0 0.8128393144146274 0.4716955770351343
4688000000.0 0.8497011307591926 0.5036722747945067
4691000000.0 0.8283225712441618 0.45018269222065926
4694000000.0 0.9278333076893825 0.4227751137941261
4697000000.0 0.9253282335053801 0.46490279206695434
4700000000.0 0.9215963579208628 0.4237925403205213
4703000000.0 0.9937645240618962 0.40098150986985465
4706000000.0 0.8716625236409681 0.4115496200790517
4709000000.0 0.9327370621068135 0.3649422907627087
4712000000.0 0.940674824643998 0.3230993544069828
4716000000.0 0.9317379568182588 0.33863810027855745
4719000000.0 0.9665347637077851 0.27840200262220444
4722000000.0 0.97676651506944 0.31173232725417144
4725000000.0 0.9716381544556023 0.25246478655959137
4728000000.0 0.9619302149358191 0.23683186496951114
4731000000.0 0.9357017601481414 0.24929385879704136
4734000000.0 0.9797936367163351 0.23545401300906982
4738000000.0 0.9271284973395835 0.1998016914800052
4741000000.0 0.9667553095626741 0.19707251246534477
4744000000.0 0.9955768513918007 0.15978265784981482
4747000000.0 1.0183250267571882 0.14845932836709752
4750000000.0 0.9542051194356282 0.08104277046044772
4753000000.0 1.0091593481462886 0.10689814242477884
4756000000.0 0.9517525840323381 0.07578189726169722
4759000000.0 0.9886538008590235 0.07795906320018257
4762000000.0 0.9773291697380568 0.09903955257111902
4766000000.0 0.9811333726472335 0.04611759691436099
4769000000.0 1.0313290142538212 0.06315576484453815
4772000000.0 1.0369765438245098 -0.006730300687987134
4775000000.0 1.0123447119286957 -0.004595617106241498
4778000000.0 0.994832132811124 0.05004016829374841
4781000000.0 1.024863534479155 -0.02286958865289844
4784000000.0 0.9816783404046379 0.0089045702489806
4788000000.0 1.006874836239019 0.003117604924691611
4791000000.0 1.027759743048382 -0.09296461571481764
4794000000.0 0.97922523902947 -0.0887858192760885
4797000000.0 1.0383150355785367 -0.08751322890617357
4800000000.0 0.9949714021772473 -0.1367638189780482
4803000000.0 0.9932881139502138 -0.09800646316174746
4806000000.0 1.0006070180610784 -0.10708567846143113
4809000000.0 0.9743472537748873 -0.1307501887082416
4812000000.0 0.9967746078887896 -0.15889277756040926
4816000000.0 0.9962208439407788 -0.18562562363805485
4819000000.0 0.9910257794824735 -0.20095778132661593
4822000000.0 1.0111882561871015 -0.20794982752781657
4825000000.0 0.9836434406678525 -0.23966184050918388
4828000000.0 0.965349798992833 -0.21360028134648823
4831000000.0 0.9593220090587115 -0.24782229730906405
4834000000.0 0.9506809662046991 -0.27916045477557594
4838000000.0 0.9702285162804464 -0.27032231147002495
4841000000.0 0.9640042372693796 -0.28913709987549147
4844000000.0 0.9641858336536264 -0.28845697824312977
4847000000.0 0.9587560649245831 -0.30032246151102093
4850000000.0 0.9442958972842785 -0.3436605422998027
4853000000.0 0.9513852651701055 -0.34478474155501776
4856000000.0 0.9225193389288509 -0.3641873670447837
4859000000.0 0.9261668055911277 -0.37414577372463603
4862000000.0 0.9099519469453295 -0.37546352981126374
4866000000.0 0.9425353635387468 -0.3952863850885732
4869000000.0 0.9034115791280632 -0.4154255915533167
4872000000.0 0.8849532815290048 -0.4377591648699888
4875000000.0 0.9155820151442949 -0.4483351954391565
4878000000.0 0.8895422363219222 -0.4621762635153884
4881000000.0 0.8997314169942594 -0.460058197090621
4884000000.0 0.9072987672664031 -0.4872207246888685
4888000000.0 0.9036277559771055 -0.4762490086749514
4891000000.0 0.8702605322284116 -0.4875229307430902
4894000000.0 0.8628916371379932 -0.5177625279075971
4897000000.0 0.8435040594093858 -0.4933616093462286
4900000000.0 0.8411159930584341 -0.5425988598667105
4903000000.0 0.860291408927723 -0.5304002826625303
4906000000.0 0.8577636239897414 -0.5674228320095105
4909000000.0 0.824132670228709 -0.5567969828951093
4912000000.0 0.8454111932737742 -0.5769001727179973
4916000000.0 0.8450518998057249 -0.5806629497671156
4919000000.0 0.8061179633485152 -0.5970828291491436
4922000000.0 0.8214749228122515 -0.601320791740152
4925000000.0 0.7940901897735493 -0.6157226391867203
4928000000.0 0.7913093421769695 -0.6034121015374644
4931000000.0 0.7999713568901533 -0.6332635805485167
4934000000.0 0.7710104049944813 -0.6120584120619957
4938000000.0 0.7273842950265078 -0.6623951078902662
4941000000.0 0.7349616496952066 -0.663672785612452
4944000000.0 0.728666412909035 -0.6518735851855775
4947000000.0 0.7364138373075958 -0.6657670882371405
4950000000.0 0.7094413117813149 -0.6871199815229595
4953000000.0 0.6994200416010737 -0.7228636893675255
4956000000.0 0.6907733822354454 -0.7079267088225629
4959000000.0 0.6687042590460758 -0.73289223094362
4962000000.0 0.7157945579806508 -0.728065474362525
4966000000.0 0.6943356488482234 -0.7412357855757925
4969000000.0 0.7106725048110396 -0.7443003765500708
4972000000.0 0.6725324849293477 -0.7897524630724303
4975000000.0 0.6906399905554607 -0.7192395182498356
4978000000.0 0.638611796958152 -0.7534989103409467
4981000000.0 0.6393552786761435 -0.7710682649215285
4984000000.0 0.6438846171783918 -0.7596564002340661
4988000000.0 0.6139588032423187 -0.7618460403494633
4991000000.0 0.6576433078674944 -0.7910389630943365
4994000000.0 0.6245531832340601 -0.7694296494559352
4997000000.0 0.5817630214841627 -0.8379487170540739
5000000000.0 0.6343430560016368 -0.8124368068844907
5003000000.0 0.6120022381636504 -0.8567479173514411
5006000000.0 0.5859644848210039 -0.8653448921107298
5009000000.0 0.5705533881602559 -0.8276847531573249
5012000000.0 0.5365351906415096 -0.848689890415055
5016000000.0 0.5775534466959451 -0.8451743983075141
5019000000.0 0.5272774083714461 -0.8629071520579106
5022000000.0 0.5480827693933458 -0.8627792409254067
5025000000.0 0.5566606149085664 -0.909338136201494
5028000000.0 0.4886563145853455 -0.9069270536947976
5031000000.0 0.4873559183779038 -0.8742025306922093
5034000000.0 0.46998388491928567 -0.9555236902483573
5038000000.0 0.4426083208151985 -0.8580101967618065
5041000000.0 0.5164447466015348 -0.8819308628854466
5044000000.0 0.480640408805049 -0.8955458697727233
5047000000.0 0.47589140996982027 -0.9012846149013819
5050000000.0 0.5081068305192972 -0.8717603700280507
5053000000.0 0.45722047142326094 -0.9673501352201286
5056000000.0 0.47448469845349295 -0.8974886647152212
5059000000.0 0.498782132682213 -0.9398668303206769
5062000000.0 0.37015981169269935 -0.9701498300345053
5066000000.0 0.3942623662847673 -0.8893613461125902
5069000000.0 0.3805665856203625 -0.9780279371258921
5072000000.0 0.36901170157534885 -0.8885433666961218
5075000000.0 0.39763071939191963 -0.9536221088212706
5078000000.0 0.29783892665784073 -0.9738620663136228
5081000000.0 0.3271235313132827 -0.9286132040031753
5084000000.0 0.3523494758588388 -0.9797562539646674
5088000000.0 0.33486672363171344 -0.935102413127592
5091000000.0 0.26795382021441155 -1.0008227797257845
5094000000.0 0.31878766040864964 -0.9691256944656964
5097000000.0 0.3418023117981449 -0.981144226106188
5100000000.0 0.2797611857037539 -0.9641263315875072
5103000000.0 0.29483060056092447 -0.9859934599249068
5106000000.0 0.31381245255893014 -1.045100291042077
5109000000.0 0.3114571901556488 -0.992401030743578
5112000000.0 0.23579731341612128 -0.9800425191867073
5116000000.0 0.24190041507278565 -0.8912085850925184
5119000000.0 0.26389429551655214 -0.9761561277466453
5122000000.0 0.2654320279202355 -0.9653270732425276
5125000000.0 0.22333721926665256 -0.9873947381572777
5128000000.0 0.2084085632169004 -1.0155700563503434
5131000000.0 0.217819761899694 -0.9551817202043561
5134000000.0 0.1802760325513814 -1.0025548272354454
5138000000.0 0.16324628438869293 -0.9752216685494722
5141000000.0 0.24852924036209395 -0.9770890091237285
5144000000.0 0.16438668072195697 -1.0195581883669464
5147000000.0 0.14774769094364404 -1.0193770704701208
5150000000.0 0.18089793973023433 -0.9903961939178044
5153000000.0 0.1070121089542947 -0.9936739298264088
5156000000.0 0.10676531258043237 -1.031825374784292
5159000000.0 0.11641603697826293 -1.049439059976273
5162000000.0 0.06491949029331612 -1.0118910558372767
5166000000.0 0.04048676498654626 -1.0791461666452102
5169000000.0 0.0803488596493658 -1.0305865031056616
5172000000.0 0.04154139658534699 -1.0107980499018991
5175000000.0 0.0944282136656379 -1.0578229957749208
5178000000.0 0.02723997254107055 -1.0094313475151935
5181000000.0 0.1035136912389183 -1.044495177692397
5184000000.0 0.010389515027235511 -1.0257109720851736
5188000000.0 0.06609193107752186 -1.0295868903084193
