! Created with skrf 1.8.0 (http://scikit-rf.org).
# Hz S RI R 50.0 
!freq ReS11 ImS11
4000000000.0 -0.653042795367963 0.8413196410126336
4003000000.0 -0.6305709627681091 0.8473729236920349
4006000000.0 -0.571099344855912 0.8814478614858752
4009000000.0 -0.5769669193676843 0.8600194963464176
4012000000.0 -0.5997196144627862 0.8607768089982347
4016000000.0 -0.5255438513567494 0.8846096011439104
4019000000.0 -0.5326299877432676 0.9576420216827758
4022000000.0 -0.5639950083499989 0.8731473512542335
4025000000.0 -0.451684513797525 0.9777098147633687
4028000000.0 -0.47782135416119753 0.9744993237665889
4031000000.0 -0.4409922338025156 0.9080025289124788
4034000000.0 -0.4724820148257135 0.9843936203563804
4038000000.0 -0.4157394419633042 0.9826548936649951
4041000000.0 -0.38004380229279 0.9562773211176997
4044000000.0 -0.4522080532759982 1.031410103038605
4047000000.0 -0.4441301289112866 0.970359216907379
4050000000.0 -0.3292119626641511 1.0088340311160322
4053000000.0 -0.2986634584532207 0.9693397545443976
4056000000.0 -0.3318011470744353 0.9574018250565176
4059000000.0 -0.3552225178794802 1.005155912661362
4062000000.0 -0.23295750668841553 1.0245384068171732
4066000000.0 -0.2675925985657974 0.925388712054288
4069000000.0 -0.28492701939457504 1.0757552287375631
4072000000.0 -0.35651865711879915 1.006358119622069
4075000000.0 -0.30976542523211587 1.0619031724346457
4078000000.0 -0.2591319329855645 1.0840741662674989
4081000000.0 -0.34028124574256635 1.053279017411527
4084000000.0 -0.17093210089977318 1.0273985630507225
4088000000.0 -0.21175947643126358 1.0292648034642409
4091000000.0 -0.14241448966803075 1.165455811518244
4094000000.0 -0.19233469580748386 1.059307283067441
4097000000.0 -0.13448428058179285 1.0386928226649335
4100000000.0 -0.15110685501165344 1.0410230990790588
4103000000.0 -0.1446631693216263 1.0755068547321731
4106000000.0 -0.09192201826185818 1.052581387318336
4109000000.0 -0.05347306980491502 1.0395264249965348
4112000000.0 -0.09937116561526067 1.0469645834977834
4116000000.0 -0.1190645040494258 1.0193958604712716
4119000000.0 -0.008364054392684186 1.0588137811183675
4122000000.0 -0.035151218743653234 1.1057663642075746
4125000000.0 0.05170904626422662 1.1212684613686654
4128000000.0 -0.0012769299256733604 0.984618068808327
4131000000.0 -0.04424696744104831 0.9933726856052281
4134000000.0 -0.0214137818308006 1.0637303913283132
4138000000.0 0.0017796688387786558 1.0522958103172049
4141000000.0 0.06610313791687886 1.0307342656163898
4144000000.0 0.027541002729432745 1.0757241701185332
4147000000.0 0.09989889659323431 0.985469098283579
4150000000.0 0.0668917680647736 1.0777584484294462
4153000000.0 0.09695812462524961 1.0791219177552542
4156000000.0 0.07990203291788425 1.0775555444109697
4159000000.0 0.10037179698602688 1.0517452518088273
4162000000.0 0.16473495751121092 1.0071647084406967
4166000000.0 0.1283118969469576 1.0170603399251665
4169000000.0 0.1931434499343676 1.0628462195219912
4172000000.0 0.15465246804435617 1.0336373434368282
4175000000.0 0.1606217920245688 1.0336857994658772
4178000000.0 0.223215128554289 1.0176165557878538
4181000000.0 0.2116817048344474 1.0799716045729673
4184000000.0 0.25132851130766765 1.046230107332021
4188000000.0 0.2675887703865851 1.0339230766793233
4191000000.0 0.18294690983415932 1.0239706471393617
4194000000.0 0.28312943696264536 0.9826262133144893
4197000000.0 0.2695439479326051 0.9837225213096026
4200000000.0 0.27708852259191985 0.9707677508373945
4203000000.0 0.2536464363472852 0.9764358204133414
4206000000.0 0.3017404810767941 0.9904936059604699
4209000000.0 0.26940132813341805 0.9741327958622175
4212000000.0 0.3203412389205942 0.9648324724722038
4216000000.0 0.3075505480620802 0.9582710567985162
4219000000.0 0.33886975700584776 0.9617451963547158
4222000000.0 0.3746923454043934 0.9936018826852215
4225000000.0 0.3454075736868381 0.9399097428530828
4228000000.0 0.3709315892081878 0.9978362405269218
4231000000.0 0.37346013205708084 0.9649244217218088
4234000000.0 0.38605235002801996 0.9774056812315755
4238000000.0 0.42397448428467355 0.96300608884483
4241000000.0 0.4179111986460855 0.9882489928181806
4244000000.0 0.42136870240632507 0.9448399391017566
4247000000.0 0.4327561035536421 0.9904541301668213
4250000000.0 0.48672224494452654 0.9607784550868163
4253000000.0 0.43831586162748376 0.9321184262691524
4256000000.0 0.458089062815945 0.888702743774691
4259000000.0 0.48845947739642837 0.9372889534779474
4262000000.0 0.5006351687465875 0.9061012225142416
4266000000.0 0.49144039699471087 0.9191211977349755
4269000000.0 0.5178852996801488 0.9390227172067122
4272000000.0 0.5490749724546338 0.8746936289904814
4275000000.0 0.5505367572143369 0.8653454232106836
4278000000.0 0.5087577698073426 0.8811026370101271
4281000000.0 0.5408525182661063 0.884373640246109
4284000000.0 0.5453355733397629 0.8715870711735574
4288000000.0 0.5757947188119155 0.8850728916029904
4291000000.0 0.5845658930518375 0.857534042544827
4294000000.0 0.5699058287247896 0.8460658856664369
4297000000.0 0.5805244974553504 0.8103587739355477
4300000000.0 0.6266066487737205 0.8412163602072311
4303000000.0 0.6093819136643911 0.8259998922289551
4306000000.0 0.6247357323482078 0.8528600475292065
4309000000.0 0.6202961911264302 0.836168111198297
4312000000.0 0.6226559677757745 0.8172960914125672
4316000000.0 0.653281675107005 0.8050250279927997
4319000000.0 0.6389659164872098 0.8320189522583139
4322000000.0 0.671488988185805 0.7643529327737509
4325000000.0 0.6725838931718755 0.7906945740455485
4328000000.0 0.6955529648866569 0.7668962521298984
4331000000.0 0.7144785196976683 0.7471352520843851
4334000000.0 0.6875548804366146 0.7645515237745638
4338000000.0 0.6967707915516058 0.7489018581340428
4341000000.0 0.7184462164038763 0.7627264133909386
4344000000.0 0.7237308238154535 0.7504516411079643
4347000000.0 0.7220063293340225 0.7309881711264948
4350000000.0 0.7152051095711233 0.7138936972228054
4353000000.0 0.7003835731336647 0.7046910625144388
4356000000.0 0.7580594065771044 0.7309502685126795
4359000000.0 0.751667733417932 0.6624308435527955
4362000000.0 0.7973955557370997 0.6532067000979309
4366000000.0 0.7579107033431864 0.6752171402351846
4369000000.0 0.753851111218525 0.6512571381163984
4372000000.0 0.795785332633111 0.6285701134683082
4375000000.0 0.797236581447069 0.6318616095178022
4378000000.0 0.7892675013419247 0.6179746085403333
4381000000.0 0.8148355511066256 0.6548487136184629
4384000000.0 0.84142491625405 0.6269605413111358
4388000000.0 0.8065197497519124 0.6240306890190064
4391000000.0 0.8370736174120423 0.5982902643346741
4394000000.0 0.8125531216535443 0.5838248007407048
4397000000.0 0.8178668852259792 0.5919378855292393
4400000000.0 0.8716508603191067 0.6022950172919506
4403000000.0 0.8396580240026281 0.573469602574842
4406000000.0 0.8609867627849683 0.5150577189561084
4409000000.0 0.869333591684095 0.5751054962552236
4412000000.0 0.8817125483239243 0.5150541960774058
4416000000.0 0.8759545918726439 0.5081499674664487
4419000000.0 0.8784454519212511 0.5040872421578602
4422000000.0 0.8703883762627942 0.538771160215535
4425000000.0 0.89981891638476 0.5217162446785535
4428000000.0 0.876162788970123 0.4904792127520219
4431000000.0 0.9199854733910053 0.49964960193106345
4434000000.0 0.8979625956425399 0.4661051350664071
4438000000.0 0.9190139861027464 0.4841848225826269
4441000000.0 0.9179576848445554 0.48145385934499046
4444000000.0 0.8919393616480265 0.4488888117618852
4447000000.0 0.9167164505646601 0.4301326791861192
4450000000.0 0.9007664426401812 0.46252303464894806
4453000000.0 0.9487609663836785 0.43418349059636396
4456000000.0 0.9117194170357198 0.39190904508613766
4459000000.0 0.9083790237116172 0.3606212798335976
4462000000.0 0.9993787176134132 0.41214757268258495
4466000000.0 0.9723524498457482 0.38588663104384324
4469000000.0 0.9316031324526117 0.39275482437739023
4472000000.0 0.9805739640506447 0.3347945904005485
4475000000.0 0.9258569318152364 0.34282741417394236
4478000000.0 1.0073414240247587 0.359266756620099
4481000000.0 0.9423370740668602 0.32040675415188186
4484000000.0 0.948630631341725 0.26790472500740214
4488000000.0 0.9588225834783866 0.2816342910449406
4491000000.0 0.9720535510910411 0.2761836011369974
4494000000.0 0.9725348612884147 0.288271035951642
4497000000.0 0.9726396329483482 0.2750426660309183
4500000000.0 0.9883599172831783 0.2915803500950724
4503000000.0 1.0081837193306087 0.3034250876735281
4506000000.0 0.9615759339835399 0.2502167863925914
4509000000.0 0.9779883825775317 0.22954684177701176
4512000000.0 0.9682856833209342 0.22346787280403202
4516000000.0 0.9839246240766081 0.24845185048091284
4519000000.0 0.9899452757224299 0.21957421490973533
4522000000.0 1.0009348154917015 0.1858003880343434
4525000000.0 0.9636710848979964 0.20364550533055803
4528000000.0 1.0304117721504733 0.16862146352214288
4531000000.0 0.9827122465955725 0.19453991003885257
4534000000.0 0.9709890788448196 0.16433842709683877
4538000000.0 0.988134253170591 0.13703506927155235
4541000000.0 1.018097113601093 0.10005505824362634
4544000000.0 0.9745154484608538 0.12489543095392097
4547000000.0 0.990580041798592 0.11987934409596115
4550000000.0 1.01203123567381 0.07371460962907506
4553000000.0 1.0150336168867193 0.09573782269080905
4556000000.0 0.9610240115303328 0.05910180439796735
4559000000.0 1.0098111147862694 0.04809202859776578
4562000000.0 1.0111927435157353 0.06404069813203352
4566000000.0 1.0162779940736348 0.0434641830839454
4569000000.0 0.9657022470142191 0.050119875612401235
4572000000.0 0.9861564301542597 0.04312234310198906
4575000000.0 1.016999889109046 0.007517793507165867
4578000000.0 1.0410535327470731 0.038092607927031216
4581000000.0 1.0315171097316582 -0.009295688304741957
4584000000.0 0.9933774193779087 -0.011033256592704425
4588000000.0 1.0324181656673441 0.00391724332663744
4591000000.0 1.0033438461892488 -0.004412411260922164
4594000000.0 1.0201668539574509 -0.06556195797266337
4597000000.0 1.027232435122006 -0.06938678782392055
4600000000.0 0.965988081736267 -0.09341179308679357
4603000000.0 1.0028437894754543 -0.07538337166119684
4606000000.0 0.9947456580291761 -0.07639461204059633
4609000000.0 1.00578072822583 -0.10395987078008409
4612000000.0 1.0449248274486624 -0.10016158295702648
4616000000.0 1.0054087056962624 -0.13650378996544058
4619000000.0 1.0165280033409543 -0.1085415301194762
4622000000.0 0.9966197716617026 -0.11252511585741551
4625000000.0 0.9416648647508777 -0.15852908786812533
4628000000.0 0.943660509213855 -0.10483247121161252
4631000000.0 0.9620501379741886 -0.20009387220036248
4634000000.0 0.9876883308396728 -0.1752980988009592
4638000000.0 1.0023929440448607 -0.18875414215487457
4641000000.0 1.0233785951310594 -0.20509180431958302
4644000000.0 0.9965720428169251 -0.209294193392914
4647000000.0 0.9969995975388467 -0.20852268948628344
4650000000.0 0.986167286743285 -0.24348442323888672
4653000000.0 1.006204455471809 -0.2339648411847486
4656000000.0 0.9735018450098953 -0.28388503527339143
4659000000.0 0.9810851795701294 -0.2557068335913925
4662000000.0 0.976696239650486 -0.2543772783841933
4666000000.0 0.958160664108378 -0.26280213164997784
4669000000.0 0.9531224680184915 -0.25141949131005953
4672000000.0 0.9494244555677577 -0.31424648360366336
4675000000.0 0.9260417479966816 -0.3220942520585126
4678000000.0 0.95466807717053 -0.29419574028710216
4681000000.0 0.9599592682719241 -0.36074797246495827
4684000000.0 0.9124327794270802 -0.34896804324203545
4688000000.0 0.9234295351856208 -0.33378745454453634
4691000000.0 0.9341719906719194 -0.3330963342561454
4694000000.0 0.9478660273874399 -0.371442657426278
4697000000.0 0.9374788200645017 -0.37708126110295864
4700000000.0 0.9464738511845435 -0.36769798001121196
4703000000.0 0.9544095048720302 -0.4118269274458421
4706000000.0 0.9340696707842351 -0.3958358954023574
4709000000.0 0.9177251308268563 -0.43458383947621326
4712000000.0 0.906271822495875 -0.41615945564120993
4716000000.0 0.9179333243827308 -0.43520445290076315
4719000000.0 0.9235466875080162 -0.44784385627060824
4722000000.0 0.9339042545932754 -0.4402319757820667
4725000000.0 0.9052132882247047 -0.45541458718370775
4728000000.0 0.8547342480382896 -0.4573262326863667
4731000000.0 0.9109573077512092 -0.43667491860673296
4734000000.0 0.905342063966592 -0.459878666703811
4738000000.0 0.8744150955530334 -0.5030042155554507
4741000000.0 0.8905223746378034 -0.48462559392455123
4744000000.0 0.8638697311846876 -0.5350528053169036
4747000000.0 0.8766831895280455 -0.5120145318326165
4750000000.0 0.8413901421467034 -0.5199090848295932
4753000000.0 0.8429910411185465 -0.5647589033083191
4756000000.0 0.8313556105549674 -0.5587466165746009
4759000000.0 0.8464337768740913 -0.5673893432427046
4762000000.0 0.8338346473755467 -0.5603481167952803
4766000000.0 0.8069873304355419 -0.5719659816689001
4769000000.0 0.8607443983549218 -0.5839986098523406
4772000000.0 0.8073130428671477 -0.6130157598742076
4775000000.0 0.8268886189755201 -0.5978455197158559
4778000000.0 0.8319880002857818 -0.5876727165477572
4781000000.0 0.8323866393889543 -0.5937968352996676
4784000000.0 0.7934365811816053 -0.5932640199692164
4788000000.0 0.81384403261812 -0.6407626869247266
4791000000.0 0.7853613023764394 -0.6503548359262736
4794000000.0 0.786550626482609 -0.6438185131877734
4797000000.0 0.7736436032015335 -0.6737560416473848
4800000000.0 0.7521749523913399 -0.6690253625872865
4803000000.0 0.7385096838160271 -0.6587430972079609
4806000000.0 0.7534427380061679 -0.6694491073114895
4809000000.0 0.7372146691040485 -0.6807001954467465
4812000000.0 0.7400445560721209 -0.7069517613049385
4816000000.0 0.7446524926212991 -0.707498204751312
4819000000.0 0.768247435845073 -0.7115429684266548
4822000000.0 0.729741720771247 -0.7236360202450713
4825000000.0 0.7397866454750344 -0.729871862882995
4828000000.0 0.7287675459417208 -0.7140314057050371
4831000000.0 0.6944403092536243 -0.7369087475464843
4834000000.0 0.7072942407755369 -0.7538386347295825
4838000000.0 0.695629790352155 -0.7581845405861019
4841000000.0 0.6712236900057618 -0.7544277732958805
4844000000.0 0.7110893707034953 -0.7489697146223109
4847000000.0 0.6683843630061344 -0.7666417759979691
4850000000.0 0.6754497226814193 -0.7826031972041518
4853000000.0 0.6576018620652868 -0.761577516673402
4856000000.0 0.643066204921197 -0.7769954934700712
4859000000.0 0.6434859289336291 -0.7970777415521814
4862000000.0 0.6322355608870326 -0.7722995846679845
4866000000.0 0.6234998727639038 -0.8195124131859334
4869000000.0 0.600305208285766 -0.8323658116227272
4872000000.0 0.5921136023654382 -0.8430695531679178
4875000000.0 0.641702031870188 -0.8201568321697097
4878000000.0 0.5973891398311169 -0.8445026906191686
4881000000.0 0.5848234062450003 -0.8948758516472165
4884000000.0 0.5941893405496312 -0.8389924753101526
4888000000.0 0.6053199263719132 -0.8167160593681703
4891000000.0 0.5835021507480298 -0.8717405340767194
4894000000.0 0.5323788072134955 -0.8613519277473561
4897000000.0 0.5587022423390922 -0.8439514422839994
4900000000.0 0.5186766218834777 -0.8684771056739152
4903000000.0 0.5397822402018726 -0.8917657151165549
4906000000.0 0.5322260302630593 -0.9115837854310115
4909000000.0 0.5281082522130752 -0.8962791659635827
4912000000.0 0.5232451415639696 -0.8971584380435926
4916000000.0 0.5250633307001157 -0.9105807396925742
4919000000.0 0.5266186740940969 -0.9181268736483298
4922000000.0 0.5122874863542548 -0.9191124954516363
4925000000.0 0.48010980999155717 -0.8921941135071849
4928000000.0 0.5058845619801676 -0.8885236378980146
4931000000.0 0.5186688279509251 -0.9315381315201274
4934000000.0 0.44565700172639255 -0.8846804142332135
4938000000.0 0.4462591589275636 -0.9338397810042202
4941000000.0 0.42938602588795566 -0.9189054905364193
4944000000.0 0.4325146404407677 -0.8729273444525543
4947000000.0 0.4046180977448449 -0.9033481147974722
4950000000.0 0.3821050578450326 -0.938919954646202
4953000000.0 0.38351557695600347 -1.010029853469398
4956000000.0 0.3772678274794178 -0.9853041582245423
4959000000.0 0.346303410751987 -0.9116032456423292
4962000000.0 0.3626029523910641 -0.9836061616218779
4966000000.0 0.40467195752352525 -0.9620905961045393
4969000000.0 0.388467115749079 -1.001995774891153
4972000000.0 0.3277025600822412 -0.9973970840838106
4975000000.0 0.37978297629113567 -0.94743407254895
4978000000.0 0.318379298518754 -0.9799596375386737
4981000000.0 0.2935886053393332 -0.9640192863727599
4984000000.0 0.307451691085871 -0.9608992238901187
4988000000.0 0.29886860127754794 -0.9515004764547856
4991000000.0 0.3591360043109363 -0.9884270253929058
4994000000.0 0.2978591529512448 -0.9650641100617334
4997000000.0 0.2416444646769418 -0.9954097217547426
5000000000.0 0.3210801133145076 -1.0237974201614644
5003000000.0 0.2878323547767432 -1.0225070730755867
5006000000.0 0.279404711054729 -1.059691006795219
5009000000.0 0.2542208037768117 -0.973631805802262
5012000000.0 0.2100052408482012 -1.0066081543246863
5016000000.0 0.26344550230265795 -1.027889715359402
5019000000.0 0.20244865817465832 -0.9945275683114885
5022000000.0 0.24439403368587131 -1.0311393361564405
5025000000.0 0.21804041014333803 -1.1016849080617452
5028000000.0 0.1790679396134328 -1.0411117239741596
5031000000.0 0.17767554451997983 -1.007154318220455
5034000000.0 0.13319003500856658 -1.072259621066448
5038000000.0 0.13916969321701306 -1.0049278278553657
5041000000.0 0.2014703782131948 -1.0399401052167043
5044000000.0 0.1638064459531851 -1.0101131741933869
5047000000.0 0.1650164433269452 -1.033182738367985
5050000000.0 0.22258414378001876 -0.9776128252796779
5053000000.0 0.11813940820153923 -1.0661157668111114
5056000000.0 0.19198667107136438 -1.0136455629219052
5059000000.0 0.18141775655874778 -1.021627034563899
5062000000.0 0.09857628588277975 -1.0526077231864321
5066000000.0 0.14323275385778242 -1.0137129541514895
5069000000.0 0.10106679024237837 -1.0497045381738281
5072000000.0 0.06064659086709344 -0.9872162192270677
5075000000.0 0.09761018236077482 -1.0441648307645166
5078000000.0 0.024364031869189708 -1.0877798852312914
5081000000.0 0.0357259945611235 -0.9925730907651379
5084000000.0 0.061530126300105986 -1.0605317656377704
5088000000.0 0.07446024557634903 -1.0601941883699957
5091000000.0 0.0011735592388933819 -1.0845602530682081
5094000000.0 0.016459672184940648 -1.0616043086759728
5097000000.0 0.0653340640688264 -1.063286165087918
5100000000.0 -0.003738888465407996 -1.0069866045841314
5103000000.0 -0.010846724159526581 -1.0274966100617644
5106000000.0 0.021469783789809394 -1.1345469610819043
5109000000.0 0.02750850840271919 -1.0198221023768266
5112000000.0 -0.041698964974914404 -0.989185208267894
5116000000.0 -0.022088244026155786 -0.9622754178624295
5119000000.0 -0.012877647436848622 -1.0263487661066955
5122000000.0 -0.02594875625940788 -1.0379889114317538
5125000000.0 -0.05749185004005696 -1.0212324177855097
5128000000.0 -0.10566983990358637 -1.0569214277078065
5131000000.0 -0.09855672344779817 -1.0063798073057988
5134000000.0 -0.07140945206777327 -0.9894559081726362
5138000000.0 -0.11787588400848337 -1.0680321474650003
5141000000.0 -0.07772308595264038 -1.0137009678413296
5144000000.0 -0.06803989109726057 -1.0795542128708753
5147000000.0 -0.1364670115231681 -1.0368026660289096
5150000000.0 -0.09830509789189537 -1.0053557162648188
5153000000.0 -0.17060416916827226 -1.0070833913963355
5156000000.0 -0.14462722875112802 -1.0476448632434145
5159000000.0 -0.17490208274540425 -1.0518981828487872
5162000000.0 -0.15154518687208932 -0.9973225230372325
5166000000.0 -0.24473191706032332 -1.0665028366663707
5169000000.0 -0.21568584808073166 -1.0511979202598358
5172000000.0 -0.21881110322114203 -0.9790544719078124
5175000000.0 -0.18190746505488153 -1.0417189571902947
5178000000.0 -0.23179696535605288 -1.0194187646998754
5181000000.0 -0.20068300518102786 -1.0460655489128234
5184000000.0 -0.2515958365378362 -1.0057862550369066
5188000000.0 -0.17367895767763086 -0.9972575750901156
5191000000.0 -0.23422413547103377 -1.0444577865693152
5194000000.0 -0.24263158676991559 -1.0554915802573104
