! Created with skrf 1.8.0 (http://scikit-rf.org).
# Hz S RI R 50.0 
!freq ReS11 ImS11
4000000000.0 0.6025312134175359 0.8295535795636375
4003000000.0 0.7056050798108181 0.8359446280095058
4006000000.0 0.6712572480688547 0.770445032374179
4009000000.0 0.6507229524079058 0.8395913458725639
4012000000.0 0.6164239723361102 0.786008667837411
4016000000.0 0.709428906898979 0.8259285374110259
4019000000.0 0.6437775138988251 0.7690931423548453
4022000000.0 0.619613794503539 0.8039836774998271
4025000000.0 0.7483841464531847 0.7369150318560926
4028000000.0 0.7277332138209749 0.7744973841024232
4031000000.0 0.6676165819104488 0.7166615538629817
4034000000.0 0.6890491561831127 0.7488042423290525
4038000000.0 0.7090256536293869 0.717377283376454
4041000000.0 0.6940139386797075 0.7406119308829833
4044000000.0 0.7847775220798648 0.7925803001629661
4047000000.0 0.7544510658453458 0.7749426039891716
4050000000.0 0.743586116814909 0.7078551189683416
4053000000.0 0.7456137495611569 0.696691906776779
4056000000.0 0.7596742328402084 0.6791662005451429
4059000000.0 0.6908369736080313 0.6863818755455242
4062000000.0 0.7737747981405706 0.6784185798656333
4066000000.0 0.7361844932166133 0.6526231152793591
4069000000.0 0.8246136623336462 0.6794561702263568
4072000000.0 0.76568215436211 0.6778310861585375
4075000000.0 0.7993594395756972 0.7352434570318571
4078000000.0 0.8196970917680629 0.6653831878081637
4081000000.0 0.7792318005331499 0.7008395355933428
4084000000.0 0.7915159123030211 0.6171230720439989
4088000000.0 0.7697689195628884 0.6518955116273981
4091000000.0 0.8552261840336396 0.6592266525068855
4094000000.0 0.7964414001820637 0.6443136506083748
4097000000.0 0.819239412668589 0.610835187098898
4100000000.0 0.8278457676866706 0.6192322409055611
4103000000.0 0.8651203614475449 0.6367495144782309
4106000000.0 0.8373673551125155 0.6399696190813378
4109000000.0 0.8682472192633539 0.6095909548083955
4112000000.0 0.8509624510201237 0.58207408883384
4116000000.0 0.8218554260915983 0.6222502431100019
4119000000.0 0.8864518949805414 0.5795381162284131
4122000000.0 0.9130892603398547 0.5664674265546698
4125000000.0 0.8895404860006859 0.5463934574790112
4128000000.0 0.8391932070551299 0.5505353934994055
4131000000.0 0.8549055352863978 0.5074776655933001
4134000000.0 0.8409025838812098 0.5716400034993255
4138000000.0 0.838152515916269 0.5146955873777004
4141000000.0 0.8815623602790276 0.5249106657354236
4144000000.0 0.8810676681848889 0.5381680444077432
4147000000.0 0.9027205628120224 0.4806445702526941
4150000000.0 0.9175858134331311 0.5299826149492948
4153000000.0 0.8969251358012718 0.5003220054660805
4156000000.0 0.9120824820668296 0.48560576591223203
4159000000.0 0.8841236470569365 0.5036946484075364
4162000000.0 0.8772361240963389 0.466721358352885
4166000000.0 0.9047183639769028 0.4849162887086219
4169000000.0 0.8945498194246813 0.43911119499345685
4172000000.0 0.9317634591790946 0.4558355536565341
4175000000.0 0.908343914622793 0.47900132435525083
4178000000.0 0.9443807175941364 0.43998600037558666
4181000000.0 0.9444430868397722 0.44323306907954085
4184000000.0 0.9344977027941059 0.41707605064403436
4188000000.0 0.9226806638055722 0.39616870307194874
4191000000.0 0.924817695545423 0.4224452903027703
4194000000.0 0.9120111593114462 0.38565924754642544
4197000000.0 0.9704750859884034 0.38057625716537585
4200000000.0 0.9298954345694024 0.39700971532849605
4203000000.0 0.9393313563646247 0.38596920201782403
4206000000.0 0.9684233583347021 0.37919523470927313
4209000000.0 0.9393854934730509 0.37106352366936907
4212000000.0 0.9564560219258953 0.3222732738516447
4216000000.0 0.9607395294639373 0.36437106638528477
4219000000.0 0.979999052183664 0.34129692055040206
4222000000.0 0.9671957098501152 0.3237995486446417
4225000000.0 0.9513874858811113 0.3212382120796513
4228000000.0 0.9733877394557677 0.30276735738110827
4231000000.0 0.9793897701135714 0.3094336199566986
4234000000.0 0.9835093712588389 0.2852368094873565
4238000000.0 0.9935723979072625 0.277090000551966
4241000000.0 0.9714593944435659 0.2661853176021081
4244000000.0 0.9533602302265268 0.29738457364294396
4247000000.0 0.9843048190892556 0.2734199458822048
4250000000.0 0.9797323436542005 0.24396762520845583
4253000000.0 0.959827520765347 0.21811890033511017
4256000000.0 0.9903288584833814 0.23645489070048686
4259000000.0 0.9469015450444235 0.22795180150965924
4262000000.0 0.9746206572772813 0.21681379441605028
4266000000.0 0.9871106267588481 0.18956755062402986
4269000000.0 1.001642574723372 0.20176102773741136
4272000000.0 0.992348790335354 0.2169733931945172
4275000000.0 1.0120783468105035 0.18191917687665926
4278000000.0 1.0194464458446317 0.18896234301931264
4281000000.0 1.008804365956151 0.1586579532489485
4284000000.0 1.006881827749767 0.13108325105004812
4288000000.0 0.9943009604438963 0.1953777344657879
4291000000.0 0.9762985937185803 0.12614920576937794
4294000000.0 0.9997830449715405 0.13164077451343764
4297000000.0 0.9835290198650131 0.14011596704672874
4300000000.0 1.0043349914365138 0.13963469656325053
4303000000.0 0.9847410031740451 0.10886024894583339
4306000000.0 1.0191325893808485 0.13487885209212078
4309000000.0 0.989312543212279 0.08710319046757507
4312000000.0 1.008363610779698 0.13205005203005193
4316000000.0 1.0053681557099612 0.08540664098638014
4319000000.0 0.9997050591589499 0.07113455008919885
4322000000.0 0.9846772627551413 0.02434199597181462
4325000000.0 1.0078039257962252 0.05128623971711678
4328000000.0 0.9936957679221102 0.03957478284183942
4331000000.0 1.0159325656454061 0.0238306584810829
4334000000.0 1.0257751397255808 0.06904122517957975
4338000000.0 1.0068262499312097 0.07433107232917076
4341000000.0 1.0352413479776663 0.029158260893362736
4344000000.0 1.040479153842891 0.00011853569497952132
4347000000.0 1.0343861956789833 -0.010500829513834298
4350000000.0 0.9814347886950257 -0.025826999509690807
4353000000.0 0.9978613304679538 -0.004412911001203751
4356000000.0 1.0000999600909342 -0.05748203148692485
4359000000.0 0.9859716742138714 -0.03255567079436039
4362000000.0 1.0147551749960375 -0.09479679032412713
4366000000.0 1.0213190409220383 -0.0896301249774702
4369000000.0 0.9654213945958263 -0.07641371178150101
4372000000.0 0.987677391376161 -0.11886411578781962
4375000000.0 0.9937400789913353 -0.0656799171615452
4378000000.0 0.9845878594652384 -0.09483084532057447
4381000000.0 1.0017972463246627 -0.08718357883360894
4384000000.0 1.0521054236088 -0.12748361503690225
4388000000.0 0.9765491899607383 -0.11678033103167555
4391000000.0 1.00887094614434 -0.12791214224398018
4394000000.0 0.9773379144200885 -0.1510840580475339
4397000000.0 0.9836201422116291 -0.14706296219701132
4400000000.0 1.019143673920665 -0.15940377324326682
4403000000.0 1.0000953171466538 -0.1688245513617825
4406000000.0 0.9828999973648624 -0.1907282103684765
4409000000.0 1.0249766053283194 -0.19406955029024414
4412000000.0 0.9760974117293733 -0.25177955502673427
4416000000.0 0.9704040918333312 -0.20795562275003737
4419000000.0 0.9870690395697929 -0.23245181500335005
4422000000.0 0.9853894634334264 -0.20428996635286656
4425000000.0 1.0008491334833918 -0.2128700086214092
4428000000.0 0.9890708702883899 -0.23794209147896708
4431000000.0 0.9997176279997149 -0.24116155038947754
4434000000.0 0.968071258987375 -0.25913086418429343
4438000000.0 1.0026403168018152 -0.2648619263406362
4441000000.0 0.9964517151982402 -0.2711524398439462
4444000000.0 0.956831598721152 -0.2676348928392243
4447000000.0 0.951067416308165 -0.2931945759744937
4450000000.0 0.9556026448503568 -0.2650066711385831
4453000000.0 0.9778633752120341 -0.3041848244253285
4456000000.0 0.9173541897688582 -0.30186538759253945
4459000000.0 0.9094397596401451 -0.318559175423347
4462000000.0 1.0192833009070321 -0.3580417944025507
4466000000.0 0.9838044238376077 -0.36210292989170945
4469000000.0 0.9536148577353016 -0.3164042393331735
4472000000.0 0.9549718551880164 -0.38009520569694033
4475000000.0 0.9142638276203022 -0.35125369619286145
4478000000.0 0.9707478526991168 -0.40704975733599214
4481000000.0 0.897578412540069 -0.38266655658919196
4484000000.0 0.9188466540477018 -0.42048308227092945
4488000000.0 0.9108956224855913 -0.4042966137378872
4491000000.0 0.9111597369718494 -0.41998998481977295
4494000000.0 0.9010353311779891 -0.41698602030825205
4497000000.0 0.9152141712474267 -0.4100199447194295
4500000000.0 0.9214773324753953 -0.42189703827066305
4503000000.0 0.9273161712629541 -0.4286593411485807
4506000000.0 0.8909509585138817 -0.43753326083453664
4509000000.0 0.8886832720560798 -0.4372487624523831
4512000000.0 0.8804767364787438 -0.45080265175049616
4516000000.0 0.9068917853455116 -0.47609439186814295
4519000000.0 0.876437458747377 -0.46599350775537557
4522000000.0 0.8722426772448526 -0.48364703921158336
4525000000.0 0.9057877956257945 -0.4676111062932382
4528000000.0 0.8914887460201473 -0.4888359911505583
4531000000.0 0.8951877947057174 -0.49992863118527076
4534000000.0 0.858652082653602 -0.49299955788995276
4538000000.0 0.8447452000707665 -0.520178586514237
4541000000.0 0.8216730074253716 -0.545044147220593
4544000000.0 0.8339588001384535 -0.5108171671331004
4547000000.0 0.8667895933297772 -0.5186488755900014
4550000000.0 0.8219542890245068 -0.5562360252549667
4553000000.0 0.8338761561893215 -0.5798344727190117
4556000000.0 0.8004817001344009 -0.559476335054752
4559000000.0 0.8324081043569089 -0.5856672975256441
4562000000.0 0.8380139245989209 -0.5708435868083406
4566000000.0 0.8146426222795136 -0.6028728885960706
4569000000.0 0.8036138425179287 -0.578519180908386
4572000000.0 0.7924117569727778 -0.618509684334432
4575000000.0 0.7946591184050293 -0.6334768531445614
4578000000.0 0.8242524994075608 -0.618554846987716
4581000000.0 0.7914397949335975 -0.6221639972712771
4584000000.0 0.7616756203570774 -0.6103161492693132
4588000000.0 0.8186932246191144 -0.6364410216870128
4591000000.0 0.799882834814689 -0.6507287098767376
4594000000.0 0.7540449816257022 -0.6730580490655278
4597000000.0 0.7588743126967787 -0.678988200511068
4600000000.0 0.7146985549570825 -0.6703097029210983
4603000000.0 0.7405853033046951 -0.6804508563658168
4606000000.0 0.7494080719721464 -0.6678267414627952
4609000000.0 0.7468623633554368 -0.6856233887838515
4612000000.0 0.733089331180375 -0.6902685562169941
4616000000.0 0.7201673993935258 -0.6908944017825832
4619000000.0 0.7164664403219713 -0.6917000615999153
4622000000.0 0.7169486983579634 -0.707485419995769
4625000000.0 0.6665818088485825 -0.7081852651345375
4628000000.0 0.700854513072441 -0.7180743559838112
4631000000.0 0.6850629525993919 -0.7256771648416614
4634000000.0 0.6908362290159705 -0.731778443029339
4638000000.0 0.6873236600567338 -0.7381440456572189
4641000000.0 0.6828838433527066 -0.7412404576283262
4644000000.0 0.6826764786827474 -0.769631383278935
4647000000.0 0.6777626146662763 -0.7499286596994559
4650000000.0 0.6526939587846187 -0.7686421380385006
4653000000.0 0.6574755374396968 -0.7828214954910907
4656000000.0 0.6349927812289382 -0.7905315368222989
4659000000.0 0.619001193222354 -0.7898032778293416
4662000000.0 0.621986416192556 -0.7843884754432155
4666000000.0 0.6016924623667446 -0.804260791500172
4669000000.0 0.618003574586836 -0.7903273500262843
4672000000.0 0.589079240517676 -0.8395084715164349
4675000000.0 0.5813874353560957 -0.8337582818800154
4678000000.0 0.5813573257450761 -0.8123043105038296
4681000000.0 0.5700879316387311 -0.8802444824918784
4684000000.0 0.5582833677331002 -0.8390063043988137
4688000000.0 0.5430244268882607 -0.8190482745388211
4691000000.0 0.5557726846276292 -0.8485886551601289
4694000000.0 0.555238492945404 -0.8291921606643249
4697000000.0 0.5300169428450413 -0.8260660700754143
4700000000.0 0.5490827338655847 -0.8350518610213338
4703000000.0 0.5524040238327538 -0.8240802909659217
4706000000.0 0.5158212218244125 -0.8620483256011441
4709000000.0 0.5066367134780942 -0.8511270027488662
4712000000.0 0.5097201578937136 -0.9090433131258269
4716000000.0 0.5160068063499131 -0.8970450266220702
4719000000.0 0.4939128773284599 -0.8639875504263553
4722000000.0 0.5053525425323059 -0.8850210506977474
4725000000.0 0.47304764705981817 -0.8715640821546842
4728000000.0 0.474152975192745 -0.8964476610756771
4731000000.0 0.49069089945167876 -0.9151231884578164
4734000000.0 0.4844698046930427 -0.8922177379504085
4738000000.0 0.4773094950517226 -0.9228080081797244
4741000000.0 0.4527021215528433 -0.9353534697593594
4744000000.0 0.4208798301080835 -0.9176268587659656
4747000000.0 0.4530413225807035 -0.8791021117879856
4750000000.0 0.43632190124281406 -0.9327979566943274
4753000000.0 0.42478443941249727 -0.934247585607462
4756000000.0 0.3948791058064238 -0.9437732848372697
4759000000.0 0.3912899214343689 -0.9509154321224033
4762000000.0 0.3649070596355919 -0.9638810291326885
4766000000.0 0.3906478500901429 -0.9386454412219806
4769000000.0 0.39887763413345095 -0.9312185699840412
4772000000.0 0.37519644011169506 -0.9322950200830468
4775000000.0 0.33609538461954336 -0.9829663429459119
4778000000.0 0.3517492958275355 -0.9648100673061001
4781000000.0 0.3535909175797738 -0.9640906837235559
4784000000.0 0.3666520986726279 -0.9369503366405026
4788000000.0 0.3428703088511497 -0.9813707324053929
4791000000.0 0.3132674994014204 -0.94891828697362
4794000000.0 0.3346846859043541 -0.989806757317053
4797000000.0 0.30015304245904 -0.9671463266370456
4800000000.0 0.2871872099373899 -0.9500138743200703
4803000000.0 0.24826229429712715 -0.9823464340868862
4806000000.0 0.2868696385348588 -0.9747572312488118
4809000000.0 0.2180615688598206 -0.9995164772559887
4812000000.0 0.23297150384607687 -0.9948174605665372
4816000000.0 0.2681513819637604 -0.9695030139864027
4819000000.0 0.2662594816889375 -1.002857241139179
4822000000.0 0.2635106733583053 -1.0261274323209184
4825000000.0 0.2559569251016958 -1.0035570511853562
4828000000.0 0.2206715984753997 -0.9965114611144178
4831000000.0 0.17364558719737294 -1.0497631683008366
4834000000.0 0.22412871184594624 -0.9915064399039788
4838000000.0 0.16447398013490896 -1.0395910046747934
4841000000.0 0.17490065294085505 -0.9838723365549656
4844000000.0 0.21238862926987162 -1.0107194663181034
4847000000.0 0.18427032505516167 -0.9836389715571128
4850000000.0 0.14552040170166913 -1.0233451369268538
4853000000.0 0.1694101430920209 -0.9820826323119394
4856000000.0 0.12863740725418976 -0.995542177742644
4859000000.0 0.14323811464623684 -1.0725894998439034
4862000000.0 0.1593343699547956 -1.0008535766323665
4866000000.0 0.10444754791981412 -1.034114950585664
4869000000.0 0.09745234540984958 -1.0159561286429317
4872000000.0 0.07077761326661748 -1.0502005253469313
4875000000.0 0.18353857845526667 -1.0333107343418217
4878000000.0 0.0755844394904222 -1.0059628822910296
4881000000.0 0.06653097721374025 -1.0862073458354886
4884000000.0 0.11596167779368012 -1.0318486100390458
4888000000.0 0.0966062570015489 -1.0138023130309632
4891000000.0 0.08400663293024471 -1.0385587608638802
4894000000.0 0.03252449553794336 -1.0266273560869592
4897000000.0 0.05375074595890819 -1.0059035653352906
4900000000.0 0.036579417606275796 -1.0375887369688062
4903000000.0 0.06286226285047536 -1.0539919627715353
4906000000.0 0.03131980003165942 -1.0443565452620198
4909000000.0 0.003415617723877166 -1.033604621800077
4912000000.0 -0.011430429081363415 -1.0478658468152666
4916000000.0 0.009545562572280265 -1.0439798676382919
4919000000.0 0.0010253809388121732 -1.0813807465312402
4922000000.0 0.016872804752354108 -1.0317386545755873
4925000000.0 -0.0622165587390474 -1.026988992410324
4928000000.0 0.01838396298473824 -1.0285802641814419
4931000000.0 0.01357354074606991 -1.0394557131469757
4934000000.0 -0.05878465421587821 -0.9818349898943167
4938000000.0 -0.09770775358061078 -1.0360218015076992
4941000000.0 -0.0735301903217319 -0.9870392522759601
4944000000.0 -0.05859021863695596 -0.9511182696861071
4947000000.0 -0.06246319301838543 -1.0035740085844036
4950000000.0 -0.12707701942599464 -0.9889987440493155
4953000000.0 -0.17648140013439023 -1.068935684477877
4956000000.0 -0.11666507188800257 -0.9912756381113161
4959000000.0 -0.1571308657167241 -0.9744686567448226
4962000000.0 -0.1368767014731818 -1.0199233963059762
4966000000.0 -0.13195557362013238 -1.0448235696069892
4969000000.0 -0.14478069157396745 -1.059652404120073
4972000000.0 -0.15977285623166218 -1.0082135087384378
4975000000.0 -0.11238975773680163 -1.0074610935680661
4978000000.0 -0.1748160720929136 -1.0067999622566295
4981000000.0 -0.19527834399152158 -1.034719277403062
4984000000.0 -0.1946711401400464 -0.9966356811013121
4988000000.0 -0.17432963394720946 -0.9998137439589562
4991000000.0 -0.14981384512698348 -1.0499892710893328
4994000000.0 -0.17349825479244751 -0.9976722123578617
4997000000.0 -0.2801807261501285 -0.972070108173865
5000000000.0 -0.21394166019602467 -1.0565175131944742
5003000000.0 -0.23537316608588843 -1.0319938605460022
5006000000.0 -0.2669675083732381 -1.0359056161228661
5009000000.0 -0.24772669259997152 -1.0231530168196574
5012000000.0 -0.2742506629561979 -0.9831216007597916
5016000000.0 -0.22647566241081246 -1.0587009664782623
5019000000.0 -0.26997780839513186 -0.9863842968434509
5022000000.0 -0.28206819289081997 -0.9926698209297957
5025000000.0 -0.30694302829761727 -1.0380569868992078
5028000000.0 -0.3295122706203396 -0.9747834561343591
5031000000.0 -0.3087235025240429 -1.0135768361204287
5034000000.0 -0.35460246530146233 -0.9973460198177695
5038000000.0 -0.3161929970359004 -0.9639587766821525
5041000000.0 -0.31138774278002346 -0.9478790448142657
5044000000.0 -0.3059336467833995 -0.9704419986499954
5047000000.0 -0.3511563416277395 -0.9622635722132306
5050000000.0 -0.27653051374928517 -0.9680478059622062
5053000000.0 -0.39646339790816754 -0.9959414570798193
5056000000.0 -0.32285245381060446 -1.0114484825374568
5059000000.0 -0.3271021345423803 -0.9790754520016521
5062000000.0 -0.4286386134236526 -0.9704611836597217
5066000000.0 -0.3831438706916467 -0.9465429710459567
5069000000.0 -0.38094566630192983 -0.9667328591445258
5072000000.0 -0.38224628735007665 -0.9116311715539789
5075000000.0 -0.38830793471731984 -0.9860197852519257
5078000000.0 -0.4446683505754097 -0.937702382367996
5081000000.0 -0.433128258693347 -0.9158079335318724
5084000000.0 -0.4239822383789451 -0.9371197484147489
5088000000.0 -0.4129216721112518 -0.90942912443574
5091000000.0 -0.5097863118284096 -0.8929479571272794
5094000000.0 -0.48249726253339625 -0.9424826010684465
5097000000.0 -0.45314819695060793 -0.9475778478236512
5100000000.0 -0.5077761873531181 -0.9176305519129703
5103000000.0 -0.5082415941790203 -0.8962054073154323
5106000000.0 -0.5101712041521402 -0.9618522156516649
5109000000.0 -0.439039463894647 -0.9530103927480751
5112000000.0 -0.5079856011316715 -0.8892993078675728
5116000000.0 -0.4633690967932385 -0.8602928291749621
5119000000.0 -0.5172216904306558 -0.9210602693039001
5122000000.0 -0.5150617102378394 -0.8857707471334777
5125000000.0 -0.4855544295636804 -0.9077134689975495
5128000000.0 -0.5347273239944906 -0.8838582888972482
5131000000.0 -0.5392273395367795 -0.8433285680618551
5134000000.0 -0.5335467182381771 -0.8928085114829442
5138000000.0 -0.5565839941428696 -0.8639349591469623
5141000000.0 -0.4912526002427986 -0.8952743419141707
5144000000.0 -0.5244417028132831 -0.8692049717679846
5147000000.0 -0.6144553935055317 -0.884732652677463
5150000000.0 -0.5648333060785152 -0.8964310967427334
5153000000.0 -0.5858510025437382 -0.8427924843765221
5156000000.0 -0.5598727024636216 -0.855729329613031
5159000000.0 -0.6214918465625963 -0.9213530973148064
5162000000.0 -0.6402912524588047 -0.8186954705273641
5166000000.0 -0.6171186802473481 -0.8581205683172817
5169000000.0 -0.6619322428487024 -0.8342470836190254
5172000000.0 -0.62396649279543 -0.8285038845148013
5175000000.0 -0.6770911067044013 -0.8571998721782719
5178000000.0 -0.6761319992435582 -0.7881008193739233
5181000000.0 -0.6586879162231785 -0.8417438663670723
5184000000.0 -0.6367799598376952 -0.8259939684496013
5188000000.0 -0.653878388785808 -0.8092118740697871
