! Created with skrf 1.8.0 (http://scikit-rf.org).
# Hz S RI R 50.0 
!freq ReS11 ImS11
4000000000.0 0.6024549844730809 0.7944002613190917
4003000000.0 0.6842030163539342 0.8500835186671649
4006000000.0 0.6860684089942966 0.7678486365982988
4009000000.0 0.6519276085622252 0.7786481314230443
4012000000.0 0.6202435683281708 0.8655410318846543
4016000000.0 0.6723398049032623 0.8011982454217506
4019000000.0 0.6885309836960183 0.7660755757374469
4022000000.0 0.638170187974571 0.8303701723989321
4025000000.0 0.7350550664633981 0.7295919939600467
4028000000.0 0.6605011060317665 0.7388526185210571
4031000000.0 0.6244220039456542 0.7077295163387407
4034000000.0 0.7083234046514612 0.700830853495086
4038000000.0 0.7468633691791504 0.7299916147662758
4041000000.0 0.7251774246609473 0.7107052028064476
4044000000.0 0.787515042321158 0.7537192725116479
4047000000.0 0.7180231684131568 0.7677929476365642
4050000000.0 0.7337498450783505 0.7191332054717539
4053000000.0 0.7595631465168042 0.6283956720686517
4056000000.0 0.7450919423781417 0.697918784088793
4059000000.0 0.707901670155164 0.6933899556176084
4062000000.0 0.7567105124179574 0.6901363219315069
4066000000.0 0.6813854851421446 0.6246015191179491
4069000000.0 0.7732764557536379 0.7009646231855037
4072000000.0 0.7627617368911503 0.6778595610954723
4075000000.0 0.789386998183157 0.71434467678573
4078000000.0 0.7847465960532174 0.6889121754811224
4081000000.0 0.767763701572616 0.6673934323779294
4084000000.0 0.8148936436378375 0.6246169568802591
4088000000.0 0.8245806737125921 0.6632004509075606
4091000000.0 0.8463218079051245 0.6799352286002416
4094000000.0 0.8173133968796049 0.6398441001821766
4097000000.0 0.8223950618352881 0.595180858330224
4100000000.0 0.8101368671325361 0.6004827589658488
4103000000.0 0.7996657193843593 0.6449789420890117
4106000000.0 0.8670103734024763 0.6285167612158946
4109000000.0 0.8464111096818683 0.5912061570753804
4112000000.0 0.8329385270194909 0.5910145134862166
4116000000.0 0.8527627203269289 0.5805965641743235
4119000000.0 0.8664848125091451 0.5480282823193612
4122000000.0 0.8344550260527911 0.5548924240863855
4125000000.0 0.8763681760993006 0.5774887713338792
4128000000.0 0.8332744279433532 0.5518841022764992
4131000000.0 0.8367496993117827 0.5386631100784732
4134000000.0 0.8772269669041973 0.5557272741769046
4138000000.0 0.8698534320186313 0.49314257523293786
4141000000.0 0.8804212287291653 0.5032866560535104
4144000000.0 0.8779099226418992 0.5608579280148469
4147000000.0 0.8753520698050882 0.48004093996413905
4150000000.0 0.9076961482777052 0.4931331323364662
4153000000.0 0.9048990121375491 0.4869104414444895
4156000000.0 0.9057105987807132 0.518802027967796
4159000000.0 0.8712600313510186 0.4668964240950642
4162000000.0 0.9131663077630803 0.5011542232165419
4166000000.0 0.9369477442468805 0.465358345214521
4169000000.0 0.9078861448467394 0.44642838378508276
4172000000.0 0.9099159307779986 0.46007514639324926
4175000000.0 0.9270306189715335 0.47217818048521837
4178000000.0 0.9200267193202794 0.4392657334928718
4181000000.0 0.9298653819797855 0.40245920064752705
4184000000.0 0.9243381652941399 0.40619887294485485
4188000000.0 0.9030667349471544 0.379382290413813
4191000000.0 0.9119301750293162 0.41425380368530756
4194000000.0 0.8885397204827361 0.3922406018414917
4197000000.0 0.9343444475160688 0.3956970515636526
4200000000.0 0.9444280845567901 0.3924097535499854
4203000000.0 0.95671537631768 0.378129538505832
4206000000.0 0.9612627250793944 0.3647620229612624
4209000000.0 0.956523363316477 0.37325921976549165
4212000000.0 0.9703366953083835 0.3138407020499179
4216000000.0 0.9621504414113059 0.3625735611486986
4219000000.0 0.9806972054168167 0.35975395907543806
4222000000.0 0.9659605236007616 0.33446980389997766
4225000000.0 0.9404512971304118 0.3136989845403697
4228000000.0 0.9690962711417124 0.3113691169749174
4231000000.0 0.9782392931919269 0.3045078655063842
4234000000.0 0.9690829922539924 0.30650510811286286
4238000000.0 0.9848213008458084 0.2826919275806372
4241000000.0 0.985281673264927 0.2576107587045599
4244000000.0 0.9714127893268304 0.278601926615091
4247000000.0 0.977381844806764 0.26629449881698625
4250000000.0 0.9714167034494381 0.2523819573528631
4253000000.0 0.965217537346122 0.23898232668526015
4256000000.0 1.0089295051182228 0.23157172716981622
4259000000.0 0.9556440371755454 0.2150384919186519
4262000000.0 1.004651277974588 0.18909995220559464
4266000000.0 1.006434256053407 0.18381492177796588
4269000000.0 0.9845311246006855 0.20853178982937112
4272000000.0 0.9940626345452348 0.1824171260886635
4275000000.0 1.0128575952643317 0.19885665086396936
4278000000.0 1.0138800235572323 0.18345058799252373
4281000000.0 0.9961073818784024 0.19026256138689024
4284000000.0 1.0071536216415513 0.13663128981548076
4288000000.0 0.9980254725711428 0.18304960181615584
4291000000.0 0.9820687886357811 0.14978233543361535
4294000000.0 0.9783930848458761 0.10726526261797152
4297000000.0 0.9880915344629252 0.1479553740483729
4300000000.0 0.996488245274783 0.12070623392530572
4303000000.0 1.013357259665396 0.07799584932914953
4306000000.0 1.0006959189783038 0.1257185708326576
4309000000.0 0.9938246162108635 0.10640713606242465
4312000000.0 1.0359013345192631 0.12822622429787472
4316000000.0 1.013183658838643 0.08428597907981215
4319000000.0 0.9858994950011836 0.08485563559779087
4322000000.0 0.974446957507012 0.027640585798337877
4325000000.0 1.0027233888594498 0.09149568202552634
4328000000.0 1.0115342959316054 0.02464351923427248
4331000000.0 1.0189942101850222 0.024216834429477724
4334000000.0 1.0224539223265363 0.015916829364111068
4338000000.0 1.029507080522833 0.04651318128733868
4341000000.0 1.0218853891791198 0.05261653473458863
4344000000.0 1.0360360514838418 -0.0034844814808816793
4347000000.0 1.0104551543229567 -0.028767475467415093
4350000000.0 0.9540988019367757 -0.025835664762676958
4353000000.0 0.996066021711705 -0.009569623694302642
4356000000.0 1.010963104295181 -0.047671148132498536
4359000000.0 0.9757156180413751 -0.0420882270061427
4362000000.0 0.9915791967895893 -0.11785490138085053
4366000000.0 1.0203416214102183 -0.07312567872849708
4369000000.0 0.9583652896413055 -0.07809831668771286
4372000000.0 1.004757988468691 -0.10800394913219251
4375000000.0 0.9914057014569253 -0.06976028527026451
4378000000.0 0.9791820439680515 -0.08951951815302647
4381000000.0 0.9949786576715234 -0.07413721856340103
4384000000.0 1.0510883136176625 -0.13596251045674632
4388000000.0 1.0027706971455534 -0.10805262380011067
4391000000.0 0.9878729701328177 -0.12189321200873005
4394000000.0 0.9804119253659578 -0.134164284731253
4397000000.0 0.9894105861949485 -0.15220747887725156
4400000000.0 1.027967046080169 -0.1632900738721412
4403000000.0 0.9979598299039187 -0.15819074846037312
4406000000.0 0.9941467934889443 -0.18860576332327275
4409000000.0 1.023586660962975 -0.19424826533422979
4412000000.0 0.9775278392968052 -0.23300011709025814
4416000000.0 0.9631260311270398 -0.21260471027719013
4419000000.0 0.974024324321327 -0.22355655027799815
4422000000.0 0.9803093451636604 -0.1982028856026481
4425000000.0 1.0085969315126881 -0.20567812654646747
4428000000.0 0.9813935297501627 -0.24457217719258326
4431000000.0 1.004389920458284 -0.24245363853605717
4434000000.0 0.9693984941082318 -0.26160867912541225
4438000000.0 0.9858393769387073 -0.24536828414708023
4441000000.0 0.9893569921249799 -0.2654194136730711
4444000000.0 0.9531467104909555 -0.2649541254978277
4447000000.0 0.9619804082186313 -0.3018832314277373
4450000000.0 0.9694402322678528 -0.2733010594763886
4453000000.0 0.990182188636758 -0.3109653940891295
4456000000.0 0.9301554233195363 -0.31628799896461485
4459000000.0 0.9177215451336682 -0.31992711521140066
4462000000.0 1.001311172245837 -0.3439748759129422
4466000000.0 0.9818983675533771 -0.3426624729557124
4469000000.0 0.9508895939905782 -0.3208964867883759
4472000000.0 0.958902579879318 -0.37780418013575345
4475000000.0 0.9223484642199175 -0.3455640652477502
4478000000.0 0.9701622636647589 -0.41607714612157554
4481000000.0 0.8978392122425751 -0.3965622929987398
4484000000.0 0.903014947709585 -0.41863299685959665
4488000000.0 0.9168072641155983 -0.4165675358746646
4491000000.0 0.9279959682551544 -0.41448647906958036
4494000000.0 0.928750640250837 -0.39802116234493223
4497000000.0 0.9196607142089885 -0.40463761912612445
4500000000.0 0.9141877023968901 -0.43602352402509054
4503000000.0 0.9396394051119807 -0.4307970611505407
4506000000.0 0.8909506121614372 -0.4299972077707955
4509000000.0 0.8824624984381004 -0.4379668410363611
4512000000.0 0.8902057538795981 -0.4581947220315983
4516000000.0 0.9181472295732085 -0.4630031043333762
4519000000.0 0.8626467398483785 -0.45952594677727077
4522000000.0 0.86898669847935 -0.4768936881267714
4525000000.0 0.9012991294821155 -0.4489036122286436
4528000000.0 0.8964316116445228 -0.5215395027426103
4531000000.0 0.8836399393146687 -0.48007356880675034
4534000000.0 0.8505885520328657 -0.48863958298156407
4538000000.0 0.869228224738305 -0.5123120290252955
4541000000.0 0.8212465105293615 -0.5562834979610066
4544000000.0 0.837239398562936 -0.5100624241834774
4547000000.0 0.8502063741024605 -0.5020223258241423
4550000000.0 0.8476363780565683 -0.5543710157123515
4553000000.0 0.8488052096393737 -0.5645488438930151
4556000000.0 0.8259154630851291 -0.5538582151277653
4559000000.0 0.8323978195394779 -0.5731924879589609
4562000000.0 0.816658937754803 -0.5788051929269005
4566000000.0 0.8106049923353336 -0.6030348913679289
4569000000.0 0.8017363920537598 -0.5796886015376421
4572000000.0 0.8013619397599411 -0.5962263950436995
4575000000.0 0.7907947774394573 -0.6150922446010134
4578000000.0 0.8369062620581944 -0.6203189125919611
4581000000.0 0.7886425170996957 -0.6368206897058106
4584000000.0 0.7810737378090105 -0.6511221882907979
4588000000.0 0.8066152214138629 -0.6432462261996119
4591000000.0 0.773863575300037 -0.61651691355949
4594000000.0 0.7561711857042013 -0.6639252662011774
4597000000.0 0.7823993310656807 -0.6695744116031187
4600000000.0 0.7368810048410399 -0.6675364495668134
4603000000.0 0.7549456647107851 -0.6755492908836215
4606000000.0 0.7638947788526994 -0.6854653388765125
4609000000.0 0.748287161112291 -0.6667007465754422
4612000000.0 0.7326311721734293 -0.7105088976598316
4616000000.0 0.6979834150518138 -0.7017523000205881
4619000000.0 0.7291880980039303 -0.6916786830422703
4622000000.0 0.7077023905670937 -0.6965600571490617
4625000000.0 0.6693860791419468 -0.7058172238340699
4628000000.0 0.6898610975551407 -0.6964328428379687
4631000000.0 0.674583736704589 -0.7308829471808994
4634000000.0 0.6913578792261172 -0.73590140882281
4638000000.0 0.6995661494754131 -0.7310684554106633
4641000000.0 0.6753685825277842 -0.7338227960261853
4644000000.0 0.6759985378764697 -0.7491180480502811
4647000000.0 0.6764252028251252 -0.764374819462937
4650000000.0 0.6475349901071095 -0.7795684804802914
4653000000.0 0.6619548067531477 -0.7699453513202097
4656000000.0 0.6181836900703641 -0.7823563344513693
4659000000.0 0.6387984074186744 -0.8059666045349012
4662000000.0 0.634057703419799 -0.7820862218977205
4666000000.0 0.6327318606908882 -0.7883984022824599
4669000000.0 0.6219625160832383 -0.7827025687390058
4672000000.0 0.6205608660858805 -0.8174085804819067
4675000000.0 0.5836266056498143 -0.8148446639365801
4678000000.0 0.5887922789985371 -0.8041462589576064
4681000000.0 0.5764973881758619 -0.8487305325923958
4684000000.0 0.5512610067562227 -0.842317005889877
4688000000.0 0.558458247403115 -0.8321696675640808
4691000000.0 0.5831342862985804 -0.8307144171442142
4694000000.0 0.5744238973901671 -0.8442158670500759
4697000000.0 0.5260203396392267 -0.8403883076442125
4700000000.0 0.5427448168463207 -0.8351318079408894
4703000000.0 0.5488510785502582 -0.809555652427858
4706000000.0 0.5150066817352279 -0.8499380346042178
4709000000.0 0.520535194647868 -0.8707032058909647
4712000000.0 0.5246614348459266 -0.869061501320176
4716000000.0 0.5002338462387456 -0.8842527042417263
4719000000.0 0.503850164612595 -0.8597663109171806
4722000000.0 0.523059918236371 -0.8830330538556763
4725000000.0 0.5138440915238301 -0.8556045337369402
4728000000.0 0.465893777397643 -0.8806992335127259
4731000000.0 0.4983633754504122 -0.8823072904804747
4734000000.0 0.48571383383543026 -0.8893947141570305
4738000000.0 0.497856201375989 -0.9235226636663888
4741000000.0 0.4500463617691572 -0.9532942623276756
4744000000.0 0.4249382467808407 -0.939851257193418
4747000000.0 0.4268020344277467 -0.8681431689154979
4750000000.0 0.4296100165183332 -0.9504950132899972
4753000000.0 0.4059644925616465 -0.9197000272022817
4756000000.0 0.4251621019642863 -0.9413666807993164
4759000000.0 0.4540061223850602 -0.9429280552077625
4762000000.0 0.38661189465943185 -0.9404867886867643
4766000000.0 0.3733111635520027 -0.9628941736343133
4769000000.0 0.37895940883183277 -0.9807334981584913
4772000000.0 0.35453972310272214 -0.9697014483640524
4775000000.0 0.38000569190492395 -0.9859267400595431
4778000000.0 0.36156849548294306 -0.943677571281408
4781000000.0 0.3629195616669604 -0.9258089188760752
4784000000.0 0.37215906018365996 -0.9451998391292767
4788000000.0 0.3330714768321496 -0.9818104086616104
4791000000.0 0.3021441295623727 -0.9613622818774566
4794000000.0 0.35336397620092624 -0.9965296168810216
4797000000.0 0.28502179633616137 -0.972002626402786
4800000000.0 0.2910415992251938 -0.971296091482716
4803000000.0 0.24449102435882056 -0.9679189160247357
4806000000.0 0.28972030041759034 -0.9848668349890348
4809000000.0 0.22006112223330765 -0.9830106692889656
4812000000.0 0.20558639176999238 -0.9692955803343415
4816000000.0 0.27389006624204626 -0.9634917864521919
4819000000.0 0.2927834246948393 -1.0094407742668396
4822000000.0 0.25528427269782594 -1.0250035078905584
4825000000.0 0.2744986754829905 -1.0024607031579493
4828000000.0 0.22037121711140484 -0.9836442466537575
4831000000.0 0.1715932511685324 -1.0329515834458358
4834000000.0 0.21549597733973155 -0.9987928408440045
4838000000.0 0.18219043621639236 -1.0033443915792977
4841000000.0 0.169619579777592 -0.9736453307310132
4844000000.0 0.21947715036885887 -1.0151761187642319
4847000000.0 0.20751065663195867 -0.9811656645588644
4850000000.0 0.14373652811986348 -1.0299849032880954
4853000000.0 0.15360714420359628 -0.9891026237189124
4856000000.0 0.14466864394405293 -1.0034885279069985
4859000000.0 0.1463099910387074 -1.0382125974855851
4862000000.0 0.16240930530904987 -1.0059396200209183
4866000000.0 0.10761456719437257 -1.0237921284253184
4869000000.0 0.11541955621363387 -1.005354124565481
4872000000.0 0.06990535207173562 -1.0388526962116897
4875000000.0 0.1440416834619116 -1.0549291545113633
4878000000.0 0.08830101100357896 -1.0261408648423842
4881000000.0 0.03808233798770218 -1.0782152286734887
4884000000.0 0.08746022910609547 -1.0122424897931253
4888000000.0 0.08401157219992977 -1.0242773168867254
4891000000.0 0.08131435991185043 -1.0575814801630388
4894000000.0 0.043393207652082946 -1.0169007618408228
4897000000.0 0.07059190013588812 -1.012378332708758
4900000000.0 0.014478750157683674 -1.0612308126492411
4903000000.0 0.04967374845267 -1.0406836689026238
4906000000.0 0.0073776722647883744 -1.0511631462497566
4909000000.0 0.0039986191932662694 -1.0157700537998888
4912000000.0 -0.011364620904156852 -1.0776626207905575
4916000000.0 0.008084390102526387 -1.0609157498705322
4919000000.0 -0.014228440428973352 -1.0377511188951396
4922000000.0 0.0006299086351165412 -1.0675668759514183
4925000000.0 -0.047452860087506266 -1.0323167361907173
4928000000.0 0.04014594787374255 -1.0362758580597926
4931000000.0 -0.019621408400057494 -1.0693343666254023
4934000000.0 -0.05219550853059314 -0.9943226032750615
4938000000.0 -0.09328423307495094 -1.0036955708974715
4941000000.0 -0.06530346241040617 -1.012738713279437
4944000000.0 -0.07951825536316864 -0.9500855402249095
4947000000.0 -0.08987753878648233 -1.01021738620744
4950000000.0 -0.10394799190926828 -1.016750220243101
4953000000.0 -0.12297866602783611 -1.0497929371376955
4956000000.0 -0.12142828798875158 -1.0579835715904684
4959000000.0 -0.14591572971391367 -0.9768476926327033
4962000000.0 -0.14079009135676093 -1.0462468289507196
4966000000.0 -0.1351306500700683 -1.0571878821373608
4969000000.0 -0.1329900635695449 -1.1023026665566322
4972000000.0 -0.16552032652078932 -1.0034421185808116
4975000000.0 -0.12895615233854343 -1.002828998861519
4978000000.0 -0.17447070189812064 -1.0173687223785401
4981000000.0 -0.20177420410779864 -1.0140063534528019
4984000000.0 -0.1805815435894598 -0.9936134787201713
4988000000.0 -0.17028768752194218 -1.028119272301028
4991000000.0 -0.152119171280571 -1.0463746141571015
4994000000.0 -0.16424542314797919 -0.9968450262349239
4997000000.0 -0.2452274787149074 -1.0002129906702841
5000000000.0 -0.222847561645447 -1.0300736602451572
5003000000.0 -0.22463272644437088 -1.0438685486288681
5006000000.0 -0.2802469004735927 -1.0648180412948662
5009000000.0 -0.22788653296859138 -1.017487745566396
5012000000.0 -0.2768928835866093 -0.9791444435803205
5016000000.0 -0.23101056808546483 -1.0504721450166878
5019000000.0 -0.2733924826166723 -0.9800649292341332
5022000000.0 -0.28397389218004865 -1.0305414517397127
5025000000.0 -0.33187333467157193 -1.0625540429967246
5028000000.0 -0.32662924096928325 -1.0057040443448686
5031000000.0 -0.34315575788903485 -0.9608939060305105
5034000000.0 -0.3655632342809322 -1.0142791931996875
5038000000.0 -0.32863570342085224 -0.9414560824719271
5041000000.0 -0.28374016966591703 -1.0233649654359134
5044000000.0 -0.28711676686514365 -0.962796373487618
5047000000.0 -0.34270626118776243 -1.0284362938711538
5050000000.0 -0.26343582437286006 -0.9711501384312702
5053000000.0 -0.3811549634914285 -1.0117436231210954
5056000000.0 -0.3704493065275566 -0.9669421288268079
5059000000.0 -0.3338665889072063 -0.9800353434583308
5062000000.0 -0.3791858889590859 -0.9797262799617648
5066000000.0 -0.35806286550753297 -0.970006369134268
5069000000.0 -0.38199282407581225 -0.9351099270154323
5072000000.0 -0.38185092374958 -0.9253521159726124
5075000000.0 -0.4052298348645651 -1.004748049239978
5078000000.0 -0.4571306227017658 -0.9509624025414547
5081000000.0 -0.45394998157296934 -0.9141187526762492
5084000000.0 -0.4334172202333816 -0.9396090241972617
5088000000.0 -0.43904301372522103 -0.9310319372200717
5091000000.0 -0.4795603018680407 -0.9281724891079948
5094000000.0 -0.44438645895033585 -0.9380560050450101
5097000000.0 -0.4391474501869276 -0.9489116170272236
5100000000.0 -0.4784298413383921 -0.8975871654705171
5103000000.0 -0.49073794553560846 -0.8913746357837947
5106000000.0 -0.4716784170140907 -0.9002794290041813
5109000000.0 -0.4375177110397371 -0.9493452659994981
5112000000.0 -0.530266133378965 -0.8847707189976259
5116000000.0 -0.4734158209456241 -0.8853394642634813
5119000000.0 -0.5597064743262552 -0.9611788456740573
5122000000.0 -0.5015668634044366 -0.8935368848730052
5125000000.0 -0.5508842544238343 -0.9079262144095446
5128000000.0 -0.5535807114606842 -0.8634947339711385
5131000000.0 -0.5407629746087568 -0.8602703471969886
5134000000.0 -0.5157070661331146 -0.8731699466699143
5138000000.0 -0.5362286660647404 -0.8978262024622976
5141000000.0 -0.5209308957908583 -0.9186244717681751
5144000000.0 -0.4985153360844393 -0.8782558399516806
5147000000.0 -0.5787998818124515 -0.8536414985197152
5150000000.0 -0.562146260047825 -0.8831628046149547
5153000000.0 -0.5802796180008012 -0.8554142682690066
5156000000.0 -0.5683999088329715 -0.8630813182819046
5159000000.0 -0.6480138662802918 -0.8788723528471907
5162000000.0 -0.6081463139535261 -0.8265983127737995
5166000000.0 -0.6545042815185416 -0.8278550320695287
5169000000.0 -0.6189970982185528 -0.8367592969218848
5172000000.0 -0.593445973788052 -0.8148362908046479
5175000000.0 -0.6309064067662331 -0.8261490277528253
5178000000.0 -0.6416483077510096 -0.8198283184490883
5181000000.0 -0.6469277359759958 -0.8622978067363858
5184000000.0 -0.6847638795213682 -0.8336145479955909
5188000000.0 -0.6103623681016913 -0.8095261390192415
