! Created with skrf 1.8.0 (http://scikit-rf.org).
# Hz S RI R 50.0 
!freq ReS11 ImS11
4000000000.0 0.5544665170036033 0.792407361270262
4003000000.0 0.6665871492949825 0.854223943778376
4006000000.0 0.6680696544747603 0.7630958901560464
4009000000.0 0.6416896540227315 0.7995993118355081
4012000000.0 0.6118691170568558 0.8232385583579105
4016000000.0 0.7021366111111135 0.792543771646774
4019000000.0 0.672209582871484 0.7260700702611667
4022000000.0 0.6230610749801141 0.8583386641748486
4025000000.0 0.7349313692423509 0.7604771714103229
4028000000.0 0.7296543771435166 0.7130875800258043
4031000000.0 0.6531176660934996 0.6842187187748769
4034000000.0 0.7092905319232861 0.7499477447067547
4038000000.0 0.7371025380315821 0.7307359384558287
4041000000.0 0.7126948478453824 0.7231744291529152
4044000000.0 0.7356462733758814 0.7703777685751843
4047000000.0 0.7393347168038694 0.741843698359456
4050000000.0 0.7740276601279256 0.706612733177272
4053000000.0 0.7166720306886165 0.6736383972363302
4056000000.0 0.770839809781951 0.688906128814767
4059000000.0 0.7384696979306271 0.7145926008153463
4062000000.0 0.7547346813162281 0.6518536327274911
4066000000.0 0.7479248976021806 0.6272697950881292
4069000000.0 0.811418629120093 0.685169116256297
4072000000.0 0.7323472758664655 0.7107404139114346
4075000000.0 0.7521694972608397 0.6906031009405231
4078000000.0 0.7940569365004108 0.6252959068198771
4081000000.0 0.7535803224464834 0.7071892893548525
4084000000.0 0.8298800815167872 0.6217389139161691
4088000000.0 0.8107541597196022 0.6413471196279311
4091000000.0 0.8420326214627645 0.661317450443893
4094000000.0 0.7877674887127786 0.6097299543805723
4097000000.0 0.8000458492203568 0.6216762820556874
4100000000.0 0.8216153028478006 0.6293142079278793
4103000000.0 0.8108653006410649 0.6047635599432664
4106000000.0 0.8666155066783202 0.5958987725663404
4109000000.0 0.8591829408990592 0.5596053406521495
4112000000.0 0.8316719378177928 0.5914808120236812
4116000000.0 0.8381046467146803 0.5601226118601079
4119000000.0 0.8757919847675811 0.556462912037154
4122000000.0 0.8602986287799645 0.5206438774282156
4125000000.0 0.8948797655212445 0.5383649363872425
4128000000.0 0.8136679610280677 0.5054826715641467
4131000000.0 0.8692345162829632 0.528370185640975
4134000000.0 0.8550141137153235 0.5405355346395773
4138000000.0 0.87768437445386 0.4662685985578838
4141000000.0 0.8780287114515959 0.5305976714252287
4144000000.0 0.8781506454944663 0.5142022687442329
4147000000.0 0.8658926164752111 0.4805808584466847
4150000000.0 0.9043378223231425 0.4706137973102377
4153000000.0 0.8891232889297613 0.48067932815602576
4156000000.0 0.941043485263237 0.5170572460908534
4159000000.0 0.8890128334937943 0.47252726885526036
4162000000.0 0.8870033725538338 0.4605973892673436
4166000000.0 0.9387953888610119 0.4429037189372025
4169000000.0 0.9054120237399464 0.4309646277321769
4172000000.0 0.93156893938051 0.456893832977532
4175000000.0 0.9252338778691966 0.4329515033644821
4178000000.0 0.9291862441184578 0.4098440404901157
4181000000.0 0.9134945016268374 0.41320649932561104
4184000000.0 0.9176939577488734 0.42227393036860544
4188000000.0 0.9312831480627586 0.38100564413144633
4191000000.0 0.9056583776451905 0.4173389199557275
4194000000.0 0.9182429365345895 0.3616196655938605
4197000000.0 0.9462615816682438 0.37967966531141223
4200000000.0 0.946539780201973 0.38717352577896336
4203000000.0 0.9314170608641897 0.37342546246311936
4206000000.0 0.9783497748977436 0.35423284368929847
4209000000.0 0.944565725365788 0.34348724930701385
4212000000.0 0.9697146976044455 0.32865736806057244
4216000000.0 0.959830224223462 0.33613101277663654
4219000000.0 0.9651487853121093 0.3413268108338319
4222000000.0 0.9646990505383148 0.3090005764623727
4225000000.0 0.9515558280684691 0.3115670343218905
4228000000.0 0.9851434447293739 0.30743510216731407
4231000000.0 0.9754767493647629 0.27519084016825757
4234000000.0 0.9900837892073494 0.2810369682336325
4238000000.0 0.9770021867879557 0.26116166838733146
4241000000.0 0.9540368757531787 0.26158601028082523
4244000000.0 0.9686542461379765 0.23891960311968458
4247000000.0 0.9816179105984805 0.2705406760988551
4250000000.0 0.9732530042058665 0.24629688431722618
4253000000.0 0.9591695103875373 0.21248303194741214
4256000000.0 1.0032417290587516 0.22265492381284469
4259000000.0 0.9532265295512174 0.20579868526111442
4262000000.0 0.9789929736672407 0.20236419473466735
4266000000.0 1.0100760104734434 0.19356600309121885
4269000000.0 0.9945937454549122 0.2220000620719698
4272000000.0 0.9969954220723187 0.17984069382772827
4275000000.0 0.9930520075011648 0.17322900492298648
4278000000.0 1.0163508970261663 0.1752928962544263
4281000000.0 1.0048819081028375 0.1808064646271217
4284000000.0 1.0239310403180941 0.1239677127469504
4288000000.0 1.024296318845622 0.1667436360193392
4291000000.0 0.9780475214205429 0.12880067406484724
4294000000.0 0.9929473619211008 0.1295650018539976
4297000000.0 0.9812188437637234 0.1558545283292735
4300000000.0 0.9803671862139134 0.09133224322543287
4303000000.0 1.014577210037477 0.07610709838228875
4306000000.0 1.0177589235367162 0.11358785694478599
4309000000.0 0.9827378042639323 0.0964548892310952
4312000000.0 1.008766505480767 0.11898234492211374
4316000000.0 1.0534530465721061 0.10017501588092843
4319000000.0 1.002094510031078 0.07695473582925301
4322000000.0 1.0031249935076672 0.02976629021858722
4325000000.0 0.9973227832421794 0.03312694559764552
4328000000.0 1.0004019571929827 0.020383924201366102
4331000000.0 1.0213884010478922 0.013611760413930307
4334000000.0 1.017882067374581 0.02736833785483711
4338000000.0 1.0095038373401852 0.050407682872385715
4341000000.0 1.0218149213664414 0.01689639683402741
4344000000.0 1.025692513237938 0.019226721594436197
4347000000.0 1.034714097812116 -0.04252888935683541
4350000000.0 0.9708123370177836 -0.01358327375661128
4353000000.0 0.9922890530357922 -0.01024248489641627
4356000000.0 0.9962629039875583 -0.060113176820129274
4359000000.0 0.9705810518585933 -0.04025840987728066
4362000000.0 1.0115204778507514 -0.11028481859911848
4366000000.0 1.0292497820177233 -0.08906882017464812
4369000000.0 0.9967287450743372 -0.08978140154083307
4372000000.0 1.0017245342550511 -0.12235194013532043
4375000000.0 0.9991284886030194 -0.07405027392968627
4378000000.0 0.9817643208597095 -0.09155152993588182
4381000000.0 0.9953484099304915 -0.10688145033934231
4384000000.0 1.0561224890334435 -0.13264506165924778
4388000000.0 0.9856380423616151 -0.12403619658307388
4391000000.0 1.003756741205075 -0.13743481525136486
4394000000.0 0.9647634467996302 -0.14743144981421402
4397000000.0 0.987145589430074 -0.16339164483081636
4400000000.0 1.0234702227629717 -0.16415041211643455
4403000000.0 1.0065470655028923 -0.1778642496025668
4406000000.0 0.9795932906583255 -0.20260060612952926
4409000000.0 1.0188867361167515 -0.20137226218726823
4412000000.0 0.9728608201258517 -0.2505161997596345
4416000000.0 0.9719321434468811 -0.22055201585617185
4419000000.0 0.9685538993644054 -0.23445379731443677
4422000000.0 0.9878160307724932 -0.20930742284673962
4425000000.0 1.0006391581954779 -0.21934427538558815
4428000000.0 0.9829788074972542 -0.2433450883533873
4431000000.0 1.0049224975957376 -0.245816635362381
4434000000.0 0.9638097029512805 -0.2564984812338202
4438000000.0 0.9982597130690898 -0.26803093763233865
4441000000.0 0.9761187064402601 -0.2825765663831082
4444000000.0 0.9500757529950461 -0.2836447986111684
4447000000.0 0.9665826445575985 -0.3107523968246808
4450000000.0 0.9547997743136405 -0.28570530247355846
4453000000.0 0.989281054324711 -0.3086260611547478
4456000000.0 0.9324772418826984 -0.30635637193766696
4459000000.0 0.9091529380442831 -0.33403923661817314
4462000000.0 1.0086553257395334 -0.35055975413314033
4466000000.0 0.982255125674796 -0.3868085483928607
4469000000.0 0.9495052836809929 -0.33912622102840917
4472000000.0 0.9544122288058047 -0.38318627659313753
4475000000.0 0.903486850017881 -0.3617931034871724
4478000000.0 0.9583252322732304 -0.420345230344785
4481000000.0 0.9080186495143258 -0.3896161886522342
4484000000.0 0.8962814886721611 -0.41702647339240273
4488000000.0 0.909401437689598 -0.4157265091866185
4491000000.0 0.9161422431593266 -0.4325847523390358
4494000000.0 0.9002666109534904 -0.42490575606924896
4497000000.0 0.9252691976706096 -0.4092570444419329
4500000000.0 0.9131220142725673 -0.428061601155554
4503000000.0 0.9178257761479354 -0.4361733090386152
4506000000.0 0.8753841514961622 -0.4401555483085522
4509000000.0 0.8742799302341031 -0.45191783694512033
4512000000.0 0.8656628251730998 -0.4566625007077536
4516000000.0 0.891080274747568 -0.4778649522889838
4519000000.0 0.888124825096777 -0.4554683126716652
4522000000.0 0.8698602557599642 -0.49330090834528023
4525000000.0 0.8887980154560318 -0.4547163616460839
4528000000.0 0.9054428544316155 -0.5192460936610255
4531000000.0 0.8690282340537425 -0.500662927929825
4534000000.0 0.8315845497747844 -0.5357751311884486
4538000000.0 0.8396781493037535 -0.5227574860112993
4541000000.0 0.8271285469302905 -0.547799660946545
4544000000.0 0.8348522565196144 -0.5277584633660374
4547000000.0 0.8439560515066309 -0.526586095256649
4550000000.0 0.8188181484436841 -0.5702707064988883
4553000000.0 0.8294652035899543 -0.5438454404213142
4556000000.0 0.8091452277686453 -0.5718872200849398
4559000000.0 0.8214888030901144 -0.5953035128701141
4562000000.0 0.8408577090611078 -0.5834174458916829
4566000000.0 0.8106602022847471 -0.5895161222606995
4569000000.0 0.7758489448559304 -0.5885759596757971
4572000000.0 0.803555208998893 -0.602838997095069
4575000000.0 0.7834567118590361 -0.6371772783670866
4578000000.0 0.8099033564197258 -0.6271655881019376
4581000000.0 0.7824960310538156 -0.6468335794782256
4584000000.0 0.771000961167653 -0.6416310410584671
4588000000.0 0.797801664121978 -0.6473104032242475
4591000000.0 0.7738577563849157 -0.6394543961634563
4594000000.0 0.7556582168502184 -0.6633521857163757
4597000000.0 0.7587178847762786 -0.6746378142872489
4600000000.0 0.7194707279839259 -0.6872912797654439
4603000000.0 0.726418345965742 -0.6851289265659724
4606000000.0 0.7377609213238867 -0.6962665548829388
4609000000.0 0.7432111942250339 -0.6892916264912434
4612000000.0 0.7150267216913473 -0.7152812388209762
4616000000.0 0.7157043966908294 -0.6948781491134656
4619000000.0 0.7144435275184167 -0.7087725865664795
4622000000.0 0.7169749096060232 -0.7273542214877146
4625000000.0 0.6633981963939959 -0.7224693917434611
4628000000.0 0.6952265929454324 -0.7009552908892275
4631000000.0 0.6649997982904197 -0.7426385052607887
4634000000.0 0.6784518355968683 -0.7431263425998712
4638000000.0 0.6806184423135424 -0.7518017128022236
4641000000.0 0.6720265650103112 -0.7506097191018907
4644000000.0 0.6630249461845087 -0.7687767507430607
4647000000.0 0.6739260993098191 -0.7568615803156866
4650000000.0 0.6500522420760628 -0.7665802743316877
4653000000.0 0.6474512543894616 -0.7851334579963766
4656000000.0 0.6265975779103896 -0.7927564787313395
4659000000.0 0.6114286435570008 -0.7809885616745884
4662000000.0 0.608721127647688 -0.8094842321328627
4666000000.0 0.5918996757712118 -0.7988419276050707
4669000000.0 0.6127932611135749 -0.8102159213507957
4672000000.0 0.5898082659664572 -0.8301721494093516
4675000000.0 0.5768986755837531 -0.8307403088286595
4678000000.0 0.5857485711992253 -0.8221263994745306
4681000000.0 0.5579363275388025 -0.8584404858268617
4684000000.0 0.5380919830747735 -0.8440386244130427
4688000000.0 0.5310667493175082 -0.8330608322973686
4691000000.0 0.5713152935263978 -0.8442611803958466
4694000000.0 0.5546918669162226 -0.8406061624887853
4697000000.0 0.4778766147985488 -0.8247886527218855
4700000000.0 0.5368783882596986 -0.8459480056974416
4703000000.0 0.5386155990666368 -0.8434930208518099
4706000000.0 0.5137124436851568 -0.8818917035254026
4709000000.0 0.5098910620066597 -0.8789554112264977
4712000000.0 0.5187620382736278 -0.8639148511281429
4716000000.0 0.4909624305040342 -0.8935666549011474
4719000000.0 0.5198801586129516 -0.9055090890165226
4722000000.0 0.5041157106568324 -0.8789720249682553
4725000000.0 0.4735578940689118 -0.8957286701531069
4728000000.0 0.44921276265423216 -0.8968188959071128
4731000000.0 0.48897136989605033 -0.9189507102337231
4734000000.0 0.47037211865555245 -0.8995056024916859
4738000000.0 0.4766674230428284 -0.9260984880534008
4741000000.0 0.4412908492896236 -0.9260146352188658
4744000000.0 0.4061398550286978 -0.9241217854645929
4747000000.0 0.4329581419403392 -0.8634094027462483
4750000000.0 0.4272675943219816 -0.9234853054294861
4753000000.0 0.4089872144510242 -0.9343517859162356
4756000000.0 0.4241878056095171 -0.9388295843107803
4759000000.0 0.37579609157303867 -0.9458689741411824
4762000000.0 0.3803703479137773 -0.9488648602847193
4766000000.0 0.3509333033776942 -0.9258539120514362
4769000000.0 0.3597571572716152 -0.9432137039709995
4772000000.0 0.34903721689550216 -0.9274490257816604
4775000000.0 0.3533259867399856 -0.9949941831671787
4778000000.0 0.31886022813060655 -0.9656784106309498
4781000000.0 0.36985637109149216 -0.9309629252703493
4784000000.0 0.3617924579352758 -0.962862806346272
4788000000.0 0.3136282354355872 -0.9741687743215179
4791000000.0 0.2935520102648882 -0.9388270740565315
4794000000.0 0.33944193049677773 -0.9846137999676425
4797000000.0 0.2908596974779902 -0.9649866705541564
4800000000.0 0.2675163031151156 -0.9917424848618419
4803000000.0 0.24346645620749718 -0.9698108872225575
4806000000.0 0.23483827947009517 -0.9954024110526811
4809000000.0 0.23093473825403138 -0.9995400401256488
4812000000.0 0.23347499941845928 -0.9851955529689196
4816000000.0 0.26704020884316626 -0.979334236716761
4819000000.0 0.27908679643159995 -1.0036423778811616
4822000000.0 0.24281541526082412 -1.011817412865704
4825000000.0 0.24655238205020072 -1.0226274479346174
4828000000.0 0.2309979185116549 -0.9606062699737056
4831000000.0 0.16020669928815684 -1.037135036718606
4834000000.0 0.2206421013255695 -1.006781380563926
4838000000.0 0.15787043449525875 -1.0230669458763133
4841000000.0 0.178147924481046 -0.9914946847450891
4844000000.0 0.19765982404779975 -1.007959069789947
4847000000.0 0.17877499025582105 -0.9841085466161557
4850000000.0 0.14712891748616413 -1.0462407867006587
4853000000.0 0.14740914127651145 -0.9792354603464439
4856000000.0 0.11600056666931391 -0.9802490241130865
4859000000.0 0.11253839525675856 -1.0322677495573593
4862000000.0 0.1326688365774834 -0.9960811139391444
4866000000.0 0.08181978204741398 -1.0201676446739525
4869000000.0 0.08398233692464681 -1.027905477684193
4872000000.0 0.07395280808191504 -1.048616377027599
4875000000.0 0.14409638491320031 -1.0580031092998672
4878000000.0 0.056080594994545166 -1.026359041383344
4881000000.0 0.04416131111563297 -1.1277686826195683
4884000000.0 0.08551274341024453 -1.033790895819435
4888000000.0 0.08999243985745314 -1.0023959108790619
4891000000.0 0.07199544000596622 -1.0535763211850078
4894000000.0 0.03347811420941612 -1.0121725261683343
4897000000.0 0.07246539990147127 -1.0258737527344282
4900000000.0 0.05163346340310868 -1.0462616914329672
4903000000.0 0.03907029098606395 -1.0425309039832682
4906000000.0 0.0090493799139734 -1.0366796268743057
4909000000.0 -0.019930694579877666 -1.02874904878031
4912000000.0 -0.018657140331357513 -1.0637857525769434
4916000000.0 -0.015394898114386067 -1.0406124712476692
4919000000.0 0.0034227368836364652 -1.079226305863933
4922000000.0 -0.004090857823499536 -1.0388090068064284
4925000000.0 -0.07613639297874071 -1.009440315146391
4928000000.0 0.01982458741601749 -1.011464132891129
4931000000.0 -0.02922655325484365 -1.0623458186297983
4934000000.0 -0.07224324509289991 -0.9751998490310753
4938000000.0 -0.09517039191247657 -1.0047567113789724
4941000000.0 -0.04154594073966432 -0.9995274658891496
4944000000.0 -0.05726495770138382 -0.970509726301231
4947000000.0 -0.12955247224537877 -0.9989532611487183
4950000000.0 -0.10410595603916777 -1.0146611881130936
4953000000.0 -0.14195032368200167 -1.048041855967083
4956000000.0 -0.10235715619357391 -1.0302254062156064
4959000000.0 -0.1801237868690818 -1.0130408455673576
4962000000.0 -0.14279753325141784 -1.041559500230303
4966000000.0 -0.13513259267354577 -1.0204085039949469
4969000000.0 -0.13987018362364184 -1.0612082819224389
4972000000.0 -0.18587558949614977 -1.0144839745208922
4975000000.0 -0.13305359917847623 -1.009121214907279
4978000000.0 -0.19199911064980824 -1.0025793914339731
4981000000.0 -0.20586346514624834 -1.009306517116255
4984000000.0 -0.20762679566020145 -0.982450760466838
4988000000.0 -0.22448923206795396 -0.9787533603701675
4991000000.0 -0.16243090301526364 -1.0399083720279199
4994000000.0 -0.20624357948506017 -1.0080220186290036
4997000000.0 -0.2795636340635979 -0.9635957198877556
5000000000.0 -0.215997238146793 -1.0099533139837544
5003000000.0 -0.27090535947534183 -1.0482871668446165
5006000000.0 -0.245123307525664 -1.0478808585065515
5009000000.0 -0.2542730257881136 -0.9754778749263012
5012000000.0 -0.29004605069416883 -0.9975827504497423
5016000000.0 -0.2501199765724508 -1.0340884703547741
5019000000.0 -0.2886447319664298 -0.9794544486986605
5022000000.0 -0.2971947458114421 -0.9831018458011658
5025000000.0 -0.339158373260488 -1.025943865964034
5028000000.0 -0.3317996845402723 -0.9779254726889623
5031000000.0 -0.3075740607028823 -0.9641903385412599
5034000000.0 -0.3552482355766702 -1.0113747234754817
5038000000.0 -0.3208977101755005 -0.9454400934393479
5041000000.0 -0.30475792215274533 -0.9911046791076029
5044000000.0 -0.2863895476490289 -0.9783996137647212
5047000000.0 -0.3467774518601829 -0.9881311441371262
5050000000.0 -0.2636802246033313 -0.9833891838746631
5053000000.0 -0.3892234539589897 -0.973747008596791
5056000000.0 -0.376858212925251 -0.9764787263062624
5059000000.0 -0.30530168446572453 -0.9726431442279765
5062000000.0 -0.42089332313895567 -0.9579737396664509
5066000000.0 -0.3451757225441896 -0.9448773409718283
5069000000.0 -0.42162136507214887 -0.934016470508387
5072000000.0 -0.3835761017834793 -0.9170266007301866
5075000000.0 -0.3786884832670411 -0.9240833985874028
5078000000.0 -0.47060412368735155 -0.9136164689393718
5081000000.0 -0.4035717812719952 -0.9107995443297546
5084000000.0 -0.42863978434920047 -0.9712736077053186
5088000000.0 -0.45168121423765917 -0.9376311370252561
5091000000.0 -0.5095190345451859 -0.9862577399035315
5094000000.0 -0.47266459457660587 -0.9195461806465431
5097000000.0 -0.4524557925274516 -0.9091272200223881
5100000000.0 -0.4920989370814844 -0.8651858372367555
5103000000.0 -0.5476945598971718 -0.9270573057685078
5106000000.0 -0.5234296308916443 -0.9324847526406248
5109000000.0 -0.4709021269620229 -0.965984918844522
5112000000.0 -0.5231675507954014 -0.8655147368775111
5116000000.0 -0.5005084015757456 -0.8532955362240586
5119000000.0 -0.5470099100894779 -0.8656214785140062
5122000000.0 -0.5268766413886421 -0.8731122209142721
5125000000.0 -0.5315927943494801 -0.9013935586886138
5128000000.0 -0.5370806021849176 -0.8640639224238797
5131000000.0 -0.5283239377392049 -0.8689384069154295
5134000000.0 -0.5642127420932854 -0.898337528792861
5138000000.0 -0.5284033486288052 -0.8700963266076068
5141000000.0 -0.5201424368069825 -0.8682796244568387
5144000000.0 -0.5118998259897978 -0.8836694364170862
5147000000.0 -0.5723549202860484 -0.8554922710795804
5150000000.0 -0.5699492928057582 -0.8856148804893342
5153000000.0 -0.5844551303233697 -0.8557395524990314
5156000000.0 -0.6327002186239938 -0.8424154685116508
5159000000.0 -0.6116103464657594 -0.8902478925605222
5162000000.0 -0.6231351536935508 -0.8168151226466336
5166000000.0 -0.6102518571418614 -0.8372536896505851
5169000000.0 -0.6464486072280348 -0.8350393288319542
5172000000.0 -0.6197565391755311 -0.8221005942616009
5175000000.0 -0.6477124306191746 -0.8668822635549952
5178000000.0 -0.656686430900357 -0.7726293351505177
5181000000.0 -0.675357551833641 -0.8413018072259578
5184000000.0 -0.6446875781120311 -0.789603302412046
5188000000.0 -0.6975662809247811 -0.8143686957369134
