! Created with skrf 1.8.0 (http://scikit-rf.org).
# Hz S RI R 50.0 
!freq ReS11 ImS11
4000000000.0 0.6401055525534983 0.7582122050976041
4003000000.0 0.7252297195038462 0.8382113631378812
4006000000.0 0.698004404033115 0.7518690986968267
4009000000.0 0.6955777711602995 0.736365215455915
4012000000.0 0.6630342815142343 0.8181652878872553
4016000000.0 0.7489376155028141 0.7557794712681984
4019000000.0 0.6702268013802632 0.7462974104427742
4022000000.0 0.6672975019723104 0.835559207386826
4025000000.0 0.7746849936100565 0.7006775829676916
4028000000.0 0.7235891005355893 0.7453990841466889
4031000000.0 0.6971205521040628 0.7453288695864618
4034000000.0 0.735319169025456 0.6885440577586283
4038000000.0 0.757877405165789 0.7218231736558947
4041000000.0 0.7410914996738992 0.7176491008854465
4044000000.0 0.780934746453689 0.7429335500772621
4047000000.0 0.7722572930668344 0.7369813135244767
4050000000.0 0.7763874629658085 0.687544461505981
4053000000.0 0.7682231243426628 0.6708775065334038
4056000000.0 0.7555027098697457 0.6692145065249895
4059000000.0 0.7274681003870568 0.6670279455582162
4062000000.0 0.7991398365175345 0.6967051677301834
4066000000.0 0.7625739458330874 0.6058369903113325
4069000000.0 0.822471885916628 0.6451977835897722
4072000000.0 0.775751548225461 0.684004783936343
4075000000.0 0.8285316045759754 0.7000619280300595
4078000000.0 0.8448303510793811 0.6650951645641603
4081000000.0 0.7966352428782992 0.6737770063437172
4084000000.0 0.8220041615377245 0.6548168828351031
4088000000.0 0.8211851412090313 0.6292899291241277
4091000000.0 0.8804512295839525 0.6463240243787198
4094000000.0 0.8179641538175604 0.6112163038333521
4097000000.0 0.8316264652685035 0.6045713134121129
4100000000.0 0.8498602641059715 0.5984202919343542
4103000000.0 0.8671476433583503 0.5915692896247149
4106000000.0 0.8486498209580954 0.5907182942519356
4109000000.0 0.8605732987712649 0.5586557480149352
4112000000.0 0.8535369559333144 0.5833150392904218
4116000000.0 0.8700226994917231 0.5524567782767772
4119000000.0 0.8843167831732475 0.5386639655372824
4122000000.0 0.8885398001434789 0.5031597177365992
4125000000.0 0.9217543146502054 0.5235503620643311
4128000000.0 0.8440449306475506 0.5061516279225813
4131000000.0 0.8853851932174632 0.5068947593667924
4134000000.0 0.8743200394004572 0.5026186958777582
4138000000.0 0.8816632040687937 0.4612227686621106
4141000000.0 0.8779056726357337 0.47354683660152364
4144000000.0 0.9183687833591195 0.47868771580797426
4147000000.0 0.910246323291135 0.4722458619857863
4150000000.0 0.9400035174546589 0.47681395438551116
4153000000.0 0.930503150565168 0.46402673347647316
4156000000.0 0.9465466275820111 0.49630796227682616
4159000000.0 0.9181872182735331 0.456460587486133
4162000000.0 0.9131780351821919 0.44226869209426667
4166000000.0 0.9465559898333473 0.4516752587709173
4169000000.0 0.93404029839501 0.4023121774470195
4172000000.0 0.9423747217127391 0.4172206041067011
4175000000.0 0.9307520825609259 0.41563993005386185
4178000000.0 0.9675428587439795 0.4049765405116009
4181000000.0 0.9405825037690994 0.3877277504467521
4184000000.0 0.962157130891501 0.3902500831384836
4188000000.0 0.9591092670957668 0.35867183044114404
4191000000.0 0.9320921718929219 0.3950597649814113
4194000000.0 0.9352027131852367 0.3423458267577667
4197000000.0 0.9742420531647722 0.3413019673217818
4200000000.0 0.9582789817781359 0.3575489926319022
4203000000.0 0.979638537847439 0.35887812765133376
4206000000.0 0.9738147453486572 0.33665982845975756
4209000000.0 0.9496338004776186 0.3158151820969363
4212000000.0 0.9802243059058474 0.27593417438390555
4216000000.0 0.9851607679414327 0.32882414277751587
4219000000.0 0.9882235972311276 0.3065815334997464
4222000000.0 0.9777430745738582 0.2818464018192858
4225000000.0 0.9651351833951698 0.28350528141069054
4228000000.0 0.977914198417585 0.27895141645152455
4231000000.0 0.997359587056528 0.2663948864104852
4234000000.0 0.9944099700576564 0.2706502140525796
4238000000.0 0.9894517466110087 0.23988017773916823
4241000000.0 0.9890164305323388 0.22766583906148408
4244000000.0 0.9879134837417162 0.23678794973925177
4247000000.0 0.9929185328140261 0.22616333430222474
4250000000.0 0.9822458223220347 0.19296558979111672
4253000000.0 0.9803357974332867 0.1855665766149897
4256000000.0 1.040426783508609 0.1926068484183725
4259000000.0 0.9634086622791673 0.15131269344594414
4262000000.0 0.9941217288355901 0.16009753157461928
4266000000.0 1.0109641656350215 0.14923218241021075
4269000000.0 0.991714431991915 0.1722231264106833
4272000000.0 0.9979205914703811 0.13642674089310683
4275000000.0 1.0269077322458071 0.1478705880991734
4278000000.0 1.023770129957824 0.14423291475611813
4281000000.0 1.0182267432993797 0.13436364255174676
4284000000.0 1.0403699938872868 0.08255739852758615
4288000000.0 1.0056525977491377 0.1355080434241623
4291000000.0 1.0166083543954252 0.1057208304108745
4294000000.0 0.989354950164296 0.06790031638737502
4297000000.0 0.9967715896248963 0.11439185507357431
4300000000.0 0.9813319292090075 0.07069596953127014
4303000000.0 0.9934886398144599 0.05247834841822045
4306000000.0 1.0253779760737136 0.08620690054803798
4309000000.0 1.0104946841693938 0.056929774226337174
4312000000.0 1.0349595678954653 0.08665152914972452
4316000000.0 1.0143818353082334 0.03691242777494605
4319000000.0 0.9713837166259002 0.03261714995995528
4322000000.0 1.017622866492416 -0.0013580754488267122
4325000000.0 1.0104242521942493 -0.01964299888740223
4328000000.0 0.988199709491594 -0.01191015711464051
4331000000.0 1.0117070800026708 -0.045582541362661835
4334000000.0 1.0547151258099492 -0.011833488097163752
4338000000.0 0.9879118569371049 -0.009846756589954861
4341000000.0 1.0352518117586458 -0.01484760231711453
4344000000.0 1.0589656694306901 -0.02615148983455813
4347000000.0 1.0247403805576434 -0.0788407338101201
4350000000.0 0.9905365640449186 -0.08338091186624458
4353000000.0 0.9969804296236133 -0.05037509881757579
4356000000.0 0.9961706728393628 -0.07609364639835337
4359000000.0 0.9766715476473782 -0.10362374643505015
4362000000.0 1.0064711899742464 -0.16302104411818072
4366000000.0 1.018137425658928 -0.12076593525878254
4369000000.0 0.9816280859750047 -0.10352306912000361
4372000000.0 0.9953624499326132 -0.15639073727773045
4375000000.0 0.9965971560221742 -0.11390121070917815
4378000000.0 0.9745674188680137 -0.13627249076827153
4381000000.0 0.9848561648611358 -0.14484813973927887
4384000000.0 1.0573174292274334 -0.182831927165852
4388000000.0 0.9878915090639815 -0.15426501034010037
4391000000.0 1.001473367540011 -0.18365753344547533
4394000000.0 0.961510051249649 -0.18381376172266567
4397000000.0 0.9796165272822972 -0.20809732652891735
4400000000.0 1.0129732141182508 -0.2110666465503588
4403000000.0 0.9895355344694093 -0.2096769415869919
4406000000.0 0.9865295855065406 -0.23842865675509048
4409000000.0 1.0109451164890517 -0.23581362061088532
4412000000.0 0.967412097627028 -0.3013094885367805
4416000000.0 0.9662864871579135 -0.26292661529044
4419000000.0 0.9749795263494043 -0.26762596415048234
4422000000.0 0.9757775740823638 -0.2518886280315662
4425000000.0 0.974957403229392 -0.25712149951847213
4428000000.0 0.9687658509432312 -0.3001081383509077
4431000000.0 0.9886583174743342 -0.2939557908742587
4434000000.0 0.952023378234001 -0.30820416614784835
4438000000.0 0.9809452530158835 -0.3134143202339268
4441000000.0 0.9577686453869976 -0.3170280942644193
4444000000.0 0.9321517634925283 -0.31232328911061547
4447000000.0 0.9398492624819293 -0.34601110681283886
4450000000.0 0.9569920179357136 -0.32571021550935675
4453000000.0 0.9752179667280672 -0.3487606406936994
4456000000.0 0.9314325966989281 -0.35244274829257394
4459000000.0 0.889646820655015 -0.377819374462107
4462000000.0 1.0116456881428975 -0.4164887135610268
4466000000.0 0.9624536169242169 -0.4105415554431029
4469000000.0 0.9491538207344988 -0.3950596775659951
4472000000.0 0.9341355834738579 -0.42968834995178806
4475000000.0 0.9075258105071181 -0.3979568049008122
4478000000.0 0.9557189120163578 -0.4384688862950329
4481000000.0 0.8782765641419127 -0.42272105032288293
4484000000.0 0.8964611190481078 -0.4654885775777404
4488000000.0 0.8998756725899895 -0.44532093239267034
4491000000.0 0.8987016651068755 -0.4596843129826648
4494000000.0 0.8957829449042404 -0.4512807400386853
4497000000.0 0.8971931704625329 -0.4452930701497881
4500000000.0 0.8914378400536145 -0.47891634562074525
4503000000.0 0.9220345021379901 -0.4949941741868177
4506000000.0 0.8801781125103516 -0.5063971204733603
4509000000.0 0.8634877733329978 -0.48332148466354163
4512000000.0 0.8530480345043477 -0.5069141166862708
4516000000.0 0.8807966643797771 -0.5162317081747058
4519000000.0 0.848698729143367 -0.5031528416190519
4522000000.0 0.855977185410224 -0.5299450206000901
4525000000.0 0.8634514899533117 -0.5036268351539668
4528000000.0 0.8799604285085416 -0.5697146826252037
4531000000.0 0.8421952766330866 -0.5345594222855465
4534000000.0 0.842000022724407 -0.54978473105351
4538000000.0 0.8261967171521323 -0.562274638177811
4541000000.0 0.7905062504771364 -0.5858478742282622
4544000000.0 0.8069675402518344 -0.5680042358642318
4547000000.0 0.837324630863901 -0.5477569512987241
4550000000.0 0.8134717900500663 -0.6030809498096937
4553000000.0 0.814286699461396 -0.6227963124849261
4556000000.0 0.7771078221600085 -0.5930335779502157
4559000000.0 0.7964539045027843 -0.6340851587994683
4562000000.0 0.7956946176065729 -0.6146907696299433
4566000000.0 0.8023086328828821 -0.6442714875169231
4569000000.0 0.7632092829607781 -0.6468060391674941
4572000000.0 0.7672721365382988 -0.6241918710075277
4575000000.0 0.7724640825041105 -0.6786255670623849
4578000000.0 0.7915032694842781 -0.6617191898640934
4581000000.0 0.7482919823668059 -0.6801368052396917
4584000000.0 0.7416899150482625 -0.6809564423884219
4588000000.0 0.7691399289758986 -0.6989443621282461
4591000000.0 0.7555579207884296 -0.6801341232916562
4594000000.0 0.7184413896501161 -0.7098756520995264
4597000000.0 0.7188634691879694 -0.7154931225286684
4600000000.0 0.6999057244987037 -0.7249346834069079
4603000000.0 0.7090092426602952 -0.7101274778053094
4606000000.0 0.7156777980638794 -0.7249255100606055
4609000000.0 0.7199757073269716 -0.7160049055071425
4612000000.0 0.7038939332209228 -0.7418769008134405
4616000000.0 0.6779147022428187 -0.7340864892920099
4619000000.0 0.6800919218593826 -0.7258552022871201
4622000000.0 0.6831808595309653 -0.7572174505942563
4625000000.0 0.6359862213917853 -0.7568840724654476
4628000000.0 0.6750220627589305 -0.7535446770162794
4631000000.0 0.6493240807713225 -0.7668113379562048
4634000000.0 0.6508610295151273 -0.7666733209753945
4638000000.0 0.6472879309626967 -0.7826816145512133
4641000000.0 0.6407131520350768 -0.7836211334418123
4644000000.0 0.6187103887732062 -0.7882084369944423
4647000000.0 0.6264757198378469 -0.7936389584000982
4650000000.0 0.5815280951563335 -0.8139618091728082
4653000000.0 0.610803229310488 -0.8104853353068724
4656000000.0 0.5862376488429308 -0.8001800567400905
4659000000.0 0.5794153067040972 -0.8299195541824925
4662000000.0 0.5876134829968467 -0.8266653072575577
4666000000.0 0.5847235920566088 -0.8414663582155774
4669000000.0 0.5642528353430747 -0.8315904540238113
4672000000.0 0.5426401272010103 -0.8759184175049668
4675000000.0 0.5345034698599311 -0.8638001446701521
4678000000.0 0.5248836394726608 -0.822058499235698
4681000000.0 0.5060251415144204 -0.8788553806231056
4684000000.0 0.5148924630605868 -0.8806007420894127
4688000000.0 0.5054506805670371 -0.8596872942181097
4691000000.0 0.5467653917156993 -0.8585037716483952
4694000000.0 0.5316215920321874 -0.8861047153322212
4697000000.0 0.47800086614145865 -0.8595427914380067
4700000000.0 0.48716408275144396 -0.8715276388338902
4703000000.0 0.5108008194561774 -0.8421382417579166
4706000000.0 0.4637716098384736 -0.9026104762214134
4709000000.0 0.4648827775446665 -0.8870802710598958
4712000000.0 0.47095548147630356 -0.9246573649484464
4716000000.0 0.44687507705609586 -0.8934871251175898
4719000000.0 0.48698615896724967 -0.891199660972818
4722000000.0 0.45636650700386305 -0.9108280603688239
4725000000.0 0.44009681530010786 -0.9157706857652103
4728000000.0 0.4373666979609281 -0.920872993679084
4731000000.0 0.4374989957582532 -0.9619993151516486
4734000000.0 0.43914203155844245 -0.9078612897634808
4738000000.0 0.4136294632809189 -0.9537057915200791
4741000000.0 0.4033927637157694 -0.9749463272951551
4744000000.0 0.36247024760036317 -0.9844918937952543
4747000000.0 0.37740517020917635 -0.9339653249267755
4750000000.0 0.40044177898898775 -0.9429094894797939
4753000000.0 0.3581610648076669 -0.9553691375774059
4756000000.0 0.32935995015412556 -0.9690356038501593
4759000000.0 0.35699771101525646 -0.9945658249162521
4762000000.0 0.2924050415991378 -0.9821266696815708
4766000000.0 0.33066214410687744 -0.9708560181640594
4769000000.0 0.3391760080202219 -1.0013415966614403
4772000000.0 0.32360637726603053 -0.9653354540264605
4775000000.0 0.26341920273896485 -1.009543443375957
4778000000.0 0.29202240542825497 -0.9878467411470849
4781000000.0 0.3107579463605699 -0.9932369765892919
4784000000.0 0.30518410224576337 -0.9710531491290172
4788000000.0 0.2841546346370595 -1.0091006201225563
4791000000.0 0.26336317200043063 -0.9798202747468808
4794000000.0 0.284143796354911 -1.0316464318341947
4797000000.0 0.23800171746756812 -0.9913978479043511
4800000000.0 0.23494047806127263 -0.9790490939965613
4803000000.0 0.17106789800617347 -0.9892576256414041
4806000000.0 0.23324985941268944 -1.0155504931775814
4809000000.0 0.15646158117041511 -1.0289297836217064
4812000000.0 0.14420614803585743 -1.004351027215933
4816000000.0 0.2239595733864863 -0.9910817977182116
4819000000.0 0.2073218397629682 -1.0248466878583464
4822000000.0 0.18709422636557088 -1.018898545888057
4825000000.0 0.2132004949946283 -1.0207172039433183
4828000000.0 0.15218762949713238 -0.9988270111514844
4831000000.0 0.09052635555527508 -1.042992490540844
4834000000.0 0.1631342398184723 -1.0180371683080602
4838000000.0 0.11942008699893356 -1.0164821427420565
4841000000.0 0.10472241099724627 -0.9964416677728255
4844000000.0 0.144151835394497 -1.0227668476100222
4847000000.0 0.14140844763858162 -1.000675393623495
4850000000.0 0.10315765995177403 -1.0435517192881822
4853000000.0 0.11710927185624889 -1.0092696783079855
4856000000.0 0.08962351683901115 -1.013369087767946
4859000000.0 0.06636062702580074 -1.0703248106553387
4862000000.0 0.09403175156725709 -1.0074364327817205
4866000000.0 0.034815336358033 -1.0312264287179254
4869000000.0 0.040261197014782424 -1.0294335589251828
4872000000.0 0.0009327941131869483 -1.028723141606201
4875000000.0 0.07404692831390973 -1.0643021542066837
4878000000.0 0.03935689829298641 -1.0331108034996246
4881000000.0 -0.03540248729275529 -1.105622630178529
4884000000.0 0.026124961287477114 -1.0340937537518224
4888000000.0 0.042076184332181965 -1.0401733127081185
4891000000.0 0.032264148820892825 -1.0429940557722348
4894000000.0 -0.043229967068897195 -1.0074593130276526
4897000000.0 -0.014427648960691365 -1.0372513719705903
4900000000.0 -0.028137033809361237 -1.0457450761136335
4903000000.0 -0.00970998206342883 -1.0335172865137074
4906000000.0 -0.05205666164900938 -1.0489356082754029
4909000000.0 -0.05987196402022684 -1.045146860847042
4912000000.0 -0.10623128064347721 -1.06158749523162
4916000000.0 -0.08532897426577171 -1.0416376501705575
4919000000.0 -0.04040279714851282 -1.072580805902791
4922000000.0 -0.08416077217076709 -1.0293401899363412
4925000000.0 -0.1443912408890782 -1.0398020009330544
4928000000.0 -0.051507709244466446 -0.9922813629004991
4931000000.0 -0.12623531463275178 -1.0349767779215173
4934000000.0 -0.09731989067957648 -0.994161547382069
4938000000.0 -0.16579847052880087 -1.0247459388347253
4941000000.0 -0.14205036403868065 -0.9909999139229893
4944000000.0 -0.1555487201236113 -0.9770421102424922
4947000000.0 -0.1741791365174203 -0.9831894566276315
4950000000.0 -0.16751123950197672 -0.9809916770820775
4953000000.0 -0.24485683534199626 -1.0716655085194622
4956000000.0 -0.22524669942378117 -1.0076353712036297
4959000000.0 -0.23045969185698204 -0.9679673546758956
4962000000.0 -0.22263078497836505 -1.0382387878118076
4966000000.0 -0.1978727425847972 -1.0218100776286134
4969000000.0 -0.21749148743326735 -1.0349995178069291
4972000000.0 -0.2214463013619665 -1.0054930842020482
4975000000.0 -0.1876319953723504 -0.9882491118990948
4978000000.0 -0.24728454201750216 -0.9929904972256556
4981000000.0 -0.2677973977756648 -1.0132334134364331
4984000000.0 -0.22829765847694758 -0.9659484147287704
4988000000.0 -0.24900884679392793 -0.979403779683839
4991000000.0 -0.24690129578257358 -1.0464693703788481
4994000000.0 -0.28997215993425063 -1.0055338585368832
4997000000.0 -0.3512251959180532 -1.004933900413328
5000000000.0 -0.29773423730919446 -1.0351885321118666
5003000000.0 -0.3099188708271062 -1.023587627486949
5006000000.0 -0.34810742246720927 -1.031969766041417
5009000000.0 -0.2973093107383218 -0.9677799768960166
5012000000.0 -0.3491221145310987 -0.9873760878325035
5016000000.0 -0.30784948745784096 -0.9964235732064528
5019000000.0 -0.35714432680622055 -0.9530457835787585
5022000000.0 -0.35089650311100296 -0.9600561239859857
5025000000.0 -0.40436204153662697 -1.0235218703265432
5028000000.0 -0.3588549041811734 -0.9798809124506096
5031000000.0 -0.39057148160561017 -0.9376175102830443
5034000000.0 -0.4331953308418932 -0.9925549621571987
5038000000.0 -0.40626345114325146 -0.9334797170013327
5041000000.0 -0.36930880815744116 -0.9508242106233834
5044000000.0 -0.3940094746438054 -0.9616312579866729
5047000000.0 -0.40731124421253156 -0.944645885070103
5050000000.0 -0.316733277951052 -0.9882498009199754
5053000000.0 -0.4508699718063295 -0.9599268614921117
5056000000.0 -0.3968342146692042 -0.9565557621182392
5059000000.0 -0.42025307574977305 -0.9634644879327846
5062000000.0 -0.49536510869191785 -0.9326160379855679
5066000000.0 -0.39721911639534424 -0.9308014273176746
5069000000.0 -0.45300730526053945 -0.9206373869806433
5072000000.0 -0.43394817750272996 -0.9222423379189195
5075000000.0 -0.4605550115466678 -0.9291978741853177
5078000000.0 -0.5449951876175145 -0.9017025686264817
5081000000.0 -0.47206998523709937 -0.8987801119858206
5084000000.0 -0.508889270911744 -0.95503689652758
5088000000.0 -0.4799946184683066 -0.8934536161471671
5091000000.0 -0.5527357313150674 -0.8645260516195652
5094000000.0 -0.533360117348726 -0.8859487676035188
5097000000.0 -0.5048243625133616 -0.918838487063639
5100000000.0 -0.540009961638456 -0.8409858289507538
5103000000.0 -0.5708191334017925 -0.9187732363677762
5106000000.0 -0.5749675662586693 -0.8898657132488901
5109000000.0 -0.5310309933774062 -0.9068507603018696
5112000000.0 -0.5728555198718471 -0.8697860619510465
5116000000.0 -0.5562588909828317 -0.8221644113477492
5119000000.0 -0.6348164347417151 -0.838899837539367
5122000000.0 -0.6075825716990221 -0.8254974705571261
5125000000.0 -0.578831331071388 -0.895803004749623
5128000000.0 -0.6196207474840415 -0.859670290205945
5131000000.0 -0.6208743406468131 -0.8479049391596982
5134000000.0 -0.6134633183515041 -0.8747132768508379
5138000000.0 -0.5782762664291031 -0.8232592092756911
5141000000.0 -0.6028241825601046 -0.8726689614666292
5144000000.0 -0.6438079983494226 -0.8118446008657361
5147000000.0 -0.6490815547583567 -0.809540587293571
5150000000.0 -0.651482633039909 -0.8440403440378506
5153000000.0 -0.6590340225340259 -0.8151537717781356
5156000000.0 -0.6624354856296517 -0.7638405121969876
5159000000.0 -0.6909390414225233 -0.8225448808574247
5162000000.0 -0.685106956707177 -0.7459997375740629
5166000000.0 -0.679997811356399 -0.7749424965057756
5169000000.0 -0.6880157304351672 -0.7850547589187937
5172000000.0 -0.6553995455921388 -0.759209492972716
5175000000.0 -0.6923895923449646 -0.8369151205561242
5178000000.0 -0.7443625704442687 -0.7829116881990773
5181000000.0 -0.7065860389524999 -0.8233113858974043
5184000000.0 -0.7286883728418998 -0.7342909732616089
5188000000.0 -0.7481886470155699 -0.752399287286035
