! Created with skrf 1.8.0 (http://scikit-rf.org).
# Hz S RI R 50.0 
!freq ReS11 ImS11
4000000000.0 0.6776962597130316 0.7679748512040809
4003000000.0 0.7328368542625967 0.7994367931237573
4006000000.0 0.7125324009483418 0.7550366420862046
4009000000.0 0.7037622915691493 0.7720586951161668
4012000000.0 0.7233999880239185 0.813040236131145
4016000000.0 0.7639193690368353 0.7108203375060982
4019000000.0 0.7010440945383203 0.6900769993702973
4022000000.0 0.7336477266043521 0.7843300783207863
4025000000.0 0.7673266143995562 0.6805417281370201
4028000000.0 0.7876311548574831 0.6783340971866629
4031000000.0 0.7073122136311816 0.674169389482254
4034000000.0 0.7930789396308978 0.6788721212813341
4038000000.0 0.8498242191456471 0.681990536691609
4041000000.0 0.8229228378701973 0.6563800301521328
4044000000.0 0.8209474605511886 0.728070144955039
4047000000.0 0.8075552984149037 0.6602854236233776
4050000000.0 0.81403687720001 0.636826882125429
4053000000.0 0.7961061420532755 0.6513681212502498
4056000000.0 0.8370653102576323 0.6554520351262919
4059000000.0 0.8139589826776085 0.6362694237093067
4062000000.0 0.8377161624977666 0.61470942308316
4066000000.0 0.7807828186578585 0.5824410897498702
4069000000.0 0.8474730617611956 0.5697672212935826
4072000000.0 0.8145208036732702 0.60727335444049
4075000000.0 0.8981070151462197 0.6291789702447566
4078000000.0 0.8871721106827479 0.5869943304385905
4081000000.0 0.8525570468092034 0.5966158096015113
4084000000.0 0.8513414996745138 0.5474419650168074
4088000000.0 0.8591355683377753 0.5988406901365794
4091000000.0 0.9038550563366673 0.5968447533404435
4094000000.0 0.8880675370731956 0.5368201069578923
4097000000.0 0.8970654789797313 0.534703099737442
4100000000.0 0.9152917139474902 0.5342214203459512
4103000000.0 0.8992235873072068 0.5975852149563767
4106000000.0 0.9113530497862202 0.53082430075309
4109000000.0 0.9062429613903111 0.531940458904105
4112000000.0 0.8991696638842221 0.5344958833725593
4116000000.0 0.920903902046381 0.5339722120042518
4119000000.0 0.906104528474455 0.4783031013956842
4122000000.0 0.9406117777059201 0.45378088094893887
4125000000.0 0.9641654548842135 0.45583675036620414
4128000000.0 0.8707787827771339 0.4836652958215718
4131000000.0 0.8948690731604556 0.4346969184638275
4134000000.0 0.9381135165640508 0.47434788965088537
4138000000.0 0.917922491012819 0.41302092555113085
4141000000.0 0.9057824698887572 0.4644182209501765
4144000000.0 0.9258907389275604 0.4574112810910174
4147000000.0 0.962131102038256 0.41730605571776364
4150000000.0 0.9440269839219035 0.4084692815559467
4153000000.0 0.9415189178730289 0.3966036630815698
4156000000.0 0.9488328429834796 0.4222548533179542
4159000000.0 0.9227307960043176 0.39083842417013454
4162000000.0 0.9276705174941637 0.3601552166815438
4166000000.0 0.9790834997649822 0.3547220635013273
4169000000.0 0.9895863544304894 0.3404546238652296
4172000000.0 0.9555145169439034 0.3481643058395812
4175000000.0 0.9771315681843697 0.3219645757116035
4178000000.0 0.9620209945003438 0.35662517427789964
4181000000.0 0.981886248025786 0.323752172705262
4184000000.0 0.9691211800994677 0.29459589596708663
4188000000.0 0.957960626252433 0.3094759353024913
4191000000.0 0.9374494883262043 0.3229588584494704
4194000000.0 0.9603189999586206 0.3082526849019753
4197000000.0 0.9854339964552776 0.29344404016374753
4200000000.0 1.00750165930764 0.31665598431536035
4203000000.0 0.9972242034613237 0.2840662982773623
4206000000.0 0.9987547516484777 0.2737139752713011
4209000000.0 0.9668157948284657 0.2606518663048591
4212000000.0 0.9844473397668206 0.2171445385127901
4216000000.0 1.0163755704807738 0.26536324025913444
4219000000.0 1.0078614230543461 0.2352426483168897
4222000000.0 1.009166566527962 0.22798538798433804
4225000000.0 0.9995842273917754 0.21066361421991822
4228000000.0 1.0213102524969901 0.2113037908546869
4231000000.0 1.0000704772267075 0.18018677734006955
4234000000.0 1.0174237800608097 0.18606787565692345
4238000000.0 1.0077467781086886 0.174504141127627
4241000000.0 0.9987425892969526 0.1493653563173587
4244000000.0 1.0044073279357253 0.17913326310435396
4247000000.0 1.0144183532794253 0.1672072814480245
4250000000.0 0.9898636691376634 0.13502290969253605
4253000000.0 0.9936235539876779 0.1219902957622363
4256000000.0 1.038470909073109 0.12138324484646562
4259000000.0 0.9861886343405667 0.10462220368951664
4262000000.0 1.0094827119394334 0.07483946252573526
4266000000.0 1.0339878067300885 0.06979233907961702
4269000000.0 1.0059303231165364 0.09833835361368493
4272000000.0 0.9986751596339264 0.07423818733461876
4275000000.0 1.0228521331244878 0.08933305952216825
4278000000.0 1.0507663985306828 0.0751987526414929
4281000000.0 1.0359870178239585 0.07349048600702983
4284000000.0 1.0381914626858877 0.013134432540485824
4288000000.0 1.0149897373396026 0.04732503728160024
4291000000.0 0.991084889817744 0.013887972219818953
4294000000.0 1.0015650208011992 0.017562611226138045
4297000000.0 1.031583638047466 0.04666017871494828
4300000000.0 0.9872287904342871 0.018200647468687665
4303000000.0 1.0065270303641973 -0.033424923342633424
4306000000.0 1.005094570291741 -0.013151829045909329
4309000000.0 1.0042042994615217 -0.0019784942282273232
4312000000.0 1.0218893895411811 0.022454522228937665
4316000000.0 1.0189826365570687 -0.02869679250234853
4319000000.0 1.022216071489985 -0.040808983601571605
4322000000.0 0.9974695038501451 -0.09413851203498683
4325000000.0 1.0369496676645173 -0.046659474789448194
4328000000.0 1.024170751484607 -0.07808186329940198
4331000000.0 1.0026860168184848 -0.11821451039901992
4334000000.0 1.0161248927984237 -0.1192154895241144
4338000000.0 1.0132664006703638 -0.0878335582200612
4341000000.0 1.0319935036111048 -0.08853095755603387
4344000000.0 1.0445986647740257 -0.12192658446173299
4347000000.0 1.0322828871141314 -0.1711707580089127
4350000000.0 0.9611016775564877 -0.14051877196230064
4353000000.0 0.9698111278056665 -0.14427278451255746
4356000000.0 0.9725802445824244 -0.19946365241532663
4359000000.0 0.9807994567551798 -0.14847571283846325
4362000000.0 0.9967762501791462 -0.23885370862503094
4366000000.0 1.0112594452124057 -0.1978248140732968
4369000000.0 0.982467622476156 -0.19320958864532647
4372000000.0 0.9668407994143366 -0.2266152250319221
4375000000.0 0.9796680438861907 -0.18577634939593526
4378000000.0 0.9752315253687821 -0.2127386852852062
4381000000.0 0.9717276120241984 -0.21561656264084866
4384000000.0 1.0438074079548003 -0.24897169578606584
4388000000.0 0.9772008181997107 -0.23514588235046782
4391000000.0 0.9902957505815626 -0.25556478520599735
4394000000.0 0.9566455539998112 -0.2765392781773666
4397000000.0 0.9658965749626989 -0.2840449645244376
4400000000.0 0.9900000463970189 -0.29200257410574026
4403000000.0 0.9716875426922407 -0.28992118347929086
4406000000.0 0.9668900786730217 -0.3253566707549125
4409000000.0 0.9910017479770088 -0.32028090659688857
4412000000.0 0.9462380648962762 -0.36934046157102096
4416000000.0 0.9345831529397359 -0.3365112624610119
4419000000.0 0.953877885354529 -0.35714568173605016
4422000000.0 0.9620397299034906 -0.3344643329544861
4425000000.0 0.9651482168330016 -0.34180965057379464
4428000000.0 0.9360498803565759 -0.38182667929796965
4431000000.0 0.9674351137224575 -0.3619948533682048
4434000000.0 0.934481854222576 -0.3873253318313188
4438000000.0 0.9399906797343704 -0.40190528812263093
4441000000.0 0.9530375225295484 -0.4034814592761441
4444000000.0 0.9252657161166482 -0.39540511514551735
4447000000.0 0.9156563226058375 -0.43787860015880564
4450000000.0 0.9137786441999506 -0.4213060763106317
4453000000.0 0.9301910199884221 -0.4321692377899648
4456000000.0 0.8872833984699258 -0.44487827848183803
4459000000.0 0.8555089894388781 -0.43678666826073076
4462000000.0 0.9544587049743285 -0.48774303590313484
4466000000.0 0.9549840738284984 -0.4881806563890718
4469000000.0 0.9156968457969706 -0.4656776640569507
4472000000.0 0.8858388632649111 -0.5090377800431627
4475000000.0 0.8652458590461021 -0.48469353472243015
4478000000.0 0.9120251353572797 -0.5112337480406965
4481000000.0 0.832334188592678 -0.5074606292727248
4484000000.0 0.8269462880984637 -0.5399643793543497
4488000000.0 0.8660559481320581 -0.550167966812732
4491000000.0 0.872370862383455 -0.5396437681654727
4494000000.0 0.8497323250149581 -0.5152851765583149
4497000000.0 0.8442631969135674 -0.5344265143691033
4500000000.0 0.8510024734379844 -0.5474432700211409
4503000000.0 0.8660899994004496 -0.5697067920376853
4506000000.0 0.8241771462457317 -0.5630710356762983
4509000000.0 0.8261922878081824 -0.5585782749779492
4512000000.0 0.8107253909079709 -0.594673915389062
4516000000.0 0.8333819195578679 -0.6156276137129955
4519000000.0 0.7992064581715727 -0.5777926210299971
4522000000.0 0.7750415463468769 -0.6131142667669582
4525000000.0 0.8259914686629106 -0.6018155373718166
4528000000.0 0.8168961869065334 -0.631977431752748
4531000000.0 0.7943656901923495 -0.6190015960465294
4534000000.0 0.7791116058949307 -0.6266938536619867
4538000000.0 0.7687943902865426 -0.6529724354473738
4541000000.0 0.7329055346198363 -0.6685859336495977
4544000000.0 0.7514255256473164 -0.6268825889499804
4547000000.0 0.7494626730435079 -0.6520808779833291
4550000000.0 0.7371490960404545 -0.6971666869187698
4553000000.0 0.7494582254771647 -0.6813855777721372
4556000000.0 0.7208087274861201 -0.6902111705251195
4559000000.0 0.7368511680079913 -0.6986855810199346
4562000000.0 0.7423011849421326 -0.7042423016772216
4566000000.0 0.7212221261505662 -0.7331598025914681
4569000000.0 0.6932675852858309 -0.7100702342654914
4572000000.0 0.7018234300246149 -0.709618877493138
4575000000.0 0.696471492767601 -0.7416686140994113
4578000000.0 0.7066978036019926 -0.7448189324235304
4581000000.0 0.6894456818740068 -0.7484670301037588
4584000000.0 0.6772232535431668 -0.7644282876704462
4588000000.0 0.6778384591164712 -0.7636822105591764
4591000000.0 0.6787050972621491 -0.7373755721081835
4594000000.0 0.6397550561347278 -0.7889758264839211
4597000000.0 0.6550915587795993 -0.7867944146448158
4600000000.0 0.6275229399606943 -0.8024053356495059
4603000000.0 0.6305682067306217 -0.7911494642583375
4606000000.0 0.6429463676376158 -0.7855056070602567
4609000000.0 0.6146572302672547 -0.7929293420087175
4612000000.0 0.6171106614469267 -0.8239026559433457
4616000000.0 0.6062875886305716 -0.7960525984983636
4619000000.0 0.5897181939285142 -0.7926510779321003
4622000000.0 0.6031167042142841 -0.8336808446249189
4625000000.0 0.551584917185647 -0.8068036516842886
4628000000.0 0.6003854631470331 -0.8391987179050436
4631000000.0 0.5512697195239473 -0.8474233097720139
4634000000.0 0.5672861024999167 -0.850624810517133
4638000000.0 0.5478076238181536 -0.8529799252375808
4641000000.0 0.5585110953454687 -0.8543054197996581
4644000000.0 0.5310437918317634 -0.8519612142472508
4647000000.0 0.5180596487503637 -0.8690487393508326
4650000000.0 0.5059721614108214 -0.8841230358718123
4653000000.0 0.5325949066541862 -0.8852319955173908
4656000000.0 0.5061479812535266 -0.881891364689261
4659000000.0 0.49189394257125807 -0.8782571043907551
4662000000.0 0.4866173650805761 -0.8993525289114561
4666000000.0 0.44911386776548057 -0.892412906684942
4669000000.0 0.46485817629613113 -0.897209710552334
4672000000.0 0.4721100808709679 -0.9301907731003549
4675000000.0 0.43651887440208453 -0.9428272716944538
4678000000.0 0.41042048167026324 -0.9022684232297705
4681000000.0 0.4231173936563464 -0.9294376251034202
4684000000.0 0.41681582331587785 -0.9526495440313564
4688000000.0 0.4092114012323775 -0.9353732524835401
4691000000.0 0.4460692937472196 -0.929462752430662
4694000000.0 0.4210680989304625 -0.9230546652035618
4697000000.0 0.35551672914455956 -0.9050534588830235
4700000000.0 0.39657944610684914 -0.9509232013323132
4703000000.0 0.40517138947324804 -0.8808655163008723
4706000000.0 0.33907202122939095 -0.9561760835107169
4709000000.0 0.3566139664369722 -0.9617360816235807
4712000000.0 0.37956362017551903 -0.961936692553093
4716000000.0 0.324916395413265 -0.9926670215571474
4719000000.0 0.3761700406939005 -0.9546453303914142
4722000000.0 0.3666079132014537 -0.9466906900084875
4725000000.0 0.33273106229257965 -0.9824940356000599
4728000000.0 0.30513438059981396 -0.9810306170826957
4731000000.0 0.31451155816767695 -0.9661143190567894
4734000000.0 0.32572825283148904 -0.9393871799974248
4738000000.0 0.31904206327843526 -1.0347725953647486
4741000000.0 0.2664614760016451 -1.0072568107391768
4744000000.0 0.2622045957852362 -1.0283770625598596
4747000000.0 0.2633598594153617 -0.9571675219111182
4750000000.0 0.2762140481477785 -1.0216366054530766
4753000000.0 0.25874453230618333 -0.9922229517586159
4756000000.0 0.23028811243841907 -1.0176832484506446
4759000000.0 0.2466577469473435 -1.002527966627618
4762000000.0 0.16574416473377962 -1.0281759178375878
4766000000.0 0.21431163724848049 -1.0167494973456
4769000000.0 0.18764687189469997 -1.0344272766395808
4772000000.0 0.1753176664793243 -1.0072668766904316
4775000000.0 0.1455766166703822 -1.077583790484693
4778000000.0 0.15497767143361824 -1.036847239602781
4781000000.0 0.19971617565988864 -0.9910580905664803
4784000000.0 0.1636057676479148 -1.0129987796065778
4788000000.0 0.1269506057382275 -1.0538257293825062
4791000000.0 0.1436429025818489 -1.0210274084185307
4794000000.0 0.14321256999055065 -1.0555022193419628
4797000000.0 0.1031211052010827 -1.0099226466164073
4800000000.0 0.102735436289316 -0.9875927683469778
4803000000.0 0.04823275367195709 -0.9908449558203356
4806000000.0 0.0786235310867462 -1.0506821973327716
4809000000.0 0.016706439354849417 -1.0079053493703078
4812000000.0 0.030163250272260245 -1.018239075709951
4816000000.0 0.09832247520826079 -0.9850225071832599
4819000000.0 0.07322741856527432 -1.0383264892960762
4822000000.0 0.04430911708422344 -1.0478631920410213
4825000000.0 0.04542020466908778 -1.0711143529757188
4828000000.0 0.038693172061840475 -1.025700462237002
4831000000.0 -0.04268214672925781 -1.070631901287066
4834000000.0 0.010235136673343623 -1.027153462651596
4838000000.0 -0.02236165214356521 -1.0509754190278473
4841000000.0 -0.028112004121441395 -1.0217130286222336
4844000000.0 0.01065262275671483 -1.0350428907341185
4847000000.0 -0.026209409508613335 -1.01112889856477
4850000000.0 -0.06298257707750274 -1.036796932937552
4853000000.0 -0.02934615080445266 -1.012785394079627
4856000000.0 -0.03980547884848981 -1.0100834409073713
4859000000.0 -0.08457832954469874 -1.0428341905020155
4862000000.0 -0.03619290766135115 -1.0060934865331381
4866000000.0 -0.12118415849645686 -1.041131687149699
4869000000.0 -0.13161880726516645 -1.0375548411952802
4872000000.0 -0.1341721458249207 -1.051172164452792
4875000000.0 -0.04957583576567948 -1.0720777848514955
4878000000.0 -0.12506020057698752 -1.0304943179855939
4881000000.0 -0.18306835185493742 -1.0960842460887605
4884000000.0 -0.12837275452515665 -1.0528876670167786
4888000000.0 -0.10285251802145899 -1.0105413725120427
4891000000.0 -0.13357232862060964 -1.0539195664368242
4894000000.0 -0.1767565348537448 -1.0058824439761886
4897000000.0 -0.14021580062537767 -1.0299246593974611
4900000000.0 -0.17891657490978424 -1.0606502817135115
4903000000.0 -0.15567480776184883 -1.0123780360814825
4906000000.0 -0.20645200060650598 -1.0264926654122553
4909000000.0 -0.21007247739133925 -1.0068696369059118
4912000000.0 -0.22768299939334974 -1.0400681153294928
4916000000.0 -0.19879170644357727 -1.0405247142494636
4919000000.0 -0.1965697383896287 -1.0528663757378252
4922000000.0 -0.2050088433527709 -1.0423427501701705
4925000000.0 -0.276227467696073 -1.0308475279102756
4928000000.0 -0.18627534473216073 -0.9987733983611483
4931000000.0 -0.25549175205163854 -1.016651038833481
4934000000.0 -0.23394429658046684 -0.9776855893254215
4938000000.0 -0.30143731052869605 -0.9759967149611031
4941000000.0 -0.2710085385113549 -0.9728790077607951
4944000000.0 -0.27756717537281894 -0.9328159982224349
4947000000.0 -0.30708917078868225 -0.954427248574607
4950000000.0 -0.30887039625082374 -0.9933908953128009
4953000000.0 -0.34525205595736125 -0.9956125684078002
4956000000.0 -0.3712346669515622 -0.9759371713182852
4959000000.0 -0.385921062513641 -0.923226272003562
4962000000.0 -0.35227511960118074 -0.9835440845648149
4966000000.0 -0.33402068541444896 -0.9977959084036272
4969000000.0 -0.3400481665256625 -1.0026393030455771
4972000000.0 -0.38249861406896746 -0.9906222313322285
4975000000.0 -0.34263162580725115 -0.9794744372244183
4978000000.0 -0.41417323774537185 -0.9547729439004007
4981000000.0 -0.43174769549326664 -0.9455189652879579
4984000000.0 -0.4002656150906919 -0.9440577064367689
4988000000.0 -0.39948713856593915 -0.9446054211499412
4991000000.0 -0.37825932928738276 -0.9591304497395963
4994000000.0 -0.42325525548292897 -0.9556400217600102
4997000000.0 -0.48010973071148494 -0.9133221409248607
5000000000.0 -0.4598430581408134 -0.9560761465624645
5003000000.0 -0.4610456154031832 -0.9493874624911042
5006000000.0 -0.48786440381573193 -0.9644258255200509
5009000000.0 -0.46919365101634036 -0.9544004896392
5012000000.0 -0.5157011602450743 -0.918195114483471
5016000000.0 -0.4718367588696139 -0.9652971839002282
5019000000.0 -0.5150716960949197 -0.8919959202011619
5022000000.0 -0.5224405609122076 -0.9421675830640157
5025000000.0 -0.5530121754288653 -0.9644295162720278
5028000000.0 -0.5357766417746644 -0.9018507806003013
5031000000.0 -0.5470179902728515 -0.910856482602865
5034000000.0 -0.5816544831559969 -0.8838049554766879
5038000000.0 -0.5380978085655607 -0.8573798899088252
5041000000.0 -0.5351043951993341 -0.8966802286377803
5044000000.0 -0.5262951785682183 -0.8769402421011087
5047000000.0 -0.5393619007639212 -0.8875484476547945
5050000000.0 -0.5208372798904458 -0.9201056066995628
5053000000.0 -0.6252604264743687 -0.8600848439251692
5056000000.0 -0.5765593008144687 -0.8783349912410363
5059000000.0 -0.5536469108545876 -0.8833230164029698
5062000000.0 -0.6421045859886193 -0.8746786723010078
5066000000.0 -0.583385732784243 -0.9008120208626411
5069000000.0 -0.6177994940395011 -0.8516426205402673
5072000000.0 -0.612281544607351 -0.8472784343989617
5075000000.0 -0.5681677507531776 -0.8312862267425654
5078000000.0 -0.6823996389787663 -0.7961131275941117
5081000000.0 -0.6024780759920707 -0.8198058271417773
5084000000.0 -0.683999186927901 -0.8049181666962111
5088000000.0 -0.6494878561569161 -0.788372647597011
5091000000.0 -0.6682121432178421 -0.7717726886464882
5094000000.0 -0.6683781905658015 -0.8417429296164819
5097000000.0 -0.6873124006693174 -0.7996544440737889
5100000000.0 -0.7108442675753103 -0.7496445963638972
5103000000.0 -0.7704710993342324 -0.7584527503213151
5106000000.0 -0.7256754709458733 -0.8081846499314802
5109000000.0 -0.7143392559437469 -0.7511598411683336
5112000000.0 -0.7544999648500893 -0.7649923679747381
5116000000.0 -0.7203039971497205 -0.7485963250912934
5119000000.0 -0.7362901616265004 -0.7712033164309888
5122000000.0 -0.6930486975545009 -0.7390471049076184
5125000000.0 -0.682334070134473 -0.7244864713845505
5128000000.0 -0.7645524012744419 -0.7334894810639907
5131000000.0 -0.753225308793317 -0.7413430063648834
5134000000.0 -0.739296560245676 -0.6932358564276371
5138000000.0 -0.7320297194807556 -0.7081049466301786
5141000000.0 -0.7521644942815431 -0.7066999054579752
5144000000.0 -0.7606067410084341 -0.6814845602340808
5147000000.0 -0.7781295965684638 -0.7206262821911682
5150000000.0 -0.7798692116836744 -0.7475191846512546
5153000000.0 -0.8449958159277782 -0.6292232740720247
5156000000.0 -0.8111855181862073 -0.6615126684275888
5159000000.0 -0.825097495344192 -0.6839762909416619
5162000000.0 -0.8311909782473828 -0.6051932300124047
5166000000.0 -0.8604900388891332 -0.656548556841995
5169000000.0 -0.8178566789650591 -0.6557893689972273
5172000000.0 -0.8391020733729685 -0.6436230912760469
5175000000.0 -0.8355848890866732 -0.6524400574160037
5178000000.0 -0.8294465993549716 -0.6248539752261627
5181000000.0 -0.8511614618912382 -0.615499094882679
5184000000.0 -0.8532493675033046 -0.5961424977586914
5188000000.0 -0.8727215077697498 -0.5913014630191412
