! Created with skrf 1.8.0 (http://scikit-rf.org).
# Hz S RI R 50.0 
!freq ReS11 ImS11
4000000000.0 0.6162960842929531 0.7873063388673629
4003000000.0 0.660870832615828 0.8628581724688308
4006000000.0 0.6893485935611843 0.8125458945250142
4009000000.0 0.6786439617490141 0.8027512990159418
4012000000.0 0.6445514131423159 0.8489807478694725
4016000000.0 0.6660772464841356 0.7377013368640866
4019000000.0 0.6919327527317585 0.787933412701399
4022000000.0 0.5937699854740839 0.8199526728053992
4025000000.0 0.7491428436360469 0.7695764519066386
4028000000.0 0.746120473628346 0.747948365953945
4031000000.0 0.683136069505923 0.729957102036974
4034000000.0 0.7041624902583652 0.7332494808307835
4038000000.0 0.7687946169431331 0.715386876432917
4041000000.0 0.7375525649326071 0.7340038980188345
4044000000.0 0.7547166814296041 0.7830655527773789
4047000000.0 0.7318685991377493 0.7660743353034762
4050000000.0 0.780798027496203 0.6882841523919575
4053000000.0 0.7494342578535889 0.6650104674683832
4056000000.0 0.7782596530076815 0.7139429724488555
4059000000.0 0.7228074547506604 0.6703841006285847
4062000000.0 0.7701586190392314 0.6826753125554486
4066000000.0 0.7279707645630584 0.6637201124834864
4069000000.0 0.8036397720347199 0.6794295128440216
4072000000.0 0.7716479577743386 0.6592625320710159
4075000000.0 0.8350681753748662 0.7377014386657679
4078000000.0 0.8235536354981168 0.6790992528698376
4081000000.0 0.7855761929662249 0.7544307496880807
4084000000.0 0.8434848232576839 0.6847110386209689
4088000000.0 0.7677847701545889 0.6638185948395965
4091000000.0 0.8988881809229952 0.6613311909305375
4094000000.0 0.8270895439027998 0.6516588831662078
4097000000.0 0.8196471993840385 0.5919352702796767
4100000000.0 0.8486011848725695 0.6144193470876811
4103000000.0 0.8303608850675355 0.6316632903766852
4106000000.0 0.8425346520750419 0.6056513143955107
4109000000.0 0.8422758388331193 0.5797307083308811
4112000000.0 0.8694118642698185 0.6288079345811988
4116000000.0 0.8631333479878439 0.6136334906124996
4119000000.0 0.8640823338042422 0.5401647923610085
4122000000.0 0.907306536559808 0.5569247001049007
4125000000.0 0.9108599219797059 0.5796253007237113
4128000000.0 0.8210508055240555 0.5504889924050985
4131000000.0 0.8557629201601118 0.48977825317904733
4134000000.0 0.8575453508695209 0.5656708189485363
4138000000.0 0.8813627237169395 0.5436179210353171
4141000000.0 0.9001794492718759 0.4911480403761247
4144000000.0 0.9056892750068076 0.5261917491557828
4147000000.0 0.909586869908088 0.4980411129617887
4150000000.0 0.913619288030969 0.5053895577248637
4153000000.0 0.9095334584098388 0.48250660951286817
4156000000.0 0.9123389513441369 0.5299412874438322
4159000000.0 0.8839163078154806 0.49384580049172583
4162000000.0 0.9307858415229966 0.4590673162096687
4166000000.0 0.9203993631560392 0.4678663315442172
4169000000.0 0.9271830354698182 0.45925806986771245
4172000000.0 0.9469033612303716 0.47363106918360737
4175000000.0 0.9255364492496801 0.46208059231026605
4178000000.0 0.9720743816791791 0.4376106725555581
4181000000.0 0.915597958944937 0.41597717598715855
4184000000.0 0.9147090849192618 0.4397297029461478
4188000000.0 0.9304979066043346 0.3991879539196055
4191000000.0 0.9195520677524305 0.43367547331084483
4194000000.0 0.9187368470001807 0.4011188075160027
4197000000.0 0.9317470111296365 0.39088498254391696
4200000000.0 0.9640147410328104 0.40622920256741046
4203000000.0 0.9430478750607743 0.3867984151489694
4206000000.0 0.9719234710609576 0.3797059075170141
4209000000.0 0.9541994741687112 0.3620769083198659
4212000000.0 0.9611732374003913 0.3155035824609188
4216000000.0 0.9599218967288184 0.34906584092544585
4219000000.0 0.9727927216415868 0.3540673917582102
4222000000.0 0.9632441993826428 0.32062789994653335
4225000000.0 0.9837761349240677 0.3116075650042719
4228000000.0 0.9787842627696108 0.31152584294704055
4231000000.0 0.9882783888933147 0.30074547054718914
4234000000.0 0.9849740530031318 0.2992682890385454
4238000000.0 0.9838813139933172 0.2845610250319325
4241000000.0 0.968397882838129 0.2527815572526013
4244000000.0 0.9977459152662699 0.28827262299507567
4247000000.0 0.9873220551865792 0.28064931954299493
4250000000.0 0.9653174693658466 0.24006271214326774
4253000000.0 0.9594417370108494 0.23793536133615334
4256000000.0 1.0083230558727396 0.2536505946343548
4259000000.0 0.9750460595253768 0.22931104835255947
4262000000.0 1.004729596585664 0.19653337739734825
4266000000.0 1.0227230251621773 0.18157107889860213
4269000000.0 1.0045368822764338 0.20706403102062085
4272000000.0 0.9961532786443774 0.2056685007090998
4275000000.0 1.0096585858088734 0.1846190144571873
4278000000.0 1.0218896148246688 0.20772523541893373
4281000000.0 1.0259795892366448 0.1909429551582476
4284000000.0 1.0267661398670263 0.1492732372906623
4288000000.0 1.0168939030929962 0.17715501547712553
4291000000.0 0.9850170722057091 0.13128512998715125
4294000000.0 1.0098649189010354 0.12246127736344607
4297000000.0 0.9744940107664268 0.1466005623195405
4300000000.0 0.974802095871713 0.1247534067188095
4303000000.0 1.0140917584656515 0.1035314092723683
4306000000.0 1.0444559418389756 0.13785063395030542
4309000000.0 1.0194263057772175 0.11348491989442695
4312000000.0 1.013612243559981 0.12380033029450066
4316000000.0 1.0306592148471725 0.13362866110589017
4319000000.0 0.9969097874476605 0.06456988608367627
4322000000.0 0.9835980252147305 0.046578513793013795
4325000000.0 1.0160098867963614 0.07805611276343515
4328000000.0 1.0291352836255543 0.05209083634200333
4331000000.0 1.0378228949111739 0.025303215265396417
4334000000.0 1.0264211657103675 0.03904600457650398
4338000000.0 1.0228140992797434 0.030951685627521222
4341000000.0 1.041657306866139 0.04706683141582016
4344000000.0 1.0338390866960587 0.01298706997644114
4347000000.0 1.0241731554752402 -0.0024312099237215334
4350000000.0 0.9855449736417339 -0.04408513406784968
4353000000.0 1.0019928047371096 -0.011605362467318026
4356000000.0 0.9980595882506675 -0.03185259953768757
4359000000.0 0.9776558518309477 -0.03628313094758881
4362000000.0 1.019134810084459 -0.10486623769862821
4366000000.0 1.0209769179132357 -0.07293069851907423
4369000000.0 0.9592428641925164 -0.09634894486032104
4372000000.0 0.9982574821043686 -0.13272703737600966
4375000000.0 1.0000120455492774 -0.07925912624837037
4378000000.0 0.9854241034107778 -0.0769944082782596
4381000000.0 0.9928161592629181 -0.08484451797960403
4384000000.0 1.0722911830373314 -0.12227399443860623
4388000000.0 0.9951240303222553 -0.10119628245510384
4391000000.0 1.0223938813456612 -0.13553775191653689
4394000000.0 0.9946516985567189 -0.1291901421223847
4397000000.0 1.0006627144776057 -0.1428147719604543
4400000000.0 1.0274035343336316 -0.1624870503559161
4403000000.0 1.0146021818070188 -0.1564435194898588
4406000000.0 0.9918669398574319 -0.20318936160278625
4409000000.0 1.0257448287771271 -0.20534732707456307
4412000000.0 0.970707011170846 -0.253864274207626
4416000000.0 0.9842309969442304 -0.19885034203742724
4419000000.0 0.9899193335809542 -0.23157825117534114
4422000000.0 0.9743835730644483 -0.19367489174808133
4425000000.0 1.0204152857122022 -0.20144215324860681
4428000000.0 0.9799450053601774 -0.23451227021695956
4431000000.0 1.0129606932522077 -0.24263238253009767
4434000000.0 0.9737435844296676 -0.2504403997829955
4438000000.0 0.998176667121982 -0.24521974508518746
4441000000.0 0.9813329505157593 -0.2594451487379006
4444000000.0 0.9531763258617685 -0.2829330798012881
4447000000.0 0.9506685025451419 -0.29725402266237433
4450000000.0 0.9686582020014214 -0.27195678541693025
4453000000.0 0.998066717570648 -0.3077747812896777
4456000000.0 0.9419630834253659 -0.31215796418745956
4459000000.0 0.9124459906136533 -0.3342223613262189
4462000000.0 1.0235421366023407 -0.3432172869454494
4466000000.0 0.98637824878931 -0.35937991227412586
4469000000.0 0.9615176368106535 -0.3204365662103563
4472000000.0 0.9354991928660564 -0.37886154457161736
4475000000.0 0.923125230629975 -0.3496476482068839
4478000000.0 0.9739993337145763 -0.40183237064237676
4481000000.0 0.901380338568523 -0.37129839297504047
4484000000.0 0.9269258941052962 -0.40037196194024927
4488000000.0 0.9164166552153344 -0.4035692445550648
4491000000.0 0.9373691277898892 -0.4242095408961665
4494000000.0 0.9181157315408716 -0.4064249039065967
4497000000.0 0.9174791558363407 -0.41020587059865693
4500000000.0 0.9413444815043499 -0.4103274184882696
4503000000.0 0.922423735044396 -0.4333400516114445
4506000000.0 0.9116019051234658 -0.43348081272260824
4509000000.0 0.8886555747303782 -0.43480261959016353
4512000000.0 0.8805460858700656 -0.4655154161792022
4516000000.0 0.9222114703901576 -0.4681888436089313
4519000000.0 0.8731907566745838 -0.4625829475632305
4522000000.0 0.883673477938518 -0.4905993350673203
4525000000.0 0.8877271619033229 -0.458665518392367
4528000000.0 0.906530312049598 -0.5356355765709523
4531000000.0 0.8862188642708041 -0.5015345690326934
4534000000.0 0.8528369369073455 -0.4973701607848551
4538000000.0 0.8473701822428188 -0.5149733434242342
4541000000.0 0.8196452804102242 -0.5453333475953732
4544000000.0 0.839651993074485 -0.516979164584672
4547000000.0 0.8683548652637342 -0.5243554899345342
4550000000.0 0.8477049891533441 -0.5629090474297116
4553000000.0 0.8438158209171349 -0.5677761624056769
4556000000.0 0.8038939999086738 -0.5650860103496701
4559000000.0 0.8285748444371966 -0.5844974935188956
4562000000.0 0.8348511373315968 -0.5794050170682757
4566000000.0 0.8319063226726386 -0.6081278984719789
4569000000.0 0.7995273693101649 -0.5721369585488896
4572000000.0 0.8092252975157648 -0.6040639337996985
4575000000.0 0.793629244376806 -0.6372516676591304
4578000000.0 0.8357448750061012 -0.6171710874375977
4581000000.0 0.8032510470958335 -0.628267546221768
4584000000.0 0.7911233548174331 -0.6253618309350601
4588000000.0 0.8281090160095613 -0.6560582842243182
4591000000.0 0.7803997722665594 -0.621837048348499
4594000000.0 0.7480132155490411 -0.6557151434076618
4597000000.0 0.7665163043805872 -0.6643283226031422
4600000000.0 0.7343323817296739 -0.669699967133172
4603000000.0 0.7523407564611908 -0.6863571808475589
4606000000.0 0.7498674021436619 -0.6791238198978424
4609000000.0 0.7551666066856255 -0.6970828886392866
4612000000.0 0.7614923723756178 -0.7009025146054576
4616000000.0 0.7229937802367121 -0.6947515051435825
4619000000.0 0.7281414909353441 -0.7084981058682746
4622000000.0 0.7187434368125684 -0.6909112886888765
4625000000.0 0.6755475390770568 -0.699240909533769
4628000000.0 0.707068428020996 -0.701613003482433
4631000000.0 0.6930188313100023 -0.7282238581983345
4634000000.0 0.7096048682456843 -0.7377203922270996
4638000000.0 0.690617450185225 -0.7477680314571742
4641000000.0 0.6886834113595496 -0.7529657310237894
4644000000.0 0.6840663446998504 -0.7529890693270501
4647000000.0 0.671326116078047 -0.7530962335174298
4650000000.0 0.6517558307074179 -0.7812211843789802
4653000000.0 0.6598745343390847 -0.795232158372293
4656000000.0 0.6414471948236755 -0.7959049160015723
4659000000.0 0.6438214850107019 -0.783263765797682
4662000000.0 0.6374415692432599 -0.7980925889606798
4666000000.0 0.6361169709370055 -0.8105478373691748
4669000000.0 0.6403501242894707 -0.7912945399840158
4672000000.0 0.5919184903407961 -0.835647926569118
4675000000.0 0.5977173721150106 -0.8295942206835778
4678000000.0 0.5956529607744314 -0.8259192677681682
4681000000.0 0.5774973871030951 -0.8528005714847992
4684000000.0 0.5727103779584752 -0.8288268148297517
4688000000.0 0.5412339744029306 -0.8496679361236752
4691000000.0 0.5721016167593307 -0.8366708398113143
4694000000.0 0.5703430916329598 -0.8449087197781158
4697000000.0 0.5107685221846047 -0.8514851538584598
4700000000.0 0.5567923993686428 -0.8452831188584284
4703000000.0 0.555425133156447 -0.8316627854138028
4706000000.0 0.5221627707653654 -0.8911970018761346
4709000000.0 0.5000273872786241 -0.8673612532472121
4712000000.0 0.526982413082287 -0.8620360535960719
4716000000.0 0.5177180042087743 -0.8809399661397137
4719000000.0 0.543580664072739 -0.8800658289818589
4722000000.0 0.5189644905855042 -0.8769450946863426
4725000000.0 0.5025900395507613 -0.8531128580043057
4728000000.0 0.4440924488751196 -0.8566744460166005
4731000000.0 0.4743856062735038 -0.923345645859547
4734000000.0 0.4706203537403829 -0.8612270596310562
4738000000.0 0.47018209035223896 -0.9316238454986695
4741000000.0 0.4423166185305777 -0.9390304300171043
4744000000.0 0.41929458941216413 -0.9239203672036242
4747000000.0 0.46332356322185847 -0.9013662695705902
4750000000.0 0.41959949313286876 -0.9449928057434023
4753000000.0 0.42288891010358987 -0.9375756488301003
4756000000.0 0.4040154960299709 -0.9503593956281435
4759000000.0 0.42163390490946456 -0.9582889873890131
4762000000.0 0.369940589376591 -0.9517500055954065
4766000000.0 0.34795181275883724 -0.9514362410629814
4769000000.0 0.38172546509539995 -0.9277693669233938
4772000000.0 0.38100594110638375 -0.9642199792931441
4775000000.0 0.3404779345354486 -0.9784905353382563
4778000000.0 0.370265413814868 -0.9519488238445281
4781000000.0 0.3643542716179285 -0.9257451760052395
4784000000.0 0.3729513697603641 -0.9222071377871409
4788000000.0 0.29670512353748746 -0.9780486207855674
4791000000.0 0.30953303649767894 -0.9530725241872634
4794000000.0 0.3340579082301194 -0.9915192577676073
4797000000.0 0.2994569313979941 -0.9734883762799694
4800000000.0 0.2950623854439871 -0.963339261206011
4803000000.0 0.24893142134689744 -1.0002021575744584
4806000000.0 0.28851555381320765 -1.0131409604980453
4809000000.0 0.24849820809551876 -0.9954202892434555
4812000000.0 0.2243310444055248 -0.9946934318572533
4816000000.0 0.28116950537630525 -0.9660998672012417
4819000000.0 0.27258997031957016 -1.022861090294009
4822000000.0 0.26108968405018856 -1.041097229435465
4825000000.0 0.2836896633489771 -1.0080659125548224
4828000000.0 0.20783616655793422 -0.9847248660184246
4831000000.0 0.17982130373988117 -1.0087674150707504
4834000000.0 0.23788500661673478 -1.0200346671547544
4838000000.0 0.18597636561947567 -1.0309096493837961
4841000000.0 0.17970821513336394 -1.011606099664487
4844000000.0 0.2193999291422744 -1.0175232387244937
4847000000.0 0.2020122399319984 -0.979238650638113
4850000000.0 0.14302083937761056 -1.0352865860516227
4853000000.0 0.15816613075402775 -0.994697809325295
4856000000.0 0.16045659423412162 -1.0106887940972158
4859000000.0 0.13989853974275623 -1.054081808721219
4862000000.0 0.1609528820793874 -1.0129609123822854
4866000000.0 0.10363261855608788 -1.0337053319938523
4869000000.0 0.10038830861530647 -1.0276585206317912
4872000000.0 0.09241686636145745 -1.0469523510917396
4875000000.0 0.15374392224940697 -1.0607554633658414
4878000000.0 0.08402957718541454 -1.0184201331204763
4881000000.0 0.04991361324281912 -1.0982448470742214
4884000000.0 0.08902609517952405 -1.0354379762467478
4888000000.0 0.10761747443258371 -1.0088233002406728
4891000000.0 0.06193299849027968 -1.0508187888468652
4894000000.0 0.06445884363080462 -1.0189464591591113
4897000000.0 0.07879902080932157 -1.0231496934988258
4900000000.0 0.03838535571269583 -1.065793025945361
4903000000.0 0.03253040438161495 -1.0452264469402146
4906000000.0 0.0008283930490857409 -1.0720751208395902
4909000000.0 -0.0019744993679487594 -1.0634280901741158
4912000000.0 -0.015100685935763948 -1.0862767219796712
4916000000.0 -0.010182974585650081 -1.069057751259571
4919000000.0 0.017818231959441648 -1.0569148199649496
4922000000.0 0.02633843964910581 -1.044585409331268
4925000000.0 -0.06039523488660274 -1.0072719038663978
4928000000.0 0.05592404908361379 -0.9980536386960972
4931000000.0 -0.01243622891352511 -1.0646824496472922
4934000000.0 -0.02466766400391364 -0.975734242323181
4938000000.0 -0.09032527044927045 -1.0376254418359299
4941000000.0 -0.06663832626690562 -1.0338236095879951
4944000000.0 -0.03461225899676659 -0.966480541180406
4947000000.0 -0.0854117937289691 -0.9851661070749193
4950000000.0 -0.14262654292992077 -1.0124222766685316
4953000000.0 -0.1542362038809314 -1.0442389508161471
4956000000.0 -0.1277524672229285 -1.0051998975578764
4959000000.0 -0.15112249381152917 -0.9827349226481507
4962000000.0 -0.16202410227274563 -1.0577307130675881
4966000000.0 -0.1087425154900612 -1.0333236786930466
4969000000.0 -0.14241838269914986 -1.0715791789644213
4972000000.0 -0.13935622534282918 -1.045626106828716
4975000000.0 -0.12269131108372913 -1.0015722600125867
4978000000.0 -0.1718963046604821 -1.0278475179424806
4981000000.0 -0.1803466893524097 -1.0232209148113542
4984000000.0 -0.1996498416920923 -0.9858956640900771
4988000000.0 -0.17094134819153745 -1.0063447064935476
4991000000.0 -0.1474063921796312 -1.0466818765926518
4994000000.0 -0.1955087159278549 -1.0093937693566326
4997000000.0 -0.271567268168474 -0.9687170516652839
5000000000.0 -0.1995904292330919 -1.0574361750112633
5003000000.0 -0.22584895772193408 -1.0572641506211906
5006000000.0 -0.26966074445216404 -1.0631255075052999
5009000000.0 -0.22723739242068056 -1.0071965388307924
5012000000.0 -0.2700197591616586 -0.9950075336578941
5016000000.0 -0.23759053585894402 -1.035699899679884
5019000000.0 -0.26950823314359 -0.992396167071625
5022000000.0 -0.3116876720579329 -0.998438942864623
5025000000.0 -0.3021291690825402 -1.0980192141874532
5028000000.0 -0.3085738289627401 -1.0115790016479616
5031000000.0 -0.3307865122678707 -0.9864373895524213
5034000000.0 -0.35081947688434245 -1.0002180029890684
5038000000.0 -0.3416728539738878 -0.9642057789422132
5041000000.0 -0.29757948642134247 -0.9851765582620645
5044000000.0 -0.2941485727186085 -0.9929728443390505
5047000000.0 -0.35628855434915735 -0.9735440451727274
5050000000.0 -0.28225400894934805 -0.9938640471173243
5053000000.0 -0.36453169721807976 -1.0304588647831057
5056000000.0 -0.3475376112960109 -0.9987416465369499
5059000000.0 -0.31655477680174254 -1.0008720065789407
5062000000.0 -0.39563173145622876 -0.9835520855022111
5066000000.0 -0.33824602651776525 -0.979235799193853
5069000000.0 -0.41164433113088095 -0.995557312088235
5072000000.0 -0.3865499823907929 -0.9566959334281213
5075000000.0 -0.39118370889445486 -0.9872592029433205
5078000000.0 -0.4113396382346542 -0.9698575786233234
5081000000.0 -0.43031717297935973 -0.8778856100680071
5084000000.0 -0.4371264673533928 -0.9791908232416289
5088000000.0 -0.4451107298494429 -0.9757087436221354
5091000000.0 -0.4847932229144007 -0.9459358882289601
5094000000.0 -0.4552783848739111 -0.9683161339900924
5097000000.0 -0.447115846284023 -0.9504913543349973
5100000000.0 -0.4722131655587675 -0.9051077111184443
5103000000.0 -0.5256688114318518 -0.9377399654479027
5106000000.0 -0.479900113228617 -0.9802549374135785
5109000000.0 -0.4140965373985556 -0.9109194293780973
5112000000.0 -0.5044265672550756 -0.9178351470893997
5116000000.0 -0.46761160768407195 -0.8833778410946902
5119000000.0 -0.5659701894890169 -0.8826044753790596
5122000000.0 -0.4894956143387288 -0.8881262516118111
5125000000.0 -0.5061551072209299 -0.9106648746065471
5128000000.0 -0.5212172950122314 -0.885075431043993
5131000000.0 -0.5055380713159229 -0.894570719011396
5134000000.0 -0.5238398932378773 -0.8033994498493231
5138000000.0 -0.5096569001860469 -0.8735050801164157
5141000000.0 -0.5422498510161138 -0.9567086113580401
5144000000.0 -0.6031220869584178 -0.9053341979629659
5147000000.0 -0.6156004869805793 -0.9399862499499736
5150000000.0 -0.5249854887250865 -0.9042604704820925
5153000000.0 -0.6024874363214165 -0.8761469687707649
5156000000.0 -0.5896061554288244 -0.916699267310907
5159000000.0 -0.6260436939911534 -0.8684643561391295
5162000000.0 -0.5974350745137667 -0.878033846077519
5166000000.0 -0.6143763099944112 -0.8339751780770821
5169000000.0 -0.6198296780038185 -0.8425465260112912
5172000000.0 -0.5841595048613856 -0.8100399408154968
5175000000.0 -0.6249489299771034 -0.8402779720357427
5178000000.0 -0.6560561354113714 -0.8341491386201564
5181000000.0 -0.6702184994677153 -0.8880449950194649
5184000000.0 -0.6542069325144357 -0.7785187819421215
5188000000.0 -0.6198035836207115 -0.7891906189478742
