! Created with skrf 1.8.0 (http://scikit-rf.org).
# Hz S RI R 50.0 
!freq ReS11 ImS11
4000000000.0 0.6215838428078098 0.8183249711078668
4003000000.0 0.7093291509101547 0.851440741991088
4006000000.0 0.6436202499551277 0.7580894985922788
4009000000.0 0.6315744374502025 0.7740727554247441
4012000000.0 0.6575645819922415 0.8523952630994713
4016000000.0 0.7088438039144435 0.7435159470903916
4019000000.0 0.6816937109907146 0.7421355362893447
4022000000.0 0.6416452252465347 0.7949290692234559
4025000000.0 0.7370380934320366 0.7255062501811822
4028000000.0 0.7287000092224212 0.7127043482848754
4031000000.0 0.6444595084468865 0.6991049941796227
4034000000.0 0.7074419453470787 0.7569257028142741
4038000000.0 0.7552437125022741 0.688079406400766
4041000000.0 0.7358543580262007 0.7158876359703905
4044000000.0 0.7648897811103635 0.7598308365904817
4047000000.0 0.7788263021648445 0.759677503092622
4050000000.0 0.7730472837521661 0.7053078279205691
4053000000.0 0.7665242663959424 0.6591070531068197
4056000000.0 0.752733019773355 0.7275326001346947
4059000000.0 0.7462934239094293 0.6779108697675691
4062000000.0 0.7868456694154266 0.6609083338330921
4066000000.0 0.7064255254306635 0.6296640199810484
4069000000.0 0.8302221820142603 0.7110522967790734
4072000000.0 0.7092276400087891 0.6980619666230352
4075000000.0 0.7737617216810935 0.7096252748614862
4078000000.0 0.813277499564295 0.6480535605632091
4081000000.0 0.7602865554136117 0.667887870481739
4084000000.0 0.8456987019299077 0.6145883103843754
4088000000.0 0.7780223560822139 0.6613563337490299
4091000000.0 0.8197566497169965 0.6314310246430941
4094000000.0 0.8123085428803074 0.6136770473736458
4097000000.0 0.8386453912625854 0.5737425923478046
4100000000.0 0.8277623798463793 0.5946007790919818
4103000000.0 0.8268649055506545 0.6382735220518152
4106000000.0 0.8648650003344307 0.577120841588288
4109000000.0 0.8800349326365413 0.5595517901429583
4112000000.0 0.8598108491278376 0.5555476467304379
4116000000.0 0.8397381753221069 0.6227559950698612
4119000000.0 0.8853013227102677 0.556376287505534
4122000000.0 0.8759127587530777 0.5425021768573952
4125000000.0 0.9049420570173928 0.5191973802159844
4128000000.0 0.8329218911107642 0.5389923845546793
4131000000.0 0.8689711567692915 0.5091019985470498
4134000000.0 0.8797554653571759 0.5523536367237322
4138000000.0 0.8576416814601133 0.490515590433871
4141000000.0 0.8785988957484396 0.47772579904566115
4144000000.0 0.9114019318540622 0.487530927730587
4147000000.0 0.8755606411132145 0.49156831691784847
4150000000.0 0.9245621958998593 0.5222638456693995
4153000000.0 0.8949636673421845 0.4769779249729563
4156000000.0 0.9122294140148919 0.5041535382015426
4159000000.0 0.8992305229357778 0.477923909643349
4162000000.0 0.8980593448528396 0.4608873647344618
4166000000.0 0.9367812627293424 0.4274373261100346
4169000000.0 0.9334062312589066 0.426261966599211
4172000000.0 0.9368532131698452 0.4680998385808401
4175000000.0 0.9377912660594675 0.4496487676837972
4178000000.0 0.9437511333182221 0.4338464870273686
4181000000.0 0.9464368470758884 0.41893937541527826
4184000000.0 0.9409521131451466 0.42334005136962954
4188000000.0 0.9358464907115187 0.40762134479817214
4191000000.0 0.8867539240481467 0.4038772613936095
4194000000.0 0.9196355752410461 0.3630777996977099
4197000000.0 0.9654481551921061 0.3852410056223557
4200000000.0 0.9394880430997166 0.3848631073576846
4203000000.0 0.9655799086657111 0.40974863935441297
4206000000.0 0.9799427674882489 0.34461146217718036
4209000000.0 0.9554743547142062 0.3425814961572586
4212000000.0 0.9683300473408282 0.29441125590035144
4216000000.0 0.9625068609581937 0.3506399441984575
4219000000.0 0.9796552702094385 0.3402613331636768
4222000000.0 0.9625262050880541 0.2862825242486534
4225000000.0 0.9610951647020851 0.3086131445852951
4228000000.0 0.9762085251318746 0.30334216135885383
4231000000.0 0.9908700305497002 0.2874709473941912
4234000000.0 0.9933783366109735 0.2920037754014494
4238000000.0 0.9893124050814727 0.2607817426728364
4241000000.0 0.9633272381607811 0.25263123612499105
4244000000.0 0.9741546894815224 0.2613733990947238
4247000000.0 0.9876364197710121 0.24876296952306037
4250000000.0 0.9683709486732095 0.2237645343511635
4253000000.0 0.970054725335395 0.2176507008958144
4256000000.0 1.003171889430363 0.21704961483030777
4259000000.0 0.9581565704302094 0.19418864072108574
4262000000.0 1.0072234760634415 0.1794578529494875
4266000000.0 1.0122014848102032 0.17113931327994109
4269000000.0 1.0088555469151483 0.20085267015782973
4272000000.0 0.9976810744574772 0.17340290678403758
4275000000.0 1.0029752246882935 0.15739686215067272
4278000000.0 1.0162736110824264 0.17461588925201088
4281000000.0 0.998290704447076 0.1832185134488985
4284000000.0 1.0218417077253044 0.11123885395871128
4288000000.0 1.0055331832601828 0.14795779837075954
4291000000.0 0.9939625360252519 0.1241621124468456
4294000000.0 0.9885012210141499 0.09684129800855733
4297000000.0 0.9953930759364028 0.11374692822310768
4300000000.0 0.9980234224650533 0.11537244384473253
4303000000.0 1.001074118815085 0.0792650463690895
4306000000.0 1.0115942930062258 0.12180054488381659
4309000000.0 0.9882127736097968 0.0911429096255519
4312000000.0 1.0207490120945741 0.10030330769493417
4316000000.0 1.0269985133574 0.06351869379148413
4319000000.0 1.0016166487671494 0.07311423503515103
4322000000.0 0.990064014002376 0.03258510213560013
4325000000.0 1.008709528974071 0.053771398390503836
4328000000.0 1.0214732722522406 0.03443149028375557
4331000000.0 1.030951116922767 -0.0112610256035829
4334000000.0 1.0008334174568798 -0.015070003509393401
4338000000.0 1.027374177047093 0.03640592642597319
4341000000.0 1.044857845228604 0.023183354599932426
4344000000.0 1.0070330051718672 -0.0255751800074195
4347000000.0 1.0009572900008283 -0.050702420947467366
4350000000.0 0.970256149018731 -0.03920676904361589
4353000000.0 0.980835211045153 -0.012589796252891111
4356000000.0 0.9961982388665783 -0.07437231400206276
4359000000.0 0.9624017696996515 -0.04776857551838497
4362000000.0 1.010420674316851 -0.12186017862953215
4366000000.0 1.022923504030932 -0.06243780288064418
4369000000.0 0.9766155991400353 -0.10568462538792141
4372000000.0 0.9848818553244527 -0.14514552761839933
4375000000.0 0.9964359267363121 -0.0895730917131381
4378000000.0 0.9816006793082808 -0.10142629192079894
4381000000.0 0.9798832306927181 -0.11045032503355362
4384000000.0 1.0545392268196048 -0.15972304115150615
4388000000.0 0.9819999405546971 -0.13562577906323134
4391000000.0 0.9973266214062022 -0.14499939539717688
4394000000.0 0.9674872020383088 -0.15537704758422088
4397000000.0 0.984023714144302 -0.1728831581234644
4400000000.0 1.0195290564587787 -0.18231818263329655
4403000000.0 1.002370334713305 -0.1809623049196098
4406000000.0 0.9873393595524265 -0.21286132664711807
4409000000.0 1.0153797429810125 -0.20598969149287893
4412000000.0 0.9595574399511302 -0.26765044012437555
4416000000.0 0.9714361695544489 -0.2416579918334038
4419000000.0 0.984681878623507 -0.24949431730816854
4422000000.0 0.9877270025403717 -0.21373792892463164
4425000000.0 1.0002796284780178 -0.2262123043768688
4428000000.0 0.9599679858511586 -0.24610267632253094
4431000000.0 1.006646509766465 -0.26368451691508843
4434000000.0 0.9678012508173283 -0.2736765721261575
4438000000.0 0.9926377603283223 -0.28157213897717975
4441000000.0 0.9946265930321019 -0.2800904808491471
4444000000.0 0.9479027597645808 -0.28998588325077806
4447000000.0 0.9446663639802527 -0.3290869148365249
4450000000.0 0.9696965257285842 -0.2937666048277201
4453000000.0 0.9791841735190852 -0.3118244883988599
4456000000.0 0.9367288027609479 -0.33431666440534197
4459000000.0 0.9098034468215419 -0.33221617240628487
4462000000.0 1.0061446790868118 -0.37288987302721105
4466000000.0 0.97100767566232 -0.36655118914641227
4469000000.0 0.9422178576819422 -0.3467190543880697
4472000000.0 0.9514932272762379 -0.3922153810518781
4475000000.0 0.9143018401531042 -0.36659724860357795
4478000000.0 0.954033542698807 -0.41717163192985185
4481000000.0 0.9004237623474876 -0.4016246337507438
4484000000.0 0.8998220506977526 -0.4529199763666141
4488000000.0 0.9052322360860992 -0.4207019149208896
4491000000.0 0.9234519621671113 -0.44423322994226516
4494000000.0 0.8925691415442409 -0.4218227401524088
4497000000.0 0.8996010844867071 -0.4137450841688426
4500000000.0 0.8881163607989826 -0.42742888442509813
4503000000.0 0.9113314530237284 -0.4439793722646881
4506000000.0 0.8937940518251977 -0.4635158892646346
4509000000.0 0.8860005095914671 -0.4748734648573041
4512000000.0 0.8767060023883693 -0.4713971367197336
4516000000.0 0.9174798383096102 -0.4934001612563595
4519000000.0 0.8699025622459359 -0.473352642683635
4522000000.0 0.8794073643410236 -0.5171132750157093
4525000000.0 0.8762596947013381 -0.49404272414891826
4528000000.0 0.8912946318412103 -0.5191815750817801
4531000000.0 0.875687963769627 -0.4926671316732021
4534000000.0 0.8430582178676114 -0.5406253769871289
4538000000.0 0.8491351982924644 -0.5242020898061037
4541000000.0 0.8143137915700073 -0.5708907309598187
4544000000.0 0.848441852828018 -0.5475094409530443
4547000000.0 0.837421337452737 -0.538827179830863
4550000000.0 0.8165531327006557 -0.5969338911432027
4553000000.0 0.8251228234081001 -0.5775223180831994
4556000000.0 0.79516031356485 -0.588449480884926
4559000000.0 0.8176811476354999 -0.6004167099208011
4562000000.0 0.8173308895648372 -0.5949009655522185
4566000000.0 0.8029001524450783 -0.6007581520370946
4569000000.0 0.7943997921944062 -0.6044968514468019
4572000000.0 0.7942309303001504 -0.6081761104993814
4575000000.0 0.7804376951765071 -0.6633938461743386
4578000000.0 0.8153230618082772 -0.6381225513897885
4581000000.0 0.7716624916615421 -0.6550551468645961
4584000000.0 0.7425962837786172 -0.6504858538577923
4588000000.0 0.7569306806934983 -0.659256017927101
4591000000.0 0.789952556156306 -0.6572459308813432
4594000000.0 0.7340325059873929 -0.6702963307324281
4597000000.0 0.750916689378039 -0.6759517849458988
4600000000.0 0.7051941601190965 -0.702062040223693
4603000000.0 0.7452247456466766 -0.6831488145921776
4606000000.0 0.7564019365732993 -0.6942428413653693
4609000000.0 0.7222362629533708 -0.6901657041562523
4612000000.0 0.7173062095656436 -0.7126258834458691
4616000000.0 0.7076942207186021 -0.7090363011226365
4619000000.0 0.7014547933274546 -0.7180193896746039
4622000000.0 0.7070205162131298 -0.7277354133954824
4625000000.0 0.6640678310110799 -0.7358531878329018
4628000000.0 0.686872800597294 -0.7245246677897127
4631000000.0 0.6578683121012456 -0.749652615766172
4634000000.0 0.671309609970036 -0.7567307756199156
4638000000.0 0.6591058990571428 -0.7660034356289682
4641000000.0 0.6525670115485934 -0.7669801906674589
4644000000.0 0.6395113329404576 -0.765483525968222
4647000000.0 0.6575246972366436 -0.7662741883387458
4650000000.0 0.6142379046449327 -0.7868738370568071
4653000000.0 0.6503135745306944 -0.7854715861327862
4656000000.0 0.6326783087627716 -0.7923973645450728
4659000000.0 0.590541455584181 -0.7923795758690747
4662000000.0 0.6271729464453698 -0.8119934259482423
4666000000.0 0.5674359621751711 -0.8199033426209863
4669000000.0 0.6219497456888499 -0.8094261317414853
4672000000.0 0.5851503573215636 -0.8577580655869762
4675000000.0 0.5700521615020097 -0.8302537528386353
4678000000.0 0.569472756061016 -0.8166736905841058
4681000000.0 0.5450987691216911 -0.8545497527865497
4684000000.0 0.5364412244779858 -0.8403856514376296
4688000000.0 0.5445895356364554 -0.8460869686065416
4691000000.0 0.5411702765650488 -0.8426199657160149
4694000000.0 0.5397621210123837 -0.8401670931602232
4697000000.0 0.5138726202470734 -0.8347077982655768
4700000000.0 0.5379436469381942 -0.8586895701576067
4703000000.0 0.5288753365304872 -0.8382755546925436
4706000000.0 0.521106778780162 -0.8884450663854393
4709000000.0 0.4819781965730321 -0.8713615233325593
4712000000.0 0.5047771834332904 -0.871164848236737
4716000000.0 0.4986228383574979 -0.9014029209303136
4719000000.0 0.503714806730303 -0.8866596061914044
4722000000.0 0.5050842977611868 -0.8621188158763304
4725000000.0 0.4693539216031145 -0.8899690845714388
4728000000.0 0.43822897970313696 -0.899844666394281
4731000000.0 0.4497560136134801 -0.9266204852916897
4734000000.0 0.46392945207875613 -0.8976904671928951
4738000000.0 0.45222161879307154 -0.9389281968335518
4741000000.0 0.4236401220895953 -0.9439927330634296
4744000000.0 0.4123925912826877 -0.9361066543883805
4747000000.0 0.41286745155185045 -0.9167276949141132
4750000000.0 0.4030925235069227 -0.9359902485543665
4753000000.0 0.39472518059441497 -0.9221340320513232
4756000000.0 0.41144169830366406 -0.9488378248191702
4759000000.0 0.39760567194447394 -0.9666878607622503
4762000000.0 0.35504314488401145 -0.9406078353407767
4766000000.0 0.35617082226868385 -0.9507556352903089
4769000000.0 0.3579481747370896 -0.9580410330558325
4772000000.0 0.33366818284909683 -0.9711242457754724
4775000000.0 0.3336949038306849 -0.987010851179263
4778000000.0 0.33783287674765816 -0.9823541524540668
4781000000.0 0.33700448311141673 -0.9370049374486407
4784000000.0 0.32352415593907013 -0.9659246190124792
4788000000.0 0.27882193284882467 -0.9990165136280766
4791000000.0 0.2930898083798134 -0.9655112327187044
4794000000.0 0.3078923022759437 -1.0025057390188719
4797000000.0 0.266379310190643 -0.9766778260951282
4800000000.0 0.24657720955342222 -0.9549552011332942
4803000000.0 0.21720596118067992 -0.9729095397754497
4806000000.0 0.2648755367160014 -1.003460932610253
4809000000.0 0.2044459900068155 -0.9896327207879069
4812000000.0 0.18888920347682292 -0.9803374640262281
4816000000.0 0.2308887949779166 -0.9905435608916842
4819000000.0 0.2597894578003953 -1.0149648988953819
4822000000.0 0.25497137801175335 -1.0231335854126948
4825000000.0 0.22729948231099034 -1.0318315862709293
4828000000.0 0.206023172308805 -0.9964506106443517
4831000000.0 0.14917857260810968 -1.0575355914935127
4834000000.0 0.23306918342656002 -1.008308614160693
4838000000.0 0.15603947892216619 -1.0099232634381186
4841000000.0 0.1558624474800147 -1.0049809850467835
4844000000.0 0.18556029864822415 -1.01587271015018
4847000000.0 0.16784970136289432 -0.9722062665733497
4850000000.0 0.12371189678865073 -1.0328563154021249
4853000000.0 0.12479975008145772 -0.9908494958016438
4856000000.0 0.1231093318768479 -0.9955573906457466
4859000000.0 0.11185243184357443 -1.0472233800258022
4862000000.0 0.12144992578709868 -0.9946141049360168
4866000000.0 0.07584788124608222 -1.0326048569153377
4869000000.0 0.08067819501850781 -1.026980899714218
4872000000.0 0.04988752474468661 -1.0577520473085666
4875000000.0 0.10001678930580102 -1.0695314624003198
4878000000.0 0.06362786505494691 -1.0318606018696097
4881000000.0 0.04477732952672329 -1.0716023727882555
4884000000.0 0.052835540598445266 -1.046163652946614
4888000000.0 0.06436835240280409 -1.033776703899656
4891000000.0 0.046202792278620966 -1.017584686493875
4894000000.0 0.00724774849618974 -1.0208468065472
4897000000.0 0.05087313956827624 -1.013437337185752
4900000000.0 0.025730642240343042 -1.0590776372161266
4903000000.0 0.0018156948272433013 -1.0366493957944436
4906000000.0 -0.007169113176199414 -1.0357693082766128
4909000000.0 -0.041448948200894516 -1.0312032827926492
4912000000.0 -0.04230715598961467 -1.0706637756160506
4916000000.0 -0.008555925117405307 -1.063028560758362
4919000000.0 -0.011882186459986593 -1.0622681370427665
4922000000.0 -0.04299624773152011 -1.042991209892845
4925000000.0 -0.08890293280249023 -0.9953237840378842
4928000000.0 -0.011022897861621306 -1.0105449679007006
4931000000.0 -0.04182387726697738 -1.0814747414241939
4934000000.0 -0.09345402211247895 -0.991528016976551
4938000000.0 -0.11409697751459637 -1.0259349199573171
4941000000.0 -0.10898372513382913 -1.0001049624048883
4944000000.0 -0.058437357907274445 -0.987471072393413
4947000000.0 -0.11552258263738524 -1.0116593563290237
4950000000.0 -0.12924293395047542 -0.9826193505265154
4953000000.0 -0.1501096719273491 -1.0414563067524398
4956000000.0 -0.13858622250761066 -1.0095141089490318
4959000000.0 -0.1839503148868851 -1.013290125480424
4962000000.0 -0.16083759403197748 -1.0203518691305882
4966000000.0 -0.13112266078896928 -1.0184332816537764
4969000000.0 -0.17798070843959046 -1.0811549800064935
4972000000.0 -0.19206448732911538 -0.9925431242505494
4975000000.0 -0.16199736230367776 -0.983740548220593
4978000000.0 -0.21498683252068673 -1.0317575406781836
4981000000.0 -0.22218677563254716 -1.0032261465504873
4984000000.0 -0.1936731259752266 -0.9724608997022971
4988000000.0 -0.19942464647108699 -0.9934921201553469
4991000000.0 -0.2255988179318349 -1.0201094754987174
4994000000.0 -0.23760736965896656 -1.0009684256444298
4997000000.0 -0.27363033572917567 -0.9815944145608726
5000000000.0 -0.2539974732347669 -1.0275257619654867
5003000000.0 -0.24367465076803757 -1.0442056044726264
5006000000.0 -0.26004284425439517 -1.0235421158573794
5009000000.0 -0.25231288834948895 -0.9940842983219634
5012000000.0 -0.31903772735872477 -1.007111591920943
5016000000.0 -0.28352822371883785 -1.0188485674253964
5019000000.0 -0.31097369125984364 -0.972093305897501
5022000000.0 -0.32133179518098454 -1.007290978436336
5025000000.0 -0.3482848731699834 -1.0559615514291976
5028000000.0 -0.3407070892094667 -0.9858712817039355
5031000000.0 -0.34165388838125066 -0.9703121607124009
5034000000.0 -0.3910976966454396 -0.9968124391105915
5038000000.0 -0.3527295452166018 -0.9405028045467116
5041000000.0 -0.3155761554994333 -0.998470095596614
5044000000.0 -0.3152092268444536 -0.965561401004937
5047000000.0 -0.3751894169007122 -0.958754949684914
5050000000.0 -0.3163595572917369 -0.9809929156552646
5053000000.0 -0.43112573954001066 -0.9774532359840158
5056000000.0 -0.3195071365663359 -0.9749538801080395
5059000000.0 -0.3296036494447138 -0.9919796071702257
5062000000.0 -0.4225205848636303 -0.9464298462049421
5066000000.0 -0.3620158324485192 -0.938231476887559
5069000000.0 -0.43143188406705957 -0.9409337439186735
5072000000.0 -0.399891064367237 -0.8810860707479657
5075000000.0 -0.3918271851220836 -0.9341064932550971
5078000000.0 -0.4678493990931623 -0.9132103295670899
5081000000.0 -0.4561070322642686 -0.889094787270729
5084000000.0 -0.4810288848048021 -0.9581862357781037
5088000000.0 -0.43176517384491264 -0.9247947176357008
5091000000.0 -0.5395690295452649 -0.9442716901613231
5094000000.0 -0.48548044368604654 -0.9078172105513628
5097000000.0 -0.45905196789068237 -0.9493496285629153
5100000000.0 -0.5110662072574331 -0.9177131634091623
5103000000.0 -0.5523957412211078 -0.8707976050835643
5106000000.0 -0.5257981707701258 -0.967277156957604
5109000000.0 -0.4890883536096774 -0.8865434703995905
5112000000.0 -0.55093117066038 -0.8729019327272889
5116000000.0 -0.5098221522685028 -0.852533109941876
5119000000.0 -0.5374315629333809 -0.9066718701950363
5122000000.0 -0.49422676371767643 -0.8963667913178035
5125000000.0 -0.5111939861669494 -0.8996259629623211
5128000000.0 -0.5478384611794188 -0.8536579334379464
5131000000.0 -0.572429938884184 -0.8526207871595539
5134000000.0 -0.515695160141194 -0.8366326946343121
5138000000.0 -0.5592111943002349 -0.8694178081927016
5141000000.0 -0.5509516567791195 -0.8876023686700112
5144000000.0 -0.5481530331744637 -0.8757724758057541
5147000000.0 -0.6035571190115723 -0.8562885254926216
5150000000.0 -0.5761034140053896 -0.8845301146914086
5153000000.0 -0.5849216585277763 -0.8271123679216664
5156000000.0 -0.5897306469012076 -0.859441517790787
5159000000.0 -0.6820529921270391 -0.8630269229089444
5162000000.0 -0.6186905763671525 -0.8406520911294451
5166000000.0 -0.6728098753006697 -0.8254527929680273
5169000000.0 -0.6537927255671261 -0.8394079388710247
5172000000.0 -0.5988715551661624 -0.8208668356931693
5175000000.0 -0.6580317112754969 -0.8292809264743415
5178000000.0 -0.6641121002163879 -0.7861181207056767
5181000000.0 -0.6854244518155934 -0.8296733299843077
5184000000.0 -0.6690338689352086 -0.7764697152319536
5188000000.0 -0.661037343111615 -0.8045597608639301
