! Created with skrf 1.8.0 (http://scikit-rf.org).
# Hz S RI R 50.0 
!freq ReS11 ImS11
4000000000.0 0.7429534010704334 0.6810798487963039
4003000000.0 0.7837345760545475 0.680665799629892
4006000000.0 0.7967502918282289 0.6632636350369072
4009000000.0 0.7612785956563738 0.6860013419837329
4012000000.0 0.7586876561650606 0.727954017273713
4016000000.0 0.7884941243647847 0.6730453070062046
4019000000.0 0.7839157629199534 0.6021509917415636
4022000000.0 0.7384372090033178 0.6960224033109932
4025000000.0 0.8162849298117015 0.583208030646069
4028000000.0 0.8133766029616457 0.6001613351130068
4031000000.0 0.8043285980427438 0.6289081933768474
4034000000.0 0.7833066164758131 0.593768468263896
4038000000.0 0.8217541258415398 0.5947977287053029
4041000000.0 0.8686351604903285 0.591942737250846
4044000000.0 0.8823374077899105 0.6119096701529219
4047000000.0 0.8577931810423167 0.6207971536834218
4050000000.0 0.8729991683155759 0.5877903172024092
4053000000.0 0.8473061883124345 0.5506093075625531
4056000000.0 0.8610435873937066 0.5568534192556535
4059000000.0 0.8542255631381676 0.5646374418049289
4062000000.0 0.8804251860213863 0.5469210585178861
4066000000.0 0.8179845755839017 0.5157813821692709
4069000000.0 0.8903436213003972 0.5604316233799987
4072000000.0 0.8723521100961938 0.5573525546453817
4075000000.0 0.8805804680598007 0.5661471248744954
4078000000.0 0.9148618035930145 0.4804240915984501
4081000000.0 0.8875673288475674 0.5385678617273798
4084000000.0 0.9554592731466256 0.5093900309083501
4088000000.0 0.8928012924488113 0.5028766610426243
4091000000.0 0.9585917638696883 0.5277429668226428
4094000000.0 0.8934852067545022 0.447832109192724
4097000000.0 0.913515563830723 0.4823962408062709
4100000000.0 0.9374389632953947 0.4374399923132752
4103000000.0 0.9281778644939445 0.48424033354100565
4106000000.0 0.9359695273701109 0.39797516158019663
4109000000.0 0.9372051482399044 0.4327634044838205
4112000000.0 0.9628000126983001 0.4034751317223551
4116000000.0 0.9274578335170264 0.4135611300666291
4119000000.0 0.9565474282628423 0.40023144204796157
4122000000.0 0.9552738393611068 0.335536533327634
4125000000.0 0.9812407553679172 0.36511763616588516
4128000000.0 0.9318270492597971 0.38974349444159895
4131000000.0 0.9414904597523202 0.34316997078761924
4134000000.0 0.9421927019941161 0.363549233568219
4138000000.0 0.9102842304121415 0.30924445195902467
4141000000.0 0.9522591652336032 0.35842197145013566
4144000000.0 0.9887983103499387 0.3394535856875281
4147000000.0 0.9637273157603269 0.30099351742916164
4150000000.0 0.9899624010090523 0.2980030850574729
4153000000.0 0.9598438286731802 0.31587226850653227
4156000000.0 0.9640526312767772 0.3232586968020318
4159000000.0 0.9704868584758608 0.27450374928995297
4162000000.0 0.9669978553677652 0.2945138716265907
4166000000.0 1.0050782117425485 0.26372885828716786
4169000000.0 0.9811501005208085 0.2307348294656001
4172000000.0 1.0200794283051575 0.2576079293049572
4175000000.0 0.987420948964759 0.22566786260397048
4178000000.0 1.0315622911681048 0.25463528113432266
4181000000.0 0.994830145027944 0.18759628229895176
4184000000.0 0.9896297756187173 0.23263340226207824
4188000000.0 1.0053123355946587 0.21867151847920718
4191000000.0 0.9707605257967677 0.23313499345933114
4194000000.0 0.9876265225455866 0.17435321191285058
4197000000.0 1.0259446312795233 0.18183315380864068
4200000000.0 1.0047495902901613 0.18726964664689155
4203000000.0 1.0085706335640585 0.1842769696440396
4206000000.0 1.0270926592035967 0.17119901243968916
4209000000.0 0.9966764226937059 0.1535237772162386
4212000000.0 1.0142527987893544 0.11233106185687391
4216000000.0 1.037443174116346 0.14274612287303567
4219000000.0 1.025337441590833 0.11417575804621963
4222000000.0 1.0245450904224416 0.0823627451386203
4225000000.0 0.9931221884428494 0.09564021022831001
4228000000.0 1.0081725425612977 0.08045990390563132
4231000000.0 1.0168666573087624 0.08564621989367677
4234000000.0 1.0267558052593837 0.06420779281408018
4238000000.0 1.0140710198004856 0.036981751029254134
4241000000.0 1.0046358194212959 0.04292347177269573
4244000000.0 1.0021991868666391 0.051553317561612494
4247000000.0 1.0232308374542258 0.05031998757295686
4250000000.0 0.995930019610618 0.019947164146100205
4253000000.0 0.9955888642169302 -0.0006716665414962519
4256000000.0 1.0472310273296415 -0.002033028592478253
4259000000.0 0.979048706255967 -0.020115758907911535
4262000000.0 1.016148203335729 -0.04715458089904645
4266000000.0 1.035362273598033 -0.06608182836126643
4269000000.0 1.0132611544677461 -0.033373895634126946
4272000000.0 1.001242878635125 -0.04983812999824999
4275000000.0 1.0272408128941692 -0.06957126461901425
4278000000.0 1.0341956136705193 -0.08217444595523067
4281000000.0 1.0154932604255484 -0.07745761753765729
4284000000.0 1.0088667456619405 -0.11365232187817818
4288000000.0 1.0159813891417642 -0.08315223652290715
4291000000.0 0.9687260215250706 -0.0915335541093247
4294000000.0 1.0151999172610506 -0.08020374987009225
4297000000.0 0.9967196621717247 -0.09805397559795295
4300000000.0 1.005511119254139 -0.1406807474886616
4303000000.0 0.9990843676905993 -0.14280192708752826
4306000000.0 1.0122961563488535 -0.10415054884165074
4309000000.0 1.0094785859134712 -0.15502288851313323
4312000000.0 1.0346379880396037 -0.13091352065882228
4316000000.0 1.0118660223219131 -0.1609810084278925
4319000000.0 0.9757077243530727 -0.17991549562716952
4322000000.0 0.9540426680198861 -0.21474576219742367
4325000000.0 0.9929990755790707 -0.20527234632523167
4328000000.0 0.9843749012622559 -0.21171047189700315
4331000000.0 0.9917801267340743 -0.24096123887780788
4334000000.0 0.9926454551564329 -0.24061417695779913
4338000000.0 0.9926879923296262 -0.2321024175713191
4341000000.0 1.0072570027625436 -0.2098748275734924
4344000000.0 0.9944158586244527 -0.2574975764339871
4347000000.0 0.9830062154788248 -0.29658340462753874
4350000000.0 0.9364819436770719 -0.2899417206041177
4353000000.0 0.9524569798279674 -0.27773769964466694
4356000000.0 0.9471325351798398 -0.3183061342758389
4359000000.0 0.9197970621752813 -0.2965028931257264
4362000000.0 0.9462934362048463 -0.3931771009746272
4366000000.0 0.9807389063974696 -0.3314865604238749
4369000000.0 0.9115788377208646 -0.32975800920907605
4372000000.0 0.9294112509010035 -0.3717478251358779
4375000000.0 0.9452417287018331 -0.32897158311553865
4378000000.0 0.9294962744605559 -0.3648771971752228
4381000000.0 0.9337060193372211 -0.36361717333004095
4384000000.0 0.9907200738318511 -0.40685987224797504
4388000000.0 0.9215869572267238 -0.3797659173969723
4391000000.0 0.9300499208767044 -0.4027801429738733
4394000000.0 0.8914500441267275 -0.41347772062832105
4397000000.0 0.9169967591609369 -0.43701122961340894
4400000000.0 0.9282781248735608 -0.45497490258182616
4403000000.0 0.9159329507200907 -0.4389167286774669
4406000000.0 0.8902421431406883 -0.449553353237011
4409000000.0 0.9299207039282902 -0.48010142179651394
4412000000.0 0.8642761299679117 -0.5119818860314677
4416000000.0 0.8709992653468659 -0.4776838359080241
4419000000.0 0.8782822572830088 -0.510739691742043
4422000000.0 0.8805742723717387 -0.490819887622783
4425000000.0 0.8890015172098502 -0.4979799777826638
4428000000.0 0.87728841803289 -0.5255210409687476
4431000000.0 0.8927060273115435 -0.5341062862975018
4434000000.0 0.8441756907140177 -0.5172515062838412
4438000000.0 0.8771899418274272 -0.5533457151447525
4441000000.0 0.8566319957980686 -0.5443883227438674
4444000000.0 0.8397343815882825 -0.5437947524356812
4447000000.0 0.8207115284085287 -0.574415325239565
4450000000.0 0.8332723888880678 -0.5642063685752612
4453000000.0 0.8493063877082302 -0.5927629534205249
4456000000.0 0.7979733868106034 -0.5893688029446771
4459000000.0 0.7867201993678425 -0.5808840838166105
4462000000.0 0.8453046342153603 -0.6285101585370992
4466000000.0 0.8163833928919214 -0.6301254927568789
4469000000.0 0.8085294261277837 -0.6157368354595574
4472000000.0 0.7982717334734164 -0.6562339913172084
4475000000.0 0.7698031900398693 -0.623575107797158
4478000000.0 0.7811775368788616 -0.686632122852576
4481000000.0 0.7432880077967996 -0.6433691281932822
4484000000.0 0.724625122457359 -0.698708638081768
4488000000.0 0.7527574654583324 -0.684443369361163
4491000000.0 0.740446736668254 -0.6976559171885139
4494000000.0 0.7406400791715002 -0.6702166486741574
4497000000.0 0.7399741569305767 -0.6830465922653196
4500000000.0 0.7373008837267655 -0.6896261550413223
4503000000.0 0.7260766398610867 -0.7295425918575982
4506000000.0 0.702420494259212 -0.729219557972459
4509000000.0 0.6739604213397047 -0.706228285282382
4512000000.0 0.6774431143247994 -0.7301861427835754
4516000000.0 0.6939050924763832 -0.7667341059841989
4519000000.0 0.6559837866840994 -0.7326372257932336
4522000000.0 0.6737155333283759 -0.7503940867779706
4525000000.0 0.6918648478603473 -0.7601584992695556
4528000000.0 0.6653394901119563 -0.7774249974697476
4531000000.0 0.6645343627925566 -0.7777296533954797
4534000000.0 0.6232771359492688 -0.7752152789438259
4538000000.0 0.6193292665379644 -0.7833267933610977
4541000000.0 0.5835840051446965 -0.7986205616588953
4544000000.0 0.6146195750491876 -0.7863303311735145
4547000000.0 0.6156020823440042 -0.7957532686360169
4550000000.0 0.5890910288722647 -0.8195255913653767
4553000000.0 0.5856445788597842 -0.8389367347757938
4556000000.0 0.578081962714593 -0.816154142975682
4559000000.0 0.5670627015895389 -0.8284391707900209
4562000000.0 0.5836888901286501 -0.8527234065916186
4566000000.0 0.5538232630082138 -0.8587874563017575
4569000000.0 0.5422752853796144 -0.843598855375095
4572000000.0 0.5355274824263315 -0.8508449027125922
4575000000.0 0.509410824186882 -0.857975181641325
4578000000.0 0.5408532169692687 -0.8687880834698256
4581000000.0 0.5030429073322233 -0.8642060211245295
4584000000.0 0.5050741359603129 -0.8791772267919856
4588000000.0 0.5048830090309605 -0.8986841918891751
4591000000.0 0.48610803081820764 -0.8784482916835697
4594000000.0 0.45200256061593 -0.8948372520033486
4597000000.0 0.4701028915324553 -0.9187938119733094
4600000000.0 0.4513285453942989 -0.8997965733163146
4603000000.0 0.44141618571324526 -0.9055580259821019
4606000000.0 0.4385894516434713 -0.9290724723593159
4609000000.0 0.4376874184803028 -0.9154094058860172
4612000000.0 0.41430184602264397 -0.9212924189012955
4616000000.0 0.4010505266721408 -0.9000653867507439
4619000000.0 0.39838901185275916 -0.9103316484805287
4622000000.0 0.3817089897378274 -0.9514622723343383
4625000000.0 0.36564557934234987 -0.9310663692377135
4628000000.0 0.382997470167806 -0.9714312566553338
4631000000.0 0.3557643190915034 -0.9266820761048753
4634000000.0 0.3410827389899073 -0.9589093602406358
4638000000.0 0.3536710526286512 -0.9682455406268348
4641000000.0 0.3334420654036597 -0.9581717492331863
4644000000.0 0.3246009436174533 -0.9391688838153618
4647000000.0 0.30939632001864403 -0.9674231190047636
4650000000.0 0.2886458439792449 -0.9695982570726939
4653000000.0 0.28968560045066294 -0.9701496816528751
4656000000.0 0.27948855045762355 -0.9939940661279729
4659000000.0 0.26132123941833907 -0.9908530507633034
4662000000.0 0.24155682945002477 -0.9886616977697235
4666000000.0 0.21797897037710975 -1.0162555493456782
4669000000.0 0.23689584578031397 -1.0004834298293261
4672000000.0 0.2182483410584542 -1.0414138531320054
4675000000.0 0.20749511706734713 -1.0083947148923949
4678000000.0 0.1831322028099442 -0.9730370760312574
4681000000.0 0.19496642107565026 -0.993016986044671
4684000000.0 0.18019120871242303 -1.0247471276267224
4688000000.0 0.14339601662131354 -0.9955615525195443
4691000000.0 0.1980678771221767 -1.0151539170349333
4694000000.0 0.17529551846837144 -0.9768552910675452
4697000000.0 0.11304506950472941 -0.9792655372411299
4700000000.0 0.12660836642926437 -0.9922789282614224
4703000000.0 0.1737247738942846 -0.9252403405497434
4706000000.0 0.06266786025620211 -0.9780534933094334
4709000000.0 0.07991914804296965 -1.0069996423235459
4712000000.0 0.11570941531075696 -1.0224845732130576
4716000000.0 0.05865394652274708 -1.043220477717689
4719000000.0 0.09916799498819104 -1.0400975643850037
4722000000.0 0.0773426987551922 -1.0062801077233527
4725000000.0 0.04197877099018418 -1.0514415857602606
4728000000.0 0.03655146963410469 -1.0269431088909373
4731000000.0 0.025156281184992996 -1.0833894771915296
4734000000.0 0.05799676273353788 -1.014450498320014
4738000000.0 0.02013024145289466 -1.1026756483085787
4741000000.0 -0.02065089699577144 -1.051347791046686
4744000000.0 -0.04344403578457601 -1.0077895926152292
4747000000.0 -0.006365266654196455 -0.9708788291583675
4750000000.0 -0.02254995818439759 -1.049601179369122
4753000000.0 -0.014983585293705137 -1.045940280543249
4756000000.0 -0.06664265701196437 -1.048137983830608
4759000000.0 -0.047287035934316324 -1.0173692037803304
4762000000.0 -0.10112875984437142 -1.0458865350974047
4766000000.0 -0.12624794959507557 -1.0156794517950116
4769000000.0 -0.09231395415072241 -1.0183039686254727
4772000000.0 -0.11278830171432802 -1.0243465501963034
4775000000.0 -0.1235988665438893 -1.0659393235357262
4778000000.0 -0.1832343705300784 -1.026753376088067
4781000000.0 -0.12870312210575174 -1.012494893706507
4784000000.0 -0.11420105559214 -1.0591061493372533
4788000000.0 -0.2252261335198118 -1.0333454515990423
4791000000.0 -0.16061798433150376 -1.0051575531342867
4794000000.0 -0.15807346544843748 -1.0440105176131904
4797000000.0 -0.2237381410086393 -0.9758621797628079
4800000000.0 -0.20863684659082435 -0.9676742854003622
4803000000.0 -0.2784836113321844 -0.9948954597939113
4806000000.0 -0.24932247425559473 -1.031481871740297
4809000000.0 -0.2894765531101962 -0.9707735054893388
4812000000.0 -0.293654362339776 -0.9764162413813873
4816000000.0 -0.2387118572144828 -1.001550265279034
4819000000.0 -0.24297575351274842 -1.0111409559695317
4822000000.0 -0.28217992646875245 -1.0243957439907008
4825000000.0 -0.273262131864528 -1.037281664521933
4828000000.0 -0.32889205989769765 -0.965915801863454
4831000000.0 -0.36102183700674567 -0.9745026619606283
4834000000.0 -0.30213928509980637 -0.9974384574042574
4838000000.0 -0.36776271458060694 -0.9715662465334557
4841000000.0 -0.3696636571669996 -0.9451778060856789
4844000000.0 -0.34136669540012327 -1.009183384100236
4847000000.0 -0.34182100832721074 -0.9426626919708334
4850000000.0 -0.3975441299571868 -0.9834545718703551
4853000000.0 -0.3725604265464596 -0.9288163031317904
4856000000.0 -0.3875153278369763 -0.9345699592430606
4859000000.0 -0.4585862621029605 -0.9716029653161383
4862000000.0 -0.3934431802330089 -0.9174981223208626
4866000000.0 -0.456241778889309 -0.9095603695257727
4869000000.0 -0.44924630083481243 -0.9435411352009796
4872000000.0 -0.45894004197066623 -0.9372663497591396
4875000000.0 -0.4327649450054679 -0.9731741670756752
4878000000.0 -0.46313123939716655 -0.9170693009384899
4881000000.0 -0.5363092953215092 -0.9400174466501822
4884000000.0 -0.47253042289606534 -0.918971175358012
4888000000.0 -0.4857030259004557 -0.9128505733319031
4891000000.0 -0.5244010146992374 -0.9215165120746347
4894000000.0 -0.516088375787069 -0.8910900910700993
4897000000.0 -0.5081637056912246 -0.9293101166493092
4900000000.0 -0.5649357769714828 -0.922120056593483
4903000000.0 -0.5529674748234724 -0.8836574198028425
4906000000.0 -0.6026002300679297 -0.8956274084874738
4909000000.0 -0.6099096442583458 -0.861319225948417
4912000000.0 -0.6500651803214124 -0.8464361880533424
4916000000.0 -0.5918349314674188 -0.8220269459440617
4919000000.0 -0.5829701141314901 -0.8940554856816431
4922000000.0 -0.6038222208011401 -0.8481839573827017
4925000000.0 -0.6716914356664841 -0.7980157174891223
4928000000.0 -0.5660530110875761 -0.871590114507482
4931000000.0 -0.6329806260915343 -0.8114108098691049
4934000000.0 -0.5776493032680109 -0.7814807217730685
4938000000.0 -0.6692311728750515 -0.7610189351701043
4941000000.0 -0.6508229507529169 -0.7845888154640345
4944000000.0 -0.6424523857339631 -0.7418841752421559
4947000000.0 -0.6498082520144296 -0.7854020630884502
4950000000.0 -0.6763354046026985 -0.7526623855401633
4953000000.0 -0.7371288057900739 -0.7692826748137008
4956000000.0 -0.7068434946328264 -0.7602006115598486
4959000000.0 -0.7325376051800063 -0.7060362282033434
4962000000.0 -0.7559788448406105 -0.7503043483873646
4966000000.0 -0.7204609575272363 -0.7703697831861573
4969000000.0 -0.7522436200267371 -0.7251064867220318
4972000000.0 -0.7559570675883281 -0.6993717238488093
4975000000.0 -0.7482791878581395 -0.7079677971900942
4978000000.0 -0.7960567719601865 -0.6884129255183599
4981000000.0 -0.8116890531467562 -0.6912436856934911
4984000000.0 -0.760906909036859 -0.6481877751044339
4988000000.0 -0.8006914985517377 -0.6610410197348302
4991000000.0 -0.7975964300101201 -0.7068217865166136
4994000000.0 -0.8194868534991686 -0.6311079992421991
4997000000.0 -0.8503710377426446 -0.6012331782502591
5000000000.0 -0.8424657827943948 -0.6324672125379385
5003000000.0 -0.8414099427719586 -0.6253036205273709
5006000000.0 -0.8654554054202811 -0.6406042793404376
5009000000.0 -0.8542947222178314 -0.594085728199876
5012000000.0 -0.8863411592672383 -0.575580316328258
5016000000.0 -0.9069350944767101 -0.6142807583651939
5019000000.0 -0.8927654618498398 -0.5736067542559994
5022000000.0 -0.8867664448135207 -0.5340515131169679
5025000000.0 -0.9333307412786533 -0.5347209996133782
5028000000.0 -0.8616567863830876 -0.514904341188596
5031000000.0 -0.9300050741863177 -0.5097942736207469
5034000000.0 -0.9632608076917138 -0.5184888959933339
5038000000.0 -0.9148887327462409 -0.5276286407046292
5041000000.0 -0.9189799237153631 -0.475214605692153
5044000000.0 -0.8811819177898393 -0.47559373376399006
5047000000.0 -0.9245343591840425 -0.4330033656229114
5050000000.0 -0.960156647935389 -0.5175703414497479
5053000000.0 -0.924920143417385 -0.42517073626927
5056000000.0 -0.9597302342767957 -0.45134778560319266
5059000000.0 -0.9487549818885721 -0.37504055413001547
5062000000.0 -1.004217570322229 -0.3772779139753114
5066000000.0 -0.9757137461231358 -0.4232744455074229
5069000000.0 -0.9782905281573385 -0.4053275201221569
5072000000.0 -0.9820632803412188 -0.3979880102571099
5075000000.0 -0.9157701080258958 -0.3759584238186859
5078000000.0 -0.9703090582183023 -0.3218659206325073
5081000000.0 -0.9791193980570538 -0.2979827065465147
5084000000.0 -0.9973769548784273 -0.28327084609755726
5088000000.0 -1.0112014164982428 -0.3078340744962076
5091000000.0 -0.961674981764344 -0.24611545669877988
5094000000.0 -0.9881368720358177 -0.23741263425727355
5097000000.0 -0.9499468158250718 -0.24619348837772975
5100000000.0 -1.0129324898907284 -0.23823060267935095
5103000000.0 -1.0109078814964216 -0.17936687082085023
5106000000.0 -1.0160140873331458 -0.20144524145530088
5109000000.0 -1.029293316425317 -0.18371345759565055
5112000000.0 -1.0383918775728975 -0.19115360050101426
5116000000.0 -1.0335611021709177 -0.17560792928676996
5119000000.0 -1.0578081364577356 -0.04620934425947776
5122000000.0 -0.989265176920309 -0.0859194326680704
5125000000.0 -1.0035425912383704 -0.16094722517150709
5128000000.0 -1.0522143251160292 -0.122022484678277
5131000000.0 -1.0594823409395684 -0.09660065787350526
5134000000.0 -1.019949764071553 -0.026721916651489735
5138000000.0 -0.9518486811942367 -0.13583359308737392
5141000000.0 -1.0689548002230604 -0.048715156131795445
5144000000.0 -0.9869169349263278 -0.020240283040865593
5147000000.0 -1.063636643755805 0.014328887090466605
5150000000.0 -1.0836209071783895 -0.028910119573845684
5153000000.0 -1.0842781090275577 0.034610213881174634
5156000000.0 -0.9971085398456424 0.01531235766992163
5159000000.0 -1.015946074274183 0.04022839255269786
5162000000.0 -1.0263713215930323 0.10195465743351322
5166000000.0 -1.012312125968867 0.0732922800829428
5169000000.0 -1.0063044185530345 0.10959035162610156
5172000000.0 -1.0404375129904244 0.10630411064273464
5175000000.0 -1.0425284505577828 0.14800555536128113
5178000000.0 -1.08478664749125 0.15280425872188053
5181000000.0 -0.9971796498000086 0.22708645383276108
5184000000.0 -0.9952446551323612 0.16895609229385428
