! Created with skrf 1.8.0 (http://scikit-rf.org).
# Hz S RI R 50.0 
!freq ReS11 ImS11
4000000000.0 0.8963738479920885 0.40133499624812513
4003000000.0 0.9641119007207328 0.42590008399355317
4006000000.0 0.9387285188896737 0.36801214110073477
4009000000.0 0.9749889551368888 0.3696523257462242
4012000000.0 0.9494162721692515 0.4225221939197673
4016000000.0 0.9941180621088813 0.34635766256657674
4019000000.0 0.9667288951010444 0.35073890242564165
4022000000.0 0.9779818049563714 0.34950903493761165
4025000000.0 0.9683228013196202 0.29187497057445233
4028000000.0 0.9407701368170673 0.28303779172641236
4031000000.0 0.9740570642046738 0.27216157256349005
4034000000.0 0.9519741073032592 0.2741564190834782
4038000000.0 0.9558829892178153 0.2932297178824324
4041000000.0 0.9981040436101485 0.25936100889030933
4044000000.0 1.0180170054436297 0.28201844096935486
4047000000.0 1.0359412203724827 0.25255428651520695
4050000000.0 1.0046280624363637 0.21603608679881395
4053000000.0 1.0021213850633257 0.22109478333264537
4056000000.0 1.0072687066643207 0.21271133106258935
4059000000.0 0.9912932948708502 0.1836979779481091
4062000000.0 1.0185065512097211 0.17253151392306498
4066000000.0 0.9791535530982376 0.14520740183115793
4069000000.0 1.0243699387110674 0.13637855801735432
4072000000.0 1.0312939450496545 0.12969613753154424
4075000000.0 1.0439071223893024 0.14950575617643597
4078000000.0 1.0107098895549993 0.09306475703392114
4081000000.0 1.0547655473642288 0.12073660208186482
4084000000.0 1.0497970635178158 0.07816445219475388
4088000000.0 0.9873143606082174 0.12346049461646752
4091000000.0 1.053001702323278 0.06162353746595367
4094000000.0 1.0047314075680915 0.025537056551394655
4097000000.0 1.016751303055721 0.03246801204919503
4100000000.0 1.0202279816669122 0.048168583530764864
4103000000.0 1.042286925347892 0.036850624795219056
4106000000.0 1.031680778813102 -0.016389239851771598
4109000000.0 1.0220445945873617 -0.006663184716061976
4112000000.0 1.0263179172889052 -0.0328374785455679
4116000000.0 1.0291451562656893 -0.04300120308284722
4119000000.0 0.9984761844277233 -0.03356289735925161
4122000000.0 1.015537337437973 -0.09047738967777141
4125000000.0 1.0177831895935927 -0.046097915758118946
4128000000.0 0.9979072158962329 -0.07689933521017567
4131000000.0 0.9894170058204197 -0.10212626853156176
4134000000.0 1.012541069314505 -0.11412681298356539
4138000000.0 0.9972058985008547 -0.13313213789356018
4141000000.0 1.0099298830945824 -0.1348357182861743
4144000000.0 1.0013100394031804 -0.1423408992252809
4147000000.0 1.0368319730666427 -0.15610040252128402
4150000000.0 1.002304544695057 -0.21133280096517168
4153000000.0 0.9979040615030368 -0.17511576919963007
4156000000.0 1.0109712227239118 -0.19499722536742364
4159000000.0 0.9743203929459285 -0.20562545479427577
4162000000.0 0.995561835497069 -0.2254241116693593
4166000000.0 0.9916612101723405 -0.26070501337401875
4169000000.0 0.9494397552328643 -0.257939941637264
4172000000.0 0.9655906106435058 -0.2715866796859628
4175000000.0 0.9900937171230875 -0.28502831644647747
4178000000.0 0.9721002180062187 -0.2854423101413821
4181000000.0 0.9471596141043743 -0.33689021089757076
4184000000.0 0.9223433132815138 -0.3149230571226573
4188000000.0 0.9425830607555084 -0.33941679514441037
4191000000.0 0.9609906294610064 -0.333213954370017
4194000000.0 0.9557265845248644 -0.36799226804766805
4197000000.0 0.9555636036764904 -0.36491572217114066
4200000000.0 0.9709388875339298 -0.35759554468839705
4203000000.0 0.9628383949766594 -0.39851231339099197
4206000000.0 0.938705638871166 -0.41213935362169113
4209000000.0 0.9007600480875413 -0.4312949986095529
4212000000.0 0.8883055376945702 -0.47242305031129483
4216000000.0 0.9404646023420249 -0.43871266981033813
4219000000.0 0.9161648438156914 -0.4726716040947123
4222000000.0 0.8946260591709505 -0.46736145543558155
4225000000.0 0.865187164935356 -0.48638956845269377
4228000000.0 0.8718189414755593 -0.4988726129300447
4231000000.0 0.8599927119341991 -0.5355298919438228
4234000000.0 0.8685090419514513 -0.5681735121493641
4238000000.0 0.8293550747294965 -0.5843416204697669
4241000000.0 0.8183081095409204 -0.5621766208861887
4244000000.0 0.823601098954103 -0.5766994385947173
4247000000.0 0.7880525259309394 -0.5697098217461942
4250000000.0 0.7772488186182283 -0.5878635433974779
4253000000.0 0.7762182191666951 -0.5953361277865822
4256000000.0 0.8313583670771232 -0.6653075136194384
4259000000.0 0.7398660975182231 -0.6129366056739842
4262000000.0 0.7451082981252422 -0.6685409298186028
4266000000.0 0.7322633606706853 -0.7023388226147917
4269000000.0 0.7287825190150604 -0.6700571266490878
4272000000.0 0.7437571400350672 -0.6811723778607206
4275000000.0 0.7606440248899837 -0.6974908897977017
4278000000.0 0.7358972055732439 -0.7305317425247235
4281000000.0 0.7206301704736012 -0.7269786432190108
4284000000.0 0.6660092243751747 -0.7609918461321183
4288000000.0 0.6919569109014319 -0.7135662646545721
4291000000.0 0.6407407502522864 -0.7455140158665814
4294000000.0 0.6661029693737301 -0.7862659945315382
4297000000.0 0.6603977293345548 -0.7305091331144207
4300000000.0 0.6248142932151309 -0.7598911712889506
4303000000.0 0.5971043762062475 -0.8078731121961441
4306000000.0 0.6266993752266553 -0.7970838020599375
4309000000.0 0.592067094552086 -0.807651294482359
4312000000.0 0.6123855568351249 -0.816590672204098
4316000000.0 0.5728458024249297 -0.8154869188313028
4319000000.0 0.5531084078591697 -0.8235064192436325
4322000000.0 0.49228692946223723 -0.8741583034212055
4325000000.0 0.5089090915361334 -0.8902080962265785
4328000000.0 0.5039663590074446 -0.8701020430080305
4331000000.0 0.4785658747978495 -0.8916514280514604
4334000000.0 0.46793451722995333 -0.9028802991813171
4338000000.0 0.4596136596078643 -0.8942479993388427
4341000000.0 0.4470470004917707 -0.9234650756254855
4344000000.0 0.43272481227480003 -0.9315884843723039
4347000000.0 0.3865353317323335 -0.9431782874844262
4350000000.0 0.36182798454259546 -0.92903243996227
4353000000.0 0.34703839409986076 -0.9251700263243775
4356000000.0 0.32312079721983566 -0.9393355736943401
4359000000.0 0.29975264817692493 -0.9429238896336882
4362000000.0 0.28295249739262934 -0.9763199250687643
4366000000.0 0.2834909995781605 -0.9841718985754488
4369000000.0 0.25007003310395537 -0.9761636843317589
4372000000.0 0.22585661400616716 -0.9885614827553124
4375000000.0 0.2269252590110818 -0.9849906562910481
4378000000.0 0.19447499094377058 -0.9768254732361934
4381000000.0 0.15977601790553048 -0.9832935711612265
4384000000.0 0.1733035362270034 -1.0218082243422744
4388000000.0 0.13588703741733438 -1.0040202416342752
4391000000.0 0.11076350748123358 -1.013225189934716
4394000000.0 0.09320986105749896 -1.0161198869399597
4397000000.0 0.07939046893685325 -1.0371699198248123
4400000000.0 0.048354768731956474 -1.0225034321972666
4403000000.0 0.03245722107225829 -1.029386703080604
4406000000.0 0.0021108064431410722 -1.0176013945001716
4409000000.0 -0.012804647645979217 -1.0014014675143246
4412000000.0 -0.014333514470101505 -0.9950480557209402
4416000000.0 -0.04406736567390937 -0.9958079251327273
4419000000.0 -0.06746816081595905 -1.0039632640157554
4422000000.0 -0.10120635031393821 -0.9967674171585601
4425000000.0 -0.11646325466017232 -0.9974603758382284
4428000000.0 -0.15449422176106647 -1.0260436893179703
4431000000.0 -0.17125630954987847 -0.9750102407246439
4434000000.0 -0.19953971582702973 -1.0038479854513807
4438000000.0 -0.21090002716880374 -0.978148861825952
4441000000.0 -0.24784374434490714 -0.9666160197462599
4444000000.0 -0.28137948189813783 -1.0082415253075
4447000000.0 -0.28582034683341595 -0.9923381967273659
4450000000.0 -0.34576837334415556 -0.9638805461907224
4453000000.0 -0.30564352304539566 -0.9364747084703772
4456000000.0 -0.3902834156397411 -0.9943172322974436
4459000000.0 -0.37647022720244355 -0.9923329884762749
4462000000.0 -0.38011300223495464 -0.9226959124078059
4466000000.0 -0.4546974001353884 -0.959715438619876
4469000000.0 -0.4603281464064667 -0.9088700399199554
4472000000.0 -0.47552531742962434 -0.8712133633374934
4475000000.0 -0.5470955253253501 -0.9078135207032118
4478000000.0 -0.5293360213443462 -0.8935826044752654
4481000000.0 -0.5553092170773106 -0.8717049081375148
4484000000.0 -0.6017176862350362 -0.8682211282307669
4488000000.0 -0.6551379610190691 -0.8684831152461444
4491000000.0 -0.5975333140314554 -0.838435130242955
4494000000.0 -0.6022738946691232 -0.8082983312734813
4497000000.0 -0.6916367011357758 -0.7811981929818832
4500000000.0 -0.719048716356516 -0.7213408071295793
4503000000.0 -0.706955012189898 -0.7584197386371816
4506000000.0 -0.7549272492315875 -0.7552903777285828
4509000000.0 -0.7411905966708943 -0.6940410883713622
4512000000.0 -0.7359746213992272 -0.7028448397835935
4516000000.0 -0.8284421839357555 -0.6335496026471127
4519000000.0 -0.80865629514309 -0.6081563452167045
4522000000.0 -0.8003189089976515 -0.6550097306158839
4525000000.0 -0.9128396564166068 -0.5866094014059637
4528000000.0 -0.8361124978491197 -0.5821843416199913
4531000000.0 -0.8913462997538535 -0.5121192066588108
4534000000.0 -0.9090656326347716 -0.5009703540361291
4538000000.0 -0.9130535433276892 -0.4693045935260325
4541000000.0 -0.914760296637891 -0.47378329687449366
4544000000.0 -0.9745716357165768 -0.444591725670051
4547000000.0 -0.9835306646324395 -0.37600588140224295
4550000000.0 -0.9813999953009298 -0.4252014498387343
4553000000.0 -0.9908519600319865 -0.33542579731871125
4556000000.0 -1.0093634416441848 -0.33435328392150976
4559000000.0 -1.0112284427565204 -0.31909753280630115
4562000000.0 -1.011114418569152 -0.25416485054900906
4566000000.0 -1.002336718517531 -0.2551772215640172
4569000000.0 -1.0748422153198494 -0.20597364109785482
4572000000.0 -1.0257014034755891 -0.131106649571954
4575000000.0 -0.9822282745175426 -0.14813374763876092
4578000000.0 -1.0136512979665884 -0.107442527460241
4581000000.0 -0.9833568030785703 -0.09477962123627491
4584000000.0 -1.04496873696785 -0.038595385901919806
4588000000.0 -1.0179879603893647 0.030204721264599207
4591000000.0 -1.0195849984118475 0.062075991175838785
4594000000.0 -1.0655784405629192 0.03968258318032114
4597000000.0 -1.037061375065639 0.13369917087365552
4600000000.0 -1.0753518523851846 0.10870216241712335
4603000000.0 -0.9738208928422242 0.14573191153711731
4606000000.0 -1.0722698078743964 0.18867839873204836
4609000000.0 -1.023231041913227 0.21546018270940231
4612000000.0 -0.9796821834341516 0.27250140184861615
4616000000.0 -0.9998096244189927 0.28093701798284537
4619000000.0 -0.9708863310256931 0.3706554357526612
4622000000.0 -0.9684662357129185 0.4418809196088807
4625000000.0 -0.9702628156762945 0.3958408956174958
4628000000.0 -1.0153635748832028 0.4918419754932761
4631000000.0 -0.9622672156150032 0.4988598224333029
4634000000.0 -0.9433851616048053 0.530512031632281
4638000000.0 -0.9310545805524387 0.527812015759218
4641000000.0 -0.8277068389855425 0.5744421366172723
4644000000.0 -0.8591795672704268 0.5820026761349596
4647000000.0 -0.8120547881196529 0.6026454201137936
4650000000.0 -0.8160916428900222 0.6744289103694987
4653000000.0 -0.7306770660848165 0.6654775637043132
4656000000.0 -0.8020274020952649 0.7027758972289444
4659000000.0 -0.7409289151606739 0.7350458075777261
4662000000.0 -0.7400056441784368 0.7206448970996113
4666000000.0 -0.7107464789015298 0.8229342040544044
4669000000.0 -0.6936389016056748 0.8297463541908754
4672000000.0 -0.6717603684177829 0.8341242496271931
4675000000.0 -0.5650897272305133 0.8471775735610618
4678000000.0 -0.5931393314749271 0.7798274378663062
4681000000.0 -0.514089637532063 0.899863279445995
4684000000.0 -0.4976349833533529 0.9270570170129468
4688000000.0 -0.48530860503077916 0.9315259107104619
4691000000.0 -0.44814065562294314 0.8907773494485418
4694000000.0 -0.46705835140603813 0.9193407448156747
4697000000.0 -0.3867863912368969 0.9239918982115793
4700000000.0 -0.40405434817703756 0.9788410055920775
4703000000.0 -0.32239809827030425 1.016105802756185
4706000000.0 -0.32874181864869595 0.9201827725083164
4709000000.0 -0.2778040578878634 1.0233697274263591
4712000000.0 -0.210837803901208 0.9765656465499613
4716000000.0 -0.21205398566658026 0.9968843965917733
4719000000.0 -0.14877729866953626 1.0222752094512872
4722000000.0 -0.13112146848311496 1.0660550833076157
4725000000.0 -0.08326875865958377 1.0470641208789326
4728000000.0 -0.03849064537511415 1.033438176840336
4731000000.0 -0.07820867935019166 0.9961040164489798
4734000000.0 -0.0013213717316045148 1.0385051397435143
4738000000.0 0.013405926419150005 0.9759027080967628
4741000000.0 0.05267995306969109 0.9699056301062579
4744000000.0 0.11200420377991074 1.028221319327482
4747000000.0 0.1319818126100006 1.0576329092423307
4750000000.0 0.16912114449579074 0.9612548458153019
4753000000.0 0.2181803533282058 1.022830132723725
4756000000.0 0.24355600270430453 0.9760805551005001
4759000000.0 0.26391969969739987 0.9593536840134224
4762000000.0 0.23220177657657948 0.9678654923792507
4766000000.0 0.3212900680531223 0.9427999884278689
4769000000.0 0.33761711452239634 0.9892218049511999
4772000000.0 0.38761807163658535 0.9579436455160886
4775000000.0 0.39070692180400013 0.9137260744727638
4778000000.0 0.380058443837766 0.9354590823197331
4781000000.0 0.4553080084980534 0.9146239336252209
4784000000.0 0.45276147168925795 0.9384663047651571
4788000000.0 0.45909167397799555 0.8935230625476135
4791000000.0 0.5614684326396497 0.8878852016447176
4794000000.0 0.5273459922924919 0.8026608864222351
4797000000.0 0.6094345710285825 0.901595669353018
4800000000.0 0.6353217612469586 0.8008446530914831
4803000000.0 0.5794849387034522 0.8206965789734377
4806000000.0 0.6314601106327344 0.7984048384814139
4809000000.0 0.630180451125853 0.7819306068623129
4812000000.0 0.6800994608292432 0.7860525330700322
4816000000.0 0.7545607598842548 0.7136293592603857
4819000000.0 0.7286983602297659 0.6759207045148174
4822000000.0 0.7587523507046531 0.6644843790649244
4825000000.0 0.7736582006643582 0.6098469561135262
4828000000.0 0.7648550927600734 0.6477778312157518
4831000000.0 0.7754768133171722 0.6466399948371311
4834000000.0 0.8023078655459843 0.5573173784359419
4838000000.0 0.8259375570758064 0.5589028248684846
4841000000.0 0.8348370524573782 0.5622445132454075
4844000000.0 0.8580283821421739 0.514152447706199
4847000000.0 0.9053139927979084 0.5153650512796004
4850000000.0 0.8844720011727141 0.48728860769117094
4853000000.0 0.9041601044684124 0.4671985290859777
4856000000.0 0.9195183021182687 0.4419759139817401
4859000000.0 0.8979314822859232 0.4143258043108962
4862000000.0 0.9240311166388535 0.42797879472481465
4866000000.0 0.9145588363048757 0.4037323609730378
4869000000.0 0.94610185376064 0.37095474785944405
4872000000.0 0.9326856534779717 0.3186478149997183
4875000000.0 0.9687273846830886 0.28563345510538063
4878000000.0 0.9675828830923676 0.25404433068172644
4881000000.0 0.9104637038961952 0.2687118373271105
4884000000.0 0.9802590950112827 0.24482983648063555
4888000000.0 1.025407248951467 0.2369372569819263
4891000000.0 0.9723456276274595 0.1883246351108549
4894000000.0 0.9829313727297593 0.1792874578344387
4897000000.0 0.989553143438404 0.16008171620023048
4900000000.0 0.9955479363325774 0.09317359955939376
4903000000.0 1.0100687686131034 0.11410504102307155
4906000000.0 1.015106851425706 0.11771835539408672
4909000000.0 0.9980589922708242 0.07534193241863388
4912000000.0 0.9887617530711068 0.03536913754399979
4916000000.0 0.990104916069989 0.02744492591675282
4919000000.0 1.0016413537886457 -0.011652608028591693
4922000000.0 1.0264033382348097 -0.0018988572691683511
4925000000.0 0.9906732203416924 -0.027483563925293882
4928000000.0 1.0206459055181805 -0.04229319008183721
4931000000.0 1.0226924173221805 -0.08482308583261054
4934000000.0 1.0043180286823699 -0.0711803519862045
4938000000.0 1.0106352950491366 -0.13245870390423758
4941000000.0 1.0085512169246609 -0.15996542942291897
4944000000.0 1.0044809766453326 -0.14690434875170438
4947000000.0 0.990548928870849 -0.16319691331142022
4950000000.0 0.985662612635746 -0.1898405218890276
4953000000.0 0.9924903308611012 -0.24726890925436565
4956000000.0 1.0044201796617436 -0.22126031486416892
4959000000.0 0.9760170830300068 -0.2599275757392061
4962000000.0 0.9666086506160477 -0.278726783646947
4966000000.0 0.9513183940588836 -0.29223348773669733
4969000000.0 0.9546776802135848 -0.2865919429604301
4972000000.0 0.9643135998184208 -0.32304000954305795
4975000000.0 0.9464665716345116 -0.33867419870460136
4978000000.0 0.9371154099128548 -0.34550877853661255
4981000000.0 0.9143563457901123 -0.3571438496651443
4984000000.0 0.9378719046951054 -0.37897240605190297
4988000000.0 0.9456364642974404 -0.4034123940525563
4991000000.0 0.9502611922875077 -0.4170016095380137
4994000000.0 0.9200866827698602 -0.39759288443602936
4997000000.0 0.9250895741799783 -0.4301363528254073
5000000000.0 0.9169623289681044 -0.4368664210323571
5003000000.0 0.9080565289512226 -0.47289845017060417
5006000000.0 0.8791605395037642 -0.5219351416422314
5009000000.0 0.8953152889171732 -0.48765161911195753
5012000000.0 0.8667858945883637 -0.521283786322168
5016000000.0 0.9018979051614944 -0.548303303820532
5019000000.0 0.8314215225311492 -0.5502410218400648
5022000000.0 0.8401864003468154 -0.5660487986275802
5025000000.0 0.8800229424678792 -0.5841470499382223
5028000000.0 0.8335134708560575 -0.6117265056829592
5031000000.0 0.7868321409366967 -0.5927331069259457
5034000000.0 0.843559894764191 -0.6720380267519475
5038000000.0 0.7749467906879535 -0.6660837764857147
5041000000.0 0.8022001387197724 -0.6070888673151438
5044000000.0 0.7793954736289902 -0.6084376572328789
5047000000.0 0.7877466747019342 -0.6449266247752288
5050000000.0 0.8187167107018756 -0.6156152847520733
5053000000.0 0.7844208189206611 -0.7240170688164866
5056000000.0 0.775404983690901 -0.6854013535203469
5059000000.0 0.7538575163503438 -0.6675960591666714
5062000000.0 0.7217145810140299 -0.749288814508424
5066000000.0 0.7309691691256291 -0.6669653513824637
5069000000.0 0.7111959743762234 -0.7763614537610823
5072000000.0 0.6453445160858216 -0.7470792861207303
5075000000.0 0.6857605316866404 -0.7732590359385023
5078000000.0 0.6514386525172187 -0.806390839103868
5081000000.0 0.6151157226135953 -0.7572917431688646
5084000000.0 0.689665294295773 -0.8128906268808875
5088000000.0 0.6350467556021379 -0.7818122325459762
5091000000.0 0.6008331573695711 -0.8166698364926115
5094000000.0 0.6326358776740078 -0.7994956349221938
5097000000.0 0.6684052309571211 -0.843440877677694
5100000000.0 0.5921881491528993 -0.8180761035683229
5103000000.0 0.5796186813751784 -0.84121062153643
5106000000.0 0.6408663138481362 -0.8878138834515086
5109000000.0 0.592830745718159 -0.8367304035534432
5112000000.0 0.5780510870010549 -0.8595406017344323
5116000000.0 0.5163431882922918 -0.8141369335895112
5119000000.0 0.5418011981568259 -0.8459367947018672
5122000000.0 0.5710189393318089 -0.8657149278610388
5125000000.0 0.4972319370898355 -0.8695789162954785
5128000000.0 0.49111183203452674 -0.888543994849071
5131000000.0 0.43509511574380183 -0.8806929873489421
5134000000.0 0.4449268079569933 -0.9020171202159695
5138000000.0 0.4586850404733026 -0.9398137949037477
5141000000.0 0.5046503584078674 -0.8966670346396024
5144000000.0 0.49622009794631494 -0.9385115933551492
5147000000.0 0.4336695121747778 -0.9221855161351797
5150000000.0 0.422239058042612 -0.9093066724526673
5153000000.0 0.39207837422213465 -0.8848098388840072
5156000000.0 0.36891961480300794 -0.990975845258085
5159000000.0 0.40672259817314055 -0.995948587183334
5162000000.0 0.36830592938540196 -0.9447178861172586
5166000000.0 0.3083731662526235 -1.0802698389862877
5169000000.0 0.3651916454427834 -1.0020526795550424
5172000000.0 0.2831327289044028 -0.9605117318557521
5175000000.0 0.35784908869834225 -1.011630500301915
5178000000.0 0.3002130204016855 -0.9533322074918771
5181000000.0 0.3560798874757793 -0.9794273836480498
5184000000.0 0.2855321464169121 -1.0006946228752818
5188000000.0 0.29118762126786546 -0.9676074741285793
