! Created with skrf 1.8.0 (http://scikit-rf.org).
# Hz S RI R 50.0 
!freq ReS11 ImS11
4000000000.0 0.7477719741577286 0.7097341635556083
4003000000.0 0.816909210799626 0.7415965474284073
4006000000.0 0.7866235143112305 0.6682300393913977
4009000000.0 0.7560766502659824 0.7049970342305983
4012000000.0 0.7439957900594535 0.69187684919681
4016000000.0 0.7958578965981955 0.6103654531405436
4019000000.0 0.7513501026224283 0.6509211974262843
4022000000.0 0.7889740469538241 0.7150430118313648
4025000000.0 0.8239973400719549 0.6085824670938028
4028000000.0 0.8235544083923454 0.6028281130049578
4031000000.0 0.791259238105793 0.6266233436158327
4034000000.0 0.8429731090585408 0.5835301194243732
4038000000.0 0.8076862129583133 0.5917228872410314
4041000000.0 0.822211133005477 0.6329939104804134
4044000000.0 0.8822375010583378 0.6481968704603106
4047000000.0 0.8449804737747446 0.5988573514625453
4050000000.0 0.8888391300583657 0.5691854731271021
4053000000.0 0.8761244180890141 0.5402287600005733
4056000000.0 0.8719548903207266 0.55188602355951
4059000000.0 0.8417462301997359 0.5835071243915277
4062000000.0 0.8807012898342204 0.5298793229635992
4066000000.0 0.8196364583708906 0.5051955278691151
4069000000.0 0.9013566064217267 0.534820847785631
4072000000.0 0.8547769226184921 0.5320593311428781
4075000000.0 0.9056529040037791 0.5359823430704573
4078000000.0 0.893244090678678 0.5309496987877208
4081000000.0 0.9458914349666587 0.5616919204019559
4084000000.0 0.8963559529815093 0.4942730102404396
4088000000.0 0.8864976351286282 0.49971942657536006
4091000000.0 0.9509562157141881 0.5073155144528363
4094000000.0 0.9205077698232648 0.4794481258647
4097000000.0 0.9119618603719097 0.49432338110175883
4100000000.0 0.917079670523116 0.40523927104769913
4103000000.0 0.9424020785063252 0.47368307858841213
4106000000.0 0.9460421500178494 0.4400650525073131
4109000000.0 0.9278460163405393 0.4524929929873149
4112000000.0 0.9327095917552901 0.4338207744323825
4116000000.0 0.9539056372820363 0.4699263662671641
4119000000.0 0.934993909774689 0.4131447882528697
4122000000.0 0.9655998255147525 0.3804072028895953
4125000000.0 0.9719386320395411 0.41514122637420364
4128000000.0 0.9144489612403454 0.3898047092954875
4131000000.0 0.8916001227182013 0.3919990124829742
4134000000.0 0.937145366091548 0.37309528413009685
4138000000.0 0.9567424462429799 0.3360443490426816
4141000000.0 0.991622061431394 0.3504397071043269
4144000000.0 0.9839561349420385 0.3395535769981795
4147000000.0 0.9697746475780415 0.3336200477684262
4150000000.0 1.0038958559103899 0.3139578841373944
4153000000.0 0.9988056673170107 0.32576765709101707
4156000000.0 1.0061628365877024 0.3362058304524309
4159000000.0 0.9698418501083432 0.2998821418387207
4162000000.0 0.9764277675143982 0.296102979832788
4166000000.0 1.0114464634165774 0.2622632867090011
4169000000.0 0.9687556244173665 0.2600831286871429
4172000000.0 0.9824450568912546 0.2665737151298297
4175000000.0 1.0144218078583465 0.24208876569833343
4178000000.0 1.0036546230130736 0.26475728106601004
4181000000.0 0.9779907856744954 0.20355435924516463
4184000000.0 0.9799928368227813 0.24431956164662277
4188000000.0 0.9865229081256852 0.1933873526227154
4191000000.0 0.9695144290555958 0.2405252799444369
4194000000.0 0.9892003551765102 0.19652504227682954
4197000000.0 1.004443682045192 0.2058312037223891
4200000000.0 1.0152005786660696 0.19881033825404199
4203000000.0 1.0074945010192058 0.1942804834795991
4206000000.0 1.0311370068193981 0.17038684228687478
4209000000.0 0.9956151500068314 0.13612436952164675
4212000000.0 1.0024610484847012 0.11711899047007035
4216000000.0 1.0247018622314261 0.16746159871527733
4219000000.0 1.0303581137746123 0.14478023941790838
4222000000.0 1.008118542909498 0.09954261168148903
4225000000.0 0.9892940244141413 0.10390703848645846
4228000000.0 1.0151407944190938 0.09346500368392643
4231000000.0 1.0213267328065951 0.07742114612106593
4234000000.0 1.0288042702971723 0.07555565856082841
4238000000.0 1.02608136304857 0.04733396901683895
4241000000.0 1.017808524578203 0.040298547841487314
4244000000.0 1.0070887418833598 0.04874115401717635
4247000000.0 0.9988727719344372 0.037152245886455715
4250000000.0 1.002893593939405 0.018319797687077005
4253000000.0 0.9928045351075954 0.012667836913831027
4256000000.0 1.047766828127631 0.020055631150199343
4259000000.0 0.986349590290004 0.006703490376685717
4262000000.0 1.0063865225642672 -0.025673317736967197
4266000000.0 1.031197154048947 -0.05787000867352993
4269000000.0 1.0171437636883414 -0.024483297460589915
4272000000.0 0.9944067591484571 -0.039279794725264605
4275000000.0 1.0181811278096864 -0.031557184234666906
4278000000.0 1.025901201421745 -0.033919427733098625
4281000000.0 1.010227373836165 -0.058973814071698605
4284000000.0 1.026618042973309 -0.10168454594530754
4288000000.0 1.0190551623406023 -0.06252208030540982
4291000000.0 0.9875933184434005 -0.09028440020288132
4294000000.0 0.9982368426041788 -0.10529220500943054
4297000000.0 1.0025212772407999 -0.08458090607229447
4300000000.0 0.9808881033553398 -0.11894937661758029
4303000000.0 0.9791801000954712 -0.13717122518690322
4306000000.0 1.009985053635791 -0.11450534665603962
4309000000.0 0.9863786476400397 -0.14571987001715708
4312000000.0 1.0490881072219846 -0.11193670275604728
4316000000.0 1.0229328743439823 -0.14048047533438157
4319000000.0 0.9678889633915333 -0.18043785123950362
4322000000.0 0.9831807358524493 -0.19408529719999262
4325000000.0 0.9993671732528888 -0.19200253503651343
4328000000.0 0.9757685740300108 -0.19160856309102284
4331000000.0 0.981378797535375 -0.23232303522031827
4334000000.0 1.0107680420206222 -0.23334343776379668
4338000000.0 0.9814447786167082 -0.22273664033539675
4341000000.0 1.024502994257572 -0.21975899096820756
4344000000.0 1.000313307664081 -0.2337078687515493
4347000000.0 1.000462405663477 -0.2806680496193642
4350000000.0 0.950284227500539 -0.28214851692111725
4353000000.0 0.9677153280517177 -0.24222747405303097
4356000000.0 0.9493035908857591 -0.3060227029148324
4359000000.0 0.9231891126203018 -0.30599519891650057
4362000000.0 0.9515683696960942 -0.3516128420255134
4366000000.0 0.9850254087918098 -0.33707544158491454
4369000000.0 0.9159038017603126 -0.32661149511682974
4372000000.0 0.9311521244564209 -0.3584632469894091
4375000000.0 0.9556116019882936 -0.31729142576923375
4378000000.0 0.9230192839821092 -0.3524946308727971
4381000000.0 0.9263312930640322 -0.35682483826141875
4384000000.0 0.9923272642152081 -0.3910911078305592
4388000000.0 0.916005705330398 -0.3598956000419299
4391000000.0 0.9420529385531435 -0.40146774742032876
4394000000.0 0.9089453344357438 -0.3919685117153534
4397000000.0 0.928917397118606 -0.4101614267260191
4400000000.0 0.9303008267186907 -0.4414275439123957
4403000000.0 0.9174263085974179 -0.4290658805710436
4406000000.0 0.9080789037765936 -0.4536620136508249
4409000000.0 0.9335903222726594 -0.4711641385985669
4412000000.0 0.8626939357194316 -0.5105038417486554
4416000000.0 0.8833381373417104 -0.450993782585707
4419000000.0 0.893577952294071 -0.49482791657956515
4422000000.0 0.8995833755515168 -0.45222072404307356
4425000000.0 0.912882809170088 -0.48612281690925674
4428000000.0 0.8764904156446474 -0.5062927814860012
4431000000.0 0.8920765378803532 -0.5069315157605592
4434000000.0 0.8566789906198505 -0.5210433815255504
4438000000.0 0.8822907486379581 -0.5293670994898194
4441000000.0 0.8722378288220376 -0.5494261667324802
4444000000.0 0.8590934556846419 -0.5340593013610008
4447000000.0 0.82804779395851 -0.5626433930534235
4450000000.0 0.8445629037833111 -0.5506942157831163
4453000000.0 0.847396178860419 -0.5694762841657425
4456000000.0 0.8240059202748915 -0.5661490609270247
4459000000.0 0.7820904026095801 -0.5636175080550787
4462000000.0 0.8629177064916309 -0.6226592888198882
4466000000.0 0.8359065031315999 -0.6388244506168267
4469000000.0 0.8193791715128776 -0.6066685477228466
4472000000.0 0.7919138527640565 -0.6274883150951956
4475000000.0 0.7885916667684192 -0.6018080199102079
4478000000.0 0.8220392350239687 -0.6518615872912344
4481000000.0 0.7592858684712006 -0.6223755692500871
4484000000.0 0.7559629285027489 -0.6719916659480268
4488000000.0 0.7589216995686874 -0.6676046139908227
4491000000.0 0.7643313600847594 -0.6612238280766083
4494000000.0 0.7739933102362111 -0.6558501090430271
4497000000.0 0.7486275147820394 -0.6610749214900429
4500000000.0 0.7507282921237661 -0.6721569015156681
4503000000.0 0.7558655772459917 -0.7109647561224017
4506000000.0 0.7367753201768603 -0.6921691298964758
4509000000.0 0.6983011379604513 -0.6996551110608807
4512000000.0 0.6803634231261724 -0.7038095902128843
4516000000.0 0.7058052524212282 -0.7280002998583559
4519000000.0 0.6943515079868914 -0.7154144998037424
4522000000.0 0.7036868707595358 -0.7275026582171186
4525000000.0 0.7201550746002525 -0.7389756451697459
4528000000.0 0.6979982393383078 -0.7495017057469435
4531000000.0 0.6969840192103236 -0.7473652530846864
4534000000.0 0.663623392679457 -0.7768850474672053
4538000000.0 0.6362664729986132 -0.7721065157669412
4541000000.0 0.6123614182593027 -0.7933171311562771
4544000000.0 0.6363496222871123 -0.7752648728101361
4547000000.0 0.6469128968727376 -0.7837751966893349
4550000000.0 0.6324198325486451 -0.8209622330805489
4553000000.0 0.6092574966006414 -0.8183421741042023
4556000000.0 0.6011702933837786 -0.809980234443412
4559000000.0 0.578232510643012 -0.8087901985722132
4562000000.0 0.5771249910070098 -0.8353144793771512
4566000000.0 0.5940712714990769 -0.8304461912183765
4569000000.0 0.5678059250462584 -0.8449894509884459
4572000000.0 0.5632109486362048 -0.8351869380652086
4575000000.0 0.535829997912703 -0.8532326757045376
4578000000.0 0.577951543065141 -0.8541423476067698
4581000000.0 0.5310789290502559 -0.8509247517330323
4584000000.0 0.5250163752365848 -0.8673460647106556
4588000000.0 0.5323111809824115 -0.8844532836120115
4591000000.0 0.5173108797118622 -0.8879982581265328
4594000000.0 0.4913768564954786 -0.8793027129423067
4597000000.0 0.5009268210618067 -0.8995827384141825
4600000000.0 0.48312627828388366 -0.9056006776643031
4603000000.0 0.4636500322959332 -0.8971194019783046
4606000000.0 0.4785634405360612 -0.9201552397390919
4609000000.0 0.4741366983655484 -0.9086128624379973
4612000000.0 0.43534621003556945 -0.8981214265550794
4616000000.0 0.43516865065209404 -0.9044563915070353
4619000000.0 0.41525284138273605 -0.9248890556917966
4622000000.0 0.39957198129734584 -0.9471184537569801
4625000000.0 0.3787609271012796 -0.9454330410931444
4628000000.0 0.4062870084796767 -0.9554285900445882
4631000000.0 0.39547943234360605 -0.9516347122003028
4634000000.0 0.373748018450173 -0.9581501830111541
4638000000.0 0.35886249817757865 -0.9645974859632319
4641000000.0 0.35044753317681676 -0.951116788485779
4644000000.0 0.35765011581860434 -0.951778630668885
4647000000.0 0.34840122381074434 -0.9510784494215517
4650000000.0 0.3155973599677302 -0.9550516398859913
4653000000.0 0.33241205043938343 -0.9771540761633258
4656000000.0 0.3029342128336934 -0.9890791394005851
4659000000.0 0.29691010598248035 -0.9877504921609315
4662000000.0 0.27901396832783937 -1.0039780813688757
4666000000.0 0.2580376204231211 -1.0037358936652208
4669000000.0 0.2664769579990667 -0.9910086337750261
4672000000.0 0.250578806441662 -1.0086131673951084
4675000000.0 0.2593864589430889 -0.9956260331063906
4678000000.0 0.22925784267397614 -0.9444341971143021
4681000000.0 0.23267093277936804 -1.0008393967410045
4684000000.0 0.18878877765891194 -1.047804592214547
4688000000.0 0.15101602559924024 -1.0026331456862791
4691000000.0 0.217171142160819 -1.026243864101439
4694000000.0 0.21088108190287838 -0.9799943985311883
4697000000.0 0.1390629447775068 -0.9617276534690666
4700000000.0 0.18403275690990356 -1.004390529963648
4703000000.0 0.1976169382146351 -0.966213868984606
4706000000.0 0.14098693931047673 -0.9937691065017219
4709000000.0 0.13153803346111792 -1.000959081609793
4712000000.0 0.14250940354049935 -1.0301232956433295
4716000000.0 0.0944360098099471 -1.0280117552273664
4719000000.0 0.155433202296641 -1.0045026584968404
4722000000.0 0.12903647007187083 -1.0225138271782999
4725000000.0 0.09447551394947615 -1.0034980416151746
4728000000.0 0.05811382168568288 -1.0041134842294035
4731000000.0 0.0901464457214475 -1.0459482674236746
4734000000.0 0.05448425176801522 -1.0036694607666568
4738000000.0 0.055410034765027455 -1.094205626022808
4741000000.0 0.010954771385766948 -1.0754814995594109
4744000000.0 0.041814925741327336 -1.0078682849303435
4747000000.0 0.01447858405142649 -0.9928774676135835
4750000000.0 0.009841610734973416 -1.0392729242539334
4753000000.0 0.016018268102144684 -1.0216764696387142
4756000000.0 -0.022759849418152178 -1.0504293207429034
4759000000.0 -0.016665300201048006 -1.0570143627356092
4762000000.0 -0.03765234676550966 -1.067923019332711
4766000000.0 -0.036342493956730615 -1.0218583521392026
4769000000.0 -0.04945373729871111 -1.0187694755707013
4772000000.0 -0.045351605393639305 -1.044997960943701
4775000000.0 -0.07637745948431585 -1.045101836714074
4778000000.0 -0.11723146481208024 -1.0270189455864263
4781000000.0 -0.09203834248922227 -1.0196243376671448
4784000000.0 -0.08682088177853281 -1.0064372315571255
4788000000.0 -0.17049259643565967 -1.0331902629858727
4791000000.0 -0.11621568875617017 -1.022110709420079
4794000000.0 -0.12020966713907666 -1.0552139988218596
4797000000.0 -0.15507560110722124 -0.9765675772053114
4800000000.0 -0.16014938123911912 -0.9975987813782485
4803000000.0 -0.20957007025512964 -0.9991471013719033
4806000000.0 -0.21083507763358594 -1.0356706782312495
4809000000.0 -0.24849453682132766 -0.9900246379150154
4812000000.0 -0.24763696597016233 -0.9992748678843346
4816000000.0 -0.17260415289025233 -0.9862635087379994
4819000000.0 -0.20585150774477146 -1.0304507333106867
4822000000.0 -0.24892325288447548 -1.0331482057975496
4825000000.0 -0.2207740343292809 -1.0305935413032679
4828000000.0 -0.2546400502514884 -1.0004426104492716
4831000000.0 -0.3102776682118161 -1.017088011050764
4834000000.0 -0.2563970220411297 -0.9984209846859144
4838000000.0 -0.32476204069446246 -1.0169159474755607
4841000000.0 -0.29619081688173116 -0.9818516707060941
4844000000.0 -0.30192554163429186 -1.0127832720984815
4847000000.0 -0.2682889298735772 -0.9548111072141157
4850000000.0 -0.37190008744140435 -0.9950094990436338
4853000000.0 -0.3442804499297799 -0.9457119243409899
4856000000.0 -0.3520105246627293 -0.941752418808833
4859000000.0 -0.3827733335254922 -0.9952719548276
4862000000.0 -0.3519357658673262 -0.9332326614849568
4866000000.0 -0.41842240044769907 -0.9733430653402902
4869000000.0 -0.4031762587002646 -0.9580824548936467
4872000000.0 -0.44348968552351353 -0.9706505311795683
4875000000.0 -0.390701580549281 -0.9880717967826246
4878000000.0 -0.41022977385028586 -0.9631299614928598
4881000000.0 -0.46682625200707795 -0.9592442734915019
4884000000.0 -0.427790497032892 -0.9541310297380408
4888000000.0 -0.428261117625442 -0.9244140890627072
4891000000.0 -0.4727527202385866 -0.9492795279397823
4894000000.0 -0.47881018587797514 -0.9054995626937062
4897000000.0 -0.430360453537238 -0.9266380467194199
4900000000.0 -0.49527888691511945 -0.9196064806048162
4903000000.0 -0.518947148050681 -0.9154141327820852
4906000000.0 -0.49872754171457956 -0.9348462732655364
4909000000.0 -0.5105472122112 -0.8702828956632535
4912000000.0 -0.5831588826668617 -0.8826488734524167
4916000000.0 -0.5637476149046123 -0.9228394731755074
4919000000.0 -0.5787393266274701 -0.9144279655858883
4922000000.0 -0.5476253658454514 -0.9004504006296437
4925000000.0 -0.5792343032521016 -0.8608028173882084
4928000000.0 -0.5459407016199433 -0.8661720742737447
4931000000.0 -0.5730843013880531 -0.8511669272849718
4934000000.0 -0.5881769420566877 -0.8290530445364932
4938000000.0 -0.6142248874545244 -0.8076228616455225
4941000000.0 -0.6034303412173012 -0.8440952063683042
4944000000.0 -0.5969244634257865 -0.7891362613940829
4947000000.0 -0.6244749000960167 -0.8046643722387854
4950000000.0 -0.6116180273819364 -0.8480438933382649
4953000000.0 -0.7037465679117111 -0.8023577057545995
4956000000.0 -0.6638001786608931 -0.7927348753204913
4959000000.0 -0.6767052133308074 -0.768461664781392
4962000000.0 -0.6950857339162031 -0.8007980955184877
4966000000.0 -0.6598705988044039 -0.7785979147860675
4969000000.0 -0.7338029429479349 -0.7976449445547391
4972000000.0 -0.6997058609455461 -0.7430651432116113
4975000000.0 -0.7007793904783719 -0.7451009872354784
4978000000.0 -0.7285497134455519 -0.7588908042181216
4981000000.0 -0.7772968987523409 -0.7312648561754481
4984000000.0 -0.7362752295909631 -0.689749751835756
4988000000.0 -0.7492482996472569 -0.7350106777869043
4991000000.0 -0.7579337455358632 -0.7762099383063239
4994000000.0 -0.744082825381078 -0.6879054539632912
4997000000.0 -0.8079690983683749 -0.6765792299688815
5000000000.0 -0.7884206840549405 -0.697758171497884
5003000000.0 -0.8056802231030613 -0.6959307037781574
5006000000.0 -0.8200348023343683 -0.6971174754612562
5009000000.0 -0.7735681241392416 -0.6680550930909288
5012000000.0 -0.8613568628089732 -0.6578354630081968
5016000000.0 -0.7999946118102488 -0.6818843645736671
5019000000.0 -0.8482663518286243 -0.6526004681297553
5022000000.0 -0.8363141520450922 -0.6012398896681088
5025000000.0 -0.8826643906347587 -0.6046931109546237
5028000000.0 -0.8629672588146552 -0.610879393018194
5031000000.0 -0.88837381282032 -0.5845887596577439
5034000000.0 -0.8909054573853729 -0.5725070603048326
5038000000.0 -0.8450534016882572 -0.5604640749985125
5041000000.0 -0.8523939338693824 -0.59350835727244
5044000000.0 -0.8217229412334811 -0.5815175245238862
5047000000.0 -0.8921135395605915 -0.5175338328913573
5050000000.0 -0.8843170592283577 -0.5339200343364396
5053000000.0 -0.9396671996822963 -0.5165783329883982
5056000000.0 -0.8921886390424447 -0.516985799249009
5059000000.0 -0.9070338697217346 -0.4898303341634117
5062000000.0 -0.9301834610465658 -0.47611582024448607
5066000000.0 -0.9068241606094871 -0.4553217899648485
5069000000.0 -0.9420789587100454 -0.4700399378981327
5072000000.0 -0.9494888186560537 -0.4763702209822684
5075000000.0 -0.8995728739088287 -0.4720611152707757
5078000000.0 -0.9501719521473364 -0.4531674889947669
5081000000.0 -0.9630723512359802 -0.39797381167818646
5084000000.0 -0.9604811907616801 -0.37542085780198925
5088000000.0 -0.9714745209869898 -0.35286573935338833
5091000000.0 -0.927221046651383 -0.32804983642191454
5094000000.0 -0.9745597096723781 -0.30504187214795647
5097000000.0 -0.9311540669573567 -0.3303925145596859
5100000000.0 -0.9877511755637223 -0.3159898601812995
5103000000.0 -1.0223290000556866 -0.197196748777335
5106000000.0 -0.9918522079001352 -0.30898066567773463
5109000000.0 -0.9558942473583875 -0.33014921174851836
5112000000.0 -0.9920231538271763 -0.23899185808470907
5116000000.0 -1.010379930881129 -0.2671160705651362
5119000000.0 -1.0528968829189473 -0.22055727655725654
5122000000.0 -0.9751915451909255 -0.20687045538566357
5125000000.0 -0.9643786418619077 -0.27138166227198096
5128000000.0 -0.9959432857729198 -0.23176460425987555
5131000000.0 -1.015375561721747 -0.18303559074191195
5134000000.0 -0.9745590483508386 -0.154352224523236
5138000000.0 -0.9648774469320228 -0.1910143206686143
5141000000.0 -1.0382389611220717 -0.21532112873153558
5144000000.0 -1.0093977522522843 -0.13546432683982843
5147000000.0 -1.0630195329887486 -0.12251785618546902
5150000000.0 -1.102196970002463 -0.1862805360609692
5153000000.0 -1.074937675935453 -0.07760967722279263
5156000000.0 -1.0143873967816506 -0.12824148374597247
5159000000.0 -1.0668269008064035 -0.052042183672350924
5162000000.0 -1.0882094606052444 -0.026655888611181868
5166000000.0 -1.0008662758133833 -0.08007482925780986
5169000000.0 -1.0359955435449293 -0.008243791831000553
5172000000.0 -1.0469548905219521 -0.039153957025976405
5175000000.0 -1.045809306228712 0.01895196917404028
5178000000.0 -1.0681175730363208 0.024116491393056272
5181000000.0 -1.0507869806661965 0.09027075829126999
5184000000.0 -1.009708842917709 0.030199318012987003
