! Created with skrf 1.8.0 (http://scikit-rf.org).
# Hz S RI R 50.0 
!freq ReS11 ImS11
4000000000.0 0.6489033730733177 0.7644920319961646
4003000000.0 0.6628193241785385 0.8598530212292876
4006000000.0 0.6867059350638548 0.8256338372020138
4009000000.0 0.6695852815391392 0.784402642216835
4012000000.0 0.6490496566253605 0.8702044873510778
4016000000.0 0.7519149078749532 0.7718028548605353
4019000000.0 0.6997257520018927 0.7787770886377301
4022000000.0 0.667431978261286 0.8251004554939465
4025000000.0 0.7526739799499849 0.7034573303600458
4028000000.0 0.7635968398843029 0.7568240008192468
4031000000.0 0.7003656419164932 0.7210978308236914
4034000000.0 0.717566534425691 0.72716220624115
4038000000.0 0.7336901134996437 0.7301391988567361
4041000000.0 0.759708147807627 0.714126656405163
4044000000.0 0.7673862114798712 0.7635437264198777
4047000000.0 0.7043219087246984 0.7751171928514843
4050000000.0 0.7527679344940728 0.6869226713725511
4053000000.0 0.7169342262606131 0.6727261430882205
4056000000.0 0.800892586714931 0.695018666670137
4059000000.0 0.7510926794682142 0.6741993299521287
4062000000.0 0.7860680108048953 0.6577416358948653
4066000000.0 0.7271782955552153 0.644682269346929
4069000000.0 0.8254373383025551 0.6784704809230948
4072000000.0 0.7709459796125058 0.6918147278917923
4075000000.0 0.8059545326083056 0.7081034528560268
4078000000.0 0.8026394660157348 0.6357078061205647
4081000000.0 0.8088663913809192 0.7206344366084868
4084000000.0 0.8254719114386075 0.6476467048093022
4088000000.0 0.7940820598397477 0.6688377757112731
4091000000.0 0.8845026835711257 0.6747703677596915
4094000000.0 0.8074946819549106 0.6049494089771741
4097000000.0 0.8334082840440138 0.6107360497484591
4100000000.0 0.8572363985268209 0.6246933623140167
4103000000.0 0.8329105976830387 0.5775739766316272
4106000000.0 0.8995887709507067 0.6184827324638917
4109000000.0 0.8692151391872551 0.5750834344109423
4112000000.0 0.8341705155279207 0.6228554968969748
4116000000.0 0.8399908480836765 0.589460458990618
4119000000.0 0.8890815952301796 0.5544284575724839
4122000000.0 0.9207074954373511 0.5502425278603479
4125000000.0 0.9282397996418729 0.5435231879162745
4128000000.0 0.8800231154963637 0.5486124266427732
4131000000.0 0.8976233111528557 0.5361480418358952
4134000000.0 0.9006442390092063 0.5701357701870249
4138000000.0 0.8731622585941958 0.504441625833826
4141000000.0 0.8912222677147176 0.4966883120524429
4144000000.0 0.8981710047286413 0.5394902854635812
4147000000.0 0.8907501223770947 0.4929446189282472
4150000000.0 0.9219012243141214 0.4997964925845943
4153000000.0 0.9105894307740842 0.463382084392972
4156000000.0 0.908736406527948 0.5041079135934103
4159000000.0 0.869278888353836 0.4748099883280383
4162000000.0 0.9038456929425227 0.4587499201583233
4166000000.0 0.9301642582178757 0.4544273452355144
4169000000.0 0.933529591885585 0.43206235629168754
4172000000.0 0.9431567284930756 0.4635396683870559
4175000000.0 0.9373573964633942 0.4255791898521805
4178000000.0 0.9396615119327959 0.4042578514328192
4181000000.0 0.9376613045487816 0.4035711869588492
4184000000.0 0.9080234193324984 0.41206693420954105
4188000000.0 0.9576726186222897 0.381430580279257
4191000000.0 0.9434396761816737 0.4398521781275823
4194000000.0 0.9263445603782907 0.38184123348358423
4197000000.0 0.9653777190364353 0.3870925244187931
4200000000.0 0.9459957523825999 0.37577878564053124
4203000000.0 0.9614611945538616 0.39859595989039676
4206000000.0 0.9800214256492785 0.36153727464806346
4209000000.0 0.9695642169900999 0.33280562864955704
4212000000.0 0.9568322897596401 0.31432764239840416
4216000000.0 0.9580867580261553 0.34194353405194616
4219000000.0 0.9944339441708283 0.34618205877638
4222000000.0 0.9729522611467452 0.31174970154844467
4225000000.0 0.9601885935975054 0.3266367694897456
4228000000.0 0.988950060680458 0.3187774127799763
4231000000.0 0.9892547833791518 0.2823957268971888
4234000000.0 0.9942934397174591 0.26784584838517517
4238000000.0 0.9957306449530821 0.25739303346966635
4241000000.0 1.0065048381319366 0.2420148988665703
4244000000.0 0.9708810463613188 0.2532660087464683
4247000000.0 0.9883239687361839 0.26628588068322223
4250000000.0 0.975342087901147 0.23704907662638347
4253000000.0 0.9626713554335353 0.22232306597152973
4256000000.0 1.0291159404362877 0.2340141406538358
4259000000.0 0.9746728441942474 0.1976759993729075
4262000000.0 0.9864601044254919 0.1837741738965544
4266000000.0 1.0088453100707082 0.169743742355368
4269000000.0 1.0194125115042658 0.1956900121600175
4272000000.0 1.0040137054597338 0.18108967064743775
4275000000.0 0.9897987542290327 0.1644570772455805
4278000000.0 1.0314520092054777 0.16863540228633217
4281000000.0 0.9996838284318844 0.16648807730145476
4284000000.0 1.0396607477863462 0.10488308505996458
4288000000.0 1.0397871115722999 0.1790166375981219
4291000000.0 0.9857710952215947 0.1154692222312411
4294000000.0 1.0086827117964228 0.11141053175153691
4297000000.0 0.9872552381410999 0.13241156304712393
4300000000.0 0.9995277039906916 0.1177032506907354
4303000000.0 0.9999395668752523 0.0823158271018201
4306000000.0 1.0132480023568018 0.10768701801299088
4309000000.0 0.9903121908939952 0.07681027798688904
4312000000.0 1.0157769288723295 0.10318811359169194
4316000000.0 1.033619941255897 0.06411978320233742
4319000000.0 0.9765108106180059 0.0690894633010873
4322000000.0 0.9648555011373952 0.014462675204268916
4325000000.0 0.9999651721666505 0.04258667458826455
4328000000.0 1.0241417875609544 0.02443102334143614
4331000000.0 1.0168037859586045 -0.0010707158327192962
4334000000.0 1.0619173174192078 0.0015891252791868926
4338000000.0 1.0295403104858103 0.028038476339397087
4341000000.0 1.0415025814546213 0.012646987752874317
4344000000.0 1.0473794685842575 0.0070731696171001945
4347000000.0 1.0167835554449296 -0.0383608608149654
4350000000.0 0.9694343584733137 -0.04397936113229202
4353000000.0 1.0139835854937704 -0.04601220975435007
4356000000.0 1.012665007226778 -0.06345868653509787
4359000000.0 0.9848483895105845 -0.06024214166147743
4362000000.0 1.0232624884382657 -0.12442687381730208
4366000000.0 1.0195707406174122 -0.07929614944536217
4369000000.0 0.9658234861944837 -0.11451308912890149
4372000000.0 1.0114016119073994 -0.14647091026124062
4375000000.0 0.990228697421839 -0.08427965118708657
4378000000.0 0.9851074798367371 -0.10544724936314731
4381000000.0 0.9916598472738349 -0.11272016781564584
4384000000.0 1.0624648982715996 -0.1711381219120589
4388000000.0 0.9872337441063669 -0.13281132961036055
4391000000.0 0.9995829217494081 -0.1587234844088722
4394000000.0 0.9747543162075014 -0.14880841907230188
4397000000.0 0.9809225543221503 -0.1702814201481012
4400000000.0 1.027781302116329 -0.17245115276859058
4403000000.0 0.9936384361276225 -0.17789510865971653
4406000000.0 0.9959396595905677 -0.21665329827354698
4409000000.0 1.0182751907521932 -0.2099320145256997
4412000000.0 0.9556909396074221 -0.26197738523496367
4416000000.0 0.9721612345326862 -0.22610691653206758
4419000000.0 0.9791453923867016 -0.25495129896161484
4422000000.0 0.9833329761565637 -0.21834980879818267
4425000000.0 1.0128785355895813 -0.22870776918630514
4428000000.0 0.9666412064770039 -0.2547484154917267
4431000000.0 1.0033010941356026 -0.25789795383659186
4434000000.0 0.955735589168921 -0.2876165631972494
4438000000.0 0.9818725373698727 -0.28723802714928703
4441000000.0 0.9860356302414734 -0.2937867679112499
4444000000.0 0.9415350398057447 -0.27760521658193416
4447000000.0 0.9461619688436189 -0.306911210252892
4450000000.0 0.9553089023416039 -0.3024789310922744
4453000000.0 0.9870536800196168 -0.33868595079962127
4456000000.0 0.9352633484628617 -0.33006745291864814
4459000000.0 0.9210369943824381 -0.34296800237320535
4462000000.0 1.0076977400640466 -0.35353235967136415
4466000000.0 0.9712440849884996 -0.39221713915279477
4469000000.0 0.9632708393541058 -0.34617482405716715
4472000000.0 0.9562818198920718 -0.3980323605401031
4475000000.0 0.9045102466047629 -0.3916376095317107
4478000000.0 0.9627231972679995 -0.43138951653041624
4481000000.0 0.9147485247979779 -0.4053659548444497
4484000000.0 0.9160262875354974 -0.44263202347822106
4488000000.0 0.8958050019152931 -0.42548820006378424
4491000000.0 0.9305423111036141 -0.4327491801462732
4494000000.0 0.9154243466951021 -0.415760216396081
4497000000.0 0.9081730505846575 -0.4266600714380013
4500000000.0 0.9124344062143701 -0.4297857314884855
4503000000.0 0.924930253268929 -0.48011748326228815
4506000000.0 0.8675006099577287 -0.46871446355265517
4509000000.0 0.8776429359784621 -0.4558994695362739
4512000000.0 0.879049203818779 -0.49131304407159193
4516000000.0 0.8873438917444931 -0.48737896261320357
4519000000.0 0.8700158069022044 -0.4802225605847752
4522000000.0 0.879087000256362 -0.5164863566796974
4525000000.0 0.8816798473053589 -0.4786739816067692
4528000000.0 0.8908482641026065 -0.5505679327935772
4531000000.0 0.8774313459595259 -0.5229079559415913
4534000000.0 0.8336424505146393 -0.5375129129007569
4538000000.0 0.8514437373695223 -0.5334052244044715
4541000000.0 0.8300128908269164 -0.5876385722971371
4544000000.0 0.8308894938094125 -0.5489880122208022
4547000000.0 0.8393285113942321 -0.5396096495275271
4550000000.0 0.8292187854403053 -0.6002327979164014
4553000000.0 0.8238065424074883 -0.5942390191617858
4556000000.0 0.797830261600244 -0.5731827272190657
4559000000.0 0.820111381086437 -0.6050104658236504
4562000000.0 0.8164485808515414 -0.6078486335474785
4566000000.0 0.7952301056621127 -0.6194172285661674
4569000000.0 0.777042020224238 -0.5984192227330307
4572000000.0 0.78327463815159 -0.6245331396537914
4575000000.0 0.7846152080172624 -0.6366353126540069
4578000000.0 0.8147102953543592 -0.6481188505418598
4581000000.0 0.7787242644307089 -0.6578055398579336
4584000000.0 0.7685940385081979 -0.6669975117457687
4588000000.0 0.8007874287665954 -0.6577813284986881
4591000000.0 0.7755169495719207 -0.6552764767736894
4594000000.0 0.7367602061287297 -0.6844629235878777
4597000000.0 0.762835242556194 -0.6872849086449745
4600000000.0 0.7220791909049614 -0.698843459837931
4603000000.0 0.7508437954586612 -0.7188902681995393
4606000000.0 0.7502678295978944 -0.6961473811918899
4609000000.0 0.7351560661483556 -0.7006176518205091
4612000000.0 0.7326966530155475 -0.7098067259243048
4616000000.0 0.6926319899490045 -0.7041118160635643
4619000000.0 0.6999423964813617 -0.7243097279792282
4622000000.0 0.7098722151986732 -0.7467164592973535
4625000000.0 0.6613487898173616 -0.7392285393502847
4628000000.0 0.709947070434824 -0.7191495423953821
4631000000.0 0.6781755243694492 -0.740406941491509
4634000000.0 0.6882259754986263 -0.7584753421071642
4638000000.0 0.6822664148636648 -0.7687647528730102
4641000000.0 0.6782010579121083 -0.7635407108715422
4644000000.0 0.6494168522924373 -0.7655913864853228
4647000000.0 0.6422977551903974 -0.7742326147278611
4650000000.0 0.6223714548275444 -0.7853285254485207
4653000000.0 0.634649944696719 -0.7995860969850556
4656000000.0 0.6183164883368124 -0.8070057808657078
4659000000.0 0.6268864406337807 -0.8068149671006212
4662000000.0 0.6242478048761608 -0.8115794076592389
4666000000.0 0.5944648297327912 -0.8235055901662888
4669000000.0 0.6106113495882359 -0.8133898995636113
4672000000.0 0.5900178947630879 -0.855679197374421
4675000000.0 0.5767188026636296 -0.834245105576038
4678000000.0 0.5560105373260207 -0.8265673773779703
4681000000.0 0.5444888362738105 -0.8527129752275475
4684000000.0 0.5563671085941714 -0.8857681945014003
4688000000.0 0.5294496645969107 -0.8494060760892037
4691000000.0 0.5632525224978185 -0.8484853992631263
4694000000.0 0.5242361508897104 -0.8481366007752889
4697000000.0 0.4765095853559759 -0.8280305925797677
4700000000.0 0.525788701088307 -0.8550880468432325
4703000000.0 0.5270970989613153 -0.8226696619060543
4706000000.0 0.4740010435969107 -0.8869241804963236
4709000000.0 0.4746059110360103 -0.883671047043622
4712000000.0 0.4969779231371242 -0.8933828032045388
4716000000.0 0.5093059307192476 -0.9074321306207227
4719000000.0 0.5071200210499694 -0.8892235896448724
4722000000.0 0.4793870626323554 -0.9074907930494498
4725000000.0 0.4795403628665854 -0.907984287671215
4728000000.0 0.428432059733896 -0.8996410842630036
4731000000.0 0.4496095101793329 -0.9401273423522523
4734000000.0 0.46306281557547985 -0.9063544704091901
4738000000.0 0.4673666175588692 -0.9294303883859568
4741000000.0 0.44015510627584864 -0.935119071882727
4744000000.0 0.40802297057771925 -0.9311634660447987
4747000000.0 0.41007044425871914 -0.9015669376943259
4750000000.0 0.41346288528140074 -0.9701172047526969
4753000000.0 0.37673539844298176 -0.9461649746140868
4756000000.0 0.36703843860056334 -0.9596981223135854
4759000000.0 0.3786296602902528 -0.9481465965536727
4762000000.0 0.32902732171355137 -0.9680889223401814
4766000000.0 0.35982402744781083 -0.9459966284666169
4769000000.0 0.3474299242302299 -0.9740691970392973
4772000000.0 0.3566391295709616 -0.9708555953747503
4775000000.0 0.321329233557332 -1.000101056997215
4778000000.0 0.33078026072936095 -0.9640459646111804
4781000000.0 0.31167058927708174 -0.9581334336525344
4784000000.0 0.32404923590855766 -0.9782903336956473
4788000000.0 0.2924112574869673 -0.9862612878660237
4791000000.0 0.27768494816669553 -0.9823645283048587
4794000000.0 0.322056273053319 -0.9954289836799661
4797000000.0 0.2540370289819703 -0.9900813145973114
4800000000.0 0.2545436841662046 -0.9825928006296571
4803000000.0 0.20255162658732462 -1.005381422340614
4806000000.0 0.26439169383346894 -1.0007044396847533
4809000000.0 0.20279388770627174 -0.9960803931421934
4812000000.0 0.2049859798096013 -1.0068305287273926
4816000000.0 0.25658636646192395 -0.984349943654719
4819000000.0 0.2505321234954859 -1.0120262710755161
4822000000.0 0.23125698598684852 -1.013058243554387
4825000000.0 0.24495319176028169 -1.033085433067303
4828000000.0 0.1840152812019626 -1.013654081224983
4831000000.0 0.1501503772280734 -1.0289002218858165
4834000000.0 0.2119453941970762 -1.026890754013407
4838000000.0 0.16091363832354202 -1.0417566072231526
4841000000.0 0.15611501314071843 -0.9942612229420321
4844000000.0 0.1788201934207907 -1.0179807953077247
4847000000.0 0.15801259858845518 -0.986197029039469
4850000000.0 0.1255978908780132 -1.0511830294330025
4853000000.0 0.12547092802827678 -0.9884384233534251
4856000000.0 0.11981208657760659 -0.9890084722688331
4859000000.0 0.10066716527243708 -1.0618747082364126
4862000000.0 0.14252640610230638 -0.9964248058508195
4866000000.0 0.07745581308436858 -1.043658840921481
4869000000.0 0.06487782904997758 -1.040174705689546
4872000000.0 0.05515147189481776 -1.0717678048469448
4875000000.0 0.1010529166754949 -1.0568556113886056
4878000000.0 0.06665842636438897 -1.029598411213531
4881000000.0 0.022301289696946475 -1.0970572206060465
4884000000.0 0.04944122670559542 -0.9999271565240442
4888000000.0 0.06580531960870799 -1.0469605649287448
4891000000.0 0.07836865106777413 -1.0665001884358762
4894000000.0 0.014310872237848654 -1.0220790779313798
4897000000.0 0.02772178550166118 -1.0126478986956677
4900000000.0 0.030193348710590536 -1.0451746954243404
4903000000.0 0.03017830622823297 -1.0376046998859907
4906000000.0 -0.029618444005794733 -1.07908698030186
4909000000.0 -0.041634611889912736 -1.0575162425784908
4912000000.0 -0.06526657305228642 -1.0740637115064668
4916000000.0 -0.0012891978621162453 -1.0396454133222308
4919000000.0 0.012931926628541153 -1.0622753345659008
4922000000.0 -0.011967209331558856 -1.0487880518284296
4925000000.0 -0.07870175047130382 -1.0233515170448422
4928000000.0 -0.05022074443116835 -1.0228350106363462
4931000000.0 -0.023260734088680318 -1.0890924901809103
4934000000.0 -0.08677421205006257 -1.0045123324789489
4938000000.0 -0.16663151553331335 -1.0165887367599773
4941000000.0 -0.1013392599106341 -1.0384274571154612
4944000000.0 -0.06369118170648183 -0.9657760499765533
4947000000.0 -0.12017940136607677 -1.0139882115767136
4950000000.0 -0.14061670944341803 -1.0029434682940563
4953000000.0 -0.18500117454038267 -1.091626297403732
4956000000.0 -0.18551426322092873 -1.0163630024121932
4959000000.0 -0.18023198643728325 -0.959987052449155
4962000000.0 -0.15412988083726256 -1.0442887648408965
4966000000.0 -0.150701578842788 -1.0462041416852506
4969000000.0 -0.1570939559785801 -1.0337606546410751
4972000000.0 -0.19859877482970442 -1.0385046674883291
4975000000.0 -0.17324598437662594 -1.035918418038738
4978000000.0 -0.22797325103524363 -1.0101148980236807
4981000000.0 -0.236982328199036 -1.0178579389348843
4984000000.0 -0.21913326449972678 -0.9896738818271783
4988000000.0 -0.20753362885058801 -1.0338021114226568
4991000000.0 -0.18815150034791078 -1.0415833196582132
4994000000.0 -0.23031850634928974 -1.0065387819953728
4997000000.0 -0.26472996340050486 -0.9884769257212285
5000000000.0 -0.26668142123065974 -1.0533812946819157
5003000000.0 -0.25443147696051505 -1.0650497662000906
5006000000.0 -0.27773555932598004 -1.0436906037857447
5009000000.0 -0.2674861688445639 -1.0122861453325136
5012000000.0 -0.31326993484748983 -0.9778380641597846
5016000000.0 -0.2697036913005138 -1.0405454735022885
5019000000.0 -0.3246421301836635 -0.9656260817143538
5022000000.0 -0.32119126749274085 -0.9931270015125224
5025000000.0 -0.3336000112542377 -1.076406103972171
5028000000.0 -0.35396136479289797 -1.0002997498303252
5031000000.0 -0.34083103923841584 -1.005729246694318
5034000000.0 -0.39248757203567486 -0.9762518009397774
5038000000.0 -0.35099953781786275 -0.9347463580887321
5041000000.0 -0.30402677100475894 -1.010714547788376
5044000000.0 -0.3127525706355103 -0.9267987760194892
5047000000.0 -0.34857541350317595 -1.0118648916228086
5050000000.0 -0.3018890392475425 -0.9824832624500217
5053000000.0 -0.4217010017423036 -0.9931519964152209
5056000000.0 -0.3339218879165661 -0.9778878700080831
5059000000.0 -0.3297678977619228 -1.014355945469136
5062000000.0 -0.43780674167634415 -0.9473624448297677
5066000000.0 -0.36331981321553575 -1.018573934629484
5069000000.0 -0.4182811630627049 -1.0111075084806593
5072000000.0 -0.3706000872669844 -0.9135336866270367
5075000000.0 -0.4111681148589921 -0.9589615963313394
5078000000.0 -0.47775957235814787 -0.9413416737731963
5081000000.0 -0.4479663297499767 -0.8943449977424526
5084000000.0 -0.49639281399475244 -0.9416595697795314
5088000000.0 -0.4673846199222418 -0.9443728578859547
5091000000.0 -0.5155285112291135 -0.929043652940116
5094000000.0 -0.5051960783604938 -0.9429198560546331
5097000000.0 -0.4993038123962339 -0.9335713664204239
5100000000.0 -0.47810175032427943 -0.920205296279473
5103000000.0 -0.5377181048491193 -0.9238961563459792
5106000000.0 -0.5450602012876405 -0.9266616396122183
5109000000.0 -0.5108806322619783 -0.9290139019420653
5112000000.0 -0.554506246561897 -0.9103364248830097
5116000000.0 -0.528973586785545 -0.8513354736992043
5119000000.0 -0.5761789213287719 -0.8697051246030787
5122000000.0 -0.5203267989545511 -0.9280428689072351
5125000000.0 -0.512597767963493 -0.9328236458611622
5128000000.0 -0.5619674085053566 -0.8619696909586632
5131000000.0 -0.5465674195894706 -0.8605270803866032
5134000000.0 -0.626870681100893 -0.8421280795546789
5138000000.0 -0.5602172444454893 -0.9204477299742357
5141000000.0 -0.549500147048146 -0.8839199908389679
5144000000.0 -0.572508114990397 -0.8870890619265146
5147000000.0 -0.5919563308677492 -0.8645746326962437
5150000000.0 -0.6278735698862375 -0.8903840184968925
5153000000.0 -0.6212847817049525 -0.8057266755056148
5156000000.0 -0.6184734010600025 -0.8456623906817825
5159000000.0 -0.6258081366542497 -0.8988737266903873
5162000000.0 -0.6295627403282884 -0.8077854140951657
5166000000.0 -0.6632846854839446 -0.8184791141522031
5169000000.0 -0.6552805855876151 -0.8693645410003076
5172000000.0 -0.6022190216309247 -0.8242597836055507
5175000000.0 -0.6597271442602481 -0.8250463694011155
5178000000.0 -0.6955447850109719 -0.7803076369577262
5181000000.0 -0.6975462938144102 -0.8121412772360729
5184000000.0 -0.7157814073867017 -0.7818595220990142
5188000000.0 -0.6757011002808312 -0.8155822925048666
