! Created with skrf 1.8.0 (http://scikit-rf.org).
# Hz S RI R 50.0 
!freq ReS11 ImS11
4000000000.0 0.609369507909768 0.7829317162260174
4003000000.0 0.6627949644892984 0.870046972220574
4006000000.0 0.68084211602611 0.7623755239450342
4009000000.0 0.6373751696977717 0.7786869558543718
4012000000.0 0.6343250937815642 0.8920486312265347
4016000000.0 0.7366905951609648 0.7811543064632533
4019000000.0 0.6888586720170351 0.7592831758505219
4022000000.0 0.6454675325122878 0.8216757563137073
4025000000.0 0.7235842096628906 0.7387710526885353
4028000000.0 0.7285321392521267 0.7178489007770374
4031000000.0 0.643161726923444 0.7128616192980768
4034000000.0 0.707995203349025 0.7027070712519466
4038000000.0 0.7543581297639518 0.7384165148536916
4041000000.0 0.7439141721046508 0.7727257556004268
4044000000.0 0.7496526344318117 0.7548246515520226
4047000000.0 0.7389314303839368 0.7753004708557653
4050000000.0 0.759716552064592 0.6928982233366959
4053000000.0 0.7633926670719066 0.6766724489968381
4056000000.0 0.7685724077871 0.6989410574793143
4059000000.0 0.7538597746321138 0.6456727373279938
4062000000.0 0.7674813651066759 0.665610711340809
4066000000.0 0.7364454599957859 0.6088380903706726
4069000000.0 0.8250737795454337 0.6440652347471898
4072000000.0 0.7474899656033098 0.6712107136211933
4075000000.0 0.7984206242826519 0.7519135350462332
4078000000.0 0.8103698686052984 0.6811600773535407
4081000000.0 0.7513797012309998 0.6693755533656124
4084000000.0 0.8190650190527116 0.6481650070985014
4088000000.0 0.785075997669802 0.6675568716213285
4091000000.0 0.9134488256015445 0.6912890333583928
4094000000.0 0.823229611182407 0.6077460492472717
4097000000.0 0.8251294697929796 0.5994626586109013
4100000000.0 0.8470660022819474 0.5871376574182616
4103000000.0 0.8159660652616649 0.6045850332829703
4106000000.0 0.8731962332468266 0.5770920752045887
4109000000.0 0.8863222227209087 0.5447765878645694
4112000000.0 0.8376476511032946 0.5345324435558512
4116000000.0 0.8333466606832722 0.5790760521352369
4119000000.0 0.8742296718080232 0.5812825085843744
4122000000.0 0.8778730856519158 0.5235791280600557
4125000000.0 0.8682362269857941 0.5247666321432876
4128000000.0 0.8442464552441777 0.5708596272249131
4131000000.0 0.8876583521620696 0.5364865595319451
4134000000.0 0.8575099860565917 0.5345647619606667
4138000000.0 0.8852148484710989 0.5086548574514711
4141000000.0 0.871520016618075 0.5086573390552778
4144000000.0 0.8831072321572766 0.5221392263183418
4147000000.0 0.8666842038866577 0.4918628621721914
4150000000.0 0.9011982982688586 0.48979936230343774
4153000000.0 0.9246653511300165 0.47679121028143545
4156000000.0 0.9042337598982799 0.4970112274415681
4159000000.0 0.9094101024095247 0.46135946150675416
4162000000.0 0.9455886132286633 0.449462744363072
4166000000.0 0.9365715795364886 0.4528143414193777
4169000000.0 0.9451072475822193 0.3958125513967746
4172000000.0 0.9226436006455571 0.45103239558867286
4175000000.0 0.9458322690000344 0.4453065782135081
4178000000.0 0.9450725548961492 0.4459909701352939
4181000000.0 0.9326627598080504 0.4400880895567959
4184000000.0 0.9350886687633012 0.4102169606207134
4188000000.0 0.9335000321242781 0.38663426079603047
4191000000.0 0.9346366022528483 0.4101269045380365
4194000000.0 0.9396246809035761 0.3721861470491239
4197000000.0 0.9445289994055088 0.39726323430635796
4200000000.0 0.9433887989513556 0.39117946281052207
4203000000.0 0.9584605142376392 0.3981281635928873
4206000000.0 0.9734075913139324 0.3562737343281061
4209000000.0 0.967600465001102 0.34349621254741564
4212000000.0 0.9881984657081103 0.2962834498161324
4216000000.0 0.9561567126110347 0.331400493093254
4219000000.0 0.9774671196086434 0.32548972214795735
4222000000.0 0.9881449606569617 0.3075296225058593
4225000000.0 0.9736070195444688 0.3103188568662689
4228000000.0 0.9974288606603603 0.2942356931226159
4231000000.0 0.9996208398646655 0.2745218870284089
4234000000.0 1.0060133872571098 0.2699496694785148
4238000000.0 0.99502028021163 0.24956514674512328
4241000000.0 0.9815881042223285 0.23680075460263172
4244000000.0 0.9761522259999236 0.2532498082042982
4247000000.0 1.0033488563908768 0.2414874431394336
4250000000.0 0.9875593027145968 0.20942033661201315
4253000000.0 0.9763469109291021 0.23450614836384537
4256000000.0 0.9975755607872889 0.2136988582928363
4259000000.0 0.968536157813055 0.19360365523658876
4262000000.0 0.9890164351603501 0.1966249687860723
4266000000.0 1.0199871139657832 0.16949594209857327
4269000000.0 0.9988064764372715 0.20919695296404936
4272000000.0 0.9978400537597253 0.16866633362827288
4275000000.0 1.0019826730278374 0.16575836183280335
4278000000.0 1.0305100632141075 0.1590699541695889
4281000000.0 1.0010365564927 0.15033027748608263
4284000000.0 1.0198358574702335 0.11036804146420223
4288000000.0 1.0047486625982747 0.1746004633226132
4291000000.0 0.9592636881447664 0.08907720501178788
4294000000.0 0.9928441542370331 0.11523297986779375
4297000000.0 0.9938438613698359 0.13378991789023403
4300000000.0 1.0343690358416697 0.1108848367555837
4303000000.0 1.0034414194791637 0.10018586970669079
4306000000.0 1.0004233026762785 0.09881579091603113
4309000000.0 0.9984434676121046 0.07288486372913679
4312000000.0 1.0344100898898154 0.08839891432746552
4316000000.0 1.011950918229632 0.08309312374776058
4319000000.0 1.0031865909052806 0.07298581364176417
4322000000.0 1.0177834867216444 -0.012688635461601636
4325000000.0 1.0209326477097709 0.023403690778492733
4328000000.0 0.9951948178968418 -0.001394212476266185
4331000000.0 1.0045632821990418 -0.008796302939315687
4334000000.0 1.0117891687799623 -0.004817578621081731
4338000000.0 1.0257425154232584 0.004320055760913502
4341000000.0 1.0345942459626634 -0.001629047631134084
4344000000.0 1.0355496608365042 -0.02041207994419382
4347000000.0 1.0412023134903552 -0.05061337979942011
4350000000.0 0.9815282593202408 -0.046212007609422415
4353000000.0 0.9835501160341518 -0.03152863842131766
4356000000.0 0.9943019149236678 -0.08370192358672066
4359000000.0 0.950912972447317 -0.07205030641025516
4362000000.0 1.004454022341631 -0.11047884002282468
4366000000.0 1.0171650785675013 -0.07906569345029199
4369000000.0 0.9881385402729184 -0.10599787730270836
4372000000.0 0.9742098209868784 -0.13104934087899933
4375000000.0 1.000359022248044 -0.10242000539470521
4378000000.0 0.9755822113992709 -0.10875783824265087
4381000000.0 1.001135792489189 -0.11922149596565378
4384000000.0 1.0652252621842024 -0.16561355384406462
4388000000.0 0.9828949469385226 -0.12859241022554485
4391000000.0 1.024964286396476 -0.13841980430827192
4394000000.0 0.9835623571037625 -0.15954645910883658
4397000000.0 0.998278988147981 -0.16852463925964678
4400000000.0 1.0245409267147323 -0.18553191476436995
4403000000.0 0.9903721888711118 -0.19691786055445903
4406000000.0 0.9967314571118779 -0.19980662589071735
4409000000.0 1.0307586801006856 -0.2156509612117333
4412000000.0 0.977441991040718 -0.2676880531080313
4416000000.0 0.9702603705079391 -0.2242196860787289
4419000000.0 0.9783255485319216 -0.2540733516812652
4422000000.0 0.98664815649527 -0.2310494245507604
4425000000.0 1.0004888988657914 -0.22674746716040597
4428000000.0 0.982873675049555 -0.26308970815876315
4431000000.0 1.0026658213479795 -0.25905428264446645
4434000000.0 0.9726070196118802 -0.2839385442775093
4438000000.0 0.990731910132427 -0.2932434836912976
4441000000.0 0.9838149767476367 -0.2853753057131637
4444000000.0 0.944888822967775 -0.2896894285536021
4447000000.0 0.9465664659846603 -0.31668358188876083
4450000000.0 0.9398007637899551 -0.29973498223215317
4453000000.0 0.9772127496662831 -0.3294639271967663
4456000000.0 0.935921372584217 -0.3526541287271585
4459000000.0 0.8957300176070424 -0.35213914298152915
4462000000.0 0.9941217733705718 -0.3830222627461689
4466000000.0 0.9912533982424299 -0.38141135808682347
4469000000.0 0.9485545818667149 -0.3553486955980133
4472000000.0 0.9457063384044249 -0.41246915311136756
4475000000.0 0.9180321579729075 -0.3737966382468002
4478000000.0 0.9570113853271505 -0.4320631844386331
4481000000.0 0.9112370236945027 -0.40208486355303086
4484000000.0 0.8874677526653871 -0.45255566699405836
4488000000.0 0.8873422380876953 -0.4102424308142155
4491000000.0 0.907193621358832 -0.4464909457918867
4494000000.0 0.9063098306670906 -0.4204609110069002
4497000000.0 0.918492381195773 -0.4168069652099705
4500000000.0 0.9065335980945806 -0.45576128542152006
4503000000.0 0.9319940032776839 -0.46254376450613266
4506000000.0 0.885024291850419 -0.4692351890073032
4509000000.0 0.896273927469676 -0.4792672736512513
4512000000.0 0.8740513938074103 -0.4947696471302725
4516000000.0 0.8948383382274829 -0.495997631255701
4519000000.0 0.8701846038880394 -0.4770428404527681
4522000000.0 0.8756340993279166 -0.5040624705361347
4525000000.0 0.8801039986345487 -0.4898381072361301
4528000000.0 0.8726309376727608 -0.5186792080359219
4531000000.0 0.8827026738505958 -0.5026335099682894
4534000000.0 0.8474475332565063 -0.5211919098367618
4538000000.0 0.8462934189454794 -0.5451430377823874
4541000000.0 0.8150167409572188 -0.5809219820275323
4544000000.0 0.8393923354224597 -0.5447324656327245
4547000000.0 0.85319664333788 -0.5281272567482127
4550000000.0 0.8179401577896994 -0.5892528962037469
4553000000.0 0.8244825533791076 -0.5924984149022182
4556000000.0 0.7994813774650911 -0.5980709395839394
4559000000.0 0.8171584697180391 -0.6028917361586403
4562000000.0 0.8278691762959498 -0.6049390495745944
4566000000.0 0.8099081090156628 -0.6267520852611623
4569000000.0 0.7881560372529292 -0.6098201682182598
4572000000.0 0.79246321227159 -0.6070819809193013
4575000000.0 0.7970716745274498 -0.649354950574661
4578000000.0 0.8233280153540536 -0.637054566177191
4581000000.0 0.7703896301143718 -0.6473488428446632
4584000000.0 0.7654960822068799 -0.641017999538745
4588000000.0 0.7810714115159121 -0.6575474299073065
4591000000.0 0.7658873041828722 -0.6624425347471835
4594000000.0 0.7488140867875228 -0.6785221530408194
4597000000.0 0.7604242680237301 -0.7061930986763576
4600000000.0 0.7114253824380664 -0.7048792628140158
4603000000.0 0.7233413607074146 -0.6901067328788253
4606000000.0 0.740606687005462 -0.6963521131993569
4609000000.0 0.7230007601373378 -0.7122133332933803
4612000000.0 0.7337511744935399 -0.7092065782346293
4616000000.0 0.7132112011310283 -0.7095219879149468
4619000000.0 0.7013167587052925 -0.7133269287855679
4622000000.0 0.703075581388159 -0.7298827008532554
4625000000.0 0.6652512219884974 -0.7215676126302866
4628000000.0 0.6903143723927627 -0.7346666044107056
4631000000.0 0.6520234114320815 -0.7548251632690172
4634000000.0 0.6651636304774243 -0.7609108324909887
4638000000.0 0.6722640945153642 -0.7627574095093087
4641000000.0 0.6609312547484272 -0.7721636849556325
4644000000.0 0.63900270059547 -0.7649667703311458
4647000000.0 0.657161401276785 -0.778781834544834
4650000000.0 0.6122307745391196 -0.804384654745964
4653000000.0 0.638235139865001 -0.781321096322082
4656000000.0 0.6188836662318475 -0.7940208202589343
4659000000.0 0.6178027047087868 -0.7868746141380126
4662000000.0 0.6183207960134216 -0.8209033120863634
4666000000.0 0.6081769673712014 -0.822366554092635
4669000000.0 0.6054714838672407 -0.803060823854951
4672000000.0 0.5799296016456353 -0.8256464455512
4675000000.0 0.5792362299889885 -0.8546239981064718
4678000000.0 0.5625315483744131 -0.8153289810948252
4681000000.0 0.5399153562819978 -0.8785120145500784
4684000000.0 0.5347936797120385 -0.8755137059580781
4688000000.0 0.5183795733819605 -0.8557813196206566
4691000000.0 0.5675145019201027 -0.851568483796936
4694000000.0 0.5545673161260517 -0.838510777277631
4697000000.0 0.48660583688719755 -0.8422384283966411
4700000000.0 0.5168149586890596 -0.8546806557413802
4703000000.0 0.5250938048104676 -0.8369984099885552
4706000000.0 0.5108500545248496 -0.8700567069550588
4709000000.0 0.5074205267937202 -0.8781675620844532
4712000000.0 0.5015466979019984 -0.898968830972846
4716000000.0 0.48759009672873643 -0.9104898593856221
4719000000.0 0.4904001435573675 -0.8986180985369587
4722000000.0 0.4964259619768382 -0.8800378367822919
4725000000.0 0.4632431356794026 -0.9010202822770358
4728000000.0 0.42729397921485907 -0.8724578475975138
4731000000.0 0.48704003054949685 -0.9469823044364987
4734000000.0 0.43805932201634884 -0.9044918021723974
4738000000.0 0.45299634825214286 -0.944349598814889
4741000000.0 0.41839818812055096 -0.965259960520513
4744000000.0 0.38723528065861645 -0.9575777524927184
4747000000.0 0.4268013287520211 -0.9124912622850886
4750000000.0 0.39861859949656586 -0.9534035267886493
4753000000.0 0.3971021664588555 -0.9112132409624651
4756000000.0 0.3856502871478265 -0.9477743208174498
4759000000.0 0.3803090802459549 -0.9630804915527055
4762000000.0 0.35815888415571445 -0.9455701987334522
4766000000.0 0.37269442966840877 -0.9532077803653031
4769000000.0 0.37669283985122654 -0.946902645753922
4772000000.0 0.3266318667079664 -0.9740672634615603
4775000000.0 0.30499726329621996 -1.0031228290682923
4778000000.0 0.36239203979741724 -0.9906963734963034
4781000000.0 0.3420138089153957 -0.9472096883715835
4784000000.0 0.31023321572611 -0.9776044223371471
4788000000.0 0.2971992619302066 -1.0094594719557548
4791000000.0 0.299269706803461 -0.9585887673640453
4794000000.0 0.31654504641988873 -0.9956261878800365
4797000000.0 0.26279955117545273 -0.9705405239613619
4800000000.0 0.24651701310737517 -0.9602872629592809
4803000000.0 0.23148989119657848 -0.973961282077084
4806000000.0 0.2653656930955413 -0.9870060626403252
4809000000.0 0.184520457908287 -0.9906445407374146
4812000000.0 0.21112148613164006 -0.9923540483898261
4816000000.0 0.22312528822509062 -0.9829132371955913
4819000000.0 0.24974901067103017 -1.0381999708072045
4822000000.0 0.217677527495385 -1.018029668115289
4825000000.0 0.23366543246637375 -1.0259449847648887
4828000000.0 0.1989507236208785 -0.9936630079030216
4831000000.0 0.15298327159068875 -1.0410070273148575
4834000000.0 0.2128312971646744 -1.0034782353117941
4838000000.0 0.14445790306618297 -1.0289665646787949
4841000000.0 0.15122796864108418 -0.9892907587288601
4844000000.0 0.18038956216342728 -1.000216500279422
4847000000.0 0.1727123425462706 -0.9976634924295951
4850000000.0 0.11966027109103428 -1.0320243982997612
4853000000.0 0.1236118239210281 -0.9918093942567539
4856000000.0 0.11977729186471137 -1.0108457386549259
4859000000.0 0.09723866677921925 -1.0780854789242973
4862000000.0 0.12219788709020843 -0.9929129628134342
4866000000.0 0.07010903911037139 -1.0511291982071014
4869000000.0 0.0582043619748534 -1.0300884519287004
4872000000.0 0.05726265936525656 -1.0492105188566552
4875000000.0 0.12206104767794765 -1.082277422923177
4878000000.0 0.05356748921109761 -1.0193662749223902
4881000000.0 0.01866995492026905 -1.1268823615080825
4884000000.0 0.05887242054079781 -1.0192865564409015
4888000000.0 0.0748873241933739 -1.0105902321210465
4891000000.0 0.04454527042651428 -1.0514811992801891
4894000000.0 0.0069474025915037 -1.0058560301901895
4897000000.0 0.02440219850826124 -1.0184294121977246
4900000000.0 0.00504074247636932 -1.04476825246108
4903000000.0 0.032396338638385244 -1.0373655021855928
4906000000.0 -0.01502135105981453 -1.0568848236354487
4909000000.0 -0.04019420093808205 -1.0556722768631808
4912000000.0 -0.02163698018324188 -1.0678619228254846
4916000000.0 -0.028292421284238124 -1.0676955572433366
4919000000.0 -0.01164443529281034 -1.0669114206750026
4922000000.0 0.002527442182169895 -1.0541579228358302
4925000000.0 -0.0815262940839889 -1.020288375748414
4928000000.0 0.008952489168773461 -1.0419225469458722
4931000000.0 -0.02669163918111682 -1.0343983945150181
4934000000.0 -0.04670106578984294 -0.9844053157016497
4938000000.0 -0.12086039434779945 -0.9824108149552636
4941000000.0 -0.07485256105458625 -1.0118813622804783
4944000000.0 -0.08726863889288397 -0.9858086898224043
4947000000.0 -0.10859916368569866 -0.9973786156716947
4950000000.0 -0.12278466111066431 -0.9998008560094895
4953000000.0 -0.19963724691751694 -1.042297217376754
4956000000.0 -0.1388309961819411 -1.0002942463724527
4959000000.0 -0.19002991143609385 -1.0134835545790368
4962000000.0 -0.19743906975810901 -1.0524886341314041
4966000000.0 -0.14662040271475246 -1.0556089565802438
4969000000.0 -0.17525849306969482 -1.0530560205311132
4972000000.0 -0.1845593642082777 -1.019403147676452
4975000000.0 -0.1334812563398862 -1.0047256794383288
4978000000.0 -0.20821125013341457 -1.0055364514179903
4981000000.0 -0.19492147882213115 -1.0097055365556107
4984000000.0 -0.20401072821848745 -0.9811520963294948
4988000000.0 -0.19963533663323868 -1.0376388234054936
4991000000.0 -0.21747677454058711 -1.047579908673731
4994000000.0 -0.20836087286256577 -1.0008670613130184
4997000000.0 -0.27956840110829434 -0.9965791295393606
5000000000.0 -0.2618109516440399 -1.0144144615699577
5003000000.0 -0.2379766528252632 -1.0366281243489979
5006000000.0 -0.28094980144942516 -1.05191659896324
5009000000.0 -0.28242554157067157 -0.9994574232439325
5012000000.0 -0.32796974454770905 -0.9734054811247035
5016000000.0 -0.23882169418865834 -1.0086288603095142
5019000000.0 -0.3296536166089813 -1.003063392672735
5022000000.0 -0.2985154700597359 -0.9917511303410314
5025000000.0 -0.3466188569183292 -1.0400191135778418
5028000000.0 -0.330092628697234 -1.0031936448098946
5031000000.0 -0.33748363900996436 -0.9609947623445839
5034000000.0 -0.41152884085998176 -0.9916508880936881
5038000000.0 -0.3629390416887103 -0.9371176973487776
5041000000.0 -0.33052195478087154 -1.0082357672410018
5044000000.0 -0.3364390589902777 -0.992771779017735
5047000000.0 -0.3774351305107099 -0.969078912409535
5050000000.0 -0.2855303776421676 -0.9815913139332435
5053000000.0 -0.44023710552256856 -1.0021606589907153
5056000000.0 -0.3735557012337811 -0.9957774944278996
5059000000.0 -0.34950363346305496 -0.9755334256001479
5062000000.0 -0.4746549224583755 -0.9436370883988134
5066000000.0 -0.37955703233343097 -0.9831354256058316
5069000000.0 -0.4376019259075581 -0.9801399289369833
5072000000.0 -0.4167763665649602 -0.9466038965627388
5075000000.0 -0.4219429248469422 -0.9360469560975493
5078000000.0 -0.5110700835767723 -0.9076244740478758
5081000000.0 -0.45710160833924857 -0.8659123633875198
5084000000.0 -0.5216203689084373 -0.9683676885101495
5088000000.0 -0.42686228823772676 -0.8938721891246579
5091000000.0 -0.5229904007245598 -0.8965937299501434
5094000000.0 -0.5229141468393813 -0.9027229713390147
5097000000.0 -0.45156713778778645 -0.9278756186381214
5100000000.0 -0.5005037595796803 -0.8602342565029929
5103000000.0 -0.5763174355690933 -0.8662464627424055
5106000000.0 -0.530609085363377 -0.9396206241988387
5109000000.0 -0.47729883209693696 -0.9301048743331182
5112000000.0 -0.5452278192839203 -0.875816493169181
5116000000.0 -0.49620663343652543 -0.8359362918095257
5119000000.0 -0.5852303866643513 -0.9189170958655932
5122000000.0 -0.5179762076917374 -0.906360281692743
5125000000.0 -0.5248460628640238 -0.8862127772058068
5128000000.0 -0.59121761523446 -0.8582934817498133
5131000000.0 -0.6034339999435147 -0.8781435837132576
5134000000.0 -0.5610643296939043 -0.8964132850094841
5138000000.0 -0.5772753382795854 -0.8706039126369736
5141000000.0 -0.5410379284226594 -0.9031345364477006
5144000000.0 -0.5493775924073442 -0.8749050802080526
5147000000.0 -0.5824644432458419 -0.8664320887244048
5150000000.0 -0.5588128434959897 -0.845602583285368
5153000000.0 -0.6527413659686316 -0.834904496160809
5156000000.0 -0.6055083320024548 -0.8839147443992407
5159000000.0 -0.628428786076396 -0.8792928083132373
5162000000.0 -0.6816228007713139 -0.7997231760029277
5166000000.0 -0.6876422951263345 -0.8239994973304896
5169000000.0 -0.6805507993070182 -0.8253587005818235
5172000000.0 -0.6178784410920067 -0.8147020887750498
5175000000.0 -0.6898748287977363 -0.8520247630621421
5178000000.0 -0.6684964030129303 -0.8319495568494025
5181000000.0 -0.7135062936021411 -0.8192081513787991
5184000000.0 -0.6944774371927903 -0.7819743730663659
5188000000.0 -0.6709867299129325 -0.8039102562747757
5191000000.0 -0.7025897610734385 -0.7731785588380546
