! Created with skrf 1.8.0 (http://scikit-rf.org).
# Hz S RI R 50.0 
!freq ReS11 ImS11
4000000000.0 0.6667091245609758 0.7418663578427518
4003000000.0 0.7293052821158712 0.7615593104949852
4006000000.0 0.6813713567616982 0.7236303299776827
4009000000.0 0.7238140414549973 0.7585436229602389
4012000000.0 0.7145671961991227 0.7809661944740003
4016000000.0 0.7736060678218781 0.6935501184607868
4019000000.0 0.7362806038180871 0.73424792772505
4022000000.0 0.6669290873153995 0.7685226682350944
4025000000.0 0.7929465825113685 0.7048062397169347
4028000000.0 0.7623487455859039 0.6724531841781427
4031000000.0 0.6994027134109764 0.668410227757338
4034000000.0 0.7826117048139108 0.6789018846617688
4038000000.0 0.7853940477621815 0.6762770237565864
4041000000.0 0.7508341842533185 0.6700853840790894
4044000000.0 0.8402749384299434 0.7263385566717876
4047000000.0 0.7617525768650846 0.702792325726186
4050000000.0 0.8019952032057469 0.6131894445832098
4053000000.0 0.8090342143325866 0.6418567710871801
4056000000.0 0.7691228497526394 0.6455897703836092
4059000000.0 0.755721967364415 0.6267330235350799
4062000000.0 0.8440348371893425 0.5850581058494408
4066000000.0 0.7923321871721618 0.5794351569813011
4069000000.0 0.8485991856574058 0.6175562696031107
4072000000.0 0.7828436868073143 0.6325481035122751
4075000000.0 0.830733549281689 0.6384757096191589
4078000000.0 0.846323293972228 0.560678223797862
4081000000.0 0.8120477922944432 0.6455810832640863
4084000000.0 0.8427903710495053 0.5659830309842184
4088000000.0 0.7964740483983573 0.6259637211187603
4091000000.0 0.8741014245818175 0.6323071544733749
4094000000.0 0.8882058677300202 0.5440533477511913
4097000000.0 0.8574651185022579 0.530579749096084
4100000000.0 0.8857147073470779 0.5121220525927865
4103000000.0 0.8705789888899496 0.5743039797030571
4106000000.0 0.9117299441220109 0.5363902262353718
4109000000.0 0.9145196499593669 0.5016280461349163
4112000000.0 0.8802236547490399 0.5050502826046805
4116000000.0 0.867143183224352 0.4785702017246174
4119000000.0 0.9094920770286941 0.4795140136078828
4122000000.0 0.9404030457495413 0.4336766023193078
4125000000.0 0.9589089463148224 0.4614418158060372
4128000000.0 0.8765954554201731 0.4909355453328047
4131000000.0 0.8915861699713976 0.4403998452479946
4134000000.0 0.8779373962984861 0.47717893150232604
4138000000.0 0.9180240708256184 0.4053705025380467
4141000000.0 0.930522919893895 0.4086284704493178
4144000000.0 0.9103904065627871 0.44033613995024473
4147000000.0 0.9296760282866253 0.4130072006756808
4150000000.0 0.9585103446117574 0.39447938313003333
4153000000.0 0.9279847114551452 0.4076256497048326
4156000000.0 0.9441582477496404 0.40931043865035444
4159000000.0 0.9032497648248039 0.40795878664605306
4162000000.0 0.9223743420461852 0.37588585145495024
4166000000.0 0.9423186481706318 0.36191419999665586
4169000000.0 0.940895576682492 0.3506511637758879
4172000000.0 0.9817813517615124 0.368806489824093
4175000000.0 0.9766044673684873 0.3560704834339586
4178000000.0 0.949712030793686 0.35395255162335626
4181000000.0 0.9455625318090064 0.3490112602883969
4184000000.0 0.9857739760326574 0.3464109280804755
4188000000.0 0.955434117927862 0.29965590959866184
4191000000.0 0.9589128315294203 0.3253896230633974
4194000000.0 0.9500771626970351 0.2880622818497566
4197000000.0 0.9901071218026998 0.2908861337579233
4200000000.0 0.9743071367404539 0.3007682746875673
4203000000.0 0.9899737875531417 0.3059850770479543
4206000000.0 0.993908836484634 0.27595579763183825
4209000000.0 0.9916445828074386 0.2560781525093862
4212000000.0 0.986204744446592 0.2379163694269117
4216000000.0 0.9951607038163593 0.2576326698125301
4219000000.0 0.9811256693261625 0.22962311713518077
4222000000.0 1.0013810557283878 0.22326909575055698
4225000000.0 0.9720857247500576 0.23785520516783978
4228000000.0 1.0027651657930978 0.22761973579559844
4231000000.0 0.9899987424323413 0.19927185569614309
4234000000.0 1.0124324851355055 0.19438362131457243
4238000000.0 1.0049033318956822 0.17112364311013742
4241000000.0 0.9887986714286066 0.14511516295042093
4244000000.0 1.0032438372181762 0.16361674626136435
4247000000.0 0.9853531009775456 0.15291530333986497
4250000000.0 0.9828418768438092 0.1411792971484216
4253000000.0 0.9757385622321364 0.14769012668685588
4256000000.0 1.0217892857349122 0.13662536914952317
4259000000.0 0.9729439168881513 0.11684019114169678
4262000000.0 1.003705192349816 0.08798001307015665
4266000000.0 1.0153308484089276 0.07510102351828465
4269000000.0 1.0155185251511551 0.10554388932881043
4272000000.0 1.0159798472359252 0.08433361057903233
4275000000.0 1.0124242192096404 0.05707763653777695
4278000000.0 1.0433514275334344 0.08450384745062797
4281000000.0 1.0260013578227343 0.0560255891279975
4284000000.0 1.0200659763184343 0.02930331174893111
4288000000.0 1.0093419785381277 0.07090439261678566
4291000000.0 0.9871011429720458 0.042888634816403814
4294000000.0 1.0049633389895791 -0.008980944519141013
4297000000.0 0.9882439371935002 0.01604076196635304
4300000000.0 0.994536599016649 0.009635399075850266
4303000000.0 0.9870744995714992 -0.03340116864196859
4306000000.0 1.0028765127194506 0.012910117447109778
4309000000.0 0.9991286386436886 -0.013961823716088631
4312000000.0 1.0209812110968346 0.013474610971792589
4316000000.0 1.0149954910308987 -0.01756941188339259
4319000000.0 0.9784759028305468 -0.011984237831670477
4322000000.0 0.9587281986579342 -0.04898497303595597
4325000000.0 1.0232140483929821 -0.06294710102261712
4328000000.0 0.9959429208401098 -0.06855297090194594
4331000000.0 1.0068031400937445 -0.13443007097298942
4334000000.0 0.9934435382965424 -0.10177925884392659
4338000000.0 0.9795421436843862 -0.07749249246205751
4341000000.0 1.000423629602379 -0.0836541058744742
4344000000.0 1.0230872774588162 -0.11920125425623412
4347000000.0 0.9958739715005731 -0.14594713469050702
4350000000.0 0.9587537712705908 -0.1359415662774649
4353000000.0 0.9691125748550184 -0.108822133344958
4356000000.0 0.9957420652253834 -0.17032743342386417
4359000000.0 0.9588793175401872 -0.15030475056383444
4362000000.0 0.9914366976825888 -0.22065425989902476
4366000000.0 0.9944319504330164 -0.1963148841177774
4369000000.0 0.9575682380710848 -0.1910386289187536
4372000000.0 0.9758514358952448 -0.23097126447754446
4375000000.0 0.9925391989126562 -0.19040023703221268
4378000000.0 0.9622777002700491 -0.21731600872511345
4381000000.0 0.9608605184939583 -0.19375340154788193
4384000000.0 1.0444124369407595 -0.23612017696986465
4388000000.0 0.9689602952129119 -0.23711743090327145
4391000000.0 0.9808034480714709 -0.23489731997528768
4394000000.0 0.9430770780980123 -0.26750027051580266
4397000000.0 0.9694040129468453 -0.26610889889187056
4400000000.0 0.9974172219964565 -0.2838108005522064
4403000000.0 0.9576101374898118 -0.2768329088234514
4406000000.0 0.9524297373401215 -0.3192094632938609
4409000000.0 0.9825899811733458 -0.32546666372890243
4412000000.0 0.9333116114973038 -0.3758207283792756
4416000000.0 0.9440851954876701 -0.3208159688421979
4419000000.0 0.949283999825156 -0.35101241932137656
4422000000.0 0.9558367191242005 -0.32509341100700095
4425000000.0 0.9583174104482728 -0.33066734400982173
4428000000.0 0.9376346789527845 -0.3558635813844941
4431000000.0 0.9527663212998068 -0.368750271867753
4434000000.0 0.92270596756191 -0.37992258772268717
4438000000.0 0.9446932346783421 -0.38831676866253007
4441000000.0 0.9393095040215038 -0.3956449969234236
4444000000.0 0.9097137627920564 -0.3839527166592644
4447000000.0 0.906692456872131 -0.43348009360247475
4450000000.0 0.9121335950665684 -0.3862659561908265
4453000000.0 0.9289985653870895 -0.4306218992721771
4456000000.0 0.8827145338602422 -0.430383881686733
4459000000.0 0.8685730252820598 -0.4306725095056577
4462000000.0 0.9457948197587716 -0.47790980392816385
4466000000.0 0.928878489513598 -0.483641088899337
4469000000.0 0.8886832553412415 -0.4564118221526915
4472000000.0 0.9077580418746186 -0.49187240643859714
4475000000.0 0.8662794959937087 -0.4616882091096296
4478000000.0 0.9028305265119766 -0.5342197344929951
4481000000.0 0.8406984227757506 -0.4935542066554125
4484000000.0 0.857496113128486 -0.5426353557905673
4488000000.0 0.8466855342250393 -0.5215232565030042
4491000000.0 0.8512339982314683 -0.5221111050780003
4494000000.0 0.8395104935106934 -0.5201665491215606
4497000000.0 0.8610604704136122 -0.5263476971338029
4500000000.0 0.8545397128355634 -0.5434356123763042
4503000000.0 0.8508061244299359 -0.5496340913468822
4506000000.0 0.8241686572544344 -0.570247475706285
4509000000.0 0.8065341802221466 -0.5748908240717595
4512000000.0 0.814356191933242 -0.5706768475938155
4516000000.0 0.8491985514157266 -0.6029800078481253
4519000000.0 0.8114190301602426 -0.5823652352286166
4522000000.0 0.8053707490883761 -0.605769994692236
4525000000.0 0.8319060617946885 -0.5944461336074003
4528000000.0 0.8085904596356379 -0.6364417756790259
4531000000.0 0.8042004709783409 -0.5955826125582971
4534000000.0 0.7703097126702124 -0.6417519311361498
4538000000.0 0.7644757157660429 -0.6289877080420796
4541000000.0 0.7492712391185418 -0.661498627772161
4544000000.0 0.7576305326759187 -0.6457424681606501
4547000000.0 0.7751478326736654 -0.6334018849404199
4550000000.0 0.7421113012904337 -0.6762520662495032
4553000000.0 0.7493908583319422 -0.6755146810364274
4556000000.0 0.7300706762353639 -0.6734594347723145
4559000000.0 0.7284928968988744 -0.6920214742180546
4562000000.0 0.7551707526375773 -0.6909099685501588
4566000000.0 0.7244862877793157 -0.6974045572413774
4569000000.0 0.6912231964762975 -0.7180146534853793
4572000000.0 0.6901436619235709 -0.7082542546025055
4575000000.0 0.6876708843275483 -0.7339154991666955
4578000000.0 0.7127520508128564 -0.7165588997185413
4581000000.0 0.6683895937507291 -0.7501066580465363
4584000000.0 0.6738691444183275 -0.7483066078640281
4588000000.0 0.6984783601667881 -0.7539644606071463
4591000000.0 0.6697492495890596 -0.7555607088831976
4594000000.0 0.6426016786370515 -0.7752000774182671
4597000000.0 0.6615251530949691 -0.8037123818749874
4600000000.0 0.6286033962811143 -0.7748262493935791
4603000000.0 0.6252265530734159 -0.7910370531233472
4606000000.0 0.6353859103019189 -0.8016599587700677
4609000000.0 0.6154664207216711 -0.7814019047386351
4612000000.0 0.6272127368715871 -0.7974147030512502
4616000000.0 0.5927555172408996 -0.7895465161287515
4619000000.0 0.6148195005094386 -0.8144420936596898
4622000000.0 0.5753709390065405 -0.8212805305990859
4625000000.0 0.5576348337330533 -0.8239376983689266
4628000000.0 0.5914229049162082 -0.827555606410988
4631000000.0 0.5729841704742913 -0.8268688258383161
4634000000.0 0.5480037907347602 -0.8340818342088074
4638000000.0 0.5722337150981865 -0.8514468627198838
4641000000.0 0.548681172966665 -0.8407623463752416
4644000000.0 0.522758451785487 -0.8489925807588444
4647000000.0 0.5178445379782245 -0.8683160881433513
4650000000.0 0.531608802912766 -0.8503652350799801
4653000000.0 0.528492616746931 -0.8642031855877356
4656000000.0 0.5098120777799588 -0.864328855713461
4659000000.0 0.48454438950064366 -0.8972367931348237
4662000000.0 0.49357605017607853 -0.8800972428731582
4666000000.0 0.4581358971255924 -0.8945804814256518
4669000000.0 0.47654333556988043 -0.8951597468856527
4672000000.0 0.47520517992399836 -0.9086037073367765
4675000000.0 0.45060153113892437 -0.9232331918936891
4678000000.0 0.44621100315941664 -0.8683093709068815
4681000000.0 0.4311542333795347 -0.9323720300238144
4684000000.0 0.4105233733349349 -0.9499275349668562
4688000000.0 0.4141999495906019 -0.9198643917029938
4691000000.0 0.44935566885789535 -0.9447413426768025
4694000000.0 0.4134732628227086 -0.927357968828157
4697000000.0 0.36806311772713196 -0.901480518700073
4700000000.0 0.3972744809246872 -0.9228160681822688
4703000000.0 0.41290817227111143 -0.8938049129413119
4706000000.0 0.33608348325371684 -0.9468860614348946
4709000000.0 0.38031955592104427 -0.9727899679338213
4712000000.0 0.36364644133039936 -0.9255865086910028
4716000000.0 0.3188805146394139 -0.9553471429174614
4719000000.0 0.3674376937657968 -0.9512717276286468
4722000000.0 0.34197810025291553 -0.9701766940232432
4725000000.0 0.3417735983055766 -0.9626443956146545
4728000000.0 0.2795428320769643 -0.9479949642985706
4731000000.0 0.3071788576195834 -1.0176025270743025
4734000000.0 0.30712742035591173 -0.9624822209175402
4738000000.0 0.31797708673593866 -1.005398094453689
4741000000.0 0.3034318689324514 -1.0187882495733858
4744000000.0 0.24681011145575432 -0.9965152180781516
4747000000.0 0.25726404007221304 -0.9440085429710107
4750000000.0 0.26721549338896844 -1.0134470913002933
4753000000.0 0.2925618254663365 -0.9975790637376354
4756000000.0 0.22766403497370175 -1.0002438001229936
4759000000.0 0.24338395235777238 -0.9934037972721205
4762000000.0 0.2116041387785726 -1.0476261084152239
4766000000.0 0.21854091673692796 -1.0019661575472296
4769000000.0 0.2029632746736379 -1.010036500198766
4772000000.0 0.2009967893919315 -0.9797981356193796
4775000000.0 0.1692114739908565 -1.0535172865184008
4778000000.0 0.15858128333114507 -0.992169964987
4781000000.0 0.17584732363412017 -0.9779808146178266
4784000000.0 0.20189881718336544 -0.995910931597407
4788000000.0 0.12966745633107635 -1.0264904466055427
4791000000.0 0.14159459021412743 -0.9802496699525688
4794000000.0 0.16631517465888707 -1.0225767127270096
4797000000.0 0.11074141460641762 -0.9969005125615488
4800000000.0 0.12210057851779604 -0.9965126308633034
4803000000.0 0.05235037620561947 -1.0107847045595704
4806000000.0 0.09641002399125204 -1.0176547732213528
4809000000.0 0.036605918406868804 -1.0015046353314687
4812000000.0 0.03310647218758517 -0.996048769806988
4816000000.0 0.08001060058350294 -1.0164660332367754
4819000000.0 0.08525444260019864 -1.0275223904760482
4822000000.0 0.08574780085885839 -1.0519130140310227
4825000000.0 0.059326260643546846 -1.050283152573332
4828000000.0 0.03443657259198024 -1.0242558248791322
4831000000.0 -0.022305299904151546 -1.0319743088202369
4834000000.0 0.025385189105650963 -1.0397854482775224
4838000000.0 -0.009161941903984686 -1.0439149923279132
4841000000.0 -0.009086795282320495 -1.022129838775606
4844000000.0 0.018637208844600295 -1.020757191784628
4847000000.0 0.010718897187566176 -0.99984451941617
4850000000.0 -0.045572076553208815 -1.0455572401306978
4853000000.0 -0.028462532160422382 -0.9951352990751763
4856000000.0 -0.03517633866432579 -1.0167120911774543
4859000000.0 -0.07877366656549747 -1.046085211629455
4862000000.0 -0.03756144754567345 -0.9929679173300735
4866000000.0 -0.09945616997803602 -1.048511437882714
4869000000.0 -0.09428818964632095 -1.0292238287843811
4872000000.0 -0.131968245314529 -1.0440938168448186
4875000000.0 -0.048199834164015715 -1.0604309916951518
4878000000.0 -0.10608434540379313 -1.0098545935079932
4881000000.0 -0.170924853627171 -1.084904388407879
4884000000.0 -0.11354492047513176 -1.0245229929545447
4888000000.0 -0.10628638557842061 -1.0147237960807822
4891000000.0 -0.14023157468384345 -1.0386242121705314
4894000000.0 -0.18557210008536904 -1.022086426297738
4897000000.0 -0.1294490241925677 -1.0177279540846347
4900000000.0 -0.1900578754281786 -1.0533333818107649
4903000000.0 -0.17354743945897147 -1.0443903673987667
4906000000.0 -0.20433698003363415 -1.021112449407982
4909000000.0 -0.22080231561218613 -1.0298257104604882
4912000000.0 -0.21454758799336643 -1.0578285027453593
4916000000.0 -0.2066859945812124 -1.0324311756879532
4919000000.0 -0.20550038555120226 -1.0797515294255233
4922000000.0 -0.18733817136668182 -1.0055399785931094
4925000000.0 -0.26921929585437554 -0.9818086990129311
4928000000.0 -0.17562957241435528 -1.0203383063259037
4931000000.0 -0.2453318010409548 -1.0181746429785536
4934000000.0 -0.25307841588103236 -0.9451144475657072
4938000000.0 -0.28953091581678386 -0.978476546719895
4941000000.0 -0.2709683788002298 -0.9552190717331662
4944000000.0 -0.21962489980804376 -0.973487883030175
4947000000.0 -0.3032833972821697 -0.9570324723867697
4950000000.0 -0.31928824484448387 -0.9463227241640529
4953000000.0 -0.3465502193358809 -1.032382523282029
4956000000.0 -0.3308398433217537 -0.9567446557807945
4959000000.0 -0.3719770225580349 -0.9494939670604581
4962000000.0 -0.3291177718443068 -0.9708237406201556
4966000000.0 -0.3607862734692394 -0.9747816549436998
4969000000.0 -0.32866113071259295 -1.0046607651161183
4972000000.0 -0.3602285202502489 -0.9462947013135667
4975000000.0 -0.3554744782460113 -0.9870035025285401
4978000000.0 -0.40877087558813363 -0.9670041490334093
4981000000.0 -0.4083990634844632 -0.9639602944386269
4984000000.0 -0.3704214405493892 -0.9403595325287152
4988000000.0 -0.41645689702991723 -0.9279599498949477
4991000000.0 -0.3651716266900506 -0.9771001293366176
4994000000.0 -0.38643636024985484 -0.9548845398944994
4997000000.0 -0.45765479759691025 -0.9154293331321957
5000000000.0 -0.43894234255916775 -0.9570757812251118
5003000000.0 -0.44702928534588576 -0.9750915722313386
5006000000.0 -0.4708769764153349 -0.9912970170814323
5009000000.0 -0.4407262110723543 -0.9079940109681804
5012000000.0 -0.49852005461331556 -0.9280554444349218
5016000000.0 -0.4693956132228316 -0.9747152657912195
5019000000.0 -0.4926483622334096 -0.88770848037599
5022000000.0 -0.46248401145221607 -0.9337885801316999
5025000000.0 -0.5253303919694514 -0.9386629864075432
5028000000.0 -0.5199393447773323 -0.8866717786824537
5031000000.0 -0.5091193314460455 -0.8789580495047288
5034000000.0 -0.5686970194152918 -0.8968024107286687
5038000000.0 -0.520265419600906 -0.8521673476982277
5041000000.0 -0.5586861988431422 -0.9143988041368291
5044000000.0 -0.5189244322751669 -0.8718195808671714
5047000000.0 -0.5467066962882521 -0.8883663979175799
5050000000.0 -0.47964208013327514 -0.8727319596836853
5053000000.0 -0.6164855645947819 -0.8901968770657078
5056000000.0 -0.5119320192202879 -0.8823711010362145
5059000000.0 -0.5484125912257716 -0.8964225202934878
5062000000.0 -0.636053215474661 -0.8497070784115164
5066000000.0 -0.5560754709329 -0.8150474804079257
5069000000.0 -0.5893077158062979 -0.8293903457675046
5072000000.0 -0.6108312878125708 -0.7966201202884182
5075000000.0 -0.6029118591477843 -0.8645361743036639
5078000000.0 -0.6227692402318747 -0.7843520470259318
5081000000.0 -0.6464588634223855 -0.787678377829223
5084000000.0 -0.6798439524377817 -0.8240831299801543
5088000000.0 -0.5993785924169999 -0.8100908685051458
5091000000.0 -0.6837813774522414 -0.7707769063698768
5094000000.0 -0.6523889714423087 -0.7863953460676714
5097000000.0 -0.6431175333705139 -0.7748795565566595
5100000000.0 -0.6643368484776334 -0.7687890585394861
5103000000.0 -0.6506759616537117 -0.709507819774088
5106000000.0 -0.6789739880408944 -0.7794793594137432
5109000000.0 -0.6330298642472791 -0.7768463147445464
5112000000.0 -0.7243681436639936 -0.7323261826912006
5116000000.0 -0.6762145087044057 -0.7323331885415557
5119000000.0 -0.746866412862643 -0.7549126968859226
5122000000.0 -0.7341023633317213 -0.7395665793857722
5125000000.0 -0.6968672791234445 -0.7441766276630787
5128000000.0 -0.7186704984589583 -0.6861508717172977
5131000000.0 -0.7258380042267494 -0.7449806112993672
5134000000.0 -0.7194496481514471 -0.721807534799345
5138000000.0 -0.7362271078177791 -0.7289212706808306
5141000000.0 -0.7063705661974906 -0.7817723993731092
5144000000.0 -0.7331869538255736 -0.7210858125066003
5147000000.0 -0.7877179723783411 -0.7014195288173756
5150000000.0 -0.8260171291571401 -0.7299532537017144
5153000000.0 -0.7891233710486041 -0.6855736924460601
5156000000.0 -0.7718748642519958 -0.7154782059807769
5159000000.0 -0.8122937759192315 -0.6800684196347296
5162000000.0 -0.8043772467287736 -0.6573974705168053
5166000000.0 -0.7971170767213684 -0.6735725929146602
5169000000.0 -0.8621322657810628 -0.6393172326647875
5172000000.0 -0.7921229466306952 -0.6297938209756401
5175000000.0 -0.8173306385914548 -0.6604703866994822
5178000000.0 -0.8701689920412814 -0.6261372353741346
5181000000.0 -0.8687639851595428 -0.6284468727611613
5184000000.0 -0.8536094194214615 -0.5985424369314516
