! Created with skrf 1.8.0 (http://scikit-rf.org).
# Hz S RI R 50.0 
!freq ReS11 ImS11
4000000000.0 0.6085113116085671 0.8014642924063689
4003000000.0 0.6434293140003314 0.8462519636297652
4006000000.0 0.6711365315005838 0.8057260137577279
4009000000.0 0.6831558284455448 0.7940937987150976
4012000000.0 0.6466527596919716 0.8258294437075703
4016000000.0 0.7215776446824367 0.7808118560438853
4019000000.0 0.6972940669536145 0.7485156128054405
4022000000.0 0.6614753074518064 0.8409825537910903
4025000000.0 0.7770686702528736 0.7365630636191838
4028000000.0 0.7154487918605388 0.7517054040396585
4031000000.0 0.6959735126951718 0.6947443687207182
4034000000.0 0.7271798079458569 0.7163191857104301
4038000000.0 0.7558607752708932 0.7717344559854376
4041000000.0 0.7397928312344779 0.7261656998510178
4044000000.0 0.7797219370992782 0.7430127383188726
4047000000.0 0.7660442231739253 0.7852775791845266
4050000000.0 0.7768889930028838 0.7003803503293012
4053000000.0 0.7688221374641891 0.6747086235196684
4056000000.0 0.7582790184965771 0.6878798402874724
4059000000.0 0.7308248999583803 0.6871455833836864
4062000000.0 0.7800437677732744 0.6743590582334922
4066000000.0 0.7302807780247291 0.6248446017671394
4069000000.0 0.8480124883463925 0.6854876303387595
4072000000.0 0.7555716353853942 0.7073191849009239
4075000000.0 0.8090597100322422 0.6553324646481729
4078000000.0 0.8700667535808859 0.6765520756052328
4081000000.0 0.7731623791336099 0.7419741173757577
4084000000.0 0.8543467307873122 0.6774808011345876
4088000000.0 0.7580308367609556 0.6637162700029021
4091000000.0 0.8427988407859102 0.681730048214944
4094000000.0 0.8232090363077914 0.6430374710782252
4097000000.0 0.8239950685589579 0.6091433842749208
4100000000.0 0.8141147356527313 0.5789206498665036
4103000000.0 0.8364217295959437 0.6367669263990188
4106000000.0 0.8842711016435619 0.6259795892975863
4109000000.0 0.8464599167274605 0.5657604483233063
4112000000.0 0.8318742350222694 0.6013829577877139
4116000000.0 0.8742816303034907 0.5895678816721661
4119000000.0 0.9047633599631297 0.5666298042322641
4122000000.0 0.836676991833732 0.5246446381357993
4125000000.0 0.8724082906827381 0.516085948233145
4128000000.0 0.8420715128202757 0.5373802668681862
4131000000.0 0.8629146218978777 0.5224856134379621
4134000000.0 0.8630068219025322 0.5600643166717325
4138000000.0 0.8848820071961832 0.5043390984479175
4141000000.0 0.8974290644840484 0.5258550655981274
4144000000.0 0.875110553866635 0.5071341438838586
4147000000.0 0.8763114907010856 0.47021922514911624
4150000000.0 0.9186782317524783 0.5249809255859246
4153000000.0 0.8908406027974035 0.5001175574548735
4156000000.0 0.9046250873922335 0.4896739785594967
4159000000.0 0.8957661572430378 0.48834163876999864
4162000000.0 0.911864085826545 0.4568448565305697
4166000000.0 0.9419515364949012 0.45394010416816666
4169000000.0 0.9291678092208483 0.42534214411741156
4172000000.0 0.9328552243864439 0.4449581897708353
4175000000.0 0.9552127872696079 0.4392027549825884
4178000000.0 0.9626185258067396 0.4572093503164072
4181000000.0 0.9398984665885313 0.4126616436692555
4184000000.0 0.9220565422788163 0.3984997808196183
4188000000.0 0.9254551247968414 0.41325757031554133
4191000000.0 0.9504118774320418 0.4166811879494528
4194000000.0 0.9374233001256363 0.41362347948261746
4197000000.0 0.9571835232456376 0.4036881397930026
4200000000.0 0.955965438915338 0.3900698744477409
4203000000.0 0.9607578742553649 0.3989819038402308
4206000000.0 0.9603920212730161 0.37408060172954977
4209000000.0 0.9599281316863861 0.35162901909412875
4212000000.0 0.96867729748524 0.3072186322995146
4216000000.0 0.9657372263670478 0.35482849350228823
4219000000.0 0.975435877806604 0.33468707395150754
4222000000.0 0.9687562208395086 0.3109469246019631
4225000000.0 0.968373087490533 0.31526778603132055
4228000000.0 0.9693990452035797 0.31067728884160706
4231000000.0 0.978477046231826 0.29727775675857415
4234000000.0 0.9945001166330176 0.2913836140013794
4238000000.0 1.000990281337279 0.24509234009247963
4241000000.0 0.9726306766369595 0.25589613516237597
4244000000.0 0.9854100842981963 0.2636388532498171
4247000000.0 0.9812235192275531 0.2647249629665437
4250000000.0 0.9828049170208326 0.2212242197239242
4253000000.0 0.9723158462812933 0.2358658560957257
4256000000.0 1.0135818904009202 0.23443592547998165
4259000000.0 0.9774097277258439 0.2031222641406694
4262000000.0 1.000573138559297 0.18993510036068675
4266000000.0 1.021080529304325 0.16653562125028082
4269000000.0 0.9812739763124019 0.20850907264334848
4272000000.0 0.9988891588412164 0.1896838781890639
4275000000.0 1.0274995110799303 0.185096617392968
4278000000.0 1.018505521635369 0.1756219635659489
4281000000.0 1.0015758355378273 0.18019787866513748
4284000000.0 1.0175620117034572 0.12608809876256982
4288000000.0 1.0161438766560622 0.1898675345626534
4291000000.0 1.00186534681897 0.12254435491245648
4294000000.0 0.9989661360697961 0.11331207412859319
4297000000.0 1.0212496183323938 0.1486874863633157
4300000000.0 1.0058656023309542 0.11787694787175701
4303000000.0 0.9854176159186252 0.09061791495514447
4306000000.0 0.9948193744799502 0.12538121081110445
4309000000.0 1.0024275828811755 0.12060019895938366
4312000000.0 1.0199582302589 0.10997676042767521
4316000000.0 1.0267433030879236 0.07782919377713453
4319000000.0 0.9896284276003355 0.06619364293988915
4322000000.0 1.0059305595121362 0.05214553158886852
4325000000.0 1.0064346529182293 0.04538211092653001
4328000000.0 0.9951249247405632 0.03526433045969367
4331000000.0 1.0073421465982755 -0.026240390372042094
4334000000.0 1.008456689862594 0.003546061885456364
4338000000.0 1.0286184738050923 0.03439582299620829
4341000000.0 1.0237320048237184 0.020967603889731762
4344000000.0 1.065128432878586 -0.010128090500004738
4347000000.0 1.0149173433890353 -0.04535840806453108
4350000000.0 0.9943975508175776 -0.03465680053145652
4353000000.0 0.9888903843341581 -0.007236347711691987
4356000000.0 1.0035252169224465 -0.06473666888828196
4359000000.0 0.9682863771333584 -0.04530083398895961
4362000000.0 1.0161554872167113 -0.11210072618577623
4366000000.0 1.0446698381936754 -0.09120341231336454
4369000000.0 0.9973093020403402 -0.08707211725902964
4372000000.0 1.00681129351017 -0.12029053382789448
4375000000.0 1.0076470240979485 -0.08265183834090793
4378000000.0 0.9903681122069581 -0.09401280199375425
4381000000.0 0.9850833143201685 -0.10275176300177452
4384000000.0 1.050463761070172 -0.13588300392875724
4388000000.0 0.9727605932271252 -0.10269746841203678
4391000000.0 1.0121588638591188 -0.1368089971346962
4394000000.0 0.9632590173980213 -0.15750507745572778
4397000000.0 0.986148449145313 -0.15844659685847465
4400000000.0 1.0301399660364523 -0.17989795939601966
4403000000.0 1.003557342755264 -0.16709322708588412
4406000000.0 0.9890084388042685 -0.21151771234304684
4409000000.0 1.0263614748012957 -0.20317751261164807
4412000000.0 0.9725002356317628 -0.2536511486756449
4416000000.0 0.9632583210856114 -0.22203761656818427
4419000000.0 0.9792560906693466 -0.2460704798023326
4422000000.0 0.974835448578858 -0.21638715768211572
4425000000.0 1.025412417899103 -0.22135322184921224
4428000000.0 0.9812722965199776 -0.25653798131971195
4431000000.0 1.0004302147396684 -0.24972423000376961
4434000000.0 0.9841349941318446 -0.2656766702388995
4438000000.0 1.0072398772094902 -0.28249617796821147
4441000000.0 0.9909419335992404 -0.2824384979200406
4444000000.0 0.957907990909729 -0.28217750518797746
4447000000.0 0.9504174325175115 -0.3030997023850631
4450000000.0 0.9686049195342055 -0.3037482385187569
4453000000.0 1.0004065379960303 -0.30918466575337367
4456000000.0 0.9208058970155859 -0.3164581317448558
4459000000.0 0.9121097341379916 -0.3305724142608326
4462000000.0 0.9925748472221843 -0.3661920817572362
4466000000.0 0.9887038117536326 -0.3856246972852517
4469000000.0 0.9559700569167017 -0.34315314020298937
4472000000.0 0.961427719983722 -0.38343129078002547
4475000000.0 0.9170971676652496 -0.34552752643235374
4478000000.0 0.9740379093726166 -0.4314296437955917
4481000000.0 0.9119778373633908 -0.39174219653022063
4484000000.0 0.9088103391411755 -0.4262125121631829
4488000000.0 0.9062861592485792 -0.435650023962612
4491000000.0 0.9268736702804536 -0.43754154906687276
4494000000.0 0.9076128540940043 -0.4282916770377005
4497000000.0 0.9229463669541595 -0.4256360239858184
4500000000.0 0.9231608983328572 -0.43468618147658045
4503000000.0 0.932980179850899 -0.443811480509639
4506000000.0 0.8889652518011868 -0.4536796706671422
4509000000.0 0.8731183986034681 -0.46089286954938724
4512000000.0 0.8721168787320518 -0.4742737349086721
4516000000.0 0.9320640890086712 -0.46450204822269703
4519000000.0 0.8738992181154491 -0.46258569820025724
4522000000.0 0.8868739130214409 -0.49611052903008235
4525000000.0 0.8781811936528021 -0.4841217416743696
4528000000.0 0.9044491567056427 -0.5074612271476363
4531000000.0 0.8561676326212697 -0.5110103625197023
4534000000.0 0.8418684153948054 -0.50192951081927
4538000000.0 0.854076027093152 -0.5313546298454105
4541000000.0 0.8298125525803636 -0.5487334795125202
4544000000.0 0.8491233665006928 -0.5299391937923731
4547000000.0 0.8458717318306006 -0.5302451032586539
4550000000.0 0.8292624756538176 -0.5916260387768827
4553000000.0 0.8320960223278409 -0.5786916726180761
4556000000.0 0.798962995275343 -0.5778421314540024
4559000000.0 0.8200427644487069 -0.6053358223082204
4562000000.0 0.8334899522672536 -0.6118395116952049
4566000000.0 0.8036261544886103 -0.6228245243742903
4569000000.0 0.7915177401121155 -0.6027998230690097
4572000000.0 0.8068616599119963 -0.6010382193039284
4575000000.0 0.7813333621568082 -0.6460119107450093
4578000000.0 0.8072583712692678 -0.6336036527358514
4581000000.0 0.7870203744298088 -0.6446475392166312
4584000000.0 0.7876202916457803 -0.6349574946430258
4588000000.0 0.7954472283427548 -0.646003098359357
4591000000.0 0.7777988622407525 -0.6296793629469158
4594000000.0 0.7493367780144965 -0.6626441916681816
4597000000.0 0.7674461697839263 -0.6750273487207819
4600000000.0 0.7285006015699833 -0.689645040375157
4603000000.0 0.7707120971840039 -0.7015906944391817
4606000000.0 0.7544504679989598 -0.6950491657436333
4609000000.0 0.7284340921080711 -0.7065409765637799
4612000000.0 0.7358690206426626 -0.7139781474321719
4616000000.0 0.7124625092606718 -0.7066917659303511
4619000000.0 0.7097465917119408 -0.698052052483929
4622000000.0 0.7115567228066922 -0.7226152300269683
4625000000.0 0.6655279572958778 -0.7334927937044142
4628000000.0 0.6958146885261441 -0.7256410243943178
4631000000.0 0.6798403481078443 -0.747684645198766
4634000000.0 0.6800068079515496 -0.73527335262008
4638000000.0 0.6761865292113672 -0.7520089815223235
4641000000.0 0.6883992516822748 -0.7597486138817182
4644000000.0 0.6701624750084249 -0.7769866740371528
4647000000.0 0.6831151236791337 -0.7770621622771131
4650000000.0 0.6416780750393231 -0.7723686199516497
4653000000.0 0.6501517799927826 -0.7914084490609169
4656000000.0 0.6081112029545153 -0.7994353693735905
4659000000.0 0.62536979224531 -0.7889732568095362
4662000000.0 0.624463595293362 -0.8059817687186902
4666000000.0 0.5949509153764254 -0.8096392562266398
4669000000.0 0.6113969176686196 -0.8091095942059509
4672000000.0 0.5894729331959824 -0.8266186230942062
4675000000.0 0.5698889498325237 -0.8430723834948827
4678000000.0 0.6040834770549923 -0.8146315029034406
4681000000.0 0.5572162811017062 -0.847175397009016
4684000000.0 0.5437149147012035 -0.8645188197524063
4688000000.0 0.5523073179085968 -0.8602773292637584
4691000000.0 0.5697874755998314 -0.8463091309263602
4694000000.0 0.5532381948199613 -0.8449317201942859
4697000000.0 0.5171239267759302 -0.828648844245008
4700000000.0 0.522028566590415 -0.8564607411711844
4703000000.0 0.5369436955873432 -0.8154772228988594
4706000000.0 0.4999337773753549 -0.8757129918232041
4709000000.0 0.5029871151371249 -0.8765153875612813
4712000000.0 0.5214971122612393 -0.8946229080680098
4716000000.0 0.4938220062123575 -0.895065270720895
4719000000.0 0.5144395062022806 -0.8926154704804777
4722000000.0 0.49526422051768715 -0.8851007577122885
4725000000.0 0.4879443255289568 -0.9138845573500031
4728000000.0 0.4625966432670653 -0.9095737209483339
4731000000.0 0.4746275953069997 -0.9275426210417348
4734000000.0 0.4628163847636605 -0.893376122810118
4738000000.0 0.4787108351680036 -0.944891725117091
4741000000.0 0.4346674385391393 -0.9384446216342596
4744000000.0 0.3937846074208172 -0.9396336467456092
4747000000.0 0.43560147166316865 -0.8785285439722065
4750000000.0 0.4146120049538481 -0.9569569374201546
4753000000.0 0.41232243469878777 -0.9316076559783538
4756000000.0 0.41587918055926887 -0.9425624077366919
4759000000.0 0.4066940733137342 -0.957734001742573
4762000000.0 0.3908579486381514 -0.9631195167441601
4766000000.0 0.37923300045190067 -0.9606214238685593
4769000000.0 0.3897116436746818 -0.9508264093469913
4772000000.0 0.3563707648293394 -0.9513874162594552
4775000000.0 0.3498863105188815 -1.0015543814782557
4778000000.0 0.3474386901526378 -0.9847362462538801
4781000000.0 0.37589377701693044 -0.9502816604584572
4784000000.0 0.3383750646923066 -0.9491332627503472
4788000000.0 0.2976612059111017 -0.9978387148202543
4791000000.0 0.2971744212374625 -0.9337770511856228
4794000000.0 0.32434139393054107 -0.9713163736882784
4797000000.0 0.2768236620320895 -0.9582920501399018
4800000000.0 0.2696007463122016 -0.972656239935167
4803000000.0 0.2305605429921795 -0.976929914051216
4806000000.0 0.2495411041604871 -0.9902713132522458
4809000000.0 0.2474379446553575 -1.0126515141104873
4812000000.0 0.23254634046664452 -1.0026895456582146
4816000000.0 0.26748491704926297 -0.9882043314609936
4819000000.0 0.2511236752851906 -1.0046743084920462
4822000000.0 0.2428126747610037 -1.0479275025787111
4825000000.0 0.23761654463767407 -1.023474223114628
4828000000.0 0.19861436450455341 -1.0048341804090568
4831000000.0 0.1656173420866374 -1.0265263443516368
4834000000.0 0.20414651148490587 -1.0108014923165456
4838000000.0 0.17484100345632192 -1.0236621526794094
4841000000.0 0.16542424132008343 -0.9806938984422734
4844000000.0 0.1901879694980914 -1.0264671113760753
4847000000.0 0.17842120765958025 -0.9818987428137989
4850000000.0 0.11918283559725112 -1.0139019177417472
4853000000.0 0.14686858718891546 -1.00654144058621
4856000000.0 0.12514348716167067 -1.0100808706261015
4859000000.0 0.12789796388988148 -1.0531647402161806
4862000000.0 0.13268782471623086 -0.9975685704047289
4866000000.0 0.08296959446624416 -1.0284578602879415
4869000000.0 0.07898394781937823 -1.0384567162495653
4872000000.0 0.0988374970221522 -1.0658844426942806
4875000000.0 0.12549727637876043 -1.0611758326193754
4878000000.0 0.0908379836479551 -1.0178064683532344
4881000000.0 0.05265140614443278 -1.0714299805240932
4884000000.0 0.07048569688440143 -1.0167381818042391
4888000000.0 0.06498066823256389 -1.033436267913412
4891000000.0 0.055205660705179745 -1.0511715998159195
4894000000.0 0.024861461409426855 -1.0469104136354066
4897000000.0 0.04208349976424593 -1.01688652806296
4900000000.0 0.03185006545853176 -1.0355693792742025
4903000000.0 0.0563552314006833 -1.0270458502682023
4906000000.0 -0.009413147306551323 -1.07345554617755
4909000000.0 -0.04365427827783811 -1.0303101198217037
4912000000.0 -0.04289478987746059 -1.053608397325038
4916000000.0 -0.012198368977381975 -1.0359202927100732
4919000000.0 -0.027507918849917087 -1.0537960601832437
4922000000.0 -0.013070153357485098 -1.0389012893098375
4925000000.0 -0.07922735649286065 -1.030354091226529
4928000000.0 0.014217082740601641 -1.0198445935238996
4931000000.0 -0.049520607352671456 -1.0274973370743228
4934000000.0 -0.03838860008142822 -0.9899657125965772
4938000000.0 -0.11896487227285323 -1.023128888923965
4941000000.0 -0.10179231861610856 -0.9767068724877744
4944000000.0 -0.09232943492556928 -0.9415489189617561
4947000000.0 -0.06794136237479526 -1.0128759934261728
4950000000.0 -0.11546934315042713 -1.0265971715216637
4953000000.0 -0.1860057593587432 -1.0705193876599908
4956000000.0 -0.16212845705303258 -1.031460070958489
4959000000.0 -0.13945742290082128 -1.0102206300328087
4962000000.0 -0.152957719391587 -1.033150702562122
4966000000.0 -0.15206582115672407 -1.066323032704098
4969000000.0 -0.13959211552524897 -1.0700039133257047
4972000000.0 -0.20433306646648922 -0.9894675121010374
4975000000.0 -0.14995929994157373 -1.027620502595752
4978000000.0 -0.218407433790192 -0.9993460958539767
4981000000.0 -0.21410846169256068 -1.0391193928074962
4984000000.0 -0.2241558139256801 -1.0023015051386093
4988000000.0 -0.16966058932548467 -1.0305287149502407
4991000000.0 -0.1639215402260475 -1.0641256666290837
4994000000.0 -0.2008314734247455 -1.0134739651242166
4997000000.0 -0.2621717041574218 -0.9829742255952262
5000000000.0 -0.23319376067202946 -1.0151430728233684
5003000000.0 -0.2328705504497417 -1.0253561076900544
5006000000.0 -0.2620625030360685 -1.0398502908904108
5009000000.0 -0.28004428574858853 -1.0191443226230168
5012000000.0 -0.31248785003258245 -0.9876871102339135
5016000000.0 -0.27077407108887913 -1.0444677217545166
5019000000.0 -0.31155355937399576 -1.0029661884197572
5022000000.0 -0.3011557280839352 -0.9947916779174257
5025000000.0 -0.33572533707901814 -1.0532292427527592
5028000000.0 -0.3251721133001163 -0.9947552442140193
5031000000.0 -0.3291115065995386 -0.970048175578773
5034000000.0 -0.3859095388525613 -1.0257639045627853
5038000000.0 -0.347729976469893 -0.9313874553194172
5041000000.0 -0.309910039241853 -0.9912372778061499
5044000000.0 -0.30872231170371855 -0.9464239200544998
5047000000.0 -0.34441877112891545 -0.9737167819651588
5050000000.0 -0.2919579626147125 -0.9832727423273653
5053000000.0 -0.41795042883999256 -1.014957304182697
5056000000.0 -0.3476049545469597 -0.9789020844465774
5059000000.0 -0.3553177810959705 -0.997031426284204
5062000000.0 -0.41724725918182026 -0.977891635899377
5066000000.0 -0.39656319319918787 -1.0094570873447932
5069000000.0 -0.415725501888888 -0.9501188294396982
5072000000.0 -0.4125746856133349 -0.9372765346416503
5075000000.0 -0.403021056946147 -0.9625000776481092
5078000000.0 -0.44484432103252575 -0.9362911626333235
5081000000.0 -0.45682372842293467 -0.8828896937156278
5084000000.0 -0.4913501857046084 -0.9714233317872856
5088000000.0 -0.4573886175601608 -0.942958865052989
5091000000.0 -0.5177508421250838 -0.9179405948787727
5094000000.0 -0.4665223745836495 -0.9321018197032315
5097000000.0 -0.4789071717568567 -0.9274437462682859
5100000000.0 -0.5053721423564258 -0.9151031272233109
5103000000.0 -0.5209659011723063 -0.9007175380860807
5106000000.0 -0.4904772009795862 -0.9627572988872883
5109000000.0 -0.42603305099536637 -0.8960814664895524
5112000000.0 -0.5144849816286965 -0.8806639378010241
5116000000.0 -0.4796225712330655 -0.8318308486569739
5119000000.0 -0.5277435908492483 -0.8894056527202119
5122000000.0 -0.5045594178869516 -0.9131682572468536
5125000000.0 -0.518605842974371 -0.9424091074905051
5128000000.0 -0.539642971979099 -0.9106236740591995
5131000000.0 -0.514710838107359 -0.9081813368441166
5134000000.0 -0.556771297121194 -0.8895178684859377
5138000000.0 -0.5933471188404218 -0.8850885964324866
5141000000.0 -0.5677030922952471 -0.8745969563396603
5144000000.0 -0.5370405196841354 -0.9233919740859701
5147000000.0 -0.5735463141897597 -0.8947769816829403
5150000000.0 -0.5346798331645208 -0.8779294427581198
5153000000.0 -0.6376814293699271 -0.8369047484793023
5156000000.0 -0.6158148341076957 -0.8705722292355247
5159000000.0 -0.6700515752075682 -0.8835294288345591
5162000000.0 -0.6618858541841265 -0.806943437535287
5166000000.0 -0.6579016340321915 -0.8448961023285804
5169000000.0 -0.6674302678806624 -0.8670751496769531
5172000000.0 -0.6360176553623067 -0.8677940928993014
5175000000.0 -0.6221257174825564 -0.8331959980911268
5178000000.0 -0.690709019518702 -0.817412921010425
5181000000.0 -0.6680483604310424 -0.8400890860754755
5184000000.0 -0.6634254842498647 -0.8040690173588007
5188000000.0 -0.6757098567652002 -0.8069438450320008
5191000000.0 -0.6718430687174365 -0.7683677340844203
