! Created with skrf 1.8.0 (http://scikit-rf.org).
# Hz S RI R 50.0 
!freq ReS11 ImS11
4000000000.0 0.6841982349231492 0.7843081202831521
4003000000.0 0.6672359603554173 0.821839931123918
4006000000.0 0.7078741251282162 0.7766662473056275
4009000000.0 0.6713073628453851 0.7382482753451703
4012000000.0 0.6764451043874833 0.8081368702073901
4016000000.0 0.7292378208670208 0.7285364229654816
4019000000.0 0.6918931676905284 0.7548309219627597
4022000000.0 0.6813017500307431 0.7884900087179572
4025000000.0 0.7788760968087486 0.7339882258396083
4028000000.0 0.7627451864468888 0.7073087095008155
4031000000.0 0.6981180354485683 0.7202343273354912
4034000000.0 0.7648855960700145 0.7347965620809455
4038000000.0 0.773160074261539 0.6955186966780031
4041000000.0 0.7630095092804755 0.680602421291543
4044000000.0 0.7866507660125479 0.7338007988040584
4047000000.0 0.7874165905739782 0.7553376947458487
4050000000.0 0.8046651718762543 0.6874350127845116
4053000000.0 0.7994824073456596 0.6231948803437193
4056000000.0 0.7662566441416575 0.6432311002230058
4059000000.0 0.7879711617669354 0.6583791029159882
4062000000.0 0.7816855797544614 0.632905939392187
4066000000.0 0.7670996542002455 0.6302541176238998
4069000000.0 0.8509770275068755 0.6326342758725735
4072000000.0 0.7976442966290362 0.6503024773199233
4075000000.0 0.8306300691838359 0.6750479100762659
4078000000.0 0.8641273775463668 0.6058780765414483
4081000000.0 0.8320138094604441 0.6474048222732696
4084000000.0 0.8690008777452245 0.6334155317788508
4088000000.0 0.8045516724903035 0.6373926630671133
4091000000.0 0.9149888637458007 0.624915425737149
4094000000.0 0.838946319225257 0.5870259169099844
4097000000.0 0.8543050569767806 0.5999619448490594
4100000000.0 0.8677764653865051 0.5869670853965485
4103000000.0 0.8523450833497763 0.5706395590527822
4106000000.0 0.8859802280584931 0.5686940100523614
4109000000.0 0.9016910600137333 0.5540918732548334
4112000000.0 0.8843185184725095 0.541565212094846
4116000000.0 0.8757596938149954 0.5846972987741446
4119000000.0 0.9089768928106239 0.5148967706888956
4122000000.0 0.9197550342495485 0.5124956640154069
4125000000.0 0.9340753473192237 0.5007042328420135
4128000000.0 0.8539803754908809 0.5241112102374855
4131000000.0 0.8566062951018693 0.47159828861343167
4134000000.0 0.8818240738432435 0.5154047456357568
4138000000.0 0.9239494655855653 0.47748004969291385
4141000000.0 0.9053745920164697 0.46929767285636115
4144000000.0 0.9124986890296383 0.4738202246875303
4147000000.0 0.9100900101488285 0.4284910260818195
4150000000.0 0.9339196026917281 0.48298250813967386
4153000000.0 0.9387839099187949 0.42330004539927435
4156000000.0 0.9436489883011554 0.4867083690396625
4159000000.0 0.9348218240593893 0.4478072499194324
4162000000.0 0.9201801791031101 0.40622314263011705
4166000000.0 0.9790862989444484 0.3971926984550288
4169000000.0 0.958092957261154 0.3839191650282233
4172000000.0 0.9445547608767041 0.41991720166134666
4175000000.0 0.950548834876841 0.3767920131331158
4178000000.0 0.9695825798183575 0.39032348959022456
4181000000.0 0.9659906352069965 0.37431415449597805
4184000000.0 0.9605808193023926 0.377132460013415
4188000000.0 0.9642948279273689 0.3637158258049128
4191000000.0 0.9506556494887998 0.37741275282928616
4194000000.0 0.9540035458505144 0.31287863638613334
4197000000.0 0.980436390411364 0.3145110619034364
4200000000.0 0.9757716729866757 0.3500607033589004
4203000000.0 0.9806485761937556 0.3307085643028582
4206000000.0 0.9835905304804964 0.3130954475939253
4209000000.0 0.9551251462733897 0.30319164020360406
4212000000.0 0.9792420207948801 0.2606720326836188
4216000000.0 0.9827868284204935 0.29508803315156346
4219000000.0 0.9873105037595612 0.27269161218581794
4222000000.0 0.9913883601413274 0.2537495818816477
4225000000.0 0.9800644723005081 0.2478948474212138
4228000000.0 0.9977007985720561 0.25873835347713536
4231000000.0 1.0041423157997305 0.2529933276863911
4234000000.0 1.0003837646507738 0.23180239684038273
4238000000.0 1.010061973251652 0.2041901763949571
4241000000.0 0.9885441083428348 0.18879180051052852
4244000000.0 1.0000033002636246 0.1963764284907082
4247000000.0 1.0068986859088953 0.20975366125480782
4250000000.0 0.9919818837563545 0.17415045190899914
4253000000.0 0.9695210815193265 0.16024151032941475
4256000000.0 1.0246654169800553 0.18254433864209085
4259000000.0 0.9751045753769606 0.1395572465260719
4262000000.0 1.0108908313883398 0.13347914473412667
4266000000.0 1.0308803970535634 0.11856871631801771
4269000000.0 1.0078308995116187 0.15459289412366456
4272000000.0 0.9854932111587388 0.11291938393958709
4275000000.0 1.019664471191584 0.12450888295232054
4278000000.0 1.0427133722925204 0.1180812511290211
4281000000.0 1.0083577576464382 0.11126922357819459
4284000000.0 1.0128358286712151 0.06337237842659443
4288000000.0 1.007139452720024 0.10908321988298345
4291000000.0 0.9825975321014039 0.06410476280970788
4294000000.0 1.0125970672155988 0.058447998233420465
4297000000.0 1.0019032348507786 0.07115846444352643
4300000000.0 1.0017163688013182 0.056453395681000516
4303000000.0 0.9994658661578665 0.04142479505294293
4306000000.0 1.0132878808453039 0.05057988311845357
4309000000.0 1.0019795106749823 0.04317584687817995
4312000000.0 1.0195899869882483 0.04449585775197905
4316000000.0 1.0209455622131274 0.017961939593838752
4319000000.0 1.0171188838765484 -0.0027952281388856776
4322000000.0 0.9764010811476737 -0.02395876655570499
4325000000.0 1.016182505575335 -0.01234823927195465
4328000000.0 0.9819648469760923 -0.014835136773015747
4331000000.0 1.0265564162001963 -0.07075036374803627
4334000000.0 0.9978785436128772 -0.06449106944367514
4338000000.0 1.0023493000111023 -0.02963247467626752
4341000000.0 1.0238889857329128 -0.02988187506789959
4344000000.0 1.0220469018873197 -0.0411198396583647
4347000000.0 1.0266361929445016 -0.11320764970331168
4350000000.0 0.9716197603450979 -0.08324682799468404
4353000000.0 0.9924201818199714 -0.07407277831866259
4356000000.0 1.0131257490693863 -0.1389216199058845
4359000000.0 0.9546682517325931 -0.10163341823653677
4362000000.0 0.9990512922780728 -0.18196820138569275
4366000000.0 1.0231742265867376 -0.13300666522806945
4369000000.0 0.9705228982324225 -0.153058414830331
4372000000.0 0.9858943539047702 -0.2050029870981322
4375000000.0 1.010330654577439 -0.1309524039628205
4378000000.0 0.9729675927710598 -0.1619000324381351
4381000000.0 0.9812625188925974 -0.15193008261286123
4384000000.0 1.0564446419571403 -0.2222243687709922
4388000000.0 0.9815628933730014 -0.1846951606092373
4391000000.0 1.0033604002835497 -0.2174340938325193
4394000000.0 0.9543892785524155 -0.20999995220490988
4397000000.0 0.974502843777711 -0.22754195895405505
4400000000.0 1.0062837642512152 -0.24784352442522475
4403000000.0 0.9871533989051698 -0.24638024892219978
4406000000.0 0.9733536202431489 -0.2758293600030584
4409000000.0 1.0116042122910658 -0.26958334268559536
4412000000.0 0.9533315555658664 -0.3268340454371386
4416000000.0 0.9596069964514453 -0.2811208625601924
4419000000.0 0.9691539621916218 -0.31020973391046724
4422000000.0 0.9752902349269628 -0.2817991156553511
4425000000.0 0.9912635501138582 -0.28628785012435687
4428000000.0 0.9537095362658977 -0.32148389189764254
4431000000.0 0.9849508950941863 -0.32068960977866057
4434000000.0 0.9391630483789893 -0.33232731074317456
4438000000.0 0.9810202293457895 -0.3405029796369039
4441000000.0 0.9692846390022591 -0.34604729356527875
4444000000.0 0.9329330185355262 -0.34782328053751643
4447000000.0 0.9269795858649476 -0.38015324825183433
4450000000.0 0.9316322224681546 -0.35271740098050114
4453000000.0 0.9626816843330107 -0.38562231844029193
4456000000.0 0.9092331715662577 -0.38508922767220105
4459000000.0 0.8878403435933011 -0.40364543758245586
4462000000.0 0.9616109394857622 -0.42091967636653294
4466000000.0 0.9447014147165923 -0.4484862577260115
4469000000.0 0.9324526011206237 -0.41269606285798227
4472000000.0 0.934174629252694 -0.45606617242813385
4475000000.0 0.8945347017716789 -0.41694944120796185
4478000000.0 0.9320319229444345 -0.4869004177372891
4481000000.0 0.8728725568672393 -0.45780733051365496
4484000000.0 0.882712166984494 -0.493301966064026
4488000000.0 0.8871367618422471 -0.4906333192214484
4491000000.0 0.8985797456218573 -0.4782284398057754
4494000000.0 0.8796915376163582 -0.49058232061289253
4497000000.0 0.8816880834973775 -0.4884376284232548
4500000000.0 0.8792069973092105 -0.49528779440345533
4503000000.0 0.8835409738241484 -0.5171603831148698
4506000000.0 0.854715502760953 -0.5224043776043149
4509000000.0 0.8384236473792623 -0.4986701372697473
4512000000.0 0.8479166011317875 -0.5227941674365687
4516000000.0 0.8814269623618437 -0.5542495218151355
4519000000.0 0.8404015400728746 -0.5303984086286848
4522000000.0 0.8225194404823242 -0.5682767457726783
4525000000.0 0.8457162825907363 -0.5269558223420161
4528000000.0 0.8455624295677553 -0.5933098567852353
4531000000.0 0.8495319969562056 -0.5930741398576418
4534000000.0 0.8167748593942795 -0.597285945750815
4538000000.0 0.8264194626586208 -0.6019029529248485
4541000000.0 0.7902590947535154 -0.6239182754461778
4544000000.0 0.805267992639124 -0.5975624390564677
4547000000.0 0.8001141852582017 -0.6011954367863581
4550000000.0 0.7764641560415224 -0.642759444490833
4553000000.0 0.7950085387824632 -0.6287052753195409
4556000000.0 0.770503034316705 -0.6245968006381085
4559000000.0 0.7668070297501517 -0.6651565311904197
4562000000.0 0.7816100175982195 -0.6489220192738926
4566000000.0 0.7853665975091135 -0.6788801546909515
4569000000.0 0.7386316391754948 -0.66003468298151
4572000000.0 0.7364486990090259 -0.65522883113499
4575000000.0 0.7444654220864262 -0.7043590643990872
4578000000.0 0.7625481472658757 -0.6977649127387717
4581000000.0 0.729098317711511 -0.7090224898458745
4584000000.0 0.7110919000551708 -0.6850573961683105
4588000000.0 0.7361425624560075 -0.7066933247325794
4591000000.0 0.7171852369464122 -0.6945114168360178
4594000000.0 0.6929447793498922 -0.7385735609624907
4597000000.0 0.720723523188971 -0.748384236293437
4600000000.0 0.6618105508957068 -0.7352441825667505
4603000000.0 0.6779653623994107 -0.7437214945131789
4606000000.0 0.6872163672806667 -0.7711834674955442
4609000000.0 0.6867660353287051 -0.739175874570954
4612000000.0 0.6863935233450021 -0.7792031569750546
4616000000.0 0.6320728792714716 -0.7700444061886661
4619000000.0 0.6717373274069022 -0.7742123657272258
4622000000.0 0.6491901142096745 -0.7819636759236829
4625000000.0 0.6081368411778193 -0.7772812186641214
4628000000.0 0.6194169309602889 -0.7781073000296937
4631000000.0 0.6204970122756841 -0.7968170551980731
4634000000.0 0.6151019764973964 -0.8117846856490661
4638000000.0 0.620102881607426 -0.8089636011348134
4641000000.0 0.6155178730228014 -0.8045666497018227
4644000000.0 0.5951013327081656 -0.799037698143175
4647000000.0 0.5971423452532761 -0.8257158753235895
4650000000.0 0.5706817680224243 -0.8304893953019182
4653000000.0 0.6084228816795914 -0.8267829921632733
4656000000.0 0.5776518583379038 -0.8462219575616741
4659000000.0 0.5599939409129354 -0.8341553893831706
4662000000.0 0.5531959012001972 -0.8530153162784996
4666000000.0 0.5313079977843601 -0.8635235414716874
4669000000.0 0.5340136584392507 -0.8531033368344969
4672000000.0 0.5216363794048603 -0.8928916630473457
4675000000.0 0.4999899482067086 -0.8772493241465409
4678000000.0 0.49927642065582756 -0.8634174541130518
4681000000.0 0.4931080739789796 -0.8892926920013257
4684000000.0 0.4689086831747287 -0.8896100120759189
4688000000.0 0.4718862695936975 -0.9059633123669938
4691000000.0 0.48531865638663985 -0.8945170212722542
4694000000.0 0.4819391710141435 -0.885672591490934
4697000000.0 0.42884213598451904 -0.8723232416311535
4700000000.0 0.4706764672478424 -0.8723676906648794
4703000000.0 0.46299193536404837 -0.866351238985483
4706000000.0 0.4500330086405031 -0.9480752926665189
4709000000.0 0.4227635345542173 -0.9102045922758146
4712000000.0 0.43479719517559434 -0.9123892394821563
4716000000.0 0.41458968560827175 -0.9430410704679304
4719000000.0 0.4536183537627016 -0.925161535637588
4722000000.0 0.4232182300227939 -0.9390095789931376
4725000000.0 0.41378149814499376 -0.9352628525543503
4728000000.0 0.3724122928627742 -0.9295452116835594
4731000000.0 0.3765400868288825 -0.9973349088254153
4734000000.0 0.3850116455204353 -0.885291988618114
4738000000.0 0.3757341823164677 -0.9891992029966327
4741000000.0 0.36029446013938804 -0.9686216468914275
4744000000.0 0.33093461496081417 -0.9977857215271637
4747000000.0 0.3320845797378676 -0.9323186459162056
4750000000.0 0.32591730799804997 -0.9821963599318301
4753000000.0 0.2977022418237494 -0.9768002267104596
4756000000.0 0.2994781839291593 -0.9667580077649005
4759000000.0 0.3344450091662313 -0.9770907726386692
4762000000.0 0.2744596242411959 -0.9927318759033329
4766000000.0 0.2689198041680974 -0.966665161859081
4769000000.0 0.29224752286527156 -1.017149016523683
4772000000.0 0.2774403506727643 -1.0117769815166215
4775000000.0 0.23031483042070022 -1.034998355506593
4778000000.0 0.24795264667567393 -0.9959338672703918
4781000000.0 0.24205808649946467 -0.9880529723757228
4784000000.0 0.2639580254552636 -0.9629209271207017
4788000000.0 0.1997263458739373 -0.9950875288108882
4791000000.0 0.20016826201717008 -0.9848513149708867
4794000000.0 0.23118706609007628 -0.9869029495145991
4797000000.0 0.2044864560229433 -0.9917299085540344
4800000000.0 0.18162193988893827 -0.9866357337560672
4803000000.0 0.12808601936593178 -1.0045935324395778
4806000000.0 0.17611361985179835 -1.0289314079967027
4809000000.0 0.11507685149557159 -1.0036942597528535
4812000000.0 0.10100350484472238 -1.0213502683421303
4816000000.0 0.1768864527754652 -0.9930349163562069
4819000000.0 0.1614830622480997 -1.0459864427563026
4822000000.0 0.11555695014267432 -1.0494833486069046
4825000000.0 0.1400742852245655 -1.0584780454537022
4828000000.0 0.12823443995653222 -1.0038471839653944
4831000000.0 0.07639907116188062 -1.056876035896758
4834000000.0 0.11269269429997766 -1.0301232118640673
4838000000.0 0.05455536127602856 -1.025326779054753
4841000000.0 0.050128617490011684 -0.9936060017773932
4844000000.0 0.10761182019725227 -1.0207416372848201
4847000000.0 0.089384158495973 -1.012824208918313
4850000000.0 0.037608482781154425 -1.0488945704650536
4853000000.0 0.031633958334958655 -1.0000302246997843
4856000000.0 0.028452742608467918 -1.006439165037774
4859000000.0 0.0164627999297019 -1.0665068730461589
4862000000.0 0.03731966284904543 -1.0068399362821832
4866000000.0 0.009653661434800606 -1.0501090150315713
4869000000.0 -0.010207577584219408 -1.0394427959944244
4872000000.0 -0.05192886997604978 -1.0444776489596617
4875000000.0 0.015090590037877872 -1.0559646077311478
4878000000.0 -0.030551086676358252 -1.0103300848350476
4881000000.0 -0.07838398749805997 -1.0962037619388543
4884000000.0 -0.009420099473093121 -1.032198500336803
4888000000.0 -0.022711626179143588 -1.015288487048537
4891000000.0 -0.05982112786879214 -1.0513214582457886
4894000000.0 -0.0830471637248775 -1.0451736465811967
4897000000.0 -0.06340384715061918 -0.9975643239666527
4900000000.0 -0.11154553870350696 -1.0422308239773102
4903000000.0 -0.05241623345815923 -1.032961303795426
4906000000.0 -0.11599188005224821 -1.0717866624698353
4909000000.0 -0.1274991532500995 -1.0248670497948793
4912000000.0 -0.12970286134486236 -1.0658776955505977
4916000000.0 -0.12406790658794023 -1.0650125106442065
4919000000.0 -0.11073109084609951 -1.0646269267341972
4922000000.0 -0.14544858243061828 -1.0413058443014345
4925000000.0 -0.20856592969696788 -0.9926928530687711
4928000000.0 -0.07776936141878672 -1.026361931883323
4931000000.0 -0.10445549170994618 -1.0333706304277448
4934000000.0 -0.12336139146507065 -0.9835998717616106
4938000000.0 -0.21839704093253876 -0.9973377776181608
4941000000.0 -0.17160878392264933 -1.008210814057566
4944000000.0 -0.17900310797351668 -0.9843973496844611
4947000000.0 -0.22183568386773952 -0.9959891219707644
4950000000.0 -0.25549859847929596 -0.9955281433988278
4953000000.0 -0.2823848122144713 -1.015665840574095
4956000000.0 -0.25184098498713664 -0.9733154271455454
4959000000.0 -0.3065297026220598 -0.9897870714314108
4962000000.0 -0.28946778013411856 -1.0372082498467838
4966000000.0 -0.28281300848893454 -1.031752103732426
4969000000.0 -0.24001113993637374 -1.0255660777671045
4972000000.0 -0.2930786150234854 -1.019237492186076
4975000000.0 -0.2562380268638237 -0.997261321938112
4978000000.0 -0.2871000077209992 -1.004418293365844
4981000000.0 -0.3155781665092262 -0.9954654368857433
4984000000.0 -0.2810090032444774 -0.9774497962675306
4988000000.0 -0.3077472744051882 -0.9888727862026413
4991000000.0 -0.25992029003526723 -1.019578545272288
4994000000.0 -0.3010991725612898 -0.9530755980585225
4997000000.0 -0.3744680004852567 -0.9906097566761678
5000000000.0 -0.3390299534361255 -1.0100501565618418
5003000000.0 -0.37560448987843237 -1.016322605341271
5006000000.0 -0.3988709874873285 -1.0448953731157318
5009000000.0 -0.37557733974600815 -0.9425127820999419
5012000000.0 -0.39046196517212745 -0.9909894466206142
5016000000.0 -0.37850735947362774 -0.9836351493891833
5019000000.0 -0.41305708109846595 -0.9779220000257902
5022000000.0 -0.4318023436093241 -0.9436260150993216
5025000000.0 -0.4390356106588054 -0.9941240597053149
5028000000.0 -0.443258421979452 -0.9677684457955977
5031000000.0 -0.4487845407767771 -0.9185000057984517
5034000000.0 -0.4907750432953094 -0.9464135950785189
5038000000.0 -0.4739825094109086 -0.8843217057469859
5041000000.0 -0.4208788034604497 -0.9695462482947664
5044000000.0 -0.43589947942396234 -0.9548276353654731
5047000000.0 -0.48402229910864786 -0.9492849850517645
5050000000.0 -0.39044820335539154 -0.9432198901466977
5053000000.0 -0.5241508557114227 -0.9611286912806019
5056000000.0 -0.45844111078238337 -0.9606886521502214
5059000000.0 -0.4374397485220775 -0.9584865252372236
5062000000.0 -0.526145264075205 -0.8976706491332684
5066000000.0 -0.5013131973889102 -0.9160246432723471
5069000000.0 -0.5508633606797052 -0.9514447428898348
5072000000.0 -0.5191806674246513 -0.9045488117379816
5075000000.0 -0.49829324454860346 -0.9023325240227733
5078000000.0 -0.5684157806461039 -0.888475124618477
5081000000.0 -0.5427824027119472 -0.8280139968999735
5084000000.0 -0.5609290358291044 -0.8777738520858065
5088000000.0 -0.537836781648669 -0.9060617298743772
5091000000.0 -0.6262180589189692 -0.8318899455634103
5094000000.0 -0.5708240460042672 -0.8447294517631158
5097000000.0 -0.5566309071392326 -0.9166875327042425
5100000000.0 -0.5711671398029617 -0.8677983993084454
5103000000.0 -0.6275222768896117 -0.8575942125956605
5106000000.0 -0.6051926898083977 -0.8831932000878118
5109000000.0 -0.5999028177738969 -0.8529779437761349
5112000000.0 -0.6569447221819417 -0.8506057134319716
5116000000.0 -0.6243521378545672 -0.8284893468437056
5119000000.0 -0.6515701962523655 -0.7881085296642087
5122000000.0 -0.6330739542300342 -0.8240503944644926
5125000000.0 -0.6293418627531905 -0.822577093703462
5128000000.0 -0.6386500205298014 -0.7897228958501654
5131000000.0 -0.634443746839905 -0.7619067142172244
5134000000.0 -0.6439679501095256 -0.8035537263720148
5138000000.0 -0.6845889010148095 -0.8174644874306594
5141000000.0 -0.6203813497335056 -0.8640471474633942
5144000000.0 -0.6619348959682844 -0.7936399598448255
5147000000.0 -0.697005826741826 -0.7820560585888853
5150000000.0 -0.692003609278181 -0.8262647639040486
5153000000.0 -0.7393134106562333 -0.7869182610760734
5156000000.0 -0.7304966501941639 -0.8032924296138578
5159000000.0 -0.7566711211923977 -0.75812229165037
5162000000.0 -0.73315275608084 -0.7178522567409287
5166000000.0 -0.7392932266933716 -0.7516045956828499
5169000000.0 -0.7448752523343629 -0.7674098975788363
5172000000.0 -0.7286873976291764 -0.7437497304361604
5175000000.0 -0.7470595488603837 -0.7752680329400067
5178000000.0 -0.7512071678535412 -0.7796422561102397
5181000000.0 -0.750628464439264 -0.7295031432223131
5184000000.0 -0.7266144207509448 -0.7377605631585766
5188000000.0 -0.7590628526661104 -0.7252781397853748
