! Created with skrf 1.8.0 (http://scikit-rf.org).
# Hz S RI R 50.0 
!freq ReS11 ImS11
4000000000.0 0.5779746950127213 0.8181106308866923
4003000000.0 0.679479825156093 0.8729175977105351
4006000000.0 0.6415052479186113 0.7919404549843365
4009000000.0 0.671555994712455 0.8083164155298687
4012000000.0 0.6403925578969677 0.8278710320450495
4016000000.0 0.6820435248586014 0.7743719821666104
4019000000.0 0.6922788966064395 0.7489065325389703
4022000000.0 0.6490039288749572 0.8248194976246747
4025000000.0 0.7127379174338603 0.7491704934814191
4028000000.0 0.6700779022660445 0.774405853807633
4031000000.0 0.6801486375004889 0.7309542147234332
4034000000.0 0.7287720120147488 0.7414009491306083
4038000000.0 0.7379586143113132 0.7460412939327973
4041000000.0 0.6947393140433443 0.7329815008557539
4044000000.0 0.7297730014993288 0.7613327973817153
4047000000.0 0.7407634962086757 0.7981034243274115
4050000000.0 0.7647109183916799 0.6972950345657457
4053000000.0 0.7553981251297147 0.6789962649057961
4056000000.0 0.7411094645223636 0.6832980467691563
4059000000.0 0.7026202836600296 0.7091530819773526
4062000000.0 0.774103666302237 0.6464128944916683
4066000000.0 0.6907020221100524 0.6555361139645034
4069000000.0 0.8087784760007337 0.6972930683958032
4072000000.0 0.7529181584266528 0.6727343040757372
4075000000.0 0.8251981582909356 0.6849978955115787
4078000000.0 0.8093071154404803 0.6796825101058169
4081000000.0 0.7493524040075673 0.7316828180604305
4084000000.0 0.8077746006532245 0.6485827248099167
4088000000.0 0.7810543140233565 0.6687807645152469
4091000000.0 0.820753281474669 0.6798157077458398
4094000000.0 0.7976228607825192 0.6531358738974484
4097000000.0 0.8186923321445284 0.5927589512834095
4100000000.0 0.7843864280267399 0.6334610745514169
4103000000.0 0.8287857762404054 0.5828025286920349
4106000000.0 0.8411889960836411 0.6063818636528393
4109000000.0 0.8556343364420493 0.5806082262721737
4112000000.0 0.8527464819245587 0.5791852669301147
4116000000.0 0.8538757688648594 0.6073947276499402
4119000000.0 0.8657593580080785 0.5513517549732457
4122000000.0 0.8508438602084661 0.5037224945617809
4125000000.0 0.8646107102817219 0.5216118282836737
4128000000.0 0.8230119643993075 0.5574034881707989
4131000000.0 0.8421468961975459 0.5592950540796364
4134000000.0 0.8638327218081404 0.5323244379728433
4138000000.0 0.8767441952759418 0.5205660713159739
4141000000.0 0.8665205625276574 0.5163217001285001
4144000000.0 0.8753871781871004 0.5322158947624678
4147000000.0 0.8806156790519111 0.5151600550305828
4150000000.0 0.8919181052416039 0.4949074245608582
4153000000.0 0.8972964284519546 0.4982032995638045
4156000000.0 0.8991632646513965 0.5043216442949944
4159000000.0 0.868391779896132 0.4579496742574333
4162000000.0 0.891120824438564 0.48669022689047703
4166000000.0 0.9263005889549507 0.45932295431293424
4169000000.0 0.8913995139075492 0.4232421315431174
4172000000.0 0.9359064795116968 0.47852065594020515
4175000000.0 0.9047258723411551 0.45816355668327896
4178000000.0 0.9221670228803608 0.4278712184268625
4181000000.0 0.9099421892408126 0.42669444958043223
4184000000.0 0.9107939882459928 0.4315036257901645
4188000000.0 0.9340016315409827 0.409608063784337
4191000000.0 0.8988420388325213 0.4324936978490262
4194000000.0 0.9146005398313793 0.4024473315905679
4197000000.0 0.9488690021046869 0.3969035199967644
4200000000.0 0.9358132857158017 0.4066295418184639
4203000000.0 0.9502255686124397 0.389260573225782
4206000000.0 0.9641080461922068 0.3551572565657873
4209000000.0 0.9428535007075165 0.36559003753365155
4212000000.0 0.970980762505157 0.32437497384635605
4216000000.0 0.9583863760135575 0.3583444105873406
4219000000.0 0.9728608166444609 0.3505865234486716
4222000000.0 0.9726291063422075 0.33535532987609656
4225000000.0 0.9452584519189478 0.31170584635733734
4228000000.0 0.9892921108610968 0.315566535018849
4231000000.0 0.9601147927621536 0.3046799214133663
4234000000.0 0.9712945471522361 0.2984919732639621
4238000000.0 0.9842153753412103 0.2648985294302555
4241000000.0 0.9851273181372351 0.25424405598054955
4244000000.0 0.9736757790770543 0.2758101033641897
4247000000.0 0.969516407811078 0.2800537410866597
4250000000.0 0.9689835777148323 0.24187316794248842
4253000000.0 0.9739845227539881 0.23429572078959088
4256000000.0 1.00078639149426 0.22541913212580705
4259000000.0 0.9536710762383089 0.2263291494424531
4262000000.0 0.9868555489149695 0.2084393388731541
4266000000.0 0.996823069656864 0.1858293422530577
4269000000.0 1.003846161706778 0.22217992777246962
4272000000.0 0.9781624428350545 0.2017762533757737
4275000000.0 1.0127080093413037 0.19021040933365946
4278000000.0 1.0046881478160918 0.1744199793807364
4281000000.0 0.9992683247942706 0.1804749380875182
4284000000.0 1.0123491051431954 0.11614315122381771
4288000000.0 1.0023256097119455 0.20267878745192006
4291000000.0 0.9730116563326343 0.1294133659268365
4294000000.0 0.9861394927422236 0.11951682153907266
4297000000.0 0.9936089633503906 0.1432275442368457
4300000000.0 0.9881240540036544 0.11018486420810483
4303000000.0 0.9901928969730603 0.10767555527716892
4306000000.0 0.9951101156046182 0.11802360934065179
4309000000.0 0.9781396477905636 0.0999553465538691
4312000000.0 1.0356724795604484 0.11433015966048857
4316000000.0 1.0164765130469107 0.10922307794117954
4319000000.0 0.9757837877422894 0.07830565653975517
4322000000.0 1.0056142164704454 0.026940186090557164
4325000000.0 0.9968870214638771 0.08624950037864253
4328000000.0 0.983242047566784 0.027783562341750598
4331000000.0 1.0171487569930733 -0.002553450152808792
4334000000.0 1.0241990796392402 0.009708330999420894
4338000000.0 1.0102239310509855 0.05072449941487224
4341000000.0 1.0299927229775458 0.030674084729583023
4344000000.0 1.0304430492215157 0.02726214443206179
4347000000.0 1.0020354736995767 -0.04016901285305971
4350000000.0 0.9699935948351102 -0.049125233032566176
4353000000.0 0.967427706720579 -0.013341664258861186
4356000000.0 1.0047380189781485 -0.04957427124174757
4359000000.0 0.9548502785724077 -0.035597481121158986
4362000000.0 1.0315889295312044 -0.10412293305880263
4366000000.0 1.0329984337529692 -0.04240057112637047
4369000000.0 0.9915840634120516 -0.0830468416177922
4372000000.0 0.9842948274454213 -0.11495642072922257
4375000000.0 1.0100269527874075 -0.06863097733056334
4378000000.0 0.9772152878008209 -0.07976532381894937
4381000000.0 0.9827556215092115 -0.08676304592853169
4384000000.0 1.0616293153380307 -0.12490631696152475
4388000000.0 0.9833437221474346 -0.09955628773365481
4391000000.0 1.0136108725494017 -0.12283816392364
4394000000.0 0.9782199302418054 -0.14502516811946142
4397000000.0 0.988752533269204 -0.1549324514975508
4400000000.0 1.0269691755091825 -0.1590821938652487
4403000000.0 1.005032326379085 -0.16355548529842381
4406000000.0 0.9921707967915708 -0.1960969253002732
4409000000.0 1.0122605254292953 -0.19478256586551088
4412000000.0 0.9762337354632 -0.2415637049477182
4416000000.0 0.9704088004123701 -0.21913351669316683
4419000000.0 0.9771375610579682 -0.23674674652341351
4422000000.0 0.9793388144293476 -0.20890518886487774
4425000000.0 0.9979694507436978 -0.2122949519722629
4428000000.0 0.9777318690419198 -0.25649756275794233
4431000000.0 0.9998414071625419 -0.2327526797777793
4434000000.0 0.9621469984063622 -0.27227445034894693
4438000000.0 0.9940017280060349 -0.26158580528352704
4441000000.0 0.9938495414697874 -0.25924555374386676
4444000000.0 0.9453529334932762 -0.2596223607623168
4447000000.0 0.9544982141080287 -0.2873201646512987
4450000000.0 0.9519156625432241 -0.26938855013881957
4453000000.0 0.976471108253546 -0.2971255921759064
4456000000.0 0.9155686313720095 -0.31562600363808463
4459000000.0 0.9113695168123319 -0.3170931857863041
4462000000.0 1.0254513445643845 -0.33896403494289246
4466000000.0 0.9821654928246585 -0.3550634235299652
4469000000.0 0.9521603451064603 -0.3201854946900314
4472000000.0 0.9632098919155612 -0.3908891344426233
4475000000.0 0.925664154237323 -0.35166931570174254
4478000000.0 0.964334507260327 -0.4016460865388244
4481000000.0 0.9008415320193158 -0.3647620095940743
4484000000.0 0.9194854494536824 -0.4164877034720569
4488000000.0 0.9091073043261647 -0.38822111966650374
4491000000.0 0.9373762898313702 -0.41958661383639817
4494000000.0 0.9232131967466324 -0.4077023734767443
4497000000.0 0.8990053091767756 -0.4056909082638909
4500000000.0 0.9204267604551963 -0.4175448352353125
4503000000.0 0.9422669555390946 -0.45550521059978527
4506000000.0 0.8797700124533467 -0.45550875984432293
4509000000.0 0.8882177924702133 -0.4256438129746053
4512000000.0 0.8731919128963914 -0.4619843949837046
4516000000.0 0.9249310600968066 -0.47157140822829197
4519000000.0 0.8648214192631024 -0.4622643909629327
4522000000.0 0.8721722706994572 -0.491153465152641
4525000000.0 0.8871091356885936 -0.455898959431456
4528000000.0 0.8961941612826843 -0.5038552092931861
4531000000.0 0.8893976045669489 -0.4926407978269063
4534000000.0 0.8466975743066631 -0.49574922880528105
4538000000.0 0.8585833043567819 -0.5060156730065736
4541000000.0 0.8291926614822359 -0.5591883657816694
4544000000.0 0.8347828529117216 -0.5241958684852706
4547000000.0 0.8326836345618084 -0.5215537553894747
4550000000.0 0.8276304348374002 -0.5649879952491536
4553000000.0 0.8483870582871502 -0.552489101468656
4556000000.0 0.80279680769427 -0.5717990124416503
4559000000.0 0.8210869634623091 -0.5971918341751266
4562000000.0 0.8424137026296281 -0.5787248594655554
4566000000.0 0.8102561481035833 -0.5986503222266506
4569000000.0 0.7839283415954924 -0.5893032657743178
4572000000.0 0.811967074812277 -0.6083734527525988
4575000000.0 0.8096926834531533 -0.6322363878088827
4578000000.0 0.8143117437729555 -0.6321240880938785
4581000000.0 0.7835828460926131 -0.6474866085091214
4584000000.0 0.7717723144368821 -0.6433460268967363
4588000000.0 0.8084064011740428 -0.6470719446665354
4591000000.0 0.7831839013139892 -0.6473256346156455
4594000000.0 0.7560640016889596 -0.6614978998942223
4597000000.0 0.7734593684847193 -0.6648992623979821
4600000000.0 0.7245954510775504 -0.6886424395676093
4603000000.0 0.7627829822937217 -0.6776360219326394
4606000000.0 0.7558874427518378 -0.679210170228492
4609000000.0 0.7279311165289419 -0.683958465770301
4612000000.0 0.7368895618390497 -0.6847998870774703
4616000000.0 0.7256151013994014 -0.6879563016122482
4619000000.0 0.7247203943508527 -0.6911052007248158
4622000000.0 0.7309750248863547 -0.6957557857502421
4625000000.0 0.6802496441635746 -0.7131283847617343
4628000000.0 0.7019116656484784 -0.7194541265992838
4631000000.0 0.7012692907359777 -0.7411232713626635
4634000000.0 0.681772542202569 -0.7380890433273835
4638000000.0 0.693169168760872 -0.7553596638729012
4641000000.0 0.6842562252954889 -0.7313484642496363
4644000000.0 0.6605574175309963 -0.7523574066871326
4647000000.0 0.680807917142907 -0.7629932519797163
4650000000.0 0.6567171251150129 -0.7837570427389184
4653000000.0 0.6564027519126332 -0.7756762785274978
4656000000.0 0.6197953308759085 -0.7874942268084923
4659000000.0 0.6250076860225154 -0.8045385024806258
4662000000.0 0.6233953156492804 -0.7831381875566057
4666000000.0 0.6124480106394397 -0.7994353904365126
4669000000.0 0.6148800162161576 -0.7834700833719304
4672000000.0 0.594379040152432 -0.8355487034662403
4675000000.0 0.584036039093187 -0.8228797337390646
4678000000.0 0.5636840550101232 -0.822152865532754
4681000000.0 0.5801835273056124 -0.8468111026089631
4684000000.0 0.5729391748166888 -0.8310837699207947
4688000000.0 0.5634172025059461 -0.8141024980443944
4691000000.0 0.5831699159898097 -0.8135892641156164
4694000000.0 0.5663648663275235 -0.8409401337045246
4697000000.0 0.49709296243571766 -0.8365302029235828
4700000000.0 0.5419435882252958 -0.8361410940472964
4703000000.0 0.5423199847415754 -0.8048347131064366
4706000000.0 0.5181492342231494 -0.8910939084290543
4709000000.0 0.5324391758634077 -0.8652043601464113
4712000000.0 0.5106760648337705 -0.8842665744615643
4716000000.0 0.49647373724555455 -0.8776166958638363
4719000000.0 0.535989349487385 -0.8794662000319314
4722000000.0 0.5007522259592194 -0.8837621521376624
4725000000.0 0.4852871880335446 -0.8634418586701139
4728000000.0 0.4736026304528622 -0.8949280405392801
4731000000.0 0.47622031217999944 -0.8982020761661449
4734000000.0 0.4546747827784489 -0.8641418437475402
4738000000.0 0.4767925123602833 -0.9276957802540445
4741000000.0 0.47016349233684496 -0.9349890649619796
4744000000.0 0.4020798046422812 -0.9434295149146167
4747000000.0 0.4544518232685689 -0.8794472172838506
4750000000.0 0.4356283994575095 -0.9274578693185931
4753000000.0 0.45154261712356547 -0.9416508691687775
4756000000.0 0.38141317189632484 -0.9308637598385654
4759000000.0 0.41104448899360274 -0.9625620966709849
4762000000.0 0.38200549978234866 -0.956671575946735
4766000000.0 0.4004736275735791 -0.9156692678403122
4769000000.0 0.3997009479076569 -0.973784648719176
4772000000.0 0.3772082360867858 -0.9481544644442257
4775000000.0 0.3642183583209705 -1.025209687716327
4778000000.0 0.33127653225765613 -0.9551746861475495
4781000000.0 0.36706052235899345 -0.9383066822329775
4784000000.0 0.3351971829818525 -0.9565531510468995
4788000000.0 0.31339972572167474 -0.9565486986666456
4791000000.0 0.3169944364723383 -0.9826171885925034
4794000000.0 0.35930654741245394 -0.9926549284085331
4797000000.0 0.28852347849601356 -0.9622089766084515
4800000000.0 0.2834187680463417 -0.9420502901971848
4803000000.0 0.24725608997488976 -0.9659026861940361
4806000000.0 0.26558627841643334 -0.9678098223195131
4809000000.0 0.22244205910044035 -0.9687471755989979
4812000000.0 0.21940616459256887 -0.9750797496273558
4816000000.0 0.2608457155323994 -0.95826856573559
4819000000.0 0.2837253458555389 -1.0144387709644564
4822000000.0 0.2815063003068747 -1.0236657737879986
4825000000.0 0.23671617625610636 -1.0069854258377355
4828000000.0 0.21414449992683118 -0.9801778306328549
4831000000.0 0.19244778565989254 -0.9985162593931272
4834000000.0 0.20263398590421988 -1.007119229467636
4838000000.0 0.19021544337375154 -1.0144434952505887
4841000000.0 0.15959509874204272 -1.0010699181363654
4844000000.0 0.19412301366129958 -0.9961458096722288
4847000000.0 0.19269793249920367 -0.9705292776337149
4850000000.0 0.1720010771174234 -1.0351597370462582
4853000000.0 0.16127502640525124 -0.9756303521080787
4856000000.0 0.145245862685971 -0.9969800437480568
4859000000.0 0.14150875552259704 -1.0481927749183746
4862000000.0 0.15331016419839616 -0.9854193288113678
4866000000.0 0.08755019208893336 -1.0307519766550404
4869000000.0 0.10406395635397381 -0.9958292915054355
4872000000.0 0.09944304124561436 -1.0377020130040973
4875000000.0 0.1525403902801937 -1.059763593000104
4878000000.0 0.07969445378718998 -1.0137326510541238
4881000000.0 0.05048950587678053 -1.0805079789134149
4884000000.0 0.09814585611770504 -1.0269262741219676
4888000000.0 0.07253358379197078 -1.039709380199679
4891000000.0 0.07038524095417913 -1.0543417013879344
4894000000.0 0.031509149472139064 -1.0427731446033697
4897000000.0 0.05472827239965817 -0.9902412693392961
4900000000.0 0.0315646417020137 -1.0408397673476464
4903000000.0 0.04156946306559255 -1.0627310318240855
4906000000.0 0.014659106183024776 -1.0464416237171055
4909000000.0 0.011806565415180293 -1.0319786620818585
4912000000.0 -0.029223919592356845 -1.0679330840015306
4916000000.0 -0.015076275203684049 -1.0623264774214332
4919000000.0 0.011198755678638213 -1.0306262062839877
4922000000.0 0.005945143168900907 -1.02614830718648
4925000000.0 -0.0669626116343188 -1.0183662466019028
4928000000.0 0.027129277636136442 -1.0111051081772306
4931000000.0 -0.032046881513303566 -1.0510120582100204
4934000000.0 -0.027927423516548755 -0.9873387968294766
4938000000.0 -0.09749141372470217 -1.0054627306388921
4941000000.0 -0.06392018168258405 -1.012339866494077
4944000000.0 -0.06820463406737809 -0.9727028475191333
4947000000.0 -0.06391580915335987 -0.9775978035907333
4950000000.0 -0.0951364152649939 -1.0052242865200522
4953000000.0 -0.1585652407667088 -1.0347320666113788
4956000000.0 -0.14664119834951372 -1.03468399604956
4959000000.0 -0.14332025644406418 -0.9923118907567953
4962000000.0 -0.13382943452041166 -1.0242952068994304
4966000000.0 -0.1076549218135276 -1.0416102758697163
4969000000.0 -0.12370324302902519 -1.0377484705016928
4972000000.0 -0.17843299946865157 -0.9944871573202443
4975000000.0 -0.15244392659698583 -1.0105347657320782
4978000000.0 -0.176905127782656 -1.0074615959000692
4981000000.0 -0.17570500619594584 -1.0248884438661616
4984000000.0 -0.18360919139242773 -0.9916000165314874
4988000000.0 -0.18291636891282703 -0.9837221595387403
4991000000.0 -0.15254269948606175 -1.0440374591356205
4994000000.0 -0.20976499740202242 -0.9530749957699574
4997000000.0 -0.2720097817528535 -1.0152075129045732
5000000000.0 -0.22370499298484564 -1.0308321568667753
5003000000.0 -0.23133568194663767 -1.002293282989056
5006000000.0 -0.22443536569389402 -1.0640731804407986
5009000000.0 -0.23333551135594413 -1.000560401283953
5012000000.0 -0.26634563264913824 -0.9844099714293666
5016000000.0 -0.240502660096666 -1.053219718196829
5019000000.0 -0.26202714751652506 -0.967357444986767
5022000000.0 -0.28244859585699666 -1.0008180434603158
5025000000.0 -0.2867493525056866 -1.059113654171374
5028000000.0 -0.32323637324267573 -1.017760872326709
5031000000.0 -0.32842963814223747 -0.9589862483303265
5034000000.0 -0.34348405057789777 -1.0036466549537046
5038000000.0 -0.33089820644545487 -0.9533985594972123
5041000000.0 -0.30315090937554123 -0.97600592258738
5044000000.0 -0.3042008802284363 -0.9665401090929903
5047000000.0 -0.33963481329459094 -0.9861556707575337
5050000000.0 -0.2850109225335298 -0.9968955462729807
5053000000.0 -0.384033163074629 -0.9835898813422939
5056000000.0 -0.3350851947833503 -0.9935523762054161
5059000000.0 -0.3045655312173389 -0.9679526879364596
5062000000.0 -0.3822325935951809 -0.972103523687021
5066000000.0 -0.3305763811414766 -0.9463934070842022
5069000000.0 -0.38683630244811307 -0.9293926543136467
5072000000.0 -0.3930567124085124 -0.9292587276124806
5075000000.0 -0.4091378682537824 -0.9434288901760177
5078000000.0 -0.43793830429421393 -0.9161772975451445
5081000000.0 -0.4258750839287668 -0.887284563126279
5084000000.0 -0.44269035094126397 -0.9824983676588948
5088000000.0 -0.4396335151547034 -0.9306045110147765
5091000000.0 -0.4889567508655002 -0.8987442991240524
5094000000.0 -0.46810774143262585 -0.9017401613692507
5097000000.0 -0.42305309203601493 -0.9411211722661526
5100000000.0 -0.46567615602494505 -0.892246136375502
5103000000.0 -0.5225253943937758 -0.9118100278327429
5106000000.0 -0.4714368424037551 -0.9553261161343953
5109000000.0 -0.46572002682972136 -0.9211068436046916
5112000000.0 -0.5052106775527172 -0.8933686621803361
5116000000.0 -0.4795237039515947 -0.8786243827208575
5119000000.0 -0.5547336097389834 -0.8875911735795081
5122000000.0 -0.5140962434403654 -0.8681081462765479
5125000000.0 -0.5065025952819507 -0.9140675607104328
5128000000.0 -0.5338121639892959 -0.8852620775503672
5131000000.0 -0.5104738819040349 -0.8401055599949014
5134000000.0 -0.49120793865813595 -0.8665439591917499
5138000000.0 -0.5257942152043004 -0.901333387827306
5141000000.0 -0.5234319351542506 -0.8900952492983669
5144000000.0 -0.5556822300785725 -0.8766363482884189
5147000000.0 -0.5447105462487647 -0.8573222741817443
5150000000.0 -0.55643048049961 -0.883175542850394
5153000000.0 -0.5889815903477602 -0.8714846487087801
5156000000.0 -0.5909204186294637 -0.8961943310568976
5159000000.0 -0.6225525983145619 -0.8647414566817113
5162000000.0 -0.6034686551549934 -0.821155292773664
5166000000.0 -0.6585709129541754 -0.8350883207388786
5169000000.0 -0.5975831120021033 -0.8223665523342657
5172000000.0 -0.596879673941441 -0.8495310992124908
5175000000.0 -0.6613780827239161 -0.8647529837954866
5178000000.0 -0.6598138958791047 -0.8141848916202832
5181000000.0 -0.6236392967694837 -0.8224120948561028
5184000000.0 -0.6281300452952403 -0.7963774830026067
5188000000.0 -0.6777100644953927 -0.7864468738794108
