! Created with skrf 1.8.0 (http://scikit-rf.org).
# Hz S RI R 50.0 
!freq ReS11 ImS11
4000000000.0 0.6106036552071625 0.8151718069607254
4003000000.0 0.7272158298504621 0.867905499941101
4006000000.0 0.6888001446000308 0.7724862719294071
4009000000.0 0.6631653925743871 0.8063936367500227
4012000000.0 0.6392860016171321 0.7961073251356484
4016000000.0 0.707426393801309 0.8177648198495464
4019000000.0 0.7171190257455444 0.7251328910791474
4022000000.0 0.6664136614462737 0.8109453442078399
4025000000.0 0.7129254341829044 0.7382918086643385
4028000000.0 0.6986979395473609 0.7411262570796899
4031000000.0 0.6486428865562686 0.6994322884631307
4034000000.0 0.7301503254506391 0.6836157826931555
4038000000.0 0.7698116769500384 0.6815448194755539
4041000000.0 0.7426343886721836 0.6991901211511146
4044000000.0 0.7967713280272541 0.7760821011546721
4047000000.0 0.7698068530796055 0.7265866990716355
4050000000.0 0.8027827185020419 0.6695811363010731
4053000000.0 0.7799675818796087 0.6880530613426179
4056000000.0 0.7635473321206273 0.6757332989805462
4059000000.0 0.7640603244728323 0.6599569942343169
4062000000.0 0.8048375757015261 0.6623130178327918
4066000000.0 0.7460254988429793 0.5777330933875112
4069000000.0 0.8337591227840717 0.64057355387291
4072000000.0 0.799399430826748 0.6747162530222275
4075000000.0 0.7950047364624709 0.7099013009228854
4078000000.0 0.8120421280614176 0.6435038784381911
4081000000.0 0.7695516625540153 0.6681728943869631
4084000000.0 0.8598508821403954 0.6400059230046169
4088000000.0 0.8195834098036617 0.6589176001278577
4091000000.0 0.8401937456733447 0.6490726813473917
4094000000.0 0.8138448549416936 0.5914990911613527
4097000000.0 0.8249422400166324 0.6089738040802828
4100000000.0 0.8037827229025951 0.5922213363325153
4103000000.0 0.8335827840829175 0.5791186445765835
4106000000.0 0.8635469389596566 0.5987703048224228
4109000000.0 0.8978421003775776 0.5591864255030401
4112000000.0 0.8655349867108775 0.5787289023107283
4116000000.0 0.8685906599082835 0.5705583736955344
4119000000.0 0.8481475368061313 0.5124739713496155
4122000000.0 0.8784670006607405 0.5366147618540851
4125000000.0 0.8665105461088745 0.5442431182176952
4128000000.0 0.8325911760347267 0.5174196394215975
4131000000.0 0.8788710790285641 0.5064471701045478
4134000000.0 0.8688852097276885 0.5216362780093946
4138000000.0 0.8639247725932386 0.4791239070837208
4141000000.0 0.8972421212148465 0.47090174707604726
4144000000.0 0.911741920031394 0.5000934147106828
4147000000.0 0.8977965592476252 0.4522069946492607
4150000000.0 0.9711147604003134 0.49962017919536245
4153000000.0 0.8957581126051127 0.4531731778043918
4156000000.0 0.9371152906126197 0.4672131052977825
4159000000.0 0.8633568557226341 0.49095554846112693
4162000000.0 0.8992189056267537 0.45310635049701675
4166000000.0 0.9360301107683986 0.4444931778491491
4169000000.0 0.9210163953942136 0.4069262504646374
4172000000.0 0.9298144915667307 0.4226511273544848
4175000000.0 0.921450102829495 0.43106708533861665
4178000000.0 0.9422174303723394 0.42257804933487975
4181000000.0 0.9395909709802426 0.42018914864348966
4184000000.0 0.9295263217430714 0.3896443045430897
4188000000.0 0.941983718577458 0.3805538673111075
4191000000.0 0.9245701442112093 0.39646630838306335
4194000000.0 0.9414128325819129 0.34868016926521905
4197000000.0 0.9510739360418989 0.3700753545968411
4200000000.0 0.9599063661240377 0.36224988192077023
4203000000.0 0.9590244811207714 0.362444445042832
4206000000.0 0.9840430853797115 0.3264644133633022
4209000000.0 0.9468684155136637 0.33149587891563886
4212000000.0 0.981613775650169 0.3105667830390759
4216000000.0 0.9659276753330319 0.314498127629448
4219000000.0 0.9598393375230736 0.32062605352812856
4222000000.0 0.9904259773747228 0.28114364435849115
4225000000.0 0.9689555102672021 0.2997000089881062
4228000000.0 0.993953034288078 0.2860758059059054
4231000000.0 0.9641240802273233 0.27269896744267613
4234000000.0 0.9914546319867162 0.25732059101104715
4238000000.0 0.9862458384227557 0.24121556707079547
4241000000.0 0.9953277366827629 0.23304834181213901
4244000000.0 0.9798894384423679 0.2366275914015154
4247000000.0 0.9647040453780842 0.24961745772594013
4250000000.0 0.9686194701280049 0.2054417657154629
4253000000.0 0.9648852860358597 0.1925847639459024
4256000000.0 1.015190699970951 0.20234277174635001
4259000000.0 0.9714193638762835 0.16667693348233922
4262000000.0 1.0022732937651226 0.18714247071377846
4266000000.0 1.0070446920415683 0.1522978785291842
4269000000.0 1.0232174999798365 0.18489542515500781
4272000000.0 0.9994668805493008 0.15461475700152394
4275000000.0 1.0026902847171277 0.16833339972497108
4278000000.0 1.027775525249353 0.1518338943500237
4281000000.0 1.0176043578514713 0.14194136324286405
4284000000.0 0.9978699974684506 0.101311731753471
4288000000.0 1.0080311822968413 0.13580481460241267
4291000000.0 0.991147987403711 0.08522444882919779
4294000000.0 1.0046701784319032 0.08063198407228821
4297000000.0 0.9870428903221948 0.09843610754202571
4300000000.0 0.9814399294349301 0.08129013830254173
4303000000.0 1.014358634413548 0.04836374823597846
4306000000.0 1.010381537745446 0.08080673394811771
4309000000.0 1.0048685192778053 0.06450074570897173
4312000000.0 1.0359633891498619 0.10098689139563585
4316000000.0 1.021457658831856 0.04839161487364087
4319000000.0 1.003984908790138 0.024329835485095194
4322000000.0 0.9812760052159328 -0.01045977756187616
4325000000.0 1.0133008305986677 0.02164293983507941
4328000000.0 1.0111640428087194 0.000779503203804946
4331000000.0 1.044765941479433 -0.011634256753830355
4334000000.0 1.0192923081153529 -0.012966535235330423
4338000000.0 1.0328020742414434 0.006930332323266966
4341000000.0 1.0076751106818207 0.0077523818375255515
4344000000.0 1.016677860405327 -0.020871633816052615
4347000000.0 1.00643032639612 -0.03193139031154374
4350000000.0 0.9658837326323414 -0.06430459333541762
4353000000.0 0.9875741352779066 -0.04171229602189257
4356000000.0 1.0043036725377996 -0.09576251242929452
4359000000.0 0.9404996265804154 -0.05710923690390854
4362000000.0 1.0038696820882513 -0.13487529175672947
4366000000.0 1.0078186093999957 -0.11228858231046913
4369000000.0 0.9725609184826666 -0.10404257005868989
4372000000.0 0.9698279843550548 -0.13965209541639906
4375000000.0 1.0177731910763164 -0.1102993535180421
4378000000.0 0.974663235662723 -0.12452739835712417
4381000000.0 0.9836693882510379 -0.13029509701766617
4384000000.0 1.0515715777089882 -0.15958654207454093
4388000000.0 0.9843458373240295 -0.145404207662634
4391000000.0 0.9927335714223708 -0.1678653438658023
4394000000.0 0.9610223975002998 -0.17462499753084987
4397000000.0 0.9805281058554169 -0.19563287447731995
4400000000.0 1.0107185657415863 -0.1815802609941632
4403000000.0 0.9941435139693863 -0.20085163680140689
4406000000.0 0.9820617119662305 -0.21729632181534772
4409000000.0 0.9987851608623768 -0.232177862239727
4412000000.0 0.9587587894000035 -0.281333895842854
4416000000.0 0.962055681791602 -0.2557071135533791
4419000000.0 0.9742684486042411 -0.25778627567295936
4422000000.0 0.9754272090343281 -0.2478961948873494
4425000000.0 0.9887485780906653 -0.23755762192790722
4428000000.0 0.9653472448206709 -0.2667913067983397
4431000000.0 0.988761634533565 -0.2908872319850915
4434000000.0 0.9580477598206405 -0.29759316115470796
4438000000.0 0.9874854760824616 -0.2933674432646513
4441000000.0 0.983730485647099 -0.31256138679568046
4444000000.0 0.9464829873868812 -0.3136845813711943
4447000000.0 0.9569835510466974 -0.33881883970744986
4450000000.0 0.9395197824432845 -0.2979981811577014
4453000000.0 0.9605796962170284 -0.3445454560349364
4456000000.0 0.9144818121365641 -0.3470001885757391
4459000000.0 0.9062868022046029 -0.3425694563577767
4462000000.0 0.9707604545465685 -0.37705234627773104
4466000000.0 0.971759898703603 -0.4043183825272817
4469000000.0 0.9477407296043966 -0.3702311241772206
4472000000.0 0.9410914997508257 -0.4109009105274766
4475000000.0 0.9080047771560702 -0.3979710449999321
4478000000.0 0.9717424409988158 -0.4399473436606307
4481000000.0 0.8613334518076114 -0.4149292569051803
4484000000.0 0.8875542671695327 -0.4624890904769553
4488000000.0 0.8955396236058455 -0.4289208160827668
4491000000.0 0.9036911149180482 -0.4557990501420735
4494000000.0 0.9040738504327822 -0.435120853300282
4497000000.0 0.881304867805871 -0.4391646109103122
4500000000.0 0.902922744214061 -0.445325072667799
4503000000.0 0.9084921057220412 -0.47406759276234034
4506000000.0 0.8752729159325003 -0.49045266597640463
4509000000.0 0.8536322390928104 -0.4953649229880296
4512000000.0 0.8556658160876144 -0.4743367530808523
4516000000.0 0.8998921942172198 -0.5046069726084019
4519000000.0 0.8525512277901196 -0.4710454790056045
4522000000.0 0.8646671737549476 -0.5338129431953561
4525000000.0 0.8815153806228131 -0.5054860046293405
4528000000.0 0.8880380807535331 -0.5312409248811031
4531000000.0 0.8484009094041133 -0.5175669300040737
4534000000.0 0.8324750690204336 -0.5431404635453982
4538000000.0 0.8291532235420527 -0.5490203948613814
4541000000.0 0.810926369325463 -0.5796137336745333
4544000000.0 0.832784307740976 -0.5560804899037071
4547000000.0 0.8304262652113441 -0.5564136382500262
4550000000.0 0.826292464384436 -0.605590303773524
4553000000.0 0.8219410275228194 -0.6163348445240088
4556000000.0 0.7918950388335604 -0.588854296875499
4559000000.0 0.8040925005415414 -0.6166242471938612
4562000000.0 0.8228394758757316 -0.6298837929019774
4566000000.0 0.8107136331388429 -0.6319362157230815
4569000000.0 0.7666192141452792 -0.6107550084635525
4572000000.0 0.7864266558250597 -0.6254176352744323
4575000000.0 0.7660437626519989 -0.6616004662914131
4578000000.0 0.8101601006919779 -0.6348108028769038
4581000000.0 0.7456547929910025 -0.6661825931666105
4584000000.0 0.7491590758440217 -0.6519285196020762
4588000000.0 0.7553519262722692 -0.6732601656097361
4591000000.0 0.7692753898503623 -0.6694664862528614
4594000000.0 0.7386172006908032 -0.6941301541037148
4597000000.0 0.7387959722751993 -0.6939376972260646
4600000000.0 0.6911464749801136 -0.7059743737243453
4603000000.0 0.7027792711408747 -0.7031507947222856
4606000000.0 0.7200650566077333 -0.6921738859100486
4609000000.0 0.715720639078653 -0.7147067043922866
4612000000.0 0.7085007073531364 -0.7338066432055291
4616000000.0 0.6699401429337402 -0.7151341429111389
4619000000.0 0.6928245146227627 -0.7441737721209398
4622000000.0 0.6769523244622524 -0.7349431728644852
4625000000.0 0.6470101033401632 -0.7406976476818342
4628000000.0 0.6794470767890078 -0.7252099723950729
4631000000.0 0.648636692558888 -0.750317098904401
4634000000.0 0.6615981084771023 -0.7610550774857211
4638000000.0 0.6583950198730217 -0.7670534896486573
4641000000.0 0.6622491286729175 -0.7910094300373927
4644000000.0 0.6291874831486028 -0.7784084988248254
4647000000.0 0.6305638331156925 -0.7821448564061417
4650000000.0 0.6056846303694916 -0.7990086678618743
4653000000.0 0.6481402327813942 -0.813085503164877
4656000000.0 0.6023544378741714 -0.8039068938308918
4659000000.0 0.6017053054241982 -0.7945144844035679
4662000000.0 0.6019856558399533 -0.8133208092029269
4666000000.0 0.5889394478465184 -0.8455420398763679
4669000000.0 0.5933364136152188 -0.8303754166195197
4672000000.0 0.5683684328799966 -0.8431069977974395
4675000000.0 0.5659380513333916 -0.8386325435938182
4678000000.0 0.5466921497823491 -0.8182606396968987
4681000000.0 0.5465612368507813 -0.8856083826336285
4684000000.0 0.49439171044502467 -0.8834813767193439
4688000000.0 0.4885548907213463 -0.8642810115830283
4691000000.0 0.54469018823578 -0.8512485368082674
4694000000.0 0.5468299364473538 -0.8446344593815454
4697000000.0 0.47073617991851524 -0.8277440595050705
4700000000.0 0.5299901326479204 -0.8579520008473407
4703000000.0 0.5120269921746592 -0.8402186198172839
4706000000.0 0.47763490199941183 -0.8821718048379511
4709000000.0 0.4834059287172461 -0.8837890792171493
4712000000.0 0.47234323863615646 -0.8838355117290712
4716000000.0 0.46124163487528014 -0.9292334750783287
4719000000.0 0.4947561218083786 -0.8937299041746877
4722000000.0 0.5011290978771987 -0.909205956145468
4725000000.0 0.4500364461314502 -0.9160539179686373
4728000000.0 0.4372248943462884 -0.9083461726964039
4731000000.0 0.446591533878948 -0.9495401285119038
4734000000.0 0.4221040275010739 -0.9016037020340657
4738000000.0 0.4505326420473393 -0.9533468914470449
4741000000.0 0.38907341821056396 -0.9371367476757377
4744000000.0 0.37828499582347236 -0.969222123066944
4747000000.0 0.37830719584464756 -0.9186426366520823
4750000000.0 0.39902256725434204 -0.9607447489015614
4753000000.0 0.3873587926849601 -0.962958999681691
4756000000.0 0.38825174573918775 -0.9710994650785487
4759000000.0 0.38540766746262417 -0.9514595016955606
4762000000.0 0.3248186137884884 -0.991887682095202
4766000000.0 0.3455184451504812 -0.967095403743134
4769000000.0 0.35259279806649385 -1.0005315166102933
4772000000.0 0.3137691592206056 -0.9838424487894194
4775000000.0 0.31421961355069356 -1.0242238022270527
4778000000.0 0.30777745775344273 -0.9840459523785486
4781000000.0 0.3160987349829889 -0.9411808384665461
4784000000.0 0.3271667694983739 -0.9468934696797157
4788000000.0 0.26956301169523794 -1.0112322135839031
4791000000.0 0.2819855669800114 -0.9789376333807279
4794000000.0 0.31342932799929246 -1.0099732259550733
4797000000.0 0.2378496574520567 -0.9444658521313455
4800000000.0 0.2457039072813175 -0.9716848249160406
4803000000.0 0.21510717295623663 -0.9618386273198731
4806000000.0 0.2335679968836436 -1.0137222719304775
4809000000.0 0.18717814463712037 -0.9798723300455349
4812000000.0 0.18653359422029805 -0.9979877618338919
4816000000.0 0.2243355801218647 -0.9740735145811199
4819000000.0 0.2141386334213769 -1.0250822400599744
4822000000.0 0.22053907868426081 -1.0331579013615555
4825000000.0 0.20672891221125836 -1.0152519086028307
4828000000.0 0.16783095553526603 -0.9820508941563441
4831000000.0 0.11446196617341399 -1.0345385730735763
4834000000.0 0.18344953646555343 -1.031039343938642
4838000000.0 0.1140853201661717 -1.0312166233429108
4841000000.0 0.11702309289807614 -1.0187866861541615
4844000000.0 0.1473034582752908 -1.0183816225875946
4847000000.0 0.13183350604838195 -0.9726096622080072
4850000000.0 0.09682830792070772 -1.0367946141470186
4853000000.0 0.11011350862509833 -0.9896163016017585
4856000000.0 0.09810062346854448 -1.0132539768870261
4859000000.0 0.0787463275011295 -1.0604200861538908
4862000000.0 0.1007051625047778 -0.9934852370669204
4866000000.0 0.06346198561858854 -1.0418804319432051
4869000000.0 0.05638574860032383 -1.0193338219632826
4872000000.0 0.03914410738172405 -1.0543164482771974
4875000000.0 0.11416428913406675 -1.061948750968658
4878000000.0 0.04016318894746275 -1.0501673650766659
4881000000.0 -0.006156400248996011 -1.09011988859108
4884000000.0 0.05780269558285487 -1.022810809045369
4888000000.0 0.049647492356847456 -1.022682211874471
4891000000.0 0.023221634067466187 -1.060674621233321
4894000000.0 -0.03905261154364706 -1.018531002693144
4897000000.0 0.007772472590649771 -1.0157994598198823
4900000000.0 -0.011851193534581368 -1.039400111644458
4903000000.0 -0.004350092406672265 -1.0265546592975667
4906000000.0 -0.04284252262431056 -1.0390669667874184
4909000000.0 -0.04312508794050029 -1.0251698472415391
4912000000.0 -0.07051716582907033 -1.0559935087509364
4916000000.0 -0.04062424408981206 -1.043845368390243
4919000000.0 -0.024180310614595232 -1.0667350948198273
4922000000.0 -0.029064951724340662 -1.035022847482898
4925000000.0 -0.08360105222653369 -1.0224523951461224
4928000000.0 -0.06680660692408262 -1.0105971478994669
4931000000.0 -0.09979097615573244 -1.0414292910704497
4934000000.0 -0.08481979451251727 -0.978951597093101
4938000000.0 -0.15458479389070734 -0.9892456974275076
4941000000.0 -0.14003338635973833 -1.021226986107309
4944000000.0 -0.08535244926105146 -0.9906353638464944
4947000000.0 -0.1479765012853296 -0.9995163760982821
4950000000.0 -0.16280796312043744 -0.988956508253218
4953000000.0 -0.21412970187724367 -1.0242152931172739
4956000000.0 -0.187956694469181 -0.9806974878334057
4959000000.0 -0.20175820188639546 -0.9767924409414103
4962000000.0 -0.19072291118602439 -1.0477488818077751
4966000000.0 -0.15613095972875723 -1.0431382929859843
4969000000.0 -0.22550259333133227 -1.072207019489612
4972000000.0 -0.20224876293438634 -1.0224830458528416
4975000000.0 -0.22340081357157246 -0.9858811322953684
4978000000.0 -0.23045889132622732 -1.0050571125122514
4981000000.0 -0.24057741072797625 -1.0369570317746903
4984000000.0 -0.2268694573290225 -0.9698764436488568
4988000000.0 -0.21925857066530557 -0.9912035180450393
4991000000.0 -0.20453758324460902 -1.0590386078687977
4994000000.0 -0.21576477899540952 -1.0264048304178346
4997000000.0 -0.314004413254974 -0.996524148712311
5000000000.0 -0.2686837894346482 -1.0333146445077774
5003000000.0 -0.27873629221354373 -1.0064865064257698
5006000000.0 -0.3292124488925331 -1.0464079581097867
5009000000.0 -0.287558810608318 -0.9704894374361913
5012000000.0 -0.3453878936503512 -0.9906485524578315
5016000000.0 -0.27831429993377627 -1.0135906100144703
5019000000.0 -0.3310841227925637 -0.9799122998573568
5022000000.0 -0.30119429094100214 -1.004734625857672
5025000000.0 -0.3815136199654711 -1.0183419886177028
5028000000.0 -0.3795785859804338 -0.9623378852843592
5031000000.0 -0.3593899795573946 -0.9654949239355081
5034000000.0 -0.4016505356336332 -0.9630783060972994
5038000000.0 -0.3855462836831234 -0.9114483521722998
5041000000.0 -0.337376089701635 -0.9534892516840642
5044000000.0 -0.3520451791825414 -0.9493109235686016
5047000000.0 -0.39495514474107923 -1.0051841977025342
5050000000.0 -0.3207740527040599 -0.9501809819269003
5053000000.0 -0.43873656790567606 -0.9976832627587062
5056000000.0 -0.41032148156280734 -0.9624123477687885
5059000000.0 -0.3640803617916643 -0.9905736639677795
5062000000.0 -0.46873987314794363 -0.9336895049039782
5066000000.0 -0.4024561098959868 -0.9127594756432091
5069000000.0 -0.4506685037172472 -0.9888144604596986
5072000000.0 -0.4354996471863951 -0.8802789147825636
5075000000.0 -0.4237406063929814 -0.9320487044057815
5078000000.0 -0.48550430679221473 -0.898060050007784
5081000000.0 -0.47216916436800443 -0.9159537423164926
5084000000.0 -0.47843545656427444 -0.953353607655054
5088000000.0 -0.45606701777205916 -0.9431287626179035
5091000000.0 -0.5363389269207606 -0.9071505560877207
5094000000.0 -0.5239174119707359 -0.886316484282739
5097000000.0 -0.4647518389759073 -0.925377190705291
5100000000.0 -0.49224628542537824 -0.8811233490231617
5103000000.0 -0.574561851845479 -0.8906354878949893
5106000000.0 -0.5245421375266287 -0.9172716316463636
5109000000.0 -0.4889982594505333 -0.9234763169846376
5112000000.0 -0.5600379906507105 -0.8628072867959866
5116000000.0 -0.5483689971633684 -0.8481242192596097
5119000000.0 -0.5722116342736292 -0.8860491385218894
5122000000.0 -0.5528929076361687 -0.8738157838133265
5125000000.0 -0.5598130019339987 -0.8548395449201069
5128000000.0 -0.5874142989601279 -0.8070780945852976
5131000000.0 -0.6049389648872805 -0.8342934791603921
5134000000.0 -0.5843287751736671 -0.81980424574962
5138000000.0 -0.5855230647759907 -0.8621733960889231
5141000000.0 -0.5572225164536417 -0.8318638781870655
5144000000.0 -0.5916921772657535 -0.8907492030918264
5147000000.0 -0.6110168468935081 -0.8908337115177756
5150000000.0 -0.5935606343428053 -0.8745184207535536
5153000000.0 -0.6284651205449006 -0.8384864416995509
5156000000.0 -0.6571207192468141 -0.819384332886025
5159000000.0 -0.6343797179751232 -0.8253247924669334
5162000000.0 -0.6555450426912853 -0.7503423560598934
5166000000.0 -0.6835662965077126 -0.8166675190304966
5169000000.0 -0.6311704729939189 -0.78769087680135
5172000000.0 -0.6523451558910194 -0.7780779562236704
5175000000.0 -0.7133342735110021 -0.8358558710627222
5178000000.0 -0.7036602867821684 -0.7737317853378514
5181000000.0 -0.6912798327542703 -0.7948676698435512
5184000000.0 -0.6863917037497451 -0.7390378535049518
5188000000.0 -0.6818604549373862 -0.7861323849931582
