! Created with skrf 1.8.0 (http://scikit-rf.org).
# Hz S RI R 50.0 
!freq ReS11 ImS11
4000000000.0 0.6410386005437138 0.8098801351664122
4003000000.0 0.6792427462157496 0.8358785471331618
4006000000.0 0.6952953382476585 0.7754592302652168
4009000000.0 0.6853650536360228 0.8058344299739725
4012000000.0 0.6414172629868083 0.7938677288649726
4016000000.0 0.6663344366008832 0.7715488651445723
4019000000.0 0.656466957389789 0.7683193560694241
4022000000.0 0.6440409913648016 0.8525021392529494
4025000000.0 0.7487108921150398 0.743181051411155
4028000000.0 0.6986150032901921 0.7100214611297679
4031000000.0 0.6551894908501033 0.7368837516521302
4034000000.0 0.6991033278461722 0.7325344400242175
4038000000.0 0.7761021109283897 0.7360855194047343
4041000000.0 0.7369252207123411 0.7534149010613775
4044000000.0 0.7808087286809653 0.7223166859367218
4047000000.0 0.7295117626821114 0.7851916318067946
4050000000.0 0.8072837375288302 0.7058932600441852
4053000000.0 0.7944853945735435 0.6762047639330775
4056000000.0 0.7643880951795724 0.6627930467828613
4059000000.0 0.7352853460930056 0.6860951904269941
4062000000.0 0.789807138141821 0.6626990723250188
4066000000.0 0.7244552959292161 0.6417101834189558
4069000000.0 0.8353837361456742 0.6775608658955695
4072000000.0 0.7675488361242967 0.7008869201880732
4075000000.0 0.7919993734984695 0.6606266734872033
4078000000.0 0.844634679113491 0.6848268350774819
4081000000.0 0.78996700248986 0.6946507608560214
4084000000.0 0.8487626259605446 0.6385631401027909
4088000000.0 0.7407622764584002 0.6410566107803688
4091000000.0 0.8546647428711466 0.6819347157693281
4094000000.0 0.8224423712145269 0.6543231785640373
4097000000.0 0.8325109951978857 0.6079820903777011
4100000000.0 0.8479645884727447 0.6062292794478119
4103000000.0 0.8593929015115764 0.6396734251518406
4106000000.0 0.8344363420350744 0.5754254598208013
4109000000.0 0.9010330680068628 0.561961884242826
4112000000.0 0.8962378662365125 0.5867563889777745
4116000000.0 0.8402893627366885 0.5976875754851052
4119000000.0 0.894097212933691 0.553238949749775
4122000000.0 0.8987105657150156 0.5518794254159947
4125000000.0 0.8971813533492093 0.531979296594959
4128000000.0 0.8188857960887637 0.561368112285368
4131000000.0 0.8218844684075337 0.5303226047417828
4134000000.0 0.8831291887440216 0.5360202411082875
4138000000.0 0.8782901404725076 0.5055500468521481
4141000000.0 0.8840040775863305 0.48946571313500276
4144000000.0 0.8937423598746456 0.49951034115173415
4147000000.0 0.9076979474523823 0.478591118078659
4150000000.0 0.9323304814434515 0.5336557802512425
4153000000.0 0.9067247682041857 0.48635487721517645
4156000000.0 0.9487556100465924 0.5249181535019148
4159000000.0 0.8884046864060404 0.49108678291157776
4162000000.0 0.8938295399778775 0.4613677574042503
4166000000.0 0.9473146953691844 0.4556802102661378
4169000000.0 0.9334164350076951 0.42036803741731665
4172000000.0 0.8993462736110099 0.4142716544708492
4175000000.0 0.9298421158093113 0.44703954504046334
4178000000.0 0.9322214914730219 0.4637540075431067
4181000000.0 0.9116723952973169 0.42966314946533624
4184000000.0 0.916440294981721 0.4104462337478137
4188000000.0 0.954582987379885 0.39276163595673286
4191000000.0 0.9322238018424142 0.4108601474990395
4194000000.0 0.9420038423718459 0.36416751654164126
4197000000.0 0.9562965109328129 0.40723299889240155
4200000000.0 0.977290004045736 0.39986846720019276
4203000000.0 0.9744063331042961 0.37063274753157294
4206000000.0 0.9718862794476284 0.36058002629176716
4209000000.0 0.9523226495719308 0.35856939640353686
4212000000.0 0.9773570658638554 0.31252219257032166
4216000000.0 0.9798395426899993 0.3397750472135435
4219000000.0 0.974232997679076 0.33780064290944845
4222000000.0 0.9904477372986058 0.3121753029346462
4225000000.0 0.9705605847894845 0.31831488470304115
4228000000.0 0.9818691312673558 0.2951177870872582
4231000000.0 0.9713382829424265 0.2822066145968775
4234000000.0 0.9905956717186384 0.2789322139748282
4238000000.0 0.9860035108823202 0.2487198961971018
4241000000.0 1.0022007498483785 0.2656673530303278
4244000000.0 0.9801701134479696 0.2510455334637209
4247000000.0 0.9890236270596986 0.2679835228969803
4250000000.0 0.9699876825931146 0.23458508072589468
4253000000.0 0.971401450194483 0.21329710038108535
4256000000.0 1.0141738905195463 0.2213418711406554
4259000000.0 0.9609443086888202 0.2039165606608834
4262000000.0 0.9938519692589642 0.19878527930936293
4266000000.0 1.0418819036170197 0.18782954916175287
4269000000.0 0.9992988939251394 0.2027774748297583
4272000000.0 0.991101282913021 0.18958004359920505
4275000000.0 1.0056164672057122 0.1725327561579978
4278000000.0 1.0180261137616449 0.14630512158350525
4281000000.0 0.9839873721387182 0.15789605464431317
4284000000.0 1.026568939304691 0.12577164329569182
4288000000.0 1.007441081482767 0.14957295836372866
4291000000.0 0.9993924905369768 0.1021829131404451
4294000000.0 1.0208515523106612 0.11026894676367328
4297000000.0 1.0105278982282044 0.13133917123145
4300000000.0 0.9946651205961015 0.11336013779117343
4303000000.0 1.0005045915010147 0.0720892795470227
4306000000.0 0.9955929321839847 0.1320403959351987
4309000000.0 1.0055269152113064 0.08749755375119216
4312000000.0 1.0408823653015984 0.1287860017010835
4316000000.0 1.0223086700221855 0.06432489210302438
4319000000.0 0.9932065343034806 0.0802024947288394
4322000000.0 1.0012337704695808 0.03302932291162759
4325000000.0 0.9984116603546175 0.07514815853644309
4328000000.0 1.0127976961389111 0.03452892545842022
4331000000.0 1.027536610114349 -0.010348639444320823
4334000000.0 1.0275240990042782 0.009947234862907328
4338000000.0 1.0148462308658497 0.04664375613353812
4341000000.0 1.047392620396726 0.010839594976991801
4344000000.0 1.0597581926765076 -0.002333705527856056
4347000000.0 1.028215745021419 -0.04997992210218041
4350000000.0 0.9869290084725205 -0.041653723653778785
4353000000.0 0.9979919958162473 -0.02700282967680394
4356000000.0 1.0205270940787965 -0.053009384106053756
4359000000.0 0.9833284809455171 -0.04598104218901232
4362000000.0 0.9988934376756649 -0.0949593583717015
4366000000.0 1.0255163159900371 -0.07562549615930844
4369000000.0 0.9701216830686913 -0.08062676000640408
4372000000.0 0.9820392939921143 -0.12449457267533329
4375000000.0 1.0323888286873284 -0.08757915831587271
4378000000.0 0.9884289641361541 -0.1032766154933059
4381000000.0 0.9821426196447045 -0.12648991199199022
4384000000.0 1.0526144379497628 -0.14211681181663774
4388000000.0 0.9977493639024839 -0.1325349889925051
4391000000.0 1.0114668072037878 -0.15077543749661107
4394000000.0 0.9789322644530293 -0.16117849769438292
4397000000.0 0.9827305462847038 -0.17365250373845448
4400000000.0 1.0125455563844286 -0.17837173846105836
4403000000.0 0.9995848040953738 -0.17427916264820098
4406000000.0 1.0001607000697799 -0.21184531703128684
4409000000.0 1.0066518587684345 -0.21035504565420574
4412000000.0 0.9797497017731832 -0.27188273890781556
4416000000.0 0.9670971295505915 -0.2255067817488328
4419000000.0 0.9867826300199958 -0.24203625404366486
4422000000.0 0.9818175893837191 -0.22172656436974636
4425000000.0 1.000777124157837 -0.2321834943934024
4428000000.0 0.9734114736332767 -0.2609739065032574
4431000000.0 1.0081836302372582 -0.25386812280631016
4434000000.0 0.9548466116611967 -0.2748401301244611
4438000000.0 0.9776137598794643 -0.27465366228151
4441000000.0 0.9807562476796206 -0.28830511169612294
4444000000.0 0.9557945773125998 -0.2724893090729543
4447000000.0 0.9450945723815156 -0.30948598845473085
4450000000.0 0.9441456501606886 -0.2840451332140347
4453000000.0 0.9897675771748076 -0.3239709323941563
4456000000.0 0.9282129284391843 -0.31807714032174383
4459000000.0 0.9133290933073865 -0.32588536482288066
4462000000.0 0.9983095827797905 -0.3604118455931735
4466000000.0 0.9822287322630765 -0.3680836800290713
4469000000.0 0.955697240541126 -0.3479603743227438
4472000000.0 0.9512011375132372 -0.3948600882727196
4475000000.0 0.9133430467431565 -0.36659818807728134
4478000000.0 0.9693490178505206 -0.4121181699788463
4481000000.0 0.9059766431481865 -0.385091380676269
4484000000.0 0.9191918628418216 -0.43382843277439587
4488000000.0 0.9098339554804173 -0.4184808365839016
4491000000.0 0.918975734608207 -0.4166715903236988
4494000000.0 0.8968355288915983 -0.4214500139793834
4497000000.0 0.9053596006406712 -0.41603286045548254
4500000000.0 0.9226423948863038 -0.42989848135711534
4503000000.0 0.9175106408680977 -0.4530445251278517
4506000000.0 0.898317155056656 -0.46517603737948715
4509000000.0 0.8859633712075403 -0.4594722101168117
4512000000.0 0.8543249596033498 -0.4750490556776039
4516000000.0 0.8987590291415332 -0.4621317729622091
4519000000.0 0.8584978559398352 -0.4790904974242532
4522000000.0 0.8656154034486965 -0.5144596068574971
4525000000.0 0.8842503390898582 -0.48448992089111365
4528000000.0 0.9018542384598063 -0.5182947257339738
4531000000.0 0.8710614911534246 -0.5095906693361162
4534000000.0 0.8655220262615915 -0.5073790636982075
4538000000.0 0.8346933887955643 -0.5304877077978907
4541000000.0 0.828842978233916 -0.559577166640412
4544000000.0 0.8400163765415092 -0.5498214627570482
4547000000.0 0.8333476527907295 -0.5377440527275215
4550000000.0 0.8432152144968408 -0.5844804793049727
4553000000.0 0.8342756563309444 -0.594008311753802
4556000000.0 0.8198461555896366 -0.5769987096384795
4559000000.0 0.8129872669991449 -0.5936328340994688
4562000000.0 0.8224366604921414 -0.593501871229434
4566000000.0 0.817435277226847 -0.6209587249639403
4569000000.0 0.7924199732495824 -0.6098831910241529
4572000000.0 0.8079466048529137 -0.6069227028009997
4575000000.0 0.7816691064741241 -0.6512570920267235
4578000000.0 0.8125415159649119 -0.6354770250672869
4581000000.0 0.7831258634022948 -0.6558398843495914
4584000000.0 0.7844749160398531 -0.6577728931059035
4588000000.0 0.7842663873246482 -0.6427085792805768
4591000000.0 0.7770860695979979 -0.636805660884724
4594000000.0 0.7402510950540865 -0.682088964480977
4597000000.0 0.7472153622407596 -0.698220688230529
4600000000.0 0.7312932375429052 -0.6908506618693383
4603000000.0 0.7412760391463178 -0.7040654622680232
4606000000.0 0.7342081648670138 -0.6996777168491575
4609000000.0 0.7330895996787764 -0.6997896619927249
4612000000.0 0.7394657328641074 -0.7165712562377473
4616000000.0 0.6985017428023319 -0.7065294217204444
4619000000.0 0.7096370127361983 -0.7229692808345032
4622000000.0 0.6847488967596811 -0.7470584987991947
4625000000.0 0.6628681595966399 -0.7130288347205449
4628000000.0 0.6935811477503586 -0.7156226494251414
4631000000.0 0.6797920564394333 -0.7551112758818197
4634000000.0 0.6713875323599613 -0.7528623784302141
4638000000.0 0.6840406787612351 -0.7644606551570221
4641000000.0 0.6736924699614308 -0.7579603273632355
4644000000.0 0.6512439399099607 -0.7681956712554997
4647000000.0 0.6663551830883616 -0.7588690426113044
4650000000.0 0.6298416131117142 -0.7970032109277185
4653000000.0 0.6577148965791277 -0.7891600482852374
4656000000.0 0.6249378449649889 -0.8020773890479469
4659000000.0 0.6189606709604526 -0.8070500745860366
4662000000.0 0.6230830824249537 -0.8064652334660942
4666000000.0 0.5928901060298136 -0.8210006259287499
4669000000.0 0.5894018920824896 -0.8137549613814942
4672000000.0 0.5827620525545689 -0.8437923632348888
4675000000.0 0.5618321195460249 -0.8408046867845821
4678000000.0 0.5839958551029305 -0.8143563644242849
4681000000.0 0.5609104506967344 -0.8619633491089734
4684000000.0 0.5549401292340573 -0.8634086302283187
4688000000.0 0.5485541936443826 -0.8403042236712689
4691000000.0 0.5771878781616558 -0.8310238128364822
4694000000.0 0.5668747596350361 -0.8367276063458626
4697000000.0 0.5024080776716648 -0.8386965676247937
4700000000.0 0.5378742813778903 -0.8412230441359383
4703000000.0 0.5281330752527332 -0.8275810468120917
4706000000.0 0.4831862421119645 -0.8669010818639191
4709000000.0 0.4761875060871637 -0.8914202317354535
4712000000.0 0.5080080722955611 -0.8838471967161265
4716000000.0 0.4852989115829719 -0.874740980009163
4719000000.0 0.49479857051396453 -0.8714393837017421
4722000000.0 0.4962103554445251 -0.8928501448172426
4725000000.0 0.4619347259176691 -0.8737811306441589
4728000000.0 0.45166929694564467 -0.89130303325611
4731000000.0 0.49378106474071115 -0.918961953604998
4734000000.0 0.47467048850212334 -0.8766274298598465
4738000000.0 0.49864414276953717 -0.922453193287722
4741000000.0 0.4217648368778293 -0.9245780685057442
4744000000.0 0.40895066910785927 -0.9417766906799229
4747000000.0 0.42423460081493664 -0.8825381940851488
4750000000.0 0.4084199916451653 -0.9322967745165781
4753000000.0 0.4197242852478804 -0.9415828550354706
4756000000.0 0.403771372653557 -0.9465963505815498
4759000000.0 0.4191445076561069 -0.963475898575482
4762000000.0 0.38073672334798325 -0.9821387659053903
4766000000.0 0.37263667592235483 -0.9684402451797374
4769000000.0 0.37075151858243904 -0.9428503887639871
4772000000.0 0.3303253293668157 -0.973546612865167
4775000000.0 0.3178180422952184 -0.9820215703179216
4778000000.0 0.33102802522514974 -1.0025248594080638
4781000000.0 0.35521233150143716 -0.9420423967531479
4784000000.0 0.32337815317428054 -0.9420083807268226
4788000000.0 0.3070189149957038 -0.9987168539284745
4791000000.0 0.27865352872520593 -0.9687125147972223
4794000000.0 0.33199501137157966 -1.0223841377372527
4797000000.0 0.2887119929165571 -0.9750767404198558
4800000000.0 0.26239607977785223 -0.9683541301010186
4803000000.0 0.23496944729785166 -0.9851745065700759
4806000000.0 0.24652322986297973 -1.0011914357805287
4809000000.0 0.2198877149680577 -1.0119041354936584
4812000000.0 0.1966484075217718 -0.9735570367463455
4816000000.0 0.2728409078597016 -0.9781437255252783
4819000000.0 0.25493162491588356 -1.0175933060880942
4822000000.0 0.23471937936823364 -1.0248602638288336
4825000000.0 0.25126057146708364 -1.0244170573146765
4828000000.0 0.19288538246444095 -0.9934533213665456
4831000000.0 0.16720950594496148 -1.0241950883613553
4834000000.0 0.2058484480731148 -0.9978548002599301
4838000000.0 0.17312806552088825 -1.0228148367516499
4841000000.0 0.16434970836848084 -0.9786513771635584
4844000000.0 0.1883083044705164 -1.012183481478603
4847000000.0 0.17802223468992046 -0.9845012403282953
4850000000.0 0.1378296565358707 -1.040440027576868
4853000000.0 0.13234848010640693 -1.0034116659712193
4856000000.0 0.11767040557848862 -1.0108627890034683
4859000000.0 0.11579951488520375 -1.0472063657999096
4862000000.0 0.1419816068523728 -0.9921072544071522
4866000000.0 0.08190482413284225 -1.0450067332438486
4869000000.0 0.08038708409522133 -1.025473141207478
4872000000.0 0.07939208696382938 -1.0563157096540567
4875000000.0 0.12578171746201883 -1.0588146708101664
4878000000.0 0.06756099593242411 -1.036521778321136
4881000000.0 0.03012673320978506 -1.0903234695111326
4884000000.0 0.07910907897194686 -1.027897582478919
4888000000.0 0.0892367894271736 -1.0153229385531928
4891000000.0 0.041071052655287967 -1.0559848071126938
4894000000.0 -0.005564068159875191 -1.0178969319444837
4897000000.0 0.06438483745863319 -1.0138897205488506
4900000000.0 -0.004347982657977333 -1.0272757691918382
4903000000.0 0.04328022904882972 -1.0733530945411298
4906000000.0 -0.020149854928259096 -1.0662175708241899
4909000000.0 -0.03530206410806701 -1.0244779937362785
4912000000.0 -0.0004968486324747751 -1.0808106144616554
4916000000.0 -0.014335954976968136 -1.086686660359643
4919000000.0 -0.0011995965572358935 -1.0832038221934526
4922000000.0 -0.03114134745415824 -1.05283713923813
4925000000.0 -0.07662476310389359 -1.0126140019080832
4928000000.0 -2.0346581316582624e-06 -1.0004457925900943
4931000000.0 -0.051947790533838425 -1.0501454491505937
4934000000.0 -0.05249492885950961 -0.9699668907647659
4938000000.0 -0.13913954006965606 -1.0222916329312173
4941000000.0 -0.12470031669823524 -1.0241636694692335
4944000000.0 -0.07718577677601529 -0.9870194070959124
4947000000.0 -0.10035778718588809 -0.9818720577906174
4950000000.0 -0.1321265760346078 -0.9880901889207767
4953000000.0 -0.1487030358354296 -1.008511444876702
4956000000.0 -0.18469417785504266 -0.980230277176232
4959000000.0 -0.17294900135135946 -0.9690248802369426
4962000000.0 -0.1713249083353687 -1.0145442120583423
4966000000.0 -0.17932023659057145 -1.0373701847143124
4969000000.0 -0.161293010449309 -1.091408136753208
4972000000.0 -0.1818555612158206 -1.023786666603662
4975000000.0 -0.15303946550270656 -0.9842284545233978
4978000000.0 -0.2181947879258072 -1.0071347427115254
4981000000.0 -0.22532460727852663 -1.0135013704089157
4984000000.0 -0.18997730450041353 -1.0037858905209254
4988000000.0 -0.23200630055592386 -1.0015292704272682
4991000000.0 -0.19215634350404542 -1.0587456117608893
4994000000.0 -0.17608903022648537 -1.0058989712163966
4997000000.0 -0.2761504156139516 -0.9984767248898211
5000000000.0 -0.23105628950726226 -1.0351254662512428
5003000000.0 -0.25138765073520614 -1.0252993355283697
5006000000.0 -0.3019239427208398 -1.0390379468126505
5009000000.0 -0.26144594560188406 -0.996192619758277
5012000000.0 -0.27284958585963115 -1.0165034716601467
5016000000.0 -0.2571537883396106 -1.0258309247367412
5019000000.0 -0.30192500383985466 -0.9621059004254959
5022000000.0 -0.3108820752945062 -0.9935378815873126
5025000000.0 -0.3293429356409489 -1.0603101938239672
5028000000.0 -0.34820311516814506 -0.9611530735672957
5031000000.0 -0.33461578820668103 -0.9673422671100379
5034000000.0 -0.38571688541251925 -1.0170151353196757
5038000000.0 -0.3422823088102126 -0.937721336563387
5041000000.0 -0.3244660416630357 -1.0041322870933693
5044000000.0 -0.3179870965676329 -0.9519231062218861
5047000000.0 -0.357807456949273 -0.9714545977137753
5050000000.0 -0.28519436751708127 -1.0116735658815204
5053000000.0 -0.4114898830614958 -1.0257252924246432
5056000000.0 -0.3758668681966022 -0.97817024529206
5059000000.0 -0.35779726540794915 -0.9667778141669888
5062000000.0 -0.42515147038925993 -0.9454581777381672
5066000000.0 -0.3639496135369683 -0.9585355771324966
5069000000.0 -0.40146781299714096 -1.0008473522756949
5072000000.0 -0.42879768019347175 -0.8989344698592852
5075000000.0 -0.4209097308389149 -0.9637492553856009
5078000000.0 -0.46207424833072025 -0.9228530725729054
5081000000.0 -0.42275471014127636 -0.9033896631637536
5084000000.0 -0.45077983772147145 -0.9564124449424414
5088000000.0 -0.4573949029634311 -0.9221639317307313
5091000000.0 -0.48655974137625285 -0.9087047292758241
5094000000.0 -0.48616049877650797 -0.9334547359847888
5097000000.0 -0.4210199450201332 -0.9831757668141377
5100000000.0 -0.43745400178514393 -0.8922318157720085
5103000000.0 -0.539290134924042 -0.8774809878456061
5106000000.0 -0.5021005824848941 -0.9411684810208678
5109000000.0 -0.46542591820040896 -0.8851039864708914
5112000000.0 -0.5188160981968319 -0.8945793206866355
5116000000.0 -0.5043686982568564 -0.8773134063937931
5119000000.0 -0.5171275058830399 -0.9008401801301156
5122000000.0 -0.5612227849319799 -0.8798152292140156
5125000000.0 -0.530240818841055 -0.8708275108277178
5128000000.0 -0.5748816172840182 -0.84645013899235
5131000000.0 -0.5435922415627537 -0.8854303431169145
5134000000.0 -0.5870511934750112 -0.8721504229001702
5138000000.0 -0.5476379639645382 -0.8856971215517613
5141000000.0 -0.5050266792606128 -0.8768549312625085
5144000000.0 -0.5994339249019188 -0.8615946241582341
5147000000.0 -0.5837528462908191 -0.8720391713121666
5150000000.0 -0.5927021608510565 -0.8896115724625272
5153000000.0 -0.6297072232925451 -0.8165571032083507
5156000000.0 -0.6327640484860442 -0.8647007252068837
5159000000.0 -0.6157086775578025 -0.8599121100396891
5162000000.0 -0.654125690290294 -0.8388802159918444
5166000000.0 -0.6670839491229846 -0.8320246083231769
5169000000.0 -0.66402105957387 -0.8583435653267739
5172000000.0 -0.6441789586335642 -0.8312715987365505
5175000000.0 -0.6235306506200461 -0.9090109717507776
5178000000.0 -0.6669279644374864 -0.8102377672001104
5181000000.0 -0.6659669691811311 -0.8376320155053246
5184000000.0 -0.679981358342571 -0.8190310362694969
5188000000.0 -0.7254638237360757 -0.8038258294985069
