! Created with skrf 1.8.0 (http://scikit-rf.org).
# Hz S RI R 50.0 
!freq ReS11 ImS11
4000000000.0 0.661087276656657 0.8084280245216677
4003000000.0 0.6660783414347584 0.802360250614921
4006000000.0 0.67134869309414 0.7510426959923343
4009000000.0 0.6769892166370868 0.7939885537057497
4012000000.0 0.5965378168837664 0.8827911093266522
4016000000.0 0.7060711125078576 0.7732564083429796
4019000000.0 0.6880102893057243 0.7703546706806952
4022000000.0 0.6511657000584558 0.8312600545074966
4025000000.0 0.7269737636531135 0.7470631754014392
4028000000.0 0.7030940782336614 0.7812036286338258
4031000000.0 0.6534238662734003 0.7325972195820118
4034000000.0 0.7102679342002046 0.7710942634722036
4038000000.0 0.7079887011201519 0.7044983241204481
4041000000.0 0.730958689402543 0.7165640939825342
4044000000.0 0.7669924186659969 0.7850181205763276
4047000000.0 0.7399488102508771 0.7517479876008857
4050000000.0 0.7964304822079357 0.7193737313092272
4053000000.0 0.7210192486142555 0.6814732802127772
4056000000.0 0.7586359266285092 0.6949734131657926
4059000000.0 0.7379681245748587 0.7078187392625903
4062000000.0 0.77320662373599 0.6743366607299808
4066000000.0 0.740799486546784 0.645826745457914
4069000000.0 0.8526437534136889 0.6677049850502258
4072000000.0 0.7402774159422304 0.7090564659353413
4075000000.0 0.8030231590100706 0.7196187747277392
4078000000.0 0.7911152176837737 0.6902668402405994
4081000000.0 0.7670658825113043 0.7272498648220437
4084000000.0 0.8510525085473758 0.6327988973953722
4088000000.0 0.8108245220615726 0.6340986333860911
4091000000.0 0.8693003992512263 0.6853775714740311
4094000000.0 0.8207446778535376 0.6608224381867555
4097000000.0 0.8102717990144573 0.5920982415123013
4100000000.0 0.8364169759688226 0.6395697259266653
4103000000.0 0.8094230766318569 0.647321516614946
4106000000.0 0.8532695477847234 0.5812393057181685
4109000000.0 0.846086294372369 0.5864339634340912
4112000000.0 0.8536939078276011 0.5799325550165906
4116000000.0 0.8463459397815716 0.5982790716026459
4119000000.0 0.8806628757139444 0.5916054604721651
4122000000.0 0.8457192414740873 0.5716807800826181
4125000000.0 0.8837926327622772 0.5211297563923563
4128000000.0 0.8402494284329897 0.5495005066584864
4131000000.0 0.8456255702748235 0.5570492101124451
4134000000.0 0.867589582259108 0.5469571476388161
4138000000.0 0.8777517704355342 0.5086529143260783
4141000000.0 0.8800321970007619 0.511713758923292
4144000000.0 0.8879501868522528 0.5008428190965257
4147000000.0 0.9026080661374571 0.4881187303748324
4150000000.0 0.9545331187052317 0.5281544776380076
4153000000.0 0.9081201770893266 0.4909234375969457
4156000000.0 0.9483772110783384 0.4864843727199265
4159000000.0 0.8740807752054813 0.4582652419536523
4162000000.0 0.9284651373784709 0.4602587526636919
4166000000.0 0.9344246895925084 0.46051767311294434
4169000000.0 0.9177076185908712 0.428440806583647
4172000000.0 0.8978499253714546 0.4473702976483785
4175000000.0 0.9094078372022881 0.4518510583248588
4178000000.0 0.9392195948303739 0.43970802301900735
4181000000.0 0.9285422577222999 0.41403057061296145
4184000000.0 0.935373904987677 0.4170011195296806
4188000000.0 0.9527061789646325 0.41721374085922724
4191000000.0 0.9231404861005255 0.4141622695739356
4194000000.0 0.922072607384159 0.3522045373157261
4197000000.0 0.9616492750594501 0.38518330308038323
4200000000.0 0.931128601821654 0.36252298991900267
4203000000.0 0.9532796121531085 0.39532202209095
4206000000.0 0.9910049291852038 0.379056689970169
4209000000.0 0.9558382546842689 0.3632749646316074
4212000000.0 0.9813169731442376 0.32380327692710487
4216000000.0 0.9589567747535934 0.35957440352483966
4219000000.0 0.9769326341754807 0.3454742908213013
4222000000.0 0.9853704953332347 0.31112889930436866
4225000000.0 0.9552473596945579 0.3165049911107509
4228000000.0 0.9696719662069262 0.307707570171212
4231000000.0 0.9948809613532686 0.2906347092141992
4234000000.0 0.9829631797271613 0.29340623374578256
4238000000.0 0.990756291140022 0.25723214028020214
4241000000.0 0.992391589291373 0.26187110233936994
4244000000.0 0.9870379628826493 0.27425292076602104
4247000000.0 0.988836263670212 0.2735310274837927
4250000000.0 0.9923413809773463 0.23615588680497845
4253000000.0 0.9726932363120213 0.2351625414601327
4256000000.0 1.0052574778116998 0.23668513171187244
4259000000.0 0.9794278050710712 0.19674567008166507
4262000000.0 1.0074878679794383 0.18904170366083348
4266000000.0 1.0255164081728463 0.16795337115979558
4269000000.0 1.0071983256895611 0.2163203597834534
4272000000.0 0.9889006786837827 0.17113540755999734
4275000000.0 1.010172562403465 0.17744616172576017
4278000000.0 1.0329141558681632 0.17700831831381258
4281000000.0 1.0280520513204223 0.16571171684884256
4284000000.0 1.0188660795612337 0.14383087795140334
4288000000.0 0.9943563417440967 0.18991384315261917
4291000000.0 0.9867785893567322 0.1515430366578392
4294000000.0 1.023215945706669 0.11386479634964923
4297000000.0 1.0086536092742615 0.1562958445883677
4300000000.0 0.9988876301135299 0.1196551052501846
4303000000.0 0.9968597990267416 0.06942225281261095
4306000000.0 0.9887770480878659 0.13880639782306275
4309000000.0 1.0154936004020616 0.09436166392201405
4312000000.0 1.0248191711431451 0.12411658061538242
4316000000.0 1.0210064161389873 0.07983121752536228
4319000000.0 0.9998631498221305 0.07588641216547724
4322000000.0 0.9965563375262253 0.02054569455081355
4325000000.0 1.0001734564679536 0.05827692108661785
4328000000.0 1.0047121929629508 0.047349325505930115
4331000000.0 1.0198542228764778 0.021845388472256533
4334000000.0 1.022446456605006 0.008475058705172012
4338000000.0 1.0276072173929935 0.03961231054061613
4341000000.0 1.0206152377390554 0.042038109940268575
4344000000.0 1.0255501446390924 0.006450445103484387
4347000000.0 1.010645633091179 -0.04209709532034667
4350000000.0 0.9864630698547563 -0.03956969116131352
4353000000.0 1.0033522435556523 -0.008807417576323529
4356000000.0 1.0200613852967437 -0.08174480514390445
4359000000.0 0.9785985799311011 -0.03538264332851393
4362000000.0 1.0083618855669412 -0.12320864217963572
4366000000.0 1.036821101543815 -0.0641732329839172
4369000000.0 0.9913520113886602 -0.07279912140108251
4372000000.0 0.9803601715614583 -0.12725319843040206
4375000000.0 1.0006288427179661 -0.06471255562180689
4378000000.0 0.9819883590448083 -0.095353033881457
4381000000.0 0.9899670476186129 -0.09801432500191146
4384000000.0 1.0769019165025928 -0.14159366044974153
4388000000.0 1.002957149107055 -0.11431766447390758
4391000000.0 1.0267223496177882 -0.13081632837283616
4394000000.0 0.9664823600644501 -0.14932635580689102
4397000000.0 1.0051606386458816 -0.1683176284472701
4400000000.0 1.0224196525455513 -0.1801298706574713
4403000000.0 1.0072609269822401 -0.17120441485489316
4406000000.0 0.9897072498142659 -0.19662273047779305
4409000000.0 1.0244156051270308 -0.2006720927378276
4412000000.0 0.9736290391053364 -0.25242805538145163
4416000000.0 0.975755318496244 -0.22321024790729016
4419000000.0 0.9756379396383978 -0.23228155337665843
4422000000.0 0.9827169966255536 -0.20802135628197363
4425000000.0 1.0033506305856448 -0.21925759517395266
4428000000.0 0.9759834213708473 -0.24520588411521824
4431000000.0 0.9968066663354989 -0.2412591681777033
4434000000.0 0.9737668882203212 -0.2625870959333052
4438000000.0 0.9922696011777357 -0.27180741915995316
4441000000.0 0.9955470734947598 -0.28664080694296934
4444000000.0 0.9520035665296198 -0.2804741700102663
4447000000.0 0.9539977224771374 -0.29778261368719283
4450000000.0 0.9598221493606682 -0.29644066384986933
4453000000.0 0.9779940042830312 -0.313739475325285
4456000000.0 0.9253823556581651 -0.32577778678224567
4459000000.0 0.899770523490647 -0.32587663976970205
4462000000.0 1.018563953097986 -0.3614923043027247
4466000000.0 0.9942254322801537 -0.3785334395706131
4469000000.0 0.9801864836061097 -0.3468931789364026
4472000000.0 0.960243677569784 -0.3773839526105234
4475000000.0 0.9226296931152804 -0.3380228692610478
4478000000.0 0.9768885367416498 -0.3988824835361485
4481000000.0 0.9114692777830088 -0.3907738553704934
4484000000.0 0.8923812170736185 -0.44975437354602854
4488000000.0 0.9116305888941211 -0.40375244267523813
4491000000.0 0.9177547567053508 -0.413224581614451
4494000000.0 0.9138676855887345 -0.4024637419169675
4497000000.0 0.9085121562221636 -0.423383773446376
4500000000.0 0.9160655398402102 -0.42857263591976996
4503000000.0 0.9335418190718625 -0.4654987406207339
4506000000.0 0.9029945342270629 -0.46583525626106675
4509000000.0 0.8812934717556895 -0.4505881011109939
4512000000.0 0.8693262551499474 -0.4688809719863808
4516000000.0 0.8878277399780448 -0.4925355869096866
4519000000.0 0.8559690714872648 -0.45020831555875934
4522000000.0 0.8716256825581299 -0.500022153350125
4525000000.0 0.9040855097978255 -0.46633994231288306
4528000000.0 0.9082860917956548 -0.5291548522578953
4531000000.0 0.8790824699000741 -0.5098020574245956
4534000000.0 0.8644863947608411 -0.5146086412938656
4538000000.0 0.8633545900851916 -0.5182953510967416
4541000000.0 0.8294198491742597 -0.5628459042516019
4544000000.0 0.8520790186692784 -0.5296526478093757
4547000000.0 0.8490623548122359 -0.524286369632641
4550000000.0 0.8365660643660806 -0.5768484731388548
4553000000.0 0.8546400315306621 -0.5798305502446589
4556000000.0 0.8063705008892412 -0.5788173932850876
4559000000.0 0.810936710298517 -0.603352124082873
4562000000.0 0.8450620095704595 -0.5853503618626335
4566000000.0 0.8141044060821478 -0.5982808683569001
4569000000.0 0.7807454144035145 -0.5981443867432192
4572000000.0 0.800381306022812 -0.6301002315718777
4575000000.0 0.815192382329279 -0.6333860321880476
4578000000.0 0.8172846378678011 -0.6255961597791784
4581000000.0 0.7830868414168652 -0.6529677238687743
4584000000.0 0.7601523568571599 -0.6424529395469496
4588000000.0 0.7918005055209177 -0.6506213663042764
4591000000.0 0.7795421455796695 -0.6511375681563122
4594000000.0 0.7572014206502996 -0.6749755516793816
4597000000.0 0.7707912165833783 -0.6884638128091615
4600000000.0 0.7273258081979236 -0.6841331063664972
4603000000.0 0.7579977832102555 -0.6818485074090676
4606000000.0 0.7403682152705828 -0.6830348652039138
4609000000.0 0.723960744961188 -0.7041428590566807
4612000000.0 0.726137226324315 -0.6948663548966031
4616000000.0 0.7087097899394641 -0.7054793425471173
4619000000.0 0.7223049350007144 -0.7132376953547096
4622000000.0 0.710523962506917 -0.7203728326748853
4625000000.0 0.661411731594396 -0.7143125652354037
4628000000.0 0.700197005298779 -0.7231989837361332
4631000000.0 0.6874584305548428 -0.7495504409059905
4634000000.0 0.6905401723828077 -0.7407693069441185
4638000000.0 0.6822591481830214 -0.7619345528041286
4641000000.0 0.6726667401487486 -0.7405283953127458
4644000000.0 0.6527052071502751 -0.7659903689928034
4647000000.0 0.6502383702592268 -0.7735022654131406
4650000000.0 0.6421130081449539 -0.7765850704357451
4653000000.0 0.6730854964354046 -0.7854127540308972
4656000000.0 0.6313522822467263 -0.7955161521546679
4659000000.0 0.6232870595650812 -0.7879349819845234
4662000000.0 0.6142912456990084 -0.8183952191970431
4666000000.0 0.6027873525388849 -0.8014348833062094
4669000000.0 0.6161024288596797 -0.8106273385589885
4672000000.0 0.5923697294033096 -0.8215573630839197
4675000000.0 0.5721187119344878 -0.8501743803357985
4678000000.0 0.5648319666940675 -0.8102057149019615
4681000000.0 0.5711179645736006 -0.8510324300223658
4684000000.0 0.5596915588145955 -0.8577246540120954
4688000000.0 0.5588500218671004 -0.842196714306387
4691000000.0 0.5849609422670161 -0.839080182486257
4694000000.0 0.5677156323423915 -0.8443604266287699
4697000000.0 0.5254753156141418 -0.8484247386461665
4700000000.0 0.5434437984228317 -0.8435840064429923
4703000000.0 0.5424144600049094 -0.8375583604296064
4706000000.0 0.5329908212618302 -0.8939011278162979
4709000000.0 0.48217912811285585 -0.8729188474398658
4712000000.0 0.5043911039925715 -0.8617513540660422
4716000000.0 0.48618844978341624 -0.8945689547257656
4719000000.0 0.5188175065739788 -0.8793624458649106
4722000000.0 0.5104838768481679 -0.8718947853226531
4725000000.0 0.49457755144895355 -0.8786145560742812
4728000000.0 0.46091041657199217 -0.8908067148245309
4731000000.0 0.4716898787157058 -0.93568292220536
4734000000.0 0.47396768430480396 -0.8810796454646875
4738000000.0 0.4694305093779907 -0.9436046673490015
4741000000.0 0.4780713734308556 -0.9531722032792443
4744000000.0 0.40909911576504526 -0.9275143473322893
4747000000.0 0.4458023719470441 -0.8893915279374024
4750000000.0 0.3979145211483828 -0.9442804147783433
4753000000.0 0.43301321855881797 -0.9290549397302271
4756000000.0 0.41810781150590864 -0.9504359534774756
4759000000.0 0.40182008094849075 -0.9433912710897207
4762000000.0 0.3754190499755974 -0.9641836870289623
4766000000.0 0.3841968632326467 -0.9543057125480136
4769000000.0 0.37890294452034884 -0.9830606862677854
4772000000.0 0.3579770201022279 -0.9469461071674312
4775000000.0 0.3578950756089397 -1.0096452917977166
4778000000.0 0.34488396622764883 -0.956380278843097
4781000000.0 0.37622084082269724 -0.9733412970871522
4784000000.0 0.339856691892633 -0.9621883894145121
4788000000.0 0.2888626866881781 -1.0051203089838558
4791000000.0 0.3273905727803426 -0.9599864147033109
4794000000.0 0.33266053614468205 -1.0015802958066609
4797000000.0 0.27641997360001946 -0.9634887858967057
4800000000.0 0.25826730005720083 -0.9540670973424148
4803000000.0 0.24070532612508058 -0.9798426498327792
4806000000.0 0.2849857189397237 -1.0158040737666647
4809000000.0 0.2232327911304094 -0.9903040510097721
4812000000.0 0.20655017344968776 -0.9857784319102667
4816000000.0 0.25746776064475463 -0.9648006138871614
4819000000.0 0.2476393553129597 -1.0184181817610776
4822000000.0 0.26308060091847185 -1.0250973340673133
4825000000.0 0.2554557740484567 -1.016138420722458
4828000000.0 0.21774837045873016 -0.9920136410517643
4831000000.0 0.1565799655480085 -1.0143478307985936
4834000000.0 0.20644890058079426 -1.0114130859823824
4838000000.0 0.17261143865843634 -1.0281521979704
4841000000.0 0.16271174309745898 -1.0079495304900643
4844000000.0 0.20730478145576076 -1.0189972026712495
4847000000.0 0.18394705373403325 -0.9790265162479197
4850000000.0 0.13586174778686397 -1.032242124072883
4853000000.0 0.12693971715305094 -0.9984629040230375
4856000000.0 0.14267890161279212 -1.0150477682997219
4859000000.0 0.1378077159160377 -1.0390583635743198
4862000000.0 0.14001757947180232 -1.0023017045599878
4866000000.0 0.0846887493893819 -1.0233264228638048
4869000000.0 0.09345331245073323 -1.026784326067611
4872000000.0 0.08242332404764544 -1.0452062118208787
4875000000.0 0.1440517455267335 -1.0831306992323466
4878000000.0 0.07557914050800324 -1.028205922266517
4881000000.0 0.04869520544754101 -1.0839492965774185
4884000000.0 0.08865046041247328 -1.0468881350736507
4888000000.0 0.09464295372823345 -1.0183944358900983
4891000000.0 0.08061680885841523 -1.0326823918581878
4894000000.0 0.013265127310312834 -1.0165252639466555
4897000000.0 0.048093060872824195 -1.0177009324010289
4900000000.0 0.04971642584397766 -1.0461652184641148
4903000000.0 0.052691682770085096 -1.0234467482938272
4906000000.0 -0.003553266248976894 -1.0688304268276747
4909000000.0 -0.005063747021080554 -1.0413939031922432
4912000000.0 -0.00412478079791459 -1.0584924979905932
4916000000.0 -0.013936294160285363 -1.0716390987617341
4919000000.0 -0.02549465522288856 -1.0569068374389425
4922000000.0 -0.021621085169911652 -1.0365649066123668
4925000000.0 -0.05392397535016201 -1.041141728559019
4928000000.0 0.007750588979797329 -1.013653774751428
4931000000.0 -0.041115662602802125 -1.046495257146363
4934000000.0 -0.02848629037569067 -0.9980477515198533
4938000000.0 -0.09556659046816911 -1.038035243769988
4941000000.0 -0.10418483817148681 -1.0122607003281254
4944000000.0 -0.061726285010539894 -0.9710945295175333
4947000000.0 -0.10318856726911607 -0.999438896692117
4950000000.0 -0.11018303490389593 -1.0221421188887225
4953000000.0 -0.1318301499636011 -1.0654052851895548
4956000000.0 -0.14561997996618148 -1.0461513299633933
4959000000.0 -0.17659228682584147 -0.9859239377897763
4962000000.0 -0.16306376025305133 -1.0368496911291942
4966000000.0 -0.12055865277190253 -1.0115167344478437
4969000000.0 -0.17003044513325943 -1.0511068748406862
4972000000.0 -0.1936146170029038 -1.027294475885684
4975000000.0 -0.14190347162056874 -0.9941320643726181
4978000000.0 -0.20196337436160106 -1.0353769001265056
4981000000.0 -0.20233981437527174 -1.02907483065937
4984000000.0 -0.18108276944647436 -1.045931206033993
4988000000.0 -0.17263198326054363 -1.012953897826282
4991000000.0 -0.17282241441144447 -1.0635454403537523
4994000000.0 -0.20527345157144067 -1.0168769767237236
4997000000.0 -0.27416023978080334 -0.9984861570888105
5000000000.0 -0.2358954856885433 -1.0682337968031301
5003000000.0 -0.2529604913349719 -1.0258631107986964
5006000000.0 -0.26077376311445133 -1.054264348351391
5009000000.0 -0.25104677812406884 -1.0082399351917384
5012000000.0 -0.2846299192681406 -1.0077104104987156
5016000000.0 -0.2522351586312297 -1.0473657629685533
5019000000.0 -0.3183815335844923 -0.950347661079433
5022000000.0 -0.28864169680501406 -1.010235811638855
5025000000.0 -0.31582598824833735 -1.0311334532611427
5028000000.0 -0.32745872636330786 -0.9630599669111011
5031000000.0 -0.31077847816901527 -0.9927626072032026
5034000000.0 -0.3481818961696094 -1.0179759410184621
5038000000.0 -0.36135881679356086 -0.9443752892184982
5041000000.0 -0.2940152765609052 -1.017538996438263
5044000000.0 -0.3241517669114623 -0.9536329505111255
5047000000.0 -0.33162408954040773 -0.9800751581893848
5050000000.0 -0.2811249185171665 -0.9610272546486307
5053000000.0 -0.42274001953903084 -1.0060659329810822
5056000000.0 -0.3381576717029773 -0.9954485814829936
5059000000.0 -0.34973760401031 -1.0039238507321655
5062000000.0 -0.4349139209094002 -0.9813188877862744
5066000000.0 -0.37167512327698715 -0.9533256838053541
5069000000.0 -0.3972972399799374 -0.9931991358089133
5072000000.0 -0.40022851619458377 -0.9343907239299061
5075000000.0 -0.4259076608792326 -0.970278471413256
5078000000.0 -0.4692722058133251 -0.9043961429012817
5081000000.0 -0.4288345942696323 -0.8955099470297504
5084000000.0 -0.4951266376724177 -0.976913269808042
5088000000.0 -0.42048324059005476 -0.9147957626440224
5091000000.0 -0.4854053787828115 -0.8941965236396816
5094000000.0 -0.49756853831857323 -0.8926877082109884
5097000000.0 -0.41712741813564946 -0.9497994963838157
5100000000.0 -0.4594616989922001 -0.865565571683015
5103000000.0 -0.5327561293438419 -0.8978378644055748
5106000000.0 -0.5144197345698862 -0.9601616002053319
5109000000.0 -0.4729675056856843 -0.9015007462632969
5112000000.0 -0.5157621750566733 -0.8625798513541936
5116000000.0 -0.4895824518795989 -0.8831680102042425
5119000000.0 -0.5504138708875149 -0.8889752607484853
5122000000.0 -0.5341060624191 -0.9097331167909568
5125000000.0 -0.5203981219617483 -0.8419492104428659
5128000000.0 -0.5659475085049895 -0.8849498339374524
5131000000.0 -0.5812640023895508 -0.856622654819654
5134000000.0 -0.5229986426236745 -0.853411045320558
5138000000.0 -0.5492312806315913 -0.8503425420845633
5141000000.0 -0.5357787188113379 -0.9419458405108929
5144000000.0 -0.579065554499286 -0.9198339405587839
5147000000.0 -0.584258924645241 -0.8716002903267477
5150000000.0 -0.5889587025217805 -0.8804435980207626
5153000000.0 -0.6071203681272073 -0.8302978076366461
5156000000.0 -0.5820248699408842 -0.8824133485181969
5159000000.0 -0.6288289061411311 -0.8484407528634742
5162000000.0 -0.608546892961529 -0.8287964330214547
5166000000.0 -0.6463367836190765 -0.8756399351947003
5169000000.0 -0.645801174428856 -0.8234845310107977
5172000000.0 -0.6320977313798617 -0.8117891211016459
5175000000.0 -0.6361946507527106 -0.8722734894755613
5178000000.0 -0.6662386386425265 -0.8153789826502107
5181000000.0 -0.6748980579610108 -0.8150765418109381
5184000000.0 -0.6598530109027665 -0.8136775582748191
5188000000.0 -0.677903598530112 -0.8139003117527321
