! Created with skrf 1.8.0 (http://scikit-rf.org).
# Hz S RI R 50.0 
!freq ReS11 ImS11
4000000000.0 0.616295174502695 0.8636893391814351
4003000000.0 0.6455556564865309 0.8788926005833918
4006000000.0 0.696125180554098 0.7966832980898173
4009000000.0 0.6488358970108539 0.8312589340937062
4012000000.0 0.660970845376092 0.8527352001419762
4016000000.0 0.7444409938085917 0.75914056318625
4019000000.0 0.7026219213784444 0.8033465866590737
4022000000.0 0.6305733239262807 0.8575754663184397
4025000000.0 0.7885948892713242 0.7482853883941952
4028000000.0 0.7135894791825906 0.7878601147952256
4031000000.0 0.6918966907683308 0.7341370340711462
4034000000.0 0.7325855656661892 0.7168265212861545
4038000000.0 0.7697877219993634 0.8074206873592912
4041000000.0 0.7332081714622511 0.7751019343418941
4044000000.0 0.7974110582020447 0.7713554398127994
4047000000.0 0.724913544657176 0.8073790836948505
4050000000.0 0.8077884950280283 0.7096183086510985
4053000000.0 0.7723083369422161 0.6708354726740919
4056000000.0 0.7771612158808743 0.7595561341318201
4059000000.0 0.7541210022316724 0.7326024703128247
4062000000.0 0.7847455948367195 0.6969046217975758
4066000000.0 0.717739849621275 0.6298648037922329
4069000000.0 0.8202670515871832 0.7027356171180648
4072000000.0 0.7661819934988581 0.7069991062965606
4075000000.0 0.8266793290606809 0.7293168277840998
4078000000.0 0.8269328130721557 0.6638981110478464
4081000000.0 0.7859832643078298 0.7363733611831234
4084000000.0 0.846960163490321 0.6607437737966957
4088000000.0 0.7985818976010216 0.6313119142739748
4091000000.0 0.8597222462171805 0.7204640605015786
4094000000.0 0.8345506749930506 0.6649338597799379
4097000000.0 0.8149858766070752 0.6303450485784212
4100000000.0 0.8332359026927783 0.6434503704276318
4103000000.0 0.865962371239928 0.6326212360182719
4106000000.0 0.8656816935300123 0.6210081099233277
4109000000.0 0.8903480934780879 0.589396813217784
4112000000.0 0.8747727943093346 0.6075560733530228
4116000000.0 0.8391217054036392 0.6084334321794636
4119000000.0 0.8811323696409125 0.593648685391142
4122000000.0 0.8640935265919566 0.5843030672467298
4125000000.0 0.9284258612353957 0.5996020597673533
4128000000.0 0.8749018082531789 0.5674468200066826
4131000000.0 0.8779153277459218 0.5313751528789267
4134000000.0 0.8955650421953828 0.5686717923716907
4138000000.0 0.8602307321281426 0.5053126634877281
4141000000.0 0.8669552473880746 0.5148928788861732
4144000000.0 0.8856076769281336 0.5277525490904964
4147000000.0 0.9036849476454294 0.5144528254977034
4150000000.0 0.9688696833333981 0.5215880633129972
4153000000.0 0.9364032881427171 0.5133059262104605
4156000000.0 0.9451526686256133 0.5685779250368569
4159000000.0 0.8818729714221787 0.509312144089783
4162000000.0 0.9485891213241375 0.4691683753872774
4166000000.0 0.9532949757935754 0.43887539131430475
4169000000.0 0.9480497431700332 0.44397369474091086
4172000000.0 0.9423206390584521 0.45791884314963743
4175000000.0 0.956187095445801 0.43671412117042413
4178000000.0 0.9447127509082532 0.44438385972825767
4181000000.0 0.9613294836198578 0.4429446649978571
4184000000.0 0.9438631074531829 0.4262773934796686
4188000000.0 0.9861957592364128 0.39935424917310836
4191000000.0 0.9277373939447279 0.43980943307028325
4194000000.0 0.9369108504044534 0.38856089417265205
4197000000.0 0.9782115850799187 0.39664919678997884
4200000000.0 0.9512560625217137 0.40416462793949703
4203000000.0 0.9913977042563052 0.4022200434834161
4206000000.0 0.9754317697264633 0.3625642271327926
4209000000.0 0.9337591674852184 0.35859192045123006
4212000000.0 0.9674024062123681 0.3293739325521099
4216000000.0 0.9800973042855546 0.3680220429937668
4219000000.0 0.9889101330624704 0.3465965731197598
4222000000.0 0.9811195701839985 0.3417399477064748
4225000000.0 0.9633741204103214 0.3275704218047625
4228000000.0 0.9781457682319565 0.30592908880444214
4231000000.0 0.9860154117257272 0.30321726190575665
4234000000.0 1.0058040956617318 0.30845574422144745
4238000000.0 1.0012301510618027 0.28616939819158327
4241000000.0 0.9986727498478791 0.27085572312068085
4244000000.0 0.9874143229983665 0.2861557369149318
4247000000.0 0.9857751923581736 0.25395190308076004
4250000000.0 0.9847271882946784 0.24057269352385913
4253000000.0 0.985645721788982 0.23790882331259489
4256000000.0 1.0153317802782829 0.25630616135920015
4259000000.0 0.9651196147649642 0.21948623958164618
4262000000.0 0.9931974837148756 0.2096359900838827
4266000000.0 1.0095732155144348 0.19954121380206719
4269000000.0 1.016764255408039 0.22520085239170215
4272000000.0 1.0075239939339315 0.20484994168691006
4275000000.0 1.0284801877751983 0.19767055170813724
4278000000.0 1.0372587294604654 0.21118246771678328
4281000000.0 1.0121296000215692 0.18912631923385448
4284000000.0 1.0419747217799487 0.1125835333637076
4288000000.0 1.0070870709448831 0.19265223418312757
4291000000.0 0.9977528722862394 0.14128654024670978
4294000000.0 0.9905204991519193 0.12605840041208805
4297000000.0 1.0055434367422618 0.14250041048593776
4300000000.0 0.9826350785313089 0.10235237910271144
4303000000.0 1.0342221988263516 0.10429909102610833
4306000000.0 1.0148449154339776 0.12046340452311402
4309000000.0 1.013779289348096 0.10536775382207443
4312000000.0 1.044148883161514 0.12241528020570905
4316000000.0 1.0214351664051269 0.12065331032690595
4319000000.0 1.020015230546238 0.09140312600098012
4322000000.0 1.0100064058661737 0.04257372978369027
4325000000.0 1.0432569824289901 0.06848978677075025
4328000000.0 1.0280301895796025 0.04957140445588805
4331000000.0 1.0344379358118676 0.015465244878550444
4334000000.0 1.0297202763074993 0.018042247385398835
4338000000.0 1.035781471224127 0.046316276217562694
4341000000.0 1.0491631814776667 0.03875585103493284
4344000000.0 1.049520929262042 -0.017963193177993886
4347000000.0 1.0559654229131932 -0.012708628835904234
4350000000.0 0.986244043344946 -0.02701846359158555
4353000000.0 0.9870691519628303 -0.012510448385716716
4356000000.0 1.0258370459695847 -0.05053606940248068
4359000000.0 0.9930570486900996 -0.038069576341478284
4362000000.0 1.0315001957979326 -0.09637339526803951
4366000000.0 1.047854477838072 -0.06426459186770192
4369000000.0 0.9928294442846507 -0.07900713111496892
4372000000.0 1.0052444532995184 -0.11276816390323356
4375000000.0 1.0153146717052417 -0.06619217907693045
4378000000.0 1.0078204055283349 -0.08647570073383323
4381000000.0 1.017643331221767 -0.08581627080757682
4384000000.0 1.0746745948811343 -0.12796099443644807
4388000000.0 0.9894869292586443 -0.09951698138061534
4391000000.0 1.0102536306958707 -0.11628171996614008
4394000000.0 0.9831246047325144 -0.14067276557849048
4397000000.0 0.9974065715027418 -0.1542421023122581
4400000000.0 1.0378059835519087 -0.1572440134223964
4403000000.0 1.0225172152317161 -0.17064631191684346
4406000000.0 1.0118253434305422 -0.19558259162832148
4409000000.0 1.0374866342701543 -0.18351962967283875
4412000000.0 0.9887039803482374 -0.2513006163501083
4416000000.0 0.9610768901356208 -0.21499744064674894
4419000000.0 0.9852264763724391 -0.24265033061920385
4422000000.0 0.9866017361432715 -0.19605593505330754
4425000000.0 1.0074818969137191 -0.20615345740541863
4428000000.0 0.9842302602057986 -0.24233064388386494
4431000000.0 1.0058989809441847 -0.24113865468776494
4434000000.0 0.9797050369978556 -0.2637765143278644
4438000000.0 1.0067353559857983 -0.27969612971957997
4441000000.0 1.001589664329026 -0.2591786629188478
4444000000.0 0.966752872007375 -0.2678042359015295
4447000000.0 0.943031599028768 -0.299501534287794
4450000000.0 0.9685486862782204 -0.2846922395143377
4453000000.0 0.9916327940999315 -0.3204375459315102
4456000000.0 0.9451881714994019 -0.31695459101418305
4459000000.0 0.9199062602421524 -0.31145732614777255
4462000000.0 1.0198175016818383 -0.35406267525485097
4466000000.0 0.9928531426946204 -0.36632317227641303
4469000000.0 0.965883805295922 -0.3180966785515601
4472000000.0 0.9803156464074041 -0.38450146614380687
4475000000.0 0.9304160304620855 -0.34277851138555765
4478000000.0 0.9807587238199309 -0.3997277069441326
4481000000.0 0.9108706907742321 -0.38471688307803054
4484000000.0 0.902348084998341 -0.4398668839986488
4488000000.0 0.927555724023407 -0.38931186159356945
4491000000.0 0.9243888542561961 -0.4075635310144931
4494000000.0 0.9185141845624681 -0.40843871918504165
4497000000.0 0.9278453395532262 -0.40832159592352624
4500000000.0 0.9150712480071228 -0.414622385922493
4503000000.0 0.944111467550274 -0.4351912283158169
4506000000.0 0.8932889977405203 -0.43788586289581816
4509000000.0 0.9042606132020008 -0.4439172205127385
4512000000.0 0.8985347929545462 -0.4496386397067177
4516000000.0 0.9217480360228292 -0.4847534535686633
4519000000.0 0.8841417773631374 -0.4313750150943506
4522000000.0 0.8860173938833316 -0.4861215274607636
4525000000.0 0.8870553908885759 -0.4586204820586673
4528000000.0 0.9083164975673605 -0.5090253653289321
4531000000.0 0.9042641446648271 -0.5025762444392892
4534000000.0 0.8669055158817933 -0.515092949717138
4538000000.0 0.8620892491857328 -0.529345990859224
4541000000.0 0.8511534013262173 -0.5582099207849109
4544000000.0 0.8529324894217576 -0.5326917708081162
4547000000.0 0.8655113428658259 -0.536872452086598
4550000000.0 0.8498396221640847 -0.567150211037636
4553000000.0 0.854611667222595 -0.5742628088919488
4556000000.0 0.8308739230098712 -0.5615495465827153
4559000000.0 0.8319490073249699 -0.5909439164776691
4562000000.0 0.8509297894388059 -0.5781731019224925
4566000000.0 0.8438675129261675 -0.5970471648989175
4569000000.0 0.7914622654420026 -0.5855756592228087
4572000000.0 0.8216513048081211 -0.6097097526245898
4575000000.0 0.814053095198459 -0.6384149263132382
4578000000.0 0.8267813172735867 -0.6240933300042742
4581000000.0 0.7998994984628974 -0.639609620012249
4584000000.0 0.780627327710978 -0.629454890677915
4588000000.0 0.8156470736423154 -0.6500600618723487
4591000000.0 0.8151915892268988 -0.6407080964245114
4594000000.0 0.7627505161427353 -0.6826766641710935
4597000000.0 0.7872793397654774 -0.6874996511239702
4600000000.0 0.7504072029136729 -0.6760607276483136
4603000000.0 0.7547795472091693 -0.6769244455985258
4606000000.0 0.765046281354597 -0.6754939875435232
4609000000.0 0.7502486878586762 -0.6960562537213927
4612000000.0 0.7780202793762515 -0.7029374248088378
4616000000.0 0.7392538668656263 -0.6902306143033528
4619000000.0 0.7356346947765018 -0.710910558357535
4622000000.0 0.7161235670477315 -0.6987648978352272
4625000000.0 0.6671179274739188 -0.7104051816651441
4628000000.0 0.7139438074872394 -0.7247245541096614
4631000000.0 0.6875563934721811 -0.7536318627390888
4634000000.0 0.6787889528323398 -0.7429362514907831
4638000000.0 0.6878050482973953 -0.7580776077665401
4641000000.0 0.6904621027406734 -0.7615874234353586
4644000000.0 0.6783219009781225 -0.7463968127194429
4647000000.0 0.7000348613883061 -0.773941234473465
4650000000.0 0.6419556363888405 -0.7777038525009418
4653000000.0 0.6704515931020271 -0.7697716073248229
4656000000.0 0.6409691174447172 -0.7967611188563932
4659000000.0 0.6172330226510041 -0.8107811133892903
4662000000.0 0.6271840557231096 -0.8204786609786682
4666000000.0 0.6319839914047316 -0.8043264213335737
4669000000.0 0.6366974184436505 -0.786337010886217
4672000000.0 0.6024578155096456 -0.8404826090952956
4675000000.0 0.5882180235604326 -0.826556117261871
4678000000.0 0.5997100742550973 -0.8108156768246576
4681000000.0 0.5812797852566141 -0.8453359382075626
4684000000.0 0.5702729159828682 -0.8505035882490631
4688000000.0 0.5603988328643073 -0.8266289321264128
4691000000.0 0.6046603133402692 -0.8526370532960093
4694000000.0 0.5701409821359884 -0.8385885078426958
4697000000.0 0.5307590812302969 -0.8178943947174586
4700000000.0 0.5629902500068742 -0.8502407278087192
4703000000.0 0.5481430346212488 -0.8342900267442757
4706000000.0 0.536728879034702 -0.9060138301917952
4709000000.0 0.5024250592900181 -0.8759291271602485
4712000000.0 0.5357672529577387 -0.8818844864902192
4716000000.0 0.5235309562234124 -0.8952175460390643
4719000000.0 0.5518632350126176 -0.8891319567049238
4722000000.0 0.5195585681533066 -0.8918009557147455
4725000000.0 0.4886105721272964 -0.9087592557509703
4728000000.0 0.4831973468400695 -0.9003464937747554
4731000000.0 0.4965198551559141 -0.9388231203978885
4734000000.0 0.4551300473916723 -0.8873008863245374
4738000000.0 0.5209795633818174 -0.9422973234161118
4741000000.0 0.479188906915862 -0.9458743752256779
4744000000.0 0.45171558164679415 -0.9575942450629147
4747000000.0 0.43807184415446204 -0.9248126241197747
4750000000.0 0.42023377755779173 -0.9347878723801073
4753000000.0 0.45583775505949453 -0.940272821307615
4756000000.0 0.398200278308295 -0.9120752979817202
4759000000.0 0.4282732014782473 -0.9311956941657487
4762000000.0 0.38001581453331096 -0.9738270091280911
4766000000.0 0.3777870375383295 -0.9450348585118913
4769000000.0 0.3662283850851433 -0.9605905987599853
4772000000.0 0.374453984462634 -0.961678054313129
4775000000.0 0.3639346022401859 -1.0462888767771774
4778000000.0 0.3447713079756834 -0.9730819097882889
4781000000.0 0.3820223450318302 -0.9674313561771009
4784000000.0 0.35039368228800494 -0.9817924327692892
4788000000.0 0.3478633439228653 -0.997015072616835
4791000000.0 0.3102795916849128 -0.9802728567306321
4794000000.0 0.35496740303968677 -0.9913196308006005
4797000000.0 0.30624151249119186 -0.9919016659509668
4800000000.0 0.2736018807156969 -0.9691198591960866
4803000000.0 0.260234497514394 -0.9930789252606376
4806000000.0 0.29903811145125087 -1.0078962804632736
4809000000.0 0.22925889867573995 -1.0153320986476573
4812000000.0 0.22777756322497034 -0.9856858640236059
4816000000.0 0.26710378592426226 -1.0032257038547485
4819000000.0 0.2772624839088021 -1.0025110980524843
4822000000.0 0.2529749008818492 -1.0338735499587468
4825000000.0 0.2703255032788676 -1.0313968552797874
4828000000.0 0.2256028469476606 -0.9957451307376833
4831000000.0 0.18684313874710212 -1.0492199843611991
4834000000.0 0.21260672401229425 -1.0072634632515338
4838000000.0 0.19468458722932153 -1.0329049001085044
4841000000.0 0.16791318644928227 -1.0143312345935338
4844000000.0 0.21808800054785898 -1.023330632111937
4847000000.0 0.2045506807334991 -0.9866387356587687
4850000000.0 0.15082097312424228 -1.0524275360774102
4853000000.0 0.17291993632081337 -1.0141704052318405
4856000000.0 0.13021031504399955 -1.0086005588660718
4859000000.0 0.1264523022384529 -1.078090561667973
4862000000.0 0.14963274062576554 -0.995280762529866
4866000000.0 0.10526855002814137 -1.0319757569678347
4869000000.0 0.08971876199409791 -1.0448855846069318
4872000000.0 0.1086630802254598 -1.0730198308766195
4875000000.0 0.18475798125969278 -1.0709312951019114
4878000000.0 0.08965798255364034 -1.026928807914982
4881000000.0 0.06249451196395577 -1.093640967453443
4884000000.0 0.09783043857811578 -1.0278043777747752
4888000000.0 0.11518931401167745 -1.0250397580478434
4891000000.0 0.06598523819825006 -1.0376224744469815
4894000000.0 0.02136697205643928 -1.0276606786047517
4897000000.0 0.07407186978920767 -1.0676459801942342
4900000000.0 0.026445066488615138 -1.0608756491918983
4903000000.0 0.027835596627914 -1.0933354767085377
4906000000.0 0.017210365755710742 -1.0679653661183264
4909000000.0 0.005612574639096934 -1.0460221889836785
4912000000.0 -0.0068495442416055125 -1.0869986083465157
4916000000.0 0.0023665619573581542 -1.08272393065591
4919000000.0 0.025215017214085082 -1.0392220028027204
4922000000.0 0.01430066374634461 -1.0443416748382655
4925000000.0 -0.07306356210082557 -1.0556715512631016
4928000000.0 0.019446815783645224 -1.0528272625159767
4931000000.0 -0.025566341915415805 -1.0607057360021057
4934000000.0 -0.04319642189631456 -0.9958631377225223
4938000000.0 -0.08234818981444346 -1.0264629662857452
4941000000.0 -0.07321013782211595 -1.030115904588016
4944000000.0 -0.05154128051635379 -0.976800924546269
4947000000.0 -0.0834900440514203 -1.02677795150089
4950000000.0 -0.0926944950815259 -1.0097244508697079
4953000000.0 -0.1391298930524837 -1.1150281529773332
4956000000.0 -0.14979491187718702 -1.0305086853518632
4959000000.0 -0.1654866876909238 -1.007109780386983
4962000000.0 -0.14385485017780344 -1.0640333021236008
4966000000.0 -0.1492213252107169 -1.0368062512144935
4969000000.0 -0.11668504325364726 -1.0749631788650087
4972000000.0 -0.17849948786256173 -1.0344192741580678
4975000000.0 -0.13740647868296404 -1.0428493722580043
4978000000.0 -0.16849187691037554 -1.0281700570130654
4981000000.0 -0.2131697507193457 -1.0296248322557973
4984000000.0 -0.17297535166914244 -1.0108483876737029
4988000000.0 -0.17816358108427938 -1.018358859137485
4991000000.0 -0.15475836835146006 -1.0658679867648084
4994000000.0 -0.21730170029811885 -1.047657906840372
4997000000.0 -0.268829998098031 -1.0340746596644745
5000000000.0 -0.2159112838849932 -1.049403445199814
5003000000.0 -0.22011381355098658 -1.0672046953410266
5006000000.0 -0.2332721533489526 -1.0903790489628835
5009000000.0 -0.22753786227036768 -1.020188070393794
5012000000.0 -0.29411195604377466 -1.0113027735764828
5016000000.0 -0.2703421224214407 -1.0559898828028997
5019000000.0 -0.2768862453771617 -0.9916312970397387
5022000000.0 -0.3103939946055352 -1.014019588862756
5025000000.0 -0.321029884282172 -1.036662155788735
5028000000.0 -0.32194697332000843 -1.0066959025217974
5031000000.0 -0.3431772213665166 -1.0085828590798915
5034000000.0 -0.36701292248709383 -1.0312524580562434
5038000000.0 -0.3264214587937613 -0.9722672483229842
5041000000.0 -0.3121178165452848 -1.0052264848794157
5044000000.0 -0.3156359154818962 -0.9961321751272637
5047000000.0 -0.34751538505543417 -0.9984470792702816
5050000000.0 -0.2825385995030555 -1.037054672538559
5053000000.0 -0.40346174766604437 -1.0468889961868664
5056000000.0 -0.3355905542264557 -0.9967757353975271
5059000000.0 -0.34898061058399327 -1.021808327281013
5062000000.0 -0.4309794505259884 -1.013382073830679
5066000000.0 -0.35774084216865054 -0.9861400079126708
5069000000.0 -0.4232228990568957 -0.9992833508660474
5072000000.0 -0.3956064704043165 -0.9480986150812043
5075000000.0 -0.3918689771562681 -0.9821904086741027
5078000000.0 -0.4596947160809198 -0.9425969039109423
5081000000.0 -0.421649834756381 -0.9253578650517159
5084000000.0 -0.39857249770574077 -0.9802667652653523
5088000000.0 -0.4290578320510735 -0.9356126138977257
5091000000.0 -0.46703246361938927 -0.9539293888638052
5094000000.0 -0.48242049534959536 -0.9912375739386491
5097000000.0 -0.4267038370629862 -0.9465881128287617
5100000000.0 -0.46025557324800165 -0.8910669118819013
5103000000.0 -0.545299920750541 -0.8949763052770595
5106000000.0 -0.4784470765579793 -0.9939115832147007
5109000000.0 -0.48267115698018476 -0.989246164157789
5112000000.0 -0.5038186559531433 -0.9315073317062827
5116000000.0 -0.5466795545563715 -0.8923883897864597
5119000000.0 -0.5509996183109822 -0.973389092119544
5122000000.0 -0.5412600482760532 -0.9152583667902232
5125000000.0 -0.4911945659967638 -0.9172781721107651
5128000000.0 -0.5557880599551418 -0.8994722332383898
5131000000.0 -0.49379492434564437 -0.8887347119033572
5134000000.0 -0.5334954388632124 -0.9078686073690645
5138000000.0 -0.5379492901210299 -0.9011376444460247
5141000000.0 -0.5113043624559694 -0.9505732726890774
5144000000.0 -0.5266953232912265 -0.8971649184541799
5147000000.0 -0.6195934811854451 -0.8842618417586461
5150000000.0 -0.5650380342297605 -0.9172644906589552
5153000000.0 -0.6104607994175302 -0.8637893816937018
5156000000.0 -0.5995726256192451 -0.8873683240412511
5159000000.0 -0.6089826252914363 -0.8955958964534231
5162000000.0 -0.5858521607766899 -0.8368342245423643
5166000000.0 -0.6215927327080741 -0.8357077745163792
5169000000.0 -0.6458950555055195 -0.8560935045411786
5172000000.0 -0.6264635931019059 -0.859312995701811
5175000000.0 -0.6462677682850311 -0.8816439906278066
5178000000.0 -0.6600394157972664 -0.8104880881681799
5181000000.0 -0.6493588609710603 -0.8841803532247244
5184000000.0 -0.6514878209101352 -0.8454247677375032
5188000000.0 -0.6436824557241438 -0.7881744563242431
