! Created with skrf 1.8.0 (http://scikit-rf.org).
# Hz S RI R 50.0 
!freq ReS11 ImS11
4000000000.0 0.5960017988426238 0.8077169821060781
4003000000.0 0.6741950818824514 0.8836493766582346
4006000000.0 0.6774579715469422 0.749345862827195
4009000000.0 0.6453403230249235 0.7735544698437459
4012000000.0 0.6653944853761583 0.8586286620165334
4016000000.0 0.7187828868196497 0.8475707413384606
4019000000.0 0.653719724732194 0.7650990444685412
4022000000.0 0.6513792215012899 0.7980433104418874
4025000000.0 0.7722078653458995 0.735902715042116
4028000000.0 0.7095132426722586 0.7070645042426147
4031000000.0 0.6861580004020992 0.6892959393819117
4034000000.0 0.7313526554986568 0.7217327653085364
4038000000.0 0.7413541272597385 0.7483973367820277
4041000000.0 0.7273767161274257 0.6963403109225768
4044000000.0 0.7425849381975258 0.7743849266555198
4047000000.0 0.7132039067299148 0.7699025032245728
4050000000.0 0.8008032306052852 0.6965191044758772
4053000000.0 0.7744177407189516 0.6690397005796893
4056000000.0 0.794189836190716 0.7015836049402847
4059000000.0 0.7003575939628806 0.6739623076314518
4062000000.0 0.7693911485412882 0.6267106867659957
4066000000.0 0.7200482674896622 0.6370246340539403
4069000000.0 0.8345684692279112 0.6395987586654246
4072000000.0 0.7615968179742367 0.7146018155114973
4075000000.0 0.7921098736686092 0.7154030935791771
4078000000.0 0.832038808217826 0.6261802240496773
4081000000.0 0.769323072055865 0.7436057488554173
4084000000.0 0.8531052757583426 0.6184186354418753
4088000000.0 0.7773569846968276 0.6554059227442599
4091000000.0 0.8033666284682214 0.6718571103177131
4094000000.0 0.8285849093182462 0.6085371062423165
4097000000.0 0.8272010709403754 0.5889887291797433
4100000000.0 0.828782802740013 0.6073184197431738
4103000000.0 0.8521507066131151 0.6301803844528027
4106000000.0 0.8313524019821004 0.5862798354239852
4109000000.0 0.876940706009921 0.5565720176794344
4112000000.0 0.824007025034508 0.5613351971757203
4116000000.0 0.8335159310702757 0.5917905392011616
4119000000.0 0.8517924752151882 0.5597211799251589
4122000000.0 0.8855237467647554 0.5197938591923014
4125000000.0 0.8660906206685508 0.5660217872088305
4128000000.0 0.824516671292541 0.5486133276150359
4131000000.0 0.8843200703804756 0.5062055927714619
4134000000.0 0.836215740716791 0.5216064095943467
4138000000.0 0.8580562373526406 0.5055520873657822
4141000000.0 0.8648276518420129 0.48255367578234054
4144000000.0 0.9018270012479636 0.51112553747875
4147000000.0 0.8782396802227421 0.48522554124151734
4150000000.0 0.9127492955516238 0.5047631874366212
4153000000.0 0.8879554291003204 0.5039772978799899
4156000000.0 0.930991132919087 0.49364244345935615
4159000000.0 0.8848543395002457 0.4616449951653188
4162000000.0 0.9157680118812246 0.46596124169729614
4166000000.0 0.9140624352867182 0.4506918209332573
4169000000.0 0.9130971087205296 0.4219693632136009
4172000000.0 0.9324266471041942 0.4522254288132564
4175000000.0 0.9267783225410071 0.41772383166326327
4178000000.0 0.9532711045058354 0.45615646057636206
4181000000.0 0.9347911673324683 0.3930161858546074
4184000000.0 0.921360855111695 0.396413836675739
4188000000.0 0.9436962601620247 0.39579600035069995
4191000000.0 0.9447097751327952 0.4205147308429988
4194000000.0 0.9176836478406021 0.3665246579735397
4197000000.0 0.9729830042866497 0.38269381071225944
4200000000.0 0.9453366844821189 0.3724657175395295
4203000000.0 0.963765972915607 0.361973842745658
4206000000.0 0.9839330859111379 0.3537309253653452
4209000000.0 0.947700836626693 0.35068725491945246
4212000000.0 0.9800414333008867 0.31429179945799157
4216000000.0 0.9605975651627653 0.34222977629847035
4219000000.0 0.967429030718683 0.3487548032606891
4222000000.0 0.9927500498017985 0.3002189713577627
4225000000.0 0.9794717368206509 0.31238914273420504
4228000000.0 0.9928070755815221 0.2932824113799537
4231000000.0 0.9992076794412239 0.2931003766651197
4234000000.0 0.9958354053872307 0.287500788247689
4238000000.0 0.9833287443154278 0.2637842278856436
4241000000.0 0.9854476186600909 0.24416001610873522
4244000000.0 0.9706995676653059 0.25075030144910615
4247000000.0 0.9839854417175576 0.25319007957710804
4250000000.0 0.9599455881963301 0.23847805198937078
4253000000.0 0.9747555297855461 0.22561012710385886
4256000000.0 1.0353632189320325 0.2192024429675834
4259000000.0 0.9698778522284761 0.18962429818695878
4262000000.0 0.9807242870624582 0.1827228546625622
4266000000.0 1.0230529793629328 0.1852016823456773
4269000000.0 0.9893370912498181 0.2020252441302118
4272000000.0 1.002128587978183 0.16858913910972256
4275000000.0 0.9938219205921897 0.17659496544831055
4278000000.0 1.0238627710942128 0.15008168073492267
4281000000.0 1.0075540881554848 0.18946725557327576
4284000000.0 1.0384537450654077 0.13493885474303116
4288000000.0 0.9816787839967596 0.16414944616290067
4291000000.0 0.9675623693707467 0.13548441600903155
4294000000.0 1.0045764386676612 0.12419912020785885
4297000000.0 0.9921370643883769 0.14209087883943305
4300000000.0 0.9893297180921286 0.10314858475463817
4303000000.0 1.0023413716474752 0.06062070978077304
4306000000.0 0.9844918884549252 0.09266245742331217
4309000000.0 0.995807645503787 0.10049857238764197
4312000000.0 1.0068903747271871 0.10952794747944275
4316000000.0 1.035137051530484 0.08403817663209782
4319000000.0 0.9799203528355259 0.051371049470911576
4322000000.0 0.9939661247112141 0.0365280239998582
4325000000.0 0.9979090503402376 0.06285113117848766
4328000000.0 0.9959869831912739 0.036652729431548445
4331000000.0 0.998241436496961 0.01236699044189768
4334000000.0 1.0079562058350535 -0.0006562582631474967
4338000000.0 0.9845721838420395 0.02919259388962904
4341000000.0 1.0202480319400227 0.04266707262360697
4344000000.0 0.9997277847006019 0.00469783176499336
4347000000.0 1.0364636129366809 -0.039123976865150595
4350000000.0 0.97371395962169 -0.026158258890746106
4353000000.0 0.9818495681501094 -0.024998501002989476
4356000000.0 1.0014693329791275 -0.06475490634128167
4359000000.0 0.9516077405629906 -0.047807853281038315
4362000000.0 1.0171771142033497 -0.1273695062411121
4366000000.0 1.0140141175220916 -0.09003906522695586
4369000000.0 0.9817854138770306 -0.089245041143703
4372000000.0 0.9949054203084942 -0.1334282620861117
4375000000.0 1.002694500396709 -0.09472846280146728
4378000000.0 0.9684854856512674 -0.11822832514487892
4381000000.0 0.9878557367837029 -0.09862308634041304
4384000000.0 1.0571643265215618 -0.1669625790520443
4388000000.0 0.9854663756395537 -0.12283579358615582
4391000000.0 1.0076717139234046 -0.1387928363543453
4394000000.0 0.9675448257788332 -0.162205142927494
4397000000.0 0.9879041461594065 -0.1679142305168811
4400000000.0 1.0165765142979397 -0.18086414569164644
4403000000.0 1.0055115405510662 -0.20228187360436378
4406000000.0 0.9942126045293463 -0.210170858274878
4409000000.0 1.0180358409642905 -0.22537283448859352
4412000000.0 0.9690123649484161 -0.2636909093994283
4416000000.0 0.9606050224185221 -0.21783138195107335
4419000000.0 0.977744815923995 -0.24101787135316363
4422000000.0 0.9769261116268249 -0.21203964551166757
4425000000.0 0.9896964241804372 -0.20764201284922457
4428000000.0 0.9696157503762389 -0.2613487687155189
4431000000.0 0.9983674568716261 -0.2601532565956325
4434000000.0 0.9695145843413043 -0.2666154358074256
4438000000.0 0.9902962717084243 -0.2839508269575438
4441000000.0 1.0039779434077034 -0.2917557691741206
4444000000.0 0.9505898631429237 -0.2772116155076832
4447000000.0 0.9524225515313581 -0.309953669724485
4450000000.0 0.9512683100405903 -0.2934747716907303
4453000000.0 0.9842714104095888 -0.3342662532313823
4456000000.0 0.9220820643405546 -0.33855830402439024
4459000000.0 0.9087298822013683 -0.34638551662831574
4462000000.0 1.0119146832465205 -0.36454667252347506
4466000000.0 0.9872800448504362 -0.3796044839652643
4469000000.0 0.9544484988481547 -0.3473066360995396
4472000000.0 0.9478819360121554 -0.40030093620149976
4475000000.0 0.9111585559476718 -0.36838470810132373
4478000000.0 0.9742419368328611 -0.42267213740167275
4481000000.0 0.8987084246394085 -0.3910241580119808
4484000000.0 0.9067586939567243 -0.4327973230001977
4488000000.0 0.8981214048674352 -0.4245019492002968
4491000000.0 0.9156189829167319 -0.4335984988196416
4494000000.0 0.8919969363144494 -0.42051549613949424
4497000000.0 0.8940283784811449 -0.4189310884326458
4500000000.0 0.9192096874997144 -0.4500418052140137
4503000000.0 0.9118209795237342 -0.46619355629662707
4506000000.0 0.8795671587114566 -0.46587818383641477
4509000000.0 0.8806656077552586 -0.457614677837064
4512000000.0 0.8605164356597123 -0.46417240715235175
4516000000.0 0.9193830811308107 -0.4865812083602508
4519000000.0 0.862204977683388 -0.4716935037424317
4522000000.0 0.8741921241902728 -0.4952296013777465
4525000000.0 0.8787855867242891 -0.4766710481122636
4528000000.0 0.8926272381696143 -0.5106260121316722
4531000000.0 0.8814547513086404 -0.4914645454356894
4534000000.0 0.8373344738573091 -0.5350154718918546
4538000000.0 0.8471970557888424 -0.532152956434427
4541000000.0 0.824354345837439 -0.5577221588260833
4544000000.0 0.8350418828620567 -0.5547595701512682
4547000000.0 0.824181177210399 -0.5330937308013246
4550000000.0 0.8227035708221224 -0.5875372125510907
4553000000.0 0.8338433172874735 -0.5856103461422006
4556000000.0 0.8048681592721032 -0.5895673455005354
4559000000.0 0.7912988849008802 -0.6033503149212076
4562000000.0 0.8141599692877013 -0.5816424463832737
4566000000.0 0.7955181872279369 -0.606783691127722
4569000000.0 0.7912065547211216 -0.6184529958484843
4572000000.0 0.8037900290646234 -0.6088442405465954
4575000000.0 0.7802141766764119 -0.6465019693272935
4578000000.0 0.7990635729627613 -0.6368558762975745
4581000000.0 0.7609470084063938 -0.6466374188663843
4584000000.0 0.770152638498549 -0.6576662000078987
4588000000.0 0.7729822841471459 -0.6521232526364839
4591000000.0 0.7589497987284113 -0.6418886440705526
4594000000.0 0.7597118037663243 -0.6821549142777951
4597000000.0 0.751104887397751 -0.6902688895960594
4600000000.0 0.7191129256750921 -0.6976828932221214
4603000000.0 0.7346879899160625 -0.7057040854108773
4606000000.0 0.7136478994090178 -0.688442778887049
4609000000.0 0.7410528357121345 -0.7039401963425748
4612000000.0 0.7109559703895513 -0.714961079054001
4616000000.0 0.6916253321596619 -0.7122921647064082
4619000000.0 0.7139487678024127 -0.7196243889680086
4622000000.0 0.7093888303146209 -0.7374360168139528
4625000000.0 0.6506597767870336 -0.7242799491266122
4628000000.0 0.6797357583720304 -0.7238609286955318
4631000000.0 0.6633939032884177 -0.7483641358349101
4634000000.0 0.6725971752336575 -0.7496237416399717
4638000000.0 0.6697432970844281 -0.7613168030576186
4641000000.0 0.6626315878431944 -0.7676920209951129
4644000000.0 0.6392778958979034 -0.743152650905219
4647000000.0 0.6589168369384919 -0.7689775060335378
4650000000.0 0.5994849045227928 -0.7868700007035354
4653000000.0 0.6526069330202486 -0.7898870869320771
4656000000.0 0.6274703748843691 -0.7922751517471649
4659000000.0 0.6113609813366868 -0.7813759241829473
4662000000.0 0.6063891412960681 -0.7944867282956761
4666000000.0 0.5782033319286107 -0.8010241136124666
4669000000.0 0.6104225374541639 -0.8063466108269873
4672000000.0 0.5782346066029111 -0.850646354599952
4675000000.0 0.5629487739822433 -0.8287661796499386
4678000000.0 0.5620576559234058 -0.8283221312406648
4681000000.0 0.5545808088850384 -0.853202264281627
4684000000.0 0.5359957351666434 -0.8499673745908568
4688000000.0 0.5397978397907672 -0.8302554697882149
4691000000.0 0.5457026647633516 -0.8366236777103366
4694000000.0 0.5435826280637738 -0.839395780819024
4697000000.0 0.4942274872054671 -0.8199777242059294
4700000000.0 0.5239411706157325 -0.8469555267453743
4703000000.0 0.544073206047843 -0.798969178909414
4706000000.0 0.5059737918706465 -0.8738086875212983
4709000000.0 0.4890948105830752 -0.8665661551614602
4712000000.0 0.49490326814376256 -0.8844233757306397
4716000000.0 0.48209765131650806 -0.9307163899239399
4719000000.0 0.5214503342619561 -0.8922614119296389
4722000000.0 0.4909687668855083 -0.8861475544131916
4725000000.0 0.4510089387450267 -0.8861021949900573
4728000000.0 0.45299815191944537 -0.9102979564994966
4731000000.0 0.4651258384931831 -0.9338771482111474
4734000000.0 0.4430179916622615 -0.8901027558779696
4738000000.0 0.4645307144267354 -0.932457277318045
4741000000.0 0.45344415466777355 -0.9475456525676621
4744000000.0 0.41368822680487594 -0.934253232299986
4747000000.0 0.41023077855915946 -0.890989805712299
4750000000.0 0.41318374005846636 -0.9572206590719589
4753000000.0 0.4114848587933052 -0.9489510955505651
4756000000.0 0.39488900470823063 -0.9418473810222967
4759000000.0 0.3900246882078844 -0.9561466642771619
4762000000.0 0.3522707733387903 -0.9699786746134237
4766000000.0 0.3629756182579178 -0.9659302107937915
4769000000.0 0.36227425027186555 -0.975753865284991
4772000000.0 0.3670067993581192 -0.9396564753729078
4775000000.0 0.32576240635786047 -0.9975855018192954
4778000000.0 0.3249782159786994 -0.980134608276875
4781000000.0 0.31176530076162234 -0.9439385149576214
4784000000.0 0.3341565314735751 -0.9539191689728966
4788000000.0 0.28729186142585944 -0.9735138033219062
4791000000.0 0.3097651518319789 -0.9435365728183972
4794000000.0 0.30717918892023377 -0.9955763025945246
4797000000.0 0.27985438391087 -0.9597163926260536
4800000000.0 0.26074527390411506 -0.9599718738156582
4803000000.0 0.2122928039140978 -0.9822172469269459
4806000000.0 0.24341607688551112 -1.0084503966619958
4809000000.0 0.19698970296161625 -0.988770136372105
4812000000.0 0.21854482551923057 -0.9986790879894014
4816000000.0 0.2618841276466326 -0.9790161796083108
4819000000.0 0.2513290166491895 -1.0287023008257583
4822000000.0 0.24737732717108532 -1.0081284217543094
4825000000.0 0.23422794444661252 -1.0265408945249281
4828000000.0 0.1852250937858843 -0.9921790110703205
4831000000.0 0.16906510531150865 -1.0401605431377237
4834000000.0 0.20477708555371837 -1.0160447210903125
4838000000.0 0.17054672847038083 -1.0216838503975714
4841000000.0 0.14784610571901977 -1.004569840876778
4844000000.0 0.17729910551864542 -1.0309243555606569
4847000000.0 0.17075258684396127 -0.9666876224696046
4850000000.0 0.13546156671498366 -1.0259160668932805
4853000000.0 0.11907492746486176 -1.0011053391280917
4856000000.0 0.11507393266069421 -1.004335667149802
4859000000.0 0.11150417250919917 -1.0592316616337274
4862000000.0 0.12011859257877297 -0.9852182656470679
4866000000.0 0.08358471656129762 -1.0321869500296765
4869000000.0 0.07435486928973607 -1.0126354064952747
4872000000.0 0.06786548448244054 -1.0462916831595255
4875000000.0 0.12004670569672778 -1.072469757552089
4878000000.0 0.05019498856432449 -1.040954915065749
4881000000.0 0.02731722623011832 -1.070222672526329
4884000000.0 0.04032194731339381 -1.0209202256040415
4888000000.0 0.06723868613529338 -1.0256740922212622
4891000000.0 0.04991010470834163 -1.0517866747718552
4894000000.0 -0.0016753183203512666 -1.025207257275278
4897000000.0 0.05696535234437142 -1.0077562733941468
4900000000.0 0.013424715163404714 -1.0460882789402544
4903000000.0 0.03095012543852465 -1.019738209651459
4906000000.0 -0.017178240207990594 -1.0369672029368409
4909000000.0 -0.020488578681503847 -1.0199186290649804
4912000000.0 -0.044496432954474946 -1.0712998861911758
4916000000.0 0.0018505699914316692 -1.0520983990377328
4919000000.0 -0.009464572670526028 -1.0514598508298945
4922000000.0 -0.029616524633424804 -1.0267404440884942
4925000000.0 -0.07949063246465603 -1.0090684191616353
4928000000.0 -0.0014394031011548264 -1.0142535697597888
4931000000.0 -0.024702286764068437 -1.0507993528136421
4934000000.0 -0.08347468778530341 -0.990486470815583
4938000000.0 -0.09808845657560335 -1.014697457757214
4941000000.0 -0.09346853325977829 -0.9865347025580529
4944000000.0 -0.07041714580154143 -0.9717819276659823
4947000000.0 -0.13151908884584945 -0.9735972238216518
4950000000.0 -0.13634964516814768 -0.9793170978531336
4953000000.0 -0.16209625506886888 -1.0595710073638955
4956000000.0 -0.17870114883303528 -1.0236355687176824
4959000000.0 -0.1801276026383767 -0.950014607982753
4962000000.0 -0.1856854648551112 -1.0066684742736172
4966000000.0 -0.15222091507492963 -1.0473483070137242
4969000000.0 -0.1446959906055234 -1.0467260829861378
4972000000.0 -0.20263229292613968 -0.9894654744638499
4975000000.0 -0.14933120084957593 -1.0047831010656443
4978000000.0 -0.22527349271561786 -1.016556522818325
4981000000.0 -0.22792612611950178 -1.0110038638621648
4984000000.0 -0.1967095853210055 -1.010068137031735
4988000000.0 -0.22505828290069912 -0.9927873675484149
4991000000.0 -0.1914362663874079 -1.0216215790256415
4994000000.0 -0.2130038236914546 -0.9986580748536208
4997000000.0 -0.28589287377009753 -0.9997502989819609
5000000000.0 -0.2212815704565182 -1.0552225263139199
5003000000.0 -0.24666373938576042 -1.0241698177143164
5006000000.0 -0.26585705170514995 -1.0502299394999706
5009000000.0 -0.2686859455647722 -0.9785023395038744
5012000000.0 -0.28561797373994297 -1.0052878807061139
5016000000.0 -0.275737107081607 -1.0337121881804314
5019000000.0 -0.3068042209917641 -0.9456412135412693
5022000000.0 -0.32132171101298546 -0.9801096484105554
5025000000.0 -0.3530333793973393 -1.0540737681609365
5028000000.0 -0.3530661759858702 -0.9816892807790578
5031000000.0 -0.3496317705431651 -0.9675980366120452
5034000000.0 -0.3775385891350027 -0.9888047762497789
5038000000.0 -0.37953919199961306 -0.9170057555604274
5041000000.0 -0.30187493636247864 -1.0131317238284452
5044000000.0 -0.32708180890411376 -0.9412630162908057
5047000000.0 -0.3621211991940619 -0.9920781409652265
5050000000.0 -0.30716932579603773 -0.9473684227214676
5053000000.0 -0.4021327486574181 -1.0286070921887438
5056000000.0 -0.326834417333556 -0.9629988032050665
5059000000.0 -0.3483605084675893 -0.983292209485083
5062000000.0 -0.4509134328008707 -0.9491145156918879
5066000000.0 -0.40705968580363416 -0.9459267989949933
5069000000.0 -0.42787445712298366 -0.9751880680257937
5072000000.0 -0.42946157541140284 -0.947904324094262
5075000000.0 -0.3795560145704707 -0.9312737798539885
5078000000.0 -0.48130046827357015 -0.9090821427021358
5081000000.0 -0.438102746993743 -0.889537290249563
5084000000.0 -0.4824825628917221 -0.9167515002550377
5088000000.0 -0.4257883467928014 -0.91607920819087
5091000000.0 -0.5236035605336582 -0.9413924677512193
5094000000.0 -0.49622777100323395 -0.8953768491334774
5097000000.0 -0.443578691210303 -0.9391599195335734
5100000000.0 -0.5165557113657617 -0.8785863366312939
5103000000.0 -0.5684030073595701 -0.8627486331792625
5106000000.0 -0.5423669378294531 -0.9736297332196739
5109000000.0 -0.47181114422251474 -0.9405887496344838
5112000000.0 -0.5475861462686709 -0.8746122887300205
5116000000.0 -0.47812015711245776 -0.8336486478398284
5119000000.0 -0.5495512907465534 -0.8675094575536815
5122000000.0 -0.549751744038086 -0.86750021322196
5125000000.0 -0.5297687695153139 -0.8518130175355504
5128000000.0 -0.5354472821217161 -0.8515253779709528
5131000000.0 -0.5521492600127359 -0.8106731155290626
5134000000.0 -0.5704248976927454 -0.8370666624181263
5138000000.0 -0.5723225717359544 -0.8803645239972956
5141000000.0 -0.5397256633915777 -0.9159147376511627
5144000000.0 -0.5732010505504153 -0.8692659260839785
5147000000.0 -0.6255878708383086 -0.8479578425988908
5150000000.0 -0.5623108900468653 -0.8802710127597483
5153000000.0 -0.6307112448891024 -0.8416175222001655
5156000000.0 -0.6041267273412512 -0.8340379619419525
5159000000.0 -0.6563431695995352 -0.824614200237717
5162000000.0 -0.6249132271290595 -0.8016709427835151
5166000000.0 -0.6502292208089876 -0.8020684014045594
5169000000.0 -0.6380296173757086 -0.8587891951034621
5172000000.0 -0.6351980397231181 -0.806127923830587
5175000000.0 -0.6681438258856405 -0.8312745172043149
5178000000.0 -0.6546442248065407 -0.8071369964246604
5181000000.0 -0.6757267923858626 -0.8341511836618851
5184000000.0 -0.6956006495348449 -0.7729137876338387
5188000000.0 -0.6693775296276425 -0.7910851695574783
