! Created with skrf 1.8.0 (http://scikit-rf.org).
# Hz S RI R 50.0 
!freq ReS11 ImS11
4000000000.0 0.6037122418643501 0.8234999607020286
4003000000.0 0.6347655269161442 0.8477160327126566
4006000000.0 0.6817401711650887 0.7571350142956143
4009000000.0 0.6530213598294804 0.7804777122238382
4012000000.0 0.6210245485346276 0.8587186380401529
4016000000.0 0.707733417044257 0.737503839852264
4019000000.0 0.672161235343463 0.7621903949965182
4022000000.0 0.611043043931928 0.8360552681024352
4025000000.0 0.7117490075545969 0.759856525181499
4028000000.0 0.7174107444811579 0.7719547056767424
4031000000.0 0.667013168344126 0.7116703184383905
4034000000.0 0.7015469365709257 0.7280580209258668
4038000000.0 0.7285519951416433 0.7629033060492378
4041000000.0 0.7016551870998262 0.7742565803323744
4044000000.0 0.744208866679117 0.7987739335040474
4047000000.0 0.7469064320613771 0.8083020022173625
4050000000.0 0.7805963410600046 0.7088182117542703
4053000000.0 0.7489116822185654 0.6966907716027604
4056000000.0 0.755895471483535 0.7115802662096065
4059000000.0 0.7568683079605848 0.7152970459537706
4062000000.0 0.7715288206746391 0.680652874431926
4066000000.0 0.7097940244619503 0.6121833417156631
4069000000.0 0.8259250344112775 0.6839027042441499
4072000000.0 0.7661801534675865 0.7544032731925945
4075000000.0 0.783676358923501 0.7301475552733532
4078000000.0 0.7937932497509967 0.6488315798836127
4081000000.0 0.7711048325410258 0.7306100392139645
4084000000.0 0.8406021780571447 0.6515089607908608
4088000000.0 0.7987491075204353 0.6861926663202932
4091000000.0 0.8446684275682391 0.6813004198118644
4094000000.0 0.803971527196222 0.6149749958614371
4097000000.0 0.8176074048467501 0.5994948047023525
4100000000.0 0.8412860115310432 0.5932191333389574
4103000000.0 0.8093051465779209 0.6568909805880325
4106000000.0 0.8519727910605734 0.6063181851646373
4109000000.0 0.86090381193351 0.5920454353371101
4112000000.0 0.8664975272658095 0.570602129642543
4116000000.0 0.8287434029210166 0.5739575133999998
4119000000.0 0.8860755191285667 0.5871310252364583
4122000000.0 0.8606037971171333 0.5516525929173999
4125000000.0 0.9072945679973553 0.563312955558291
4128000000.0 0.8220585173164298 0.5524494026858204
4131000000.0 0.8706574019883954 0.5461089782619971
4134000000.0 0.8825764539665335 0.5624692847501155
4138000000.0 0.9063880104821762 0.5433449260296397
4141000000.0 0.8613033391675012 0.4766271284003082
4144000000.0 0.8840946488360512 0.5522763162897713
4147000000.0 0.9103085122482333 0.49026082847891045
4150000000.0 0.9175137105804375 0.5146783327262614
4153000000.0 0.9248958179727454 0.5027907313004294
4156000000.0 0.9162468183081611 0.5329502291756343
4159000000.0 0.9074056053516739 0.46760416761399876
4162000000.0 0.8948234737459968 0.48015808886792544
4166000000.0 0.9354399887162606 0.4794854205536916
4169000000.0 0.9454133584580403 0.4524321924747333
4172000000.0 0.9339221368611673 0.4792733275420226
4175000000.0 0.8898170237865042 0.45397716363989576
4178000000.0 0.93863844155 0.44416801932431915
4181000000.0 0.9262482190138659 0.4298439022584897
4184000000.0 0.9248744115592221 0.42702376318976915
4188000000.0 0.9447634487684846 0.39394791914204097
4191000000.0 0.9155753327717533 0.4611199502803867
4194000000.0 0.9277644120246777 0.3831624546547733
4197000000.0 0.9538056859727596 0.40228558319506585
4200000000.0 0.9351060614203452 0.4147835355147923
4203000000.0 0.9612266380471802 0.3938070589551447
4206000000.0 0.96338649706571 0.3760422279328796
4209000000.0 0.9548697383952325 0.36063349594981325
4212000000.0 0.9576809515679835 0.3480462518415315
4216000000.0 0.9541146931294897 0.34266738320065965
4219000000.0 0.9582834757383769 0.3387314847535027
4222000000.0 0.9682268368699711 0.3152342155921191
4225000000.0 0.969325907094847 0.3344664383996637
4228000000.0 0.9646451193715175 0.3132807886415653
4231000000.0 0.9764968107362278 0.3031492225820447
4234000000.0 0.9722884538216897 0.29956221991277854
4238000000.0 0.991377935217668 0.27141330045215906
4241000000.0 0.9748254312677926 0.2705829075247648
4244000000.0 0.9725751571206852 0.2861523277584364
4247000000.0 0.9972005268320413 0.27451287826885473
4250000000.0 0.9681402187555284 0.23967931574516826
4253000000.0 0.9618838486006214 0.25297826599217
4256000000.0 1.0035531482051796 0.21923627689597125
4259000000.0 0.953326422052206 0.2357538758214169
4262000000.0 1.0024890586552173 0.21182930442571998
4266000000.0 1.035804120882956 0.20015540077691724
4269000000.0 0.9929097854811145 0.22182814845064006
4272000000.0 1.003921434574242 0.19663900481847446
4275000000.0 0.9964220207365533 0.19030095163402838
4278000000.0 1.0261170069778214 0.19796514264998322
4281000000.0 1.0126871068111807 0.1777899250207916
4284000000.0 1.014799745564315 0.13724176834175814
4288000000.0 0.9977312008748385 0.1768435668518887
4291000000.0 0.990270078588646 0.13440351968700054
4294000000.0 0.9987306849520892 0.14019750352290872
4297000000.0 1.0057618560119561 0.16845915376417658
4300000000.0 0.9980682033343349 0.12949146421094623
4303000000.0 0.9968587363972163 0.10438032364587475
4306000000.0 1.0109531722738643 0.1300895460001869
4309000000.0 1.0211457648240816 0.11014835764829346
4312000000.0 1.0203985921901766 0.1137432039954093
4316000000.0 1.0204354382455463 0.09542009148248921
4319000000.0 0.991978730561446 0.057074199260607764
4322000000.0 1.0028506356592801 0.028389601183843607
4325000000.0 0.9994779101624116 0.07374222102786814
4328000000.0 1.0007428028818155 0.027375595947527184
4331000000.0 1.0261409833365485 0.02322699210943238
4334000000.0 1.0175522145833653 0.009216854723721413
4338000000.0 1.0120728799556233 0.05754544523124579
4341000000.0 1.0284501926554155 0.024985578841534073
4344000000.0 1.0555661339513016 0.007283831064103186
4347000000.0 1.0100073443307767 -0.03843965584432091
4350000000.0 0.9658480729521957 -0.0259053523682648
4353000000.0 1.0016122146987274 -0.00525918903646444
4356000000.0 1.006397421628744 -0.054008344149329965
4359000000.0 0.9929602840511942 -0.05497826856196575
4362000000.0 1.0218191448648957 -0.11325826233355242
4366000000.0 1.0348507694541156 -0.06512594227465582
4369000000.0 0.970106199106355 -0.07836697463992841
4372000000.0 0.9968039169656744 -0.10879982783132501
4375000000.0 1.003844670653987 -0.07320930606443636
4378000000.0 0.9843442497649172 -0.0881599270949253
4381000000.0 0.9858866794520549 -0.08426883934518674
4384000000.0 1.0718968317041528 -0.13386555063662178
4388000000.0 0.9944069860651161 -0.10719156399085801
4391000000.0 1.0104990926616673 -0.1344439498134135
4394000000.0 0.9777474731684707 -0.12687809078149154
4397000000.0 1.0059052060670828 -0.152432827740631
4400000000.0 1.037764791110064 -0.17194502458802063
4403000000.0 1.0038024975441244 -0.1576781048777445
4406000000.0 1.0019063824746197 -0.19262837169003416
4409000000.0 1.0301226764262226 -0.18717606626143368
4412000000.0 0.9854278885345715 -0.25435358084671433
4416000000.0 0.976688431966507 -0.20848511771923556
4419000000.0 0.9907930052240027 -0.22382794936834816
4422000000.0 0.9750323489191821 -0.19468925729323427
4425000000.0 1.002154743294389 -0.21394864257760338
4428000000.0 0.9622229629992566 -0.2505032129425201
4431000000.0 1.0103614065477948 -0.23374813951458603
4434000000.0 0.9701234621933997 -0.2584642819043623
4438000000.0 1.0065488846844983 -0.25848450762518743
4441000000.0 1.0014964393415453 -0.2831982778061174
4444000000.0 0.9630685753345638 -0.28154289828706086
4447000000.0 0.9627899755305626 -0.3020506328812289
4450000000.0 0.9653153571469926 -0.2856629960555824
4453000000.0 0.9982015099143481 -0.31457280066246973
4456000000.0 0.9258711936881715 -0.3050918065490934
4459000000.0 0.9141742768029404 -0.3163796717024474
4462000000.0 1.0167995352907235 -0.35352224916050956
4466000000.0 1.0068909589701374 -0.3506377586274432
4469000000.0 0.9590006215933721 -0.3389691365295844
4472000000.0 0.9582335889721356 -0.3882637144965882
4475000000.0 0.914258355659683 -0.3394560972399728
4478000000.0 0.9712692304776156 -0.4092616044359736
4481000000.0 0.907268405910507 -0.37095127730100974
4484000000.0 0.907493744142104 -0.4335292338476118
4488000000.0 0.9046992067301911 -0.38328610406310687
4491000000.0 0.9376278716576374 -0.41795674076102235
4494000000.0 0.9208659000781662 -0.40500128360592413
4497000000.0 0.9322772783515925 -0.4049267743286237
4500000000.0 0.9011072269120655 -0.4456893964355792
4503000000.0 0.9438111583959206 -0.43257999580457773
4506000000.0 0.8869704771801192 -0.4471075155205481
4509000000.0 0.8880074365042727 -0.4337857649408371
4512000000.0 0.8830092167294427 -0.4535134903617807
4516000000.0 0.9233067664778283 -0.48087451517117513
4519000000.0 0.887495455710984 -0.4651175629060114
4522000000.0 0.893409697683601 -0.4970807091709532
4525000000.0 0.8972571251359598 -0.4562588569060426
4528000000.0 0.898716595070592 -0.5015844972034438
4531000000.0 0.8792626719723624 -0.48759545157474704
4534000000.0 0.8704697327168727 -0.4760948476009784
4538000000.0 0.8693755112649042 -0.5275630580213537
4541000000.0 0.840795883423996 -0.5395305985584252
4544000000.0 0.8480257392944919 -0.5215300101742693
4547000000.0 0.8547826037855227 -0.5021736210851717
4550000000.0 0.8491724685889401 -0.5837834001197069
4553000000.0 0.8402334508634794 -0.578764273284331
4556000000.0 0.8249524003673623 -0.5717611254067004
4559000000.0 0.8265412484159995 -0.600324092581523
4562000000.0 0.832170399298511 -0.5954473277331933
4566000000.0 0.8331116730303905 -0.6095871003796591
4569000000.0 0.7938935386253082 -0.5979735265483839
4572000000.0 0.7920003974436 -0.5927486444925715
4575000000.0 0.7837107354514246 -0.6425378230585919
4578000000.0 0.8306607560167509 -0.6124026828019655
4581000000.0 0.7872836927826057 -0.6352636513520113
4584000000.0 0.7708553793151977 -0.6310723121312116
4588000000.0 0.8146860559374834 -0.645500432648259
4591000000.0 0.7884591185537859 -0.64381609022205
4594000000.0 0.7547833586570637 -0.6583965890971262
4597000000.0 0.7782473009945701 -0.6722726864803296
4600000000.0 0.7319550688440881 -0.6792903325381152
4603000000.0 0.7454130644049825 -0.6727694926814072
4606000000.0 0.7645630134795275 -0.687725356643552
4609000000.0 0.7519820371485704 -0.6828376648566883
4612000000.0 0.7381435417991724 -0.7020657339778115
4616000000.0 0.7260915395353171 -0.6925530541374988
4619000000.0 0.7264802794591445 -0.6831159377156263
4622000000.0 0.720782213384251 -0.7124063068164723
4625000000.0 0.6866482593248402 -0.7182315588793915
4628000000.0 0.6932134486195877 -0.710904870817718
4631000000.0 0.697098532234125 -0.7446946641186951
4634000000.0 0.6765988604201448 -0.739724295322941
4638000000.0 0.6901870752233735 -0.743857204421939
4641000000.0 0.6831755119116559 -0.7482676563027282
4644000000.0 0.6707257588308091 -0.7528379381496941
4647000000.0 0.6829796406175254 -0.7537805062200816
4650000000.0 0.656334268254845 -0.7715327402737522
4653000000.0 0.6730762529187061 -0.7586266400175306
4656000000.0 0.6285073788468065 -0.7946963704020864
4659000000.0 0.6250963099874632 -0.7872865953583823
4662000000.0 0.6238704793792063 -0.7965137727941815
4666000000.0 0.6129070242715275 -0.7887406233852824
4669000000.0 0.6006898914668526 -0.7787694758795475
4672000000.0 0.597953827950308 -0.814572028084982
4675000000.0 0.5935414619695201 -0.8473669539575707
4678000000.0 0.5772193621631232 -0.8129547105393152
4681000000.0 0.5918857442946943 -0.8629668717087433
4684000000.0 0.5594853769547492 -0.8347238691076662
4688000000.0 0.5551218736183501 -0.8260642326619019
4691000000.0 0.5996742338707716 -0.8399101440730934
4694000000.0 0.5646315368070447 -0.831460359684566
4697000000.0 0.5140800302781315 -0.8440224957633864
4700000000.0 0.5586151753183376 -0.8417423129077641
4703000000.0 0.5681834493201336 -0.8286461041734767
4706000000.0 0.5207980629880622 -0.9005412150410291
4709000000.0 0.5183272764515122 -0.86395265997832
4712000000.0 0.520590841869204 -0.8602681040776392
4716000000.0 0.5355653166892996 -0.8786438512884223
4719000000.0 0.513146485652552 -0.8633199596323103
4722000000.0 0.4998832056130272 -0.85606177570325
4725000000.0 0.4813605824857774 -0.8766486671793082
4728000000.0 0.4621918911506494 -0.8973231515903937
4731000000.0 0.48151519344972127 -0.9373248130999317
4734000000.0 0.45225911464432766 -0.8942129715887376
4738000000.0 0.4690397107609383 -0.9225959777535518
4741000000.0 0.43598286130912933 -0.934639134983025
4744000000.0 0.4353596201170909 -0.9309534040932957
4747000000.0 0.4268447283692792 -0.8702719986054959
4750000000.0 0.4224840279805094 -0.9601032342899545
4753000000.0 0.4201092225200095 -0.940138995124214
4756000000.0 0.4009336816030692 -0.921678781799125
4759000000.0 0.4276862730315473 -0.9527908873340797
4762000000.0 0.38152657643042764 -0.9698442736282433
4766000000.0 0.3822769747905177 -0.9500088145034185
4769000000.0 0.37225438890202767 -0.9520840380061327
4772000000.0 0.36929982647733717 -0.9463631026724321
4775000000.0 0.3353574518410884 -0.9965349781095385
4778000000.0 0.3430717432888954 -0.9692480932708426
4781000000.0 0.3588871847731554 -0.9192686548153536
4784000000.0 0.3459391663286184 -0.9627045138398257
4788000000.0 0.309547919332958 -0.9959946638604196
4791000000.0 0.3249789399080597 -0.9561174941863116
4794000000.0 0.3656808933974178 -1.0031527466367138
4797000000.0 0.3012762541792033 -0.9516230679208907
4800000000.0 0.2910466726264351 -0.9677492478183396
4803000000.0 0.2545314495759514 -0.9812041065383397
4806000000.0 0.276677622259368 -0.995510483764976
4809000000.0 0.2276968118986277 -0.997950244540113
4812000000.0 0.23237517480429626 -0.9948689323613116
4816000000.0 0.2842899575147329 -0.9592371694950987
4819000000.0 0.27802457343832604 -1.004908725403292
4822000000.0 0.2631729445591578 -1.0145724407642402
4825000000.0 0.2578640106019558 -1.0287967752007339
4828000000.0 0.21301333838470332 -0.9647245868604798
4831000000.0 0.18023078698297673 -1.0269239967632278
4834000000.0 0.23206063442423341 -1.003856787833008
4838000000.0 0.18211930254663566 -1.0154044483740496
4841000000.0 0.17206777349406813 -1.010336081394207
4844000000.0 0.2120410863655371 -1.0121684029981726
4847000000.0 0.20256816315358345 -0.9781613145056087
4850000000.0 0.14504121893673683 -1.0263624218344258
4853000000.0 0.1556337446066547 -0.9921046275199894
4856000000.0 0.1451851816099825 -0.9897390774436449
4859000000.0 0.12973741363391417 -1.081445883281869
4862000000.0 0.14402907217769106 -0.9863598968441188
4866000000.0 0.11076401193188318 -1.033893644820936
4869000000.0 0.07771956029892983 -1.002031416610838
4872000000.0 0.06418458711666943 -1.0691961970694543
4875000000.0 0.1537256685853804 -1.0473147451334004
4878000000.0 0.08549764341804011 -1.039052014760886
4881000000.0 0.07168129415939457 -1.1087715217596619
4884000000.0 0.07772153418171754 -1.008640516425302
4888000000.0 0.12410767311323753 -1.0208669919915587
4891000000.0 0.06860986148019489 -1.0598951065222157
4894000000.0 0.014232846415998554 -1.0386218882153566
4897000000.0 0.06569985573926476 -1.0118256574629358
4900000000.0 0.025662600287338726 -1.062607419133692
4903000000.0 0.04424610923189232 -1.0465714368936498
4906000000.0 0.012946447279660399 -1.070441818417631
4909000000.0 0.00838646896706002 -1.035415240396512
4912000000.0 -0.01745646077102706 -1.0784064891428742
4916000000.0 0.005885048487755291 -1.0348291366667532
4919000000.0 0.010376839403044458 -1.084694969836522
4922000000.0 0.006412709962991731 -1.0562266680057373
4925000000.0 -0.051090888057124126 -1.0106074791927915
4928000000.0 -0.0028815194064305133 -1.0336648678343563
4931000000.0 -0.04073288797164705 -1.0348851159128036
4934000000.0 -0.0390734335214146 -0.9758980221034668
4938000000.0 -0.10224171635838979 -1.006645971785184
4941000000.0 -0.05915994904220716 -1.0200284597034628
4944000000.0 -0.06023986624009536 -0.9717542931532284
4947000000.0 -0.10415987631707882 -0.9932442382863816
4950000000.0 -0.09883890495559576 -0.9999943403329888
4953000000.0 -0.1351885830331299 -1.0652365146752287
4956000000.0 -0.15693225898080942 -0.9975015196834625
4959000000.0 -0.14348486255607654 -0.9937971496407159
4962000000.0 -0.13505843136572512 -1.0546359268263727
4966000000.0 -0.11453699035594822 -1.0368102226907672
4969000000.0 -0.12661715376938 -1.0450726125354428
4972000000.0 -0.18942446070338007 -1.01680860942357
4975000000.0 -0.14713803024744562 -1.0209702678237196
4978000000.0 -0.21080091738760365 -1.038881240941914
4981000000.0 -0.2007364106597467 -1.0059088802907685
4984000000.0 -0.18637771274535156 -0.9989690763130235
4988000000.0 -0.17210982835111 -1.0140748254864986
4991000000.0 -0.1475703628548089 -1.0929792688442368
4994000000.0 -0.21143866448868592 -1.0424438731398784
4997000000.0 -0.237265746876548 -1.014117896582609
5000000000.0 -0.2355706644966098 -1.0020316691511857
5003000000.0 -0.22748110698480456 -1.0432541772902324
5006000000.0 -0.26427599630628085 -1.0286719088140948
5009000000.0 -0.25311348814869894 -0.9927130362525495
5012000000.0 -0.2807536351193309 -0.9982097700816128
5016000000.0 -0.2278431173138436 -1.029748512035655
5019000000.0 -0.2754521353095008 -0.9788549093616148
5022000000.0 -0.2756113054000322 -0.9892233700905573
5025000000.0 -0.3190124855655028 -1.079878094833457
5028000000.0 -0.3312064841212581 -0.9891720323578632
5031000000.0 -0.315677417042181 -0.9778104760469507
5034000000.0 -0.37274800520381 -1.0274796510514688
5038000000.0 -0.3352967910007668 -0.9694107232138514
5041000000.0 -0.29675992689858266 -0.9976103587805206
5044000000.0 -0.315125910037953 -0.9626921432770165
5047000000.0 -0.33506216359472846 -1.0274499412606266
5050000000.0 -0.2649082054269115 -1.0072925856889747
5053000000.0 -0.3824373579840278 -0.999227528857298
5056000000.0 -0.3409902282561641 -0.9811846529636321
5059000000.0 -0.3189331640570297 -0.9925352012821115
5062000000.0 -0.4088098453097373 -0.9940424989076484
5066000000.0 -0.3577933178852185 -0.9808457757535791
5069000000.0 -0.38679575332380645 -0.9599040613411122
5072000000.0 -0.3912669057933898 -0.9362947346690214
5075000000.0 -0.39155116392114997 -0.9320446949393704
5078000000.0 -0.4419766399510399 -0.9448879416017797
5081000000.0 -0.4117368620816739 -0.8686847245277637
5084000000.0 -0.43996176941368237 -0.986306301617133
5088000000.0 -0.3850203540894174 -0.9442742463160716
5091000000.0 -0.45530067342610064 -0.9200961291199217
5094000000.0 -0.43017240371043186 -0.9292014386700552
5097000000.0 -0.416263715758731 -0.9766004294061046
5100000000.0 -0.465291697344176 -0.9227779139803843
5103000000.0 -0.4644433557984884 -0.9414572866779968
5106000000.0 -0.44060915638195547 -0.9553860268242269
5109000000.0 -0.4539107297682737 -0.9346867316391003
5112000000.0 -0.49746013823339363 -0.9186088574025029
5116000000.0 -0.5216687945767803 -0.8911655834411985
5119000000.0 -0.5261908910892061 -0.9250729322704114
5122000000.0 -0.5207004042013592 -0.9036657574426636
5125000000.0 -0.4952194415163356 -0.9224824444142702
5128000000.0 -0.5642483607598691 -0.8959557027943061
5131000000.0 -0.5306768851017251 -0.9077188734423894
5134000000.0 -0.5705924612011666 -0.8691430264457018
5138000000.0 -0.5167741618813555 -0.9084271545113884
5141000000.0 -0.4919331249477586 -0.8848204421199566
5144000000.0 -0.5652669980576766 -0.9098486530731185
5147000000.0 -0.5957256031881227 -0.9171666240043995
5150000000.0 -0.5655594210802806 -0.9318774134763872
5153000000.0 -0.6278203411240455 -0.876276116229407
5156000000.0 -0.5733863387122728 -0.8397481563654756
5159000000.0 -0.6050117298850304 -0.8912280408211968
5162000000.0 -0.6191082201138403 -0.86707868282268
5166000000.0 -0.6436664382291145 -0.8554321911491133
5169000000.0 -0.6214170965886225 -0.8610560114250939
5172000000.0 -0.6125388974795869 -0.8502924928423264
5175000000.0 -0.6206126952849464 -0.8733019379058946
5178000000.0 -0.659401060521662 -0.8257039483836008
5181000000.0 -0.6449275047236162 -0.8702308585046583
5184000000.0 -0.6458221239050934 -0.8048282912334299
5188000000.0 -0.6362784732212948 -0.8076254425081639
5191000000.0 -0.6730713872479697 -0.789214035802821
