! Created with skrf 1.8.0 (http://scikit-rf.org).
# Hz S RI R 50.0 
!freq ReS11 ImS11
4000000000.0 0.6204611809485624 0.8029247998668854
4003000000.0 0.6613858587884062 0.84108312629615
4006000000.0 0.6891263810494259 0.779177881730944
4009000000.0 0.673165985938486 0.8291955538387207
4012000000.0 0.6477007468220378 0.8360626467687637
4016000000.0 0.6945619451261521 0.7632853509839048
4019000000.0 0.6914190762654968 0.7922510371311805
4022000000.0 0.6627466061543883 0.8469775052171961
4025000000.0 0.7151533649326082 0.7498896179082724
4028000000.0 0.7096575499315916 0.7381607657608229
4031000000.0 0.6894402489808967 0.7315434127394482
4034000000.0 0.6931362305418817 0.7401341613177489
4038000000.0 0.7363923670282602 0.7658503912075872
4041000000.0 0.7627539858932695 0.717832461657993
4044000000.0 0.7802309884860599 0.7977983643825901
4047000000.0 0.725877263245218 0.7996790139130638
4050000000.0 0.7784512265089034 0.7124858445614474
4053000000.0 0.7561053967419763 0.6644833857257344
4056000000.0 0.7527481919489176 0.6956313035538101
4059000000.0 0.7666391506853995 0.7154471230153365
4062000000.0 0.7676728320497457 0.6622026625583688
4066000000.0 0.7471945241176692 0.6443760287293339
4069000000.0 0.8286434792725316 0.6836570878610715
4072000000.0 0.7679521217762547 0.6709908058257736
4075000000.0 0.8132840264240075 0.7394792728220119
4078000000.0 0.8232533105564572 0.6814661837975197
4081000000.0 0.7652755830528735 0.7374442589691494
4084000000.0 0.8254231806522039 0.6244282086153721
4088000000.0 0.7659679946839066 0.6597443551882406
4091000000.0 0.8725209258702626 0.6905426764071396
4094000000.0 0.8292048452795007 0.6759221977378275
4097000000.0 0.8244745431572699 0.6313291545052884
4100000000.0 0.8048364173497354 0.6170509875709818
4103000000.0 0.8630753124739972 0.611761988557922
4106000000.0 0.865051989640455 0.5956028646703673
4109000000.0 0.8582539860931881 0.5963577112500567
4112000000.0 0.8727721003201974 0.5859383876550595
4116000000.0 0.8283428929350763 0.6027103169589921
4119000000.0 0.8572425613990384 0.5490417342028111
4122000000.0 0.8846013732568856 0.5715720699485173
4125000000.0 0.9046774783284973 0.5387488660817334
4128000000.0 0.8050855661144375 0.5366712456728991
4131000000.0 0.8422608210402781 0.5387738072065762
4134000000.0 0.8652101741806209 0.5583449037186271
4138000000.0 0.8712626398218022 0.5393388399599901
4141000000.0 0.8751320841572677 0.5123314169088553
4144000000.0 0.8809744018165819 0.5483690000089476
4147000000.0 0.8715149144973352 0.4942142124139613
4150000000.0 0.9206965968443733 0.5230915553637974
4153000000.0 0.8809063391875066 0.4900144919241025
4156000000.0 0.9429843798617739 0.5319433779838412
4159000000.0 0.8652748126745877 0.4819248589977429
4162000000.0 0.9113689153316342 0.4693341771031736
4166000000.0 0.9440870214184269 0.469380711914013
4169000000.0 0.9200590077914839 0.41703736459135465
4172000000.0 0.9483701036300631 0.4492638854409809
4175000000.0 0.9206767681025744 0.45284600739319364
4178000000.0 0.9362574588031186 0.45414867461064834
4181000000.0 0.9204388658948288 0.4314563640504022
4184000000.0 0.9425775547407595 0.44264744541547113
4188000000.0 0.9450194711205264 0.41235308380015157
4191000000.0 0.9268140522948248 0.4269093575242178
4194000000.0 0.9208002921893691 0.38017294004809243
4197000000.0 0.9426962390774661 0.395339131726775
4200000000.0 0.9332679009256934 0.39564634242699437
4203000000.0 0.9619071542037229 0.39133397280226434
4206000000.0 0.955548117237883 0.37384935060667296
4209000000.0 0.9503790759862975 0.39263066073221126
4212000000.0 0.9487722070239072 0.3109156678932996
4216000000.0 0.9611734491405828 0.3631341564991925
4219000000.0 0.9710044946909353 0.3366943005385127
4222000000.0 0.973563368638183 0.31458968943461724
4225000000.0 0.9532379136267368 0.3197119399008346
4228000000.0 0.9890546315371445 0.3161265775173867
4231000000.0 0.9620765719226393 0.3174653791020118
4234000000.0 0.9875431335929117 0.3059953330741369
4238000000.0 0.9789004268085282 0.2585182782160307
4241000000.0 0.9833204520224108 0.277361933641924
4244000000.0 0.9893327811118343 0.27617682684766115
4247000000.0 0.9790580864901287 0.27159585916809964
4250000000.0 0.964897230069566 0.2316299920109196
4253000000.0 0.9749369565721335 0.2380522544461134
4256000000.0 1.0073747196952934 0.23419561887372564
4259000000.0 0.973936491265265 0.22050947357009862
4262000000.0 0.9855591756351356 0.21509038159829616
4266000000.0 0.9879691433567903 0.2195136498518575
4269000000.0 0.9919967378596696 0.20349329738264035
4272000000.0 0.9828930863626281 0.19920837845754208
4275000000.0 0.9980747191701347 0.1980727437463008
4278000000.0 1.0048135056624032 0.16983236599969515
4281000000.0 0.9927353778995358 0.1862441712773248
4284000000.0 1.0095137306588757 0.13576823087536366
4288000000.0 1.0027528778565329 0.19436422241560594
4291000000.0 0.9992835165830172 0.15608404890110805
4294000000.0 0.998027756909533 0.14946144566301456
4297000000.0 0.9753952786225731 0.15172551682231156
4300000000.0 0.9854066148678855 0.10839809785296683
4303000000.0 1.0214523374550297 0.10872670721434118
4306000000.0 1.0164970324903224 0.13351728014528788
4309000000.0 0.9798850539178129 0.11822861877269959
4312000000.0 1.0321009333209397 0.14199238441994586
4316000000.0 1.0163895830807284 0.09327200447158594
4319000000.0 0.9857375689193023 0.09662402782539108
4322000000.0 1.02492602891187 0.025458390273195255
4325000000.0 1.001767007350683 0.06702566508662226
4328000000.0 0.9864334155303962 0.05363690112032944
4331000000.0 1.0278636810442727 0.010204232425526844
4334000000.0 1.018861379111592 0.01355705399013818
4338000000.0 1.0343629081902856 0.04603954156743574
4341000000.0 1.045151716380516 0.04162129125723524
4344000000.0 1.0520469712624363 0.024839155836198584
4347000000.0 1.0339121548534185 -0.007734125585190155
4350000000.0 0.9871367128713817 -0.028115735830971267
4353000000.0 0.9900699183460575 -0.0076612110808960965
4356000000.0 0.9939788218704403 -0.06856545643934665
4359000000.0 0.9478513782558615 -0.03752951880613978
4362000000.0 1.0097003875381367 -0.09853309331317003
4366000000.0 1.0422192007685431 -0.07385581327545016
4369000000.0 0.9793144075671734 -0.0703411123647707
4372000000.0 0.9989339083637019 -0.12063295630449701
4375000000.0 1.015268319615616 -0.07075836218264497
4378000000.0 0.9909265641477403 -0.09686865363125359
4381000000.0 0.9988505553953624 -0.07485119845640748
4384000000.0 1.0693664898369544 -0.13616457629994072
4388000000.0 1.0095392877938911 -0.11418878021704999
4391000000.0 1.0028666501188201 -0.13451373439457967
4394000000.0 0.9864660769868566 -0.11722784868307494
4397000000.0 0.9974187318759449 -0.16218205237053748
4400000000.0 1.005901051482836 -0.1578651973673753
4403000000.0 1.0123934321453927 -0.170937379508022
4406000000.0 0.9859970775931963 -0.1883391115152599
4409000000.0 1.0205180791102795 -0.189382456668847
4412000000.0 0.9737590020744817 -0.2504122674636322
4416000000.0 0.9764740203800093 -0.21381563880452228
4419000000.0 0.9834908441151178 -0.2292392524236504
4422000000.0 0.990684915923796 -0.1998282887777654
4425000000.0 1.0208690531128597 -0.20620766761435852
4428000000.0 0.9737203011673882 -0.2494861075962939
4431000000.0 1.0152733509068734 -0.2413685991180091
4434000000.0 0.9607143244979827 -0.25647947285444295
4438000000.0 0.997554949460403 -0.2564348147496444
4441000000.0 0.9919615045085903 -0.270315095597071
4444000000.0 0.9490451974581628 -0.27210924075317583
4447000000.0 0.9655424990199917 -0.2874756859222733
4450000000.0 0.9473490597898172 -0.2755684749440055
4453000000.0 0.9882591701441181 -0.31730208482359523
4456000000.0 0.9439736199661122 -0.30262066348544864
4459000000.0 0.9178629609850593 -0.326429479677424
4462000000.0 1.01736568619417 -0.34790610147397927
4466000000.0 1.0026599065499098 -0.3668364768196247
4469000000.0 0.958454523260221 -0.3258708824853057
4472000000.0 0.96917037477545 -0.37548335034483094
4475000000.0 0.9217596179029992 -0.3553001384788011
4478000000.0 0.974508674464525 -0.3948880688869386
4481000000.0 0.9087576136261195 -0.3729950506623359
4484000000.0 0.9289131692130419 -0.421943529776447
4488000000.0 0.9053599982903551 -0.40901368508954367
4491000000.0 0.9233075240898807 -0.41765462713216706
4494000000.0 0.899882132610109 -0.39398550986065567
4497000000.0 0.9203562879715037 -0.40223436666102697
4500000000.0 0.9151085908259149 -0.4274482936390034
4503000000.0 0.9404476956577041 -0.43435564369142926
4506000000.0 0.9036687202388975 -0.450046971666622
4509000000.0 0.8668948336780136 -0.4580771772190917
4512000000.0 0.880035688774266 -0.45037439928185197
4516000000.0 0.9210846464825472 -0.4628249963324884
4519000000.0 0.8856244792775468 -0.45342265143977073
4522000000.0 0.8747665249895211 -0.5055064917121668
4525000000.0 0.8789678519952189 -0.4581402079301112
4528000000.0 0.9004025072553221 -0.48822136730669974
4531000000.0 0.8670654535133214 -0.4806259241280382
4534000000.0 0.8682741757955688 -0.4950274559783977
4538000000.0 0.8683300148319828 -0.48645663200111244
4541000000.0 0.8186035836925385 -0.5474669661651353
4544000000.0 0.8438022626023709 -0.5180973970718569
4547000000.0 0.851154163528561 -0.517507576291478
4550000000.0 0.8316338466867115 -0.5764585735521696
4553000000.0 0.8335922562888518 -0.5673129991338709
4556000000.0 0.8025331213759668 -0.5658781203356157
4559000000.0 0.8245832282104626 -0.5840446120264209
4562000000.0 0.8350446059004686 -0.5766408148249111
4566000000.0 0.8303154050013184 -0.6077886148572456
4569000000.0 0.7896303167668917 -0.5836502419786835
4572000000.0 0.8180432452212185 -0.6102078492095924
4575000000.0 0.8098565116317853 -0.6240702503504917
4578000000.0 0.8312525191805353 -0.6178302168786919
4581000000.0 0.786958664286229 -0.6300626937032167
4584000000.0 0.7805943716862727 -0.6131901913776585
4588000000.0 0.8021896937939665 -0.6334098440363123
4591000000.0 0.7932059147126507 -0.6358722885202515
4594000000.0 0.7579397951524818 -0.6792330113831438
4597000000.0 0.7755946090569186 -0.6805286499886192
4600000000.0 0.7311501030457855 -0.6616358791798848
4603000000.0 0.7797490926890739 -0.6895856921257272
4606000000.0 0.7631980845319335 -0.6775094397127639
4609000000.0 0.7521561849161006 -0.6873216410906859
4612000000.0 0.7422457804340844 -0.7043967410669172
4616000000.0 0.71960967782924 -0.6827959695923712
4619000000.0 0.7275581108059408 -0.6971653820618278
4622000000.0 0.7118694667239592 -0.7102878190275209
4625000000.0 0.6666914673569698 -0.7141477605726019
4628000000.0 0.7180187983981048 -0.7248371472321621
4631000000.0 0.693737768757873 -0.7419396971570149
4634000000.0 0.6685060381563603 -0.7398305543922045
4638000000.0 0.6901328018733469 -0.7378062571411214
4641000000.0 0.7135615705391367 -0.7453627999753368
4644000000.0 0.6730962207316226 -0.7296420603081627
4647000000.0 0.6787233030443927 -0.762182834728377
4650000000.0 0.6465324151443677 -0.7701154386426758
4653000000.0 0.6761809563196065 -0.7770583490886172
4656000000.0 0.6448101024062789 -0.7763283880353444
4659000000.0 0.6296385577987418 -0.7775705169018237
4662000000.0 0.6449254595604841 -0.8058167280267677
4666000000.0 0.6126536507833668 -0.7963179918871088
4669000000.0 0.6220738952173637 -0.7866210017872959
4672000000.0 0.5946646151016457 -0.8215262872723824
4675000000.0 0.6034484564775675 -0.8279625008321003
4678000000.0 0.6002469614223462 -0.8131843465605644
4681000000.0 0.5841403170131432 -0.8620708673703215
4684000000.0 0.579549502604656 -0.8305628454278107
4688000000.0 0.5470182380459554 -0.8156238118665675
4691000000.0 0.6028303941194525 -0.8282166858670947
4694000000.0 0.562815011782145 -0.8355505890696691
4697000000.0 0.5289793253235322 -0.8311694605571538
4700000000.0 0.5710946340771892 -0.8351186178617955
4703000000.0 0.5485077921068895 -0.8217074306933438
4706000000.0 0.49946559202423185 -0.8751417407929971
4709000000.0 0.5271590920354627 -0.8687563251097008
4712000000.0 0.5213869637451714 -0.8731242630366338
4716000000.0 0.5015704103861857 -0.8930944016626992
4719000000.0 0.48681764014117496 -0.8699299310115379
4722000000.0 0.49913853899765465 -0.8969143649624849
4725000000.0 0.4996936913212254 -0.9070629676339178
4728000000.0 0.4763420315002451 -0.9113825561778996
4731000000.0 0.47995832501529523 -0.911827855611735
4734000000.0 0.47367225741211816 -0.8902903961946179
4738000000.0 0.48559694437264267 -0.9235328838024872
4741000000.0 0.4722635766748995 -0.9436516401379812
4744000000.0 0.43651778898794746 -0.9107387716054917
4747000000.0 0.4440544287968567 -0.8706825574339113
4750000000.0 0.4385933025899168 -0.919654301648138
4753000000.0 0.44953391327990366 -0.9055619682229691
4756000000.0 0.4202618002488286 -0.9097050301817395
4759000000.0 0.42248751612997504 -0.9364567358204942
4762000000.0 0.3728505726367345 -0.9611151054698579
4766000000.0 0.3775313762636533 -0.9478177838150361
4769000000.0 0.37143384529337065 -0.9697116047871196
4772000000.0 0.3750988928155876 -0.9608248814328645
4775000000.0 0.3493037331568426 -0.9951353178893472
4778000000.0 0.3629649197745148 -0.9475021762337265
4781000000.0 0.3535081453178769 -0.9507087330441801
4784000000.0 0.3609143021678501 -0.9297006550840053
4788000000.0 0.32512129057598693 -0.978710971097424
4791000000.0 0.33127178699888227 -0.9708938098070569
4794000000.0 0.3484189702180121 -0.9835925756086814
4797000000.0 0.3086246990815102 -0.987667684711301
4800000000.0 0.29453366603563474 -0.9641059218942929
4803000000.0 0.23279339648427944 -0.9707206498926408
4806000000.0 0.2850009179806061 -0.9874900835851879
4809000000.0 0.22349599564683292 -1.0073342513298194
4812000000.0 0.2040583065824948 -0.9947115421873853
4816000000.0 0.28000265926404766 -0.9892539280216286
4819000000.0 0.2545093496742943 -1.0248827053428087
4822000000.0 0.25862356522201246 -1.0164927065531784
4825000000.0 0.26060956853881784 -1.036517723736986
4828000000.0 0.204958813550557 -0.9946687919293894
4831000000.0 0.17188178945078594 -1.0121491036724692
4834000000.0 0.2066852336132668 -1.009134378162591
4838000000.0 0.18584846421763634 -1.033970927158224
4841000000.0 0.18760913396638085 -0.9984488246388882
4844000000.0 0.19777615257198725 -0.9952271573992956
4847000000.0 0.1902325938734085 -0.9582564652166501
4850000000.0 0.15563030525958085 -1.0355854170605856
4853000000.0 0.15247650126681547 -0.9946286916604743
4856000000.0 0.13490404243655985 -1.0049575569030171
4859000000.0 0.13948935891089503 -1.0647773699702894
4862000000.0 0.16083934706378683 -0.9952892661668059
4866000000.0 0.10239712784241123 -1.0194387005686818
4869000000.0 0.10036541770901472 -1.0374504422575888
4872000000.0 0.059184652322765485 -1.0552630097149192
4875000000.0 0.15696316127544613 -1.069261785225387
4878000000.0 0.09736490508281795 -1.0339123773576755
4881000000.0 0.07240562907349099 -1.0779279674219495
4884000000.0 0.08685406138003555 -1.022118433601334
4888000000.0 0.11022211985383526 -1.0122381027248535
4891000000.0 0.10373779902217542 -1.040461536914078
4894000000.0 0.02933456357538329 -1.0135239364057338
4897000000.0 0.07049189257783894 -1.0252513746976377
4900000000.0 0.06422932993017878 -1.0486287679755169
4903000000.0 0.058416104500658816 -1.0714583275793774
4906000000.0 0.018473536861664773 -1.0658956906332762
4909000000.0 0.01281466007994798 -1.0195227822249933
4912000000.0 -0.023235439322964097 -1.0715429064507576
4916000000.0 0.019618411297308187 -1.0393551351798413
4919000000.0 0.025246235504087756 -1.0716242577523163
4922000000.0 -0.003281437595005307 -1.0437937539141897
4925000000.0 -0.0472960171920347 -1.025476587430325
4928000000.0 0.014205863599301233 -1.0201627256231565
4931000000.0 -0.029807151269705012 -1.073168499583547
4934000000.0 -0.05459357882800493 -0.9894241685785353
4938000000.0 -0.11343719521704905 -1.0369714581329619
4941000000.0 -0.05647250653921486 -1.0134960213023887
4944000000.0 -0.06409977136051248 -1.0010323742311877
4947000000.0 -0.10135613623575829 -1.0024571396192015
4950000000.0 -0.1015288120593628 -1.0057492731296482
4953000000.0 -0.16106410084441042 -1.0479374398637775
4956000000.0 -0.13292696668830756 -1.0482796360082571
4959000000.0 -0.1269202106103646 -0.9838100614636739
4962000000.0 -0.14189910283604337 -1.0030470625095553
4966000000.0 -0.1324741976900104 -1.04262625082596
4969000000.0 -0.15610777433890527 -1.0630007284469793
4972000000.0 -0.15348696854996594 -1.0153169878037613
4975000000.0 -0.13542557520338797 -0.9885604904684994
4978000000.0 -0.1679683368304647 -1.024608010324939
4981000000.0 -0.19090647912014133 -1.0586295183372003
4984000000.0 -0.14426783514645228 -1.022179647857541
4988000000.0 -0.19781083479744 -1.0104993353327165
4991000000.0 -0.15858436614607846 -1.0714249423477062
4994000000.0 -0.2121233322464437 -1.0118421700922795
4997000000.0 -0.24036872331257148 -0.9818183740274844
5000000000.0 -0.20251604415354618 -1.04822798514692
5003000000.0 -0.19658646998045537 -1.0704926415550222
5006000000.0 -0.2634897502790289 -1.05776598414378
5009000000.0 -0.20865667347021719 -1.0270643393186147
5012000000.0 -0.2586773780939246 -1.0174701634213956
5016000000.0 -0.23165029036853435 -1.067571064618296
5019000000.0 -0.30140800404884316 -0.988068201831872
5022000000.0 -0.2984800442143559 -1.0003407669593796
5025000000.0 -0.30060613662616126 -1.026154514673356
5028000000.0 -0.3287037085128286 -1.0210071554834117
5031000000.0 -0.29811021329662146 -0.9878069869415286
5034000000.0 -0.33374410966314405 -1.001591288684861
5038000000.0 -0.3371700376661826 -0.9589341195808854
5041000000.0 -0.31603635054029633 -1.0035266252218227
5044000000.0 -0.2861739229706409 -0.9977787120587668
5047000000.0 -0.32206069934544285 -0.9987095377563145
5050000000.0 -0.2908520008784269 -0.9515598191558918
5053000000.0 -0.3698518996697686 -0.9889684433847796
5056000000.0 -0.35222142075522944 -0.9683212261408174
5059000000.0 -0.32839422031070215 -0.9989926855914849
5062000000.0 -0.4168335646739114 -0.9867799824260084
5066000000.0 -0.33773398070563043 -0.9989369456544956
5069000000.0 -0.40327601011880665 -1.0006328466755943
5072000000.0 -0.3781331944009876 -0.9461724915376322
5075000000.0 -0.38823560540210067 -0.9645324261134929
5078000000.0 -0.45693078278825844 -0.953665480105965
5081000000.0 -0.4165628228942712 -0.8942830348787921
5084000000.0 -0.43488514365121367 -0.9790968518510452
5088000000.0 -0.44273891572433344 -0.9309973363894841
5091000000.0 -0.4806268656455072 -0.9438459742384124
5094000000.0 -0.4740563177828671 -0.9334034216230872
5097000000.0 -0.41850872474898126 -0.9496724297143109
5100000000.0 -0.4221859554824289 -0.9129764979124281
5103000000.0 -0.529876153710139 -0.9356002384918422
5106000000.0 -0.48448877425081877 -1.0317955517430901
5109000000.0 -0.4038265903118068 -0.9172558716270127
5112000000.0 -0.5533699775166534 -0.9027869298149582
5116000000.0 -0.5049201636569723 -0.9164753505777099
5119000000.0 -0.49036936394922054 -0.9480083928734746
5122000000.0 -0.5105355471016744 -0.9025536440691588
5125000000.0 -0.508443395385247 -0.9080528941317844
5128000000.0 -0.5345612984152932 -0.8813505003659072
5131000000.0 -0.521379209293326 -0.9000126562449061
5134000000.0 -0.5780338524740134 -0.8494451742262525
5138000000.0 -0.5280516650585806 -0.9267619682845443
5141000000.0 -0.5347197721937325 -0.904493261499018
5144000000.0 -0.5809616293040324 -0.9020602957414394
5147000000.0 -0.5768460743646414 -0.860101934225865
5150000000.0 -0.5237354980826698 -0.9071546788348321
5153000000.0 -0.5535303041553385 -0.8667457872198319
5156000000.0 -0.5950965482043852 -0.8728215488139166
5159000000.0 -0.6176428524068678 -0.9154603967499582
5162000000.0 -0.5815316887857093 -0.8484059545551582
5166000000.0 -0.655078020184209 -0.8715748024977154
5169000000.0 -0.6079304333635115 -0.8395051248523487
5172000000.0 -0.6274298097281618 -0.8180322055868724
5175000000.0 -0.6314437955746198 -0.8942754156561469
5178000000.0 -0.609560284260958 -0.8124738327730978
5181000000.0 -0.6218825539528737 -0.870133182854908
5184000000.0 -0.6657841408187232 -0.796991334764771
5188000000.0 -0.6522632843685267 -0.8191685843839315
