! Created with skrf 1.8.0 (http://scikit-rf.org).
# Hz S RI R 50.0 
!freq ReS11 ImS11
4000000000.0 0.822002162687625 0.5509395305038052
4003000000.0 0.9005692520872604 0.5803464364595929
4006000000.0 0.8726425420658243 0.5411569684787702
4009000000.0 0.8785205738063437 0.5480839828514423
4012000000.0 0.8862829052772068 0.6017964939218259
4016000000.0 0.9349990246208989 0.5049381072186723
4019000000.0 0.9056855614832486 0.5193797451604516
4022000000.0 0.9272536253445863 0.5418681259160852
4025000000.0 0.9439913459218388 0.4709755254799336
4028000000.0 0.9116968855196258 0.4657376112614861
4031000000.0 0.8849694022169157 0.47268911422932136
4034000000.0 0.8748508922427861 0.46964798720204914
4038000000.0 0.9689220254947203 0.45754873395613505
4041000000.0 0.9050719937680517 0.42996472805631203
4044000000.0 0.9504186974436057 0.4632708074223787
4047000000.0 1.0056832866680638 0.4489604551247832
4050000000.0 0.959579959475762 0.4519668696932504
4053000000.0 0.9301138456848945 0.3838854068909407
4056000000.0 0.9798495705610671 0.38062070627439726
4059000000.0 0.9621349985750351 0.4043974843890969
4062000000.0 0.9394108945941854 0.3734775373591987
4066000000.0 0.8863362108694715 0.3287570723514177
4069000000.0 0.9963693903120365 0.34783246968598636
4072000000.0 0.9463692379713383 0.3651344191842529
4075000000.0 0.9642365855565885 0.3689513648179284
4078000000.0 0.9740557366438357 0.352894878770476
4081000000.0 0.9970657403508858 0.34528083645329355
4084000000.0 0.9945189294035833 0.29372171387877694
4088000000.0 0.9851295967483068 0.3328700495361524
4091000000.0 1.0225241570680192 0.3107945556911747
4094000000.0 0.9591902470001153 0.2877687303695733
4097000000.0 1.0003682670790481 0.26148375437626065
4100000000.0 0.9721411100281746 0.23247188521971635
4103000000.0 1.0010897187723078 0.30709815244391664
4106000000.0 1.0035886413665869 0.22271909969219716
4109000000.0 0.9940531623088711 0.22106572078663317
4112000000.0 0.9883411439206844 0.23376953117171545
4116000000.0 1.0283597179569077 0.23381965991179365
4119000000.0 0.9894425149373477 0.18744649918044598
4122000000.0 1.0251916247720199 0.1892485182405622
4125000000.0 1.0143220175379861 0.18135833569642895
4128000000.0 0.9730276169788064 0.1626619614265079
4131000000.0 1.0113450863603874 0.15772102878870842
4134000000.0 0.9987362773542151 0.16310145506211216
4138000000.0 0.9905434675841158 0.12416322503085825
4141000000.0 1.0105096271648817 0.1273788050925257
4144000000.0 1.023652406665662 0.1176407406822223
4147000000.0 1.0200074793367357 0.10297503690490878
4150000000.0 1.0464586544556624 0.0771517893607434
4153000000.0 0.9969608624179426 0.10236288726457382
4156000000.0 1.0286798832302722 0.11296527031224424
4159000000.0 0.993878653060861 0.07355839496169486
4162000000.0 1.0111137477303307 0.04828592485135713
4166000000.0 1.044293718818616 0.03940659468405655
4169000000.0 0.9857631395772125 0.043453081400017246
4172000000.0 1.0177909966701315 0.013772183639270852
4175000000.0 1.0575307098836206 0.016384957781336973
4178000000.0 1.0351431835490952 0.006990909027479952
4181000000.0 1.0085194312339172 -0.028042511919038393
4184000000.0 0.9980060113806841 -0.011928980924647836
4188000000.0 1.0004476386031311 -0.04979877198704585
4191000000.0 1.0197657576533137 -0.02358926662082189
4194000000.0 1.0182086037847602 -0.06643823230012971
4197000000.0 1.030930057708249 -0.055639236977689605
4200000000.0 1.0178131240103208 -0.04781260732308626
4203000000.0 1.03394162599401 -0.07669681962249172
4206000000.0 1.0232939621974162 -0.08754178885424227
4209000000.0 0.9901092307375416 -0.10380131505800069
4212000000.0 1.0034045532515177 -0.14664649937600827
4216000000.0 1.02346242096728 -0.10748328596156176
4219000000.0 1.0199431047876024 -0.1271483771243549
4222000000.0 0.9995619844392121 -0.1628486689638689
4225000000.0 0.9999722844248029 -0.1556427770444386
4228000000.0 1.0071396455074908 -0.16459782603852838
4231000000.0 1.002575987362405 -0.1944428709167459
4234000000.0 1.0107706000942602 -0.2171255434185252
4238000000.0 0.9801457970387742 -0.2359495646150543
4241000000.0 0.9632193652524523 -0.23553622824634968
4244000000.0 0.9788795480837892 -0.22792474532093027
4247000000.0 0.977205116926846 -0.2462277914522405
4250000000.0 0.9502812378426846 -0.26852995713757644
4253000000.0 0.9415951476562827 -0.2714922156379318
4256000000.0 1.0250183817506602 -0.2827536892876269
4259000000.0 0.9479348093339048 -0.29946539975351966
4262000000.0 0.9479793624495825 -0.3296618290548436
4266000000.0 0.9596323947081041 -0.34381063017106983
4269000000.0 0.9456712306088317 -0.321217802029996
4272000000.0 0.9486949134037928 -0.31070845766639565
4275000000.0 0.9422673399285195 -0.3584355828875183
4278000000.0 0.9622780492338319 -0.36627209786113396
4281000000.0 0.9610906627896403 -0.3492260623739636
4284000000.0 0.9307318831845885 -0.4256133442175146
4288000000.0 0.9490557629160462 -0.362094511567665
4291000000.0 0.8782694071964215 -0.39507487284766
4294000000.0 0.9315991604761497 -0.4230757979054993
4297000000.0 0.9107649595946293 -0.3851355220251832
4300000000.0 0.9014204573223201 -0.42440459893664323
4303000000.0 0.8747789979272009 -0.4513830269405357
4306000000.0 0.9095929284049544 -0.4232837196170288
4309000000.0 0.8762415249271679 -0.45848213719146935
4312000000.0 0.9140472225681753 -0.45186760333344855
4316000000.0 0.8877202664032686 -0.47682094540736986
4319000000.0 0.8461274477965897 -0.4759539488257616
4322000000.0 0.8464070044733687 -0.5393415402021787
4325000000.0 0.8697896717391961 -0.5311333732397672
4328000000.0 0.8602872987663912 -0.5322379105837647
4331000000.0 0.8545999064206202 -0.5608444957845642
4334000000.0 0.8300171231730873 -0.5739959120996379
4338000000.0 0.8330650558432007 -0.5542467639758374
4341000000.0 0.8617142905061762 -0.5589096672189519
4344000000.0 0.8611120834153182 -0.5909939832859503
4347000000.0 0.823040133692335 -0.6177182223910715
4350000000.0 0.7915343338219896 -0.5922833340399566
4353000000.0 0.7983148372953368 -0.5857733246207448
4356000000.0 0.770026423129898 -0.6326329008254385
4359000000.0 0.7437816924236398 -0.6049296350919141
4362000000.0 0.7549234123300943 -0.6903734799494365
4366000000.0 0.7887167923947873 -0.6744861396659187
4369000000.0 0.7307094239946863 -0.6484997914131724
4372000000.0 0.7236773378173613 -0.6817623037617616
4375000000.0 0.7443369215929918 -0.6529909218035101
4378000000.0 0.7112004650072269 -0.6830622487506601
4381000000.0 0.7137635901790902 -0.6888309776710699
4384000000.0 0.752967808331283 -0.747578716279022
4388000000.0 0.7039821604316595 -0.7188560957647581
4391000000.0 0.7098970776581792 -0.7389719469163912
4394000000.0 0.6723900204913561 -0.7313767697312707
4397000000.0 0.6732569650372227 -0.7529048314984657
4400000000.0 0.6590893136878233 -0.7828018050891298
4403000000.0 0.6558255677282465 -0.780218640106149
4406000000.0 0.6467487170830087 -0.7830648679585086
4409000000.0 0.6512205357482909 -0.8050482937242229
4412000000.0 0.5873149179809135 -0.8136447202672823
4416000000.0 0.6079738973018725 -0.7947590168198456
4419000000.0 0.5975312801569984 -0.8174559444397349
4422000000.0 0.618704438372976 -0.8134570420499163
4425000000.0 0.5840900559755311 -0.821967019363598
4428000000.0 0.5749397631592787 -0.8403035024057697
4431000000.0 0.5703824025890966 -0.844055629265957
4434000000.0 0.5336581902546773 -0.8477750771904882
4438000000.0 0.5372079995974616 -0.8696573285335869
4441000000.0 0.5243932330684964 -0.8838815466744745
4444000000.0 0.4884628135505166 -0.8640771944961797
4447000000.0 0.48871258919585103 -0.8931449655127587
4450000000.0 0.4744234457835615 -0.9017868791426437
4453000000.0 0.47585092890401437 -0.8894362533714218
4456000000.0 0.44858578925115733 -0.9013594470835371
4459000000.0 0.44355626483319305 -0.9077306473409956
4462000000.0 0.4458935713785585 -0.9419047153704844
4466000000.0 0.4509893962195892 -0.9491104159227542
4469000000.0 0.4271552687071303 -0.9336168776958929
4472000000.0 0.38711383521558795 -0.929360765847023
4475000000.0 0.3644337543791367 -0.935901418215226
4478000000.0 0.35714094346981595 -0.9365094293255235
4481000000.0 0.3481529552067199 -0.9312350408840997
4484000000.0 0.32313644168208217 -0.9818157387617192
4488000000.0 0.3298836351180646 -0.9706916383910151
4491000000.0 0.3252414878802297 -0.9730438584635088
4494000000.0 0.2976152170156003 -0.9588188827888242
4497000000.0 0.30043183303287657 -0.9634083584843072
4500000000.0 0.2543709197409955 -1.000518602711661
4503000000.0 0.2505182371823122 -1.003269695035355
4506000000.0 0.23735367899298232 -0.9869026269985182
4509000000.0 0.20072232764474104 -0.9667436572459888
4512000000.0 0.23118280406013825 -0.9737848190796091
4516000000.0 0.1854744824789169 -1.021550732355082
4519000000.0 0.16715206888146011 -1.0037984250729313
4522000000.0 0.17888967734357392 -1.002931032379534
4525000000.0 0.15632912917494213 -1.0239280026469255
4528000000.0 0.14398584675470485 -1.016297800121725
4531000000.0 0.12271299968053892 -1.0141022139138811
4534000000.0 0.08909576537043398 -1.022099558372461
4538000000.0 0.08262545116900474 -1.0168144728048278
4541000000.0 0.05347880233921112 -0.9954370879793254
4544000000.0 0.05060109124489959 -1.0138933132113244
4547000000.0 0.03151587089746605 -1.0162505663874417
4550000000.0 0.014179262040786456 -1.039630860724527
4553000000.0 -0.002836731278275134 -0.9940217068209801
4556000000.0 -0.008850099767459374 -1.0310541052646855
4559000000.0 -0.019240638964883983 -1.0099471606140007
4562000000.0 -0.0481145273273581 -1.0252107378354192
4566000000.0 -0.05173154254786824 -1.0282762254607591
4569000000.0 -0.10666737488624553 -1.0384803227917063
4572000000.0 -0.11447674454418752 -1.0257504713194683
4575000000.0 -0.11671890588930678 -0.9996416423754735
4578000000.0 -0.13788818708299244 -1.0168494100548613
4581000000.0 -0.13048563806028105 -0.9971627169047954
4584000000.0 -0.17719744590204828 -1.0146769082413116
4588000000.0 -0.19912149452220024 -1.0132982727028335
4591000000.0 -0.20643036375525275 -1.009574745884057
4594000000.0 -0.2527718674084045 -1.0055084611173537
4597000000.0 -0.23760251491600531 -0.9901991301861233
4600000000.0 -0.25573551119339744 -1.0218338863154015
4603000000.0 -0.2917011796188329 -0.9686425985057749
4606000000.0 -0.30150623987079217 -1.043514558950631
4609000000.0 -0.2780747517297685 -0.9801835083647117
4612000000.0 -0.3223793831323666 -0.9327444668990025
4616000000.0 -0.3420339992774262 -0.9526456713246934
4619000000.0 -0.3722842455811469 -0.950967145382153
4622000000.0 -0.43551470314180873 -0.953384216160416
4625000000.0 -0.4331147924344432 -0.9613825365703585
4628000000.0 -0.4983830779336908 -1.0248104830191986
4631000000.0 -0.4389937591716474 -0.9769525991082395
4634000000.0 -0.4958586654631798 -0.9397881731881372
4638000000.0 -0.4720077596666148 -0.92507633853807
4641000000.0 -0.51275159188436 -0.8799650948390201
4644000000.0 -0.507189055762941 -0.8804223075521558
4647000000.0 -0.48315550694007503 -0.8932416219211614
4650000000.0 -0.4986078561254744 -0.8653349746784127
4653000000.0 -0.5333413135005499 -0.8612561574379345
4656000000.0 -0.5731653983416805 -0.8664886679700707
4659000000.0 -0.6034565024778964 -0.8468524544328007
4662000000.0 -0.6011501358804672 -0.8192756323053287
4666000000.0 -0.6590693515898981 -0.8032275813970087
4669000000.0 -0.6677457254579744 -0.8211137366588097
4672000000.0 -0.6900457912623663 -0.8674547417427502
4675000000.0 -0.6985987592182739 -0.8173094197998069
4678000000.0 -0.6785771215618288 -0.7533909437986512
4681000000.0 -0.7123819534885009 -0.769929916559862
4684000000.0 -0.8079326613166532 -0.7123168269168181
4688000000.0 -0.7663021748207228 -0.7177238582819104
4691000000.0 -0.7680335144221947 -0.7649196962337985
4694000000.0 -0.6886493361819728 -0.7075366555575737
4697000000.0 -0.7932402475262086 -0.6212588993483699
4700000000.0 -0.771340035931892 -0.6255191003129359
4703000000.0 -0.6733436867717622 -0.6627265715593826
4706000000.0 -0.8397186821971014 -0.6128785363656694
4709000000.0 -0.7943455789836732 -0.6142036505206319
4712000000.0 -0.8366658612682725 -0.6212539590490669
4716000000.0 -0.876696292034308 -0.6037493551898876
4719000000.0 -0.8164982262841487 -0.641439881832989
4722000000.0 -0.8711812035013538 -0.6136991658578521
4725000000.0 -0.8519039683237526 -0.5236423084725977
4728000000.0 -0.943929557939746 -0.46111518475573565
4731000000.0 -1.0045449315719226 -0.5373365744285158
4734000000.0 -0.9176303060561467 -0.4965521363830305
4738000000.0 -0.9573424630571827 -0.5309704410299478
4741000000.0 -0.9828627567897468 -0.41850252154814904
4744000000.0 -0.9724470530250524 -0.4235834706957947
4747000000.0 -0.9154215931316773 -0.42621074702961215
4750000000.0 -0.9769496806325249 -0.3997375930970222
4753000000.0 -0.9627179352232837 -0.37135945040828144
4756000000.0 -1.0217064139630925 -0.3262746233506533
4759000000.0 -1.0316213820184748 -0.32257079549190115
4762000000.0 -1.0379994282439808 -0.24496500336430238
4766000000.0 -1.0059447398245185 -0.23108426653703185
4769000000.0 -1.0273027408653486 -0.16897528238829573
4772000000.0 -1.0303412058025567 -0.22770600495417814
4775000000.0 -1.0720661481565346 -0.15706058241946824
4778000000.0 -1.0471638724600112 -0.09508215278541221
4781000000.0 -1.086372385660746 -0.11059673909053466
4784000000.0 -1.0579385721632844 -0.08767725447970022
4788000000.0 -1.0501575480810885 -0.011047506752982453
4791000000.0 -1.048386804562869 -0.05774036087466307
4794000000.0 -1.0542802712464554 -0.017602656720971194
4797000000.0 -1.0448031946013847 0.007143176456825787
4800000000.0 -1.0233185004359318 0.06789813958723886
4803000000.0 -1.0123597213172373 0.1027850127116303
4806000000.0 -1.0475668623538494 0.1204902714334
4809000000.0 -1.0599110306012087 0.1968304016717795
4812000000.0 -1.028712467539828 0.17352182684312287
4816000000.0 -0.9899595673770463 0.17438989617678874
4819000000.0 -1.0160493932640344 0.24306693217482683
4822000000.0 -1.0492473145743393 0.23382650916732406
4825000000.0 -1.0036267536918768 0.2843485087514293
4828000000.0 -1.0014036025053925 0.3206194634047349
4831000000.0 -0.9792834300373868 0.30140780695393266
4834000000.0 -0.9637048260049306 0.3641590022721634
4838000000.0 -0.9559352666999886 0.4397487537429705
4841000000.0 -0.9211953276459943 0.43763507356277753
4844000000.0 -0.9431256703156443 0.4372771606524176
4847000000.0 -0.9418622393106271 0.4965260045295149
4850000000.0 -0.9120515766159503 0.5199064355078777
4853000000.0 -0.8696986418694506 0.580671260775375
4856000000.0 -0.8575687053194225 0.5711663780163696
4859000000.0 -0.8181070075317102 0.6417634052667225
4862000000.0 -0.8650688446169615 0.6527900033854533
4866000000.0 -0.8117333072316187 0.6375223164569657
4869000000.0 -0.8289637710079051 0.6278958685153169
4872000000.0 -0.7618258567614257 0.6505724235174313
4875000000.0 -0.728117647299722 0.7269422832095159
4878000000.0 -0.7118382174951565 0.7377394643347203
4881000000.0 -0.6595568601193953 0.7212177095282918
4884000000.0 -0.6549293199272991 0.7636601195262711
4888000000.0 -0.6263283505378349 0.8177461871059449
4891000000.0 -0.5213290591942289 0.7929731356147371
4894000000.0 -0.5601349556564602 0.8294081897059112
4897000000.0 -0.5271180341387381 0.8749129604333444
4900000000.0 -0.5323808585024271 0.9163590667274428
4903000000.0 -0.4142137613725976 0.9119831983728329
4906000000.0 -0.4514428348739941 0.9371985293374488
4909000000.0 -0.41335788663213757 0.8901721535932047
4912000000.0 -0.3337026945519108 0.9030931655032399
4916000000.0 -0.2833609266908573 0.9754605562203136
4919000000.0 -0.281940243003612 0.938241186803577
4922000000.0 -0.2681226038878788 0.976124383140744
4925000000.0 -0.2367236300200026 0.9384014265225267
4928000000.0 -0.16471012754693687 1.0417663820666976
4931000000.0 -0.15505259646685854 0.9966597315810002
4934000000.0 -0.16067443650073204 1.0356010398875317
4938000000.0 -0.09791550753779595 1.0392716381387865
4941000000.0 -0.013796884587723837 1.0036066007212419
4944000000.0 -0.002356571512668229 1.10568001103587
4947000000.0 -0.0059962734817747 1.0599266977675712
4950000000.0 0.041676621203932285 1.0458642965697256
4953000000.0 0.05771915239977324 0.9546760433200875
4956000000.0 0.0795251353906271 1.0280397022705972
4959000000.0 0.12368555754448057 1.0412368341557825
4962000000.0 0.2089394898949774 0.9626163339303836
4966000000.0 0.23024977378585904 0.9439058976990212
4969000000.0 0.26450801006062663 0.9237106890437002
4972000000.0 0.3001759879718255 0.9494201197873116
4975000000.0 0.3768066245286105 0.9565275119864315
4978000000.0 0.3492590014908351 0.944499017543188
4981000000.0 0.3771051789987687 0.9150553756052965
4984000000.0 0.4707540695602437 0.9468218227491358
4988000000.0 0.4733231267271131 0.8952122115328384
4991000000.0 0.5446702902693066 0.8768081196644486
4994000000.0 0.5293425332056274 0.8432747965660908
4997000000.0 0.5259074896678559 0.8533492114990724
5000000000.0 0.5913687885584937 0.7826997180499877
5003000000.0 0.5868758581529889 0.7691980420884894
5006000000.0 0.6099427376578532 0.7213678396597759
5009000000.0 0.6556666224099272 0.7428916855362385
5012000000.0 0.70888156897208 0.746852970797627
5016000000.0 0.7004193073287971 0.6949115870782002
5019000000.0 0.7260832810488157 0.6926340197742469
5022000000.0 0.7610046396194017 0.6636616891655913
5025000000.0 0.7645451592530754 0.6259772255924173
5028000000.0 0.8029039044681522 0.6215561563015465
5031000000.0 0.8318542078480852 0.5621185188221769
5034000000.0 0.8278235703320729 0.592037289893512
5038000000.0 0.8494728701377358 0.5377887870454989
5041000000.0 0.8484389276536539 0.4976830699613489
5044000000.0 0.8533440267010381 0.4655574525798389
5047000000.0 0.9077311387450973 0.4403472809395895
5050000000.0 0.9336876722762383 0.4420191721285951
5053000000.0 0.918885506725449 0.3427779630977691
5056000000.0 0.919070029512369 0.3808894900911879
5059000000.0 0.9772208359918024 0.345510611828332
5062000000.0 0.9617099800445877 0.3091853688753048
5066000000.0 0.9444841822818264 0.30153233607771196
5069000000.0 0.9856028004759708 0.263871182581221
5072000000.0 0.9910913194239813 0.2548598182597943
5075000000.0 0.9864034082703227 0.20505934977160373
5078000000.0 1.014791426563708 0.18125057842476047
5081000000.0 0.97691279104452 0.13277179817804402
5084000000.0 1.0281950544580485 0.11750901252441415
5088000000.0 0.9816777247820191 0.07290980677881413
5091000000.0 1.0200248759708261 0.05372677730427931
5094000000.0 1.0083477671395225 0.035662405146433346
5097000000.0 1.0448299251289075 -0.000761716445827787
5100000000.0 0.9882422571454271 0.010632914977262264
5103000000.0 1.0192700683569924 -0.04736380383187941
5106000000.0 1.0381304797375492 -0.06216731367576539
5109000000.0 1.0265309983282607 -0.07037361521899221
5112000000.0 1.002307576442583 -0.11672965053509138
5116000000.0 0.9470544886925323 -0.12433370926580764
5119000000.0 1.0075790549869152 -0.14765545790206908
5122000000.0 0.9953780407092722 -0.16534928986858005
5125000000.0 0.9578878516428287 -0.24143651475439482
5128000000.0 0.9895544476194159 -0.24301934127692687
5131000000.0 0.9399557877811603 -0.2772405775721102
5134000000.0 1.0001875265827724 -0.29234425967967326
5138000000.0 0.9443660323132164 -0.3402887381244452
5141000000.0 1.0004737866226927 -0.3130963232829082
5144000000.0 0.991162863713117 -0.34250891335175765
5147000000.0 0.9435517914843657 -0.3534141907887987
5150000000.0 0.9386327719812636 -0.34357874414370937
5153000000.0 0.9083785246559479 -0.414711335368151
5156000000.0 0.9491014282234833 -0.45417376497549705
5159000000.0 0.9145076136820771 -0.46802716383904186
5162000000.0 0.8722567486431847 -0.4541555072360294
5166000000.0 0.9385335113779885 -0.5859385509053089
5169000000.0 0.8834570056699369 -0.553873018099194
5172000000.0 0.7904789714341889 -0.5159154383890837
5175000000.0 0.8810970934373327 -0.5646835449528861
5178000000.0 0.7902248952465436 -0.5974920319827595
5181000000.0 0.8726453955915449 -0.5560137837698692
5184000000.0 0.8176558740466106 -0.6569467911175793
5188000000.0 0.7862762869903062 -0.5779149444880178
