! Created with skrf 1.8.0 (http://scikit-rf.org).
# Hz S RI R 50.0 
!freq ReS11 ImS11
4000000000.0 0.6669456149185526 0.7470081513786546
4003000000.0 0.7137119408423502 0.8215755019008218
4006000000.0 0.74010466583762 0.7667736383134992
4009000000.0 0.6762741978947128 0.7638096608828594
4012000000.0 0.661927278475063 0.8136523267285869
4016000000.0 0.7243630100715196 0.7861949451969967
4019000000.0 0.7458679704745879 0.7383398335262881
4022000000.0 0.6597557782227046 0.8067013308205687
4025000000.0 0.7686056061042347 0.7066169791015497
4028000000.0 0.7121193454160007 0.7487613979107997
4031000000.0 0.6769805682684825 0.6780034264282857
4034000000.0 0.7504584444947244 0.6929750952752801
4038000000.0 0.7702967940959475 0.7313749042536934
4041000000.0 0.7605860655944742 0.7256570063705237
4044000000.0 0.8124365556272952 0.7472605867742907
4047000000.0 0.7743933321548787 0.7756212226979585
4050000000.0 0.826110915754231 0.6841380364289943
4053000000.0 0.772567860503419 0.6668352142427589
4056000000.0 0.7663348048523625 0.6763590970957062
4059000000.0 0.7513619152338158 0.6448939828445961
4062000000.0 0.8077902511019301 0.6573700543049672
4066000000.0 0.7536262451968174 0.6241241657907242
4069000000.0 0.8539087314562827 0.6440397298351555
4072000000.0 0.7763096259712485 0.7008475727715777
4075000000.0 0.8183039516340959 0.6860799110639464
4078000000.0 0.8355871635777575 0.6089328966570124
4081000000.0 0.8266959116401181 0.6976513354127873
4084000000.0 0.863194496891577 0.608594654798986
4088000000.0 0.8113116933698439 0.6889053673773374
4091000000.0 0.8785714871701317 0.654604412584421
4094000000.0 0.8393594876789964 0.6322242370343556
4097000000.0 0.8646030641579943 0.6140234063958601
4100000000.0 0.8961789014292584 0.6064841667740348
4103000000.0 0.8492756307983791 0.6001191270921273
4106000000.0 0.8745271566416842 0.5566733703994857
4109000000.0 0.8866982333619013 0.5320247395436939
4112000000.0 0.8824092391416622 0.5710404700019345
4116000000.0 0.8394537776124452 0.6013003305546818
4119000000.0 0.8750171881175982 0.5576988597573972
4122000000.0 0.8956743036658803 0.5322068911888858
4125000000.0 0.939885557803639 0.5222716089766155
4128000000.0 0.8547161540241189 0.5263281844332137
4131000000.0 0.8707938678665664 0.46323915315855235
4134000000.0 0.8854538965209741 0.5341619747421231
4138000000.0 0.8997868282194266 0.43868158949619956
4141000000.0 0.9039800040792916 0.4448818043746794
4144000000.0 0.9114318388542698 0.5251804193397518
4147000000.0 0.9331917397151257 0.43631173573569887
4150000000.0 0.9184909248676949 0.504824322424779
4153000000.0 0.8999653782522842 0.4509446517280785
4156000000.0 0.962479540160039 0.4876196925187495
4159000000.0 0.9057663285474462 0.42712338959844226
4162000000.0 0.8932760106546265 0.44367649887273386
4166000000.0 0.9579577140893252 0.4326822654562764
4169000000.0 0.9646644780727258 0.38362328694074677
4172000000.0 0.9566181098468218 0.42725382259525885
4175000000.0 0.9422546926781726 0.42392389285188775
4178000000.0 0.9682964308213994 0.40801047446772554
4181000000.0 0.9538192103474243 0.38897747717503195
4184000000.0 0.9736232437325565 0.39005556321680174
4188000000.0 0.9384363577909294 0.3847331272627659
4191000000.0 0.9291050792653744 0.4217055386080831
4194000000.0 0.9479443431874931 0.3451035665957102
4197000000.0 0.9721107143300368 0.3799438725084279
4200000000.0 0.9419807772737863 0.363649098465318
4203000000.0 0.9715207833205202 0.3564585215584568
4206000000.0 0.9893149603303601 0.3366166884279013
4209000000.0 0.9543907958082006 0.3411984785584194
4212000000.0 0.9731848614738705 0.2935753916658276
4216000000.0 0.9829361359322102 0.3332063538426638
4219000000.0 0.9894414504155694 0.2899485997734278
4222000000.0 1.003009437773919 0.28418625708791473
4225000000.0 0.9666354501606667 0.2714108448903767
4228000000.0 0.9850578358065443 0.2811103502761845
4231000000.0 0.9867106724359898 0.259965605922655
4234000000.0 1.0030665497174294 0.24653736926523812
4238000000.0 0.999569923174596 0.2329926681367012
4241000000.0 0.9827072972846962 0.21885659254539025
4244000000.0 1.00001710369846 0.22828025624359838
4247000000.0 0.9883158898468115 0.24553798361650786
4250000000.0 0.9773605093321414 0.19332753187977852
4253000000.0 0.9844175799754222 0.19756876384407263
4256000000.0 1.0323809675250961 0.1932802967389659
4259000000.0 0.976833570138868 0.1724505830372363
4262000000.0 0.9940785601489108 0.15441640875239063
4266000000.0 0.9997325424053531 0.14815854843356235
4269000000.0 1.0075038292365104 0.18581816867050274
4272000000.0 1.0123384514344835 0.15348914902475738
4275000000.0 1.0113149491071092 0.149023944232542
4278000000.0 1.036782085904274 0.15280556128394873
4281000000.0 1.012584102984579 0.13793760315837833
4284000000.0 1.002689856361446 0.10246368621873717
4288000000.0 1.0028845440821192 0.12767259213408294
4291000000.0 1.0048697178918662 0.09953838257723562
4294000000.0 1.0300036671794999 0.06595135661494379
4297000000.0 0.9819209999847377 0.08699600872269754
4300000000.0 1.000290674368415 0.07122840632759408
4303000000.0 1.0163065545874421 0.05545308893204083
4306000000.0 1.0159781831446277 0.07411842118099501
4309000000.0 1.0051442114298381 0.05413366466480772
4312000000.0 1.0546105138609674 0.08892662790595832
4316000000.0 1.0328215458083339 0.04110828268543597
4319000000.0 1.0069111367802683 0.05015044016920732
4322000000.0 0.9860853438859404 0.007623467315079055
4325000000.0 1.0093101708451802 0.021325108099479254
4328000000.0 1.0153351802384056 -0.005936708566438215
4331000000.0 1.0035273481644909 -0.018506785722471844
4334000000.0 1.0018360931614216 -0.0358085031468095
4338000000.0 1.010914385943404 -0.03299818778630846
4341000000.0 1.0317085932829373 -0.000694172936238302
4344000000.0 1.0382109179626262 -0.019967575179675734
4347000000.0 1.043403174835714 -0.08478007870671093
4350000000.0 0.9625716118235178 -0.08236405408587048
4353000000.0 1.0005663445336643 -0.03725138131893711
4356000000.0 1.0228343707272496 -0.1114683767389693
4359000000.0 0.9573669618194334 -0.08710925080903689
4362000000.0 0.9969393338090222 -0.1387122674298527
4366000000.0 1.010796975256482 -0.11751123419333924
4369000000.0 0.9679297410675829 -0.13044776008748338
4372000000.0 0.9904199622190655 -0.1541338083697115
4375000000.0 0.9814707136212442 -0.1175938069353123
4378000000.0 0.986444038405716 -0.14008214267371266
4381000000.0 0.9928465560405024 -0.1471199752893348
4384000000.0 1.0665520005407485 -0.16203958852903438
4388000000.0 0.9760640574657743 -0.14500981265828417
4391000000.0 1.0043897806411484 -0.1669554821532825
4394000000.0 0.970989102326384 -0.19114556903843083
4397000000.0 0.9767382239625262 -0.20874643177939148
4400000000.0 1.021003255909068 -0.22215112707341636
4403000000.0 1.0026910385618049 -0.22400754305706969
4406000000.0 0.9819893358075179 -0.24116601518249176
4409000000.0 1.0083096358885286 -0.23421601910936857
4412000000.0 0.9646344335300941 -0.2743816538715734
4416000000.0 0.9601364522836682 -0.2602568949783791
4419000000.0 0.9754189890475686 -0.27528607224220597
4422000000.0 0.9795563427928469 -0.2456548063845521
4425000000.0 1.0039860799487934 -0.2524319558702944
4428000000.0 0.9829865914470469 -0.29629576827168874
4431000000.0 0.9875737828439588 -0.28351238348549934
4434000000.0 0.9503180726768655 -0.3134443717105214
4438000000.0 0.9896962895269921 -0.3107315253272687
4441000000.0 0.9797547543548326 -0.32675257224425747
4444000000.0 0.9500138174132637 -0.325199618449719
4447000000.0 0.9396443544702421 -0.3511709618443829
4450000000.0 0.9449163730483463 -0.33264331882096354
4453000000.0 0.9663006347126505 -0.35355106660351554
4456000000.0 0.9323622727843083 -0.3722500189507246
4459000000.0 0.887190801882854 -0.3682765784882502
4462000000.0 0.9737681787210861 -0.3819176340793662
4466000000.0 0.9582891586692109 -0.42550252217638274
4469000000.0 0.9480816777237167 -0.3894159740766728
4472000000.0 0.9393150751532217 -0.42877469086188147
4475000000.0 0.8960331019427105 -0.39727461740900283
4478000000.0 0.9296875476946015 -0.4478429348633377
4481000000.0 0.887226791750229 -0.4351072527319287
4484000000.0 0.8935723667995941 -0.47927569400447023
4488000000.0 0.897040154298002 -0.4335603515518386
4491000000.0 0.8991096422993884 -0.46129177788214426
4494000000.0 0.9034316620990217 -0.44571621376284587
4497000000.0 0.902676786167796 -0.4508635805884701
4500000000.0 0.8956812294872891 -0.4731387409802391
4503000000.0 0.918962121788905 -0.4882596790137336
4506000000.0 0.8725691492449168 -0.5094317557924093
4509000000.0 0.8542728284925019 -0.5036572710354115
4512000000.0 0.834881290170938 -0.5071939266059515
4516000000.0 0.8697944737947195 -0.5295510398721444
4519000000.0 0.8583515466647617 -0.49225493814477495
4522000000.0 0.8571771370512133 -0.5469718020698333
4525000000.0 0.8730310513676129 -0.5091301652024773
4528000000.0 0.86510745473411 -0.5796352780801587
4531000000.0 0.8390764712741942 -0.5461729400264426
4534000000.0 0.8298627056489142 -0.5446477361395432
4538000000.0 0.8255069636438821 -0.561507526356574
4541000000.0 0.7982172409542049 -0.5999123128459549
4544000000.0 0.8157999468757917 -0.5731597768663215
4547000000.0 0.8192872000667719 -0.5776452567141555
4550000000.0 0.8080334935227738 -0.6151333941126365
4553000000.0 0.7856814389614388 -0.6103094676418656
4556000000.0 0.7631926472340913 -0.6128706922796382
4559000000.0 0.8132671052646231 -0.634719510826371
4562000000.0 0.8216667593276548 -0.6290695828933548
4566000000.0 0.807083303163727 -0.6472432180424539
4569000000.0 0.7632902714618132 -0.6456741863345892
4572000000.0 0.7665907717295433 -0.6505481776953729
4575000000.0 0.7633614628874219 -0.6748305286976155
4578000000.0 0.7758240332280075 -0.6737604134531829
4581000000.0 0.7539039802648255 -0.6739140288245946
4584000000.0 0.7494504597765731 -0.6838059025281445
4588000000.0 0.7711122553273656 -0.6893271498267967
4591000000.0 0.7441427268016734 -0.6864732413063348
4594000000.0 0.7087779984832513 -0.7071380319998644
4597000000.0 0.7291371960263295 -0.7102776237630998
4600000000.0 0.6825763544983372 -0.7198440584438622
4603000000.0 0.7061558612528945 -0.7229109756017074
4606000000.0 0.7285912020860144 -0.7199738820950996
4609000000.0 0.7038686413174238 -0.7168436685897949
4612000000.0 0.7022230867713304 -0.752234731706946
4616000000.0 0.6708552392774692 -0.7270413587682999
4619000000.0 0.6810211988940111 -0.7477365000160757
4622000000.0 0.669053612604884 -0.7576672395832649
4625000000.0 0.6376669296404401 -0.7594130580361602
4628000000.0 0.6646346182290869 -0.755045619700649
4631000000.0 0.6366633967434587 -0.7868750777590369
4634000000.0 0.6597372445340126 -0.7903631644814467
4638000000.0 0.6517359359659424 -0.7823767346017996
4641000000.0 0.6349384029584175 -0.7828414107971207
4644000000.0 0.6353302078299002 -0.7813162335093713
4647000000.0 0.627351102399816 -0.8105907524280064
4650000000.0 0.6077050905712368 -0.8012144948529475
4653000000.0 0.6199264159360833 -0.8221017789180237
4656000000.0 0.590420395740282 -0.8212178677342972
4659000000.0 0.5834715076387927 -0.8291852715658832
4662000000.0 0.5820526450632122 -0.8447176672337414
4666000000.0 0.5681781955400416 -0.8549133732190135
4669000000.0 0.583999603009657 -0.8281534227048839
4672000000.0 0.5507897849842919 -0.8683263282072768
4675000000.0 0.5332517628381788 -0.8720168768933498
4678000000.0 0.5438263372032759 -0.8420943239903065
4681000000.0 0.5148688470061882 -0.89781910984455
4684000000.0 0.5210321302788725 -0.8891154695929743
4688000000.0 0.4979621119796181 -0.882987522705098
4691000000.0 0.5131740636580903 -0.8609778641159476
4694000000.0 0.511513032574632 -0.8607793659027896
4697000000.0 0.44595080780345353 -0.8741952992324853
4700000000.0 0.49320751464200996 -0.897806550892986
4703000000.0 0.48489440607913403 -0.844233430088942
4706000000.0 0.43824104394650637 -0.8952582219591121
4709000000.0 0.44396084852413703 -0.9032647907932839
4712000000.0 0.4643605148124167 -0.8903642318676125
4716000000.0 0.4609301763506588 -0.9292572126010801
4719000000.0 0.4747282340868738 -0.8975615291402719
4722000000.0 0.44853415326595836 -0.906239129246708
4725000000.0 0.408558907402389 -0.9067726385379783
4728000000.0 0.42069960159600506 -0.919261929464311
4731000000.0 0.4586074047955147 -0.9435767133085704
4734000000.0 0.444022280817068 -0.9210018544767263
4738000000.0 0.4277192097029417 -0.9709935132051449
4741000000.0 0.39565700517019053 -0.9676593005217955
4744000000.0 0.3406501560306151 -0.9647140257522461
4747000000.0 0.3691595887042569 -0.9143534687561614
4750000000.0 0.3745017073824539 -0.9848537847113247
4753000000.0 0.3739750131797803 -0.964672761009867
4756000000.0 0.3424721237355176 -0.9716458481292825
4759000000.0 0.3885929613331054 -0.954563916841888
4762000000.0 0.3033368997454413 -0.9922918697355555
4766000000.0 0.30368364282816523 -0.9345242930765822
4769000000.0 0.30313519716017556 -0.9903596646697478
4772000000.0 0.3003261526929661 -0.9842042220271842
4775000000.0 0.27540629347018425 -1.0387749163875677
4778000000.0 0.293901764796916 -1.0026500775879599
4781000000.0 0.3174855728360933 -0.9803190750164219
4784000000.0 0.29494819101352776 -0.9887983208932106
4788000000.0 0.23664030574309378 -1.0276337507956472
4791000000.0 0.23484829623643524 -0.9841571284532983
4794000000.0 0.28077532384963716 -0.9949693576656804
4797000000.0 0.24406086589648687 -0.9762450359866598
4800000000.0 0.24772645177733774 -0.9596724297388737
4803000000.0 0.17790758733483694 -1.0015091274968162
4806000000.0 0.23375294188333845 -1.0256596284051334
4809000000.0 0.14900948967669567 -1.0094739683380558
4812000000.0 0.15621821603973943 -0.9980441231253467
4816000000.0 0.19180065914879882 -1.0011353110841021
4819000000.0 0.19477191107919856 -1.0266802598867175
4822000000.0 0.20979131796928696 -1.0435597260608176
4825000000.0 0.18436963234144335 -1.023575153524896
4828000000.0 0.1581399378482337 -1.0263256210693035
4831000000.0 0.10794341292996273 -1.0399418407181533
4834000000.0 0.16959528967881884 -1.0145583719907623
4838000000.0 0.12092823782281646 -1.0404496594637533
4841000000.0 0.11007991831118592 -0.9866956475105927
4844000000.0 0.14741122169702311 -1.0296366948118112
4847000000.0 0.1403414696380921 -0.9875187878399034
4850000000.0 0.0776532397920906 -1.0479230980414282
4853000000.0 0.10342928757901537 -0.9884579139586958
4856000000.0 0.07599287963488705 -1.0216550502111448
4859000000.0 0.05258018973436885 -1.0837934163928447
4862000000.0 0.08783518820482622 -1.0061466045795109
4866000000.0 0.04867875509564461 -1.0440527647314513
4869000000.0 0.03132289772514373 -1.0345336474268858
4872000000.0 0.02272800585380217 -1.053512262222764
4875000000.0 0.08621912002911514 -1.0532109576487343
4878000000.0 0.003139132686988351 -1.0446004535502533
4881000000.0 0.00014110924838263168 -1.095149016413883
4884000000.0 0.03731689793829733 -1.0431516141488757
4888000000.0 0.04777863159028286 -1.032513267613678
4891000000.0 0.029527926739788823 -1.0442785160557606
4894000000.0 -0.05340696380533173 -1.0419862945605296
4897000000.0 -0.0014589928148165156 -1.0063492893416273
4900000000.0 -0.04424098875090077 -1.0576542422201185
4903000000.0 -0.0147304011746614 -1.069157177269829
4906000000.0 -0.042582694909027934 -1.0487443984058695
4909000000.0 -0.046355629107747175 -1.033996886785264
4912000000.0 -0.0755469908959695 -1.0781239917381116
4916000000.0 -0.03190348635481879 -1.0832816851375233
4919000000.0 -0.032952808972637596 -1.049151907377068
4922000000.0 -0.043725364785917625 -1.0432622321942897
4925000000.0 -0.13814709415219 -1.038987511608242
4928000000.0 -0.05833504510207917 -1.0411043888914433
4931000000.0 -0.10151019888196004 -1.073072753867708
4934000000.0 -0.12750226961043437 -0.9962722574755337
4938000000.0 -0.17783634238719198 -1.0226694563615324
4941000000.0 -0.13975768493655238 -1.0393298770989023
4944000000.0 -0.12536979898507983 -0.95137978068825
4947000000.0 -0.1402015965212249 -0.9820712501923522
4950000000.0 -0.17873064726761007 -1.008445725645483
4953000000.0 -0.22680296451972842 -1.0581372632147652
4956000000.0 -0.22916440749740785 -0.992330056928255
4959000000.0 -0.1977686471030721 -0.9729126018022463
4962000000.0 -0.24243029168469862 -1.0555700579200673
4966000000.0 -0.17839635939782944 -1.039825958464696
4969000000.0 -0.23719337908765614 -1.067687196661982
4972000000.0 -0.2652258226837465 -1.015232589732057
4975000000.0 -0.18875383078650518 -0.9992605449130915
4978000000.0 -0.2683386794957635 -0.994241997356185
4981000000.0 -0.30001061007446095 -1.0118509484887783
4984000000.0 -0.25179275085759234 -1.000225947838961
4988000000.0 -0.26491146983661185 -1.0263716028318555
4991000000.0 -0.2154609664083184 -1.0348971539632648
4994000000.0 -0.2851403359625262 -0.987488267754006
4997000000.0 -0.33493933047721364 -0.97099494606967
5000000000.0 -0.30321745359684626 -1.0294920434170018
5003000000.0 -0.31148340730739293 -1.0489201891338127
5006000000.0 -0.3227810368873275 -1.0815428283403097
5009000000.0 -0.3285146487688875 -0.9817795749182553
5012000000.0 -0.32944701298904505 -0.9761695965518511
5016000000.0 -0.31775911561420384 -1.0114553146561975
5019000000.0 -0.3607397079701615 -0.9646633686116461
5022000000.0 -0.34253531284397987 -0.9800898663608795
5025000000.0 -0.3989753511299117 -1.0180101370897026
5028000000.0 -0.37314118249697226 -0.9839349998651876
5031000000.0 -0.4187709420220863 -0.9498139504411319
5034000000.0 -0.42005597841690956 -0.9798827683826137
5038000000.0 -0.3947893267820677 -0.9246510903209093
5041000000.0 -0.37550899124163606 -0.9849129019267057
5044000000.0 -0.37352466448296673 -0.9480951957946729
5047000000.0 -0.39893333839541895 -0.976006204727104
5050000000.0 -0.33756756314470926 -0.9747358428112869
5053000000.0 -0.46957656651142776 -1.011657251682932
5056000000.0 -0.4153608277489338 -0.9703962744512575
5059000000.0 -0.40658384361806293 -0.957201136680259
5062000000.0 -0.5072191441747039 -0.9492879888542456
5066000000.0 -0.43526255580781614 -0.9594075029860818
5069000000.0 -0.4593449956537705 -0.9486390743768608
5072000000.0 -0.4588420058186766 -0.9334504272710036
5075000000.0 -0.4443699582295506 -0.8951767337557859
5078000000.0 -0.5186279547660697 -0.9275134420458551
5081000000.0 -0.48395426288383564 -0.8580615528400831
5084000000.0 -0.5469183738361675 -0.927841961571241
5088000000.0 -0.5066975322861996 -0.9403599073910276
5091000000.0 -0.5612136994086658 -0.8976474944929795
5094000000.0 -0.5156346340157919 -0.911347885488604
5097000000.0 -0.48531923140997124 -0.9091675651019548
5100000000.0 -0.5480620902830026 -0.8723524592108437
5103000000.0 -0.5571799881320706 -0.8528414521240685
5106000000.0 -0.5701528009999045 -0.8905184801236168
5109000000.0 -0.4845928549606758 -0.8858075619476327
5112000000.0 -0.5613932152744026 -0.8797428753535095
5116000000.0 -0.5812266497046158 -0.8165945603802368
5119000000.0 -0.6200480846920388 -0.8716564343298818
5122000000.0 -0.612685422961498 -0.8876984557574037
5125000000.0 -0.5778210892605389 -0.8584915897437368
5128000000.0 -0.5879378491116302 -0.8134288464734842
5131000000.0 -0.5658175599918028 -0.8078531540765189
5134000000.0 -0.6132573897243648 -0.8443734315141779
5138000000.0 -0.63530144156552 -0.7754264573915565
5141000000.0 -0.5797489718947195 -0.807389056828046
5144000000.0 -0.6597727854775882 -0.8187270605239905
5147000000.0 -0.696941444408862 -0.9136207511685319
5150000000.0 -0.5949082798055028 -0.8404841570040363
5153000000.0 -0.6605590483770878 -0.8030407224383809
5156000000.0 -0.6306009429653355 -0.8133614829901827
5159000000.0 -0.6894045046569238 -0.8378025069803555
5162000000.0 -0.6949156133112772 -0.7822825493467002
5166000000.0 -0.6856137987325187 -0.7959102030232151
5169000000.0 -0.6911567571495084 -0.7932193313197003
5172000000.0 -0.6764773967289754 -0.7507533945883751
5175000000.0 -0.7194948641441451 -0.8239185460834272
5178000000.0 -0.7513307996181497 -0.729193593329437
5181000000.0 -0.7474242776048469 -0.8039404576662883
5184000000.0 -0.7099158685414179 -0.7544048667021038
5188000000.0 -0.719900316805127 -0.713715641596211
