! Created with skrf 1.8.0 (http://scikit-rf.org).
# Hz S RI R 50.0 
!freq ReS11 ImS11
4000000000.0 0.6093926923238525 0.8180255422168103
4003000000.0 0.7046146733522315 0.8394146442114814
4006000000.0 0.667539001665146 0.7440279946557549
4009000000.0 0.6324173893137832 0.7801493394895536
4012000000.0 0.5877061540288274 0.8678578932372022
4016000000.0 0.7094431832656048 0.7762284249101559
4019000000.0 0.6816526885977787 0.7990090003306067
4022000000.0 0.6493526289576781 0.8694569177136474
4025000000.0 0.7520863453825077 0.7420471805303976
4028000000.0 0.7079265458501363 0.7719207648287381
4031000000.0 0.659403313984582 0.7242107542330338
4034000000.0 0.7356933234356076 0.7359713208490235
4038000000.0 0.7097877603308889 0.7524029860784868
4041000000.0 0.7628462233799711 0.7631435607895564
4044000000.0 0.7909388847424333 0.7537269930694726
4047000000.0 0.7150829174010683 0.776522285765787
4050000000.0 0.8073553909409322 0.6986550062200608
4053000000.0 0.7703712939638164 0.6629103588094538
4056000000.0 0.7650772115691047 0.7104375039935501
4059000000.0 0.7287787448267664 0.7141920459599629
4062000000.0 0.7489461124093538 0.6733743980563214
4066000000.0 0.7314533387166833 0.6470499302359642
4069000000.0 0.7767825611034038 0.6860649539920564
4072000000.0 0.7410764168303922 0.6741562103512408
4075000000.0 0.7841392282491397 0.7768792898944801
4078000000.0 0.8325741437395606 0.6558784943894871
4081000000.0 0.783502671135906 0.7288261503882365
4084000000.0 0.8192845334211059 0.6617059891557622
4088000000.0 0.7404319722293647 0.6880522557880809
4091000000.0 0.8622103172698103 0.6930038566029526
4094000000.0 0.8069157746440928 0.6347447132852062
4097000000.0 0.8106581691305055 0.6495006176059266
4100000000.0 0.8063255345661562 0.5962513390734991
4103000000.0 0.8364132629789267 0.6653210364782098
4106000000.0 0.8366718935108047 0.5937751210830126
4109000000.0 0.8490307705553759 0.5757374876366412
4112000000.0 0.8775673075877137 0.5773885497595528
4116000000.0 0.8557483645379453 0.6019365311256816
4119000000.0 0.9034596327529014 0.6013636833663439
4122000000.0 0.8470246560042609 0.5658336172012822
4125000000.0 0.8676006196447371 0.5443159458090712
4128000000.0 0.8365349865613179 0.5413390909463046
4131000000.0 0.8479161484288177 0.5363389669367766
4134000000.0 0.8596297076862773 0.5613287614250934
4138000000.0 0.8743897615860541 0.5339401906090397
4141000000.0 0.8637198872442433 0.5063251747284904
4144000000.0 0.882808232938495 0.519759801239073
4147000000.0 0.9192327731120604 0.5133846762086025
4150000000.0 0.9040142417094115 0.526352273502152
4153000000.0 0.9012257708753009 0.46819677921520797
4156000000.0 0.9440523306387829 0.5213739787054714
4159000000.0 0.8905023907847249 0.500299955839127
4162000000.0 0.9061231985983993 0.4576604111516819
4166000000.0 0.9242872661290054 0.4632274627276206
4169000000.0 0.9199236107879074 0.46451039567918406
4172000000.0 0.9258749019338559 0.44356668511587477
4175000000.0 0.917587854486061 0.4712084536958859
4178000000.0 0.9495826607227748 0.43738097639315976
4181000000.0 0.9497905926341867 0.42018704895980585
4184000000.0 0.963654910748165 0.4212058371868022
4188000000.0 0.9485452737707949 0.3992617327813368
4191000000.0 0.9131436653107184 0.4196282245177601
4194000000.0 0.9250841873842501 0.38504526479985
4197000000.0 0.9456519194184382 0.39445196988083703
4200000000.0 0.9620164644371827 0.3829676866859566
4203000000.0 0.9668980104456386 0.41185496771514574
4206000000.0 0.9577419827598478 0.3815640000795147
4209000000.0 0.9333696702793393 0.36776360335213437
4212000000.0 0.9594511451793125 0.3152203986479237
4216000000.0 0.9784452090767614 0.3582264283312782
4219000000.0 0.9910428387476695 0.35483186737484906
4222000000.0 0.9906961946408395 0.3229864823457746
4225000000.0 0.9624047779823841 0.3297084811645842
4228000000.0 0.9730456329668848 0.3141187636892874
4231000000.0 0.9883085834537468 0.2968156457701
4234000000.0 0.9827531084830863 0.29819552810751404
4238000000.0 0.9926662236195599 0.27671403813740514
4241000000.0 0.9909285334449625 0.264206073472553
4244000000.0 0.9744696831589559 0.27964255112788694
4247000000.0 0.9923711383804403 0.2700736601298255
4250000000.0 0.9702846916817425 0.24141035092442464
4253000000.0 0.9562011096356751 0.21516899874779483
4256000000.0 1.009595693843039 0.23730311699899348
4259000000.0 0.9619004608133263 0.2086149017469097
4262000000.0 1.0053147351752394 0.20655211266039894
4266000000.0 1.0197012807382555 0.22066583913761328
4269000000.0 1.0121830265727623 0.21980797386699094
4272000000.0 0.9929471225490818 0.1913520796569942
4275000000.0 1.0106719169123544 0.19776901751129639
4278000000.0 1.0122056411710922 0.179709255751406
4281000000.0 1.0287784378146085 0.19879622875920905
4284000000.0 1.0127381101890345 0.137907477547785
4288000000.0 1.0308816980318456 0.18852319583459276
4291000000.0 0.9921647285330737 0.1724199132814001
4294000000.0 1.0003958185235957 0.14378910433866454
4297000000.0 0.9939406340289537 0.17001928227798813
4300000000.0 0.9826409371274705 0.10884356580016441
4303000000.0 1.0083004392857269 0.10041292579350002
4306000000.0 1.0040856219576808 0.14425684513986378
4309000000.0 1.0104287239560361 0.1032668227405825
4312000000.0 1.0324931628291096 0.13894498389397827
4316000000.0 1.0266778302667137 0.07811574103267434
4319000000.0 0.9936486368174017 0.08250586670621167
4322000000.0 1.017274668269965 0.041223725260662855
4325000000.0 1.0042157124235516 0.0825054744593801
4328000000.0 1.0206437598481468 0.04233353904025393
4331000000.0 1.0148344092241817 0.019605965042822193
4334000000.0 1.0301693395654858 0.034964909344530365
4338000000.0 1.0118585878139126 0.03316570937515824
4341000000.0 1.0222498703893343 0.021407553324889445
4344000000.0 1.0446258008412732 0.01512360568173024
4347000000.0 1.0160173154425434 -0.04500657503749918
4350000000.0 0.9871655739196945 -0.031151825107640724
4353000000.0 1.0066952928653838 -0.00905238685333351
4356000000.0 1.0088457978768606 -0.06611041175721392
4359000000.0 0.9732060358227986 -0.049650677969411014
4362000000.0 1.0167033761346298 -0.10562459403288238
4366000000.0 1.0245534083210917 -0.045117194359875046
4369000000.0 0.9808323617997085 -0.06297404306342108
4372000000.0 0.9949543122641473 -0.125933478196907
4375000000.0 1.023832789089507 -0.0890061407093856
4378000000.0 0.9917390185879281 -0.0982704608956847
4381000000.0 1.014943468930814 -0.09496515803292382
4384000000.0 1.0616972600968628 -0.12092024048249363
4388000000.0 0.9926549124411268 -0.11331989178905323
4391000000.0 1.012394416451603 -0.13546842469426823
4394000000.0 0.9791007387009706 -0.12735693559795586
4397000000.0 0.9905777420738437 -0.1616389735720763
4400000000.0 1.0219415947419344 -0.16305957294360343
4403000000.0 1.0128726743856613 -0.16831417304385854
4406000000.0 1.0116100585134102 -0.19732666271170296
4409000000.0 1.0297473027043398 -0.19452024026623868
4412000000.0 0.9799386005589175 -0.2488074926042164
4416000000.0 0.9736918409049775 -0.21481039443980457
4419000000.0 0.9997395565024828 -0.22632151093954356
4422000000.0 0.9895869703623781 -0.19176379994427878
4425000000.0 1.017492408209975 -0.21159126571486792
4428000000.0 0.9799322141046592 -0.23896434196294689
4431000000.0 0.9935153826841068 -0.23518493688505032
4434000000.0 0.978638246972455 -0.25405778889984515
4438000000.0 0.9968001448556849 -0.2732822241735111
4441000000.0 0.9943672271306789 -0.26275297522410646
4444000000.0 0.9652341366799644 -0.26115523528772194
4447000000.0 0.9558743625633329 -0.29858160187909605
4450000000.0 0.9690141183909812 -0.2806624794801544
4453000000.0 0.9974802496023332 -0.30370754254787263
4456000000.0 0.9265843347840859 -0.30668058117872954
4459000000.0 0.9185046456765695 -0.30899871827374337
4462000000.0 1.0122346421454762 -0.34551279026926995
4466000000.0 0.9797697101149127 -0.36801243498984915
4469000000.0 0.9636740220505657 -0.3277965476077459
4472000000.0 0.967558860014695 -0.3735847545552545
4475000000.0 0.9241071108881258 -0.33774375548571156
4478000000.0 0.9757397988266732 -0.3965266614797902
4481000000.0 0.9204830100008653 -0.3737527415374777
4484000000.0 0.9133278800067175 -0.42152678022527434
4488000000.0 0.9253165008701032 -0.4085254125066483
4491000000.0 0.9296130639655604 -0.4000249190332741
4494000000.0 0.9191332185257887 -0.3874282217125557
4497000000.0 0.9222594286832344 -0.4036531047202804
4500000000.0 0.9124239795831313 -0.41432745493503154
4503000000.0 0.9398829013839716 -0.42887965737633005
4506000000.0 0.8876001501382922 -0.45664533716553657
4509000000.0 0.8955689297380873 -0.43833789914116794
4512000000.0 0.9006019697903273 -0.4646822051444264
4516000000.0 0.895385758033603 -0.46811471695613477
4519000000.0 0.8943748771761747 -0.45707666392754415
4522000000.0 0.8892657245844462 -0.5071359180902896
4525000000.0 0.8914131018027647 -0.46273635106167255
4528000000.0 0.9146288621935581 -0.5099018118170225
4531000000.0 0.8951953269491838 -0.49467777878309194
4534000000.0 0.846821127961491 -0.5019312249052811
4538000000.0 0.8594259202709793 -0.5135436531837727
4541000000.0 0.8324730228360885 -0.5594501596059988
4544000000.0 0.835540747497691 -0.513443399737328
4547000000.0 0.8511994998027869 -0.5275220644829772
4550000000.0 0.8434232559773638 -0.5665584804540614
4553000000.0 0.8500105700540417 -0.5708896151211259
4556000000.0 0.8192459468036524 -0.5637461300317766
4559000000.0 0.8333051233112674 -0.5972847537198658
4562000000.0 0.8280338204982727 -0.5908475816271168
4566000000.0 0.8562127753251105 -0.5870356390610243
4569000000.0 0.800225742399874 -0.5875210206584791
4572000000.0 0.7879968489708341 -0.6016586152219303
4575000000.0 0.7975171616240821 -0.6202289719927395
4578000000.0 0.81944917030192 -0.6221258446756354
4581000000.0 0.8072489209323217 -0.6374080086288536
4584000000.0 0.7753755916247318 -0.6350583764995537
4588000000.0 0.8040679610286084 -0.6398430959773358
4591000000.0 0.7979033798964872 -0.6320545127445014
4594000000.0 0.7560582069317189 -0.6715352262617996
4597000000.0 0.780909666435383 -0.6765493598094369
4600000000.0 0.7305549991032982 -0.6858389095494629
4603000000.0 0.7484264361871978 -0.6713525954313655
4606000000.0 0.7550438657241646 -0.6833698215986125
4609000000.0 0.7452278422497883 -0.6885854735952988
4612000000.0 0.7513265410032173 -0.7019465250405819
4616000000.0 0.7042724911368994 -0.6880087050717735
4619000000.0 0.7194730118330627 -0.7047914976497514
4622000000.0 0.7091790298466473 -0.6999603816736248
4625000000.0 0.6729977901391648 -0.7143903560466432
4628000000.0 0.7085206205932559 -0.7004232563267674
4631000000.0 0.6852639687027466 -0.746596502666988
4634000000.0 0.7005363648944882 -0.7364709813156975
4638000000.0 0.7016433924855979 -0.766601453812379
4641000000.0 0.6898348705713501 -0.7730349070269648
4644000000.0 0.6716379503478562 -0.7564850764070195
4647000000.0 0.6674839926908482 -0.7482547820432706
4650000000.0 0.6458300305564131 -0.7621878653999258
4653000000.0 0.6873459255660607 -0.7800641597537098
4656000000.0 0.6315351174102037 -0.7894438545625566
4659000000.0 0.6270286483575437 -0.7859269967827328
4662000000.0 0.6378213192695401 -0.7977516695144242
4666000000.0 0.6255835413413233 -0.807606746862698
4669000000.0 0.6231635957531421 -0.7922325990841858
4672000000.0 0.603693621897997 -0.8244517993161194
4675000000.0 0.5907985187584106 -0.8310036548317559
4678000000.0 0.6065763716598858 -0.8140965489600106
4681000000.0 0.5807967038650479 -0.8389963308475021
4684000000.0 0.5674503340508197 -0.8168269328838511
4688000000.0 0.5545829806306969 -0.8356135340400149
4691000000.0 0.5959660335004525 -0.8191983456582856
4694000000.0 0.585603172225545 -0.8264569150735055
4697000000.0 0.5175266092322357 -0.8388130493827963
4700000000.0 0.5245900181159319 -0.8467218859011101
4703000000.0 0.555038753986731 -0.8210377483204558
4706000000.0 0.5344321024203831 -0.8938633070542559
4709000000.0 0.49899852260792643 -0.8521453916736302
4712000000.0 0.5505878583661741 -0.8783812391843177
4716000000.0 0.5005962701452383 -0.8863654777257053
4719000000.0 0.5378739986563964 -0.8642912376729606
4722000000.0 0.510979014101981 -0.874936101074766
4725000000.0 0.48430739723353144 -0.8907127179505041
4728000000.0 0.46012764177069443 -0.8893812162580952
4731000000.0 0.5097035111208047 -0.9320167965082915
4734000000.0 0.4633760913846696 -0.8789454658905483
4738000000.0 0.47891952323138076 -0.9137204132247957
4741000000.0 0.47256887546845383 -0.945744246737494
4744000000.0 0.4274887556532906 -0.9421308871750831
4747000000.0 0.45505438738017356 -0.9048023040531146
4750000000.0 0.435672602417556 -0.9402170285271089
4753000000.0 0.458656286198151 -0.9294581104725581
4756000000.0 0.4010049040245687 -0.9292975638916692
4759000000.0 0.4059514036732612 -0.9571347622614567
4762000000.0 0.38951209270010456 -0.9691711953888378
4766000000.0 0.3745995063303584 -0.9546581362635559
4769000000.0 0.39098173962772825 -0.9738860584622552
4772000000.0 0.3821366952195391 -0.9763256400696093
4775000000.0 0.35791575664044284 -0.9886687226070976
4778000000.0 0.3594209371680445 -0.9731816003520773
4781000000.0 0.39480985814162495 -0.9485154519284329
4784000000.0 0.36447766006791915 -0.9536475509328933
4788000000.0 0.31854668472758607 -0.9862896246871493
4791000000.0 0.30720097393358403 -0.9718879977745206
4794000000.0 0.34035325762385454 -1.0001394548540024
4797000000.0 0.31642368286433625 -0.9656770134614842
4800000000.0 0.29679655342790967 -0.9752573298877716
4803000000.0 0.28020630556723053 -0.9773177498026564
4806000000.0 0.25569539647392314 -0.989509716984849
4809000000.0 0.22226872922976043 -0.9814895440639858
4812000000.0 0.23627162010985583 -0.9718911032598965
4816000000.0 0.2809578146508438 -0.9755280000673932
4819000000.0 0.25450340598650856 -0.9981185184840156
4822000000.0 0.2622368292139136 -1.0124818930244286
4825000000.0 0.2622717565659749 -1.0213347852705361
4828000000.0 0.213165035251937 -0.9992506051252746
4831000000.0 0.1587038891142034 -1.0311590540710882
4834000000.0 0.24199249228281333 -1.019792230089847
4838000000.0 0.1834572648190282 -1.0375285426998175
4841000000.0 0.17819391735511658 -0.9960381193156075
4844000000.0 0.215563291901046 -0.9952907240651895
4847000000.0 0.18612356836003974 -0.9763057700484143
4850000000.0 0.1560473284437705 -1.031012467916582
4853000000.0 0.16562726177417317 -0.9841564482582568
4856000000.0 0.1746719180522861 -1.0078457745339198
4859000000.0 0.1399670316890789 -1.0425959473613773
4862000000.0 0.1620006147290094 -0.9868634965459867
4866000000.0 0.12342341112346136 -1.0351946132700893
4869000000.0 0.11307282263282588 -1.0339969406155147
4872000000.0 0.07257105714890226 -1.0490627560113173
4875000000.0 0.1545792641602446 -1.0735044723116038
4878000000.0 0.08444001427897987 -1.0245409423741627
4881000000.0 0.05556591065558893 -1.0927755636864929
4884000000.0 0.08156989082152621 -1.04851980192082
4888000000.0 0.10481936125384696 -1.0127165771183817
4891000000.0 0.05649278741748867 -1.0695043755126008
4894000000.0 0.03877461188934587 -1.0466009719972496
4897000000.0 0.054542491549305974 -1.0321562515944285
4900000000.0 0.05109541903207623 -1.0698160712283604
4903000000.0 0.039148622602482294 -1.0321350223148686
4906000000.0 0.01603265435981875 -1.0776404520790015
4909000000.0 0.013439001323955969 -1.0439888449723547
4912000000.0 -0.019247889180468353 -1.063957698560548
4916000000.0 0.017095692663036673 -1.0563445955842257
4919000000.0 0.020683206131240195 -1.0686909049622066
4922000000.0 0.032851148297012744 -1.0376726237908152
4925000000.0 -0.06569829848372288 -1.0455163485599817
4928000000.0 0.04269517396263864 -1.027512892330102
4931000000.0 -0.015610378646735798 -1.059551580568166
4934000000.0 -0.03276876392192449 -0.9922578059454872
4938000000.0 -0.09774403401869468 -1.0212145667988715
4941000000.0 -0.05294202839536889 -1.0328082499210745
4944000000.0 -0.062060798124298155 -0.9756871886060818
4947000000.0 -0.09461880103017609 -1.0071047939714552
4950000000.0 -0.09047720922459788 -1.0226893377292514
4953000000.0 -0.15231212523489474 -1.0457846163101931
4956000000.0 -0.1086295021874217 -0.9965822924668075
4959000000.0 -0.13010496530880236 -0.9848727022089417
4962000000.0 -0.11909954966556194 -1.0895792645218902
4966000000.0 -0.11274744194513464 -1.068179300546198
4969000000.0 -0.13913804196122748 -1.0678873282031214
4972000000.0 -0.15470119365692683 -1.029119124114134
4975000000.0 -0.10437425287713462 -0.9897546046001431
4978000000.0 -0.1963148590978771 -1.0137761549706021
4981000000.0 -0.18729039368159625 -1.0598959076910013
4984000000.0 -0.21079143254528335 -1.0014195676541089
4988000000.0 -0.1836491948450743 -1.013281782635429
4991000000.0 -0.1503031020420223 -1.0649886051022301
4994000000.0 -0.18478298897374612 -1.0243453667606959
4997000000.0 -0.2604879333472981 -1.0130182404246602
5000000000.0 -0.20175268832657733 -1.0502039630284024
5003000000.0 -0.2250813436017347 -1.051545410595581
5006000000.0 -0.26434723873863486 -1.086035592675367
5009000000.0 -0.2674231322888465 -1.011346376803974
5012000000.0 -0.27082893237898814 -1.026670325370109
5016000000.0 -0.23674163398611664 -1.0351045418732867
5019000000.0 -0.2848262777287449 -1.0097244929056655
5022000000.0 -0.2872277537248702 -1.0130770530920647
5025000000.0 -0.3060225900681108 -1.081293634720256
5028000000.0 -0.3432003162255717 -0.996084950546934
5031000000.0 -0.31471437117913637 -0.9985344236505819
5034000000.0 -0.34836586350123 -1.0222961454803465
5038000000.0 -0.3241240061196504 -0.9228881612563911
5041000000.0 -0.2939041049792068 -1.0339448018792772
5044000000.0 -0.2985774923075424 -0.9671743884458187
5047000000.0 -0.3277797283433432 -1.004830346615908
5050000000.0 -0.2771130059773137 -1.0012074848584551
5053000000.0 -0.36708860737369353 -1.0022969239787418
5056000000.0 -0.29486598787543317 -0.9900515319896426
5059000000.0 -0.33321617598045455 -1.002035755194688
5062000000.0 -0.4206196206062448 -0.9854092777868875
5066000000.0 -0.33594554731426307 -0.9736465457431045
5069000000.0 -0.3688557841384117 -0.9722904378405347
5072000000.0 -0.3926422012976084 -0.9548883489565074
5075000000.0 -0.3946887600229293 -0.9465659168090974
5078000000.0 -0.47069874797857186 -0.9327590172414466
5081000000.0 -0.4525185008149259 -0.9211977894715061
5084000000.0 -0.4759000576716519 -0.9448035030100492
5088000000.0 -0.4284947971871922 -0.9345839579663335
5091000000.0 -0.5175026408206886 -0.941074676748856
5094000000.0 -0.46689806670206085 -0.924925669847625
5097000000.0 -0.4144399341330144 -0.95468712830509
5100000000.0 -0.4575643909818085 -0.8983970495852619
5103000000.0 -0.4563264772229858 -0.8817610829154364
5106000000.0 -0.48277312425000213 -0.9623564221883536
5109000000.0 -0.4109716722350437 -0.9238592429828112
5112000000.0 -0.5268862965025829 -0.9053084617932168
5116000000.0 -0.49903633378198037 -0.8661358165266637
5119000000.0 -0.5414120167611703 -0.9312563657784718
5122000000.0 -0.5334787317671814 -0.9229198475368412
5125000000.0 -0.5213647466746456 -0.9074278488802954
5128000000.0 -0.5740465663871073 -0.9110345320993922
5131000000.0 -0.5053310243727086 -0.8626453176385889
5134000000.0 -0.5454764453484353 -0.8638764805332702
5138000000.0 -0.536060158694424 -0.9153938154619279
5141000000.0 -0.5392713902033487 -0.8851314773413093
5144000000.0 -0.5355892710037661 -0.9183869129490452
5147000000.0 -0.5882875373574235 -0.8981624134743643
5150000000.0 -0.5312663381838013 -0.8853248741245378
5153000000.0 -0.5479114067049471 -0.8945697792307484
5156000000.0 -0.6080040646004906 -0.891856834710967
5159000000.0 -0.6532848939397625 -0.8853537664070283
5162000000.0 -0.6354373034957708 -0.8330957510195758
5166000000.0 -0.6296886126509124 -0.8515642834093886
5169000000.0 -0.6322287165038475 -0.9064850219073565
5172000000.0 -0.6130147757177755 -0.8619900808139545
5175000000.0 -0.6183895288854953 -0.8589584738982482
5178000000.0 -0.6715671050527874 -0.8224010362200176
5181000000.0 -0.6747252424623977 -0.8451498937666964
5184000000.0 -0.6253956634270299 -0.8237563182809624
5188000000.0 -0.649487136309173 -0.8152711495961054
