! Created with skrf 1.8.0 (http://scikit-rf.org).
# Hz S RI R 50.0 
!freq ReS11 ImS11
4000000000.0 0.6439100687582723 0.7485198099831396
4003000000.0 0.6769479565789959 0.7894290941422878
4006000000.0 0.7543552842667071 0.7444265220819528
4009000000.0 0.6861305474195866 0.8043589008837725
4012000000.0 0.6781895563417997 0.7537521499001204
4016000000.0 0.7444610421815913 0.7220913327702896
4019000000.0 0.7134905603708719 0.7413106462403063
4022000000.0 0.7512602374779267 0.7822073798013242
4025000000.0 0.7533564085867717 0.7256897215363722
4028000000.0 0.7468143504682465 0.7169312010346813
4031000000.0 0.7106235224647255 0.6743424791083359
4034000000.0 0.7861783307041817 0.6634896639442055
4038000000.0 0.7838586734742834 0.6926265368827879
4041000000.0 0.7548085272683396 0.7090346186175348
4044000000.0 0.8012536121034715 0.7092375615636415
4047000000.0 0.829605555805529 0.7477697948593199
4050000000.0 0.7750617222967148 0.6543102752294516
4053000000.0 0.7886326708861997 0.6675282018633832
4056000000.0 0.817893289496023 0.6469056351130826
4059000000.0 0.7992706288172742 0.6509317850731113
4062000000.0 0.8344117217740656 0.6147364605168895
4066000000.0 0.7548630321657344 0.5683550068389619
4069000000.0 0.8718238753742329 0.6007564677492131
4072000000.0 0.7707854127114553 0.6551121158063442
4075000000.0 0.8332817018282231 0.6402940100731804
4078000000.0 0.8654671567887026 0.5953723064708403
4081000000.0 0.8198999687035202 0.6379873333775189
4084000000.0 0.8672847674325418 0.5838621145005523
4088000000.0 0.8104078162022361 0.590515877866535
4091000000.0 0.8900990035201878 0.6109346741665187
4094000000.0 0.8611689321460136 0.5475841115421902
4097000000.0 0.8740473173151841 0.5420826489306578
4100000000.0 0.8747633248568987 0.571015093921045
4103000000.0 0.8802720763662273 0.5603520283211141
4106000000.0 0.9137767138521498 0.5375055646138419
4109000000.0 0.8898585435354509 0.4938862553916156
4112000000.0 0.9012356750622308 0.5183065007858021
4116000000.0 0.8936568280314463 0.5797728154659866
4119000000.0 0.9068051299694871 0.4977418643970488
4122000000.0 0.9394596883328027 0.48041207383176365
4125000000.0 0.9443425326564343 0.49829860669310316
4128000000.0 0.8607234399068856 0.4865655258064401
4131000000.0 0.8937541928396756 0.4376119112473217
4134000000.0 0.9451389633725442 0.4860748624046469
4138000000.0 0.9064485383239014 0.40204901021381584
4141000000.0 0.9418843369938386 0.45401144780313996
4144000000.0 0.9313054157073395 0.46018005116606536
4147000000.0 0.9155480565023791 0.4220902598850093
4150000000.0 0.9684511055464193 0.4625274634134903
4153000000.0 0.9351239181780702 0.44486060690459617
4156000000.0 0.9766440636571747 0.45646528847482815
4159000000.0 0.9016552447407695 0.42396410996919226
4162000000.0 0.9244121403138807 0.41976403933153705
4166000000.0 0.9808549037735184 0.39557344352096246
4169000000.0 0.9800533926388021 0.35298944861619386
4172000000.0 0.9749251638611449 0.358457985269035
4175000000.0 0.9524200655425189 0.3600122949007684
4178000000.0 1.0003072301062 0.37939874697092957
4181000000.0 0.9809703528660441 0.3494034998670352
4184000000.0 0.9784683544973491 0.36173012573413915
4188000000.0 0.9700242093139848 0.33530885276806455
4191000000.0 0.952661384814657 0.3439533893700813
4194000000.0 0.9688328505131423 0.3111434695529527
4197000000.0 0.9966235642864036 0.29897852539502573
4200000000.0 0.9726851084346726 0.30962563804381915
4203000000.0 0.9877343771032933 0.29675347214804804
4206000000.0 0.9822792810494664 0.28533741395514006
4209000000.0 0.9768054165801167 0.28377101733367555
4212000000.0 0.9875760336136927 0.24532954379623972
4216000000.0 0.9902686191836951 0.28909141317639414
4219000000.0 1.007240617927598 0.2672971915046397
4222000000.0 0.9989716170060745 0.2361270844315147
4225000000.0 0.9896243776477445 0.23415766506762545
4228000000.0 0.9853660190762354 0.23590231321019453
4231000000.0 1.0132853212312702 0.224783471777094
4234000000.0 0.9973949730085943 0.20784759553265536
4238000000.0 1.0116035437817148 0.19094096379818984
4241000000.0 1.008361150835015 0.17100337635207552
4244000000.0 0.9872197535169838 0.19103061452431425
4247000000.0 0.9918151353746123 0.17544332118107275
4250000000.0 0.9981630773234376 0.1597879822234377
4253000000.0 0.9920239663741888 0.1460613944748439
4256000000.0 1.0307519757107382 0.14875133420560194
4259000000.0 0.9752850878473553 0.1236521855078444
4262000000.0 1.0019772727653777 0.11853034850878769
4266000000.0 1.0215633127643682 0.11129179136493941
4269000000.0 1.0245785942638423 0.11938561575287462
4272000000.0 0.9851278811410658 0.10204860680400313
4275000000.0 1.0051193911606442 0.08901916010637945
4278000000.0 1.0349373091968035 0.08076758739096043
4281000000.0 1.043375116318263 0.08993112961424495
4284000000.0 1.0214581830058234 0.0174747871189765
4288000000.0 1.0016414435166276 0.11224030622136277
4291000000.0 0.9929418059925204 0.03801531825600278
4294000000.0 1.004491904045941 0.03419722792378767
4297000000.0 0.9977341577797776 0.05407636992769878
4300000000.0 1.022821264864164 0.037902577937045594
4303000000.0 0.9961475801666958 0.01602818492574322
4306000000.0 1.0447101834371322 0.03596495031304141
4309000000.0 1.0213924388743372 -0.0005030166999381996
4312000000.0 1.029182335060995 0.02573315519076251
4316000000.0 1.0089563328635138 -0.013654722359561666
4319000000.0 1.0145381368452069 -0.020341753299916276
4322000000.0 1.003595314914335 -0.0824931664893514
4325000000.0 1.0231762231534165 -0.014179794548871624
4328000000.0 1.0063483402349527 -0.056248577244318955
4331000000.0 1.0321630572150708 -0.0816820076708132
4334000000.0 1.0511524337434643 -0.07731327519140105
4338000000.0 0.994540458968241 -0.05874753478316154
4341000000.0 1.0385360560103025 -0.07778305021906551
4344000000.0 1.036633496711554 -0.0689239616768818
4347000000.0 1.0112702550487704 -0.1401154912925299
4350000000.0 0.9588497762330987 -0.13382824944327001
4353000000.0 0.9909990383012712 -0.0911379446617814
4356000000.0 0.9927066351512784 -0.1387704815014119
4359000000.0 0.9607190004943343 -0.14049513735721142
4362000000.0 0.9881345499035417 -0.19544024744137928
4366000000.0 1.0196499461105786 -0.16302832892280683
4369000000.0 0.9468130033416363 -0.16901121140631128
4372000000.0 0.9769331029387514 -0.20848919596433083
4375000000.0 1.0025400223172418 -0.17089449859346695
4378000000.0 0.9546084788319175 -0.18897631728744638
4381000000.0 0.9885818059353344 -0.1920672980665807
4384000000.0 1.044819568497131 -0.2381675202649487
4388000000.0 0.9731029909824653 -0.21840624483510143
4391000000.0 1.0046843291326677 -0.24938419595005834
4394000000.0 0.9717641166408403 -0.24424159502259868
4397000000.0 0.9748990605412435 -0.258662369702821
4400000000.0 1.002892481052962 -0.2604977380276976
4403000000.0 0.9870271573695023 -0.27050472266812414
4406000000.0 0.9805406732889093 -0.29493683740353643
4409000000.0 0.9977075557480262 -0.29567651617743573
4412000000.0 0.9520108477578225 -0.3489968193973665
4416000000.0 0.9409389427941661 -0.311546659622551
4419000000.0 0.9591697968182445 -0.32504484657830135
4422000000.0 0.9576538063470217 -0.29238950204830727
4425000000.0 0.9856257484328491 -0.3222418936946766
4428000000.0 0.9420128049298416 -0.3398091163139172
4431000000.0 0.9705185756894521 -0.35922185812171586
4434000000.0 0.9412604032297122 -0.3438389767445923
4438000000.0 0.9716069311294186 -0.3604780989569911
4441000000.0 0.9588025689176367 -0.3748498670363281
4444000000.0 0.9241044646499361 -0.36160920989144546
4447000000.0 0.9137209554500001 -0.4014243633115213
4450000000.0 0.9343266416396755 -0.3835613639868074
4453000000.0 0.9393980845976128 -0.4169617580615646
4456000000.0 0.8820278750225607 -0.41051058541454727
4459000000.0 0.86523758640459 -0.43112375928136504
4462000000.0 0.9698826715416526 -0.46133995917928805
4466000000.0 0.9346345055298156 -0.4513656256125046
4469000000.0 0.8979155882806572 -0.43446397862959374
4472000000.0 0.9085375876276031 -0.4860486569735118
4475000000.0 0.8849327543322488 -0.44655763188109165
4478000000.0 0.9158498365950647 -0.4967142332897553
4481000000.0 0.8562087030038841 -0.48994309976215666
4484000000.0 0.8634540121000123 -0.530111803423128
4488000000.0 0.8635403692821312 -0.5149095547765998
4491000000.0 0.8853347531225917 -0.5170256093929981
4494000000.0 0.8642152582873374 -0.5057082022916264
4497000000.0 0.8713500091066264 -0.49669198697520717
4500000000.0 0.8638238901016722 -0.5169438805525314
4503000000.0 0.8758629669829592 -0.5433496406790175
4506000000.0 0.8362225059941444 -0.5431405389699777
4509000000.0 0.8439880406907156 -0.5344521327489049
4512000000.0 0.8241394144613161 -0.5585349388566179
4516000000.0 0.864243147067533 -0.5850316022149336
4519000000.0 0.8184786760152857 -0.540275859007935
4522000000.0 0.8025961270854178 -0.5893012872836562
4525000000.0 0.8360928349556467 -0.5486500606504395
4528000000.0 0.8251580948228006 -0.6123979667749381
4531000000.0 0.8178150863718371 -0.5722922337658763
4534000000.0 0.7878623938428725 -0.5978008497086009
4538000000.0 0.8063442098303744 -0.6303828383172141
4541000000.0 0.7587810929268198 -0.6442975333330577
4544000000.0 0.7781592895775853 -0.6289315531144406
4547000000.0 0.7831753055353928 -0.6191348025709078
4550000000.0 0.7669448424678369 -0.661593088518497
4553000000.0 0.767173294640076 -0.667420561007338
4556000000.0 0.749506166857562 -0.6636716521012676
4559000000.0 0.7458395211150228 -0.6715729475371925
4562000000.0 0.7729974560062236 -0.6815755694593584
4566000000.0 0.7571030914338117 -0.6877745421269483
4569000000.0 0.7135979880098595 -0.6718968425462446
4572000000.0 0.7285095841194059 -0.6970000023117904
4575000000.0 0.7239232988112643 -0.7228025774542259
4578000000.0 0.7440130047965468 -0.6926119467695737
4581000000.0 0.7054372435256493 -0.7317976037323785
4584000000.0 0.698052366670935 -0.7133244370428306
4588000000.0 0.7277153140478687 -0.747281311281135
4591000000.0 0.6869115030075745 -0.7326485500372595
4594000000.0 0.663881475296511 -0.7788412623371294
4597000000.0 0.6756861795835305 -0.7591898740477828
4600000000.0 0.6582769505993208 -0.7736222368200685
4603000000.0 0.6657778491367611 -0.7837947576035138
4606000000.0 0.65084846933439 -0.7817260662095854
4609000000.0 0.6429057621410079 -0.7768603525349641
4612000000.0 0.6563379620839493 -0.7843463901027875
4616000000.0 0.6304556534055212 -0.7916555024699585
4619000000.0 0.6194936000771415 -0.7840605652871614
4622000000.0 0.6201649640066128 -0.8114542160276607
4625000000.0 0.5865406658122656 -0.7975269670702421
4628000000.0 0.6300258893599404 -0.818724374033846
4631000000.0 0.5798450728308964 -0.8154882601576589
4634000000.0 0.5907515192262043 -0.8145156359148384
4638000000.0 0.5908662514289936 -0.8208630391507755
4641000000.0 0.5884563012821331 -0.8224971317997855
4644000000.0 0.5563831617823796 -0.8143003761239234
4647000000.0 0.5713659416576741 -0.8375329347654229
4650000000.0 0.5414939661286252 -0.846115531920732
4653000000.0 0.543752482404956 -0.8676665297588209
4656000000.0 0.5467166287628741 -0.8468803353307246
4659000000.0 0.5261899004779809 -0.8493948391545101
4662000000.0 0.5235166670762681 -0.8764360065228539
4666000000.0 0.5065763863475222 -0.8781607966578877
4669000000.0 0.5039178383713766 -0.8748906399768481
4672000000.0 0.4884852292423686 -0.9073121328994049
4675000000.0 0.46473825681999953 -0.9017273951404895
4678000000.0 0.4842501546922162 -0.8620453869935633
4681000000.0 0.462183850298373 -0.9052782678953839
4684000000.0 0.4801073835896515 -0.9253701248674624
4688000000.0 0.4237807966454824 -0.9058888643025923
4691000000.0 0.4618999131512467 -0.9057142834362295
4694000000.0 0.4643494565395987 -0.8928690732320952
4697000000.0 0.38190741306409215 -0.8714646252221827
4700000000.0 0.42876095016736526 -0.8996364454018813
4703000000.0 0.4373418066352156 -0.8699094549555229
4706000000.0 0.39203318281608535 -0.941963493281825
4709000000.0 0.3835103497063421 -0.9431772030698786
4712000000.0 0.4092354625488305 -0.9318122376942607
4716000000.0 0.3888904367032763 -0.9554501636515178
4719000000.0 0.40661069012902196 -0.9505305571958671
4722000000.0 0.3849066740044085 -0.9666799577943177
4725000000.0 0.3565671717841472 -0.9513498400432854
4728000000.0 0.32962033637449806 -0.9529866575841375
4731000000.0 0.360818064995573 -0.975239501609356
4734000000.0 0.33882662559051213 -0.9493224560853628
4738000000.0 0.3866186647935884 -0.9973568230289311
4741000000.0 0.33437703094040105 -1.01938970328164
4744000000.0 0.32639273586857653 -0.9513859684672011
4747000000.0 0.2946972025662884 -0.9320968497179251
4750000000.0 0.3128655813384157 -0.9959210557569591
4753000000.0 0.30324383225576407 -0.9776099491152755
4756000000.0 0.2635812389077354 -1.0091032495647783
4759000000.0 0.29416486720495794 -1.0400966097751012
4762000000.0 0.2644939313030935 -1.0161688794910824
4766000000.0 0.23378811121231455 -0.9774667900076675
4769000000.0 0.22214147965605574 -0.9883341590398095
4772000000.0 0.24032320629155873 -1.0208673255861647
4775000000.0 0.21360716818261938 -1.0522677641568339
4778000000.0 0.22392038370645867 -1.0270895062782803
4781000000.0 0.2154497157991492 -0.9999958794075654
4784000000.0 0.19964192909067222 -1.0061674573401471
4788000000.0 0.15778035757075945 -1.0360046146224715
4791000000.0 0.1756251770794682 -1.0030542165132745
4794000000.0 0.20254978059782167 -1.0517734069823232
4797000000.0 0.13863573109467792 -1.0026721873544355
4800000000.0 0.1450207701269119 -1.0035023731542094
4803000000.0 0.097718606163943 -1.0184256327872607
4806000000.0 0.12507909683595936 -1.0360249383240656
4809000000.0 0.06916638567221219 -1.0155504832033546
4812000000.0 0.08433093422903581 -1.0254964827071775
4816000000.0 0.1371986817044289 -1.0093466576783765
4819000000.0 0.12218672072747659 -1.0576821271897985
4822000000.0 0.08735451736018118 -1.0649489066594622
4825000000.0 0.11359412459662359 -1.060032322210191
4828000000.0 0.07972479698259011 -1.0310482415330928
4831000000.0 0.020880342667767407 -1.0554731056319029
4834000000.0 0.07583567822013147 -1.0453972275161967
4838000000.0 0.037848943862792236 -1.054349264122524
4841000000.0 0.026081672104761283 -1.0300587051493233
4844000000.0 0.07770541091286476 -1.006081562031239
4847000000.0 0.03994256544741023 -1.0250231622515682
4850000000.0 0.008662218291041635 -1.0202753530918676
4853000000.0 0.010308405679877883 -1.0210480143948917
4856000000.0 -0.014466470652407401 -1.012936595186367
4859000000.0 -0.01697525880196441 -1.0712942433870598
4862000000.0 0.01856422739913908 -1.0045809780617179
4866000000.0 -0.050961756102549736 -1.0394799969187642
4869000000.0 -0.06642850925737886 -1.0310399580820762
4872000000.0 -0.06614571297862795 -1.0410952625103977
4875000000.0 -0.008642617717137945 -1.0723985228602266
4878000000.0 -0.07251675931885523 -1.0359085841479576
4881000000.0 -0.11411221711559735 -1.0950463766346827
4884000000.0 -0.06702947246719407 -1.0224113456777164
4888000000.0 -0.05861821289442021 -1.0014476234622292
4891000000.0 -0.08852968700185855 -1.0398638245707015
4894000000.0 -0.14391789470674607 -1.0109860454523512
4897000000.0 -0.07793722714768116 -1.0266686681274595
4900000000.0 -0.12252832153426595 -1.0585795840708183
4903000000.0 -0.09995796022731543 -1.056172318582404
4906000000.0 -0.17364009725334617 -1.0525921956295046
4909000000.0 -0.1668128363063268 -1.0114725540201324
4912000000.0 -0.1687683932889174 -1.0395543282319848
4916000000.0 -0.1790332402357835 -1.0188597865473064
4919000000.0 -0.15545766560398183 -1.0361166905943162
4922000000.0 -0.15405167205372597 -1.0180376544723582
4925000000.0 -0.21726254322786134 -1.0193333702666556
4928000000.0 -0.14950290304471814 -1.021812976237367
4931000000.0 -0.18347372473103812 -1.0328691276712314
4934000000.0 -0.19506950015137753 -0.9791731643383967
4938000000.0 -0.26307755357457463 -0.9977370122161106
4941000000.0 -0.22780994111306413 -0.972366638144294
4944000000.0 -0.23862062953214688 -0.9587692451288385
4947000000.0 -0.2248128597622844 -0.9948210421629884
4950000000.0 -0.2552594260736203 -0.9811102680787093
4953000000.0 -0.354642572071236 -1.0241554732654121
4956000000.0 -0.32137158801019433 -1.0119149115395882
4959000000.0 -0.2989777739245397 -0.9585788428577249
4962000000.0 -0.30069602510364746 -0.9954339142949558
4966000000.0 -0.3124583900054156 -1.0259965343673547
4969000000.0 -0.29210952950994884 -1.0240708782884191
4972000000.0 -0.3236439099569648 -0.9692068017240589
4975000000.0 -0.31235570065960083 -0.9928547795460044
4978000000.0 -0.3684614852869199 -0.9960783918203396
4981000000.0 -0.38351805904042635 -0.9649470019833978
4984000000.0 -0.37058853585266516 -0.9439086050186452
4988000000.0 -0.3685141009285828 -0.9619129583892939
4991000000.0 -0.3233712851513601 -1.017334660316956
4994000000.0 -0.3562763936342068 -0.9721184202960981
4997000000.0 -0.4177292295330787 -0.9574063623673037
5000000000.0 -0.41206996462119283 -0.9629454029352946
5003000000.0 -0.38344722989653385 -0.9702595264725113
5006000000.0 -0.45650495074379926 -1.0087986790185772
5009000000.0 -0.4195498069448045 -0.9541766234292585
5012000000.0 -0.42841456821671725 -0.9544576287423505
5016000000.0 -0.41355444334515606 -0.9880178133505071
5019000000.0 -0.4600839369320743 -0.9402122595720059
5022000000.0 -0.467723559418071 -0.9518579540073753
5025000000.0 -0.5111293929313527 -1.000647321532657
5028000000.0 -0.4907706300885277 -0.9376690855512275
5031000000.0 -0.481516359502832 -0.9120392808186563
5034000000.0 -0.529007834535184 -0.9237068204436034
5038000000.0 -0.5014414314827551 -0.8596726377348546
5041000000.0 -0.5249244952134386 -0.9324974049066675
5044000000.0 -0.46702304067492384 -0.9227951517815874
5047000000.0 -0.5169356517661163 -0.9083562175213148
5050000000.0 -0.4446218031305482 -0.9297939653188569
5053000000.0 -0.5570990188840413 -0.9085830500126675
5056000000.0 -0.49121734141367646 -0.8913553198743538
5059000000.0 -0.47827083106163587 -0.9029299122305902
5062000000.0 -0.5945972178367745 -0.9098438160275135
5066000000.0 -0.5520907921549267 -0.899282268992071
5069000000.0 -0.5347581809055173 -0.908609239746187
5072000000.0 -0.5406585849981236 -0.8936651517260599
5075000000.0 -0.5389296493091363 -0.8898899709615264
5078000000.0 -0.6086599340498904 -0.8644994591572472
5081000000.0 -0.6056845841339205 -0.8157953310360223
5084000000.0 -0.5881139330189833 -0.8833474523287177
5088000000.0 -0.6037819407226876 -0.8573934913882297
5091000000.0 -0.6422838593239488 -0.8356289325355901
5094000000.0 -0.6489460431348085 -0.8215335225350893
5097000000.0 -0.5970307110434184 -0.8305605880105671
5100000000.0 -0.623690082739194 -0.8138247006588252
5103000000.0 -0.7159726632254799 -0.8034924538744975
5106000000.0 -0.6203884368584432 -0.8789284847944288
5109000000.0 -0.6434676074312629 -0.8132070809691819
5112000000.0 -0.6608533870239963 -0.728858436258951
5116000000.0 -0.6598120653546922 -0.7683179722796919
5119000000.0 -0.6925135131741834 -0.7638150221036835
5122000000.0 -0.6683375619316285 -0.7732996779334942
5125000000.0 -0.6877627511742253 -0.7761108288802372
5128000000.0 -0.7213632265962758 -0.7927409765727949
5131000000.0 -0.6650844644964642 -0.7610225095065459
5134000000.0 -0.7138746100690999 -0.7454039269003144
5138000000.0 -0.687856822423711 -0.7533675760519171
5141000000.0 -0.7008828474980722 -0.8148456179442394
5144000000.0 -0.7275238915542674 -0.7747736369070105
5147000000.0 -0.7585762162393391 -0.7383092112321109
5150000000.0 -0.7345243649260292 -0.7869109824561177
5153000000.0 -0.7831979905440789 -0.7310785292598246
5156000000.0 -0.761155831571563 -0.7536081742006748
5159000000.0 -0.8268335162933114 -0.7480489665681035
5162000000.0 -0.7724224014630439 -0.6725608753534958
5166000000.0 -0.7864644594827855 -0.6738882602615414
5169000000.0 -0.7865755311583362 -0.731571051458912
5172000000.0 -0.7715251889862077 -0.7258173694956491
5175000000.0 -0.8214651737927298 -0.7150957929722798
5178000000.0 -0.8001834928032974 -0.6547497671133672
5181000000.0 -0.8288044697679721 -0.6787007723228075
5184000000.0 -0.8104007172415968 -0.687562750577048
