! Created with skrf 1.8.0 (http://scikit-rf.org).
# Hz S RI R 50.0 
!freq ReS11 ImS11
4000000000.0 0.6450048660699705 0.7988751967420828
4003000000.0 0.6702847333587445 0.8318776894144287
4006000000.0 0.695843016297868 0.8086652326965178
4009000000.0 0.5812093761163212 0.7965864865515806
4012000000.0 0.6287701307720686 0.8223136483305247
4016000000.0 0.6663517903303401 0.7760233654372868
4019000000.0 0.6576681759215741 0.7869858017456259
4022000000.0 0.6651976445174536 0.776581258445103
4025000000.0 0.7625192225256215 0.7015578696857415
4028000000.0 0.7182243020728987 0.7407451670990977
4031000000.0 0.6720332632840988 0.6947459780546935
4034000000.0 0.6886390546602369 0.7374044892247431
4038000000.0 0.754988697496695 0.7102312799699386
4041000000.0 0.7267978794691878 0.7288021654031817
4044000000.0 0.778789205897758 0.7874731243523801
4047000000.0 0.7403803380825592 0.7556870015505194
4050000000.0 0.7746847135404235 0.7255951315245782
4053000000.0 0.7249445409819949 0.6677061278522529
4056000000.0 0.7490131652377309 0.6495408448376797
4059000000.0 0.7384803939479009 0.6817538716825946
4062000000.0 0.805608388612006 0.6487024779394344
4066000000.0 0.7112861909614858 0.6325617014480605
4069000000.0 0.8297942449505404 0.6762533780048515
4072000000.0 0.7435041146631582 0.7014491021050893
4075000000.0 0.7820931965710342 0.7008723525559859
4078000000.0 0.798191546006252 0.6332488610662531
4081000000.0 0.7598268449809328 0.680032174080573
4084000000.0 0.7923854881441486 0.6263864636741889
4088000000.0 0.7855859921287417 0.7022680875492769
4091000000.0 0.853790786825896 0.6781995955495663
4094000000.0 0.8104553559493654 0.6392839702443178
4097000000.0 0.8411717833176874 0.5958674093895728
4100000000.0 0.8453988617700529 0.5885379267524824
4103000000.0 0.827693065774725 0.6391736815506222
4106000000.0 0.8622743668099333 0.5924884234637768
4109000000.0 0.8841600655029564 0.5625841026697382
4112000000.0 0.850645944683674 0.593289250905588
4116000000.0 0.8579724893390474 0.5737211958678364
4119000000.0 0.8619620502551021 0.5395925776687497
4122000000.0 0.8816834671009817 0.5578002826168437
4125000000.0 0.907804896139203 0.5740124318857305
4128000000.0 0.8210102931375475 0.5563917310321134
4131000000.0 0.851616389021814 0.5494903755925173
4134000000.0 0.8582984865569688 0.5433794565919084
4138000000.0 0.8945973251270813 0.5164200418011158
4141000000.0 0.8883403382735685 0.48101851389753014
4144000000.0 0.8937593102177502 0.5160867634153077
4147000000.0 0.9086261071894453 0.45192057278289216
4150000000.0 0.8969851075235932 0.5163039672184124
4153000000.0 0.8888562924443656 0.47976691555767204
4156000000.0 0.9220773250035061 0.5384245209819398
4159000000.0 0.8806881041218808 0.48278555668014905
4162000000.0 0.8897983236895006 0.4446952497081329
4166000000.0 0.9330957052663462 0.4496794797636784
4169000000.0 0.9195446337909118 0.427997713800236
4172000000.0 0.9410957235094947 0.4443717648512607
4175000000.0 0.9286437344727068 0.44865171100584594
4178000000.0 0.9541883655855123 0.4365827523706326
4181000000.0 0.9552727896763338 0.44011518180446285
4184000000.0 0.9274571395654264 0.4344463241893342
4188000000.0 0.9198156002435383 0.39095121918049525
4191000000.0 0.9185505513595624 0.4325923164849976
4194000000.0 0.9306052410961483 0.41732707803448077
4197000000.0 0.9332352450838338 0.38956172679322637
4200000000.0 0.9172069625005062 0.397470488694291
4203000000.0 0.9470893363832998 0.3895397677906811
4206000000.0 0.9634329141481125 0.37416735356991687
4209000000.0 0.9375911067337245 0.36265142921109855
4212000000.0 0.9582756819257646 0.31299223728989767
4216000000.0 0.9646388292894243 0.34328635162286786
4219000000.0 0.9760276302932228 0.3348205607909823
4222000000.0 0.9688301521689109 0.34365917324725276
4225000000.0 0.9570478502746584 0.3049615453114297
4228000000.0 0.9825894891785267 0.2957914327749136
4231000000.0 0.964797686765833 0.2999416723536615
4234000000.0 1.0012718690386564 0.30116673402720395
4238000000.0 0.988836910139954 0.29732049637319635
4241000000.0 0.9583363192145686 0.2694390604599966
4244000000.0 0.986973506362598 0.2860299774846197
4247000000.0 0.9713582619683032 0.263755199427565
4250000000.0 0.9849127530703301 0.2467007574586011
4253000000.0 0.9562047948365731 0.227048060190711
4256000000.0 1.0057512415054661 0.24322166666628803
4259000000.0 0.9614780794939612 0.20326386703158447
4262000000.0 0.9889176986093575 0.18743565569393492
4266000000.0 1.0025511422789122 0.18989321861833808
4269000000.0 1.0151002621528482 0.21583223459983705
4272000000.0 1.0005911219556065 0.1907547274439284
4275000000.0 1.000614155328106 0.18309166684923722
4278000000.0 1.0307447536998846 0.1923478981968072
4281000000.0 0.9786575150264938 0.16667877425488226
4284000000.0 1.0175659318978332 0.12823032853170044
4288000000.0 0.9900044954624053 0.17403943494904786
4291000000.0 0.9854596040270203 0.1323583149752397
4294000000.0 0.9886592306641798 0.12416595052371397
4297000000.0 0.9934861899331738 0.11370026085011252
4300000000.0 1.001361231857768 0.1316064062664261
4303000000.0 0.9945419377000879 0.11010569786913811
4306000000.0 1.0054067780457052 0.12052604120508001
4309000000.0 0.9697518063733911 0.09173844799536109
4312000000.0 1.0180270715349087 0.12639944468603131
4316000000.0 1.0273835671888196 0.07172446185003249
4319000000.0 0.9776884147905861 0.06975676434122248
4322000000.0 0.9990505182720029 0.054454972050810554
4325000000.0 1.021262382754169 0.06234306560727802
4328000000.0 0.9834834922566122 0.030350715083664534
4331000000.0 1.0136577784747165 0.0009228984387947559
4334000000.0 1.029174007667703 0.017572151851597134
4338000000.0 1.0100842624208144 0.02726966977020108
4341000000.0 1.0335977319606917 0.04872634343091012
4344000000.0 1.0308661644943387 0.008119064763234235
4347000000.0 1.0154619655151433 -0.03787877496829911
4350000000.0 0.98671441248596 -0.052156547191518174
4353000000.0 1.0115802939363132 0.0023156730846080054
4356000000.0 0.9912361037203894 -0.052408179597015464
4359000000.0 0.9529963932598511 -0.03941138785068157
4362000000.0 1.0126789663984592 -0.11104300716663093
4366000000.0 1.0188490674221595 -0.07530130661516565
4369000000.0 0.9582051754465716 -0.05514027322461104
4372000000.0 1.0039823873521674 -0.12153955758444673
4375000000.0 0.9976203087262621 -0.08613998447794344
4378000000.0 0.974720803647737 -0.09949611256338947
4381000000.0 0.9969387202663365 -0.08947854768105674
4384000000.0 1.0819887318595685 -0.131508588040253
4388000000.0 0.9857175974105711 -0.11828151667999565
4391000000.0 1.0008435291148585 -0.13417172518595116
4394000000.0 0.9798206650043875 -0.16141755907318095
4397000000.0 0.9845630541976376 -0.1615321606690312
4400000000.0 1.0198363799535712 -0.17471839547449952
4403000000.0 1.0207885433934323 -0.16581657033179792
4406000000.0 0.9893922438736965 -0.20808288324579177
4409000000.0 1.0260158338029979 -0.19664189205946656
4412000000.0 0.9795717664017154 -0.24375751081295474
4416000000.0 0.967306738313227 -0.21782144168627823
4419000000.0 0.9921080543501709 -0.23209018543275498
4422000000.0 0.9870941033245102 -0.1896251737587352
4425000000.0 0.9950930141361689 -0.20568904122040207
4428000000.0 0.9773373569508749 -0.2574489467680558
4431000000.0 1.0024652935509726 -0.24778981236422254
4434000000.0 0.9610538084642286 -0.2603134743032388
4438000000.0 0.993670036333288 -0.27677028144641835
4441000000.0 0.9937573861368088 -0.27348823386041526
4444000000.0 0.9508072872160578 -0.2751932896936414
4447000000.0 0.943773696217267 -0.2945861675027165
4450000000.0 0.96148738371136 -0.28082102613315874
4453000000.0 0.9784532056023941 -0.3135977676034219
4456000000.0 0.9298639226912264 -0.3221701148723314
4459000000.0 0.9101302943319538 -0.32673729107559446
4462000000.0 0.9885725379448329 -0.33677039644059714
4466000000.0 0.9869450937160552 -0.36284706521007154
4469000000.0 0.9535638468826451 -0.3191278470173752
4472000000.0 0.9497559869505713 -0.3813824264903781
4475000000.0 0.9076665455197929 -0.3565584794392178
4478000000.0 0.9641640981877235 -0.3996117404721321
4481000000.0 0.8927728528480099 -0.39029977456182796
4484000000.0 0.9010059926915881 -0.4300368144691583
4488000000.0 0.9102018316447982 -0.3998351040847335
4491000000.0 0.9251032058565137 -0.411939986433204
4494000000.0 0.9142325666693387 -0.39350912666871846
4497000000.0 0.9064829895706876 -0.4121046611721334
4500000000.0 0.9216213325355624 -0.4224328926675045
4503000000.0 0.9332664297280249 -0.44661924259269203
4506000000.0 0.8953141310161421 -0.4502804374600786
4509000000.0 0.896929657705803 -0.4525741167007854
4512000000.0 0.8623140597878348 -0.45594043229798753
4516000000.0 0.9178865750039326 -0.47728772922762963
4519000000.0 0.8541168100453964 -0.46369591391417614
4522000000.0 0.8922004588951629 -0.5028216679218734
4525000000.0 0.8859139290424294 -0.47049087293980396
4528000000.0 0.880366961812465 -0.5210589083169552
4531000000.0 0.881866211058874 -0.4934769017671786
4534000000.0 0.8566792191940907 -0.5055548258962557
4538000000.0 0.8418624227639566 -0.5054964701719634
4541000000.0 0.8320028473039313 -0.5511872408698247
4544000000.0 0.8311822030430971 -0.5337736653130187
4547000000.0 0.8586385773645581 -0.5122442456551353
4550000000.0 0.8312727634688406 -0.5744395016445932
4553000000.0 0.839425466061537 -0.5676043698576438
4556000000.0 0.8080782781692579 -0.5596223506249837
4559000000.0 0.8306068017854084 -0.5908589738460208
4562000000.0 0.8395814491483857 -0.5826744596453561
4566000000.0 0.82165701760329 -0.6021073725832957
4569000000.0 0.8113865957788797 -0.5947307888579814
4572000000.0 0.8091402782701046 -0.6000527632082675
4575000000.0 0.7883082705018325 -0.6255464096126876
4578000000.0 0.827736948576332 -0.6224009942804323
4581000000.0 0.7871230461389916 -0.6400152768420304
4584000000.0 0.773281435819292 -0.6241155629755682
4588000000.0 0.7966577588533188 -0.6374785317155534
4591000000.0 0.7761376167736592 -0.6400378064594305
4594000000.0 0.7523589893667713 -0.6661377537858382
4597000000.0 0.7806930342153595 -0.6642597474748474
4600000000.0 0.7154501142420858 -0.678250277547662
4603000000.0 0.7370750223874204 -0.6793098640306157
4606000000.0 0.7609509747578681 -0.6974354124852612
4609000000.0 0.7360764708683308 -0.6809953107945075
4612000000.0 0.7332684547664439 -0.6928357764775617
4616000000.0 0.7083805074113347 -0.7037032956590429
4619000000.0 0.7255055477278249 -0.6848176409181426
4622000000.0 0.713168270072418 -0.7148557368403169
4625000000.0 0.6712832862584269 -0.7160799567032394
4628000000.0 0.7015937683326298 -0.7189800747044215
4631000000.0 0.67037857698075 -0.7432307806170083
4634000000.0 0.6953361884904603 -0.7506715268897586
4638000000.0 0.6835168287107599 -0.7575410933220603
4641000000.0 0.698524288285651 -0.7243698286195066
4644000000.0 0.6639787095179812 -0.7487686037569883
4647000000.0 0.6709245958323868 -0.7645414079843346
4650000000.0 0.6394915220321244 -0.7626102083259723
4653000000.0 0.65751628884835 -0.7731557720950104
4656000000.0 0.6328490382051983 -0.7869358482225808
4659000000.0 0.6150005129264492 -0.7899712887353838
4662000000.0 0.6501174942249455 -0.801895709101579
4666000000.0 0.600822604624117 -0.7949236054556117
4669000000.0 0.6238708329441602 -0.7953249009301934
4672000000.0 0.5978377450485025 -0.824878970876478
4675000000.0 0.5829941002934245 -0.8299032592924666
4678000000.0 0.5757534798542481 -0.803019248191818
4681000000.0 0.5489535085259735 -0.8540876087704428
4684000000.0 0.557963340017508 -0.8566805094838901
4688000000.0 0.5498725728865225 -0.8402226668598867
4691000000.0 0.5537294934686013 -0.8239266270205128
4694000000.0 0.5631977174246827 -0.8549492211061069
4697000000.0 0.5051096497689589 -0.8263545875326472
4700000000.0 0.5158151525942213 -0.8698188798558217
4703000000.0 0.5413957052698386 -0.8175531968302769
4706000000.0 0.5430903049116615 -0.8809906443095128
4709000000.0 0.5053821246375686 -0.8596178566252122
4712000000.0 0.5291566913700367 -0.876487478086213
4716000000.0 0.5181425241896531 -0.8769071456134274
4719000000.0 0.5200241215031336 -0.8678685155801276
4722000000.0 0.5131316072431874 -0.8759955784860403
4725000000.0 0.4757420348471208 -0.8869669963188971
4728000000.0 0.4564656164988048 -0.8909816741146106
4731000000.0 0.5038170499512667 -0.9279528056429691
4734000000.0 0.4750183129665495 -0.8654536810110938
4738000000.0 0.49016544082786695 -0.9018940698168743
4741000000.0 0.453867947536706 -0.9355401809062163
4744000000.0 0.44026785064611074 -0.9298909711005591
4747000000.0 0.4453011900342028 -0.8771016585225418
4750000000.0 0.44545199443624206 -0.9139016931155312
4753000000.0 0.44653352090932263 -0.9081332423428153
4756000000.0 0.4123185787746839 -0.9255960155737364
4759000000.0 0.39216171008275746 -0.9328506880357721
4762000000.0 0.36363792955418084 -0.967737625265136
4766000000.0 0.3878672049505818 -0.9208977277941869
4769000000.0 0.36260947832636314 -0.9538528112984604
4772000000.0 0.3722797330692905 -0.9328857421257496
4775000000.0 0.3574962508693584 -1.0144864747486566
4778000000.0 0.3731434829732301 -0.9605691037437724
4781000000.0 0.369113885512629 -0.9511691635323274
4784000000.0 0.32733670699955053 -0.9411177689477791
4788000000.0 0.30254546947537253 -0.9710591366013768
4791000000.0 0.3032722555597824 -0.9789745751538671
4794000000.0 0.33063234080192344 -0.9570928660993405
4797000000.0 0.28274992160086176 -0.9841620743703473
4800000000.0 0.2532338230076423 -0.9671615522463854
4803000000.0 0.241105577270955 -0.9692424389410741
4806000000.0 0.28614285703303055 -0.9893438098777856
4809000000.0 0.20421020122776828 -0.9991903811088695
4812000000.0 0.22762093034955638 -0.9421222020430564
4816000000.0 0.26273905768050887 -0.977632185671649
4819000000.0 0.26869582149979093 -0.9984302648774304
4822000000.0 0.2497997636801421 -1.0336455137711853
4825000000.0 0.2704613620837379 -1.008718487279289
4828000000.0 0.2141529630536661 -0.9857943708040581
4831000000.0 0.16386362455599285 -1.0197251616291532
4834000000.0 0.20722398628335437 -0.9917241160460106
4838000000.0 0.1671194302510748 -1.0236571013124296
4841000000.0 0.17672350797550485 -0.9925775109468472
4844000000.0 0.19840359216926895 -1.0162227610706276
4847000000.0 0.17121800515920874 -0.9896612263640343
4850000000.0 0.14586121752822312 -1.0350992223567632
4853000000.0 0.1632803776679 -0.9989083923372961
4856000000.0 0.12207555479218729 -1.007197197466706
4859000000.0 0.12382214310185918 -1.048268170603135
4862000000.0 0.14065769136494663 -0.9760686709766914
4866000000.0 0.08091590307305015 -1.0317091126454296
4869000000.0 0.0777981731011779 -1.0299689647984893
4872000000.0 0.06435418519338269 -1.0565423423721403
4875000000.0 0.15209374989893376 -1.052907994373595
4878000000.0 0.07625543026872669 -1.0289829029736808
4881000000.0 0.06287691168181642 -1.0645823203574452
4884000000.0 0.08695667257587421 -1.006666866155921
4888000000.0 0.0896876120807884 -1.0136582238783323
4891000000.0 0.07668600788225755 -1.0626113728544118
4894000000.0 0.025662766384302826 -1.0211121534587446
4897000000.0 0.05278096143448141 -1.0119909252387764
4900000000.0 0.03725946343447754 -1.0481711990138767
4903000000.0 0.0413796086989731 -1.0295504899123624
4906000000.0 -0.001993400443793227 -1.0160721635774712
4909000000.0 -0.02489025335218275 -1.025774049547141
4912000000.0 -0.05433046734122357 -1.035310614459361
4916000000.0 -0.017744618319928317 -1.0792088057106421
4919000000.0 0.020986642955672583 -1.0588510591614846
4922000000.0 -0.026331649993542774 -1.0612139030638899
4925000000.0 -0.0628061949751072 -1.0065519193359078
4928000000.0 -0.007320798275931253 -1.0090955036416198
4931000000.0 -0.03139161956832874 -1.0308183225259555
4934000000.0 -0.058146306908639214 -0.9873919772325822
4938000000.0 -0.12007667692224074 -1.0280719009469848
4941000000.0 -0.07098913241817008 -0.9936198319873947
4944000000.0 -0.06195145373550076 -0.9890664117552685
4947000000.0 -0.08120324333798776 -0.9757103589994189
4950000000.0 -0.0981389823884714 -1.0087161505050042
4953000000.0 -0.13135792752849124 -1.0451989666106383
4956000000.0 -0.1522202972926724 -1.0236670001751336
4959000000.0 -0.16745111833548496 -0.9654323427526308
4962000000.0 -0.15190158150878122 -1.0540849358726605
4966000000.0 -0.14623546980912394 -1.055010990926744
4969000000.0 -0.1462965919040627 -1.054282977866732
4972000000.0 -0.17417700685889945 -1.0406686270297025
4975000000.0 -0.14375360094104175 -1.011168451388357
4978000000.0 -0.1822389089366176 -1.0217175573462136
4981000000.0 -0.22686188350006778 -1.0154320589690682
4984000000.0 -0.17311282899427746 -0.9968645534884956
4988000000.0 -0.1819941245716477 -1.0221557832479846
4991000000.0 -0.1322347708203937 -1.0189287961176303
4994000000.0 -0.1890493058168593 -1.0391244031698248
4997000000.0 -0.22730117098414765 -1.0207181566276764
5000000000.0 -0.20448251066733442 -1.0228991756478678
5003000000.0 -0.23087496348244124 -1.0458116175578498
5006000000.0 -0.24890215737351598 -1.0732056756019182
5009000000.0 -0.2744024152990405 -1.0091276123019441
5012000000.0 -0.3036534950667343 -0.998868829463454
5016000000.0 -0.2655542223487973 -1.0264942059681108
5019000000.0 -0.27246917829170453 -0.9950725104088116
5022000000.0 -0.2733193274889413 -1.00572767952994
5025000000.0 -0.3045448492453287 -1.0537448263592581
5028000000.0 -0.3099775343164286 -0.9949799739656942
5031000000.0 -0.32643635324816744 -0.9669123252179416
5034000000.0 -0.37749156931722994 -1.0098117323796212
5038000000.0 -0.3535032942252968 -0.9783392861955851
5041000000.0 -0.3209950215254975 -0.9718394252651182
5044000000.0 -0.2984948366899498 -0.9598716150506491
5047000000.0 -0.33949963901917907 -0.9758484621817153
5050000000.0 -0.2948114346346502 -0.9549844798383593
5053000000.0 -0.40840487548609816 -1.0220831498833765
5056000000.0 -0.31905365964106613 -0.9809846562825946
5059000000.0 -0.31618306769140886 -0.9935318317343763
5062000000.0 -0.4125180949008391 -0.973059188857629
5066000000.0 -0.34849228398275844 -0.9828656036897467
5069000000.0 -0.41613512311929035 -0.9296210114079563
5072000000.0 -0.3715463403290876 -0.9378884177385476
5075000000.0 -0.37853280795652966 -0.9281501427831687
5078000000.0 -0.4630699824008931 -0.9105477999254721
5081000000.0 -0.41985736571941684 -0.8856559203410627
5084000000.0 -0.450512679462325 -0.9920173523304809
5088000000.0 -0.41767284788854586 -0.930516054973098
5091000000.0 -0.48897162061824045 -0.9354164937374612
5094000000.0 -0.4685847626086069 -0.9279717403120141
5097000000.0 -0.4684591215426559 -0.947264358115872
5100000000.0 -0.4682241645813211 -0.883433584271175
5103000000.0 -0.4844094718936459 -0.8812747228604844
5106000000.0 -0.5047662372213998 -0.9723407402522033
5109000000.0 -0.4554534867239265 -0.9549771610082591
5112000000.0 -0.4951648177721871 -0.8903857103962114
5116000000.0 -0.5038332886958975 -0.8931143583373939
5119000000.0 -0.5090464331434611 -0.8589981125526893
5122000000.0 -0.48691735182549073 -0.9198672800842247
5125000000.0 -0.5109975705164564 -0.9192122979832914
5128000000.0 -0.5848999418136885 -0.8574172210084043
5131000000.0 -0.49844428301713106 -0.9115532109875021
5134000000.0 -0.5135464986629092 -0.8932805346708467
5138000000.0 -0.5173143657994731 -0.8819916471660176
5141000000.0 -0.5118574800361595 -0.8879818682536589
5144000000.0 -0.5409996194726259 -0.9190543325382506
5147000000.0 -0.5731387005914451 -0.8982081883753098
5150000000.0 -0.5084257516144486 -0.8669981607848976
5153000000.0 -0.5973618503074749 -0.8519120218163164
5156000000.0 -0.618468068873852 -0.9096188808945156
5159000000.0 -0.6159692305185084 -0.8901306865593274
5162000000.0 -0.597860735982638 -0.8642902029391659
5166000000.0 -0.6452239001786327 -0.8502263637126594
5169000000.0 -0.639825198598524 -0.8271299420040913
5172000000.0 -0.6350071920708984 -0.8290525916417123
5175000000.0 -0.617784235538311 -0.8844511899258288
5178000000.0 -0.6177477896323516 -0.8011951529369334
5181000000.0 -0.6395618240688187 -0.8179141969290289
5184000000.0 -0.6254740413486545 -0.7858220644703079
5188000000.0 -0.674467902173944 -0.80263445443556
