! Created with skrf 1.8.0 (http://scikit-rf.org).
# Hz S RI R 50.0 
!freq ReS11 ImS11
4000000000.0 0.23042741779740328 0.9886369777657473
4003000000.0 0.2624646863279215 1.052919380841082
4006000000.0 0.32478341891981855 0.9699039333382082
4009000000.0 0.24667338504972422 1.013567248480035
4012000000.0 0.2299870782199054 1.0088891839763874
4016000000.0 0.28415600631370214 1.0948862558321337
4019000000.0 0.29489112427615305 0.9795777789050683
4022000000.0 0.23799670696304134 1.011739529934186
4025000000.0 0.3917370673117217 0.9620930504222791
4028000000.0 0.34009761687523493 0.9761811254916624
4031000000.0 0.30513039977018297 0.9570145521553272
4034000000.0 0.28686608509916206 0.9495581272157528
4038000000.0 0.3480760699730301 1.0185363295524077
4041000000.0 0.34341831453044097 0.9596459105004761
4044000000.0 0.4130362512605296 1.0137550954574843
4047000000.0 0.32894752761558776 0.9967672880556006
4050000000.0 0.4178849991874248 0.9528376597637199
4053000000.0 0.3925876505160823 0.9250142844929687
4056000000.0 0.3734909519879961 0.9384664296341497
4059000000.0 0.34944035395447903 0.9575460166625631
4062000000.0 0.42169830254604723 0.9308688471097908
4066000000.0 0.408887512324201 0.8798772418440804
4069000000.0 0.44428032445559223 0.9961759105002098
4072000000.0 0.36457242278631463 0.9426491605166443
4075000000.0 0.37830505276909215 0.9999129344237503
4078000000.0 0.44626274458991466 0.9404531768887447
4081000000.0 0.3751924560105908 0.9931017124838302
4084000000.0 0.5217743904876152 0.9127983737815941
4088000000.0 0.40376896057904005 0.9598264136451012
4091000000.0 0.5396676844100291 0.9846741406037827
4094000000.0 0.47149718220608056 0.9215269922693184
4097000000.0 0.5206277204065181 0.9316851485613897
4100000000.0 0.5406429997503491 0.899271230759739
4103000000.0 0.47157290462066076 0.9125779131952638
4106000000.0 0.5017496855558442 0.9409821907572826
4109000000.0 0.5509808369134122 0.9092568772650393
4112000000.0 0.4914887941117625 0.8715594790638781
4116000000.0 0.4601858336828833 0.9167010823747108
4119000000.0 0.5405795398644307 0.862911295398274
4122000000.0 0.5824996962315663 0.8643902688944773
4125000000.0 0.6165916163650011 0.9227948888961668
4128000000.0 0.5053038640264935 0.8356975483004365
4131000000.0 0.5305266282851476 0.8177534522512107
4134000000.0 0.5548467534524926 0.8378498490426567
4138000000.0 0.5696584820220696 0.8028970789908849
4141000000.0 0.6062862708932022 0.8136872913747477
4144000000.0 0.6186116125817255 0.8604606025241446
4147000000.0 0.5758287063225644 0.7787305184278412
4150000000.0 0.5868266945277756 0.8780005655585064
4153000000.0 0.6168101131251658 0.8108715394144311
4156000000.0 0.6310692334262552 0.8429731776397174
4159000000.0 0.5973235587291683 0.824349127271556
4162000000.0 0.6154578546620604 0.7684787336501566
4166000000.0 0.6313662320879829 0.788583770155679
4169000000.0 0.6993463663655457 0.787730812709822
4172000000.0 0.6324979364382425 0.8250715087084131
4175000000.0 0.6565522959522987 0.8022250885544555
4178000000.0 0.7122321058067649 0.7913222433046594
4181000000.0 0.6699022072309287 0.8214854190974822
4184000000.0 0.6879560904346568 0.7757701116835058
4188000000.0 0.6877573978862952 0.7707856208440373
4191000000.0 0.6685079512024312 0.7584419763904768
4194000000.0 0.6880220838350922 0.7079122353586983
4197000000.0 0.7068986077490542 0.7538215570327231
4200000000.0 0.6995109822744852 0.7450701898413558
4203000000.0 0.7199527424662902 0.7397626956169145
4206000000.0 0.7290366659155589 0.7553200688738657
4209000000.0 0.6851280219885556 0.7242262297941509
4212000000.0 0.7548221301710708 0.7299260005354735
4216000000.0 0.7166770503064706 0.7001828049994163
4219000000.0 0.7419970733479619 0.7371552715989053
4222000000.0 0.7846415740590698 0.7166405498264439
4225000000.0 0.7662104977322355 0.6839125303523244
4228000000.0 0.7666369368390187 0.703713896919497
4231000000.0 0.7601433657165747 0.684614704160804
4234000000.0 0.7855806075086453 0.6947724360156964
4238000000.0 0.7880274117021979 0.6549449491364941
4241000000.0 0.7801651962531877 0.6610523926480765
4244000000.0 0.7776621295301335 0.683151945452864
4247000000.0 0.813033731360956 0.6467849453465024
4250000000.0 0.8257623003056187 0.6340844437989742
4253000000.0 0.7801116209408308 0.6138070684239014
4256000000.0 0.812860219889145 0.5973077799241062
4259000000.0 0.7842730223972987 0.615757610085908
4262000000.0 0.8412846126737401 0.6037678820923466
4266000000.0 0.8229344561682532 0.5893441312150354
4269000000.0 0.8337694322565674 0.6167091940066107
4272000000.0 0.8376411477010578 0.5816338946417565
4275000000.0 0.8534871757679385 0.5768644203032172
4278000000.0 0.8550650694464487 0.582047168386641
4281000000.0 0.8271091668976156 0.5749973943115858
4284000000.0 0.8516016215901572 0.5536315254109209
4288000000.0 0.8465912282047426 0.5765017297242051
4291000000.0 0.8492185350939756 0.5520724070096609
4294000000.0 0.8452843313401137 0.521737090641442
4297000000.0 0.8544058046539299 0.5350835716089634
4300000000.0 0.8583814504431075 0.5373229066520465
4303000000.0 0.8556080449027628 0.5276702302373717
4306000000.0 0.9056051695289108 0.5037066410924421
4309000000.0 0.8798076717299887 0.4995573569465209
4312000000.0 0.9005631290650896 0.5147185276573129
4316000000.0 0.8728108935574503 0.510361095690499
4319000000.0 0.9128676745688693 0.4989452005172799
4322000000.0 0.9202407275173032 0.4476046313287108
4325000000.0 0.8879628639149729 0.4541284746463006
4328000000.0 0.9131266598362834 0.4294334028713547
4331000000.0 0.9420138240925992 0.411499047983348
4334000000.0 0.9333166722236461 0.44674566102886204
4338000000.0 0.894511408455774 0.45737996622193616
4341000000.0 0.944348088746704 0.44316446163418355
4344000000.0 0.92691778834707 0.4342172527898648
4347000000.0 0.94550224188196 0.35628929219713235
4350000000.0 0.9006388762018872 0.3764148301385935
4353000000.0 0.9075511118894624 0.39593128468012606
4356000000.0 0.9223267650049481 0.37919380302921546
4359000000.0 0.9172584438154355 0.37855633798874555
4362000000.0 0.9777599160691288 0.3064373398556456
4366000000.0 0.9754719987549574 0.3463050288586925
4369000000.0 0.9228790493495792 0.30985148988754296
4372000000.0 0.9652879977970457 0.29862993988462816
4375000000.0 0.9248405839257776 0.33762259534860195
4378000000.0 0.9429014641560788 0.3196390591015026
4381000000.0 0.9404052017028397 0.3253527893637099
4384000000.0 1.0109173309337862 0.3338646435278606
4388000000.0 0.9619310251735029 0.32678604771088043
4391000000.0 0.9697381782793637 0.28865269326386356
4394000000.0 0.9265723320548155 0.2751293751320024
4397000000.0 0.9731521260754914 0.26328232917718797
4400000000.0 1.0227515045849276 0.2712337621281894
4403000000.0 0.9857552881277818 0.28045576774537306
4406000000.0 0.9966062058453959 0.22316550705840152
4409000000.0 1.025138328630789 0.25910102144034586
4412000000.0 0.9876003221598054 0.18502370022923587
4416000000.0 0.9844655082509277 0.20569300599814314
4419000000.0 0.9820703024028442 0.2015491983551842
4422000000.0 0.9595588056906481 0.22854935731422166
4425000000.0 1.0134935314647424 0.24107009387790618
4428000000.0 0.9958905907997593 0.18398487927004054
4431000000.0 1.0205763827649725 0.18256899593835982
4434000000.0 0.9920349630697497 0.16643907084620518
4438000000.0 1.0227138980115613 0.1508809833522527
4441000000.0 1.0047044984436486 0.14502565605577944
4444000000.0 0.9821987644574117 0.14766471213412843
4447000000.0 0.9914036586460591 0.10941934021495447
4450000000.0 0.981458819776897 0.1406041715918353
4453000000.0 1.0358316188960028 0.09922266259625911
4456000000.0 0.9919486842082947 0.08304054483854498
4459000000.0 0.9535088552582602 0.0667462468124117
4462000000.0 1.0609634427364238 0.0884015848909134
4466000000.0 1.0487270337887047 0.06363288321556154
4469000000.0 1.0076702430141902 0.0864289378524972
4472000000.0 1.0257781816139695 0.03954136295370178
4475000000.0 0.9830546869695742 0.04895308425899675
4478000000.0 1.0610079524952145 0.024253058210195355
4481000000.0 0.9948477377929701 0.012182477655231352
4484000000.0 1.0009149888344602 -0.02684529021254818
4488000000.0 1.0078871045303512 0.0007540270983281971
4491000000.0 1.0124562277545324 -0.009588476038910082
4494000000.0 0.9966650140524123 -0.020643839370696554
4497000000.0 1.0033746471054685 -0.0031747692259389768
4500000000.0 1.0041502775292521 0.006551422089079287
4503000000.0 1.0363020933226763 -0.023358738238647085
4506000000.0 0.9838064896119785 -0.02910274717253939
4509000000.0 0.9766567415007541 -0.04793006563552653
4512000000.0 0.9812772501783756 -0.05256118465310255
4516000000.0 1.0231234736410153 -0.06874584422448972
4519000000.0 1.0011926068422488 -0.05959704721120143
4522000000.0 0.9998446874459874 -0.09352919067674527
4525000000.0 0.9906136598393265 -0.0632511248073012
4528000000.0 1.028357899380215 -0.11020867412257959
4531000000.0 1.0090553816292935 -0.07740348928746818
4534000000.0 0.9844842873074492 -0.11137277760642143
4538000000.0 0.9859562499124996 -0.12913618293336132
4541000000.0 0.9834614775958985 -0.17143659159419122
4544000000.0 0.9818773312537383 -0.1544551561151809
4547000000.0 0.9836523955930379 -0.1159563743403676
4550000000.0 0.9934092730508961 -0.18670690939839774
4553000000.0 1.008532130518085 -0.16290344621482858
4556000000.0 0.9534204495055338 -0.18895303620305462
4559000000.0 0.9837502504103602 -0.23361108875140374
4562000000.0 1.014968551883306 -0.2076564230425025
4566000000.0 0.9812742950476017 -0.22270589740665409
4569000000.0 0.9560879957197419 -0.2248076816401795
4572000000.0 0.9395747508974944 -0.23811397735429146
4575000000.0 0.9863924457489475 -0.2538919691098658
4578000000.0 1.0031888421279198 -0.2492693566034948
4581000000.0 0.9859467992284827 -0.2812771120828977
4584000000.0 0.9609543215077243 -0.2621123961539138
4588000000.0 1.0056747710142102 -0.2747730331286379
4591000000.0 0.9738330215785322 -0.26584149248819694
4594000000.0 0.9368895340182637 -0.30415090198177697
4597000000.0 0.972973237885022 -0.30424325984214995
4600000000.0 0.9009082177213099 -0.32334422254010786
4603000000.0 0.9725440069603202 -0.32368370360104126
4606000000.0 0.9412726286374702 -0.3339342062277658
4609000000.0 0.9557153301856703 -0.34064062172691006
4612000000.0 0.9619012218087012 -0.34193701977054014
4616000000.0 0.9384519588488829 -0.36416345620705654
4619000000.0 0.9573197655305827 -0.34189046255940253
4622000000.0 0.9418299003461787 -0.34859985186096054
4625000000.0 0.8998318921197943 -0.3743569067231775
4628000000.0 0.9052082720965948 -0.3501791049486058
4631000000.0 0.8988998015057046 -0.4210091469492338
4634000000.0 0.9248080089501384 -0.39976726619245073
4638000000.0 0.9410614760786457 -0.40392028741991104
4641000000.0 0.931822932738065 -0.41966665147105214
4644000000.0 0.9197923674912579 -0.416025131572499
4647000000.0 0.9228897527599306 -0.42788452706769564
4650000000.0 0.8883657093674202 -0.44788124695754206
4653000000.0 0.9109781712260095 -0.43747281458274834
4656000000.0 0.8779842597389593 -0.48433031132300347
4659000000.0 0.8755279100461522 -0.4725627995816755
4662000000.0 0.8868666545577091 -0.47268104502614994
4666000000.0 0.8654364095544654 -0.46932320616215084
4669000000.0 0.8887868978187317 -0.4770419275399528
4672000000.0 0.8762152713552717 -0.5245543783637014
4675000000.0 0.8493298390367772 -0.526939084358925
4678000000.0 0.8320584403722142 -0.5227401501374992
4681000000.0 0.8592977547198096 -0.553705664659401
4684000000.0 0.8243690190668939 -0.5373266989904922
4688000000.0 0.8390488435256478 -0.5317174682737963
4691000000.0 0.8448217160686574 -0.541288509879549
4694000000.0 0.8221436808823953 -0.5712105536490066
4697000000.0 0.8172290391445112 -0.5536031050153323
4700000000.0 0.8405444591835981 -0.565923996918919
4703000000.0 0.8427301498846704 -0.5676652335255359
4706000000.0 0.8163470144233593 -0.5776869360157897
4709000000.0 0.8346526115875512 -0.6220498174507532
4712000000.0 0.7978712933795935 -0.606951930364986
4716000000.0 0.7822448386814933 -0.5874931335108262
4719000000.0 0.793886549788881 -0.6115390368984871
4722000000.0 0.8182726865407204 -0.6383445658719136
4725000000.0 0.7830988327803601 -0.6229704868272629
4728000000.0 0.7648221942283082 -0.6291183902702586
4731000000.0 0.8097582037920998 -0.6366246526569386
4734000000.0 0.7627813079649222 -0.6257342530663541
4738000000.0 0.7626647891734528 -0.6516478454329937
4741000000.0 0.7706279969773603 -0.657123444767226
4744000000.0 0.7405291551605517 -0.6985754631503228
4747000000.0 0.7430968509915374 -0.6797052415143416
4750000000.0 0.7304182337914008 -0.6799839636698127
4753000000.0 0.718022493114519 -0.7287960448655686
4756000000.0 0.6901881283435372 -0.6959436450079635
4759000000.0 0.7191111896940088 -0.7045538516796791
4762000000.0 0.7374737147176357 -0.7272845258178409
4766000000.0 0.6747873200771928 -0.7358473605251351
4769000000.0 0.7299503666346203 -0.7171716371320217
4772000000.0 0.6762521437346896 -0.7342320066927902
4775000000.0 0.680469011123108 -0.7759803011383504
4778000000.0 0.7013428361989212 -0.7569366833591012
4781000000.0 0.7021532799362031 -0.7681661436822743
4784000000.0 0.6869995176597339 -0.7440610684317411
4788000000.0 0.6567522944628612 -0.7616049683182938
4791000000.0 0.6491628701561425 -0.7589815898250325
4794000000.0 0.6659966845883133 -0.7636558478031346
4797000000.0 0.6146465980522383 -0.7961020871073865
4800000000.0 0.6043876259867978 -0.7992819976678454
4803000000.0 0.5890325596254926 -0.8036768488998645
4806000000.0 0.636364737868167 -0.7908251533918724
4809000000.0 0.5917108024992841 -0.8266585130957816
4812000000.0 0.5672115414053578 -0.8306139345389844
4816000000.0 0.6031654555186676 -0.7831478291624406
4819000000.0 0.6243101129715147 -0.836282089891696
4822000000.0 0.6190519474606223 -0.8208931318141489
4825000000.0 0.6081721371032085 -0.8430600752698794
4828000000.0 0.5581061778738639 -0.8452306063925416
4831000000.0 0.5587571546297674 -0.8680754775241097
4834000000.0 0.5656860316892824 -0.8540892065465584
4838000000.0 0.548095713116149 -0.8747134542029554
4841000000.0 0.5246944853544413 -0.8654444706981087
4844000000.0 0.5529979538445524 -0.8467773708429506
4847000000.0 0.5351736051576036 -0.8540978280052645
4850000000.0 0.5195382557297366 -0.8684978789974216
4853000000.0 0.5075625270132871 -0.8716121712133842
4856000000.0 0.5041746987987711 -0.862392932467023
4859000000.0 0.519904572629957 -0.9066035213921632
4862000000.0 0.49272566332900675 -0.8494325810509739
4866000000.0 0.48653323750211785 -0.916296652281185
4869000000.0 0.45228301944697913 -0.9064864461280366
4872000000.0 0.45477020767214144 -0.9201537596144174
4875000000.0 0.5208392416810687 -0.9076395519244702
4878000000.0 0.4524802853544555 -0.9240279890807889
4881000000.0 0.4414452207682572 -0.9773268385633356
4884000000.0 0.42500466133438836 -0.9055324969629013
4888000000.0 0.4594888534504744 -0.9103101056332678
4891000000.0 0.444612628280884 -0.9256901807070248
4894000000.0 0.3961644724828632 -0.9477021474067502
4897000000.0 0.41033225588244154 -0.9076091998741379
4900000000.0 0.4068076579370046 -0.9570863756555382
4903000000.0 0.4022495792975881 -0.9473119130056608
4906000000.0 0.3818252555028622 -0.9914459730254355
4909000000.0 0.3728793898805105 -0.9574648253494844
4912000000.0 0.3486416331779288 -0.9956077747260275
4916000000.0 0.3707068383176579 -0.957569895660056
4919000000.0 0.385636847318724 -0.9782341384571475
4922000000.0 0.37296778322985846 -0.9921117325575817
4925000000.0 0.3240078518180872 -0.9683278800734565
4928000000.0 0.36273372695704115 -0.9366543341615082
4931000000.0 0.3356857852745457 -0.9669397936282582
4934000000.0 0.3162833340307845 -0.939701211614511
4938000000.0 0.27846604674136055 -0.9718697539406307
4941000000.0 0.30366620105899306 -0.9645526036856065
4944000000.0 0.301631335920701 -0.9393083114320944
4947000000.0 0.267451173635895 -0.9651449011802687
4950000000.0 0.25538067780600326 -0.9754621119827183
4953000000.0 0.2553120161633414 -1.040108605810354
4956000000.0 0.20223157059505462 -0.9903753435134705
4959000000.0 0.18686129679608957 -0.9649512176548389
4962000000.0 0.23520356404212672 -0.997711446505043
4966000000.0 0.24313202546013882 -1.0087791347717403
4969000000.0 0.2657420744121165 -1.0321972667087438
4972000000.0 0.19272932912342258 -1.0217568726333428
4975000000.0 0.233122661748106 -0.9877038751409118
4978000000.0 0.2163480763906483 -0.9899683575924713
4981000000.0 0.14870403661883005 -1.0121094810959748
4984000000.0 0.1885005373000973 -0.9976087693400497
4988000000.0 0.18410714618399235 -0.9682570270750852
4991000000.0 0.21722455876892052 -1.0356842803706152
4994000000.0 0.1705051322601126 -1.0344725693637848
4997000000.0 0.14666725944900835 -1.0262743489084207
5000000000.0 0.15775160922290984 -1.0663442060884978
5003000000.0 0.15187500283738992 -1.042083279789671
5006000000.0 0.12130191950764115 -1.0613692003471433
5009000000.0 0.13979350320659567 -1.0414686840036558
5012000000.0 0.07731207446783284 -1.0124690651573476
5016000000.0 0.13387896510642752 -1.0307790121622489
5019000000.0 0.08224391277006765 -1.0057779512792544
5022000000.0 0.09583914652340375 -1.0307060185115269
5025000000.0 0.06775337262749184 -1.0819520306961223
5028000000.0 0.052010342531344844 -1.009299403236797
5031000000.0 0.061155987585667065 -1.0086662995328015
5034000000.0 0.030962278578795244 -1.0845927661364396
5038000000.0 -0.0014106469937733568 -0.9919363340694927
5041000000.0 0.06736938190660566 -1.0068589541956459
5044000000.0 0.029274870324739244 -1.0086540236121029
5047000000.0 0.06555077823546526 -1.0040386869569708
5050000000.0 0.08011670630727147 -0.9924641419726592
5053000000.0 -0.008071311373618328 -1.0823972023701072
5056000000.0 0.056023286880524714 -1.0313492419109762
5059000000.0 0.06844888845056216 -1.0516927244889334
5062000000.0 -0.03604756374906762 -1.021500184777343
5066000000.0 -0.019628714228269117 -1.0257840952006794
5069000000.0 -0.0566011201319227 -1.0640977780745449
5072000000.0 -0.05337016019164505 -0.9817465351711276
5075000000.0 -0.0398013156777835 -1.049166352105231
5078000000.0 -0.13061320340255383 -1.0412569033850942
5081000000.0 -0.052054162094572434 -0.9809535255666165
5084000000.0 -0.09235787724076719 -1.0774420732415866
5088000000.0 -0.06876520402570577 -1.0390594446465693
5091000000.0 -0.15693553810847055 -1.058814160233868
5094000000.0 -0.10715054348281074 -1.0702072779708658
5097000000.0 -0.0551192318690559 -1.0464240509626048
5100000000.0 -0.12184335723311396 -1.0111765313384022
5103000000.0 -0.154261217050787 -1.010662569559261
5106000000.0 -0.11378050983897474 -1.0784215729554574
5109000000.0 -0.08870114253975965 -1.0054659957679806
5112000000.0 -0.18637881526747713 -0.9732049906500357
5116000000.0 -0.13126999405664566 -0.9444955316252823
5119000000.0 -0.1490005280226896 -1.0418183200626718
5122000000.0 -0.16881463549487968 -0.9766133484903119
5125000000.0 -0.14168591734644315 -1.0354937481215645
5128000000.0 -0.20052763654347824 -0.9782541457968379
5131000000.0 -0.24831845583289114 -0.9556195549336709
5134000000.0 -0.20697303192069486 -1.0345128284872165
5138000000.0 -0.22328044997236787 -1.0171992487117283
5141000000.0 -0.16141028361655718 -1.0222684661042036
5144000000.0 -0.23323050883752378 -1.0414338334433053
5147000000.0 -0.2273269092775717 -1.0265081213441338
5150000000.0 -0.21882163313394526 -1.0061014080175092
5153000000.0 -0.2908883563115513 -0.9769436549298258
5156000000.0 -0.2663418586163824 -1.0112368522119326
5159000000.0 -0.2617792382123325 -1.019122984355862
5162000000.0 -0.24440274968896536 -0.981186210931734
5166000000.0 -0.2806397309520457 -1.0370458827934574
5169000000.0 -0.2976808550578611 -1.0007292083845234
5172000000.0 -0.2778672163105257 -0.9812727203095399
5175000000.0 -0.2987660387597506 -1.0825265668344284
5178000000.0 -0.35284079885143355 -0.9587261771842784
5181000000.0 -0.27769369599288135 -1.0114347363779113
5184000000.0 -0.3608771683034736 -0.9624731092515574
5188000000.0 -0.3238654422601217 -0.9663401978695346
5191000000.0 -0.3545062983406991 -1.00597083433023
