! Created with skrf 1.8.0 (http://scikit-rf.org).
# Hz S RI R 50.0 
!freq ReS11 ImS11
4000000000.0 0.6267981167714253 0.7609679723870166
4003000000.0 0.7119380937607557 0.8494276998708701
4006000000.0 0.6692678888435016 0.7732530619162187
4009000000.0 0.6760425211244786 0.7918336650561132
4012000000.0 0.6506549397797696 0.8393379366791675
4016000000.0 0.6914493648934219 0.758489794925266
4019000000.0 0.6750719987174794 0.7434441749072876
4022000000.0 0.6676762755568086 0.822622975131965
4025000000.0 0.7523442609415095 0.7602036186965202
4028000000.0 0.733172033894755 0.7698900910380688
4031000000.0 0.7025411942769817 0.7402111002369566
4034000000.0 0.7390104856795656 0.7480259888828353
4038000000.0 0.7521095766567256 0.742511042175541
4041000000.0 0.7775693806881037 0.7490602511260138
4044000000.0 0.7736777127129403 0.7774253603057879
4047000000.0 0.7742765924410295 0.7767004460729232
4050000000.0 0.8170513396741258 0.7251845240812087
4053000000.0 0.7462382016851589 0.6327556761854072
4056000000.0 0.7684371049133484 0.7035452181490983
4059000000.0 0.7135237003868113 0.7091874005989516
4062000000.0 0.7816513571942906 0.6705939566705426
4066000000.0 0.7279364504059136 0.6350768352611685
4069000000.0 0.8530872463076884 0.6813307654613127
4072000000.0 0.7858488203521692 0.7163274562118087
4075000000.0 0.7686661099937352 0.6686211320577176
4078000000.0 0.8279177802215292 0.6535464149913276
4081000000.0 0.8003528275188119 0.703548325545658
4084000000.0 0.8299574775598493 0.5976923860249097
4088000000.0 0.781042720382756 0.6582242921131933
4091000000.0 0.8550006974972328 0.6749652408775706
4094000000.0 0.8030451495935618 0.6335346359875861
4097000000.0 0.8363461917111821 0.6041771733961128
4100000000.0 0.8251756666338239 0.615238576415422
4103000000.0 0.8662043871634895 0.606315535227907
4106000000.0 0.8962464448825654 0.5663046343899241
4109000000.0 0.8773489897393223 0.5699597517464956
4112000000.0 0.876783915072251 0.5511434276540841
4116000000.0 0.8170395248594567 0.5405006258464419
4119000000.0 0.8693617829328634 0.562163445962877
4122000000.0 0.9366909931526582 0.5623864183860234
4125000000.0 0.8929875307482706 0.5860074533844202
4128000000.0 0.8207803523456826 0.5332447891782293
4131000000.0 0.8528434644026714 0.5473373477445246
4134000000.0 0.884621684180921 0.5212630404934537
4138000000.0 0.8806470757031086 0.4795316142473904
4141000000.0 0.866019238869885 0.4795472827257823
4144000000.0 0.8857282630225913 0.5340149347552214
4147000000.0 0.9027716823244833 0.46690842992582976
4150000000.0 0.962045430390662 0.518615824010155
4153000000.0 0.9296771451660366 0.4583771994211756
4156000000.0 0.9320030938187809 0.5043004209263395
4159000000.0 0.9369663748991066 0.49939246775272855
4162000000.0 0.8927664984694179 0.4533124503179363
4166000000.0 0.9637916200522421 0.44806859869233573
4169000000.0 0.9193287410005723 0.41303571771120273
4172000000.0 0.9127996561175964 0.4501257201306717
4175000000.0 0.922435873343477 0.43055341280665055
4178000000.0 0.9463200945414143 0.43398146147162475
4181000000.0 0.9733256176386555 0.3898633668384689
4184000000.0 0.9299297534554706 0.41231557473284625
4188000000.0 0.9380551901067031 0.4248221592603246
4191000000.0 0.9196793908456186 0.4138661073320405
4194000000.0 0.9331723760983723 0.36280986230756085
4197000000.0 0.9683797957339346 0.3763058927985495
4200000000.0 0.9377831253777349 0.3839474007781615
4203000000.0 0.9861871639741129 0.36211364548133784
4206000000.0 0.9758883275045833 0.3543787679401131
4209000000.0 0.9573830755579493 0.3330838803832103
4212000000.0 0.9819275786982963 0.30271492445662473
4216000000.0 0.9615274108762115 0.3407402166057097
4219000000.0 0.9883736232240673 0.32890258971891295
4222000000.0 0.983488870956841 0.29915855021908594
4225000000.0 0.9589027141447197 0.3124268626021347
4228000000.0 1.0053100871969312 0.2910783740927848
4231000000.0 0.9772125658969957 0.2916890452148398
4234000000.0 0.9932167875108446 0.2817189912180088
4238000000.0 0.9955677505965851 0.2654453494426703
4241000000.0 0.9821722590522617 0.23405951814089826
4244000000.0 0.9693714847859883 0.2676842037704017
4247000000.0 1.000000019329125 0.2501720640810346
4250000000.0 0.9683647958299026 0.2255853962588914
4253000000.0 0.9809280516012344 0.22284266863248003
4256000000.0 1.0197423300828947 0.2171446071336829
4259000000.0 0.9732907809585949 0.20225848567989588
4262000000.0 0.9898736285006107 0.18453094127102979
4266000000.0 1.027646754999794 0.16218964675547354
4269000000.0 1.0127581021567233 0.18870025447320568
4272000000.0 1.003768137337751 0.1914176958101314
4275000000.0 1.003373415573419 0.16314102864333813
4278000000.0 1.0415121169990866 0.1723647667141338
4281000000.0 1.00288404302964 0.20197184207132562
4284000000.0 1.0428665300991358 0.12981822774466298
4288000000.0 0.9870163898888555 0.17017088748578788
4291000000.0 0.9911512422215294 0.13014106396010672
4294000000.0 1.0086481699683012 0.13662464807840496
4297000000.0 1.005071567009912 0.13985605568969328
4300000000.0 0.992768434510509 0.1235316036280705
4303000000.0 1.022316924072093 0.0700344061857079
4306000000.0 1.0301105505662247 0.10717832742044303
4309000000.0 1.0027317597262417 0.0722287380128699
4312000000.0 1.0212360937085303 0.11396198620776063
4316000000.0 1.04738315022035 0.05962400221097412
4319000000.0 0.9948296288685645 0.07717816126246362
4322000000.0 0.9876996643800469 0.013672534884464849
4325000000.0 1.0101932840722228 0.021621282658961252
4328000000.0 1.0019051129847834 0.02663641302886942
4331000000.0 1.0254698952780152 -0.023588251984755684
4334000000.0 1.0207321331447408 0.013388838289469018
4338000000.0 1.0063718823762917 0.056147791899030644
4341000000.0 1.0378574628263715 0.00680793899157961
4344000000.0 1.0353778837803906 -0.01853591251999895
4347000000.0 1.0370530067450392 -0.05493337849375503
4350000000.0 0.995910101146559 -0.03567996557062321
4353000000.0 0.9880587219177692 -0.011878635041407681
4356000000.0 0.9983031751735002 -0.0763071408798787
4359000000.0 0.9449643387332203 -0.03860150753712652
4362000000.0 1.0051582827434862 -0.12744191660818183
4366000000.0 1.0253783274924513 -0.09576751995589694
4369000000.0 0.9766539177637484 -0.09296833058225103
4372000000.0 1.0066230958068296 -0.13248787711597207
4375000000.0 0.9951519162550473 -0.09406065247739416
4378000000.0 0.9764602633664499 -0.11292240122578265
4381000000.0 0.9951847751237406 -0.11051920460022308
4384000000.0 1.064567899741521 -0.1588013161014184
4388000000.0 0.9803148763082917 -0.12889602502299488
4391000000.0 1.0216656170537 -0.13953720737132297
4394000000.0 0.9711200377468462 -0.14842954561348748
4397000000.0 0.9923430178954531 -0.16038193112556426
4400000000.0 1.0282121257321386 -0.1923174637310462
4403000000.0 0.9950252100883061 -0.18724015144454662
4406000000.0 0.9942612441940549 -0.21248876778433196
4409000000.0 1.03858674548753 -0.22347803865956642
4412000000.0 0.9719134876051733 -0.2593468543849934
4416000000.0 0.9762401928344902 -0.2336338589523634
4419000000.0 0.9945584268894082 -0.24755606227743923
4422000000.0 0.9916641483439343 -0.22302779226845246
4425000000.0 1.0054940044503047 -0.23756821004175532
4428000000.0 0.973475539704144 -0.2687284828624122
4431000000.0 0.9931026776374119 -0.27522981418652387
4434000000.0 0.9646322507523103 -0.2732670529753478
4438000000.0 1.00258397315978 -0.27640990605727767
4441000000.0 0.9945504628401918 -0.29236942978380703
4444000000.0 0.9469053000261871 -0.2894680509359862
4447000000.0 0.9468597435204787 -0.31596426123148597
4450000000.0 0.9436201240686735 -0.2912596165094881
4453000000.0 0.9955473125247677 -0.3202066130601998
4456000000.0 0.935593367486028 -0.33877743109522357
4459000000.0 0.9005700481919354 -0.3389353719107081
4462000000.0 0.9996551839886263 -0.36585313716820056
4466000000.0 0.9793532845259693 -0.372972883123268
4469000000.0 0.9519457846025585 -0.37095847706585294
4472000000.0 0.955025433197274 -0.4124728385329402
4475000000.0 0.9173074129225056 -0.36570502355928736
4478000000.0 0.9731190538945074 -0.41369604180553443
4481000000.0 0.8887894360167525 -0.40974841724433964
4484000000.0 0.8989584224910141 -0.4415871456777454
4488000000.0 0.9025259392807413 -0.4277315406352549
4491000000.0 0.9140154050612269 -0.4343586441069432
4494000000.0 0.9164255174814124 -0.41615268591581495
4497000000.0 0.9146663042007748 -0.4078906271676409
4500000000.0 0.9208751987176098 -0.45104114524888367
4503000000.0 0.9341149222607459 -0.444832838374648
4506000000.0 0.8845694332665583 -0.4654179351988192
4509000000.0 0.8732619833048929 -0.47222347037203094
4512000000.0 0.87963097408767 -0.5005817566562137
4516000000.0 0.8980249691313941 -0.4881036169752314
4519000000.0 0.8623347929768637 -0.4657786973373149
4522000000.0 0.8875005594182364 -0.5205160593321727
4525000000.0 0.8719089771865338 -0.4793020656697138
4528000000.0 0.8944012257186085 -0.5406283230866998
4531000000.0 0.8674873376086834 -0.5068307487249141
4534000000.0 0.8529343719727349 -0.5306101927735718
4538000000.0 0.856160485248038 -0.560503167374437
4541000000.0 0.8331361163431001 -0.5811949590705242
4544000000.0 0.8285346901765482 -0.5568066866139222
4547000000.0 0.8397073033426994 -0.5287310893813684
4550000000.0 0.8241701956509406 -0.5977620150489492
4553000000.0 0.8328795049422393 -0.5804836575703067
4556000000.0 0.7765758076794018 -0.6002419969550268
4559000000.0 0.8196088931833398 -0.613869719252951
4562000000.0 0.8396875382125035 -0.6295771122346399
4566000000.0 0.8073464779526338 -0.6271894371752247
4569000000.0 0.7986504949108456 -0.6055959448811812
4572000000.0 0.8005721911130078 -0.6206958882204319
4575000000.0 0.8041265266204847 -0.6561652606741877
4578000000.0 0.8143515396063132 -0.6370210370301211
4581000000.0 0.7772994574209836 -0.6549106619650801
4584000000.0 0.7555774730572373 -0.6527353365113312
4588000000.0 0.7951886691960889 -0.6684709151551126
4591000000.0 0.7833458065390175 -0.6520882457335002
4594000000.0 0.7410979669248114 -0.6745146342633667
4597000000.0 0.7577047825682097 -0.6974589968828607
4600000000.0 0.7180190248956522 -0.696742399869111
4603000000.0 0.7240663690783803 -0.6832506776603213
4606000000.0 0.7493358004566852 -0.6997139427321676
4609000000.0 0.741684899807433 -0.7038067624680094
4612000000.0 0.7404853475443234 -0.7053899497688899
4616000000.0 0.7047242632699928 -0.7193704111786676
4619000000.0 0.7141505894414202 -0.7090516605824663
4622000000.0 0.7136127116964154 -0.7305966296133062
4625000000.0 0.661125246364251 -0.7489714519061599
4628000000.0 0.7012855883615337 -0.7294127939415437
4631000000.0 0.6735663903287439 -0.7598687744379184
4634000000.0 0.6883871640743782 -0.764063381664882
4638000000.0 0.6648170902499994 -0.7576216874458499
4641000000.0 0.6739327125236234 -0.7694934591452841
4644000000.0 0.6591115162261233 -0.7570663373113339
4647000000.0 0.6454785299394363 -0.8054932060040472
4650000000.0 0.6187748626376259 -0.7791401091066094
4653000000.0 0.6349895481975435 -0.7959357144603951
4656000000.0 0.6148138239619876 -0.8120180851124341
4659000000.0 0.6136644655378111 -0.7945156061158247
4662000000.0 0.6133319197576627 -0.8146045788666895
4666000000.0 0.6087453204067764 -0.8139999129287121
4669000000.0 0.6070730088550431 -0.8038822594243511
4672000000.0 0.5839227159682796 -0.8477307243241641
4675000000.0 0.5716349757941841 -0.841930713351289
4678000000.0 0.5600727782457644 -0.8212191086233023
4681000000.0 0.5538899947049485 -0.8483348798999193
4684000000.0 0.5421134293993156 -0.8582937999575739
4688000000.0 0.5242508980042302 -0.847697418450888
4691000000.0 0.5791343428275421 -0.8392636848703279
4694000000.0 0.5359661969521743 -0.8507848217575646
4697000000.0 0.5056066822447524 -0.8423393785212265
4700000000.0 0.5313447285059415 -0.8369984663459251
4703000000.0 0.5357686961389402 -0.8371131944713024
4706000000.0 0.5002416041465452 -0.9140864497009601
4709000000.0 0.4932368953823063 -0.8906363167385146
4712000000.0 0.48882033426136845 -0.8762975132988765
4716000000.0 0.477685223830413 -0.8977414307806375
4719000000.0 0.5016603635058585 -0.9004381514016343
4722000000.0 0.4776432207010891 -0.9095461931651605
4725000000.0 0.4693927519191245 -0.8939214095192142
4728000000.0 0.457084725068167 -0.8995781905895666
4731000000.0 0.4632461715523192 -0.9168611305221739
4734000000.0 0.45789183740965644 -0.9158802307767328
4738000000.0 0.465551225310593 -0.9586704956050486
4741000000.0 0.43810386202517576 -0.9646273675924535
4744000000.0 0.3965952057069517 -0.9469170217464679
4747000000.0 0.40490951558779653 -0.9177043282825161
4750000000.0 0.37782154949635505 -0.9301811582842696
4753000000.0 0.41101193370171896 -0.9545762831404927
4756000000.0 0.3701446438331798 -0.9441458751690952
4759000000.0 0.378395618069927 -1.011414746497194
4762000000.0 0.33491467734577235 -1.0012448138861574
4766000000.0 0.37588425190953223 -0.9788165747279911
4769000000.0 0.36377310717904476 -0.9781987538690352
4772000000.0 0.36343389392301984 -0.9688097632459164
4775000000.0 0.3288849580475121 -1.002642350419271
4778000000.0 0.35071033156307674 -0.9914358164712921
4781000000.0 0.3389200956079756 -0.9574076503538125
4784000000.0 0.32826769331028144 -0.9715583466188383
4788000000.0 0.29232265780311245 -0.9766943374636954
4791000000.0 0.28548756897486804 -0.9644014856423547
4794000000.0 0.3254979037870488 -1.0012747239467468
4797000000.0 0.2792317886506387 -0.9770024672239671
4800000000.0 0.2637921754384351 -0.9909053421924059
4803000000.0 0.20467324558444752 -0.9808852009028601
4806000000.0 0.27742685157249414 -0.9909594723623278
4809000000.0 0.21570827858105432 -1.0002751387226831
4812000000.0 0.19920516683046682 -0.9776964374709229
4816000000.0 0.2534895527286997 -0.9929502509469588
4819000000.0 0.24321284939575388 -1.015536248766654
4822000000.0 0.22280210972645956 -1.0233511792644006
4825000000.0 0.22587070634819179 -1.0023523597193793
4828000000.0 0.19783100620532654 -0.9974876175856667
4831000000.0 0.1430321150312924 -1.0409456943853883
4834000000.0 0.19226622484711273 -0.9971662782259763
4838000000.0 0.1674614442095521 -1.0214476956982597
4841000000.0 0.15191670376112354 -1.0066635314330132
4844000000.0 0.18803843710668244 -1.0040890679941261
4847000000.0 0.17685506237717458 -0.9994699668418381
4850000000.0 0.1294114124584216 -1.0332486974191004
4853000000.0 0.12723119280006354 -1.0075663898335578
4856000000.0 0.11590058435636416 -1.015964909835481
4859000000.0 0.11818402618811509 -1.0543365361313186
4862000000.0 0.12807244492385178 -0.995822643410999
4866000000.0 0.07364792192031985 -1.0255061895607316
4869000000.0 0.07221188372447987 -1.0193973835842995
4872000000.0 0.04440669023147598 -1.0596024564182502
4875000000.0 0.11965229689062547 -1.0738899994152287
4878000000.0 0.04135937393547925 -1.0277024499811345
4881000000.0 0.024981066082951524 -1.1044678059723725
4884000000.0 0.04900591843670039 -1.023119809291067
4888000000.0 0.06235483040679972 -1.0296608930464668
4891000000.0 0.05394944945370245 -1.0527133435460252
4894000000.0 -0.024757810368105926 -1.0245485530765919
4897000000.0 0.024471175001747177 -1.0129411969527553
4900000000.0 0.003710707787072484 -1.0696688252342026
4903000000.0 0.030756569167661958 -1.0426282211404774
4906000000.0 -0.040971324801288705 -1.0349656045326865
4909000000.0 -0.01243550458401349 -1.0452587378890565
4912000000.0 -0.037436198322115796 -1.059571914083404
4916000000.0 -0.021886135999028493 -1.0525034805961477
4919000000.0 -0.012760845312688562 -1.0672760665356755
4922000000.0 -0.012643794787520382 -1.063856327842545
4925000000.0 -0.0877714337029119 -1.0151958986123266
4928000000.0 -0.02319458134640287 -1.0244628512441896
4931000000.0 -0.03913181769547848 -1.0388839438447897
4934000000.0 -0.06211563863882759 -1.005457010864883
4938000000.0 -0.11158725516930125 -1.010036652615484
4941000000.0 -0.05658267583102751 -1.0311063185040819
4944000000.0 -0.09744900984546276 -0.9549016242639252
4947000000.0 -0.09164489016808774 -1.0023035698834046
4950000000.0 -0.17347618900537343 -0.9740750153680534
4953000000.0 -0.17117495190445198 -1.0475852055325383
4956000000.0 -0.17139371675049353 -1.0219794279428518
4959000000.0 -0.15317058478079934 -1.0003377056872662
4962000000.0 -0.16124398747224636 -1.0563472261051796
4966000000.0 -0.14897196623756198 -1.0634304700235726
4969000000.0 -0.17068453254024368 -1.0798898689924825
4972000000.0 -0.19618923237926358 -1.018885652169006
4975000000.0 -0.17658948236003105 -1.006485978757975
4978000000.0 -0.21054957725294016 -1.0197706444631913
4981000000.0 -0.2272801375805815 -1.0124772440038947
4984000000.0 -0.21019965805251492 -1.0027577581620954
4988000000.0 -0.2062829095308889 -1.0092487651810276
4991000000.0 -0.19896760380520268 -1.0338205763131527
4994000000.0 -0.2197537451534487 -0.9959724677961268
4997000000.0 -0.29231641573710715 -1.0173373823948626
5000000000.0 -0.24452861109810714 -1.0262699092063785
5003000000.0 -0.2919494663813251 -1.0390237696406692
5006000000.0 -0.29894659074864405 -1.0632778283812758
5009000000.0 -0.2917569603884095 -0.9635756922056369
5012000000.0 -0.32768862489856326 -1.0034614061113012
5016000000.0 -0.27016570796672296 -1.063506053746729
5019000000.0 -0.31898973254245266 -0.9891998941178024
5022000000.0 -0.3084794554818018 -0.9831076260733247
5025000000.0 -0.32945235300769465 -1.0518594124854095
5028000000.0 -0.3391610074767074 -0.9930072742849934
5031000000.0 -0.3314462371512169 -0.9806783777504618
5034000000.0 -0.37534853317175443 -1.008605023869485
5038000000.0 -0.3509707102241838 -0.9667469171618566
5041000000.0 -0.3389696457770828 -0.9768987807687958
5044000000.0 -0.3067110130475489 -0.9975972189181536
5047000000.0 -0.36878815621273603 -0.9795693135465627
5050000000.0 -0.2952061217918752 -0.9822202248590239
5053000000.0 -0.40118317743022347 -1.0029796219582763
5056000000.0 -0.3449067323708168 -1.0105690928291207
5059000000.0 -0.3524825836506085 -0.9683342811380845
5062000000.0 -0.4417789301892403 -0.9338094646685788
5066000000.0 -0.3882226882250982 -0.9502648687728987
5069000000.0 -0.41525949572153387 -0.9552877161575045
5072000000.0 -0.40911403795279444 -0.9111715017593922
5075000000.0 -0.41714670861373304 -0.9480675918037018
5078000000.0 -0.49537722570886983 -0.9468787106630572
5081000000.0 -0.44669064109453177 -0.91104459660631
5084000000.0 -0.48569623220974034 -0.9360620484842612
5088000000.0 -0.4314522929686371 -0.9599303598798494
5091000000.0 -0.49215385032636044 -0.9011221916224574
5094000000.0 -0.4919893202561562 -0.9589547587700636
5097000000.0 -0.4714858785806968 -0.943447301467137
5100000000.0 -0.46518862969517616 -0.9149499279572245
5103000000.0 -0.5159395116149827 -0.906471484042059
5106000000.0 -0.5467388178930012 -0.9493970110570908
5109000000.0 -0.5369367880775956 -0.9030856759897299
5112000000.0 -0.5571625305198552 -0.89003300804337
5116000000.0 -0.5091576830930201 -0.8634793260085587
5119000000.0 -0.5702345766548631 -0.9332566039155683
5122000000.0 -0.5394719457743914 -0.9145782550859085
5125000000.0 -0.5400086217168285 -0.8818605134295128
5128000000.0 -0.5595136645543691 -0.9047990467488749
5131000000.0 -0.5750746529986702 -0.8788392934974457
5134000000.0 -0.5578826032222702 -0.8921826823758633
5138000000.0 -0.5485512599198568 -0.9274372751084067
5141000000.0 -0.5182894171078681 -0.8580310917196465
5144000000.0 -0.571110551235932 -0.8788607371615734
5147000000.0 -0.6155288600830057 -0.869655188090956
5150000000.0 -0.5652972673893182 -0.8950905858168177
5153000000.0 -0.6201010892473227 -0.8579170623149716
5156000000.0 -0.6069264274593084 -0.8532505701162789
5159000000.0 -0.6193374730351777 -0.8789262833484979
5162000000.0 -0.6509535849327733 -0.7904161220084138
5166000000.0 -0.6781877855893003 -0.8116134936729469
5169000000.0 -0.6711579948764168 -0.8386974476138823
5172000000.0 -0.6371430421206459 -0.8427587164883792
5175000000.0 -0.6587031512050657 -0.8678240641383339
5178000000.0 -0.6717786605559704 -0.7941001536402275
5181000000.0 -0.6822469245933485 -0.8389877898550256
5184000000.0 -0.6790694676535884 -0.7934105341548052
5188000000.0 -0.6582376613323473 -0.8148286600021589
