! Created with skrf 1.8.0 (http://scikit-rf.org).
# Hz S RI R 50.0 
!freq ReS11 ImS11
4000000000.0 0.6485686900744823 0.8388993481766058
4003000000.0 0.7167723523951001 0.8214269527076156
4006000000.0 0.7155511749086855 0.7526935850018956
4009000000.0 0.7001439100133067 0.7892105675211111
4012000000.0 0.7056696444266551 0.7987051981962903
4016000000.0 0.7120613039335034 0.7572659352846849
4019000000.0 0.711952758971603 0.7230738946256616
4022000000.0 0.645124844767713 0.7755002774166359
4025000000.0 0.7241702493211012 0.7230742279213719
4028000000.0 0.711907556291524 0.7145382764733188
4031000000.0 0.7120668935620259 0.7106495022846073
4034000000.0 0.7644740541002986 0.7101184066863455
4038000000.0 0.7666918804606473 0.6922673890884526
4041000000.0 0.7244020522928423 0.6926164032016486
4044000000.0 0.7691441974171703 0.7641716945744461
4047000000.0 0.793443773189309 0.7404642161776628
4050000000.0 0.797672068054481 0.6603552293557663
4053000000.0 0.7471202836430506 0.6704162970498486
4056000000.0 0.7721077383592311 0.6649161380627524
4059000000.0 0.7847070498011356 0.6709467235296547
4062000000.0 0.7801130216144637 0.6332863696348168
4066000000.0 0.7490866384241759 0.6109744973504372
4069000000.0 0.8645892145171372 0.6601359632836465
4072000000.0 0.767589731189948 0.6663999541473027
4075000000.0 0.8180913145264016 0.6815371159554411
4078000000.0 0.7922003625624648 0.6413291081631921
4081000000.0 0.7895625149380353 0.6900906085344757
4084000000.0 0.8718927097215858 0.5993001821985489
4088000000.0 0.7706776230671529 0.6312790068941669
4091000000.0 0.8981797330643576 0.6546318196228063
4094000000.0 0.8214165767904561 0.6260620422707127
4097000000.0 0.8256940276496801 0.6185380725654159
4100000000.0 0.8602662751638018 0.5908714452616999
4103000000.0 0.8701150333869212 0.6120669881733469
4106000000.0 0.848731776752891 0.5515810724442326
4109000000.0 0.8992204886635193 0.558212876493688
4112000000.0 0.877057293558023 0.5532379402382925
4116000000.0 0.8671825332972714 0.5508596435579683
4119000000.0 0.8621259818805695 0.5011040888557234
4122000000.0 0.8673965244992645 0.5355266248096059
4125000000.0 0.9204050403593637 0.5085208830373478
4128000000.0 0.8519827960623233 0.548313257889435
4131000000.0 0.8664106610078344 0.4927346565860389
4134000000.0 0.9038787939278516 0.5029589577168322
4138000000.0 0.8957536116358344 0.43824814361112857
4141000000.0 0.9114592554653238 0.48174540274757705
4144000000.0 0.9016912907629893 0.4780179823254896
4147000000.0 0.9034698937919308 0.42917218060352996
4150000000.0 0.9373603867045665 0.4468323273855291
4153000000.0 0.9291419200079185 0.45363682251893267
4156000000.0 0.9141857916767013 0.4876248952225225
4159000000.0 0.9113878722832205 0.4344412454872109
4162000000.0 0.9387476136843442 0.4476476596644188
4166000000.0 0.952084618591654 0.4220954498378159
4169000000.0 0.9133517253211487 0.41826354094183826
4172000000.0 0.9461180364780744 0.4012260850616008
4175000000.0 0.9484897395680753 0.39008762144248005
4178000000.0 0.9582466806286313 0.4210094594729552
4181000000.0 0.9413125764390209 0.3632442773499929
4184000000.0 0.9422140899123121 0.3657225561521709
4188000000.0 0.9585514111760447 0.34260478509619285
4191000000.0 0.9195108863712274 0.38474045467806
4194000000.0 0.9520909962275151 0.33250079571303803
4197000000.0 0.9634968707520621 0.3649497661199617
4200000000.0 0.9552488349163082 0.35061151149296
4203000000.0 0.9737889349772273 0.341719298523275
4206000000.0 0.9682709109361433 0.31613364388500836
4209000000.0 0.9537882567906366 0.3178056962160764
4212000000.0 0.9826099509024259 0.2953560142861048
4216000000.0 0.9708604139324912 0.30047847373068953
4219000000.0 0.9860173528113694 0.2994346729542484
4222000000.0 0.9977909733431245 0.2637070660347372
4225000000.0 0.9928787511512014 0.2843470883617655
4228000000.0 0.9896347930115184 0.2665309231834774
4231000000.0 0.9742782146408617 0.2583159366897556
4234000000.0 1.0091126111150477 0.24014828461930166
4238000000.0 0.983437810371394 0.22130706190778712
4241000000.0 0.9905060032302364 0.2056766509658583
4244000000.0 0.9762463071529965 0.22563945650117567
4247000000.0 0.980092366384179 0.2142850094778978
4250000000.0 0.9827571915467344 0.20791449144127888
4253000000.0 0.9626109057723304 0.19306061037548877
4256000000.0 1.0189995979459663 0.18299336131001664
4259000000.0 0.9723678392718285 0.15443652105770825
4262000000.0 0.9855308823170452 0.15162036780315916
4266000000.0 1.0218207433707882 0.146795830883315
4269000000.0 1.0037408020520662 0.1534757470778887
4272000000.0 1.007820442224166 0.16462819237398224
4275000000.0 0.9887741703347717 0.14126900518423396
4278000000.0 1.0501805477830768 0.13144680162944938
4281000000.0 1.0050989214384571 0.1424179066426972
4284000000.0 1.0147528825327479 0.07808720029735386
4288000000.0 0.9975567000342237 0.13209184192143958
4291000000.0 0.9856605547806427 0.0830014534451398
4294000000.0 0.9984810371713403 0.06575058753014092
4297000000.0 1.0031567774591477 0.09665540934331256
4300000000.0 1.0216916381724346 0.0544001565514003
4303000000.0 1.007998229254386 0.028625881517635218
4306000000.0 1.0225484101100863 0.06545971162577843
4309000000.0 1.0127022359985227 0.048273873662090086
4312000000.0 1.023206293408052 0.07552538496530373
4316000000.0 1.0427413400872383 0.03006272602430629
4319000000.0 0.9976738314644498 0.004132348503859545
4322000000.0 0.9739973466285762 -0.017228033204487653
4325000000.0 1.012360495811649 0.0022854177753660193
4328000000.0 1.0007178293893384 -0.013674364664307673
4331000000.0 1.0090852121199663 -0.06933323945581853
4334000000.0 1.0048175202676868 -0.01091485370818955
4338000000.0 0.9976851732845644 -0.02852889604280999
4341000000.0 1.0364904296043513 -0.021452457250181578
4344000000.0 1.0365923037807558 -0.06118967329002516
4347000000.0 1.0167715532469288 -0.07846638414387987
4350000000.0 0.9654464743691734 -0.07851436225187194
4353000000.0 0.9755203232997669 -0.042896520509084185
4356000000.0 1.001983283251364 -0.11800922436900126
4359000000.0 0.9685877013757465 -0.10021288829242969
4362000000.0 1.0150080027053077 -0.14545501415390671
4366000000.0 1.0268085606646176 -0.1417793166136495
4369000000.0 0.9660216657407646 -0.14175053094456422
4372000000.0 0.97774129683368 -0.19429944246236616
4375000000.0 0.9969604256084053 -0.1341491520507268
4378000000.0 0.9892071867780914 -0.1768149751418581
4381000000.0 0.989955459575113 -0.13827735862747573
4384000000.0 1.0435716755858018 -0.18168431204788477
4388000000.0 0.9788220290373952 -0.15909375573458892
4391000000.0 1.0084508902574032 -0.18605525602952389
4394000000.0 0.9565087467793737 -0.19811767371210443
4397000000.0 0.9848480011098273 -0.21608316753156512
4400000000.0 1.0052630269970786 -0.22689304778213432
4403000000.0 0.9882870629398042 -0.22146333458484416
4406000000.0 0.979173555234666 -0.24784743427109496
4409000000.0 1.0165393363786175 -0.25457994772380993
4412000000.0 0.967455634534437 -0.3108275459786652
4416000000.0 0.96143004340506 -0.276255515508594
4419000000.0 0.9674763953568992 -0.2943944320486637
4422000000.0 0.964669625515848 -0.2588652706422809
4425000000.0 0.9854209171142305 -0.2594432938427941
4428000000.0 0.9565726442560974 -0.29189067949181213
4431000000.0 0.9729347919924776 -0.30356681702233623
4434000000.0 0.951319272114819 -0.3194143159129437
4438000000.0 0.9724429184948993 -0.3200176726969541
4441000000.0 0.98471440265574 -0.3326975084988724
4444000000.0 0.9466864800970449 -0.3105674930174663
4447000000.0 0.9366696775734221 -0.35916672880276146
4450000000.0 0.9359928175276129 -0.34299672891373395
4453000000.0 0.9689818159978014 -0.36268646062335397
4456000000.0 0.9143154549509473 -0.36930408843739426
4459000000.0 0.8821170185782801 -0.3810265090354191
4462000000.0 0.9801732811737713 -0.41242908332282247
4466000000.0 0.9646217226779854 -0.4169593644911886
4469000000.0 0.9412047539038731 -0.38923013606470813
4472000000.0 0.9437431662859114 -0.4417567343294269
4475000000.0 0.8927120330409405 -0.41197652942940466
4478000000.0 0.9323160831042049 -0.47429105712379305
4481000000.0 0.8855591657376948 -0.4422385988939395
4484000000.0 0.8902066792662551 -0.4793591141794684
4488000000.0 0.8898839534319541 -0.45706259531139154
4491000000.0 0.893565134701976 -0.4626528854436916
4494000000.0 0.8871890947150933 -0.45070476930245534
4497000000.0 0.8772212114018434 -0.4672297760450432
4500000000.0 0.8905211134044075 -0.47378770669320436
4503000000.0 0.9180924348202653 -0.49628333850608686
4506000000.0 0.854019497101494 -0.48920206743458877
4509000000.0 0.8506829181571016 -0.4983211566599143
4512000000.0 0.8570545446701433 -0.5067612146029408
4516000000.0 0.8823256211254699 -0.5332771206247651
4519000000.0 0.8403924381306708 -0.5026301307079925
4522000000.0 0.8567430769887907 -0.5568557559773879
4525000000.0 0.8601259714881486 -0.508482949832725
4528000000.0 0.8707083652712602 -0.5777551185003859
4531000000.0 0.841689754540596 -0.55970575856377
4534000000.0 0.8218358735580527 -0.5621596890976012
4538000000.0 0.813474449748486 -0.5720353015955111
4541000000.0 0.8015649583069141 -0.5971017563558937
4544000000.0 0.8039751960038628 -0.5818420637581404
4547000000.0 0.801947433422352 -0.5767336523941831
4550000000.0 0.7874486744374609 -0.6191248749585936
4553000000.0 0.7870341156538345 -0.6204102525065067
4556000000.0 0.7831128020444991 -0.6277031300516331
4559000000.0 0.7903581762513124 -0.6340119233440231
4562000000.0 0.804808184632642 -0.6302598862390578
4566000000.0 0.7741158854115646 -0.639255529611614
4569000000.0 0.7635241330187689 -0.6340278255836942
4572000000.0 0.7581325336464131 -0.6484794041900039
4575000000.0 0.7671658338379623 -0.6945922210681511
4578000000.0 0.7944336612999432 -0.6762118540514309
4581000000.0 0.7489434602596018 -0.6938842811365064
4584000000.0 0.7282728893861692 -0.6719157026692193
4588000000.0 0.7645975219620474 -0.6955299946710819
4591000000.0 0.7439055140945796 -0.6783993972347694
4594000000.0 0.7085363673836744 -0.7287739497609914
4597000000.0 0.7176741423539581 -0.7242310508714768
4600000000.0 0.6859965638579427 -0.7156768353934408
4603000000.0 0.7002075282699046 -0.7351669492801551
4606000000.0 0.7012364372695337 -0.7319146856267968
4609000000.0 0.7001703600030693 -0.7282420500165582
4612000000.0 0.6863278354881513 -0.7463152327327058
4616000000.0 0.6678945604727387 -0.7389305882480014
4619000000.0 0.6721815021354905 -0.7549277160716131
4622000000.0 0.6608650086817272 -0.7710380459913757
4625000000.0 0.6229848983344607 -0.7540192566355259
4628000000.0 0.6505488880002843 -0.774445406421885
4631000000.0 0.631165123243582 -0.7850862776091829
4634000000.0 0.633781434993231 -0.779393749186785
4638000000.0 0.6381125247943351 -0.7851555712259072
4641000000.0 0.6357600148589679 -0.7949325921006366
4644000000.0 0.6073081928164474 -0.7981757628372466
4647000000.0 0.6006412397983695 -0.8047732728434823
4650000000.0 0.6079119886063472 -0.8126813122807416
4653000000.0 0.6175118525320686 -0.8280847682804673
4656000000.0 0.5692008455459034 -0.8294108197526793
4659000000.0 0.5744940033807124 -0.8254216118022715
4662000000.0 0.5876194288700072 -0.8274550607024574
4666000000.0 0.5496516651972513 -0.8528263680666561
4669000000.0 0.5669063731669473 -0.8418660779171853
4672000000.0 0.5572605559664596 -0.8538570373849206
4675000000.0 0.5162713780349306 -0.8434797625476778
4678000000.0 0.5306038668981314 -0.830904034586325
4681000000.0 0.5013570912871086 -0.8720505779760112
4684000000.0 0.4813127613902337 -0.8921573597449711
4688000000.0 0.4828708769270605 -0.8886495810283669
4691000000.0 0.5001971915269724 -0.8728306530385446
4694000000.0 0.5120259264373234 -0.8658928901875311
4697000000.0 0.44806522890981915 -0.8706492937967902
4700000000.0 0.47569649562324845 -0.8863789975489358
4703000000.0 0.47514775074766435 -0.8388495108354148
4706000000.0 0.46352650816831953 -0.8975407689757615
4709000000.0 0.4436175266902155 -0.9030678976345263
4712000000.0 0.4295169158948498 -0.9236857541835808
4716000000.0 0.41009391506969084 -0.9385575837520519
4719000000.0 0.4417566727267237 -0.8992407865353883
4722000000.0 0.43862951735866107 -0.894744716027662
4725000000.0 0.3941236201138828 -0.914796123795936
4728000000.0 0.399039705542389 -0.9361974850608192
4731000000.0 0.41658078023568185 -0.9248565041215397
4734000000.0 0.38587540107666474 -0.9041632891735659
4738000000.0 0.39671563312402347 -0.9315919381321961
4741000000.0 0.387674470474311 -0.9726754613171184
4744000000.0 0.34013408952430935 -0.9536601791771964
4747000000.0 0.36879688408466504 -0.9122528262657699
4750000000.0 0.3708085489950594 -0.960215981406628
4753000000.0 0.36189634049317787 -0.9460077994285363
4756000000.0 0.341016342220998 -1.0105777312233275
4759000000.0 0.3228855087139909 -0.9708225514103155
4762000000.0 0.29920756762472095 -0.9789283326806109
4766000000.0 0.3159622716786293 -0.9698200654972442
4769000000.0 0.31373714088703675 -0.9834601834901734
4772000000.0 0.2978388882401132 -0.9764136066651775
4775000000.0 0.28957319541797644 -1.0119375879189896
4778000000.0 0.2692918763833635 -0.9899654616690937
4781000000.0 0.30135509871808847 -0.9830708785013362
4784000000.0 0.29549606895591507 -0.950160943492503
4788000000.0 0.2492841667793516 -0.9698334460934799
4791000000.0 0.24309142930441607 -0.9831623468917884
4794000000.0 0.273609986323249 -1.0110153208614974
4797000000.0 0.23451208629188905 -0.9811899799358769
4800000000.0 0.20981058184319895 -0.9796011318578777
4803000000.0 0.16271433811323463 -1.0033666183716692
4806000000.0 0.20700566432176506 -1.0140080999952397
4809000000.0 0.13316292710480088 -0.999837717546218
4812000000.0 0.15667105678019408 -0.9962579666434441
4816000000.0 0.19952121383658578 -0.98955357663453
4819000000.0 0.18584557369050325 -1.020903097539728
4822000000.0 0.17772250272127255 -1.0200861237270382
4825000000.0 0.1720695257778991 -1.032305295546968
4828000000.0 0.15225845316729095 -1.0028662442640237
4831000000.0 0.10133984264859874 -1.026722733974533
4834000000.0 0.12486905530883702 -1.0154279083810873
4838000000.0 0.10674254556525506 -1.038441868439091
4841000000.0 0.1063038558338536 -0.9798948062816547
4844000000.0 0.13353169229086137 -1.0290806991107686
4847000000.0 0.10299533001946563 -0.9782982331866796
4850000000.0 0.07846374778167033 -1.0417886889059227
4853000000.0 0.09150872799047416 -0.996305895824686
4856000000.0 0.058815039202348596 -1.0043106681726601
4859000000.0 0.04844892569832785 -1.0660025269366398
4862000000.0 0.08435768585380518 -0.9812673060311713
4866000000.0 0.018872120365065644 -1.028601852824569
4869000000.0 0.002195595437609943 -1.0206933686955082
4872000000.0 -0.011375163537926893 -1.040335889341451
4875000000.0 0.04818855411264675 -1.049901608434746
4878000000.0 0.009521482977437965 -1.0375584428453652
4881000000.0 -0.018615848097275546 -1.078209830903455
4884000000.0 0.007842300217643056 -1.0114508662118395
4888000000.0 0.01407609912127043 -1.0387293616661457
4891000000.0 -0.012492957532837246 -1.0573977476987706
4894000000.0 -0.05240875896972982 -1.0226082163095593
4897000000.0 0.017293037074354763 -1.012943266079445
4900000000.0 -0.06196159138071451 -1.0329599570078354
4903000000.0 -0.05248677062492068 -1.037584507670377
4906000000.0 -0.08566302074278366 -1.0431819445941262
4909000000.0 -0.08163568193139942 -1.0468501856057517
4912000000.0 -0.1265990522809486 -1.0694604489802049
4916000000.0 -0.07716216798089562 -1.0417067914337603
4919000000.0 -0.0748596212048157 -1.0613595677152357
4922000000.0 -0.08131339006022362 -1.0633742450217418
4925000000.0 -0.12603576141677145 -1.0100344794586191
4928000000.0 -0.07229765561901814 -1.00977585482895
4931000000.0 -0.11213773068038659 -1.067237260408184
4934000000.0 -0.14718442439601664 -0.9964923946825198
4938000000.0 -0.18245761688065654 -0.9966839745585476
4941000000.0 -0.1443117360163138 -1.0039576609900152
4944000000.0 -0.14878997864340135 -0.9814335558923881
4947000000.0 -0.17214365733853584 -0.9676659344207705
4950000000.0 -0.16790108879792898 -0.9928787642372684
4953000000.0 -0.21198177639553623 -1.0598569137603369
4956000000.0 -0.21722357576641416 -1.0038194281698196
4959000000.0 -0.23068838893376167 -0.9423567484591812
4962000000.0 -0.21608602316566541 -1.04633221924784
4966000000.0 -0.19780714551864675 -1.053145479577881
4969000000.0 -0.25509843124909987 -1.0415955971694453
4972000000.0 -0.26040574010010686 -0.9873230183114244
4975000000.0 -0.24731181087402873 -1.0070452813665047
4978000000.0 -0.28179057630551346 -1.0018500992635166
4981000000.0 -0.2917838322357448 -1.0050945487668248
4984000000.0 -0.26974832713523755 -0.9630903005878434
4988000000.0 -0.2829239698027978 -1.0182946660059458
4991000000.0 -0.24813881830287643 -1.0229233646747071
4994000000.0 -0.28806419905435 -1.0360086554129082
4997000000.0 -0.3498717609354702 -0.9700812695547671
5000000000.0 -0.3103429445606112 -0.9894294898611504
5003000000.0 -0.31385341168119135 -1.025419063732178
5006000000.0 -0.35055972300866867 -1.014169886507544
5009000000.0 -0.32695198949255866 -0.9861689907187635
5012000000.0 -0.3558166336999244 -0.9875006738606593
5016000000.0 -0.3361231736441403 -1.0401094620589477
5019000000.0 -0.3515896694839785 -0.9356623632562474
5022000000.0 -0.3855589610426601 -0.9751766684517746
5025000000.0 -0.4032127077133479 -1.0436169689193173
5028000000.0 -0.42892041874799014 -0.9612930688929298
5031000000.0 -0.40575000376761383 -0.9526931376890152
5034000000.0 -0.440054636210366 -0.9626757067215364
5038000000.0 -0.4089398150175869 -0.8925531674051517
5041000000.0 -0.36241576405742115 -0.9665430172309563
5044000000.0 -0.37511294243346227 -0.9267000646347042
5047000000.0 -0.4232701888839971 -0.9359695536212741
5050000000.0 -0.3702442648771409 -0.9564704089323939
5053000000.0 -0.47936642646859706 -0.9766003830897814
5056000000.0 -0.42257333491746096 -0.9843556042592352
5059000000.0 -0.41292374828056916 -0.9365562193831515
5062000000.0 -0.48550214474180897 -0.9318639649024938
5066000000.0 -0.4452513939030418 -0.9421869122252133
5069000000.0 -0.4821743775071301 -0.9488069866390724
5072000000.0 -0.48053367800955105 -0.8555949309968114
5075000000.0 -0.4602763870318548 -0.9043377345118511
5078000000.0 -0.5311356131588785 -0.9022168711214644
5081000000.0 -0.5269189981493715 -0.8867402274808468
5084000000.0 -0.49922931463347653 -0.9476199172795996
5088000000.0 -0.519227905077583 -0.9330392596114403
5091000000.0 -0.5824187205010669 -0.8577852499256309
5094000000.0 -0.535582219332652 -0.8531192790240852
5097000000.0 -0.5093871432920053 -0.8724017463052951
5100000000.0 -0.5442062924381517 -0.8875222551134782
5103000000.0 -0.5505361985412807 -0.8223925124653783
5106000000.0 -0.556723263727334 -0.9013166022795254
5109000000.0 -0.5183451146703694 -0.8787362346349143
5112000000.0 -0.5825952769364924 -0.8661215357392651
5116000000.0 -0.5939952064580611 -0.8702698201481465
5119000000.0 -0.6070821757871119 -0.8346264437639614
5122000000.0 -0.5707214993238604 -0.8281052055546332
5125000000.0 -0.5730807159079138 -0.8245348820176673
5128000000.0 -0.6085624917829318 -0.8090975354987566
5131000000.0 -0.5946517084545053 -0.827627765573639
5134000000.0 -0.633664216346177 -0.8307565533482455
5138000000.0 -0.6065362104767591 -0.8384893175141154
5141000000.0 -0.6296716561139606 -0.8155047491854905
5144000000.0 -0.6060351028427102 -0.8216123219114118
5147000000.0 -0.6770873261045383 -0.8217458207513625
5150000000.0 -0.5971532634800177 -0.8526041451747601
5153000000.0 -0.6763739410408478 -0.7698753146210712
5156000000.0 -0.6946136487369258 -0.8024856258509444
5159000000.0 -0.6746037870355757 -0.8222774820777312
5162000000.0 -0.718872369120889 -0.7477310703104
5166000000.0 -0.6894204426731955 -0.7666437444602744
5169000000.0 -0.7166768715417992 -0.7647707239304192
5172000000.0 -0.7040229484523247 -0.76404630361744
5175000000.0 -0.7153484544753334 -0.8090638347549685
5178000000.0 -0.7487983497664272 -0.7706528203254962
5181000000.0 -0.746074989874874 -0.7511433805747101
5184000000.0 -0.7198139939103927 -0.7154329294755298
5188000000.0 -0.7244337542666472 -0.7389770026189314
