! Created with skrf 1.8.0 (http://scikit-rf.org).
# Hz S RI R 50.0 
!freq ReS11 ImS11
4000000000.0 0.6479861719072608 0.8348953145626343
4003000000.0 0.6888241759403453 0.8552275633265318
4006000000.0 0.6796218501564204 0.7882620296982927
4009000000.0 0.671297996485357 0.8107936468486797
4012000000.0 0.6978227828280907 0.842918057750927
4016000000.0 0.6823491350924564 0.7830464081891897
4019000000.0 0.6663777393935155 0.7642793437288529
4022000000.0 0.6376903212212274 0.8559247524388717
4025000000.0 0.7512815094935985 0.7313281597687942
4028000000.0 0.7424188784185524 0.7422150771263607
4031000000.0 0.6633563466505487 0.7273544038830513
4034000000.0 0.6942977525702597 0.749479650540771
4038000000.0 0.75002449881492 0.7259591634412914
4041000000.0 0.7312094848803997 0.7365628713951062
4044000000.0 0.7641308734201749 0.7777167079743691
4047000000.0 0.7676135920040135 0.7628968945560424
4050000000.0 0.7705124020240631 0.7277078469899524
4053000000.0 0.7800171437527239 0.6693940457636491
4056000000.0 0.7570951116300177 0.6956212888695641
4059000000.0 0.7318330193693303 0.7120951232557178
4062000000.0 0.8251260971424004 0.6790384132519061
4066000000.0 0.7215085810920838 0.6278650057249786
4069000000.0 0.802698353158233 0.6568088756980764
4072000000.0 0.7959305174186987 0.6976322774897421
4075000000.0 0.8083246771780901 0.7399088956747073
4078000000.0 0.8015651329415878 0.6609690574927815
4081000000.0 0.7481871095513722 0.710172826541608
4084000000.0 0.8532350505675884 0.6319342837131023
4088000000.0 0.7723512972254513 0.6898755491848505
4091000000.0 0.9043416505557623 0.6403373066069886
4094000000.0 0.7948776454095493 0.6099253861860393
4097000000.0 0.8150527400199574 0.6276859879320535
4100000000.0 0.8419829948860335 0.6050218914105376
4103000000.0 0.8403988661250772 0.6182177510575788
4106000000.0 0.8928709554914573 0.5834210784576196
4109000000.0 0.8608051340801552 0.5665690362610578
4112000000.0 0.8498825870805211 0.5681312822779214
4116000000.0 0.8590845469610144 0.582831791268548
4119000000.0 0.8799344551346924 0.5333899393393279
4122000000.0 0.9135659616811694 0.5223825953048983
4125000000.0 0.8798719276000954 0.5237154426249022
4128000000.0 0.8203367757592717 0.49475710351852376
4131000000.0 0.8164080523372493 0.5301590890716895
4134000000.0 0.823542493069197 0.5166908253905677
4138000000.0 0.8522320661329019 0.5082000526334707
4141000000.0 0.8606971980743244 0.4953727391764966
4144000000.0 0.9279971078461903 0.5205511929414686
4147000000.0 0.8900638120029923 0.47418352639144307
4150000000.0 0.9153694591954809 0.5142878836181446
4153000000.0 0.8885896187376537 0.4788549719665115
4156000000.0 0.9162866968851686 0.4642683931380627
4159000000.0 0.8817700371667527 0.4675965656659044
4162000000.0 0.9026603258283663 0.4600009524440215
4166000000.0 0.9160437703735034 0.4476401116659847
4169000000.0 0.9121247664197862 0.4216537339705274
4172000000.0 0.9146587868704006 0.4453049904437297
4175000000.0 0.9377449420208558 0.4585248458411934
4178000000.0 0.9504233758544821 0.4266240771557712
4181000000.0 0.9553659130686256 0.3982794570504279
4184000000.0 0.9233083409645886 0.42672104720127285
4188000000.0 0.9486382430751901 0.38520619949381574
4191000000.0 0.907845244579543 0.42382711424130476
4194000000.0 0.9352747998471678 0.36489949131928123
4197000000.0 0.9550573872528603 0.3841090236770602
4200000000.0 0.9506857204051846 0.36634233484604706
4203000000.0 0.9383905367841971 0.38855904063830715
4206000000.0 0.9638374131799672 0.3626903322086367
4209000000.0 0.9477057208944811 0.35904076889070297
4212000000.0 0.9822474408441455 0.324343900032084
4216000000.0 0.9708594967752244 0.365019598316317
4219000000.0 0.984334166041861 0.3393300695581637
4222000000.0 0.9668867132616372 0.29950603168052653
4225000000.0 0.9665720493705885 0.31095603950682127
4228000000.0 0.9900940768903648 0.3030230410403918
4231000000.0 0.9662395065581073 0.29356413056616704
4234000000.0 0.9894134073212832 0.2714659685936741
4238000000.0 0.9802483015373469 0.2592845033632071
4241000000.0 0.9713383564995599 0.25049894896648894
4244000000.0 0.9828474530027822 0.2642457112467038
4247000000.0 0.985512568982354 0.24961393329922743
4250000000.0 0.9764517838747508 0.22057131331390883
4253000000.0 0.9702369298468385 0.20728936252968533
4256000000.0 1.0172517457306338 0.2043162157676111
4259000000.0 0.964742531057761 0.1940620160856322
4262000000.0 1.0066068163748298 0.18672363716297
4266000000.0 1.0051758132766602 0.14256319821418645
4269000000.0 0.9840659947342242 0.19603812654722289
4272000000.0 0.9901235387783911 0.18378164072094044
4275000000.0 1.0110392920675229 0.17497048635733187
4278000000.0 1.0028226030089358 0.17382960910243128
4281000000.0 0.9945781711671592 0.16281758031456472
4284000000.0 1.0314944897461884 0.12246763796873514
4288000000.0 1.0097926396048376 0.18496225099632374
4291000000.0 0.9839225561487541 0.11095800133214347
4294000000.0 1.023902692199878 0.1351591867291279
4297000000.0 0.9846526810031204 0.1284256350785838
4300000000.0 0.9856447122352499 0.1298354907398541
4303000000.0 0.9947296829807949 0.10371832594240711
4306000000.0 1.0113767127200943 0.10437908245409294
4309000000.0 1.0029855356208606 0.09198344584889064
4312000000.0 1.0371224841835227 0.13392317543760499
4316000000.0 1.0375931132269014 0.0698252233394623
4319000000.0 1.008319417560963 0.06596282265340499
4322000000.0 1.0082170517472802 0.054305308691576334
4325000000.0 1.0038082576445824 0.06832834608265904
4328000000.0 1.0157923573129786 0.02085801360182854
4331000000.0 1.0088479532760817 0.0021689369516974255
4334000000.0 1.0240239218485838 0.02615528685318036
4338000000.0 1.0263213391921022 0.021875893715239722
4341000000.0 1.0285319518949532 0.02709584608091095
4344000000.0 1.024168243651062 0.0065906151073542585
4347000000.0 1.0056187874401181 -0.05114326188920183
4350000000.0 0.9778699868314714 -0.02728499979230342
4353000000.0 0.9961458063840347 -0.023718237928177593
4356000000.0 0.99617543579208 -0.07431254391656032
4359000000.0 0.965752315787581 -0.04917235684180922
4362000000.0 1.009872878078351 -0.11604412533094752
4366000000.0 1.0095659151744087 -0.07641186733748885
4369000000.0 0.9625943085359447 -0.09637429483165401
4372000000.0 0.9803821179760939 -0.13291415333982243
4375000000.0 0.9919352733979747 -0.10668662164834358
4378000000.0 0.9778275074331096 -0.09354328566705616
4381000000.0 0.9850661019457396 -0.09260690480881645
4384000000.0 1.0730616558740484 -0.13524160133389457
4388000000.0 0.98945661523001 -0.11751004572004631
4391000000.0 1.0074804013294794 -0.14599000959237296
4394000000.0 0.9647008242487424 -0.16440747484204404
4397000000.0 1.0043816624667001 -0.1750547476881037
4400000000.0 1.0195778766594301 -0.17943008199009045
4403000000.0 0.9986024865186801 -0.19337520317402834
4406000000.0 0.9960962342007507 -0.2181272572225745
4409000000.0 1.0266937714862165 -0.206676638633845
4412000000.0 0.9759026317105156 -0.26391960146532767
4416000000.0 0.9834596039560921 -0.22521398376833993
4419000000.0 0.9803284537015534 -0.24665037841238996
4422000000.0 0.9733654540322405 -0.201069672559331
4425000000.0 1.0050672214338108 -0.22640902223196935
4428000000.0 0.9758682296720459 -0.24848807950625912
4431000000.0 0.9975972795594268 -0.2557037245055034
4434000000.0 0.9624456696820961 -0.26944668401860866
4438000000.0 0.9998320194379895 -0.2886836077883664
4441000000.0 0.9856677940771335 -0.2762664684241008
4444000000.0 0.9528994212893975 -0.2873731980829986
4447000000.0 0.9549501034263418 -0.3220223295020367
4450000000.0 0.9585262623414615 -0.3014227089611544
4453000000.0 0.9909535243513046 -0.33566493962780664
4456000000.0 0.929787208015105 -0.3188703112533102
4459000000.0 0.9138727574285792 -0.3274310969564498
4462000000.0 1.0065274462604874 -0.3698710552757302
4466000000.0 0.9705320277338161 -0.37921411713429926
4469000000.0 0.9431363200265238 -0.33745907216597243
4472000000.0 0.9485869668596627 -0.39916729395562306
4475000000.0 0.9152126714593982 -0.36371556857429393
4478000000.0 0.966955656743094 -0.4325811415252392
4481000000.0 0.9022180334603677 -0.39415204665521325
4484000000.0 0.8991986118942987 -0.44211439536660146
4488000000.0 0.9137181187530774 -0.40606556477924843
4491000000.0 0.910043876490894 -0.41747496838483944
4494000000.0 0.9062409648633892 -0.4119820384570781
4497000000.0 0.9011737961576634 -0.41845356347408863
4500000000.0 0.9095331963434792 -0.44238595365370875
4503000000.0 0.9281874024008712 -0.4736570093269515
4506000000.0 0.8696234189333276 -0.4573566514638719
4509000000.0 0.8797221534763238 -0.45710207202717157
4512000000.0 0.8699509471453735 -0.47206297915768225
4516000000.0 0.9151937030684059 -0.46860411590658774
4519000000.0 0.886800558533704 -0.48630443420422914
4522000000.0 0.8625926558305863 -0.5036089674883177
4525000000.0 0.886140607789123 -0.47992489145966133
4528000000.0 0.8915242781142165 -0.5314759909608671
4531000000.0 0.8746912623038531 -0.5135031352196758
4534000000.0 0.8424858069832601 -0.5139919053601902
4538000000.0 0.851946694162004 -0.5410787126129549
4541000000.0 0.8175561405722602 -0.566280885356334
4544000000.0 0.8406947950458061 -0.5348295154455438
4547000000.0 0.8341490251358243 -0.5260675613200685
4550000000.0 0.8363913750837595 -0.584775419928523
4553000000.0 0.8443052655617556 -0.577841071788425
4556000000.0 0.8007282857315683 -0.5707283634381701
4559000000.0 0.8265081555774431 -0.5909308241652833
4562000000.0 0.8245734152294681 -0.5944409181395293
4566000000.0 0.813531591291585 -0.619795961205178
4569000000.0 0.7860222265452375 -0.5909242957454015
4572000000.0 0.7879373859597568 -0.6191532553945519
4575000000.0 0.7834604654965633 -0.6291481503896601
4578000000.0 0.8153870305600626 -0.6381027700653547
4581000000.0 0.7699797182606583 -0.6676119310272315
4584000000.0 0.7761639153983093 -0.6445485579701016
4588000000.0 0.769396528538574 -0.6596888767897973
4591000000.0 0.7737539424310329 -0.6559158214425109
4594000000.0 0.7340725697658598 -0.68379769866307
4597000000.0 0.7555946876791806 -0.6807809749909195
4600000000.0 0.7282061189682367 -0.6942734257767611
4603000000.0 0.7425092207771216 -0.6930963459393324
4606000000.0 0.751539519438266 -0.6975259348194333
4609000000.0 0.7362611552570485 -0.6974124799217697
4612000000.0 0.7113722462848605 -0.7207496157084756
4616000000.0 0.7094125069839106 -0.7086979561781367
4619000000.0 0.7059044618922468 -0.7033097145418642
4622000000.0 0.7041198777986887 -0.7291929241418551
4625000000.0 0.6600103603182957 -0.7414091697526736
4628000000.0 0.6731190877827948 -0.718660980973225
4631000000.0 0.6621320306124483 -0.7562197226432132
4634000000.0 0.6742478793994096 -0.7423215661726429
4638000000.0 0.6717956775954409 -0.7622443496878964
4641000000.0 0.6716634784237632 -0.7538607817934224
4644000000.0 0.6380035627633401 -0.7655513201438481
4647000000.0 0.6571744713136982 -0.7824713451937165
4650000000.0 0.6205435401779795 -0.7841578199709299
4653000000.0 0.6508577623155343 -0.7995559699800613
4656000000.0 0.6323853124303274 -0.7967366704701231
4659000000.0 0.6142944976474669 -0.8009731268182915
4662000000.0 0.6104958578744425 -0.8101972720567834
4666000000.0 0.5866055669755762 -0.8200228595537127
4669000000.0 0.619188894276401 -0.8123932866520746
4672000000.0 0.582078336903225 -0.8287072883520099
4675000000.0 0.5686755173687634 -0.824338802398847
4678000000.0 0.5710477676957663 -0.8239330014971463
4681000000.0 0.5350322399679808 -0.8647038973570884
4684000000.0 0.5250618167365316 -0.8540247960262729
4688000000.0 0.5339628400187975 -0.8494251602848997
4691000000.0 0.5540005378345892 -0.8487523313766798
4694000000.0 0.5480879250012665 -0.8502325715404777
4697000000.0 0.5039340732622748 -0.8485194068773367
4700000000.0 0.5715900475022693 -0.8729946902663839
4703000000.0 0.53876630039278 -0.8254385614130328
4706000000.0 0.486285235536845 -0.8787312360978948
4709000000.0 0.4784785288283488 -0.8628925269782507
4712000000.0 0.5077940488662513 -0.8959385872805993
4716000000.0 0.46965198255418383 -0.8566455363896133
4719000000.0 0.47385194525100627 -0.8878706655573753
4722000000.0 0.4869445159099547 -0.87034969321287
4725000000.0 0.47202656677533644 -0.8797789775522529
4728000000.0 0.4434972761984588 -0.8957576336319462
4731000000.0 0.46901816931596063 -0.916162714186745
4734000000.0 0.467037095369548 -0.9027163940746327
4738000000.0 0.4664456634125978 -0.9278439994796889
4741000000.0 0.4163600497044526 -0.9393672483848521
4744000000.0 0.4158443022815065 -0.9381519044101794
4747000000.0 0.43156490691210936 -0.9052821282049343
4750000000.0 0.4098970528603444 -0.9073380201933152
4753000000.0 0.4144454741440946 -0.9058958941994248
4756000000.0 0.40769031277150075 -0.9491324681505682
4759000000.0 0.38749237797372055 -0.9524216005326835
4762000000.0 0.36660227656620636 -0.9673832289795786
4766000000.0 0.34445274398146947 -0.9331664019960588
4769000000.0 0.36240150934044624 -0.9768144294463995
4772000000.0 0.35588459481220686 -0.9735549725276124
4775000000.0 0.3444094408213019 -0.9942362320338731
4778000000.0 0.34178256516810834 -0.967356831264263
4781000000.0 0.3659063234077835 -0.9303890494194418
4784000000.0 0.3305782390106924 -0.93561201475591
4788000000.0 0.30175855168961485 -1.006519388344785
4791000000.0 0.3053248297910425 -0.9668679004087474
4794000000.0 0.3256022012414945 -0.9993962704233734
4797000000.0 0.27714211581416337 -0.9750914034934192
4800000000.0 0.25651995461438326 -0.9652385527441949
4803000000.0 0.20998169553288049 -0.9965193209762102
4806000000.0 0.24842164374548503 -0.998488533723183
4809000000.0 0.20699419524204374 -0.991819879770128
4812000000.0 0.1936343830780116 -0.9825411471278347
4816000000.0 0.23930659373990215 -0.9689105457405567
4819000000.0 0.25626253601112386 -1.0010616321452779
4822000000.0 0.23223952359047312 -1.0160516411163154
4825000000.0 0.24396822250229455 -1.0204557598601174
4828000000.0 0.20045854593084375 -1.001934415523265
4831000000.0 0.1665093505090987 -1.0227093406822212
4834000000.0 0.20626218310705613 -0.9895109585721957
4838000000.0 0.15653727340680282 -1.0334125938393575
4841000000.0 0.13448621740992087 -1.0039010377622954
4844000000.0 0.18860421561625318 -0.9979164509676445
4847000000.0 0.15317239002844169 -0.9831246163030425
4850000000.0 0.11971773112046283 -1.0359462038200424
4853000000.0 0.13811940584980495 -0.988517002726105
4856000000.0 0.13577089462811384 -1.0042304402334994
4859000000.0 0.13495420533594915 -1.0440076193982684
4862000000.0 0.1125020094335811 -0.9910252982572499
4866000000.0 0.08874140691978014 -1.0483891930876033
4869000000.0 0.05027338495295985 -1.018874908995198
4872000000.0 0.06524314312856633 -1.0280942855193327
4875000000.0 0.1265932645820726 -1.0507334107171185
4878000000.0 0.07108295874078843 -1.0265974457733407
4881000000.0 0.036200907236534005 -1.0883406177966268
4884000000.0 0.04839923379835337 -1.0356365939839605
4888000000.0 0.06480674744797843 -1.0490980951144497
4891000000.0 0.055930495795738305 -1.0612400444601209
4894000000.0 0.010662010870116012 -1.0323469618407046
4897000000.0 0.037183193958068655 -1.0292984026440397
4900000000.0 0.018644534117498234 -1.0463538486188655
4903000000.0 0.03642811550951958 -1.0284035691274915
4906000000.0 0.001872355316472037 -1.0432700457266402
4909000000.0 -0.03673298114277634 -1.0500507691319299
4912000000.0 -0.05959198246172237 -1.048608874302814
4916000000.0 -0.01774471367093975 -1.0239353198656191
4919000000.0 -0.01887196294416857 -1.0543324706064339
4922000000.0 -0.023580309854216816 -1.0286300506716002
4925000000.0 -0.09193083425973941 -1.0163871854125897
4928000000.0 -0.017418649093006666 -1.01994705067113
4931000000.0 -0.06325604891017271 -1.027338246083797
4934000000.0 -0.08814233112099999 -0.9708926008226507
4938000000.0 -0.14415673841004145 -1.009419929083798
4941000000.0 -0.09593191260864113 -1.0051489830022748
4944000000.0 -0.039614158118145865 -0.9811865617723738
4947000000.0 -0.06665714551937715 -0.9844935192878317
4950000000.0 -0.13285784509858956 -1.0034451805761242
4953000000.0 -0.21211243556071102 -1.04424045177909
4956000000.0 -0.16547643716048754 -1.023539555362358
4959000000.0 -0.19264069723276164 -0.9849171140399307
4962000000.0 -0.16886720478948433 -1.0328636775626654
4966000000.0 -0.16872302948185902 -1.0659550099758281
4969000000.0 -0.15622944445755294 -1.0649562191772768
4972000000.0 -0.1856424109468425 -1.0095778878571353
4975000000.0 -0.16781234373223838 -1.0424243527768264
4978000000.0 -0.19373964774624036 -1.018826720612791
4981000000.0 -0.2128585085415425 -0.9811798424968929
4984000000.0 -0.19696200771915542 -1.0018233633002775
4988000000.0 -0.18606025670409765 -1.011592124750733
4991000000.0 -0.1783489305353806 -1.0168179746416632
4994000000.0 -0.2427502950856294 -1.001159634457464
4997000000.0 -0.29315491653372644 -0.9937237436232769
5000000000.0 -0.2321606656222175 -1.0258129956181161
5003000000.0 -0.2590355117520289 -1.0391578718793972
5006000000.0 -0.27968629075079565 -1.0301260692241514
5009000000.0 -0.2407523575363866 -0.9912910968744558
5012000000.0 -0.2943081149358611 -1.0112447730867824
5016000000.0 -0.2521709091676808 -1.040214176052055
5019000000.0 -0.3334355371411377 -0.9656660089378715
5022000000.0 -0.3170428284864585 -1.0030382974497385
5025000000.0 -0.3473163385915157 -1.045336770857742
5028000000.0 -0.3673906513453088 -0.988124366711759
5031000000.0 -0.3238095032738142 -0.9547808462438617
5034000000.0 -0.3952058260981457 -0.9926734976108442
5038000000.0 -0.3533767195836537 -0.9269491219606636
5041000000.0 -0.3213359653151221 -0.9985028516757756
5044000000.0 -0.3286180007265064 -0.9364746059811112
5047000000.0 -0.3553438371534791 -0.9797574103002477
5050000000.0 -0.30694271420001096 -0.9751431112373257
5053000000.0 -0.41770001863296136 -0.9777166172615663
5056000000.0 -0.33786799300456505 -0.9665183445180481
5059000000.0 -0.37728597945868664 -0.9677790715127582
5062000000.0 -0.46016184179470865 -0.9478990447397906
5066000000.0 -0.37443817565934545 -0.9742292339686405
5069000000.0 -0.42259032241448635 -0.9697024339717907
5072000000.0 -0.4059018062797618 -0.9075577616193746
5075000000.0 -0.40075798696970233 -0.9797714609913606
5078000000.0 -0.4939093264403855 -0.9390414872230097
5081000000.0 -0.43718863499291155 -0.927582181932829
5084000000.0 -0.48080231074875235 -0.9225591535595901
5088000000.0 -0.46000050373969126 -0.9242517751392414
5091000000.0 -0.527138185395768 -0.8825021060674563
5094000000.0 -0.5095073290454192 -0.9284579322261125
5097000000.0 -0.45066673236758603 -0.9841002297737877
5100000000.0 -0.48871602515162466 -0.9181213572975951
5103000000.0 -0.5266272315404529 -0.8791451968621281
5106000000.0 -0.525108316334517 -0.920013259112308
5109000000.0 -0.47351678526845237 -0.9088263117264763
5112000000.0 -0.5364045763995623 -0.8870501582642489
5116000000.0 -0.5153423579881171 -0.8556975245914333
5119000000.0 -0.5577597931475801 -0.8988884850030854
5122000000.0 -0.5075927242911483 -0.859140976176106
5125000000.0 -0.5052171264255948 -0.8847231408267442
5128000000.0 -0.55907322204359 -0.8662166810594587
5131000000.0 -0.5630290529492591 -0.8425199656319217
5134000000.0 -0.5362577938133104 -0.8859324817105778
5138000000.0 -0.5546180321810015 -0.836828502935432
5141000000.0 -0.5345884459346535 -0.9012813469189365
5144000000.0 -0.5627251025590236 -0.8471887744862877
5147000000.0 -0.6371884632807455 -0.8227413015793497
5150000000.0 -0.5720700814078441 -0.8751811689524198
5153000000.0 -0.5874619980495943 -0.8759362698272456
5156000000.0 -0.6502271353666581 -0.8736823160799253
5159000000.0 -0.639639660516229 -0.8751551050961823
5162000000.0 -0.6279213172430614 -0.7938993527089666
5166000000.0 -0.6680210216075818 -0.8157973324773996
5169000000.0 -0.6532679212392344 -0.8435467530458463
5172000000.0 -0.6653109538688008 -0.809009204092451
5175000000.0 -0.6540965155417792 -0.8015336304995265
5178000000.0 -0.6902618400326925 -0.8460784697452994
5181000000.0 -0.6659061066515682 -0.8308224020905141
5184000000.0 -0.6841887319838186 -0.809496721830513
5188000000.0 -0.6922657427696117 -0.8076240899324562
