! Created with skrf 1.8.0 (http://scikit-rf.org).
# Hz S RI R 50.0 
!freq ReS11 ImS11
4000000000.0 0.6203479532047053 0.8287465241097174
4003000000.0 0.6325363256637074 0.8450572864200029
4006000000.0 0.6781656860476378 0.7947867999702167
4009000000.0 0.6586677606866681 0.7932579024704618
4012000000.0 0.6168270590722117 0.8517836847677174
4016000000.0 0.7021624970841951 0.7649401124246242
4019000000.0 0.6712922643932016 0.7495900690598197
4022000000.0 0.6407239014060682 0.8285291482398578
4025000000.0 0.7983498356156871 0.7640871279839501
4028000000.0 0.69556422811909 0.7860251203161277
4031000000.0 0.6485351895760656 0.7382212758077653
4034000000.0 0.7144855180236971 0.7292500018959396
4038000000.0 0.7343982769469738 0.7205289378359956
4041000000.0 0.7306718801473021 0.7266015740029778
4044000000.0 0.7709210434068031 0.7621579020716495
4047000000.0 0.7429399357332411 0.7798817716296742
4050000000.0 0.7729179905512013 0.6871064696719305
4053000000.0 0.7776073961440962 0.6662326829981726
4056000000.0 0.7489837842878826 0.7035568201871407
4059000000.0 0.7632224061167865 0.6869106478149087
4062000000.0 0.7911454064272101 0.695313481193033
4066000000.0 0.7035992580509778 0.604788917593902
4069000000.0 0.8432204841955538 0.6832089924272301
4072000000.0 0.7367087428082453 0.6814548577912609
4075000000.0 0.8119622856231052 0.7184177182629019
4078000000.0 0.7782326206575871 0.6597731002065198
4081000000.0 0.8029446099441481 0.6965030853239611
4084000000.0 0.8452995065593524 0.6418730105093726
4088000000.0 0.7858171727743103 0.6752068594945659
4091000000.0 0.8896372898329855 0.6597177725523558
4094000000.0 0.7684575995622143 0.6453117586910475
4097000000.0 0.8854592907282826 0.6073275182274018
4100000000.0 0.8202715876911612 0.5726397800207408
4103000000.0 0.8526007227174266 0.6476085380721153
4106000000.0 0.8310434397553028 0.6060617601548889
4109000000.0 0.8825421404584386 0.5847207370154424
4112000000.0 0.8668298737197084 0.5484444468632275
4116000000.0 0.8443948033090116 0.6016260559630728
4119000000.0 0.8794918699875761 0.5865055263378876
4122000000.0 0.851347127356597 0.5496483347955294
4125000000.0 0.8839999367173179 0.5455505743308655
4128000000.0 0.8679286206045432 0.5219412857984854
4131000000.0 0.8853375156386144 0.5083089898660196
4134000000.0 0.8689474792568698 0.524273954253275
4138000000.0 0.8601649058840557 0.5114887070750345
4141000000.0 0.8902708848413398 0.5207792032089013
4144000000.0 0.8996757179469969 0.5212393194509803
4147000000.0 0.9090155833472345 0.46117815407974866
4150000000.0 0.9413912091129034 0.5077086517988636
4153000000.0 0.8925623547368077 0.48562451945942353
4156000000.0 0.9226503790592113 0.4956973932699936
4159000000.0 0.9232989031522065 0.47894120487415287
4162000000.0 0.8995370462212979 0.47122667547411656
4166000000.0 0.9712728869433185 0.43481379273290577
4169000000.0 0.9220842187302375 0.4529903119221492
4172000000.0 0.9446313380044175 0.4603290117196352
4175000000.0 0.9457135207270478 0.4463505940198646
4178000000.0 0.9368831070789277 0.4414848896229717
4181000000.0 0.9483209757922251 0.41900536010958644
4184000000.0 0.9240159792107708 0.41233789411696026
4188000000.0 0.9182120738997628 0.3876123180241915
4191000000.0 0.9326744332410725 0.39207591579317164
4194000000.0 0.9306121072998416 0.3671632216098042
4197000000.0 0.9646402290917129 0.4039994188297394
4200000000.0 0.9628902198823375 0.36620559044682444
4203000000.0 0.9790128476663484 0.37776143694683306
4206000000.0 0.9697892889998476 0.3735050085248716
4209000000.0 0.9461462655326022 0.3429330412489215
4212000000.0 0.9925571111790759 0.32797921327185864
4216000000.0 0.9706231344439014 0.33337102488031883
4219000000.0 1.0007590884425315 0.34769892409295
4222000000.0 0.9865398691290217 0.31755873228386927
4225000000.0 0.9825226810525727 0.3054775947656817
4228000000.0 0.9825175791602316 0.30879732448137553
4231000000.0 0.9882954410532372 0.292668073672048
4234000000.0 1.002665265185187 0.2949007659409678
4238000000.0 0.9957266115930469 0.2575737294758004
4241000000.0 1.0084308712064278 0.25485649258394344
4244000000.0 0.9800521516167275 0.2624303605331504
4247000000.0 0.984630606364825 0.2633326295740365
4250000000.0 0.9884744070500806 0.2293544333382158
4253000000.0 0.985311891143329 0.2207679800302429
4256000000.0 1.0209584697239809 0.2235971337523897
4259000000.0 0.9746761188306401 0.19296212438443414
4262000000.0 0.9989140973770243 0.18637060931906388
4266000000.0 1.0097222626005578 0.17636448793007736
4269000000.0 1.0127357179151304 0.21676301399924666
4272000000.0 1.0034190098980422 0.1729629505836499
4275000000.0 1.0057035848651188 0.18785890985144793
4278000000.0 0.996068706255884 0.15219339977899754
4281000000.0 1.0223646571441098 0.14398005457776164
4284000000.0 1.0420233260453406 0.1253861898682524
4288000000.0 1.0239687642285613 0.1746882146314214
4291000000.0 0.9928662057080894 0.11670417442236954
4294000000.0 1.0019365178820512 0.1210903919057232
4297000000.0 1.0025760364015373 0.1114140078124546
4300000000.0 1.0020660744199994 0.11101933470219447
4303000000.0 0.999946649632673 0.09107117783283224
4306000000.0 1.0079786627350698 0.11235978151748519
4309000000.0 1.0052852606038825 0.06754277622017792
4312000000.0 1.025645584929329 0.11603090544543329
4316000000.0 1.0292537994998476 0.0701190931436191
4319000000.0 0.9906036793634995 0.06051766454193612
4322000000.0 0.9851594574924631 0.008120746832043363
4325000000.0 1.0198149764104767 0.03299252266539472
4328000000.0 1.0138432482861874 0.024717082768992746
4331000000.0 1.0225530710196937 -0.023613921855637862
4334000000.0 1.0231794120075817 0.012400168839763054
4338000000.0 1.0034811438788733 0.021356145711683053
4341000000.0 1.049602810711988 0.021139128550898056
4344000000.0 1.0598693126322059 -0.020620498912856056
4347000000.0 1.035399996195515 -0.049380057730771004
4350000000.0 0.9838756079292161 -0.04523153961831419
4353000000.0 0.9851343857784289 -0.020937218047896805
4356000000.0 1.0176492226640985 -0.08255913961701107
4359000000.0 0.9543969759637833 -0.052994112733307536
4362000000.0 1.015098477008486 -0.12133983511349442
4366000000.0 1.0339050411160349 -0.09961653387325195
4369000000.0 0.9847632141915953 -0.09783043780590867
4372000000.0 0.9893131380923699 -0.14475088983100245
4375000000.0 1.0094709486036058 -0.08022253341428895
4378000000.0 0.9839638295880979 -0.09441483964081103
4381000000.0 0.9906404430117572 -0.11353684785826869
4384000000.0 1.046236807832981 -0.14628936811426602
4388000000.0 0.9899582409358183 -0.1283262503814852
4391000000.0 1.0110139175551776 -0.1575183667501893
4394000000.0 0.9743242103186085 -0.1625149589792695
4397000000.0 0.991965142489575 -0.19335954125987065
4400000000.0 1.0248444268820056 -0.17783106420211753
4403000000.0 1.0011516390341515 -0.181383967013451
4406000000.0 0.9880295739521255 -0.22314650663371166
4409000000.0 1.023611228256066 -0.21295225882679775
4412000000.0 0.9744218150571645 -0.2514271442430847
4416000000.0 0.9711902795325988 -0.23406113164203496
4419000000.0 0.9826499468438916 -0.24945665347568685
4422000000.0 0.9763093155301381 -0.22504998679622668
4425000000.0 1.0106929293959253 -0.233680086369984
4428000000.0 0.9796955819181019 -0.265435534693345
4431000000.0 1.0049835099307833 -0.2555872047150677
4434000000.0 0.961249284495829 -0.28647950573590797
4438000000.0 0.9850410631965085 -0.2933713873596202
4441000000.0 0.9963251956785599 -0.27344948749745107
4444000000.0 0.9506224203165596 -0.28272720801618384
4447000000.0 0.9477581328897634 -0.32135414367926735
4450000000.0 0.9606348350438048 -0.3048539451401229
4453000000.0 0.9897345496521246 -0.3241770479544766
4456000000.0 0.9335957557874389 -0.322077519954849
4459000000.0 0.9109787750359957 -0.3270723175987997
4462000000.0 1.010635960706071 -0.37129225424383966
4466000000.0 0.9732046520471096 -0.3689124733943282
4469000000.0 0.9537662182141122 -0.3397097234076646
4472000000.0 0.9515982588162738 -0.3964396573079907
4475000000.0 0.9176295505461651 -0.35728758351741874
4478000000.0 0.9733587330929477 -0.4135032562526928
4481000000.0 0.8991401610437529 -0.38776491666402
4484000000.0 0.9061571916762772 -0.45162595756836643
4488000000.0 0.911414537217725 -0.4077241524731356
4491000000.0 0.933137768804414 -0.44173894265022146
4494000000.0 0.912446891841635 -0.4261544819874247
4497000000.0 0.9118873930739697 -0.42584221488568513
4500000000.0 0.9177659071519453 -0.45597870806541246
4503000000.0 0.9230136237640798 -0.45307672678819766
4506000000.0 0.8775473625295924 -0.46182893871916125
4509000000.0 0.8917066688127111 -0.47110176603104403
4512000000.0 0.8838365710885747 -0.472218640474118
4516000000.0 0.9205896429131663 -0.4971687013236786
4519000000.0 0.864935733239478 -0.4847196328682878
4522000000.0 0.8665895179546477 -0.5148270321437064
4525000000.0 0.8772043070947786 -0.4646577999403535
4528000000.0 0.8808833636713345 -0.528537503959196
4531000000.0 0.8748042071010129 -0.5051985019915055
4534000000.0 0.8521257661150372 -0.5187121688940484
4538000000.0 0.8608205120129653 -0.5414502659269461
4541000000.0 0.821340603793795 -0.5797164914342959
4544000000.0 0.8434247198451212 -0.5439969698043425
4547000000.0 0.8495691396627407 -0.5479872616755297
4550000000.0 0.8330207656552437 -0.6024343464536461
4553000000.0 0.8349617609493107 -0.5808534988233507
4556000000.0 0.796979141810783 -0.585854363016341
4559000000.0 0.8182273765028589 -0.6042732886102025
4562000000.0 0.8217421627338826 -0.5931746554973467
4566000000.0 0.8162874931022026 -0.6130742020179076
4569000000.0 0.797197064470382 -0.5930869138805266
4572000000.0 0.7917225712300596 -0.6239783546428134
4575000000.0 0.7859861769713263 -0.6472346843280667
4578000000.0 0.8235657852295886 -0.6432774181792009
4581000000.0 0.7687441818494665 -0.640427657188012
4584000000.0 0.7691049606595278 -0.6440589869226315
4588000000.0 0.7775527214841659 -0.658578458896225
4591000000.0 0.7753204974879556 -0.6521657783249907
4594000000.0 0.7412477501763629 -0.6891909966555823
4597000000.0 0.7625093771797522 -0.6930569609537272
4600000000.0 0.7229142498510246 -0.6832143371062059
4603000000.0 0.7331566826078517 -0.7070582401685548
4606000000.0 0.7420994192044442 -0.704016402100349
4609000000.0 0.7412694450361271 -0.7050108931819747
4612000000.0 0.7338151621860826 -0.7151489303004631
4616000000.0 0.6988148399517256 -0.7040461220386105
4619000000.0 0.7196297811687765 -0.7309091173219646
4622000000.0 0.6940325802661167 -0.746637254496142
4625000000.0 0.6704971036203926 -0.7173248903295593
4628000000.0 0.6952414872786525 -0.7362225926330124
4631000000.0 0.682822589149163 -0.7706027021627245
4634000000.0 0.6782030091796517 -0.7553285150382364
4638000000.0 0.6703012347951075 -0.7718863572573346
4641000000.0 0.6669100923394964 -0.7661238660583861
4644000000.0 0.6640676774384309 -0.7682026427101256
4647000000.0 0.6537148265068687 -0.7798435513226962
4650000000.0 0.6329768450162433 -0.7902320166534657
4653000000.0 0.6470469717623906 -0.8029019665301977
4656000000.0 0.6290816301980113 -0.7949774053998928
4659000000.0 0.612437905972339 -0.808942535378597
4662000000.0 0.6369617136860519 -0.8084540060806228
4666000000.0 0.6019159961994703 -0.8138552688575946
4669000000.0 0.6080843149853311 -0.8265893580502851
4672000000.0 0.5848661035045057 -0.85539779583056
4675000000.0 0.5644370511417376 -0.8282924310679504
4678000000.0 0.5671875415078524 -0.8224628023773228
4681000000.0 0.5589769076669828 -0.8637577221566631
4684000000.0 0.54306595574752 -0.8667567061718293
4688000000.0 0.549096182715548 -0.8770342313044243
4691000000.0 0.5790573401957367 -0.8557738065877096
4694000000.0 0.5432829016552672 -0.8391186360589382
4697000000.0 0.491700883206136 -0.8636004252677112
4700000000.0 0.5322031328755916 -0.8659352494321519
4703000000.0 0.5375575625000397 -0.8439594328447579
4706000000.0 0.4791269781725504 -0.8804239810798947
4709000000.0 0.48720133236637236 -0.8752691295320981
4712000000.0 0.5247204736497728 -0.8777754599801054
4716000000.0 0.49534921755499317 -0.9092319429385887
4719000000.0 0.5104823800833869 -0.8855910158886086
4722000000.0 0.5141970747637756 -0.8963188929388461
4725000000.0 0.4550369601562674 -0.8826748475149084
4728000000.0 0.45011778049535667 -0.9160583313776292
4731000000.0 0.47128972593230256 -0.9334166104285233
4734000000.0 0.4786109385021261 -0.8930696778156244
4738000000.0 0.4377373890661165 -0.9388720651271959
4741000000.0 0.4338623032846223 -0.9289485920469339
4744000000.0 0.3995586498692158 -0.943374346547406
4747000000.0 0.43934983479920575 -0.8815501767896561
4750000000.0 0.43059763618895397 -0.9329238041891521
4753000000.0 0.3995415387782727 -0.9308674682284798
4756000000.0 0.38716679101436746 -0.9559639220190921
4759000000.0 0.37675949058382874 -0.9748831868391713
4762000000.0 0.35007782127003007 -0.9906048861295756
4766000000.0 0.37452556316608737 -0.9574946353082373
4769000000.0 0.3383766849393158 -0.9674022333759927
4772000000.0 0.3538147574129592 -0.9686956995244668
4775000000.0 0.3186287324121495 -1.019962428220047
4778000000.0 0.3364652348030557 -0.9775056012784965
4781000000.0 0.3427184523104856 -0.9657423726017942
4784000000.0 0.3536740289889483 -0.9657021251392685
4788000000.0 0.32300699837498914 -0.9868856580530532
4791000000.0 0.3189914785328043 -0.9506776433761254
4794000000.0 0.3122824747221613 -0.9933400554832743
4797000000.0 0.2512476951387277 -0.9675263044697228
4800000000.0 0.26804816569604817 -0.9803054154065172
4803000000.0 0.24952026460441143 -0.9883038198050917
4806000000.0 0.24251158719633864 -1.0157652837096542
4809000000.0 0.18920122787165816 -0.990478984575781
4812000000.0 0.1792153259111534 -1.02391839983009
4816000000.0 0.23805769155385173 -0.9738906811973411
4819000000.0 0.2441961872150944 -1.033949037595139
4822000000.0 0.23546879931824738 -1.0277670088099973
4825000000.0 0.25311083114689614 -1.0157078419075665
4828000000.0 0.19120394228959525 -1.0060135461327948
4831000000.0 0.1536868065235446 -1.0424894894307226
4834000000.0 0.1815061412138601 -1.0167944770097912
4838000000.0 0.1690189326545635 -1.0269253065752915
4841000000.0 0.15778814018235002 -1.015175357055325
4844000000.0 0.19939771821048097 -1.0014791300052999
4847000000.0 0.17896134343378028 -0.9760290471319715
4850000000.0 0.13661861758073285 -1.0433043512144826
4853000000.0 0.13524531418376914 -1.0057221852446978
4856000000.0 0.127437492015192 -1.0165873261154508
4859000000.0 0.11385299448287341 -1.0497418336351148
4862000000.0 0.12611305534573194 -0.9963507910987125
4866000000.0 0.06606029378143027 -1.0397371742450923
4869000000.0 0.06746745346465274 -1.0348197583480714
4872000000.0 0.07710307848740137 -1.065235185430385
4875000000.0 0.11735459380710808 -1.0580011502640838
4878000000.0 0.05708795426199437 -1.0379374633089913
4881000000.0 0.0691949515582851 -1.0999835780602885
4884000000.0 0.05964414744063802 -1.0355474492718142
4888000000.0 0.07425682789292579 -1.027951663430211
4891000000.0 0.04103067220361421 -1.035095808470683
4894000000.0 0.008581395217764853 -1.043083132992288
4897000000.0 0.03493478715414644 -1.0180048248935798
4900000000.0 0.031649244832858504 -1.0628673200897334
4903000000.0 0.013767640952808993 -1.0666441549438732
4906000000.0 0.011072859960217072 -1.0649759796263552
4909000000.0 -0.03170871631586619 -1.0540475536434215
4912000000.0 -0.023473820484604342 -1.083419626588753
4916000000.0 -0.003527287421170429 -1.0558982280705536
4919000000.0 -0.019189272272354466 -1.0737505926363278
4922000000.0 -0.05260023531257786 -1.0256960929241148
4925000000.0 -0.06032939742327388 -1.0280549135730155
4928000000.0 -0.022511370427650945 -1.035495010924579
4931000000.0 -0.036332837994733455 -1.0392795874411485
4934000000.0 -0.10023276725930357 -0.9854920549857237
4938000000.0 -0.13852381092108978 -1.0135013633705874
4941000000.0 -0.10947254665071936 -1.001681554966685
4944000000.0 -0.09606479608637947 -0.9720133460066116
4947000000.0 -0.11299140563531984 -1.0065276474847453
4950000000.0 -0.1039029992728261 -0.9976819372167474
4953000000.0 -0.18153599779946938 -1.0513847378669197
4956000000.0 -0.14875272448519333 -1.0309933169720986
4959000000.0 -0.18390570153422883 -0.985066425339064
4962000000.0 -0.1654026310823629 -1.0496181131786346
4966000000.0 -0.14009690631191463 -1.0503325994131367
4969000000.0 -0.16295216113599859 -1.08026703522124
4972000000.0 -0.18374851945901075 -1.0209866323667307
4975000000.0 -0.16312037656502085 -1.0335791852093352
4978000000.0 -0.23761912801610918 -1.0234748165552696
4981000000.0 -0.2404089596014006 -1.0430795285228587
4984000000.0 -0.22586097511180994 -1.0041618575719071
4988000000.0 -0.21594398654403568 -1.0119326085248987
4991000000.0 -0.19310464363147156 -1.019177547188007
4994000000.0 -0.19187165800349792 -1.001259989233407
4997000000.0 -0.2815190541239503 -0.9741540176463994
5000000000.0 -0.25821726503672676 -1.0484547604709675
5003000000.0 -0.2577051669424812 -1.0395506090160134
5006000000.0 -0.27528555303590174 -1.0462911177291991
5009000000.0 -0.2730980259045048 -1.008696894653439
5012000000.0 -0.27835076680333964 -0.98296368987538
5016000000.0 -0.2464746956459134 -1.0447209681814513
5019000000.0 -0.3224616304621005 -0.9768448905852609
5022000000.0 -0.32072603741139016 -0.999320566376185
5025000000.0 -0.35911046863252044 -1.0554225741121648
5028000000.0 -0.35784513906658066 -0.9649530649917664
5031000000.0 -0.3527876685784518 -0.9839378512570952
5034000000.0 -0.3928454914398093 -1.0147905605115
5038000000.0 -0.37847713838893704 -0.9711004999261539
5041000000.0 -0.31212830496678723 -0.9898258575886617
5044000000.0 -0.3190842087357312 -0.966977227686871
5047000000.0 -0.32665916372927045 -0.9955755924117117
5050000000.0 -0.30014109140813816 -0.983721196541494
5053000000.0 -0.42258213488592555 -1.0401423554096296
5056000000.0 -0.334653223882575 -0.977506637807988
5059000000.0 -0.3552734545681759 -1.031627470952606
5062000000.0 -0.42743383108909716 -0.9654269741758346
5066000000.0 -0.4165313582171899 -1.0040432175778913
5069000000.0 -0.41929413793382764 -0.9895320849916293
5072000000.0 -0.4343677357484017 -0.9605778039749189
5075000000.0 -0.42123168016299695 -1.008059607110781
5078000000.0 -0.4593001273695663 -0.9531051439150491
5081000000.0 -0.45208789680651945 -0.8975999131781917
5084000000.0 -0.5086070811656926 -0.9477435318523519
5088000000.0 -0.44346430008163695 -0.9340748347655825
5091000000.0 -0.5124698280149269 -0.9242890394377858
5094000000.0 -0.5342630753121278 -0.902235299692571
5097000000.0 -0.47880630930646106 -0.9485968636141855
5100000000.0 -0.4919831137122656 -0.9437319239193641
5103000000.0 -0.4728748688997912 -0.9300228531495621
5106000000.0 -0.463877078414531 -0.9907796405179026
5109000000.0 -0.5052778027927416 -0.9413107345734921
5112000000.0 -0.5122430755945504 -0.9219966553091181
5116000000.0 -0.5090220767736147 -0.8961801168657999
5119000000.0 -0.5155199606396677 -0.8770913413993964
5122000000.0 -0.49569079104012537 -0.8905688245480525
5125000000.0 -0.5425067971821946 -0.9010130343189495
5128000000.0 -0.5495217683371014 -0.8667228384843184
5131000000.0 -0.5797298288200136 -0.8863328486353458
5134000000.0 -0.5427862263120291 -0.8887748671008546
5138000000.0 -0.5476936127769235 -0.8933115407884809
5141000000.0 -0.5650631015461065 -0.9144566337256741
5144000000.0 -0.5547546915656983 -0.8781347683797619
5147000000.0 -0.5963130099111238 -0.8911692894678642
5150000000.0 -0.6076389622566148 -0.8802365453453193
5153000000.0 -0.6518831597915313 -0.8497502301981182
5156000000.0 -0.5841494442148593 -0.8316394671959382
5159000000.0 -0.651873305782021 -0.8756098698899075
5162000000.0 -0.6300627788047874 -0.7920971585179165
5166000000.0 -0.676423890836506 -0.7964453447315848
5169000000.0 -0.6435015437622985 -0.8490099041842073
5172000000.0 -0.6205486294451021 -0.8231430613878097
5175000000.0 -0.6686194582031495 -0.8441610874476236
5178000000.0 -0.6648506640390686 -0.7899857705333214
5181000000.0 -0.6651872670398844 -0.821912045412415
5184000000.0 -0.6796739865340493 -0.7707473886244192
5188000000.0 -0.6988903543145807 -0.8167989546529486
