! Created with skrf 1.8.0 (http://scikit-rf.org).
# Hz S RI R 50.0 
!freq ReS11 ImS11
4000000000.0 0.5889018364852346 0.7790861219506258
4003000000.0 0.6830796229294704 0.8435276494609939
4006000000.0 0.7420084891469019 0.8224399395407602
4009000000.0 0.6641525859588795 0.790762368293567
4012000000.0 0.6360269265328108 0.8305180075006784
4016000000.0 0.7277543794395063 0.8032699194779203
4019000000.0 0.6967126536816912 0.7730689029303603
4022000000.0 0.6431774735922922 0.8108129301165351
4025000000.0 0.7142023271442913 0.7422847560289964
4028000000.0 0.7178955986919001 0.7247600197145669
4031000000.0 0.6675799712264596 0.712414086590533
4034000000.0 0.6743150933129627 0.7339228448424904
4038000000.0 0.7447654813901051 0.701977079698226
4041000000.0 0.6974154530379707 0.714306820069055
4044000000.0 0.7710770592276994 0.7685364319325609
4047000000.0 0.7887611583488834 0.7686001377834899
4050000000.0 0.8053066637823358 0.6838869692157468
4053000000.0 0.7701056676142904 0.6638955741394004
4056000000.0 0.7486209381436649 0.7155428706051783
4059000000.0 0.7355874541177497 0.6740236806257673
4062000000.0 0.7955341920304082 0.6823520080145811
4066000000.0 0.752575671895388 0.6416287768944502
4069000000.0 0.8427163651327354 0.6307454337338594
4072000000.0 0.8046718542378772 0.6987761966059389
4075000000.0 0.8221954981466655 0.7210920577417459
4078000000.0 0.8153961362483334 0.6317236687069876
4081000000.0 0.7863381214096704 0.6959261914029816
4084000000.0 0.8599743225196413 0.672292385823988
4088000000.0 0.783102603587017 0.6742981826060181
4091000000.0 0.8815684735499277 0.6548485634911412
4094000000.0 0.8341978531246319 0.6341001892794668
4097000000.0 0.8145019509353985 0.6115748202376416
4100000000.0 0.8162307224966769 0.5893838764932964
4103000000.0 0.8317829031623476 0.6063239354993304
4106000000.0 0.8812461975187033 0.5982226077481934
4109000000.0 0.8663915464639547 0.5541168159184404
4112000000.0 0.8401328454462902 0.5553551179226497
4116000000.0 0.874094645951122 0.5854051633202739
4119000000.0 0.8510091751496814 0.5672924491335815
4122000000.0 0.8970144054455189 0.5159834091236384
4125000000.0 0.877772405569353 0.5163087727928304
4128000000.0 0.8318883922038759 0.538533495713212
4131000000.0 0.859622894860592 0.49956847794383374
4134000000.0 0.889785491088911 0.5416057951453757
4138000000.0 0.8541780691443746 0.4920956150100844
4141000000.0 0.8541117606973572 0.5073570125417091
4144000000.0 0.8912030010166166 0.5373416160178499
4147000000.0 0.8981278853089282 0.47407317002992605
4150000000.0 0.9435470005014315 0.5186767966917238
4153000000.0 0.9043450446642992 0.48508495436483323
4156000000.0 0.9391075093949828 0.5199925625163296
4159000000.0 0.8861420392702193 0.44878343527217096
4162000000.0 0.8823519258993555 0.4680124297453785
4166000000.0 0.9717942195652214 0.45248735671840423
4169000000.0 0.9219880683879834 0.4188310902561766
4172000000.0 0.9087831071619148 0.44741365537014716
4175000000.0 0.9451435444886173 0.44079235347975937
4178000000.0 0.9403041812301964 0.4444478449715831
4181000000.0 0.9294705139355597 0.4182285493291078
4184000000.0 0.9285344043581536 0.4062097944038788
4188000000.0 0.9556046570334458 0.40210486802754597
4191000000.0 0.9215683798601816 0.4138192231979984
4194000000.0 0.9385277823362396 0.36153730890131064
4197000000.0 0.9589049723997941 0.3779356363940313
4200000000.0 0.9623978425119926 0.38443889770945516
4203000000.0 0.9469188523757323 0.3729588757995881
4206000000.0 0.9862680669907437 0.36088831034688434
4209000000.0 0.9462693855401454 0.3500061265635798
4212000000.0 0.9836450314242684 0.3208682732824547
4216000000.0 0.9739910234946156 0.35051678809168
4219000000.0 0.9941687278446927 0.3242526856162966
4222000000.0 0.9773191652454554 0.2994765434069611
4225000000.0 0.9424308730060831 0.3174589048938651
4228000000.0 0.9866638758178692 0.305092027712888
4231000000.0 0.9843990556107504 0.28376262727386226
4234000000.0 1.0025170032764685 0.29056735986021104
4238000000.0 0.9935499760883263 0.25404205905596144
4241000000.0 0.9999327661345265 0.2529667747959304
4244000000.0 1.003366990978789 0.26054328265956256
4247000000.0 0.995808407938414 0.2567907502317234
4250000000.0 0.982674658082104 0.24055644440053942
4253000000.0 0.9621901602130092 0.19347791887417276
4256000000.0 1.0267278443887222 0.21360569527186907
4259000000.0 0.972789905505619 0.2124980841409065
4262000000.0 0.9888291197510357 0.18229924198287314
4266000000.0 1.0221856985669011 0.18002447143310657
4269000000.0 0.9924890895699883 0.19701646166289058
4272000000.0 0.9952423650774559 0.16982476381118472
4275000000.0 1.0223883062645611 0.17973269748810727
4278000000.0 1.022718682932896 0.17263873778796357
4281000000.0 1.0246129945108169 0.15498471095097266
4284000000.0 1.017600203759873 0.11556622613136572
4288000000.0 1.0067116651368493 0.15335178214039033
4291000000.0 0.9959657408274006 0.12102764523302333
4294000000.0 1.0063173763255677 0.12630819223222345
4297000000.0 0.9923512100769001 0.14688196821506116
4300000000.0 1.009321486068745 0.10994417662167447
4303000000.0 1.0147675294940484 0.09504180493235358
4306000000.0 1.0181782792687204 0.11616550699450617
4309000000.0 1.0001419549410677 0.11465476122590175
4312000000.0 1.009815500929199 0.09837019869820354
4316000000.0 1.021311289968145 0.07522811940702957
4319000000.0 0.9940493802051165 0.07276976255358412
4322000000.0 0.9818936972021869 0.01732925869257347
4325000000.0 1.035626280043259 0.05236892878499451
4328000000.0 1.0313085319097255 0.03511892236857893
4331000000.0 1.0548936232043358 -0.009511206470565067
4334000000.0 1.0407561060383368 -0.014034937446050319
4338000000.0 1.0224353157307133 0.015808138938767854
4341000000.0 1.0500737513707767 0.001711706503171706
4344000000.0 1.0412757897359886 -0.0011735169961103742
4347000000.0 1.008743420324774 -0.03221312882006197
4350000000.0 0.9695127813618205 -0.03601795537412911
4353000000.0 0.9903869018235814 -0.011333926391218746
4356000000.0 1.0205892757644481 -0.07387916066121791
4359000000.0 0.9580475527731754 -0.061338715526826584
4362000000.0 1.034141829284758 -0.12120247008983355
4366000000.0 1.0244015789252618 -0.07480575638408771
4369000000.0 0.9704309805744035 -0.0909269783185051
4372000000.0 0.9887634998432322 -0.135302720795032
4375000000.0 0.9853494941242555 -0.10113014024869689
4378000000.0 0.9945104458770369 -0.1096691237187015
4381000000.0 0.9987796092278183 -0.11814082688479907
4384000000.0 1.0515496865651994 -0.15691767500126497
4388000000.0 0.9911739802497329 -0.13656853553343445
4391000000.0 1.0172724465981462 -0.13909218473860963
4394000000.0 0.9646655782065015 -0.14162590898335659
4397000000.0 0.994866545568587 -0.17224929448103432
4400000000.0 1.0108371588607388 -0.1854613185195909
4403000000.0 1.0065435133379972 -0.17607742006066626
4406000000.0 1.005630129397099 -0.21571234584761673
4409000000.0 1.019745519588047 -0.20622675472425356
4412000000.0 0.9667870027216351 -0.2646991719906228
4416000000.0 0.9699310295190553 -0.2390794717771141
4419000000.0 0.9709693430320366 -0.25680019209060434
4422000000.0 0.97634220004882 -0.2175594447422488
4425000000.0 1.004018858952545 -0.2207559821759462
4428000000.0 0.9824284318072072 -0.2715204823143717
4431000000.0 0.9906707018998804 -0.26401026394468974
4434000000.0 0.9553299162838956 -0.27546820083395335
4438000000.0 1.0079042897801533 -0.2785679325040792
4441000000.0 0.9892703938046772 -0.2797878940127545
4444000000.0 0.9516467674168565 -0.29391181865574645
4447000000.0 0.9595015750924955 -0.3151659951923267
4450000000.0 0.9583520696885963 -0.29719003367472985
4453000000.0 0.9789679364826575 -0.3131213363004126
4456000000.0 0.9390201602367719 -0.3383446688323879
4459000000.0 0.8981598272654516 -0.351626550296712
4462000000.0 0.9997364445310175 -0.3559250691566705
4466000000.0 0.9823941857951239 -0.3917988396027087
4469000000.0 0.9495513448184384 -0.35949629405147043
4472000000.0 0.9474304637070433 -0.37728442057709743
4475000000.0 0.9108085941425816 -0.3611292920589028
4478000000.0 0.9580705114092317 -0.4291978773308509
4481000000.0 0.9062827430177821 -0.4000037336597971
4484000000.0 0.9030426190995149 -0.43736698784179384
4488000000.0 0.9097113110671563 -0.41910272087652317
4491000000.0 0.9249713985035383 -0.43890253970066045
4494000000.0 0.909337472651731 -0.41663728551845153
4497000000.0 0.9202359399596702 -0.416780557614427
4500000000.0 0.9082691710530484 -0.4200788720428686
4503000000.0 0.9349951440325397 -0.46383953538192446
4506000000.0 0.8946832937873375 -0.4643707779664182
4509000000.0 0.8805663824857937 -0.45381077015557025
4512000000.0 0.8742606796391212 -0.4755147273422431
4516000000.0 0.9184082921974354 -0.5053573954739372
4519000000.0 0.8663113478138149 -0.4663604377259462
4522000000.0 0.8811947241564708 -0.5063095929234677
4525000000.0 0.860788490046914 -0.4643444400823988
4528000000.0 0.905309148075937 -0.5061770040009993
4531000000.0 0.8864903015392707 -0.5206610193489241
4534000000.0 0.8498944234525321 -0.5370313025677451
4538000000.0 0.8503265920588801 -0.5221298808977831
4541000000.0 0.8276519338522172 -0.5667723962412802
4544000000.0 0.8329018210120473 -0.5462090064561278
4547000000.0 0.8287321871336943 -0.543510202872461
4550000000.0 0.8281680264717237 -0.5819927731071739
4553000000.0 0.8398452954527638 -0.5740840793353116
4556000000.0 0.8010391686579506 -0.5842247468189183
4559000000.0 0.790159878909227 -0.5910795030158702
4562000000.0 0.8329470065817486 -0.6052957197447453
4566000000.0 0.826287885372962 -0.5918490099676088
4569000000.0 0.7974811486032898 -0.6029070888548922
4572000000.0 0.8011196467690599 -0.6098900294325273
4575000000.0 0.7784858394807823 -0.6375454789567708
4578000000.0 0.8291843220823236 -0.6415480022497776
4581000000.0 0.7780561784630843 -0.6592304296551353
4584000000.0 0.7822193609741276 -0.645572641174552
4588000000.0 0.782920031616327 -0.6428137822631843
4591000000.0 0.7839636775440602 -0.6466854063393803
4594000000.0 0.7463608323222052 -0.6842503838911645
4597000000.0 0.7452091470943474 -0.690444074702698
4600000000.0 0.7157424541610277 -0.7034778702412319
4603000000.0 0.7493398858139069 -0.7056635283879316
4606000000.0 0.7465932057075154 -0.7021312819390141
4609000000.0 0.7197901516071765 -0.6955966974361274
4612000000.0 0.7132469325029794 -0.7336957633417309
4616000000.0 0.7034980348444022 -0.7112975384441981
4619000000.0 0.7160445618824829 -0.7136290459865847
4622000000.0 0.7086362454291091 -0.7357601815733499
4625000000.0 0.6638336304644135 -0.7351966730716839
4628000000.0 0.6878895718128947 -0.7228753450208368
4631000000.0 0.6636510364396442 -0.7671831514475366
4634000000.0 0.6746260048802609 -0.7643719283186475
4638000000.0 0.679387319400664 -0.7662355555234968
4641000000.0 0.6857955008986533 -0.7707575048386843
4644000000.0 0.6575961949038444 -0.7865884769419715
4647000000.0 0.6510407317562679 -0.777041511618066
4650000000.0 0.6238092318694795 -0.7767786790730019
4653000000.0 0.669314527755289 -0.7872177627290037
4656000000.0 0.6060502935281658 -0.7999876058094086
4659000000.0 0.6160761733903114 -0.8004731456554858
4662000000.0 0.621214474907761 -0.8120335767745661
4666000000.0 0.5931813033475032 -0.8118682065301357
4669000000.0 0.5943689863705599 -0.8288369472282994
4672000000.0 0.5786651207524394 -0.841931107784835
4675000000.0 0.5616621589417863 -0.8427938731445
4678000000.0 0.567288672549841 -0.8117066210434533
4681000000.0 0.559270135589657 -0.8560429506287369
4684000000.0 0.5503853663214393 -0.8471966053628625
4688000000.0 0.5329459143745523 -0.8610009467327052
4691000000.0 0.5695818028046957 -0.8587224816560224
4694000000.0 0.5465624344886943 -0.864721925240622
4697000000.0 0.5031203624941827 -0.8208218185959248
4700000000.0 0.5275900323385375 -0.8507668266379236
4703000000.0 0.5245198158368782 -0.8428270942338982
4706000000.0 0.47750120451741496 -0.901228787596434
4709000000.0 0.5101016288583227 -0.8491669760599047
4712000000.0 0.4943287859591458 -0.8849682568886844
4716000000.0 0.49672343900403393 -0.8902808083070042
4719000000.0 0.4873248162528151 -0.92534883267146
4722000000.0 0.504427674383751 -0.8828649122541139
4725000000.0 0.4937079939777176 -0.8916460892055819
4728000000.0 0.4333708050445406 -0.9037625185581113
4731000000.0 0.4498934813520593 -0.9284741331213044
4734000000.0 0.44073330131499505 -0.8824862747419329
4738000000.0 0.48372279888644376 -0.9566850917083829
4741000000.0 0.43442579588177266 -0.9431660935907368
4744000000.0 0.4212012292625438 -0.9545634954222734
4747000000.0 0.4246885473480926 -0.9227510677941549
4750000000.0 0.41204794460596217 -0.9454424050973246
4753000000.0 0.42991935133172055 -0.9545075874681499
4756000000.0 0.39423717237127454 -0.9439848338423151
4759000000.0 0.4020368455653158 -0.9452584684074947
4762000000.0 0.34110092972683403 -0.9547718893522857
4766000000.0 0.38124640771471086 -0.9601916712660838
4769000000.0 0.38366507759905394 -0.9798945655385026
4772000000.0 0.3655486718622547 -0.9829212445005305
4775000000.0 0.3307964680355858 -1.002950618343859
4778000000.0 0.38085081398742543 -0.9679058773975798
4781000000.0 0.3448309485723454 -0.9840525589606708
4784000000.0 0.363170691161913 -0.9768877487977928
4788000000.0 0.30081475495301635 -0.9968083666252225
4791000000.0 0.27866593103386367 -0.9506739216244077
4794000000.0 0.3242490862843573 -1.0152276801248465
4797000000.0 0.266364783045432 -0.9756862794701812
4800000000.0 0.267777391059182 -0.9642415334798882
4803000000.0 0.21126827810270443 -1.0001723467341035
4806000000.0 0.24058648956150164 -1.0157208474634718
4809000000.0 0.20072586160974465 -0.9953570540106323
4812000000.0 0.2088572331815604 -0.9977793203879082
4816000000.0 0.23445557305635834 -0.96495913402019
4819000000.0 0.232339458539361 -0.990798971048964
4822000000.0 0.21022916550640522 -1.0180855082732674
4825000000.0 0.2417022131364781 -1.0247090845454725
4828000000.0 0.18214784120819605 -1.006930530383379
4831000000.0 0.160723573879335 -1.0336224548427908
4834000000.0 0.19283175388371038 -1.0258744261644654
4838000000.0 0.15669622487800863 -1.0207621073139839
4841000000.0 0.15707422200040916 -1.0198996182337838
4844000000.0 0.18962259143636 -1.0039265490937788
4847000000.0 0.17761683510137471 -0.9663359910463281
4850000000.0 0.1230566524497688 -1.0483330968577274
4853000000.0 0.11520905831356232 -1.0117625666862102
4856000000.0 0.128191023012314 -0.9868122989470939
4859000000.0 0.11249755185502444 -1.0733797226498032
4862000000.0 0.13722609070551625 -1.008263883649401
4866000000.0 0.10363191879446207 -1.0481389186387564
4869000000.0 0.0833474065524275 -1.0199933210137255
4872000000.0 0.06138701992817021 -1.0486463052635902
4875000000.0 0.14366841037440267 -1.0709125913639
4878000000.0 0.07782187751033068 -1.042769738122184
4881000000.0 0.03619356990453774 -1.0936248739105927
4884000000.0 0.06399756221038125 -1.046863847260226
4888000000.0 0.06913804109944677 -1.0190933493934256
4891000000.0 0.0687558563715983 -1.056058130765842
4894000000.0 -0.01138307567433788 -1.0196827472484078
4897000000.0 0.04502295017232319 -1.0071229419392695
4900000000.0 0.02678807685731116 -1.059125277745859
4903000000.0 0.03946651438668656 -1.0463681712380646
4906000000.0 -0.01562928610268329 -1.046386609885987
4909000000.0 -0.039360198491937066 -1.0464588725757802
4912000000.0 -0.051174296574155786 -1.0505658405260052
4916000000.0 -0.00605191057533401 -1.0596248668243875
4919000000.0 0.0009576537122180026 -1.0721119802469876
4922000000.0 -0.02148431642565686 -1.060220880026351
4925000000.0 -0.07736414664961967 -1.0412638009446327
4928000000.0 -0.01162139677996507 -1.0498385364675462
4931000000.0 -0.04641855205292174 -1.03576119381414
4934000000.0 -0.09951422524037544 -1.0137702110823454
4938000000.0 -0.13229565530228038 -1.0033264254405365
4941000000.0 -0.09437623746672728 -1.0196213743497546
4944000000.0 -0.06888163363444597 -0.97492084973636
4947000000.0 -0.10398499539488287 -0.9966339030670788
4950000000.0 -0.13426465634651297 -1.0045821604150926
4953000000.0 -0.16737157996465668 -1.0692421665384328
4956000000.0 -0.13532913925763285 -0.979240843221752
4959000000.0 -0.14551419890307135 -0.9930651906013539
4962000000.0 -0.14676429006802363 -1.0385360855676253
4966000000.0 -0.12980377089456596 -1.024189440904962
4969000000.0 -0.1523820866470788 -1.0549132888380819
4972000000.0 -0.2059278512492729 -1.0251544445137504
4975000000.0 -0.1754226365691046 -0.9949813734149714
4978000000.0 -0.23537040343037474 -1.0361663458652624
4981000000.0 -0.25565171670472164 -1.0530888411166017
4984000000.0 -0.21045872713358169 -0.9898180384153662
4988000000.0 -0.19904501822252407 -1.0525381230443362
4991000000.0 -0.18991012689989295 -1.0228952605171002
4994000000.0 -0.2227617353057066 -1.0159742519904387
4997000000.0 -0.2981263916348256 -0.9926873579973139
5000000000.0 -0.25571790095476205 -1.0418327819320687
5003000000.0 -0.2600615416041516 -1.0658263707071656
5006000000.0 -0.30144546059613686 -1.0292795973006181
5009000000.0 -0.26889602871372564 -0.9881404058809248
5012000000.0 -0.33457169975153084 -1.001403022435841
5016000000.0 -0.2735097783548868 -1.0514643626168598
5019000000.0 -0.3088869683482235 -1.0032449078368448
5022000000.0 -0.31644997593554514 -0.9979185821113215
5025000000.0 -0.35117455874131637 -1.0307270719519146
5028000000.0 -0.34664009863098255 -0.9791468590061918
5031000000.0 -0.34976965734889465 -0.9893293872850225
5034000000.0 -0.3675285432516888 -1.0243941043862688
5038000000.0 -0.33243613438856856 -0.9346140795517566
5041000000.0 -0.3154431659726781 -0.9882226748767019
5044000000.0 -0.3376324415131695 -0.960200913166234
5047000000.0 -0.38467299101668156 -0.9886820773753014
5050000000.0 -0.2988792101492054 -0.9821159533395019
5053000000.0 -0.4283812834302064 -1.0260587132770456
5056000000.0 -0.38479028541489324 -0.9828942821527245
5059000000.0 -0.3425392429573035 -0.9996062716651065
5062000000.0 -0.4652849397466958 -0.9548233808480753
5066000000.0 -0.3837113937071335 -0.9546344655183023
5069000000.0 -0.4293156995797359 -0.9719381667177315
5072000000.0 -0.43090855808886197 -0.9571879299578918
5075000000.0 -0.4250577204093525 -0.9691881447182424
5078000000.0 -0.49538865098417567 -0.928903316258384
5081000000.0 -0.4482435690056283 -0.8827081979571635
5084000000.0 -0.487748613829628 -0.925123502629019
5088000000.0 -0.41565048232988483 -0.9494824456868223
5091000000.0 -0.5529978698686429 -0.9410336980955865
5094000000.0 -0.46713030786155735 -0.9671980470182778
5097000000.0 -0.4364524181524021 -0.9549935754530452
5100000000.0 -0.4835864452030007 -0.8894536266607304
5103000000.0 -0.5231653370258093 -0.9302017803075587
5106000000.0 -0.5579158243276792 -0.9470562828924634
5109000000.0 -0.4713231339428192 -0.924061106502299
5112000000.0 -0.4950053087506429 -0.8704478895526844
5116000000.0 -0.5651542575371181 -0.8756682129071733
5119000000.0 -0.5265674978868187 -0.8776204708418858
5122000000.0 -0.553128173107051 -0.8717652538225189
5125000000.0 -0.5072743167550202 -0.8846647603731875
5128000000.0 -0.5831578343860622 -0.8444708338396851
5131000000.0 -0.53570150886783 -0.8808389600897776
5134000000.0 -0.5708973593535779 -0.8454287413674855
5138000000.0 -0.5359767235154325 -0.8645904520998012
5141000000.0 -0.5203157137939228 -0.900277860327221
5144000000.0 -0.5418039586714974 -0.9100156554846601
5147000000.0 -0.6197035940629705 -0.8736175150191613
5150000000.0 -0.6036686199239635 -0.8829924322098162
5153000000.0 -0.6145159243358282 -0.8717096782764641
5156000000.0 -0.5734881405116383 -0.8548945662996748
5159000000.0 -0.679324585046099 -0.8828482666112781
5162000000.0 -0.6262238031650188 -0.8332914526446901
5166000000.0 -0.6735751758564565 -0.8518112656538519
5169000000.0 -0.636901046220395 -0.850775239254379
5172000000.0 -0.6335630620696223 -0.8335623963791698
5175000000.0 -0.6839973766061419 -0.837464999662038
5178000000.0 -0.6762635489203199 -0.8222970952484249
5181000000.0 -0.6526334984687638 -0.8451190710487361
5184000000.0 -0.6852581796805907 -0.7735629564734349
5188000000.0 -0.7017415717084993 -0.7991023732196827
5191000000.0 -0.7269889960560261 -0.7841346462854253
