! Created with skrf 1.8.0 (http://scikit-rf.org).
# Hz S RI R 50.0 
!freq ReS11 ImS11
4000000000.0 0.8455082805869523 0.5430509869340892
4003000000.0 0.91019148040463 0.5371180048664486
4006000000.0 0.8603680322030401 0.5568522724875253
4009000000.0 0.8486563679935712 0.5062032499596548
4012000000.0 0.9031576915718124 0.5580393632242643
4016000000.0 0.8988167555614835 0.48807234526929083
4019000000.0 0.8808986218401773 0.53771222412036
4022000000.0 0.9051705389331971 0.5964662041211656
4025000000.0 0.9393301513825119 0.4906269230212069
4028000000.0 0.9126531195324803 0.45748548782746973
4031000000.0 0.8666598678448879 0.44333152875720094
4034000000.0 0.8811476277186764 0.4443893575533182
4038000000.0 0.8954095805002714 0.4502907993825529
4041000000.0 0.9389556035763507 0.4818776943827072
4044000000.0 0.9272553707010962 0.4542854423056619
4047000000.0 0.9415305281346152 0.4725725913315012
4050000000.0 0.9795279111495684 0.4285455172657111
4053000000.0 0.9279152106926364 0.37185621708970634
4056000000.0 0.9361030642177097 0.41768011307109
4059000000.0 0.9461316671300137 0.38577420213859465
4062000000.0 0.9236523429023901 0.4056722355043248
4066000000.0 0.8986565357113581 0.36731144593259746
4069000000.0 0.9756897450031305 0.3737778097849761
4072000000.0 0.9898856648785298 0.37914772374277833
4075000000.0 0.9488297398789748 0.3509265475324705
4078000000.0 0.9779508102189777 0.35202711126032904
4081000000.0 0.9483696019126757 0.36579080718851287
4084000000.0 0.9826708812237427 0.2912237307293462
4088000000.0 0.9712288492970421 0.316039689480756
4091000000.0 0.9975835345626204 0.3153424651666192
4094000000.0 0.9395173284700005 0.26429682311634484
4097000000.0 0.9720644298842191 0.2392651294810007
4100000000.0 0.9485911391410321 0.2611742993865596
4103000000.0 1.0109258733113617 0.2610652701693001
4106000000.0 1.0197986946524107 0.2516898589307395
4109000000.0 1.0095952498158858 0.20638294191085266
4112000000.0 0.9793240842401203 0.19483300089225591
4116000000.0 0.992412342056981 0.22559848482208766
4119000000.0 0.9917061899982159 0.18297526591672808
4122000000.0 0.9919394356631324 0.15517038820370999
4125000000.0 0.9916277651694977 0.17467711940706637
4128000000.0 0.977775710969782 0.17624649985106555
4131000000.0 0.9877258025444158 0.16092446081796163
4134000000.0 0.9842290608545345 0.19018894288431376
4138000000.0 0.9897300922547614 0.13415019241099196
4141000000.0 0.9948929369178242 0.11581620742666476
4144000000.0 1.0394413575609114 0.1461056728156111
4147000000.0 1.0146462397861271 0.10459845203280116
4150000000.0 1.0162821372677349 0.05607353798285114
4153000000.0 1.0125292432872315 0.10606414032105294
4156000000.0 1.0423481204586846 0.10888552885316449
4159000000.0 1.002185106345399 0.07120121451480743
4162000000.0 0.9996106997982956 0.0829785025540914
4166000000.0 1.0442686314958596 0.0354132191424289
4169000000.0 0.994460793835082 0.022147320001292436
4172000000.0 1.0077744860803977 0.018868430525179836
4175000000.0 1.0313931398799498 0.014970306091618812
4178000000.0 1.0135209757995836 0.01696411448437224
4181000000.0 0.9969396015045324 -0.028066637870519107
4184000000.0 0.9838802891010736 -0.0205705869815464
4188000000.0 1.0011127964899358 -0.033491063549311584
4191000000.0 1.0059118543191972 -0.02663773712761691
4194000000.0 0.9992820046912898 -0.04896051382959976
4197000000.0 1.0314782949772476 -0.057253220842942376
4200000000.0 1.0359295222490803 -0.039197325341066486
4203000000.0 1.040172755303276 -0.06635459843071545
4206000000.0 1.019093717244206 -0.09597560424071072
4209000000.0 0.9865390388404907 -0.10301721577281145
4212000000.0 1.003435144831736 -0.153562048800424
4216000000.0 1.0210939773675811 -0.1152218580621048
4219000000.0 1.0155987848291386 -0.1311780941860823
4222000000.0 0.9958084419365385 -0.1465443069426715
4225000000.0 0.9885771267030843 -0.14401378576642265
4228000000.0 1.0072340428845425 -0.177134776333055
4231000000.0 0.9996821688876367 -0.19022679568618553
4234000000.0 0.9916263034647216 -0.22660203443988647
4238000000.0 0.9889394992576445 -0.23007872633019907
4241000000.0 0.9545135674776322 -0.22638109496815112
4244000000.0 0.969964632224276 -0.2236821603642809
4247000000.0 0.9545034799781184 -0.23805830470613445
4250000000.0 0.937720404755624 -0.25564901509988114
4253000000.0 0.9481408284097232 -0.25175368078329224
4256000000.0 1.0207324148559669 -0.29330648070185344
4259000000.0 0.927993642489952 -0.2964484793045557
4262000000.0 0.9421994649164143 -0.30342893733257914
4266000000.0 0.9653387048488041 -0.3536584040665073
4269000000.0 0.9633742854009272 -0.28724438297549476
4272000000.0 0.9528201771696025 -0.3090190254923183
4275000000.0 0.9632643711329663 -0.33365047820919413
4278000000.0 0.9754851877964629 -0.36987076171300826
4281000000.0 0.9681788351656906 -0.3525970404538025
4284000000.0 0.9293767614782058 -0.41537579858598617
4288000000.0 0.9461618661796867 -0.3417421998232842
4291000000.0 0.9014756497107619 -0.3813655742021932
4294000000.0 0.9141462621176812 -0.3938546407535721
4297000000.0 0.9253575767314156 -0.3834490941777775
4300000000.0 0.899293657808282 -0.40890541928750956
4303000000.0 0.8932119645281013 -0.43021378891662293
4306000000.0 0.871333813026673 -0.41332706378034256
4309000000.0 0.9001538461441583 -0.4529813687956012
4312000000.0 0.9223442536801889 -0.43051516425165604
4316000000.0 0.8906347870257468 -0.4768291352763694
4319000000.0 0.8766641253353099 -0.4523110375954955
4322000000.0 0.8615003311745812 -0.5122372878750522
4325000000.0 0.8768359517878139 -0.5177566422750107
4328000000.0 0.8603811464262258 -0.5230216225652056
4331000000.0 0.8343324525370822 -0.5541940537122585
4334000000.0 0.8507236112383585 -0.5488366374902831
4338000000.0 0.8493528935670647 -0.5335653448937197
4341000000.0 0.8590277303059726 -0.5656004890405983
4344000000.0 0.8528230106302396 -0.5811780099011378
4347000000.0 0.8114036692269658 -0.6232038885479171
4350000000.0 0.7907195454726559 -0.5940936177416829
4353000000.0 0.8170096100082278 -0.5833566515583153
4356000000.0 0.754631935137478 -0.6185123149031234
4359000000.0 0.7550686380989925 -0.5987354211642355
4362000000.0 0.7728335041018597 -0.674188358393183
4366000000.0 0.7873960739473911 -0.6582017416849711
4369000000.0 0.7489057559138131 -0.6498179774912728
4372000000.0 0.7285857098726864 -0.681327038565888
4375000000.0 0.7598406158040636 -0.6499815718248567
4378000000.0 0.7259599260199676 -0.6675824330342401
4381000000.0 0.717799187614149 -0.685379562036573
4384000000.0 0.7668977229784579 -0.7423697957578343
4388000000.0 0.7061661790206619 -0.6932063295652331
4391000000.0 0.7103093693838307 -0.7236466582270052
4394000000.0 0.6836728230470285 -0.7377925019299112
4397000000.0 0.6891918157029979 -0.7441708865302904
4400000000.0 0.6886275996285265 -0.7619477469138399
4403000000.0 0.6750004733686288 -0.7703474798581597
4406000000.0 0.6516500806774218 -0.7758497875595619
4409000000.0 0.6427780274644868 -0.79091811981853
4412000000.0 0.5995631480003131 -0.8002485982730689
4416000000.0 0.6236411746829041 -0.7861204874793348
4419000000.0 0.6045011298441659 -0.8052426398533188
4422000000.0 0.6198374906369235 -0.7979273660087944
4425000000.0 0.6033869562652342 -0.8214661604996368
4428000000.0 0.594282756165389 -0.8409221009626814
4431000000.0 0.573122775989933 -0.8380293110910596
4434000000.0 0.5533453884367131 -0.8439766938520445
4438000000.0 0.556492428558864 -0.8480629197610621
4441000000.0 0.5471377844525723 -0.8713247682770857
4444000000.0 0.5341016051636921 -0.8685424980636308
4447000000.0 0.5031589195860433 -0.8819207969916932
4450000000.0 0.5049394759433747 -0.8704084106252107
4453000000.0 0.49303010568094047 -0.8774670241130844
4456000000.0 0.4665468305175991 -0.8790643496205329
4459000000.0 0.4488129594574849 -0.8982488982559917
4462000000.0 0.44036870999270245 -0.9437863059379678
4466000000.0 0.4515204560292443 -0.947981609526002
4469000000.0 0.4324550527759001 -0.9437914910244636
4472000000.0 0.41672755704179626 -0.9251501960575039
4475000000.0 0.3774840326226504 -0.9391557665357375
4478000000.0 0.3843833460248538 -0.958497672862566
4481000000.0 0.35783807051822153 -0.9170141955802538
4484000000.0 0.33607996884596003 -0.9926087580806437
4488000000.0 0.34606206584915555 -0.9510540987485693
4491000000.0 0.3348773880775456 -0.9582441264213631
4494000000.0 0.32707276894913223 -0.9344386084248206
4497000000.0 0.3152157282544911 -0.974926440225862
4500000000.0 0.26061440600117086 -0.9872830486327346
4503000000.0 0.26372883290692734 -0.9810793524145518
4506000000.0 0.22851796149534037 -0.9689061574406074
4509000000.0 0.22274528733147328 -0.9734991648595707
4512000000.0 0.2585885559813755 -0.9840539004917058
4516000000.0 0.17254896626764793 -1.0357563882559992
4519000000.0 0.1921215181789268 -0.9780297231246122
4522000000.0 0.19921756619511538 -1.0168124799625518
4525000000.0 0.17965149960956367 -1.0280417533893293
4528000000.0 0.15097101773087657 -1.0129446605400192
4531000000.0 0.12864515304242827 -0.9849478441914986
4534000000.0 0.07753008289746988 -0.9947529405120459
4538000000.0 0.1219981819035642 -1.0015384296533596
4541000000.0 0.08469153495773396 -0.9924416956904613
4544000000.0 0.07850440048402041 -1.0224946700840194
4547000000.0 0.05678510264723102 -0.9958724945612096
4550000000.0 0.051454455348723116 -1.0382983433297381
4553000000.0 -0.0008547561102143775 -0.9874585820064433
4556000000.0 0.021421738439524496 -1.0280320207310478
4559000000.0 -0.012027616242293815 -1.019689239172187
4562000000.0 -0.033374799602631566 -1.012262580161245
4566000000.0 -0.03783763586000882 -1.011383030915575
4569000000.0 -0.050474328577376854 -1.0158080162647065
4572000000.0 -0.0846801934507179 -1.0164377561060423
4575000000.0 -0.10336850067108688 -1.0026227121157347
4578000000.0 -0.11842442390350044 -1.015928539054638
4581000000.0 -0.12016429337118953 -0.9865178125408196
4584000000.0 -0.1438030372627676 -0.9929805163050702
4588000000.0 -0.16528292671356332 -1.0209296541402801
4591000000.0 -0.2173056249891514 -1.005143219827519
4594000000.0 -0.21483727898013336 -0.9884087530881943
4597000000.0 -0.21696085231998669 -1.0043508856970331
4600000000.0 -0.23884497347927644 -1.035572349511486
4603000000.0 -0.2523103068345912 -0.9651820129690317
4606000000.0 -0.26928094516606127 -1.0173732488783491
4609000000.0 -0.25884322928515646 -0.9808656171228861
4612000000.0 -0.31121277702290534 -0.9383935345457267
4616000000.0 -0.2982139173441044 -0.9746407544244726
4619000000.0 -0.34063545713824117 -0.9470934232458554
4622000000.0 -0.39360360682355017 -0.9277963822845563
4625000000.0 -0.421358729055916 -0.9800537533390922
4628000000.0 -0.43695255811628153 -1.0265690505658602
4631000000.0 -0.3866098303909714 -0.960229874002837
4634000000.0 -0.4419110788894591 -0.9453701318136587
4638000000.0 -0.446168595099954 -0.9322817731996724
4641000000.0 -0.4506199153705831 -0.9062771125099459
4644000000.0 -0.44307626047938786 -0.9026166930190341
4647000000.0 -0.48123765109188366 -0.9023282707935816
4650000000.0 -0.4867845548862455 -0.8911452196318144
4653000000.0 -0.5305140355000179 -0.8561935341737842
4656000000.0 -0.5133899474489132 -0.8948895519816167
4659000000.0 -0.5802162813964118 -0.8683764002184285
4662000000.0 -0.5589321508005857 -0.8635432678917905
4666000000.0 -0.6570306438034912 -0.8347377436143042
4669000000.0 -0.6406683844063679 -0.901015844259759
4672000000.0 -0.6881616445824382 -0.8625859303289346
4675000000.0 -0.6659231706026321 -0.8384143021666175
4678000000.0 -0.6184768125439963 -0.7595654509368149
4681000000.0 -0.6792764483089787 -0.7767202923600566
4684000000.0 -0.7343455642786039 -0.8506374505716278
4688000000.0 -0.7745016940427034 -0.7509629122210706
4691000000.0 -0.7499602376324946 -0.8229161438755219
4694000000.0 -0.6915406997541279 -0.7305041256759803
4697000000.0 -0.7232356751048672 -0.6034141303354441
4700000000.0 -0.7539298927743336 -0.7104402649272654
4703000000.0 -0.6354323104982149 -0.6858003840466522
4706000000.0 -0.7553757988370213 -0.6572465353142898
4709000000.0 -0.7864040891018093 -0.6590210985082402
4712000000.0 -0.8104001600501707 -0.6963914157047721
4716000000.0 -0.8839270746659216 -0.6159071095208153
4719000000.0 -0.7913794446182532 -0.6700551842696564
4722000000.0 -0.8367686225875706 -0.5659173200466394
4725000000.0 -0.8714039513149692 -0.5959551409021137
4728000000.0 -0.8799933491957137 -0.5261851737209089
4731000000.0 -0.8888116467787046 -0.5638327711986821
4734000000.0 -0.8591234785582763 -0.5600625761079158
4738000000.0 -0.9490339683180442 -0.5841359010995353
4741000000.0 -0.9525662017519716 -0.45423439134115123
4744000000.0 -0.9431228965528127 -0.479515076152635
4747000000.0 -0.9156687855612563 -0.4303559641520832
4750000000.0 -0.9883029454279897 -0.4581233073488542
4753000000.0 -0.9555470733446529 -0.4088031152732018
4756000000.0 -0.9793467927458102 -0.3676073550203982
4759000000.0 -0.992705157143358 -0.39879799975682667
4762000000.0 -1.0554093262580668 -0.2831320602546881
4766000000.0 -0.9863273275289606 -0.3245034595475425
4769000000.0 -1.0173868644898412 -0.25789851655626916
4772000000.0 -1.0080469233912264 -0.23638459140051893
4775000000.0 -1.0791393625545327 -0.21346104793795234
4778000000.0 -1.0588104276385755 -0.13414908689170169
4781000000.0 -1.0491768647472908 -0.1827920905749069
4784000000.0 -1.0367736400828593 -0.13055063807921757
4788000000.0 -1.0263171347812934 -0.07243039477679133
4791000000.0 -1.0206298224370123 -0.09562521756609875
4794000000.0 -1.0376373897152147 -0.10575049741890774
4797000000.0 -0.9895974709557398 -0.03824460372174669
4800000000.0 -1.0384395605906205 0.01290590713813837
4803000000.0 -1.0561755049951678 0.04376364976509679
4806000000.0 -1.0565082928530813 0.06136515923314653
4809000000.0 -1.030239627959137 0.13493028840114882
4812000000.0 -1.027401742988863 0.1138869562537828
4816000000.0 -1.015167117420066 0.09366523897629504
4819000000.0 -1.0370732324149101 0.18077131929398466
4822000000.0 -1.0538067756524692 0.1894946347559213
4825000000.0 -1.0182868007404584 0.21407530812828685
4828000000.0 -1.011263264492653 0.2821776531660494
4831000000.0 -1.0263986548989463 0.2622911435263737
4834000000.0 -1.00248143381141 0.2899126493213728
4838000000.0 -0.95263962707425 0.36480317180996635
4841000000.0 -0.9563388351843645 0.4173730569254159
4844000000.0 -0.9522641765048234 0.4133581902831964
4847000000.0 -0.9754471571881262 0.4398071624723079
4850000000.0 -0.9212087790788803 0.4824111678351614
4853000000.0 -0.9027860697194982 0.4868827238129981
4856000000.0 -0.8797709919798713 0.5201981494283981
4859000000.0 -0.863691642054277 0.5970806526028573
4862000000.0 -0.9205801432201922 0.5655537926570505
4866000000.0 -0.8603746128530347 0.580861030182275
4869000000.0 -0.8843891201613674 0.60867171760032
4872000000.0 -0.7855080539503321 0.6246319053830977
4875000000.0 -0.8133897898177643 0.6744536918000976
4878000000.0 -0.7808730550809073 0.6803034983826068
4881000000.0 -0.7131908315682237 0.664807993589358
4884000000.0 -0.7081667322395243 0.7795259888963312
4888000000.0 -0.6638151162875219 0.8313179123209684
4891000000.0 -0.6308500076700638 0.8120431256122226
4894000000.0 -0.681742766911295 0.7503112792229294
4897000000.0 -0.5821768076025144 0.7899058179455201
4900000000.0 -0.5844529541074788 0.8449449574553114
4903000000.0 -0.5670393573543614 0.8630581277672965
4906000000.0 -0.5806594239975954 0.850913726334304
4909000000.0 -0.4750092655831734 0.8777267606780046
4912000000.0 -0.387840714600592 0.8651525525288856
4916000000.0 -0.380941604637489 0.9052856201636856
4919000000.0 -0.369200942037848 0.9045783158188544
4922000000.0 -0.32310769231636094 0.9335473529141298
4925000000.0 -0.325135039028972 0.9365208584212033
4928000000.0 -0.2687213168659007 1.013434088891936
4931000000.0 -0.24103273387021618 0.9924833995235993
4934000000.0 -0.24351192540532673 1.025705606104181
4938000000.0 -0.19300304159927345 1.0116288946240928
4941000000.0 -0.16113702091328358 1.0003827765010427
4944000000.0 -0.09725206055499386 1.0880253761038052
4947000000.0 -0.08471486046998564 1.0568708334916437
4950000000.0 -0.03279294187477415 1.0327608620865554
4953000000.0 -0.055710850140660295 0.9765884898934044
4956000000.0 -0.010059315355562148 1.0441181947871003
4959000000.0 0.05439255778744591 1.0309738835783222
4962000000.0 0.10502387501402527 0.9906586334049851
4966000000.0 0.11129958715554479 0.9406963867297659
4969000000.0 0.204579924809224 0.9352586479702553
4972000000.0 0.1945065982587621 0.9660071473567193
4975000000.0 0.3023130844854927 0.9918231938235175
4978000000.0 0.25991151415805125 0.9684760197278589
4981000000.0 0.2729119112411531 0.9209967118884442
4984000000.0 0.3902885842550139 0.9687116174572501
4988000000.0 0.40256991991099167 0.927790725045116
4991000000.0 0.4589964988395613 0.9243280454471191
4994000000.0 0.4493071177525323 0.8776203766136662
4997000000.0 0.44438271020573894 0.9059259861571569
5000000000.0 0.5217817033264339 0.8240863072671232
5003000000.0 0.52988826926607 0.7966238229853643
5006000000.0 0.5277887053068011 0.7723960745969606
5009000000.0 0.6261729630081239 0.7740429847818073
5012000000.0 0.6316298465458776 0.7860088411758184
5016000000.0 0.6398295344639697 0.7740111444428628
5019000000.0 0.6800304690347383 0.7419982987774637
5022000000.0 0.7106450444932628 0.7150447099073114
5025000000.0 0.7052642726997644 0.6726707210073166
5028000000.0 0.7588281851373592 0.6859841131279666
5031000000.0 0.7821611861563603 0.6272818490101322
5034000000.0 0.8220407269162959 0.6199380668225339
5038000000.0 0.7882457455744127 0.6125726267590335
5041000000.0 0.7974658286337046 0.5530348526793829
5044000000.0 0.8142659051062489 0.5306794417463621
5047000000.0 0.8724704156170922 0.502131121243884
5050000000.0 0.8856625700292476 0.5038415865866968
5053000000.0 0.8664727205360025 0.43860743831572546
5056000000.0 0.865279229879861 0.4245480965689007
5059000000.0 0.9203797171987693 0.3959448032589381
5062000000.0 0.9330540105577797 0.37116532044826706
5066000000.0 0.9364495393635066 0.34850375531516986
5069000000.0 0.9643904766939508 0.3183595930784456
5072000000.0 0.9890435597001609 0.33238154269113523
5075000000.0 0.9997505745116058 0.25797011349495086
5078000000.0 1.0139297046843452 0.25253357797452436
5081000000.0 0.9749640364392638 0.21109586008624076
5084000000.0 1.0086792588665496 0.19555727172467224
5088000000.0 0.97403500322057 0.1340768823501307
5091000000.0 0.9974839306843664 0.10125494149937778
5094000000.0 1.0145243120550402 0.09704546776951979
5097000000.0 1.0203158575735958 0.06800909530994438
5100000000.0 1.0018905192276049 0.054073530911141365
5103000000.0 0.993440942612797 0.0458279617751966
5106000000.0 1.0250959851356496 0.008298129523061304
5109000000.0 1.0084865071893354 -0.03947559778274615
5112000000.0 1.0076014584196256 -0.03785634032634333
5116000000.0 0.9726803047260967 -0.061501266940636456
5119000000.0 0.990314838801721 -0.11904923737167755
5122000000.0 1.0066410083481185 -0.11890966826382104
5125000000.0 0.9924894897310522 -0.18904093302797625
5128000000.0 1.0025855057411552 -0.20749117160898412
5131000000.0 0.9756867374270861 -0.2118694006671788
5134000000.0 0.9828510283009106 -0.2614593574470554
5138000000.0 0.9672041712472617 -0.29231835344240836
5141000000.0 0.9813997036595989 -0.25489689296146634
5144000000.0 1.0178975925796354 -0.3072675416941968
5147000000.0 0.9814187229899588 -0.3051414771954982
5150000000.0 0.941361149352176 -0.31910607610335046
5153000000.0 0.9563309043747772 -0.39313300209204066
5156000000.0 0.9422764184195017 -0.40985130766918176
5159000000.0 0.9596734947910239 -0.42720953427626973
5162000000.0 0.8917688203705939 -0.4077068907226147
5166000000.0 0.965630253132503 -0.5416466342285308
5169000000.0 0.9003100860007804 -0.5221572125514119
5172000000.0 0.8408076139074048 -0.5077806820383589
5175000000.0 0.9310631318249494 -0.49639420272440726
5178000000.0 0.8139168149569993 -0.5546165935179536
5181000000.0 0.8945045714553718 -0.5200062365613666
5184000000.0 0.837597913627629 -0.6199110538649732
5188000000.0 0.8290711162027533 -0.5386093492297327
