! Created with skrf 1.8.0 (http://scikit-rf.org).
# Hz S RI R 50.0 
!freq ReS11 ImS11
4000000000.0 0.588060907042167 0.8112544270891575
4003000000.0 0.6396236170969885 0.842084981852506
4006000000.0 0.7008210889586285 0.7827814733536989
4009000000.0 0.6638243997326808 0.7855033897414389
4012000000.0 0.6743492531077482 0.8236350398883158
4016000000.0 0.7004572249113402 0.7642578363146328
4019000000.0 0.6557756165236055 0.7573534567711164
4022000000.0 0.6160088043485697 0.8155650982588759
4025000000.0 0.7637665475464549 0.739477338614421
4028000000.0 0.675757724227346 0.7913515826078219
4031000000.0 0.6519441174772175 0.7254682559907077
4034000000.0 0.6751230649317234 0.7292046305149185
4038000000.0 0.7457814933833086 0.7118052101631317
4041000000.0 0.6985525985273549 0.7366896667775293
4044000000.0 0.7589776820835771 0.7677973827788248
4047000000.0 0.7184438351866972 0.729100260667289
4050000000.0 0.7336483934649183 0.6969030676747305
4053000000.0 0.710522542187184 0.6495361262476433
4056000000.0 0.7592780610899432 0.6874598484317246
4059000000.0 0.7008571524142607 0.7087245815500884
4062000000.0 0.7800104974286163 0.6811221069842064
4066000000.0 0.7205254541789838 0.624092242049117
4069000000.0 0.8064233684416016 0.7020803308806355
4072000000.0 0.6984171689515988 0.704435367626346
4075000000.0 0.7623516230031185 0.7085107330553089
4078000000.0 0.8187509703461378 0.6692377013027937
4081000000.0 0.7586730100205429 0.7131820888114547
4084000000.0 0.8109011768029049 0.6136461968573719
4088000000.0 0.7399775475398803 0.6783874461939918
4091000000.0 0.8574610118111236 0.698087418567749
4094000000.0 0.8079292222849843 0.6791641307794872
4097000000.0 0.8283501046079961 0.5764840068449946
4100000000.0 0.8181216060426124 0.5988561856452517
4103000000.0 0.7932977540457107 0.6326170863315641
4106000000.0 0.8538011012512636 0.5809460968918828
4109000000.0 0.8490030288500061 0.5984280869539853
4112000000.0 0.8321461260058927 0.559425880820521
4116000000.0 0.8440265950289637 0.5716264831233243
4119000000.0 0.8243372177227397 0.5665831050511495
4122000000.0 0.88363537636169 0.5327015620175463
4125000000.0 0.9108335634564357 0.536508734037813
4128000000.0 0.845761786341324 0.5514909580411996
4131000000.0 0.8389018932915377 0.5395670449290355
4134000000.0 0.8585051330994462 0.5405209247015174
4138000000.0 0.899066087001605 0.4955465475218192
4141000000.0 0.8690973822539813 0.5218168400960741
4144000000.0 0.867470486050326 0.51374642602412
4147000000.0 0.8906586675277496 0.4929814875455429
4150000000.0 0.8868118306082571 0.4692646632710656
4153000000.0 0.8772387003226596 0.4771878883827704
4156000000.0 0.9206207417107577 0.5108019986986634
4159000000.0 0.8638037773432763 0.48610479038189297
4162000000.0 0.8875686879549662 0.44054028787713784
4166000000.0 0.9292969776074653 0.47306375843818127
4169000000.0 0.9410496071565033 0.42883203714786666
4172000000.0 0.8960419149155299 0.4604739983133255
4175000000.0 0.9235743888146071 0.4425461154113148
4178000000.0 0.9536450768384859 0.4438189375606727
4181000000.0 0.9468319847822044 0.45255872187394086
4184000000.0 0.922742031517847 0.4169093693081291
4188000000.0 0.9463600759021373 0.4056704671761773
4191000000.0 0.9099264034342376 0.41214618208988724
4194000000.0 0.9369047729316897 0.3884237307099402
4197000000.0 0.9818482308513854 0.38868388899102396
4200000000.0 0.9388154317880111 0.3961501402388513
4203000000.0 0.9508187120074972 0.38684810548264215
4206000000.0 0.9723361691824803 0.3644768084891807
4209000000.0 0.9642605000656813 0.36975602979838623
4212000000.0 0.9711858103042803 0.31872760340969275
4216000000.0 0.9481963386153216 0.34522589416047805
4219000000.0 0.97332499817848 0.3618218538948107
4222000000.0 0.969407182901665 0.32964337949335215
4225000000.0 0.9467711079239065 0.3135667991523504
4228000000.0 0.981162383832584 0.31193857496418353
4231000000.0 0.9781806970824392 0.2938853258234269
4234000000.0 0.984467134327062 0.30826689011906466
4238000000.0 0.9725658381868851 0.25636966020231655
4241000000.0 0.9859979882793601 0.2710824613801369
4244000000.0 0.9769685120429196 0.26794034229130415
4247000000.0 0.9876028802592761 0.2705589827084522
4250000000.0 0.9630007815626325 0.25347509102270305
4253000000.0 0.9755642753946725 0.2320389992383443
4256000000.0 1.0000853080053123 0.23172061874971628
4259000000.0 0.9582744371066924 0.217168108770229
4262000000.0 1.0118299563619908 0.1931997095973673
4266000000.0 1.0017502494740096 0.18449915417309737
4269000000.0 0.9896014637523884 0.20912018169998672
4272000000.0 0.9712331819880334 0.19115997041503974
4275000000.0 1.0107133814846008 0.17048615785984417
4278000000.0 1.0198592152505728 0.1968153899708866
4281000000.0 0.9969127134639802 0.19247978797786286
4284000000.0 1.018351919188798 0.12555953385396915
4288000000.0 0.9766199628926768 0.18713798702986806
4291000000.0 0.9873514682879423 0.1289353958076238
4294000000.0 0.9952480991123123 0.12140585029480426
4297000000.0 0.9852622973797887 0.15711092585663433
4300000000.0 0.9959791785533418 0.12575461025859727
4303000000.0 0.9883314969877959 0.09260334722460369
4306000000.0 1.0215120849803578 0.11167283344262366
4309000000.0 1.020463707527881 0.08631812152361261
4312000000.0 1.014072567155907 0.12254235571900207
4316000000.0 1.0303739734858737 0.0817491059455414
4319000000.0 0.9763420459647909 0.09144641818152936
4322000000.0 0.9879888779294568 0.021370064770311323
4325000000.0 1.0187273313507883 0.04908301573861211
4328000000.0 1.002468486200538 0.030141296973174594
4331000000.0 0.9987823233005878 0.0261580110841316
4334000000.0 1.025495222320684 0.02156550214569694
4338000000.0 1.0306241173368904 0.023954511527790365
4341000000.0 1.0336041661149387 0.031468682350324934
4344000000.0 1.0501350066250417 0.006830064487542753
4347000000.0 1.0173655420564325 -0.024025479634822794
4350000000.0 0.9844555467740177 -0.02482295107819435
4353000000.0 1.0152721234322641 -0.004315650903054996
4356000000.0 1.0029095196764173 -0.0447026245692102
4359000000.0 0.9616049927076981 -0.0463050665846233
4362000000.0 1.0114734826666905 -0.08414546986702026
4366000000.0 1.0274007351596592 -0.056418645271010814
4369000000.0 0.9759599331087733 -0.07249340010852559
4372000000.0 0.986558385002066 -0.11518770477048539
4375000000.0 0.9813258722180276 -0.06208853267632225
4378000000.0 0.9714297028460257 -0.10186528015890932
4381000000.0 0.9865398491205046 -0.09434450413197203
4384000000.0 1.054648334223532 -0.11278158925005217
4388000000.0 0.983514830189576 -0.10983825347689014
4391000000.0 1.007593163807465 -0.1453221707823839
4394000000.0 0.962400859135163 -0.14852955091784062
4397000000.0 0.9778666665888478 -0.1458903151239333
4400000000.0 1.026402883583196 -0.17921685835394838
4403000000.0 1.0014952250074807 -0.15728983898558616
4406000000.0 0.9983946873054588 -0.19384781155546038
4409000000.0 1.011358378284021 -0.20123260409289542
4412000000.0 0.9640843519028318 -0.25339446478937644
4416000000.0 0.9881484280136683 -0.20650715950954918
4419000000.0 0.9699768791374481 -0.23400942485876944
4422000000.0 0.9632141032476751 -0.20736143586520978
4425000000.0 0.992688192894319 -0.2140689177746434
4428000000.0 0.9733591843243391 -0.2478982248288897
4431000000.0 0.9840430682472616 -0.25122215642963214
4434000000.0 0.964696666689754 -0.2557700618107015
4438000000.0 0.9887051789123416 -0.26255066464846255
4441000000.0 0.9990764302800674 -0.26541287217976367
4444000000.0 0.9524064881738212 -0.26666426759027506
4447000000.0 0.9598252620442228 -0.29349586233020364
4450000000.0 0.9625074782466235 -0.2760691646137098
4453000000.0 0.9770166409699824 -0.30657746011705767
4456000000.0 0.9308227419954253 -0.32465398861329764
4459000000.0 0.9226117055640528 -0.32009668264234936
4462000000.0 1.0033011336712925 -0.35654219914994756
4466000000.0 0.9716703840940158 -0.38126179717727027
4469000000.0 0.9483125404896288 -0.3450614573642464
4472000000.0 0.9553035247011025 -0.38094752318225766
4475000000.0 0.921999357849191 -0.35376297686680325
4478000000.0 0.9807925146477926 -0.40165880907348184
4481000000.0 0.894161353986017 -0.38498923950564834
4484000000.0 0.8941470413294328 -0.4343431293189359
4488000000.0 0.8945704389225864 -0.41448911099596564
4491000000.0 0.9160089320050853 -0.432842923383789
4494000000.0 0.9053687854903149 -0.41230118912924324
4497000000.0 0.9142509798917084 -0.3914058622019567
4500000000.0 0.9200047952668444 -0.40314512466280567
4503000000.0 0.9333077307957789 -0.45147681279694835
4506000000.0 0.8934247674526026 -0.44951779655011576
4509000000.0 0.8740977953379385 -0.45789515352046406
4512000000.0 0.8553812811673874 -0.4547762902661783
4516000000.0 0.9181278132882549 -0.4786573450205092
4519000000.0 0.8677433963066506 -0.47482722218830364
4522000000.0 0.8761744625098788 -0.47950491347859303
4525000000.0 0.8962987363546593 -0.45224710569995125
4528000000.0 0.8965442585141001 -0.5253517694123867
4531000000.0 0.8963557733771412 -0.4961078394318199
4534000000.0 0.8382608128078083 -0.5124308308903541
4538000000.0 0.8583705843204281 -0.5183626696493032
4541000000.0 0.8350648838668258 -0.5439021276056878
4544000000.0 0.8302145546603621 -0.5295734782590963
4547000000.0 0.8341534946829748 -0.5173685767786149
4550000000.0 0.8426211451372871 -0.5632704632798565
4553000000.0 0.8286064351252396 -0.5629670608133939
4556000000.0 0.8126918639677247 -0.5630072797396817
4559000000.0 0.8203110772555914 -0.594439885461711
4562000000.0 0.8372105682630422 -0.5793040499247787
4566000000.0 0.8077716661563916 -0.5969952913864003
4569000000.0 0.7938559042605553 -0.586842415932717
4572000000.0 0.7991954020355769 -0.6047904202428032
4575000000.0 0.7980061428775169 -0.6172468499328193
4578000000.0 0.8156151115676091 -0.5986852812777885
4581000000.0 0.7735369887233657 -0.6465917042402047
4584000000.0 0.7773043152399698 -0.636161289319381
4588000000.0 0.8045154802110901 -0.6497727390229162
4591000000.0 0.7941536800388688 -0.6237188083737985
4594000000.0 0.7382719867589057 -0.6606693803980316
4597000000.0 0.7708075322765069 -0.6740657620281757
4600000000.0 0.7305102897657267 -0.6743879059465332
4603000000.0 0.7578265471235552 -0.6843408511643594
4606000000.0 0.7332696597992231 -0.6859838943504936
4609000000.0 0.7521327203066734 -0.6774553841276719
4612000000.0 0.7370010209985198 -0.7100166222916565
4616000000.0 0.7141247623392613 -0.6818061547579845
4619000000.0 0.7299885588746639 -0.6869747437038142
4622000000.0 0.7162122790727602 -0.7057936467726893
4625000000.0 0.6696909404355733 -0.7165581339544747
4628000000.0 0.7061610232085086 -0.7074191957191
4631000000.0 0.6771324326389754 -0.7373177824029684
4634000000.0 0.6974875478518404 -0.7431834815841509
4638000000.0 0.6778661471865708 -0.7551961716643827
4641000000.0 0.6691673291343213 -0.7508932520876423
4644000000.0 0.6649452896288629 -0.7215675503496382
4647000000.0 0.6825394619163859 -0.7579653740495353
4650000000.0 0.634184089410724 -0.7606189486083027
4653000000.0 0.6538858346042797 -0.7609558111573508
4656000000.0 0.6407898102028975 -0.7761101797727394
4659000000.0 0.6073132462882695 -0.7687649122351824
4662000000.0 0.6307595731043711 -0.8110296330339698
4666000000.0 0.6115226324885165 -0.7959593978369791
4669000000.0 0.6388721373581576 -0.7812744012542114
4672000000.0 0.5961082140281123 -0.8356589348198691
4675000000.0 0.5710583022814479 -0.8278486807543552
4678000000.0 0.567485501337402 -0.7763015420564292
4681000000.0 0.5855344523558048 -0.8415640096972219
4684000000.0 0.5537952817811792 -0.8476878568862278
4688000000.0 0.5263362390567927 -0.8471041861355545
4691000000.0 0.5556227548702684 -0.846579473136021
4694000000.0 0.551583403879705 -0.8108225402473741
4697000000.0 0.5254527494900202 -0.8448475781672635
4700000000.0 0.5427344242469516 -0.8322383135757523
4703000000.0 0.564490861631123 -0.8233656805014102
4706000000.0 0.5124106475034443 -0.8397399665179126
4709000000.0 0.49806150756997847 -0.8651166216765043
4712000000.0 0.543802780243873 -0.8946752093980066
4716000000.0 0.48537955906806807 -0.8748131062522193
4719000000.0 0.5364207085798947 -0.8693132258502677
4722000000.0 0.5259617040983489 -0.8579944142801121
4725000000.0 0.49027480809524304 -0.8905532875383704
4728000000.0 0.4569671023844568 -0.9005185233015154
4731000000.0 0.47472682885235384 -0.9023589517680219
4734000000.0 0.46313726563713864 -0.8760968680747441
4738000000.0 0.4841804339849385 -0.9340475669096937
4741000000.0 0.4548920318539439 -0.9191162416892553
4744000000.0 0.4136109331913569 -0.926104633331233
4747000000.0 0.4370151635222028 -0.8822237398374808
4750000000.0 0.45332966267589847 -0.9405744251168137
4753000000.0 0.41146393324231945 -0.9283095247995689
4756000000.0 0.41493416698574637 -0.9476676549617755
4759000000.0 0.4167726473181061 -0.9135936906090573
4762000000.0 0.35664134415517024 -0.9527531405964157
4766000000.0 0.3810524634421359 -0.9420013558315342
4769000000.0 0.35357989161295 -0.9677485156966866
4772000000.0 0.3237326821655331 -0.9774759060420947
4775000000.0 0.32714939950546734 -0.9966543336002744
4778000000.0 0.3378915666396519 -0.9715149724238329
4781000000.0 0.3715797365324105 -0.9401108209017777
4784000000.0 0.3473582230488021 -0.9375446422690078
4788000000.0 0.32852165019258195 -0.982389669628011
4791000000.0 0.26882580858218236 -0.9398909790603193
4794000000.0 0.3507355316520544 -0.9776569536405855
4797000000.0 0.29136398347980064 -0.9826801910838526
4800000000.0 0.2792703827865104 -0.9570843242198959
4803000000.0 0.23024268574989679 -0.9840378707260728
4806000000.0 0.2757258146087734 -1.0009719348783304
4809000000.0 0.21145553556507588 -0.9878119970291465
4812000000.0 0.21761635989987949 -0.9891768331402766
4816000000.0 0.26732160496972013 -0.9689889016959856
4819000000.0 0.2699956315854942 -1.013104667519225
4822000000.0 0.2819541437830676 -0.996577254613734
4825000000.0 0.2465178564949109 -1.0122474157433543
4828000000.0 0.20262714964566642 -0.9870565847763902
4831000000.0 0.15137706024935446 -1.006223660860735
4834000000.0 0.2253557704351078 -1.0049976158878104
4838000000.0 0.1918716026950111 -1.011087829301688
4841000000.0 0.19108323468432153 -0.9953932456930487
4844000000.0 0.20155536687963793 -1.0222522057116163
4847000000.0 0.18275840585861908 -0.9756562006672977
4850000000.0 0.15106761470534946 -1.0159434470245976
4853000000.0 0.16589730754562373 -0.9867020969401432
4856000000.0 0.15456860521179908 -0.9969950899937233
4859000000.0 0.13786101076644597 -1.037725560718746
4862000000.0 0.14635661457484872 -1.0057950345618092
4866000000.0 0.09908195069373998 -1.0151885585172638
4869000000.0 0.095872426981302 -1.017497276180724
4872000000.0 0.060200735175578605 -1.038781981017617
4875000000.0 0.14518949991413996 -1.0591021911169247
4878000000.0 0.07510963765401837 -1.0243669884494757
4881000000.0 0.049182634552328366 -1.0625156218807636
4884000000.0 0.09917229803247189 -1.0129645665080698
4888000000.0 0.1070681607199463 -1.029020245796873
4891000000.0 0.0744857359825819 -1.0542709407061581
4894000000.0 0.03482058423720273 -1.0177816086044316
4897000000.0 0.049305459493278886 -1.0146273009580997
4900000000.0 0.0319137612607256 -1.0267633622759982
4903000000.0 0.007844518993379075 -1.0307376784176796
4906000000.0 0.012410645687361437 -1.067655969782256
4909000000.0 -0.005315210248049165 -1.0442092173273148
4912000000.0 -0.03259752318748291 -1.0699903552892491
4916000000.0 0.009343275839461741 -1.0642277126378838
4919000000.0 0.013791984103917958 -1.0557884288653112
4922000000.0 -0.031089435200430643 -1.0205455079396197
4925000000.0 -0.058297247376964026 -1.001506035846839
4928000000.0 0.004260873512662591 -1.0186330687967062
4931000000.0 -0.02319723669540147 -1.0315309557117565
4934000000.0 -0.05448976256579556 -0.9684745633043883
4938000000.0 -0.10843168472507599 -0.9901579266462983
4941000000.0 -0.06102122778360784 -0.9990322271345027
4944000000.0 -0.06474598745344373 -0.9742774931112805
4947000000.0 -0.08354047292009376 -0.993117607734095
4950000000.0 -0.12701158995198553 -0.995869666161984
4953000000.0 -0.15485819025108455 -1.0289207846237196
4956000000.0 -0.15329849146034796 -1.0226987612964678
4959000000.0 -0.16881177876688894 -0.9934156571632562
4962000000.0 -0.1775805769975515 -1.0146277074175227
4966000000.0 -0.1516556798914872 -1.0662196364478174
4969000000.0 -0.1313779441163586 -1.0435100952374567
4972000000.0 -0.14730096788580396 -1.0397792426972148
4975000000.0 -0.13137597529496428 -1.0015648456392394
4978000000.0 -0.21568405235156407 -0.9785432054564346
4981000000.0 -0.15897660383766563 -1.0329700887657567
4984000000.0 -0.19004118275189677 -1.0095992603811974
4988000000.0 -0.20568383372835114 -0.9910993805558708
4991000000.0 -0.1632061254613365 -1.0514243251642041
4994000000.0 -0.18289793533849552 -1.0080521710820431
4997000000.0 -0.2466632653729331 -1.0062842233339673
5000000000.0 -0.2306981393797653 -1.0353975556869581
5003000000.0 -0.22499434464066026 -1.0463225294302043
5006000000.0 -0.2550721905276463 -1.0511546591079948
5009000000.0 -0.23291767087009166 -1.022015805254356
5012000000.0 -0.28148151024978246 -0.9788382649262386
5016000000.0 -0.22859019882583564 -1.0593049780131771
5019000000.0 -0.28571915266663983 -0.9678257059336399
5022000000.0 -0.2855141025435307 -0.9863501976824058
5025000000.0 -0.32475421390172293 -1.0611332881247
5028000000.0 -0.28569772192392295 -0.9922172860354717
5031000000.0 -0.3340788926029514 -0.9793954005951718
5034000000.0 -0.35649905622426836 -1.0074836364505522
5038000000.0 -0.32813055193056795 -0.9612932622012271
5041000000.0 -0.2979522778649317 -0.9697468442929952
5044000000.0 -0.3139829420499807 -0.9847531121552585
5047000000.0 -0.31327213463365083 -0.9844159618785421
5050000000.0 -0.2599139776942383 -0.9662050265555784
5053000000.0 -0.40726680346792776 -1.0123504322478596
5056000000.0 -0.35423544585302047 -0.9882779554784589
5059000000.0 -0.31717258412708743 -0.9952377217745428
5062000000.0 -0.3847170854662073 -0.9711992854896703
5066000000.0 -0.3522841331971598 -0.9864795715803962
5069000000.0 -0.4145566281900389 -0.9849981294881861
5072000000.0 -0.38275127546058346 -0.9138159183542665
5075000000.0 -0.3937012639935077 -0.9505917388950058
5078000000.0 -0.494664702934317 -0.935887683432153
5081000000.0 -0.41773050250367644 -0.9020105591122062
5084000000.0 -0.43873044759528124 -0.9271201049858524
5088000000.0 -0.39459932439964424 -0.9206761155588865
5091000000.0 -0.45552764932957385 -0.8972493033324029
5094000000.0 -0.4703618330210418 -0.9265400444868989
5097000000.0 -0.3884040349059372 -0.9304838019232287
5100000000.0 -0.4322215029434985 -0.9254955725154123
5103000000.0 -0.5011499595359642 -0.9493025020306433
5106000000.0 -0.5232081388093832 -0.8864505328253744
5109000000.0 -0.4272793396348706 -0.950534897164069
5112000000.0 -0.5267600042012544 -0.8946136194024248
5116000000.0 -0.509265057938349 -0.849963863105236
5119000000.0 -0.5353794919408468 -0.8599225608592087
5122000000.0 -0.47538631581445595 -0.8774935235368018
5125000000.0 -0.5022483939435614 -0.8565016104557209
5128000000.0 -0.5215287148052655 -0.8427302455125896
5131000000.0 -0.522851347382492 -0.8268391482394327
5134000000.0 -0.5397797741383045 -0.8350876659712256
5138000000.0 -0.5440486838015575 -0.8440428281219248
5141000000.0 -0.5588476040586889 -0.8891568589509342
5144000000.0 -0.5243333735156247 -0.8781529011673164
5147000000.0 -0.5373348616822926 -0.8682027536667786
5150000000.0 -0.5584296177856897 -0.8472822292709548
5153000000.0 -0.5780555149208578 -0.8736879622742049
5156000000.0 -0.576238929711111 -0.8746254187548079
5159000000.0 -0.5848315283205977 -0.8716852974701074
5162000000.0 -0.6334326208785509 -0.8350822650540566
5166000000.0 -0.658067418253585 -0.8385609670716581
5169000000.0 -0.6355525200575642 -0.8180297239048115
5172000000.0 -0.5864643750495144 -0.8178270780983128
5175000000.0 -0.6520168950313341 -0.8249458929527772
5178000000.0 -0.6882814979034422 -0.8239176633767665
5181000000.0 -0.6183681795950547 -0.8463298148065396
5184000000.0 -0.644442166705638 -0.793890806054418
5188000000.0 -0.6647365994966777 -0.8201931130109384
