! Created with skrf 1.8.0 (http://scikit-rf.org).
# Hz S RI R 50.0 
!freq ReS11 ImS11
4000000000.0 0.634252892272397 0.7691514895116816
4003000000.0 0.6757274763971285 0.8476659771750562
4006000000.0 0.6487837824192806 0.7607260301707779
4009000000.0 0.6344197652190023 0.8187993224313789
4012000000.0 0.6144301221086661 0.8256469580275883
4016000000.0 0.7355555772499711 0.8221775347081823
4019000000.0 0.6398637287277147 0.7599902319840764
4022000000.0 0.6621169682862053 0.8497501279979681
4025000000.0 0.730768073558168 0.7509409506682063
4028000000.0 0.7512205645190185 0.7059261741960063
4031000000.0 0.675555045583937 0.7294112682122253
4034000000.0 0.7050227752009417 0.7382416371286811
4038000000.0 0.7739921115508993 0.741729438541821
4041000000.0 0.7176611127982522 0.729196122532896
4044000000.0 0.7801874789431833 0.7398783413274056
4047000000.0 0.7492559235908128 0.7648904248975806
4050000000.0 0.7716415000634242 0.7464880629317069
4053000000.0 0.7742202484955831 0.6850571879663714
4056000000.0 0.7452081353504457 0.6645251938362393
4059000000.0 0.7261889319003936 0.6733023363849779
4062000000.0 0.7882344572019486 0.659727003300836
4066000000.0 0.7129878513435197 0.626850552302972
4069000000.0 0.8094309763454131 0.6508314374658491
4072000000.0 0.7488515214824986 0.7068054630475398
4075000000.0 0.8011121719392884 0.6968545698990987
4078000000.0 0.8112177835623664 0.6419002997119572
4081000000.0 0.7821961970584699 0.7041693436020866
4084000000.0 0.8160189453218839 0.6164916602468056
4088000000.0 0.7781726898034785 0.6435693154499732
4091000000.0 0.8685492046816566 0.6905052098916933
4094000000.0 0.7875856921823299 0.6257838217416926
4097000000.0 0.8281342789741551 0.638459532642492
4100000000.0 0.8648215947311527 0.6195374694302784
4103000000.0 0.8245131884744599 0.6349877288441579
4106000000.0 0.8777989383355131 0.5803110761314352
4109000000.0 0.8639322516423307 0.6039673336579272
4112000000.0 0.8564931287159823 0.5733382932439399
4116000000.0 0.8622089979255602 0.6174812657429958
4119000000.0 0.883893417776492 0.5503568831337703
4122000000.0 0.8860740412906918 0.538989729909418
4125000000.0 0.9020028130329771 0.557208149592328
4128000000.0 0.8326820554298361 0.5158782516027897
4131000000.0 0.8683609373564323 0.547781047942686
4134000000.0 0.8674801710036255 0.5579332964929605
4138000000.0 0.8660551841462059 0.5025388680009264
4141000000.0 0.8903486377105455 0.5112941599719424
4144000000.0 0.8892746539110238 0.5398890672244934
4147000000.0 0.9025511375288401 0.47226192519623084
4150000000.0 0.9138302215349471 0.49478077387929403
4153000000.0 0.9079964705929925 0.44851686310244854
4156000000.0 0.9314796266064191 0.4825495727363299
4159000000.0 0.894914685209167 0.48921932680731456
4162000000.0 0.9165158731761547 0.45982835977454994
4166000000.0 0.949303793064139 0.47716069332852207
4169000000.0 0.9322669848631935 0.44390418612272753
4172000000.0 0.9199931236962828 0.45535789746795036
4175000000.0 0.9360508848389401 0.43400791092707286
4178000000.0 0.9556934633049672 0.418224028509963
4181000000.0 0.947582531688894 0.42958397355428335
4184000000.0 0.9163978257198657 0.41053637386513103
4188000000.0 0.9536586569646994 0.37520256538525687
4191000000.0 0.927512346487151 0.4365603889202921
4194000000.0 0.9388162174589587 0.38511368853565975
4197000000.0 0.9530378946500614 0.39488587240856304
4200000000.0 0.9575800476686473 0.39551862177378017
4203000000.0 0.9575013468479163 0.38256424343605056
4206000000.0 0.9781153162048013 0.38487474925306836
4209000000.0 0.9561201427089977 0.3770428625063878
4212000000.0 0.9819245959397822 0.33244516800348367
4216000000.0 0.9781639378804713 0.3537070318832664
4219000000.0 0.9849985350516364 0.3393918717745288
4222000000.0 0.9831157233762626 0.30222192254555463
4225000000.0 0.9586096817800869 0.3168275207535225
4228000000.0 0.984568741946003 0.3158995038953033
4231000000.0 0.9762503397345721 0.2852396610222064
4234000000.0 1.0060915317858268 0.28244277130182555
4238000000.0 0.9968150512289952 0.27254065506667235
4241000000.0 0.9857211614304617 0.2514572865296866
4244000000.0 0.9813310479751322 0.27910579581379064
4247000000.0 0.9938860040838832 0.26053632038877117
4250000000.0 0.9652144438704724 0.2292532548287593
4253000000.0 0.9776228119737997 0.22618472938313866
4256000000.0 1.0090681539404087 0.2371343841696591
4259000000.0 0.9658489851306059 0.201767627846245
4262000000.0 1.0023004231766526 0.1963383893234835
4266000000.0 1.0089683008674102 0.1799219713290418
4269000000.0 1.012275402184371 0.1967343879638135
4272000000.0 0.9896862309147422 0.17809476159648308
4275000000.0 1.0115528174438848 0.1888301335095683
4278000000.0 1.0328255496460559 0.19049549626101053
4281000000.0 1.0142375058260997 0.1825430617729703
4284000000.0 1.0239111206471407 0.10366494337823123
4288000000.0 1.019654045299637 0.17285448028488856
4291000000.0 0.9859999614803621 0.14007196616250617
4294000000.0 1.0116677979695288 0.14304517126985633
4297000000.0 0.9952700804365958 0.13468012999607015
4300000000.0 0.9891101983960275 0.12299938278178918
4303000000.0 0.9999302533767749 0.09086545135064787
4306000000.0 1.024791714457913 0.13434045766164346
4309000000.0 1.008455499836051 0.09399196546537593
4312000000.0 1.0205806596923988 0.11829070824707622
4316000000.0 1.0221507169481283 0.08469815681959923
4319000000.0 0.9988048177437552 0.06950031911464281
4322000000.0 1.000944198212957 0.023057145887268468
4325000000.0 1.0100401084082007 0.053129562597083776
4328000000.0 1.0032419937469204 0.04249596656245956
4331000000.0 1.030884813868168 -0.0386109227012036
4334000000.0 1.022165260735863 0.04508476270515213
4338000000.0 1.0171638536425331 0.019383107749827197
4341000000.0 1.0649756118186904 0.01717400589503526
4344000000.0 1.0227993962736395 0.006594342877425663
4347000000.0 1.0227624109154303 -0.029255875454312436
4350000000.0 0.9730872485337575 -0.031885272312875884
4353000000.0 0.9986408427506763 -0.004235023231906304
4356000000.0 1.0049862641637004 -0.06129849363490879
4359000000.0 0.9638009599109625 -0.059093659461640025
4362000000.0 1.0096235366586643 -0.11561796939516024
4366000000.0 1.0524964838075124 -0.07028888039952409
4369000000.0 0.9645455970354181 -0.09991207357482625
4372000000.0 0.9928242267865304 -0.10949891331768674
4375000000.0 1.0100078922949647 -0.07770310275081091
4378000000.0 0.9932794605638271 -0.10065588967781534
4381000000.0 0.99130999300558 -0.10556358506164575
4384000000.0 1.04559736832972 -0.14880664505907815
4388000000.0 0.9856965373804772 -0.1056760301084463
4391000000.0 1.008248766924305 -0.11767314507706915
4394000000.0 0.979414995944405 -0.1607127414813763
4397000000.0 1.010557572177636 -0.17491288396449686
4400000000.0 1.0261596999235814 -0.17742390628692253
4403000000.0 0.9934136557067822 -0.1654934239126289
4406000000.0 0.9859016004529174 -0.20713927174359967
4409000000.0 1.0263192783060977 -0.21427714088086502
4412000000.0 0.9705712253257659 -0.2616852561349538
4416000000.0 0.9799234605113769 -0.21567091672904812
4419000000.0 0.9955046762486285 -0.24582565917238605
4422000000.0 0.9820548252975947 -0.21333649791882556
4425000000.0 1.0095079051484306 -0.22337383230629088
4428000000.0 0.9736801019291427 -0.24853275521370413
4431000000.0 0.9979085222343533 -0.25000493471154334
4434000000.0 0.9722033603550476 -0.26947707959310496
4438000000.0 0.9815990272300277 -0.28134979575172714
4441000000.0 0.9897942568929339 -0.28334877106807754
4444000000.0 0.9550416177597625 -0.2768528844511961
4447000000.0 0.9524114084539171 -0.30362750849227654
4450000000.0 0.9540165212950055 -0.27626963698292667
4453000000.0 1.00486613713919 -0.31576864675067995
4456000000.0 0.9375354842960207 -0.32010990880891027
4459000000.0 0.9193641719633217 -0.33406613122826034
4462000000.0 1.0048564188463331 -0.36491405522906606
4466000000.0 0.9846431534679995 -0.36802153070921095
4469000000.0 0.9460472482716945 -0.3417354605894377
4472000000.0 0.9635838418659378 -0.40912905833520286
4475000000.0 0.9055091984956188 -0.3708215895276751
4478000000.0 0.9566983702057028 -0.4243229594059956
4481000000.0 0.9040933956020436 -0.389641497413447
4484000000.0 0.9065736336787522 -0.4273138056789394
4488000000.0 0.9251466545088275 -0.4155669329952127
4491000000.0 0.9218369852425534 -0.41468941556540173
4494000000.0 0.9118634505800939 -0.4090698776367447
4497000000.0 0.9215931109481361 -0.40797152469743725
4500000000.0 0.9137413142352402 -0.4277213943342798
4503000000.0 0.9350514899692977 -0.45798626601765346
4506000000.0 0.9096406193525293 -0.4570536868853645
4509000000.0 0.8750396016227857 -0.46117859533949424
4512000000.0 0.8770766754034682 -0.46893969022687143
4516000000.0 0.8942615074146849 -0.4832235977460104
4519000000.0 0.8841514955672155 -0.4717789285543808
4522000000.0 0.8789170948918115 -0.49555742829402044
4525000000.0 0.8958899136192284 -0.48440919354190326
4528000000.0 0.897011310455468 -0.5351655670853236
4531000000.0 0.8813982718041861 -0.49706254860884014
4534000000.0 0.8562336801568452 -0.5131545974604463
4538000000.0 0.8539057239352779 -0.5506045103021795
4541000000.0 0.8274151232484299 -0.5465058132788482
4544000000.0 0.8326018074179475 -0.5397337367652287
4547000000.0 0.8438487580886344 -0.5238930198096257
4550000000.0 0.8282151818625438 -0.5984479927339671
4553000000.0 0.8373735764311652 -0.5728150386514644
4556000000.0 0.7948892846251758 -0.5802339339672344
4559000000.0 0.8409232584535007 -0.5997350440801676
4562000000.0 0.8237105105815354 -0.5951201079996897
4566000000.0 0.8183034235567506 -0.6005489166190723
4569000000.0 0.7937170520238226 -0.5920827991228486
4572000000.0 0.8073983419616158 -0.6029761510032853
4575000000.0 0.792949032222416 -0.6370975166580409
4578000000.0 0.8078114360761686 -0.6228902507277101
4581000000.0 0.7886703840902567 -0.6338231099589062
4584000000.0 0.7799818175058632 -0.6382810411840818
4588000000.0 0.7971701030135259 -0.6623251681102017
4591000000.0 0.8072248789465364 -0.6366547424935327
4594000000.0 0.7621244667053356 -0.6720472896910616
4597000000.0 0.7571514674027351 -0.683595033752171
4600000000.0 0.7034582469917857 -0.6897170255966444
4603000000.0 0.7436858711949375 -0.6788753859504484
4606000000.0 0.7408043801349854 -0.694992886449425
4609000000.0 0.7344344198405003 -0.709577983976263
4612000000.0 0.7519322532659231 -0.7115069249498878
4616000000.0 0.7096452153309134 -0.7025812133475134
4619000000.0 0.7131259830447872 -0.7116261799291731
4622000000.0 0.7323070865088043 -0.7270770673073268
4625000000.0 0.6643532106583785 -0.7230022122305682
4628000000.0 0.7017159976048091 -0.7110521617365562
4631000000.0 0.6839032090982886 -0.7588804246420309
4634000000.0 0.6788963141564214 -0.7460487840756678
4638000000.0 0.6903331150070643 -0.7593110915896026
4641000000.0 0.6818707172857471 -0.7566849412404232
4644000000.0 0.6609867555007314 -0.7784477228852257
4647000000.0 0.6597569281169108 -0.7825961587320334
4650000000.0 0.6445996035427815 -0.7732793216998072
4653000000.0 0.6581076606522636 -0.7868750727132575
4656000000.0 0.630526870357679 -0.8013537342413517
4659000000.0 0.6112146282222075 -0.8059703776616268
4662000000.0 0.6146585864908211 -0.8009712826860645
4666000000.0 0.6034183259171095 -0.8298325128015652
4669000000.0 0.6205914733668172 -0.8207843340218675
4672000000.0 0.5986183719049104 -0.8355447980142583
4675000000.0 0.5831059192524968 -0.8326891837681228
4678000000.0 0.567913119318113 -0.7933961977527261
4681000000.0 0.5592025551639707 -0.8675796630896823
4684000000.0 0.5344362887600176 -0.8766728370389564
4688000000.0 0.5392408658136749 -0.8660011322039173
4691000000.0 0.5679661080335912 -0.8542714667277418
4694000000.0 0.546481213695499 -0.8350974268037465
4697000000.0 0.4993703395524225 -0.8186044021795786
4700000000.0 0.5599634630926218 -0.8326301969760836
4703000000.0 0.5219331289890519 -0.8121018832648923
4706000000.0 0.511453431103307 -0.8637896422696029
4709000000.0 0.5056401370444283 -0.9039557790725297
4712000000.0 0.5102871014358502 -0.8836509987477155
4716000000.0 0.48236799893657634 -0.9203052470658168
4719000000.0 0.5142632064596394 -0.8782950605236399
4722000000.0 0.48197694713404715 -0.8827225520350812
4725000000.0 0.48402086050141785 -0.9020175138858799
4728000000.0 0.4593003094807611 -0.8862082165444007
4731000000.0 0.48896650349450504 -0.9428998358306633
4734000000.0 0.45781461982722704 -0.9006951021295577
4738000000.0 0.48898862083920147 -0.9523979758460716
4741000000.0 0.41983989068068495 -0.9338849563771275
4744000000.0 0.411182402797294 -0.9381431253498732
4747000000.0 0.4022723451611276 -0.9241075852170583
4750000000.0 0.41190587832689185 -0.9593041515911698
4753000000.0 0.4192023938741972 -0.9352411576024029
4756000000.0 0.3928397662848126 -0.9482961279001194
4759000000.0 0.40112377856219505 -0.9353023624982545
4762000000.0 0.3646355894273744 -0.9715827929669709
4766000000.0 0.3603000491398366 -0.947077568990787
4769000000.0 0.3753610409590672 -0.9659790396504783
4772000000.0 0.3600750786616191 -0.9471812461726259
4775000000.0 0.32611656174556114 -0.9969763720955995
4778000000.0 0.36760623523829095 -0.9815078796455216
4781000000.0 0.3329911756828048 -0.9681518706617671
4784000000.0 0.32349254967025287 -0.94676588029886
4788000000.0 0.2841703666430434 -0.9963052669173893
4791000000.0 0.2905544911063009 -0.964510135789267
4794000000.0 0.328953832653408 -1.0061643086695193
4797000000.0 0.2937816956072541 -0.9644693565359556
4800000000.0 0.2698917473112164 -0.9398323783191702
4803000000.0 0.21472054620397155 -1.005690218832071
4806000000.0 0.2742425553748593 -1.001851372039673
4809000000.0 0.23129115208787118 -1.0172684701143302
4812000000.0 0.20231644150806308 -0.9992212924456676
4816000000.0 0.26350016510931074 -0.9781024532650162
4819000000.0 0.2667540997593715 -0.9982282613514311
4822000000.0 0.24521581604552223 -1.0364476910308704
4825000000.0 0.24950834314042086 -1.026455379017006
4828000000.0 0.20724287273215558 -1.0102700949538561
4831000000.0 0.16845777080763982 -1.0303754397596339
4834000000.0 0.21558184758424798 -1.0078376566854093
4838000000.0 0.16367216913214816 -1.0290817652333433
4841000000.0 0.15983464902157096 -1.0017751870713618
4844000000.0 0.1904466050317505 -1.0050570149630378
4847000000.0 0.1764400671233593 -0.9845289312243644
4850000000.0 0.14739715915970159 -1.0393062656581975
4853000000.0 0.1603030533004122 -1.0031329605101738
4856000000.0 0.14125870631002752 -1.0193829120686293
4859000000.0 0.10785783639039297 -1.0691866093507518
4862000000.0 0.14527791755273525 -0.9838014999984052
4866000000.0 0.09111499217841648 -1.0453147071649038
4869000000.0 0.08670363856021258 -1.0258205789622175
4872000000.0 0.07615614047462588 -1.0594664384950678
4875000000.0 0.13850985751581907 -1.0536406525938329
4878000000.0 0.06021627208060453 -1.0233394194038359
4881000000.0 0.041400237551923784 -1.086082710569793
4884000000.0 0.07926436514567439 -1.0278630333192722
4888000000.0 0.07162201320209395 -1.024619037371942
4891000000.0 0.05744465617389248 -1.0321959990241767
4894000000.0 0.017039283365349815 -1.0246357179252843
4897000000.0 0.05558125355390128 -1.017372265745228
4900000000.0 0.024069462244639572 -1.0342538410129778
4903000000.0 0.01884005415380508 -1.041122226502729
4906000000.0 -0.007392761880606627 -1.0626235637661212
4909000000.0 -0.017441659828658217 -1.0245156979652161
4912000000.0 -0.05119816261080311 -1.0656746093549356
4916000000.0 0.018005250960645564 -1.0703563351437537
4919000000.0 0.007743644860639803 -1.0797108931667654
4922000000.0 0.012625368493852138 -1.0244732257133748
4925000000.0 -0.04944192557318755 -1.0465496907825589
4928000000.0 0.00967563478525954 -1.0317106350291052
4931000000.0 -0.03386234266743668 -1.0353634451312943
4934000000.0 -0.07708180230343013 -0.9773157796548244
4938000000.0 -0.09666649926654604 -1.0352687349355905
4941000000.0 -0.09070360874714616 -1.0192116043889816
4944000000.0 -0.06270806847413155 -0.9741246427195476
4947000000.0 -0.0972675544885919 -0.992256212682086
4950000000.0 -0.12987468415686504 -1.0174808394918038
4953000000.0 -0.18220385107469927 -1.0603780214046858
4956000000.0 -0.15644025280725837 -1.0634225166029552
4959000000.0 -0.1979373181004652 -0.9779521650418526
4962000000.0 -0.16607580839349687 -1.0752385517804772
4966000000.0 -0.10860652183996133 -1.0343793434355342
4969000000.0 -0.146085706763536 -1.0402718741019303
4972000000.0 -0.1853032428930759 -1.0389042229514533
4975000000.0 -0.16864588252341542 -0.9975843602273037
4978000000.0 -0.18223903350355414 -1.010144389069539
4981000000.0 -0.23640543906145703 -1.0320903831135597
4984000000.0 -0.2064376802148072 -1.0342776170823746
4988000000.0 -0.21276688034690472 -1.0075416130509198
4991000000.0 -0.17532526907970725 -1.0540884972039728
4994000000.0 -0.237124163885379 -0.9927793662812531
4997000000.0 -0.25436206773866704 -0.9875187472008171
5000000000.0 -0.25452615531576356 -1.0399018506512716
5003000000.0 -0.24796188886452591 -1.0546614744432612
5006000000.0 -0.28582240073932996 -1.0630008279800034
5009000000.0 -0.2445658261158122 -1.0128058949184915
5012000000.0 -0.2761294166323372 -1.0059625391201792
5016000000.0 -0.2515187661675955 -1.0483870061312375
5019000000.0 -0.30773118449219683 -0.9893950495949269
5022000000.0 -0.3180121994242424 -0.9848956980890395
5025000000.0 -0.3237565961103653 -1.0579110627484056
5028000000.0 -0.34170006564464883 -0.9923647487974689
5031000000.0 -0.3302316280649714 -0.9823752717258035
5034000000.0 -0.37564272424287404 -0.9941120367732581
5038000000.0 -0.3673435131318825 -0.9305538864833673
5041000000.0 -0.3123401346342116 -0.9969751276416065
5044000000.0 -0.28172823957176096 -0.951351790952132
5047000000.0 -0.36334344487047615 -0.9993086305008464
5050000000.0 -0.2968613785464602 -0.9797980523889729
5053000000.0 -0.3676626779328309 -1.0034364161186617
5056000000.0 -0.3434950302267088 -0.9763854355282706
5059000000.0 -0.34053405738377013 -0.9940766291414672
5062000000.0 -0.45223275094054183 -0.9761149491392087
5066000000.0 -0.3932824143878333 -0.98053934375925
5069000000.0 -0.4164758568681334 -0.9673965662308787
5072000000.0 -0.36946535044631873 -0.9305953906525719
5075000000.0 -0.4093278715139109 -0.9342097690368378
5078000000.0 -0.4633741159147961 -0.919276802821775
5081000000.0 -0.44971344766611215 -0.9012154205580191
5084000000.0 -0.450708064025354 -0.9368639255870632
5088000000.0 -0.4482201968278935 -0.915946059761203
5091000000.0 -0.4959226644355726 -0.8987227207757389
5094000000.0 -0.5068064579087973 -0.9335935843453743
5097000000.0 -0.4613991057198249 -0.9350744382765326
5100000000.0 -0.47626197181487834 -0.9187647741691568
5103000000.0 -0.5106770209265706 -0.9085422667677437
5106000000.0 -0.4975920770173398 -0.9730876910734756
5109000000.0 -0.4673640875068976 -0.904753659032763
5112000000.0 -0.5238269576529243 -0.8557689741000705
5116000000.0 -0.4991789029313683 -0.8918558622149875
5119000000.0 -0.5391862345426036 -0.8898394867226107
5122000000.0 -0.5536864039187441 -0.9147706139481735
5125000000.0 -0.5190936354868503 -0.8870252622092072
5128000000.0 -0.5690443839473166 -0.8761271531806993
5131000000.0 -0.5459547300233067 -0.8857131378775916
5134000000.0 -0.5648984889185698 -0.8810698992505138
5138000000.0 -0.5578021565316414 -0.8871992354809346
5141000000.0 -0.5264651073132451 -0.9122105037415829
5144000000.0 -0.5707821918062563 -0.8672350810470859
5147000000.0 -0.6093673347492482 -0.8645461967434488
5150000000.0 -0.5980290426438896 -0.8647431486848277
5153000000.0 -0.6232996821413694 -0.8851735355066539
5156000000.0 -0.6211379052185184 -0.8267812275893174
5159000000.0 -0.6102530754405627 -0.8827793801644371
5162000000.0 -0.6182346093669085 -0.7931463093232498
5166000000.0 -0.6318818587251134 -0.848342728558553
5169000000.0 -0.6553154627505576 -0.8373154762449231
5172000000.0 -0.6338156771488357 -0.8311193393703709
5175000000.0 -0.6746415109454412 -0.8408182903211252
5178000000.0 -0.6804562689684226 -0.8008442056522617
5181000000.0 -0.6967754229384597 -0.8517618082014814
5184000000.0 -0.6672703754453869 -0.7897719384641152
5188000000.0 -0.6903026353422969 -0.8233207784190105
