! Created with skrf 1.8.0 (http://scikit-rf.org).
# Hz S RI R 50.0 
!freq ReS11 ImS11
4000000000.0 0.5976358754569145 0.7972145903346721
4003000000.0 0.7310850168711651 0.7513939374997853
4006000000.0 0.7419857334667325 0.7678585666450485
4009000000.0 0.7488215394308448 0.7343341110427548
4012000000.0 0.6577700743679407 0.757545738087238
4016000000.0 0.7952213561987727 0.7507094348053616
4019000000.0 0.7188769253388994 0.735824895117953
4022000000.0 0.7055519483527893 0.767946725693895
4025000000.0 0.8215269520436016 0.6384563036255003
4028000000.0 0.8203220863362194 0.6506370416049578
4031000000.0 0.7362525904590779 0.7190150327242759
4034000000.0 0.7236353866482247 0.6421924695468844
4038000000.0 0.7916841559404612 0.6696231546737849
4041000000.0 0.7972915926527838 0.6589754732171224
4044000000.0 0.8538925957207901 0.6850768176984101
4047000000.0 0.8105785375112718 0.7303163574527456
4050000000.0 0.8131738528429292 0.6921225891742476
4053000000.0 0.7978761376402769 0.61415243344848
4056000000.0 0.8159111979871148 0.6379321897637185
4059000000.0 0.7932630505611372 0.5969607062680784
4062000000.0 0.8333084971443152 0.6458073502452475
4066000000.0 0.7203731016434702 0.5960281661883456
4069000000.0 0.8907321119591658 0.6266297425434392
4072000000.0 0.8358503131703595 0.6301053321161525
4075000000.0 0.8772379076836972 0.6568403145926716
4078000000.0 0.8437046826170781 0.5655641045593024
4081000000.0 0.7978965105998093 0.6504753965728025
4084000000.0 0.858122845387262 0.5703460014358055
4088000000.0 0.8375708718875909 0.5943936079498401
4091000000.0 0.9062973760276727 0.5914114127086412
4094000000.0 0.876498783538926 0.5635090500179313
4097000000.0 0.880437887427378 0.5297025659685191
4100000000.0 0.8730399755318686 0.5539041670844775
4103000000.0 0.8828380161372866 0.5677101915999978
4106000000.0 0.8958565734673559 0.5491091683228081
4109000000.0 0.9014005544261146 0.5340721337588195
4112000000.0 0.8572010477608776 0.4968957331757828
4116000000.0 0.9346869917192541 0.5310486130331109
4119000000.0 0.9106988061813772 0.47612630795709465
4122000000.0 0.9465296773979892 0.4500610641705014
4125000000.0 0.9346833177410934 0.4854941407234968
4128000000.0 0.8714245834704175 0.49033730638662576
4131000000.0 0.8819682027647525 0.4456171970715841
4134000000.0 0.9318413743871307 0.4810328950887752
4138000000.0 0.8877438689330803 0.40586282993655026
4141000000.0 0.9444156440136127 0.4269035020475589
4144000000.0 0.9349000395861081 0.44807236830631997
4147000000.0 0.9527127229678148 0.41014177389763457
4150000000.0 0.9667895674617637 0.4291994863797523
4153000000.0 0.9394922728074662 0.4020124147576205
4156000000.0 0.9515987540858031 0.4180181871009412
4159000000.0 0.9194227225236318 0.4059467216890012
4162000000.0 0.9237623720687096 0.3857751801762126
4166000000.0 0.9878087624133736 0.39524802713165563
4169000000.0 0.9744481429039038 0.37793273962870755
4172000000.0 0.9431491967885184 0.34644071687486017
4175000000.0 0.9463851154201468 0.3780840616339824
4178000000.0 0.9543632167570122 0.3498736628058874
4181000000.0 0.9556408294005689 0.338362678106103
4184000000.0 0.9623179880066531 0.3284987624654238
4188000000.0 0.9651984103915365 0.3202502960110275
4191000000.0 0.951265884856133 0.35993880554331487
4194000000.0 0.9677956825831979 0.3016567706894163
4197000000.0 0.9579168860453647 0.3145106067785663
4200000000.0 0.9807048942479291 0.31047664678593756
4203000000.0 0.9818685846658392 0.30045219627442676
4206000000.0 0.9908217564783068 0.28416842477025456
4209000000.0 0.968495853769788 0.27078630009917365
4212000000.0 1.0033994312740935 0.23905047875063967
4216000000.0 1.00600784240805 0.2615634086797601
4219000000.0 1.0088651179234605 0.24600388941556353
4222000000.0 1.0027502295452548 0.23497499055789234
4225000000.0 0.9832944916479744 0.23135742200653134
4228000000.0 1.007092716657806 0.20635479076699995
4231000000.0 1.0141682093532856 0.20877832796112689
4234000000.0 1.0104982237409528 0.20619924541552315
4238000000.0 1.0096095619124918 0.1661096465705094
4241000000.0 1.001480980022215 0.16300269109765553
4244000000.0 0.9946066453916523 0.17769024842443643
4247000000.0 1.0052803593165724 0.16401632893794083
4250000000.0 0.9840116416123164 0.16094633298572164
4253000000.0 0.993924878549711 0.13667858064742844
4256000000.0 1.0423772943711236 0.1392716987940374
4259000000.0 0.9752110621256003 0.11723874479876548
4262000000.0 1.0057995719862465 0.09640682816859017
4266000000.0 1.0169737819930307 0.07652894402632024
4269000000.0 1.0025335957315384 0.10101377950718246
4272000000.0 0.9949438346441019 0.08466262813681791
4275000000.0 1.0241978777942475 0.07512844539917271
4278000000.0 1.0506404415295891 0.07530701832957787
4281000000.0 1.0283943386614514 0.08192626313181224
4284000000.0 1.0161031015497746 0.03827610418213889
4288000000.0 1.0221667289394902 0.06974854044985737
4291000000.0 0.9778281168184422 0.02614094504264866
4294000000.0 1.0040404379403847 0.028560781426932677
4297000000.0 0.991032256927163 0.04785887126739016
4300000000.0 1.0085097696011363 0.007025112205901914
4303000000.0 0.9991356135820494 -0.006922704524875908
4306000000.0 1.0108197440899649 0.023117194056284
4309000000.0 1.0180010676207663 0.013689290765908746
4312000000.0 1.034918408495798 0.007699799352678338
4316000000.0 1.022099618539761 -0.0034463265161409906
4319000000.0 1.021771286277275 -0.01598694287946517
4322000000.0 0.9686137161365524 -0.08250688598474565
4325000000.0 1.0223344646639883 -0.07333272243612432
4328000000.0 0.9838141203156076 -0.07588128414555755
4331000000.0 1.029006929995013 -0.08545100990707334
4334000000.0 1.0229065135005522 -0.07402599715458891
4338000000.0 0.9911583908474436 -0.0711078174931022
4341000000.0 1.0328828974474682 -0.056642833502820455
4344000000.0 1.0320646075672175 -0.09069088834357365
4347000000.0 1.0123235667024124 -0.1504285515638999
4350000000.0 0.9830896484676992 -0.1457220889313029
4353000000.0 0.9754249606142233 -0.12197703248135788
4356000000.0 0.9988402284075513 -0.16662054023233008
4359000000.0 0.9476932957410384 -0.14220521531237248
4362000000.0 1.0173156521611788 -0.22995835409920515
4366000000.0 1.017867152079384 -0.1788068903881015
4369000000.0 0.9663387788668427 -0.18220766429100319
4372000000.0 0.9681952115129011 -0.2367069779230036
4375000000.0 0.9777032093810301 -0.1714328520881704
4378000000.0 0.9631956554547713 -0.20692005030827462
4381000000.0 0.9621366197750407 -0.20265623928634502
4384000000.0 1.0560154978886804 -0.2630811211114497
4388000000.0 0.9635520449754643 -0.2151790077454838
4391000000.0 0.994539469516968 -0.24422749334291818
4394000000.0 0.9541579217152705 -0.24974490913339736
4397000000.0 0.9746033927034579 -0.2818164603137585
4400000000.0 0.9891555961211695 -0.29816843169323737
4403000000.0 0.9812699249549253 -0.2730320129224128
4406000000.0 0.9735133338958759 -0.3091012126895182
4409000000.0 0.994373872667544 -0.31781541922293743
4412000000.0 0.9367147997192574 -0.3589490897807744
4416000000.0 0.9572681448516056 -0.3224696338776804
4419000000.0 0.9499366719285137 -0.34064686091684415
4422000000.0 0.9435649996521032 -0.3053335351759625
4425000000.0 0.976319493704987 -0.32486036216570335
4428000000.0 0.9473422782421028 -0.3388221183603713
4431000000.0 0.9651828219393286 -0.3606801555207799
4434000000.0 0.9214605901019853 -0.3733441621277894
4438000000.0 0.9565855202457019 -0.3819823929229014
4441000000.0 0.9426450027475792 -0.4024196436777939
4444000000.0 0.9134396475945539 -0.3835107513137559
4447000000.0 0.9062559784297504 -0.40568247095554466
4450000000.0 0.9268123266039032 -0.39608690911658057
4453000000.0 0.948967373761931 -0.4172784407507165
4456000000.0 0.8959211793095604 -0.4178642377076634
4459000000.0 0.8725997095138707 -0.42687525329690107
4462000000.0 0.9542149000931237 -0.4723381110711463
4466000000.0 0.9201018870572314 -0.47096357945804
4469000000.0 0.9068952942491746 -0.4580828919042512
4472000000.0 0.8962482319406322 -0.5073784107153199
4475000000.0 0.8754244236261318 -0.45862414088789427
4478000000.0 0.9187058856652315 -0.5088731766907881
4481000000.0 0.8588043799239313 -0.4943114819758066
4484000000.0 0.8528209593115352 -0.5472178751539396
4488000000.0 0.8602080612978934 -0.521022384125523
4491000000.0 0.8685110714781319 -0.5361623301349072
4494000000.0 0.8654071042833237 -0.523438903706595
4497000000.0 0.8561574135069323 -0.5245678495561613
4500000000.0 0.8469288541637945 -0.5406717267763923
4503000000.0 0.8684935056715419 -0.5651970167101876
4506000000.0 0.8250738597361336 -0.5630731098139975
4509000000.0 0.8234433825929848 -0.559784775829708
4512000000.0 0.8234474048914131 -0.5667897514681097
4516000000.0 0.8395855434873863 -0.6084975994415043
4519000000.0 0.812979605548007 -0.572924542594639
4522000000.0 0.7987543977528013 -0.6206455125219685
4525000000.0 0.8333153333280967 -0.5856082744578562
4528000000.0 0.8258823644792819 -0.6167249014728521
4531000000.0 0.8041764966189278 -0.6026568099750086
4534000000.0 0.788271844144484 -0.6328887911570937
4538000000.0 0.7662717782057569 -0.6148289375191464
4541000000.0 0.7433361020241791 -0.6613725929794148
4544000000.0 0.7462421250872653 -0.6456886437026708
4547000000.0 0.7657266224583413 -0.6321164838796096
4550000000.0 0.7536148501722724 -0.679802087535541
4553000000.0 0.7563285333365293 -0.6807980753271338
4556000000.0 0.7409008487746629 -0.6620409415340652
4559000000.0 0.7343999014461431 -0.6983786874509932
4562000000.0 0.7497897725174316 -0.690903462033725
4566000000.0 0.7335469121961924 -0.7172294770729191
4569000000.0 0.6964879216488784 -0.7113491187800907
4572000000.0 0.7137106413309445 -0.7096068514135428
4575000000.0 0.6907232389773901 -0.7327275908440624
4578000000.0 0.7223494107536941 -0.7380096221201142
4581000000.0 0.6926833349922299 -0.7265662509381132
4584000000.0 0.6732013190735926 -0.7305623463121826
4588000000.0 0.7067857299520848 -0.7512962533863501
4591000000.0 0.6901806016304829 -0.7373616933224617
4594000000.0 0.6575146117710865 -0.7740340588319772
4597000000.0 0.6737765509341671 -0.7784575115263713
4600000000.0 0.6369179492796865 -0.7774859247364538
4603000000.0 0.6480481408722447 -0.7828408906064104
4606000000.0 0.6442861296102873 -0.8091282742051951
4609000000.0 0.6510324726715365 -0.7788375997662829
4612000000.0 0.6272460886314474 -0.7891547850658122
4616000000.0 0.6064723606396087 -0.7983001812644078
4619000000.0 0.6262357556360496 -0.7904760502113327
4622000000.0 0.5940326791706256 -0.8171589181721836
4625000000.0 0.5824726031468916 -0.8268512585997444
4628000000.0 0.6133894775705093 -0.8224287225255335
4631000000.0 0.5900035130547852 -0.8258984132363432
4634000000.0 0.5612540512940172 -0.8287901576532563
4638000000.0 0.5682249029030724 -0.8501405635409923
4641000000.0 0.5675221925823603 -0.8285882483599193
4644000000.0 0.5554389493877664 -0.8487168238999652
4647000000.0 0.5601399435306208 -0.8549164029093216
4650000000.0 0.5136562364649596 -0.8780418976975994
4653000000.0 0.5361147764094877 -0.8719170216390368
4656000000.0 0.5197940656957468 -0.8553362767338253
4659000000.0 0.4995230676401844 -0.8659193675631178
4662000000.0 0.48196759095016944 -0.866744616042162
4666000000.0 0.4860840115921402 -0.8677252370152417
4669000000.0 0.49257410328189694 -0.8895686952462114
4672000000.0 0.46751675449670804 -0.9271957557203615
4675000000.0 0.46661076929484085 -0.9151269503587772
4678000000.0 0.4437512742103755 -0.8667032916022126
4681000000.0 0.44693117409039523 -0.9268810893367307
4684000000.0 0.4186054870574632 -0.9387719022402362
4688000000.0 0.4386372983096647 -0.9178661600640816
4691000000.0 0.4459252228066932 -0.9197492508141636
4694000000.0 0.43055182612949117 -0.9052622061103706
4697000000.0 0.3847554695122022 -0.930333130691126
4700000000.0 0.4130287844984062 -0.9166462792735119
4703000000.0 0.42466631740057936 -0.8861951214246018
4706000000.0 0.379228187444665 -0.9334784741011065
4709000000.0 0.385223410800129 -0.9308518538575496
4712000000.0 0.38696525344276433 -0.9428388014664202
4716000000.0 0.3692049966357268 -0.961822807375309
4719000000.0 0.41049803749524494 -0.9750665791085638
4722000000.0 0.35465572825151376 -0.9428452985425249
4725000000.0 0.3141496502708101 -0.948046775291365
4728000000.0 0.3063791079682703 -0.9795106921930683
4731000000.0 0.31263301042279495 -0.9839790123127095
4734000000.0 0.3110366846528152 -0.9427127927638361
4738000000.0 0.3537692791831136 -1.0234207684404242
4741000000.0 0.3360712416225097 -1.01602356896744
4744000000.0 0.2560535860580553 -0.9901788447247843
4747000000.0 0.28824723451888357 -0.9296591489408086
4750000000.0 0.27006245983210436 -0.9954830836580778
4753000000.0 0.2778001906289781 -0.971782311630984
4756000000.0 0.2828057204628926 -0.9949122843446887
4759000000.0 0.24800472245862043 -0.9969566449973879
4762000000.0 0.20929393383962663 -1.0487010613791885
4766000000.0 0.24803495721758934 -1.0329303289282354
4769000000.0 0.18594602397614982 -1.0204759305180806
4772000000.0 0.22304839108999094 -1.0322596318586885
4775000000.0 0.17576366274270405 -1.0407294762091175
4778000000.0 0.19067616713078925 -1.0477135796178279
4781000000.0 0.1928988537258213 -0.9992252119781151
4784000000.0 0.18770587588926496 -0.9980093320156737
4788000000.0 0.1485726040530487 -1.0225772223789507
4791000000.0 0.12196460945164139 -1.0276626353364953
4794000000.0 0.18784559127268272 -1.0432058135545568
4797000000.0 0.13531767960461744 -0.9741645841082457
4800000000.0 0.10130300362059672 -0.9926882740570766
4803000000.0 0.059669854721560556 -0.9818109732206741
4806000000.0 0.10535929690575654 -1.0383220178269852
4809000000.0 0.062228111999712954 -1.0271406679608694
4812000000.0 0.04518015664806621 -1.0072084536709744
4816000000.0 0.10731839933913111 -1.0000575362680424
4819000000.0 0.08460892187295604 -1.0651941925852342
4822000000.0 0.08012163252464112 -1.0527022770163248
4825000000.0 0.09281445207193181 -1.0413486160769285
4828000000.0 0.058345767956571135 -1.0294443828497633
4831000000.0 -0.011968750901088149 -1.0506926706135167
4834000000.0 0.04809618847719606 -1.023828440891239
4838000000.0 -0.010781747706456665 -1.0456873630323154
4841000000.0 -0.0029506442115282416 -1.0252009012237715
4844000000.0 0.04196400440176197 -1.0464016295072365
4847000000.0 0.021258493368197615 -0.9997048594334583
4850000000.0 -0.040886911172144616 -1.0504175373365396
4853000000.0 -0.021716086642309562 -0.9962951389002448
4856000000.0 -0.047997600349584835 -1.0012894661513365
4859000000.0 -0.06777962869597268 -1.0673896730747479
4862000000.0 -0.02120529620635614 -1.0086537416777455
4866000000.0 -0.08618858482998115 -1.0316665598892796
4869000000.0 -0.09074910045889782 -1.0379903592216344
4872000000.0 -0.10401828046686756 -1.0404894817556551
4875000000.0 -0.05223096138182945 -1.0757415726660524
4878000000.0 -0.11532885538496804 -1.03700013989127
4881000000.0 -0.14591950255132297 -1.0775679411141836
4884000000.0 -0.1037215839104223 -1.0266119521653887
4888000000.0 -0.09310087593457327 -1.0353447579379047
4891000000.0 -0.0942587152339128 -1.0546099991101285
4894000000.0 -0.14310175335048758 -1.031600671267467
4897000000.0 -0.1093397265601446 -1.008862700499538
4900000000.0 -0.16861045749276632 -1.0448171865215659
4903000000.0 -0.1661863385055529 -1.0445834094976865
4906000000.0 -0.21098193552138345 -1.0445649271128048
4909000000.0 -0.19774665337735653 -0.9948630284265939
4912000000.0 -0.18389213124061554 -1.0431479635352776
4916000000.0 -0.1616061624991169 -1.032844301130726
4919000000.0 -0.17447225101887398 -1.095063681636144
4922000000.0 -0.19692046419073098 -1.034877408879274
4925000000.0 -0.243675769921562 -1.0230420013456962
4928000000.0 -0.19220594554732362 -1.0027458133638218
4931000000.0 -0.24922795051708546 -1.046412782944805
4934000000.0 -0.2212693682886822 -0.9792408356792
4938000000.0 -0.26364834643373014 -1.0014525648287027
4941000000.0 -0.24562797180811524 -0.9747538228701723
4944000000.0 -0.2395683166558926 -0.9661078789434148
4947000000.0 -0.2558311679812423 -1.014358421137398
4950000000.0 -0.3005010434081555 -0.9725470879218303
4953000000.0 -0.3379438366305104 -1.018803297238945
4956000000.0 -0.3435649078590567 -0.9962523511224795
4959000000.0 -0.34099585318995473 -0.9577569764353404
4962000000.0 -0.3665885451635269 -1.0151690728681626
4966000000.0 -0.34529456626718236 -1.0260060495624106
4969000000.0 -0.325682430431841 -1.0306706053687957
4972000000.0 -0.36362362831594597 -0.9684764834235574
4975000000.0 -0.3310385377131141 -0.9580087884330929
4978000000.0 -0.40055805348764806 -0.9553471803688663
4981000000.0 -0.3925943869039341 -0.9638978894362825
4984000000.0 -0.3743467311925269 -0.9391096225220876
4988000000.0 -0.3856390531878943 -0.945078661292441
4991000000.0 -0.3930550143104085 -1.0042538321034515
4994000000.0 -0.3827175760374063 -0.9711604300162227
4997000000.0 -0.44994020269394625 -0.913720945560316
5000000000.0 -0.41724787648449013 -0.9808112011377006
5003000000.0 -0.40817923305050713 -1.002196833528381
5006000000.0 -0.4742717138473439 -0.9957094568674796
5009000000.0 -0.41924653872460727 -0.9406606990992835
5012000000.0 -0.46672268577185155 -0.938126350918056
5016000000.0 -0.4599551838205829 -0.9736439465235467
5019000000.0 -0.46683578407451487 -0.9222239648489778
5022000000.0 -0.46809023599100563 -0.9029225265880843
5025000000.0 -0.5187774370136709 -0.9774488762499147
5028000000.0 -0.5207984352350072 -0.9178848690188841
5031000000.0 -0.5272942041450228 -0.9040022840786197
5034000000.0 -0.5716395363938108 -0.9335883129755576
5038000000.0 -0.5048461275813991 -0.8678336992102932
5041000000.0 -0.5110380768737139 -0.9161136385481078
5044000000.0 -0.5166273911997584 -0.8792135852598276
5047000000.0 -0.5720887971383026 -0.8907119560553766
5050000000.0 -0.4854782347279821 -0.897332653225106
5053000000.0 -0.6169191126246167 -0.903052797389128
5056000000.0 -0.5642277477873568 -0.8851762178998348
5059000000.0 -0.5354946412486803 -0.8623134817880577
5062000000.0 -0.6255571700151104 -0.8458441933067828
5066000000.0 -0.5562887265070784 -0.8801102798587328
5069000000.0 -0.6037163863664844 -0.8452281217564249
5072000000.0 -0.5754199903706088 -0.8325606523863365
5075000000.0 -0.579330465435165 -0.8634425197570168
5078000000.0 -0.632867642918248 -0.8160729218266226
5081000000.0 -0.6309653494933053 -0.7635395881873436
5084000000.0 -0.6470683225715952 -0.8243334625992293
5088000000.0 -0.6295637199039628 -0.8407154833535573
5091000000.0 -0.6650243008619934 -0.7990546590279222
5094000000.0 -0.6497969769552616 -0.7952447705608091
5097000000.0 -0.6407034748715746 -0.864381510299872
5100000000.0 -0.6396396132087168 -0.8314789762633884
5103000000.0 -0.7175787174802486 -0.7894533373834379
5106000000.0 -0.6923816511370636 -0.7795746835891724
5109000000.0 -0.6569373746507278 -0.7726272939375145
5112000000.0 -0.687842460847299 -0.7388644273833189
5116000000.0 -0.6635035277868102 -0.7060808200725681
5119000000.0 -0.7807534265928818 -0.7569625137224045
5122000000.0 -0.743008922803069 -0.7064069392156314
5125000000.0 -0.6961445615907351 -0.7684335489122767
5128000000.0 -0.7276795333624055 -0.7676611071668553
5131000000.0 -0.721189134310353 -0.7580897264043418
5134000000.0 -0.7190662695029508 -0.7358469415457203
5138000000.0 -0.7001978365879179 -0.718855522482986
5141000000.0 -0.7031538172395042 -0.754076962133355
5144000000.0 -0.7204842531967944 -0.7512210867566628
5147000000.0 -0.7423433928330092 -0.7400824803937868
5150000000.0 -0.7853357151020448 -0.736226172746939
5153000000.0 -0.7520180405761856 -0.7025829534706222
5156000000.0 -0.7592270530570125 -0.6952881960412239
5159000000.0 -0.8109302864721545 -0.7335797653670022
5162000000.0 -0.8419872550114194 -0.6722644062296069
5166000000.0 -0.7970306304542323 -0.6714406593114794
5169000000.0 -0.7994698985294287 -0.6691263091712295
5172000000.0 -0.8136719607822445 -0.6879398942479614
5175000000.0 -0.84084921588335 -0.6770772260910203
5178000000.0 -0.8302851018003619 -0.6492744921991804
5181000000.0 -0.845863935113085 -0.6636626549769092
5184000000.0 -0.826190077939592 -0.6560151139020597
5188000000.0 -0.8326292562827503 -0.5888874438125679
