! Created with skrf 1.8.0 (http://scikit-rf.org).
# Hz S RI R 50.0 
!freq ReS11 ImS11
4000000000.0 0.6120252146068503 0.8154045064408453
4003000000.0 0.6257874606723172 0.83419813758672
4006000000.0 0.6971701853698093 0.7746227692734751
4009000000.0 0.6649640620150642 0.791191919162498
4012000000.0 0.6277415907200388 0.8140170059432117
4016000000.0 0.7197894163309787 0.7740520020716599
4019000000.0 0.6807392352679831 0.7405267507846521
4022000000.0 0.5938360161817539 0.8008668527129917
4025000000.0 0.739368819921148 0.7568665466657676
4028000000.0 0.7519927346537411 0.7646262149021779
4031000000.0 0.6774387832567447 0.7071042127565581
4034000000.0 0.7209790341129261 0.7205222458962408
4038000000.0 0.7551515126759719 0.7574971549150202
4041000000.0 0.7478611174744046 0.730026987465828
4044000000.0 0.7352783780460043 0.7656008643482876
4047000000.0 0.7057112468654057 0.8132121535239537
4050000000.0 0.7785400907484809 0.7093474130483687
4053000000.0 0.7487784318884754 0.6585491635848799
4056000000.0 0.7478806571102451 0.7131168522907271
4059000000.0 0.7470644855229179 0.6957117977603073
4062000000.0 0.7997122022313958 0.682149905186408
4066000000.0 0.7329055135902787 0.6440647866809215
4069000000.0 0.807109153962395 0.6882730703329474
4072000000.0 0.7240236694748664 0.7213007970269238
4075000000.0 0.7682791655219875 0.7025402823505662
4078000000.0 0.817460385440337 0.654993598181686
4081000000.0 0.7928022085870813 0.7011753452339439
4084000000.0 0.836927407514426 0.6568469897054894
4088000000.0 0.7643909817772585 0.6867726802659496
4091000000.0 0.8549529513749636 0.6622250865989396
4094000000.0 0.8092121443400492 0.6378447924473319
4097000000.0 0.8265814161926576 0.6652799877466409
4100000000.0 0.822080662708702 0.6066722603709906
4103000000.0 0.8200868389942857 0.6318576521104058
4106000000.0 0.8452254177270687 0.5672452716716643
4109000000.0 0.8641696430366632 0.5716727418399652
4112000000.0 0.8442732073939949 0.5757543147582673
4116000000.0 0.8259367301723791 0.5594178861740666
4119000000.0 0.8616754483609812 0.5491081209312134
4122000000.0 0.8530116721589798 0.5491473034731942
4125000000.0 0.8724988838967126 0.5246218219730607
4128000000.0 0.84892048956789 0.5483730227045318
4131000000.0 0.8548286509453852 0.5306520219961629
4134000000.0 0.8616193450487157 0.5570591185976352
4138000000.0 0.860858314395158 0.48445786692368814
4141000000.0 0.8660513064109705 0.5002920830467971
4144000000.0 0.8950036619276374 0.5391245351251586
4147000000.0 0.8838989668348817 0.4777073326273356
4150000000.0 0.9204180215713537 0.49798299642379146
4153000000.0 0.8924575699216828 0.4886418787571224
4156000000.0 0.9282269594596997 0.48913255405247746
4159000000.0 0.8727164913092817 0.4460247210274903
4162000000.0 0.8711026241817972 0.4664540345710274
4166000000.0 0.9220228867334277 0.47188580299723415
4169000000.0 0.9215252792244923 0.4134235254782188
4172000000.0 0.9339911824304707 0.45861417585448266
4175000000.0 0.9331275190003273 0.4365334098064198
4178000000.0 0.9188694965827001 0.46889004361284425
4181000000.0 0.9301367932199125 0.436525232598611
4184000000.0 0.9316120684088697 0.41047859227940225
4188000000.0 0.9471824178194883 0.3971256930521785
4191000000.0 0.9222725400276585 0.4384641594855035
4194000000.0 0.9052990767157425 0.39408019389393556
4197000000.0 0.9509655100342358 0.38605802851001464
4200000000.0 0.9362305703796123 0.39296248724779825
4203000000.0 0.9414052424853765 0.3848769444408593
4206000000.0 0.9598800983382315 0.360113183975904
4209000000.0 0.9302039970838587 0.37251759671832035
4212000000.0 0.9687400423661316 0.3217933909294538
4216000000.0 0.974181401765607 0.35379631211841706
4219000000.0 0.9612025782963228 0.36132145546568095
4222000000.0 0.9567062650502716 0.31889618481315657
4225000000.0 0.9646044561020473 0.32102963928963857
4228000000.0 0.9669853941291189 0.3221661271956622
4231000000.0 0.9742201830258427 0.3015292196161948
4234000000.0 0.9897596774484327 0.2994617741192611
4238000000.0 0.9709429251517894 0.26503267267464004
4241000000.0 0.9727129726824171 0.28830290770180333
4244000000.0 0.9715567902192626 0.2764815490823359
4247000000.0 0.9813227071109972 0.27465662591947365
4250000000.0 0.9727075988417417 0.23254519737253132
4253000000.0 0.9651305514326718 0.22712819532503808
4256000000.0 1.0005528738451461 0.24272788372541604
4259000000.0 0.9556790281921823 0.21466450635415116
4262000000.0 0.9912253552454542 0.19176584239515834
4266000000.0 1.0105398830475087 0.19533821845138166
4269000000.0 1.0003603162370711 0.21837265040368856
4272000000.0 0.9785322804490258 0.1875110534678216
4275000000.0 0.9970218675787343 0.16989332242983812
4278000000.0 1.0095284098459705 0.1880602137369014
4281000000.0 1.0090370019475108 0.1832945245096213
4284000000.0 1.0124618644297891 0.13236255493383053
4288000000.0 1.0018328083797883 0.16529245522163347
4291000000.0 0.9889352101304707 0.14236517258414716
4294000000.0 1.0064387881269905 0.11682950906626031
4297000000.0 0.9967412835863448 0.16079078622576753
4300000000.0 0.9921826271896101 0.12650116073068365
4303000000.0 1.0113887920847955 0.09594322658010497
4306000000.0 0.987892434462495 0.14597557183486604
4309000000.0 1.0095598373362233 0.10500099993983093
4312000000.0 1.0276363819479297 0.11409300377351184
4316000000.0 1.0252380182127463 0.07123463378082
4319000000.0 0.9797568511166884 0.07206391864040561
4322000000.0 0.9750095192216496 0.04511108923515998
4325000000.0 0.9949132985770176 0.08514315306904437
4328000000.0 1.010667261628758 0.04028670579256945
4331000000.0 1.016639648282891 0.01802834730889974
4334000000.0 1.0134453829664813 0.026161654549247793
4338000000.0 1.0097139030486475 0.042901268066425594
4341000000.0 1.024352873271659 0.040930394597035125
4344000000.0 1.034469038067722 0.028535077854788093
4347000000.0 1.0380643908930185 -0.0258904205531707
4350000000.0 0.9788067403892919 -0.04554650483837176
4353000000.0 0.9870948981328798 -0.011006507206036464
4356000000.0 1.0002273272126134 -0.07236175573946188
4359000000.0 0.9680801644727738 -0.028415935948286453
4362000000.0 1.0260652777185424 -0.11196644082264633
4366000000.0 1.0014298211954726 -0.05153085921897341
4369000000.0 0.9780944473808214 -0.07894600337986082
4372000000.0 0.9905233518133552 -0.1142997972046772
4375000000.0 0.9919923134320416 -0.0689655043725676
4378000000.0 0.9776324906824344 -0.10310511563536225
4381000000.0 0.9755279977197251 -0.09023404542318797
4384000000.0 1.0642671502595022 -0.13518232735715421
4388000000.0 0.9956495785687407 -0.10815785520327742
4391000000.0 1.014593052171974 -0.12510736738528522
4394000000.0 0.9736030634676344 -0.13895571715381058
4397000000.0 0.9956540863114722 -0.1561289997373867
4400000000.0 1.0168352471058777 -0.17624053550542926
4403000000.0 1.0128487521314238 -0.17278586191612616
4406000000.0 0.9987542547846763 -0.20607264381673582
4409000000.0 1.014592401035594 -0.1976273004368571
4412000000.0 0.9664709017374867 -0.24743132616643476
4416000000.0 0.9745441788958817 -0.2245763484222398
4419000000.0 0.9801510225021207 -0.24125672842838397
4422000000.0 0.9902162942180155 -0.207764597350091
4425000000.0 1.0207725261933347 -0.2141160105089332
4428000000.0 0.9855975847317296 -0.2397734863605911
4431000000.0 1.0075369761112554 -0.23922522321148057
4434000000.0 0.9657298193325043 -0.2462431701154604
4438000000.0 0.9945042667841935 -0.2650030995115363
4441000000.0 0.9796842319522356 -0.26815588486935854
4444000000.0 0.9495852564550868 -0.264132048629507
4447000000.0 0.9531071924482938 -0.31363070619226807
4450000000.0 0.9517647726083172 -0.29109519082123964
4453000000.0 0.9845954657429081 -0.31326763518482936
4456000000.0 0.9210317278615344 -0.314557129033809
4459000000.0 0.9112596961938251 -0.33466094917305345
4462000000.0 0.9883706371388654 -0.35741617818727967
4466000000.0 0.9794320579266066 -0.3840917398937297
4469000000.0 0.955811262802039 -0.3302373438427083
4472000000.0 0.9613015735362693 -0.3903258062621195
4475000000.0 0.9280081609499988 -0.36748407022453217
4478000000.0 0.9614752428786912 -0.4032641754612697
4481000000.0 0.9058908578085203 -0.3793521428133185
4484000000.0 0.9049947695472824 -0.43169213269603157
4488000000.0 0.9216180213811576 -0.4029133152600564
4491000000.0 0.9055937253894635 -0.42481507657232753
4494000000.0 0.9235741262264633 -0.4090793770152584
4497000000.0 0.9034966011348646 -0.40028869096854064
4500000000.0 0.9100490647092396 -0.4357467645971852
4503000000.0 0.9221498253765994 -0.4592356589402675
4506000000.0 0.896709826761882 -0.4338877652513151
4509000000.0 0.8793706800026351 -0.4372820261019942
4512000000.0 0.8974797686330618 -0.45881449586849066
4516000000.0 0.9061151474930997 -0.47626860656592807
4519000000.0 0.8699552289553814 -0.46336436541933856
4522000000.0 0.8816972568994241 -0.4867909998563808
4525000000.0 0.8865585103501481 -0.4478819116665411
4528000000.0 0.8977797357083166 -0.5067845109153842
4531000000.0 0.8705613000056522 -0.4956490940044843
4534000000.0 0.8485883385183458 -0.508424763883523
4538000000.0 0.8548214185667413 -0.5342878564629495
4541000000.0 0.8162767638338893 -0.5490692297261759
4544000000.0 0.8458840312400902 -0.5308355211793302
4547000000.0 0.8384264675844842 -0.5137604062465946
4550000000.0 0.8500664044677615 -0.5692091451083442
4553000000.0 0.8140112328272777 -0.5812170205303326
4556000000.0 0.8207959021682025 -0.5870234242447903
4559000000.0 0.8111315045193771 -0.5799229053358248
4562000000.0 0.8346688128947837 -0.5812896758139046
4566000000.0 0.8185169719762537 -0.5972677311657797
4569000000.0 0.7969841548582509 -0.5963812821274042
4572000000.0 0.7973481804211425 -0.5968501187548713
4575000000.0 0.7930791326060218 -0.6289191810302085
4578000000.0 0.8198025125143307 -0.6276294370477854
4581000000.0 0.7771154345692834 -0.6375122219047604
4584000000.0 0.7692779448383943 -0.6354561409499389
4588000000.0 0.8128879234265333 -0.641737631195618
4591000000.0 0.7900122418399464 -0.6311480312816369
4594000000.0 0.7280555996294548 -0.67493152996402
4597000000.0 0.765132030003016 -0.6703409249213367
4600000000.0 0.7137607793147107 -0.6918020140303075
4603000000.0 0.7334601613181077 -0.6918800172284224
4606000000.0 0.7465802357665694 -0.6791962326171873
4609000000.0 0.7407691940209056 -0.6677505667592957
4612000000.0 0.7444840537125408 -0.6938545390224223
4616000000.0 0.7141987148919109 -0.6977549282994461
4619000000.0 0.723925432348561 -0.7053466857630357
4622000000.0 0.713798211425303 -0.6942666793584593
4625000000.0 0.6709096819562921 -0.7156502424437388
4628000000.0 0.7216827104674028 -0.6981531032678869
4631000000.0 0.665966188619953 -0.7342388768303029
4634000000.0 0.6833558600075126 -0.7359369682020023
4638000000.0 0.6919603196204609 -0.7399368338803145
4641000000.0 0.7063934151996545 -0.745007665040647
4644000000.0 0.6521111393673529 -0.7453773598205294
4647000000.0 0.6769089297307498 -0.76734966831235
4650000000.0 0.6396422205020149 -0.7717818615926663
4653000000.0 0.677444072115456 -0.7876827622822805
4656000000.0 0.6288252959278504 -0.7909308144789089
4659000000.0 0.6219376334202673 -0.7958485063542337
4662000000.0 0.6143035557997726 -0.798970585505294
4666000000.0 0.6071056140170651 -0.7994570427123131
4669000000.0 0.6084055883667439 -0.8134595432668776
4672000000.0 0.5846276299488251 -0.8243262461053222
4675000000.0 0.5604501060871352 -0.8316612085908465
4678000000.0 0.5802200549943475 -0.8002527198361032
4681000000.0 0.5709166302203457 -0.850597108191863
4684000000.0 0.5535308453004157 -0.8579070319291199
4688000000.0 0.5488717829442361 -0.8460389826802892
4691000000.0 0.5714813024088863 -0.8342362078333927
4694000000.0 0.55515191081503 -0.834709025228169
4697000000.0 0.47164630655544176 -0.8406841358228598
4700000000.0 0.5331554693117008 -0.8545973582775659
4703000000.0 0.5498997961856271 -0.8137684980066009
4706000000.0 0.5217718769889794 -0.8635664954012835
4709000000.0 0.49506542115755964 -0.8848912326619474
4712000000.0 0.5246454639825584 -0.850716989480792
4716000000.0 0.49131167479308857 -0.8882535268654614
4719000000.0 0.5200590927690225 -0.8836041052857689
4722000000.0 0.4976348975798154 -0.8988891204225331
4725000000.0 0.48440322661802765 -0.9019448792271729
4728000000.0 0.4401233833849826 -0.8990160670343497
4731000000.0 0.47886548400697604 -0.9145794002118022
4734000000.0 0.4575545902407525 -0.8978302614172702
4738000000.0 0.47112560244964996 -0.9181094012885266
4741000000.0 0.4473809209631424 -0.9184507871594433
4744000000.0 0.41585726808923607 -0.9153523639571652
4747000000.0 0.42457563192546555 -0.896638629126065
4750000000.0 0.4044164672841508 -0.9192324906272841
4753000000.0 0.4194780807490084 -0.9309859748927464
4756000000.0 0.41961647066820396 -0.9212989907834612
4759000000.0 0.42352244215634693 -0.9437446582061426
4762000000.0 0.32727234366640334 -0.9483553243176012
4766000000.0 0.3970206012983567 -0.9538273935480853
4769000000.0 0.3722193899698877 -0.953243724478617
4772000000.0 0.3544976173893791 -0.9474790753946372
4775000000.0 0.3613690040489012 -1.010027783487851
4778000000.0 0.3605427319597867 -0.9593839942488399
4781000000.0 0.32791404591130613 -0.9513719270094243
4784000000.0 0.3754944233514551 -0.9453799862284208
4788000000.0 0.2992034453809832 -0.9734200281549121
4791000000.0 0.29382480273133 -0.980436142391169
4794000000.0 0.344891857830902 -0.9710849386996807
4797000000.0 0.30392992131344093 -0.9761499668701493
4800000000.0 0.2691476863131592 -0.9512185968752724
4803000000.0 0.21655915670007794 -0.9539162158357841
4806000000.0 0.25667891954025657 -0.9904496593232028
4809000000.0 0.22094822273691578 -0.988370085580767
4812000000.0 0.22207605496874147 -0.9870487666611187
4816000000.0 0.29161638049924665 -1.0049936611289807
4819000000.0 0.24399272577179432 -1.0241925475309084
4822000000.0 0.25642482683588325 -1.0192418525083962
4825000000.0 0.2506628296732699 -1.0295148201596238
4828000000.0 0.21636556695905856 -0.9949840307380723
4831000000.0 0.1503968300546458 -1.0286978632675108
4834000000.0 0.22145860242705598 -1.0014597395137326
4838000000.0 0.16159153255269496 -1.0079132766978622
4841000000.0 0.17657286420335122 -0.9895738229581638
4844000000.0 0.20775335763195976 -1.005659932830858
4847000000.0 0.18639536958456537 -0.9554310340276142
4850000000.0 0.13791656957900683 -1.0279895620487478
4853000000.0 0.1542247028064877 -0.9978506394781819
4856000000.0 0.12319575858207915 -0.9991952365117983
4859000000.0 0.1351129631078118 -1.0756249620716303
4862000000.0 0.15796946691486613 -1.008598343393181
4866000000.0 0.0881968935442975 -1.0182384070137636
4869000000.0 0.0929053284568604 -1.014771629764639
4872000000.0 0.05704473480325744 -1.0539372755972725
4875000000.0 0.14849779664047066 -1.0800988849116109
4878000000.0 0.07927148965351308 -1.0504167961313584
4881000000.0 0.06882323023173526 -1.1017398768484428
4884000000.0 0.07898616300044423 -1.0238504002306712
4888000000.0 0.07951930259030887 -1.0160882151897368
4891000000.0 0.07666772426234719 -1.055109611101318
4894000000.0 0.04593028522212513 -1.0254281344972782
4897000000.0 0.04829875376333336 -1.0121669022001631
4900000000.0 0.01747053190027387 -1.0259042122028215
4903000000.0 0.017085905114861813 -1.027554689704803
4906000000.0 0.014185418049228944 -1.0541021681915168
4909000000.0 -0.021021441496923088 -1.0385451734353126
4912000000.0 -0.015286850187105398 -1.0173131117963872
4916000000.0 0.03390785642469195 -1.0203850096734348
4919000000.0 0.013224728433316325 -1.038456300824083
4922000000.0 -0.034794982298400154 -1.0345409317598189
4925000000.0 -0.06237436977783588 -1.0354209927463116
4928000000.0 -0.022824809582488823 -1.0260948655303699
4931000000.0 -0.026828522330341054 -1.0177091528792779
4934000000.0 -0.057334100020243625 -0.9960649157750345
4938000000.0 -0.12492789708938425 -1.0295311835929133
4941000000.0 -0.07844449592782828 -0.9986014812470708
4944000000.0 -0.03221593709616935 -0.977885721979268
4947000000.0 -0.09455762695259609 -0.9886471810812963
4950000000.0 -0.10528511966359917 -1.0062140760528913
4953000000.0 -0.1289500720808829 -1.0675107987361816
4956000000.0 -0.1526020569831213 -0.9945665710405255
4959000000.0 -0.1495073443132615 -1.0101997837769279
4962000000.0 -0.16881758127469285 -1.0361766814852162
4966000000.0 -0.14358864216282774 -1.046371109991387
4969000000.0 -0.13200128197682498 -1.069745732360748
4972000000.0 -0.18533491892333884 -1.0191148604919824
4975000000.0 -0.12445639409216716 -1.0215535275014305
4978000000.0 -0.20263602424761995 -0.9865237766853123
4981000000.0 -0.2350223137622873 -1.026060685726891
4984000000.0 -0.1735838191390193 -1.0095171070718747
4988000000.0 -0.1644540217945697 -1.0260054353143173
4991000000.0 -0.13453026930826056 -1.0417479742979845
4994000000.0 -0.19280059666513205 -0.982102178492606
4997000000.0 -0.24731194423197073 -0.9884145756820819
5000000000.0 -0.2179527700719569 -1.0295610037018676
5003000000.0 -0.23993643791862024 -1.0385251986378634
5006000000.0 -0.2566230570005623 -1.0391027425158659
5009000000.0 -0.2602761650019835 -0.9908113086964244
5012000000.0 -0.27718054730323705 -0.9822488740545356
5016000000.0 -0.2395977585590986 -1.0310292195398523
5019000000.0 -0.2836139254273218 -0.9998901990189872
5022000000.0 -0.29241586824629784 -0.992203790676806
5025000000.0 -0.3234496494669385 -1.0388917070177528
5028000000.0 -0.31408369462815977 -0.9932009108538422
5031000000.0 -0.3362084171150762 -0.9618558744169311
5034000000.0 -0.3680782334817678 -1.0009668568683692
5038000000.0 -0.3600447945580205 -0.928219374064603
5041000000.0 -0.2858904343515866 -0.9780018150732338
5044000000.0 -0.31066156555210256 -0.9545505598280709
5047000000.0 -0.3365894824688251 -0.9604377870069595
5050000000.0 -0.2632670701211517 -0.9836815777432759
5053000000.0 -0.3681597659917981 -1.010905058899541
5056000000.0 -0.33070506452175374 -0.9842093067787816
5059000000.0 -0.3237428254932227 -0.9538423799571293
5062000000.0 -0.42628288332237985 -0.9636585916438578
5066000000.0 -0.3509432418366195 -0.9813210179497984
5069000000.0 -0.43226544149865276 -0.9725970998387797
5072000000.0 -0.4012492645268088 -0.9187323730152706
5075000000.0 -0.38901861419175643 -0.9380113608584864
5078000000.0 -0.47860024850397204 -0.9432477699616542
5081000000.0 -0.3945964613334824 -0.886204395057889
5084000000.0 -0.44541030449759245 -0.9554734505515272
5088000000.0 -0.44149305026164476 -0.9354992166167739
5091000000.0 -0.4719151115211094 -0.9295169598607265
5094000000.0 -0.4601556344284827 -0.9152382471094779
5097000000.0 -0.38522258095042705 -0.9526687154749023
5100000000.0 -0.4853782402606334 -0.8973353439931832
5103000000.0 -0.500216873070481 -0.8980868055723458
5106000000.0 -0.49189943348991044 -0.964820387632384
5109000000.0 -0.4630672057288987 -0.9467611902466107
5112000000.0 -0.5354881109814535 -0.9252466241203738
5116000000.0 -0.48948949442661227 -0.8557683262197804
5119000000.0 -0.5578130347251551 -0.8934170041698772
5122000000.0 -0.4973780238236716 -0.8748676821744563
5125000000.0 -0.5294315153743562 -0.9224697620289518
5128000000.0 -0.5546656709945704 -0.93249154397428
5131000000.0 -0.5411065989894664 -0.9084928843624634
5134000000.0 -0.5607581436648053 -0.8960423889073057
5138000000.0 -0.5247202418902522 -0.8989828560945406
5141000000.0 -0.525911146961724 -0.9094752298003379
5144000000.0 -0.58044862304751 -0.8575776048293254
5147000000.0 -0.5747325413068973 -0.9005619584916035
5150000000.0 -0.5825336624993858 -0.8741461296403379
5153000000.0 -0.6305855017595983 -0.8875749795065531
5156000000.0 -0.6179046971038981 -0.8596868152083805
5159000000.0 -0.6250658398824802 -0.8801683396849952
5162000000.0 -0.5912762366457419 -0.8150253764632159
5166000000.0 -0.6347606594298195 -0.8339600535653516
5169000000.0 -0.6026579467829962 -0.7926356475345587
5172000000.0 -0.5558206504937032 -0.8132492917033639
5175000000.0 -0.6240137429894668 -0.887093261227254
5178000000.0 -0.6623829788599398 -0.8145301071829946
5181000000.0 -0.6214652560594394 -0.851062829741228
5184000000.0 -0.632973990289867 -0.7967992155352212
5188000000.0 -0.6707464424002737 -0.8179723099946102
