! Created with skrf 1.8.0 (http://scikit-rf.org).
# Hz S RI R 50.0 
!freq ReS11 ImS11
4000000000.0 0.6342889595393953 0.7533034873197177
4003000000.0 0.6687075885258792 0.8102839680521483
4006000000.0 0.7393490645233319 0.6974343118102849
4009000000.0 0.749967009380059 0.7360899005856467
4012000000.0 0.7133989136943825 0.8150842079648472
4016000000.0 0.782846472458102 0.7311818220546964
4019000000.0 0.7401833445966814 0.7139214134691355
4022000000.0 0.6905211370198434 0.8114084713999571
4025000000.0 0.797440037596211 0.6844649604751801
4028000000.0 0.7830005744221974 0.6794912866930098
4031000000.0 0.7222435602759704 0.6994998872854183
4034000000.0 0.7780855516842698 0.6816604833506563
4038000000.0 0.7911923104149586 0.6806608025314418
4041000000.0 0.7522331864717077 0.6969947566926161
4044000000.0 0.8596943764306982 0.7323209954920253
4047000000.0 0.7880846479180177 0.7141614477000922
4050000000.0 0.832505483995465 0.6456583601676107
4053000000.0 0.7792255809254697 0.6450411964947436
4056000000.0 0.7880035430497274 0.6500609021132951
4059000000.0 0.7743467602173567 0.6703882040734273
4062000000.0 0.8365129178479818 0.6324574350244831
4066000000.0 0.7647334491613573 0.5871396484172136
4069000000.0 0.8797228769233082 0.6657932135479309
4072000000.0 0.8298681260953991 0.675333695355169
4075000000.0 0.8381527182849358 0.6758572681998065
4078000000.0 0.8356860304595525 0.6291216303254117
4081000000.0 0.8299426751790813 0.6035475212929651
4084000000.0 0.8447221158277161 0.6101540265248253
4088000000.0 0.8353252178614724 0.6036031379481924
4091000000.0 0.9141139874680948 0.6290377327864636
4094000000.0 0.8449635067474921 0.5795789226319342
4097000000.0 0.8527069025904566 0.5630780500125736
4100000000.0 0.8534380766636622 0.5558924705064638
4103000000.0 0.8723801772830551 0.595632459327311
4106000000.0 0.8772595814964209 0.547063619992651
4109000000.0 0.8920342741896652 0.5080266386543657
4112000000.0 0.9186368688966802 0.5187898347960784
4116000000.0 0.8874400830967958 0.5479691381353876
4119000000.0 0.9104634185746978 0.5041016027602672
4122000000.0 0.9112654911929368 0.49954548432718593
4125000000.0 0.9423089553276371 0.4745495727423616
4128000000.0 0.9013989033792743 0.4666366420955972
4131000000.0 0.9325818128020479 0.46764904232307325
4134000000.0 0.8764140821842181 0.4704912403002336
4138000000.0 0.9007154769082237 0.41316568191672237
4141000000.0 0.903202850471065 0.4476536246559403
4144000000.0 0.9235722172883933 0.4789069830573845
4147000000.0 0.9588620931197919 0.4449176449969892
4150000000.0 0.9883125572717417 0.44622206613566023
4153000000.0 0.9449237549225213 0.4011792257032176
4156000000.0 0.9587694862804883 0.427279745577655
4159000000.0 0.9373430616628491 0.4095348404513362
4162000000.0 0.9289695622960656 0.38906731190617605
4166000000.0 0.9647469617447544 0.3813484867664122
4169000000.0 0.9481643365179401 0.35982810952785627
4172000000.0 0.9554683253895901 0.3727659074854441
4175000000.0 0.9982297523482835 0.3596511580308928
4178000000.0 0.9860733526896601 0.3855624937384863
4181000000.0 0.9859757743747888 0.348771270009939
4184000000.0 0.9624342823358522 0.363778777805357
4188000000.0 0.966325303685373 0.3244459023222359
4191000000.0 0.9497789772099791 0.3706832290398187
4194000000.0 0.975154633054192 0.30834436698721546
4197000000.0 0.9820048695098644 0.3316517088953275
4200000000.0 0.9614201781223484 0.31654468430711635
4203000000.0 1.000804143266473 0.3298169221449253
4206000000.0 1.0084472501959598 0.3104028777731858
4209000000.0 0.9620763671019827 0.3017934593351293
4212000000.0 0.9825643510260055 0.24466609517026106
4216000000.0 1.0066315023633976 0.28159057041917473
4219000000.0 1.0072441227301183 0.2735929157673318
4222000000.0 0.9979555607799093 0.23687893979524627
4225000000.0 0.9799338482401818 0.2295451384316445
4228000000.0 1.0085085392061022 0.24813964892623355
4231000000.0 1.0045172967574896 0.2306155598899457
4234000000.0 1.006310279778046 0.20402654158886369
4238000000.0 1.0201240342348719 0.19566460917642434
4241000000.0 0.9938231421549377 0.185467881787011
4244000000.0 0.991922925319171 0.2066046120290163
4247000000.0 1.000187637094461 0.17624277157754714
4250000000.0 0.987732588407628 0.15660741498985975
4253000000.0 0.9787554777018188 0.1507197508501677
4256000000.0 1.0370519681790191 0.1678948202059547
4259000000.0 0.9722394261206947 0.1364548930429206
4262000000.0 0.9949238944040608 0.11707145314538325
4266000000.0 1.0470038237220523 0.10517917968775053
4269000000.0 1.0319615182597517 0.13103106009263182
4272000000.0 1.0073459971791192 0.09483447486950553
4275000000.0 1.0381984810720242 0.10390512336159571
4278000000.0 1.0406039651602021 0.11108852322451071
4281000000.0 1.0146515937379734 0.10727913196581372
4284000000.0 1.0216324577413118 0.03599501383471018
4288000000.0 1.0202098414377594 0.08011604591382276
4291000000.0 0.9777279588689136 0.04872114155922379
4294000000.0 1.017922976295917 0.051407622380262016
4297000000.0 1.013771926682636 0.052413587881386295
4300000000.0 0.990869162034709 0.053764080144255634
4303000000.0 1.0134885503251816 0.037651313954503676
4306000000.0 1.0321284564444937 0.042767613596726
4309000000.0 0.9910841864867558 0.018659659781006283
4312000000.0 1.0356456396618143 0.05698721997032474
4316000000.0 1.0617036579068928 -0.012759842767372145
4319000000.0 1.0130032771722806 -0.030251529754057982
4322000000.0 0.9930734426405571 -0.048096872006507314
4325000000.0 1.0290442113120495 -0.03123687505882497
4328000000.0 1.0175670387559501 -0.0498837485084902
4331000000.0 1.0062906982621231 -0.07458773560253909
4334000000.0 0.9913042397694992 -0.08286559159762774
4338000000.0 1.0142525750115063 -0.043539903693273665
4341000000.0 1.0347394299332617 -0.04492118959123467
4344000000.0 1.033976111840452 -0.061561518813804075
4347000000.0 1.0059217207695386 -0.12689124461543494
4350000000.0 0.9935912350010744 -0.1082210770974019
4353000000.0 1.0025159561103432 -0.10151277412906365
4356000000.0 1.0000767091618312 -0.1511508148469373
4359000000.0 0.9718416223229893 -0.1373924651320693
4362000000.0 1.0041494652713499 -0.21569483935888387
4366000000.0 1.0187298787076216 -0.17621288920980316
4369000000.0 0.9835478309917394 -0.16235862704901155
4372000000.0 0.9780212552451564 -0.20995172276984203
4375000000.0 0.999700064605886 -0.1660355935746745
4378000000.0 0.9635740390307621 -0.17064081398146683
4381000000.0 0.9771983541116411 -0.17703482256822745
4384000000.0 1.0606594639572489 -0.23263832906524712
4388000000.0 0.9730782327492413 -0.20221907221930863
4391000000.0 1.0126716007731453 -0.21273304795700457
4394000000.0 0.9559917773382377 -0.23897793791511154
4397000000.0 0.9825748553869249 -0.26331549459533
4400000000.0 0.9940796376866197 -0.2694112343092741
4403000000.0 1.0038101433904592 -0.25675636560620907
4406000000.0 0.9751456200656372 -0.2935939001827367
4409000000.0 0.9783502048641679 -0.2938120581304018
4412000000.0 0.9528347799245642 -0.3469287894933015
4416000000.0 0.9583298234300526 -0.30361479029460225
4419000000.0 0.956560148566557 -0.3352807642662783
4422000000.0 0.9725009950170844 -0.2842208940738094
4425000000.0 0.9723650451022815 -0.30491279132952126
4428000000.0 0.9598362705561447 -0.3272770663183705
4431000000.0 0.9831770941292182 -0.3365816248990753
4434000000.0 0.9314665996199097 -0.3484076338300363
4438000000.0 0.9753257861884514 -0.37933872492815796
4441000000.0 0.9618296864094427 -0.36665875534090464
4444000000.0 0.911302319013491 -0.3685118711258104
4447000000.0 0.91868917754648 -0.39948572859252973
4450000000.0 0.9297787569325459 -0.35774812679173984
4453000000.0 0.9464224551937851 -0.40312864164387174
4456000000.0 0.9128180829683054 -0.4119689254456069
4459000000.0 0.8727572469113556 -0.42277350516555545
4462000000.0 0.9584270582226233 -0.4517802882710902
4466000000.0 0.950635040439792 -0.4675499877337904
4469000000.0 0.9393000579179014 -0.4254669407968266
4472000000.0 0.915911342674575 -0.492164596379219
4475000000.0 0.8909043687279119 -0.4316209686873512
4478000000.0 0.9287782129576582 -0.49177289621772735
4481000000.0 0.8609573655310617 -0.46834643850369856
4484000000.0 0.8905690185638735 -0.5306024417655045
4488000000.0 0.8805588193578878 -0.4865431102496487
4491000000.0 0.8809673752431058 -0.5134459267850364
4494000000.0 0.8724241866903556 -0.49845311812031184
4497000000.0 0.8682042175396669 -0.4859151595014402
4500000000.0 0.8826045334924411 -0.5220752668601162
4503000000.0 0.8909228353313201 -0.5324630557268852
4506000000.0 0.8376989048811478 -0.5425726419045548
4509000000.0 0.835389523220299 -0.5331323068683207
4512000000.0 0.8302889351053665 -0.5575761886555812
4516000000.0 0.8646757709750714 -0.5633764820564869
4519000000.0 0.822394626698255 -0.5545415175389348
4522000000.0 0.833213454140471 -0.5840971487352035
4525000000.0 0.8241712184492254 -0.5546511206436685
4528000000.0 0.8348740489898365 -0.6063138045132496
4531000000.0 0.8278999744180917 -0.5834338220220239
4534000000.0 0.8076762610022165 -0.6077821859021691
4538000000.0 0.8079791275271162 -0.6106658117721189
4541000000.0 0.7715144516930036 -0.6365451837657332
4544000000.0 0.7802563004961636 -0.629829126649322
4547000000.0 0.8031333536013037 -0.6299939140510289
4550000000.0 0.7647919977930302 -0.6667711377933333
4553000000.0 0.7712675984791506 -0.6504387134408464
4556000000.0 0.7466241766593369 -0.6553942351929346
4559000000.0 0.7365266304628245 -0.6885253871243462
4562000000.0 0.7558959206149451 -0.68853320089743
4566000000.0 0.75650130204048 -0.6945177646683487
4569000000.0 0.7268129449823671 -0.6892891529705747
4572000000.0 0.737560399668098 -0.6914649215056734
4575000000.0 0.7302377159966482 -0.7119466293527202
4578000000.0 0.7552337639021376 -0.6994716990640649
4581000000.0 0.7184444901957069 -0.7207466321959061
4584000000.0 0.6968360612247417 -0.7176257599483806
4588000000.0 0.7174373679662885 -0.7255730562164937
4591000000.0 0.6850368004077156 -0.7250025872338572
4594000000.0 0.6819840873655195 -0.7473535034639927
4597000000.0 0.6954939198705852 -0.7536344865142867
4600000000.0 0.670886777155284 -0.7557929584442062
4603000000.0 0.6714925057380638 -0.7761526893591938
4606000000.0 0.6682433026865447 -0.7826219248563945
4609000000.0 0.6724348660636713 -0.7689586028602805
4612000000.0 0.6613146944925591 -0.7758106680121137
4616000000.0 0.6264838158017656 -0.7740594984805225
4619000000.0 0.6428320192382486 -0.7823716315154172
4622000000.0 0.6292186537986244 -0.8012473922189902
4625000000.0 0.5929863795684654 -0.8030023881378417
4628000000.0 0.6221437548686608 -0.8009659989910545
4631000000.0 0.595167847194281 -0.8165015932760882
4634000000.0 0.58719436919579 -0.8207952359974955
4638000000.0 0.6024537099883956 -0.8334287862615114
4641000000.0 0.5882131205907905 -0.8321446275442881
4644000000.0 0.5740293379001836 -0.8298086960310757
4647000000.0 0.5842057061609089 -0.8493417847367968
4650000000.0 0.5400067403780363 -0.8516962586379696
4653000000.0 0.5674050112196651 -0.8546562817376306
4656000000.0 0.5380656502152463 -0.856766342263432
4659000000.0 0.5312800608409413 -0.8703470425539248
4662000000.0 0.5264877512538033 -0.8844413788631267
4666000000.0 0.511901381144821 -0.8751639211550475
4669000000.0 0.5327778395415446 -0.8826263000361894
4672000000.0 0.5020092621814584 -0.8975108341769588
4675000000.0 0.4687968772413846 -0.9005271071210443
4678000000.0 0.47416687894620113 -0.8658731691189007
4681000000.0 0.47577684635094053 -0.9077314147147824
4684000000.0 0.4445578080836927 -0.9154562679104782
4688000000.0 0.4340935780695848 -0.9217054128578682
4691000000.0 0.46591594102267386 -0.9170581230055854
4694000000.0 0.4525879495071539 -0.8936403041253389
4697000000.0 0.39308040251496584 -0.8905270087674597
4700000000.0 0.44835957821505157 -0.9168181483593458
4703000000.0 0.4605610431456212 -0.8927251947896093
4706000000.0 0.41271015319022597 -0.9292773635273501
4709000000.0 0.40211607092553325 -0.9378952184197643
4712000000.0 0.4050099782769797 -0.909491895495311
4716000000.0 0.37041410506384953 -0.9822721881462058
4719000000.0 0.4193819464897086 -0.9428645830672986
4722000000.0 0.42021202844981137 -0.9148535020679283
4725000000.0 0.3914791441486887 -0.9529641980040736
4728000000.0 0.35438048495132346 -0.9216261311152112
4731000000.0 0.37725057518545635 -0.9683573211549514
4734000000.0 0.36593959935265485 -0.9549287853336301
4738000000.0 0.35660402604433633 -1.0074927197483499
4741000000.0 0.30747417665847954 -0.9910191532947444
4744000000.0 0.30656634276205497 -1.00382979362163
4747000000.0 0.30832333532359296 -0.9626143880272485
4750000000.0 0.31024993717610444 -0.9553675817480403
4753000000.0 0.3124302090954657 -0.9879918623160128
4756000000.0 0.2710740213972754 -1.0026788453908289
4759000000.0 0.29294821045529956 -1.0081149238297455
4762000000.0 0.24294312769361248 -0.9974573510604842
4766000000.0 0.2597492990083846 -0.995563002093686
4769000000.0 0.24734737357365827 -0.9775439799768367
4772000000.0 0.25374657673592055 -0.9986473750581076
4775000000.0 0.21467583983991148 -1.0783099657716546
4778000000.0 0.19293843462397497 -1.0243342764525347
4781000000.0 0.22697976483085683 -0.9968149844249476
4784000000.0 0.25293727630523827 -0.9856685678003875
4788000000.0 0.19476616177054673 -1.0458874053357072
4791000000.0 0.1987447703684601 -1.0208761787967826
4794000000.0 0.21004020613107038 -1.0394892393048096
4797000000.0 0.1464587884151518 -1.006689092585186
4800000000.0 0.1414961935407987 -0.9964054463460792
4803000000.0 0.09705232264238735 -1.0071667983267885
4806000000.0 0.16560595700591302 -1.0305277576698957
4809000000.0 0.08705971483616007 -1.0122105516426179
4812000000.0 0.0937028885986386 -1.0045232835099827
4816000000.0 0.12733141906750195 -1.0235647835031494
4819000000.0 0.1212313561711282 -1.0607603134587014
4822000000.0 0.13664784797708165 -1.0628405046512435
4825000000.0 0.11247898838750481 -1.04910993099897
4828000000.0 0.08463205897876477 -1.0285594169173318
4831000000.0 0.031550533314921345 -1.0538019930403464
4834000000.0 0.07024611149583992 -1.040484975997692
4838000000.0 0.0460030184557402 -1.0545548216507727
4841000000.0 0.054476678687719784 -1.018889137706755
4844000000.0 0.06813971844499178 -1.0406226216999057
4847000000.0 0.03707343948345833 -0.9856990452621408
4850000000.0 0.009677013985927824 -1.073058463005818
4853000000.0 0.014092510179752313 -1.0178125701721765
4856000000.0 0.0034901524417125934 -1.0063616755264593
4859000000.0 -0.017970085515145708 -1.0685556974449963
4862000000.0 0.028597344612907184 -1.0140543655983334
4866000000.0 -0.06486077322420997 -1.044347248243208
4869000000.0 -0.031253670939670644 -1.036098056992574
4872000000.0 -0.08137195477977463 -1.0714668757422638
4875000000.0 -0.011918356114594623 -1.0822758039733542
4878000000.0 -0.053645575358152585 -1.0398729011888614
4881000000.0 -0.09661716471458343 -1.0829441884936568
4884000000.0 -0.059603078221705755 -1.052637912715029
4888000000.0 -0.030442879931743883 -1.021081793174779
4891000000.0 -0.07130671060138456 -1.0787733465854799
4894000000.0 -0.11190963694417244 -0.99936195780697
4897000000.0 -0.07033766148725003 -1.0133769628938443
4900000000.0 -0.10970058682975482 -1.0535701577023167
4903000000.0 -0.11603554676264874 -1.0632624082402682
4906000000.0 -0.13849178853637933 -1.061550850045573
4909000000.0 -0.1687858077157605 -1.0222270871169818
4912000000.0 -0.16184861372570786 -1.06350369542616
4916000000.0 -0.14396668270551816 -1.0326161601821386
4919000000.0 -0.1148048045349901 -1.0665086245977171
4922000000.0 -0.16217046285388473 -1.0070689716569288
4925000000.0 -0.2545645095687269 -1.0260103205993198
4928000000.0 -0.13706723034673213 -1.0018353538020885
4931000000.0 -0.20200925725952013 -1.0205528403268525
4934000000.0 -0.19127290826135396 -1.0024106237969892
4938000000.0 -0.23992113335625498 -0.9912602089157058
4941000000.0 -0.21050328053026723 -1.007585117870844
4944000000.0 -0.2079789012324498 -0.9820703873712153
4947000000.0 -0.23951104269379955 -0.9870247642644439
4950000000.0 -0.25426718080752203 -0.9850272242388437
4953000000.0 -0.334891237337111 -1.0398259521303728
4956000000.0 -0.27327156744182934 -1.0148152096790641
4959000000.0 -0.33507908490236904 -0.9725039288815931
4962000000.0 -0.3095118755117878 -1.0246858790076965
4966000000.0 -0.28835743139769854 -1.0163303529087444
4969000000.0 -0.27417732796911326 -1.0307341142767095
4972000000.0 -0.3232690900128311 -1.0105885280554385
4975000000.0 -0.2684984086283323 -0.9892540486890885
4978000000.0 -0.3405767437579581 -0.9826634485676755
4981000000.0 -0.33154979646527694 -0.9808451449373099
4984000000.0 -0.32538408159162346 -0.960435231325845
4988000000.0 -0.36044642627042484 -0.9882735322528002
4991000000.0 -0.3213269743845861 -1.027015450192555
4994000000.0 -0.35086513309515754 -0.964625529072358
4997000000.0 -0.429254038365738 -0.9486119547205747
5000000000.0 -0.3865772657000348 -0.9910032770590189
5003000000.0 -0.37158330569044357 -1.0280729409870633
5006000000.0 -0.4161395242806055 -1.0413315466960629
5009000000.0 -0.4332610141848797 -0.956353443754082
5012000000.0 -0.4608888179094132 -0.9562732856431455
5016000000.0 -0.4113464913897094 -0.9856449631609381
5019000000.0 -0.4436281961213684 -0.9532518986465157
5022000000.0 -0.4482052102609565 -0.9442059824024951
5025000000.0 -0.4518574750762398 -1.0094088520885787
5028000000.0 -0.46383301377393304 -0.9343914234758821
5031000000.0 -0.4829829624486902 -0.9282540725046525
5034000000.0 -0.5320676468342151 -0.9759726132764288
5038000000.0 -0.503803245685095 -0.889015424785425
5041000000.0 -0.4671104292887891 -0.9506602238396235
5044000000.0 -0.47845716870847055 -0.9031379515631562
5047000000.0 -0.5096387191675766 -0.9117360400765967
5050000000.0 -0.45085723931419863 -0.9135671410883761
5053000000.0 -0.5809105277518349 -0.9106300122331235
5056000000.0 -0.5253533952961581 -0.9174972915810404
5059000000.0 -0.47641077313518526 -0.9360036746274317
5062000000.0 -0.5724773055448326 -0.9058440519522402
5066000000.0 -0.5194956755968665 -0.8868218499387088
5069000000.0 -0.5705563474609352 -0.9216021698640097
5072000000.0 -0.5248131418400488 -0.8745314828586888
5075000000.0 -0.5268058285608537 -0.9007771623897209
5078000000.0 -0.6320068052827073 -0.8300312783760881
5081000000.0 -0.6165365460613849 -0.8266723974101354
5084000000.0 -0.6181702352028976 -0.8887398857859092
5088000000.0 -0.544410011963517 -0.8844702272754439
5091000000.0 -0.6745581479957949 -0.8562029014192871
5094000000.0 -0.6108500362631537 -0.8430951521113227
5097000000.0 -0.604272665497472 -0.8619146542434544
5100000000.0 -0.6119447069956532 -0.8357161918042338
5103000000.0 -0.6431631208642662 -0.8350551546813333
5106000000.0 -0.6745461181399619 -0.8905042631902007
5109000000.0 -0.6499519786349226 -0.8799064784301598
5112000000.0 -0.6594206630085859 -0.8034188188570281
5116000000.0 -0.6343335571835019 -0.7431880698775544
5119000000.0 -0.7021472065114208 -0.8447274967698173
5122000000.0 -0.676870261852665 -0.820460519373877
5125000000.0 -0.6533548184107765 -0.7668841476756924
5128000000.0 -0.6838135008747539 -0.7637971467128355
5131000000.0 -0.6726721260956154 -0.8169947082215671
5134000000.0 -0.6573162137800451 -0.7728782498099998
5138000000.0 -0.639914455791294 -0.8036992176050853
5141000000.0 -0.6853030601724357 -0.852526788878406
5144000000.0 -0.6767197232583002 -0.7495612891331545
5147000000.0 -0.7591879658594046 -0.7959014670416169
5150000000.0 -0.7379991767754499 -0.7645306736856456
5153000000.0 -0.7911277612646908 -0.7762553188885514
5156000000.0 -0.7335872624121187 -0.7593479936208115
5159000000.0 -0.752109300634394 -0.7778880756673768
5162000000.0 -0.7710660699857379 -0.7146374792427086
5166000000.0 -0.78688466764885 -0.7287714117478225
5169000000.0 -0.7963155409708017 -0.7315392218500224
5172000000.0 -0.7650710895743887 -0.6805056530646186
5175000000.0 -0.8360903028583121 -0.756394347269335
5178000000.0 -0.8028863522516037 -0.7010451936815626
5181000000.0 -0.8456838578419619 -0.7131550372318014
5184000000.0 -0.7859212616624047 -0.6709081957939975
5188000000.0 -0.8021762416955899 -0.6791008716568774
