! Created with skrf 1.8.0 (http://scikit-rf.org).
# Hz S RI R 50.0 
!freq ReS11 ImS11
4000000000.0 0.5951494605388139 0.8177977063579749
4003000000.0 0.6379636989149364 0.8344112542838944
4006000000.0 0.702371258224658 0.7840487428891991
4009000000.0 0.6768903392661756 0.806105565947358
4012000000.0 0.654258310822214 0.8876035565407182
4016000000.0 0.7034661435859649 0.8154801906805467
4019000000.0 0.6581032888511136 0.7673663257809012
4022000000.0 0.6605740818252552 0.8566644093708099
4025000000.0 0.7470107849733953 0.754336197942679
4028000000.0 0.7149336410366246 0.7581680928895338
4031000000.0 0.6520542004185628 0.7123175098955628
4034000000.0 0.7070592414297093 0.7418995519625582
4038000000.0 0.7392696907252911 0.7168213562359388
4041000000.0 0.7503053096411411 0.7238288951709262
4044000000.0 0.7651080158741865 0.7805592241203827
4047000000.0 0.7529663701546664 0.8036733511141726
4050000000.0 0.7914287557132424 0.6985626041192186
4053000000.0 0.7577775572627137 0.6613574128736579
4056000000.0 0.7496937501236024 0.7041688659601085
4059000000.0 0.7447382949280555 0.713921614173487
4062000000.0 0.7815301316739723 0.6563350381504713
4066000000.0 0.7359876794340081 0.6316627862927553
4069000000.0 0.8294742022165112 0.712966023607535
4072000000.0 0.7623303851836103 0.6831346268722587
4075000000.0 0.7869191903292331 0.761385501604376
4078000000.0 0.8388910803498504 0.6930010848010381
4081000000.0 0.751533998495969 0.6906870285130602
4084000000.0 0.8060970187931462 0.648247972570599
4088000000.0 0.7557411964239927 0.6882723818902919
4091000000.0 0.847811792413355 0.6609592524516328
4094000000.0 0.8169399290224739 0.6329455418378479
4097000000.0 0.818153047347111 0.6170483509963935
4100000000.0 0.8126400416977256 0.585001316802819
4103000000.0 0.804740603310726 0.6408008053742504
4106000000.0 0.8269767382873187 0.6175160658746295
4109000000.0 0.8683484473296916 0.5573231099079212
4112000000.0 0.8518891637792108 0.5839390438465195
4116000000.0 0.8345101300766796 0.5770928600010812
4119000000.0 0.8622002240302832 0.5500434239700451
4122000000.0 0.8661618000344781 0.601371442658485
4125000000.0 0.9290540299591101 0.5220374371805647
4128000000.0 0.8381611267323803 0.5105044306275065
4131000000.0 0.8696748414495238 0.5432923303296171
4134000000.0 0.849673484602508 0.6005510892545322
4138000000.0 0.8268222843357227 0.4965506069151678
4141000000.0 0.8805908179420467 0.5207799390735234
4144000000.0 0.8928483717550024 0.5661317261252441
4147000000.0 0.8773312886173402 0.4845289048023071
4150000000.0 0.92902915962309 0.5253035113772686
4153000000.0 0.911701092299245 0.4798504766787405
4156000000.0 0.9635878459853477 0.5327399886221598
4159000000.0 0.8796675246224752 0.47402071022547415
4162000000.0 0.9010050761954873 0.4803305506510255
4166000000.0 0.92766735409702 0.46877708724409994
4169000000.0 0.9189396083263041 0.4414892564105303
4172000000.0 0.9202317349505289 0.43995605358411155
4175000000.0 0.9147186133139945 0.4432701695928512
4178000000.0 0.9770782302479157 0.42672800949805567
4181000000.0 0.9504956579183488 0.4217209052034897
4184000000.0 0.948081399158023 0.41862834131029775
4188000000.0 0.9474247485210161 0.4269003521332674
4191000000.0 0.9177483985320737 0.42084616389581914
4194000000.0 0.933017823468435 0.39403542269554215
4197000000.0 0.9299306185918574 0.3792379122787865
4200000000.0 0.9403875113476292 0.40945503448733944
4203000000.0 0.9583779399376964 0.37516353606795927
4206000000.0 0.9694284030066423 0.38517922936913523
4209000000.0 0.9468208364592177 0.36656752956544075
4212000000.0 0.9825064290917809 0.31115396014587793
4216000000.0 0.9735884552543888 0.35218473657466726
4219000000.0 0.9877190389408744 0.33620726749431196
4222000000.0 0.9803511885783924 0.32620902628552656
4225000000.0 0.9712369159719121 0.3301895537405348
4228000000.0 1.0093838182960688 0.31215290078871893
4231000000.0 0.9766982620130471 0.287265140845444
4234000000.0 0.9848276073828386 0.2866385518863499
4238000000.0 0.986859669115012 0.269329535303776
4241000000.0 0.9642570928046073 0.25541301607257844
4244000000.0 0.9798107756234617 0.2712521326658552
4247000000.0 0.9854283498879199 0.250634497802732
4250000000.0 0.9640723223644483 0.24134115156934938
4253000000.0 0.9677179444009083 0.2328474664757894
4256000000.0 1.0193163724277974 0.23759373411700918
4259000000.0 0.9763823735357319 0.2090457504011535
4262000000.0 1.0087045213027916 0.21537918019302718
4266000000.0 1.032692408177605 0.1798863456819933
4269000000.0 1.0125459747419896 0.20066220109812946
4272000000.0 0.9841421748958292 0.19458288519164352
4275000000.0 0.9956378591660848 0.17983078220912513
4278000000.0 1.0261731001677017 0.19492659336695733
4281000000.0 1.0094739026573056 0.17284023403527704
4284000000.0 1.0105662215244113 0.14653761306962362
4288000000.0 1.009956090008646 0.18626291352466845
4291000000.0 0.9852691030035694 0.15270052543515716
4294000000.0 1.0032396794567002 0.11211321744839721
4297000000.0 1.0090265461542216 0.13002252169389744
4300000000.0 0.9972738606527418 0.11311643397506285
4303000000.0 1.0003904604697054 0.09662926878610008
4306000000.0 0.990835459243197 0.11437387028540327
4309000000.0 1.003649352917901 0.10755027233275356
4312000000.0 1.0397322104341065 0.10787768979083054
4316000000.0 1.0278052879112536 0.09961640381448834
4319000000.0 1.0083413029002537 0.08229941973639036
4322000000.0 1.0211129815404998 0.030022158241963567
4325000000.0 1.0336688385236639 0.05553675438397411
4328000000.0 1.0075816703102582 0.03706835214686051
4331000000.0 0.9999340952532286 -0.0011853360757695108
4334000000.0 1.0112064613549832 0.01198711701677152
4338000000.0 1.005206263749105 0.02679385373637809
4341000000.0 1.0359221948663977 0.03291046652569435
4344000000.0 1.0220826602786002 0.013926986231694444
4347000000.0 1.0205290760150851 -0.03897697705202777
4350000000.0 0.9485056146862965 -0.03761120514607505
4353000000.0 0.9956510545780661 -0.02046179778067761
4356000000.0 0.9967221682923679 -0.06131894321902606
4359000000.0 0.9561624792652061 -0.0374866556573466
4362000000.0 1.0079269605397083 -0.09920895991415551
4366000000.0 1.037033691886952 -0.06261817742045245
4369000000.0 0.9799731562620552 -0.07354772217969789
4372000000.0 1.0053190870003246 -0.10835379921686936
4375000000.0 0.983370504941008 -0.06583807223493329
4378000000.0 0.9836514411719404 -0.09285350829616412
4381000000.0 1.0170313282993706 -0.10626780654358584
4384000000.0 1.0644055918474606 -0.11615965687690699
4388000000.0 0.9972011512619671 -0.10804879903633031
4391000000.0 1.005054430121942 -0.11393961080542417
4394000000.0 0.9757903990618731 -0.14053869532275368
4397000000.0 0.9911632758048128 -0.14763457289306092
4400000000.0 1.0312332068723964 -0.15997619630170234
4403000000.0 1.0103035503067481 -0.1711102428697452
4406000000.0 1.0042005223196147 -0.2020075852566725
4409000000.0 1.0163754174442587 -0.2024027983026568
4412000000.0 0.9814406421971354 -0.24592128339446992
4416000000.0 0.9667488779729743 -0.21066684281131665
4419000000.0 0.9806492197824079 -0.22575367907698218
4422000000.0 0.9819960221761026 -0.20348253919709983
4425000000.0 1.0074923354009602 -0.21103872658738987
4428000000.0 0.971910499755005 -0.24060527887480435
4431000000.0 0.9984745879519137 -0.24518467021794021
4434000000.0 0.9783430986938945 -0.24875550213038308
4438000000.0 0.9921813124793075 -0.26915690524663255
4441000000.0 1.0026985954364744 -0.2857555417154971
4444000000.0 0.9468463262409106 -0.26893800161397347
4447000000.0 0.9573661498815832 -0.2868763089016091
4450000000.0 0.9640066321315226 -0.28586993292121987
4453000000.0 0.982220886688552 -0.31712463163410476
4456000000.0 0.9264081673237758 -0.3085180474638943
4459000000.0 0.9162239766338112 -0.316503120397421
4462000000.0 0.9950186480506154 -0.34230875776423864
4466000000.0 0.9850592927561428 -0.34847524543879976
4469000000.0 0.9665663156879205 -0.3306156804403073
4472000000.0 0.9663433075547213 -0.38855587550527804
4475000000.0 0.9296298192485491 -0.3536698601582237
4478000000.0 0.976000109721969 -0.4015497817579621
4481000000.0 0.8932294017347705 -0.388265221954596
4484000000.0 0.9019135483306939 -0.4159095945767627
4488000000.0 0.9177420727970398 -0.4116257193868184
4491000000.0 0.9196539357203973 -0.3948084083505199
4494000000.0 0.9196570286952446 -0.3986228394332102
4497000000.0 0.9021522995329385 -0.3989038174039978
4500000000.0 0.9316745784251279 -0.4237581101723759
4503000000.0 0.9513899344880399 -0.4371622427789014
4506000000.0 0.9035730383446485 -0.45686060432308195
4509000000.0 0.8901452950568021 -0.4435564939262334
4512000000.0 0.8658932897894471 -0.46231831625563213
4516000000.0 0.9102419166561125 -0.4713370602023249
4519000000.0 0.8716079286055934 -0.4558861675452981
4522000000.0 0.8832440814346842 -0.49973794094200097
4525000000.0 0.8882971390499432 -0.4718115372284546
4528000000.0 0.9105153040092941 -0.5162150288198747
4531000000.0 0.8785446858362062 -0.47526892006617394
4534000000.0 0.8652222110000203 -0.49600338976067704
4538000000.0 0.8509635995204692 -0.5260569654640606
4541000000.0 0.8256250044273777 -0.5641381245498454
4544000000.0 0.8329380407198659 -0.52878573620744
4547000000.0 0.8455084809306811 -0.5323738756366729
4550000000.0 0.8473734943005793 -0.5851374043068951
4553000000.0 0.8557876960318145 -0.5675353740629472
4556000000.0 0.8057315130844256 -0.5708450285163612
4559000000.0 0.826959133663136 -0.5951782248929547
4562000000.0 0.8583304359879025 -0.5880156081442599
4566000000.0 0.8351490989055483 -0.5973644582212763
4569000000.0 0.7863311226472799 -0.590562200763953
4572000000.0 0.8068984359611124 -0.5905613514101221
4575000000.0 0.8023182309250523 -0.63719601999952
4578000000.0 0.8327859312713621 -0.6145637167724575
4581000000.0 0.7762616693020419 -0.6422855597884062
4584000000.0 0.7816093290276797 -0.6480140995622892
4588000000.0 0.7981113344156592 -0.6428886054301652
4591000000.0 0.7954624619975517 -0.6348492342231735
4594000000.0 0.7441229299862246 -0.6781686614608192
4597000000.0 0.777585743194287 -0.6819470780436693
4600000000.0 0.7310973180409394 -0.6834519945014408
4603000000.0 0.7429169906353141 -0.690198253266901
4606000000.0 0.7677318794104724 -0.6794763836471697
4609000000.0 0.7284048751585546 -0.6843007179779964
4612000000.0 0.7519807267240903 -0.6923253267105232
4616000000.0 0.7193721984321917 -0.6967168250995073
4619000000.0 0.726359463045951 -0.7038412794005667
4622000000.0 0.7101787614453304 -0.7198201114579804
4625000000.0 0.6738453643637923 -0.7304099556195633
4628000000.0 0.7075689037241907 -0.7146973796471444
4631000000.0 0.689069570200187 -0.7425095819999137
4634000000.0 0.6878560228727217 -0.7359568105276687
4638000000.0 0.693231200372993 -0.7615848505169537
4641000000.0 0.6770068690718406 -0.7521445851395685
4644000000.0 0.6718654296237716 -0.7517379402906655
4647000000.0 0.6869604757648209 -0.7619397868311292
4650000000.0 0.6362438868552451 -0.7834474870888807
4653000000.0 0.6485901567339336 -0.7646552115179094
4656000000.0 0.6388945800532129 -0.7800911611412398
4659000000.0 0.6359852489212666 -0.7831042566908243
4662000000.0 0.6398600670475977 -0.7913655258269973
4666000000.0 0.6163670405633149 -0.8017648675923805
4669000000.0 0.6064767994362319 -0.8005720001399855
4672000000.0 0.6069228461618642 -0.8379891550510714
4675000000.0 0.571399469334144 -0.8347276076177267
4678000000.0 0.5837708372737773 -0.8091665029370789
4681000000.0 0.5748512662698599 -0.8669755617035255
4684000000.0 0.5633096068135357 -0.8422787491798488
4688000000.0 0.542890057252174 -0.8475451826489583
4691000000.0 0.5908637544205836 -0.8452619659893914
4694000000.0 0.5741770335102948 -0.8346241675162567
4697000000.0 0.5079661167804037 -0.8303614516187683
4700000000.0 0.5637085744457526 -0.8514188539288521
4703000000.0 0.5581661641671629 -0.8167923987119994
4706000000.0 0.5024063853819059 -0.8716922809261216
4709000000.0 0.4934622165444663 -0.8916090251136889
4712000000.0 0.5170704342699204 -0.8500144204243767
4716000000.0 0.48983243649088015 -0.8592164662557225
4719000000.0 0.5306259205407569 -0.885511148034772
4722000000.0 0.5245377785168734 -0.8889733217725841
4725000000.0 0.4630855675167159 -0.8794575872781396
4728000000.0 0.48382406141111606 -0.9097673065265257
4731000000.0 0.49097234660423184 -0.9056708688499564
4734000000.0 0.4614248001253564 -0.9054092760580383
4738000000.0 0.5111622892818276 -0.950495005645897
4741000000.0 0.4403146168491112 -0.9235425620671579
4744000000.0 0.41969737442181004 -0.9220559532281042
4747000000.0 0.44366991334954575 -0.9270630939382005
4750000000.0 0.4132867280895599 -0.9507443938701824
4753000000.0 0.4309101959862989 -0.953761200184431
4756000000.0 0.42489545254803174 -0.964451142913213
4759000000.0 0.4052700054518851 -0.9551778549853848
4762000000.0 0.3810728482137803 -0.9549727617138756
4766000000.0 0.37848828024827114 -0.9642353312371225
4769000000.0 0.4110749114218564 -0.9457728884705673
4772000000.0 0.3791390089827233 -0.9723229259650522
4775000000.0 0.36854302132854416 -1.0022113792818017
4778000000.0 0.349601968703088 -0.9463191628928426
4781000000.0 0.3803443107977375 -0.9422349408955624
4784000000.0 0.3645016206015055 -0.9507806615805962
4788000000.0 0.3154220942724282 -1.0002812021654055
4791000000.0 0.3122161637884199 -0.9625314998556497
4794000000.0 0.3313162984774751 -0.9954386825083814
4797000000.0 0.2876307180108938 -0.9606773475350462
4800000000.0 0.26838992053423016 -0.9768267434898543
4803000000.0 0.23604280139884837 -0.974078766614209
4806000000.0 0.27349017913463514 -1.0027480688339439
4809000000.0 0.23089328428026365 -0.997748504344179
4812000000.0 0.23596378098244555 -0.9963004914037803
4816000000.0 0.2720987920845362 -0.9815057988436142
4819000000.0 0.2582641012009404 -1.0333471809798833
4822000000.0 0.26108776935671585 -1.019999535887168
4825000000.0 0.25793194565098915 -1.0287543953348441
4828000000.0 0.22143874719754006 -0.983024645807575
4831000000.0 0.1524517410721742 -1.0476266498169444
4834000000.0 0.20937175620708312 -0.999910800027864
4838000000.0 0.18087147175233814 -1.0294772886615329
4841000000.0 0.17195138619421457 -1.0088465385114822
4844000000.0 0.1995770023605839 -1.010324726200684
4847000000.0 0.20155645353255147 -1.0055758052181603
4850000000.0 0.14956652697765913 -1.0226408906109212
4853000000.0 0.15749021391081436 -0.9952377949965965
4856000000.0 0.1367001376132063 -0.9984314125191384
4859000000.0 0.13584421718906348 -1.0479276672748208
4862000000.0 0.16016783885286212 -1.0006332527358537
4866000000.0 0.09144940017476919 -1.0429292044972323
4869000000.0 0.10369613780154317 -0.9919196102422468
4872000000.0 0.08222141573667353 -1.0586016836839685
4875000000.0 0.14899084086293574 -1.0536109539649505
4878000000.0 0.06175706097794328 -1.0233652424120299
4881000000.0 0.04540465293248476 -1.083936360602889
4884000000.0 0.06788262991308636 -1.0254938402432587
4888000000.0 0.11335150824663635 -1.020960179965456
4891000000.0 0.08086721996815457 -1.0615441937204935
4894000000.0 0.04519374608222351 -1.0027499133535285
4897000000.0 0.06988577016113452 -0.9980485438504272
4900000000.0 0.042425557383698756 -1.0484273297226812
4903000000.0 0.06492568366136134 -1.0560738158744296
4906000000.0 0.0018421347696712422 -1.050909428668218
4909000000.0 -0.014063900441279156 -1.0372762186862963
4912000000.0 -0.01344547243387454 -1.0622685077172591
4916000000.0 0.01821253295358023 -1.04940942804004
4919000000.0 0.009371478028784866 -1.0906275983906313
4922000000.0 -0.0053357713868534 -1.0639548965403047
4925000000.0 -0.06809125135025351 -1.0088954468648357
4928000000.0 -0.00581274435411451 -1.0348574604072238
4931000000.0 -0.029026487984212493 -1.0485956741767728
4934000000.0 -0.05505972602639918 -1.0002226455965315
4938000000.0 -0.07187080409074913 -0.9941355568222308
4941000000.0 -0.06320960807961683 -0.9881399154326617
4944000000.0 -0.06501748109635375 -0.9808665053698056
4947000000.0 -0.0816491479085524 -1.002969703545046
4950000000.0 -0.09357168389403105 -1.0064176561386882
4953000000.0 -0.18819534166737129 -1.079914702193509
4956000000.0 -0.11739447084877819 -1.019250426632452
4959000000.0 -0.15772760223941149 -0.9751636248627495
4962000000.0 -0.16810698857323061 -1.0469872426380462
4966000000.0 -0.14199803140076322 -1.0731961244964974
4969000000.0 -0.10604414970935344 -1.057399344472178
4972000000.0 -0.215385176052342 -1.0406412083305658
4975000000.0 -0.14557728255969024 -1.020598262398309
4978000000.0 -0.16713567714297828 -1.0249974840634295
4981000000.0 -0.20114465687490354 -1.0080914895619206
4984000000.0 -0.1855292694020759 -1.0108576071609896
4988000000.0 -0.17552044269070632 -1.0011923995740868
4991000000.0 -0.1441072431916438 -1.049201756312787
4994000000.0 -0.1964282425657966 -1.0266102709472409
4997000000.0 -0.2381211521455016 -1.0262849033823778
5000000000.0 -0.19763892356577756 -1.0659094796638104
5003000000.0 -0.22138450598989706 -1.038632343361987
5006000000.0 -0.28014768572024085 -1.0561115654335098
5009000000.0 -0.2588458730588714 -1.029565959995712
5012000000.0 -0.2808713594630538 -1.0162739520910151
5016000000.0 -0.26831492215076497 -1.0352621304043046
5019000000.0 -0.30380630266276487 -0.9768487479968502
5022000000.0 -0.32127078570058176 -0.9830255141787769
5025000000.0 -0.3103956545608804 -1.048776366036947
5028000000.0 -0.3124518582763328 -0.9907866712154598
5031000000.0 -0.30218966934441593 -0.9770378070919442
5034000000.0 -0.35902649259095043 -1.0327616673139242
5038000000.0 -0.32467674468213814 -0.9657658519436776
5041000000.0 -0.32009723206738006 -1.0377792612415466
5044000000.0 -0.32641274935297115 -0.9509870298347151
5047000000.0 -0.3072598998450235 -1.0101446760340558
5050000000.0 -0.2760024570923262 -0.9646852838221556
5053000000.0 -0.3784204306866098 -1.0145207161001242
5056000000.0 -0.35608629435249894 -0.9943172017395474
5059000000.0 -0.34084437020111785 -1.0322204576546903
5062000000.0 -0.40188108621554086 -0.9780187831004079
5066000000.0 -0.325403941366201 -0.9912193203485813
5069000000.0 -0.39302456610181846 -0.956066076943115
5072000000.0 -0.4150350034810889 -0.9255815850434717
5075000000.0 -0.40885410168003133 -0.993723064487483
5078000000.0 -0.45287470284652737 -0.9351401599778664
5081000000.0 -0.44321888191706577 -0.8973095350398016
5084000000.0 -0.4630099509325515 -0.9771674863323592
5088000000.0 -0.4188599200647323 -0.9200428874575646
5091000000.0 -0.5124835324742862 -0.9288903972779861
5094000000.0 -0.47715415081576057 -0.9140007994758966
5097000000.0 -0.4520226939541936 -0.9196636950577537
5100000000.0 -0.45072000264427053 -0.9254320247220148
5103000000.0 -0.5043897706312478 -0.9263659356747528
5106000000.0 -0.4723383325346389 -0.9781408038815385
5109000000.0 -0.4607355513380353 -0.9234014486164392
5112000000.0 -0.5211862779453227 -0.9121882249777624
5116000000.0 -0.5045518845410821 -0.9138376989359458
5119000000.0 -0.531768950992432 -0.9152198124997954
5122000000.0 -0.49771591813076593 -0.9014980237910444
5125000000.0 -0.4646882616094427 -0.8669320496961078
5128000000.0 -0.538281593196072 -0.88807660964622
5131000000.0 -0.501489184224758 -0.8653308636438879
5134000000.0 -0.5578959514653385 -0.8627190493378819
5138000000.0 -0.534030580545646 -0.8752170671472262
5141000000.0 -0.49496036974954793 -0.8701433815706341
5144000000.0 -0.5479844198019581 -0.9096380498004969
5147000000.0 -0.5911286163906231 -0.8644682470110435
5150000000.0 -0.5654873196164901 -0.9023075708483191
5153000000.0 -0.5703624607527801 -0.8655221779220906
5156000000.0 -0.6000776033750084 -0.8894529859787794
5159000000.0 -0.6046706326254454 -0.8707226281414858
5162000000.0 -0.6402539286690494 -0.85614634163969
5166000000.0 -0.627397162871624 -0.8381130760513994
5169000000.0 -0.6192790349559419 -0.8532726850964143
5172000000.0 -0.614041075173408 -0.830329939735554
5175000000.0 -0.6323804540854151 -0.8696256830075586
5178000000.0 -0.6253322904674696 -0.8235044446228899
5181000000.0 -0.6618524432355966 -0.862489694700773
5184000000.0 -0.6543881350123526 -0.8290650661537385
5188000000.0 -0.6564239899446961 -0.8341176511851314
