! Created with skrf 1.8.0 (http://scikit-rf.org).
# Hz S RI R 50.0 
!freq ReS11 ImS11
4000000000.0 -0.9267101941810356 0.34437915178379225
4003000000.0 -0.9724967066538684 0.39589757391008173
4006000000.0 -0.9363580139958979 0.40573562066303126
4009000000.0 -0.9357851179096779 0.38925522003929647
4012000000.0 -0.9522644511710868 0.46068318632591543
4016000000.0 -0.8679923447420277 0.4612100769192466
4019000000.0 -0.8764336778821811 0.5393444667095876
4022000000.0 -0.840041872564199 0.45707439864140464
4025000000.0 -0.799638521517613 0.6412474670183552
4028000000.0 -0.9191993443625713 0.6139419062214144
4031000000.0 -0.8415827895280339 0.5345287166679626
4034000000.0 -0.8347730714876916 0.6156100501278936
4038000000.0 -0.8367261074403527 0.7188995737031846
4041000000.0 -0.8164104740721311 0.6309292365565943
4044000000.0 -0.8599455278586197 0.7542331377592694
4047000000.0 -0.8336383613784707 0.6577853410806964
4050000000.0 -0.7624569012835476 0.7259880059277384
4053000000.0 -0.6916907644423428 0.7510036745620536
4056000000.0 -0.6906665126265655 0.7604821408858037
4059000000.0 -0.6991412228241047 0.728280651109465
4062000000.0 -0.6119705870545693 0.8251401870558617
4066000000.0 -0.6097649879924574 0.7437103439572076
4069000000.0 -0.6654484167286795 0.8184735961908108
4072000000.0 -0.7250954661990137 0.7776278824869038
4075000000.0 -0.6842571601992201 0.8257658276138105
4078000000.0 -0.6197303241796833 0.843847824565382
4081000000.0 -0.6942434299515644 0.8643333595324314
4084000000.0 -0.5990025712572172 0.8818171624828337
4088000000.0 -0.5981238067733881 0.8671162316722544
4091000000.0 -0.6240857319606673 1.023143187743961
4094000000.0 -0.5597922198461607 0.9231757771081289
4097000000.0 -0.5172505041311051 0.8831087773386144
4100000000.0 -0.5058971637551096 0.9701004610000417
4103000000.0 -0.4991535252496254 0.9580826578760189
4106000000.0 -0.4883056623852824 0.9156295552403306
4109000000.0 -0.4402525246579428 0.9678985042917536
4112000000.0 -0.3950844438455918 1.003308715009937
4116000000.0 -0.45119081932382404 0.9406546645699334
4119000000.0 -0.3316408393699517 1.013055243192053
4122000000.0 -0.38139867902364766 1.0658202337200142
4125000000.0 -0.33415049441060213 1.0891133938014455
4128000000.0 -0.3322009336325268 0.9413889351471798
4131000000.0 -0.37790578950937437 1.0199730422420077
4134000000.0 -0.2899369849519283 1.0407364616975168
4138000000.0 -0.2616558053677657 0.9897416159866781
4141000000.0 -0.1951363200193437 0.9916680093450176
4144000000.0 -0.2309096001203636 1.0398365956404247
4147000000.0 -0.16064933993651692 0.9686505079512058
4150000000.0 -0.2694452519145192 1.0774108994449894
4153000000.0 -0.17543230654851422 1.0892370989506919
4156000000.0 -0.15818452056376486 1.0450940606625552
4159000000.0 -0.19536965102003434 1.0353578547298135
4162000000.0 -0.1603815906476106 1.0380503771068454
4166000000.0 -0.12899443684188477 0.9999726173507242
4169000000.0 -0.044471908582069286 1.0876059816372572
4172000000.0 -0.13244620221004055 1.0522635290909441
4175000000.0 -0.10584641579843451 1.0206985715014463
4178000000.0 -0.06263552305794315 1.0952884149657571
4181000000.0 -0.06567112560489799 1.1282427691959853
4184000000.0 -0.050939344345588056 1.0562681840642585
4188000000.0 -0.03538761910410185 1.035577577510002
4191000000.0 -0.08354988313322773 0.989701813753854
4194000000.0 0.04112564812009786 1.0302149454105578
4197000000.0 0.07211203234590324 1.0486505987781434
4200000000.0 0.06117878383986461 1.0018329282118028
4203000000.0 0.06849920062339115 0.9860982855399152
4206000000.0 0.07192393118224455 1.088419028613797
4209000000.0 0.06976151491710594 1.0474345258201698
4212000000.0 0.09627984748978999 1.0528163949045664
4216000000.0 0.15133884815551907 1.0116194724459464
4219000000.0 0.10068041328947902 1.0413086417264867
4222000000.0 0.1652921742005813 1.0605294965522472
4225000000.0 0.1617514951472614 1.0294076812167576
4228000000.0 0.15745147139083476 1.050090730583669
4231000000.0 0.1852382236968821 1.022422721988355
4234000000.0 0.14979023457214596 1.0302264958889775
4238000000.0 0.18399809517179178 1.0074540467159896
4241000000.0 0.19276878456939717 1.0626441450906305
4244000000.0 0.21099782281209764 1.0334123871486733
4247000000.0 0.22594851586869108 1.0826281192613643
4250000000.0 0.2710123454120932 1.0443709275878557
4253000000.0 0.2500231667791198 1.0007661284888179
4256000000.0 0.2667040556613303 0.9346363083128031
4259000000.0 0.27887199719280703 0.9912156723442738
4262000000.0 0.30382185255770977 1.0021720544156278
4266000000.0 0.29307647758657196 0.9582562791810066
4269000000.0 0.35010824945944025 1.0222074240548356
4272000000.0 0.36881181482331704 0.98228919701927
4275000000.0 0.35964834977211235 0.9725447300619146
4278000000.0 0.33347181097224743 0.9802815971085653
4281000000.0 0.3747176947170341 0.9601907538154579
4284000000.0 0.37922338622847745 0.9852817556967748
4288000000.0 0.4293192348173748 0.9572044731605092
4291000000.0 0.4172862065496113 0.948404533677717
4294000000.0 0.4397356571884301 0.9386660039287816
4297000000.0 0.4706170943112161 0.9245899470259508
4300000000.0 0.4875396304958865 0.9235840928796957
4303000000.0 0.46524116732832393 0.9307996633381851
4306000000.0 0.4847618718702293 0.9398067955715765
4309000000.0 0.5131463588503752 0.9019736199683251
4312000000.0 0.4860994723679848 0.9103588910388922
4316000000.0 0.4958263880067383 0.9067987027360149
4319000000.0 0.49234998300659366 0.8918878567876117
4322000000.0 0.5601664034144426 0.849454593000142
4325000000.0 0.5129133173126039 0.8619965627415841
4328000000.0 0.5735107159452709 0.9047798979207944
4331000000.0 0.5948547459705804 0.8449888266053546
4334000000.0 0.5885708560523655 0.8460922898835616
4338000000.0 0.5876366051464728 0.826173915400892
4341000000.0 0.5627368064748665 0.8650719774404121
4344000000.0 0.5779947285105985 0.8407058754332118
4347000000.0 0.6195258725845916 0.8448923248613058
4350000000.0 0.5933042815786637 0.798428111046884
4353000000.0 0.6442360320494678 0.804898322162156
4356000000.0 0.6445492892842558 0.8272140328406818
4359000000.0 0.6069759245264186 0.7738275208583121
4362000000.0 0.6305903135894679 0.7658846737344912
4366000000.0 0.6727239005006469 0.7840618316778102
4369000000.0 0.6907945678094943 0.7501704911132625
4372000000.0 0.7304514808694331 0.7430434867683453
4375000000.0 0.6757427956224664 0.7572806341756336
4378000000.0 0.7224413406312268 0.7501173901155964
4381000000.0 0.6929651817014633 0.7677418779353077
4384000000.0 0.7402618824450977 0.711627781531635
4388000000.0 0.7257165510367922 0.734967477108946
4391000000.0 0.7298120850139456 0.7156400670736013
4394000000.0 0.7255870970731751 0.7164250833418617
4397000000.0 0.7561932030797525 0.6969292433178156
4400000000.0 0.7715990012894689 0.6922725613284385
4403000000.0 0.753960631375883 0.6804841621022326
4406000000.0 0.8000394998775154 0.6270296988324221
4409000000.0 0.7792924276036568 0.6647920890352226
4412000000.0 0.7916011627569969 0.621404912929935
4416000000.0 0.8035166673003524 0.6086504456722609
4419000000.0 0.8152983189026887 0.6200502321913919
4422000000.0 0.8121805436305944 0.6042365543277519
4425000000.0 0.8165969094363371 0.6090559505916173
4428000000.0 0.8275782433672126 0.569675462471604
4431000000.0 0.8384374980713956 0.6169032103142104
4434000000.0 0.8425362125076071 0.6077823430902789
4438000000.0 0.8666415820612641 0.5859030052094163
4441000000.0 0.8545833966598984 0.5874602982661294
4444000000.0 0.8439415559097865 0.5435303390089702
4447000000.0 0.8692997735255431 0.5497717515993364
4450000000.0 0.8579462003216161 0.5308244578857293
4453000000.0 0.889469180784212 0.5389602331884501
4456000000.0 0.8664117682477503 0.48336052698703447
4459000000.0 0.8670294980213156 0.45749497450982046
4462000000.0 0.9330490654160866 0.534912653105371
4466000000.0 0.9296069545497322 0.49993723579179494
4469000000.0 0.8995928177247968 0.4886263000163576
4472000000.0 0.9414063795283873 0.45265161629534745
4475000000.0 0.9018825071731515 0.44693003305561263
4478000000.0 0.969858860652813 0.4494554580861949
4481000000.0 0.9129477694719367 0.4142205559624007
4484000000.0 0.9217835370124674 0.38924464392180746
4488000000.0 0.9124437893814249 0.4047779125701325
4491000000.0 0.9403795005765404 0.3802172941557869
4494000000.0 0.9350700378915325 0.37598666791697205
4497000000.0 0.9268089417431655 0.3864145335684096
4500000000.0 0.921210333924851 0.3859104224860167
4503000000.0 0.9582831183924867 0.36109750641303684
4506000000.0 0.9568123878539601 0.3490039482821324
4509000000.0 0.9589509186669798 0.31967069255077285
4512000000.0 0.9346094984829316 0.3142960795261718
4516000000.0 0.9632954660276781 0.33339562648802157
4519000000.0 0.929347527467364 0.32628005262947285
4522000000.0 0.9613091600761767 0.2977255664914563
4525000000.0 0.9481157801602831 0.3218872244166201
4528000000.0 1.0136634011804304 0.28497343938292896
4531000000.0 0.9787973781777375 0.2696137506395262
4534000000.0 0.9592331194935282 0.2435865007752488
4538000000.0 0.9893622110023965 0.23434346860304567
4541000000.0 0.9912440494895969 0.18297239182424258
4544000000.0 0.9726722622955339 0.2173369966246084
4547000000.0 0.9798414328469983 0.2208343033227753
4550000000.0 0.9912907137869136 0.16981075267827345
4553000000.0 0.9944350609890533 0.17345260397242382
4556000000.0 0.9679493549869578 0.14684777797884407
4559000000.0 1.0199023644726646 0.13365463197211203
4562000000.0 1.0192225742163512 0.16517007570031422
4566000000.0 1.0049230300749918 0.1365193714629529
4569000000.0 0.9720135354872467 0.133057046259602
4572000000.0 0.987569820578406 0.12694956737508406
4575000000.0 1.0171064323591112 0.07856005428294238
4578000000.0 1.0113039839975684 0.11627745293219646
4581000000.0 1.032666603874441 0.05099697320328377
4584000000.0 0.9713750736674515 0.07016774969100326
4588000000.0 1.0102661054463513 0.08786121044008223
4591000000.0 0.988377420325449 0.08127972252050047
4594000000.0 1.0013525242534893 0.03246042068297868
4597000000.0 1.0429821517700661 0.015801991937595437
4600000000.0 0.9820301817042583 -0.03630954964595026
4603000000.0 1.0428780886674132 0.003768997859108324
4606000000.0 0.9985886975882118 -0.0007423545486260359
4609000000.0 1.0032137614562973 -0.02726407965580411
4612000000.0 1.0421784835661374 -0.017593704607626263
4616000000.0 1.0010027145125016 -0.04922404924629288
4619000000.0 1.0224715249289065 -0.026850355120651433
4622000000.0 0.9813516005880638 -0.056707512149586706
4625000000.0 0.9544343896887594 -0.06930896513147974
4628000000.0 0.9558449501551681 -0.055123097594915446
4631000000.0 0.9878143476174788 -0.13458625167773464
4634000000.0 1.00567402939967 -0.09309793565554955
4638000000.0 0.997127936047958 -0.11941153042280099
4641000000.0 1.0176380346096874 -0.10372249845206957
4644000000.0 1.0042124305809064 -0.13898616437502545
4647000000.0 0.9976892580186691 -0.13452727788334554
4650000000.0 1.0006425969989532 -0.1910881116745271
4653000000.0 1.013902457303798 -0.1514872833994661
4656000000.0 0.9829474146182808 -0.19912185208161515
4659000000.0 0.9733373195186282 -0.18036335091980424
4662000000.0 0.9945899604342995 -0.18578374997274621
4666000000.0 0.9845488531182042 -0.19289488677596978
4669000000.0 0.9731381267150656 -0.19012084733387874
4672000000.0 0.966275310699867 -0.2513371162152911
4675000000.0 0.9549815943061895 -0.2621893298158569
4678000000.0 0.979051832859013 -0.23416399814325922
4681000000.0 0.9773198271477126 -0.29227219523271486
4684000000.0 0.9263599454390332 -0.27287778007993907
4688000000.0 0.9428974612394263 -0.2572297278380419
4691000000.0 0.9258858607078646 -0.2736240218094266
4694000000.0 0.9702040143865216 -0.3229970144341533
4697000000.0 0.9732861422826082 -0.2936864287213957
4700000000.0 0.9857396476288912 -0.29327544670327776
4703000000.0 0.9609973606905278 -0.3674593621213559
4706000000.0 0.9458067656217906 -0.31356269120633296
4709000000.0 0.9345455123781848 -0.37270345954425055
4712000000.0 0.9186289486702106 -0.37285075435529447
4716000000.0 0.9362069265197163 -0.36532343700879755
4719000000.0 0.9485616273129134 -0.40953962873450794
4722000000.0 0.9350173407075149 -0.39904147596986783
4725000000.0 0.9051492895555778 -0.42530783640200265
4728000000.0 0.9030411146974757 -0.4047366996903348
4731000000.0 0.9344632230794103 -0.4077618390191781
4734000000.0 0.930498791313869 -0.39929377297941426
4738000000.0 0.930081135246366 -0.44959482373797377
4741000000.0 0.9144926357470942 -0.4510646111632816
4744000000.0 0.8840022064265319 -0.46635026463998214
4747000000.0 0.8833151074610366 -0.46975502086173615
4750000000.0 0.8612967023478906 -0.4817021556076324
4753000000.0 0.8952050427927637 -0.5033117221554704
4756000000.0 0.8483342710488596 -0.4905094373415214
4759000000.0 0.8533673910593065 -0.4832964083429487
4762000000.0 0.8568079187681377 -0.5329011578535896
4766000000.0 0.849185086688812 -0.5413224622540624
4769000000.0 0.8980807870749771 -0.5506301689181776
4772000000.0 0.8508335433678732 -0.5452482355860454
4775000000.0 0.8569732627163011 -0.5736538111702516
4778000000.0 0.8475882463817055 -0.5416904883359827
4781000000.0 0.8405634565270339 -0.5515213380952761
4784000000.0 0.8551867366007658 -0.5602780223111966
4788000000.0 0.8736187971848935 -0.5892714145437324
4791000000.0 0.8082567102947923 -0.5971291540249153
4794000000.0 0.8328460938398505 -0.6074007885628032
4797000000.0 0.827805839360255 -0.6311804775095916
4800000000.0 0.7781494530628761 -0.6212402398783364
4803000000.0 0.788291634663091 -0.6087509736439378
4806000000.0 0.8137479510731972 -0.6341404477006939
4809000000.0 0.7771694254822673 -0.6644853922576103
4812000000.0 0.7582139321965002 -0.6727463423171461
4816000000.0 0.7741470536598873 -0.6567748634225615
4819000000.0 0.7966382069296463 -0.6634344970735008
4822000000.0 0.7679745940403898 -0.6789271634950731
4825000000.0 0.7589347538578191 -0.6761383278173877
4828000000.0 0.750244948038107 -0.6874661971486886
4831000000.0 0.7283577041195085 -0.7325778451086424
4834000000.0 0.7512572911547739 -0.7066013214026002
4838000000.0 0.7386067881278816 -0.7373421368218616
4841000000.0 0.7200864960063923 -0.7229957444627739
4844000000.0 0.7417443982456982 -0.7110826375352038
4847000000.0 0.6871485684315831 -0.7005707777741412
4850000000.0 0.708468115441625 -0.7389521441417681
4853000000.0 0.7041131763865525 -0.7425125568099664
4856000000.0 0.6685174499414115 -0.7546312477059842
4859000000.0 0.6924651131867929 -0.7556018344930318
4862000000.0 0.6679923519427793 -0.7435766422761771
4866000000.0 0.6669375846366993 -0.7920736497406081
4869000000.0 0.6547384625929495 -0.77789337829789
4872000000.0 0.6437455231009713 -0.8011170420277314
4875000000.0 0.6861301188320614 -0.8034858426917767
4878000000.0 0.6340788538488201 -0.8192429181347333
4881000000.0 0.6333713877011341 -0.8627823356589154
4884000000.0 0.6256002112039428 -0.8005982722372382
4888000000.0 0.6340283415080555 -0.8072707487016204
4891000000.0 0.6240190878364913 -0.8404284281600036
4894000000.0 0.5821536613124887 -0.8373237522846452
4897000000.0 0.5989914352299492 -0.8264403367563751
4900000000.0 0.5806346410771218 -0.8440562039645416
4903000000.0 0.5726881352055363 -0.8628781957228946
4906000000.0 0.5510050745331543 -0.8508007314006909
4909000000.0 0.5540835011214111 -0.8531217367805918
4912000000.0 0.541533085962473 -0.9115648907173498
4916000000.0 0.5748729790895757 -0.87385305009296
4919000000.0 0.5687562990670982 -0.8945954628492396
4922000000.0 0.5376913300427578 -0.8694710398476114
4925000000.0 0.5117501659801076 -0.8787322690793449
4928000000.0 0.529482693390565 -0.869480309516173
4931000000.0 0.5424387699160264 -0.896769239169299
4934000000.0 0.4607183885876991 -0.8780344573062531
4938000000.0 0.4271521098244653 -0.8774333939761338
4941000000.0 0.5004523355983964 -0.8893942205308095
4944000000.0 0.48301179993190213 -0.8459690531736654
4947000000.0 0.4588078723728245 -0.9191645308987505
4950000000.0 0.42833712255261897 -0.9295165257030219
4953000000.0 0.4196211482864103 -0.9573816612561343
4956000000.0 0.4141390419120583 -0.9216588309678
4959000000.0 0.39655774519064046 -0.9266283457336979
4962000000.0 0.4108689354320624 -0.9721984450959621
4966000000.0 0.4079597696220179 -0.9583403244599449
4969000000.0 0.4171691858859137 -0.9108689566234928
4972000000.0 0.37814651137482636 -0.9667562908803717
4975000000.0 0.3999981220317385 -0.9245483080533293
4978000000.0 0.3829719964966143 -0.9492433738831333
4981000000.0 0.3474002267903003 -0.9703601982689429
4984000000.0 0.35807523329478574 -0.9767601398715614
4988000000.0 0.3379266895462598 -0.9410204633558976
4991000000.0 0.3691330928655656 -1.0044242777792738
4994000000.0 0.35195816833122906 -0.9691504599288209
4997000000.0 0.30651564105060625 -0.9925702049293996
5000000000.0 0.31117732906592926 -1.0041170002477102
5003000000.0 0.31306874525480527 -1.0041298034035082
5006000000.0 0.3046388791175728 -1.0440776155271276
5009000000.0 0.2816459629174421 -1.0099566617989346
5012000000.0 0.2475693620889262 -0.9875617238294829
5016000000.0 0.3054120687215883 -1.0031393900525887
5019000000.0 0.2629985621634995 -0.9586513962163534
5022000000.0 0.2558140325176459 -1.0041734462364071
5025000000.0 0.2706397745199362 -1.0702924058256085
5028000000.0 0.21186894116730934 -1.0241768999196743
5031000000.0 0.21810420135153563 -1.0024436516398532
5034000000.0 0.19484106633431772 -1.050432906238331
5038000000.0 0.17365416390677865 -0.9895193030024223
5041000000.0 0.2299163194278346 -0.9891030618205093
5044000000.0 0.2234826019859476 -0.990847552164258
5047000000.0 0.17351004396598682 -1.0302275884541143
5050000000.0 0.2699498416280757 -0.9683261414524431
5053000000.0 0.1800129544240723 -1.0540266161098883
5056000000.0 0.18191481042700525 -1.0243162345326966
5059000000.0 0.23228857633336697 -1.0069995871105633
5062000000.0 0.10353595468161078 -1.0483002205518464
5066000000.0 0.1930082825570087 -0.9895087763424459
5069000000.0 0.12377500481885681 -1.0160383930487762
5072000000.0 0.08212917585579227 -0.9926575438234964
5075000000.0 0.12293447132278693 -1.0388565136844046
5078000000.0 0.029722464372584544 -1.0429536755542461
5081000000.0 0.056868885343355796 -1.0082781498239826
5084000000.0 0.06889385344906668 -1.103949016451115
5088000000.0 0.08528800361524655 -1.0116292852365862
5091000000.0 0.039345622679225825 -1.058254981632803
5094000000.0 0.06367719690901974 -1.0577486811601187
5097000000.0 0.06830545600756935 -1.0633314357612882
5100000000.0 0.038899004864227954 -1.0121733960391888
5103000000.0 0.04764339824459271 -1.016192406720997
5106000000.0 0.02720274126982434 -1.1181609840588376
5109000000.0 0.05348373250132285 -0.9863848827627326
5112000000.0 0.04690325218085384 -1.0132288180673825
5116000000.0 -0.028772619667952345 -1.028774879381659
5119000000.0 -0.005786952236202758 -1.0456011222850599
5122000000.0 -0.004051865824571386 -1.0277542438479867
5125000000.0 -0.029183825316903653 -1.0124764347682302
5128000000.0 -0.07760202212004583 -1.005293863623222
5131000000.0 -0.07739815692690799 -1.00025984854582
5134000000.0 -0.059159809406133176 -1.0454028383576357
5138000000.0 -0.06379248800125098 -1.0371187604305985
5141000000.0 -0.057824953443610445 -1.016656407364202
5144000000.0 -0.025306305469916773 -1.1275406727154134
5147000000.0 -0.10554657332633338 -1.0298489216808735
5150000000.0 -0.08653997296999284 -1.0273809529101352
5153000000.0 -0.09236222658647117 -1.0298826750717753
5156000000.0 -0.10900955627109926 -1.0764153121874631
5159000000.0 -0.11441764003398766 -1.0754665233535625
5162000000.0 -0.13925968581156953 -1.0235095874227396
5166000000.0 -0.17738088737502422 -1.0931345405278927
5169000000.0 -0.15794878796591666 -1.024315823862553
5172000000.0 -0.15671103078008092 -0.9747074278302478
5175000000.0 -0.1425839164259879 -1.063285577823957
5178000000.0 -0.18468589761547177 -1.0126324982831156
5181000000.0 -0.15659706371397242 -1.0721541122240323
5184000000.0 -0.24553754644360354 -1.030501130207166
5188000000.0 -0.16963084674361528 -1.0022009712268485
5191000000.0 -0.24889771151359238 -1.0173033739721937
