! Created with skrf 1.8.0 (http://scikit-rf.org).
# Hz S RI R 50.0 
!freq ReS11 ImS11
4000000000.0 0.8822543768526079 0.5531224579864493
4003000000.0 0.9183231353700307 0.5056517239169181
4006000000.0 0.883902010371704 0.4886626968769525
4009000000.0 0.9083116352723059 0.5169718136079119
4012000000.0 0.9221206776174156 0.5746241666947078
4016000000.0 0.9553874543618217 0.47610079286494983
4019000000.0 0.8694425060880455 0.4943825505696554
4022000000.0 0.8728394769125571 0.5472817260592348
4025000000.0 0.9607015104771587 0.45779574980756443
4028000000.0 0.9296454624145721 0.402765261402847
4031000000.0 0.9097210485505279 0.43046147519504974
4034000000.0 0.9634787064389245 0.41290315833017854
4038000000.0 0.9578810663432771 0.4038529982732848
4041000000.0 0.9300939301245732 0.40231689080986266
4044000000.0 0.975178414031284 0.421815649885522
4047000000.0 1.025112035584314 0.4479579992553533
4050000000.0 0.9840380983664724 0.3581460038016332
4053000000.0 0.9517113722932529 0.3379075790785044
4056000000.0 0.9688711225054312 0.378541264802819
4059000000.0 0.9697047471468898 0.35994286171385576
4062000000.0 0.961036116744264 0.35262149377038293
4066000000.0 0.9428126657521356 0.3340636480729988
4069000000.0 1.0240411139527323 0.298209383109294
4072000000.0 0.9953360207867986 0.3117574060912735
4075000000.0 1.0199830332760935 0.32856632632658883
4078000000.0 1.0001715264661035 0.2567480305312325
4081000000.0 1.0006080399885622 0.3058581728294535
4084000000.0 1.028820564626544 0.2409888985686502
4088000000.0 0.9485014693241597 0.2879607766066429
4091000000.0 1.0068246345515914 0.2780617965512496
4094000000.0 0.999016689046469 0.2301317613889945
4097000000.0 1.0028489394167939 0.21844789727828512
4100000000.0 0.9784259831954045 0.22160826670542316
4103000000.0 1.0051808282661305 0.23442328702599796
4106000000.0 1.0308918635017088 0.192987665326098
4109000000.0 1.0125899579738098 0.19190169732829682
4112000000.0 0.977652456286197 0.16141935921669315
4116000000.0 1.0113759140201712 0.1912325681512136
4119000000.0 1.0163778902540912 0.13832825991848924
4122000000.0 0.9978073571811641 0.12012825505600228
4125000000.0 1.0093695478130464 0.12373437748884314
4128000000.0 1.0123764895323002 0.11832651064841415
4131000000.0 1.0075799318467404 0.10743345520412462
4134000000.0 1.0171887452064852 0.12105694192052907
4138000000.0 0.9910371223024281 0.07473706249916906
4141000000.0 1.0286931030004645 0.08884076745232455
4144000000.0 1.0285956341921048 0.07961627320527465
4147000000.0 1.0337182902864162 0.049525774724352156
4150000000.0 1.026275136484085 0.07382764299941941
4153000000.0 1.0076393642301515 0.05227973047313156
4156000000.0 1.031400710148085 0.055606241078180685
4159000000.0 0.9846919988027247 0.017431528997694345
4162000000.0 1.0132266330264486 0.0022878673326069965
4166000000.0 1.042067042538978 -0.021637582967687752
4169000000.0 1.0153843964578178 -0.03560276502434234
4172000000.0 1.0290439939852374 -0.030106879553353505
4175000000.0 1.0532358889592683 -0.026373585624659357
4178000000.0 1.0284873992168775 -0.044308911771679005
4181000000.0 0.9894089863473616 -0.09097261663537234
4184000000.0 0.9924718257880385 -0.055586153353837015
4188000000.0 1.0009327027665262 -0.08713886652097183
4191000000.0 1.0007784107841766 -0.07863512866656686
4194000000.0 1.0123077529917028 -0.11113325766849774
4197000000.0 1.036132737284487 -0.10697829906884293
4200000000.0 1.0194659847605978 -0.10725802254719174
4203000000.0 1.0541327580803836 -0.1280196576092215
4206000000.0 1.0222262334716716 -0.13480959508701507
4209000000.0 0.9905883866787673 -0.1465051266377168
4212000000.0 0.9982685547860247 -0.20502921224441042
4216000000.0 1.0340183120822957 -0.16976301157031545
4219000000.0 1.0160455621995796 -0.18735813007358731
4222000000.0 0.9797057820330124 -0.20409249557216122
4225000000.0 0.9904246582440344 -0.21096995966028756
4228000000.0 0.9756920336506156 -0.22728026393679637
4231000000.0 0.9961848787995286 -0.245058937087794
4234000000.0 0.9828140114661811 -0.2850707712208003
4238000000.0 0.9697648641575481 -0.2816002349488635
4241000000.0 0.9367386723273121 -0.3018581295637247
4244000000.0 0.9658584321159787 -0.2939356493062085
4247000000.0 0.9534642443781446 -0.3074356430705078
4250000000.0 0.9239735235424149 -0.2960920127316924
4253000000.0 0.9179755416147684 -0.32310453118086346
4256000000.0 1.0020375583724337 -0.36395296715192643
4259000000.0 0.9204258709795753 -0.3600030297766434
4262000000.0 0.9292352014388641 -0.3865792675415155
4266000000.0 0.9419740039083244 -0.4028318022640162
4269000000.0 0.9226477654268814 -0.3812048873731476
4272000000.0 0.9411852578487121 -0.3711260355057905
4275000000.0 0.9289556416972273 -0.4109137616832894
4278000000.0 0.9578773708821714 -0.4340663022970434
4281000000.0 0.9173940878327316 -0.4290633654647076
4284000000.0 0.9041378761903281 -0.4853472752495853
4288000000.0 0.9163526694948655 -0.41757609356825526
4291000000.0 0.8733955180223444 -0.4594358991541606
4294000000.0 0.8846595934534204 -0.48704235132581136
4297000000.0 0.894600950636219 -0.4428885491285222
4300000000.0 0.845442397138201 -0.472132195716079
4303000000.0 0.8675472383309635 -0.49199593798122976
4306000000.0 0.8860617503211901 -0.4686693228329134
4309000000.0 0.873243176789426 -0.5098453479422592
4312000000.0 0.8841258613058312 -0.513430317725982
4316000000.0 0.8636337298519633 -0.5304960268334814
4319000000.0 0.8270834897291995 -0.5399735106224434
4322000000.0 0.8053955798701271 -0.5871288566196183
4325000000.0 0.8134330589614255 -0.5739832907468823
4328000000.0 0.8202397533691608 -0.5789444762863921
4331000000.0 0.8062915398420901 -0.6311910113629198
4334000000.0 0.795694084112623 -0.6261587055613858
4338000000.0 0.8162894591216328 -0.6040604288924598
4341000000.0 0.803644214535816 -0.6351721639274196
4344000000.0 0.7946541159841998 -0.6493484544015785
4347000000.0 0.7673669313264263 -0.6942370717343698
4350000000.0 0.7169631442959673 -0.6618144476759478
4353000000.0 0.7484428636145433 -0.6608677964633576
4356000000.0 0.7030582610390211 -0.6987928028101698
4359000000.0 0.7070898078958697 -0.6787922620327351
4362000000.0 0.7095619299029903 -0.7383134031928689
4366000000.0 0.732172672419602 -0.7445363762349269
4369000000.0 0.6776455173309918 -0.7049970530412323
4372000000.0 0.655083730227199 -0.7515898151596319
4375000000.0 0.6753231183774899 -0.7239411911676604
4378000000.0 0.6497639867825148 -0.7494632839884291
4381000000.0 0.6326591838349649 -0.7450326651245528
4384000000.0 0.6804723726045139 -0.8105760662544272
4388000000.0 0.6262451848362882 -0.7785278723346014
4391000000.0 0.6222515485957612 -0.7899221455151733
4394000000.0 0.6089894120472944 -0.7987020728630986
4397000000.0 0.6048800693907563 -0.8220686496008851
4400000000.0 0.5815324594997526 -0.8351425275207021
4403000000.0 0.5944909982418102 -0.8322031145965104
4406000000.0 0.5624235797374268 -0.8528510336493396
4409000000.0 0.5573036237757936 -0.8673209656967358
4412000000.0 0.503671217627881 -0.8758670163587621
4416000000.0 0.5257047341437663 -0.841018006640403
4419000000.0 0.5176042085907518 -0.8741108918897087
4422000000.0 0.5167885500798506 -0.8745005835212056
4425000000.0 0.5110746106077446 -0.8749922023423976
4428000000.0 0.4806081730555301 -0.908263212773874
4431000000.0 0.47828996057718254 -0.9081734870455179
4434000000.0 0.43542670254481375 -0.9008796581906848
4438000000.0 0.4374407134678734 -0.9228121964627831
4441000000.0 0.418658812311263 -0.9198153726351121
4444000000.0 0.3996873467771451 -0.9158625265297508
4447000000.0 0.4057056322625474 -0.9296316066785503
4450000000.0 0.37470935595955523 -0.936321338286041
4453000000.0 0.38348576299216075 -0.9456907572303623
4456000000.0 0.33958231863552435 -0.9571925456625855
4459000000.0 0.32194889029792506 -0.9618172614652712
4462000000.0 0.3050115508677752 -1.0059301181855187
4466000000.0 0.3191736177077409 -1.0159712508911525
4469000000.0 0.28519579996703975 -0.9406673994269548
4472000000.0 0.2742254505875215 -0.9712119282164295
4475000000.0 0.264936596936011 -0.9689882067701778
4478000000.0 0.22580225946322308 -0.9904895623202388
4481000000.0 0.22695405264748503 -0.9917686040113761
4484000000.0 0.19370144002445028 -1.0133455327677396
4488000000.0 0.1845780666711208 -1.0028275648932479
4491000000.0 0.1828043767608573 -1.0124899491790664
4494000000.0 0.18505239556766817 -1.016890053266566
4497000000.0 0.1643980345246228 -1.0081718757252618
4500000000.0 0.10768803280848085 -1.0460184899503369
4503000000.0 0.11414141111937293 -1.0289472908057284
4506000000.0 0.06264083800596709 -1.030549239944194
4509000000.0 0.06601551442179965 -0.9906820938513292
4512000000.0 0.07855062987994879 -0.9780740285534503
4516000000.0 0.021470703005448455 -1.0280560993377568
4519000000.0 0.01827448158866113 -0.9998995195573896
4522000000.0 0.018447532409001544 -1.0335225667882155
4525000000.0 -0.014568226251080396 -1.0608062026371148
4528000000.0 -0.005733332643925504 -1.012150603341766
4531000000.0 -0.05414681993938525 -1.0125304163900168
4534000000.0 -0.08547252334290811 -1.0283699835487772
4538000000.0 -0.08051962449798461 -1.0220077424468934
4541000000.0 -0.1189426000391976 -1.0043017950579838
4544000000.0 -0.13506179427160725 -1.0160482978565826
4547000000.0 -0.13934166182270888 -1.0118892053640292
4550000000.0 -0.1403892915948763 -1.0280347494981719
4553000000.0 -0.19076057994747364 -0.9993655161961986
4556000000.0 -0.1801185742480143 -1.0353922166511147
4559000000.0 -0.17801046552499605 -1.0115839628989018
4562000000.0 -0.23396585823243377 -0.9868768191528502
4566000000.0 -0.24299031581262914 -1.0060339471481203
4569000000.0 -0.29967452784329285 -1.0266289147231633
4572000000.0 -0.271255738188945 -0.989899595167053
4575000000.0 -0.2770930953218991 -0.9763621092566543
4578000000.0 -0.32977400486850905 -0.9807915368328325
4581000000.0 -0.3421130875812861 -0.9632741389107391
4584000000.0 -0.35319781545853635 -0.9912322149013371
4588000000.0 -0.37642941356431986 -0.9506521005097651
4591000000.0 -0.43580112180451597 -0.946918344643174
4594000000.0 -0.4027975188707027 -0.96721807347943
4597000000.0 -0.452232264590063 -0.9218274441790187
4600000000.0 -0.438767882734336 -0.9693639486629031
4603000000.0 -0.4696491775509305 -0.8815012367939269
4606000000.0 -0.4720758966000876 -0.9409863984675395
4609000000.0 -0.4690067329455053 -0.9039361758277681
4612000000.0 -0.5011602928635704 -0.8442768627044684
4616000000.0 -0.5202438066370709 -0.8655324565642004
4619000000.0 -0.571918847244256 -0.8435583366666296
4622000000.0 -0.6215009884020903 -0.800553620329936
4625000000.0 -0.6483935540244615 -0.8642591904897589
4628000000.0 -0.6997694994681353 -0.9254040076692432
4631000000.0 -0.6407351589023877 -0.8645921551114067
4634000000.0 -0.6720227087086821 -0.7880267907139353
4638000000.0 -0.6729117062050778 -0.8239870231597296
4641000000.0 -0.705765153262779 -0.7416987589931635
4644000000.0 -0.6756680802772789 -0.7412725913108195
4647000000.0 -0.6916974500539643 -0.7478458974806419
4650000000.0 -0.6877371201320519 -0.7296133522233575
4653000000.0 -0.7223683170487122 -0.7092644615461045
4656000000.0 -0.7691930702155414 -0.7484605726662359
4659000000.0 -0.7880139714128449 -0.6702836715805743
4662000000.0 -0.8336863060086974 -0.676057437431602
4666000000.0 -0.8764157393095129 -0.6397521886693665
4669000000.0 -0.8763787885796577 -0.5934260467359689
4672000000.0 -0.91350340934668 -0.6762113880319438
4675000000.0 -0.9112995023323205 -0.5958693596992897
4678000000.0 -0.8447381720470719 -0.5432945502785846
4681000000.0 -0.8446916380280696 -0.5293765267646168
4684000000.0 -0.9526840572668702 -0.5497685605653436
4688000000.0 -0.9132439421463443 -0.48272519976655515
4691000000.0 -0.9565290375334619 -0.5356916339131128
4694000000.0 -0.906458644506826 -0.44225751221565485
4697000000.0 -0.9275381120109703 -0.4058973265742837
4700000000.0 -0.9475671793007976 -0.4271278923742211
4703000000.0 -0.8381640692726242 -0.3972189958101499
4706000000.0 -0.963244477052325 -0.34958933036454115
4709000000.0 -0.9863658413771327 -0.3367267029527019
4712000000.0 -0.9888136742809941 -0.36204481593150206
4716000000.0 -1.0478470206019561 -0.29759878649786886
4719000000.0 -0.9565617025141482 -0.33648630672430696
4722000000.0 -1.0443404278944715 -0.22594965685335666
4725000000.0 -1.0033570537646415 -0.22336116738293676
4728000000.0 -1.077954105847809 -0.16352526254990576
4731000000.0 -1.0892953022990488 -0.15561109698008868
4734000000.0 -1.010805325315558 -0.14755150209548962
4738000000.0 -1.0992148367192442 -0.14362221596660588
4741000000.0 -1.0542236070259732 -0.033001010190884694
4744000000.0 -1.049725180598611 -0.03567393946528
4747000000.0 -1.0114546545354597 -0.056389954921544215
4750000000.0 -1.08011624988378 -0.00794897710709594
4753000000.0 -1.059994356892444 0.005414571966738307
4756000000.0 -1.038958153304078 0.08130371750329068
4759000000.0 -1.0728044236342662 0.06487803534256256
4762000000.0 -1.074843958548236 0.14290587234697752
4766000000.0 -1.0169162196858639 0.16601188009466322
4769000000.0 -1.010458520094042 0.1735091716935317
4772000000.0 -1.008675738075456 0.19091368662472108
4775000000.0 -1.0512889574917361 0.2682769987601717
4778000000.0 -1.0020446979013382 0.3297777145164167
4781000000.0 -1.0058290250518618 0.2997398478462945
4784000000.0 -1.0182657433835796 0.3562487025716082
4788000000.0 -0.9710766010269055 0.3823953777401694
4791000000.0 -0.9704517133052944 0.3759618026191878
4794000000.0 -0.927838998003572 0.40867420760852446
4797000000.0 -0.9348918028377102 0.4379029365668983
4800000000.0 -0.9038360964604594 0.49705816456081053
4803000000.0 -0.9046954617759451 0.5267001537021506
4806000000.0 -0.8967120911795354 0.5410289985465587
4809000000.0 -0.8787729536277531 0.5803466966247672
4812000000.0 -0.8627062846852023 0.5935797239902482
4816000000.0 -0.820907068186721 0.6333248887567033
4819000000.0 -0.7876173954344008 0.675742708401952
4822000000.0 -0.7749097374064152 0.6606694830670518
4825000000.0 -0.737132239567343 0.7197084141456928
4828000000.0 -0.7089237139109565 0.7594903846618254
4831000000.0 -0.7320634898777847 0.6982311577128875
4834000000.0 -0.667989645803148 0.7940064003260259
4838000000.0 -0.6298376554718318 0.8143667127458754
4841000000.0 -0.627469641094262 0.8384319243617104
4844000000.0 -0.601379091499296 0.8738943771433987
4847000000.0 -0.5842176849894964 0.8948520330158284
4850000000.0 -0.5320245879124188 0.8751222664398748
4853000000.0 -0.46007296272357057 0.9162937571213012
4856000000.0 -0.5101471673688527 0.8940499663403237
4859000000.0 -0.4072483699179485 0.8949461340154042
4862000000.0 -0.4523487968704006 0.9792970977569057
4866000000.0 -0.39470207071068203 0.9740082618776845
4869000000.0 -0.363427735376639 0.9586105773313117
4872000000.0 -0.30634497439827924 0.8990448607903152
4875000000.0 -0.23198019606377335 1.0054336433183522
4878000000.0 -0.25093858202300884 0.97774385320545
4881000000.0 -0.23071601106309864 0.9148370219719955
4884000000.0 -0.191753739493232 0.9926566751179711
4888000000.0 -0.09630387975617423 1.0362235225199767
4891000000.0 -0.02781902348733304 0.9618907398419295
4894000000.0 -0.07882436615404192 1.0240993984239826
4897000000.0 0.024705073354234428 1.0114343494698566
4900000000.0 0.0207513755341486 1.014741590748299
4903000000.0 0.07629784140301787 1.0165838624618555
4906000000.0 0.023675548877914468 1.0140444152277288
4909000000.0 0.12882052745755754 1.0333266349904524
4912000000.0 0.19870474101002567 0.9294082727731392
4916000000.0 0.2350530136757245 0.967413165149154
4919000000.0 0.25972439103843326 0.9124870561187516
4922000000.0 0.30938147682652506 0.9666188778275036
4925000000.0 0.2667075930384932 0.9358605612428049
4928000000.0 0.3959140145568477 0.9704712970036131
4931000000.0 0.3825121890521046 0.9483828270378698
4934000000.0 0.40534822505141005 0.9370864694984643
4938000000.0 0.3984396825700823 0.9466948258826859
4941000000.0 0.47385334513631544 0.8790590192184234
4944000000.0 0.5479829582960734 0.9361908959550682
4947000000.0 0.5283884733461395 0.9090605069794818
4950000000.0 0.5521618780985867 0.894526644288152
4953000000.0 0.5291590583316095 0.8121630474808127
4956000000.0 0.5693616829874262 0.855150086672116
4959000000.0 0.6139845711992874 0.8292567145695497
4962000000.0 0.6449418024754675 0.7403442814567509
4966000000.0 0.6706210096543174 0.7264265064456474
4969000000.0 0.6838248779332295 0.694758185292999
4972000000.0 0.6996672241220798 0.6902205758930892
4975000000.0 0.7843699537444312 0.6429993193748136
4978000000.0 0.7454133329278341 0.6826325754752696
4981000000.0 0.7276861076404432 0.6224802421383373
4984000000.0 0.8478499798588714 0.6160596298511228
4988000000.0 0.8308654378771763 0.554722731495538
4991000000.0 0.8545065984528741 0.5359207069589969
4994000000.0 0.8320386553321174 0.5082900257738351
4997000000.0 0.8536232482753681 0.523828095370953
5000000000.0 0.875732050628474 0.45641287792494534
5003000000.0 0.8797520767068698 0.42518275455049304
5006000000.0 0.9017218837137361 0.3956248062669478
5009000000.0 0.9488180870446786 0.3638747967125185
5012000000.0 0.9453270586029239 0.3586375866888037
5016000000.0 0.9628518516230946 0.33127590080453306
5019000000.0 0.9574619446904762 0.2971360385602053
5022000000.0 0.9663620384395696 0.27951541478643843
5025000000.0 0.9720218022101839 0.26377383385792064
5028000000.0 0.9867431501354212 0.19426320171649547
5031000000.0 0.9858256447668945 0.1857265679696226
5034000000.0 1.0196269414122083 0.17006691839772456
5038000000.0 0.9945017313170391 0.12849650802300208
5041000000.0 0.9972060435716026 0.1614715369333066
5044000000.0 0.9638950383165208 0.12134916967024123
5047000000.0 1.0109209744250358 0.07723219759634414
5050000000.0 1.014813966821941 0.06501887755460155
5053000000.0 0.9849489550597919 0.011229923929045496
5056000000.0 0.986425302839264 0.007349284657557353
5059000000.0 1.0172012056423683 -0.0140268434071667
5062000000.0 1.0130730909064254 -0.050374090398600746
5066000000.0 1.002103756135281 -0.055755991737627075
5069000000.0 0.9886300331307232 -0.09677820299188669
5072000000.0 1.0047512026445466 -0.11686383325312544
5075000000.0 1.0121375110393263 -0.18039571995473708
5078000000.0 1.0092301203630965 -0.19774436289777536
5081000000.0 0.9644165254376671 -0.20136630988855456
5084000000.0 1.004148040916503 -0.223741236441856
5088000000.0 0.9802416880466539 -0.24332567987355214
5091000000.0 0.9782252082365364 -0.3117814989113845
5094000000.0 0.9751613026111677 -0.2817803187229555
5097000000.0 1.0117670789189537 -0.3341760953104299
5100000000.0 0.9540042871077975 -0.32555535078111864
5103000000.0 0.9564014747019677 -0.33323885184822
5106000000.0 0.9915842542596464 -0.3624504867760555
5109000000.0 0.9316568687632437 -0.3752438606317311
5112000000.0 0.9325664854092414 -0.3832466884270061
5116000000.0 0.8652709762491771 -0.392606416180856
5119000000.0 0.939409406349379 -0.4341564870259175
5122000000.0 0.9062038603991481 -0.47125870730060077
5125000000.0 0.8824211676317641 -0.4763370372637754
5128000000.0 0.8646574389243126 -0.5436002904847592
5131000000.0 0.8454002546985087 -0.5162415788474849
5134000000.0 0.8714631511356979 -0.5389108525040537
5138000000.0 0.8646935266689976 -0.5920483249564735
5141000000.0 0.87497347825286 -0.5532992549846043
5144000000.0 0.8831201023037295 -0.5934570677909934
5147000000.0 0.80195280611072 -0.6061664971484646
5150000000.0 0.8303917341708892 -0.6053642716117579
5153000000.0 0.7864878618557789 -0.6173260980877289
5156000000.0 0.8194411503245224 -0.6542140491542723
5159000000.0 0.7855844918041686 -0.6777767844793228
5162000000.0 0.7232012324044983 -0.6375326820087586
5166000000.0 0.7213531010117497 -0.8068474405625831
5169000000.0 0.7680693928555703 -0.744811947084168
5172000000.0 0.6891021050920403 -0.699511787121714
5175000000.0 0.7580358641230878 -0.7383453339321118
5178000000.0 0.6730999278628014 -0.7517583503987421
5181000000.0 0.7401120982468532 -0.7344180489956045
5184000000.0 0.6565466989984808 -0.8020732305544027
5188000000.0 0.6715741066922175 -0.7121651990434951
5191000000.0 0.6686817532539425 -0.8239873148346386
