! Created with skrf 1.8.0 (http://scikit-rf.org).
# Hz S RI R 50.0 
!freq ReS11 ImS11
4000000000.0 0.6028338381457353 0.8240135840058618
4003000000.0 0.7061685244687379 0.8375244882729083
4006000000.0 0.7174568385427094 0.7547432898645953
4009000000.0 0.701086521132477 0.7893831160469712
4012000000.0 0.6652888269102162 0.8253139557051635
4016000000.0 0.7205537867656145 0.7468877818081749
4019000000.0 0.6722794279902202 0.7394416336751486
4022000000.0 0.5728288201754245 0.8445606239807831
4025000000.0 0.7712240287516158 0.7501047863108332
4028000000.0 0.7850886170024213 0.7442444999387983
4031000000.0 0.652987690291127 0.7271947652522327
4034000000.0 0.6979762677361799 0.711801557242504
4038000000.0 0.7469644063463099 0.6980273218045802
4041000000.0 0.7354338060343286 0.7368134361680111
4044000000.0 0.8250226106262228 0.7483886116485141
4047000000.0 0.7411398201004704 0.764475236180636
4050000000.0 0.7753902452179106 0.7188963833406247
4053000000.0 0.7702008794442179 0.6756504147561189
4056000000.0 0.7535811016990449 0.6745128164905131
4059000000.0 0.7136425967886796 0.6918438371094682
4062000000.0 0.8250962772165353 0.6756672838961439
4066000000.0 0.716560134088728 0.6103316045275553
4069000000.0 0.8399957892524793 0.6589501570561512
4072000000.0 0.7918831414534974 0.6824838314808082
4075000000.0 0.7931820098483892 0.7148145839477633
4078000000.0 0.828670908407991 0.6530527432189259
4081000000.0 0.7791808187869376 0.7093697383221611
4084000000.0 0.8541221101928578 0.6112532436977085
4088000000.0 0.8079171468501408 0.6318140017740654
4091000000.0 0.8589109459352502 0.6214561259673868
4094000000.0 0.8113793439212625 0.5959259388041358
4097000000.0 0.8425950094398531 0.6293773385913501
4100000000.0 0.8387104326168193 0.5732097367629185
4103000000.0 0.824021727705105 0.6418552191599813
4106000000.0 0.8395035200092569 0.5784115630109286
4109000000.0 0.8698798007476909 0.6022191900328118
4112000000.0 0.87664198630184 0.6057065765749319
4116000000.0 0.8460768953877136 0.6009403007483398
4119000000.0 0.8634587487902802 0.5392566811747838
4122000000.0 0.899452524291939 0.5263110993096607
4125000000.0 0.9309294998205427 0.5138701524771787
4128000000.0 0.8420440270562609 0.5315232064186485
4131000000.0 0.8871065421825862 0.5206111407627404
4134000000.0 0.9027741323725295 0.531092852340766
4138000000.0 0.8861277350886287 0.47186952571153923
4141000000.0 0.8941900190160449 0.5160050383711753
4144000000.0 0.8893089897764768 0.5065508382669821
4147000000.0 0.9161270552702239 0.46662334397753663
4150000000.0 0.9480356306434397 0.4738557664994382
4153000000.0 0.911142092239028 0.4780356039824222
4156000000.0 0.9274750793108284 0.4748170176709442
4159000000.0 0.911298059786688 0.45439725566362715
4162000000.0 0.9147682214424127 0.45374186935152805
4166000000.0 0.9198969312197471 0.42677544593344807
4169000000.0 0.9299891028111447 0.4164037184319942
4172000000.0 0.9386378192674464 0.4480006971144869
4175000000.0 0.9460279609806393 0.4132517639980792
4178000000.0 0.9501171977472914 0.4115449274523031
4181000000.0 0.9553911630595862 0.4222487726316081
4184000000.0 0.9515452211733528 0.38836114969210506
4188000000.0 0.9751000072569362 0.3695341624372519
4191000000.0 0.9128934161424797 0.40852729876285837
4194000000.0 0.926797134932367 0.3751187324580483
4197000000.0 0.9373282722347043 0.38857548154557614
4200000000.0 0.948539387965011 0.3646256932717905
4203000000.0 0.9618655440352617 0.35480305624267117
4206000000.0 0.9589383656900936 0.3644162742102511
4209000000.0 0.9502271327347496 0.35276071366087175
4212000000.0 0.9562555120627345 0.31631934209741863
4216000000.0 0.9682677131421331 0.3359555025498994
4219000000.0 0.9834628463191523 0.3287173625548687
4222000000.0 0.9692404922098368 0.27888272011355
4225000000.0 0.9651148026714478 0.30331439461452525
4228000000.0 0.9929553910123428 0.2871971596438143
4231000000.0 0.9802900999031291 0.2779060718798064
4234000000.0 0.9955677855518867 0.2840876227434332
4238000000.0 0.9816906669374582 0.24205272293502259
4241000000.0 0.9862229182603544 0.22639288614613284
4244000000.0 0.9755631301160653 0.2443419558867576
4247000000.0 1.0053658453456378 0.24165391735434172
4250000000.0 0.9818929897978368 0.20673717770872618
4253000000.0 0.9814662454605132 0.20807494230224194
4256000000.0 1.017497490255834 0.207220258886197
4259000000.0 0.9687196320551399 0.1872598937090498
4262000000.0 1.0151587890357827 0.17109603423695144
4266000000.0 1.0317113136409868 0.13516237122447688
4269000000.0 1.0110809053390608 0.19794605431871912
4272000000.0 0.9933627386886732 0.1852779618552336
4275000000.0 1.014446649332281 0.14891846361948768
4278000000.0 1.0336414934716809 0.13928194367292396
4281000000.0 1.0247142454829126 0.15065898884746237
4284000000.0 1.0152911491899352 0.09283367384372787
4288000000.0 1.0082646052185602 0.17696395547226204
4291000000.0 0.9782842011611819 0.10036631376047177
4294000000.0 1.010347757716659 0.10705150047954777
4297000000.0 0.9930616916738109 0.12213395243523227
4300000000.0 1.0077974046679201 0.11091209623451884
4303000000.0 1.0028552843305998 0.0670954648889016
4306000000.0 1.0246685071580512 0.1152127375669493
4309000000.0 0.9898778171063494 0.07402539462045914
4312000000.0 1.0166125060982258 0.1034071842582969
4316000000.0 1.0216388541498556 0.08692212663139119
4319000000.0 0.9997508896678942 0.04751011812622548
4322000000.0 0.9971692581571491 0.023092655903385648
4325000000.0 1.0414717801606201 0.030436440254841948
4328000000.0 1.0258580875318801 0.013221182621011518
4331000000.0 1.0124981620965063 -0.02315219107484491
4334000000.0 1.040858682132213 -0.0017092038516918207
4338000000.0 1.0233535434574654 -0.0003186604653840214
4341000000.0 1.04595144848289 0.01831850393429793
4344000000.0 1.0316692389669115 -0.02225602425205736
4347000000.0 1.0296781884172723 -0.060219184035668755
4350000000.0 0.9613586713441362 -0.06672234448635332
4353000000.0 1.0011657635973328 -0.007606744011502575
4356000000.0 1.0041934897069666 -0.08287285732147738
4359000000.0 0.9808184928289819 -0.06662823364675338
4362000000.0 1.0187569453972605 -0.14467851621048924
4366000000.0 1.0318418770689672 -0.10163515822266128
4369000000.0 0.9865100696968434 -0.10445779508242609
4372000000.0 0.9937183439197994 -0.15479498810846845
4375000000.0 1.0070594183649781 -0.09876904066599537
4378000000.0 0.975932574121121 -0.12547789400474207
4381000000.0 0.9887818725366193 -0.13050126205593693
4384000000.0 1.051156336044614 -0.1690590097680739
4388000000.0 0.9818723581417844 -0.147312924994077
4391000000.0 1.0030044754128822 -0.17146659461486932
4394000000.0 0.9683156733984841 -0.17291416371121798
4397000000.0 0.9887590496141614 -0.1843251780705831
4400000000.0 1.0212962747861767 -0.18831111604343212
4403000000.0 0.9937938418448391 -0.21539017015404738
4406000000.0 0.9854903570500092 -0.2159242065004084
4409000000.0 1.022052099571514 -0.23153854896507564
4412000000.0 0.9655866588421903 -0.2800083220635206
4416000000.0 0.9726172427051674 -0.2403641220754936
4419000000.0 0.9845820099414273 -0.2676344508463604
4422000000.0 0.9837062829011578 -0.21825404149345676
4425000000.0 0.9990221762066522 -0.24037315829645256
4428000000.0 0.9768880364991182 -0.2760245060350724
4431000000.0 0.9916198398465776 -0.27216046031679303
4434000000.0 0.9469062497823563 -0.28008569664251115
4438000000.0 0.9909343597779885 -0.2971699670809592
4441000000.0 0.9833020603028482 -0.3109803738163157
4444000000.0 0.9425154629513666 -0.2966390537036878
4447000000.0 0.9555038535944654 -0.34374554980997485
4450000000.0 0.9439681627838467 -0.3158213166398371
4453000000.0 0.9774440744717382 -0.34232465501280274
4456000000.0 0.9248814759460166 -0.3427452927317618
4459000000.0 0.9053686972884312 -0.3456649213104599
4462000000.0 0.9839043545511079 -0.38467645037579357
4466000000.0 0.971128098215025 -0.3903348694114545
4469000000.0 0.9625425892589492 -0.3773607981479815
4472000000.0 0.9379438754957754 -0.4140175893815386
4475000000.0 0.8920431028624388 -0.3837865294931293
4478000000.0 0.9479113052487962 -0.4408765812513814
4481000000.0 0.8885210033797527 -0.3996951657421038
4484000000.0 0.8983921368153776 -0.46806934228364827
4488000000.0 0.8850885208567325 -0.43936323022213697
4491000000.0 0.9066847278767579 -0.4510747627632879
4494000000.0 0.9104224224710803 -0.4308630545714144
4497000000.0 0.9211023076936491 -0.44280605652606875
4500000000.0 0.9088423633008962 -0.4354202551265444
4503000000.0 0.925874720963056 -0.4555697998817962
4506000000.0 0.8751861111451391 -0.47170910926623405
4509000000.0 0.8892550800607599 -0.4904260003784473
4512000000.0 0.8538352773067854 -0.4816879769898489
4516000000.0 0.8806500625092206 -0.49560495031000695
4519000000.0 0.8606698989498073 -0.4861512148594084
4522000000.0 0.8708003702831204 -0.5331141855083071
4525000000.0 0.876679788665131 -0.4924374919240314
4528000000.0 0.8807360680951535 -0.5520330220742389
4531000000.0 0.8641260362503901 -0.531956902313831
4534000000.0 0.848655099363659 -0.5327412229951355
4538000000.0 0.8474455709816526 -0.5380663020539181
4541000000.0 0.8124169339660852 -0.5671148896942437
4544000000.0 0.8344764388014041 -0.5464865561540434
4547000000.0 0.8173840137541005 -0.5473512747329725
4550000000.0 0.7948967113725955 -0.5961691651217748
4553000000.0 0.8224363096740825 -0.5958586811947093
4556000000.0 0.7989596862782098 -0.6014237040517452
4559000000.0 0.7839646230247614 -0.6141316347921881
4562000000.0 0.8168506328255789 -0.6136558777930295
4566000000.0 0.8057554927181585 -0.6147220718593858
4569000000.0 0.7800476627931224 -0.6266007643262725
4572000000.0 0.7933503260182567 -0.6337998622322689
4575000000.0 0.7613605871283942 -0.6581252047021441
4578000000.0 0.820435480553249 -0.6512370893737791
4581000000.0 0.7460555136238904 -0.6759351381393487
4584000000.0 0.7548415380329384 -0.6595349205096709
4588000000.0 0.7679223734279188 -0.6667034208990519
4591000000.0 0.7689047536024396 -0.6705954766485811
4594000000.0 0.7334809087037721 -0.6742714441142053
4597000000.0 0.7491791264076668 -0.7105678994783066
4600000000.0 0.7108964042826794 -0.7101414347345953
4603000000.0 0.7235519496765193 -0.7056855085491021
4606000000.0 0.7136484428986054 -0.7174515562706635
4609000000.0 0.7203633762056598 -0.7130881885110022
4612000000.0 0.7233092822952 -0.7304966581290798
4616000000.0 0.6859866497762961 -0.7317517266174596
4619000000.0 0.7027952410413791 -0.7199415787773894
4622000000.0 0.6918263525001133 -0.7368992119418449
4625000000.0 0.6547443248039755 -0.7458521495715297
4628000000.0 0.6777691689455568 -0.7461922317541403
4631000000.0 0.6478358983568757 -0.7448941058219752
4634000000.0 0.6693463431138069 -0.7604110820208163
4638000000.0 0.6704199278314159 -0.7857307857359107
4641000000.0 0.6607674941174949 -0.7819513753989403
4644000000.0 0.6558832915524719 -0.7786816222481533
4647000000.0 0.6188217570678705 -0.7949898865281806
4650000000.0 0.6027743179037182 -0.7992393093144992
4653000000.0 0.6502949453315303 -0.8051103598093127
4656000000.0 0.6162060567727667 -0.8215145306948557
4659000000.0 0.5953646941503503 -0.8201502615714312
4662000000.0 0.6052621745375705 -0.8087485238409181
4666000000.0 0.5918653493297864 -0.8095132555608713
4669000000.0 0.6150483296309153 -0.8132034151060101
4672000000.0 0.5615604469444899 -0.8339635017708553
4675000000.0 0.5685928536262863 -0.8462563736687065
4678000000.0 0.5558759787128564 -0.830008611779934
4681000000.0 0.5529869037205314 -0.8639322993915277
4684000000.0 0.5384460142492099 -0.8546445362223021
4688000000.0 0.5246441916665112 -0.8656354737548367
4691000000.0 0.5585289595016226 -0.8727710213788253
4694000000.0 0.5189246963187015 -0.8475918923769683
4697000000.0 0.5038613104567802 -0.8413447696771732
4700000000.0 0.5292793103992465 -0.8582127183422559
4703000000.0 0.5079568141535058 -0.8332732396206777
4706000000.0 0.4948103893088784 -0.8907415759688738
4709000000.0 0.4828010678355845 -0.8962160305236798
4712000000.0 0.4856207976305923 -0.8842724387958101
4716000000.0 0.48506512227061127 -0.9170840779613056
4719000000.0 0.49811320407855764 -0.924209665173441
4722000000.0 0.4845409578433231 -0.9045821026982999
4725000000.0 0.43274433057855205 -0.9124953356849734
4728000000.0 0.42473539495362134 -0.882444570218692
4731000000.0 0.4696346546209973 -0.9253264887196961
4734000000.0 0.42192127680553343 -0.9274011285894805
4738000000.0 0.45630843904677554 -0.9452584858758607
4741000000.0 0.4190991058311956 -0.9644958792943523
4744000000.0 0.3832019971518328 -0.9511431611030408
4747000000.0 0.3992999071176695 -0.9270777396025764
4750000000.0 0.4104768295457347 -0.920939655221975
4753000000.0 0.3846139833684855 -0.9422096594327104
4756000000.0 0.3749546919944207 -0.9310202464441095
4759000000.0 0.4025282443660912 -0.9541541426115369
4762000000.0 0.3261599447377654 -0.9586080063348934
4766000000.0 0.3470301042522644 -0.9722961483680291
4769000000.0 0.3230411602696742 -0.9992745247710896
4772000000.0 0.3582188533348708 -0.9812229273009104
4775000000.0 0.3123817878364279 -1.01909544952723
4778000000.0 0.29616563613909697 -0.9866407757884571
4781000000.0 0.32577690630806133 -0.9472957830781481
4784000000.0 0.3121425886589406 -0.9512359995782159
4788000000.0 0.2815891344692494 -0.9945122202457548
4791000000.0 0.2773578946099154 -0.9739217000990529
4794000000.0 0.292762366296243 -1.0141116996793227
4797000000.0 0.26457722580953313 -1.0036134354290316
4800000000.0 0.2353564400342557 -0.98627826589028
4803000000.0 0.19509614701606254 -0.9890017658706951
4806000000.0 0.2443324074600649 -1.0084720730664036
4809000000.0 0.206245415608983 -1.0205627913338293
4812000000.0 0.16555177286022443 -0.9989635550757978
4816000000.0 0.23432160258684862 -0.989779455948137
4819000000.0 0.2395745663476401 -1.0275681062275788
4822000000.0 0.22165167440000916 -1.0370728909424112
4825000000.0 0.2122149757439888 -1.036564385651214
4828000000.0 0.16893645271288396 -1.0136080149865738
4831000000.0 0.13426398332220704 -1.024402780334688
4834000000.0 0.16787291109603 -1.0306071880706702
4838000000.0 0.13378972885893414 -1.0454253419439454
4841000000.0 0.134920367253355 -1.0037982969799333
4844000000.0 0.16849331938623505 -1.021086096041653
4847000000.0 0.14981281636259253 -1.0058310240051613
4850000000.0 0.11112879335776599 -1.0482759796914423
4853000000.0 0.13589388065489927 -1.0098507291756853
4856000000.0 0.10011890458040498 -1.0044643798984816
4859000000.0 0.09334416816193553 -1.0448669266118387
4862000000.0 0.09884887736601715 -0.9939946311022675
4866000000.0 0.06753544664781996 -1.0284644435630195
4869000000.0 0.036711593912075624 -1.018583440299199
4872000000.0 0.04159385074138222 -1.0541176392013645
4875000000.0 0.10427506094167577 -1.0677696337104159
4878000000.0 0.03356155599053432 -1.0384941229180678
4881000000.0 -0.01735332278916564 -1.0925329638029364
4884000000.0 0.02980730707771952 -1.0424031022701548
4888000000.0 0.05359045130290546 -1.0193937008213585
4891000000.0 0.031126068035789798 -1.0559455321995763
4894000000.0 -0.00930722420285417 -1.032624591553642
4897000000.0 0.03546560306262829 -1.051360011508543
4900000000.0 -0.01745739352623691 -1.0399952399520977
4903000000.0 -0.025806581852761336 -1.0574989807695678
4906000000.0 -0.02659134234792348 -1.0458105678547165
4909000000.0 -0.0676490773564804 -1.0294713379747422
4912000000.0 -0.06468725310229749 -1.0543585093924857
4916000000.0 -0.051638407310832364 -1.063256829628905
4919000000.0 -0.02340903123965038 -1.080132610111391
4922000000.0 -0.038898548383487344 -1.0425194982425159
4925000000.0 -0.10339790551896863 -1.0467527336609574
4928000000.0 0.0003133535682314087 -1.0452170108768366
4931000000.0 -0.05033598327465054 -1.0507840709194174
4934000000.0 -0.12063502565874691 -0.9705052917082063
4938000000.0 -0.13204910024832817 -1.0237019340798181
4941000000.0 -0.07688384940442324 -0.9750003193111986
4944000000.0 -0.10308315294778925 -0.9723754530389306
4947000000.0 -0.11685543645893151 -0.9901399268071636
4950000000.0 -0.16574843981661502 -1.0382932020955846
4953000000.0 -0.19623455192449674 -1.0748014137657596
4956000000.0 -0.19915441164762399 -0.9947084351776424
4959000000.0 -0.23080872450749326 -0.9716315685383432
4962000000.0 -0.22759701668375523 -1.0389859361264404
4966000000.0 -0.18883332108469164 -1.0702760039844872
4969000000.0 -0.15988684811446047 -1.0538919900324515
4972000000.0 -0.23590839481430256 -0.9994734342510152
4975000000.0 -0.19122307703024408 -0.9978442743148934
4978000000.0 -0.22706349345680316 -1.0208363504467128
4981000000.0 -0.2371800684391727 -1.0197052844405505
4984000000.0 -0.21998086231033318 -0.9952873933659393
4988000000.0 -0.24105874425265772 -1.0023692953090932
4991000000.0 -0.20130504209730044 -1.0278346253011574
4994000000.0 -0.25784094230536736 -0.9772968173624442
4997000000.0 -0.30361446602211023 -0.9997284595524616
5000000000.0 -0.26745440428381295 -1.0185944205112718
5003000000.0 -0.3084227412863482 -1.055914855726164
5006000000.0 -0.315780042123873 -1.0388330511173676
5009000000.0 -0.27485090496177733 -1.0039499037090893
5012000000.0 -0.31845426348916944 -0.9709334663477254
5016000000.0 -0.28122812822184956 -1.0276405337946286
5019000000.0 -0.3211431014794103 -0.9859742947091137
5022000000.0 -0.35097035487920203 -0.9916498078394578
5025000000.0 -0.3480803900171959 -1.0200323916527727
5028000000.0 -0.37992378314824826 -0.975367170043052
5031000000.0 -0.3372614475173643 -0.9895682518458792
5034000000.0 -0.42174988275814296 -1.0067992010617557
5038000000.0 -0.3949274451310675 -0.9097208729346749
5041000000.0 -0.33396084200586484 -1.0024954974913953
5044000000.0 -0.3683893004125508 -0.9331168923993606
5047000000.0 -0.3747243621168827 -1.0074771068693216
5050000000.0 -0.351450536132055 -0.9623097768182118
5053000000.0 -0.43554192815260584 -0.9908405866191887
5056000000.0 -0.38964239336497875 -0.9944610986209503
5059000000.0 -0.3799381166236378 -0.983643401257113
5062000000.0 -0.44732497126779347 -0.9482406368288565
5066000000.0 -0.39680591353195815 -0.9722766833313534
5069000000.0 -0.46571335949961123 -0.9663790647372382
5072000000.0 -0.4290769810792945 -0.9094416285040794
5075000000.0 -0.422316613272709 -0.8939450549490073
5078000000.0 -0.4937271807937101 -0.9289141609184619
5081000000.0 -0.4739695954079584 -0.9035853521300651
5084000000.0 -0.5044182769677409 -0.9437073294092377
5088000000.0 -0.4877906779312595 -0.8938489064619155
5091000000.0 -0.512462888593826 -0.9162312254546097
5094000000.0 -0.5089196536168473 -0.9333295957172562
5097000000.0 -0.48145027116536865 -0.9236596537994202
5100000000.0 -0.531671471401374 -0.9287230108590395
5103000000.0 -0.5878234901308161 -0.938501202389764
5106000000.0 -0.5189936211949937 -0.8977689257097419
5109000000.0 -0.4730944386524681 -0.9387200606056896
5112000000.0 -0.5519491835819578 -0.8886197146939492
5116000000.0 -0.5184387794813575 -0.8379855320389773
5119000000.0 -0.5937489476298718 -0.8927759332276093
5122000000.0 -0.5418661703610855 -0.8553808093764419
5125000000.0 -0.5433397874841269 -0.8881902814801859
5128000000.0 -0.5754159037358482 -0.9138248066022905
5131000000.0 -0.586942961921125 -0.8456030614312355
5134000000.0 -0.5874403968105877 -0.8677417523516675
5138000000.0 -0.5688374948362445 -0.8321561901032939
5141000000.0 -0.564883732879339 -0.8647090369384482
5144000000.0 -0.5629354521822993 -0.8598943311692098
5147000000.0 -0.63781632079247 -0.8439839679340315
5150000000.0 -0.6361403209438901 -0.8385905624214387
5153000000.0 -0.6295106771343324 -0.8132839286251043
5156000000.0 -0.6265968418819474 -0.8395083372029831
5159000000.0 -0.6563119261373451 -0.936407065160544
5162000000.0 -0.629371398518342 -0.7880659831677632
5166000000.0 -0.6676284156787599 -0.8179160171969762
5169000000.0 -0.6611883623152617 -0.8048174047659593
5172000000.0 -0.6643498916762351 -0.7961356232110169
5175000000.0 -0.6684909433958636 -0.8208960224072145
5178000000.0 -0.6806675396358257 -0.7873563743949901
5181000000.0 -0.6794755398248475 -0.811829272129176
5184000000.0 -0.7056603647447339 -0.756737361899486
5188000000.0 -0.6813550185016575 -0.7838662466873597
