! Created with skrf 1.8.0 (http://scikit-rf.org).
# Hz S RI R 50.0 
!freq ReS11 ImS11
4000000000.0 0.626871342559723 0.7704170589408845
4003000000.0 0.6864779285287368 0.8045241831278932
4006000000.0 0.6913526838072798 0.7587083274115619
4009000000.0 0.6723777009129605 0.8147100434713078
4012000000.0 0.594673419244983 0.822220029336758
4016000000.0 0.6966349752495224 0.7558896926682184
4019000000.0 0.7024722214272496 0.791351468362161
4022000000.0 0.5960258518715786 0.8296325735194957
4025000000.0 0.7464441118282006 0.7615702918122644
4028000000.0 0.7123148963521211 0.7344252986031343
4031000000.0 0.7294279307323636 0.7098412462052781
4034000000.0 0.7332335316188525 0.7405165140065045
4038000000.0 0.7326235637652004 0.685742169309663
4041000000.0 0.7289990311964352 0.7876181601819477
4044000000.0 0.8097126123629247 0.7570580573599905
4047000000.0 0.7716725649602916 0.758906456285598
4050000000.0 0.8187122629867721 0.6817115957526333
4053000000.0 0.7280206643348823 0.6975791856219542
4056000000.0 0.740978948126262 0.6716551473802238
4059000000.0 0.795347858121956 0.6788449298793733
4062000000.0 0.7691510768524314 0.6652097746784245
4066000000.0 0.7560986913204713 0.607473430646751
4069000000.0 0.8437430817217699 0.688646988673371
4072000000.0 0.7696381899411558 0.7289316986527454
4075000000.0 0.7844533304612683 0.6820513456766506
4078000000.0 0.7900557043196991 0.621508020129447
4081000000.0 0.7581385883451789 0.7145657075435016
4084000000.0 0.8332897276449802 0.595438091527565
4088000000.0 0.768591353853169 0.6888501338845879
4091000000.0 0.8685075205284531 0.6453298993232066
4094000000.0 0.8331791577469126 0.6220392842191923
4097000000.0 0.8172472701348237 0.6153247210819115
4100000000.0 0.8184799657950784 0.5704662936806519
4103000000.0 0.841012236796743 0.634474914704451
4106000000.0 0.8462033765446666 0.5909001835481243
4109000000.0 0.8647061213675855 0.5501805453423863
4112000000.0 0.8557582385164113 0.5592980547288668
4116000000.0 0.8471603894248878 0.5837046708851895
4119000000.0 0.8651826135673975 0.548321766996309
4122000000.0 0.8961990257186507 0.5092132372500622
4125000000.0 0.8573671705891662 0.5234060935754765
4128000000.0 0.821886896702757 0.5162421112369421
4131000000.0 0.8649688403022188 0.47580613138390493
4134000000.0 0.8526772578395733 0.49971409614283513
4138000000.0 0.8664684667995941 0.4884202790217143
4141000000.0 0.8908976879457478 0.5062557203039182
4144000000.0 0.8891724560564402 0.500383967694384
4147000000.0 0.9115816337978055 0.4769776985518667
4150000000.0 0.9443977397996653 0.49812666678078427
4153000000.0 0.8947618243839507 0.45639522712472524
4156000000.0 0.9411262541747831 0.48184022615677746
4159000000.0 0.8835474557323475 0.45858968698443897
4162000000.0 0.898967784072209 0.45861896752045084
4166000000.0 0.9409419669459735 0.4343919701865535
4169000000.0 0.9158532600286134 0.4300670586696069
4172000000.0 0.9452579019196534 0.4412314450940424
4175000000.0 0.955816168629075 0.42913441666013147
4178000000.0 0.9540347125327885 0.41803860541887905
4181000000.0 0.939053950806263 0.414884519703693
4184000000.0 0.943278403149916 0.4013207514272243
4188000000.0 0.9693294438001256 0.3707921883689256
4191000000.0 0.9200581903451469 0.414542987104117
4194000000.0 0.9174692602044535 0.3574383257044842
4197000000.0 0.9545250988408337 0.37574329210015794
4200000000.0 0.946471058143022 0.3765991568374467
4203000000.0 0.9775821529512794 0.3688963105747881
4206000000.0 0.968569646712523 0.3428384453377917
4209000000.0 0.9397243785606059 0.32773743334340505
4212000000.0 0.9603897677920364 0.3033193940229897
4216000000.0 0.9537726735793013 0.31971838580036355
4219000000.0 0.9884726800631319 0.31159689486938735
4222000000.0 0.9813195085421236 0.2976664579501393
4225000000.0 0.9494825779973086 0.2863687313665496
4228000000.0 0.9701241051373211 0.3008619665438622
4231000000.0 0.9892347887808617 0.28230650136571356
4234000000.0 1.000558609103308 0.2581872406831144
4238000000.0 0.9911305902165346 0.2437237531985856
4241000000.0 0.9793472541156993 0.24544108671910259
4244000000.0 0.9865378415370845 0.2412025221433592
4247000000.0 0.9733905799433703 0.23640324688799558
4250000000.0 0.9812423572984932 0.21675787066736563
4253000000.0 0.9686732682246213 0.19751717505355726
4256000000.0 1.0151284420952391 0.22114094144300767
4259000000.0 0.9774343062288023 0.18424730457896507
4262000000.0 1.002479957151534 0.18012236308545201
4266000000.0 1.008707714193588 0.15081867165714863
4269000000.0 1.005077713404622 0.18497448765661093
4272000000.0 0.9818993032237584 0.16348982102835524
4275000000.0 0.9849858807975889 0.16342161415297263
4278000000.0 1.014672027512569 0.14924810536209804
4281000000.0 1.0213115855948134 0.1655364159391614
4284000000.0 1.0212867893263562 0.09972290680465551
4288000000.0 1.0007835390337307 0.15428012807480163
4291000000.0 0.9701044720615571 0.12069448940272497
4294000000.0 1.000082850882325 0.10206786349393994
4297000000.0 0.9931702830333621 0.11913744034446345
4300000000.0 1.0114541697358153 0.09186934649769038
4303000000.0 1.002037964474418 0.06544481453185662
4306000000.0 1.000502477363908 0.09940908500314669
4309000000.0 1.0100959849868807 0.09155120807834595
4312000000.0 1.0276921254160618 0.08223096100837354
4316000000.0 1.006280116407813 0.062196070099831455
4319000000.0 0.9941337972779993 0.06993946485287429
4322000000.0 0.9823643325673219 0.0138868640894199
4325000000.0 1.0333677928918983 0.03379711576795115
4328000000.0 0.9922939571696232 0.005752638931502491
4331000000.0 1.018811222462898 -0.007381931210131948
4334000000.0 1.0044061860884066 -0.011556700653079288
4338000000.0 1.0050624501350938 -0.0187944000131664
4341000000.0 1.0154281297705685 0.03544730660955939
4344000000.0 1.0232198027278496 0.0093055990789091
4347000000.0 1.0108341733564392 -0.053090517344628455
4350000000.0 0.9802832529195149 -0.02647697986256395
4353000000.0 0.9784992335052776 -0.016096140624310806
4356000000.0 0.9809310011737044 -0.0948075447248619
4359000000.0 0.9604871888938121 -0.07724775282539412
4362000000.0 1.0197170490760736 -0.12072721148508878
4366000000.0 1.0104267853043674 -0.10517434101490317
4369000000.0 0.9681658039918862 -0.10868764697086145
4372000000.0 0.9821422746762427 -0.15080002672394233
4375000000.0 0.9997639545596775 -0.10504028119723012
4378000000.0 0.9663314188671117 -0.1230408816143543
4381000000.0 0.9802034253049525 -0.11096986711755513
4384000000.0 1.0471165162982188 -0.1755069828915639
4388000000.0 0.9735451613809579 -0.13563112185263262
4391000000.0 0.9980842658318116 -0.15096413636100436
4394000000.0 0.9763838789406885 -0.165758914023475
4397000000.0 0.9906054571218497 -0.18758401777758654
4400000000.0 1.0058620015469986 -0.1947770440728101
4403000000.0 1.0046784071182142 -0.17945844838055142
4406000000.0 0.9859904580192438 -0.2235516992755759
4409000000.0 1.0226718644107158 -0.2084149175055521
4412000000.0 0.9733503489085099 -0.2694559526899481
4416000000.0 0.9714719185921132 -0.23953194174872122
4419000000.0 0.9773858200315162 -0.24207326147476438
4422000000.0 0.9676080117348071 -0.2372004024066533
4425000000.0 1.0063886101381092 -0.21843302424102667
4428000000.0 0.9692399014913952 -0.2774506235117322
4431000000.0 1.0000965850108818 -0.25757437344677114
4434000000.0 0.9595680579597679 -0.28741478965341133
4438000000.0 0.986438104055577 -0.28869273965446307
4441000000.0 0.9793137096901265 -0.28892257898562657
4444000000.0 0.9336295632167437 -0.3016041547355841
4447000000.0 0.9553754560696311 -0.3274828851292515
4450000000.0 0.9548051897110409 -0.31788904665500184
4453000000.0 0.9724700343936595 -0.3498031349296886
4456000000.0 0.9257417758308488 -0.3339452667984938
4459000000.0 0.8995625638210039 -0.34928380657990077
4462000000.0 0.9868185592307541 -0.37787749005445165
4466000000.0 0.9599797903293413 -0.39404329763101975
4469000000.0 0.9482774984546694 -0.36728862480035374
4472000000.0 0.9628503784223195 -0.41109023013833595
4475000000.0 0.9013309791606868 -0.37633946368215443
4478000000.0 0.9522941917864948 -0.41658096175564996
4481000000.0 0.9101557161150807 -0.397949427051847
4484000000.0 0.8997839125223157 -0.4587883123864346
4488000000.0 0.9207564681451587 -0.4310421411213652
4491000000.0 0.9095693676417251 -0.42536451554546817
4494000000.0 0.8994836460694032 -0.4143816235650567
4497000000.0 0.904161411123674 -0.432696258779891
4500000000.0 0.9215132941557633 -0.4562759636538832
4503000000.0 0.9175116249774102 -0.44835678214832764
4506000000.0 0.872098121188227 -0.46779941980576795
4509000000.0 0.8649238754621873 -0.47341842253350497
4512000000.0 0.8564307570623041 -0.47636007532226465
4516000000.0 0.9000264854581868 -0.511958553909405
4519000000.0 0.851229860436255 -0.4552993868418401
4522000000.0 0.8462971562209782 -0.5238198423075946
4525000000.0 0.878995434896668 -0.49407196141329934
4528000000.0 0.8753594103133011 -0.5420132099975683
4531000000.0 0.8587288824744355 -0.5164958066110332
4534000000.0 0.8394656323479092 -0.5348658558158412
4538000000.0 0.8452798004403006 -0.5403066949443623
4541000000.0 0.7986411314029803 -0.5628347896888579
4544000000.0 0.829815641501302 -0.5510133048487404
4547000000.0 0.8243989414555379 -0.5414425724124488
4550000000.0 0.8343555975671757 -0.5926557373717701
4553000000.0 0.8311579703615397 -0.586787648374659
4556000000.0 0.7942629342511178 -0.5973587180497805
4559000000.0 0.820879182620115 -0.5949694282962696
4562000000.0 0.7973422075478014 -0.6098597318235076
4566000000.0 0.7913353053200269 -0.6229686001926062
4569000000.0 0.7723640724870872 -0.6121496357921552
4572000000.0 0.7845088967480927 -0.6283838202532049
4575000000.0 0.768746123549406 -0.6599139274542757
4578000000.0 0.8048960641086453 -0.6525838011865444
4581000000.0 0.7610192426982431 -0.6599824772545372
4584000000.0 0.76866905251758 -0.650671057909634
4588000000.0 0.773399804610679 -0.6563754025123661
4591000000.0 0.7528536614439765 -0.6634411717878652
4594000000.0 0.7287389081272818 -0.7000340275532478
4597000000.0 0.7484973278019837 -0.6931596326235195
4600000000.0 0.7216438308661114 -0.6983528560942637
4603000000.0 0.7182463890164867 -0.70752756360402
4606000000.0 0.7312855237230885 -0.7117875010840572
4609000000.0 0.7126809290058009 -0.6938949752830802
4612000000.0 0.7087088428842716 -0.7155958565325526
4616000000.0 0.6771599119731357 -0.7159630127002129
4619000000.0 0.7025130833379611 -0.7250368018311543
4622000000.0 0.6727611917052131 -0.7371700771717122
4625000000.0 0.6500595499041585 -0.7158795678824947
4628000000.0 0.6924565326542117 -0.7325363433416258
4631000000.0 0.6354806040683831 -0.7570392001810702
4634000000.0 0.6510225639803158 -0.7698022541144611
4638000000.0 0.6707789909565497 -0.7759546371332559
4641000000.0 0.6723788289411937 -0.7701307291511884
4644000000.0 0.6241245673820298 -0.7738057728212797
4647000000.0 0.6602986839448607 -0.7929717739548251
4650000000.0 0.612043646429263 -0.7956695554750337
4653000000.0 0.6326556362157912 -0.8129841258284995
4656000000.0 0.6095902775816573 -0.8052834986868833
4659000000.0 0.6134986322564178 -0.8129578262588575
4662000000.0 0.6059309959714778 -0.8245780566633344
4666000000.0 0.5856397307278257 -0.8207357873164576
4669000000.0 0.5826325799706527 -0.8280322880758326
4672000000.0 0.5814401579747255 -0.8533667523217754
4675000000.0 0.5654219921887715 -0.827480238050953
4678000000.0 0.5640145040734352 -0.8105963749271927
4681000000.0 0.5362207388850699 -0.8621019689446675
4684000000.0 0.5070568294528246 -0.8460614515055284
4688000000.0 0.5380044728381475 -0.8534640324221257
4691000000.0 0.5275525576016818 -0.8608637277113353
4694000000.0 0.524703794168192 -0.8371126343140394
4697000000.0 0.4637556743078275 -0.8348593191866969
4700000000.0 0.5351668714681737 -0.8648351168048041
4703000000.0 0.5246847984435903 -0.8307763401991557
4706000000.0 0.5013695563848269 -0.8901982277811693
4709000000.0 0.4787219332577164 -0.8804828911786995
4712000000.0 0.48010182851527905 -0.8875012278499025
4716000000.0 0.45389081196593606 -0.9047125518167332
4719000000.0 0.4803765712407688 -0.8934650223160149
4722000000.0 0.4892784475238626 -0.8929628259338978
4725000000.0 0.44844204172402846 -0.8992918784449249
4728000000.0 0.43812736311460354 -0.9025726232250058
4731000000.0 0.45878699747756835 -0.9335641284998486
4734000000.0 0.4332391682373955 -0.8923703716731888
4738000000.0 0.4541762384567868 -0.9591061012511318
4741000000.0 0.40752896077547074 -0.9682634599175368
4744000000.0 0.37073166116696676 -0.9134628876751001
4747000000.0 0.42731743960393265 -0.9017425303064693
4750000000.0 0.41291585515689005 -0.957270085023894
4753000000.0 0.35623281723759975 -0.9250733930264624
4756000000.0 0.3985985606700541 -0.9396662950270611
4759000000.0 0.3984754186972082 -0.9246205583444196
4762000000.0 0.3257289491962393 -0.9663992636264959
4766000000.0 0.33815792889418844 -0.9330781450208515
4769000000.0 0.3521305283164236 -0.9824401257701952
4772000000.0 0.3343296449810232 -0.961894749385941
4775000000.0 0.3014691797779224 -0.9867609076064878
4778000000.0 0.32867759383081324 -0.9740085704061424
4781000000.0 0.2815937769405301 -0.9548060456522984
4784000000.0 0.3110970565590723 -0.975482908668256
4788000000.0 0.2915725817816886 -1.0116926480321442
4791000000.0 0.2858122824296137 -0.9585946797342405
4794000000.0 0.3111656640767044 -1.0083137584734905
4797000000.0 0.25872279358106215 -0.9626616784890404
4800000000.0 0.25226053202958865 -0.978515478765146
4803000000.0 0.22685080518440054 -0.9773422547602537
4806000000.0 0.23348977883224264 -0.9871130669823851
4809000000.0 0.20822176354464622 -1.0119222560923877
4812000000.0 0.1924236658729246 -0.9852631110654426
4816000000.0 0.2516831726763508 -0.9688861308539658
4819000000.0 0.24525909893918824 -1.0237378987951875
4822000000.0 0.22429301870943721 -1.0185717403058407
4825000000.0 0.2149213892188143 -1.0129805074638791
4828000000.0 0.1867482454685689 -1.0141009571366442
4831000000.0 0.14384743723186977 -1.027886356784927
4834000000.0 0.1852352475833406 -1.0006371624915553
4838000000.0 0.1343695424856137 -1.0035294992101897
4841000000.0 0.1393196456958689 -0.9935911334596049
4844000000.0 0.19291883914848393 -1.0076476957404488
4847000000.0 0.1495560958644848 -0.981008805395025
4850000000.0 0.1109809423167678 -1.04433864485354
4853000000.0 0.11361751269942115 -0.9670587938040178
4856000000.0 0.08576926217934495 -0.9987567495739574
4859000000.0 0.07674590284312077 -1.0569322195198234
4862000000.0 0.10881560469406987 -0.9890108049843095
4866000000.0 0.06039835086895236 -1.0343662979777937
4869000000.0 0.030970315140763052 -1.0179464740434223
4872000000.0 0.04256984047599587 -1.0303094789222096
4875000000.0 0.09981664671733195 -1.082566633314628
4878000000.0 0.0369151801572948 -1.029201310428727
4881000000.0 0.01510238905936377 -1.0855019343728447
4884000000.0 0.0413495268500826 -1.017380797987587
4888000000.0 0.079281126243478 -1.0311593585051733
4891000000.0 0.02433433392757464 -1.0123803036458296
4894000000.0 -0.014464620386720653 -1.0152307614198652
4897000000.0 0.03363217910060846 -0.999550377803611
4900000000.0 0.0026071859355415276 -1.0401810619496188
4903000000.0 0.01402917321444816 -1.0643774147949847
4906000000.0 -0.02016006131004086 -1.0604331409661547
4909000000.0 -0.0641595203504981 -1.0339382989569381
4912000000.0 -0.06511651004314027 -1.0794650710656124
4916000000.0 -0.07963757223450646 -1.0576185848226871
4919000000.0 -0.023834792961529863 -1.0853068032204338
4922000000.0 -0.036336746278222726 -1.028539254013133
4925000000.0 -0.09629183520182075 -1.0228032680418115
4928000000.0 -0.024079391785346446 -1.016878712400474
4931000000.0 -0.059207040135118086 -1.0441934000770814
4934000000.0 -0.06509756020154218 -0.9809277754884705
4938000000.0 -0.15096147982359837 -0.9900691868511324
4941000000.0 -0.07896109854939355 -0.9863056507500876
4944000000.0 -0.08385040306101951 -0.9699667701648635
4947000000.0 -0.14463694678056901 -0.9880941203823289
4950000000.0 -0.11822736726287407 -0.948207448611911
4953000000.0 -0.18694443644010572 -1.0488572151537257
4956000000.0 -0.1569371862181949 -1.001391528517802
4959000000.0 -0.21927542491763655 -0.9683165124257749
4962000000.0 -0.1856888569549284 -1.0535141649287343
4966000000.0 -0.1619292557839644 -1.0309813758452095
4969000000.0 -0.16875018568708117 -1.0668582944311895
4972000000.0 -0.2274716020565958 -1.0253906998755569
4975000000.0 -0.18306234505069333 -1.0140001752930439
4978000000.0 -0.22851117209654775 -1.0175674132533987
4981000000.0 -0.2611373528796471 -0.9913017064235679
4984000000.0 -0.18675529338030708 -1.0151809585314797
4988000000.0 -0.20371909833542945 -1.0307018586714478
4991000000.0 -0.1947816341935874 -1.0306485656117834
4994000000.0 -0.23096555669095153 -0.9925511464386793
4997000000.0 -0.2765141366152285 -1.0053342814116746
5000000000.0 -0.24893422917624786 -1.0257317670360189
5003000000.0 -0.2785502959572214 -1.0395937312671453
5006000000.0 -0.3065742924677306 -1.050252336413546
5009000000.0 -0.2650993975761079 -0.9575124748117911
5012000000.0 -0.34634565751299246 -0.9774866401425264
5016000000.0 -0.3161060731015863 -1.024898434907641
5019000000.0 -0.3234255675130969 -0.9737453409872738
5022000000.0 -0.3493542242560773 -0.9558695336681253
5025000000.0 -0.3812929847913041 -1.0405506075952484
5028000000.0 -0.3597849360552471 -0.9912502338237577
5031000000.0 -0.37693630572744796 -0.9837791211389334
5034000000.0 -0.37872639362427696 -0.9783035779180078
5038000000.0 -0.3791404650355398 -0.9261512404549208
5041000000.0 -0.3193012681667038 -0.9926885738116192
5044000000.0 -0.3162932722728907 -0.9434950855951209
5047000000.0 -0.377217191593575 -0.9452516135575074
5050000000.0 -0.2935962491270212 -0.9671198010095783
5053000000.0 -0.42339267662460234 -0.9902001331269699
5056000000.0 -0.35625182245444087 -0.9662065195517382
5059000000.0 -0.3769146766001727 -0.9854969096630205
5062000000.0 -0.4685479994422852 -0.9304494124605853
5066000000.0 -0.412529893439034 -0.9740990045553894
5069000000.0 -0.43084363478603216 -0.9451094345955781
5072000000.0 -0.45117883542064285 -0.9232670257465521
5075000000.0 -0.42355078673006497 -0.9268955081174493
5078000000.0 -0.4907832660082831 -0.9363411980984291
5081000000.0 -0.4853821592634823 -0.8959746971738699
5084000000.0 -0.4575765002358744 -0.9321077982633432
5088000000.0 -0.4425169974362474 -0.9325987978701311
5091000000.0 -0.5308589010275022 -0.9066659788791904
5094000000.0 -0.5047685379652095 -0.9083721013580038
5097000000.0 -0.4670351566315255 -0.9146149148519436
5100000000.0 -0.5312157199734946 -0.8659544370609519
5103000000.0 -0.5159935282217263 -0.89672743123397
5106000000.0 -0.5235048400216463 -0.911715743573573
5109000000.0 -0.515654104135406 -0.8762756390561994
5112000000.0 -0.6243262295321855 -0.8925408975696554
5116000000.0 -0.5420680040631525 -0.8473109913050434
5119000000.0 -0.5659149917581285 -0.9154291222980921
5122000000.0 -0.5349364838802848 -0.8886434203265217
5125000000.0 -0.5234501018099315 -0.861235459604707
5128000000.0 -0.5802180188617002 -0.8872531602789724
5131000000.0 -0.579864208871344 -0.8379066231641553
5134000000.0 -0.584700472340245 -0.8924733190711795
5138000000.0 -0.5932281624119916 -0.8488749796773405
5141000000.0 -0.536669138987679 -0.8889677951025754
5144000000.0 -0.5852393688807436 -0.8494666959666243
5147000000.0 -0.607235436866328 -0.8461495001812606
5150000000.0 -0.6593979605063728 -0.8262403939327387
5153000000.0 -0.6323465329084412 -0.8298998360319721
5156000000.0 -0.6435417230208377 -0.8209088632626503
5159000000.0 -0.6818794833110694 -0.8578966747972789
5162000000.0 -0.6481966201687331 -0.7783669917677568
5166000000.0 -0.6847059475746445 -0.7930172780274131
5169000000.0 -0.6934189435614869 -0.7899200298928278
5172000000.0 -0.6419800537444585 -0.8164546210066274
5175000000.0 -0.7004098147963146 -0.8248045248029197
5178000000.0 -0.7020205994785138 -0.7738217717987959
5181000000.0 -0.6835993901118667 -0.8081698081440603
5184000000.0 -0.7202030275006076 -0.7307148561188335
5188000000.0 -0.6547663198730481 -0.7595411369371162
