! Created with skrf 1.8.0 (http://scikit-rf.org).
# Hz S RI R 50.0 
!freq ReS11 ImS11
4000000000.0 0.6533289692767814 0.8153548928696346
4003000000.0 0.7058134865053126 0.8281126358481828
4006000000.0 0.7081914270700177 0.7706505324408043
4009000000.0 0.6801238231563851 0.8078991993908659
4012000000.0 0.6544575266502399 0.828225579454925
4016000000.0 0.6588288070034101 0.8178550075406377
4019000000.0 0.6489832074827628 0.7986857815473296
4022000000.0 0.6452075335572243 0.8104782827794608
4025000000.0 0.7472620621411064 0.751137045956394
4028000000.0 0.6979953213698529 0.7824108208212732
4031000000.0 0.7070830501522506 0.7305469935760078
4034000000.0 0.7107477107190829 0.7511671873013961
4038000000.0 0.7352408051301921 0.747540402704906
4041000000.0 0.7078814950660042 0.7246333291288863
4044000000.0 0.7392377770391886 0.7911711672579673
4047000000.0 0.7223388352987993 0.7985914704072427
4050000000.0 0.7642758331466 0.6824348893198194
4053000000.0 0.7651454770390033 0.6853271506637726
4056000000.0 0.7192003213515926 0.6985963611588378
4059000000.0 0.7320256675159736 0.7001499193213561
4062000000.0 0.7981288246070473 0.6893216722469442
4066000000.0 0.7209219049741413 0.6223882529826935
4069000000.0 0.8189463071247766 0.6772221507877655
4072000000.0 0.7754139802484112 0.737779271217947
4075000000.0 0.7716956895189204 0.6783464448022569
4078000000.0 0.7807006280397494 0.6560822561018116
4081000000.0 0.7386839849761268 0.707403235651125
4084000000.0 0.8009542214693406 0.6405115427320414
4088000000.0 0.775309303364885 0.6569610368236944
4091000000.0 0.8622601306517782 0.6890327607858424
4094000000.0 0.8048091746817242 0.6358046039047572
4097000000.0 0.8096194445646668 0.6523444335531179
4100000000.0 0.8306719302017472 0.5958847795124542
4103000000.0 0.8401645066032717 0.6288725507109365
4106000000.0 0.8455320226213379 0.5924241582845419
4109000000.0 0.8643123933703709 0.5655526175068404
4112000000.0 0.8228204595563866 0.5969284638909667
4116000000.0 0.847125564744508 0.6101587348008808
4119000000.0 0.8666647293481355 0.5638314179023737
4122000000.0 0.8566945183662025 0.5182392930288441
4125000000.0 0.9093576942047459 0.5624525410907402
4128000000.0 0.8383294682882104 0.5543394792676141
4131000000.0 0.8583703548523338 0.5257767778122296
4134000000.0 0.8530477044447299 0.5582680819984926
4138000000.0 0.8699402128926219 0.5286126875636843
4141000000.0 0.8992314732242601 0.5366646373941959
4144000000.0 0.8818548274305659 0.5357986458436717
4147000000.0 0.8776145299758668 0.48230809575164907
4150000000.0 0.8974756506403964 0.5328349075591088
4153000000.0 0.8824797002131461 0.48856647799762654
4156000000.0 0.9110641373006403 0.5387974704259171
4159000000.0 0.8708802038438985 0.48937175753364476
4162000000.0 0.8853798954444041 0.4635824978867512
4166000000.0 0.9221716401379156 0.4513163686410141
4169000000.0 0.9210697171789098 0.41964064208345686
4172000000.0 0.8826447982198624 0.45421537601748424
4175000000.0 0.9289537213398473 0.42041338740932127
4178000000.0 0.9426597676283316 0.4480244572261154
4181000000.0 0.9267773867503131 0.4268219656668061
4184000000.0 0.9296780488773576 0.4221005297765635
4188000000.0 0.9531290731728634 0.4073578907157779
4191000000.0 0.9137215522196511 0.40299088263934396
4194000000.0 0.9204959464280003 0.42738689681454745
4197000000.0 0.9522553194639094 0.3795672415948205
4200000000.0 0.9437258462594162 0.4121912221168418
4203000000.0 0.9331241461563953 0.3850351681611587
4206000000.0 0.9699866894634859 0.3573849271094433
4209000000.0 0.9342216534952007 0.3650474180283763
4212000000.0 0.9822464694633248 0.31794315098516024
4216000000.0 0.9614165037352077 0.34889163288395003
4219000000.0 0.9700765988773904 0.35520639950147936
4222000000.0 0.9772618698995383 0.3037264323439521
4225000000.0 0.9457911872042297 0.31674837850620186
4228000000.0 0.9747160897882985 0.3405082030252745
4231000000.0 0.9756685610916627 0.2911355412980196
4234000000.0 0.9930312911130659 0.29922564296131493
4238000000.0 0.9925807860646825 0.2845135966884582
4241000000.0 1.002342121594688 0.26555334528812935
4244000000.0 0.9792256292599602 0.271614512659782
4247000000.0 0.9698461119824116 0.2698730586582094
4250000000.0 0.9486907272848448 0.22786454863655298
4253000000.0 0.9516922075296685 0.2437393577969844
4256000000.0 0.989374067222387 0.2309306979993233
4259000000.0 0.949908995011397 0.20117492431021286
4262000000.0 0.984950036316474 0.1991872205537514
4266000000.0 1.018198782559321 0.17735672015441356
4269000000.0 0.9886168014805694 0.22972513841585143
4272000000.0 0.9801706525928643 0.21067610164825318
4275000000.0 0.9893513921144546 0.18029300229716483
4278000000.0 1.0155821785833694 0.1729916170165411
4281000000.0 1.0061539900002652 0.1836567309503676
4284000000.0 1.017474591411083 0.14261451569901892
4288000000.0 0.9762262062176879 0.17768965740824347
4291000000.0 0.992316089329961 0.14732007319825274
4294000000.0 1.014969417559237 0.12900325505637056
4297000000.0 0.971147096586646 0.15291889318815338
4300000000.0 0.9925885897069153 0.1270460763747477
4303000000.0 0.9941691724147941 0.08780210525639069
4306000000.0 1.0054169296987188 0.08727506097538804
4309000000.0 1.0003675808171846 0.09723437001830233
4312000000.0 1.0388310077464704 0.1066668560316453
4316000000.0 1.020385608526626 0.09563580122991781
4319000000.0 0.9930417079737811 0.078405308023092
4322000000.0 0.98287249148805 0.04434763566879692
4325000000.0 1.0088564044834285 0.07357274660816139
4328000000.0 1.0005198810775504 0.04473462531658841
4331000000.0 0.9988277273816326 0.01758928419326039
4334000000.0 0.9949753864059403 0.03338910825208674
4338000000.0 1.0122678636301816 0.03935458187046255
4341000000.0 1.0110133803492667 0.02354916209352631
4344000000.0 1.0127063502681204 0.004901622120569826
4347000000.0 1.008444334054708 -0.04054915345010959
4350000000.0 0.9819225890828659 -0.027988073705111055
4353000000.0 0.9711175660402505 -0.009829939232650492
4356000000.0 1.0100102464880942 -0.03759219356119836
4359000000.0 0.9664507051873579 -0.050920700615691816
4362000000.0 1.016358104999208 -0.10998070940332305
4366000000.0 1.018897341812395 -0.08473457268325055
4369000000.0 0.9650389281638128 -0.06375497419884277
4372000000.0 0.9619776255099513 -0.09990548741405078
4375000000.0 0.9987449982583378 -0.07090211844709272
4378000000.0 0.9750362353136036 -0.10359225707524516
4381000000.0 0.9764497263012011 -0.08042284690551392
4384000000.0 1.0640832763766261 -0.1333852246281664
4388000000.0 0.9776636529246809 -0.10343305169538926
4391000000.0 0.9988639483516388 -0.11108063314478986
4394000000.0 0.9706605520938437 -0.1556609430564624
4397000000.0 0.9939515034454793 -0.14997650486765784
4400000000.0 1.0204300791729755 -0.17569140484737805
4403000000.0 1.001592198131548 -0.15981721070634647
4406000000.0 0.9823845083094466 -0.2061610647229174
4409000000.0 1.0125327649989933 -0.19700610445122413
4412000000.0 0.9743314325902845 -0.23406803837195989
4416000000.0 0.965216428284057 -0.22232262407023184
4419000000.0 0.9798568507580124 -0.2328954961804945
4422000000.0 0.9692725772054074 -0.20569034882385462
4425000000.0 1.0032391392701854 -0.20758264950695862
4428000000.0 0.9708117295530927 -0.238401709832341
4431000000.0 0.9870040547349788 -0.2384915522234003
4434000000.0 0.9744783372910815 -0.2549070860248089
4438000000.0 0.988605426669579 -0.2721806165359082
4441000000.0 0.9810545221844951 -0.2555648333921327
4444000000.0 0.942315041899189 -0.2677436896874865
4447000000.0 0.9439221369486278 -0.2921421906289195
4450000000.0 0.948114510480889 -0.27193887339749656
4453000000.0 0.9826251540250103 -0.3146722975330166
4456000000.0 0.9235304611552517 -0.31114162657769856
4459000000.0 0.9003688047363223 -0.3279712513442448
4462000000.0 0.9971422657195754 -0.35066144995686566
4466000000.0 0.9829858151238565 -0.35617805106373
4469000000.0 0.9490737595368544 -0.330938495141177
4472000000.0 0.9578770393862198 -0.3845709942155203
4475000000.0 0.9176379289234942 -0.3511176567040648
4478000000.0 0.9731214354865029 -0.39271817681856835
4481000000.0 0.9024735589107471 -0.38082329262412346
4484000000.0 0.9276346384279732 -0.4259156591111083
4488000000.0 0.9251871199005705 -0.39655046047960046
4491000000.0 0.9300079536956745 -0.42216835332483993
4494000000.0 0.9173746665964425 -0.4101742801093975
4497000000.0 0.9090947561611091 -0.4050619012901134
4500000000.0 0.916383477401727 -0.4251268003500079
4503000000.0 0.9206969255498187 -0.44102752416329316
4506000000.0 0.8879830437196765 -0.444482855875904
4509000000.0 0.8790783122023031 -0.4232449824374658
4512000000.0 0.8709245719563614 -0.4579279554912292
4516000000.0 0.9063636707755173 -0.4534725291753983
4519000000.0 0.8947190937003255 -0.46338729503407344
4522000000.0 0.8844763267287366 -0.4957579757573472
4525000000.0 0.8739742666319883 -0.4512902628282133
4528000000.0 0.9002326515099051 -0.5068742489416421
4531000000.0 0.8811404756384683 -0.48872170562044404
4534000000.0 0.8507388580296328 -0.5037675413135061
4538000000.0 0.867199667187045 -0.5270359048771744
4541000000.0 0.8180893486956747 -0.5588178397325984
4544000000.0 0.8354159049884053 -0.5049421148620078
4547000000.0 0.8517178933109317 -0.51502092715938
4550000000.0 0.8367359746153893 -0.5724978408936452
4553000000.0 0.8384451559135888 -0.5531543837461089
4556000000.0 0.7964266465631986 -0.5679183290350097
4559000000.0 0.8264229149363089 -0.569289871875515
4562000000.0 0.8508115832786483 -0.5678536105141836
4566000000.0 0.8292182582326892 -0.6009741669366211
4569000000.0 0.789255420240653 -0.5851047357516894
4572000000.0 0.7981149735329676 -0.5936503977373754
4575000000.0 0.8074685629127418 -0.639975603229943
4578000000.0 0.8280824366477078 -0.6096752261984203
4581000000.0 0.7960172933427595 -0.6462728385764009
4584000000.0 0.7802424159675586 -0.615499400348847
4588000000.0 0.7937454333419637 -0.650780086093009
4591000000.0 0.7820485090108101 -0.6237637561766975
4594000000.0 0.7342540320385299 -0.6607710391116066
4597000000.0 0.7597462947939841 -0.673512112580498
4600000000.0 0.7242115000385456 -0.6732110964630629
4603000000.0 0.7415231019183076 -0.6710957844870349
4606000000.0 0.7529039328830155 -0.6823381817306794
4609000000.0 0.7495501892924069 -0.7030798801757691
4612000000.0 0.7466640712855253 -0.6893197897821804
4616000000.0 0.7216427727109402 -0.6803293493696363
4619000000.0 0.7257728063393177 -0.6901196814266214
4622000000.0 0.7184577909340923 -0.7132008031223626
4625000000.0 0.6616893647990333 -0.7221100548495603
4628000000.0 0.7106464179875399 -0.6941418652639759
4631000000.0 0.6770110050984055 -0.7275576740356836
4634000000.0 0.6854500756073264 -0.7486791362236555
4638000000.0 0.6946297197408676 -0.7435243995571175
4641000000.0 0.6787923826428792 -0.7440265072683947
4644000000.0 0.6632035636830401 -0.7562822913629746
4647000000.0 0.6641635374450231 -0.7709978709003082
4650000000.0 0.6360674034909547 -0.7677718704529307
4653000000.0 0.677135672113297 -0.7749153949171574
4656000000.0 0.6263914059485842 -0.7874773020226993
4659000000.0 0.6204244599005152 -0.7689213509658077
4662000000.0 0.6349245201357937 -0.7934886529538833
4666000000.0 0.6203089860690782 -0.7934579045543849
4669000000.0 0.6307018393020434 -0.7876885306134511
4672000000.0 0.6000043725812145 -0.8224627424527282
4675000000.0 0.5711013734247593 -0.8292794600353223
4678000000.0 0.5835090296872412 -0.8218838671389491
4681000000.0 0.5710178679308033 -0.8490346018069421
4684000000.0 0.5624037637854853 -0.8315153495199588
4688000000.0 0.5453480828390871 -0.8285849421135416
4691000000.0 0.5720126012773253 -0.8357028228577441
4694000000.0 0.5692258282122017 -0.8539846656480043
4697000000.0 0.5195476497003328 -0.8369689403355647
4700000000.0 0.5325152495996325 -0.8467919559032173
4703000000.0 0.5358909538694001 -0.8255097110502247
4706000000.0 0.519268587930627 -0.8734772772415818
4709000000.0 0.5009881595770058 -0.8843664501155704
4712000000.0 0.5017033772848618 -0.8809482441522481
4716000000.0 0.5070836386911274 -0.8865573135900227
4719000000.0 0.5060645395912831 -0.8652529461910645
4722000000.0 0.5152780711526891 -0.8873296811792142
4725000000.0 0.48851192646788444 -0.8918432106340554
4728000000.0 0.4626505563311615 -0.8918118390909613
4731000000.0 0.5052619996487435 -0.9127252023399883
4734000000.0 0.477548435822428 -0.8807463467975155
4738000000.0 0.4743565370454603 -0.909870045479558
4741000000.0 0.4652695421699514 -0.9490953169893058
4744000000.0 0.4013833369409401 -0.9345944975811112
4747000000.0 0.43275454957764375 -0.8867175235095129
4750000000.0 0.4244064557700943 -0.9294686064983779
4753000000.0 0.4233350222388867 -0.9125760096072082
4756000000.0 0.4073751858643829 -0.9043853070987169
4759000000.0 0.39021376161849186 -0.927578953359208
4762000000.0 0.3872877921608196 -0.9241449332258247
4766000000.0 0.3776757028194909 -0.9469055062650013
4769000000.0 0.4008488552845771 -0.9491438814524976
4772000000.0 0.3538413216340379 -0.9566565772302562
4775000000.0 0.35606773102038897 -1.0084625879976086
4778000000.0 0.34073227591109817 -0.9644691270760563
4781000000.0 0.3556992218128636 -0.9441479463698643
4784000000.0 0.3645610599217254 -0.9317218154931416
4788000000.0 0.28717342311598176 -0.97411871193065
4791000000.0 0.3051453131459626 -0.9489444216549577
4794000000.0 0.3375369146690536 -0.9678334446066559
4797000000.0 0.28814449786138996 -0.9634022720496805
4800000000.0 0.2800208322687428 -0.9608074254420833
4803000000.0 0.23645145575448034 -0.9795088813035426
4806000000.0 0.27771784764783647 -1.0138157765641136
4809000000.0 0.22094251308595253 -0.9881140581193767
4812000000.0 0.21825483392439385 -0.9647184489975429
4816000000.0 0.2779968390493558 -0.9527312834491874
4819000000.0 0.2689466907512795 -0.9698527980610911
4822000000.0 0.2766102357900519 -1.0351091902191643
4825000000.0 0.24724694251376736 -1.0307044723767238
4828000000.0 0.22425055534508823 -0.9971163844679135
4831000000.0 0.16258557439705956 -1.0279784915958052
4834000000.0 0.19635606892789978 -1.0165810862534634
4838000000.0 0.17028793361636482 -1.0177139466291714
4841000000.0 0.1820225903185434 -0.9982006951440584
4844000000.0 0.20898469576187612 -1.006158851392763
4847000000.0 0.1955416556412888 -0.9635056389773731
4850000000.0 0.14371962722148124 -1.0424314374207981
4853000000.0 0.1480027053769415 -0.97135232990697
4856000000.0 0.13118190885391356 -0.9962635405505768
4859000000.0 0.14224518992325433 -1.0396592506745597
4862000000.0 0.14751667509829663 -1.002517483187328
4866000000.0 0.10204716078084353 -1.0693243999064534
4869000000.0 0.10219006834279264 -1.0097150323246713
4872000000.0 0.06100940137132926 -1.0333987746198956
4875000000.0 0.15643642412648312 -1.0593706979155073
4878000000.0 0.09300718833294966 -1.0269928151193715
4881000000.0 0.05244154783528611 -1.0781918604519907
4884000000.0 0.10827922362452473 -1.0134312633844191
4888000000.0 0.09570044063229463 -0.9964932352669874
4891000000.0 0.07235976078880113 -1.0543427537931116
4894000000.0 0.05239544058940502 -1.0023736184448246
4897000000.0 0.063211446288479 -0.9913709133542917
4900000000.0 0.023005511127076633 -1.00588898486461
4903000000.0 0.042656010506400985 -1.0601158503740165
4906000000.0 0.016039804252355457 -1.0491164877626018
4909000000.0 -0.0237399946505316 -1.0473759763324084
4912000000.0 -0.02468304337192704 -1.0569835647208727
4916000000.0 -0.020335263028965052 -1.0573509180520724
4919000000.0 -0.00042993119885013226 -1.0446423247610608
4922000000.0 -0.005925869312244314 -1.027582205557135
4925000000.0 -0.07602821261502785 -1.013903650087409
4928000000.0 0.016110765547442923 -0.9709207251663302
4931000000.0 -0.018994651518965122 -1.02763870714843
4934000000.0 -0.06271428240480802 -0.980244809604677
4938000000.0 -0.08452351827024028 -0.9974351899332465
4941000000.0 -0.10299101800473727 -0.992343826627453
4944000000.0 -0.07824118807957572 -1.0058910508879972
4947000000.0 -0.0828353003652671 -0.9962930445881012
4950000000.0 -0.1098625348587743 -0.9878477844714477
4953000000.0 -0.1459411668742842 -1.0436007217081458
4956000000.0 -0.12976211914569857 -1.0028422648798145
4959000000.0 -0.16432895449295373 -0.9607950978269453
4962000000.0 -0.1852949137110543 -1.0465130297104481
4966000000.0 -0.13612526363652722 -1.0471693068757415
4969000000.0 -0.128713960829636 -1.0465391464710294
4972000000.0 -0.1493424091294853 -1.015956283915679
4975000000.0 -0.13145810527461163 -1.0001625396244422
4978000000.0 -0.16416092842042718 -1.0189103986850312
4981000000.0 -0.21720889731780654 -1.0011685785620907
4984000000.0 -0.15743462745309225 -0.9826956601306804
4988000000.0 -0.18238182055131796 -1.0169988659880116
4991000000.0 -0.14519729385984148 -1.0089757142818152
4994000000.0 -0.1839262747330111 -1.0275177827599673
4997000000.0 -0.2509725251774261 -1.008603437853937
5000000000.0 -0.21925613189998833 -1.029980720454222
5003000000.0 -0.2116278461135026 -1.046967409651774
5006000000.0 -0.2640900336515043 -1.0599331392407485
5009000000.0 -0.27199763050188863 -0.992730415997728
5012000000.0 -0.2901546014514012 -0.9932882674424457
5016000000.0 -0.2201976928725189 -1.0065977605383478
5019000000.0 -0.2737447156898201 -0.972078337663651
5022000000.0 -0.27927582536216033 -1.0082680071161676
5025000000.0 -0.2789494020438535 -1.0628973866527263
5028000000.0 -0.3308647797374118 -0.9834126964815255
5031000000.0 -0.3079333498440635 -0.9678741737220181
5034000000.0 -0.35143768870851777 -1.0010309886274809
5038000000.0 -0.3408788030165084 -0.9392296159168194
5041000000.0 -0.313563531841463 -0.9957369949954743
5044000000.0 -0.29399519133596075 -0.9946220220063212
5047000000.0 -0.3068604823179611 -0.9803876719733123
5050000000.0 -0.26858341967601884 -0.9848828852789255
5053000000.0 -0.3851903331795765 -1.010212544449264
5056000000.0 -0.3244333213907299 -0.9967377812617157
5059000000.0 -0.3014135945736604 -0.9874255454907296
5062000000.0 -0.41515805370599856 -0.9567988035392256
5066000000.0 -0.3616597122257069 -0.9209641509397335
5069000000.0 -0.41548754634421226 -0.9562806393402684
5072000000.0 -0.37746873554490956 -0.9202406985622327
5075000000.0 -0.3887548221346798 -0.975820485551562
5078000000.0 -0.45616093487906545 -0.9364106607840184
5081000000.0 -0.4237630619707033 -0.9004862331504503
5084000000.0 -0.4475796636496121 -0.9910400385008704
5088000000.0 -0.4226484066533103 -0.9665522290290844
5091000000.0 -0.4956421500902474 -0.9034064750697779
5094000000.0 -0.5071837836596939 -0.9432693354042242
5097000000.0 -0.4420414341463982 -0.9649820239473494
5100000000.0 -0.42328317765018025 -0.9291638508141192
5103000000.0 -0.49231247325049143 -0.916950352097413
5106000000.0 -0.4966077145614323 -0.9817318504245793
5109000000.0 -0.43776599161261603 -0.9531307588353732
5112000000.0 -0.49195966372331174 -0.885322523667341
5116000000.0 -0.49181628976650227 -0.8741435579480357
5119000000.0 -0.5277690474726623 -0.9218779820136034
5122000000.0 -0.4933741356598005 -0.9037296843180564
5125000000.0 -0.49669112956893136 -0.8632441071955724
5128000000.0 -0.5239221801314875 -0.8714112510430212
5131000000.0 -0.5418395337383183 -0.8527424320632431
5134000000.0 -0.5253409931050252 -0.8064651840553777
5138000000.0 -0.5557617365392622 -0.8958424853117036
5141000000.0 -0.4907236188972984 -0.8963336312751182
5144000000.0 -0.5830216156751766 -0.8464783431770084
5147000000.0 -0.5756121184767263 -0.9081703500497713
5150000000.0 -0.5653507124110478 -0.8704821154538464
5153000000.0 -0.5703958094324526 -0.8618748378863397
5156000000.0 -0.6206176685364959 -0.8761621915090066
5159000000.0 -0.5833769660857612 -0.851644679612957
5162000000.0 -0.6090236221012587 -0.8037162270984224
5166000000.0 -0.6382401991331589 -0.8399083113860584
5169000000.0 -0.6336578398075754 -0.858862302533617
5172000000.0 -0.6041017450313336 -0.8023303521944959
5175000000.0 -0.6251605261166939 -0.8583103508563585
5178000000.0 -0.6449423154026779 -0.8138810996141569
5181000000.0 -0.624175420409708 -0.8496968662384016
5184000000.0 -0.6401623494261658 -0.7725005046069239
5188000000.0 -0.6367787728056582 -0.8521747389435009
5191000000.0 -0.6570041971825342 -0.7813874622532646
