! Created with skrf 1.8.0 (http://scikit-rf.org).
# Hz S RI R 50.0 
!freq ReS11 ImS11
4000000000.0 0.6090004415327696 0.8086353296351767
4003000000.0 0.6779682794414362 0.8538582120831444
4006000000.0 0.7018429160444557 0.7813421575557977
4009000000.0 0.6740801755506713 0.831466513111734
4012000000.0 0.6156500443401003 0.8405748781273304
4016000000.0 0.711995009664357 0.772665695676964
4019000000.0 0.6994041546849026 0.7643742530059107
4022000000.0 0.6433147118070677 0.8243749688021322
4025000000.0 0.7185528024408946 0.7673771010780562
4028000000.0 0.7226876009059644 0.7685185362558979
4031000000.0 0.6632015525715311 0.7651371034376697
4034000000.0 0.7368434212856948 0.7319544476373324
4038000000.0 0.7309366497541593 0.7333784719702297
4041000000.0 0.7185068545410769 0.7669438127158946
4044000000.0 0.7686473007924092 0.7818219517202764
4047000000.0 0.7176628482413777 0.7848901935309931
4050000000.0 0.7840978333349199 0.6746613442349343
4053000000.0 0.761588626048899 0.6712830586991514
4056000000.0 0.747326548814361 0.7426600191935752
4059000000.0 0.7837322908080289 0.6907267976891438
4062000000.0 0.7665856036800244 0.7244048528297864
4066000000.0 0.7149718061076571 0.6654543118370416
4069000000.0 0.8419347753458617 0.7081129045086948
4072000000.0 0.7227966039554591 0.697861771543919
4075000000.0 0.795372141103171 0.7357214856365668
4078000000.0 0.8159108152327668 0.6570751256093929
4081000000.0 0.7521065748375569 0.6837699751456002
4084000000.0 0.8286129582484663 0.6454624084691416
4088000000.0 0.7859870838128463 0.6784785334559469
4091000000.0 0.8468258539276605 0.6906633418467134
4094000000.0 0.8286183610079827 0.6055657559832471
4097000000.0 0.8188773914017875 0.6650891565625265
4100000000.0 0.807938740038159 0.6034965932506628
4103000000.0 0.8199291641937438 0.6602261583521136
4106000000.0 0.830730754230326 0.5808718396696035
4109000000.0 0.8752558495567462 0.5728686782883394
4112000000.0 0.8260738089839124 0.597958912541162
4116000000.0 0.8385023936799644 0.6072966954977066
4119000000.0 0.8729932870690357 0.5730261249826124
4122000000.0 0.8821644936408042 0.5449863445398158
4125000000.0 0.9227988534751678 0.5781129832089791
4128000000.0 0.7993306252417511 0.5755227089806632
4131000000.0 0.853147875175921 0.5206922117692261
4134000000.0 0.8638474052009326 0.5148847984243428
4138000000.0 0.8864613539829196 0.5075869667074868
4141000000.0 0.8753450308374501 0.5369556834827159
4144000000.0 0.8817669162031777 0.5459863586028486
4147000000.0 0.9036971250520596 0.46023222146469217
4150000000.0 0.9115315636327185 0.5329763883992928
4153000000.0 0.915330019266752 0.4787274582148435
4156000000.0 0.9123653279155552 0.5108329886584844
4159000000.0 0.9123266559666057 0.4967716337777032
4162000000.0 0.8980886531612875 0.464809921944903
4166000000.0 0.9424649297239573 0.44098922467612445
4169000000.0 0.9244200892822562 0.41551786487073805
4172000000.0 0.958012611927252 0.46752919025770384
4175000000.0 0.9354233626096696 0.44504585016658266
4178000000.0 0.9585899338702543 0.4336295125836057
4181000000.0 0.9605112457418212 0.4452271302813866
4184000000.0 0.9184726916255739 0.40792509181681963
4188000000.0 0.9266573706035781 0.4209750990087213
4191000000.0 0.9002215319390516 0.45058811319397135
4194000000.0 0.9362945889455284 0.3901697699015645
4197000000.0 0.955635094001799 0.40602967514897154
4200000000.0 0.9310506980152895 0.37983731999410997
4203000000.0 0.9831939984081627 0.3886347692086298
4206000000.0 0.959738034557057 0.4062547435235678
4209000000.0 0.9384373369848538 0.3599482840547628
4212000000.0 0.9816320330779621 0.3211251999648822
4216000000.0 0.9605294660770682 0.35119196706075667
4219000000.0 0.956102503067963 0.3332764213446916
4222000000.0 0.9713129553015167 0.31345879732250154
4225000000.0 0.964908907491173 0.3176758092654317
4228000000.0 0.9844248106131399 0.3320039570849578
4231000000.0 0.9803603359980226 0.29306087653548224
4234000000.0 0.9787429381310366 0.29626994450475674
4238000000.0 0.9853381388131464 0.27834782854255546
4241000000.0 0.968037292749172 0.25831590927631304
4244000000.0 0.9757671612232519 0.27848732273177396
4247000000.0 0.9736889230666999 0.26580457410530567
4250000000.0 0.9770548173097802 0.25529792702106674
4253000000.0 0.9811703309623703 0.2284844132152269
4256000000.0 0.9927460378345807 0.239424883200347
4259000000.0 0.9754167641432224 0.230465754518232
4262000000.0 0.9967974889532767 0.2137284517688328
4266000000.0 1.009652086755793 0.19016466911425273
4269000000.0 1.0121771720251442 0.1964463867265225
4272000000.0 1.00064672918054 0.1906710288192347
4275000000.0 0.9941961304746854 0.18873186658660407
4278000000.0 1.0250355659175143 0.18399720639519113
4281000000.0 1.0161855528399395 0.18464098990331795
4284000000.0 1.0207189802924692 0.1361351446097934
4288000000.0 0.9971388908812886 0.16449257808059947
4291000000.0 0.9837873342349067 0.15072818676044963
4294000000.0 1.0026978429982845 0.15287583787044695
4297000000.0 0.9923701832911286 0.16482178222584615
4300000000.0 0.9925885897069153 0.1270460763747477
4303000000.0 0.9969243557262214 0.10520587885163611
4306000000.0 1.0113022378922865 0.10196388639822596
4309000000.0 1.0105987680709634 0.11682913108784228
4312000000.0 1.023828444377966 0.1309346540005563
4316000000.0 1.012460131853032 0.10038972996252053
4319000000.0 1.012115222066619 0.07132092909303996
4322000000.0 0.9751284604663992 0.04690088845552383
4325000000.0 1.0117467707277896 0.05994758753578465
4328000000.0 1.0082425552841883 0.05127900961761368
4331000000.0 1.0170900318670102 0.01127314908917576
4334000000.0 1.025187432368775 -0.011503790412069975
4338000000.0 1.0028306125515742 0.04431558299569831
4341000000.0 1.0448586193325862 0.025191513650589276
4344000000.0 1.0446206375242726 -0.0004699137049020974
4347000000.0 1.0103234327287622 -0.00952871285902293
4350000000.0 0.9769681458676748 -0.02333100093016069
4353000000.0 0.9867040087381462 0.030556482512566985
4356000000.0 0.9991201542580765 -0.05854391675983936
4359000000.0 0.958233031016656 -0.02507291752403734
4362000000.0 1.032200307680437 -0.10520425940471236
4366000000.0 1.0189967690206498 -0.0888473137164915
4369000000.0 0.9672631670772595 -0.07478909099282491
4372000000.0 1.0087765706005074 -0.10552469239900344
4375000000.0 1.0037021098533827 -0.0670168226784193
4378000000.0 0.9943499645117585 -0.10339540438651766
4381000000.0 0.9946582186600446 -0.09370895203577967
4384000000.0 1.0754593413686642 -0.13539779671594643
4388000000.0 0.9875394551078263 -0.12440909485287334
4391000000.0 0.9995803399224032 -0.12315584923755883
4394000000.0 0.9693402121342182 -0.14064135095133984
4397000000.0 0.9897653895822491 -0.1464620175290206
4400000000.0 1.0297128512692608 -0.15887496622834546
4403000000.0 1.008197180002723 -0.15794022547598519
4406000000.0 0.9899371446283218 -0.1846516555880684
4409000000.0 1.0348875933454798 -0.19669377304564728
4412000000.0 0.9665557680065526 -0.254185056572619
4416000000.0 0.982318260359728 -0.20559451872188075
4419000000.0 0.9963657882473651 -0.2210908521365076
4422000000.0 0.9829629884826014 -0.20088597950146067
4425000000.0 1.0175587823784413 -0.20565179753243645
4428000000.0 0.9839495115842821 -0.23909403682634653
4431000000.0 0.9988366455139353 -0.23552066903149824
4434000000.0 0.9557768201217057 -0.2564310936516148
4438000000.0 1.0065010159046648 -0.25601139293583847
4441000000.0 0.9886130342385402 -0.2828707431635729
4444000000.0 0.9573593931606306 -0.26941992723219915
4447000000.0 0.9555068689314417 -0.2819556942524204
4450000000.0 0.9482922592324721 -0.28854125640966904
4453000000.0 0.9947875186483072 -0.3067819146089288
4456000000.0 0.9379520623167832 -0.30750065530950016
4459000000.0 0.9212551763136934 -0.31318359643536225
4462000000.0 1.0187306037206096 -0.34279348284912886
4466000000.0 0.9799492012731933 -0.3654215934493259
4469000000.0 0.9608196449451484 -0.32879920620263614
4472000000.0 0.971046570975596 -0.3762295875438513
4475000000.0 0.9209263360041462 -0.3425641132069298
4478000000.0 0.9734034137865263 -0.4003417185938224
4481000000.0 0.9019605099310785 -0.37925720740412533
4484000000.0 0.921698943026982 -0.43480922594495797
4488000000.0 0.9088992048041007 -0.4030866553171053
4491000000.0 0.932720577089835 -0.39648128016514317
4494000000.0 0.9130555044711454 -0.4122276769952753
4497000000.0 0.9177330071565544 -0.4052968593536335
4500000000.0 0.928000718302203 -0.40461435541539337
4503000000.0 0.9374672827909627 -0.4431665001453105
4506000000.0 0.8944522288794059 -0.4393237296960564
4509000000.0 0.8887781746845185 -0.43816303089941133
4512000000.0 0.8706424717347345 -0.4761587475311593
4516000000.0 0.9221658665810938 -0.46312594477527175
4519000000.0 0.8859500609239507 -0.4416631142181178
4522000000.0 0.8754587281865236 -0.49061386877091256
4525000000.0 0.8795375815759652 -0.46617784649373945
4528000000.0 0.9088170893909355 -0.5125909313477985
4531000000.0 0.878824676571333 -0.49091618371622336
4534000000.0 0.8581129840125766 -0.4943834480449253
4538000000.0 0.8443813668257154 -0.5282219388940711
4541000000.0 0.8227022041772225 -0.5390182228625006
4544000000.0 0.8463761929776088 -0.5100773859693004
4547000000.0 0.8420333761130252 -0.520048945131715
4550000000.0 0.8450007183284094 -0.5602911394776695
4553000000.0 0.8521552777989081 -0.5617168727164118
4556000000.0 0.8131681710789831 -0.5612173481874257
4559000000.0 0.8336365627179605 -0.5831420975005004
4562000000.0 0.8378139685825199 -0.5927601526417452
4566000000.0 0.8189231332872724 -0.58693352896183
4569000000.0 0.7788060687474321 -0.5963410796860915
4572000000.0 0.8196416575732508 -0.6053058772924191
4575000000.0 0.7919033480170781 -0.6397578899716038
4578000000.0 0.8197135770109445 -0.623448276687212
4581000000.0 0.7826642960029327 -0.6376191223695766
4584000000.0 0.7811342793840365 -0.6397914756203888
4588000000.0 0.8139201285119735 -0.6430229498578113
4591000000.0 0.7815094025501582 -0.6299197610988205
4594000000.0 0.7653985660810111 -0.6674663142322879
4597000000.0 0.7756399500165634 -0.6715121852587889
4600000000.0 0.7204766930386199 -0.6710007938843298
4603000000.0 0.7660026853555328 -0.6935806262335308
4606000000.0 0.7603491771336496 -0.6754900684676376
4609000000.0 0.7552898413359433 -0.6851376698778852
4612000000.0 0.7436215664906708 -0.7122288075860138
4616000000.0 0.721013255422005 -0.6888265062562062
4619000000.0 0.7299399976872119 -0.6909759788054748
4622000000.0 0.7267270107408184 -0.6966919711055414
4625000000.0 0.6838761324524937 -0.6994186244510291
4628000000.0 0.7295957901246375 -0.7141012634976341
4631000000.0 0.6687211149368881 -0.7329375364097137
4634000000.0 0.6911059845908295 -0.7454951693608342
4638000000.0 0.6909177185782438 -0.7364584914003226
4641000000.0 0.6864588298024094 -0.7178916063972849
4644000000.0 0.6667023266121708 -0.7503978480681819
4647000000.0 0.6630395538915294 -0.7587810325362241
4650000000.0 0.6608381892619057 -0.7624371656591045
4653000000.0 0.6779743851127955 -0.7717041828953854
4656000000.0 0.6578260717346984 -0.7823141037711172
4659000000.0 0.629981298981388 -0.7916858109375335
4662000000.0 0.6556694138801272 -0.7924079461322205
4666000000.0 0.6044774579133156 -0.7961684162932957
4669000000.0 0.6355774368465832 -0.7990889333290547
4672000000.0 0.6155196928841002 -0.831939007538452
4675000000.0 0.6120594528584198 -0.8313848533235916
4678000000.0 0.6026638619564226 -0.8041788266241537
4681000000.0 0.5793906413565091 -0.8595002323778763
4684000000.0 0.5878208702282389 -0.8408161359155294
4688000000.0 0.5524319282701017 -0.8305376729542273
4691000000.0 0.5785740961053732 -0.8389248108090583
4694000000.0 0.5644746258702038 -0.8342847554123749
4697000000.0 0.5358519462097301 -0.857877924521804
4700000000.0 0.5474552810514235 -0.8269630918390973
4703000000.0 0.5447019822948421 -0.8066315566088615
4706000000.0 0.5436600848735884 -0.8722679898577574
4709000000.0 0.5282960750197805 -0.8625297099945286
4712000000.0 0.5358414620630959 -0.8672463473791387
4716000000.0 0.5015656040299328 -0.8625704864263606
4719000000.0 0.5135193906452514 -0.8758479598792799
4722000000.0 0.5315435176318455 -0.8895781220635575
4725000000.0 0.474975591315009 -0.8860605202016237
4728000000.0 0.46277583154625496 -0.8952946409962712
4731000000.0 0.46970118463305444 -0.9132892051838006
4734000000.0 0.46875720147926747 -0.8694808983009317
4738000000.0 0.47724537467526795 -0.922538211319325
4741000000.0 0.4569306272652076 -0.9456071074154423
4744000000.0 0.429404045837048 -0.9398427018398242
4747000000.0 0.4383674728943558 -0.8721268414438801
4750000000.0 0.4528850311370928 -0.9225145220403077
4753000000.0 0.43155638016442305 -0.9079663430401256
4756000000.0 0.43777995883567355 -0.9542851503130707
4759000000.0 0.424060481244093 -0.9395527625271062
4762000000.0 0.3713316090689335 -0.9403428108394603
4766000000.0 0.3861515252607384 -0.950069186387364
4769000000.0 0.38402165739184846 -0.9409645562358996
4772000000.0 0.3611194390761992 -0.9722639692009635
4775000000.0 0.35346160931865733 -0.9907067719748497
4778000000.0 0.35613814710850855 -0.9773139055881607
4781000000.0 0.34067205296842606 -0.9235412312249036
4784000000.0 0.33010441930335555 -0.9233170856865739
4788000000.0 0.33373757714738833 -0.995419380720834
4791000000.0 0.32790211842697353 -0.9513044496921373
4794000000.0 0.3423601636789607 -0.9893281359554218
4797000000.0 0.2984856506840526 -0.9441065308395961
4800000000.0 0.2806424331712248 -0.9662765024618574
4803000000.0 0.2426548226201085 -0.9509508564342057
4806000000.0 0.2834718833541842 -0.9865396566343527
4809000000.0 0.2706717376316256 -0.9844886962487468
4812000000.0 0.2264947720895037 -0.9962479602926051
4816000000.0 0.28173234154295407 -0.9702745371900086
4819000000.0 0.27555441586662466 -1.0164623553529213
4822000000.0 0.2884639462678218 -1.0094402358187131
4825000000.0 0.24268387014537873 -1.0136867205895428
4828000000.0 0.2136683022294516 -0.9929268897995632
4831000000.0 0.15515500579431116 -1.0258251262472755
4834000000.0 0.21083110052759613 -1.0028435695517384
4838000000.0 0.18112728904487913 -1.013135531896237
4841000000.0 0.16587395295261437 -1.0208711900988732
4844000000.0 0.2157094999139456 -1.0192044868959167
4847000000.0 0.19936775953132277 -0.9940628325439678
4850000000.0 0.1516215443673568 -1.0564633608425638
4853000000.0 0.17249648477152207 -0.9833166452238291
4856000000.0 0.14430816687565495 -1.0042116931296763
4859000000.0 0.15118489373501534 -1.074866755501764
4862000000.0 0.16034343555120784 -0.9843360856766185
4866000000.0 0.10563803458552412 -1.0244960082714842
4869000000.0 0.10792234191273639 -0.9989806146651626
4872000000.0 0.0888765248304438 -1.0515821977336168
4875000000.0 0.16391750870400584 -1.0403433666113369
4878000000.0 0.07717141447473254 -0.998322313966436
4881000000.0 0.052502956461294166 -1.0898869020130462
4884000000.0 0.09564974265885351 -1.0347611873591323
4888000000.0 0.09158661394678222 -1.0084821988631412
4891000000.0 0.07245177756912828 -1.0618216636206008
4894000000.0 0.030589161414297482 -1.0373147865346373
4897000000.0 0.0837575203700015 -1.0066628840056984
4900000000.0 0.035280735192728424 -1.0753370808454215
4903000000.0 0.03378081606659714 -1.0388703098472412
4906000000.0 0.001405740176965332 -1.0643436709926801
4909000000.0 -0.027219881009210474 -1.0269973323294024
4912000000.0 -0.024814247567323783 -1.0452856382882834
4916000000.0 0.02813741634711553 -1.0721130886964991
4919000000.0 0.03221358618810507 -1.0457551519356443
4922000000.0 -0.006483469812852027 -1.0322502608342825
4925000000.0 -0.05783829206995893 -1.0643931816429235
4928000000.0 0.0252598542915924 -1.0255126058181372
4931000000.0 -0.03223121483637818 -1.0468568581509028
4934000000.0 -0.042635930626250484 -1.0242055495024553
4938000000.0 -0.0980270409054642 -1.0048775261610936
4941000000.0 -0.05524632941475267 -1.0129029337519098
4944000000.0 -0.06143225831554522 -0.9582859328185813
4947000000.0 -0.09138567942923775 -0.9898527362290352
4950000000.0 -0.0951994218115257 -0.9942609966824673
4953000000.0 -0.14115869999961989 -1.0616368299113625
4956000000.0 -0.15471707165814913 -1.0172769080282265
4959000000.0 -0.13384106618179384 -0.9921951543903733
4962000000.0 -0.11962339171672595 -1.0776451824707778
4966000000.0 -0.11594941533524533 -1.0230580374796194
4969000000.0 -0.12659256776623184 -1.0584205426538253
4972000000.0 -0.16061563334219733 -1.0495080944042876
4975000000.0 -0.11401342276881823 -1.0083342832992352
4978000000.0 -0.19527516100365105 -1.0193739351156592
4981000000.0 -0.19527608040016767 -1.0568151452842758
4984000000.0 -0.1545877937659144 -0.9904253101049403
4988000000.0 -0.16760917796628727 -0.9907695604784668
4991000000.0 -0.14886992704947016 -1.0373594139208944
4994000000.0 -0.1862483851298528 -1.0232809592344705
4997000000.0 -0.2672017218995695 -0.9998407148490897
5000000000.0 -0.23137690224710766 -1.0292335532795724
5003000000.0 -0.21528760255253793 -1.0366062044109432
5006000000.0 -0.23669407567698528 -1.0624071016117203
5009000000.0 -0.2417921691607832 -1.0306905822701276
5012000000.0 -0.2670409610693777 -1.0065154077321754
5016000000.0 -0.23579658922816754 -1.0635031984916312
5019000000.0 -0.2689510282921142 -0.9765564942425546
5022000000.0 -0.2850054462825864 -1.002512495884754
5025000000.0 -0.341462099620706 -1.0439981795823554
5028000000.0 -0.33025101111814037 -0.9634274131733596
5031000000.0 -0.2924911392692916 -0.9895280407150183
5034000000.0 -0.3509861113074403 -1.012261644511752
5038000000.0 -0.3102627610360815 -0.9639871085384428
5041000000.0 -0.301506493548105 -1.0254972339175374
5044000000.0 -0.33715187888983333 -0.987501314312064
5047000000.0 -0.34314670212185877 -0.9953978198568395
5050000000.0 -0.2301602928449424 -1.0229321017758601
5053000000.0 -0.3921109116504917 -1.032439732964306
5056000000.0 -0.3286473470751782 -0.971343919184982
5059000000.0 -0.33487596770656175 -0.9990438707486246
5062000000.0 -0.4098467072806914 -0.9838522902538662
5066000000.0 -0.36122613804624304 -0.9901829916476339
5069000000.0 -0.3733039717653463 -0.987961070814453
5072000000.0 -0.3742882060046941 -0.9233017307536686
5075000000.0 -0.38508997248594123 -0.9449012406299802
5078000000.0 -0.4619647836478192 -0.9254973318549602
5081000000.0 -0.42904658593786665 -0.8849630971400976
5084000000.0 -0.44929903926625725 -0.9326904568631849
5088000000.0 -0.4263227844413403 -0.9612616979986919
5091000000.0 -0.4469922062746345 -0.9739595770164675
5094000000.0 -0.48307029676122665 -0.9441099258745079
5097000000.0 -0.40911622450911433 -0.9458975364804261
5100000000.0 -0.4376213322201862 -0.9643115627065403
5103000000.0 -0.5154653128169783 -0.9149762950867096
5106000000.0 -0.4385240983188532 -0.9709202451747456
5109000000.0 -0.4789140730196365 -0.9239811532692654
5112000000.0 -0.5255968161196577 -0.9086428029100402
5116000000.0 -0.5161287309237526 -0.8500562310480659
5119000000.0 -0.5232938849585644 -0.9367954040780244
5122000000.0 -0.5023349156993219 -0.8615405413965578
5125000000.0 -0.49439142182939516 -0.8893227409029941
5128000000.0 -0.545113682488376 -0.887120093680472
5131000000.0 -0.5406785882510592 -0.8776138979676189
5134000000.0 -0.5033357316551236 -0.8903844152397392
5138000000.0 -0.4999972054822299 -0.866288595024594
5141000000.0 -0.5358678500307295 -0.9140487279299068
5144000000.0 -0.5374013834273298 -0.8925524717687476
5147000000.0 -0.5845467894539099 -0.921636638084664
5150000000.0 -0.5023822215478347 -0.9117183892851793
5153000000.0 -0.5815095059919575 -0.8623126724295452
5156000000.0 -0.5848547718819022 -0.8846495914522584
5159000000.0 -0.5865827305252832 -0.8981125698081466
5162000000.0 -0.6087455937943951 -0.8690993532103405
5166000000.0 -0.6175068315463689 -0.8846219735429134
5169000000.0 -0.632920129563736 -0.8628414124545437
5172000000.0 -0.6154029456888181 -0.8476954373880746
5175000000.0 -0.6076555864556675 -0.8673393192471238
5178000000.0 -0.6479773694971149 -0.816751740942016
5181000000.0 -0.6459531949217884 -0.8704132047932082
5184000000.0 -0.6617808953193683 -0.7753841437645475
5188000000.0 -0.6170307784230019 -0.8072462870391403
