! Created with skrf 1.8.0 (http://scikit-rf.org).
# Hz S RI R 50.0 
!freq ReS11 ImS11
4000000000.0 0.6358838140271437 0.8607754093123303
4003000000.0 0.6324655131130706 0.8324611294304345
4006000000.0 0.6346894919875399 0.7724554850767351
4009000000.0 0.6545398675682125 0.8029518841628317
4012000000.0 0.6330268455359456 0.8624351263943831
4016000000.0 0.6537062326102665 0.8307962315160677
4019000000.0 0.6729101360755272 0.7486372562958181
4022000000.0 0.654216315891993 0.7756197314717737
4025000000.0 0.7275132775661068 0.7696566573647617
4028000000.0 0.7094488202642807 0.7525201579035372
4031000000.0 0.6835507367320681 0.7489593573134986
4034000000.0 0.7270789103119191 0.7216562422704014
4038000000.0 0.7487489597763826 0.7215317937644586
4041000000.0 0.7333221093577356 0.7095946849568892
4044000000.0 0.7401666693524471 0.7537328814108027
4047000000.0 0.7164175828877074 0.7661331380269208
4050000000.0 0.7473369526361209 0.7316329285428093
4053000000.0 0.7544450319125496 0.6557213425282393
4056000000.0 0.7639535824434758 0.6891079815496386
4059000000.0 0.7264860839624094 0.7147978585551296
4062000000.0 0.769918950286412 0.6827332881677104
4066000000.0 0.693176595056878 0.6501641406984836
4069000000.0 0.8146030894858951 0.6585268828725951
4072000000.0 0.7441413733565038 0.707058998395788
4075000000.0 0.7919903356623454 0.7105383813752482
4078000000.0 0.7858769717205698 0.6560038613082998
4081000000.0 0.7796496545825855 0.7165336546541212
4084000000.0 0.7949563450504923 0.6235051191686762
4088000000.0 0.7401475353729079 0.6454476854353018
4091000000.0 0.8502234240421596 0.6968016569645168
4094000000.0 0.7908193959690849 0.6234025337194097
4097000000.0 0.8189812109323927 0.6221820562279416
4100000000.0 0.8320217318333512 0.5886109259024137
4103000000.0 0.8238075725376859 0.6474644202341071
4106000000.0 0.8635760670141014 0.5847941409514987
4109000000.0 0.8459359344260022 0.5896530093381405
4112000000.0 0.8383363433937709 0.6134886374117678
4116000000.0 0.8415921844750579 0.5845359001651199
4119000000.0 0.886192433415349 0.5466500811176358
4122000000.0 0.8564320550734539 0.5499717629539073
4125000000.0 0.9164029274331715 0.5654332988622839
4128000000.0 0.8135715712289247 0.5915383729228175
4131000000.0 0.8424985949223288 0.5347081031694715
4134000000.0 0.861859333799452 0.5311766595031725
4138000000.0 0.858811425945716 0.5304683095971907
4141000000.0 0.8411244837761991 0.5253818850767394
4144000000.0 0.8806366203489052 0.532876308348927
4147000000.0 0.8972488578824894 0.507402171578587
4150000000.0 0.9302933957055917 0.5146025562090724
4153000000.0 0.8796065158270114 0.5063956871939594
4156000000.0 0.8963442900404028 0.488128043755377
4159000000.0 0.8882079157859177 0.4973861382783234
4162000000.0 0.901212071440098 0.497583384872206
4166000000.0 0.9258210289969271 0.4691454457104607
4169000000.0 0.8821121345993351 0.4449514106290511
4172000000.0 0.8985304147148051 0.4529069844361065
4175000000.0 0.8968647296491358 0.4388177167551824
4178000000.0 0.9523764127663671 0.42863348839805426
4181000000.0 0.94795224112036 0.4080949467683568
4184000000.0 0.909437576561995 0.4091091533908749
4188000000.0 0.9197213705314524 0.40625854826369767
4191000000.0 0.9237373233209829 0.43077182749545523
4194000000.0 0.9271616873614879 0.3854514582968611
4197000000.0 0.9469465308074112 0.37554004585724804
4200000000.0 0.9445242701626435 0.3844198027137252
4203000000.0 0.9575103532442063 0.3846462259526928
4206000000.0 0.9735555697510222 0.37496978722221225
4209000000.0 0.9367422766962259 0.3738312257212218
4212000000.0 0.9613085352076411 0.3247440671121776
4216000000.0 0.9572025384036834 0.344534846613297
4219000000.0 0.9687620517192608 0.3653820614394274
4222000000.0 0.9694786259302384 0.3089843542840725
4225000000.0 0.9565523508642346 0.3248687008751967
4228000000.0 0.9632124147557637 0.3083153820956225
4231000000.0 0.9716990862780284 0.3030111997920424
4234000000.0 0.9832273925957403 0.29610380113000373
4238000000.0 0.9890273433490768 0.2760710318139601
4241000000.0 0.9730529901991003 0.26023855279995745
4244000000.0 0.9681102673467713 0.26868044683898773
4247000000.0 0.9914776635158478 0.2833956028001394
4250000000.0 0.9666840900834981 0.23124297772766061
4253000000.0 0.9652776846959892 0.23207702218577803
4256000000.0 0.9909488969486342 0.23527502129239303
4259000000.0 0.9475607235653662 0.2258782686437689
4262000000.0 0.9742427575368378 0.18327791195040402
4266000000.0 1.0094508235366852 0.18767913360860405
4269000000.0 0.981284199212217 0.23517957922473368
4272000000.0 0.9932324077862151 0.19456383432468927
4275000000.0 1.0019876795759324 0.19424202507099314
4278000000.0 1.0411924462974782 0.18901062657361184
4281000000.0 0.9932256794179246 0.1716836120267804
4284000000.0 1.0133735561617927 0.12388547024839636
4288000000.0 0.992622411444602 0.19129657099972136
4291000000.0 0.966247272386188 0.12742268185215155
4294000000.0 0.9905751438485111 0.12463826021475245
4297000000.0 0.9906118612755788 0.1478263699723436
4300000000.0 1.0040164981330355 0.13348921790401239
4303000000.0 1.001565340857604 0.09404836155907877
4306000000.0 0.9923629024581405 0.1353544568557461
4309000000.0 1.0045509215264639 0.11309323608398629
4312000000.0 1.0025000861237472 0.13247618227167696
4316000000.0 1.0148782391985858 0.07698372097570848
4319000000.0 1.0096944770549137 0.1070982480502201
4322000000.0 0.9887085468013393 0.049299716332688495
4325000000.0 1.012996741087251 0.07844749500412272
4328000000.0 1.001459586056693 0.052172364953744485
4331000000.0 1.0251815588108633 0.03647858351530067
4334000000.0 1.0159991429034985 -0.004618037157425897
4338000000.0 1.0375980151606734 0.042678563752794954
4341000000.0 1.0491790653185733 0.06004225389994158
4344000000.0 1.0288404028251343 0.029598401029435423
4347000000.0 1.0180157938301753 -0.023155545818886097
4350000000.0 0.9876344602625288 -0.01278330269308417
4353000000.0 1.004237146628193 0.0001329383722384614
4356000000.0 0.9958414773392583 -0.026009858749491466
4359000000.0 0.9663816518948554 -0.04918703579678081
4362000000.0 1.0123882378800042 -0.11300212910599315
4366000000.0 1.0141774117701148 -0.07358513347678104
4369000000.0 0.9784559071239896 -0.06426492977002923
4372000000.0 0.9797884412754838 -0.12444408436296853
4375000000.0 1.000512906231443 -0.07310594983695021
4378000000.0 0.9636427352104175 -0.06997848130216705
4381000000.0 1.0014153696101664 -0.06574998953960609
4384000000.0 1.037041185515307 -0.12300253335820815
4388000000.0 0.9978720313248749 -0.10225192401478311
4391000000.0 0.9887643276298268 -0.13148680766597384
4394000000.0 0.9691915560339132 -0.136061797944575
4397000000.0 0.9962310177438325 -0.1462007569553981
4400000000.0 1.0228939354874702 -0.16676182967705488
4403000000.0 0.9890474619120156 -0.16521216240114453
4406000000.0 1.0010037762337105 -0.19142687295952301
4409000000.0 1.0169702535993117 -0.1955283428960265
4412000000.0 0.9642061015748635 -0.23425248076268054
4416000000.0 0.9715438600847537 -0.2091047213443643
4419000000.0 0.9911515435315258 -0.21486228357873008
4422000000.0 0.9671975767511931 -0.2054887973895485
4425000000.0 1.0100331526339335 -0.19097604425549064
4428000000.0 0.9753306316052686 -0.2331993288276817
4431000000.0 1.0122750001586935 -0.23252174655722369
4434000000.0 0.9664519844110667 -0.25535392816496677
4438000000.0 1.0038419580149296 -0.26426319225736544
4441000000.0 0.9901228136917346 -0.2629479210540447
4444000000.0 0.9518788848776292 -0.2759892514332506
4447000000.0 0.9350973921558933 -0.3067352862214004
4450000000.0 0.9421275292827024 -0.2682867621858126
4453000000.0 0.9936300420910495 -0.29138897661938723
4456000000.0 0.9419387733211032 -0.30114908528638024
4459000000.0 0.9086839105866298 -0.32423936956285593
4462000000.0 0.996023568726925 -0.3546908625732898
4466000000.0 0.9753910564589372 -0.366477786920398
4469000000.0 0.9518959580142621 -0.3221798320851228
4472000000.0 0.957896120114267 -0.37552764437853636
4475000000.0 0.9245401881436043 -0.33800641483155713
4478000000.0 0.9788527738110646 -0.3973249689325591
4481000000.0 0.9057890519513279 -0.3699833363892909
4484000000.0 0.9216963446580226 -0.41944431227892476
4488000000.0 0.9131410820877675 -0.3882946563019551
4491000000.0 0.9201016476834656 -0.4122283905060309
4494000000.0 0.9052937153414439 -0.40318582152413296
4497000000.0 0.9242196604237167 -0.4068768418321675
4500000000.0 0.9163944003027933 -0.4135434075933699
4503000000.0 0.944077658393534 -0.4405229234091478
4506000000.0 0.9013222351064265 -0.4263023193611437
4509000000.0 0.8785169143612972 -0.44873474829986604
4512000000.0 0.8702769742078597 -0.4419778625662373
4516000000.0 0.9265596171312334 -0.46160955655017116
4519000000.0 0.8717033134239975 -0.4501053013905071
4522000000.0 0.8895012636830157 -0.47581306826525466
4525000000.0 0.9018776891895655 -0.45178586037199386
4528000000.0 0.8943047783140949 -0.5049773451485408
4531000000.0 0.8779587556091715 -0.4821512281169176
4534000000.0 0.8529229266619953 -0.5053778028408659
4538000000.0 0.8589252866651043 -0.5092898064258092
4541000000.0 0.8425700213154488 -0.5385499346336083
4544000000.0 0.8241499022590972 -0.5010849286140712
4547000000.0 0.8509047954023863 -0.5136524620124665
4550000000.0 0.8279525237062959 -0.5541228024524854
4553000000.0 0.835878631223177 -0.5671725916872417
4556000000.0 0.804110537517144 -0.5657189646377571
4559000000.0 0.8241092171026289 -0.5925952571477873
4562000000.0 0.8303177176111578 -0.5820783872262604
4566000000.0 0.8296495296613018 -0.5917393270205218
4569000000.0 0.7841207995 -0.5819469790970009
4572000000.0 0.8049524698619164 -0.6013026763865612
4575000000.0 0.7912034139279858 -0.6247830594478304
4578000000.0 0.8296507234347177 -0.6190166775423499
4581000000.0 0.7838847167510348 -0.6350478491553625
4584000000.0 0.7695375694437239 -0.6346088002193186
4588000000.0 0.7979573783981643 -0.6345892607491226
4591000000.0 0.7831428238153262 -0.6302206659489794
4594000000.0 0.753710227891963 -0.6635476664993861
4597000000.0 0.7686436024414038 -0.6620210341920892
4600000000.0 0.7297831559174863 -0.6607213118410478
4603000000.0 0.7389424966215947 -0.6785768287824379
4606000000.0 0.7581344866139458 -0.6802009914490966
4609000000.0 0.7414148123069395 -0.6860056045541336
4612000000.0 0.7384961630582203 -0.7018666604028244
4616000000.0 0.72192662553985 -0.6943815293950111
4619000000.0 0.7278828194854392 -0.7024054465745037
4622000000.0 0.7037378112516847 -0.7186758241774266
4625000000.0 0.6802996224233389 -0.7079963915306594
4628000000.0 0.7078944287946732 -0.6994681224817141
4631000000.0 0.6839429046607017 -0.734205292383059
4634000000.0 0.6838793766033633 -0.7343789711779786
4638000000.0 0.6856750692595486 -0.74781132892872
4641000000.0 0.6803875412899517 -0.7492168336630127
4644000000.0 0.6558212464657306 -0.7518718621763552
4647000000.0 0.6742491034608149 -0.7736930630960189
4650000000.0 0.6432201861397049 -0.7795516843680611
4653000000.0 0.6498057874259437 -0.7646508895238441
4656000000.0 0.6479109664805507 -0.7923667468907107
4659000000.0 0.6452513368619377 -0.7910186486669
4662000000.0 0.6377851363203616 -0.8038860437985896
4666000000.0 0.616281489344284 -0.7974978038559656
4669000000.0 0.6319548913117219 -0.7930330963244157
4672000000.0 0.5846586687519384 -0.838350884823876
4675000000.0 0.5671205517569662 -0.8249717498451384
4678000000.0 0.5777892487094844 -0.798743781235146
4681000000.0 0.584878526631367 -0.8368300962407658
4684000000.0 0.5630238610863957 -0.8599088797130537
4688000000.0 0.5444860310244225 -0.8201749189247038
4691000000.0 0.5729672433970359 -0.8453305274150151
4694000000.0 0.562913929568463 -0.8575494532161216
4697000000.0 0.5347360364742266 -0.8249518569897689
4700000000.0 0.5437098628543439 -0.8347894230368804
4703000000.0 0.5564676986011132 -0.8320756699331637
4706000000.0 0.5388926981576454 -0.8784992227229329
4709000000.0 0.5230172317992254 -0.8806882415805651
4712000000.0 0.5357892043105369 -0.8808881117454774
4716000000.0 0.5025338046315435 -0.8971530724632553
4719000000.0 0.5285325314646998 -0.8870447070704941
4722000000.0 0.5338744822556337 -0.8803564854369659
4725000000.0 0.4918613091226195 -0.895743373414307
4728000000.0 0.4694599573210564 -0.8800294348459494
4731000000.0 0.49953741180396194 -0.9065267737112763
4734000000.0 0.48428403662732705 -0.8644441126804439
4738000000.0 0.473961074496283 -0.9423835692537268
4741000000.0 0.45600738938301755 -0.9239199956252716
4744000000.0 0.4404458427454987 -0.8993434227854333
4747000000.0 0.4419907282860593 -0.8729714673872274
4750000000.0 0.421675548179053 -0.9427787549118426
4753000000.0 0.4406244766983225 -0.9258066009442232
4756000000.0 0.40554414174677467 -0.9287693964895636
4759000000.0 0.41510889513175664 -0.9189804844675683
4762000000.0 0.3763777828471484 -0.9723605092005341
4766000000.0 0.39766810069836767 -0.9374554496086873
4769000000.0 0.3783430448496791 -0.9412866150806765
4772000000.0 0.3939311337404081 -0.9279661154368929
4775000000.0 0.3549778867010016 -1.0083121098433578
4778000000.0 0.3680524719310194 -0.9589278620001188
4781000000.0 0.3789074981689369 -0.9539308385549838
4784000000.0 0.36710035823231735 -0.9511333929848776
4788000000.0 0.3214049391245789 -0.980977018556725
4791000000.0 0.298662928708835 -0.9512270601425766
4794000000.0 0.33351223075634406 -0.962761805591158
4797000000.0 0.3031078712021328 -0.9636212971430843
4800000000.0 0.28002853208117634 -0.9670251064788538
4803000000.0 0.24714201271393618 -0.9980694674142216
4806000000.0 0.29469982979724496 -0.9941112678073916
4809000000.0 0.219557529053798 -0.9834059490722925
4812000000.0 0.22263185920678105 -0.9887430820491045
4816000000.0 0.2849057217596942 -0.9722446832565208
4819000000.0 0.2784984183538143 -1.0047404749496156
4822000000.0 0.245282861281991 -1.024144093208475
4825000000.0 0.26458339907367057 -1.0198977205816917
4828000000.0 0.21191408898772557 -0.978192991937353
4831000000.0 0.18148318396210522 -1.0464254849060732
4834000000.0 0.2217654076635768 -0.9923945366973201
4838000000.0 0.19010871317502492 -1.0130698689247943
4841000000.0 0.1738997077074583 -0.9696333676686834
4844000000.0 0.2023292033972236 -0.9930798289119346
4847000000.0 0.19457298986830435 -0.9528578279139752
4850000000.0 0.16716728176067988 -1.023275311400912
4853000000.0 0.14509946431950513 -0.9745838936244622
4856000000.0 0.13318390395800317 -1.0093099093464717
4859000000.0 0.13939788065902084 -1.043330670823789
4862000000.0 0.1674371811512592 -0.9736571368914931
4866000000.0 0.10491693265496704 -1.0453888713282
4869000000.0 0.06676972469448061 -1.0153218662558496
4872000000.0 0.055621909415910026 -1.0376235273259318
4875000000.0 0.152550833345572 -1.0535348595836898
4878000000.0 0.10922517719783334 -1.0242954813789444
4881000000.0 0.04101380185031978 -1.0520835065469396
4884000000.0 0.08812358467174487 -1.011288113661886
4888000000.0 0.1116101338333007 -1.0186949161794903
4891000000.0 0.07550239515294505 -1.0566032093146607
4894000000.0 0.017798944727021496 -1.0021656158651777
4897000000.0 0.06472615864085222 -1.018971739776011
4900000000.0 0.05428851984212871 -1.0472672617151093
4903000000.0 0.04295793550915158 -1.0393289520503879
4906000000.0 0.01250381097252621 -1.034363293818972
4909000000.0 -0.01581293615786567 -1.0406114777514088
4912000000.0 -0.017623481484727088 -1.0581514453028105
4916000000.0 0.003373607787850591 -1.026238880299208
4919000000.0 0.017506813085583807 -1.0513154357539543
4922000000.0 -0.011164808508312654 -1.0331134722489235
4925000000.0 -0.04068981138916229 -1.0393822572430467
4928000000.0 0.03415770461663532 -1.01799390017666
4931000000.0 -0.061571407487834004 -1.011034334666609
4934000000.0 -0.05539249013419541 -0.9959353920710409
4938000000.0 -0.09781848922320209 -1.0157882925411899
4941000000.0 -0.05831493122242666 -1.0127542881569476
4944000000.0 -0.031768858578755915 -0.9562433053575812
4947000000.0 -0.063624091434557 -0.9853687827800556
4950000000.0 -0.09493668523538969 -0.9816482845252794
4953000000.0 -0.1547472888070392 -1.039141501303887
4956000000.0 -0.1657919391027225 -1.0436365796004008
4959000000.0 -0.12472364880076217 -0.9791050137612747
4962000000.0 -0.13018693226499098 -1.0589702161665755
4966000000.0 -0.09353079195159764 -1.055469856370089
4969000000.0 -0.13287211238956287 -1.0649030744218957
4972000000.0 -0.17039399464198515 -1.0393370218951412
4975000000.0 -0.1298290293085699 -1.0098934840438185
4978000000.0 -0.20843896587707111 -0.9765787212039424
4981000000.0 -0.2245626891670275 -1.0126647285923966
4984000000.0 -0.17015808010556202 -1.0209300534442023
4988000000.0 -0.17841632088722836 -0.9864995029102257
4991000000.0 -0.12336208483951638 -1.047044133981629
4994000000.0 -0.18336890116945903 -1.0133777215695354
4997000000.0 -0.24389310355039384 -0.9846752829800677
5000000000.0 -0.22375755046359735 -1.0322016873539799
5003000000.0 -0.2382808692278729 -1.049704906235618
5006000000.0 -0.2459723013762611 -1.0511469991733533
5009000000.0 -0.2618085014307482 -0.9783783232772677
5012000000.0 -0.27098099142794463 -0.998975078434112
5016000000.0 -0.24370953757956526 -1.0323890702615373
5019000000.0 -0.2668760870790908 -1.000619228598812
5022000000.0 -0.2658639180096689 -0.994772745892758
5025000000.0 -0.30752306496185694 -1.0612907410120629
5028000000.0 -0.283381851745503 -1.0118325747238879
5031000000.0 -0.3266634809591873 -0.9491555796024015
5034000000.0 -0.34356412284177296 -1.0322375859491673
5038000000.0 -0.335744463057839 -0.9534410023122573
5041000000.0 -0.28273079892897773 -0.9611785095112829
5044000000.0 -0.30827647142095305 -0.9706746525254123
5047000000.0 -0.3286872634486942 -1.0027622940914167
5050000000.0 -0.2691031634016081 -0.9745769727435438
5053000000.0 -0.41070455849812604 -1.0245463920674573
5056000000.0 -0.3036495240947471 -0.9889716016059904
5059000000.0 -0.30526952186535866 -0.9952265250846125
5062000000.0 -0.4196289933983359 -0.9649998696091395
5066000000.0 -0.3194195331414288 -0.9570427266093844
5069000000.0 -0.39871663125253276 -0.9584013042019944
5072000000.0 -0.38971775237866635 -0.9470665200364337
5075000000.0 -0.4028317504580363 -0.9348167297963557
5078000000.0 -0.48738830094367475 -0.9300046072922901
5081000000.0 -0.4162128147802467 -0.8920721789750058
5084000000.0 -0.4295958566763747 -0.9659220927750047
5088000000.0 -0.40904159995731515 -0.9467272156361877
5091000000.0 -0.4671008603783667 -0.9139609135573947
5094000000.0 -0.42481339060600576 -0.9302550486623654
5097000000.0 -0.4215287217798298 -0.9598537828536671
5100000000.0 -0.4524763814466931 -0.9127249668490881
5103000000.0 -0.47593857920828736 -0.9217815925662302
5106000000.0 -0.45244558686291325 -0.9417175622600034
5109000000.0 -0.4694813071341054 -0.8507154874310443
5112000000.0 -0.4831095533824537 -0.8538245960338466
5116000000.0 -0.4462185252074948 -0.8701974436516204
5119000000.0 -0.5039475897328204 -0.8955189231840335
5122000000.0 -0.454908053772281 -0.8573860975260692
5125000000.0 -0.5049838532423727 -0.8740912984822259
5128000000.0 -0.563027627561598 -0.8685454022451391
5131000000.0 -0.5355920049430845 -0.8666972035307938
5134000000.0 -0.5770144723164862 -0.8659668434874724
5138000000.0 -0.5903190281099767 -0.8625963358777853
5141000000.0 -0.5113935490159591 -0.8844028268693933
5144000000.0 -0.5724018553530169 -0.865978084973366
5147000000.0 -0.6087151106024629 -0.8495851868471108
5150000000.0 -0.5709374331746861 -0.8559884647540988
5153000000.0 -0.6028763443827634 -0.8941750767850712
5156000000.0 -0.5884474414123911 -0.8502054341642095
5159000000.0 -0.6450569863677836 -0.9025099543794877
5162000000.0 -0.6272025501717433 -0.8129401530231141
5166000000.0 -0.644865064431748 -0.8630218911655262
5169000000.0 -0.6307118419628409 -0.862257606001158
5172000000.0 -0.6224026376845678 -0.8426452834406697
5175000000.0 -0.6094590661214838 -0.8701018980085417
5178000000.0 -0.6324939818950643 -0.8100010342451578
5181000000.0 -0.6416981741669091 -0.8455653784018647
5184000000.0 -0.6221226015917046 -0.7973925508056975
5188000000.0 -0.6339751922039129 -0.8010584450791751
5191000000.0 -0.7127245643779276 -0.8292870608100482
