! Created with skrf 1.8.0 (http://scikit-rf.org).
# Hz S RI R 50.0 
!freq ReS11 ImS11
4000000000.0 0.6783392049378602 0.7890670595104179
4003000000.0 0.7341672414667438 0.7945289547921848
4006000000.0 0.7141422872882749 0.7166676027566159
4009000000.0 0.7181025507056384 0.753760334253855
4012000000.0 0.6625457691311717 0.8201428943822158
4016000000.0 0.7344526787078899 0.7563826352984835
4019000000.0 0.7297278491324266 0.7265160660100185
4022000000.0 0.6907212346475927 0.7677698572458581
4025000000.0 0.808287560089856 0.7184018156750751
4028000000.0 0.765553166528628 0.7003703687219294
4031000000.0 0.7255094799543516 0.6795728054828354
4034000000.0 0.7357661065650796 0.690112021557519
4038000000.0 0.7721632422886059 0.6507422116284389
4041000000.0 0.7210495073420904 0.6611086257993624
4044000000.0 0.7895917783664209 0.7226428905299993
4047000000.0 0.7548228475656126 0.7012960014429463
4050000000.0 0.8228046345432426 0.6775203299423974
4053000000.0 0.7954423277783229 0.63550574843411
4056000000.0 0.8119867660644938 0.6504008552650553
4059000000.0 0.7974223920957589 0.6311463174545298
4062000000.0 0.8363890397886183 0.5936017491318482
4066000000.0 0.7802200384205527 0.5781842045248385
4069000000.0 0.912177161739524 0.655707497111785
4072000000.0 0.8332207978077797 0.6102305598488145
4075000000.0 0.848036676067656 0.6489186135628058
4078000000.0 0.8468910042859866 0.6195605190590145
4081000000.0 0.8400921172339523 0.6508461224642647
4084000000.0 0.8745941278455407 0.5924258951349695
4088000000.0 0.8508464087022938 0.6077151921000734
4091000000.0 0.8809851324461011 0.6248024928239577
4094000000.0 0.8343180730733807 0.5708522264906303
4097000000.0 0.8499011407268454 0.5654755819410153
4100000000.0 0.8455713497243298 0.5539762332344258
4103000000.0 0.8784847872131549 0.5901900379160236
4106000000.0 0.8790062153775413 0.5185915293600643
4109000000.0 0.8931374862645989 0.5048536534613379
4112000000.0 0.8809908680236858 0.5450837881388291
4116000000.0 0.8788076526001133 0.5211415749005628
4119000000.0 0.9101822175582619 0.5282222893912848
4122000000.0 0.8836178031119953 0.4811207681555527
4125000000.0 0.914197490023418 0.46353290462966107
4128000000.0 0.8975429627258031 0.5064497352509767
4131000000.0 0.9133744564061482 0.46403115228604885
4134000000.0 0.9022063390893994 0.4921874735099161
4138000000.0 0.8897316077428639 0.4437471514299011
4141000000.0 0.9093142618333679 0.4312764445848256
4144000000.0 0.9041074072931523 0.47371917408898206
4147000000.0 0.9274316193303852 0.4481799815070329
4150000000.0 0.989190163234568 0.43576165308798503
4153000000.0 0.9624356251831275 0.44455941069888305
4156000000.0 0.9642680750942507 0.4866031193366728
4159000000.0 0.9146760691901392 0.4112759168226528
4162000000.0 0.948444622672505 0.4156623339394949
4166000000.0 0.9774698303344831 0.3910833522142899
4169000000.0 0.9238665406438449 0.3758793001213562
4172000000.0 0.9595654977010779 0.3739018993509708
4175000000.0 0.9902063185710847 0.3764313812165461
4178000000.0 0.9513823627339082 0.3714301386671589
4181000000.0 0.9541779103724659 0.34865048417531574
4184000000.0 0.9655517678243006 0.3388078260805227
4188000000.0 0.9815492587670767 0.3234265124687764
4191000000.0 0.945992514790787 0.37655991358429236
4194000000.0 0.9510963557461503 0.32321355771012195
4197000000.0 0.983929199757595 0.3539795069945914
4200000000.0 0.9683596048974381 0.31728980411153274
4203000000.0 0.9871387139173445 0.3279092795241487
4206000000.0 0.9945320784232974 0.3087517446466829
4209000000.0 0.9583088615394736 0.2906807071948038
4212000000.0 0.9745191180941525 0.24973062853587558
4216000000.0 0.9915854204959713 0.28546957144439417
4219000000.0 0.9953325956273796 0.27710886161191295
4222000000.0 1.0167908415603741 0.2470575760175619
4225000000.0 0.9862459765159683 0.240305590860281
4228000000.0 0.9905831236290836 0.24924973813922777
4231000000.0 1.012104125542567 0.23885793897633495
4234000000.0 1.0011228937809706 0.20365320920254187
4238000000.0 1.012397732743514 0.19251847284340165
4241000000.0 1.008361150835015 0.17100337635207552
4244000000.0 0.9983273613474206 0.20001713120722747
4247000000.0 1.0032645130986986 0.18601187567917354
4250000000.0 0.997320533353097 0.15530567035796844
4253000000.0 0.9964925644650564 0.13491891751937668
4256000000.0 1.0236451914962847 0.15641166355350716
4259000000.0 0.9819796550549076 0.12207759909416865
4262000000.0 1.0061989086496823 0.11996332069083138
4266000000.0 1.023298906718013 0.10396757297750156
4269000000.0 1.003441477795608 0.11927693522691382
4272000000.0 1.013574657448807 0.09811646515845204
4275000000.0 1.016583835526981 0.09852156440626647
4278000000.0 1.0369190080961443 0.09224995545440334
4281000000.0 1.0083939531864254 0.07676337473410778
4284000000.0 1.029558992328011 0.02667539468138222
4288000000.0 1.0002878109367492 0.10571698941232827
4291000000.0 0.9985117196593317 0.06635034802486155
4294000000.0 1.006818654394179 0.022287962034825873
4297000000.0 0.991032256927163 0.04785887126739016
4300000000.0 1.0100883086087975 0.04957047357027954
4303000000.0 0.9977221790485679 0.010009312492997566
4306000000.0 1.0426063784707091 0.045730195382623934
4309000000.0 1.0114005850437402 0.00994673750638217
4312000000.0 1.035385317500074 0.02863505695246535
4316000000.0 1.0441840857224927 0.010127167927976535
4319000000.0 0.9729051939140083 -0.011989599412614224
4322000000.0 1.0019362469751962 -0.05030148911022568
4325000000.0 1.0009994570029341 -0.06179894440407703
4328000000.0 0.9894819936023477 -0.05896535564041027
4331000000.0 1.0078471074305793 -0.09307115293780513
4334000000.0 1.0026740101037348 -0.07108501047515313
4338000000.0 1.0304319956204262 -0.07874291178008869
4341000000.0 1.036166568155497 -0.050250494897125506
4344000000.0 1.0402404152514357 -0.07235916472359978
4347000000.0 1.0393361080831571 -0.1284823868450493
4350000000.0 0.9846414333188213 -0.12056708132984748
4353000000.0 0.9950337117072661 -0.09514243496356345
4356000000.0 0.9868255923192795 -0.1405922371294653
4359000000.0 0.9604755438633109 -0.13550582368180658
4362000000.0 1.0155252239741337 -0.19478841498912852
4366000000.0 1.0320001435870982 -0.16593025759581215
4369000000.0 0.9565770686357082 -0.1709099255874993
4372000000.0 0.9842743368733482 -0.20295253300645927
4375000000.0 0.9848693612210138 -0.1791247402608848
4378000000.0 0.9756271832751221 -0.18894755009516923
4381000000.0 0.977192603101319 -0.18496608354750468
4384000000.0 1.0443808312305083 -0.23960563371622445
4388000000.0 0.9699541748949634 -0.20348050772450785
4391000000.0 0.9831973024515004 -0.21322667624223163
4394000000.0 0.9580290684980113 -0.2478543091951255
4397000000.0 0.9908571368921231 -0.2553282211501006
4400000000.0 0.999021909536673 -0.27001310530820466
4403000000.0 0.9801605899048452 -0.27442691496988564
4406000000.0 0.9716117077514542 -0.2861269231036997
4409000000.0 0.9953446627201405 -0.2852547216012834
4412000000.0 0.9566522412244086 -0.34164682528007345
4416000000.0 0.9494602587206495 -0.3078475877677683
4419000000.0 0.9621100770111605 -0.32493906567520436
4422000000.0 0.9526175568085173 -0.30355372750198045
4425000000.0 0.9951565975645238 -0.2917011306049002
4428000000.0 0.963641305020182 -0.34333750170990834
4431000000.0 0.9730204210967535 -0.3546069128774778
4434000000.0 0.9302535037125392 -0.367228971011643
4438000000.0 0.9627742885466319 -0.3538232263407031
4441000000.0 0.9615708070213864 -0.36708294776063544
4444000000.0 0.9128375884259594 -0.35692435685586404
4447000000.0 0.9108321456148397 -0.3930677618861262
4450000000.0 0.922859932000826 -0.3565037687239443
4453000000.0 0.9561420351314863 -0.405986422532891
4456000000.0 0.8962293806180697 -0.41322455733118824
4459000000.0 0.8740803831900166 -0.4072604780021679
4462000000.0 0.9480269740226066 -0.45762836232674486
4466000000.0 0.9404053429873499 -0.4662397283687003
4469000000.0 0.9296656997486952 -0.42611349701813817
4472000000.0 0.9060980374659313 -0.4700672493902935
4475000000.0 0.8768260432676152 -0.44459701824840003
4478000000.0 0.9211977280808583 -0.4969459928497105
4481000000.0 0.8658040939803603 -0.4819016660981822
4484000000.0 0.8704332431451585 -0.5233973062814183
4488000000.0 0.8691121188039233 -0.4925126566333279
4491000000.0 0.8802803899133879 -0.5110562375274861
4494000000.0 0.8702895373713686 -0.49109145336920396
4497000000.0 0.8770912232744048 -0.4996127974433286
4500000000.0 0.8588936669003857 -0.5145145037916532
4503000000.0 0.886310042722849 -0.551340825006134
4506000000.0 0.8565410367252788 -0.5434227660955933
4509000000.0 0.8483777884176231 -0.5365996317273218
4512000000.0 0.7993044395734893 -0.5657240395401897
4516000000.0 0.8436286705707885 -0.566966654045903
4519000000.0 0.8338140457340283 -0.5650926902626128
4522000000.0 0.8342686627898033 -0.5759603498315312
4525000000.0 0.8360632880849779 -0.5515576984774864
4528000000.0 0.832117023980333 -0.6040635562794355
4531000000.0 0.817129887309757 -0.5922171736973078
4534000000.0 0.7912641791134769 -0.609463936632688
4538000000.0 0.8123092279531783 -0.6291343316898357
4541000000.0 0.7731862024685076 -0.6446491797370066
4544000000.0 0.7857939044490911 -0.6145829629423788
4547000000.0 0.7821164220017074 -0.6166578999199104
4550000000.0 0.7797602040527942 -0.6581565252369976
4553000000.0 0.7669111005139939 -0.6601464723804819
4556000000.0 0.7413300348514864 -0.6431661504252062
4559000000.0 0.7657807595071373 -0.6673332341222626
4562000000.0 0.7541582216931457 -0.6801813925469904
4566000000.0 0.7565450455413809 -0.6856213828156585
4569000000.0 0.7358442504591285 -0.6959671705587065
4572000000.0 0.7469878998387754 -0.6744608847989059
4575000000.0 0.7152897113066474 -0.7112736134128497
4578000000.0 0.7536085502609304 -0.7119663384990884
4581000000.0 0.697403327536398 -0.7235443728671629
4584000000.0 0.7068984423117367 -0.7090056443878321
4588000000.0 0.7225372061250186 -0.7297425192818198
4591000000.0 0.7021712550899151 -0.7318520585361447
4594000000.0 0.6682516853275619 -0.7561535870185273
4597000000.0 0.6922848428020723 -0.7564696229784518
4600000000.0 0.6505125225435667 -0.75284298075134
4603000000.0 0.6578614133328398 -0.7738743812991368
4606000000.0 0.6827937339525404 -0.7615724873081452
4609000000.0 0.666900223067163 -0.7661540609005416
4612000000.0 0.6503739165028074 -0.7669848932471527
4616000000.0 0.6457094465166355 -0.7834375033340981
4619000000.0 0.6443650278782816 -0.7899479087799576
4622000000.0 0.643092424851341 -0.8052307734954969
4625000000.0 0.5896136661478102 -0.7931515814767903
4628000000.0 0.634354496439011 -0.7819139849685586
4631000000.0 0.5967052602245981 -0.8222110599936701
4634000000.0 0.5883119080070524 -0.827442846404414
4638000000.0 0.6024692547134053 -0.8301681275620281
4641000000.0 0.5878515584362906 -0.8207280520632755
4644000000.0 0.5671914139772187 -0.837601393304317
4647000000.0 0.5786250868741729 -0.8447226521182662
4650000000.0 0.5225858431989026 -0.8417576210428558
4653000000.0 0.5600735991028509 -0.8483069838905337
4656000000.0 0.5505690136584824 -0.8796333788064568
4659000000.0 0.5345281823899274 -0.86297849165368
4662000000.0 0.5394413593831209 -0.8899146867634042
4666000000.0 0.5106856698598388 -0.8728138087287637
4669000000.0 0.5277441731484116 -0.8837035653503904
4672000000.0 0.504369007334286 -0.9012460976035336
4675000000.0 0.4724069045739732 -0.8930836187217362
4678000000.0 0.48528212515391694 -0.8778127283567221
4681000000.0 0.4519136805517144 -0.9258209369624836
4684000000.0 0.4562122053745547 -0.928776497211241
4688000000.0 0.4547028781549803 -0.9016970365535042
4691000000.0 0.48193491550961276 -0.9016378252471622
4694000000.0 0.456104511065996 -0.8827948895301558
4697000000.0 0.390559394243368 -0.8931968884043024
4700000000.0 0.451197792684772 -0.9288403092845217
4703000000.0 0.45738878216296214 -0.8767932441426554
4706000000.0 0.40249809540418513 -0.9391385866518355
4709000000.0 0.4092777157061128 -0.9295205573923354
4712000000.0 0.38828251256624075 -0.957639626032987
4716000000.0 0.36846184198271165 -0.927534437830444
4719000000.0 0.4057085996771772 -0.9453383442835193
4722000000.0 0.39938902018657585 -0.9367253274014844
4725000000.0 0.39712488094179943 -0.9467248268888184
4728000000.0 0.3508569460333455 -0.9445855520505515
4731000000.0 0.3877452442092857 -1.002205928497058
4734000000.0 0.3511362691442468 -0.9498046627227288
4738000000.0 0.38219041975441354 -0.9949490623666959
4741000000.0 0.32557440215644134 -1.0047403088543876
4744000000.0 0.31184681453653673 -0.9787480335325816
4747000000.0 0.3127825823093668 -0.9176603572476932
4750000000.0 0.32388534268550195 -0.9645042275859742
4753000000.0 0.30800402440430125 -0.9809934462623195
4756000000.0 0.26259547534008626 -1.010427069460018
4759000000.0 0.3079333505373299 -0.9972489202919412
4762000000.0 0.24897550696852194 -1.0334823060191907
4766000000.0 0.26865346646352195 -1.008816952871524
4769000000.0 0.23521588225298812 -1.0052197627869484
4772000000.0 0.24914274871929654 -0.9990555375138054
4775000000.0 0.22240351488935797 -1.0420549244305006
4778000000.0 0.2285411466409618 -1.019841563947741
4781000000.0 0.22578789918735664 -1.006279404377334
4784000000.0 0.2390078698493262 -0.9994428413350526
4788000000.0 0.16777599829152995 -1.0314633029326685
4791000000.0 0.1866421414830029 -1.009763729364381
4794000000.0 0.2176703094380385 -1.0555456651598683
4797000000.0 0.17894884319065757 -0.972806533464471
4800000000.0 0.1480359438841508 -0.9897902395186202
4803000000.0 0.10853824581281962 -1.0217564570708035
4806000000.0 0.14178373719203524 -1.0493931715090572
4809000000.0 0.0811465665900155 -1.0198263499678533
4812000000.0 0.097418024747629 -1.0251739741332448
4816000000.0 0.14415204055013064 -0.9895267850222182
4819000000.0 0.1427599718893772 -1.0573710376635592
4822000000.0 0.12213778663498272 -1.050821123800134
4825000000.0 0.11916234149204843 -1.040943953889823
4828000000.0 0.08389617481042058 -1.003343510630343
4831000000.0 0.05213585965606746 -1.0584506619757728
4834000000.0 0.07028211466822652 -1.0281493870032605
4838000000.0 0.039099367869911195 -1.046379733242102
4841000000.0 0.04850775239832539 -1.0273766234894315
4844000000.0 0.06262256848038802 -1.0450548153438057
4847000000.0 0.0445835373727851 -0.9856640469340578
4850000000.0 0.024615797382197546 -1.0607233969501677
4853000000.0 0.017431781749331438 -0.994482167822214
4856000000.0 0.0015660572918502758 -1.016155499621815
4859000000.0 -0.015756466349754993 -1.0621523452722124
4862000000.0 0.01446147727848763 -1.0120369057229939
4866000000.0 -0.0313009439784152 -1.0383160315565252
4869000000.0 -0.049272790413369336 -1.0337985147133875
4872000000.0 -0.06630798350506284 -1.0658217386188291
4875000000.0 0.026872075342436897 -1.0839444425006657
4878000000.0 -0.0657610368974953 -1.0777447342106938
4881000000.0 -0.10279990422574732 -1.0571838394928488
4884000000.0 -0.07023089006694037 -1.033553400143545
4888000000.0 -0.05267873838852381 -1.0106776259171129
4891000000.0 -0.07026832579697281 -1.0274199101565664
4894000000.0 -0.10408260761108029 -1.0309599244502152
4897000000.0 -0.08893623375873062 -1.0039141208680131
4900000000.0 -0.1324955618731115 -1.0448623487934072
4903000000.0 -0.10669929096061018 -1.045932367272428
4906000000.0 -0.13424388057395198 -1.0549843725781478
4909000000.0 -0.14968106728294456 -1.0111167902828109
4912000000.0 -0.16603700081726913 -1.0465661821907517
4916000000.0 -0.14021836411078908 -1.055656512892969
4919000000.0 -0.12674635721025374 -1.04986699494255
4922000000.0 -0.1532361640338764 -1.023348060979888
4925000000.0 -0.19284394033092822 -1.008707334304648
4928000000.0 -0.1252140596815578 -1.0105167339310337
4931000000.0 -0.18618379523304052 -1.0796792755831026
4934000000.0 -0.20219015995821882 -0.9514618810432115
4938000000.0 -0.2618983636312107 -0.9820671817750991
4941000000.0 -0.21154622241691884 -0.9731214024178108
4944000000.0 -0.1720105725579796 -0.963522947363155
4947000000.0 -0.23901029223746176 -0.9588702087091105
4950000000.0 -0.2393224939214469 -0.98449818372108
4953000000.0 -0.30109407763269197 -1.047194311894354
4956000000.0 -0.29098768414629317 -1.0341994239424999
4959000000.0 -0.31534448497416445 -0.9525986393344196
4962000000.0 -0.30736509348336105 -0.9954236201197357
4966000000.0 -0.25847148462286224 -1.013299130097566
4969000000.0 -0.2655394651730613 -1.0136570509792948
4972000000.0 -0.34784063516849006 -0.9724535167065576
4975000000.0 -0.26841597457186117 -0.9469293650460581
4978000000.0 -0.3474310672101405 -0.9778246607814736
4981000000.0 -0.36644176810480134 -0.9930734456008632
4984000000.0 -0.32356820216358384 -0.9395639169891011
4988000000.0 -0.3496545900845159 -0.9833993247039567
4991000000.0 -0.3135189091951261 -1.01708931431917
4994000000.0 -0.37958132723529014 -0.9747335193679576
4997000000.0 -0.43596715743489783 -0.9429518811276119
5000000000.0 -0.3841364378339115 -1.0207926390594417
5003000000.0 -0.40227413162812103 -1.0122490147630172
5006000000.0 -0.4189886072139869 -1.0128517542894167
5009000000.0 -0.41241109748009486 -0.9655781049690144
5012000000.0 -0.44581184138699487 -0.9685754614520361
5016000000.0 -0.42044042225075434 -0.9664198151401632
5019000000.0 -0.44591857154893544 -0.9408699056130282
5022000000.0 -0.4425971690990447 -0.9529363569849616
5025000000.0 -0.47922942014745634 -1.0071351173174221
5028000000.0 -0.472964131458676 -0.9117981912061611
5031000000.0 -0.49565540467725355 -0.9094491148292688
5034000000.0 -0.521577570261485 -0.9350910814279219
5038000000.0 -0.470075234641671 -0.887808446688118
5041000000.0 -0.4542452337134164 -0.9456970184099968
5044000000.0 -0.44092545050304977 -0.9246766346121639
5047000000.0 -0.49038487876397313 -0.9249144709783309
5050000000.0 -0.4329741450274688 -0.9369383017525477
5053000000.0 -0.5807749045705909 -0.9143967037054439
5056000000.0 -0.5085098726629361 -0.9072807948195871
5059000000.0 -0.46860771497256354 -0.9256749601969331
5062000000.0 -0.5374467990836785 -0.8754737073059771
5066000000.0 -0.5354593564060843 -0.9000339841737368
5069000000.0 -0.5372286185923626 -0.8999133083084224
5072000000.0 -0.5377824235012607 -0.8936660523791853
5075000000.0 -0.5474809627232132 -0.8850805131498727
5078000000.0 -0.6207736170210794 -0.8746386954246377
5081000000.0 -0.5870986592211842 -0.838856894070172
5084000000.0 -0.6245128522538669 -0.8470501806097581
5088000000.0 -0.573451599088389 -0.8559516759764585
5091000000.0 -0.6397092111580309 -0.8247364488325875
5094000000.0 -0.6197688175847236 -0.8108332773958158
5097000000.0 -0.5391701602343085 -0.8534854152321871
5100000000.0 -0.5850013739429352 -0.7808809945687541
5103000000.0 -0.650631991864955 -0.7750687891176361
5106000000.0 -0.6450348715599026 -0.8153647053696066
5109000000.0 -0.6222881110123407 -0.8191292296826683
5112000000.0 -0.6510729969451319 -0.8356809752120058
5116000000.0 -0.6395336693598815 -0.7474183453645421
5119000000.0 -0.7006389476435935 -0.8028952245703738
5122000000.0 -0.6523336617690344 -0.7650780065262255
5125000000.0 -0.6332478278443276 -0.7634711060395405
5128000000.0 -0.691328223092807 -0.7848809105148569
5131000000.0 -0.6315965753780994 -0.7643079025749152
5134000000.0 -0.6779114199828031 -0.7875451044019717
5138000000.0 -0.7272188458747861 -0.7471543443064635
5141000000.0 -0.6906415564839432 -0.8041720982245926
5144000000.0 -0.7148894328728718 -0.7657029053002433
5147000000.0 -0.7163950186472665 -0.774318813019886
5150000000.0 -0.7311735758632923 -0.7456399033585693
5153000000.0 -0.7476734519138375 -0.7562880253619522
5156000000.0 -0.7289754546389146 -0.7653418259533714
5159000000.0 -0.7740867424770912 -0.7793978017341193
5162000000.0 -0.7927897765740014 -0.714214455893428
5166000000.0 -0.7743180556750289 -0.7050187418298722
5169000000.0 -0.7800184065340753 -0.6789464045376867
5172000000.0 -0.7522095473133115 -0.6750291880474055
5175000000.0 -0.7923352196975898 -0.7350630731727719
5178000000.0 -0.8149930380935335 -0.6975394340252599
5181000000.0 -0.8059308388922524 -0.7089804392713865
5184000000.0 -0.775222563138818 -0.6966104504546423
5188000000.0 -0.7838197754198738 -0.6686561363918305
