! Created with skrf 1.8.0 (http://scikit-rf.org).
# Hz S RI R 50.0 
!freq ReS11 ImS11
4000000000.0 0.6016417226595052 0.7969959680019565
4003000000.0 0.6354109306755713 0.8586157080466882
4006000000.0 0.6838522685708438 0.8021280923258665
4009000000.0 0.6580490624640185 0.788559872363361
4012000000.0 0.6156380911257769 0.8038501267996135
4016000000.0 0.6834128571825305 0.7290701461036566
4019000000.0 0.6739553133047862 0.7756401445375142
4022000000.0 0.6475043025912727 0.7872872447023006
4025000000.0 0.7437524695477176 0.7036995830390361
4028000000.0 0.7232213788728699 0.7253445446961526
4031000000.0 0.6847662642316378 0.7346627225223503
4034000000.0 0.7170036542422853 0.7406970397345589
4038000000.0 0.738236737327531 0.7540153998886869
4041000000.0 0.7331556330977584 0.7505731490123062
4044000000.0 0.7828244766991002 0.751225314671565
4047000000.0 0.7188035368404512 0.7831158321051925
4050000000.0 0.7974536424764859 0.696014249213045
4053000000.0 0.7398142268572574 0.6731326632275354
4056000000.0 0.7547974659334029 0.6974927318594677
4059000000.0 0.7581262306006695 0.7226353894447908
4062000000.0 0.7919495916720274 0.6849390187524442
4066000000.0 0.7157375840136939 0.6433801729428087
4069000000.0 0.8469542136032567 0.6746355735905147
4072000000.0 0.7404845165090959 0.6770847761828569
4075000000.0 0.752654988812585 0.6983038153531378
4078000000.0 0.816570807764382 0.7021480066660581
4081000000.0 0.7824453483578141 0.7316223134263642
4084000000.0 0.8100461393490115 0.6486914603069158
4088000000.0 0.8062257144986255 0.6864799276635579
4091000000.0 0.8448151264770406 0.6606762280102467
4094000000.0 0.7938961530010916 0.622644731721552
4097000000.0 0.8333236796621419 0.6156524067428977
4100000000.0 0.8441032867545362 0.5933345492387248
4103000000.0 0.8561712446410998 0.6157289716383021
4106000000.0 0.8598505604845259 0.604316342132247
4109000000.0 0.84837557938543 0.6001036405315139
4112000000.0 0.8269254317471555 0.6232574979379988
4116000000.0 0.8433056544811034 0.5947164408522997
4119000000.0 0.8563864828427076 0.5618838295505237
4122000000.0 0.8755007784412988 0.5611541416314753
4125000000.0 0.8943234421098546 0.5345568460528205
4128000000.0 0.8165537481202949 0.5300587686161856
4131000000.0 0.8087431022876514 0.5444599020346268
4134000000.0 0.875892010529314 0.5390559936339729
4138000000.0 0.8876683052378194 0.4940967757661869
4141000000.0 0.9031509773617661 0.5104491154297649
4144000000.0 0.907203648738076 0.5351591629290375
4147000000.0 0.8808577101598349 0.4947766013703994
4150000000.0 0.9038019171776663 0.5318903943529614
4153000000.0 0.8862907692359071 0.4608332831943249
4156000000.0 0.9203178997874082 0.5357341616976555
4159000000.0 0.8871968787227038 0.4811494161892817
4162000000.0 0.9020557782673615 0.4540583930829577
4166000000.0 0.9190958992886868 0.45804455593636517
4169000000.0 0.9275389562405084 0.4374223522770244
4172000000.0 0.9272839398754872 0.4505444026231297
4175000000.0 0.9466016563728298 0.4795751021938131
4178000000.0 0.95797110727942 0.4356029788244872
4181000000.0 0.9235368217342597 0.40887972071114254
4184000000.0 0.9290668838541886 0.42530053012967467
4188000000.0 0.9347404838432036 0.4094133928595629
4191000000.0 0.9147594478010319 0.4291659344231021
4194000000.0 0.9162668066203955 0.38947462528287335
4197000000.0 0.9616194401728397 0.39057232063225017
4200000000.0 0.9423716356466858 0.38982749138716133
4203000000.0 0.967981733929742 0.3894046305226817
4206000000.0 0.9472248635568121 0.37634011523348093
4209000000.0 0.9416658056283799 0.37569681412663053
4212000000.0 0.9674119522602429 0.3250943159759986
4216000000.0 0.9643531982186427 0.3475933391750455
4219000000.0 0.967266815968778 0.34008359831164137
4222000000.0 0.9896764148766688 0.3148755744489125
4225000000.0 0.9446569834392615 0.30143135678802635
4228000000.0 0.9877984996995399 0.3154916972922651
4231000000.0 0.9667448662781667 0.2979781034019153
4234000000.0 0.9855571367268385 0.3046324117109382
4238000000.0 0.9717391256851855 0.26992316535697947
4241000000.0 0.9899403845982029 0.259743206469339
4244000000.0 0.9872844273113811 0.2766765543519884
4247000000.0 0.9822082124722539 0.2767881652951048
4250000000.0 0.9731232932720724 0.24560179431310325
4253000000.0 0.9778055795627196 0.21630138331321147
4256000000.0 1.0095146490644447 0.21973208272355987
4259000000.0 0.9506613232375436 0.19379389874359468
4262000000.0 0.9999596805367486 0.1926250204266932
4266000000.0 0.9923863670273343 0.19188114714930643
4269000000.0 0.9903008591239806 0.20958289980741054
4272000000.0 1.0058488725795784 0.18285774586341225
4275000000.0 1.0302759130315577 0.1872344457716585
4278000000.0 1.0111241662965083 0.17022421921902942
4281000000.0 1.0037860479303333 0.1767926404852525
4284000000.0 1.0054513558362501 0.11210249408634118
4288000000.0 1.005322266167284 0.16597363317891642
4291000000.0 1.0049444820565703 0.14901212683769016
4294000000.0 1.0001318055104533 0.12835482075855098
4297000000.0 0.9953679654249653 0.13523389577405626
4300000000.0 0.9893835232246064 0.11501409720890238
4303000000.0 0.9978675912432129 0.09966459542861268
4306000000.0 0.9999204943683166 0.10520246660644342
4309000000.0 0.9868711061284565 0.09765287811330185
4312000000.0 1.0262318560786454 0.13271189409122833
4316000000.0 1.0307694791303492 0.09991549253805358
4319000000.0 1.0168072753290232 0.06353666334787918
4322000000.0 0.9800455948805802 0.028884063966022985
4325000000.0 1.000748648695025 0.05986918932106576
4328000000.0 1.00258753272843 0.03452361518165965
4331000000.0 1.0213708489792812 -0.00043589956363321303
4334000000.0 1.0211258926992395 0.03151486422906727
4338000000.0 1.0029428817433608 0.03493234690551429
4341000000.0 1.0272576486078602 0.034866032036066946
4344000000.0 1.0332589138934793 0.019253588288355883
4347000000.0 1.02092189475792 -0.02040842676447141
4350000000.0 0.9819469233084923 0.0009689450364415986
4353000000.0 0.9948334193958626 -0.017870293945180776
4356000000.0 0.9914434712793395 -0.061957900506496424
4359000000.0 0.9606771379129898 -0.04129830837777007
4362000000.0 1.0045442522177042 -0.10451862791871884
4366000000.0 1.028575452364321 -0.06619266784664765
4369000000.0 0.9778707799551265 -0.08215159152192032
4372000000.0 0.9916431238580505 -0.11611610863410594
4375000000.0 0.9995058079219272 -0.07262812494484883
4378000000.0 0.9826454787207929 -0.07397557530106505
4381000000.0 0.9737999174085483 -0.0912521170361686
4384000000.0 1.0664763854250894 -0.1389743101724164
4388000000.0 0.9909437740093148 -0.1122284019984059
4391000000.0 1.0209742709238205 -0.13009328863117722
4394000000.0 0.9844118379021242 -0.15394711553338086
4397000000.0 0.9977833517324575 -0.15582624836441894
4400000000.0 1.0170376153400245 -0.16441106589273213
4403000000.0 1.0018361835570284 -0.15758234138530372
4406000000.0 1.0010172739681018 -0.19376520278180182
4409000000.0 1.0126926662843123 -0.1980336704697364
4412000000.0 0.9743669807484489 -0.2461521528499789
4416000000.0 0.9698319458319007 -0.2127863493342273
4419000000.0 0.986554101889318 -0.2305911686209557
4422000000.0 0.9810918733166221 -0.21425937700375272
4425000000.0 0.9870605299125266 -0.20342314616779184
4428000000.0 0.9748697302435776 -0.2412105122912303
4431000000.0 1.0015395411761552 -0.24429575375598706
4434000000.0 0.9515687536120426 -0.2625263576715022
4438000000.0 0.9928294207837065 -0.2760685804786679
4441000000.0 0.9856822669420107 -0.2655341274420752
4444000000.0 0.9468038462119732 -0.27707705126194393
4447000000.0 0.9436803744991449 -0.28957238698773113
4450000000.0 0.9563852100003416 -0.27622085690991405
4453000000.0 0.9889340720786481 -0.3158348676525987
4456000000.0 0.92479194910801 -0.31729510625741886
4459000000.0 0.90933209693259 -0.322216170709102
4462000000.0 1.0071215644611577 -0.35921874421689215
4466000000.0 0.9692960120835622 -0.36094634329922054
4469000000.0 0.9372956500135562 -0.33296941044766915
4472000000.0 0.9454358906637467 -0.3797161157144027
4475000000.0 0.9088937355254262 -0.35795157639128466
4478000000.0 0.9603086796277148 -0.4028753222951821
4481000000.0 0.9090821866820509 -0.39376055123873815
4484000000.0 0.9163042742766154 -0.41791905116752115
4488000000.0 0.9082845996190946 -0.4130242594863462
4491000000.0 0.916348857586712 -0.4333574532567245
4494000000.0 0.8950130345500165 -0.4011127682422363
4497000000.0 0.9120861102400288 -0.40476598308543005
4500000000.0 0.8904240814237523 -0.4253409682800274
4503000000.0 0.9261087307728151 -0.4331762456615276
4506000000.0 0.8738566103485652 -0.45171127516819215
4509000000.0 0.8989452440453338 -0.44205377812070257
4512000000.0 0.8791761875573555 -0.4583577194613794
4516000000.0 0.8994428068907064 -0.4683045704316196
4519000000.0 0.8623272404212777 -0.4517373353773952
4522000000.0 0.8703134421799901 -0.4986182572315684
4525000000.0 0.902676605232996 -0.4463503185135955
4528000000.0 0.8904361008406965 -0.520472042629484
4531000000.0 0.8670892750863898 -0.4789354271573819
4534000000.0 0.834435453852242 -0.5032743572438247
4538000000.0 0.8646317217594404 -0.5265849977647576
4541000000.0 0.8310073480058664 -0.563033836567555
4544000000.0 0.8389589350591706 -0.5270219555567051
4547000000.0 0.8459132295981278 -0.5243797711791385
4550000000.0 0.8387027688117275 -0.5782324504118422
4553000000.0 0.8486206422999272 -0.5631387525209468
4556000000.0 0.8229191387954153 -0.5820035035941391
4559000000.0 0.8214333266278064 -0.5955639832083817
4562000000.0 0.8299209154779272 -0.5841332947086578
4566000000.0 0.8337065216596575 -0.5938778599413763
4569000000.0 0.7740818442639165 -0.6060111749947066
4572000000.0 0.8007553569527923 -0.5971838897923425
4575000000.0 0.7972181836413637 -0.6309130956831334
4578000000.0 0.8316320383213982 -0.6156134088247984
4581000000.0 0.7745793992009978 -0.6532868538564404
4584000000.0 0.7835358079885506 -0.6293388583758994
4588000000.0 0.7931913815637648 -0.6412143466212024
4591000000.0 0.7811494474975497 -0.6334806672977454
4594000000.0 0.7475437585315504 -0.6488166739258692
4597000000.0 0.7601076228629557 -0.6767321563430708
4600000000.0 0.736035825765744 -0.6797094821165919
4603000000.0 0.7455988093084782 -0.6859128936167791
4606000000.0 0.7639575158512194 -0.6993582699724961
4609000000.0 0.7423583341328032 -0.6934109384990264
4612000000.0 0.7410600229453158 -0.697101829404411
4616000000.0 0.7055503579104105 -0.7039531982583861
4619000000.0 0.7141094737488771 -0.718671817259224
4622000000.0 0.7109697424579865 -0.7138877855972268
4625000000.0 0.6811928664860487 -0.7177193310296873
4628000000.0 0.6996951882533057 -0.7058166369849888
4631000000.0 0.6807064411482224 -0.7338910395055775
4634000000.0 0.6733313860066723 -0.742839587519442
4638000000.0 0.6966091534524674 -0.7447418021273542
4641000000.0 0.683254470079049 -0.7503839212122354
4644000000.0 0.681631318347607 -0.7586182849464722
4647000000.0 0.6611706577204136 -0.7778687901302911
4650000000.0 0.6350885182435638 -0.7652936832663589
4653000000.0 0.6723496471539583 -0.7843742761762634
4656000000.0 0.6297292553328282 -0.786250439081098
4659000000.0 0.6372816477945271 -0.7790008685112891
4662000000.0 0.6264196377563412 -0.7873346828369006
4666000000.0 0.6112376798413128 -0.7895153466795883
4669000000.0 0.6167927504784183 -0.7889650306255782
4672000000.0 0.5897654130442135 -0.8228894941728353
4675000000.0 0.5780399168458183 -0.8219386934757511
4678000000.0 0.5814996418719407 -0.7943619368806123
4681000000.0 0.5652822381929554 -0.8452575884463213
4684000000.0 0.5833399948791 -0.8453500024489468
4688000000.0 0.5450279643685324 -0.8283730915544946
4691000000.0 0.5845891487981187 -0.8341728597643183
4694000000.0 0.5611102460730376 -0.8282777132352146
4697000000.0 0.5191102212672452 -0.8209472596349383
4700000000.0 0.5429556426248158 -0.8430336685616657
4703000000.0 0.5488019991511908 -0.8201397606208798
4706000000.0 0.5016420556718374 -0.867059428120326
4709000000.0 0.49992505761886147 -0.8718857975095324
4712000000.0 0.525747164289478 -0.8768001536178601
4716000000.0 0.5281606162756995 -0.8954871019906776
4719000000.0 0.5199730086479886 -0.8827302440346205
4722000000.0 0.49974890045884607 -0.8903790860639549
4725000000.0 0.46764870564910743 -0.8967261978364414
4728000000.0 0.4479846174110784 -0.874311481193055
4731000000.0 0.49750718847847286 -0.9179769936920561
4734000000.0 0.48647039669955267 -0.8868966489464482
4738000000.0 0.4651626964707477 -0.9436930353656136
4741000000.0 0.4473470800303143 -0.9519942700416166
4744000000.0 0.4163229152914747 -0.921345969297009
4747000000.0 0.42980571924055744 -0.9014128065936298
4750000000.0 0.410804226621611 -0.9502746805733053
4753000000.0 0.4412875025177132 -0.9346992805550756
4756000000.0 0.40524488385328516 -0.9250482227508279
4759000000.0 0.43305966502289317 -0.963772007838206
4762000000.0 0.36900494654455845 -0.9565075541901015
4766000000.0 0.3552776997978393 -0.9447842284980671
4769000000.0 0.4027071357394483 -0.9433862857431642
4772000000.0 0.3674942397879177 -0.9784952719061072
4775000000.0 0.37748686729572334 -1.0050268737747312
4778000000.0 0.3519554419817891 -0.948141848009843
4781000000.0 0.357245929223371 -0.9534199276644795
4784000000.0 0.3371065974425249 -0.9417778876774151
4788000000.0 0.3333307766206456 -1.0239466985238805
4791000000.0 0.3059155700590294 -0.954349346796166
4794000000.0 0.3194408540766823 -0.9793248309635298
4797000000.0 0.296392170099028 -0.9531538724226004
4800000000.0 0.27816426505296354 -0.9701544781825109
4803000000.0 0.25111807676946823 -0.9848439275728698
4806000000.0 0.26700023301637354 -1.002595976491294
4809000000.0 0.2416969678546984 -0.9687826709705295
4812000000.0 0.2282604830400291 -0.9882572655940098
4816000000.0 0.2481512732777439 -0.951353067981539
4819000000.0 0.25596503783724456 -1.0234684173611182
4822000000.0 0.2566982797422616 -1.0202182451869946
4825000000.0 0.2497618056401632 -1.0036173081602566
4828000000.0 0.2193502761468122 -0.9858751051617861
4831000000.0 0.1803778235603312 -1.0226966628235843
4834000000.0 0.21399182759364282 -0.9988814074274457
4838000000.0 0.1824157547355388 -1.0257424789750915
4841000000.0 0.17158725959127336 -0.9907078653101565
4844000000.0 0.2124324293114116 -1.0019839131033175
4847000000.0 0.18913715458101454 -0.9691759232276194
4850000000.0 0.1669864262471317 -1.0317721704922145
4853000000.0 0.15713575967680588 -0.9789067779904841
4856000000.0 0.14980148454862585 -1.0092565155068138
4859000000.0 0.14158618832780115 -1.039245455411157
4862000000.0 0.14086589752960516 -0.9834675736093371
4866000000.0 0.09963129484821939 -1.0282843105653912
4869000000.0 0.10139105824502635 -1.0027399918857145
4872000000.0 0.07881470790368826 -1.043498502080474
4875000000.0 0.15053424440021956 -1.0574157058519276
4878000000.0 0.07754395984401363 -1.0572676397984468
4881000000.0 0.04279606933320302 -1.0896740853306301
4884000000.0 0.05982566990468618 -1.0133271612264798
4888000000.0 0.0972117690362727 -1.0092640702654192
4891000000.0 0.07098841585698124 -1.068178044280426
4894000000.0 0.04583036552685859 -1.0383173170136983
4897000000.0 0.05995674190741741 -0.9991089506825581
4900000000.0 0.03318161862901167 -1.0506093090304354
4903000000.0 0.033928197679138065 -1.0642401499476684
4906000000.0 0.01733401081640766 -1.0423133054108473
4909000000.0 0.008813387132918854 -1.036839009294299
4912000000.0 -0.013638207989106213 -1.0389492979046038
4916000000.0 0.022165221608889046 -1.0405075150554666
4919000000.0 0.001945740622225682 -1.0581527456545725
4922000000.0 -0.0015143782945536283 -1.009691525629662
4925000000.0 -0.07230187738860104 -1.0272685870581
4928000000.0 -0.020853573565428468 -1.004636630943317
4931000000.0 0.0029407230171082654 -1.0528904465375757
4934000000.0 -0.03595701822769905 -0.9827490866921369
4938000000.0 -0.0950406777224269 -1.0116774038933405
4941000000.0 -0.08351299378919323 -1.0110453192749478
4944000000.0 -0.0763494375888931 -0.9741802153664112
4947000000.0 -0.09895565479689458 -1.0152956617740228
4950000000.0 -0.13262338428374243 -1.0161795958787745
4953000000.0 -0.14595359920153828 -1.0010247804103547
4956000000.0 -0.15089905750393418 -1.0127742729339562
4959000000.0 -0.17482235688453704 -0.9756568529829981
4962000000.0 -0.15487521572587262 -1.0148209957522991
4966000000.0 -0.1280061910421449 -1.0480848105673481
4969000000.0 -0.13771302731663476 -1.0467057902132098
4972000000.0 -0.1763914712898529 -1.0301821265267699
4975000000.0 -0.13840030887160312 -1.0061481390454785
4978000000.0 -0.17957453279189017 -0.9922408139195469
4981000000.0 -0.2190500305338232 -1.0529613809448801
4984000000.0 -0.1830487991389325 -0.9743273941687436
4988000000.0 -0.1828172385761883 -1.0321251209780498
4991000000.0 -0.17079132520918494 -1.0208380283752592
4994000000.0 -0.1798725602723013 -1.0065725438664188
4997000000.0 -0.2379511693714374 -0.9865509561428397
5000000000.0 -0.23904396703780184 -1.063022700359994
5003000000.0 -0.2411084837244441 -1.0481734919380628
5006000000.0 -0.2751542869255883 -1.0501108410333575
5009000000.0 -0.2504347887537658 -1.0075269352539569
5012000000.0 -0.3049386201181194 -0.9920809352866191
5016000000.0 -0.23787370770537059 -1.040713331845056
5019000000.0 -0.2996686612435995 -0.9633451286043093
5022000000.0 -0.2691364676271053 -1.002832056892408
5025000000.0 -0.32376569733095945 -1.0431273367685683
5028000000.0 -0.3318194155019304 -0.9923311350430568
5031000000.0 -0.30558249012721206 -0.9944073340663561
5034000000.0 -0.380017768813368 -1.0174664579123607
5038000000.0 -0.32868634934887075 -0.9403188205054511
5041000000.0 -0.28905967700040025 -0.9651728346503056
5044000000.0 -0.30110634498066935 -0.9583029493718039
5047000000.0 -0.36533845358440425 -0.9703052952858263
5050000000.0 -0.2838955982670748 -0.9552965666388791
5053000000.0 -0.41807668848454127 -0.9894525642476111
5056000000.0 -0.31104625151265464 -0.9862978799375368
5059000000.0 -0.32774161975997923 -0.982941182351389
5062000000.0 -0.42887846591616985 -0.9659934548834748
5066000000.0 -0.3468563691211157 -0.9937187409246364
5069000000.0 -0.42044046545059965 -0.9454244009939575
5072000000.0 -0.3908105414203145 -0.9260803354605927
5075000000.0 -0.3770635186635407 -0.938247518268708
5078000000.0 -0.44555439014440285 -0.9472019226684647
5081000000.0 -0.4188613136477564 -0.9002029565141026
5084000000.0 -0.4478994023221132 -0.9493150704719537
5088000000.0 -0.398211658948371 -0.9069286203278655
5091000000.0 -0.4885415044758717 -0.9619186530515969
5094000000.0 -0.46645556495748736 -0.9009270850603442
5097000000.0 -0.46341386078612357 -0.9770866995435106
5100000000.0 -0.47712861676762536 -0.8860577265218804
5103000000.0 -0.4719573704403543 -0.8852526478197508
5106000000.0 -0.49828981967616454 -0.9725543474235994
5109000000.0 -0.4418025068832866 -0.9175045079423558
5112000000.0 -0.5090366634137482 -0.9182274946596538
5116000000.0 -0.5161462931148703 -0.9013630807927302
5119000000.0 -0.5232868557212303 -0.9029699035151384
5122000000.0 -0.5014730096931148 -0.8766985623701673
5125000000.0 -0.5192167935193212 -0.9077243229160459
5128000000.0 -0.5452834120929 -0.8661791081583352
5131000000.0 -0.5417077021416172 -0.8868470863309711
5134000000.0 -0.5855400810014698 -0.8718454498981548
5138000000.0 -0.5072645710725273 -0.8700822171571672
5141000000.0 -0.5528558645071004 -0.9270976906136048
5144000000.0 -0.5949972081128233 -0.8574343265109186
5147000000.0 -0.5778321596474655 -0.8735630420814561
5150000000.0 -0.5588484437032324 -0.8950501406212468
5153000000.0 -0.5978667266586337 -0.8312639422421279
5156000000.0 -0.6219500009884956 -0.8709344941777094
5159000000.0 -0.6340771569068396 -0.9354437566990407
5162000000.0 -0.6185750237963219 -0.8372615824081399
5166000000.0 -0.6409544816772903 -0.8204279409181594
5169000000.0 -0.625939870440143 -0.8648257980019495
5172000000.0 -0.6380156038660244 -0.8251683468213955
5175000000.0 -0.6379807509182307 -0.8530611313689629
5178000000.0 -0.641426465072729 -0.7795135128360572
5181000000.0 -0.6344986364869243 -0.870790327850543
5184000000.0 -0.6948874664534994 -0.8225266390866347
5188000000.0 -0.6679922928014534 -0.8020142587632455
