! Created with skrf 1.8.0 (http://scikit-rf.org).
# Hz S RI R 50.0 
!freq ReS11 ImS11
4000000000.0 0.6762987299657628 0.7763535351314252
4003000000.0 0.707457720174053 0.8081667402307434
4006000000.0 0.7340100311770111 0.7075621246366475
4009000000.0 0.7654451670857164 0.7267089162380009
4012000000.0 0.6911087394978156 0.7987518909484034
4016000000.0 0.7378096493209232 0.7117959134569085
4019000000.0 0.7421404311306337 0.6997011399224712
4022000000.0 0.7070902805936267 0.7747807732756327
4025000000.0 0.7895354682936089 0.6478432504473061
4028000000.0 0.7618673255033378 0.6727753905988121
4031000000.0 0.7227965096033667 0.671139396663264
4034000000.0 0.7742051986772828 0.648581129880002
4038000000.0 0.7944359388229276 0.657778111169178
4041000000.0 0.7927323974100619 0.6507546628266012
4044000000.0 0.8318607195664333 0.7139078215967289
4047000000.0 0.8024199675424772 0.6861059988038581
4050000000.0 0.8026080039153812 0.6475600169385952
4053000000.0 0.8023141267924011 0.5765140785260234
4056000000.0 0.8123463854944768 0.6520378645504459
4059000000.0 0.7980948609231036 0.6297616536862973
4062000000.0 0.8488762747777089 0.5879002945109717
4066000000.0 0.7629420810671508 0.5476621998490255
4069000000.0 0.8518735454250544 0.6055599409649381
4072000000.0 0.7721993320534348 0.6162577905661992
4075000000.0 0.8825868971141644 0.6324192203393944
4078000000.0 0.8578908154703224 0.5497990950171252
4081000000.0 0.782547268816118 0.6138704576134987
4084000000.0 0.8577116071874151 0.5686058018258537
4088000000.0 0.8510276156401485 0.5784715098367781
4091000000.0 0.8735994534466465 0.5986807922785933
4094000000.0 0.8469797500648535 0.5391815435627921
4097000000.0 0.8647972544975251 0.5609891767412751
4100000000.0 0.8640318990960222 0.5077956090235927
4103000000.0 0.8746124803356055 0.5537022463639723
4106000000.0 0.8800166322460382 0.5271448658971142
4109000000.0 0.8957194572363669 0.5385818762147347
4112000000.0 0.8712306769433589 0.4924637413062653
4116000000.0 0.9049093097451532 0.49542029786424524
4119000000.0 0.8809549683952266 0.4588965329911694
4122000000.0 0.89363777976865 0.45953659386488577
4125000000.0 0.9200831670453087 0.4999273607936496
4128000000.0 0.8592225222186208 0.47500388579944497
4131000000.0 0.9169529186162393 0.4317950840422764
4134000000.0 0.8990848359863326 0.4733326516398625
4138000000.0 0.9199440956047003 0.3990165152003164
4141000000.0 0.9211256733884924 0.41017376568681196
4144000000.0 0.931898666382783 0.430421560351205
4147000000.0 0.9175081640017775 0.3947205718009544
4150000000.0 0.951955317173866 0.3922845583367927
4153000000.0 0.9394137312415147 0.38727984414044736
4156000000.0 0.9485590329445404 0.4260429314010685
4159000000.0 0.9303065545456759 0.40537657663085497
4162000000.0 0.9157705778088236 0.3943275519627939
4166000000.0 0.9655267832531549 0.3550503967384163
4169000000.0 0.9449685423553416 0.3425274933944966
4172000000.0 0.959524925263135 0.3542770153438279
4175000000.0 0.9476649982986489 0.3560993596496516
4178000000.0 1.0005585539203738 0.3506640835339121
4181000000.0 0.9873509868066823 0.3279173043112411
4184000000.0 0.9494305735726042 0.35699297975703254
4188000000.0 0.9598684366442714 0.2944001430823938
4191000000.0 0.9495960241956712 0.3230241434862144
4194000000.0 0.9431721055714448 0.29475314219869975
4197000000.0 0.9879351770714545 0.2895628033932563
4200000000.0 0.9621193223371749 0.3004520480277454
4203000000.0 0.9993367394256099 0.2880945523634467
4206000000.0 0.9733751602355134 0.2520991284861506
4209000000.0 0.9776844859400169 0.2601999973116165
4212000000.0 0.9856854400110647 0.21060677640976094
4216000000.0 0.9880181912198076 0.24938588019229568
4219000000.0 1.0058504904643246 0.23330038847776316
4222000000.0 0.9972110715422593 0.2212678843837289
4225000000.0 0.9709817973399522 0.2171042231315918
4228000000.0 0.9953624540858854 0.21117276265172683
4231000000.0 0.988267091993008 0.19454317424691392
4234000000.0 1.0124369796571089 0.1916457481889446
4238000000.0 0.9940145725680748 0.15797661291325407
4241000000.0 1.0128925929625066 0.1601564143258598
4244000000.0 0.9840832026993627 0.1647327523378354
4247000000.0 0.9967427078202988 0.15715886022994885
4250000000.0 0.9978006596530067 0.1250140969685744
4253000000.0 0.9628802140114636 0.13670147305621944
4256000000.0 1.0245397453444423 0.11929697522258936
4259000000.0 0.9656202248367977 0.09934535331686237
4262000000.0 1.0163118561951006 0.08000038580851437
4266000000.0 1.0022347271505427 0.06353471351511211
4269000000.0 0.9923284903979825 0.09003016785928505
4272000000.0 1.0042300079968092 0.08799125810999817
4275000000.0 1.0204403897159384 0.08301123207362021
4278000000.0 1.0483404291362723 0.06633641859221201
4281000000.0 1.00979975979298 0.07848438564196238
4284000000.0 1.000962891024717 0.007417879877095523
4288000000.0 1.0135432137386449 0.06792849790260141
4291000000.0 0.9731762116236395 0.01438192884767761
4294000000.0 0.987831005278754 0.006202553938950597
4297000000.0 0.994208431236354 0.040609763421399075
4300000000.0 0.9960795381198309 0.0012804243408484212
4303000000.0 0.9947270338504413 -0.020707660080282825
4306000000.0 1.015781563177796 0.01068157876855351
4309000000.0 1.0179378526953347 -0.0006143553359990589
4312000000.0 1.003494793259613 0.0024457745715566054
4316000000.0 1.018173347030518 -0.04779980545025206
4319000000.0 0.9836117297093798 -0.03753519067156151
4322000000.0 0.9761029853343391 -0.08304172038331446
4325000000.0 1.015162873849194 -0.056158172830319805
4328000000.0 1.0109869154905426 -0.08472290474340174
4331000000.0 0.9878931205997575 -0.10496046742776205
4334000000.0 1.0004723064906107 -0.09390312600034167
4338000000.0 0.9809307721351493 -0.06376282856435436
4341000000.0 1.0421001161746173 -0.08172452757740413
4344000000.0 1.0175435917474818 -0.1153567150432886
4347000000.0 1.0075817037461443 -0.14508127137483168
4350000000.0 0.9822579658652797 -0.16298450742774984
4353000000.0 0.9839079242929967 -0.13293697143329436
4356000000.0 0.9940654449734864 -0.1592507654054845
4359000000.0 0.9426248589676532 -0.1771531574577451
4362000000.0 0.998504382975091 -0.2210934863975909
4366000000.0 1.0065861500463178 -0.1827350376231565
4369000000.0 0.9596657141747768 -0.20345575027052326
4372000000.0 0.9838910625800568 -0.24216072411086068
4375000000.0 0.9785809972764576 -0.2089721220637434
4378000000.0 0.9573888656181928 -0.21988148643937067
4381000000.0 0.9580968648733188 -0.2136650666062961
4384000000.0 1.0384951200080288 -0.2587490757276284
4388000000.0 0.9698994537916242 -0.22648692674161638
4391000000.0 0.9732827643363979 -0.25079722680838606
4394000000.0 0.9284365800003906 -0.2595509052328315
4397000000.0 0.9791408878433085 -0.2728385199799125
4400000000.0 0.991623131097211 -0.29958170306428655
4403000000.0 0.9778415494386704 -0.305101856359384
4406000000.0 0.9648581512997568 -0.3307137084565873
4409000000.0 0.9937963828397254 -0.33556316300532724
4412000000.0 0.9209501942892506 -0.36223833260574206
4416000000.0 0.9233647714610591 -0.3423365270470953
4419000000.0 0.9323258245460745 -0.3609444475665596
4422000000.0 0.9490904623721872 -0.34238296638133636
4425000000.0 0.9790659282289174 -0.34631158524362493
4428000000.0 0.9402423345322989 -0.3588049315409471
4431000000.0 0.9661323957717454 -0.37084749747688084
4434000000.0 0.9165864495101594 -0.3834372446105029
4438000000.0 0.9521433324196973 -0.4036869469171195
4441000000.0 0.9402216629260827 -0.40837887526447725
4444000000.0 0.9103728979015375 -0.3823786919220594
4447000000.0 0.9151149867906178 -0.43398109528850703
4450000000.0 0.8954322871332319 -0.4031853442091414
4453000000.0 0.9335448027085747 -0.43410622965903595
4456000000.0 0.8695222436664138 -0.45152958741167604
4459000000.0 0.8524932716698135 -0.44627214967367024
4462000000.0 0.9559410008987324 -0.49746405582313913
4466000000.0 0.9092909524666798 -0.4928231273109973
4469000000.0 0.8964120294864398 -0.459418664948147
4472000000.0 0.8817779680412264 -0.5068401473926194
4475000000.0 0.8561186617853634 -0.4699003211265843
4478000000.0 0.9077074086485106 -0.5447724741098074
4481000000.0 0.8380929563818753 -0.501112813872599
4484000000.0 0.8286241312262934 -0.5558893784398854
4488000000.0 0.8473301283275468 -0.5279702399765696
4491000000.0 0.8591441832550438 -0.5340170407277005
4494000000.0 0.8479387078106191 -0.5381528709564655
4497000000.0 0.8466370780695656 -0.5369605628710575
4500000000.0 0.8523639089252693 -0.5368189599279387
4503000000.0 0.8703562996509977 -0.5849502823427526
4506000000.0 0.8125826463313062 -0.5764494165254037
4509000000.0 0.8215250433091899 -0.5654763217848274
4512000000.0 0.8067347552904552 -0.5831392319333714
4516000000.0 0.8262157430733218 -0.603151120707322
4519000000.0 0.7975880616270399 -0.5904816718285699
4522000000.0 0.7911828328308685 -0.606184330366141
4525000000.0 0.8042318815760523 -0.5815311464362731
4528000000.0 0.8175657597766397 -0.6379562341293129
4531000000.0 0.7938167898989817 -0.641535394200186
4534000000.0 0.7660538460451333 -0.6336065790774985
4538000000.0 0.7906671217523951 -0.6482076549887544
4541000000.0 0.7615752573034291 -0.6662807566222323
4544000000.0 0.7533411543059205 -0.6538006314766527
4547000000.0 0.7631227514405924 -0.6619329283154491
4550000000.0 0.7300778443593985 -0.6867892288984665
4553000000.0 0.7306788819375973 -0.6923039132219087
4556000000.0 0.7142467265306578 -0.6810663562268239
4559000000.0 0.715193881548178 -0.7045175912926569
4562000000.0 0.7234336355417212 -0.7110326826645708
4566000000.0 0.7052990530292425 -0.7203097628297481
4569000000.0 0.6935338855756893 -0.7247295764789263
4572000000.0 0.7045450839243572 -0.717934159897057
4575000000.0 0.6902260625946677 -0.7347042288116713
4578000000.0 0.7081799979678982 -0.735822156412365
4581000000.0 0.6884180104103609 -0.7413040480264821
4584000000.0 0.6755950487971629 -0.7530871584186365
4588000000.0 0.6943228477793133 -0.7773651525101981
4591000000.0 0.6633015474634218 -0.7622150690348877
4594000000.0 0.6390113171203268 -0.7805993461252055
4597000000.0 0.6470583346635803 -0.7985252797401365
4600000000.0 0.6104472175411948 -0.7839432676942636
4603000000.0 0.6260303033880826 -0.790804606104606
4606000000.0 0.6366809207023547 -0.8220490616476864
4609000000.0 0.6123642387515128 -0.7842259229782785
4612000000.0 0.6183711509940003 -0.8120844906670273
4616000000.0 0.5854368791230236 -0.7958354110862238
4619000000.0 0.5988475213726082 -0.7966013100437976
4622000000.0 0.5832840932059953 -0.8248411252239388
4625000000.0 0.5544544618220275 -0.8204118430070731
4628000000.0 0.5943065253254557 -0.8396951484348603
4631000000.0 0.5429750485747242 -0.8352637217166551
4634000000.0 0.5457347068540866 -0.8410752944690162
4638000000.0 0.5556118998024273 -0.853015520444871
4641000000.0 0.5465752372976894 -0.8469078894815536
4644000000.0 0.5268646242625035 -0.8451641350024349
4647000000.0 0.5436821351855408 -0.8652357669743372
4650000000.0 0.49213059455072694 -0.8538957168114507
4653000000.0 0.5220208259822716 -0.8719460092823437
4656000000.0 0.49561491670053254 -0.8835436217772876
4659000000.0 0.4902933290786873 -0.8754150200387234
4662000000.0 0.48898091635357144 -0.8995292177230925
4666000000.0 0.46822622041081996 -0.9003949493361254
4669000000.0 0.46092647376263113 -0.909913144187846
4672000000.0 0.4376815136262481 -0.9305768670067263
4675000000.0 0.41620297150176094 -0.9095511604058427
4678000000.0 0.43112935956586207 -0.8894776877768892
4681000000.0 0.41153452324780176 -0.9190938010975068
4684000000.0 0.4087739335555011 -0.9261048423266511
4688000000.0 0.3832181293442509 -0.9492398432475718
4691000000.0 0.42498870636428554 -0.9487360943556116
4694000000.0 0.4139320726984742 -0.9132820338090994
4697000000.0 0.3838676961569553 -0.9241437187273527
4700000000.0 0.3956191769557047 -0.9108016951072326
4703000000.0 0.38713600989648117 -0.9077830887377736
4706000000.0 0.367890947954173 -0.9827280365546714
4709000000.0 0.33808489697470956 -0.9361365103185081
4712000000.0 0.34792126437759524 -0.9387774168224958
4716000000.0 0.35420343048549546 -0.9736723900788797
4719000000.0 0.3773546186704731 -0.9536496113701733
4722000000.0 0.36074496804894984 -0.9225922841967866
4725000000.0 0.3220082096662713 -0.958359218338982
4728000000.0 0.2885778032940428 -0.9556324824307976
4731000000.0 0.29945254203519533 -0.9941974769750819
4734000000.0 0.3098790380349619 -0.9692118727576974
4738000000.0 0.30861883215211516 -0.9867696669490371
4741000000.0 0.23968683493143383 -1.0132099635312604
4744000000.0 0.25321047890282306 -0.9900807987916639
4747000000.0 0.26715764693035615 -0.9441117439015279
4750000000.0 0.2528874724452832 -0.9808026528063772
4753000000.0 0.25340852143242737 -0.9668888818784303
4756000000.0 0.2349100543531228 -1.0101336019875409
4759000000.0 0.23648638879774253 -0.997528473433489
4762000000.0 0.17278710974483302 -1.0261247072844941
4766000000.0 0.1981492087948502 -0.9991954682953949
4769000000.0 0.1894794295860957 -0.9875453193542437
4772000000.0 0.1482322162197864 -0.9970033826580634
4775000000.0 0.1466715650348558 -1.0577230577745802
4778000000.0 0.1782627739890263 -1.038053535012197
4781000000.0 0.17108064998816763 -1.0242749663873483
4784000000.0 0.165944358510148 -0.9733426983639341
4788000000.0 0.10471753996090818 -1.0152267250027887
4791000000.0 0.1419674055791329 -1.0032604397556595
4794000000.0 0.14534000763413824 -1.0266011361500436
4797000000.0 0.09628637600912868 -1.0094094237468505
4800000000.0 0.11172216452514427 -1.0040858622722515
4803000000.0 0.043353269934173905 -0.989178540115045
4806000000.0 0.09327702335935346 -1.041738748453818
4809000000.0 0.03647025561040945 -1.0243696085948035
4812000000.0 0.03170841659846424 -0.9970545804077802
4816000000.0 0.0776091138485005 -0.9967333475889786
4819000000.0 0.06452903871443585 -1.0442734690526756
4822000000.0 0.06795070374713434 -1.0521949970327875
4825000000.0 0.08638503671014039 -1.0357431553417118
4828000000.0 0.010459276030971715 -1.0239824868387206
4831000000.0 -0.038329721326701746 -1.026003159026202
4834000000.0 0.030882130491933335 -1.0229831929294528
4838000000.0 -0.029883309873430228 -1.0463867312322082
4841000000.0 -0.031579208508148895 -1.0061073222721713
4844000000.0 -0.001377447680857638 -1.034799984184709
4847000000.0 -0.0016953115031353855 -0.9976864426457239
4850000000.0 -0.04037498658229291 -1.0753788454485287
4853000000.0 -0.06298451274789338 -1.0040077682075892
4856000000.0 -0.06736758805369222 -0.9989989572334047
4859000000.0 -0.08626825159551646 -1.0691941650077483
4862000000.0 -0.040646769563104285 -1.0210083486230426
4866000000.0 -0.09902919789372913 -1.0300731744478886
4869000000.0 -0.12862264361083692 -1.0208601779776092
4872000000.0 -0.13609416530172364 -1.0389277457336072
4875000000.0 -0.08701810885864415 -1.0620630498967083
4878000000.0 -0.10936523381371485 -1.0279240952772561
4881000000.0 -0.16597235297299295 -1.0746246292816501
4884000000.0 -0.1206033065496026 -1.0368051921867254
4888000000.0 -0.11330128461863358 -1.0230486280221507
4891000000.0 -0.14651417860059765 -1.0374465765863612
4894000000.0 -0.1713052852695474 -0.9896698544249561
4897000000.0 -0.14596588802865143 -0.9915610145647851
4900000000.0 -0.18496473341456604 -1.0168466855600775
4903000000.0 -0.19090973157224675 -1.033156065019646
4906000000.0 -0.20765573838727902 -1.029718925450108
4909000000.0 -0.2168281927320884 -1.0156646597505925
4912000000.0 -0.2593984216192642 -1.0193302921716252
4916000000.0 -0.21278361976605248 -1.0190031201390128
4919000000.0 -0.2120255168746854 -1.0329146979686472
4922000000.0 -0.22700509750869982 -0.9949296400522243
4925000000.0 -0.26264193354451226 -0.9674809534280066
4928000000.0 -0.17602121037572865 -1.011030212658489
4931000000.0 -0.24164686234147847 -1.0324616454577697
4934000000.0 -0.2732983148272338 -0.9831181198836663
4938000000.0 -0.29197006571593564 -1.0044432467271631
4941000000.0 -0.27148250891993064 -0.9966328064829928
4944000000.0 -0.2509976771206116 -0.9387596629554902
4947000000.0 -0.2990906638804226 -1.0002180159918317
4950000000.0 -0.2980816396644583 -0.9535516579004293
4953000000.0 -0.38652524013768486 -0.9551306320183823
4956000000.0 -0.35728674972905394 -0.9710520906725107
4959000000.0 -0.3755636264997899 -0.9333387930675106
4962000000.0 -0.36644965039646216 -0.9684146238257464
4966000000.0 -0.3272127389734795 -0.9945734023709092
4969000000.0 -0.35228245696525473 -0.999275041778904
4972000000.0 -0.3597383994458855 -0.9589807769154158
4975000000.0 -0.35549638648797577 -0.9759351060542888
4978000000.0 -0.3991026985174807 -0.9587839033923764
4981000000.0 -0.43233617849003503 -0.9456194135509737
4984000000.0 -0.4146512496462921 -0.9515219313055788
4988000000.0 -0.430829856074148 -0.9333926157724164
4991000000.0 -0.40704965588749015 -0.9931193815920906
4994000000.0 -0.41607241053614696 -0.9379366480063325
4997000000.0 -0.4871993572271183 -0.9049150646273487
5000000000.0 -0.4295777771711682 -0.9529756491626862
5003000000.0 -0.46194185447465747 -0.963642370874592
5006000000.0 -0.4932472148201278 -0.959899501940227
5009000000.0 -0.4556827582507773 -0.9091731176308693
5012000000.0 -0.5035037326004348 -0.9166351804467339
5016000000.0 -0.4645035464711232 -0.9457646615911007
5019000000.0 -0.5135713194629495 -0.8881270057809203
5022000000.0 -0.5022877151984405 -0.8950931425377742
5025000000.0 -0.5492599894884245 -0.9237891968322789
5028000000.0 -0.5619966362715386 -0.8872130114631951
5031000000.0 -0.55781980100036 -0.8831934240297789
5034000000.0 -0.564971753405713 -0.8851148437641274
5038000000.0 -0.5521023839459029 -0.8552731185690777
5041000000.0 -0.5340359948119042 -0.9180662156623819
5044000000.0 -0.5289655554891821 -0.8783951926485648
5047000000.0 -0.6155546135722298 -0.8474317718821488
5050000000.0 -0.5229268994362481 -0.8921561741833066
5053000000.0 -0.6295765033670898 -0.879346161203834
5056000000.0 -0.5432866265048932 -0.8698625750146223
5059000000.0 -0.5701001516237534 -0.838289797816007
5062000000.0 -0.6424178099883672 -0.8244133373730269
5066000000.0 -0.6077524019929865 -0.8527493389946239
5069000000.0 -0.6228028439886516 -0.8466630530427838
5072000000.0 -0.5982152682415324 -0.8075510720501078
5075000000.0 -0.5918996006529772 -0.8322445549637745
5078000000.0 -0.6912002615278976 -0.8198204662335398
5081000000.0 -0.6499463563871406 -0.7670090783672804
5084000000.0 -0.6851937687110176 -0.8210866872974152
5088000000.0 -0.6332187593235558 -0.8062671610203933
5091000000.0 -0.7029037232379576 -0.7828036812791166
5094000000.0 -0.7050270235530535 -0.7949604767464672
5097000000.0 -0.6421796755830913 -0.8111022440960944
5100000000.0 -0.6448946714121175 -0.768376071912263
5103000000.0 -0.6900684065286896 -0.738081549370197
5106000000.0 -0.6952766637765034 -0.8259955130967392
5109000000.0 -0.7037598426970402 -0.7780513477934666
5112000000.0 -0.7340298190461624 -0.7495227435558898
5116000000.0 -0.7180802720144357 -0.7369294141991729
5119000000.0 -0.7230872147791347 -0.7232386283209336
5122000000.0 -0.7015726103301977 -0.7207213340694936
5125000000.0 -0.7295213380569218 -0.7328338546079205
5128000000.0 -0.7519234144604362 -0.70676234054173
5131000000.0 -0.7735298106447758 -0.692070466937269
5134000000.0 -0.749080446440115 -0.693603795564524
5138000000.0 -0.7899348653544288 -0.7032001177447477
5141000000.0 -0.7662709481008128 -0.6802615035755581
5144000000.0 -0.789138496150783 -0.6583018641139057
5147000000.0 -0.7697710388861322 -0.655020951163774
5150000000.0 -0.7727022258073054 -0.7305473407431807
5153000000.0 -0.8251668675692583 -0.6586412553348108
5156000000.0 -0.8310557519727177 -0.6505191924366115
5159000000.0 -0.86415732576294 -0.700188144705444
5162000000.0 -0.8342250784043618 -0.6121242362991284
5166000000.0 -0.7810153898763209 -0.6546356688112104
5169000000.0 -0.8363434771390985 -0.6476359223905402
5172000000.0 -0.815790967973859 -0.5920171189691246
5175000000.0 -0.8485409617084757 -0.6367409373097959
5178000000.0 -0.863207199917917 -0.587133179869975
5181000000.0 -0.8436955712759151 -0.6253900826135809
5184000000.0 -0.8282129204220579 -0.567692160942414
5188000000.0 -0.8707935651754888 -0.5531800694021842
