! Created with skrf 1.8.0 (http://scikit-rf.org).
# Hz S RI R 50.0 
!freq ReS11 ImS11
4000000000.0 0.6761646443124754 0.8077475453732132
4003000000.0 0.6735997185810876 0.8479477788684953
4006000000.0 0.6778088579804225 0.7318871971157961
4009000000.0 0.6816483868456407 0.7731835378840033
4012000000.0 0.5683866500465186 0.8507505008663108
4016000000.0 0.7058472563031574 0.7781658873547945
4019000000.0 0.6719488603763837 0.795431387370571
4022000000.0 0.6558532844248887 0.8301396067019037
4025000000.0 0.73466195559977 0.7439296702373712
4028000000.0 0.7159049688769842 0.7585620115008505
4031000000.0 0.6591373978087368 0.7205463750540432
4034000000.0 0.7431755187469163 0.7490319361059355
4038000000.0 0.790410650454145 0.7162557497737208
4041000000.0 0.7118752255734335 0.7232814572319224
4044000000.0 0.7679324534784672 0.7945369865406334
4047000000.0 0.7379509739880781 0.798591156425414
4050000000.0 0.7699830873034191 0.6994545999008975
4053000000.0 0.7555278527046245 0.6845226752404376
4056000000.0 0.7955470393204627 0.7028168889629823
4059000000.0 0.7694737710472911 0.6900220987810064
4062000000.0 0.7741393268603021 0.677485682554273
4066000000.0 0.7218848073522908 0.6460141188907846
4069000000.0 0.7884413248615216 0.7071943023206999
4072000000.0 0.7767766132289546 0.7128759806514706
4075000000.0 0.8309682750856405 0.738892793970106
4078000000.0 0.8189483204618365 0.6897050996940495
4081000000.0 0.8139353388844282 0.6807039177297837
4084000000.0 0.8183782386141941 0.614626998217003
4088000000.0 0.789632168574829 0.6495314459588115
4091000000.0 0.8158296409414121 0.6574627402384361
4094000000.0 0.7979225766320805 0.6440132454173626
4097000000.0 0.8269158859993607 0.6044859309704358
4100000000.0 0.8452400885663016 0.6110010577064724
4103000000.0 0.8454044968346104 0.6282505632494215
4106000000.0 0.855223011280183 0.5651761710656046
4109000000.0 0.8691798611189441 0.5867390893785305
4112000000.0 0.8536632998471207 0.592149811511407
4116000000.0 0.8453938938066554 0.5867486407761056
4119000000.0 0.8586549721399405 0.5539929547136604
4122000000.0 0.9149371585333322 0.5366409136368243
4125000000.0 0.9007440556186981 0.5560839923860015
4128000000.0 0.8508842832204238 0.5434596741322221
4131000000.0 0.8705023912577792 0.524470386288138
4134000000.0 0.8555053072001176 0.5618022998316519
4138000000.0 0.8867449809925736 0.5122219090041549
4141000000.0 0.8827721617823701 0.4960283434885453
4144000000.0 0.9069676076335546 0.5221509593221592
4147000000.0 0.9380265950527087 0.5129474234368125
4150000000.0 0.9179500509655172 0.536954681467595
4153000000.0 0.9175402218824008 0.4730766667203943
4156000000.0 0.9330209996837335 0.49754454779686486
4159000000.0 0.9002661780160597 0.48593763617199587
4162000000.0 0.9202802552389673 0.4745126547562739
4166000000.0 0.9828236629636593 0.4372530762044098
4169000000.0 0.9277572537435524 0.44794264136359074
4172000000.0 0.9439303550870017 0.4748645441273552
4175000000.0 0.9467165401954073 0.4418920169986729
4178000000.0 0.938979645316114 0.4271514814274503
4181000000.0 0.9597196534419787 0.4155868103042888
4184000000.0 0.9662409222531734 0.43084231889309293
4188000000.0 0.9565412129317608 0.4054614389956098
4191000000.0 0.9288679208984971 0.41506744389876477
4194000000.0 0.9400666366799155 0.382456714746902
4197000000.0 0.9519155962755942 0.3798752122403793
4200000000.0 0.9431361060879451 0.3853000867242604
4203000000.0 0.9583146176378579 0.37865707588056585
4206000000.0 0.9764730912393299 0.3510191922455685
4209000000.0 0.9471345686403903 0.35745063450914133
4212000000.0 0.9683941682897966 0.3287611499331544
4216000000.0 0.9422584242818035 0.3599043600045962
4219000000.0 0.9855534813813065 0.3395543213799067
4222000000.0 0.9931958078103915 0.30041130438701374
4225000000.0 0.9688686051386384 0.3113010685993268
4228000000.0 0.9909543371197653 0.31764133378285764
4231000000.0 0.9804974843767797 0.3019397881985343
4234000000.0 0.9894998177796946 0.2772808567679393
4238000000.0 0.9901440570994653 0.2464471832696085
4241000000.0 0.9902802993785338 0.25540387087573085
4244000000.0 0.9651671380944502 0.25778129155499946
4247000000.0 0.9882491048572524 0.26730972043440043
4250000000.0 0.9689065772384355 0.2310018751020273
4253000000.0 0.9733036737702545 0.22518391691018336
4256000000.0 1.0125637261150293 0.2315458174246829
4259000000.0 0.959574621719158 0.203500414185846
4262000000.0 0.9866588362193123 0.20391352630482704
4266000000.0 1.0138633893633278 0.18467753759800692
4269000000.0 1.0037706861173785 0.20011988419601387
4272000000.0 1.0017847887904927 0.18352417293587653
4275000000.0 1.0070844001361663 0.17106247275215902
4278000000.0 1.0241025185328068 0.18109742542656354
4281000000.0 1.0268503552599746 0.16248589672351677
4284000000.0 1.021808687427273 0.10478102479333554
4288000000.0 1.015780942418342 0.15230392586966263
4291000000.0 0.9990228550933034 0.13956803492895298
4294000000.0 1.0016156697463021 0.1375687693498523
4297000000.0 1.0052866121506585 0.13036999338508565
4300000000.0 1.0136968995708144 0.1051256423592361
4303000000.0 1.0082350274966898 0.0911618963729643
4306000000.0 1.0102188129235192 0.09715725173004161
4309000000.0 1.0072568556720898 0.08409933830393272
4312000000.0 1.0338294135984376 0.12423595633581197
4316000000.0 1.0248241730085672 0.07633525083130417
4319000000.0 1.011175055119652 0.09037717007568287
4322000000.0 1.0274648252301681 0.049015185130020636
4325000000.0 1.0173446865174327 0.03896902702000028
4328000000.0 0.9982877548728057 0.0199272044606163
4331000000.0 1.0204102663016892 0.009888201158208543
4334000000.0 1.043279661317157 0.0023028007472792045
4338000000.0 1.0182351606548574 0.024922843677118597
4341000000.0 1.0140000198249266 0.04209720647881662
4344000000.0 1.028972038935417 0.006435141956596724
4347000000.0 1.018537570458484 -0.02811856648987779
4350000000.0 0.9876730492092312 -0.03343045487148212
4353000000.0 0.9897895160594106 0.001898480068967201
4356000000.0 1.0155223215178755 -0.07491690499170268
4359000000.0 0.9792385517223453 -0.0524801454395796
4362000000.0 1.020688381680182 -0.09757719774691444
4366000000.0 1.049193449466854 -0.08481068706998815
4369000000.0 0.9911141745163621 -0.07374977663679891
4372000000.0 1.0092459727637866 -0.11040893950151216
4375000000.0 1.0069081085174356 -0.07911282822678492
4378000000.0 0.9711651132078342 -0.10824101153201122
4381000000.0 0.9857215693441486 -0.09815065787373504
4384000000.0 1.059474197583893 -0.1363081537409317
4388000000.0 0.9859070607435069 -0.12305729676507897
4391000000.0 0.9989975987907775 -0.14320367585476096
4394000000.0 0.9731823092978639 -0.14499313009180215
4397000000.0 1.001879671271007 -0.16594363824816433
4400000000.0 1.0199573777374442 -0.17887318550634235
4403000000.0 0.9915399369180142 -0.18270742634860554
4406000000.0 1.0004918886048972 -0.2126785964527646
4409000000.0 1.018405041281037 -0.19834356276091952
4412000000.0 0.9834505718622081 -0.2527662395201588
4416000000.0 0.9852134247927413 -0.23052791200537598
4419000000.0 0.9905483647253351 -0.2455708939356195
4422000000.0 0.9686190784458026 -0.20310386957414672
4425000000.0 1.0075838339564376 -0.20593102211732306
4428000000.0 0.9738235500290414 -0.2574867818634307
4431000000.0 1.0008563625852982 -0.25579320596377925
4434000000.0 0.9705430621028851 -0.2718850272816647
4438000000.0 1.0130270656712181 -0.258844537359962
4441000000.0 1.0004532709155574 -0.26422208931897134
4444000000.0 0.9452316160901562 -0.2773911136642602
4447000000.0 0.9546932902980516 -0.29719167604613383
4450000000.0 0.9611924526682075 -0.2787023851332625
4453000000.0 0.9988660407513101 -0.3183237531174098
4456000000.0 0.9275984850515453 -0.3276642522634937
4459000000.0 0.9168339281542106 -0.33312024961342157
4462000000.0 1.0135068052615963 -0.3622598369965597
4466000000.0 0.975569298288178 -0.3606573443286861
4469000000.0 0.9554615106332232 -0.33249124334847324
4472000000.0 0.9590277416222711 -0.4047465442391738
4475000000.0 0.9227822447065069 -0.3739559867624064
4478000000.0 0.9820208213811381 -0.4085204684577324
4481000000.0 0.896636145841049 -0.3854422473559666
4484000000.0 0.9263658455897992 -0.4404350773216035
4488000000.0 0.8981449064525667 -0.4135489969815455
4491000000.0 0.9235626001900349 -0.43460416284400255
4494000000.0 0.9272481763529612 -0.3984889246206742
4497000000.0 0.9091880193666384 -0.4047400271431191
4500000000.0 0.925594777690629 -0.429268850382113
4503000000.0 0.9213400849620661 -0.458063593603379
4506000000.0 0.905209524417355 -0.4519655222292676
4509000000.0 0.874664711353484 -0.4396031978582434
4512000000.0 0.850032552970875 -0.4675233930807422
4516000000.0 0.9009577377135428 -0.47449861045449027
4519000000.0 0.9065083044661009 -0.4609435016134318
4522000000.0 0.8783115710726888 -0.49922531933904113
4525000000.0 0.891755380881732 -0.458934745257009
4528000000.0 0.8914683862277777 -0.5175248588916527
4531000000.0 0.8799920724039773 -0.4974875260199486
4534000000.0 0.836084050627338 -0.5298145656983673
4538000000.0 0.8629276977728726 -0.5242733482098701
4541000000.0 0.8102837604477003 -0.5724564843364209
4544000000.0 0.8396319778714996 -0.5201442712790517
4547000000.0 0.8503596224639551 -0.5406836214063491
4550000000.0 0.8507054734581352 -0.5910753335093087
4553000000.0 0.8262460149964674 -0.5727566057031241
4556000000.0 0.7978956707634528 -0.5837929503887159
4559000000.0 0.821625638542824 -0.6237129791283824
4562000000.0 0.8367012085260532 -0.577089759203199
4566000000.0 0.8206412880475717 -0.6068915429487276
4569000000.0 0.7903531440871151 -0.5950080132670934
4572000000.0 0.8134906430482012 -0.6014647851265555
4575000000.0 0.7780852042098549 -0.6507704733669358
4578000000.0 0.8180558639378932 -0.6428808223522111
4581000000.0 0.7701944001117544 -0.650745519242689
4584000000.0 0.7650186213859995 -0.6355906925102862
4588000000.0 0.7888422207764771 -0.6520920462226784
4591000000.0 0.7795007971801972 -0.6405490920093195
4594000000.0 0.7438343380303761 -0.6670223757543514
4597000000.0 0.7694483802544196 -0.6872372394505597
4600000000.0 0.715550307983601 -0.6724649319386168
4603000000.0 0.7430945747944693 -0.7033816218473925
4606000000.0 0.7483980507953846 -0.6733456077777872
4609000000.0 0.7430478041400288 -0.6931220916045917
4612000000.0 0.7252607431950098 -0.71205802696322
4616000000.0 0.7117577548493281 -0.699277535787118
4619000000.0 0.7059369627555608 -0.6992685377511922
4622000000.0 0.70048744318699 -0.7166380629843109
4625000000.0 0.6675997816338186 -0.7322170346572416
4628000000.0 0.6905354802317025 -0.7040847242262316
4631000000.0 0.6799048094845148 -0.7373858464823377
4634000000.0 0.6720396821831883 -0.7512154998608925
4638000000.0 0.6750008938792456 -0.7593476710852812
4641000000.0 0.6839183919359075 -0.7519944962019967
4644000000.0 0.6489301742553761 -0.7629264225953514
4647000000.0 0.6782643060764012 -0.7755019463839341
4650000000.0 0.6279699269023756 -0.7822719084552913
4653000000.0 0.6649451030868212 -0.7972942120266775
4656000000.0 0.6433586230679955 -0.7960399108305802
4659000000.0 0.6230785757839116 -0.7891438453782313
4662000000.0 0.6337433697065442 -0.7899712189681106
4666000000.0 0.5948684541575613 -0.815499204388373
4669000000.0 0.6053657031055957 -0.8115893346088459
4672000000.0 0.5871230190708893 -0.8297168434652925
4675000000.0 0.5785824227654472 -0.8359109134765974
4678000000.0 0.5506130396900226 -0.8048923122883719
4681000000.0 0.5714421170401158 -0.8512462559060116
4684000000.0 0.5536867414594187 -0.8519372535325788
4688000000.0 0.5430268197814587 -0.8418753912262774
4691000000.0 0.5924076612551382 -0.8431849173816288
4694000000.0 0.5554832281880978 -0.8453543425119117
4697000000.0 0.516535948626761 -0.8403075348939777
4700000000.0 0.5191479702040368 -0.850153600286037
4703000000.0 0.5452972836148348 -0.8223064347876488
4706000000.0 0.50979840923072 -0.8961853624112923
4709000000.0 0.483647303178646 -0.8723406834133585
4712000000.0 0.5136035305201937 -0.8864048356034607
4716000000.0 0.5149093136337393 -0.906933855845393
4719000000.0 0.5134001516080925 -0.8910527093978853
4722000000.0 0.5169446624623322 -0.8734945979859587
4725000000.0 0.4770449153595424 -0.8946696358894394
4728000000.0 0.4690206586939771 -0.8828559801400839
4731000000.0 0.5146422576547423 -0.9395377586398761
4734000000.0 0.48003510951110284 -0.8741432068061187
4738000000.0 0.4958099628001441 -0.9271118687026733
4741000000.0 0.4286407934232623 -0.9442539203407962
4744000000.0 0.4335549695331644 -0.9322535117828545
4747000000.0 0.43701158923693795 -0.8866046778299154
4750000000.0 0.3845572511462238 -0.9457027080992166
4753000000.0 0.4242986907560406 -0.9335187911996119
4756000000.0 0.39327645468267913 -0.9318171995053024
4759000000.0 0.4104545060533934 -0.9327685653717618
4762000000.0 0.36403846375017224 -0.9416881612325756
4766000000.0 0.3648325598869554 -0.9304710674714738
4769000000.0 0.3812473942547029 -0.9734987157845704
4772000000.0 0.38763918143458614 -0.9686009245005093
4775000000.0 0.33583869468232047 -1.0272310309383026
4778000000.0 0.3572906130984091 -0.9752773044274036
4781000000.0 0.3295427357140579 -0.9671705702105453
4784000000.0 0.3478218583667529 -0.9450702476287373
4788000000.0 0.2744702802713971 -0.992398107647652
4791000000.0 0.31059508734171415 -0.9763680665015352
4794000000.0 0.33439539861926265 -1.0030700731631355
4797000000.0 0.2774129790233016 -0.9549954766662342
4800000000.0 0.26164974866826485 -0.9548402793028101
4803000000.0 0.2249433079728548 -1.003966259562383
4806000000.0 0.2558454346830427 -1.0179022043735781
4809000000.0 0.2230265502043922 -1.022530403904513
4812000000.0 0.20445005460591126 -0.9938058277859458
4816000000.0 0.2823333664322853 -0.9629964532934228
4819000000.0 0.22774209478052657 -1.0192929269288769
4822000000.0 0.2732498707426977 -1.0321769141956567
4825000000.0 0.26227129973685304 -1.0373654535563255
4828000000.0 0.1953848918356675 -0.9938700636716348
4831000000.0 0.17232617515757695 -1.0374905682368245
4834000000.0 0.20819954166323956 -0.9954470908810489
4838000000.0 0.18440979032512042 -1.0271096538128155
4841000000.0 0.13556583363608665 -0.983754832768914
4844000000.0 0.2069597633199275 -1.0244123052763299
4847000000.0 0.18652656899949827 -0.9681286668865394
4850000000.0 0.14158489001508356 -1.0279762121526572
4853000000.0 0.1614275405301166 -0.9967035823876844
4856000000.0 0.13706272997966018 -0.9882724435582783
4859000000.0 0.13549757321706954 -1.082794523308643
4862000000.0 0.13264537265604354 -1.0028021486209695
4866000000.0 0.09669116834617941 -1.0421368495236267
4869000000.0 0.07457992682281865 -1.020769216790658
4872000000.0 0.07051001176796695 -1.0374148815023692
4875000000.0 0.15021032950832286 -1.0701864503072835
4878000000.0 0.08130439860823416 -1.033651182273794
4881000000.0 0.05088426013541718 -1.0918230490173157
4884000000.0 0.06507279990451298 -1.0285783129013832
4888000000.0 0.0769723096747405 -1.0181869215478863
4891000000.0 0.043341344408224264 -1.0539535377375517
4894000000.0 0.014822266611466727 -1.0309533634748607
4897000000.0 0.04301562502373189 -1.0118666977288284
4900000000.0 0.006429747961217957 -1.0403861770695888
4903000000.0 0.01248949263673757 -1.0435530566159734
4906000000.0 0.017246898824578312 -1.0717643294969998
4909000000.0 -0.02987824761470006 -1.0510828376583083
4912000000.0 -0.04549224766447231 -1.071589194619418
4916000000.0 -0.02843030258402441 -1.0677541352649982
4919000000.0 -0.013076686703261078 -1.0647005564752936
4922000000.0 -0.012726116894937856 -1.0425931635708756
4925000000.0 -0.05438734679771125 -1.0676569751814102
4928000000.0 0.010932894697589318 -1.0225987885956702
4931000000.0 -0.005492504537034648 -1.0394622063629886
4934000000.0 -0.08150664888761992 -0.9898230208870021
4938000000.0 -0.12144828084456925 -1.0191915466889458
4941000000.0 -0.08561796807723786 -1.0223731386773134
4944000000.0 -0.09849317944757571 -0.9937839798678025
4947000000.0 -0.10436603038935269 -0.996893437851316
4950000000.0 -0.1291158006406557 -0.9621389725002076
4953000000.0 -0.16172304760062078 -1.0460343689678093
4956000000.0 -0.1405083145844382 -1.0307090431263575
4959000000.0 -0.1825512191126963 -0.9735894807220151
4962000000.0 -0.11548035732546749 -1.0555916297938601
4966000000.0 -0.13388216123342522 -1.0424472527724062
4969000000.0 -0.1544424490240463 -1.0782168972773167
4972000000.0 -0.1944940443136943 -1.0257978299176094
4975000000.0 -0.13629898118456937 -1.0313217508132528
4978000000.0 -0.20188685057421668 -1.0341330248668061
4981000000.0 -0.19559958029178084 -1.0558223907071436
4984000000.0 -0.19556827060238532 -0.9742459069354183
4988000000.0 -0.2020785977468199 -1.0044089614930605
4991000000.0 -0.17352297018746488 -1.0298845610069391
4994000000.0 -0.21036021040703834 -1.0279215661557102
4997000000.0 -0.2760152423723153 -0.9936137830672975
5000000000.0 -0.241606649415814 -1.0596661298079413
5003000000.0 -0.23374070633753358 -1.037397112117627
5006000000.0 -0.26692784670654823 -1.0533851853610485
5009000000.0 -0.25245477279929507 -1.0010851080484142
5012000000.0 -0.2952168289117641 -1.003510083312705
5016000000.0 -0.2599436545496459 -1.0381687563846496
5019000000.0 -0.30025048291715584 -0.9931748863622669
5022000000.0 -0.32749510067737164 -1.0168149184622686
5025000000.0 -0.33619665504102497 -1.047967908482011
5028000000.0 -0.328999686028025 -0.9859702174258347
5031000000.0 -0.31502252168364775 -0.9695303774896272
5034000000.0 -0.3821255633251065 -1.0109593172700193
5038000000.0 -0.3297802774053751 -0.9605505680527142
5041000000.0 -0.31856074664812106 -1.0092581464660384
5044000000.0 -0.26672074549444236 -0.9570843215049437
5047000000.0 -0.35922495697878426 -0.9921131019538737
5050000000.0 -0.29407752290392897 -0.9905043307133159
5053000000.0 -0.42223158615335543 -1.0006726133173915
5056000000.0 -0.3586148783555899 -1.0105067413966944
5059000000.0 -0.32302635189743895 -1.021954457894196
5062000000.0 -0.43915401200557114 -0.9523534430045457
5066000000.0 -0.3707535278386668 -0.9791805698266136
5069000000.0 -0.414455041281381 -0.9553897550596849
5072000000.0 -0.4230142270304058 -0.943350794137455
5075000000.0 -0.42816774705441196 -0.957042789408344
5078000000.0 -0.4722356253623115 -0.9520178520241442
5081000000.0 -0.45249110229957173 -0.910512534503232
5084000000.0 -0.48131522722859155 -0.9703579444716184
5088000000.0 -0.4433660031378369 -0.9253163923909826
5091000000.0 -0.520374092321775 -0.9297591482416256
5094000000.0 -0.48300706960236134 -0.9363281452924012
5097000000.0 -0.42588940836544387 -0.9478268145001443
5100000000.0 -0.42624533971132694 -0.9201278986627656
5103000000.0 -0.5098120462676622 -0.8720241372727705
5106000000.0 -0.5010144409326024 -0.9198662772016244
5109000000.0 -0.44323421498151067 -0.9193922559442425
5112000000.0 -0.5257343614594362 -0.8803401286091903
5116000000.0 -0.4753544050228829 -0.8837363923360952
5119000000.0 -0.5837647942653156 -0.9138813033185986
5122000000.0 -0.5397389201901167 -0.8752218855554528
5125000000.0 -0.5050549894732872 -0.8852047030458544
5128000000.0 -0.5438862902933699 -0.8739193122227249
5131000000.0 -0.5292271369434229 -0.8534761560136516
5134000000.0 -0.5532223138727904 -0.8580491844513477
5138000000.0 -0.5611272940315494 -0.9158506809634379
5141000000.0 -0.5040343432729518 -0.883692727320359
5144000000.0 -0.5686708472156529 -0.8676643438241545
5147000000.0 -0.5715361023935904 -0.8388626220504575
5150000000.0 -0.5932150118458333 -0.9088673011280155
5153000000.0 -0.6110801653602662 -0.8657877071531258
5156000000.0 -0.5864729379286185 -0.8948270131689602
5159000000.0 -0.5905231626993495 -0.8749211827464641
5162000000.0 -0.6309147433575256 -0.8536978628695797
5166000000.0 -0.6672372977800438 -0.8458653687968641
5169000000.0 -0.6329567118271305 -0.858036824337793
5172000000.0 -0.6282135101429205 -0.8603848570281211
5175000000.0 -0.6626456180344583 -0.8342883703745725
5178000000.0 -0.6907743091325349 -0.8124156525599725
5181000000.0 -0.653277438861721 -0.8360789971369359
5184000000.0 -0.6858230438931779 -0.7904391232938683
5188000000.0 -0.662481362135086 -0.7923457926073852
