! Created with skrf 1.8.0 (http://scikit-rf.org).
# Hz S RI R 50.0 
!freq ReS11 ImS11
4000000000.0 -0.3300855200090195 0.9665788923786556
4003000000.0 -0.37673574153036293 1.04526126981628
4006000000.0 -0.2684669946063282 0.9844093503144009
4009000000.0 -0.27513635386470603 0.9958596918473408
4012000000.0 -0.3472022284498366 1.0125720900057866
4016000000.0 -0.2546104010046668 0.9891674522481306
4019000000.0 -0.22707323076278746 1.0218063348312898
4022000000.0 -0.34258250628658216 0.976909878262041
4025000000.0 -0.15920559285631034 1.0434786191020418
4028000000.0 -0.1909874649247446 1.0439695291216027
4031000000.0 -0.18456330965823092 0.9837527391267517
4034000000.0 -0.18354929517024152 1.03911818396963
4038000000.0 -0.14397095418962141 1.0743129434107654
4041000000.0 -0.1536211187110731 1.059742218310897
4044000000.0 -0.1473180875031147 1.1248672441416434
4047000000.0 -0.22789468517454547 1.0109239434880475
4050000000.0 -0.061807589079403646 1.061889606191237
4053000000.0 -0.04121149427442257 0.9893629663489718
4056000000.0 -0.07357532230343991 1.0309923866743307
4059000000.0 -0.0930669026053322 1.0385140604064227
4062000000.0 0.023381492306588897 1.0473874360924804
4066000000.0 -0.035209937372206325 0.9698679943581024
4069000000.0 -0.04169723524253954 1.1065483850595283
4072000000.0 -0.14662022021656945 1.046677121414846
4075000000.0 -0.07089545152875079 1.099006994536288
4078000000.0 0.004585162276426531 1.0984768278556232
4081000000.0 -0.10618737629979318 1.14357735954267
4084000000.0 0.054313500755291566 1.0860473491390472
4088000000.0 -0.018545010593712455 1.068738574540737
4091000000.0 0.07031302940073397 1.179572858422952
4094000000.0 0.04465021275875086 1.0680553177885894
4097000000.0 0.0721639652337244 1.0706201921952216
4100000000.0 0.1072653802349618 1.065324392068023
4103000000.0 0.07361913344576435 1.0842207539511761
4106000000.0 0.07045368511882259 1.0581970819587674
4109000000.0 0.16204618202717086 1.0384080983675068
4112000000.0 0.12614053099759356 1.0558933967911766
4116000000.0 0.0460135062185518 1.0660995588833184
4119000000.0 0.17894989772975903 1.05242436846216
4122000000.0 0.1909042790515058 1.0825293400847193
4125000000.0 0.2439452206133621 1.0783643339178088
4128000000.0 0.16078132951917906 1.0522686126359315
4131000000.0 0.1314352615065335 1.00190668681161
4134000000.0 0.2098251909063505 1.0395316171403615
4138000000.0 0.2055710455856939 0.9916335076285283
4141000000.0 0.25371258958109977 1.0144610352401184
4144000000.0 0.21740188749301473 1.0522901427462406
4147000000.0 0.2710088747947537 0.980886123055513
4150000000.0 0.24463477584840132 1.0672124222163804
4153000000.0 0.30875621480363546 1.0155573372167757
4156000000.0 0.3284522482399666 1.0399338395748934
4159000000.0 0.2622538307747112 0.9681583901376687
4162000000.0 0.294975923351454 1.0302973353859588
4166000000.0 0.33609319737388044 0.9765605055032578
4169000000.0 0.36928167243375976 1.029730774504003
4172000000.0 0.33036329817786525 1.0099835637048287
4175000000.0 0.3274267116850226 0.9726837051787829
4178000000.0 0.4000338256047916 1.0416673072202178
4181000000.0 0.35956912298852267 1.0299954792565957
4184000000.0 0.4051874682055643 0.9827033182920244
4188000000.0 0.39107218666517063 0.9642846249009907
4191000000.0 0.33275951782158825 0.951670623319441
4194000000.0 0.4040020158843928 0.9157157858684669
4197000000.0 0.4605630920133795 0.9806265149502382
4200000000.0 0.44082948916864984 0.9247651220531553
4203000000.0 0.37661118321598785 0.9011041343936457
4206000000.0 0.44011916368625326 0.9513163411355712
4209000000.0 0.42774297368836434 0.9290537904676748
4212000000.0 0.47749437872035905 0.9413574945342741
4216000000.0 0.4654035599944411 0.8769048502321277
4219000000.0 0.47598072934508295 0.9094376996846173
4222000000.0 0.532574961324827 0.9496558491144911
4225000000.0 0.49115095809970954 0.8920640683466122
4228000000.0 0.5242260815066229 0.947015077958946
4231000000.0 0.4949219752474684 0.9005717810263157
4234000000.0 0.49938259709241584 0.9073286910881586
4238000000.0 0.538426349685537 0.8972145469948076
4241000000.0 0.5243646946272512 0.9060639982324912
4244000000.0 0.5162724260159293 0.8983416065705885
4247000000.0 0.5665127884906291 0.9000810050656654
4250000000.0 0.5814518495899709 0.8619402148472055
4253000000.0 0.555989247904104 0.8795772800030031
4256000000.0 0.5820362098082468 0.8063481525624894
4259000000.0 0.6081415535531377 0.8312487527338374
4262000000.0 0.591845015135035 0.8340308957665165
4266000000.0 0.5955772745106116 0.8420678553008993
4269000000.0 0.64376387833652 0.8781851771073547
4272000000.0 0.6517605503711368 0.8105141289579201
4275000000.0 0.6518147859223804 0.8069473857546501
4278000000.0 0.6340618986040044 0.8016931826276888
4281000000.0 0.6490146976435252 0.7727990423413481
4284000000.0 0.6703523568181531 0.7925331196345022
4288000000.0 0.6712747630453528 0.7784999223072187
4291000000.0 0.6684552513435349 0.8017183464287438
4294000000.0 0.6721797499908796 0.7672344229905707
4297000000.0 0.6814645096948512 0.7343926997993057
4300000000.0 0.7035362172701036 0.7780575298487783
4303000000.0 0.7402433332860102 0.7247964868176908
4306000000.0 0.6938477599306294 0.7506274512233982
4309000000.0 0.7132499459787296 0.7262728357255961
4312000000.0 0.7134094600023354 0.7640227870143445
4316000000.0 0.723484617914085 0.7206491366738967
4319000000.0 0.7469935296131807 0.7061571356639683
4322000000.0 0.7485895657636863 0.6652807285761897
4325000000.0 0.731857631065054 0.6948038150876945
4328000000.0 0.7664823629544589 0.6788326991802062
4331000000.0 0.7786529407228755 0.678102482284847
4334000000.0 0.7695966742026144 0.6765490825703134
4338000000.0 0.7721837599829899 0.6611654015826128
4341000000.0 0.7951904585143422 0.6920489402743195
4344000000.0 0.8067105800321034 0.6469942265536557
4347000000.0 0.8133313130704484 0.6438239025743702
4350000000.0 0.799315112610552 0.6015074491765469
4353000000.0 0.7913057318519154 0.6545152652720758
4356000000.0 0.8397264618271434 0.6217562671857563
4359000000.0 0.8182626290631824 0.618207668277549
4362000000.0 0.8234154606425976 0.574188132673032
4366000000.0 0.8362164977320528 0.5673352732636545
4369000000.0 0.8066112292940101 0.5626000021176971
4372000000.0 0.8708326283172689 0.5119128906850257
4375000000.0 0.8531938313988854 0.5618850487503718
4378000000.0 0.8343107755150369 0.5689873473093129
4381000000.0 0.8452476530063902 0.5582708743676296
4384000000.0 0.9317406823575586 0.5595053555277325
4388000000.0 0.8515641426583234 0.5377091456411369
4391000000.0 0.8738867671993744 0.5274462560824223
4394000000.0 0.8621057576231318 0.5124260569098265
4397000000.0 0.8646123213125363 0.5075198860330915
4400000000.0 0.9116881017981817 0.4986825267334264
4403000000.0 0.8686277676117495 0.533302069986559
4406000000.0 0.9150522933747117 0.4603228278478214
4409000000.0 0.9330594608313021 0.4794827450623788
4412000000.0 0.9229213583771361 0.4187314558301904
4416000000.0 0.9077945458688192 0.42447943720222425
4419000000.0 0.9160502716776123 0.4293744358158647
4422000000.0 0.9169151882223343 0.42580374370673874
4425000000.0 0.926010534017058 0.45070427146013314
4428000000.0 0.9269814371517877 0.4001113915429092
4431000000.0 0.9624563058992299 0.39652543523940675
4434000000.0 0.9474317050323959 0.3984540977313142
4438000000.0 0.9494906074541687 0.4067010011980627
4441000000.0 0.9416637040429892 0.4043960174571832
4444000000.0 0.9520407648220155 0.3768037777598928
4447000000.0 0.9439593872905399 0.37939798140075487
4450000000.0 0.9538172321545069 0.37066227354583003
4453000000.0 0.9925249408044163 0.3375307715782163
4456000000.0 0.9396339149717184 0.322879593093678
4459000000.0 0.9362533401720476 0.279171504452178
4462000000.0 1.0193119444562015 0.3211275560038631
4466000000.0 1.0185565834640897 0.30179693117327
4469000000.0 0.9745696264387733 0.3167694611588489
4472000000.0 1.0242229730585999 0.2689559496858274
4475000000.0 0.9672835201481328 0.27082287425251983
4478000000.0 1.0321194685094885 0.26886510767889416
4481000000.0 0.9715666053201287 0.23853594774485448
4484000000.0 0.9855530282110092 0.1874265905423784
4488000000.0 0.967616411341122 0.2092863531281665
4491000000.0 1.004727939988157 0.2152526456799861
4494000000.0 0.9797041053554288 0.20488479633872098
4497000000.0 0.9930623955478668 0.20721127953327462
4500000000.0 1.0023860042987953 0.19490204909848358
4503000000.0 1.0172677859402335 0.19523445341443638
4506000000.0 0.9736726677911556 0.17651566181803247
4509000000.0 0.9914378859826702 0.17393605825372116
4512000000.0 0.9828678559517078 0.1591375875821383
4516000000.0 1.0045651122751116 0.15539682756523354
4519000000.0 0.9856670010392137 0.14053477518177837
4522000000.0 0.9998145123798674 0.1100779485885268
4525000000.0 0.9850861271355962 0.15417522231959285
4528000000.0 1.0281481001902997 0.10567451629767752
4531000000.0 1.0169359478671947 0.11511237775065852
4534000000.0 0.9786627137282483 0.08642186399044265
4538000000.0 1.0014241106468447 0.07481094868701715
4541000000.0 1.00899317233714 0.018217182788852135
4544000000.0 0.9894820890349147 0.057312954044683014
4547000000.0 0.9869557509057185 0.07149580729083638
4550000000.0 1.015623949247251 0.005502459382176743
4553000000.0 1.0122527620710577 0.03142218952213905
4556000000.0 0.9705690406668819 0.0001682742328557793
4559000000.0 1.0094438088306716 -0.008956724194102782
4562000000.0 1.0434357711639253 -0.004050905719284556
4566000000.0 1.0242464153146424 -0.048149408497810645
4569000000.0 0.9698945313464677 -0.02951109944667804
4572000000.0 1.0086157985118023 -0.021587312507599377
4575000000.0 1.0201899104071641 -0.06905353697889681
4578000000.0 1.0509344448626659 -0.018332527634666133
4581000000.0 1.0330518604012453 -0.08950631461148624
4584000000.0 0.9944081256843136 -0.07787266099691006
4588000000.0 1.0247889862675739 -0.07297082481351069
4591000000.0 1.0214467752109029 -0.06471825972314617
4594000000.0 1.0057501686606964 -0.11688572183661286
4597000000.0 1.0257684727303553 -0.13759438528391083
4600000000.0 0.9660700387590411 -0.16659367998797714
4603000000.0 1.007126141436554 -0.12349166664201877
4606000000.0 1.0050648873037542 -0.13791314619265083
4609000000.0 1.0135864437274642 -0.1870995950242903
4612000000.0 1.0553197008262714 -0.16683668314115105
4616000000.0 0.9854420483024049 -0.18755802147224301
4619000000.0 0.9966815113314061 -0.1691823426395818
4622000000.0 0.9936140884695931 -0.17657753078288257
4625000000.0 0.9293175731293708 -0.20410649377121198
4628000000.0 0.9467164400807797 -0.18400913954181186
4631000000.0 0.951263435655644 -0.2504345752998369
4634000000.0 0.9656980725199524 -0.22795269416594321
4638000000.0 0.9733511805467093 -0.25607120775029113
4641000000.0 0.992881450546711 -0.2442434587690141
4644000000.0 0.9706977395964015 -0.2602101985569171
4647000000.0 1.0016688531814575 -0.2705166997944489
4650000000.0 0.9711217827728992 -0.30797598086646544
4653000000.0 0.9805365017655711 -0.3052073955746843
4656000000.0 0.9397406888966562 -0.33703591226910085
4659000000.0 0.9507432000432601 -0.318813270128643
4662000000.0 0.9567981764708661 -0.29687927028480515
4666000000.0 0.9562120356268289 -0.31447842601291837
4669000000.0 0.9596017619448349 -0.317220383858152
4672000000.0 0.9231937499303047 -0.369853398437059
4675000000.0 0.9112204996757249 -0.3808252298813025
4678000000.0 0.9365814458895685 -0.36454729247034856
4681000000.0 0.9379626035989724 -0.421415736524256
4684000000.0 0.8870991577741201 -0.3925011178784954
4688000000.0 0.8972371407395106 -0.3807538800602106
4691000000.0 0.8954244528697785 -0.3763182088152105
4694000000.0 0.921536358679562 -0.41854306848978556
4697000000.0 0.9136905205627746 -0.44200330993048714
4700000000.0 0.9311822993580247 -0.4215857979201969
4703000000.0 0.9133469016304263 -0.4679491067825191
4706000000.0 0.9209784606808953 -0.4383647359035972
4709000000.0 0.8966707028458646 -0.4760757339036835
4712000000.0 0.8806692275278181 -0.4925447655054548
4716000000.0 0.8872497454820059 -0.4854453800572471
4719000000.0 0.8938295954363 -0.5131010765075789
4722000000.0 0.8934203838325325 -0.49370394041989574
4725000000.0 0.8632785331108215 -0.5224170679727393
4728000000.0 0.8542895583189931 -0.5194431350083311
4731000000.0 0.8914981096823198 -0.48412494023964203
4734000000.0 0.8741975078546619 -0.5124661703753199
4738000000.0 0.8577814205011478 -0.5217989647511733
4741000000.0 0.8566219085693388 -0.5599876266817159
4744000000.0 0.8449185932822615 -0.5836500663439126
4747000000.0 0.8193920554661549 -0.5586654534609307
4750000000.0 0.8210018379552799 -0.5782106959651587
4753000000.0 0.8530170157751745 -0.6040107039754954
4756000000.0 0.8179000079967839 -0.5971367204045317
4759000000.0 0.8084726482091398 -0.5941334219583212
4762000000.0 0.8130114979935148 -0.6097756452206037
4766000000.0 0.7905653233154066 -0.6003665338435136
4769000000.0 0.8210401962616537 -0.6260110439846135
4772000000.0 0.7700824814084815 -0.6346499838177457
4775000000.0 0.8006078062140031 -0.6814069186541586
4778000000.0 0.8013111931932788 -0.61504709110212
4781000000.0 0.7785262999397576 -0.6422343379877066
4784000000.0 0.7648447844867186 -0.6650001916664712
4788000000.0 0.7789190899054512 -0.6757565620870163
4791000000.0 0.7636618658475061 -0.6842796188110694
4794000000.0 0.7747558937525465 -0.6757438724113551
4797000000.0 0.7515576842124323 -0.6954500670032443
4800000000.0 0.7218072815473355 -0.6921627223072989
4803000000.0 0.7131567064961736 -0.6997121516834015
4806000000.0 0.7179877767108801 -0.6858879937528183
4809000000.0 0.6821244317530647 -0.7238217281249687
4812000000.0 0.7185959877553156 -0.7332858454750023
4816000000.0 0.7199986128369017 -0.7245885289789559
4819000000.0 0.7301312910736759 -0.7621354807788966
4822000000.0 0.6802320970743783 -0.7417321492830333
4825000000.0 0.7305046000744058 -0.7450565791953737
4828000000.0 0.6833323874328611 -0.7296208784662733
4831000000.0 0.6630308466516793 -0.7870287548401402
4834000000.0 0.7012337050510566 -0.7614581700396721
4838000000.0 0.6650860247317435 -0.7948693349844028
4841000000.0 0.6427413121926643 -0.789309264799326
4844000000.0 0.6600482077619854 -0.7738784982380787
4847000000.0 0.656218049234242 -0.7635824939140552
4850000000.0 0.6401034381096802 -0.8091151897126236
4853000000.0 0.6069549803771971 -0.7878013833388262
4856000000.0 0.6145444028205587 -0.799989082409015
4859000000.0 0.6191955386468747 -0.8447088766369611
4862000000.0 0.6170692725591208 -0.7928419937764968
4866000000.0 0.5937332881450764 -0.8411726568733966
4869000000.0 0.5663593983798615 -0.8538665048357889
4872000000.0 0.5716907048577183 -0.8603170090927484
4875000000.0 0.6226713327938681 -0.8454642390397896
4878000000.0 0.5297576299120352 -0.8640581904599104
4881000000.0 0.5663046108414475 -0.9148640898073839
4884000000.0 0.5717021147680267 -0.8517024621856726
4888000000.0 0.5499203243190934 -0.8696507108027631
4891000000.0 0.5616210420981834 -0.8590215770366714
4894000000.0 0.5221759993403998 -0.8742127371028944
4897000000.0 0.5295893686354834 -0.8732882909096454
4900000000.0 0.5133334385276026 -0.9069789862588649
4903000000.0 0.5140916370564538 -0.8959114105664181
4906000000.0 0.5183566647841458 -0.9082562001320753
4909000000.0 0.46500699004821167 -0.924014708114441
4912000000.0 0.4742304934387169 -0.9340763317297552
4916000000.0 0.5095461888633314 -0.9131450208902414
4919000000.0 0.46720911002057514 -0.925639983771966
4922000000.0 0.4845023559938373 -0.9252209410138589
4925000000.0 0.44026855404849186 -0.9268341149866958
4928000000.0 0.4938869125233868 -0.8977197556634386
4931000000.0 0.47689683137903605 -0.9207673876639901
4934000000.0 0.42147547364159776 -0.8835419036610038
4938000000.0 0.36350066544545184 -0.9331878642701968
4941000000.0 0.3925523503714925 -0.9464054088697976
4944000000.0 0.40086623244376596 -0.8737185350889352
4947000000.0 0.37648249351677865 -0.9379052769074986
4950000000.0 0.34772588506572893 -0.9359540397799965
4953000000.0 0.3653873443314877 -1.0032013575244851
4956000000.0 0.3412238769071812 -0.9636468926378298
4959000000.0 0.3027667794895314 -0.9408661567076134
4962000000.0 0.3583291580997581 -0.9897147857333943
4966000000.0 0.37102981337373464 -0.970327072959401
4969000000.0 0.35208944846124596 -1.0124742966809692
4972000000.0 0.31135728244294936 -1.0048674941336178
4975000000.0 0.31876137411358985 -0.9539820747676998
4978000000.0 0.3092679192997131 -0.9816460112602832
4981000000.0 0.29193175812464717 -0.9627661269129107
4984000000.0 0.316971497505223 -0.9775669248734201
4988000000.0 0.28054451386256174 -0.978164639084836
4991000000.0 0.3288476335743731 -1.0256713445599561
4994000000.0 0.31093134416225704 -0.9688875846191288
4997000000.0 0.2174423163385209 -1.016333461689703
5000000000.0 0.26483829107296203 -1.001403570419055
5003000000.0 0.2521768817687855 -1.0276188871689762
5006000000.0 0.2293155201232233 -1.0532481015866975
5009000000.0 0.25953617901523424 -1.0009303698090728
5012000000.0 0.1737103487868293 -0.9989825195051756
5016000000.0 0.2618387524571956 -1.0049171495366178
5019000000.0 0.17969850097192339 -1.0060400995469108
5022000000.0 0.18613215725453694 -1.0328339714810328
5025000000.0 0.211043387810484 -1.0778828283247783
5028000000.0 0.16312231322345044 -1.0381865654348945
5031000000.0 0.12378791433048998 -1.0091086291513705
5034000000.0 0.1404935267591117 -1.08400342133346
5038000000.0 0.09212463701686995 -1.0136407327157622
5041000000.0 0.15120041118101651 -1.0218355416133038
5044000000.0 0.149637755324809 -0.9640839220934659
5047000000.0 0.1355408666867506 -1.0421273358223417
5050000000.0 0.2177893085731671 -1.0000993596445789
5053000000.0 0.08232320189484439 -1.0824874641166402
5056000000.0 0.14196128776839206 -1.0561160423699645
5059000000.0 0.1605609626496307 -1.033611805172315
5062000000.0 0.05829500885725186 -1.0569770756582715
5066000000.0 0.1282459520168064 -1.0009994665609228
5069000000.0 0.0399249995002971 -1.0431245112112673
5072000000.0 0.051177267535427666 -0.9932744653391621
5075000000.0 0.06306644596344116 -1.0598078122227146
5078000000.0 -0.03485364023558474 -1.075211996552004
5081000000.0 -0.02290376758363173 -0.9713166948617483
5084000000.0 -0.02784432720342618 -1.0704894122684616
5088000000.0 0.04620042782666603 -1.031899877825815
5091000000.0 -0.021286315338395242 -1.0933110012309357
5094000000.0 0.0024363291565409756 -1.0378983673950746
5097000000.0 0.02608995883615474 -1.0316031601166198
5100000000.0 -0.023340636842512294 -1.0168795993024158
5103000000.0 -0.016496200098095354 -1.012749065620103
5106000000.0 -0.044152517161428 -1.1250998384498616
5109000000.0 -0.019448904095840342 -1.0357586591450187
5112000000.0 -0.06735056236615322 -1.0448972573023105
5116000000.0 -0.05323124860409882 -0.96393530868968
5119000000.0 -0.0645454882790704 -1.014632349065962
5122000000.0 -0.08508667395481681 -1.0358952236906172
5125000000.0 -0.09552785975313213 -1.041262122472911
5128000000.0 -0.09735590796685409 -1.0360571937672745
5131000000.0 -0.09986940563899153 -0.9931906220605756
5134000000.0 -0.14178228656415467 -1.0318190709591608
5138000000.0 -0.09704179968284085 -1.0530950249296143
5141000000.0 -0.07704149940638 -1.0583152897406962
5144000000.0 -0.11108569148925601 -1.0477955166231543
5147000000.0 -0.14300783188394958 -1.0211101953421051
5150000000.0 -0.12729957398520958 -1.0528724131394294
5153000000.0 -0.1531928672371535 -1.0206282580154324
5156000000.0 -0.17007250071408278 -1.052338710206544
5159000000.0 -0.18785462856305452 -1.0768816722232504
5162000000.0 -0.21273320020533037 -1.0164053119580738
5166000000.0 -0.24407316205152685 -1.062394884463405
5169000000.0 -0.19605431757270006 -1.038166322428436
5172000000.0 -0.20558657621667745 -0.999543356171857
5175000000.0 -0.2131885771499804 -1.0347805810630988
5178000000.0 -0.24258414080075444 -0.9782692735964246
5181000000.0 -0.212279671880034 -1.0357281697304923
5184000000.0 -0.25904897315122893 -0.9912470714654216
5188000000.0 -0.2108462801801518 -0.9599590031526024
5191000000.0 -0.30167660301909077 -1.0098215134638893
5194000000.0 -0.2472851804470717 -1.0191417867219057
