! Created with skrf 1.8.0 (http://scikit-rf.org).
# Hz S RI R 50.0 
!freq ReS11 ImS11
4000000000.0 0.6013925288788864 0.7982022439165666
4003000000.0 0.6665566792080424 0.8577033662362774
4006000000.0 0.6762581403712495 0.8084228088263574
4009000000.0 0.6811673825190637 0.7999077789212561
4012000000.0 0.6151779386083447 0.8198731091366823
4016000000.0 0.6387590599515104 0.7754393719993573
4019000000.0 0.6738638801439443 0.7502547014214086
4022000000.0 0.6461732652656272 0.8052345661197667
4025000000.0 0.7257997400289876 0.7231386735427291
4028000000.0 0.6824648990599473 0.787130231685204
4031000000.0 0.6760103596155739 0.7194674629769703
4034000000.0 0.7162910131932009 0.7241221713873477
4038000000.0 0.7415813882875307 0.7043664958637067
4041000000.0 0.7391703359443066 0.7514115651974995
4044000000.0 0.7397112544930146 0.7568189084966425
4047000000.0 0.7395505290447623 0.7853192131298923
4050000000.0 0.7479850484573893 0.6985338097657048
4053000000.0 0.7202161172923005 0.6871857676748949
4056000000.0 0.7483485631649169 0.6920351520113265
4059000000.0 0.7310839885609376 0.684728303211767
4062000000.0 0.7858450962810432 0.6636748817373219
4066000000.0 0.718316938805837 0.6341263150174499
4069000000.0 0.802698353158233 0.6568088756980764
4072000000.0 0.7494665257812014 0.71739217630695
4075000000.0 0.7949558510255065 0.7101831586480154
4078000000.0 0.8099285742404759 0.689032329678714
4081000000.0 0.7900524981018895 0.7170545361842675
4084000000.0 0.8047410887066844 0.6092799808127296
4088000000.0 0.7966630472140053 0.6450825086146509
4091000000.0 0.8585903771589127 0.6486738758103952
4094000000.0 0.819062340380065 0.6495288546934906
4097000000.0 0.819661144128478 0.6336945458147694
4100000000.0 0.8307259075081052 0.5823186638652833
4103000000.0 0.860710796967908 0.6332854237097305
4106000000.0 0.8306732386219161 0.6027894531303775
4109000000.0 0.8261329666456243 0.5395558456538914
4112000000.0 0.8254170146505262 0.6004145645096552
4116000000.0 0.8456777174152164 0.5994263960106626
4119000000.0 0.8677207551521269 0.5257481975957914
4122000000.0 0.8988088646144289 0.5313716649932347
4125000000.0 0.8876299582625615 0.5636585855833927
4128000000.0 0.8364378546873342 0.5223899971687277
4131000000.0 0.8606040908154305 0.5017802801964882
4134000000.0 0.8710898596623649 0.5674226158163407
4138000000.0 0.8825277513974505 0.49322904548635355
4141000000.0 0.888030307736926 0.5021547610226273
4144000000.0 0.8651038598642458 0.5302620446404582
4147000000.0 0.9277567177994132 0.47758220215168795
4150000000.0 0.9007342420062587 0.4883234775604371
4153000000.0 0.8697797329247664 0.4403026302959412
4156000000.0 0.9189700081255687 0.5080406634785327
4159000000.0 0.8927914716729237 0.46465315253880995
4162000000.0 0.8821628164588655 0.45906518651670447
4166000000.0 0.9211648839409434 0.4532551514489823
4169000000.0 0.9030956115734401 0.42598115254677615
4172000000.0 0.907560881336248 0.4444381257250493
4175000000.0 0.943611064053004 0.4260887527068015
4178000000.0 0.9572421234433831 0.42965742925142647
4181000000.0 0.9318481536683332 0.3925030512278478
4184000000.0 0.9330030801590787 0.39831678726377756
4188000000.0 0.9331299390793812 0.39725292880817054
4191000000.0 0.9112005060092842 0.4382234738648037
4194000000.0 0.9347416525113594 0.3860448458362856
4197000000.0 0.9523959480047525 0.39457684071348603
4200000000.0 0.9424347425078969 0.3821449551112327
4203000000.0 0.9610091175486045 0.3792853691215615
4206000000.0 0.9747044855522567 0.3681344173390139
4209000000.0 0.9452005202851528 0.33854027879637844
4212000000.0 0.9639734616636035 0.3255750337579487
4216000000.0 0.9507407416985917 0.3459238129799506
4219000000.0 0.9792576341165768 0.3372536436647884
4222000000.0 0.9677712361781297 0.32300172945684963
4225000000.0 0.945176681010562 0.3075040075999238
4228000000.0 0.9848916099656042 0.29517851690126884
4231000000.0 0.9834835854208571 0.2838725773900263
4234000000.0 1.0021566488892681 0.276832334250751
4238000000.0 0.971316309988841 0.2683960092150135
4241000000.0 0.9840301040707229 0.25801682604469917
4244000000.0 0.9937536204552466 0.24698996877143597
4247000000.0 0.9871266478824847 0.2474893280507962
4250000000.0 0.9823226701045706 0.24118443952118856
4253000000.0 0.963689287672296 0.2268370748701618
4256000000.0 1.01645860351289 0.22563132990519263
4259000000.0 0.9625209997584577 0.19285053941913907
4262000000.0 0.980548631726784 0.1822541476276013
4266000000.0 1.0200035001207364 0.16795753448235184
4269000000.0 1.0038754916504367 0.20513895372099436
4272000000.0 0.97724638101173 0.17399423032154543
4275000000.0 0.9961143210432726 0.1644895739761844
4278000000.0 1.0124360973742708 0.17204643558244298
4281000000.0 1.0061535521695264 0.16119281266860158
4284000000.0 1.025577638779298 0.12429304012022716
4288000000.0 0.995523229557724 0.18484335040772895
4291000000.0 0.977212027009029 0.1025777151723163
4294000000.0 0.9985379579747797 0.10750762027169698
4297000000.0 0.9880007475862128 0.1330422097654324
4300000000.0 1.0030356331040358 0.10753969980861222
4303000000.0 1.0203053116658707 0.09519920871941108
4306000000.0 1.0139736860046336 0.10317673918955739
4309000000.0 1.0436885873595871 0.09524355460561758
4312000000.0 1.0311857848492236 0.11422438876556143
4316000000.0 1.0451440919060933 0.08991843294669731
4319000000.0 0.9799957062116068 0.09818346308893845
4322000000.0 0.9841689964419021 0.0321625401235278
4325000000.0 1.002635650391677 0.049961493529117565
4328000000.0 1.014887636513811 0.021103839764252993
4331000000.0 1.00108429816449 0.00621207767631532
4334000000.0 1.0400639593192675 0.018255898196550074
4338000000.0 1.010397535218008 0.03206080339825253
4341000000.0 1.0263363637715561 0.029823714625702324
4344000000.0 1.0264832267966448 -0.010360173838698278
4347000000.0 1.0337826023606504 -0.029271908932955726
4350000000.0 0.9564822837459027 -0.027608938558742885
4353000000.0 0.98942865273749 -0.03206084566761744
4356000000.0 1.013131555346336 -0.06657745607203779
4359000000.0 0.9556919846137784 -0.042944749210949346
4362000000.0 1.0108801034254742 -0.11409650956622436
4366000000.0 1.0118291667867993 -0.08806655691711986
4369000000.0 0.9842258219062382 -0.11749036721322081
4372000000.0 0.9826245188684306 -0.13475026483786115
4375000000.0 1.0024999773963394 -0.0813807606461648
4378000000.0 0.981356998542689 -0.11328964356612752
4381000000.0 1.0031432653568981 -0.10341726222097333
4384000000.0 1.0661207582263281 -0.1340378080394845
4388000000.0 0.9856380423616151 -0.12403619658307388
4391000000.0 1.0014874346211384 -0.15322436436570713
4394000000.0 0.966329311589629 -0.1518356516539318
4397000000.0 0.9799128329280915 -0.1727592814537165
4400000000.0 1.0205446708352173 -0.17979753149892777
4403000000.0 1.0011740996852365 -0.18406130375883092
4406000000.0 0.9795846164683654 -0.2134696150183161
4409000000.0 1.0243034770181445 -0.1948563079376632
4412000000.0 0.9798812221397281 -0.2655973881173351
4416000000.0 0.972228075027828 -0.22372802470307426
4419000000.0 0.9725699236836352 -0.24411460704672086
4422000000.0 0.9794800207587346 -0.23094204654363149
4425000000.0 0.989951456195216 -0.22335094286014007
4428000000.0 0.9717800648515661 -0.26124425139670093
4431000000.0 1.0118058186166206 -0.2601341764164319
4434000000.0 0.9647906197141896 -0.2654290245355663
4438000000.0 0.9957585537973719 -0.2782371418077411
4441000000.0 0.9818553056542607 -0.2780490964929931
4444000000.0 0.9637628256142874 -0.28112542159282927
4447000000.0 0.9440234383289801 -0.30993100325556955
4450000000.0 0.9583260763112802 -0.30188322376003957
4453000000.0 0.9740504573279517 -0.33023185155786233
4456000000.0 0.9291162744942315 -0.33870180021892515
4459000000.0 0.9081134830073452 -0.3402925930936104
4462000000.0 1.0130809888009287 -0.35396710197132475
4466000000.0 0.973335392171228 -0.37720293265168736
4469000000.0 0.952517624609668 -0.35399592969384963
4472000000.0 0.9276859420925492 -0.38338436329256076
4475000000.0 0.9279920024657393 -0.3643930272442504
4478000000.0 0.9867227066428057 -0.410635584715456
4481000000.0 0.8946407717520667 -0.3840928655624542
4484000000.0 0.9106323409032075 -0.43375740730484114
4488000000.0 0.9062030477051581 -0.41032822085094606
4491000000.0 0.9127737942506922 -0.4344155719696408
4494000000.0 0.9167323984865453 -0.42064274697097714
4497000000.0 0.9108097716724086 -0.42141703134626
4500000000.0 0.9114200796857279 -0.4327160206642415
4503000000.0 0.9275765432345786 -0.45192125447175974
4506000000.0 0.8980819372588549 -0.46286239965080805
4509000000.0 0.8767432670502462 -0.4607350082811348
4512000000.0 0.8771415337551828 -0.46291297567949075
4516000000.0 0.9082897203571921 -0.4735389144158707
4519000000.0 0.8634233986544498 -0.4749374128274551
4522000000.0 0.8790140204036343 -0.49805564192187685
4525000000.0 0.883161681061722 -0.46544023970450654
4528000000.0 0.8842780735286164 -0.5109439956302929
4531000000.0 0.8848305498406857 -0.5070916353840867
4534000000.0 0.8484705317019029 -0.5130373716954758
4538000000.0 0.8412792168177916 -0.5302239895041213
4541000000.0 0.8088730891342596 -0.571084583239449
4544000000.0 0.8583123784171149 -0.5290118480474666
4547000000.0 0.8519230311651435 -0.5204001959484659
4550000000.0 0.8428714237293653 -0.5853170226858894
4553000000.0 0.8198657894107015 -0.5795575144778401
4556000000.0 0.7923575382259167 -0.5741048602283014
4559000000.0 0.8120454767130815 -0.6078036204861235
4562000000.0 0.8189300537803246 -0.589267855375848
4566000000.0 0.8222180801572012 -0.5970992477836297
4569000000.0 0.785990213782695 -0.5991148680996736
4572000000.0 0.8069587935989293 -0.5983409580400527
4575000000.0 0.786926091328428 -0.621828457107933
4578000000.0 0.805322662463722 -0.6327990057701852
4581000000.0 0.8031731884178636 -0.65754987815633
4584000000.0 0.7569620618921906 -0.642739465719957
4588000000.0 0.7847338552448003 -0.637513330568253
4591000000.0 0.786889135393638 -0.6442867473982831
4594000000.0 0.7360832620217979 -0.6794772643087515
4597000000.0 0.7562927254490206 -0.685445687300075
4600000000.0 0.7201131116903304 -0.7020746234690801
4603000000.0 0.7342330177816605 -0.6962791558883895
4606000000.0 0.7469873035447648 -0.6956023751024109
4609000000.0 0.7303137041170918 -0.7096413710780608
4612000000.0 0.7265794208882047 -0.7106360184535953
4616000000.0 0.6980677304675997 -0.7010892437178375
4619000000.0 0.7069111365887523 -0.7207885367418373
4622000000.0 0.6986631396118643 -0.728565277969902
4625000000.0 0.6548345668384415 -0.7289919446525949
4628000000.0 0.7052938825794801 -0.6999119238985274
4631000000.0 0.6623785416173145 -0.731841477638049
4634000000.0 0.6655537056513182 -0.7523730514873469
4638000000.0 0.6849091985910359 -0.7524009362780414
4641000000.0 0.6637245775602073 -0.7534324214720044
4644000000.0 0.6623327893845431 -0.755830713380697
4647000000.0 0.6519782437778697 -0.7794629188358848
4650000000.0 0.6391712068149242 -0.7832561574200845
4653000000.0 0.644825841145541 -0.7912224705866376
4656000000.0 0.613520335162741 -0.7843074485034978
4659000000.0 0.6269857200946195 -0.8027810581524567
4662000000.0 0.6197880520540971 -0.8086930716069596
4666000000.0 0.6011444878284833 -0.8084167379311692
4669000000.0 0.6023885533154917 -0.8075163257004035
4672000000.0 0.5886327139642665 -0.8341578253451586
4675000000.0 0.5643931193006944 -0.8599204630149707
4678000000.0 0.5636571920140845 -0.8094278294195429
4681000000.0 0.5659011553555472 -0.8507829614292786
4684000000.0 0.5194635120061029 -0.8333481229290255
4688000000.0 0.5260201609240073 -0.84662708577583
4691000000.0 0.5713818542211583 -0.8485572599078601
4694000000.0 0.5455977996485312 -0.8330402130771253
4697000000.0 0.5087510561906767 -0.8570151350519013
4700000000.0 0.5381412935086965 -0.8520495771685788
4703000000.0 0.5430868012880496 -0.8439486597690584
4706000000.0 0.5027577171032999 -0.8655530224085707
4709000000.0 0.5012433909853963 -0.872226023031493
4712000000.0 0.5020573889415285 -0.8707740918512163
4716000000.0 0.47805158376133694 -0.8888442959993768
4719000000.0 0.48342777240080004 -0.89154729201323
4722000000.0 0.5016849526451361 -0.8708332138932795
4725000000.0 0.4780368514814191 -0.8744464259138458
4728000000.0 0.4559538073689996 -0.8947506577004316
4731000000.0 0.4607427694517181 -0.9367955508758787
4734000000.0 0.4730892064546033 -0.8786522480408147
4738000000.0 0.4649352333864034 -0.9230178000896379
4741000000.0 0.4161712422723499 -0.9289222765243033
4744000000.0 0.41857220534165795 -0.9563198746567644
4747000000.0 0.40960197504344886 -0.8823710438010481
4750000000.0 0.42456951776790464 -0.964320465930862
4753000000.0 0.42195670868538304 -0.9153802596848472
4756000000.0 0.36267973697135214 -0.9166537668989989
4759000000.0 0.4037514970673196 -0.9254485074800666
4762000000.0 0.36940771472984935 -0.9273516066015343
4766000000.0 0.37324266557362823 -0.9562076754719727
4769000000.0 0.3984341069104835 -0.9496064675952628
4772000000.0 0.3576711668477182 -0.9580056809765901
4775000000.0 0.3361429502543474 -0.9839900265174035
4778000000.0 0.29726722588964793 -0.9836100580800496
4781000000.0 0.33223653829520683 -0.9564062767890877
4784000000.0 0.33723601114955504 -0.9341131730386242
4788000000.0 0.30297202941715917 -0.9955556792085252
4791000000.0 0.2890840077227917 -0.9783204886225733
4794000000.0 0.3151324509385801 -0.9569550016955863
4797000000.0 0.2835378381946956 -0.9568137477167385
4800000000.0 0.27426787990415585 -0.976378666725219
4803000000.0 0.21302249865939052 -0.9965973453348262
4806000000.0 0.27654802135580464 -1.000991191395156
4809000000.0 0.22381424914201664 -1.00175414715244
4812000000.0 0.21680607154983916 -0.9787898915498134
4816000000.0 0.2559045015059358 -0.9667070316818667
4819000000.0 0.22511045410877764 -1.0014276550724155
4822000000.0 0.23970989464210557 -1.013374094842622
4825000000.0 0.2396439681846273 -1.0089527241590446
4828000000.0 0.1841282357065386 -0.9871730451362918
4831000000.0 0.17226463111950102 -1.0375409301823026
4834000000.0 0.2129338675809152 -1.0162882656755534
4838000000.0 0.17423421984821896 -1.0422621166415742
4841000000.0 0.14432192730199142 -0.999294165569096
4844000000.0 0.2046956181341363 -0.9996355067608976
4847000000.0 0.18932610504778963 -0.9690787534762169
4850000000.0 0.12334988705673972 -1.0304365001531381
4853000000.0 0.15481948229932663 -0.9788971317933541
4856000000.0 0.11431336114529025 -1.0094367949347427
4859000000.0 0.11729453356783652 -1.0337797097554695
4862000000.0 0.1305192481502646 -0.9891865922787154
4866000000.0 0.08509101623478887 -1.0355017246749114
4869000000.0 0.08533440819062939 -1.0100511155771572
4872000000.0 0.05328642663700359 -1.051411789495498
4875000000.0 0.1333119589510175 -1.0520370454816281
4878000000.0 0.07588929370777761 -1.0159484881633938
4881000000.0 0.04050644559236913 -1.066981872369933
4884000000.0 0.07098652873087465 -1.033799096731395
4888000000.0 0.0652845969566247 -1.0284398467880984
4891000000.0 0.0824516633568601 -1.034625127310206
4894000000.0 0.005916280183536863 -1.0029075027039707
4897000000.0 0.04829282361761489 -1.0304956873180373
4900000000.0 0.028039264574262996 -1.0512408467000938
4903000000.0 0.03091048922523698 -1.0279961840618628
4906000000.0 -0.023862179244762485 -1.0628416494823423
4909000000.0 -0.02134490428881998 -1.0158599153657615
4912000000.0 -0.016284362241121265 -1.0524412696812964
4916000000.0 -0.0036826487300597455 -1.052106494407062
4919000000.0 -0.016781580867013784 -1.043476931921572
4922000000.0 -0.003924133970709759 -1.0329609242251523
4925000000.0 -0.10908823913173346 -0.9800843337896439
4928000000.0 -0.01361446182830077 -1.0109713625571506
4931000000.0 -0.03513811836234376 -1.0305763528890675
4934000000.0 -0.06974881261950748 -0.9860684957650346
4938000000.0 -0.13048904442281284 -1.0399628455288008
4941000000.0 -0.08944425711705727 -0.9909513470805801
4944000000.0 -0.08025522634811652 -0.9553600761757868
4947000000.0 -0.11234600846381562 -0.9769587760431796
4950000000.0 -0.10868554272461074 -1.0072941730050162
4953000000.0 -0.1766265248105433 -1.025789218025894
4956000000.0 -0.1680414229681752 -1.0139081919715736
4959000000.0 -0.1871435839234494 -0.9847469445927518
4962000000.0 -0.15256276338250388 -1.0154239034861328
4966000000.0 -0.14429620622694878 -1.050617360654957
4969000000.0 -0.15014040388015454 -1.0661362535721752
4972000000.0 -0.18942446070338007 -1.01680860942357
4975000000.0 -0.1363072502600701 -1.0078777381394397
4978000000.0 -0.20018859818193974 -0.9922893616847397
4981000000.0 -0.2304435844952443 -0.9951985735187082
4984000000.0 -0.2276826346692862 -0.9614484058915859
4988000000.0 -0.19540654991355805 -1.0168163670153623
4991000000.0 -0.17248756319542824 -1.0299585288271709
4994000000.0 -0.22299089309615505 -1.0068873105051508
4997000000.0 -0.25491686065456753 -0.9889502367883878
5000000000.0 -0.24148978273933092 -1.0285921702008853
5003000000.0 -0.24689613785370368 -1.0288488095007207
5006000000.0 -0.2777635011148345 -1.0336865235232107
5009000000.0 -0.2796941873949622 -0.9578408008676742
5012000000.0 -0.28309868563960267 -0.9985792040444508
5016000000.0 -0.23694660082873326 -1.007700374361268
5019000000.0 -0.29437251255482566 -0.9818360281955867
5022000000.0 -0.27999414609840134 -1.0146479345885606
5025000000.0 -0.3369897071978603 -1.051177553627634
5028000000.0 -0.3169344074452065 -0.9971310593689144
5031000000.0 -0.34918681204984814 -0.9730173200948077
5034000000.0 -0.3686607536925596 -1.0183501458642552
5038000000.0 -0.3445962661773788 -0.958497834523971
5041000000.0 -0.29535076288833484 -1.0091188054683005
5044000000.0 -0.33477636672299704 -0.9650218187974172
5047000000.0 -0.3533525239567708 -0.9777187980637913
5050000000.0 -0.30253667406685525 -0.9330949382748754
5053000000.0 -0.3811917496405076 -1.0223411306034813
5056000000.0 -0.36201810833221304 -0.9772142546828175
5059000000.0 -0.336496989377812 -0.9953366930647359
5062000000.0 -0.44935699646961635 -1.0035084489149688
5066000000.0 -0.32564619016758634 -0.9494458574917031
5069000000.0 -0.4318760886427032 -0.9388259592570544
5072000000.0 -0.37796546523488284 -0.9582320824836617
5075000000.0 -0.3746936163069411 -0.9228136115802839
5078000000.0 -0.4724694508463764 -0.9083043022279713
5081000000.0 -0.4323344196821867 -0.8731266130318577
5084000000.0 -0.4509708190581456 -0.9746675962108415
5088000000.0 -0.44258934725075827 -0.9490961195182972
5091000000.0 -0.49351645385007564 -0.8869043495347142
5094000000.0 -0.47902304884450525 -0.9408545828807874
5097000000.0 -0.4767127649273758 -0.9335359839553146
5100000000.0 -0.4590832395639166 -0.8890098140331474
5103000000.0 -0.5172514097990987 -0.9138823972509339
5106000000.0 -0.520238643551914 -0.9699736009240614
5109000000.0 -0.4875264904801485 -0.9387472675968527
5112000000.0 -0.48319649592602254 -0.8511185781277442
5116000000.0 -0.48929299887265154 -0.8312414203790743
5119000000.0 -0.5325580058071219 -0.9054858361917919
5122000000.0 -0.5098378903284412 -0.913425229670493
5125000000.0 -0.5053479469658647 -0.8889504316202764
5128000000.0 -0.568393090821264 -0.8681620203194595
5131000000.0 -0.5572863980488755 -0.9077644914455604
5134000000.0 -0.5794862889589611 -0.8640538782826109
5138000000.0 -0.5786886413423661 -0.8536482616467407
5141000000.0 -0.5232634821724729 -0.8531875054319924
5144000000.0 -0.5232744481951443 -0.8957856079517679
5147000000.0 -0.6132572543153537 -0.8896562901169687
5150000000.0 -0.5888154115378713 -0.8262975169111235
5153000000.0 -0.6053848468142051 -0.8807939455375884
5156000000.0 -0.5961566705920449 -0.8673889045195591
5159000000.0 -0.6317427132325786 -0.860733136712715
5162000000.0 -0.5929159048475977 -0.8423498658025056
5166000000.0 -0.6403370389661271 -0.8378128426136099
5169000000.0 -0.637011258625512 -0.8426886063468528
5172000000.0 -0.6369830200122295 -0.8122834498787658
5175000000.0 -0.6619490493097112 -0.8773607976532702
5178000000.0 -0.6456173560273326 -0.7917408413332095
5181000000.0 -0.6714005457484701 -0.7984112313019952
5184000000.0 -0.6600584098464831 -0.7759560580050437
5188000000.0 -0.6701001827732198 -0.7966654588801713
