! Created with skrf 1.8.0 (http://scikit-rf.org).
# Hz S RI R 50.0 
!freq ReS11 ImS11
4000000000.0 0.6268473054282325 0.7959139571815925
4003000000.0 0.7231439521232871 0.8604279297076949
4006000000.0 0.7208947885298789 0.7424937662116885
4009000000.0 0.6710982678967116 0.7386462634931069
4012000000.0 0.67201349069498 0.8345042960806708
4016000000.0 0.7534217563238785 0.7524152146772769
4019000000.0 0.7133490101372635 0.7396473123697787
4022000000.0 0.7014234154587666 0.8508332959780295
4025000000.0 0.7585552927630554 0.7006073913703353
4028000000.0 0.7605119674298912 0.698716608720116
4031000000.0 0.7044422659769679 0.6619326449715284
4034000000.0 0.6975485602173485 0.7145997134897294
4038000000.0 0.7804840595280367 0.6736240330156417
4041000000.0 0.7545888869453802 0.7132172463498458
4044000000.0 0.8138427871542152 0.7167310381652675
4047000000.0 0.7577880097795596 0.7221155617187693
4050000000.0 0.7852285004489448 0.6617215465126711
4053000000.0 0.7770922031397839 0.646972053051105
4056000000.0 0.7862867822721189 0.675969693641534
4059000000.0 0.7238869397800066 0.6739731017936503
4062000000.0 0.8160897787101031 0.6603004150335281
4066000000.0 0.7305966292359973 0.5839128397507047
4069000000.0 0.8438458963904254 0.6613014986290339
4072000000.0 0.7860081642181223 0.6900395505392691
4075000000.0 0.8343456531563891 0.6878103975829026
4078000000.0 0.826845647319668 0.6381426490970641
4081000000.0 0.8193042978149996 0.6657644573443493
4084000000.0 0.8575418167297327 0.6031436414195472
4088000000.0 0.8350688323829282 0.6637140028572348
4091000000.0 0.895415888989382 0.6592556764669768
4094000000.0 0.8251566858381391 0.6112527134434194
4097000000.0 0.8526125192924442 0.5767738554710116
4100000000.0 0.8702877950010192 0.5736178339790252
4103000000.0 0.8698459214972536 0.5830670229764796
4106000000.0 0.8918108475241961 0.575845830370391
4109000000.0 0.8729756729751965 0.5618084676819051
4112000000.0 0.8632328007630243 0.5476476588100063
4116000000.0 0.8663421770630062 0.5723072772344742
4119000000.0 0.9025195726603048 0.5269553699669199
4122000000.0 0.8936252863469292 0.49124405965994833
4125000000.0 0.9203666926398163 0.5216189755984844
4128000000.0 0.8532180206768515 0.5352131944953894
4131000000.0 0.9208875062950541 0.5356011174145705
4134000000.0 0.8953010793859828 0.5289614032631914
4138000000.0 0.9041665415629241 0.45678486308739713
4141000000.0 0.9011585892485102 0.48354023828557147
4144000000.0 0.94160258967861 0.5255883914802824
4147000000.0 0.9277459108115408 0.45013990227314765
4150000000.0 0.9294499713566194 0.5086844868771403
4153000000.0 0.9217523701356239 0.4364858299839143
4156000000.0 0.9697105643153889 0.4709674064789313
4159000000.0 0.885828444800461 0.4305561229844878
4162000000.0 0.9150512577127183 0.45079516002263276
4166000000.0 0.933423378000134 0.4231071553504646
4169000000.0 0.9708724902028003 0.3871389556601821
4172000000.0 0.9312081823550261 0.4199713061390669
4175000000.0 0.9439088450197748 0.4182259870423856
4178000000.0 0.9479752044217687 0.37667774849478985
4181000000.0 0.9778984668636215 0.3804103037289819
4184000000.0 0.919790023013588 0.39441788700376806
4188000000.0 0.9296834648576477 0.35024830712042654
4191000000.0 0.9265228112224969 0.3929321475019127
4194000000.0 0.9366537391052268 0.3461694021360293
4197000000.0 0.9586868014514908 0.34591452366458925
4200000000.0 0.9533835412720992 0.3543376107647125
4203000000.0 0.9730527455058536 0.34413006917484557
4206000000.0 0.9826610848498719 0.3336235698717463
4209000000.0 0.9655095491676591 0.3051211507642691
4212000000.0 0.9799964989294808 0.2753052664470004
4216000000.0 0.9894163847902683 0.30515858195815754
4219000000.0 0.9969925142626733 0.2967770964238098
4222000000.0 0.9876592925719232 0.28824060470197893
4225000000.0 0.976171533008835 0.26907891139269635
4228000000.0 0.9770499862896476 0.27082878812518707
4231000000.0 0.9894738340395102 0.24429377881317682
4234000000.0 1.005954291140851 0.2510602512903482
4238000000.0 0.9878336152951276 0.22352628706945257
4241000000.0 0.9907783558123264 0.2105126798335804
4244000000.0 0.9728149023473837 0.2142289277261037
4247000000.0 0.9771330891575737 0.1998475202138823
4250000000.0 0.9752268003380204 0.20926919078673228
4253000000.0 0.9668015749177163 0.17981179519703677
4256000000.0 1.0145766445557451 0.18486198992674702
4259000000.0 0.9730189240805899 0.1649001250765675
4262000000.0 0.9842561268093093 0.14668289363511497
4266000000.0 1.0117101767228518 0.1096302798390659
4269000000.0 1.0120391314362966 0.14955649931651935
4272000000.0 1.004657130135715 0.146990689443814
4275000000.0 1.0125040668616776 0.15114170846712652
4278000000.0 1.0199727628605286 0.12609344694628308
4281000000.0 1.0307077866708905 0.12669904187435055
4284000000.0 1.0316977839721453 0.0716230862501483
4288000000.0 0.9819187817867147 0.1305466049790466
4291000000.0 1.0021605947300634 0.09133973454994455
4294000000.0 1.00369620149734 0.0915631001343374
4297000000.0 0.9909856519689798 0.10660603045570465
4300000000.0 1.0157505955992054 0.07312734241891464
4303000000.0 0.9914512808411875 0.03474434659412205
4306000000.0 1.0072864186672765 0.0794341403543842
4309000000.0 1.0090320265858477 0.05006824521395385
4312000000.0 0.9951190552657478 0.059122737974918405
4316000000.0 1.0001850073573055 0.03384460469576556
4319000000.0 0.9982777838824262 0.03451968056935854
4322000000.0 0.9839802972671651 -0.01598406902576914
4325000000.0 1.0073857257844465 0.02241633201443509
4328000000.0 1.0136332332085252 0.0020293487930227866
4331000000.0 0.994273156777413 -0.046268867625357576
4334000000.0 0.9909464599830853 -0.042941941156336844
4338000000.0 1.027522511255849 -0.008875545129528067
4341000000.0 1.0475142996105629 -0.024637516311937113
4344000000.0 1.0333299120664792 -0.06889645320516943
4347000000.0 1.018082920294181 -0.1083917351982914
4350000000.0 0.9748924786601192 -0.06467845005661961
4353000000.0 0.9946897118022258 -0.07068519681825464
4356000000.0 0.9997623538013491 -0.09801861837327021
4359000000.0 0.9785056094471695 -0.11483078032330599
4362000000.0 1.004526007776302 -0.16208485911496323
4366000000.0 1.0423470165018378 -0.11705726871365706
4369000000.0 0.9846537578475135 -0.14119223130309935
4372000000.0 0.9877531089875813 -0.1738097275460249
4375000000.0 0.9885893210721417 -0.10948654138591081
4378000000.0 0.9861146228402036 -0.13852519504685798
4381000000.0 0.9678054635939444 -0.15499878268109052
4384000000.0 1.0582068533148243 -0.1937394062844116
4388000000.0 0.9856320825264167 -0.16665905416518617
4391000000.0 1.0136873347054491 -0.19085609894777844
4394000000.0 0.9697050305018529 -0.19010962356938146
4397000000.0 0.986801140710579 -0.22776845271916762
4400000000.0 1.0007982244012674 -0.21920926994424023
4403000000.0 1.001354339711432 -0.2238371149057956
4406000000.0 0.981638169316388 -0.25742209292166
4409000000.0 0.9977943375570926 -0.26311530203376354
4412000000.0 0.9583102365160794 -0.2952198020941961
4416000000.0 0.9598798307542913 -0.27452285320035
4419000000.0 0.9607138686290496 -0.28449271118270664
4422000000.0 0.9623962077919175 -0.2606325470838598
4425000000.0 1.0011156426923327 -0.26889637836401376
4428000000.0 0.9634479099934515 -0.2969755619581425
4431000000.0 0.980327472381967 -0.3030289440110687
4434000000.0 0.9468302850889005 -0.31503072302747376
4438000000.0 0.9860733599418958 -0.32824663146670463
4441000000.0 0.9644827707319314 -0.3243369910772874
4444000000.0 0.9413096915649641 -0.3325738588969207
4447000000.0 0.9380439154452673 -0.3554526962303105
4450000000.0 0.9451729820740221 -0.3399422787711733
4453000000.0 0.964556820141519 -0.3600166103227921
4456000000.0 0.9035568014508952 -0.3670851496680653
4459000000.0 0.8960574455783361 -0.36587021772967776
4462000000.0 0.9768592645189116 -0.411445972557442
4466000000.0 0.9733062140506072 -0.4278094147289392
4469000000.0 0.9297208330742298 -0.38049372764947065
4472000000.0 0.9433754004181695 -0.4373306686255075
4475000000.0 0.9003991038605691 -0.420545198485783
4478000000.0 0.9379751848642963 -0.45859695785733123
4481000000.0 0.8822038147687337 -0.43392891513944987
4484000000.0 0.8864188820877563 -0.4867869489075831
4488000000.0 0.8891572157413126 -0.4554931322591963
4491000000.0 0.8916731497117156 -0.47010473446919504
4494000000.0 0.8787403442048461 -0.4572067685024013
4497000000.0 0.8721027229147207 -0.46875877950396533
4500000000.0 0.893088019418586 -0.46701456209289693
4503000000.0 0.9146007562296654 -0.5010535100842107
4506000000.0 0.8517309953536116 -0.5235605344307849
4509000000.0 0.8480200175918573 -0.497406994025931
4512000000.0 0.8547968825854002 -0.5056499647478234
4516000000.0 0.8805461112746713 -0.5428670613147192
4519000000.0 0.8386174626157216 -0.48601372889627564
4522000000.0 0.8414681975087588 -0.5375779361898674
4525000000.0 0.8528343660100721 -0.5126709488436181
4528000000.0 0.8723816236830166 -0.5735850158575171
4531000000.0 0.8414381520537586 -0.5469346372557278
4534000000.0 0.8315730103085556 -0.5494429243930509
4538000000.0 0.8135710148970996 -0.5744169997410831
4541000000.0 0.808541360752592 -0.5901917829154388
4544000000.0 0.7993463785043662 -0.6037826809148139
4547000000.0 0.8199955573652381 -0.5792518274285852
4550000000.0 0.7899778393114967 -0.6210767617759969
4553000000.0 0.8002829440890578 -0.6129201821655179
4556000000.0 0.7738631070555286 -0.6026281354621508
4559000000.0 0.785738706042166 -0.6538506531466899
4562000000.0 0.8028809144353897 -0.6309238541204005
4566000000.0 0.7905042911194442 -0.6534465657728981
4569000000.0 0.7626034801704691 -0.6413335035996708
4572000000.0 0.7548009378264472 -0.6604403022892716
4575000000.0 0.7705849661206092 -0.6756495806249755
4578000000.0 0.7883053657942858 -0.6732639437495667
4581000000.0 0.7453007234894601 -0.6745523351880325
4584000000.0 0.742511174095196 -0.6954605338163079
4588000000.0 0.7466520851613399 -0.6966975020638758
4591000000.0 0.7347651318409261 -0.6836562576419497
4594000000.0 0.7051124903791881 -0.7124467628337364
4597000000.0 0.7371872561065203 -0.728626909941327
4600000000.0 0.6841454524580062 -0.7356605637209496
4603000000.0 0.7028845843506457 -0.7295225889267746
4606000000.0 0.7101503256642687 -0.7408434318829838
4609000000.0 0.6957613139477861 -0.7347187812928915
4612000000.0 0.6827550933653317 -0.7430674744662652
4616000000.0 0.6667432434330247 -0.7446207908784286
4619000000.0 0.6693911470490156 -0.7413345302532047
4622000000.0 0.6736957562933711 -0.7636016417378508
4625000000.0 0.6353735915392623 -0.7525605043826455
4628000000.0 0.671264926777132 -0.7539678453303196
4631000000.0 0.6231800093453106 -0.7921563432965322
4634000000.0 0.6404816163182007 -0.7773379248725238
4638000000.0 0.6491534584999141 -0.7811829790995697
4641000000.0 0.6151543196488093 -0.7872803673693688
4644000000.0 0.6155222057362946 -0.8078976098671552
4647000000.0 0.627165321874159 -0.8127846213893853
4650000000.0 0.581955211065279 -0.8244103539602778
4653000000.0 0.6086223380673235 -0.820293678590017
4656000000.0 0.5696176074337317 -0.8360614728820268
4659000000.0 0.5676584826451905 -0.8375760193671707
4662000000.0 0.5586205765393898 -0.8282438977844448
4666000000.0 0.5446653302344868 -0.8511165860365291
4669000000.0 0.5498088632580815 -0.8323786486657342
4672000000.0 0.5364829539540864 -0.8684070629597495
4675000000.0 0.5248045625872797 -0.8471330748753493
4678000000.0 0.5361521179149761 -0.8295331876386189
4681000000.0 0.4978010494104305 -0.9007799550968858
4684000000.0 0.5066308575436171 -0.8764529208769577
4688000000.0 0.5077988911240223 -0.8877967006475854
4691000000.0 0.521292753424512 -0.9006836232980373
4694000000.0 0.504197760196185 -0.869179291600995
4697000000.0 0.4665741356338134 -0.8789266529704389
4700000000.0 0.4925242208492211 -0.8950576064231406
4703000000.0 0.4851882492309692 -0.8436530558419726
4706000000.0 0.4490049430996453 -0.9283100646994374
4709000000.0 0.45293426357851374 -0.8948448143433615
4712000000.0 0.47395576125320915 -0.9125405380451589
4716000000.0 0.4382827436864918 -0.907266334296984
4719000000.0 0.43538600075979383 -0.9126582363902032
4722000000.0 0.44137897190447195 -0.9153864973584631
4725000000.0 0.4382994777349136 -0.9296087185401393
4728000000.0 0.3915772899017729 -0.9395316507087128
4731000000.0 0.41566823698749766 -0.9522016442841972
4734000000.0 0.3956679233247284 -0.9228795570334611
4738000000.0 0.4147650854937531 -0.9836684299480069
4741000000.0 0.37420918834832 -0.9862101980815948
4744000000.0 0.3748400562608189 -0.9345139132733175
4747000000.0 0.3887995842898838 -0.9216390058688729
4750000000.0 0.3496112084795553 -0.988450837319593
4753000000.0 0.3435700467450695 -0.9516315231977415
4756000000.0 0.3406294243973781 -0.980102084368417
4759000000.0 0.32250030913204575 -0.9700509648899167
4762000000.0 0.3146743978070649 -0.9738098834098858
4766000000.0 0.29548811276450815 -0.9730125152473732
4769000000.0 0.30000395744304326 -0.9716723305859977
4772000000.0 0.3065995127317306 -0.9952303093553935
4775000000.0 0.287755538868316 -1.0391605216212842
4778000000.0 0.2863493412478337 -0.9871426330732879
4781000000.0 0.31138202921511526 -0.9721831893419706
4784000000.0 0.2835912607822405 -0.9817137846369931
4788000000.0 0.2619602061282329 -1.0295103094149274
4791000000.0 0.20398714252087313 -0.9634174515054305
4794000000.0 0.27220176249160644 -1.026008653141234
4797000000.0 0.1984334022154411 -0.961762347154249
4800000000.0 0.19090233835043066 -0.9824683015175297
4803000000.0 0.16798545204358584 -0.9843803288678785
4806000000.0 0.2123849460201628 -1.0159768603029233
4809000000.0 0.1561560347791502 -1.0126612582174979
4812000000.0 0.1403144601006773 -0.9959639428673923
4816000000.0 0.19055793256976497 -0.9687192141951275
4819000000.0 0.18390652658730794 -1.0342148310028536
4822000000.0 0.19121388595322247 -1.0415765755439033
4825000000.0 0.19247056292692116 -1.0127447927984143
4828000000.0 0.1518359863700563 -1.0019924825798046
4831000000.0 0.0855957772168382 -1.0491865081891258
4834000000.0 0.1488694079857836 -1.0258867491084633
4838000000.0 0.10200269161202792 -1.0575338613392558
4841000000.0 0.09608987878246233 -1.0008392696740946
4844000000.0 0.13424958584436825 -1.025346817901218
4847000000.0 0.10746706597836914 -0.9979523611798558
4850000000.0 0.07549209729780153 -1.0348994337084585
4853000000.0 0.0779025193024492 -1.0084799470491692
4856000000.0 0.07452465197492106 -1.0136093766983105
4859000000.0 0.07301248278765048 -1.068813098392536
4862000000.0 0.07135073552986361 -1.0176930385940381
4866000000.0 0.02582738547710192 -1.057879968715631
4869000000.0 0.010559870919457169 -1.0310527362612352
4872000000.0 -0.010339069078688983 -1.0730598414299264
4875000000.0 0.06273769742178256 -1.0867451280521878
4878000000.0 0.00841940280391696 -1.0383373910482498
4881000000.0 -0.043554524073120215 -1.100228516582199
4884000000.0 0.027089492881051922 -1.0355385905603687
4888000000.0 0.011281294805288538 -1.0480752872479953
4891000000.0 -0.017087249584429948 -1.0547062726019074
4894000000.0 -0.0709713072819092 -1.0234197155797544
4897000000.0 -0.009798130024771087 -1.0214815139677427
4900000000.0 -0.045611922751050055 -1.0466566605369676
4903000000.0 -0.030726554435590712 -1.0470485534423648
4906000000.0 -0.08995466607484726 -1.0783578246949477
4909000000.0 -0.08442779506579126 -1.0021074018535643
4912000000.0 -0.07436241900399265 -1.0527245529289437
4916000000.0 -0.08202723680795804 -1.0418673687167008
4919000000.0 -0.07064816991343505 -1.0603562242147908
4922000000.0 -0.08298714585073672 -1.0318827618046953
4925000000.0 -0.17864438966410504 -1.0278586834677719
4928000000.0 -0.09651386564695509 -1.0633719311272465
4931000000.0 -0.08124551573627926 -1.055045486913523
4934000000.0 -0.1219921181428754 -0.9962845463383933
4938000000.0 -0.18474843620205245 -1.0034869736167102
4941000000.0 -0.1536256702254873 -1.0197305299645625
4944000000.0 -0.133185043728528 -0.9588172308643534
4947000000.0 -0.17685377294742397 -0.9641309054523909
4950000000.0 -0.18914780904698608 -1.001724508016707
4953000000.0 -0.25281288904382293 -1.0646111662903883
4956000000.0 -0.22077596746726774 -1.009863620695851
4959000000.0 -0.22108127338073832 -0.9755901738885964
4962000000.0 -0.2541551305675903 -1.0450957440502848
4966000000.0 -0.19245667179162324 -1.04201377648305
4969000000.0 -0.25424349671771035 -1.0453200268399134
4972000000.0 -0.2557555959882163 -1.0059811167705153
4975000000.0 -0.2177079682141089 -0.9562802352844315
4978000000.0 -0.25489013085240314 -0.974162556142871
4981000000.0 -0.31038860805656576 -1.0282521349043119
4984000000.0 -0.27761309897167796 -0.9879297526020375
4988000000.0 -0.3027061135507361 -0.9862801229805568
4991000000.0 -0.25382049346856467 -1.0376904742107402
4994000000.0 -0.27774423276465576 -0.998945965531348
4997000000.0 -0.3330467717571152 -0.9702496911620583
5000000000.0 -0.2873656877058348 -1.0188760029167065
5003000000.0 -0.32480163762876907 -1.0313020832496465
5006000000.0 -0.39309714884495195 -0.9986108810104044
5009000000.0 -0.33596791559748085 -1.0158735546181854
5012000000.0 -0.3368615241816299 -0.9610747810187339
5016000000.0 -0.35038523662610505 -1.0230740187812717
5019000000.0 -0.3614816118442301 -0.9285374436838226
5022000000.0 -0.38680349343629505 -0.9652136366576536
5025000000.0 -0.42120904221623984 -0.9956012074635894
5028000000.0 -0.41142058715025953 -0.9632138623442081
5031000000.0 -0.37976228929153233 -0.950176551625414
5034000000.0 -0.4540171394909549 -0.9649621495515204
5038000000.0 -0.3965029729612234 -0.9087115544319426
5041000000.0 -0.3746781459200532 -1.0182065241455813
5044000000.0 -0.4076796777762798 -0.9154134387470602
5047000000.0 -0.44137023610989806 -0.980547568479175
5050000000.0 -0.36107198898857973 -0.9350710794285599
5053000000.0 -0.4719128859930788 -1.0087723154491262
5056000000.0 -0.4424949173390853 -0.9893412057722877
5059000000.0 -0.43453811450747987 -0.9720119333506364
5062000000.0 -0.49316207124135547 -0.9190262125290181
5066000000.0 -0.4234756352856983 -0.939585322487414
5069000000.0 -0.5215864261258794 -0.9239391143356902
5072000000.0 -0.44539794504617625 -0.9045474146192769
5075000000.0 -0.5034356585582663 -0.9109672536220146
5078000000.0 -0.5405688776053752 -0.9064745745471696
5081000000.0 -0.5164483294102692 -0.9033755438324421
5084000000.0 -0.5027235498308726 -0.9383892986589246
5088000000.0 -0.5145576272254241 -0.9194180780955767
5091000000.0 -0.5527283315939981 -0.890059366711974
5094000000.0 -0.5833514001587825 -0.8649834157394488
5097000000.0 -0.5300007401336704 -0.9220249647282486
5100000000.0 -0.536725255479217 -0.873611010658737
5103000000.0 -0.5667001409006472 -0.86474093691528
5106000000.0 -0.5617292207332514 -0.9617772744764281
5109000000.0 -0.5489584620633084 -0.9219306561763296
5112000000.0 -0.561567638636601 -0.8864356539390073
5116000000.0 -0.5529738789094134 -0.8099930388739052
5119000000.0 -0.648674801513318 -0.8605652262395922
5122000000.0 -0.6241406244674877 -0.8581726549088515
5125000000.0 -0.5739785397254503 -0.8645116480850996
5128000000.0 -0.6896688857444706 -0.8353192981611808
5131000000.0 -0.6278238234753005 -0.8260274398694909
5134000000.0 -0.5990635711651496 -0.7983905582089308
5138000000.0 -0.621407328124455 -0.8258486742825649
5141000000.0 -0.5938946525946576 -0.8821372902238993
5144000000.0 -0.6093366655042479 -0.8575721451863457
5147000000.0 -0.6510666749510303 -0.7994036072567311
5150000000.0 -0.6736190762143764 -0.8433661748368304
5153000000.0 -0.6530908175002619 -0.7811635907913277
5156000000.0 -0.6653821299048238 -0.8196597532052966
5159000000.0 -0.6332984248916728 -0.8295490725010539
5162000000.0 -0.7068047124794894 -0.7610827573282618
5166000000.0 -0.7012662876660201 -0.7950645874843293
5169000000.0 -0.6955962978540775 -0.7633113313801847
5172000000.0 -0.6863873464737424 -0.7938016605327525
5175000000.0 -0.7262161644490558 -0.8312142911322357
5178000000.0 -0.7231256782642761 -0.7317825280907752
5181000000.0 -0.7158590204780471 -0.797807072083664
5184000000.0 -0.7358141732908751 -0.7188769767290024
5188000000.0 -0.7286011549440751 -0.7545440323710737
