! Created with skrf 1.8.0 (http://scikit-rf.org).
# Hz S RI R 50.0 
!freq ReS11 ImS11
4000000000.0 0.6659501404329324 0.794626900323431
4003000000.0 0.7593898630461826 0.831324337866097
4006000000.0 0.7236952416825021 0.7577352765503383
4009000000.0 0.7224667204559603 0.8166420166072368
4012000000.0 0.6757099484747499 0.8319140760652266
4016000000.0 0.7483170764342717 0.781715971379906
4019000000.0 0.7092624730406036 0.7307951994199724
4022000000.0 0.6847207078083729 0.7996595097165794
4025000000.0 0.8043586290771406 0.7025236668539083
4028000000.0 0.7884100895960355 0.704061136280459
4031000000.0 0.7128123502012828 0.7041897946108554
4034000000.0 0.7402743520318414 0.7058364182323602
4038000000.0 0.8015496951921477 0.7021535284169241
4041000000.0 0.7830288002515459 0.7197240826490975
4044000000.0 0.8222892831267393 0.7410017741348608
4047000000.0 0.7891451909414195 0.7385883985436116
4050000000.0 0.8099031662545673 0.6651418601562366
4053000000.0 0.8138140064265483 0.5987966168907699
4056000000.0 0.7869784135281664 0.6847149891039477
4059000000.0 0.7553338504035433 0.671570894683658
4062000000.0 0.8310768546639605 0.6372003549696696
4066000000.0 0.760475152460335 0.5775204495071935
4069000000.0 0.8620059201502104 0.6176407711579212
4072000000.0 0.8613679957255895 0.6620999659816769
4075000000.0 0.8452886504522943 0.6544748395855742
4078000000.0 0.8370432083224298 0.6357239086001089
4081000000.0 0.8435258481895159 0.6736978058212775
4084000000.0 0.8611837496075503 0.5882344838083844
4088000000.0 0.8264513759479727 0.6474095634082188
4091000000.0 0.8557987756662396 0.5962806266676037
4094000000.0 0.8365499172032592 0.6031795616815985
4097000000.0 0.9071132115148987 0.5941245461150795
4100000000.0 0.8877418439882024 0.5785162626660985
4103000000.0 0.8645321329202371 0.5945679975532583
4106000000.0 0.9323825743874059 0.5451138628033443
4109000000.0 0.899141824416203 0.5139514129108442
4112000000.0 0.838720834573466 0.5417217828021357
4116000000.0 0.9211815964508349 0.5427245494194938
4119000000.0 0.9003511333313449 0.5180612282483488
4122000000.0 0.9009032348199021 0.5139217125716498
4125000000.0 0.9450316978835708 0.4840181859034644
4128000000.0 0.8818059007685364 0.48410702822948115
4131000000.0 0.9443587074165123 0.4911977517479519
4134000000.0 0.9267034330059184 0.5030826206641563
4138000000.0 0.8698922302785668 0.4277078157511332
4141000000.0 0.8873239006618664 0.46321655067191514
4144000000.0 0.9330500986565086 0.4859818061408388
4147000000.0 0.9042585239680493 0.4537271691250519
4150000000.0 0.9643796817201509 0.4456283312342097
4153000000.0 0.9498127676790664 0.44785545920305847
4156000000.0 0.9910682490058575 0.469013219952352
4159000000.0 0.9260668505149163 0.4522172942280152
4162000000.0 0.9361835822694082 0.41608440722546636
4166000000.0 0.9626764481730392 0.42322563795347856
4169000000.0 0.9560312818845877 0.3628544487644235
4172000000.0 0.9273332961437774 0.4169270327095342
4175000000.0 0.9492909247618116 0.4019567245731415
4178000000.0 0.9912499526075597 0.3877131297480555
4181000000.0 0.9706444917578079 0.3481051070099881
4184000000.0 0.9480144816242823 0.3530575313831909
4188000000.0 0.9847193469456872 0.35798772224083786
4191000000.0 0.9842933402180207 0.36106950507976726
4194000000.0 0.9355551594414352 0.33125367054848553
4197000000.0 0.9869633430758383 0.35900316500586954
4200000000.0 0.988510476602461 0.3336255960333505
4203000000.0 0.9829657147053513 0.32880920093236254
4206000000.0 1.0070313473136991 0.31279956579898055
4209000000.0 0.9592912214973435 0.28178031708312185
4212000000.0 0.9918749138224421 0.2647922058209401
4216000000.0 0.9877423529331905 0.29924975019868344
4219000000.0 1.0149140605287936 0.28070809564785837
4222000000.0 0.9888586321283583 0.2491248258906653
4225000000.0 0.9888791943437674 0.25145435387019177
4228000000.0 0.9959349825026929 0.24634922638447396
4231000000.0 0.9968741301678684 0.21463978273946066
4234000000.0 1.0022454276420651 0.22752798140971325
4238000000.0 1.0123891252658548 0.20152465656447446
4241000000.0 0.999275644493139 0.19136283597763032
4244000000.0 0.9877477891466809 0.19086519643449212
4247000000.0 1.005578442116012 0.19612358253492407
4250000000.0 1.0024824515500217 0.17718996094215023
4253000000.0 0.9938090161932549 0.1649722157635921
4256000000.0 1.0404242635797036 0.16205291133544375
4259000000.0 0.9871752941916045 0.13564167347342132
4262000000.0 1.0099939146545986 0.141354643258872
4266000000.0 1.036899168581013 0.11291080098091621
4269000000.0 0.9954313894478073 0.14092436415683987
4272000000.0 1.026276857146653 0.14011484538071914
4275000000.0 1.016224879107072 0.1362067009865474
4278000000.0 1.0233420028873643 0.11282881823185556
4281000000.0 1.021035548692121 0.10617624820807055
4284000000.0 1.028162056655459 0.052375966470874474
4288000000.0 1.0034270568089345 0.10052353042295276
4291000000.0 1.010677450020326 0.06740202240508546
4294000000.0 1.0157871201344297 0.05137587723147648
4297000000.0 1.028145908579108 0.06662598175936564
4300000000.0 1.013717568836853 0.04900358126435534
4303000000.0 1.0030911227424473 0.01807165831254791
4306000000.0 1.0151297189201913 0.038559701249437
4309000000.0 1.0016619322699734 0.01729772194515361
4312000000.0 1.049786466307286 0.036077797486962215
4316000000.0 1.0588786787367555 0.010601387859221573
4319000000.0 1.0016457722279 -0.00030355110515506434
4322000000.0 0.9876391122546114 -0.06191235924113921
4325000000.0 1.0326938717342573 -0.02763913264812952
4328000000.0 1.0058016087973172 -0.014555217838130824
4331000000.0 1.0130138136530817 -0.09223789544529953
4334000000.0 1.030523588665563 -0.05833404310618366
4338000000.0 1.005569072645209 -0.05324359523666426
4341000000.0 1.0402948742477796 -0.033188986818332725
4344000000.0 1.020688229525543 -0.07465301181589715
4347000000.0 1.0322746367276858 -0.11113899579308614
4350000000.0 0.9751513684085699 -0.10367290621213238
4353000000.0 1.0028004009076779 -0.094026179111837
4356000000.0 1.0065074770353242 -0.11942816313550766
4359000000.0 0.9718744506315106 -0.13728931698161834
4362000000.0 1.0202798921153087 -0.19946381117411016
4366000000.0 1.0238625123051057 -0.16651553330774138
4369000000.0 0.9702839064278049 -0.16851127244701902
4372000000.0 0.9869473538071676 -0.2043002539349522
4375000000.0 0.9883443552977655 -0.15704853230413415
4378000000.0 0.9760314343035812 -0.18849549004944852
4381000000.0 0.9856282397566436 -0.15453731074339652
4384000000.0 1.0631416632382371 -0.214746171796579
4388000000.0 0.9808917908903423 -0.1952151520128147
4391000000.0 0.9917362607257623 -0.20607612886819884
4394000000.0 0.9655768454666974 -0.23359365966470624
4397000000.0 0.9783244665065687 -0.24446268742984956
4400000000.0 1.0179225842816275 -0.25892904330042116
4403000000.0 0.988283009900634 -0.24408758511254663
4406000000.0 0.9845837148345506 -0.26209447147603
4409000000.0 1.0075539724257014 -0.28520883220077764
4412000000.0 0.9492730514009321 -0.3250137047053318
4416000000.0 0.9551126386309305 -0.29777102181246407
4419000000.0 0.9591178098295933 -0.31526461368176256
4422000000.0 0.9474310054878652 -0.28584536329946253
4425000000.0 0.9885414301334813 -0.29910102377110587
4428000000.0 0.9584593379296303 -0.3257102769855075
4431000000.0 0.9788428234601916 -0.3156556358458934
4434000000.0 0.9499700968487212 -0.33983267380025095
4438000000.0 0.9734026428755933 -0.34146475926775177
4441000000.0 0.9632914278668958 -0.36982626836464466
4444000000.0 0.9193607832974728 -0.3525807186728572
4447000000.0 0.9339653596245976 -0.39246648099687576
4450000000.0 0.9297980746316884 -0.36882417486530117
4453000000.0 0.957902028477726 -0.39740683250810505
4456000000.0 0.9084135478827944 -0.3877199346160798
4459000000.0 0.8970774921347893 -0.40948918057779926
4462000000.0 0.9703812199701787 -0.43458549971662563
4466000000.0 0.9530426912389107 -0.4597372004406346
4469000000.0 0.9265888550011164 -0.4138683260035113
4472000000.0 0.9265422641031853 -0.4847493311443809
4475000000.0 0.8963118735662042 -0.4399166926947199
4478000000.0 0.9427217851581738 -0.4791156951422041
4481000000.0 0.8614481485740217 -0.4620631045543659
4484000000.0 0.8696493313771134 -0.5139122526731068
4488000000.0 0.8674676285956666 -0.4977558724745749
4491000000.0 0.8759067580577193 -0.49605856274943855
4494000000.0 0.8749982843296277 -0.4918184932174304
4497000000.0 0.8684029776353097 -0.4805927611132775
4500000000.0 0.879697270162646 -0.5102323524414131
4503000000.0 0.8823467602657258 -0.5169088167936478
4506000000.0 0.8673318488650046 -0.5556400338243882
4509000000.0 0.8458067461321477 -0.5237790915469877
4512000000.0 0.8448008990532063 -0.5392258173805311
4516000000.0 0.8829129110284246 -0.5535438372091228
4519000000.0 0.8196047795359231 -0.5438995876736401
4522000000.0 0.8363049886446232 -0.5723131498652355
4525000000.0 0.8593054522172734 -0.5443295594273009
4528000000.0 0.8368462632822999 -0.6098466382152633
4531000000.0 0.8358638496405709 -0.5848769603506606
4534000000.0 0.8118751050069014 -0.5917586426596625
4538000000.0 0.8046913984174613 -0.5974201773109162
4541000000.0 0.7941097910784075 -0.6384285478293703
4544000000.0 0.7932960237984297 -0.616307208691889
4547000000.0 0.7881262624200078 -0.6170185037234162
4550000000.0 0.777623612492532 -0.6546270032080724
4553000000.0 0.772294879201578 -0.6397774667175473
4556000000.0 0.7691073526454002 -0.6561891110097734
4559000000.0 0.768738529911258 -0.6752782767592589
4562000000.0 0.7746405678277097 -0.6660724156740158
4566000000.0 0.7783142807249279 -0.6834383008657738
4569000000.0 0.7335969245315642 -0.6724920825553138
4572000000.0 0.7499518871248865 -0.6907878644489032
4575000000.0 0.7421284373513457 -0.7079025326207137
4578000000.0 0.7566213503642627 -0.7144771107296283
4581000000.0 0.7240155529784152 -0.718959344068141
4584000000.0 0.7306073745447892 -0.7070888164485514
4588000000.0 0.7411318890520066 -0.7247453755914937
4591000000.0 0.7152504783259056 -0.7296235685815426
4594000000.0 0.6860954847372217 -0.7486228713107966
4597000000.0 0.7069613164883262 -0.7532550561948358
4600000000.0 0.6721430209249311 -0.7629898826182289
4603000000.0 0.6820132717851894 -0.7637970181997463
4606000000.0 0.68147769004881 -0.764769850607838
4609000000.0 0.6747569119585459 -0.7573695730602935
4612000000.0 0.6620479056563618 -0.7753546143898539
4616000000.0 0.6380186290426944 -0.7582986217938612
4619000000.0 0.6545129122525815 -0.7819368522759959
4622000000.0 0.6455890497103556 -0.801936105228269
4625000000.0 0.607921148708388 -0.7921162407530233
4628000000.0 0.6479451608167349 -0.7956616540048564
4631000000.0 0.5949339442301114 -0.8154808103219527
4634000000.0 0.6088869273598536 -0.8103934045188856
4638000000.0 0.6103168144776193 -0.8216876973327328
4641000000.0 0.6075957709227682 -0.8298101050056708
4644000000.0 0.5857596345543815 -0.8134372885667196
4647000000.0 0.6050189938771956 -0.8387046366279062
4650000000.0 0.5712979280184552 -0.8481817461413768
4653000000.0 0.5793191913082223 -0.8471867595105649
4656000000.0 0.5804634344606929 -0.8495023190377504
4659000000.0 0.5366060388529588 -0.8502927868203656
4662000000.0 0.5463607332546107 -0.8721132417314583
4666000000.0 0.5492945284114346 -0.8655571687333714
4669000000.0 0.5411793608893566 -0.8499733192376618
4672000000.0 0.49903225675602536 -0.8790708084738141
4675000000.0 0.4928483946736429 -0.9060219875117029
4678000000.0 0.5048209503875984 -0.8773707728756543
4681000000.0 0.5007849899351662 -0.9104951621671482
4684000000.0 0.4836713629924757 -0.9087353923251962
4688000000.0 0.4496122413879689 -0.8806439545056666
4691000000.0 0.4981206964536885 -0.887339406983026
4694000000.0 0.47252096825899514 -0.9123324004677327
4697000000.0 0.4084523650928533 -0.8706349562330264
4700000000.0 0.4540356605300642 -0.892312623934937
4703000000.0 0.47464933257036956 -0.8915146090777655
4706000000.0 0.4054439697251272 -0.9202769648841247
4709000000.0 0.44363109779683485 -0.9153218909874693
4712000000.0 0.4269258004506431 -0.9178738674358411
4716000000.0 0.3941135179457432 -0.9526245293109934
4719000000.0 0.42159190289722187 -0.916465201189457
4722000000.0 0.42518975642175194 -0.9235591716166829
4725000000.0 0.39392600885079454 -0.9360152932968382
4728000000.0 0.3610880288946193 -0.928928383345788
4731000000.0 0.40385700376959094 -0.9606357445288833
4734000000.0 0.38862944918038245 -0.9399878344065131
4738000000.0 0.3869759580245915 -0.9813123916272557
4741000000.0 0.3695394469697158 -1.0390653761273374
4744000000.0 0.32166257051675856 -0.9920205879159513
4747000000.0 0.32563705964973594 -0.9416684257614513
4750000000.0 0.31583475464382776 -0.9724988662573514
4753000000.0 0.3182320081230349 -0.9821536561381775
4756000000.0 0.32050383392983683 -1.0005670203205983
4759000000.0 0.2858531454348777 -0.9825098609488286
4762000000.0 0.26769552485738224 -1.0213088291417662
4766000000.0 0.28111173547493457 -0.9749321926193693
4769000000.0 0.2577954961092233 -1.010481088917038
4772000000.0 0.231720605655546 -1.0055570243325982
4775000000.0 0.23547763789183174 -1.068653358067812
4778000000.0 0.24444181620066144 -0.9930925800619451
4781000000.0 0.2317446942852007 -0.996665805182424
4784000000.0 0.2398417326922956 -0.985657342341569
4788000000.0 0.18949642234717765 -1.0508805275270197
4791000000.0 0.20402388338992736 -0.9988394071327701
4794000000.0 0.2429288115467835 -1.0197297227643907
4797000000.0 0.16576177121904317 -1.0188507721069846
4800000000.0 0.15182458628846768 -1.0140293870108932
4803000000.0 0.13901878053518207 -1.0008045302821638
4806000000.0 0.1656498555315794 -1.0203695048584764
4809000000.0 0.12025817018266044 -1.016991454647588
4812000000.0 0.10589036156387543 -1.0174093659024244
4816000000.0 0.1587381899076063 -1.0155976801164504
4819000000.0 0.1673745812510496 -1.049254200363222
4822000000.0 0.15085032142060556 -1.055230906277978
4825000000.0 0.14374011489556504 -1.0667372401074335
4828000000.0 0.1082757272961592 -1.0079605847569013
4831000000.0 0.049522206012282785 -1.0564651089243728
4834000000.0 0.11027664708883184 -1.0402596697770183
4838000000.0 0.05520864263762856 -1.0762780204594287
4841000000.0 0.06365542598606275 -1.0243000168702148
4844000000.0 0.07763690053959726 -1.0376841034266642
4847000000.0 0.06927610914803428 -1.0026066120149082
4850000000.0 0.022331119044733422 -1.0753471872636948
4853000000.0 0.0544104549968512 -1.0079601464680268
4856000000.0 0.019048998561394317 -1.0290189675199444
4859000000.0 0.014367307259855244 -1.0584547911102358
4862000000.0 0.03528700962534551 -1.0027882164940163
4866000000.0 -0.036109474593595724 -1.0578598633407088
4869000000.0 -0.04556263341093872 -1.0518158699146234
4872000000.0 -0.06142734653806197 -1.057889085325574
4875000000.0 0.003849766721904284 -1.0820923047727657
4878000000.0 -0.044353553780435005 -1.0358478321100848
4881000000.0 -0.07931965744519258 -1.1119722544200397
4884000000.0 -0.0443298593450817 -1.0463707449301323
4888000000.0 -0.023485406782488116 -1.0337234532194146
4891000000.0 -0.029305318193130675 -1.0428813379391908
4894000000.0 -0.07336288289515694 -1.0254211151859014
4897000000.0 -0.06489832390020667 -1.0066711367602252
4900000000.0 -0.07293559723945696 -1.0682782251284069
4903000000.0 -0.10771589848308588 -1.0335280791632595
4906000000.0 -0.13446700360800423 -1.046959222210554
4909000000.0 -0.11512645448427802 -1.0221612626612682
4912000000.0 -0.17831728030185529 -1.0562206991588912
4916000000.0 -0.13652009387217728 -1.0641910714632337
4919000000.0 -0.07105525995505389 -1.0657982176531287
4922000000.0 -0.10554224490536743 -1.0316012783015593
4925000000.0 -0.19958465965205474 -1.003135427903469
4928000000.0 -0.13356928368358045 -1.0224397216334935
4931000000.0 -0.14417744866208515 -1.0398361298685195
4934000000.0 -0.15944488599700368 -0.9580360944341982
4938000000.0 -0.26987518879687117 -1.016983400242649
4941000000.0 -0.18523605812548416 -0.9838899874142324
4944000000.0 -0.16722103759031678 -0.9655011520150869
4947000000.0 -0.2414684620708696 -0.9974003114111526
4950000000.0 -0.24542199872942183 -0.9850837660920355
4953000000.0 -0.31797748633144846 -1.048487422685733
4956000000.0 -0.2566123463081335 -1.0257365689867457
4959000000.0 -0.2921851829999622 -0.9633656495977918
4962000000.0 -0.312474429663921 -0.9981051755286129
4966000000.0 -0.24047823448538658 -1.0530475458452135
4969000000.0 -0.2969511096155764 -1.0478403203700244
4972000000.0 -0.30750750260833526 -1.0213018369227291
4975000000.0 -0.29063676968884844 -0.981901762165967
4978000000.0 -0.33121288761993295 -0.9887634412010242
4981000000.0 -0.3373339661474031 -0.9921450824744281
4984000000.0 -0.3159011585570245 -0.995527441649455
4988000000.0 -0.33228010547666814 -0.9983406969942905
4991000000.0 -0.32946341860692857 -1.0571935208305505
4994000000.0 -0.35608100485112326 -0.9587164566777232
4997000000.0 -0.38461999855697854 -0.9614910155310415
5000000000.0 -0.36067679776948935 -1.0190362697898405
5003000000.0 -0.3647064215595081 -0.9923757480998586
5006000000.0 -0.4280120990875924 -1.0421377023397902
5009000000.0 -0.3583342697245955 -0.9625547728876541
5012000000.0 -0.41147861226702726 -0.9791684306199213
5016000000.0 -0.37936666752562803 -1.0010673044675311
5019000000.0 -0.40721562090061414 -0.9433538772944629
5022000000.0 -0.4292040555562501 -0.9711211385129062
5025000000.0 -0.4549227182815225 -1.0158856189352767
5028000000.0 -0.4620800807261286 -0.957593652625989
5031000000.0 -0.46269346252190113 -0.922111821684721
5034000000.0 -0.4910941386815745 -0.9574178402541111
5038000000.0 -0.4666426347704292 -0.9051367719674512
5041000000.0 -0.44001015020020917 -0.9587713722989978
5044000000.0 -0.46939843095879696 -0.9077629173707636
5047000000.0 -0.4683471052700337 -0.9265290649199082
5050000000.0 -0.41915857815394186 -0.9700326527417387
5053000000.0 -0.5376474497544579 -0.9273682929961535
5056000000.0 -0.5163513416936802 -0.9248117180623656
5059000000.0 -0.43573651903534344 -0.934454904605542
5062000000.0 -0.5806896721296889 -0.9207296322450271
5066000000.0 -0.5059605796913201 -0.916970954865918
5069000000.0 -0.543957693300986 -0.8895704575840345
5072000000.0 -0.5493147264520083 -0.8840342648248529
5075000000.0 -0.5283073403981761 -0.918685142597599
5078000000.0 -0.5981136802139124 -0.8938300847380976
5081000000.0 -0.5604064778880694 -0.8463388362870207
5084000000.0 -0.5812004879679775 -0.8756941684488322
5088000000.0 -0.5635573606482538 -0.8756211558849536
5091000000.0 -0.6338393268105178 -0.8751693114381349
5094000000.0 -0.5825188804717589 -0.8793638244285163
5097000000.0 -0.5319361139111607 -0.8697280130211849
5100000000.0 -0.6175239838581881 -0.8802801802678805
5103000000.0 -0.6368517220540859 -0.8345494410491313
5106000000.0 -0.6394183223811443 -0.8764145355629649
5109000000.0 -0.6147651214817342 -0.8775868937180045
5112000000.0 -0.673379398559728 -0.818156402598198
5116000000.0 -0.6269612651363493 -0.8087891585677633
5119000000.0 -0.6411689353426344 -0.807531241853777
5122000000.0 -0.6366235405106287 -0.8130034333171348
5125000000.0 -0.6320845981188057 -0.8323883133291939
5128000000.0 -0.6683808038653883 -0.7486814280036374
5131000000.0 -0.6530440655150455 -0.8153502657650498
5134000000.0 -0.7080039305898151 -0.7576513702037685
5138000000.0 -0.6844366986867284 -0.8035881759385691
5141000000.0 -0.6764296536247638 -0.8113216557188963
5144000000.0 -0.6633841553123115 -0.8247636477957757
5147000000.0 -0.7580919503777884 -0.7685262971497877
5150000000.0 -0.6909097484847264 -0.8177320420543098
5153000000.0 -0.7281637727306978 -0.7877949641841266
5156000000.0 -0.7284414150919103 -0.7865460039744204
5159000000.0 -0.7375192053073848 -0.7518232843276966
5162000000.0 -0.747883827480378 -0.7541617362529203
5166000000.0 -0.7390866398539332 -0.7560946562319516
5169000000.0 -0.7825814411536185 -0.76535234470692
5172000000.0 -0.7551746283423959 -0.7122390040497241
5175000000.0 -0.7765193884937629 -0.755701822079273
5178000000.0 -0.7648724011545192 -0.6967168100201165
5181000000.0 -0.8030032961336414 -0.7260405758243857
5184000000.0 -0.7548510658332903 -0.6857939308915441
5188000000.0 -0.8179312655718861 -0.6903870990003194
