! Created with skrf 1.8.0 (http://scikit-rf.org).
# Hz S RI R 50.0 
!freq ReS11 ImS11
4000000000.0 0.5772349517881017 0.7742827941339534
4003000000.0 0.6357280745731168 0.8350288165756679
4006000000.0 0.6775971079211285 0.7589505160710683
4009000000.0 0.6416400754635917 0.8113304683960194
4012000000.0 0.6048386481100793 0.8661333723805488
4016000000.0 0.715208840956126 0.7406928337064012
4019000000.0 0.6299142378645235 0.765617251622312
4022000000.0 0.630542070639891 0.8131124746574487
4025000000.0 0.7793176122605873 0.7274121848415881
4028000000.0 0.6822441643898888 0.7872695251513968
4031000000.0 0.6465626572911936 0.7496049644103229
4034000000.0 0.6850781836366124 0.692198883770094
4038000000.0 0.7167102657563624 0.731926966632625
4041000000.0 0.7010402390017821 0.7430845713679325
4044000000.0 0.7250031313297686 0.7511377737258121
4047000000.0 0.7032673715079235 0.7693281488878643
4050000000.0 0.7707666938440642 0.7409317957766146
4053000000.0 0.7603954393109602 0.6968507983988184
4056000000.0 0.7432865808612377 0.6842006078865691
4059000000.0 0.7220421237408168 0.6927493479377145
4062000000.0 0.7684870763027708 0.6519434111479707
4066000000.0 0.6968537159133847 0.6322950660672946
4069000000.0 0.8103936376376453 0.7164882435635946
4072000000.0 0.7302503666332952 0.7002380238724073
4075000000.0 0.7620428510707625 0.752222492933788
4078000000.0 0.8200557390675173 0.6878969028350609
4081000000.0 0.7693627163726804 0.7018456056426609
4084000000.0 0.7914126909535282 0.6286706661320491
4088000000.0 0.7813030930406397 0.7002806879904818
4091000000.0 0.8280645945516163 0.6469740707183176
4094000000.0 0.8189311474492581 0.6600441193750195
4097000000.0 0.794111478105376 0.6576040103568692
4100000000.0 0.7926037225433505 0.6085587339326577
4103000000.0 0.833927345819703 0.6719411533172355
4106000000.0 0.8064555789722461 0.5938108857531288
4109000000.0 0.8406093531021501 0.5646158546435207
4112000000.0 0.83988305928999 0.5707922313185025
4116000000.0 0.811645521302247 0.5919586272893244
4119000000.0 0.8824243005570704 0.5485876819737247
4122000000.0 0.8903141993058982 0.5668972856745548
4125000000.0 0.883251107022842 0.5557576576744947
4128000000.0 0.8556823437329435 0.5610651976463124
4131000000.0 0.8489128676095109 0.5180646939478489
4134000000.0 0.8627699667380384 0.5588859796691732
4138000000.0 0.8782360943307481 0.5366731971088037
4141000000.0 0.8752179959897647 0.5122796496960724
4144000000.0 0.8570869559458923 0.5503045605825241
4147000000.0 0.8991967012650496 0.5087554717341274
4150000000.0 0.899165254971651 0.5317383597336955
4153000000.0 0.8936454071544468 0.516438881258913
4156000000.0 0.9242420052540197 0.521131204097792
4159000000.0 0.8878652742076596 0.47877255061574103
4162000000.0 0.8828969384986518 0.4912235109884453
4166000000.0 0.9440586662298964 0.4461731317193063
4169000000.0 0.9182591362600924 0.4373610790363589
4172000000.0 0.8886450349473938 0.46491853515557974
4175000000.0 0.9239621704778487 0.4345842626296374
4178000000.0 0.9468042311780465 0.45155570469268713
4181000000.0 0.9301734272448963 0.411474050988618
4184000000.0 0.9535728283557784 0.4061396764594198
4188000000.0 0.947891557708721 0.3968553525374182
4191000000.0 0.9148557314707005 0.4430502155644446
4194000000.0 0.9196731825732195 0.3879849880905606
4197000000.0 0.9700388075367856 0.38902217160240077
4200000000.0 0.9313322655764142 0.37827189491103985
4203000000.0 0.9243749013738666 0.39378124718696705
4206000000.0 0.96501917808649 0.35095855152891947
4209000000.0 0.9357071631999098 0.37602544758319206
4212000000.0 0.9755174688393782 0.33054743202277104
4216000000.0 0.9538827757858629 0.3487506118295563
4219000000.0 0.9852506454789699 0.34660811821496607
4222000000.0 0.9538591486588399 0.32226167242325915
4225000000.0 0.9399562577320613 0.30970008383294256
4228000000.0 0.9770515426486643 0.3155418114046733
4231000000.0 0.9723055988757305 0.30148993614802694
4234000000.0 0.9843945886005262 0.2849168554308307
4238000000.0 0.991493249461279 0.26500545409484966
4241000000.0 0.9789409078170066 0.25969832713784546
4244000000.0 0.9816408195292426 0.2846451627089101
4247000000.0 0.9738797083162049 0.27724026295690857
4250000000.0 0.9649847012349606 0.24342177887805588
4253000000.0 0.9677890036509484 0.2407150380984045
4256000000.0 0.997185674236033 0.23933757867700034
4259000000.0 0.9472377397330963 0.20426354299444135
4262000000.0 0.98414222352688 0.2060891833990495
4266000000.0 0.9907805009729126 0.20088054385288068
4269000000.0 0.9913753746209761 0.22675238006696033
4272000000.0 0.9977433252424989 0.1996031079716153
4275000000.0 0.9930140285180009 0.18702978852667596
4278000000.0 1.0226937790792996 0.2032634294572362
4281000000.0 1.0007062968707747 0.18601557324350687
4284000000.0 1.0079740338879435 0.1418177266942589
4288000000.0 0.9916573615461532 0.18696692481817426
4291000000.0 0.9710227632781736 0.1406862881267737
4294000000.0 0.9922675842956925 0.12948234620087096
4297000000.0 0.99285496533765 0.14971658740603178
4300000000.0 1.0062908330003 0.11512295686346902
4303000000.0 0.9812168770742811 0.10809021394877964
4306000000.0 1.0144770044984979 0.1576275215244641
4309000000.0 0.9854607384419375 0.1048465393083194
4312000000.0 1.0280918572141517 0.11257699286649384
4316000000.0 1.0189866644329135 0.06897324386437927
4319000000.0 0.9868553698616612 0.08811318847238543
4322000000.0 1.0154749721710168 0.033285602836909914
4325000000.0 1.0156513294754212 0.0706201125790595
4328000000.0 0.99432780384018 0.03375184900981702
4331000000.0 1.0295061785981938 0.013605024321829223
4334000000.0 0.9945246980250911 0.02418497754020299
4338000000.0 1.0371323953696097 0.027578233608059763
4341000000.0 1.017730194898972 0.04405995295584514
4344000000.0 1.0291088524135255 0.01948401715103129
4347000000.0 1.0233033608835382 -0.029662609429387227
4350000000.0 0.9621094940004933 -0.03756668803352457
4353000000.0 0.9813243181457554 -0.014470900624764027
4356000000.0 0.9897914010131199 -0.050460944811177216
4359000000.0 0.959808919202412 -0.04991284478233471
4362000000.0 1.0339143089943397 -0.10445078272768009
4366000000.0 1.0264101602275506 -0.07342220348595822
4369000000.0 0.9686793031576576 -0.07354335690799248
4372000000.0 1.0098776738136732 -0.1378748581433683
4375000000.0 0.9993464473392888 -0.0810685144098887
4378000000.0 0.9871566637811279 -0.07463558220545552
4381000000.0 0.9897151173863772 -0.09399746628323265
4384000000.0 1.0678967703311208 -0.1271818945256638
4388000000.0 0.9951763865839769 -0.11156420750530106
4391000000.0 1.0002821485087205 -0.13338305829940716
4394000000.0 0.9692132379290688 -0.1292033584582033
4397000000.0 0.9891643366894569 -0.15247461109834873
4400000000.0 1.025382916263625 -0.14638215597210782
4403000000.0 1.008928403241141 -0.15132187123640622
4406000000.0 0.9951654896662547 -0.19123760161003955
4409000000.0 1.0105707415187564 -0.186443272120682
4412000000.0 0.9716238808816096 -0.2508425846940841
4416000000.0 0.9687341010854884 -0.21038124343787687
4419000000.0 0.9748082665517889 -0.21701675987498942
4422000000.0 0.9687576183067552 -0.20525459214919647
4425000000.0 1.0016154424470431 -0.2141538315751835
4428000000.0 0.9765980181716138 -0.23756889186258967
4431000000.0 1.0037598354352384 -0.23957679813854804
4434000000.0 0.9666245235792225 -0.25419142685238666
4438000000.0 1.0072795587310888 -0.271613463845667
4441000000.0 0.9931147456625338 -0.2658869318517
4444000000.0 0.9603595331237691 -0.26700916872520264
4447000000.0 0.9646991163447288 -0.28839103643023595
4450000000.0 0.9625652782966488 -0.2712735933812851
4453000000.0 0.9908005909424589 -0.3150080601036062
4456000000.0 0.9197037014711248 -0.30619962705528875
4459000000.0 0.9127326354369563 -0.3187831299413167
4462000000.0 1.0037172661374216 -0.34946589066646244
4466000000.0 0.987081908848427 -0.35688841274912403
4469000000.0 0.9728676711499158 -0.3414743044179388
4472000000.0 0.9608192857281191 -0.3727460807635936
4475000000.0 0.9279368358389142 -0.331957108186564
4478000000.0 0.9777662918883997 -0.38619720218311493
4481000000.0 0.9025001347922478 -0.3826416345635339
4484000000.0 0.9048897878307907 -0.4155575963060353
4488000000.0 0.9100956838607376 -0.4096960253569586
4491000000.0 0.9185554206009949 -0.42094507358260413
4494000000.0 0.9219488053572612 -0.3955824350125923
4497000000.0 0.9126660137672475 -0.3987787198823528
4500000000.0 0.9243177961208988 -0.44377514816979313
4503000000.0 0.9393599500094647 -0.4231565359561872
4506000000.0 0.8774698924248152 -0.447504120837915
4509000000.0 0.892903456621299 -0.4389264776669932
4512000000.0 0.8752713891909956 -0.4494827313763671
4516000000.0 0.9213071278754914 -0.45588035577685293
4519000000.0 0.8770472510208187 -0.47607811405507433
4522000000.0 0.8785519130787716 -0.4813835078900163
4525000000.0 0.9202917730287488 -0.46414608001896845
4528000000.0 0.8978702986066933 -0.49976523092133085
4531000000.0 0.8794651121184772 -0.47897403989811826
4534000000.0 0.851681613873794 -0.4912384147830845
4538000000.0 0.859017370538067 -0.5251705411844516
4541000000.0 0.8176516018430213 -0.5612674845715149
4544000000.0 0.8407458033010125 -0.5097423376984799
4547000000.0 0.8403772001298608 -0.513024035337956
4550000000.0 0.8359324692707026 -0.5599075903898244
4553000000.0 0.8491678295560774 -0.5655092373965198
4556000000.0 0.8036775148199773 -0.5644529557109782
4559000000.0 0.8190666183099239 -0.5811499920106713
4562000000.0 0.8262169233048349 -0.5966400522084305
4566000000.0 0.8191233008093546 -0.5972278191089386
4569000000.0 0.8063055365369959 -0.5804460802253357
4572000000.0 0.796384693979873 -0.592813512445595
4575000000.0 0.8092772972358504 -0.6260347602140194
4578000000.0 0.8440842153520844 -0.6181544584608901
4581000000.0 0.7837605333245741 -0.642683769938526
4584000000.0 0.7736671928869704 -0.6125574034991584
4588000000.0 0.7935149514921748 -0.6457790338246683
4591000000.0 0.7965975574853548 -0.6282408444761379
4594000000.0 0.762630085970549 -0.6630796998006799
4597000000.0 0.7619409631527794 -0.6548541176512339
4600000000.0 0.7230761528741965 -0.6665037450467952
4603000000.0 0.7589667430184731 -0.6780991186702692
4606000000.0 0.748099570470112 -0.6696359071526544
4609000000.0 0.7368109643220808 -0.6705070844249631
4612000000.0 0.7420812367763516 -0.7031634669221759
4616000000.0 0.7155127115720343 -0.6839672874857304
4619000000.0 0.7332565012005663 -0.7028882898041413
4622000000.0 0.7317478632871849 -0.7137634630048308
4625000000.0 0.6709795411739737 -0.7134991142220207
4628000000.0 0.7240695886790287 -0.7085721051573063
4631000000.0 0.6769260927572573 -0.7263419942870966
4634000000.0 0.6873015100575365 -0.7400555198107902
4638000000.0 0.6861887262142926 -0.7512979564144474
4641000000.0 0.6750134202696816 -0.7399731417161531
4644000000.0 0.6763607285471672 -0.7467129624650665
4647000000.0 0.6772783606720763 -0.7478702263672995
4650000000.0 0.6566158629436011 -0.7736092403610099
4653000000.0 0.6639545116754554 -0.7695123449409634
4656000000.0 0.6192482104229491 -0.7926135574836717
4659000000.0 0.643310697384762 -0.7957704132191818
4662000000.0 0.6319503992733785 -0.8061063571379105
4666000000.0 0.6147964677243766 -0.7847344921501123
4669000000.0 0.6191377731832313 -0.7704146547323183
4672000000.0 0.5954472111874477 -0.8243366802804523
4675000000.0 0.5865962109910439 -0.845807585108508
4678000000.0 0.574772089581739 -0.8088021520071667
4681000000.0 0.5751678599674093 -0.8377626217582532
4684000000.0 0.5480441745537965 -0.8424835435888195
4688000000.0 0.5361579161573351 -0.8302956088857639
4691000000.0 0.5901249508895373 -0.8088359553186582
4694000000.0 0.5569355529898005 -0.8172543336992779
4697000000.0 0.5206531700610906 -0.8163076690854576
4700000000.0 0.5505298792553074 -0.8475500123754052
4703000000.0 0.5378918097648101 -0.8178312497736824
4706000000.0 0.5086393183672252 -0.8696806494405682
4709000000.0 0.5088448231868549 -0.8752874016498562
4712000000.0 0.5097962035320678 -0.879194463027059
4716000000.0 0.505802340411736 -0.8757684046174719
4719000000.0 0.5180888382325536 -0.8698792471458503
4722000000.0 0.5102657902551162 -0.8593277899593326
4725000000.0 0.4679440135564903 -0.8797268441778391
4728000000.0 0.4760701494038062 -0.8938350437464935
4731000000.0 0.48566549429151884 -0.9414353322607032
4734000000.0 0.5095248608343943 -0.8609208846428342
4738000000.0 0.4878851440982377 -0.9048244287056162
4741000000.0 0.45119492471104694 -0.9314939978137555
4744000000.0 0.4215127587738595 -0.9139016812241685
4747000000.0 0.45406818228454104 -0.8865497545582386
4750000000.0 0.4192386574703189 -0.935882280628348
4753000000.0 0.4301087840734541 -0.9289988825885004
4756000000.0 0.41679523129064344 -0.9098821165717417
4759000000.0 0.43296287786078413 -0.9221838395312298
4762000000.0 0.3758272080708076 -0.9521360568020895
4766000000.0 0.37170196501481817 -0.9208260602867558
4769000000.0 0.36288383297477633 -0.9707778720450949
4772000000.0 0.3635297293512763 -0.9484898238989269
4775000000.0 0.36720982945080216 -0.9720621690256797
4778000000.0 0.3702274267546519 -0.952928146066858
4781000000.0 0.3796684864965051 -0.930330653757983
4784000000.0 0.3433974892023812 -0.9441692833510676
4788000000.0 0.31427668766769423 -0.9706314828281479
4791000000.0 0.33563756609285006 -0.9627231772624706
4794000000.0 0.34341954470091945 -0.9877521511847747
4797000000.0 0.28240439629395936 -0.9663757256359075
4800000000.0 0.29272831814857103 -0.9521664742340092
4803000000.0 0.24841174451269574 -0.9822372832919919
4806000000.0 0.2813348831056317 -0.9956214011603151
4809000000.0 0.2229429481969121 -0.9972909075796607
4812000000.0 0.23467360939752124 -0.9816090074469126
4816000000.0 0.2670760133925615 -0.9573435214102382
4819000000.0 0.27030129972957284 -1.0236801636660544
4822000000.0 0.2772720226135525 -1.0125091163595623
4825000000.0 0.2731932122496797 -0.9966815094633752
4828000000.0 0.22179246128860058 -0.9790763937089134
4831000000.0 0.17433866457878736 -1.0152886280822953
4834000000.0 0.21506984719454325 -0.9927785131652884
4838000000.0 0.1803100007422405 -1.0202272424481145
4841000000.0 0.17285809735594332 -1.002569425144166
4844000000.0 0.21147241688004118 -1.0206709448545759
4847000000.0 0.1938936520322765 -0.9699153888316474
4850000000.0 0.15302306859925502 -1.0210365878879657
4853000000.0 0.17221343972726716 -0.9954685800345491
4856000000.0 0.13591165799259786 -1.002781266246609
4859000000.0 0.13892631384586057 -1.065514084547572
4862000000.0 0.16022229387079467 -0.9939740440999513
4866000000.0 0.117355192384345 -1.0304283055077903
4869000000.0 0.10345529438446131 -1.0189144813396427
4872000000.0 0.08603278739460353 -1.0453305482216866
4875000000.0 0.15387707514162127 -1.0420184357593305
4878000000.0 0.08898031282685101 -1.0124214694988518
4881000000.0 0.054006070302207644 -1.0776415026772779
4884000000.0 0.09339784817396349 -1.0304058455198597
4888000000.0 0.11810093338311664 -1.010673787619666
4891000000.0 0.09761114029118734 -1.0526201898242373
4894000000.0 0.03587602213254963 -1.0423121882784396
4897000000.0 0.08133548219420506 -1.0318507002650519
4900000000.0 0.022913618873478626 -1.0359578972551258
4903000000.0 0.015477148758800833 -1.0398361280940842
4906000000.0 0.017844277346069214 -1.069781692433168
4909000000.0 0.005378922051682337 -1.0203695936913655
4912000000.0 -0.03275232896123875 -1.0797207545591239
4916000000.0 0.02296324552820088 -1.0827984227844827
4919000000.0 0.014611596202771582 -1.0703560252514732
4922000000.0 0.011178827104983212 -1.051435194002248
4925000000.0 -0.056696297944136206 -1.0027594476451522
4928000000.0 0.024256334145793812 -0.9783094395588676
4931000000.0 -0.03613685008018512 -1.0493566140817485
4934000000.0 -0.054808786018581204 -0.9725693100616611
4938000000.0 -0.1094593896069246 -1.0063881913063435
4941000000.0 -0.05763982776714703 -1.024557853883587
4944000000.0 -0.017311181870946712 -0.9539770920464192
4947000000.0 -0.06737487067194076 -1.002469834361936
4950000000.0 -0.11892491102932341 -1.009332092719232
4953000000.0 -0.16620804681083712 -1.0467618861913461
4956000000.0 -0.12121431171501429 -1.0099230810877338
4959000000.0 -0.14815437696161274 -0.9888056633376484
4962000000.0 -0.1279680005469008 -1.033482516853533
4966000000.0 -0.12034464551947055 -1.0234285873230553
4969000000.0 -0.15033691468198962 -1.0518825952632922
4972000000.0 -0.16422422425455072 -1.0212145926363527
4975000000.0 -0.12382573742205769 -1.0051405330345766
4978000000.0 -0.1904960409284609 -1.0111895513784592
4981000000.0 -0.2031910766285591 -1.0102509423723645
4984000000.0 -0.17685020233878476 -0.9993077246604853
4988000000.0 -0.1837196501752118 -1.008182483906715
4991000000.0 -0.12203659605560624 -1.0119404047461842
4994000000.0 -0.20095470669115562 -0.9957774045723305
4997000000.0 -0.2435682982749574 -1.0108120848020479
5000000000.0 -0.20718436219077535 -0.995619928656523
5003000000.0 -0.24608152801412086 -1.0492616495408709
5006000000.0 -0.2502539939064844 -1.0674855325910586
5009000000.0 -0.2217544159485891 -0.9897797080676644
5012000000.0 -0.2755560206639886 -1.0029401640326931
5016000000.0 -0.2591023351522483 -1.0448136361229856
5019000000.0 -0.24328225104759266 -0.997071013452145
5022000000.0 -0.26175872522631 -0.9932274090548043
5025000000.0 -0.30354845783345014 -1.0526373720662414
5028000000.0 -0.33460578131601115 -0.9746802143425402
5031000000.0 -0.334234369580487 -0.9827254312607027
5034000000.0 -0.3530434229210011 -0.9881541742908759
5038000000.0 -0.3279735391530819 -0.939850069455425
5041000000.0 -0.2794846845316461 -0.9852484716369209
5044000000.0 -0.3038127446187826 -0.9492055912653085
5047000000.0 -0.292347199069898 -0.960097292368869
5050000000.0 -0.2638076648752171 -0.9659143208364538
5053000000.0 -0.40206006201125677 -1.0020442297167027
5056000000.0 -0.30715553684826746 -0.9975522114329787
5059000000.0 -0.3340921255031171 -0.9647345499690952
5062000000.0 -0.4217219667977602 -0.9390603274485259
5066000000.0 -0.32572397691107136 -0.9631071167685099
5069000000.0 -0.4025312034298504 -0.9701518723324344
5072000000.0 -0.39977070333634995 -0.9067642316058868
5075000000.0 -0.36886933485934414 -0.9641801249562176
5078000000.0 -0.44616254034671393 -0.9250602675307289
5081000000.0 -0.4621301066494989 -0.9399452232257924
5084000000.0 -0.4223659095176946 -0.9561903786082364
5088000000.0 -0.3885201437464872 -0.9130417385865455
5091000000.0 -0.43855156835425413 -0.8892180850930538
5094000000.0 -0.45104344752617614 -0.8928401445839497
5097000000.0 -0.42402888758832546 -0.950324611708711
5100000000.0 -0.4784298413383921 -0.8975871654705171
5103000000.0 -0.4810814727910857 -0.9064272471262768
5106000000.0 -0.5165530207213445 -0.961690567997465
5109000000.0 -0.48235204441922314 -0.9271917352615571
5112000000.0 -0.5139968824722082 -0.9063825981625975
5116000000.0 -0.445859208064621 -0.8771291697819488
5119000000.0 -0.5461786378693844 -0.9529701570039344
5122000000.0 -0.5153929799656803 -0.9025306133144495
5125000000.0 -0.484593912839202 -0.9342209550176054
5128000000.0 -0.5769171692246668 -0.8835949206505391
5131000000.0 -0.5386414992982124 -0.9111726169772524
5134000000.0 -0.526984077586152 -0.9023610539580503
5138000000.0 -0.5283613906053345 -0.9369593356638718
5141000000.0 -0.5341344590446788 -0.9019059311065849
5144000000.0 -0.5307627151861295 -0.9179293052687852
5147000000.0 -0.555180617251314 -0.8837056803733256
5150000000.0 -0.573010156919966 -0.8828813152454517
5153000000.0 -0.5747769779082594 -0.8599929890846916
5156000000.0 -0.58456254340663 -0.8691153363742101
5159000000.0 -0.5983264113240887 -0.8806464688163008
5162000000.0 -0.6167699875909644 -0.82497373062356
5166000000.0 -0.6238698410513659 -0.8547124982362182
5169000000.0 -0.6126264835527657 -0.827455463163117
5172000000.0 -0.5924880340653256 -0.8093918199035315
5175000000.0 -0.5748334399676165 -0.8782144499961411
5178000000.0 -0.6368614406644328 -0.8112932024995562
5181000000.0 -0.6835891932460301 -0.8531614356902572
5184000000.0 -0.6711404883727037 -0.7860232184119024
5188000000.0 -0.6061300223423272 -0.7993813298255752
5191000000.0 -0.695421302708766 -0.7629443433943206
