! Created with skrf 1.8.0 (http://scikit-rf.org).
# Hz S RI R 50.0 
!freq ReS11 ImS11
4000000000.0 0.6023561363336787 0.8103991447761587
4003000000.0 0.6859405858993827 0.8580667909803752
4006000000.0 0.6490968777991442 0.7955671626567433
4009000000.0 0.6977081142960864 0.8468968254096837
4012000000.0 0.6336242665489652 0.8805801902399927
4016000000.0 0.6863269648495847 0.8112503974115741
4019000000.0 0.7081528363497023 0.7577385780802562
4022000000.0 0.5966112175214725 0.8416518307714155
4025000000.0 0.7675928272111291 0.7549575934179945
4028000000.0 0.7154534505210156 0.7752857987307045
4031000000.0 0.694909557288435 0.7330507437281513
4034000000.0 0.7287287456821915 0.7104228448676502
4038000000.0 0.7298326910754989 0.7403727358419824
4041000000.0 0.7041560197283105 0.7477287177813436
4044000000.0 0.7804312262219054 0.8069248071866177
4047000000.0 0.7399075801161219 0.7823479036829563
4050000000.0 0.7903092438045108 0.7240507456512185
4053000000.0 0.7205643029861937 0.685963717564646
4056000000.0 0.8025315417091288 0.7263296018173186
4059000000.0 0.7296168479881133 0.6761417741940896
4062000000.0 0.7697226281374048 0.6633910663458511
4066000000.0 0.7400993730692258 0.6466686906151928
4069000000.0 0.8132326589547222 0.6850148282193237
4072000000.0 0.7664300854107973 0.7129872697840203
4075000000.0 0.8200700872035445 0.7221979570493497
4078000000.0 0.8201347874065664 0.6478849838027192
4081000000.0 0.7730112011890703 0.7367827205951367
4084000000.0 0.8168877908976465 0.6792463127403441
4088000000.0 0.7877505158699615 0.6702902229190727
4091000000.0 0.864531569432562 0.6944354710079377
4094000000.0 0.8260327854060463 0.6204545887469992
4097000000.0 0.8429939910795355 0.6005016739232829
4100000000.0 0.820872366738963 0.6299225725562385
4103000000.0 0.851444659788265 0.6579884894147157
4106000000.0 0.8754962533153132 0.6061459791190262
4109000000.0 0.8939245008596444 0.6151244514170437
4112000000.0 0.8606624804191951 0.6073589181666272
4116000000.0 0.8138330047401923 0.5904530176379745
4119000000.0 0.8608771998334663 0.568305397378165
4122000000.0 0.9036757214641571 0.5749821567828055
4125000000.0 0.9265752117293395 0.5879507476442585
4128000000.0 0.8341420889338992 0.5363358153928517
4131000000.0 0.8687194665499721 0.539927694756835
4134000000.0 0.8740279187613751 0.5692355987689421
4138000000.0 0.8440709286377859 0.5173473385488703
4141000000.0 0.887663483745065 0.5294842090701533
4144000000.0 0.9202574208585789 0.5494158044545574
4147000000.0 0.9016995571863186 0.49915543438956417
4150000000.0 0.9135313366292741 0.5183347140788981
4153000000.0 0.9078186336986381 0.50306783071608
4156000000.0 0.9011081237617746 0.5237372776817484
4159000000.0 0.8703565063792826 0.4846293123109237
4162000000.0 0.9287561684389551 0.4788307681963867
4166000000.0 0.944960645711781 0.446117655504801
4169000000.0 0.9549390412036382 0.4412397454384711
4172000000.0 0.9498992553073772 0.4776396344896487
4175000000.0 0.9344265566229966 0.4702119116452232
4178000000.0 0.9605453040777553 0.4412720865661611
4181000000.0 0.9813805269877873 0.4257698336553585
4184000000.0 0.9338023690926774 0.4374255589561418
4188000000.0 0.9047381167052948 0.4357528467771371
4191000000.0 0.932970158100092 0.43316761062484505
4194000000.0 0.9224794593566769 0.38933940139280776
4197000000.0 0.9668455302586195 0.40102619893760655
4200000000.0 0.952635554096628 0.4033199541416759
4203000000.0 0.9371973869459607 0.40820907528898254
4206000000.0 0.9711272533444801 0.37492950517932017
4209000000.0 0.9631383725217175 0.3683725231001111
4212000000.0 0.9652068559319131 0.3266867842517217
4216000000.0 0.9590929922485558 0.35257004831160627
4219000000.0 0.9756586598923083 0.3507340947988352
4222000000.0 1.005220633588067 0.32416553972401346
4225000000.0 0.9644625164271703 0.3020867700952199
4228000000.0 0.9865003689694338 0.3066474678439157
4231000000.0 0.986476762606795 0.30719006150986294
4234000000.0 1.001415541680292 0.31166858647485834
4238000000.0 0.9875171247388479 0.2878553679387321
4241000000.0 0.9941367922891204 0.2757034414538271
4244000000.0 0.9764346325112964 0.2811273904237672
4247000000.0 0.9834254315584972 0.2832879185925425
4250000000.0 0.9753183878800877 0.24631129493894788
4253000000.0 0.9747042412792395 0.2251969195735935
4256000000.0 0.9996639436861698 0.2314558418163099
4259000000.0 0.955815729373971 0.2082662599421479
4262000000.0 0.9855589587531217 0.19416607904391983
4266000000.0 1.0103276449171534 0.1989838476816233
4269000000.0 0.9895501735271088 0.22928972392447425
4272000000.0 1.0160178465257972 0.18656242491035374
4275000000.0 1.020075342821734 0.19728995553182088
4278000000.0 1.0068208347458187 0.1777591445616573
4281000000.0 1.0125622456075403 0.1824064193228302
4284000000.0 1.0195413829988231 0.13907517508752634
4288000000.0 0.9907703391337128 0.18771327516136782
4291000000.0 0.9879524239677379 0.13999214342153238
4294000000.0 1.0024989032705154 0.1439209011105314
4297000000.0 0.9922352432771689 0.1426452064576093
4300000000.0 1.0048168419990877 0.13788510557829584
4303000000.0 1.0125577789363478 0.10172188103611145
4306000000.0 1.0214338964808283 0.13945035710090783
4309000000.0 1.0088443290817073 0.09742635055624378
4312000000.0 1.0241538932094185 0.1193650658473219
4316000000.0 1.0200603178479977 0.0904894220755136
4319000000.0 1.0010368217432133 0.1139631176570045
4322000000.0 0.9949230327591998 0.031651607925469546
4325000000.0 1.0289103356804463 0.053305762279811944
4328000000.0 1.0063811763364987 0.04717294273274279
4331000000.0 1.0394524025628635 0.017594124051107385
4334000000.0 1.034734852681259 0.008360808070825843
4338000000.0 1.0324081432936842 0.06674055439823369
4341000000.0 1.045155023110783 0.06806618769044198
4344000000.0 1.022463751614665 -0.0039504246390262565
4347000000.0 1.032442756429001 -0.04662369496819303
4350000000.0 0.9912054825045827 -0.04063901890282298
4353000000.0 0.9999354948501966 -0.007287401726904952
4356000000.0 1.0389703061421338 -0.046764056518844715
4359000000.0 0.9757564901116151 -0.034302058542747094
4362000000.0 1.025344573353921 -0.1094563211024688
4366000000.0 1.0364500094774332 -0.05340051862763956
4369000000.0 0.9652861130992543 -0.07729493442128213
4372000000.0 1.0013815546571951 -0.10613367380829121
4375000000.0 1.0126383400021102 -0.07512314603151601
4378000000.0 0.973935898778971 -0.07438641447185607
4381000000.0 0.9813313606368519 -0.08033867812971895
4384000000.0 1.067679163352348 -0.1417851374738198
4388000000.0 0.9829798486432421 -0.10811612200945357
4391000000.0 1.0093159254857174 -0.13527551817476768
4394000000.0 0.9789942952669414 -0.13460779087512126
4397000000.0 0.9983065232602415 -0.15791305400559957
4400000000.0 1.014446715619075 -0.16240240478174717
4403000000.0 1.0057173068845695 -0.15875743920665358
4406000000.0 0.9898386326375433 -0.1901466731152742
4409000000.0 1.0243016308991468 -0.18716435711202534
4412000000.0 0.989266750476477 -0.23712935758813083
4416000000.0 0.9822702190388728 -0.20661248628314186
4419000000.0 0.9835805422160526 -0.23037077512251497
4422000000.0 0.9879263121572501 -0.20160246516556293
4425000000.0 1.0055749271756556 -0.196626483196178
4428000000.0 0.9855917624107494 -0.24065172237380056
4431000000.0 1.003012572439628 -0.23921312068354733
4434000000.0 0.9701238116598799 -0.2523587329070643
4438000000.0 1.0049589006948245 -0.2600185369592476
4441000000.0 0.9954652577368177 -0.2668740628991096
4444000000.0 0.950995878999354 -0.27854141524635
4447000000.0 0.9510238708303523 -0.29018728258401727
4450000000.0 0.9542694472826678 -0.27506565339889605
4453000000.0 1.0024181545587127 -0.3254529449915707
4456000000.0 0.9402063750224295 -0.3132070668457262
4459000000.0 0.9141422350442832 -0.3159738731690529
4462000000.0 1.0269511007531933 -0.34638312453648235
4466000000.0 0.9912291238176996 -0.3736065270903758
4469000000.0 0.966163878202181 -0.33697928062878857
4472000000.0 0.9516783354865778 -0.37219864702817634
4475000000.0 0.9189256398219026 -0.3550978363465835
4478000000.0 0.9606650854482587 -0.393117360311236
4481000000.0 0.9185134651983288 -0.3715812916729487
4484000000.0 0.9178371534242686 -0.42656102612327074
4488000000.0 0.9119318956877946 -0.4279555833284086
4491000000.0 0.9414450228097152 -0.4198451814973846
4494000000.0 0.9161849699056291 -0.39338639955244176
4497000000.0 0.9148608460548766 -0.4112524119476115
4500000000.0 0.9161954998843762 -0.40800589376976665
4503000000.0 0.9438803130904521 -0.4370456292326484
4506000000.0 0.91481975332365 -0.4521981662145002
4509000000.0 0.8933349084409841 -0.4528476960699276
4512000000.0 0.8797089117093226 -0.4725287071783323
4516000000.0 0.9152648753577967 -0.46770722926756003
4519000000.0 0.8753581351926906 -0.45409576751827224
4522000000.0 0.875510389182679 -0.49457165666349173
4525000000.0 0.9042629231254127 -0.46822520903335074
4528000000.0 0.8927393466985152 -0.5113347280195168
4531000000.0 0.8764518239486541 -0.5008127865107566
4534000000.0 0.8686127605414212 -0.4929329760334361
4538000000.0 0.8676694238705702 -0.5227656088229344
4541000000.0 0.8440924749366182 -0.5456151219054912
4544000000.0 0.846724762908605 -0.5264019028424679
4547000000.0 0.8473153404169472 -0.5333387412782467
4550000000.0 0.8495996136460033 -0.595746366609686
4553000000.0 0.8368013256750437 -0.5610650715388625
4556000000.0 0.8230115837012515 -0.5630765162153512
4559000000.0 0.8290538188614149 -0.5822842472871108
4562000000.0 0.8404478166165834 -0.573299303686908
4566000000.0 0.8320340431104365 -0.5994960629718669
4569000000.0 0.7935177942377704 -0.5770889556074241
4572000000.0 0.804136803581523 -0.6007446406766892
4575000000.0 0.7916427651585558 -0.6287156922378704
4578000000.0 0.843956048158389 -0.6181929995472739
4581000000.0 0.787202282018979 -0.65309977137839
4584000000.0 0.7610399283072894 -0.6441105029324061
4588000000.0 0.8034690399913607 -0.6425502772808228
4591000000.0 0.7862186823400023 -0.631792428306083
4594000000.0 0.7634206812731478 -0.6704309623193326
4597000000.0 0.7846444839995983 -0.682330169685593
4600000000.0 0.7417084170572209 -0.6929566344121025
4603000000.0 0.7497428865125402 -0.6737381463659696
4606000000.0 0.7604587310456333 -0.6849655863374435
4609000000.0 0.7474572372563997 -0.7040490104336119
4612000000.0 0.7361874239974284 -0.6971853626484472
4616000000.0 0.7030786727675309 -0.7013941079333632
4619000000.0 0.7264679797796271 -0.6989823240866565
4622000000.0 0.7146641933793338 -0.7164729858532408
4625000000.0 0.6756963715121028 -0.7233674749441962
4628000000.0 0.7170397904683595 -0.6909988364871165
4631000000.0 0.6808668152874862 -0.7479106033824998
4634000000.0 0.6992221527277535 -0.7390803261425566
4638000000.0 0.7107307158156118 -0.7639953296834239
4641000000.0 0.6792154090167231 -0.7473106661463716
4644000000.0 0.681511565529274 -0.7393528711010944
4647000000.0 0.6818629579705097 -0.7651855973432242
4650000000.0 0.637671012596937 -0.7809260138396382
4653000000.0 0.667797029462584 -0.7730284588955578
4656000000.0 0.6605930841529499 -0.7931119145388936
4659000000.0 0.6412024760449354 -0.7950169476709873
4662000000.0 0.6453847548188119 -0.7993262229005259
4666000000.0 0.6279034093172674 -0.8015609752895558
4669000000.0 0.6291022843254863 -0.8208220350800518
4672000000.0 0.5984528450441241 -0.8313578735007154
4675000000.0 0.5801669805733577 -0.8351640153077251
4678000000.0 0.5844025437821674 -0.8022544349211058
4681000000.0 0.5807490438331355 -0.8598573884020525
4684000000.0 0.5597902320132007 -0.8651505801994961
4688000000.0 0.5406343354470159 -0.8539426783687598
4691000000.0 0.5967328076148076 -0.8492842702029297
4694000000.0 0.5679179100828518 -0.832186548938646
4697000000.0 0.5276489640979847 -0.8177785279399667
4700000000.0 0.5520490949235418 -0.8419387967595711
4703000000.0 0.5685122429745961 -0.8368943614436515
4706000000.0 0.5306932902524522 -0.8649722140233402
4709000000.0 0.503544097854272 -0.8876827864219565
4712000000.0 0.5174635165172673 -0.869997304197283
4716000000.0 0.5032370075709274 -0.8929062410430495
4719000000.0 0.5353804255489361 -0.8628101343672431
4722000000.0 0.5029716903767314 -0.8729037117380469
4725000000.0 0.4873424329651347 -0.9131611981423334
4728000000.0 0.471456666055637 -0.8958785850727771
4731000000.0 0.5187777147956418 -0.925819444394731
4734000000.0 0.47000551075594116 -0.8656931447592705
4738000000.0 0.4947282725613156 -0.9522073648946523
4741000000.0 0.4508033339082741 -0.9465761027285732
4744000000.0 0.4144884135295739 -0.9833002603341011
4747000000.0 0.4321470250284828 -0.9376714504440423
4750000000.0 0.4269763217518584 -0.95557921708587
4753000000.0 0.4578052498397223 -0.9304829051686547
4756000000.0 0.415180759604718 -0.9351465582681533
4759000000.0 0.41228151790954404 -0.9472028774463889
4762000000.0 0.3823612257687872 -0.9640393644563594
4766000000.0 0.37301623073011264 -0.9400706051573815
4769000000.0 0.37704567784911464 -0.9455369417906762
4772000000.0 0.37037340325762264 -0.9483251731851028
4775000000.0 0.37425332892717633 -1.0022755352172867
4778000000.0 0.35585719987451747 -0.959663667730359
4781000000.0 0.3332035750504928 -0.9706402341291436
4784000000.0 0.3577680555072736 -0.9237600130051989
4788000000.0 0.29826764976731024 -0.9897814966819425
4791000000.0 0.3101326758666024 -0.9566447006026927
4794000000.0 0.35305844412292686 -1.022127561892611
4797000000.0 0.29164980429343734 -0.9755470704871337
4800000000.0 0.2728259027059266 -0.9938235625710152
4803000000.0 0.24653985589547492 -1.0019517532845423
4806000000.0 0.28585605553384474 -0.9975548194713215
4809000000.0 0.2506514411349762 -0.9862276642253195
4812000000.0 0.24077127001651222 -0.9906633310679733
4816000000.0 0.27376646267258026 -0.962457622549084
4819000000.0 0.2643476158310858 -1.0267041943245854
4822000000.0 0.24904288806293007 -1.0474501564776753
4825000000.0 0.285819277448302 -1.0189542380603693
4828000000.0 0.22010823009028202 -1.0108135344629683
4831000000.0 0.18602324430824266 -1.0478404418364313
4834000000.0 0.21330136515334605 -0.9974123032015696
4838000000.0 0.18469733264612825 -1.0494385759141496
4841000000.0 0.17338981450910315 -1.0297115341390723
4844000000.0 0.2159842029363273 -1.0034300428820109
4847000000.0 0.194701586024637 -0.9845911420088294
4850000000.0 0.15115672544114941 -1.027649147921896
4853000000.0 0.16185196340825564 -0.984387801755745
4856000000.0 0.1433901025343734 -1.0258533242292787
4859000000.0 0.14683292058783426 -1.0488882293797555
4862000000.0 0.14688104709733418 -1.01084295336917
4866000000.0 0.09921831218645719 -1.0297817762441535
4869000000.0 0.0855895221814907 -1.012395211994375
4872000000.0 0.07574572978787558 -1.0474810969030297
4875000000.0 0.16876406363005508 -1.06583868890005
4878000000.0 0.06882727456154195 -1.0472690849434152
4881000000.0 0.04738690039862073 -1.076349296284554
4884000000.0 0.08610832435703825 -1.0287819222577361
4888000000.0 0.07359902069472762 -1.0233161065625997
4891000000.0 0.10620671447262944 -1.0578056903587747
4894000000.0 0.027579862308274364 -1.023422027501019
4897000000.0 0.0658191568324758 -1.0149350777923378
4900000000.0 0.049596427324001977 -1.0540250472724695
4903000000.0 0.06419402721772163 -1.0643426510226335
4906000000.0 0.01736888012251831 -1.065092384729033
4909000000.0 -0.009755578779289176 -1.0363356053374677
4912000000.0 -0.03633642497023798 -1.095916502722158
4916000000.0 0.03307128720698599 -1.0680468358969912
4919000000.0 0.0009042247872446466 -1.077029025993721
4922000000.0 -0.003955746675904995 -1.0220562431323572
4925000000.0 -0.04806561328334674 -1.0074317950728917
4928000000.0 -0.016350162384485653 -1.0257965128966904
4931000000.0 -0.01243151029564922 -1.0650007535406532
4934000000.0 -0.0468726192009668 -0.9995521738580311
4938000000.0 -0.10074120116275644 -1.0270468669565431
4941000000.0 -0.07770629010142525 -1.000033691680433
4944000000.0 -0.04189929777158341 -0.961438765226825
4947000000.0 -0.08509736801010542 -1.0328968460880237
4950000000.0 -0.11414386350583715 -0.9762507622338845
4953000000.0 -0.12798447143818378 -1.1021958220226098
4956000000.0 -0.13543412326207527 -1.0422742960769877
4959000000.0 -0.17825824010949357 -0.9816296357773527
4962000000.0 -0.13690903996198658 -1.048784076038864
4966000000.0 -0.1204397134415775 -1.0266227207667074
4969000000.0 -0.1445130372895858 -1.0741526434450535
4972000000.0 -0.1807610921277273 -1.0261399108980263
4975000000.0 -0.17635592401875042 -1.0344764366530346
4978000000.0 -0.18099639038623833 -1.0426796898214807
4981000000.0 -0.19549078650645316 -1.047679765972816
4984000000.0 -0.1754632636738578 -0.9915623506681603
4988000000.0 -0.1664340740663076 -1.0119522864448194
4991000000.0 -0.13605416333881887 -1.053168350268336
4994000000.0 -0.20895025660949568 -1.013603929787245
4997000000.0 -0.244558994860192 -1.015234194617303
5000000000.0 -0.23063265632761204 -1.060882221497884
5003000000.0 -0.23263757680329983 -1.0542380721790539
5006000000.0 -0.22975902970897136 -1.0686452749541449
5009000000.0 -0.240822460583462 -1.0394247544452613
5012000000.0 -0.2540574850748559 -0.986992513939619
5016000000.0 -0.25368950256702727 -1.0724346872867523
5019000000.0 -0.2631850961398718 -0.9841104005009202
5022000000.0 -0.29946330462499837 -1.0264161547299746
5025000000.0 -0.31655279297676436 -1.0480383577076293
5028000000.0 -0.3494829292974131 -0.9951292660369686
5031000000.0 -0.3178795353967764 -0.9877794707222803
5034000000.0 -0.36372086819226357 -1.015138957076335
5038000000.0 -0.3174716192023529 -0.9666214583662922
5041000000.0 -0.28141194737584285 -1.0186444271986956
5044000000.0 -0.28841030406818624 -0.9627651511516103
5047000000.0 -0.3078910929624991 -0.9998732044131641
5050000000.0 -0.2633955776399608 -0.9662081388429171
5053000000.0 -0.36078747766441155 -1.0172189145735677
5056000000.0 -0.30031677575147064 -0.974537642200052
5059000000.0 -0.30679063850383365 -1.0159062110155137
5062000000.0 -0.4464413991178532 -0.9946850531285685
5066000000.0 -0.345139109611625 -1.0149529837460458
5069000000.0 -0.4167990155505238 -0.972465434216972
5072000000.0 -0.3876372198318604 -0.9344448260383142
5075000000.0 -0.43745821122204775 -0.9803916905626939
5078000000.0 -0.43370492061226124 -0.9360494956717686
5081000000.0 -0.4477954301157097 -0.8953635844693749
5084000000.0 -0.4350721558718815 -0.9399830205630075
5088000000.0 -0.42087891352322443 -0.9376872543367585
5091000000.0 -0.48856031110815273 -0.9263812488967611
5094000000.0 -0.4722711138999312 -0.9749892009473363
5097000000.0 -0.4277078983191286 -0.9279021964892151
5100000000.0 -0.4805684787643982 -0.9226461707200998
5103000000.0 -0.49275823712632605 -0.941313997987662
5106000000.0 -0.511122974980441 -0.9579467459058015
5109000000.0 -0.4306231061727271 -0.9404075020730698
5112000000.0 -0.5029969076776974 -0.9519633306137751
5116000000.0 -0.5080447029219199 -0.8692219025432733
5119000000.0 -0.5558010306455535 -0.9008752552909123
5122000000.0 -0.51996256726955 -0.9272201563012199
5125000000.0 -0.4883339958594281 -0.9096319729401806
5128000000.0 -0.5713260166170361 -0.9347733636283986
5131000000.0 -0.536259474494418 -0.8726787584027195
5134000000.0 -0.5477404741576677 -0.8859311744808487
5138000000.0 -0.5308623241042328 -0.8519096243840034
5141000000.0 -0.5056016523135716 -0.92212765179063
5144000000.0 -0.5539722379130915 -0.9152337323133602
5147000000.0 -0.5830396588690189 -0.9210908536137997
5150000000.0 -0.5508418775532903 -0.9213869927647398
5153000000.0 -0.6388855800160389 -0.8659195977180388
5156000000.0 -0.613350431804696 -0.8813393682277609
5159000000.0 -0.6088528809282758 -0.897339164774732
5162000000.0 -0.6111484309618666 -0.8614371820857945
5166000000.0 -0.6148564775494919 -0.8566829697941379
5169000000.0 -0.6269301648696505 -0.8605523129654828
5172000000.0 -0.5956481193809828 -0.8111357577353699
5175000000.0 -0.6301213900867711 -0.8548980095955282
5178000000.0 -0.6347193112692404 -0.8214836616064521
5181000000.0 -0.6482670954655526 -0.8708532880325934
5184000000.0 -0.6601570715420472 -0.8165947122758935
5188000000.0 -0.6283648786869951 -0.8530462691067509
5191000000.0 -0.7233082282839284 -0.8202108439545206
