! Created with skrf 1.8.0 (http://scikit-rf.org).
# Hz S RI R 50.0 
!freq ReS11 ImS11
4000000000.0 0.6324297157773842 0.8064746197074144
4003000000.0 0.6795912855078746 0.8484100727376788
4006000000.0 0.685047870540989 0.807522810526713
4009000000.0 0.6754400530169932 0.7693260148523706
4012000000.0 0.6711731247971483 0.8223346091589043
4016000000.0 0.7123059263202376 0.7737673920435151
4019000000.0 0.6485889073020303 0.7501960391508071
4022000000.0 0.6537882281029638 0.8293516442856149
4025000000.0 0.7393286825021238 0.7573597570041939
4028000000.0 0.6830156867050522 0.7581550745270471
4031000000.0 0.6669447677098713 0.6988963972423937
4034000000.0 0.6924990253964163 0.7368268634416697
4038000000.0 0.7374895811922826 0.7367616575083219
4041000000.0 0.7339479981180053 0.7261487884926636
4044000000.0 0.7579479249283997 0.7794336545011094
4047000000.0 0.7209549635154984 0.7877794325390928
4050000000.0 0.8170113174613078 0.7481549756268848
4053000000.0 0.7142563774979204 0.6877957856472858
4056000000.0 0.7290945065044804 0.7090643348276489
4059000000.0 0.7163014115497414 0.7076559576631372
4062000000.0 0.7807736466320568 0.7149292801906304
4066000000.0 0.7371842533047848 0.6339582352504793
4069000000.0 0.8008978605883644 0.6906126883018159
4072000000.0 0.747464525710324 0.73392976101551
4075000000.0 0.7761020351860674 0.7127586534774761
4078000000.0 0.8206722084511945 0.6561287335109306
4081000000.0 0.7823281743320822 0.7178632728205959
4084000000.0 0.82291063584094 0.6564166515948755
4088000000.0 0.7712699635133887 0.6477334483411292
4091000000.0 0.8536917687527205 0.6693794768689567
4094000000.0 0.8277324877746574 0.6257407207541686
4097000000.0 0.7838939306587078 0.6234105680939495
4100000000.0 0.8138501193009349 0.6084927138629463
4103000000.0 0.8418269914762382 0.6594520131796808
4106000000.0 0.8263521267974826 0.5981803289423121
4109000000.0 0.8672720286262745 0.5833054580503114
4112000000.0 0.8807669927805111 0.6232940248536589
4116000000.0 0.8640283953901343 0.6075952753641466
4119000000.0 0.8846569279074069 0.5810264583793899
4122000000.0 0.8914696285140318 0.5712451858253584
4125000000.0 0.8748460021833813 0.5261237389776652
4128000000.0 0.8206148062235146 0.5421402297520357
4131000000.0 0.8250733656196161 0.5481881542931901
4134000000.0 0.8522112934961058 0.5534957412733011
4138000000.0 0.8828950000113436 0.5097527496965755
4141000000.0 0.8971989460937272 0.5153281814336006
4144000000.0 0.8649562796418157 0.5403133495551444
4147000000.0 0.8900524537089007 0.5081709086827944
4150000000.0 0.9213465712867036 0.5320317809940278
4153000000.0 0.9016941578982118 0.48290061012997243
4156000000.0 0.9386204859340133 0.5331971186048954
4159000000.0 0.8928341782399996 0.4726273649365879
4162000000.0 0.8808139918243079 0.4539543824286274
4166000000.0 0.9221381434921982 0.5068162932893029
4169000000.0 0.9406890205671294 0.4506992746088553
4172000000.0 0.925147793673318 0.457068309828141
4175000000.0 0.9326269465087015 0.4348595753578239
4178000000.0 0.9447725756536519 0.46345741157099885
4181000000.0 0.9400901675399083 0.4171884722645376
4184000000.0 0.9272250993780173 0.4293364940493823
4188000000.0 0.9286970559168211 0.42267638969876875
4191000000.0 0.9208739451449686 0.42969397464622344
4194000000.0 0.922294225077373 0.3839031540932578
4197000000.0 0.9580700731038786 0.40015305980561583
4200000000.0 0.9686273831479255 0.39184473896532745
4203000000.0 0.9354730849223327 0.3893935919463848
4206000000.0 0.9922211627768759 0.36815699080782543
4209000000.0 0.9446718002403058 0.3589310423941671
4212000000.0 0.973652053974624 0.34134629835457997
4216000000.0 0.9589101839329277 0.36771506806115956
4219000000.0 0.9718609460820239 0.36180573614579614
4222000000.0 0.9847617548325889 0.30822239642088484
4225000000.0 0.965284904819943 0.3164113029940414
4228000000.0 0.9952118993303538 0.33802527170129437
4231000000.0 0.9718267957445839 0.3220118548411376
4234000000.0 0.9809042655531411 0.3042563609507097
4238000000.0 0.9925275283092081 0.292334316856789
4241000000.0 0.9803801392266105 0.26499578054067385
4244000000.0 0.9727013706446412 0.2693929850326779
4247000000.0 0.9893741339831619 0.26883209392074187
4250000000.0 0.9654364995601841 0.2519128503321426
4253000000.0 0.9666793207172486 0.23204144448000247
4256000000.0 1.006370152596495 0.23823992896888313
4259000000.0 0.9670869750583461 0.2133758241579358
4262000000.0 0.9875710811098382 0.20507841777601202
4266000000.0 1.0179308700509007 0.18715393177338568
4269000000.0 0.9888470961787446 0.23502283170503271
4272000000.0 0.996962828170858 0.187133646342794
4275000000.0 1.0042041214080568 0.21537918271987527
4278000000.0 1.0249325751088678 0.18707223073098922
4281000000.0 1.0110741196724546 0.173477359815839
4284000000.0 1.0007248264699256 0.13591250820216177
4288000000.0 1.0082229436183467 0.19473008847845777
4291000000.0 0.9807994686041969 0.14831842389554672
4294000000.0 1.0145155077755752 0.1404686911525287
4297000000.0 0.9861659106812984 0.17288214745076946
4300000000.0 1.0033499084329365 0.14206670719033587
4303000000.0 0.9997367448830982 0.09709613854892878
4306000000.0 1.0085084933325912 0.13239302846543885
4309000000.0 0.9837089233761255 0.08657890132440886
4312000000.0 1.045022060088496 0.15536974205580778
4316000000.0 1.0236266939960617 0.09471696213008766
4319000000.0 0.972046363968507 0.06083490322364617
4322000000.0 0.9938403198975619 0.026142840856582403
4325000000.0 1.0238206300044992 0.06714200223513851
4328000000.0 1.0168710204699063 0.05296023732625728
4331000000.0 1.0164414572330736 0.01726782427211679
4334000000.0 1.0280210268601573 0.03928608084273316
4338000000.0 1.0225137343120365 0.04641588389524827
4341000000.0 1.0162691463042923 0.031249191894962725
4344000000.0 1.0259022114869658 0.009907718107176028
4347000000.0 1.0190354833868878 -0.040969884216070424
4350000000.0 0.975741135727291 -0.020811230435521966
4353000000.0 0.9852621438651445 -0.0003159466246442644
4356000000.0 1.0097591539461876 -0.035031982784629684
4359000000.0 0.9630432025653777 -0.03203081135197222
4362000000.0 0.9926160352866216 -0.11838322144265548
4366000000.0 1.0335792524472223 -0.06545747582592737
4369000000.0 0.9729151028286025 -0.07438970070187045
4372000000.0 0.987654438734193 -0.12876089391355636
4375000000.0 0.9937531609281354 -0.0877364011811556
4378000000.0 0.99763886404378 -0.0839719443421396
4381000000.0 0.9719959175637067 -0.08779679336412029
4384000000.0 1.0657363892401954 -0.13724556082564848
4388000000.0 0.9933471001106112 -0.11088922404010404
4391000000.0 1.005861707825638 -0.1312100323691315
4394000000.0 0.969667294421682 -0.12304308181715207
4397000000.0 0.988923730875795 -0.1446857065254842
4400000000.0 1.0226353419967549 -0.16481412970285664
4403000000.0 1.0120404372065925 -0.1697918367887767
4406000000.0 1.000766739919692 -0.19540812728946436
4409000000.0 1.0303493427619006 -0.19398393621320445
4412000000.0 0.9689453991486452 -0.24823681015366827
4416000000.0 0.9797437722753277 -0.21049894800446542
4419000000.0 0.9862535027788084 -0.220477441184666
4422000000.0 0.9819116090805495 -0.19484876300083248
4425000000.0 1.0116454049707317 -0.2058700113390496
4428000000.0 0.9812532412161031 -0.24868449614511073
4431000000.0 1.0057810463183494 -0.23588690839698118
4434000000.0 0.9693437893327748 -0.25757579886412213
4438000000.0 1.0066055242830234 -0.2611579739750868
4441000000.0 0.9965963952184909 -0.27095150540055857
4444000000.0 0.9575496049927272 -0.25730979926523023
4447000000.0 0.9514460710401973 -0.29856251088415087
4450000000.0 0.9558646580197969 -0.2802192054743112
4453000000.0 0.9934093685127635 -0.3047601838853793
4456000000.0 0.924558113562878 -0.30796115060370827
4459000000.0 0.9126027523445583 -0.32692971405317006
4462000000.0 1.0030430199522598 -0.35041920860987974
4466000000.0 0.9926510360964361 -0.3735030442254805
4469000000.0 0.9883532689001867 -0.33006005143080597
4472000000.0 0.9731753003360175 -0.38233594125883247
4475000000.0 0.9211406974615612 -0.35315122317909553
4478000000.0 0.9648088594389891 -0.40653367537344187
4481000000.0 0.9098725194704417 -0.4059906483518019
4484000000.0 0.9128570003098104 -0.41967194150609965
4488000000.0 0.914444920463991 -0.397963110326794
4491000000.0 0.9317137657646836 -0.4166028536817705
4494000000.0 0.9132120744680238 -0.39388410139415975
4497000000.0 0.9053873999040591 -0.3978116580984803
4500000000.0 0.9181259400656225 -0.43663959994650187
4503000000.0 0.9319968100367109 -0.43650520655520886
4506000000.0 0.9036958865745999 -0.44080349399944385
4509000000.0 0.8808904272687033 -0.4434846084190859
4512000000.0 0.8889681985071659 -0.4509126971904729
4516000000.0 0.9200503117704354 -0.4544674002337864
4519000000.0 0.8945109410456492 -0.45820381008292965
4522000000.0 0.8906216285618596 -0.488276638688878
4525000000.0 0.8852812903967018 -0.45759249424528436
4528000000.0 0.8972997943408396 -0.5140419813865008
4531000000.0 0.878568173652263 -0.4980456179988245
4534000000.0 0.8647662085554043 -0.5044796887533921
4538000000.0 0.8690377354607433 -0.5294712180173228
4541000000.0 0.8351565402123519 -0.551595699934246
4544000000.0 0.8443125356462367 -0.5250606480082127
4547000000.0 0.8483697442692532 -0.5039790422253467
4550000000.0 0.859032969007753 -0.5653420397372718
4553000000.0 0.8488742941651573 -0.5831934036000325
4556000000.0 0.8243061427723979 -0.5593103034056348
4559000000.0 0.8329154800390741 -0.5801924430303778
4562000000.0 0.8488957544537474 -0.5823601155692602
4566000000.0 0.822196990007366 -0.6035400293924034
4569000000.0 0.7960526091803224 -0.586307470757421
4572000000.0 0.8150695997096827 -0.6066046467854287
4575000000.0 0.7897780284075184 -0.6154170321298584
4578000000.0 0.8289318938251007 -0.6150294091582453
4581000000.0 0.7900821440722146 -0.6411425514030029
4584000000.0 0.7670587862999833 -0.629534066772633
4588000000.0 0.7972886019383499 -0.6376176037130411
4591000000.0 0.8026060141431093 -0.6282456584970284
4594000000.0 0.7678561427719991 -0.6564919397641228
4597000000.0 0.7750046263944541 -0.6587413255111702
4600000000.0 0.7185679370422007 -0.66903632609547
4603000000.0 0.7632902473327318 -0.6856940395081305
4606000000.0 0.7688036828094453 -0.6714471958824154
4609000000.0 0.7384156045934629 -0.6827643886385484
4612000000.0 0.7561051180087435 -0.7071922549571921
4616000000.0 0.7304079832443839 -0.6857244695379469
4619000000.0 0.7331122873478803 -0.6998645711403003
4622000000.0 0.7051506344846017 -0.7003192242727586
4625000000.0 0.6716766278614732 -0.7185201513979499
4628000000.0 0.7225708710610995 -0.7073815304251527
4631000000.0 0.693364404358217 -0.7259552714939066
4634000000.0 0.6828270891509912 -0.7425646285314338
4638000000.0 0.701701943221446 -0.7313980681458792
4641000000.0 0.6944747779090562 -0.7530438228223602
4644000000.0 0.6686386224398693 -0.7637713389558802
4647000000.0 0.6711175363980486 -0.7761465061882458
4650000000.0 0.6366745007856416 -0.7687098672396496
4653000000.0 0.6835391655049811 -0.7752715195721336
4656000000.0 0.6634315737931917 -0.79274408588742
4659000000.0 0.6316432077895919 -0.78216487977588
4662000000.0 0.6545889412599826 -0.805434807760004
4666000000.0 0.6230022920304341 -0.8105930733642885
4669000000.0 0.6409561571314231 -0.8036325318950863
4672000000.0 0.5988047019257605 -0.811925191935978
4675000000.0 0.5847273825800243 -0.8395275608186097
4678000000.0 0.591442447555752 -0.796319976675703
4681000000.0 0.5791618906355314 -0.8300351520432855
4684000000.0 0.5777544057831677 -0.8598899591870073
4688000000.0 0.5486319994742586 -0.8453727310110817
4691000000.0 0.5837475312343756 -0.8277580471070327
4694000000.0 0.5580866395995491 -0.8418819534532136
4697000000.0 0.5138759503163672 -0.8215767634577391
4700000000.0 0.5544797394786878 -0.8266600191252753
4703000000.0 0.5515144859999463 -0.8291710666097345
4706000000.0 0.5055805533036215 -0.8664209831260385
4709000000.0 0.5213704826381973 -0.8542905854755494
4712000000.0 0.5297723127844162 -0.8739555080453342
4716000000.0 0.5135949623838518 -0.8704570450424702
4719000000.0 0.523179122311988 -0.8572717978846142
4722000000.0 0.5237495799614464 -0.8671376146136232
4725000000.0 0.5080145847930907 -0.8901817359928089
4728000000.0 0.45765085292243995 -0.9002163153780778
4731000000.0 0.4820647656484409 -0.908636644065425
4734000000.0 0.48350239494755776 -0.8788596482459117
4738000000.0 0.4733376688518158 -0.9329573050743879
4741000000.0 0.44878938885665925 -0.924978341770984
4744000000.0 0.42489098148229054 -0.9376164662242538
4747000000.0 0.46825816921077545 -0.8903611836438164
4750000000.0 0.4275038438304863 -0.9289157190856644
4753000000.0 0.4360123852579614 -0.9321058645015949
4756000000.0 0.4253752280378369 -0.9194071928318412
4759000000.0 0.4075508449847828 -0.9462463852267317
4762000000.0 0.3819307629065164 -0.955631937817429
4766000000.0 0.37804275925691105 -0.92262437256254
4769000000.0 0.39881369684539014 -0.9414285539066747
4772000000.0 0.36565351096385307 -0.9801534960443886
4775000000.0 0.36452451625705146 -1.0215240495729303
4778000000.0 0.336854326275669 -0.9548690111395891
4781000000.0 0.38486238859112976 -0.9688642075771017
4784000000.0 0.357862164601858 -0.9666436767349155
4788000000.0 0.33698631587428995 -0.9719917243924381
4791000000.0 0.32195257744884254 -0.9808458232712284
4794000000.0 0.34984569621585826 -0.9897398629301692
4797000000.0 0.31105248469165014 -0.9495509010567335
4800000000.0 0.2906540284709568 -0.9632250030054388
4803000000.0 0.2583691685316809 -0.9761095622722629
4806000000.0 0.3003838040580567 -0.9814791685927831
4809000000.0 0.2233526493507212 -1.0039426143787
4812000000.0 0.23200903273459056 -0.9957712346785033
4816000000.0 0.2690328217609732 -0.9815210980001201
4819000000.0 0.29643313376014996 -1.013468292972562
4822000000.0 0.2647644943912265 -1.024808846197552
4825000000.0 0.2522599834435373 -1.0096252641489025
4828000000.0 0.2165663195977539 -0.9990214637753355
4831000000.0 0.16421612968083585 -1.0235553675219489
4834000000.0 0.21322297562470546 -1.0011911086223286
4838000000.0 0.17117659723585898 -1.0336558178049777
4841000000.0 0.18687439548581294 -1.0008865634364281
4844000000.0 0.2274547979631646 -1.0152412762213487
4847000000.0 0.1933490288136805 -0.9590552234634266
4850000000.0 0.1357340231810889 -1.0407875773025759
4853000000.0 0.1679566185068727 -0.992422950243715
4856000000.0 0.14989664794177868 -1.0179003821864054
4859000000.0 0.15213468895301008 -1.060959861323993
4862000000.0 0.14021947857882225 -1.0015036856727328
4866000000.0 0.12518365995125222 -1.016564458307591
4869000000.0 0.09505751055813733 -1.0121509983410337
4872000000.0 0.08258430946572036 -1.0420784363639195
4875000000.0 0.13660261750425884 -1.0584887306714474
4878000000.0 0.08880126145083264 -1.0322461737602548
4881000000.0 0.03343451675989376 -1.0995845389803467
4884000000.0 0.07683460450789231 -1.0496158658945407
4888000000.0 0.10613904785572667 -1.0011277338420388
4891000000.0 0.0986485069568414 -1.0345150536407912
4894000000.0 0.019601232405503002 -1.0253966158492633
4897000000.0 0.08832759015420846 -1.0392245544828498
4900000000.0 0.04987160290614692 -1.0575333840399372
4903000000.0 0.05890683525924095 -1.0573342986589935
4906000000.0 0.024093486451707037 -1.0641990335209994
4909000000.0 -0.01185245210198737 -1.0244518036309906
4912000000.0 -0.016577546637374353 -1.084575644672555
4916000000.0 0.016949242549740146 -1.0668058794344704
4919000000.0 0.02072229280893402 -1.0659523655146317
4922000000.0 0.010339425403117927 -1.0291331763839986
4925000000.0 -0.07838096080829932 -1.031613781318646
4928000000.0 0.028974376614240724 -1.032073164618295
4931000000.0 -0.031588172983515544 -1.0658969063423347
4934000000.0 -0.03724686039311591 -0.9921358724052158
4938000000.0 -0.08358365682056963 -1.0364079608614527
4941000000.0 -0.05431559655586253 -1.0306201617715052
4944000000.0 -0.03868415881946358 -0.9800942510612736
4947000000.0 -0.088958093280501 -0.9829190696050688
4950000000.0 -0.09781776677668903 -0.999197539734073
4953000000.0 -0.15637192760956298 -1.0565197606881784
4956000000.0 -0.11051328043692338 -1.030682084063622
4959000000.0 -0.18403303521932732 -0.9629129641085074
4962000000.0 -0.1341554321902256 -1.0238103202126412
4966000000.0 -0.09842787709479461 -1.054364487762529
4969000000.0 -0.15730463931242517 -1.0767543729652609
4972000000.0 -0.17072816081776857 -0.9973677511449871
4975000000.0 -0.12530544997240464 -1.003465629565757
4978000000.0 -0.17474832421686148 -1.0290534083361749
4981000000.0 -0.21033601741103833 -1.0074026097368716
4984000000.0 -0.1725009044833706 -0.9947129500997672
4988000000.0 -0.17076375635874447 -1.0150190275183342
4991000000.0 -0.15622955670043992 -1.0727313991265712
4994000000.0 -0.2043922326581113 -1.0290543537825778
4997000000.0 -0.2500549897034742 -0.9830129124567422
5000000000.0 -0.25106021865590744 -1.0595924576772529
5003000000.0 -0.23134448706307964 -1.0580313095981178
5006000000.0 -0.27445450768455537 -1.0604946324047568
5009000000.0 -0.22930056036962213 -1.0243569271292705
5012000000.0 -0.27943552217426065 -1.0273451186503237
5016000000.0 -0.2502447261922304 -1.0175995581351651
5019000000.0 -0.2898631958043022 -0.9862946919047604
5022000000.0 -0.26341498193435947 -1.014234671549394
5025000000.0 -0.3049656265394018 -1.0696048132383336
5028000000.0 -0.33481587372632804 -1.0093788333406022
5031000000.0 -0.31400096315671033 -0.9880752209738007
5034000000.0 -0.34007154409935025 -1.0426633805488543
5038000000.0 -0.3342369054181058 -0.9615618109401571
5041000000.0 -0.27941805919832763 -1.0159145435730146
5044000000.0 -0.31275905838460405 -0.9876493029577093
5047000000.0 -0.3125531880103241 -0.9936666606482941
5050000000.0 -0.28627237532650196 -0.9685908218767518
5053000000.0 -0.34649416799804467 -1.0393732164618064
5056000000.0 -0.31163424684416163 -0.9767383111697476
5059000000.0 -0.33517555293684226 -1.0049889053049657
5062000000.0 -0.4378755174247392 -1.0032507544071962
5066000000.0 -0.33819711331313496 -0.9948729114447241
5069000000.0 -0.39605717643754723 -0.9567002954014984
5072000000.0 -0.37733042283916257 -0.9203738638685932
5075000000.0 -0.3519568192363711 -0.9660222003281282
5078000000.0 -0.4553038071924877 -0.935801421789908
5081000000.0 -0.3811771261006117 -0.9193347361763317
5084000000.0 -0.46048863961169817 -1.0066185894665425
5088000000.0 -0.44464727454712794 -0.9461203313095894
5091000000.0 -0.4878280388773248 -0.9289123479104331
5094000000.0 -0.43448528615616433 -0.9509084024451712
5097000000.0 -0.4147387027351197 -0.9465388704757993
5100000000.0 -0.45444918188852085 -0.9408517267342079
5103000000.0 -0.48711679096321614 -0.9262766935872998
5106000000.0 -0.4485448536470934 -0.9695851171856511
5109000000.0 -0.47636616306450374 -0.9813518472971012
5112000000.0 -0.4971240130931223 -0.8680404239588251
5116000000.0 -0.4710782022670131 -0.8637884720539322
5119000000.0 -0.5194077822782212 -0.9420345892086164
5122000000.0 -0.4676861911957263 -0.9121049232514284
5125000000.0 -0.4974254521312985 -0.9382884939380814
5128000000.0 -0.5059083668472012 -0.9070553557611007
5131000000.0 -0.5307787954133572 -0.8933303250810288
5134000000.0 -0.600521573096071 -0.9107693514530909
5138000000.0 -0.5524383648242855 -0.8951923507109109
5141000000.0 -0.5087876557161581 -0.8905216872318651
5144000000.0 -0.5532157683114197 -0.8754939121133581
5147000000.0 -0.5583391841983264 -0.8922075215788215
5150000000.0 -0.5789557618576755 -0.8863162141044914
5153000000.0 -0.5757582032016995 -0.8767675491762696
5156000000.0 -0.5502057418362554 -0.8715771233069951
5159000000.0 -0.5867124173686832 -0.855848463936902
5162000000.0 -0.6125081420204378 -0.8280404477911989
5166000000.0 -0.6207803500931822 -0.846857736925771
5169000000.0 -0.6213767912569897 -0.8390493844380933
5172000000.0 -0.6257707686135413 -0.7979100900377725
5175000000.0 -0.6160995300875133 -0.8748734110932326
5178000000.0 -0.6687451885846318 -0.8056380117718396
5181000000.0 -0.617205983129818 -0.8797609161476637
5184000000.0 -0.624753662353182 -0.8190221938713524
5188000000.0 -0.6358126500678737 -0.8020776308219077
