! Created with skrf 1.8.0 (http://scikit-rf.org).
# Hz S RI R 50.0 
!freq ReS11 ImS11
4000000000.0 0.707630927903487 0.7845552971885843
4003000000.0 0.7196594107269811 0.7716769782388782
4006000000.0 0.7279208737647467 0.7373331257677787
4009000000.0 0.6986244818566159 0.6874462393822329
4012000000.0 0.709545160159223 0.7402296130342552
4016000000.0 0.7652557118797948 0.6722028895066243
4019000000.0 0.7276586105037186 0.7035009293428717
4022000000.0 0.7643287898941626 0.8105660411807601
4025000000.0 0.8067930535508845 0.6617482796598905
4028000000.0 0.7697646953501178 0.6904818967053086
4031000000.0 0.7195992297815783 0.6552432330098761
4034000000.0 0.7726032044048251 0.6252578582229723
4038000000.0 0.7883999209859696 0.6723748557903119
4041000000.0 0.7786254657191299 0.6700596793663188
4044000000.0 0.8507598818131513 0.6537751788890075
4047000000.0 0.8509809186036053 0.6846374552998069
4050000000.0 0.8113445985462494 0.6408910511259732
4053000000.0 0.8138655472216129 0.5744552128809832
4056000000.0 0.8092952644760585 0.6426216853015928
4059000000.0 0.799217788787576 0.6372525565545615
4062000000.0 0.8108737329688926 0.5967737327235647
4066000000.0 0.7642878219457716 0.5667853978961693
4069000000.0 0.8995386046244181 0.5944760798180911
4072000000.0 0.7956209403980509 0.621449300602295
4075000000.0 0.8443312183771744 0.5928701097702709
4078000000.0 0.8671037796548899 0.5477750356421041
4081000000.0 0.8441560461085718 0.6034762842880409
4084000000.0 0.8824096628278302 0.5320228789013755
4088000000.0 0.8392907388778383 0.5699861569449225
4091000000.0 0.890956648928607 0.5838393332467746
4094000000.0 0.8755977459938074 0.5528144705063485
4097000000.0 0.8675873680584775 0.5580193012591628
4100000000.0 0.8663560449573078 0.5142959060995107
4103000000.0 0.8884701205628704 0.4906896734989849
4106000000.0 0.877519175735752 0.4731075657339163
4109000000.0 0.913479424425583 0.48674520930704995
4112000000.0 0.9031503147723614 0.45383148614235463
4116000000.0 0.9434611369418454 0.49762157059091927
4119000000.0 0.9041966354726927 0.4542451705626016
4122000000.0 0.9188098223458951 0.44103425936116236
4125000000.0 0.9183412530205223 0.4256802800355752
4128000000.0 0.8863959896817352 0.4471363001364269
4131000000.0 0.9253822932738602 0.4264054289187831
4134000000.0 0.877135931618175 0.4568054416277745
4138000000.0 0.9250811524809981 0.3981410496029842
4141000000.0 0.9544617999202378 0.40992203201965305
4144000000.0 0.9330004738748541 0.4336156345555388
4147000000.0 0.936549387434359 0.3815092265621874
4150000000.0 0.9849266952988175 0.3816447023875856
4153000000.0 0.9326846889128357 0.3435493864888495
4156000000.0 0.9854824857283389 0.41781935115259383
4159000000.0 0.9260624552489656 0.3519473757382304
4162000000.0 0.9257452833606505 0.3584826439756523
4166000000.0 0.9560926566643759 0.31350200471783796
4169000000.0 0.9669595076676756 0.30697291845824837
4172000000.0 0.9468667868453398 0.3492379972726421
4175000000.0 0.9923126866568066 0.30544209694919083
4178000000.0 0.9863695180432404 0.3362262016148416
4181000000.0 1.0050448941919476 0.2969819091155288
4184000000.0 0.9696771849090058 0.29843027560092344
4188000000.0 0.9748700614571575 0.2805057477293701
4191000000.0 0.9655622760746239 0.30756252321037286
4194000000.0 0.9561920565873285 0.2777388631062262
4197000000.0 0.9866794879469769 0.2857884883529814
4200000000.0 0.975618058583303 0.27265448240711054
4203000000.0 0.9948194233918425 0.2917558097571632
4206000000.0 1.0035645882696937 0.24756786370411576
4209000000.0 0.9898459997198982 0.25079829689432126
4212000000.0 0.982889964765404 0.21123961597734187
4216000000.0 1.0031601469116775 0.2240257242586549
4219000000.0 1.001267924714434 0.21187955976028514
4222000000.0 0.9935776116843311 0.19503632177690983
4225000000.0 0.9870387807969343 0.18108390716642261
4228000000.0 0.990631364166072 0.16876994697108402
4231000000.0 0.9980958220231848 0.15457257064647983
4234000000.0 1.0215856341349552 0.14492446528737674
4238000000.0 1.0095835973590606 0.132739081701676
4241000000.0 1.0088880335754018 0.12374359426778786
4244000000.0 0.9997698312519089 0.13946745865913884
4247000000.0 0.9999210677532072 0.12647234464361073
4250000000.0 0.9903029461676225 0.10301384509653674
4253000000.0 0.9929475876179905 0.10051906517889697
4256000000.0 1.0208049372960306 0.10001784812782125
4259000000.0 0.9931754818489356 0.07855656113528342
4262000000.0 1.0034813170848456 0.06818385454830944
4266000000.0 1.0146378366821618 0.04660978142211114
4269000000.0 1.0059185364149785 0.061542680780362236
4272000000.0 1.0013585153500593 0.05507421400430759
4275000000.0 1.0128048053689374 0.028781687071504233
4278000000.0 1.0322694962446233 0.03852705303887788
4281000000.0 1.0277963045627718 0.04556733896185751
4284000000.0 1.0076238281430694 -0.019019357608727125
4288000000.0 1.0077169079863941 0.03195483429431003
4291000000.0 0.9911095767706842 -0.0007057222005960317
4294000000.0 0.9955740103554441 -0.005015596468888189
4297000000.0 1.0209483862217652 0.009853012896897467
4300000000.0 0.9924592673987953 -0.03272642434051871
4303000000.0 1.010865967572966 -0.04662423922157391
4306000000.0 1.019452408516701 -0.019020347079341686
4309000000.0 0.9904570179577056 -0.044943472269991486
4312000000.0 1.0148225742463521 -0.0399793894631366
4316000000.0 1.0302032783825623 -0.06590404287275795
4319000000.0 0.9938261350134902 -0.05203905143970649
4322000000.0 0.9881820524113524 -0.1130887401348073
4325000000.0 1.0203936063781733 -0.10244286476894632
4328000000.0 0.9836100906735612 -0.10305352298363135
4331000000.0 1.0016280922189136 -0.12762859753455172
4334000000.0 1.0107090148976747 -0.14937146574760263
4338000000.0 1.0143716648904322 -0.11992474082689565
4341000000.0 1.0157234534325505 -0.11161402688392882
4344000000.0 1.0353020609328274 -0.15386221368005723
4347000000.0 1.009856510957223 -0.176971935619246
4350000000.0 0.9465424170012866 -0.17465822191775737
4353000000.0 0.960234191472455 -0.15153536847802207
4356000000.0 0.964393089310842 -0.23367860523074696
4359000000.0 0.9409785270250441 -0.19077060222163514
4362000000.0 0.9680527441892639 -0.2639323916410354
4366000000.0 0.9910655677498852 -0.239545520263759
4369000000.0 0.9392702565363739 -0.21996729210329302
4372000000.0 0.9533420510697208 -0.25451715322173135
4375000000.0 0.9732704600455846 -0.2177816609413411
4378000000.0 0.94772513438839 -0.2365297780676681
4381000000.0 0.9670922072117465 -0.23696949192063146
4384000000.0 1.032513452150781 -0.2892670847281909
4388000000.0 0.9474380207128144 -0.2623139377626991
4391000000.0 0.9741195538022591 -0.29160944352448204
4394000000.0 0.9374276326233676 -0.2854334131920267
4397000000.0 0.9405813927586064 -0.32580280190888294
4400000000.0 0.9695960028818289 -0.32755870836029954
4403000000.0 0.9675031784209999 -0.3248127024603156
4406000000.0 0.9583929369145808 -0.3522463853635933
4409000000.0 0.972189034570272 -0.3543448001500727
4412000000.0 0.9166024846751722 -0.41099206041233394
4416000000.0 0.9265938866815038 -0.36134496557078866
4419000000.0 0.9226821723154873 -0.3885473081562102
4422000000.0 0.9340754049635722 -0.3524334607090176
4425000000.0 0.956592535780576 -0.3785633006649944
4428000000.0 0.9185137698493696 -0.3993709843411416
4431000000.0 0.9503255839785043 -0.4091827109667223
4434000000.0 0.9105383184795556 -0.4203534221673493
4438000000.0 0.9253754977119295 -0.4250321495052868
4441000000.0 0.9264409797250313 -0.4396129328010554
4444000000.0 0.9068510399588585 -0.42209117535913065
4447000000.0 0.8846812214285213 -0.4497576481081319
4450000000.0 0.8921162448923871 -0.428091832898357
4453000000.0 0.9187833346293597 -0.4630859722574055
4456000000.0 0.8748210691761161 -0.4635945004977571
4459000000.0 0.835640427395208 -0.48384242573787783
4462000000.0 0.9232248907217304 -0.5330936384202148
4466000000.0 0.8976327856293345 -0.5352663663280459
4469000000.0 0.8804888128668932 -0.4956762781069495
4472000000.0 0.8720529588937566 -0.5427650494081344
4475000000.0 0.828828203205532 -0.5184642337645036
4478000000.0 0.8937350108401152 -0.5481348990747377
4481000000.0 0.8261852566903491 -0.5350381091898345
4484000000.0 0.8242027141272155 -0.576802746365618
4488000000.0 0.829118409708991 -0.5605153969408623
4491000000.0 0.8534866746755793 -0.5624378600864199
4494000000.0 0.8237301145642729 -0.5546369589643281
4497000000.0 0.8356220813781876 -0.5637026933887394
4500000000.0 0.8184278142855725 -0.5829232615327049
4503000000.0 0.8299465894877451 -0.6173265275710473
4506000000.0 0.8049989386106855 -0.6050023633056533
4509000000.0 0.7886631439889598 -0.6055120331499405
4512000000.0 0.7897974519781417 -0.6171631968218847
4516000000.0 0.7954159254699227 -0.6251459937538602
4519000000.0 0.7619897587743021 -0.6002279181818115
4522000000.0 0.7744900700573776 -0.6540537298948487
4525000000.0 0.7949926356851083 -0.6237408398130753
4528000000.0 0.7951319690792575 -0.6700082312119209
4531000000.0 0.7686099014472171 -0.663690666180256
4534000000.0 0.7545355161284748 -0.6541960671473888
4538000000.0 0.7416345368404937 -0.6641735610205951
4541000000.0 0.7091297254616008 -0.6866133796338282
4544000000.0 0.73703695578983 -0.6704710879140882
4547000000.0 0.7242801371441937 -0.6855975384419786
4550000000.0 0.7047284997014257 -0.7085553496960248
4553000000.0 0.712364214136445 -0.7040643755215892
4556000000.0 0.6882510706949412 -0.7370822914422088
4559000000.0 0.7024895133067427 -0.7433900547174574
4562000000.0 0.7158109540165853 -0.7255124342446334
4566000000.0 0.6920364871367688 -0.7484440741699645
4569000000.0 0.6688922052102269 -0.7390105739813009
4572000000.0 0.675301896158686 -0.7373250847058153
4575000000.0 0.6511319702561931 -0.773925875867025
4578000000.0 0.6816363519761521 -0.7776827946222192
4581000000.0 0.6353045131374748 -0.7829124528626111
4584000000.0 0.6414043568791546 -0.7764036326228703
4588000000.0 0.6564872471437787 -0.7991310935971201
4591000000.0 0.626362540743551 -0.7821712324340026
4594000000.0 0.6143536684258585 -0.8083457585679121
4597000000.0 0.6111873224317645 -0.8258613331982354
4600000000.0 0.5761196233689003 -0.8169515165690293
4603000000.0 0.5886446960054822 -0.8138482292508181
4606000000.0 0.6068861100817566 -0.8211036371348654
4609000000.0 0.5922896130473859 -0.8186798219834581
4612000000.0 0.5615999093842916 -0.8250326264047001
4616000000.0 0.5626528297552842 -0.8339649771333408
4619000000.0 0.5501399524004715 -0.8388261281978573
4622000000.0 0.5525192178199794 -0.8347098013407928
4625000000.0 0.5168202198302071 -0.8565709170025702
4628000000.0 0.5486101961345526 -0.8441490302315863
4631000000.0 0.5263135469693296 -0.8605405639010284
4634000000.0 0.507107477813184 -0.8729903626996609
4638000000.0 0.5222776134218472 -0.8806985096096039
4641000000.0 0.4940258593415058 -0.8718601490879657
4644000000.0 0.48649508023589005 -0.8732937945372891
4647000000.0 0.46908374638099204 -0.8655346389720764
4650000000.0 0.46326999047824635 -0.8998132566346501
4653000000.0 0.47472116248723495 -0.885276571513636
4656000000.0 0.45323075025980897 -0.9007058089220756
4659000000.0 0.4542239009540012 -0.9361539784780437
4662000000.0 0.42959121422525876 -0.9144584713687244
4666000000.0 0.4159044550973351 -0.914379899638002
4669000000.0 0.4203363166366624 -0.927815365828104
4672000000.0 0.4105546720969255 -0.9370864565153072
4675000000.0 0.41255815860688866 -0.9629179954630454
4678000000.0 0.37720209150985273 -0.9231134239467337
4681000000.0 0.38408393401388724 -0.9625634368060249
4684000000.0 0.3661215617941509 -0.9747915888116203
4688000000.0 0.3485332359688499 -0.9275668051719604
4691000000.0 0.38214320942220814 -0.9544292432233283
4694000000.0 0.3600646655978205 -0.9309587133311528
4697000000.0 0.32501548778859746 -0.9205873272754559
4700000000.0 0.3504966396867689 -0.9275453132680955
4703000000.0 0.34249562397261646 -0.8899006450698783
4706000000.0 0.29529178021219227 -0.9984710484260194
4709000000.0 0.3185998973430376 -0.9710143591514669
4712000000.0 0.33552298430914435 -0.9576079398970508
4716000000.0 0.26856034786703303 -0.9849321438744731
4719000000.0 0.33408097975957873 -0.9537410550370061
4722000000.0 0.3224922359287613 -0.9595118337501005
4725000000.0 0.2853258527783221 -0.9704397246204692
4728000000.0 0.2760318487676452 -0.9649151969596983
4731000000.0 0.2699317381417128 -1.0110944893178966
4734000000.0 0.26935768002469335 -0.9978522658246225
4738000000.0 0.26694771755446356 -1.0455997841547324
4741000000.0 0.23554494564820194 -1.0069840243468113
4744000000.0 0.20133510902479082 -1.0121650628230416
4747000000.0 0.26290491093880747 -0.9836617509379965
4750000000.0 0.17080122776273632 -1.0130744773855
4753000000.0 0.19417584464277776 -0.9981363271836091
4756000000.0 0.1731778605908636 -1.049018996167538
4759000000.0 0.15895491149731697 -0.9937823983369246
4762000000.0 0.10622710136231828 -1.0150996472194518
4766000000.0 0.16195534028751624 -0.9846750598756151
4769000000.0 0.131916089605416 -1.029185694116156
4772000000.0 0.13134789854687975 -1.0044716384490593
4775000000.0 0.08926762499084512 -1.0564500806636405
4778000000.0 0.1193250332763722 -1.0409936502764214
4781000000.0 0.09629838012089914 -1.020595501910179
4784000000.0 0.12600583676413613 -1.0082057900014338
4788000000.0 0.06824721799628958 -1.0365853160101601
4791000000.0 0.055357970869447104 -1.0197352060717173
4794000000.0 0.10499373706547463 -1.0739325175305954
4797000000.0 0.054590048503391414 -1.0147250791033247
4800000000.0 0.03779720809908774 -1.0208867796378882
4803000000.0 -0.01608326580513017 -0.9989142924349308
4806000000.0 0.018911815415668554 -1.0267066796963682
4809000000.0 -0.03514706713515914 -1.016591411676662
4812000000.0 -0.03449928350413453 -1.0146547224704636
4816000000.0 0.014811007942593352 -1.0029209340650036
4819000000.0 0.0016564367511943678 -1.0445478495286762
4822000000.0 -0.007404730701364881 -1.0756763479504912
4825000000.0 0.0222803187705167 -1.0409209308830505
4828000000.0 -0.034655230323016234 -1.0174648611549162
4831000000.0 -0.088644593995347 -1.0593736080681273
4834000000.0 -0.04076749999144022 -0.9909774976676056
4838000000.0 -0.08885646465639553 -1.025757753061006
4841000000.0 -0.08792269269880905 -0.9832098746924233
4844000000.0 -0.04387785896670324 -1.0220804055975055
4847000000.0 -0.07293734091099544 -1.0070386445447483
4850000000.0 -0.10606540538966935 -1.040634836332302
4853000000.0 -0.09567320902173818 -1.0063706690112635
4856000000.0 -0.13824482062436613 -0.999265343875911
4859000000.0 -0.15488750051577535 -1.0721151858659432
4862000000.0 -0.09565792828487034 -1.0021006775283736
4866000000.0 -0.17277024850806785 -1.021849986057248
4869000000.0 -0.16587311826248735 -1.0237170251134748
4872000000.0 -0.20003051402293973 -1.0406139419164375
4875000000.0 -0.14723233929453372 -1.038258770343032
4878000000.0 -0.1825750844803501 -1.0193285702626642
4881000000.0 -0.23686790801170232 -1.0441093865548723
4884000000.0 -0.2111601419320486 -0.9996867525750659
4888000000.0 -0.17048399752610072 -1.020859025237755
4891000000.0 -0.2145575955683807 -1.0157485704599465
4894000000.0 -0.2588828638563515 -0.9665236326584286
4897000000.0 -0.21371076355072613 -0.9939381238307785
4900000000.0 -0.23077079424785507 -1.029541195224199
4903000000.0 -0.21543457920030554 -1.02407414256844
4906000000.0 -0.2617824568456776 -1.0577017326027829
4909000000.0 -0.25938443322465615 -1.0179011720108957
4912000000.0 -0.30036569644868466 -1.0215526386140443
4916000000.0 -0.31162232156026853 -1.0537821260936333
4919000000.0 -0.29090109372123374 -1.045388157552629
4922000000.0 -0.30565812052328367 -0.9796717466872379
4925000000.0 -0.3485882181952328 -0.9721406500429158
4928000000.0 -0.25282037288829323 -1.0025461245640452
4931000000.0 -0.3416849833170357 -1.0301413699847812
4934000000.0 -0.30358177314351203 -0.9561891385333154
4938000000.0 -0.36314769185450324 -0.9454439450851737
4941000000.0 -0.3529175237239899 -0.9375183853569481
4944000000.0 -0.3247206267107965 -0.8863912477593305
4947000000.0 -0.35495210486385353 -0.95759765973902
4950000000.0 -0.3452909606533635 -0.9205082510840419
4953000000.0 -0.3941046683127106 -0.9878981758940475
4956000000.0 -0.4031732867502746 -0.9234044794709632
4959000000.0 -0.43118344025538524 -0.8888596194463488
4962000000.0 -0.4231929206673052 -0.9364737926313182
4966000000.0 -0.41580535229365356 -0.948946763348158
4969000000.0 -0.4728863190736793 -0.9567915488912238
4972000000.0 -0.466318374096942 -0.9249879180561912
4975000000.0 -0.4250136424398415 -0.8936916993672066
4978000000.0 -0.4791354010626909 -0.9234727410929582
4981000000.0 -0.483229146730094 -0.9165360609423098
4984000000.0 -0.4697306565017131 -0.8943424622585366
4988000000.0 -0.4844208914420695 -0.9293366257754061
4991000000.0 -0.49039831573276843 -0.9613223131509162
4994000000.0 -0.4788558467232886 -0.9148124123601467
4997000000.0 -0.5197958645447702 -0.8666767925687718
5000000000.0 -0.5432276125985681 -0.9611170646930847
5003000000.0 -0.5639235467979142 -0.926596758513779
5006000000.0 -0.5468022100715271 -0.9116986695027071
5009000000.0 -0.5332909973043612 -0.8946722986026759
5012000000.0 -0.5774262538045662 -0.8783833020905265
5016000000.0 -0.5489882915936128 -0.909211060336798
5019000000.0 -0.5540133183533066 -0.8738283156630613
5022000000.0 -0.6092446611634235 -0.871362143928085
5025000000.0 -0.6177412823236752 -0.8872029240041593
5028000000.0 -0.6230031167089376 -0.8438886470238297
5031000000.0 -0.6356263788751279 -0.8362205312729833
5034000000.0 -0.6241296323774534 -0.8440208961266064
5038000000.0 -0.6311201767616953 -0.7926895984425539
5041000000.0 -0.5872154723928067 -0.8502086964338786
5044000000.0 -0.6058400191609895 -0.8438099148022394
5047000000.0 -0.6312236853253979 -0.8253144213236755
5050000000.0 -0.5854230747901285 -0.8334540414509086
5053000000.0 -0.7048474711899065 -0.8036290703307125
5056000000.0 -0.6208139235876201 -0.8062294520246327
5059000000.0 -0.6405192068583976 -0.8012597351660626
5062000000.0 -0.7089047502606974 -0.7967987895986208
5066000000.0 -0.6586381327089581 -0.8042412719175895
5069000000.0 -0.6790524807274387 -0.773933416910663
5072000000.0 -0.6696586980560636 -0.7630999222733714
5075000000.0 -0.6761015921733375 -0.7379910133771679
5078000000.0 -0.7403474833765697 -0.7203306646175323
5081000000.0 -0.7094300749136224 -0.7384395887057994
5084000000.0 -0.7455667814617652 -0.7355074561303754
5088000000.0 -0.7119220409964963 -0.7178186636629103
5091000000.0 -0.7609343389853711 -0.7393905650486889
5094000000.0 -0.7359595195003771 -0.7066169184500362
5097000000.0 -0.6794133440190223 -0.7874975233993053
5100000000.0 -0.7456626108761804 -0.7338872099106407
5103000000.0 -0.8213396030857314 -0.7053815088789066
5106000000.0 -0.8271469179137461 -0.7098133268577402
5109000000.0 -0.7735194571004594 -0.719753065419176
5112000000.0 -0.816502725952805 -0.6890454850474295
5116000000.0 -0.7543220441986674 -0.6762104649539973
5119000000.0 -0.834161515915298 -0.6289458015663036
5122000000.0 -0.8414285536117084 -0.6651651274061394
5125000000.0 -0.770869621901323 -0.662534040108981
5128000000.0 -0.8255235776623947 -0.6385765739105136
5131000000.0 -0.8236366644724996 -0.650428370915818
5134000000.0 -0.8200723704191702 -0.6431578807949578
5138000000.0 -0.7843020877252225 -0.6241178557903732
5141000000.0 -0.7867250401816004 -0.6697986876645787
5144000000.0 -0.8104783778837202 -0.5745359738217131
5147000000.0 -0.8775457556091447 -0.5895445494342207
5150000000.0 -0.8745532525161812 -0.5672893815731825
5153000000.0 -0.9130272782852555 -0.6283943460132573
5156000000.0 -0.8028021821626693 -0.5816470535861199
5159000000.0 -0.9223353952263399 -0.5867565076709537
5162000000.0 -0.9036838348588825 -0.5036643204302574
5166000000.0 -0.8741690437471423 -0.5692831852492013
5169000000.0 -0.88529108336424 -0.5775611893353714
5172000000.0 -0.857450054452638 -0.520869874260162
5175000000.0 -0.899775102013009 -0.5720434278836174
5178000000.0 -0.9216720128275748 -0.5095828009415421
5181000000.0 -0.952369868887981 -0.5199509302832735
5184000000.0 -0.8952515071104143 -0.4782499238940636
