! Created with skrf 1.8.0 (http://scikit-rf.org).
# Hz S RI R 50.0 
!freq ReS11 ImS11
4000000000.0 0.5820998610743653 0.8093795460019544
4003000000.0 0.6734321372401978 0.8383121970090084
4006000000.0 0.6474665638892807 0.7526152232334162
4009000000.0 0.6756151420770325 0.814524946966349
4012000000.0 0.6263819760459003 0.8198908022542242
4016000000.0 0.7377601250702018 0.7624993947052765
4019000000.0 0.6588937364629135 0.7664673031817997
4022000000.0 0.6205271051027996 0.8146125668380962
4025000000.0 0.7324728918243371 0.7700744011400119
4028000000.0 0.7162153249711763 0.7737609554373006
4031000000.0 0.6525290827892798 0.6941185179207318
4034000000.0 0.7203867996184372 0.7411501910321006
4038000000.0 0.7554254219212867 0.7212188579267268
4041000000.0 0.7314369836697822 0.7382076050261606
4044000000.0 0.7507286474205566 0.7757428133112148
4047000000.0 0.7754822223445499 0.7403842515797029
4050000000.0 0.7816813783562377 0.7182517349243772
4053000000.0 0.7484430109639117 0.6893994170744768
4056000000.0 0.7289389610895238 0.7091281588953794
4059000000.0 0.7241687862036668 0.7173739962615879
4062000000.0 0.7615217220541842 0.6628308893227752
4066000000.0 0.720054484984745 0.6656588688930044
4069000000.0 0.8027528339072946 0.6685845031961366
4072000000.0 0.7261789977149516 0.7219792394953466
4075000000.0 0.7655466178160101 0.71219691699893
4078000000.0 0.808674987770305 0.637142235585676
4081000000.0 0.7499149361783652 0.7493639895762025
4084000000.0 0.7981818823782276 0.640587310916316
4088000000.0 0.7668069128025057 0.6671355846760479
4091000000.0 0.8401180874413803 0.6529812531933068
4094000000.0 0.7843097874420959 0.6166888684950911
4097000000.0 0.7829895639405782 0.6476244955981347
4100000000.0 0.8585026962988068 0.6186030345987579
4103000000.0 0.8469201810861595 0.6452771498066627
4106000000.0 0.8372881979456774 0.6015365890217356
4109000000.0 0.8724645667176381 0.589303757632037
4112000000.0 0.8416514127765078 0.5855709775734748
4116000000.0 0.8529005121669021 0.6246316901151477
4119000000.0 0.8727168646003259 0.5741543265543289
4122000000.0 0.8840379730999322 0.5724311674782936
4125000000.0 0.852275024031288 0.5426063609547145
4128000000.0 0.845791760885852 0.5753318044268049
4131000000.0 0.8673300946027555 0.546068160987306
4134000000.0 0.8821315585390376 0.5368161815875253
4138000000.0 0.8696838573948895 0.5180300646529417
4141000000.0 0.8798101185137364 0.5200748971406419
4144000000.0 0.8864351931966664 0.5385181805351114
4147000000.0 0.930863091647221 0.5116923233665662
4150000000.0 0.9178790512236199 0.5215875020488205
4153000000.0 0.8970527848464992 0.4773464550583514
4156000000.0 0.9000861301322434 0.4928453663738078
4159000000.0 0.8934109640186905 0.492588726521133
4162000000.0 0.8762689395636372 0.4729392737301221
4166000000.0 0.9052290608355771 0.4765478819098623
4169000000.0 0.9213761589089896 0.4500335992844603
4172000000.0 0.933376266937964 0.43235067942900945
4175000000.0 0.9125571359620893 0.4551139630784216
4178000000.0 0.9441726016753395 0.4272025709216196
4181000000.0 0.9528595957324788 0.4067664208034969
4184000000.0 0.9399290627024584 0.45256329315273297
4188000000.0 0.9451926478624795 0.4275175860229663
4191000000.0 0.9225544626172153 0.4275947034349345
4194000000.0 0.9335201850145939 0.389670766531679
4197000000.0 0.9390208534299792 0.4176651331851922
4200000000.0 0.945112079050547 0.38829932535226097
4203000000.0 0.9599986738470538 0.38191245123590023
4206000000.0 0.9634598698351975 0.38818752553046815
4209000000.0 0.9441015496363361 0.3723863100764441
4212000000.0 0.9696825024174395 0.3394853311221918
4216000000.0 0.9656524063402169 0.353279487290648
4219000000.0 0.967732340364733 0.3532560697121656
4222000000.0 0.9921990240798122 0.32679628694635304
4225000000.0 0.9585790306381345 0.31578169649454146
4228000000.0 0.9910293960314922 0.3222961492634465
4231000000.0 0.9683471962239056 0.29661880258005324
4234000000.0 0.9815956949713758 0.30264730393900835
4238000000.0 0.9881091713309235 0.2764227854870317
4241000000.0 0.9717091150683852 0.2766116055492306
4244000000.0 0.9856241849181024 0.2677246889961886
4247000000.0 0.9607973580068795 0.2821503220455245
4250000000.0 0.9677654684407497 0.24774595353624884
4253000000.0 0.9810187678148701 0.23814486072247343
4256000000.0 1.0106148432750357 0.24083347980994424
4259000000.0 0.9532439457898393 0.22581865035173562
4262000000.0 0.9933270481593781 0.20491043918603594
4266000000.0 1.0026779102895256 0.19411403336588534
4269000000.0 0.9912056732718598 0.20117303146850649
4272000000.0 1.00189553571429 0.2161774109997594
4275000000.0 1.0142663534932002 0.17609607711640224
4278000000.0 1.0214216176157676 0.16931931941596956
4281000000.0 1.0249051439449866 0.18294397537691554
4284000000.0 1.020424299155437 0.1413489095672462
4288000000.0 1.0149041195594066 0.18632668847924375
4291000000.0 0.9923368830263364 0.15852003198537734
4294000000.0 0.9829685468773924 0.12923798493268107
4297000000.0 0.9875034392268925 0.1518122233423707
4300000000.0 0.9766527417794186 0.14519259771310936
4303000000.0 1.0186656997559402 0.11672854809717552
4306000000.0 1.023871033162147 0.12269427350222303
4309000000.0 1.007086822921868 0.10872927758074812
4312000000.0 1.0392356528246411 0.12711376480964925
4316000000.0 1.0031669415751026 0.09798208874036517
4319000000.0 0.9869023353997324 0.09121274315621235
4322000000.0 0.9951222077350345 0.046170956009556965
4325000000.0 1.0076942798173543 0.07037621201087822
4328000000.0 0.9945199598861351 0.03337833618486184
4331000000.0 1.0092291063057195 0.009339087083098913
4334000000.0 1.0119376666268278 0.02456002840248256
4338000000.0 1.0050621913693747 0.05761218661899663
4341000000.0 1.0503894582068458 0.05927388547442003
4344000000.0 1.0349055414135937 0.01631190831442325
4347000000.0 1.0541944730995443 -0.017208021991166556
4350000000.0 0.9815046938791775 -0.017481523565599483
4353000000.0 1.0100364096563212 0.017654887554070714
4356000000.0 0.9988115433730874 -0.0504198821831843
4359000000.0 0.9732540392378995 -0.04566495294387836
4362000000.0 1.0157300676483783 -0.10518316439745001
4366000000.0 1.0295006411550656 -0.05918311673588719
4369000000.0 0.9765172691897328 -0.0629022145899909
4372000000.0 0.9922811116524191 -0.10648284766040375
4375000000.0 1.0063012532699613 -0.06629724006892432
4378000000.0 0.975566241996104 -0.08780467647521695
4381000000.0 1.0002801757845372 -0.07557408431796822
4384000000.0 1.0650709218793164 -0.13020451851480946
4388000000.0 0.9799262121725899 -0.10630139155659409
4391000000.0 1.0243945505637753 -0.1359053321974345
4394000000.0 0.991566911346134 -0.14936254561964213
4397000000.0 0.9933809705749101 -0.14191124029337387
4400000000.0 1.0277758287952206 -0.16179421804570265
4403000000.0 1.0097251573999961 -0.14638593744305903
4406000000.0 0.9921640397132525 -0.1926726055343725
4409000000.0 1.0247808311981694 -0.19012625502505565
4412000000.0 0.9583739377834417 -0.23511057476149963
4416000000.0 0.977019369249333 -0.19316949961289848
4419000000.0 0.9846513384358997 -0.2334396753047377
4422000000.0 0.9794898061636381 -0.20630390096753246
4425000000.0 1.0112944029002509 -0.21543684151881592
4428000000.0 0.9898355788166938 -0.23861565772852758
4431000000.0 1.0084217226036163 -0.23320209946257117
4434000000.0 0.9606871111693011 -0.2693782458601776
4438000000.0 1.008906838369977 -0.2544689070679111
4441000000.0 0.999828712143964 -0.271400798216132
4444000000.0 0.9487520053356049 -0.26974294810149435
4447000000.0 0.9646691686541937 -0.2834106057224459
4450000000.0 0.9599216840224633 -0.26090980843784395
4453000000.0 0.9935621390337863 -0.2941433410294814
4456000000.0 0.9341923475868545 -0.31872677516944425
4459000000.0 0.9144685227087694 -0.3149276012659269
4462000000.0 1.0187057058669258 -0.34522132603732714
4466000000.0 0.9756778559149651 -0.3594036554136325
4469000000.0 0.9708035801278228 -0.32461824191918276
4472000000.0 0.9535992114632159 -0.3861974530298009
4475000000.0 0.9247592014122881 -0.3574803701909404
4478000000.0 0.9770489063718862 -0.3987552362530352
4481000000.0 0.9083289766871521 -0.378339516611896
4484000000.0 0.9006129489155525 -0.4305177479791744
4488000000.0 0.9075247714366007 -0.38197398806942523
4491000000.0 0.9275050949688441 -0.41082954990912307
4494000000.0 0.931404316579411 -0.3866386305249577
4497000000.0 0.9168255112845771 -0.4024265353156185
4500000000.0 0.9084301642751582 -0.4282119128947136
4503000000.0 0.9500653136297901 -0.4228422107039583
4506000000.0 0.9067965802657696 -0.4379281771718982
4509000000.0 0.8760601924653677 -0.41886066790843934
4512000000.0 0.8811873370229297 -0.4558142840600313
4516000000.0 0.9092840710721332 -0.45967857244582183
4519000000.0 0.8810504906067566 -0.44153835119571444
4522000000.0 0.8829901036521208 -0.4845049175021079
4525000000.0 0.907574803547069 -0.4408850623939014
4528000000.0 0.9025643751114074 -0.49698611174166296
4531000000.0 0.8784933077614312 -0.49344056437704265
4534000000.0 0.8510298123841932 -0.502603907439987
4538000000.0 0.8777053570546336 -0.5414364550896136
4541000000.0 0.8369902751678244 -0.5505407211654562
4544000000.0 0.8442838280335812 -0.5118869312425697
4547000000.0 0.8464380948927477 -0.5118647769160689
4550000000.0 0.8314914846890107 -0.5736457556825754
4553000000.0 0.8449609536842464 -0.5461364427968851
4556000000.0 0.819191868495331 -0.5713339978745822
4559000000.0 0.8193617892113361 -0.586126836830311
4562000000.0 0.8306732066697657 -0.6018563257484171
4566000000.0 0.8327289785377312 -0.6047519821126139
4569000000.0 0.8124160621184943 -0.5763893418613151
4572000000.0 0.812985507662877 -0.585438031655832
4575000000.0 0.7992471595127082 -0.6279820568977277
4578000000.0 0.8139096352807291 -0.6378588325678265
4581000000.0 0.7862509467562252 -0.6359625434232965
4584000000.0 0.7737625048996787 -0.6174766547256642
4588000000.0 0.7886786946826277 -0.6528485268934127
4591000000.0 0.7955475173887392 -0.6258416269095227
4594000000.0 0.7575960602186649 -0.6495758400643102
4597000000.0 0.7799313249492168 -0.6615002056322142
4600000000.0 0.7235001459416734 -0.6813852381043691
4603000000.0 0.750550449362027 -0.6847387445442324
4606000000.0 0.7687047303077662 -0.689198781997798
4609000000.0 0.747571150655252 -0.6969962493605169
4612000000.0 0.7435560277497815 -0.7109426019377142
4616000000.0 0.7251641210461572 -0.6952176410396131
4619000000.0 0.717658816586416 -0.684204534079793
4622000000.0 0.7172380719427934 -0.6980819660773342
4625000000.0 0.6751606104388255 -0.7049007690429833
4628000000.0 0.7063376705482945 -0.7103689708164441
4631000000.0 0.6887696169979414 -0.7333054532112777
4634000000.0 0.687147322743126 -0.7344564467330148
4638000000.0 0.7035575862956428 -0.745618585387724
4641000000.0 0.6767579499139028 -0.7297183351661374
4644000000.0 0.6807077383005211 -0.75228460580748
4647000000.0 0.6668424568578437 -0.7682588274828053
4650000000.0 0.6400556509040607 -0.7624757927699598
4653000000.0 0.6636857385656277 -0.7701147932525599
4656000000.0 0.6515858325291848 -0.7809574556019432
4659000000.0 0.625416366887027 -0.7696077860782733
4662000000.0 0.6436076553041767 -0.791061405853981
4666000000.0 0.6234560259720897 -0.7863220633705018
4669000000.0 0.6152370774286589 -0.7973512008985056
4672000000.0 0.6051479181892301 -0.8300666071994246
4675000000.0 0.5953694952143989 -0.8382781508455361
4678000000.0 0.6030949807666711 -0.792218959009207
4681000000.0 0.5770067237330724 -0.8484873063009832
4684000000.0 0.5512608559300773 -0.8274441467421615
4688000000.0 0.566871642108344 -0.85649845709237
4691000000.0 0.5837142123516954 -0.837495725829575
4694000000.0 0.5757773704132608 -0.8207297326919398
4697000000.0 0.5307850575059818 -0.826105521089507
4700000000.0 0.5811057685999845 -0.8280002187550581
4703000000.0 0.5573478993319494 -0.8236450067558034
4706000000.0 0.5320018664896704 -0.8843617877796952
4709000000.0 0.5221673726291176 -0.8551259871033974
4712000000.0 0.5399926208969982 -0.8846615619869177
4716000000.0 0.5112494869427614 -0.8886395129447757
4719000000.0 0.5164382880592399 -0.8781666029658914
4722000000.0 0.5252931452511596 -0.8497899416558914
4725000000.0 0.4593829377150925 -0.8843457305285223
4728000000.0 0.4657040751304376 -0.8966567675855552
4731000000.0 0.5024018510573249 -0.9237736336151334
4734000000.0 0.4868713736213968 -0.8896328270146286
4738000000.0 0.5137272886307627 -0.9210796904805213
4741000000.0 0.4544499601784381 -0.927680704222498
4744000000.0 0.43118173025572826 -0.9185055739483773
4747000000.0 0.4533783624121879 -0.8719487661885622
4750000000.0 0.4432118720449376 -0.9360906868718651
4753000000.0 0.4435891417031035 -0.9267409427661253
4756000000.0 0.4137239947920585 -0.9576767510423978
4759000000.0 0.44221096718997843 -0.919369789212071
4762000000.0 0.36945823339334544 -0.9768201999885369
4766000000.0 0.40679635095054556 -0.9525535848617301
4769000000.0 0.3958162035606504 -0.9638352390991288
4772000000.0 0.384270737547836 -0.9526004265831568
4775000000.0 0.3377305324090265 -0.986476226401956
4778000000.0 0.3817282234074892 -0.9463638219479323
4781000000.0 0.3719537948066395 -0.9385486621050729
4784000000.0 0.3680674891295499 -0.9556775575853332
4788000000.0 0.3200399667430118 -0.9601740028277943
4791000000.0 0.31076642434681484 -0.9573667784625476
4794000000.0 0.3610158516059962 -0.9846369365352223
4797000000.0 0.2906135611312084 -0.9471774945775518
4800000000.0 0.26443679957807176 -0.9750429444009092
4803000000.0 0.24641042135572674 -0.9882836178111787
4806000000.0 0.27916524449203983 -0.9946561261568663
4809000000.0 0.2349816230342468 -0.9890147079863701
4812000000.0 0.2148870853598806 -0.9833131867900133
4816000000.0 0.2868818807144315 -0.9503173760466759
4819000000.0 0.2744383054497497 -1.0213100365644543
4822000000.0 0.2592532171866118 -1.0149531928973052
4825000000.0 0.2612822888208056 -1.0238363834929944
4828000000.0 0.22490740520643773 -1.0060235279094258
4831000000.0 0.16524296470836877 -1.0206566638936825
4834000000.0 0.23042595142366973 -1.0144740270651398
4838000000.0 0.19931941264537625 -1.0332895061281784
4841000000.0 0.185323443306325 -0.9997240632738363
4844000000.0 0.23642712153837764 -1.0078135493882294
4847000000.0 0.18027275728490777 -0.9968768824041019
4850000000.0 0.1486190729740132 -1.0356738634404088
4853000000.0 0.16442943597442367 -0.9878669724035649
4856000000.0 0.16275819501622174 -1.0178681369143028
4859000000.0 0.14347173181943554 -1.072282761295864
4862000000.0 0.15788944462517598 -0.9857109119486934
4866000000.0 0.0939420332928263 -1.054354237662708
4869000000.0 0.12158018390715482 -1.0219982947824653
4872000000.0 0.0807640643733994 -1.0408220681079159
4875000000.0 0.15157050832616964 -1.0554488176968404
4878000000.0 0.09037395014933625 -1.0216083414591834
4881000000.0 0.06849947486328549 -1.0916753362755005
4884000000.0 0.08940246739346185 -1.0264276909827252
4888000000.0 0.10553693509079712 -1.0194821302906623
4891000000.0 0.09800145488013781 -1.0598731441654379
4894000000.0 0.04096124186491991 -1.0317175614983858
4897000000.0 0.09222395057536723 -1.0118630172235383
4900000000.0 0.041580249380612805 -1.0589103144635004
4903000000.0 0.0425949960145188 -1.0533876876670614
4906000000.0 0.0024176297985127933 -1.0613430715739314
4909000000.0 0.028190508733136492 -1.029557484949471
4912000000.0 -0.0300483813578048 -1.0531743499627548
4916000000.0 0.004009229724009883 -1.044866080037606
4919000000.0 0.02089609358925741 -1.027977977532628
4922000000.0 -0.00346283133334796 -1.0393909645492314
4925000000.0 -0.08124978851389605 -1.0275328729068745
4928000000.0 0.037121264098651664 -1.0486424699639427
4931000000.0 -0.04297437365664376 -1.0369651335351329
4934000000.0 -0.03959430273904277 -1.0330155964691174
4938000000.0 -0.07285478803722113 -0.9756249887609091
4941000000.0 -0.0712273476512476 -1.0357110878189861
4944000000.0 -0.046431107309367864 -0.97982958781752
4947000000.0 -0.08200354681846694 -1.0489787941082243
4950000000.0 -0.11117898221904203 -1.0156616619338346
4953000000.0 -0.11355361031511288 -1.0687186908169817
4956000000.0 -0.12685987950975297 -1.0389723127124426
4959000000.0 -0.1419866249506235 -0.9871226689438173
4962000000.0 -0.12869992156043483 -1.0111333111566538
4966000000.0 -0.12655941555627992 -1.0340419978885684
4969000000.0 -0.1287203513023819 -1.0633989837459927
4972000000.0 -0.1953112532320341 -1.0359582887407424
4975000000.0 -0.13208728755728735 -0.9954831976546475
4978000000.0 -0.19590004634800706 -1.0190772852763286
4981000000.0 -0.21076156826746353 -1.0174934154467918
4984000000.0 -0.17262814704485305 -1.0144335561022608
4988000000.0 -0.19008763963983777 -1.0164645387543372
4991000000.0 -0.1746123069057519 -1.0436994803966382
4994000000.0 -0.16656034510344658 -1.0069506752549777
4997000000.0 -0.24952987702915086 -1.0240922084157178
5000000000.0 -0.23003481684826604 -1.0373133138615125
5003000000.0 -0.19939822703050808 -1.0641130013695022
5006000000.0 -0.2278743112415719 -1.0646973712401995
5009000000.0 -0.25026345903639036 -1.0128123290313562
5012000000.0 -0.2817506819356947 -0.9915277164282947
5016000000.0 -0.22222263441157558 -1.0109117640577552
5019000000.0 -0.28361473820628014 -0.9491644061377227
5022000000.0 -0.2941248751631691 -1.044551262019258
5025000000.0 -0.320620263329401 -1.0714953181508782
5028000000.0 -0.3283787030628341 -1.0104391246677216
5031000000.0 -0.3509147480966912 -0.9716701190412086
5034000000.0 -0.3362199194331872 -1.013641957610109
5038000000.0 -0.3598642662915563 -0.9556022276542719
5041000000.0 -0.28979717380575276 -1.005970739448665
5044000000.0 -0.3059109641323231 -0.9719479901916191
5047000000.0 -0.31498686649651625 -1.0008340376398435
5050000000.0 -0.2576324517426044 -0.9839505561103121
5053000000.0 -0.3590186071077498 -1.0127345192937904
5056000000.0 -0.30632049745409684 -0.996828007809369
5059000000.0 -0.3582135653378155 -1.0205119792567863
5062000000.0 -0.42949807138990037 -0.96248075561716
5066000000.0 -0.33963015946834196 -0.9929658230376894
5069000000.0 -0.38196316701604294 -0.9554334458665475
5072000000.0 -0.37741658368702663 -0.9229552647119958
5075000000.0 -0.40728048296487407 -0.8951493810111848
5078000000.0 -0.47378920312802214 -0.9431464491209414
5081000000.0 -0.4089422228036113 -0.8943197727551978
5084000000.0 -0.43079310384816905 -0.9933218491235745
5088000000.0 -0.43558404170349274 -0.9193207009261206
5091000000.0 -0.47126078485884954 -0.9194496336823266
5094000000.0 -0.4644896903229679 -0.9289590139766245
5097000000.0 -0.4035998780643625 -0.9313704796756381
5100000000.0 -0.4240360989701331 -0.9331508586096476
5103000000.0 -0.5041277310314631 -0.9409877345107301
5106000000.0 -0.47548488299167097 -0.9914375329351308
5109000000.0 -0.4219384568822681 -0.9363906693180317
5112000000.0 -0.4688805881575357 -0.8796006817749933
5116000000.0 -0.46268006063816874 -0.916499281469743
5119000000.0 -0.5614966680788925 -0.9236582653192968
5122000000.0 -0.5211149782560199 -0.9011353877318471
5125000000.0 -0.4439929768757513 -0.8828265728579231
5128000000.0 -0.5466433490081604 -0.8848304330647059
5131000000.0 -0.5375740328644527 -0.861843083016119
5134000000.0 -0.5265426676430851 -0.8854108178959907
5138000000.0 -0.5259107899719863 -0.878599029488694
5141000000.0 -0.5068954107589605 -0.9169114538070011
5144000000.0 -0.5620832618428544 -0.8597234924569015
5147000000.0 -0.5558052206661903 -0.8832303520010709
5150000000.0 -0.5223619026107881 -0.8583454277901001
5153000000.0 -0.5985697685846223 -0.8909141852791236
5156000000.0 -0.5769569629084181 -0.8940457611469573
5159000000.0 -0.6207988724968864 -0.9061042090088149
5162000000.0 -0.6028820370973873 -0.8465966483988119
5166000000.0 -0.6295234940940612 -0.845314229420092
5169000000.0 -0.6404775687982465 -0.8275607823735244
5172000000.0 -0.6085027961146132 -0.8103567564869928
5175000000.0 -0.6115448690642418 -0.8634539403957281
5178000000.0 -0.6318488040583476 -0.8284696916023893
5181000000.0 -0.6111297269797273 -0.8485300812060959
5184000000.0 -0.6361291592998155 -0.8084739129282404
5188000000.0 -0.6504685431680826 -0.8062360819252442
