! Created with skrf 1.8.0 (http://scikit-rf.org).
# Hz S RI R 50.0 
!freq ReS11 ImS11
4000000000.0 0.6068866335713096 0.8313032280572894
4003000000.0 0.6894707360880702 0.8390983605239456
4006000000.0 0.7043762996916092 0.8058290609282966
4009000000.0 0.6676703871764834 0.7801865426418958
4012000000.0 0.6395812313599628 0.8843803179960238
4016000000.0 0.7105608479996001 0.7593605640922001
4019000000.0 0.6955328328317099 0.7689198843382073
4022000000.0 0.6324704977897434 0.8458961734129208
4025000000.0 0.7584897640140282 0.7553750785183564
4028000000.0 0.7246976034036988 0.7878787043546422
4031000000.0 0.6899758096122496 0.7257038883370325
4034000000.0 0.6839473170923778 0.7525186356924342
4038000000.0 0.7738284591716897 0.6959732631267226
4041000000.0 0.7478906795311417 0.7476350711484847
4044000000.0 0.7246404684272038 0.7942245936632534
4047000000.0 0.738704388862863 0.7620967665561701
4050000000.0 0.7540287925512537 0.7659497484301679
4053000000.0 0.7540471309887502 0.6660382775072218
4056000000.0 0.7677070445009199 0.720283173648245
4059000000.0 0.7459036913878127 0.7174746048232481
4062000000.0 0.7761298151052558 0.6652061859167819
4066000000.0 0.723274833333434 0.6109772644252204
4069000000.0 0.8590649922587286 0.6862159940002748
4072000000.0 0.7671512714123573 0.7123750202622186
4075000000.0 0.770394474625253 0.7335027985692939
4078000000.0 0.8024291614506114 0.6765510589817415
4081000000.0 0.7851024848228481 0.7274075396588479
4084000000.0 0.8380809735352376 0.6789396260977676
4088000000.0 0.7782168301064535 0.6716068761087621
4091000000.0 0.8771747518633004 0.6933850904173302
4094000000.0 0.8113957950665475 0.6617021648398045
4097000000.0 0.8339849513802038 0.6318053160270716
4100000000.0 0.8158461011241827 0.6007210018611002
4103000000.0 0.8262310075297858 0.6364934195902854
4106000000.0 0.8719895623413132 0.6411368533069033
4109000000.0 0.8142540210030194 0.5921554266432565
4112000000.0 0.8792485486930111 0.6080687349817422
4116000000.0 0.8730565480147042 0.61879357350959
4119000000.0 0.8842571810465437 0.5747032390546605
4122000000.0 0.8665976237651317 0.5605576397478829
4125000000.0 0.9047814015089087 0.5685204512000708
4128000000.0 0.8497929668389645 0.5654004925165179
4131000000.0 0.8798279789102641 0.5388489460338974
4134000000.0 0.8453298420967134 0.5737034135907659
4138000000.0 0.8627110228038488 0.5386549323781291
4141000000.0 0.8372555179388083 0.5055959118480162
4144000000.0 0.8979814557494208 0.5468910890480432
4147000000.0 0.9077977692656385 0.5019980580071737
4150000000.0 0.9396690692256194 0.5063844711395329
4153000000.0 0.9139782029685144 0.5001624822194993
4156000000.0 0.9354322635783008 0.5255454728788332
4159000000.0 0.9070361122299504 0.5297856651612243
4162000000.0 0.9042075671950085 0.4944119945721247
4166000000.0 0.9376728775824201 0.44816624251116743
4169000000.0 0.9317473954716332 0.43841026020922613
4172000000.0 0.9318970983164951 0.4956477503806053
4175000000.0 0.942815253005245 0.45677175252871777
4178000000.0 0.9418624442163923 0.461460515573482
4181000000.0 0.9487716679477276 0.42810387281192597
4184000000.0 0.9588320317179337 0.4344648094025209
4188000000.0 0.9473472361797943 0.4035130818452931
4191000000.0 0.947574395979666 0.4040809594742328
4194000000.0 0.9329260760120741 0.3919004863821647
4197000000.0 0.9340495930751522 0.3950676677617743
4200000000.0 0.9723643902622106 0.3914814043903403
4203000000.0 0.9464244355048241 0.4224796838278939
4206000000.0 0.9764087449333926 0.37199418159648984
4209000000.0 0.9473531285911329 0.36637441923624897
4212000000.0 0.9829623338883625 0.34154010086416
4216000000.0 0.9609367098586847 0.3589119413985576
4219000000.0 0.9807257752278348 0.3433347718406964
4222000000.0 0.9871071062537595 0.33003212342003857
4225000000.0 0.963677537774817 0.3183429680721457
4228000000.0 0.9956767346584732 0.3136549472569521
4231000000.0 0.9840437732095967 0.3149610161093902
4234000000.0 1.0018595508113164 0.3095794086969276
4238000000.0 0.9817361683704742 0.2746271400011532
4241000000.0 0.9782900788910847 0.2672415751848661
4244000000.0 0.9828158216398698 0.28388391009834085
4247000000.0 0.9812649124438393 0.2562663382792335
4250000000.0 0.9729574400657914 0.2431220489841724
4253000000.0 0.9740434937171567 0.2347554795328482
4256000000.0 0.9943279299067835 0.2444017558966402
4259000000.0 0.9609896092746818 0.19405529285419257
4262000000.0 1.009041571655711 0.1915110070869108
4266000000.0 1.0237885383124465 0.19381013445657325
4269000000.0 1.0113628573527498 0.22515909770031586
4272000000.0 1.0064327874563306 0.18378972850534764
4275000000.0 1.02714924343432 0.20065357048039234
4278000000.0 1.011644921386703 0.18842306932804703
4281000000.0 0.9893693349307566 0.17092743825953932
4284000000.0 1.0434969347086998 0.12439395353901775
4288000000.0 0.9959432292551976 0.18013347263356883
4291000000.0 0.9848343903254128 0.12442619425721628
4294000000.0 1.0141722160010012 0.15577242641715766
4297000000.0 0.9598146666924828 0.1500599802399903
4300000000.0 0.9938071615141775 0.11668859739295248
4303000000.0 0.9873102407296624 0.1151811949242381
4306000000.0 1.0074466359178413 0.16329944083840733
4309000000.0 0.9906677623926159 0.09501853416796276
4312000000.0 1.0148113778753254 0.1227425320447319
4316000000.0 1.0463422883651528 0.0778084344973116
4319000000.0 1.0054816731330676 0.07713684041894854
4322000000.0 1.0197469790270821 0.04282726469088276
4325000000.0 1.0343486502253374 0.04476831975405786
4328000000.0 1.0164637537521375 0.05220223628894598
4331000000.0 1.0313371859230738 0.023255784315904804
4334000000.0 1.0350177126932945 0.025511791823358082
4338000000.0 1.0020829550036465 0.043504228209119214
4341000000.0 1.0394792683461254 0.05087037832484781
4344000000.0 1.0324065345383315 0.006278810856279654
4347000000.0 1.0198988037915027 -0.051007714565667495
4350000000.0 0.9744914923159135 -0.006769567238121332
4353000000.0 0.9937747238559338 -0.027237672900183973
4356000000.0 1.0124583136875922 -0.07584300079646289
4359000000.0 0.973136259272676 -0.044098728085535444
4362000000.0 1.0339522072823397 -0.09563525273320543
4366000000.0 1.0469036073083067 -0.07523784811171295
4369000000.0 0.9789383718744672 -0.0767062904514222
4372000000.0 0.9865842569980259 -0.10786927092842821
4375000000.0 0.9995843257687844 -0.06427418980937005
4378000000.0 0.9958027659150219 -0.0828530199984484
4381000000.0 0.9780851805163844 -0.09336485772616461
4384000000.0 1.0832630689483063 -0.13458498270807567
4388000000.0 0.9823434423281894 -0.11956726820293347
4391000000.0 1.0248421091572646 -0.13908495444022112
4394000000.0 0.9778956515294581 -0.14316951618960766
4397000000.0 1.0010119391613674 -0.15962973764772084
4400000000.0 1.0151198492666487 -0.1834555687662472
4403000000.0 1.0067137660994556 -0.154318618815511
4406000000.0 1.0010775018483256 -0.2152492325000565
4409000000.0 1.0401772503639963 -0.16750823404629436
4412000000.0 0.9798722537673957 -0.23971443219472527
4416000000.0 0.9897520417424222 -0.21359968115771416
4419000000.0 0.9973377153701858 -0.23029392578842137
4422000000.0 0.9786387237659022 -0.19627616864886177
4425000000.0 1.0153615798411044 -0.19691706532489273
4428000000.0 0.9924132687345135 -0.24740372000879537
4431000000.0 0.9992496098890182 -0.23552549982286053
4434000000.0 0.9765626410541071 -0.24816966282111275
4438000000.0 0.9887741650417972 -0.2648859189513966
4441000000.0 1.004222491929871 -0.26533974257165005
4444000000.0 0.9576474145487668 -0.26619734073246026
4447000000.0 0.9656021217529099 -0.29139470429790926
4450000000.0 0.9655843963348106 -0.2715622743204553
4453000000.0 0.9852168001728799 -0.3095739793404793
4456000000.0 0.9376092574467898 -0.3028328250079544
4459000000.0 0.9075165659968123 -0.3150209286946133
4462000000.0 1.0161563124276167 -0.3488100679297065
4466000000.0 0.9790787486869821 -0.3528732353895977
4469000000.0 0.9523773842568664 -0.31702481178591246
4472000000.0 0.9741463305217488 -0.38647666486421295
4475000000.0 0.9367565114718955 -0.3475433537586553
4478000000.0 0.9918874916951835 -0.40715139106848
4481000000.0 0.9008146469080469 -0.356008942374209
4484000000.0 0.9144375223858576 -0.4250355032171059
4488000000.0 0.9158938808603294 -0.3956016416596949
4491000000.0 0.927906321314026 -0.4146568934297511
4494000000.0 0.9228575259285628 -0.40196233635904827
4497000000.0 0.922796992981324 -0.411842762332049
4500000000.0 0.9089655414791906 -0.4114045615598541
4503000000.0 0.9350434877698581 -0.43732741835395494
4506000000.0 0.8988128311843848 -0.4436628531369992
4509000000.0 0.8932512873570293 -0.4384246277847029
4512000000.0 0.8654004312691258 -0.45402473073629246
4516000000.0 0.9092482953530923 -0.46809714788555606
4519000000.0 0.8879865487863 -0.4613367569547948
4522000000.0 0.8769509280176548 -0.4816671798983231
4525000000.0 0.8911052274305042 -0.4537713148971138
4528000000.0 0.9010645190673219 -0.514119681771446
4531000000.0 0.8818568127682834 -0.48841104409303426
4534000000.0 0.8789191852255321 -0.5157718132342364
4538000000.0 0.8693326226055591 -0.5283498243363792
4541000000.0 0.8491066643959392 -0.5595044094125633
4544000000.0 0.8485888010945044 -0.5303274385425388
4547000000.0 0.8432250553668476 -0.5149462383994257
4550000000.0 0.8362011985897848 -0.5798385439590802
4553000000.0 0.8385842920581774 -0.5735139555561622
4556000000.0 0.820828085374681 -0.5666062280637247
4559000000.0 0.8381348914666908 -0.6000856083466661
4562000000.0 0.8560777712519003 -0.5889045589725636
4566000000.0 0.8305454993090544 -0.5926542123865375
4569000000.0 0.8050976829617619 -0.5879147052647264
4572000000.0 0.81301413802263 -0.6028702932170775
4575000000.0 0.7954187499605867 -0.6471994775690292
4578000000.0 0.8382689238491021 -0.6268978948926852
4581000000.0 0.7799260308466109 -0.6641345903696809
4584000000.0 0.7900913387496337 -0.6174321882679902
4588000000.0 0.8066138232883953 -0.640275573561376
4591000000.0 0.7936655143203211 -0.6476928570719258
4594000000.0 0.7526133049531284 -0.6692967165720368
4597000000.0 0.7874417766408452 -0.6784117008444972
4600000000.0 0.7351889096094997 -0.6643864300279206
4603000000.0 0.7690928508807919 -0.6732726536084004
4606000000.0 0.7607176433016142 -0.6829571153901817
4609000000.0 0.7440414401826562 -0.6869294114214995
4612000000.0 0.7422101059545791 -0.6951280896386404
4616000000.0 0.7190387526116195 -0.6991863699711871
4619000000.0 0.7156194918373913 -0.6988789707196571
4622000000.0 0.7159735289564452 -0.7198592178396358
4625000000.0 0.6919675953399034 -0.7139238101402872
4628000000.0 0.7084645407299093 -0.7161403416309601
4631000000.0 0.6876204575600751 -0.7376557704397639
4634000000.0 0.6806445714239794 -0.7444271973220332
4638000000.0 0.6979835956607039 -0.7526770610780862
4641000000.0 0.6971328494411608 -0.7543684287571352
4644000000.0 0.6567010503584616 -0.7524862236056241
4647000000.0 0.6755604507432761 -0.7673597070671687
4650000000.0 0.6453703607373917 -0.766617007477093
4653000000.0 0.674654490204105 -0.7804997571257677
4656000000.0 0.637534693033158 -0.7843881010622773
4659000000.0 0.6330836957077709 -0.7932876023472285
4662000000.0 0.6400152402165453 -0.7980668546459598
4666000000.0 0.6046373814594304 -0.8065231533770455
4669000000.0 0.6361238752611624 -0.7993288045941315
4672000000.0 0.5998664382024951 -0.8267282799037963
4675000000.0 0.5925841671924225 -0.8192502691856154
4678000000.0 0.5749034301648088 -0.8133981557711271
4681000000.0 0.5836749789561511 -0.8469972920789417
4684000000.0 0.5664931942030688 -0.8371858023014739
4688000000.0 0.5692661253735578 -0.8327495340263147
4691000000.0 0.599466842337099 -0.852098278975588
4694000000.0 0.5566541459088477 -0.8467101796266132
4697000000.0 0.5201843617120037 -0.8528772988942732
4700000000.0 0.565379705919854 -0.8522474696524589
4703000000.0 0.5572261744457809 -0.820777306798582
4706000000.0 0.508683062858486 -0.8696546421760488
4709000000.0 0.5248344285416474 -0.8814438608625748
4712000000.0 0.5194195843586629 -0.8526626867678857
4716000000.0 0.505709670617539 -0.8829181902018917
4719000000.0 0.5620907627531853 -0.8676424662050921
4722000000.0 0.5276921305946736 -0.8842471143521904
4725000000.0 0.497977796101963 -0.8943526883376369
4728000000.0 0.47463386116772055 -0.8830407084805865
4731000000.0 0.49248126361437866 -0.926019429765816
4734000000.0 0.475059464105235 -0.8833690900283365
4738000000.0 0.5027381282488433 -0.9544551139139797
4741000000.0 0.480382364509797 -0.9435209139265317
4744000000.0 0.43672284718035015 -0.9393435681599049
4747000000.0 0.4195253571808359 -0.8596512433716976
4750000000.0 0.440121549885797 -0.9266468973899803
4753000000.0 0.4199283651653355 -0.9476158451304862
4756000000.0 0.43245616568248185 -0.954192196422297
4759000000.0 0.4080481665515316 -0.9534520115031176
4762000000.0 0.37939587527579954 -0.9752127387044865
4766000000.0 0.36338821837490587 -0.9650820767550582
4769000000.0 0.37369221040100675 -0.9670801277009587
4772000000.0 0.3771549774498996 -0.9675008180532131
4775000000.0 0.35364156490950305 -1.0012682583799493
4778000000.0 0.37294323992185296 -0.9968979835071178
4781000000.0 0.35373978177071547 -0.963739623144275
4784000000.0 0.3524038950578455 -0.9573899811364294
4788000000.0 0.319272556930618 -0.9772215789434233
4791000000.0 0.29658084411561964 -0.9737615226887651
4794000000.0 0.34683235905006377 -1.0097525651304367
4797000000.0 0.29129063079063344 -0.9727409563063213
4800000000.0 0.28842604368447183 -1.0106260351676661
4803000000.0 0.25871096777412295 -0.999927903644692
4806000000.0 0.263616708498267 -1.0025161878665043
4809000000.0 0.23639244978247093 -1.002997216760879
4812000000.0 0.23235810840851184 -0.98354972898107
4816000000.0 0.2775078318021258 -0.9781666743267623
4819000000.0 0.27694167429166683 -1.0337601233074067
4822000000.0 0.2578502600143184 -1.0461163769383006
4825000000.0 0.28429839690237146 -1.0227129153787597
4828000000.0 0.21857521292690554 -0.9937553553578945
4831000000.0 0.16752236761731465 -1.0301121835902176
4834000000.0 0.21465007477324693 -1.0048779116461173
4838000000.0 0.1841584365103171 -1.0300768663695468
4841000000.0 0.17622480758966186 -1.0010391818404285
4844000000.0 0.23471788926541648 -1.0086978672334055
4847000000.0 0.19811310375417862 -0.9852077180509737
4850000000.0 0.17272133197973993 -1.025241143489482
4853000000.0 0.16263078625005123 -0.9754805749162123
4856000000.0 0.14510905715153 -1.007822174546293
4859000000.0 0.11781712717136664 -1.0586602646041636
4862000000.0 0.146932774937632 -0.993769101958269
4866000000.0 0.09847120960072422 -1.048117245985599
4869000000.0 0.09757903082756417 -1.033037992739189
4872000000.0 0.06328039232178222 -1.0602484669836671
4875000000.0 0.1463418046696557 -1.0559855522197585
4878000000.0 0.08778204375946952 -1.0253683870128476
4881000000.0 0.059792675475434855 -1.0812008522611447
4884000000.0 0.12094580224699233 -1.043560251987844
4888000000.0 0.07689590270060206 -1.04624015723051
4891000000.0 0.08848430222551862 -1.0467054814135335
4894000000.0 0.025210838386820464 -1.0305344466789002
4897000000.0 0.06136571190423237 -1.0236820456585545
4900000000.0 0.047669197837508906 -1.0504357261529944
4903000000.0 0.05513067617131602 -1.051511465967682
4906000000.0 0.004280516596135896 -1.0639651001935082
4909000000.0 -0.01853464657919115 -1.0540217144173218
4912000000.0 -0.01558903916525732 -1.0607602544332513
4916000000.0 0.021758539642574064 -1.056426240565427
4919000000.0 0.019023118610235458 -1.0903799538973482
4922000000.0 0.016469739745142965 -1.0587909020001636
4925000000.0 -0.07300607894243809 -1.0312606645279923
4928000000.0 0.04840667077687223 -1.0336486594804897
4931000000.0 -0.055396080135334355 -1.0675904575136326
4934000000.0 -0.031222755188144477 -0.9847867623722851
4938000000.0 -0.10449756659609656 -1.0370698099869176
4941000000.0 -0.08525432343128138 -1.0323118483113012
4944000000.0 -0.08529292044985579 -0.9775925918691528
4947000000.0 -0.08545471424954171 -0.9837625790434625
4950000000.0 -0.1241460208018484 -1.018842744982883
4953000000.0 -0.13424214637731402 -1.1081571324778974
4956000000.0 -0.15039178641084383 -1.041244155965625
4959000000.0 -0.1725176485068773 -0.9864605287532913
4962000000.0 -0.15152310369190078 -1.0394694244627842
4966000000.0 -0.11836455234021354 -1.0780022603602475
4969000000.0 -0.13714526353584566 -1.0560334171740375
4972000000.0 -0.18301445475922476 -1.0321063355455795
4975000000.0 -0.1393099291875737 -1.0485204490202875
4978000000.0 -0.15589186605484479 -1.0302364831935604
4981000000.0 -0.18318558268083626 -1.0327918747480203
4984000000.0 -0.16462084981357064 -1.0003854535067591
4988000000.0 -0.1820994584522515 -1.0172064687316666
4991000000.0 -0.15099492623180122 -1.0649454907907387
4994000000.0 -0.19113569518366585 -1.0129105370844176
4997000000.0 -0.24554039351806672 -0.9822514690475334
5000000000.0 -0.21464418928100437 -1.032066020794811
5003000000.0 -0.2399157961331787 -1.0649216243956512
5006000000.0 -0.27964350653875436 -1.0764236987999138
5009000000.0 -0.2564801903203433 -1.0324558290743553
5012000000.0 -0.24555141739003106 -0.994804330089565
5016000000.0 -0.24877214868422898 -1.0450637597254835
5019000000.0 -0.2867046011806522 -1.0115244887634998
5022000000.0 -0.2932089260695614 -1.0340968486945725
5025000000.0 -0.3455998638990199 -1.0780786984181159
5028000000.0 -0.31940613369203774 -1.0121345419592473
5031000000.0 -0.31104587528868377 -1.0040121211313853
5034000000.0 -0.3564026186657907 -1.0251650299208195
5038000000.0 -0.33117793039390786 -0.955128548581889
5041000000.0 -0.2920073224534926 -1.0117358022444654
5044000000.0 -0.32000201196548184 -0.971839944853306
5047000000.0 -0.3385459482594378 -0.9542257671203561
5050000000.0 -0.2913967401439099 -0.9636864173978239
5053000000.0 -0.400486354163178 -0.9996970674465384
5056000000.0 -0.31800548119203254 -1.005836987289913
5059000000.0 -0.31856021871440016 -1.019970381109117
5062000000.0 -0.4278806374514815 -0.983871322211902
5066000000.0 -0.33847838390694807 -0.96326663275986
5069000000.0 -0.409762505420475 -0.9610884388739865
5072000000.0 -0.3873870799108534 -0.9506079476161517
5075000000.0 -0.35837264185516293 -0.9542859386555074
5078000000.0 -0.4535431892715211 -0.9256812131381698
5081000000.0 -0.44031694787257963 -0.9444569905482209
5084000000.0 -0.45631177306640647 -0.9413403838027803
5088000000.0 -0.3796689573436698 -0.9364848278573936
5091000000.0 -0.508538537477828 -0.9543461727751217
5094000000.0 -0.5019240097205449 -0.9288435422573161
5097000000.0 -0.4144063767869447 -0.9581721827214238
5100000000.0 -0.4613091349961485 -0.9138653721838624
5103000000.0 -0.4660871796774579 -0.927066436348822
5106000000.0 -0.45806436604228745 -1.0044953830152898
5109000000.0 -0.4520340280893895 -0.9522375386010071
5112000000.0 -0.4775968376461914 -0.9310350367473068
5116000000.0 -0.44062772790259586 -0.8497493300833059
5119000000.0 -0.5284097796475677 -0.9393094491066007
5122000000.0 -0.5320266502606921 -0.9034225096268831
5125000000.0 -0.5028358104827249 -0.8973329625138888
5128000000.0 -0.5083460371006848 -0.842655829150982
5131000000.0 -0.5416036924351773 -0.8637692657232515
5134000000.0 -0.5494007997712027 -0.891711587255587
5138000000.0 -0.5683648846598115 -0.9087977118743414
5141000000.0 -0.515460566120624 -0.902027458937388
5144000000.0 -0.5100657655184313 -0.9036279363038384
5147000000.0 -0.6198346648367695 -0.9082061908307932
5150000000.0 -0.590087684381682 -0.8872359516211615
5153000000.0 -0.5954001860790386 -0.8949624676261968
5156000000.0 -0.5937538202304973 -0.8609227505777283
5159000000.0 -0.6072266025407248 -0.8994512999418706
5162000000.0 -0.6180895590143988 -0.8303743982187864
5166000000.0 -0.6253743704740385 -0.8200619386500295
5169000000.0 -0.6274043603912184 -0.8623628889174161
5172000000.0 -0.6024149570665125 -0.8433043855447029
5175000000.0 -0.6239623846293753 -0.864251610964234
5178000000.0 -0.6255897532365009 -0.8500538196133806
5181000000.0 -0.6575782032867825 -0.8516255396681036
5184000000.0 -0.6788261585879701 -0.7977084632770347
5188000000.0 -0.6855968686393458 -0.822405708737903
5191000000.0 -0.6843545515104098 -0.8249613270781616
