! Created with skrf 1.8.0 (http://scikit-rf.org).
# Hz S RI R 50.0 
!freq ReS11 ImS11
4000000000.0 0.6392305926384954 0.7895307382493899
4003000000.0 0.7123003032428354 0.8445434324478637
4006000000.0 0.682645898573772 0.7987189596353663
4009000000.0 0.6430212107262464 0.8538841199211027
4012000000.0 0.6621146370322897 0.8611440079495177
4016000000.0 0.685585444312671 0.7650089887078235
4019000000.0 0.7309445828635943 0.7939387600078285
4022000000.0 0.6526255064687638 0.8821933166851946
4025000000.0 0.7580347089275534 0.7728986977513658
4028000000.0 0.6843285231517419 0.7675109699706391
4031000000.0 0.6793667324510105 0.7462843475447556
4034000000.0 0.7530653617751106 0.7620763564320028
4038000000.0 0.7573940872661538 0.7465301287596153
4041000000.0 0.7718833563241626 0.7668439967138306
4044000000.0 0.7943540445592921 0.8056351428483958
4047000000.0 0.7582080449466995 0.7739165363561843
4050000000.0 0.7747820866848116 0.7091104985992034
4053000000.0 0.7821216019795572 0.6954134696914078
4056000000.0 0.8056343704647768 0.7323338528222049
4059000000.0 0.7512429957041127 0.7264989930881574
4062000000.0 0.7699654096143235 0.6818765181936102
4066000000.0 0.7396301984761302 0.648483264696493
4069000000.0 0.8439713806334007 0.7005525925109749
4072000000.0 0.7589889342592779 0.727978184745931
4075000000.0 0.82592588649554 0.7457935527219071
4078000000.0 0.8178007718363092 0.6948055415262187
4081000000.0 0.8111563248506541 0.7578862503422721
4084000000.0 0.8342686263496648 0.6608118484380883
4088000000.0 0.7803441693586102 0.6646400007375826
4091000000.0 0.8618662425745734 0.6831978110959134
4094000000.0 0.8364073067764725 0.6166073389618251
4097000000.0 0.8278472166442075 0.6518478726590742
4100000000.0 0.8640412759088614 0.6429265360798333
4103000000.0 0.861430195591937 0.634764069846355
4106000000.0 0.8534705758423375 0.6218578756225798
4109000000.0 0.8709033201610501 0.599412198768372
4112000000.0 0.8762899241809949 0.6114713364090671
4116000000.0 0.8566639979061845 0.6270777267967346
4119000000.0 0.8997192824890661 0.5678471391748475
4122000000.0 0.9380435316976562 0.5623181675985676
4125000000.0 0.9116204325318065 0.5557563788083417
4128000000.0 0.8726594358389541 0.5727497845984767
4131000000.0 0.8590931177578756 0.5333995778539062
4134000000.0 0.8844356038953081 0.558235902240614
4138000000.0 0.9037091286536243 0.5330624691274903
4141000000.0 0.9106131427672288 0.5259762513776751
4144000000.0 0.919488522925789 0.5342030291129378
4147000000.0 0.911425889759728 0.5047876723980684
4150000000.0 0.956950068463457 0.517038529318752
4153000000.0 0.9468332786962418 0.5047792987666668
4156000000.0 0.9286667879132819 0.5517570881884872
4159000000.0 0.9316384334906538 0.48983420427384233
4162000000.0 0.906973546706664 0.4820465406157247
4166000000.0 0.9270272572394307 0.5022788012938876
4169000000.0 0.9248901375479732 0.43032388262002275
4172000000.0 0.9352138303386119 0.4980198722133327
4175000000.0 0.9568258837768465 0.45798776077388065
4178000000.0 0.968364083540353 0.4585192723084004
4181000000.0 0.9514382437468107 0.4278097100741215
4184000000.0 0.9510581626021348 0.38945572250151955
4188000000.0 0.9726244490929428 0.41737735634768136
4191000000.0 0.9334357858161035 0.4648211388691343
4194000000.0 0.9248809030295985 0.3791496730824718
4197000000.0 0.9764899396208532 0.3901533569191546
4200000000.0 0.9701248386634835 0.41121048426969575
4203000000.0 0.9487108655579751 0.4098078532793278
4206000000.0 0.9750793298669526 0.37232065843271306
4209000000.0 0.9426216287687085 0.3632657540662532
4212000000.0 0.9733835597562573 0.338544421352343
4216000000.0 0.9763318949450246 0.3479454156328549
4219000000.0 0.970633636561468 0.36018869113613894
4222000000.0 0.9759815463475809 0.3225168788960508
4225000000.0 0.972743857275127 0.33578077548337526
4228000000.0 1.0014155778863891 0.31681932794560197
4231000000.0 0.9838756848024824 0.3062358131956556
4234000000.0 0.9846026995976761 0.2989649154031403
4238000000.0 1.0037145754825711 0.26494962940903366
4241000000.0 0.9702529375540794 0.2689045842530722
4244000000.0 1.0066141857532387 0.2819431483910879
4247000000.0 1.0000471714065486 0.2658997580497624
4250000000.0 0.9836058845210132 0.2518463900860139
4253000000.0 0.9822114063042358 0.24708553609136485
4256000000.0 1.023320220553204 0.24099628181134475
4259000000.0 0.9639138436589577 0.20721037495050806
4262000000.0 1.0058765712628106 0.21313802757354164
4266000000.0 1.0303997630952055 0.1937910753616075
4269000000.0 1.002189795052598 0.2236226715572194
4272000000.0 1.0085667735869113 0.20691694617657408
4275000000.0 1.0317210600328437 0.19898025473856723
4278000000.0 1.0167155686486238 0.18168216111059926
4281000000.0 1.0138098124913095 0.1854182769648116
4284000000.0 1.0191884932967732 0.13716270706667164
4288000000.0 1.006168582730495 0.16534185720754677
4291000000.0 1.001732951085653 0.1301841987700948
4294000000.0 1.0215193896979928 0.1275841428779274
4297000000.0 1.0079910163820294 0.17021980781062018
4300000000.0 0.9999151380422269 0.10521944547370787
4303000000.0 1.0187149197423966 0.09270973216238383
4306000000.0 1.024650476420015 0.1489604174536581
4309000000.0 1.0237954708003494 0.08851468887115412
4312000000.0 1.0187439529013789 0.11424228647607915
4316000000.0 1.0620550468981416 0.09208138391589311
4319000000.0 1.03702419529546 0.08191606828037411
4322000000.0 1.0094656630539784 0.024512188420480627
4325000000.0 1.029160970535742 0.07091846834082179
4328000000.0 1.0223401419116964 0.04208504105736115
4331000000.0 1.0232657493755775 -0.0015961661080890754
4334000000.0 1.0429090559581895 0.03310286532098214
4338000000.0 1.0126246387528177 0.055286008813806506
4341000000.0 1.0422777707817565 0.026500471969773065
4344000000.0 1.027053541204535 0.026595366793506797
4347000000.0 1.0165030861684703 -0.03309985714034111
4350000000.0 0.9746505010023563 -0.03022829226786515
4353000000.0 1.0079094521552627 -0.0008976148127023964
4356000000.0 1.0412881574923574 -0.06900648009472657
4359000000.0 0.9919714728460057 -0.03935921629835279
4362000000.0 1.0159767968528335 -0.09690630675288595
4366000000.0 1.044467673650361 -0.0665227500580961
4369000000.0 0.9930666186834397 -0.0780602442358625
4372000000.0 1.0230747920748977 -0.12093212711346728
4375000000.0 1.0033921562397297 -0.060116172048192584
4378000000.0 0.9891633566071996 -0.07654704069221448
4381000000.0 1.0143520703791493 -0.08088255605871876
4384000000.0 1.0807137576009347 -0.11994572145941132
4388000000.0 0.988186028401039 -0.11124750914304028
4391000000.0 1.0213209751363546 -0.12634229135684272
4394000000.0 0.9880658231856254 -0.15358191697126247
4397000000.0 0.9979410444552352 -0.1483613362509979
4400000000.0 1.02482606736729 -0.17769647362926894
4403000000.0 1.02673155452535 -0.1607260474178144
4406000000.0 1.0017817591614313 -0.2003075913402727
4409000000.0 1.0266407307000367 -0.19294622649014626
4412000000.0 0.9809284680031422 -0.22843405588783838
4416000000.0 0.9886741652775195 -0.196775056522007
4419000000.0 1.0020536241651408 -0.23453734348076602
4422000000.0 0.9787029036473878 -0.19654218423282652
4425000000.0 1.0211507612603152 -0.21136329103165508
4428000000.0 0.9777955656009532 -0.25575984091299114
4431000000.0 1.0137930719970965 -0.2464253047413503
4434000000.0 0.9873802541438277 -0.2595214540278168
4438000000.0 0.9983727098778601 -0.2564988855181473
4441000000.0 0.9975465168516846 -0.27386896227302987
4444000000.0 0.9581179815441974 -0.2747249364486668
4447000000.0 0.9724539561021948 -0.2959060005163741
4450000000.0 0.9626530325628107 -0.2763174294016311
4453000000.0 0.995498852092174 -0.31529109867395677
4456000000.0 0.9451275798568206 -0.3197793209292142
4459000000.0 0.9221579023657542 -0.31437266331529456
4462000000.0 1.0169266783820814 -0.3437260477349505
4466000000.0 1.0017283910163057 -0.35423557486640267
4469000000.0 0.9638520806528694 -0.3352307956335048
4472000000.0 0.9652459218118093 -0.38912780832271776
4475000000.0 0.9383007577718127 -0.34972624186403856
4478000000.0 0.9795907536795652 -0.4117785985169117
4481000000.0 0.9266691989163109 -0.3951811761660821
4484000000.0 0.8977998302853978 -0.42741236022075435
4488000000.0 0.9335649784521871 -0.38983050481918
4491000000.0 0.934615206302924 -0.43767842768394455
4494000000.0 0.9191802776793664 -0.39929854469782594
4497000000.0 0.9407957053600724 -0.4012895056918133
4500000000.0 0.9377960522418285 -0.4178180570232662
4503000000.0 0.9381999617673533 -0.4474715422483517
4506000000.0 0.8927018729319798 -0.4384290788626635
4509000000.0 0.8989610353736011 -0.4343689134753457
4512000000.0 0.8745266476156552 -0.4831483846676151
4516000000.0 0.9192724656912078 -0.47772090349659296
4519000000.0 0.8914983177770731 -0.44188792186236503
4522000000.0 0.8720922075755051 -0.48850840773547
4525000000.0 0.8826246909990356 -0.46235075886237126
4528000000.0 0.9112027561250426 -0.5142593330065691
4531000000.0 0.8833240035015408 -0.5030510972379514
4534000000.0 0.8579031736361704 -0.503543341811476
4538000000.0 0.8702353721497331 -0.5232187115939916
4541000000.0 0.8543790133397953 -0.5488298215843075
4544000000.0 0.8447326214064015 -0.5260698834237018
4547000000.0 0.8603086712800742 -0.5278391755513772
4550000000.0 0.8471156690205675 -0.5695374399833142
4553000000.0 0.8312970170961722 -0.5542701426544822
4556000000.0 0.8115804947068557 -0.5795578958265144
4559000000.0 0.8229982969475998 -0.5978024441927778
4562000000.0 0.8576279281197825 -0.5807673113228085
4566000000.0 0.8260578902884244 -0.6056559216698929
4569000000.0 0.8086111962916985 -0.5939279546326843
4572000000.0 0.8177635842463619 -0.6008788430629746
4575000000.0 0.8157593589671639 -0.633702277314184
4578000000.0 0.8439189737557278 -0.6335621146321732
4581000000.0 0.8035790449063273 -0.6654451058925867
4584000000.0 0.7900928748168304 -0.6329529309347921
4588000000.0 0.8020635996029464 -0.6339773454043537
4591000000.0 0.7957098229125873 -0.6281479506796723
4594000000.0 0.7551413517711109 -0.6694926091389298
4597000000.0 0.7933090237382183 -0.6738699709552745
4600000000.0 0.7350521188502558 -0.6901682921513056
4603000000.0 0.7669507203283414 -0.6876663917296572
4606000000.0 0.7735566057707602 -0.6929021785284794
4609000000.0 0.7720221802358036 -0.6860402795725647
4612000000.0 0.7568237372517647 -0.6942637777174197
4616000000.0 0.7262747776573395 -0.6912372037670816
4619000000.0 0.739596075054799 -0.7150546196076747
4622000000.0 0.7325688118292997 -0.7043751803288116
4625000000.0 0.6864157512275965 -0.7185970243339305
4628000000.0 0.7291678845242734 -0.7100977965089121
4631000000.0 0.6835580322435113 -0.7409263542911072
4634000000.0 0.6906800572822849 -0.748885959029745
4638000000.0 0.6931983156981228 -0.7519241457136047
4641000000.0 0.6887366332598953 -0.7543716851531297
4644000000.0 0.6810269772841562 -0.7707455298658018
4647000000.0 0.6720788077506566 -0.769354553597963
4650000000.0 0.6452866737916768 -0.7774263194928768
4653000000.0 0.6752443857976265 -0.7913537620140455
4656000000.0 0.6541317928716552 -0.7872284321830674
4659000000.0 0.6355740423478703 -0.8017928493876583
4662000000.0 0.6343918938123893 -0.7825504152374718
4666000000.0 0.6190779737291271 -0.7985373178508363
4669000000.0 0.6252084941536928 -0.8119594691118917
4672000000.0 0.5858867482380263 -0.8477605818121275
4675000000.0 0.607424206888022 -0.8171111495224407
4678000000.0 0.6047079532731001 -0.8097536927737179
4681000000.0 0.580252663110306 -0.8503103779428187
4684000000.0 0.5636697322470279 -0.8560398236850872
4688000000.0 0.5608302799871455 -0.8626003287901594
4691000000.0 0.6014195934548886 -0.8322188151019039
4694000000.0 0.5701132942522578 -0.8358626886003666
4697000000.0 0.5043784015021617 -0.860067062656787
4700000000.0 0.5682019487611355 -0.8461873874623418
4703000000.0 0.5611606795316684 -0.8330629198232073
4706000000.0 0.5240761683888555 -0.8798744859060921
4709000000.0 0.5265815631280364 -0.8972833910938861
4712000000.0 0.5295818820449505 -0.8838971322182276
4716000000.0 0.5366519701375398 -0.9179338264450991
4719000000.0 0.5344630701983162 -0.8999628113270548
4722000000.0 0.5241696756054118 -0.8922228125209841
4725000000.0 0.5034316529556122 -0.8983131529933999
4728000000.0 0.4762499481830877 -0.9131976715689631
4731000000.0 0.5093795854360361 -0.9283919687396376
4734000000.0 0.4820199468163671 -0.9109595442096033
4738000000.0 0.49097598134758924 -0.9517532406388179
4741000000.0 0.4867488415766294 -0.9501078225928113
4744000000.0 0.44815628749608005 -0.9575638166558297
4747000000.0 0.4463125589566022 -0.8929459007041584
4750000000.0 0.43502865675771446 -0.955902051696067
4753000000.0 0.47371024357974767 -0.94804744333145
4756000000.0 0.4111531064039877 -0.9681839650460056
4759000000.0 0.41229264427344137 -0.947896622040705
4762000000.0 0.38085650140223637 -0.9918545013041019
4766000000.0 0.3653130504474934 -0.943641690401112
4769000000.0 0.3710361078896206 -0.9699740705471257
4772000000.0 0.3840342363627061 -0.9479777213407037
4775000000.0 0.38103440431153507 -1.0111075960451104
4778000000.0 0.3542828648049102 -0.9902263873067679
4781000000.0 0.3665697145353515 -0.9456704556518218
4784000000.0 0.3878213554346981 -0.9558338914825549
4788000000.0 0.3142195271185435 -0.9998337293893469
4791000000.0 0.3046189311157747 -0.9576466858108384
4794000000.0 0.3580213080386219 -1.003661936943881
4797000000.0 0.29224383752568145 -0.9832208494730826
4800000000.0 0.26402651920927334 -0.9954045281889119
4803000000.0 0.2583615925922398 -1.00133081817456
4806000000.0 0.2953802810453161 -1.0123785811057195
4809000000.0 0.26972476696693626 -1.0217529345110627
4812000000.0 0.23802943405199695 -1.003085630998142
4816000000.0 0.25446429826923367 -1.0069007414780988
4819000000.0 0.24900415282196714 -1.0304311451512564
4822000000.0 0.2721183460407002 -1.0414331768653349
4825000000.0 0.28368702628463255 -1.036240654217155
4828000000.0 0.22694249675293826 -0.9991715389419839
4831000000.0 0.18621407272750637 -1.022048470057235
4834000000.0 0.2226166803180537 -1.0232116476473327
4838000000.0 0.1923637510445495 -1.028314294074775
4841000000.0 0.19110144261103199 -0.9961461005800453
4844000000.0 0.18959943871991142 -1.0333803861042008
4847000000.0 0.20648888398444376 -0.9959094172612466
4850000000.0 0.16622356800921612 -1.0609981142979057
4853000000.0 0.16339746674982714 -0.995131927968604
4856000000.0 0.1481581393337349 -1.0150262579935376
4859000000.0 0.13934858291051228 -1.0649615282355054
4862000000.0 0.14795158730233532 -0.9912730495213674
4866000000.0 0.11585605151572273 -1.032217102442888
4869000000.0 0.08671902292985016 -1.0323701089587733
4872000000.0 0.07636477315599374 -1.0737401192114833
4875000000.0 0.16687637298559094 -1.0789141604054597
4878000000.0 0.08700001892218748 -1.0405957468332745
4881000000.0 0.06386483285095919 -1.1090421917368305
4884000000.0 0.07748107074106839 -1.0315219413868058
4888000000.0 0.09679241116885844 -1.064992590731177
4891000000.0 0.10376656924421011 -1.0775719814843772
4894000000.0 0.05280262454426456 -1.0188718768205418
4897000000.0 0.08342551380138942 -1.0291738608603826
4900000000.0 0.039406645843186 -1.049155706630602
4903000000.0 0.034858279240377474 -1.0728478041052407
4906000000.0 0.028451426130582706 -1.0645663004252996
4909000000.0 0.013369120008272917 -1.0515556540423001
4912000000.0 -0.01194891624170287 -1.075699187008901
4916000000.0 -0.011869134815437637 -1.0861807204170952
4919000000.0 0.00977726926614178 -1.0859817568896366
4922000000.0 0.006822679535693113 -1.0676213426866288
4925000000.0 -0.06309560204726296 -1.0420429210746367
4928000000.0 -0.008234975375466538 -1.0440157041587035
4931000000.0 -0.00028344598642521257 -1.0475565028263314
4934000000.0 -0.06553790129624738 -1.0109987349369123
4938000000.0 -0.09953963994898109 -1.0262809735680802
4941000000.0 -0.07660668213731926 -1.0171080469087144
4944000000.0 -0.05860138213437466 -0.9887282376437412
4947000000.0 -0.0799348830146569 -0.9958063192422737
4950000000.0 -0.10304488926361001 -1.0162590887147085
4953000000.0 -0.17597077527585436 -1.098087045178295
4956000000.0 -0.1174715850269665 -1.053355390191987
4959000000.0 -0.18322602497356202 -1.0409280963142846
4962000000.0 -0.1346951929877793 -1.0492395921743014
4966000000.0 -0.12105870109132272 -1.0580977769360143
4969000000.0 -0.14364618318237082 -1.0864341522520808
4972000000.0 -0.17877543242050067 -1.0518480282924183
4975000000.0 -0.1366867619102953 -1.0225772482440325
4978000000.0 -0.17544525935648553 -1.0299983160047952
4981000000.0 -0.20806160255278963 -1.0388147313419018
4984000000.0 -0.1843590402583913 -1.0006992225194655
4988000000.0 -0.18538999543858808 -1.037905464624749
4991000000.0 -0.16703097858919458 -1.0801915912204385
4994000000.0 -0.2066731914259825 -1.0067480114666476
4997000000.0 -0.24378623737515587 -1.0141278192595944
5000000000.0 -0.23908629457654235 -1.0445777264288467
5003000000.0 -0.24231052490506028 -1.065905463097731
5006000000.0 -0.2542139158378891 -1.062835776065434
5009000000.0 -0.25844904110788136 -1.0277971021644885
5012000000.0 -0.30115159307373257 -1.015623933162746
5016000000.0 -0.23887607053379467 -1.0537260509374093
5019000000.0 -0.2829340452220671 -1.002947488832438
5022000000.0 -0.2869808079620526 -0.9991030333543753
5025000000.0 -0.3151872325916439 -1.0860270754523393
5028000000.0 -0.3277242472724684 -1.0301149618432988
5031000000.0 -0.32283770129175315 -1.0075008194673256
5034000000.0 -0.3565697573065494 -1.0328016993250244
5038000000.0 -0.3180301891571178 -0.981603339771262
5041000000.0 -0.3064179005934571 -1.0205659115020098
5044000000.0 -0.3059068019058204 -1.0132411940843142
5047000000.0 -0.3370895013218133 -1.0408550736916746
5050000000.0 -0.27410099716678704 -1.0256018401429283
5053000000.0 -0.4062177009414967 -1.041977548292759
5056000000.0 -0.30125347884746667 -1.0121163404538112
5059000000.0 -0.3440544078662798 -1.0207945896252575
5062000000.0 -0.44510427803818886 -0.999554393527486
5066000000.0 -0.35201991696598456 -0.9659182139551912
5069000000.0 -0.3953041533708074 -0.9842796767166176
5072000000.0 -0.37994280580656553 -0.9603173665761569
5075000000.0 -0.3853205779928556 -0.9520659412670813
5078000000.0 -0.446227779191713 -0.9441329449901914
5081000000.0 -0.4314723558170785 -0.9164115233456359
5084000000.0 -0.46272330752912094 -0.9601401366727127
5088000000.0 -0.39862667574293725 -0.9324849754104414
5091000000.0 -0.5096503597952582 -0.9355729788496243
5094000000.0 -0.47502779982076754 -0.9776952628458585
5097000000.0 -0.4228860347336453 -0.926050896312179
5100000000.0 -0.4694255722395469 -0.9394765578024312
5103000000.0 -0.48615597840405 -0.916493588470236
5106000000.0 -0.5216499790630702 -1.0086455214454393
5109000000.0 -0.43185722378674485 -0.9638887211718663
5112000000.0 -0.5124911016506873 -0.909813948769933
5116000000.0 -0.4684076535632816 -0.8799409049531903
5119000000.0 -0.4964156588793624 -0.8898102448596321
5122000000.0 -0.5329259037260975 -0.9109080042645841
5125000000.0 -0.48544488582560413 -0.9111660910193012
5128000000.0 -0.5682131867842481 -0.8727277849275179
5131000000.0 -0.5384786248210756 -0.8887632921253313
5134000000.0 -0.5404211350410423 -0.8806392824724983
5138000000.0 -0.5393486196262056 -0.9036740753259144
5141000000.0 -0.5075163831795005 -0.942814611456859
5144000000.0 -0.5335071655236574 -0.9326266014672487
5147000000.0 -0.5971160777870437 -0.9038508805434549
5150000000.0 -0.5400960520485909 -0.9207483403536273
5153000000.0 -0.6195167060722293 -0.8842973600032228
5156000000.0 -0.5720628127016102 -0.8717826299468975
5159000000.0 -0.6684401580276685 -0.887046185409711
5162000000.0 -0.5924810857764048 -0.8066137068992608
5166000000.0 -0.6530849640883286 -0.841335841335967
5169000000.0 -0.6234840650479048 -0.8915170506354786
5172000000.0 -0.6353702342277384 -0.8627953024452557
5175000000.0 -0.6106310927280956 -0.8691512356739661
5178000000.0 -0.676172184124139 -0.8564614160128166
5181000000.0 -0.6694982993218134 -0.8661514132739281
5184000000.0 -0.6638103892179504 -0.8406709871042091
5188000000.0 -0.6289881357884703 -0.8429479189443752
