! Created with skrf 1.8.0 (http://scikit-rf.org).
# Hz S RI R 50.0 
!freq ReS11 ImS11
4000000000.0 0.5637633973276263 0.8229965388430285
4003000000.0 0.6764816331845598 0.8519811035833434
4006000000.0 0.7049409733271709 0.7623583495959962
4009000000.0 0.6528894884056842 0.7749175379531182
4012000000.0 0.5783204203378096 0.815340932283371
4016000000.0 0.6746979553436123 0.7949638408023401
4019000000.0 0.6974208070485535 0.7713139859964913
4022000000.0 0.6220264687754783 0.8225980109808372
4025000000.0 0.7552301100387747 0.7658863359753083
4028000000.0 0.7264786070673399 0.7557742313202676
4031000000.0 0.6515980697267263 0.7414688171008862
4034000000.0 0.6938065665415961 0.7612872545041587
4038000000.0 0.7112997247591434 0.7749197905064057
4041000000.0 0.7239604468309628 0.7325313790684074
4044000000.0 0.757747956672663 0.7901845886711008
4047000000.0 0.733901196277782 0.7494804149870443
4050000000.0 0.8072748869376013 0.686451768263327
4053000000.0 0.7606259609207547 0.7020992964968968
4056000000.0 0.7899791679807544 0.7253772785862688
4059000000.0 0.7314820151051473 0.6801322193076957
4062000000.0 0.7861888902072108 0.6787576795309778
4066000000.0 0.718655590353813 0.5968361704239638
4069000000.0 0.8324799856314334 0.6560313967504419
4072000000.0 0.7225598010116612 0.701712803564233
4075000000.0 0.7888624205626555 0.6842614961853195
4078000000.0 0.8432869781257347 0.6791718176022343
4081000000.0 0.8085575697265895 0.7214754971040731
4084000000.0 0.8475992456968159 0.6673551321457434
4088000000.0 0.8232153482461506 0.6945431498921742
4091000000.0 0.8514481093948407 0.6935476518476822
4094000000.0 0.8246084906114501 0.6295407298519244
4097000000.0 0.8234577518892856 0.6342582783854276
4100000000.0 0.8257828504628583 0.6159761879470862
4103000000.0 0.8709932767191282 0.6685754643970103
4106000000.0 0.8430412065763158 0.5787819686728082
4109000000.0 0.8493263511514255 0.5608697109551792
4112000000.0 0.8437553040151298 0.5594640560508475
4116000000.0 0.8266670975252581 0.58608598247843
4119000000.0 0.8532548254001904 0.585945550277743
4122000000.0 0.8735132595530246 0.5282428786831661
4125000000.0 0.8572569075906585 0.5479195039133888
4128000000.0 0.7995345096904689 0.566570316284688
4131000000.0 0.8451292226481727 0.5271631147363146
4134000000.0 0.9033351500174472 0.547141310528842
4138000000.0 0.8788893265825963 0.5144039111865291
4141000000.0 0.8632142166748946 0.5229736639135717
4144000000.0 0.8978513731840795 0.5404826842527943
4147000000.0 0.9106926399183057 0.5050927361538042
4150000000.0 0.977179145438888 0.5294144421458327
4153000000.0 0.9059742176846657 0.503631035163395
4156000000.0 0.9173309621792207 0.48131094629733406
4159000000.0 0.8895897317478456 0.44630588493138185
4162000000.0 0.877155783146311 0.498463845711977
4166000000.0 0.9268724839619211 0.4297292497965016
4169000000.0 0.9206400839294188 0.4506849730938832
4172000000.0 0.9523979601788373 0.4415682275662766
4175000000.0 0.9282955259947132 0.4400627574080555
4178000000.0 0.9413190247726001 0.46315033810524553
4181000000.0 0.9399860386769676 0.42930718325435524
4184000000.0 0.9521153755840543 0.40757119055338503
4188000000.0 0.9336262615941178 0.39916029020527943
4191000000.0 0.9199563974322509 0.4169631216444713
4194000000.0 0.9341051999499903 0.38723911215192397
4197000000.0 0.9718671465740145 0.3972148624347282
4200000000.0 0.9422877708233011 0.38664503857694676
4203000000.0 0.941181396592467 0.41746061066950546
4206000000.0 0.9733514381814306 0.38628055205313955
4209000000.0 0.9478397844683151 0.37102399589381435
4212000000.0 0.97165839889126 0.3360928543454432
4216000000.0 0.9710260716603087 0.3676256278214978
4219000000.0 0.972085526964103 0.3513009435526192
4222000000.0 0.9632848581279714 0.32029574721025006
4225000000.0 0.9618069366655886 0.330572917626456
4228000000.0 0.9839355121452547 0.3418672871807865
4231000000.0 0.984220547129961 0.29341189073292134
4234000000.0 0.9807261644827782 0.293861372595848
4238000000.0 0.9815862527968913 0.284487120417782
4241000000.0 0.9895804456856796 0.27232099520805797
4244000000.0 0.9867798488932205 0.27841611361899915
4247000000.0 0.9722117967660322 0.2744170823773713
4250000000.0 0.985204235747505 0.24156061876475043
4253000000.0 0.961454686836668 0.23152310763260747
4256000000.0 1.0057328861126653 0.24959030705339502
4259000000.0 0.9587139973693389 0.21245225138938031
4262000000.0 0.9816099887563354 0.19664738342583785
4266000000.0 1.0081004826060609 0.1762600844339105
4269000000.0 0.9802354764195697 0.22438969427897018
4272000000.0 1.010628206047386 0.2110897004094407
4275000000.0 1.0050843318868106 0.17960648685316655
4278000000.0 1.0461168226699242 0.19654203948315635
4281000000.0 0.9954091140214171 0.1722416620805089
4284000000.0 1.0253255501878846 0.1452213370384283
4288000000.0 0.9859290145838587 0.18200911265040562
4291000000.0 0.9674431825395917 0.1400369387400695
4294000000.0 1.0016575409291453 0.1348385151487998
4297000000.0 1.0137586314319682 0.1528973703251842
4300000000.0 1.0121318642755524 0.12469121888149726
4303000000.0 0.9903765851254333 0.10115337811589585
4306000000.0 1.0249115110533773 0.14098135631965283
4309000000.0 1.009559187760782 0.10500802886694459
4312000000.0 1.0307260178341486 0.13734715585565435
4316000000.0 1.0144676298941928 0.10154049135031272
4319000000.0 1.0200032482457055 0.05020818689340113
4322000000.0 0.9913039349654924 0.031209627552034144
4325000000.0 1.0210007211311996 0.06589979323475866
4328000000.0 0.9836782636305574 0.05435298697093728
4331000000.0 1.0194140441837696 0.008897773421077365
4334000000.0 0.988675114539148 0.0249136576554132
4338000000.0 1.0164582068994754 0.02932552568535375
4341000000.0 1.0540185705066167 0.06407863464091984
4344000000.0 1.0501067100121604 -0.0008834434008649361
4347000000.0 1.0297039066738192 -0.035763346083966835
4350000000.0 0.9846908970799935 -0.02587374761423547
4353000000.0 1.0015909000426453 -0.01954584092198325
4356000000.0 1.0154932814879993 -0.05056936534262188
4359000000.0 0.9814243160841142 -0.0629343040246804
4362000000.0 1.0274134260627934 -0.10306164685849899
4366000000.0 1.0377161653327984 -0.057649112297907784
4369000000.0 0.9950780509967696 -0.0770963915479316
4372000000.0 0.9814621658791922 -0.11104163513967477
4375000000.0 1.0056235116807601 -0.06537454946798898
4378000000.0 0.9869718392538513 -0.08215105121567622
4381000000.0 1.002749455653565 -0.09975073824740863
4384000000.0 1.0710021550964584 -0.10217995268146207
4388000000.0 1.0010543452025664 -0.09492314303046705
4391000000.0 1.0169554753246859 -0.14281834812229105
4394000000.0 0.9799118486488512 -0.140703642631005
4397000000.0 1.0071758440376626 -0.16549952463213652
4400000000.0 1.0261252411681308 -0.16329682444601767
4403000000.0 1.007090812505846 -0.16435908653197842
4406000000.0 0.9868706370763286 -0.19283269032856454
4409000000.0 1.0225014879572751 -0.19959386335489285
4412000000.0 0.9741462733333792 -0.24581204894697792
4416000000.0 0.9843657007738578 -0.2121471294933532
4419000000.0 0.9857864862330562 -0.23519108293134292
4422000000.0 0.9853724482642092 -0.20584924541026034
4425000000.0 1.0115142901299392 -0.20518259128790658
4428000000.0 0.982180133755083 -0.2354855276170467
4431000000.0 0.9979903747607972 -0.2495978662599884
4434000000.0 0.9770592248224601 -0.25029179553843445
4438000000.0 1.0043809429177761 -0.26923198877323107
4441000000.0 0.989550531811118 -0.2594978830972312
4444000000.0 0.9565638804971437 -0.2610620504951994
4447000000.0 0.9654368533612765 -0.3020313530834001
4450000000.0 0.9697644451681655 -0.2827355831271441
4453000000.0 0.9959075605640896 -0.3103137278245792
4456000000.0 0.9281208659017752 -0.31535524668053894
4459000000.0 0.9200651863647968 -0.3135587091683756
4462000000.0 1.0170612661642304 -0.34353735816260667
4466000000.0 0.9908360601462284 -0.3500088483108491
4469000000.0 0.95955759102277 -0.3334792002982263
4472000000.0 0.9617479218487482 -0.36318094119051836
4475000000.0 0.9379491988744203 -0.348961933933479
4478000000.0 0.9775554772073513 -0.40292851688154196
4481000000.0 0.8974035029653638 -0.3990378065444774
4484000000.0 0.9184427567200772 -0.4314976078813302
4488000000.0 0.9185302392268366 -0.3918564059366016
4491000000.0 0.923366828359234 -0.4117868172571171
4494000000.0 0.9297048494395753 -0.4028375010199294
4497000000.0 0.9130874991658842 -0.40331427113303364
4500000000.0 0.9142229651146951 -0.4245178524094237
4503000000.0 0.9355981862310578 -0.4533898774473416
4506000000.0 0.9045498516821826 -0.4400111610512011
4509000000.0 0.9007912903780491 -0.45149585432437467
4512000000.0 0.8775467683601155 -0.4633881606584369
4516000000.0 0.9167670912598059 -0.4595185692099756
4519000000.0 0.8643710251403824 -0.45612629157391316
4522000000.0 0.8958446881579689 -0.4714392406111098
4525000000.0 0.8896797161809324 -0.46664395167049605
4528000000.0 0.896988494110202 -0.5049319900374614
4531000000.0 0.8770763732385026 -0.49136211680624564
4534000000.0 0.8681600109087365 -0.5031857079708205
4538000000.0 0.8634652663614022 -0.5150141538335957
4541000000.0 0.8450502732205221 -0.5435883423597623
4544000000.0 0.8571186065634975 -0.5233781328745657
4547000000.0 0.8597873899950256 -0.5216077289385503
4550000000.0 0.8624057701288672 -0.5499370824487303
4553000000.0 0.8417951036178668 -0.5634852414738557
4556000000.0 0.8107327642224726 -0.5588423457899171
4559000000.0 0.8380969810016067 -0.5751916017190333
4562000000.0 0.8331454413280357 -0.5833523819094191
4566000000.0 0.8385411402565404 -0.6006721031814872
4569000000.0 0.8001545803053703 -0.5825402085318065
4572000000.0 0.8082491819434077 -0.574178020362162
4575000000.0 0.7945878625674836 -0.6427050429766931
4578000000.0 0.8248656977753086 -0.6099471706354339
4581000000.0 0.7808684187225459 -0.6369778742412898
4584000000.0 0.779700753607489 -0.6306503868113457
4588000000.0 0.8062017675199997 -0.648100996590637
4591000000.0 0.7876208193641686 -0.6436876248974716
4594000000.0 0.7719422154337169 -0.6689917060556747
4597000000.0 0.7762739876597313 -0.6726183035285382
4600000000.0 0.7280130077548893 -0.671959644784661
4603000000.0 0.7534221207220475 -0.6835265950798927
4606000000.0 0.7549650485842923 -0.6802225766285389
4609000000.0 0.7423651889574161 -0.6967657034145813
4612000000.0 0.7352761090304238 -0.6870379960012203
4616000000.0 0.7190355349427269 -0.6828840957782769
4619000000.0 0.7301202017264379 -0.7058390296618827
4622000000.0 0.7247407610128095 -0.7103014200439065
4625000000.0 0.6726721129764949 -0.704735568988418
4628000000.0 0.7120711357232171 -0.7236956338581358
4631000000.0 0.684423565079928 -0.7258729002248749
4634000000.0 0.6823714029609894 -0.7453543317485312
4638000000.0 0.6687530283769579 -0.7401795208347409
4641000000.0 0.6832255108880815 -0.7424025067423974
4644000000.0 0.6816426669859658 -0.7553869102162889
4647000000.0 0.6912510643624173 -0.7723451665453909
4650000000.0 0.6450399645141929 -0.7602130142025826
4653000000.0 0.6788862006945643 -0.7683444541122506
4656000000.0 0.656987244522524 -0.7927247825246819
4659000000.0 0.6348258245463745 -0.7897081862571921
4662000000.0 0.6399735390328614 -0.795822469775383
4666000000.0 0.6201212213289967 -0.8282962456250776
4669000000.0 0.6366240417000004 -0.8047426666724977
4672000000.0 0.5892904294372813 -0.8096555276017969
4675000000.0 0.5917517588126151 -0.8378592103334436
4678000000.0 0.5726272291948544 -0.8058281362155266
4681000000.0 0.5707919707650825 -0.847510780538044
4684000000.0 0.5591929445105869 -0.8564791897597159
4688000000.0 0.5630569667221692 -0.8347771814455685
4691000000.0 0.597355291349587 -0.8397870914700751
4694000000.0 0.5592102556102098 -0.8523894817919524
4697000000.0 0.5162339853642415 -0.846794854470392
4700000000.0 0.5638379450034336 -0.8226663702182004
4703000000.0 0.5504747370826373 -0.8128550881822139
4706000000.0 0.5287612218785378 -0.8804207363325761
4709000000.0 0.503036375222851 -0.8851624913218237
4712000000.0 0.5108610637434404 -0.8703468978161742
4716000000.0 0.513778728256915 -0.873546505838011
4719000000.0 0.531552670224106 -0.9064515112598667
4722000000.0 0.5001202091846266 -0.8672420975193265
4725000000.0 0.47891186490792204 -0.8879410299360814
4728000000.0 0.5035419392365955 -0.8712666930002086
4731000000.0 0.4965048377556477 -0.9367684690523379
4734000000.0 0.4929320794660452 -0.8856399697917985
4738000000.0 0.49826896128191134 -0.9413196745586345
4741000000.0 0.43402542263720406 -0.9432774558756953
4744000000.0 0.41796964543663895 -0.9608041236987959
4747000000.0 0.44301209676277453 -0.8947203574664131
4750000000.0 0.41050240134048893 -0.9383599367730769
4753000000.0 0.4076555819907725 -0.9244964749771619
4756000000.0 0.4172314759061322 -0.9116364136244925
4759000000.0 0.4160269016705346 -0.9561135106408669
4762000000.0 0.38487621894814883 -0.963889939585643
4766000000.0 0.3702951131441373 -0.9274704608372375
4769000000.0 0.3807511850705374 -0.9363151044125708
4772000000.0 0.37287173356889564 -0.9541297320565924
4775000000.0 0.3638168532123899 -0.9992957534685041
4778000000.0 0.35849804957175085 -1.0096999374643802
4781000000.0 0.36116626598931123 -0.9672481056215281
4784000000.0 0.3676721193567393 -0.9720060491838293
4788000000.0 0.30547238154363726 -0.9934894107609937
4791000000.0 0.33016826060515037 -0.9760171124741771
4794000000.0 0.3455615751793165 -1.0036478778261697
4797000000.0 0.3075393924782764 -0.979258397357272
4800000000.0 0.2979744734206707 -0.9622274528430883
4803000000.0 0.2581364128389004 -0.9682655431272589
4806000000.0 0.29035871633262333 -0.9848824437127972
4809000000.0 0.24047236758062931 -1.0103884405928327
4812000000.0 0.21920434380552734 -0.992524198737762
4816000000.0 0.2917674042532382 -0.953079893736017
4819000000.0 0.28561642332336545 -1.0368688719658394
4822000000.0 0.2662122084101842 -1.0384938153255956
4825000000.0 0.27058032845213725 -1.0171165811502174
4828000000.0 0.2119499509416225 -0.9950412915097692
4831000000.0 0.1682774282389738 -1.0418339079798362
4834000000.0 0.23258292996974222 -1.012844322418035
4838000000.0 0.1956620031560118 -1.0060421870693557
4841000000.0 0.1772185518130745 -0.9863884343360249
4844000000.0 0.226237922457612 -0.9956871537467361
4847000000.0 0.17864774696704877 -0.9674024432851847
4850000000.0 0.1542026022356826 -1.0290690455131597
4853000000.0 0.14841345077328788 -0.9904767083024113
4856000000.0 0.14986964882559572 -1.0056503638226069
4859000000.0 0.1243912260840819 -1.0500788976465842
4862000000.0 0.17238127197816888 -0.9930190281265817
4866000000.0 0.10106811631431506 -1.0264500762186106
4869000000.0 0.09902820250690725 -1.0266558729696054
4872000000.0 0.07492589283596154 -1.0258093817967284
4875000000.0 0.14091119991250983 -1.0442076641615312
4878000000.0 0.1094280965131241 -1.0597741105015148
4881000000.0 0.06928143892332639 -1.0816343356967733
4884000000.0 0.09256627198591129 -1.0314012475878658
4888000000.0 0.09410783718680718 -1.0215330297301948
4891000000.0 0.08609846413913194 -1.0338597314246198
4894000000.0 0.004875066062150719 -1.0315212157377722
4897000000.0 0.07184584392374416 -1.0306270835696267
4900000000.0 0.04595042454561529 -1.0240879835603018
4903000000.0 0.050538724961005914 -1.0734685798582935
4906000000.0 0.021337819001763007 -1.0655140712408009
4909000000.0 0.022093508515975198 -1.057120124806631
4912000000.0 -0.01036576790029596 -1.0923502130932319
4916000000.0 -0.023782185391394255 -1.0479625752129575
4919000000.0 -0.0045342511718746495 -1.0633085489990766
4922000000.0 0.018448126513686408 -1.0489575662354675
4925000000.0 -0.06566293665089559 -1.0049638457620274
4928000000.0 0.037518379705689546 -1.0150573338341677
4931000000.0 -0.03831890244937365 -1.0732888452904072
4934000000.0 -0.05351101559686329 -0.9982857870307777
4938000000.0 -0.09269801215882491 -1.0251657906438298
4941000000.0 -0.09054012405676683 -1.0031661483782166
4944000000.0 -0.03778936173020775 -0.9723242821947262
4947000000.0 -0.09751312766655737 -0.9763355133658016
4950000000.0 -0.0730865934467727 -1.0158441190175156
4953000000.0 -0.15051775966472392 -1.0690025388671507
4956000000.0 -0.14582329911100578 -1.0514267066110154
4959000000.0 -0.1276570214672483 -1.0020859853788266
4962000000.0 -0.12742755567571454 -1.0604996825887685
4966000000.0 -0.12281714604412614 -1.0513572807712575
4969000000.0 -0.1465801986979549 -1.0626607208184649
4972000000.0 -0.1822763557878123 -1.0347629292429745
4975000000.0 -0.13326780532926027 -1.0231665965049115
4978000000.0 -0.18388767226298686 -1.0387766838138393
4981000000.0 -0.19828135699029856 -1.055771152305105
4984000000.0 -0.1839487633020733 -1.0008140610498018
4988000000.0 -0.15464879667718273 -1.0148229149821766
4991000000.0 -0.13864498157047322 -1.0691701057985379
4994000000.0 -0.18857162351372297 -1.0331419693008572
4997000000.0 -0.24478528268467187 -0.9973450969105101
5000000000.0 -0.2175967092787 -1.072095195593469
5003000000.0 -0.22642404228129115 -1.0597716881581818
5006000000.0 -0.24669935657208644 -1.0806342933385058
5009000000.0 -0.22226818758778485 -0.9977112923519867
5012000000.0 -0.27948757326859613 -1.0188105646684475
5016000000.0 -0.23173925935764544 -1.0512393331870173
5019000000.0 -0.28479259361993536 -0.9987724645967948
5022000000.0 -0.27389950794152707 -1.026421564364532
5025000000.0 -0.280864893733805 -1.058788532211725
5028000000.0 -0.30177215642150923 -1.0141008058409924
5031000000.0 -0.3281708504702978 -0.9890569328351811
5034000000.0 -0.3651792549991746 -1.0442349858049194
5038000000.0 -0.32238102420947545 -0.9441884469676565
5041000000.0 -0.3128342211870693 -1.018452319818231
5044000000.0 -0.2938402053285094 -0.9785937165375754
5047000000.0 -0.32564510894273063 -1.0079382199081057
5050000000.0 -0.283261042460933 -0.958250640651171
5053000000.0 -0.3861671811268975 -0.9849493051579816
5056000000.0 -0.29491584896420986 -1.022256051168706
5059000000.0 -0.31255970341125444 -1.0370543380520956
5062000000.0 -0.4164803634478843 -0.9333417120259184
5066000000.0 -0.35877910460597817 -0.9461964474040148
5069000000.0 -0.3984443905228635 -0.9676033596822559
5072000000.0 -0.3878286722231348 -0.9409053890212016
5075000000.0 -0.36860358679442506 -0.9845414824671286
5078000000.0 -0.47093936218565896 -0.9491910461086324
5081000000.0 -0.4483512087379162 -0.9019081777418853
5084000000.0 -0.4436907397016553 -0.9612341748126265
5088000000.0 -0.3998334315997797 -0.9507657821242881
5091000000.0 -0.4947768128934445 -0.9541836815520459
5094000000.0 -0.439891851619244 -0.9512607925633846
5097000000.0 -0.42805572269611325 -0.9267071936839453
5100000000.0 -0.45676856663411486 -0.9244786852142591
5103000000.0 -0.5067923783289604 -0.8924620803202564
5106000000.0 -0.46846796918702066 -0.9231491845673345
5109000000.0 -0.48257410985387217 -0.9237751071808877
5112000000.0 -0.49340941087873036 -0.9152736210292709
5116000000.0 -0.4696498408853638 -0.9243641628993655
5119000000.0 -0.4938559382979452 -0.9698632419426076
5122000000.0 -0.4647581977250561 -0.8903917685349616
5125000000.0 -0.5181330045846918 -0.9217014704323258
5128000000.0 -0.5273846319828167 -0.8845078672497921
5131000000.0 -0.5224303876817551 -0.892134186575079
5134000000.0 -0.5578457511405469 -0.9023395995444226
5138000000.0 -0.5652296912042334 -0.8961405182600288
5141000000.0 -0.47704982959097986 -0.9155386559402119
5144000000.0 -0.5233100659900805 -0.8917461818983298
5147000000.0 -0.5712667770737965 -0.9241503786236559
5150000000.0 -0.560348872962775 -0.8992406101676157
5153000000.0 -0.5984230690615597 -0.8987476022526738
5156000000.0 -0.5932254628008975 -0.8565433239758995
5159000000.0 -0.5985356731553892 -0.8936944543153127
5162000000.0 -0.6481828673813055 -0.8570653710276875
5166000000.0 -0.6046131388140892 -0.8235379672417212
5169000000.0 -0.6586778312616727 -0.8466126931266599
5172000000.0 -0.57803712070881 -0.813610510411128
5175000000.0 -0.6333637499076761 -0.8830625062811834
5178000000.0 -0.6611545282685853 -0.8294007541981064
5181000000.0 -0.6270229367034563 -0.866471515637087
5184000000.0 -0.6450305033742175 -0.8135924050166167
5188000000.0 -0.6158677395298142 -0.8122381292805273
