! Created with skrf 1.8.0 (http://scikit-rf.org).
# Hz S RI R 50.0 
!freq ReS11 ImS11
4000000000.0 0.7114526001867375 0.7018243779960311
4003000000.0 0.7476030009339344 0.7775549083691164
4006000000.0 0.7830353625546637 0.7463103710298432
4009000000.0 0.7555053328580906 0.7123242741471497
4012000000.0 0.7338341523908681 0.7592519559443139
4016000000.0 0.7846900618787455 0.6848632538368815
4019000000.0 0.7710111576264813 0.677156550792303
4022000000.0 0.7357575238084955 0.7355615557037517
4025000000.0 0.7873635792678279 0.6564552641107222
4028000000.0 0.7775303645982117 0.6771983395347214
4031000000.0 0.7472737601658994 0.6436421573149674
4034000000.0 0.7794857759838256 0.6181782035526249
4038000000.0 0.8294528182173156 0.6083687875167246
4041000000.0 0.835841720983091 0.6371224243500949
4044000000.0 0.8482425389708615 0.6735868158354265
4047000000.0 0.8348315957799127 0.6882154754564007
4050000000.0 0.8463267095560958 0.6218085032465155
4053000000.0 0.8127237791567269 0.5668604762609464
4056000000.0 0.8409790691540027 0.6178836329971346
4059000000.0 0.8295615671192488 0.5680408667563395
4062000000.0 0.8756657415187273 0.5898182330612975
4066000000.0 0.7436504514387445 0.5842475004524688
4069000000.0 0.9177587894480277 0.5766320434810135
4072000000.0 0.8462435544092146 0.5911076871025236
4075000000.0 0.9266820672302126 0.581275037518866
4078000000.0 0.8442128492221744 0.5831069662735638
4081000000.0 0.8580016488751357 0.610507045154472
4084000000.0 0.8952342985263607 0.5380750598260429
4088000000.0 0.8728827435406643 0.5330369418407156
4091000000.0 0.9262403671183042 0.5977294574685528
4094000000.0 0.8697533316256857 0.5279264306856534
4097000000.0 0.9050092946745891 0.5125279961813143
4100000000.0 0.8980264811593726 0.49882057909272165
4103000000.0 0.8925080656766524 0.5427699188799053
4106000000.0 0.9364578041262843 0.4858704340755363
4109000000.0 0.9421453739344687 0.44802955866631416
4112000000.0 0.9291581922885601 0.4902962833567996
4116000000.0 0.9515193590570057 0.46290763645817035
4119000000.0 0.9346617255959864 0.4771779280391154
4122000000.0 0.9197602410230719 0.4354812069357795
4125000000.0 0.9570884140183527 0.42923694667056106
4128000000.0 0.9087208673235956 0.42503692597320664
4131000000.0 0.9441718775793947 0.4113523955836377
4134000000.0 0.9336178940349645 0.4404986476841881
4138000000.0 0.9482396187584949 0.3815750090469689
4141000000.0 0.9541350737997154 0.39987954751715415
4144000000.0 0.9465357352685843 0.40807983120797325
4147000000.0 0.930740148766433 0.3669210094451017
4150000000.0 0.962032994916603 0.40405344102065704
4153000000.0 0.9608442198321056 0.3617841344894265
4156000000.0 0.9905305227096854 0.39583794917656634
4159000000.0 0.9235199430133205 0.3526664383166643
4162000000.0 0.9608944627656018 0.3576497465364231
4166000000.0 0.9943498536531252 0.3510866328090051
4169000000.0 0.9659845055535446 0.31447265084500575
4172000000.0 0.973128897629928 0.3084310491263345
4175000000.0 0.9811553640400744 0.2920653443312154
4178000000.0 0.9943999578961447 0.2948138435077059
4181000000.0 0.9769819037333278 0.2806900963716953
4184000000.0 0.9668359462579824 0.27470851131683066
4188000000.0 0.9919894675574605 0.2703811196794066
4191000000.0 0.9708289578217905 0.3020595674169742
4194000000.0 0.972062230112435 0.23768310637046974
4197000000.0 1.0132263158170682 0.2546402262198371
4200000000.0 0.9663255552540961 0.2565653629254572
4203000000.0 0.9965943234554879 0.25087392806971154
4206000000.0 0.9966144048365804 0.23942044474134905
4209000000.0 0.9868949016748397 0.2057132799829951
4212000000.0 1.0016067864024574 0.18693444245722346
4216000000.0 1.0077298179722085 0.22176653943958224
4219000000.0 1.009107956294012 0.21373118802098087
4222000000.0 1.0037369113514587 0.16821682213374667
4225000000.0 0.994965967910642 0.1746034365615565
4228000000.0 1.012912723907111 0.16548576989955185
4231000000.0 1.018842077433261 0.1425002224576833
4234000000.0 0.9984724887832782 0.13687699025231648
4238000000.0 1.0157371397798336 0.11245159755671283
4241000000.0 1.009883989674959 0.1084796805814921
4244000000.0 1.000182514398482 0.11710138072708826
4247000000.0 1.005173719518526 0.11987098666100016
4250000000.0 1.0045583524012154 0.08315014382496955
4253000000.0 0.9966909604270959 0.07421202335515883
4256000000.0 1.0404897126356911 0.07754487323918083
4259000000.0 0.9756123103506937 0.06398074206313498
4262000000.0 1.0133445585012593 0.046558028241390326
4266000000.0 1.0372505905604876 0.01310170265216326
4269000000.0 1.016429935452776 0.03847460658861794
4272000000.0 1.0086258877360752 0.039102630865525276
4275000000.0 1.0160973552528796 0.033327194323365505
4278000000.0 1.0558522161081279 0.03303492938812075
4281000000.0 1.0269126917805098 0.018456802510473505
4284000000.0 1.0382834662264804 -0.019905597492416827
4288000000.0 1.0008705646225327 0.018824321855844435
4291000000.0 1.001079397340228 -0.019433056850621855
4294000000.0 1.007969657153625 -0.03972877443457321
4297000000.0 1.0159727153813811 -0.012555129518799057
4300000000.0 1.01507046396071 -0.033147883929413396
4303000000.0 0.9979020827948745 -0.06811388324908657
4306000000.0 1.0039946628729797 -0.04016210346803623
4309000000.0 0.9948215649026239 -0.0612489320768575
4312000000.0 1.0405525920564156 -0.055372761742996476
4316000000.0 1.0366445622014029 -0.08206593192925161
4319000000.0 0.9981430669062983 -0.10669724892736046
4322000000.0 0.9794658078994025 -0.1453975071493403
4325000000.0 0.9937043195856813 -0.11630480428383676
4328000000.0 1.0125326043857719 -0.14932411287244335
4331000000.0 1.0022738941292857 -0.13315264106066646
4334000000.0 0.9957414532604852 -0.1297591157058622
4338000000.0 1.0019654655467676 -0.1517788029230788
4341000000.0 1.02316618149844 -0.15104216241699678
4344000000.0 1.0157054737147888 -0.17335418601830396
4347000000.0 1.0123828564975768 -0.21096178635008794
4350000000.0 0.9824504204211286 -0.2069757238227823
4353000000.0 0.9825182520146638 -0.18570235934186718
4356000000.0 0.9761775576340005 -0.22413505232466174
4359000000.0 0.9431263145819986 -0.20907376272537298
4362000000.0 0.9824424738875959 -0.2877098585096774
4366000000.0 0.9910124974856811 -0.2275309356527081
4369000000.0 0.9490849437299369 -0.24690532540571336
4372000000.0 0.9560346736966341 -0.2994821706913532
4375000000.0 0.9731575637775705 -0.26004578623925645
4378000000.0 0.9439911612762605 -0.26423412521159684
4381000000.0 0.9511456499841984 -0.26555287099293196
4384000000.0 1.0282620683732955 -0.31754967513811244
4388000000.0 0.9441820252886962 -0.2824790868300465
4391000000.0 0.9721348232386318 -0.3183618068432176
4394000000.0 0.9316676860540538 -0.31509662047440196
4397000000.0 0.9602659481562865 -0.3444434457996822
4400000000.0 0.9753418800833273 -0.3572854056273846
4403000000.0 0.9550190674991145 -0.3541845059635142
4406000000.0 0.9344096622860866 -0.36498627156316993
4409000000.0 0.96710063965602 -0.3903727314039971
4412000000.0 0.8969806834869278 -0.4234372633197994
4416000000.0 0.9155024275984331 -0.38286772485153125
4419000000.0 0.9157594658705435 -0.41214410244588084
4422000000.0 0.9247670748871888 -0.38291228544340766
4425000000.0 0.953793366847671 -0.38108695598685255
4428000000.0 0.9132882783878492 -0.4244796909823285
4431000000.0 0.933844577740464 -0.427672193044246
4434000000.0 0.9136563154703643 -0.4384530510138065
4438000000.0 0.9249350729967329 -0.4485920766427335
4441000000.0 0.9125906870633829 -0.4506183939237848
4444000000.0 0.889147354360101 -0.44706864046016415
4447000000.0 0.9016045529688699 -0.4806573954032101
4450000000.0 0.8908936609702338 -0.48593216920424254
4453000000.0 0.8990898815714492 -0.4953801819240789
4456000000.0 0.8593228356828385 -0.502707602000956
4459000000.0 0.8222277925319923 -0.4966686559903093
4462000000.0 0.9184736976729542 -0.5285999128560511
4466000000.0 0.8829759130422452 -0.5479059658831805
4469000000.0 0.8782119228177395 -0.5353572472865721
4472000000.0 0.8623068028791816 -0.5578781945376821
4475000000.0 0.8409501013025643 -0.5350432453751658
4478000000.0 0.866240246405816 -0.5984301582063166
4481000000.0 0.8093549399302058 -0.5578580352824767
4484000000.0 0.8200152369117315 -0.6082012335385178
4488000000.0 0.8189649057437516 -0.5845773152236261
4491000000.0 0.8392589768249319 -0.5876428277346804
4494000000.0 0.7941595374360495 -0.5610596393382141
4497000000.0 0.8203748822108634 -0.5889257650308214
4500000000.0 0.8127683884024797 -0.6000147178614095
4503000000.0 0.8327078476878342 -0.6252073638795073
4506000000.0 0.792040696796178 -0.6247262041529689
4509000000.0 0.7800584377273435 -0.6237691932748632
4512000000.0 0.7467429230446083 -0.6458088853625003
4516000000.0 0.7830834986541999 -0.6501300151840326
4519000000.0 0.7565309358195582 -0.6422827494691462
4522000000.0 0.7578418533627531 -0.6650386799541603
4525000000.0 0.7796437074535643 -0.6411924500620284
4528000000.0 0.7712052907668288 -0.6757437463296962
4531000000.0 0.7578017733269213 -0.6921498063350404
4534000000.0 0.7077949002955957 -0.6749441065323245
4538000000.0 0.7220410310886215 -0.684282342365247
4541000000.0 0.6905622533944998 -0.7204116289949637
4544000000.0 0.7094112647629867 -0.7078640819141955
4547000000.0 0.7152826743433879 -0.6991959701889228
4550000000.0 0.7035384590149634 -0.7384584548578427
4553000000.0 0.6876063471705172 -0.7341490554873853
4556000000.0 0.6811711041103221 -0.7361675872122159
4559000000.0 0.6717978070206445 -0.7559664835467081
4562000000.0 0.6941855366691871 -0.7546753804598993
4566000000.0 0.6658597104285058 -0.7679843060086222
4569000000.0 0.6491684267997372 -0.7679073420131939
4572000000.0 0.6485586730401939 -0.7775805881115895
4575000000.0 0.6370177291838277 -0.7944321212493138
4578000000.0 0.6629804873197078 -0.7886458245793024
4581000000.0 0.6328832099091961 -0.7990084288229082
4584000000.0 0.6117374293422597 -0.8026608460337885
4588000000.0 0.637584393434059 -0.8278778018825054
4591000000.0 0.6367661293693304 -0.8053617966670624
4594000000.0 0.5769720699665737 -0.8181376457553432
4597000000.0 0.5903389072251605 -0.833798172221862
4600000000.0 0.5718615373589694 -0.8357941265553992
4603000000.0 0.5646038767332759 -0.8419266428777079
4606000000.0 0.5761180385766955 -0.8509864075035461
4609000000.0 0.5696973528810557 -0.8353780441168617
4612000000.0 0.5566701438664285 -0.8600983888581377
4616000000.0 0.5296442682927058 -0.8519510669644017
4619000000.0 0.5402546614007073 -0.8652064165050064
4622000000.0 0.5132411569873662 -0.8704049162211852
4625000000.0 0.49281782239731053 -0.875898976100609
4628000000.0 0.5371812015182912 -0.8789112051013493
4631000000.0 0.49746705214469 -0.8781535913615632
4634000000.0 0.4934787855253175 -0.8896897868660834
4638000000.0 0.4968312039892264 -0.8979503636246008
4641000000.0 0.4845782543005561 -0.8886320043747258
4644000000.0 0.45937473734340944 -0.9167004447199737
4647000000.0 0.4615193182566366 -0.9080245699917753
4650000000.0 0.4493431876524303 -0.9001482728239543
4653000000.0 0.45277016029376194 -0.922295342939172
4656000000.0 0.4354559369200077 -0.9103165857705378
4659000000.0 0.4124506917510224 -0.9498395210311051
4662000000.0 0.4265186941737664 -0.9296310456288682
4666000000.0 0.37423639756493093 -0.945628570006519
4669000000.0 0.40167894297048223 -0.9645685994298596
4672000000.0 0.39253476177485896 -0.9794619155837674
4675000000.0 0.3704380918785922 -0.9618738037838439
4678000000.0 0.3740139034711211 -0.9386954994594733
4681000000.0 0.33399830521252694 -0.9550232782913755
4684000000.0 0.32643250185223854 -0.9752933963214849
4688000000.0 0.30347763149343754 -0.966539438256513
4691000000.0 0.35361673152854095 -0.9667794322548102
4694000000.0 0.3389111506452319 -0.9556827425258771
4697000000.0 0.2659535404002016 -0.9537986573822559
4700000000.0 0.3252048903443385 -0.9613785046284937
4703000000.0 0.32972038563780093 -0.9264211565683012
4706000000.0 0.25044450553491343 -0.9802112242212331
4709000000.0 0.26134241785380635 -0.9746602910285869
4712000000.0 0.28726858777841413 -1.0032255353601995
4716000000.0 0.26287259967687227 -1.0251177898756862
4719000000.0 0.30499874855169046 -1.0041874417534398
4722000000.0 0.23042323672069978 -0.9643489130871155
4725000000.0 0.23454003935950563 -0.9950781302351103
4728000000.0 0.20410447226737172 -0.9711939864198005
4731000000.0 0.23279619926216197 -1.0131961858208438
4734000000.0 0.23840642261688266 -0.9987451127112065
4738000000.0 0.2218713008183088 -1.0471017162872283
4741000000.0 0.15963447226922006 -1.0108108621591076
4744000000.0 0.1807110821881358 -1.0025993033361291
4747000000.0 0.20604854908106912 -0.9739441708088031
4750000000.0 0.18382515923918225 -1.0140985808581617
4753000000.0 0.15866287414471822 -1.028013503087212
4756000000.0 0.13753851506495085 -1.005977414583904
4759000000.0 0.12988549278929137 -1.0282226919780975
4762000000.0 0.10026277638673989 -1.0687765763435522
4766000000.0 0.09265633478984603 -1.0088139233439375
4769000000.0 0.11122639446508137 -1.030855576837367
4772000000.0 0.08388133862003927 -1.0215549499038965
4775000000.0 0.06904794696702302 -1.0810295689615044
4778000000.0 0.05687950552125415 -1.0547648955000568
4781000000.0 0.08290448472142306 -1.0137024218960162
4784000000.0 0.06983320942693039 -1.0258149652190367
4788000000.0 0.02144190945921534 -1.0554632204107413
4791000000.0 0.025688094188471372 -1.0231276879210893
4794000000.0 0.07217104440782054 -1.0632839818045503
4797000000.0 0.012213697806392532 -1.0213312580809675
4800000000.0 0.015781331027884565 -1.01681183841332
4803000000.0 -0.058216206559916495 -1.0411102737228062
4806000000.0 0.004368509692141975 -1.0375355828412458
4809000000.0 -0.08350273936882169 -1.0262504317628554
4812000000.0 -0.09277637020304302 -1.0123058170410995
4816000000.0 -0.013149614316572994 -1.0048532715916307
4819000000.0 -0.013269236971859805 -1.0334472400216486
4822000000.0 -0.05443603697002658 -1.0530353518534648
4825000000.0 -0.03823644866169723 -1.0607483604476646
4828000000.0 -0.0844131020718194 -1.0195139378807099
4831000000.0 -0.13732271384247308 -1.02686903801927
4834000000.0 -0.08151645159090701 -1.038448772357978
4838000000.0 -0.14383247023635093 -1.0426938704307158
4841000000.0 -0.12168744945380659 -1.0037943308880868
4844000000.0 -0.0934829321505451 -1.0371431196073564
4847000000.0 -0.10887312155428697 -1.0043178476901022
4850000000.0 -0.1951183728146546 -1.0315629734616785
4853000000.0 -0.129802394393464 -0.9863805110195174
4856000000.0 -0.16539136785104763 -0.9906002255755327
4859000000.0 -0.1952428655894541 -1.05368776034754
4862000000.0 -0.15797907906795217 -1.004144816018767
4866000000.0 -0.22139687967457455 -1.0279286944721848
4869000000.0 -0.2052308417489674 -1.0057199601701345
4872000000.0 -0.2569581656934931 -1.0051706562608997
4875000000.0 -0.19760149883879802 -1.0649561637724523
4878000000.0 -0.24028437196229782 -1.0175241276886453
4881000000.0 -0.3101740015012207 -1.0575855433971013
4884000000.0 -0.24699415792726864 -1.0183443069748777
4888000000.0 -0.22549950000891839 -0.991949750532629
4891000000.0 -0.2425409959054475 -1.0231914770695267
4894000000.0 -0.31179359042735766 -0.9717845318934455
4897000000.0 -0.25549892776386074 -0.9925485982367886
4900000000.0 -0.29411976660284694 -1.02758779307891
4903000000.0 -0.3087855340415674 -1.0001475328613636
4906000000.0 -0.32625742237516325 -1.013290727764615
4909000000.0 -0.3441677668517816 -0.9671819968651288
4912000000.0 -0.36389200095112767 -1.0093819994460926
4916000000.0 -0.3380674017601138 -1.0341664599114322
4919000000.0 -0.2953908212185006 -1.028748754827434
4922000000.0 -0.3680215504054807 -0.9637678799785845
4925000000.0 -0.3858013881026364 -0.940159663287423
4928000000.0 -0.3101956081323923 -0.9455291532442716
4931000000.0 -0.40122984915156124 -0.9880166035402003
4934000000.0 -0.37593728741154 -0.9348057670983009
4938000000.0 -0.42212759068237915 -0.9450131650089469
4941000000.0 -0.4008255595177487 -0.9165167120546394
4944000000.0 -0.3715511243025216 -0.9270140490733425
4947000000.0 -0.41581083089662874 -0.9093663521122529
4950000000.0 -0.42989992177206104 -0.918109542862919
4953000000.0 -0.49139608537034973 -0.920645980650571
4956000000.0 -0.48875688280370494 -0.9177075425746026
4959000000.0 -0.4883811787461214 -0.8696783196689887
4962000000.0 -0.5222510419281449 -0.9554147447781115
4966000000.0 -0.47672030706565305 -0.9193316377328931
4969000000.0 -0.49725389615340565 -0.9591731998956178
4972000000.0 -0.5049725525296722 -0.9261175526910459
4975000000.0 -0.44170299886889997 -0.8982428177317273
4978000000.0 -0.5138039341203738 -0.9122511943604756
4981000000.0 -0.5164470188658372 -0.8872514660206033
4984000000.0 -0.5509104991046536 -0.8758906450725885
4988000000.0 -0.5224376325833309 -0.8790739106867966
4991000000.0 -0.5276228118751982 -0.9460093412987971
4994000000.0 -0.5635457410094316 -0.9055733245714396
4997000000.0 -0.591399435527107 -0.8473067984755653
5000000000.0 -0.5663477417821252 -0.8679769354112714
5003000000.0 -0.5642251942701269 -0.8778316764523204
5006000000.0 -0.6425000131357003 -0.8761266324203943
5009000000.0 -0.5865111753670496 -0.8464482800388234
5012000000.0 -0.6381414302165005 -0.8604341614692166
5016000000.0 -0.6135852835997597 -0.8812226189609529
5019000000.0 -0.6496460119357671 -0.8242418024260845
5022000000.0 -0.6394386284982362 -0.8251925639104469
5025000000.0 -0.6589107258679008 -0.8480769634004196
5028000000.0 -0.629809972583922 -0.8325538103872123
5031000000.0 -0.6801087696874059 -0.8076586410440347
5034000000.0 -0.717914415431209 -0.8196431608183473
5038000000.0 -0.6563540751553733 -0.785695934899205
5041000000.0 -0.625000188177191 -0.7996221211132476
5044000000.0 -0.6334565154632225 -0.7527735403908516
5047000000.0 -0.6780097560364304 -0.7886087847462611
5050000000.0 -0.6494818275301056 -0.794185973647735
5053000000.0 -0.7771701687804836 -0.7523652148413973
5056000000.0 -0.686388662751187 -0.7198226925249179
5059000000.0 -0.6787210084670665 -0.7697350145604619
5062000000.0 -0.7867448256882967 -0.7324920585720478
5066000000.0 -0.7344435011648168 -0.7436661883571032
5069000000.0 -0.726433476493079 -0.7706550097709014
5072000000.0 -0.7331744396223973 -0.7220970830237197
5075000000.0 -0.7096297796868183 -0.7517413115508746
5078000000.0 -0.7917779655906709 -0.7134022394045745
5081000000.0 -0.7588557814738078 -0.6902850544467843
5084000000.0 -0.7878703814921119 -0.7038191517895347
5088000000.0 -0.7900271134504487 -0.6798436614370651
5091000000.0 -0.7890103957163244 -0.6483056958349387
5094000000.0 -0.8375396078398785 -0.6643735443539994
5097000000.0 -0.828233464971198 -0.6580218331878791
5100000000.0 -0.8417518368725407 -0.658172861882621
5103000000.0 -0.8396121722983583 -0.6046523523918153
5106000000.0 -0.7963642196905062 -0.6557989441333204
5109000000.0 -0.8243263786509325 -0.6477970636917407
5112000000.0 -0.8386263330838243 -0.6336252847171584
5116000000.0 -0.8607425904540073 -0.5883284835174807
5119000000.0 -0.8720450366786022 -0.6430900199720979
5122000000.0 -0.8203243315791955 -0.5457822801432377
5125000000.0 -0.7867362437646038 -0.638944788718474
5128000000.0 -0.8559457462390156 -0.5775970975344666
5131000000.0 -0.858146030390538 -0.5550655982716896
5134000000.0 -0.8798021781615721 -0.5661370110464145
5138000000.0 -0.8267616426108167 -0.5609113830307817
5141000000.0 -0.9097849112376843 -0.6139222483555535
5144000000.0 -0.8771655031317285 -0.5170856499644284
5147000000.0 -0.9075774711578118 -0.5254807761404676
5150000000.0 -0.9138700558522004 -0.5748951847691032
5153000000.0 -0.9507607145215076 -0.4970392507517634
5156000000.0 -0.8797624955858236 -0.5067982117221547
5159000000.0 -0.9431066121900601 -0.5497481491294323
5162000000.0 -0.9334538616481357 -0.4722240606118922
5166000000.0 -0.9149792680681471 -0.4664992457631125
5169000000.0 -0.9149086638569123 -0.48243466830797593
5172000000.0 -0.919955593674203 -0.46681344736947433
5175000000.0 -0.96915187155341 -0.469179459066709
5178000000.0 -0.9815305952919686 -0.4687738442756861
5181000000.0 -0.9718846602696668 -0.3929352695434414
5184000000.0 -0.9185835165171558 -0.38486232984499585
