! Created with skrf 1.8.0 (http://scikit-rf.org).
# Hz S RI R 50.0 
!freq ReS11 ImS11
4000000000.0 0.6143422210923088 0.8118963191409823
4003000000.0 0.6780657936514802 0.870741404299399
4006000000.0 0.648702999910278 0.7967128684784502
4009000000.0 0.6579209217738236 0.8221808699852613
4012000000.0 0.6401844437181414 0.8468839481975842
4016000000.0 0.6856047882292019 0.7172005838498963
4019000000.0 0.6700988570265181 0.7691126843017146
4022000000.0 0.6028210172032459 0.8373063888026194
4025000000.0 0.7655170694522416 0.7848364760750631
4028000000.0 0.7308781402310303 0.7590449206789811
4031000000.0 0.6803335932428719 0.7393550005639455
4034000000.0 0.708142344565136 0.7414799312849666
4038000000.0 0.7140524688979075 0.7349410065095593
4041000000.0 0.7546883427208573 0.7652116072963218
4044000000.0 0.7735226729469087 0.7422517783789025
4047000000.0 0.7095410454279022 0.7561697290896378
4050000000.0 0.8235932399088656 0.7128365494136533
4053000000.0 0.7543682516998371 0.6857649817185296
4056000000.0 0.724381610503815 0.6937759762427204
4059000000.0 0.7453343120839466 0.6971913314741602
4062000000.0 0.7527080196113561 0.7072373586522911
4066000000.0 0.7244541380824487 0.6392271988039432
4069000000.0 0.823887794481969 0.6713240552399639
4072000000.0 0.7891566302414443 0.6898051026541718
4075000000.0 0.7537534411780877 0.718252021698315
4078000000.0 0.8218113222410446 0.6596926358242778
4081000000.0 0.8111227382516014 0.7231592404597013
4084000000.0 0.8158106579590718 0.682599540667072
4088000000.0 0.7772427737531336 0.6520824645166202
4091000000.0 0.8701210203826631 0.6970708688772254
4094000000.0 0.7976742039786657 0.6326565557345797
4097000000.0 0.7988383021662507 0.5988260288829992
4100000000.0 0.8586363169935816 0.5934982473927046
4103000000.0 0.8225342501117692 0.6624659192991966
4106000000.0 0.8683730799799423 0.5844416713443161
4109000000.0 0.8517680982954874 0.596703839228294
4112000000.0 0.8542548090854498 0.5808268425749696
4116000000.0 0.8592481523723882 0.6092129493618164
4119000000.0 0.8793492227841292 0.5673135591558701
4122000000.0 0.9178821234918705 0.5443585824502641
4125000000.0 0.8945326549776216 0.5584116625644311
4128000000.0 0.8191784456762281 0.5318836012562697
4131000000.0 0.8599972001424532 0.5374149800355116
4134000000.0 0.8728563791913454 0.545532521738606
4138000000.0 0.8755191872088801 0.509223488424263
4141000000.0 0.875199185201699 0.5029456698386569
4144000000.0 0.8818624757713294 0.5423859489486034
4147000000.0 0.8719257319633453 0.5004208136100414
4150000000.0 0.9198883678166417 0.4864214060285574
4153000000.0 0.9396070701042789 0.4859581414073275
4156000000.0 0.9164843315839448 0.541390450884421
4159000000.0 0.8835416945003385 0.466534253886208
4162000000.0 0.895301562379113 0.47832741938509504
4166000000.0 0.9419978125906332 0.4527665284132538
4169000000.0 0.9262510197633809 0.43265281942744205
4172000000.0 0.931904444795763 0.48530400782309085
4175000000.0 0.9282772722446839 0.42460822729114217
4178000000.0 0.945939403382743 0.43246625696194196
4181000000.0 0.9504345229783924 0.42360958963918194
4184000000.0 0.9509184677703593 0.4197908727203084
4188000000.0 0.951600148673466 0.4103875266883453
4191000000.0 0.9071885521091265 0.4327052262305697
4194000000.0 0.921392067544862 0.3771385679297685
4197000000.0 0.9645887824334314 0.40132600201129115
4200000000.0 0.9425547834010579 0.38873951645705107
4203000000.0 0.9592083167216483 0.3928053662722889
4206000000.0 0.9635164791728293 0.37917403240526454
4209000000.0 0.9503339668447643 0.37616245593766
4212000000.0 0.9837786077782307 0.3249205681001799
4216000000.0 0.9542906375834557 0.3466721937715122
4219000000.0 0.987287222402393 0.36666035294645405
4222000000.0 0.9760182844017509 0.3397704363089759
4225000000.0 0.9658354832684775 0.32035965092951224
4228000000.0 0.9787682708585377 0.3283730836298143
4231000000.0 0.9841626193502996 0.30137406780833287
4234000000.0 1.0082893305101441 0.2917137979763658
4238000000.0 0.9893703071272315 0.2855816371521288
4241000000.0 0.991748288285599 0.26413533444112125
4244000000.0 1.0141771777858082 0.2868443961221761
4247000000.0 0.987008151559705 0.2822814682368318
4250000000.0 0.9882662479874225 0.25272013253447606
4253000000.0 0.9685168405295053 0.24625339197634138
4256000000.0 1.0204135638746628 0.2290872215532943
4259000000.0 0.9691810697281967 0.22130525188419684
4262000000.0 0.9939217245728418 0.1981626574608911
4266000000.0 1.0086102279208444 0.20374791427016542
4269000000.0 0.9959274759992713 0.1944511387966659
4272000000.0 0.9975591441919178 0.19441385156318242
4275000000.0 1.0054608537016476 0.19155551170728008
4278000000.0 1.0089590344015835 0.2005424527309922
4281000000.0 1.021691470962789 0.18178926777991172
4284000000.0 1.0200156235816857 0.14234068329333827
4288000000.0 1.0212864505091448 0.19644976146553525
4291000000.0 0.9894346144295024 0.1243801470241339
4294000000.0 1.023865433727718 0.11796718999383869
4297000000.0 1.0094955931000618 0.1397640063615811
4300000000.0 1.0047518489538354 0.14455930542626652
4303000000.0 1.0010866945665775 0.12249187736492036
4306000000.0 1.019778219650912 0.14198265742329
4309000000.0 1.0213681185748338 0.0997949777970951
4312000000.0 1.0383909560538533 0.14578149588656927
4316000000.0 1.0222494175338965 0.0777042288910141
4319000000.0 0.9931045328298623 0.08600995908425403
4322000000.0 1.012477139001386 0.03760888302385164
4325000000.0 1.0149109706866395 0.03659122083434098
4328000000.0 1.020033187321244 0.03417823786634509
4331000000.0 1.016220015184624 0.0023093332589817495
4334000000.0 1.0380489163406545 0.033772360967026904
4338000000.0 1.0136590522030948 0.028938884190964034
4341000000.0 1.0380727842012165 0.044303370317782725
4344000000.0 1.037653680907939 0.008745038915938724
4347000000.0 1.050710547379368 -0.040479892980687215
4350000000.0 0.9955862561983465 -0.031235099407004516
4353000000.0 0.9976940592170656 -0.021924579730619065
4356000000.0 1.016789486595031 -0.029435125682343716
4359000000.0 0.9709436529613943 -0.05074359465938366
4362000000.0 1.0344117899565066 -0.09645153638918978
4366000000.0 1.0375478322836018 -0.07680518102172049
4369000000.0 0.9830945020013084 -0.08661631875733956
4372000000.0 1.0022890013311243 -0.12213445423567659
4375000000.0 1.00065699397543 -0.07382658529635702
4378000000.0 0.9967096593804454 -0.09897235585321702
4381000000.0 0.9994555853195208 -0.08373353611197798
4384000000.0 1.0758137482099617 -0.12508402132359986
4388000000.0 0.9928866747779093 -0.12319130398746499
4391000000.0 1.0096068070686748 -0.11791772034778243
4394000000.0 0.9587372939590595 -0.1566657191981084
4397000000.0 0.9995157669978347 -0.15330518889889722
4400000000.0 1.027486398034662 -0.17368020242062676
4403000000.0 0.9975077312633592 -0.16081468062476473
4406000000.0 1.0126852465408862 -0.1967012472861267
4409000000.0 1.0316027323694779 -0.1927484694772581
4412000000.0 0.9814595059622371 -0.23918425338345115
4416000000.0 0.9825200572634429 -0.20147768133098684
4419000000.0 0.9795969631694212 -0.22326020115695047
4422000000.0 0.9842322698382999 -0.19109237426062733
4425000000.0 1.016899603366674 -0.19651616502955693
4428000000.0 0.9850941029704681 -0.25022145870320495
4431000000.0 1.0007088186690292 -0.25241802883494396
4434000000.0 0.9758550177955049 -0.27050289308314285
4438000000.0 1.006999746343776 -0.260663276294244
4441000000.0 0.9838431208704523 -0.26523423988177985
4444000000.0 0.9534982658861333 -0.2689522643905494
4447000000.0 0.9565207871889714 -0.29810391113866125
4450000000.0 0.9494770619757186 -0.2767273392251689
4453000000.0 1.0005682892210954 -0.30824490829313195
4456000000.0 0.9408535051385046 -0.3142789976235795
4459000000.0 0.9174355542068888 -0.3163666668256815
4462000000.0 1.0224080457491553 -0.32661896703380855
4466000000.0 0.9854636660130748 -0.3579576630459472
4469000000.0 0.9569513827841412 -0.34049049785221697
4472000000.0 0.9515691140690777 -0.3821743578955117
4475000000.0 0.9136355291618996 -0.34323921423444353
4478000000.0 0.9695852573473309 -0.4079796713079079
4481000000.0 0.9161278519091757 -0.3764333973890046
4484000000.0 0.9052980812421187 -0.4288717683590626
4488000000.0 0.9397100020710731 -0.409749499365996
4491000000.0 0.9305243954835603 -0.40969237535497427
4494000000.0 0.9041445031828999 -0.3942503961295061
4497000000.0 0.9194923110559432 -0.3913289060900234
4500000000.0 0.9381160771884891 -0.41851261878055623
4503000000.0 0.9417158743147356 -0.4342634118028848
4506000000.0 0.9058966136043711 -0.45888767900398425
4509000000.0 0.9019640571931982 -0.42798699839218945
4512000000.0 0.8950602898051173 -0.4658223635684222
4516000000.0 0.9148088770517778 -0.4777779663432935
4519000000.0 0.8698062261830545 -0.45383370536877343
4522000000.0 0.8936547000729429 -0.5014924586604811
4525000000.0 0.9042798712163174 -0.4681616603829022
4528000000.0 0.9052211035966475 -0.500820560218532
4531000000.0 0.8854608085464871 -0.4815990973751991
4534000000.0 0.8557633438114159 -0.500101096293268
4538000000.0 0.8698787275379263 -0.5335700895146205
4541000000.0 0.8388353105652345 -0.5621382622615989
4544000000.0 0.8287503375171543 -0.5327108118069606
4547000000.0 0.8657305020265307 -0.510578291039602
4550000000.0 0.844207574806235 -0.5734205544281823
4553000000.0 0.8487797968166164 -0.564613057330754
4556000000.0 0.8061843616276057 -0.5705808895135911
4559000000.0 0.8337569352571288 -0.573217253621997
4562000000.0 0.850509314635203 -0.5776324926607203
4566000000.0 0.829493238042984 -0.5907922453614818
4569000000.0 0.7992865776042904 -0.577475545133803
4572000000.0 0.8182465611412297 -0.6068355735925313
4575000000.0 0.818185848860882 -0.6324806445626115
4578000000.0 0.8271197846311376 -0.6106682626131592
4581000000.0 0.7983680246322079 -0.6340483703534833
4584000000.0 0.7872041096902406 -0.6281192092177408
4588000000.0 0.806014032596973 -0.6429811258946507
4591000000.0 0.7870660715269087 -0.6327322342248299
4594000000.0 0.7529607858781128 -0.6650808426747855
4597000000.0 0.7877845523653226 -0.6584289853203652
4600000000.0 0.7422698609014592 -0.679752903303392
4603000000.0 0.7376634851332253 -0.6952594220989339
4606000000.0 0.7404958513950367 -0.6797839149020637
4609000000.0 0.7592320972727964 -0.6955313053512707
4612000000.0 0.733714217829414 -0.7065681653868859
4616000000.0 0.7305853166385547 -0.7044284186718573
4619000000.0 0.7181350853706676 -0.6972985581546013
4622000000.0 0.7236607774665142 -0.6998755804976454
4625000000.0 0.6797616935571648 -0.7332110112050373
4628000000.0 0.7196719382393744 -0.7043548291033014
4631000000.0 0.6889313313725098 -0.7400070664874022
4634000000.0 0.6985559325534857 -0.7407052875478342
4638000000.0 0.6942518258559642 -0.7521561228815007
4641000000.0 0.6917229349771795 -0.7467257235709434
4644000000.0 0.6916308751579581 -0.7552748106658621
4647000000.0 0.6732113989177136 -0.7596356457336796
4650000000.0 0.6582693271638531 -0.7683942664880985
4653000000.0 0.6816126583545091 -0.7662833257892268
4656000000.0 0.6302058754732605 -0.7824068565225177
4659000000.0 0.6240227035513389 -0.800262058296745
4662000000.0 0.6377856879110836 -0.7947377286313919
4666000000.0 0.6192879486300523 -0.7872479866091052
4669000000.0 0.6381898593272879 -0.8076096546263425
4672000000.0 0.610097709767057 -0.8412832244686222
4675000000.0 0.5893950070996176 -0.8252716848643764
4678000000.0 0.5960940717120167 -0.8112214911208987
4681000000.0 0.5658004384596134 -0.848779293261518
4684000000.0 0.5753091757569413 -0.8619610638188477
4688000000.0 0.5342585600355941 -0.8411491620529772
4691000000.0 0.5857807578896261 -0.8229502237389514
4694000000.0 0.5757334791293269 -0.807914845386031
4697000000.0 0.5235768045934375 -0.8440865501364527
4700000000.0 0.547488229032447 -0.8580925494650695
4703000000.0 0.5634688077133243 -0.839573915812647
4706000000.0 0.5239325412762859 -0.8622848986683886
4709000000.0 0.5186867340959759 -0.8653628563668152
4712000000.0 0.518075158174188 -0.8665015389234406
4716000000.0 0.5001651721292665 -0.897163207505115
4719000000.0 0.5326371074598897 -0.8958965328918767
4722000000.0 0.5368611276363173 -0.8866696891985157
4725000000.0 0.4835026944538787 -0.9223951427137903
4728000000.0 0.45771750010809725 -0.914436727092421
4731000000.0 0.5060931887102171 -0.9232135162193706
4734000000.0 0.4586680107590425 -0.8739733048281775
4738000000.0 0.4909445197285015 -0.9631302180429098
4741000000.0 0.4103543091335604 -0.943730845889608
4744000000.0 0.41846196932012764 -0.9518293729619215
4747000000.0 0.4311230534050783 -0.8801642386523194
4750000000.0 0.42700735283480523 -0.9363145958523934
4753000000.0 0.40572008731898984 -0.9321629931528119
4756000000.0 0.39620703293863674 -0.9471824708559673
4759000000.0 0.416530154132577 -0.9406839586952925
4762000000.0 0.3735132843025375 -0.9813451007589525
4766000000.0 0.39310286150352924 -0.9246473977918152
4769000000.0 0.3549086122841465 -0.9577494402007748
4772000000.0 0.36273865072298833 -0.9641095315128958
4775000000.0 0.36378967025424036 -1.0477967749101118
4778000000.0 0.34736209311934724 -0.9867121569461156
4781000000.0 0.34459336387634404 -0.9487044512369394
4784000000.0 0.38632312983893546 -0.9561851600581835
4788000000.0 0.33081175915934213 -0.9856687376856628
4791000000.0 0.30668741991766674 -0.970174895402364
4794000000.0 0.33026281921874856 -0.9960664838727382
4797000000.0 0.28808004453973346 -0.9644327523256341
4800000000.0 0.2743303604016293 -0.977281240837991
4803000000.0 0.23778381837662596 -0.9968804233471904
4806000000.0 0.26127843607274764 -0.9969694474957898
4809000000.0 0.2261603651432009 -1.0007391637802763
4812000000.0 0.22862058260366422 -1.0039003064508814
4816000000.0 0.2872544720941104 -0.9689252757966373
4819000000.0 0.28049742634021746 -1.0093652427269026
4822000000.0 0.26132051324377165 -1.0376646192148196
4825000000.0 0.253058987988593 -1.0365201926614973
4828000000.0 0.20797022905676804 -0.9991808678255719
4831000000.0 0.1805264130559217 -1.0318159609464252
4834000000.0 0.23886692042908456 -1.0124774863575816
4838000000.0 0.19927946186238635 -1.0371069629740757
4841000000.0 0.17321850070695177 -1.0024866896950217
4844000000.0 0.21562843701816714 -1.027090942943743
4847000000.0 0.19793794629520428 -0.9757817161179487
4850000000.0 0.1744644020470618 -1.0480469490559874
4853000000.0 0.16630871123437735 -0.9670614241279099
4856000000.0 0.13214019801005017 -1.0020673895455925
4859000000.0 0.13432962678069785 -1.0549752657192313
4862000000.0 0.1522741767071703 -0.9901371762376473
4866000000.0 0.1074272227481129 -1.039858342270913
4869000000.0 0.10899429728540107 -1.0358832744505342
4872000000.0 0.09377344709288842 -1.042560852792027
4875000000.0 0.14298051768242742 -1.045482642576994
4878000000.0 0.09810195361045007 -1.0308892119822077
4881000000.0 0.0606876999020265 -1.0853503152540422
4884000000.0 0.08084387199537937 -1.0250690144793686
4888000000.0 0.10760257932556791 -1.0185265313389358
4891000000.0 0.092782532697925 -1.0270511504875182
4894000000.0 0.01852936443596751 -1.0006410629581592
4897000000.0 0.08124666060645008 -1.0117325433201667
4900000000.0 0.024167899398409395 -1.0731477629975616
4903000000.0 0.050504759089454856 -1.0429183677597598
4906000000.0 0.0170520700955282 -1.0556336437979026
4909000000.0 -0.0002207487598659165 -1.0390934323202852
4912000000.0 -0.022270245936601714 -1.075546531920851
4916000000.0 -0.009530506259912114 -1.0536864941539128
4919000000.0 0.027957757714877053 -1.0556610078299964
4922000000.0 -0.009955708762318466 -1.0443286872105049
4925000000.0 -0.06748531482076556 -1.0321019181045816
4928000000.0 0.011060824570732389 -1.0428319329624438
4931000000.0 -0.013431297318656138 -1.0673251025015111
4934000000.0 -0.06400830423177047 -0.9812929499697812
4938000000.0 -0.10753727840124248 -1.0527752593895812
4941000000.0 -0.034898989349162454 -1.0204968908451189
4944000000.0 -0.052915684851736866 -0.9871654033991168
4947000000.0 -0.08458915964581973 -0.9845086688370016
4950000000.0 -0.09834949571860423 -0.9925665321844399
4953000000.0 -0.12717486245780862 -1.053429762541593
4956000000.0 -0.1326660541985734 -1.0024929354837533
4959000000.0 -0.16740089318523146 -0.9757396115899264
4962000000.0 -0.16355240294578885 -1.0671508818345314
4966000000.0 -0.1501647246668179 -1.0661454270312698
4969000000.0 -0.13872173846402358 -1.1005215481653354
4972000000.0 -0.18445334166969432 -1.0232903953685422
4975000000.0 -0.12433681220028434 -1.010302274679088
4978000000.0 -0.22705482961025314 -1.0234126116530133
4981000000.0 -0.18675780093731534 -0.999698612403604
4984000000.0 -0.20357944229609207 -0.9812754888501276
4988000000.0 -0.19024469833123253 -1.0289468940981394
4991000000.0 -0.1451773804670971 -1.0606811929185374
4994000000.0 -0.209117954883888 -0.9977731767832226
4997000000.0 -0.26475444000303766 -0.9949885689391618
5000000000.0 -0.22233553693280644 -1.081251399204184
5003000000.0 -0.2018411543994838 -1.030687769344451
5006000000.0 -0.2603267779661905 -1.0832216671204424
5009000000.0 -0.257798025134246 -1.0331277469494362
5012000000.0 -0.24918838610022181 -1.0064552984363495
5016000000.0 -0.24401298239945296 -1.0391896817415318
5019000000.0 -0.2801210946431164 -1.0281364653056035
5022000000.0 -0.2563249494899007 -0.9972677268029275
5025000000.0 -0.30213813548298046 -1.0652268822960609
5028000000.0 -0.3239569143334454 -1.0232383540995027
5031000000.0 -0.3265976266691868 -0.9877744044607034
5034000000.0 -0.35887002714996596 -1.0030678309695102
5038000000.0 -0.3646088137425192 -0.9670586532863061
5041000000.0 -0.2950941804733076 -0.9856085544811765
5044000000.0 -0.3220303104268494 -0.9842952483127284
5047000000.0 -0.3435362759460701 -0.9933296993827955
5050000000.0 -0.2945110916589705 -0.9777178758019072
5053000000.0 -0.3910338411404859 -0.9983440196667093
5056000000.0 -0.3461441046758029 -0.9982977938237327
5059000000.0 -0.3260016201427211 -0.9922629966284763
5062000000.0 -0.43193557060915955 -0.9977249560781416
5066000000.0 -0.3490521678829829 -0.9821158203462963
5069000000.0 -0.40691378926125665 -0.9859260694670878
5072000000.0 -0.39671471872437686 -0.9827229782187021
5075000000.0 -0.4009133058639269 -0.9705536539936033
5078000000.0 -0.4347366659413047 -0.9288800289169952
5081000000.0 -0.4258645071512814 -0.9254753087245123
5084000000.0 -0.4389537219022701 -0.9697335775282201
5088000000.0 -0.3997435986456203 -0.9177745975905665
5091000000.0 -0.4595618684811679 -0.9699936064640768
5094000000.0 -0.5118754155006936 -0.9495840385835007
5097000000.0 -0.43322532309589723 -0.9541276207885128
5100000000.0 -0.4795481201981991 -0.9426720522565207
5103000000.0 -0.5100671373308742 -0.9585861336588973
5106000000.0 -0.5001229416722905 -0.9980119327710131
5109000000.0 -0.42675240335362863 -0.9548264769032615
5112000000.0 -0.532751163772509 -0.8875522103055045
5116000000.0 -0.508346886147305 -0.882850223274545
5119000000.0 -0.49731722793779864 -0.9230835614629069
5122000000.0 -0.5133779197550001 -0.9143420327775005
5125000000.0 -0.5235018938069887 -0.9128965139664987
5128000000.0 -0.5486039619728952 -0.9083725034577623
5131000000.0 -0.544442922930512 -0.9133950315803178
5134000000.0 -0.5482912950885391 -0.9083222692370128
5138000000.0 -0.5209990740599696 -0.8944461779958593
5141000000.0 -0.5232716775907066 -0.9202485383257313
5144000000.0 -0.5358895394324014 -0.9024809166997231
5147000000.0 -0.5707500867835316 -0.8850768195726659
5150000000.0 -0.6331525162641767 -0.8872663904612953
5153000000.0 -0.5787185372279324 -0.8921045973629778
5156000000.0 -0.5620469801261949 -0.9029391436005076
5159000000.0 -0.6068994502130519 -0.8799157484870618
5162000000.0 -0.6472626479056223 -0.8453936667789644
5166000000.0 -0.6305072450585136 -0.8910572871069187
5169000000.0 -0.61586502967949 -0.8671935204077267
5172000000.0 -0.5902582975499092 -0.827304540870275
5175000000.0 -0.6434967488663058 -0.8834605090351973
5178000000.0 -0.6308758771021428 -0.8338243705020355
5181000000.0 -0.6751362128530454 -0.8362514473650303
5184000000.0 -0.6144005477618153 -0.8124289670901063
5188000000.0 -0.6418722072100641 -0.8588056897190384
