! Created with skrf 1.8.0 (http://scikit-rf.org).
# Hz S RI R 50.0 
!freq ReS11 ImS11
4000000000.0 0.6724932772265426 0.7819523741158927
4003000000.0 0.740980143061661 0.798747557913346
4006000000.0 0.7550511594732232 0.7450725582519657
4009000000.0 0.7145661234114279 0.7447021757203077
4012000000.0 0.6579579583880732 0.7871899025631308
4016000000.0 0.7717404735058911 0.7586245630009445
4019000000.0 0.7491035009175184 0.7288380748924851
4022000000.0 0.6888753811026032 0.7839667340598085
4025000000.0 0.7686173691113648 0.7064561408325867
4028000000.0 0.7628532396932972 0.6981533820665267
4031000000.0 0.731878544554327 0.6850797438297962
4034000000.0 0.7953024452660357 0.6666013943747144
4038000000.0 0.7934364265206698 0.7140154485054164
4041000000.0 0.7835964231522579 0.6652087778771886
4044000000.0 0.7914371019529505 0.7231215353116084
4047000000.0 0.8098730187413926 0.7189977518924002
4050000000.0 0.8356986034963837 0.6827875716042784
4053000000.0 0.8039844645715736 0.6396665123009881
4056000000.0 0.8021523927708022 0.660989401984425
4059000000.0 0.7724067061956231 0.6470595324361452
4062000000.0 0.8451238690107841 0.6335367999106929
4066000000.0 0.7655695831198277 0.5750485512767469
4069000000.0 0.8828676090645224 0.6122943954974003
4072000000.0 0.8337767613542961 0.6568386819232042
4075000000.0 0.8338860565367451 0.6846658091873592
4078000000.0 0.8414812618376246 0.6029113401231246
4081000000.0 0.8326775395691643 0.6337593552864861
4084000000.0 0.8548985383597731 0.5936249440264088
4088000000.0 0.8313762854663389 0.6246839480225349
4091000000.0 0.9209786825279128 0.6291938698367261
4094000000.0 0.8401386819963026 0.579701163390171
4097000000.0 0.8675884833643697 0.5534731513687114
4100000000.0 0.8816691368915577 0.5340892309114029
4103000000.0 0.868778772699317 0.5783474995178626
4106000000.0 0.8865298548801428 0.5154112207526863
4109000000.0 0.9190681367139564 0.503157725877742
4112000000.0 0.91030420799513 0.5409720286584423
4116000000.0 0.9030905741059193 0.5192080359141449
4119000000.0 0.9395144595035948 0.5154871526497531
4122000000.0 0.9339762544451634 0.5018420124350406
4125000000.0 0.9496368160780342 0.534794649054176
4128000000.0 0.8500700010111149 0.48130485823023705
4131000000.0 0.9272839826413041 0.4604536378523095
4134000000.0 0.879285715327589 0.51070917441431
4138000000.0 0.8988492642822212 0.4381238112446068
4141000000.0 0.9111315730645331 0.47845256270888425
4144000000.0 0.9562784443381772 0.49709153664152744
4147000000.0 0.931141873127533 0.4154606231116627
4150000000.0 0.9510293600330807 0.42776696894095584
4153000000.0 0.967929502674018 0.4377619102454048
4156000000.0 0.9347366979090395 0.4469853673423495
4159000000.0 0.9629622922302312 0.45829137326211006
4162000000.0 0.9434705914598684 0.3886063148553285
4166000000.0 0.9374552115077879 0.41232422851233463
4169000000.0 0.9481591336603574 0.38379078469643846
4172000000.0 0.9421413113804226 0.37511857524827424
4175000000.0 0.9659976172671496 0.37682491361821174
4178000000.0 0.9709332761652247 0.3700666238461916
4181000000.0 0.9893636578403759 0.36495359067925337
4184000000.0 0.9717797094470179 0.34430595458024144
4188000000.0 0.9717885318404424 0.34169362317296736
4191000000.0 0.9332391962308788 0.38239105022225
4194000000.0 0.9568624277044846 0.3200649809312376
4197000000.0 1.00095011575893 0.33803388673386786
4200000000.0 0.9708635555919356 0.3436334025514174
4203000000.0 0.9828666473598817 0.32487739254454684
4206000000.0 0.9816092639051877 0.31208510163434894
4209000000.0 0.974028721520835 0.2805787614686877
4212000000.0 0.9851471620282823 0.2521412725756541
4216000000.0 0.9901966926662342 0.3005523449092849
4219000000.0 1.0055262667812794 0.2669173847559537
4222000000.0 0.9897050662224656 0.24345038258866847
4225000000.0 0.9898770701062443 0.2514465435166534
4228000000.0 1.0059977076214293 0.2417930302822928
4231000000.0 0.9931688193310819 0.21416244315384853
4234000000.0 1.0119730855387439 0.2275714523324595
4238000000.0 0.9980688121092697 0.2051596234662276
4241000000.0 0.9846514120798067 0.17512342410068998
4244000000.0 0.990114114683855 0.196435857257115
4247000000.0 1.0157675632818448 0.18387889996922424
4250000000.0 0.977075079244462 0.17822701402788355
4253000000.0 0.983737683367873 0.14506696273729575
4256000000.0 1.027986439459581 0.16137730458709876
4259000000.0 0.989499935704415 0.12107943590370854
4262000000.0 1.0158174648800706 0.11538367756041801
4266000000.0 1.0507447023027425 0.11252598858129564
4269000000.0 1.0105568116454418 0.1116138114388161
4272000000.0 0.9888183439431587 0.13992364240812108
4275000000.0 1.0218211190346067 0.09906472525629584
4278000000.0 1.0339150888292563 0.10880586902176562
4281000000.0 1.0210554666596867 0.11303532180014082
4284000000.0 1.047953760924866 0.04825760261416287
4288000000.0 1.0032883279465294 0.11283919494485578
4291000000.0 1.00026674631347 0.05137579678431946
4294000000.0 1.0166741647802513 0.016169655582919842
4297000000.0 1.0169648185229845 0.052745048305690295
4300000000.0 1.015248006959321 0.05231064984709697
4303000000.0 1.0124855307024256 0.008247400098148103
4306000000.0 1.0361878331023453 0.043756930118894075
4309000000.0 0.9913632021867111 0.015817838153342242
4312000000.0 1.0529669996210236 0.047104469501227375
4316000000.0 1.0242653224246006 0.019679592236071033
4319000000.0 0.996798830411889 0.0010849923190767163
4322000000.0 1.0013400460170252 -0.07599065203303793
4325000000.0 1.033357110402822 -0.007535174540995754
4328000000.0 1.0154504943577172 -0.04417686869549421
4331000000.0 1.0261134219352943 -0.09353840239842535
4334000000.0 1.0357928757893369 -0.07564740012330912
4338000000.0 1.0078632314923783 -0.027980882726660883
4341000000.0 1.0321760163094291 -0.04175683584908793
4344000000.0 1.0483471815619052 -0.06696827631607005
4347000000.0 1.0121161686795428 -0.12932803837033127
4350000000.0 0.9590063831131368 -0.11170212944026209
4353000000.0 0.9897891964289869 -0.10910133706836726
4356000000.0 0.9735311855864522 -0.13705514767527166
4359000000.0 0.9463528121852707 -0.12480998443745595
4362000000.0 1.0159863487961893 -0.18976171620979446
4366000000.0 1.0312747739664614 -0.14822451092531239
4369000000.0 0.957658845588247 -0.17428236084397997
4372000000.0 0.9844100915678893 -0.21253932892054264
4375000000.0 0.9942942230479292 -0.16118586217205774
4378000000.0 0.9728057257219925 -0.19425410224781883
4381000000.0 0.982695861958413 -0.1950935079864744
4384000000.0 1.0652292027879495 -0.20435951709354633
4388000000.0 0.9743109789906095 -0.19697531655316003
4391000000.0 1.0039573675688314 -0.2204134371692215
4394000000.0 0.9743219450972501 -0.22900666895834593
4397000000.0 0.9841997402773079 -0.2474223526417979
4400000000.0 1.003622402742861 -0.2643517438340738
4403000000.0 0.9879863405482712 -0.2541806197903005
4406000000.0 0.9809567093978128 -0.28003226627204114
4409000000.0 0.9981004331584762 -0.29579417721883244
4412000000.0 0.9543692895655078 -0.3409686658803243
4416000000.0 0.9629855241015 -0.30805630208319634
4419000000.0 0.9563160095349417 -0.33032022293203644
4422000000.0 0.9719826563650362 -0.2972632402699421
4425000000.0 0.9812582499600695 -0.29579163682954707
4428000000.0 0.9498806681604193 -0.3347767161969945
4431000000.0 0.9743752190696955 -0.3305079349368921
4434000000.0 0.9303065961292132 -0.34789208364957414
4438000000.0 0.9691357940535206 -0.35622791983725705
4441000000.0 0.9598930282660738 -0.3682441088079762
4444000000.0 0.926969680623434 -0.35346324161116915
4447000000.0 0.929084433162977 -0.3916410382959886
4450000000.0 0.9218669247291862 -0.37400978423763864
4453000000.0 0.9614944518354739 -0.40445305540320714
4456000000.0 0.9061209336672212 -0.41548330205823725
4459000000.0 0.8788005079521324 -0.40219125601808425
4462000000.0 0.9792702536643463 -0.4560582485645257
4466000000.0 0.9572634694975657 -0.4573810108850962
4469000000.0 0.9240871230826493 -0.42959221902942213
4472000000.0 0.92720042675635 -0.4745081356659672
4475000000.0 0.8904807698650261 -0.44945559684216785
4478000000.0 0.9234544164008611 -0.5130871303249567
4481000000.0 0.8583835282353669 -0.4510279376575475
4484000000.0 0.8637820331087009 -0.5217155177825683
4488000000.0 0.8658786329926238 -0.4941680645517501
4491000000.0 0.8835349049882989 -0.5131465354549203
4494000000.0 0.8693935622032353 -0.5020565230085069
4497000000.0 0.8598918721702693 -0.4883257976585212
4500000000.0 0.8706258705191181 -0.522450056283329
4503000000.0 0.8839364074213749 -0.5383317018791796
4506000000.0 0.8734292328484328 -0.5425555837354378
4509000000.0 0.8486064584420103 -0.5400187841445664
4512000000.0 0.8152893992062125 -0.5526505863711728
4516000000.0 0.8532861960175054 -0.5776455626194041
4519000000.0 0.843921694972559 -0.5393583470292449
4522000000.0 0.8227045866907052 -0.5864293792041758
4525000000.0 0.8523725226450176 -0.5472306904504727
4528000000.0 0.846024729478497 -0.6160005278492806
4531000000.0 0.8214991975173719 -0.6022859116585771
4534000000.0 0.7962361175227667 -0.6019433475565814
4538000000.0 0.7945499812389194 -0.6209108356282186
4541000000.0 0.7801162987349404 -0.6256033423067674
4544000000.0 0.7740671369128229 -0.6145384501204723
4547000000.0 0.8013320541451514 -0.6048387586890982
4550000000.0 0.8035278925661624 -0.6599657730999483
4553000000.0 0.7887032772929938 -0.6631568063586407
4556000000.0 0.7560307669734716 -0.6542255609719037
4559000000.0 0.7612241811827275 -0.6810334469456467
4562000000.0 0.7846113932936138 -0.6809143343911167
4566000000.0 0.7591182476830993 -0.6974412198415787
4569000000.0 0.735634977664033 -0.6825701697515845
4572000000.0 0.7585454422431902 -0.6920813939851506
4575000000.0 0.7374048218587026 -0.7057171472824303
4578000000.0 0.7497453811766916 -0.6956516776192201
4581000000.0 0.7225537910766189 -0.7222788221299283
4584000000.0 0.7014570866759356 -0.7279386427864417
4588000000.0 0.7351756042960179 -0.7217638017017274
4591000000.0 0.7143817045428225 -0.7153254643555267
4594000000.0 0.6669549710261923 -0.7597362578120599
4597000000.0 0.6938969429895068 -0.7667188452332401
4600000000.0 0.6662445033359489 -0.7648903341001809
4603000000.0 0.6658479949690751 -0.7634644210514783
4606000000.0 0.6733020225715219 -0.7666019948120537
4609000000.0 0.6600088887717735 -0.7678870694234913
4612000000.0 0.648806964487048 -0.7836448194590785
4616000000.0 0.6314825076896182 -0.761199353337848
4619000000.0 0.6206805274399354 -0.787038257382254
4622000000.0 0.642719893155262 -0.8105926496647827
4625000000.0 0.6020282467056537 -0.8116551208003211
4628000000.0 0.6320659978450908 -0.810142512257476
4631000000.0 0.6023823070111196 -0.8182875091532412
4634000000.0 0.6014184449946363 -0.8223942332080719
4638000000.0 0.606320931202276 -0.8227871574805936
4641000000.0 0.6009258011414279 -0.8300127116853018
4644000000.0 0.5780996100671355 -0.8392839076272741
4647000000.0 0.5931504018393297 -0.855802301526039
4650000000.0 0.5451355456319957 -0.8307986217501203
4653000000.0 0.5581912237003601 -0.8598309177467077
4656000000.0 0.5603845791276003 -0.8555851133476473
4659000000.0 0.5323778476505767 -0.8663954209513883
4662000000.0 0.531347775017295 -0.8477780647935316
4666000000.0 0.5251678936866723 -0.8763286022011301
4669000000.0 0.5177948415571687 -0.8785851673432393
4672000000.0 0.5231289666012745 -0.9096606030044342
4675000000.0 0.4793252959483708 -0.9000378249541865
4678000000.0 0.5041887540862706 -0.860174912253059
4681000000.0 0.4543926491675882 -0.9113210762197177
4684000000.0 0.4495543899721138 -0.9192229983415205
4688000000.0 0.46859352561458517 -0.8875399120639312
4691000000.0 0.4990637041612711 -0.9073283884589103
4694000000.0 0.47143686348232416 -0.8909128430714763
4697000000.0 0.4009964076102036 -0.9063029691754649
4700000000.0 0.4401850527069325 -0.9099605984887469
4703000000.0 0.4363824110168435 -0.8606951210430949
4706000000.0 0.41863065583748393 -0.8972668593249056
4709000000.0 0.412714648494025 -0.91700077213465
4712000000.0 0.4040334528231233 -0.923586474815988
4716000000.0 0.40048762180840464 -0.9513366600774924
4719000000.0 0.4260643483524435 -0.9396658678417618
4722000000.0 0.4031654332137852 -0.9165339906611067
4725000000.0 0.3676046859566461 -0.9346013389698271
4728000000.0 0.3611426377230232 -0.9289046448302816
4731000000.0 0.3697569913444823 -0.9828658229249569
4734000000.0 0.3612548357335431 -0.9590792792723646
4738000000.0 0.34516529482393626 -0.9888178505801589
4741000000.0 0.3143234525683831 -1.0030994276237417
4744000000.0 0.30563544699421713 -0.9776403890158368
4747000000.0 0.33891079879735464 -0.9357935763841716
4750000000.0 0.30607336832602666 -0.9741299120360739
4753000000.0 0.32834149016197295 -0.9789785492040178
4756000000.0 0.29068592203734406 -1.009368353840651
4759000000.0 0.30417491774616456 -1.0224090636424563
4762000000.0 0.2428920108731679 -1.0207477033687469
4766000000.0 0.2612215091102975 -1.0137126556863487
4769000000.0 0.23767572549727323 -1.0059719126319469
4772000000.0 0.2425940764398787 -0.9792868277136552
4775000000.0 0.23628597986970168 -1.055263053967789
4778000000.0 0.21301061870244742 -1.033616222668087
4781000000.0 0.22338973784125693 -1.0198406989498299
4784000000.0 0.22950833287039443 -0.9996030020410779
4788000000.0 0.18773201605030265 -0.9961102623035043
4791000000.0 0.2017522474626226 -0.9929240662167692
4794000000.0 0.22763001265614322 -1.0119690154247643
4797000000.0 0.16789085310185178 -0.9825283950472022
4800000000.0 0.15508842439342443 -0.9931887686616048
4803000000.0 0.12221888754037825 -1.0137937955036873
4806000000.0 0.1767623062003944 -1.0427905380401397
4809000000.0 0.1100833267961868 -1.014566776997054
4812000000.0 0.09235988002026298 -0.9906448431286572
4816000000.0 0.15732531896875768 -1.020489605929068
4819000000.0 0.14630113437761205 -1.044297214776418
4822000000.0 0.12541581810459795 -1.0634898407610707
4825000000.0 0.12387637328383883 -1.0466378592034515
4828000000.0 0.06480744173852043 -1.0263630397859296
4831000000.0 0.0390564039170964 -1.0411736119517916
4834000000.0 0.08589187319797822 -1.033025357400259
4838000000.0 0.024057646924884574 -1.041991264459783
4841000000.0 0.05562818394136645 -1.0255610976514262
4844000000.0 0.10318204587935605 -1.0319552967634784
4847000000.0 0.04290462757004596 -1.0141575435103367
4850000000.0 0.032166669936037756 -1.047070999196744
4853000000.0 0.01433826558481277 -1.0107655218852483
4856000000.0 0.004202486570533098 -1.0190622525605737
4859000000.0 -0.00542115559346195 -1.0717875946296997
4862000000.0 0.023101713210833673 -1.0242347761280688
4866000000.0 -0.02905679573077955 -1.0550875816009155
4869000000.0 -0.040406194275404705 -1.0225304720013557
4872000000.0 -0.0472117829136058 -1.065297604527381
4875000000.0 0.006759485588261581 -1.072619641997957
4878000000.0 -0.057753468347878374 -1.051939802287989
4881000000.0 -0.07962517693736695 -1.0942569919278995
4884000000.0 -0.05240672588360398 -1.0595036168732732
4888000000.0 -0.038751469896943266 -1.050932855543024
4891000000.0 -0.07103585482936015 -1.0526416771880434
4894000000.0 -0.11638018801272257 -1.010874608482184
4897000000.0 -0.0643104244318169 -1.0278211716932555
4900000000.0 -0.09298339202576303 -1.0460267723053782
4903000000.0 -0.08454145762603343 -1.0474701914542062
4906000000.0 -0.10853034453552009 -1.080818217970091
4909000000.0 -0.14976505284504524 -1.0309150239982252
4912000000.0 -0.14475474428435398 -1.0588692560890764
4916000000.0 -0.15493282682976336 -1.0570769920843617
4919000000.0 -0.12698667585242351 -1.0810915227581162
4922000000.0 -0.14148416797499377 -1.0457628409498405
4925000000.0 -0.17047802204461326 -1.0135150038141276
4928000000.0 -0.16247226552727184 -1.0467912453858488
4931000000.0 -0.1613772313597976 -1.0816902539077624
4934000000.0 -0.16506638804305007 -1.007513639794832
4938000000.0 -0.23148603753616914 -0.9900688076919338
4941000000.0 -0.24849593088724153 -1.0197840567980347
4944000000.0 -0.20139352608274128 -0.964861537306668
4947000000.0 -0.22926771301317897 -1.0087715202013952
4950000000.0 -0.2649569306986133 -0.971395663947127
4953000000.0 -0.3138217667342516 -1.0128048793685267
4956000000.0 -0.26639340135113826 -1.0050911987749998
4959000000.0 -0.299771970338359 -0.9575990922762357
4962000000.0 -0.3026212900384141 -1.055217856062232
4966000000.0 -0.2623182999827848 -1.0243039935418086
4969000000.0 -0.272961747902287 -1.0504533220238548
4972000000.0 -0.326974136834735 -0.997419609245663
4975000000.0 -0.28364829277958903 -0.9894283864038436
4978000000.0 -0.3266955448476263 -0.9989422968373494
4981000000.0 -0.3463439764799501 -0.9608249956126623
4984000000.0 -0.3174797945187676 -0.9711991016840404
4988000000.0 -0.3521360676075061 -0.9892799384982607
4991000000.0 -0.3293875464896647 -1.0369503775952107
4994000000.0 -0.3763020555913692 -0.9698950681686701
4997000000.0 -0.39973438071692297 -0.9620077352892913
5000000000.0 -0.3982814024137483 -1.0373808497682342
5003000000.0 -0.39890200582704444 -0.9814496419881793
5006000000.0 -0.4122254027341171 -1.0346482782225028
5009000000.0 -0.41367835543270826 -0.9603444323830677
5012000000.0 -0.4351797812389763 -0.9675306960545658
5016000000.0 -0.39095340563741227 -0.9726836248007356
5019000000.0 -0.43513444581340055 -0.98047976654425
5022000000.0 -0.45820150364688006 -0.9558453577671306
5025000000.0 -0.4741744799472423 -0.9889243989911611
5028000000.0 -0.4405543707238184 -0.9442475928764218
5031000000.0 -0.4576380700484639 -0.947975425863172
5034000000.0 -0.518791000362249 -0.9487218482128559
5038000000.0 -0.4830760255829549 -0.8790581208873155
5041000000.0 -0.4838665440769414 -0.9612341651253665
5044000000.0 -0.4474570333531235 -0.9260898812545165
5047000000.0 -0.49516139328359493 -0.9479816785378142
5050000000.0 -0.4202786738316596 -0.935799779303965
5053000000.0 -0.5409244089309152 -0.9320867036555871
5056000000.0 -0.48987814380490724 -0.9523332069345516
5059000000.0 -0.48382993594636975 -0.9430015770259051
5062000000.0 -0.5721648192154826 -0.9171988505263651
5066000000.0 -0.4959993600691478 -0.8993348499781988
5069000000.0 -0.5457205074248798 -0.8924660087156563
5072000000.0 -0.505546670486128 -0.856014565689144
5075000000.0 -0.5482151810201947 -0.885118264356469
5078000000.0 -0.5927612711959531 -0.8600394351900307
5081000000.0 -0.5617077451655292 -0.8584319402504662
5084000000.0 -0.5940468183430394 -0.8294515055742981
5088000000.0 -0.5923217288670752 -0.882741715146661
5091000000.0 -0.6306699932774644 -0.8314896357345616
5094000000.0 -0.6257946095400921 -0.8278458190333261
5097000000.0 -0.6041922205045862 -0.8811206344744915
5100000000.0 -0.6254760525420126 -0.8187611160132363
5103000000.0 -0.6898094429010607 -0.8220475786606697
5106000000.0 -0.6447139149466815 -0.8438448735188205
5109000000.0 -0.6043944091528443 -0.8301427649106876
5112000000.0 -0.6612064739033402 -0.7565187626582577
5116000000.0 -0.6454268783907604 -0.794781206545648
5119000000.0 -0.6532058148263643 -0.7811198729445314
5122000000.0 -0.6596511426978322 -0.7702471940559759
5125000000.0 -0.6247199792636898 -0.8177377492097403
5128000000.0 -0.7356224673798208 -0.8005351431081993
5131000000.0 -0.6959836258196085 -0.7937509119654784
5134000000.0 -0.7181335453944283 -0.7695826205435965
5138000000.0 -0.6530778107937077 -0.776663449139336
5141000000.0 -0.7144745732446443 -0.8228566434602695
5144000000.0 -0.6808076148878568 -0.7767809544214986
5147000000.0 -0.7323215274221607 -0.7805841766858219
5150000000.0 -0.6879980220940569 -0.7767985840774455
5153000000.0 -0.6947568171205887 -0.7839624558235373
5156000000.0 -0.7065845371979996 -0.7514688458801753
5159000000.0 -0.738647039043184 -0.756402231484065
5162000000.0 -0.7672697853483472 -0.7230878149015223
5166000000.0 -0.7662273738390285 -0.7546137569321845
5169000000.0 -0.7949888668686147 -0.728689882469336
5172000000.0 -0.7264620817564171 -0.702223352625647
5175000000.0 -0.7653904505658932 -0.739020183205443
5178000000.0 -0.788517755207861 -0.6935568646849034
5181000000.0 -0.8193382155007076 -0.6992565853502265
5184000000.0 -0.7863585799161484 -0.6926305529543355
5188000000.0 -0.7964991876152736 -0.6892958860753434
