! Created with skrf 1.8.0 (http://scikit-rf.org).
# Hz S RI R 50.0 
!freq ReS11 ImS11
4000000000.0 0.9773193767275395 0.2624915021800529
4003000000.0 1.0454026736923592 0.2726882305301078
4006000000.0 1.0071509875515088 0.23145158473810196
4009000000.0 1.0268808346214224 0.21334869366568385
4012000000.0 1.0093897679073445 0.24115340813351419
4016000000.0 1.0175893292594598 0.15827545776179647
4019000000.0 0.9545728926972392 0.20149342131546347
4022000000.0 1.0211172142268992 0.23063826753559194
4025000000.0 1.003241457139944 0.12858228933498375
4028000000.0 1.00940126388534 0.14053363729053892
4031000000.0 0.9956203148741088 0.15427063466048638
4034000000.0 0.9786905727912643 0.10445451289062452
4038000000.0 1.029628299295497 0.11456526698255065
4041000000.0 1.0378120044835735 0.07829009221277472
4044000000.0 1.0596791933804808 0.07955079027788262
4047000000.0 1.0523183893385892 0.07518728984351744
4050000000.0 1.0194234312680406 0.0488532858067017
4053000000.0 1.0048220990665842 0.021465259421983657
4056000000.0 1.0157480430227317 0.017147865228443637
4059000000.0 0.9934047443197955 -0.001129894890471661
4062000000.0 1.0350143562770207 0.007976529277281985
4066000000.0 0.9851292011491124 -0.030577937410935452
4069000000.0 1.0228190153858256 -0.07062620315862542
4072000000.0 0.9844857781099047 -0.05870044142380204
4075000000.0 1.0481128800760533 -0.08298158163140407
4078000000.0 1.01603590094084 -0.07212431945714498
4081000000.0 1.0026665992054515 -0.08491343394208065
4084000000.0 1.0101758251399517 -0.14027575571998518
4088000000.0 1.0174838406422144 -0.10483078234803817
4091000000.0 1.0075395577982773 -0.09839682656224646
4094000000.0 0.9920333176992947 -0.14274654444411058
4097000000.0 0.9781869941115502 -0.18787427959730338
4100000000.0 1.0054650422589346 -0.17536695705490873
4103000000.0 1.002289840329392 -0.17493512291846697
4106000000.0 0.9857955459419532 -0.214566522880141
4109000000.0 0.9756213893434724 -0.2190884054110291
4112000000.0 0.9654014552939427 -0.21723649171643006
4116000000.0 0.9582546211316622 -0.28340254656819497
4119000000.0 0.9872138541099441 -0.24908876428508755
4122000000.0 0.9497649882843732 -0.2896236261871888
4125000000.0 0.9727187554962645 -0.2908708499431468
4128000000.0 0.9577167793378251 -0.29725240635135863
4131000000.0 0.9530964177114961 -0.36377792239097806
4134000000.0 0.9624459321592377 -0.32304620738160655
4138000000.0 0.9427217056224577 -0.37530889255175953
4141000000.0 0.9534393175338383 -0.34831054878874845
4144000000.0 0.944043269170601 -0.3687913556857622
4147000000.0 0.9491082262143457 -0.42226321914549825
4150000000.0 0.9133947139862094 -0.4495658822533585
4153000000.0 0.9218734189918116 -0.39533459592477327
4156000000.0 0.9127867605044595 -0.4432673325653556
4159000000.0 0.8778655590975013 -0.45206355925454866
4162000000.0 0.903254034781007 -0.47144493950975613
4166000000.0 0.9155003697226587 -0.514981561355372
4169000000.0 0.8579196825150729 -0.4967959891333556
4172000000.0 0.8580719570355101 -0.5213929299941954
4175000000.0 0.8831407647040699 -0.5505868017962855
4178000000.0 0.8638757703350455 -0.5443320406254237
4181000000.0 0.79733379597168 -0.5829335753918881
4184000000.0 0.7996045117381397 -0.5484807918702557
4188000000.0 0.790719572587298 -0.6015357386835396
4191000000.0 0.8092700938286814 -0.5997976717331752
4194000000.0 0.790305276763588 -0.6313447224922095
4197000000.0 0.796351900244621 -0.6369205124328288
4200000000.0 0.797292796774161 -0.6373497657227423
4203000000.0 0.7863294061073115 -0.6818824304308748
4206000000.0 0.7595360551109798 -0.6756473259906114
4209000000.0 0.7070867850841988 -0.7046021695273044
4212000000.0 0.6974803622845773 -0.7304853290677291
4216000000.0 0.7573947306556233 -0.7223212852054921
4219000000.0 0.7123736436583197 -0.72303667060314
4222000000.0 0.6652089641915437 -0.7253031672391261
4225000000.0 0.637620488116889 -0.7609455220617273
4228000000.0 0.6433177374882559 -0.7799319422277267
4231000000.0 0.6185270583181445 -0.7969225337520685
4234000000.0 0.5925105229637204 -0.8195855560769592
4238000000.0 0.5932657050804867 -0.8186955706316189
4241000000.0 0.5406056704488094 -0.8079426657227198
4244000000.0 0.5434743201413144 -0.8211459782903071
4247000000.0 0.5214338062671185 -0.8165067230354036
4250000000.0 0.5172847031379499 -0.8544731030420233
4253000000.0 0.4795723543387066 -0.8662227295094485
4256000000.0 0.5128371012955084 -0.9121511238501643
4259000000.0 0.4560059024624977 -0.8781467515054081
4262000000.0 0.41243556406428544 -0.909599973843304
4266000000.0 0.4031565247646871 -0.9320694371668724
4269000000.0 0.4199862120496206 -0.9064518634057828
4272000000.0 0.3875210701469777 -0.9253932477246603
4275000000.0 0.3745664292566057 -0.9185566307090478
4278000000.0 0.3855073025416213 -0.964579356964722
4281000000.0 0.32464336263848803 -0.962113942711484
4284000000.0 0.2917502499459693 -0.9631534592969283
4288000000.0 0.2838547507438016 -0.9655214209775961
4291000000.0 0.2510424307861897 -0.9743514633276519
4294000000.0 0.24093104637283203 -0.9872862645005329
4297000000.0 0.23064595651957837 -0.9626001203488651
4300000000.0 0.18774878808607307 -0.9993922954136006
4303000000.0 0.19343219447987015 -0.9890143081501902
4306000000.0 0.13805915966822763 -1.0081463251798448
4309000000.0 0.10570744147396345 -1.0113305881274648
4312000000.0 0.09755582305204663 -0.9910846534325088
4316000000.0 0.06572935180134262 -0.9849994913506839
4319000000.0 0.07081731615749083 -1.0128788126654846
4322000000.0 -0.021716455026383252 -1.0164652232655722
4325000000.0 -0.00150756517859639 -1.0133368735349284
4328000000.0 -0.0337853055434289 -1.0163937130087553
4331000000.0 -0.07450947787757282 -0.9979729490167919
4334000000.0 -0.09295650406452156 -1.0224175104801243
4338000000.0 -0.10678719797987446 -1.0204232582471653
4341000000.0 -0.13916709931026888 -1.0059542805800135
4344000000.0 -0.16533718026319466 -0.9910545036005538
4347000000.0 -0.20435666163416832 -0.9888364018826358
4350000000.0 -0.23551011945764513 -0.9989227314142195
4353000000.0 -0.2672177116121785 -0.993265258826932
4356000000.0 -0.2710060095578795 -0.9659521096315379
4359000000.0 -0.32200481546622073 -0.9892462338481411
4362000000.0 -0.3172866613816157 -0.9565195550001382
4366000000.0 -0.382804405893704 -0.9403473884142548
4369000000.0 -0.39265438339416325 -0.9577353148537066
4372000000.0 -0.39176650720924255 -0.9309870654297495
4375000000.0 -0.4372912103569589 -0.8954654364762458
4378000000.0 -0.4993176634199804 -0.9177181931039456
4381000000.0 -0.5468243648129103 -0.8759428774898425
4384000000.0 -0.49149430376667624 -0.8381369428953486
4388000000.0 -0.5700846942700465 -0.8545394671267781
4391000000.0 -0.5896644280384289 -0.8646703650439566
4394000000.0 -0.5931616304621685 -0.8698469437205165
4397000000.0 -0.6560886517753937 -0.8311075882118828
4400000000.0 -0.6340851706407931 -0.7707856822422829
4403000000.0 -0.6603230437345297 -0.7604872964936621
4406000000.0 -0.6716384325701948 -0.7199750553465283
4409000000.0 -0.6667098124495776 -0.7067634957763028
4412000000.0 -0.7040917195812415 -0.7560893712956185
4416000000.0 -0.7362815150708895 -0.6920226936044215
4419000000.0 -0.7650328678521198 -0.6726056835291284
4422000000.0 -0.8169629205711204 -0.6342389434644643
4425000000.0 -0.8188749828623434 -0.5857094878669717
4428000000.0 -0.8685505566991181 -0.5876966426755152
4431000000.0 -0.8153004835077406 -0.5362271416456997
4434000000.0 -0.9056426643696348 -0.5113258977696502
4438000000.0 -0.8814681421949118 -0.46837228682098825
4441000000.0 -0.9150720326814745 -0.4755737430741692
4444000000.0 -0.9739510993906804 -0.43626658462217266
4447000000.0 -0.9883269393261526 -0.4259487201811373
4450000000.0 -1.0251769239798287 -0.35202268840384476
4453000000.0 -0.8972284097415583 -0.3221775633362693
4456000000.0 -0.9857053230480509 -0.3501311769240891
4459000000.0 -1.073947273511418 -0.32287160199530773
4462000000.0 -0.9615349963036788 -0.2321129432967708
4466000000.0 -0.9825089722828478 -0.25429246686062695
4469000000.0 -1.0230885043323683 -0.13837323048072617
4472000000.0 -0.978409644549404 -0.11024858716946262
4475000000.0 -1.1188092426040912 -0.06959876998546533
4478000000.0 -0.964749467681177 -0.07919571168210918
4481000000.0 -1.0685033055275612 -0.04159181649279711
4484000000.0 -1.0697091353388337 -0.03581381184442607
4488000000.0 -1.0690976163314894 0.025410633248257597
4491000000.0 -1.0430440420704636 0.02144756069278042
4494000000.0 -1.045295815942016 0.10959913483408165
4497000000.0 -1.0726536248862244 0.11946196752682038
4500000000.0 -1.0186927556423608 0.2249399985465798
4503000000.0 -1.0075953099280526 0.2158718857442573
4506000000.0 -1.0418362098060796 0.23894472556183655
4509000000.0 -1.0122629548201847 0.31038787559409897
4512000000.0 -0.9660359469584857 0.2510878982989858
4516000000.0 -0.9426736643543582 0.4013397388152704
4519000000.0 -0.9875781086306943 0.40334001880354936
4522000000.0 -0.9515509886873412 0.3561961260422839
4525000000.0 -0.9424719006458773 0.504431547728121
4528000000.0 -0.915362269211037 0.49782456279023907
4531000000.0 -0.8792294493733237 0.5165426996443325
4534000000.0 -0.9068842995101506 0.5902083103178638
4538000000.0 -0.845241914231234 0.6107450855518038
4541000000.0 -0.8634421052500988 0.5879160694566357
4544000000.0 -0.8212063366562665 0.6423550882860786
4547000000.0 -0.8223288502398483 0.7016043874052809
4550000000.0 -0.8050613787178353 0.7093727192119613
4553000000.0 -0.732537762599119 0.739133514600174
4556000000.0 -0.7625671511965686 0.7641973994907554
4559000000.0 -0.7239146729228465 0.7786178008922173
4562000000.0 -0.6446599695524495 0.777978049712882
4566000000.0 -0.6590864361228983 0.7925921428217311
4569000000.0 -0.6193982952804478 0.8402879207762632
4572000000.0 -0.5806938938402416 0.8280168249348449
4575000000.0 -0.5597359464011875 0.8309079095208038
4578000000.0 -0.5269873340128868 0.8791460025151296
4581000000.0 -0.4977122923771439 0.886700671686318
4584000000.0 -0.45237751351594 0.9173244677663407
4588000000.0 -0.4698442253799683 0.899322907679012
4591000000.0 -0.3892000158453784 0.9054874510883016
4594000000.0 -0.4186125535125016 0.929905248663397
4597000000.0 -0.3441515162554803 1.0039019825549789
4600000000.0 -0.308055095784477 0.9514717529308646
4603000000.0 -0.28240485846266916 0.9635632400937474
4606000000.0 -0.3349086114206979 1.005446868859018
4609000000.0 -0.23917460149802436 0.9609026228825182
4612000000.0 -0.22387926350642173 1.0240331060638181
4616000000.0 -0.1547176046984063 1.0127143267094956
4619000000.0 -0.1621504006828325 1.040115993780693
4622000000.0 -0.0864344155906708 0.9891676780022366
4625000000.0 -0.10205131068188464 1.0075381494148088
4628000000.0 -0.02996163154156032 1.0169030768504754
4631000000.0 0.008935387868288729 1.0192034607183293
4634000000.0 0.0292941992388703 1.0154565977211514
4638000000.0 0.052150182401073476 1.0254683317855526
4641000000.0 0.0912751382744886 1.0325206081716676
4644000000.0 0.08587903159717723 1.0165230148355424
4647000000.0 0.09755388981704323 1.01359423645922
4650000000.0 0.19243382641854662 0.998518738710602
4653000000.0 0.1841273433180956 0.9956695893592016
4656000000.0 0.25420547610031696 0.97887382873591
4659000000.0 0.21326399865756993 0.9567515703467782
4662000000.0 0.2574302586373049 0.9695282925513095
4666000000.0 0.27000848843843783 0.9679558245446656
4669000000.0 0.2777570511031129 0.997875487514632
4672000000.0 0.3469861043402058 0.9657936169613511
4675000000.0 0.375322785705397 0.8698433477115035
4678000000.0 0.36904628159246555 0.9530097572341784
4681000000.0 0.4315780781074902 0.9194448179459375
4684000000.0 0.37359258983881327 0.8438562200222841
4688000000.0 0.4078869225510827 0.9320037391052469
4691000000.0 0.4445764668732539 0.8427967849522766
4694000000.0 0.5550379410483988 0.8834070659463222
4697000000.0 0.5515136855345668 0.9167394350187579
4700000000.0 0.5376284807589002 0.8832299683682863
4703000000.0 0.6383332292095405 0.8698714746944718
4706000000.0 0.5198012984732229 0.8216203251771893
4709000000.0 0.5878571439120546 0.8001987141075131
4712000000.0 0.6386824964040081 0.757434652911735
4716000000.0 0.6383140155907053 0.7811400388134955
4719000000.0 0.7047306201964734 0.7507378125243798
4722000000.0 0.7376709627443495 0.764490404511559
4725000000.0 0.7191671443520706 0.7120086151814731
4728000000.0 0.7364852938064178 0.6887446803726449
4731000000.0 0.6982026689587649 0.6737622423460872
4734000000.0 0.7452376012966164 0.6789459685893461
4738000000.0 0.74269436583182 0.6237824826587535
4741000000.0 0.7326393041445869 0.6333907276144298
4744000000.0 0.8185312834928503 0.5969998417996292
4747000000.0 0.8588839233294081 0.6129702063488887
4750000000.0 0.8047247061608569 0.5196532453024009
4753000000.0 0.883576915186897 0.5449750774988864
4756000000.0 0.8417522915948097 0.4991531038967259
4759000000.0 0.8505854043703318 0.5023043596361054
4762000000.0 0.844171401304148 0.5099590428440667
4766000000.0 0.8627669786049219 0.4713025829269581
4769000000.0 0.9196952305323719 0.5033984379514698
4772000000.0 0.9212521628594095 0.4285037089369584
4775000000.0 0.9016659347089401 0.4173023999371161
4778000000.0 0.8830477455279777 0.46446418822693203
4781000000.0 0.9368427169709835 0.385674923090115
4784000000.0 0.9392004985347352 0.4112151796054675
4788000000.0 0.9337585687442845 0.37375143905732794
4791000000.0 0.9764880961225839 0.31166377174797055
4794000000.0 0.9277325842263011 0.28514785692381794
4797000000.0 0.9870096160683626 0.31168959464487256
4800000000.0 0.974625405748106 0.2415290827950818
4803000000.0 0.9479777988250779 0.2950325054336093
4806000000.0 0.9914497494853349 0.2497657490778834
4809000000.0 0.9839654496937683 0.2121929612849004
4812000000.0 1.010574746385634 0.24418811487899383
4816000000.0 1.0110485958489366 0.1441609236042795
4819000000.0 0.9889508157820424 0.1342120551963555
4822000000.0 0.9901692902943349 0.14539491553304904
4825000000.0 1.0157317882252201 0.10194860999882578
4828000000.0 0.988742518327022 0.11321437322066541
4831000000.0 0.9739082778376698 0.1113506208639153
4834000000.0 0.9915365696424786 0.05606430499719041
4838000000.0 1.0194808248350764 0.0445900049699154
4841000000.0 1.0291825806686092 0.050705596694114174
4844000000.0 1.0035194602652908 0.0042753139045932365
4847000000.0 1.0204079640637551 -0.02296749149725616
4850000000.0 1.0031349103362104 -0.023411414798359897
4853000000.0 0.9921314752732966 -0.03875587937928271
4856000000.0 1.0036618719149568 -0.06787258446192143
4859000000.0 0.9924177922980575 -0.0822296273121671
4862000000.0 1.0101692649661094 -0.09794885543181463
4866000000.0 1.0233378370465664 -0.11108767024551668
4869000000.0 1.0129143750566767 -0.12073355207139339
4872000000.0 0.9807452405785116 -0.16150955929312744
4875000000.0 1.0184800241982968 -0.1622377802145042
4878000000.0 0.9894441056825978 -0.210768740229542
4881000000.0 0.9815256211653083 -0.16501125683637352
4884000000.0 0.9838026036954369 -0.20814838528498675
4888000000.0 0.9882641310293848 -0.19922928815101903
4891000000.0 0.9844174239601241 -0.24818221787336864
4894000000.0 0.9629847832632744 -0.26181144324693834
4897000000.0 0.9645619900057304 -0.2806866958532864
4900000000.0 0.9600973125092637 -0.31542821628304996
4903000000.0 0.9705483016435695 -0.2970365294040978
4906000000.0 0.9702477138076934 -0.3207064428030272
4909000000.0 0.9538733462770015 -0.3480025419453096
4912000000.0 0.9400096649644176 -0.3502338947442351
4916000000.0 0.9471954830048188 -0.36412781968594643
4919000000.0 0.9321397336683219 -0.3908149289809749
4922000000.0 0.9480196163594006 -0.3871321078658123
4925000000.0 0.9009932520428463 -0.423819144415862
4928000000.0 0.9216535098686289 -0.4148583944023747
4931000000.0 0.9258069650916434 -0.43559253221177335
4934000000.0 0.8809914616840729 -0.4462621095160507
4938000000.0 0.8880515861350011 -0.47090824077041527
4941000000.0 0.8864533458461412 -0.4850365064997664
4944000000.0 0.8756180624406898 -0.47899956949571754
4947000000.0 0.8616205999407265 -0.5062469739346493
4950000000.0 0.8820636224609361 -0.5311488815819323
4953000000.0 0.8343931676935367 -0.5690117341957524
4956000000.0 0.8596079374517587 -0.563617769965904
4959000000.0 0.8250925028675409 -0.5683142005738292
4962000000.0 0.855106070768005 -0.5661760722779043
4966000000.0 0.8136195857300037 -0.5658479538714617
4969000000.0 0.8421635765876686 -0.5893820058173288
4972000000.0 0.7968812707005568 -0.6327304129633273
4975000000.0 0.8009755266598713 -0.6103927313138385
4978000000.0 0.7887804245600507 -0.6248514606793637
4981000000.0 0.7591181376843985 -0.6356992823577725
4984000000.0 0.7737009002353964 -0.641962243044309
4988000000.0 0.7347020799481023 -0.6426624882098694
4991000000.0 0.814405037296388 -0.6341003098051482
4994000000.0 0.7629905434548446 -0.6635768920602605
4997000000.0 0.7396019945343175 -0.7075165705271328
5000000000.0 0.7378696057657769 -0.7060907323620544
5003000000.0 0.7554976293924869 -0.7069905385445013
5006000000.0 0.7451426532584643 -0.7574771868383486
5009000000.0 0.710710501499435 -0.7455867751045538
5012000000.0 0.6495038730514164 -0.7537926566061586
5016000000.0 0.7312452979173383 -0.7158567006254469
5019000000.0 0.6747424902924835 -0.7409186894509785
5022000000.0 0.679154068179054 -0.7547975775203071
5025000000.0 0.7184686735462869 -0.825838665036986
5028000000.0 0.6432191762101682 -0.8143732328069963
5031000000.0 0.6402288100017469 -0.8004505752004123
5034000000.0 0.6469155974130687 -0.8230361438244281
5038000000.0 0.5810970240002618 -0.8083651249542564
5041000000.0 0.6431964674283461 -0.7962432056256117
5044000000.0 0.5871456559594441 -0.7684506301097823
5047000000.0 0.639042737650074 -0.8171861826728678
5050000000.0 0.6391133582816574 -0.7806997548943733
5053000000.0 0.6160583740196024 -0.8732511120171524
5056000000.0 0.5862782412454244 -0.8101603057439439
5059000000.0 0.616417588618702 -0.8414776066047217
5062000000.0 0.5268029443162083 -0.8892534003467887
5066000000.0 0.5518385451165956 -0.8226196785247859
5069000000.0 0.5311583909031606 -0.8651948089912048
5072000000.0 0.4873342410371824 -0.8780746433172095
5075000000.0 0.5104161832813465 -0.8899434118917591
5078000000.0 0.46251470765184327 -0.9688249479938553
5081000000.0 0.4677791710208575 -0.8607916573046902
5084000000.0 0.4713821854345506 -0.9561684112571911
5088000000.0 0.4686089662738319 -0.8828745074504458
5091000000.0 0.4291335079767417 -0.9864197001277215
5094000000.0 0.46013050782268006 -0.9334524414103257
5097000000.0 0.4728970956170394 -0.9607215820840034
5100000000.0 0.41644176921210446 -0.9301019205696756
5103000000.0 0.40028784383558136 -0.9460989329268154
5106000000.0 0.4383036219041253 -1.009819971137491
5109000000.0 0.3975776439110736 -0.9201416186542468
5112000000.0 0.4151297987713645 -0.9257173856486651
5116000000.0 0.3748289322429738 -0.8745823957377175
5119000000.0 0.4046569551972586 -0.953732840422816
5122000000.0 0.34706347801178916 -0.9502140343284513
5125000000.0 0.3180170290026733 -0.9638471075482659
5128000000.0 0.3191569335454331 -0.975009893650693
5131000000.0 0.2757432381048845 -0.9442239292137201
5134000000.0 0.3245894775685533 -0.9718054763766721
5138000000.0 0.3323071130970682 -1.0201276048363312
5141000000.0 0.304770671222853 -0.9728543265389598
5144000000.0 0.3248848790757958 -1.0152184881661643
5147000000.0 0.2941862285524228 -0.994132937933038
5150000000.0 0.2564954804449111 -0.9573232859001447
5153000000.0 0.21265834098533143 -0.9998813771350592
5156000000.0 0.25780768216611927 -1.064084321054028
5159000000.0 0.24220099843770032 -1.0545309440697035
5162000000.0 0.20297797343703813 -1.0004576831851766
5166000000.0 0.15450462685804714 -1.0645845016069693
5169000000.0 0.18652962922105634 -1.03782059807565
5172000000.0 0.11466111989575992 -0.9761353702598664
5175000000.0 0.20559246400892056 -1.0320248673761983
5178000000.0 0.10870738798881213 -0.9737883602295236
5181000000.0 0.19730781809608905 -1.0469320363913475
5184000000.0 0.09401755041109706 -1.0358447779263955
5188000000.0 0.15615048848596072 -0.9947551470712449
5191000000.0 0.11715898841222862 -1.085778591008822
