! Created with skrf 1.8.0 (http://scikit-rf.org).
# Hz S RI R 50.0 
!freq ReS11 ImS11
4000000000.0 0.8712492715587405 0.4866261838912322
4003000000.0 0.9306180373419153 0.46316317282149766
4006000000.0 0.957788488672018 0.432222551920205
4009000000.0 0.926858848377834 0.42393784469059703
4012000000.0 0.9154180909873931 0.460765744152714
4016000000.0 0.9478975092516753 0.4037264951803213
4019000000.0 0.9155625924752082 0.4054180748668653
4022000000.0 0.970279939224432 0.45020854101468255
4025000000.0 0.9456435050715298 0.4151533427965448
4028000000.0 0.9316613132357499 0.40953819003534403
4031000000.0 0.9246331426619036 0.37832235411764625
4034000000.0 0.9464544288568246 0.3614831677911411
4038000000.0 0.9792791140161842 0.3405718594164271
4041000000.0 0.945136129701289 0.3400757705673604
4044000000.0 0.9908880469242278 0.37834150156117885
4047000000.0 1.0212294317657453 0.33827502577677204
4050000000.0 0.9894327605678316 0.3215005767333139
4053000000.0 0.964627220166239 0.2885872318786169
4056000000.0 0.9904015437069765 0.310576567711641
4059000000.0 0.979361409867773 0.2847811082329205
4062000000.0 0.9818763577539082 0.26238640180297623
4066000000.0 0.9450584347519408 0.26172202969546265
4069000000.0 1.0130292945506494 0.22114841465611784
4072000000.0 0.990008951132496 0.23195432284929013
4075000000.0 1.010131610217987 0.2230051886090717
4078000000.0 0.9972624657730603 0.2016194822124292
4081000000.0 1.0187212582164817 0.20785102195147037
4084000000.0 1.0085088948393126 0.20612478892603164
4088000000.0 1.0011456589863474 0.22393647476263123
4091000000.0 1.0536689158778876 0.21146383121895906
4094000000.0 0.9874897930951715 0.19972999188708485
4097000000.0 1.0089523653495898 0.12015166544060141
4100000000.0 0.9978010735650982 0.12485310646312547
4103000000.0 1.03457350092142 0.1292608659957114
4106000000.0 1.0294627349258847 0.1091685065281841
4109000000.0 1.0422757096947204 0.11975033471188595
4112000000.0 1.0156652413770917 0.0739130094984804
4116000000.0 1.033113395900559 0.09454712657928593
4119000000.0 1.022400409249801 0.06659108274117187
4122000000.0 1.0018474418037953 -0.0024174575925969832
4125000000.0 0.998206474978095 0.022440456092179706
4128000000.0 1.0124456856794064 0.04163280895719518
4131000000.0 1.0166517533471195 0.011321157650477476
4134000000.0 0.9992438092810872 0.015125964845003781
4138000000.0 1.0213661401263434 -0.024134837657421138
4141000000.0 1.0081181916718331 -0.02616998714595825
4144000000.0 1.0024496153412847 -0.010668440676922963
4147000000.0 1.0377431462422164 -0.06407502252540581
4150000000.0 1.022253641169446 -0.07094484712523697
4153000000.0 1.000952287519397 -0.06638944671011932
4156000000.0 1.0564251004440592 -0.0747007444864497
4159000000.0 0.9737629940412409 -0.07997472236315939
4162000000.0 0.9875391991026874 -0.0997693431565661
4166000000.0 1.0317827076734292 -0.10299932234585091
4169000000.0 0.9842275992205519 -0.14253253517560568
4172000000.0 1.0144956298050698 -0.13510552480121177
4175000000.0 1.051664150259545 -0.15365470556468028
4178000000.0 1.0272475717209297 -0.17438902624789002
4181000000.0 0.9876494069807973 -0.21204533343141774
4184000000.0 0.9768809418852004 -0.1718526449107181
4188000000.0 0.9738068222433864 -0.19905128689731033
4191000000.0 0.9783335713025968 -0.20701312772464225
4194000000.0 0.980122273212887 -0.229648440567082
4197000000.0 1.005760789863071 -0.23770757867946327
4200000000.0 1.0054399835307857 -0.21122915498884803
4203000000.0 1.021565092409424 -0.2564916953832795
4206000000.0 0.9843960735098658 -0.2764042236711146
4209000000.0 0.9643609711222012 -0.2972614540359755
4212000000.0 0.9514486015908871 -0.33134316103124173
4216000000.0 0.9962735694650957 -0.28218481408577156
4219000000.0 0.9710869337604439 -0.3148089699094423
4222000000.0 0.9460415508872948 -0.3436574397292346
4225000000.0 0.9355626981278511 -0.3540161566180958
4228000000.0 0.9363671776795903 -0.35920414491858454
4231000000.0 0.9484833417852951 -0.38889392265661293
4234000000.0 0.9424704442367376 -0.4145763908658655
4238000000.0 0.9240449429876735 -0.3982194712360744
4241000000.0 0.8852069630514547 -0.4257110008887838
4244000000.0 0.9122880177500388 -0.43132624006217485
4247000000.0 0.8899395953821981 -0.43617731390236114
4250000000.0 0.8814276320539405 -0.4323941709860282
4253000000.0 0.8590969392202421 -0.4738118871324897
4256000000.0 0.954107549221783 -0.5053833306947768
4259000000.0 0.8375882432677172 -0.48003250122326624
4262000000.0 0.8637232170290732 -0.5209846911978082
4266000000.0 0.8627464174457309 -0.5379035188796324
4269000000.0 0.8513965008397213 -0.5189954274686958
4272000000.0 0.8481060443952255 -0.5211274627120108
4275000000.0 0.8615768191510811 -0.5521380848337857
4278000000.0 0.8784725010124838 -0.5818661836543362
4281000000.0 0.858279257098323 -0.5572874361071284
4284000000.0 0.8153920968913633 -0.6164183828251751
4288000000.0 0.8107442645554734 -0.5832860520808884
4291000000.0 0.7789555690282381 -0.6000348627828899
4294000000.0 0.8001043039501616 -0.615676876787762
4297000000.0 0.7959694759941012 -0.6022319342465354
4300000000.0 0.7940689434945176 -0.6249040614645462
4303000000.0 0.7447840195397705 -0.6634655647185418
4306000000.0 0.7776831608676462 -0.6519795174910744
4309000000.0 0.7524485357015891 -0.6874111535630637
4312000000.0 0.769694919745311 -0.6837616713834166
4316000000.0 0.7526980229032042 -0.6884219904879676
4319000000.0 0.712014639910138 -0.6879062365176478
4322000000.0 0.699658467657881 -0.7325271032802416
4325000000.0 0.6935452621914655 -0.7461252290293574
4328000000.0 0.6875311407078963 -0.7330932128620568
4331000000.0 0.6740667531582355 -0.7695758291595974
4334000000.0 0.6494141802032032 -0.7601673793264938
4338000000.0 0.6510413584048627 -0.7576567788217073
4341000000.0 0.6713351948324361 -0.7723663418024902
4344000000.0 0.6619529060111052 -0.7837976891941398
4347000000.0 0.6143298815127872 -0.806166141060603
4350000000.0 0.584300122053406 -0.7895965221725185
4353000000.0 0.5955301506486304 -0.8018249305302619
4356000000.0 0.5513689524570156 -0.8335347878147925
4359000000.0 0.5435594857344833 -0.8306148992723581
4362000000.0 0.5218985423619933 -0.8788121840167993
4366000000.0 0.543683016820478 -0.8785155906483879
4369000000.0 0.4979638506106995 -0.8533693960212033
4372000000.0 0.49733248373164657 -0.8812019092962212
4375000000.0 0.5070328849340504 -0.8753794242940782
4378000000.0 0.4741903437954589 -0.8672219195364088
4381000000.0 0.45312914988190645 -0.8953384796236847
4384000000.0 0.4624983061866957 -0.9466743260272389
4388000000.0 0.4364592170408774 -0.9043871224078865
4391000000.0 0.4224524107751578 -0.9207441117063123
4394000000.0 0.38716070634859523 -0.9225705093238725
4397000000.0 0.3805457585306887 -0.9412880999880331
4400000000.0 0.3534874031494869 -0.9523950557123264
4403000000.0 0.35502820847524363 -0.9643860103731874
4406000000.0 0.33167435175510807 -0.9631585870459158
4409000000.0 0.32534056353989593 -0.9879091385085312
4412000000.0 0.2981858230337942 -0.9569571316324514
4416000000.0 0.2905187941829839 -0.9567317944366436
4419000000.0 0.263630811858997 -0.9732342148818178
4422000000.0 0.2677642604156467 -0.998758905045199
4425000000.0 0.24138600498057658 -0.9921382357094112
4428000000.0 0.2135330296337434 -1.0152459108856524
4431000000.0 0.19693772111638058 -0.9943167980778429
4434000000.0 0.19032828946603259 -1.0014874641443219
4438000000.0 0.14883384309399292 -0.9985997090498819
4441000000.0 0.12505048924471562 -1.028604148582756
4444000000.0 0.12060531902977423 -1.0208516117003248
4447000000.0 0.10610908635169383 -1.0206018186384735
4450000000.0 0.07181895222355622 -1.0309044259195996
4453000000.0 0.086379411736309 -0.9913797410101641
4456000000.0 0.05595857548665428 -1.0213956734744603
4459000000.0 0.04998802810869571 -1.0326131983517548
4462000000.0 0.003077812119546941 -1.0352469678394747
4466000000.0 -0.005401853020404801 -1.0347640204540032
4469000000.0 -0.036002682879168024 -1.0142171319852022
4472000000.0 -0.071824669255249 -0.9984285746550989
4475000000.0 -0.0851381583492068 -1.0157034973375847
4478000000.0 -0.09675863244976651 -1.0002570808276634
4481000000.0 -0.12338364429919513 -0.9996325061622101
4484000000.0 -0.1541916315486696 -1.0074273450054727
4488000000.0 -0.182936260610293 -1.06783787484971
4491000000.0 -0.15192341634298479 -1.0270122111315
4494000000.0 -0.1782054916873499 -1.0114611156657582
4497000000.0 -0.22194557734831516 -1.0108463984318148
4500000000.0 -0.2610940063447808 -1.0144387552122236
4503000000.0 -0.2652640629041219 -0.9924741566276805
4506000000.0 -0.2957247005122224 -0.9670539725919955
4509000000.0 -0.31667827575465796 -0.953233661104342
4512000000.0 -0.3121888977490307 -0.9756616792538345
4516000000.0 -0.38056855937468426 -0.9570775163482437
4519000000.0 -0.3815981739772646 -0.9364789919667487
4522000000.0 -0.36353057265319105 -0.9389722261377396
4525000000.0 -0.45424688355671367 -0.9560838247129005
4528000000.0 -0.4408070724832663 -0.9371488630289478
4531000000.0 -0.47297757776626637 -0.9149667184008728
4534000000.0 -0.5094797954613199 -0.9373311152532041
4538000000.0 -0.49607585674089366 -0.9136452235732372
4541000000.0 -0.49819768325943803 -0.8573088931825209
4544000000.0 -0.569306636504342 -0.9165858725488236
4547000000.0 -0.5870519910298566 -0.8528914937771075
4550000000.0 -0.5874138634583004 -0.8737184116184553
4553000000.0 -0.6139045784798118 -0.8069618211348326
4556000000.0 -0.6405177307466301 -0.8649319491888918
4559000000.0 -0.5911452614891649 -0.8160043131113683
4562000000.0 -0.6604590158876249 -0.7962891741090063
4566000000.0 -0.6762345135123371 -0.7802171815288652
4569000000.0 -0.7485167268064462 -0.7947886249699216
4572000000.0 -0.7417125661038224 -0.7209566304532722
4575000000.0 -0.7093161250781519 -0.7043715086135881
4578000000.0 -0.7434273310713593 -0.7015111612797604
4581000000.0 -0.7311604663878948 -0.6813311406714692
4584000000.0 -0.7986580519492555 -0.6672891001136416
4588000000.0 -0.7919695766688973 -0.6284405935495582
4591000000.0 -0.8588983228090951 -0.5983007663493317
4594000000.0 -0.8408907617229187 -0.6267219570109986
4597000000.0 -0.8518964882557938 -0.5425368449272452
4600000000.0 -0.8965626484927198 -0.6145035370549318
4603000000.0 -0.8646747786761692 -0.5159689506583877
4606000000.0 -0.9681999806656505 -0.5332349637663155
4609000000.0 -0.8944998737224025 -0.5060205315195526
4612000000.0 -0.9033805797852414 -0.4614946708683019
4616000000.0 -0.9436534969965591 -0.44548873904052083
4619000000.0 -0.9610801982901626 -0.3711338486355972
4622000000.0 -0.9972647767953932 -0.302240924244822
4625000000.0 -1.0464716385608286 -0.343162709125393
4628000000.0 -1.1297348320989415 -0.33760138778979637
4631000000.0 -1.0078803444473763 -0.31554520336170133
4634000000.0 -1.0224475862105682 -0.24780321178927783
4638000000.0 -1.001211690963347 -0.20097378756487266
4641000000.0 -1.0138873452633088 -0.1544779872987163
4644000000.0 -1.010748427995739 -0.18706946134258726
4647000000.0 -1.024987145419737 -0.1419390740889764
4650000000.0 -1.019760106552266 -0.12110340333797553
4653000000.0 -1.0087215589912417 -0.024612843141936
4656000000.0 -1.028347632021613 -0.05617221311689327
4659000000.0 -1.0843030184549678 -0.04314688544701764
4662000000.0 -1.030611734990063 -0.029232554829086058
4666000000.0 -1.0445302017895257 0.08927296676149825
4669000000.0 -1.0407291797616958 0.06892517113364949
4672000000.0 -1.0744557827184211 0.12102374315345873
4675000000.0 -1.0198195257982006 0.1527083585585062
4678000000.0 -1.0000997468541943 0.1198480169777685
4681000000.0 -1.0197295914951514 0.23121067471407106
4684000000.0 -0.997235872208172 0.27812906461712816
4688000000.0 -1.0308876814869932 0.2983767217418962
4691000000.0 -0.9932896962142004 0.27780710203755266
4694000000.0 -0.9623168108954862 0.27332803490813556
4697000000.0 -0.9517323956517763 0.4032009084682942
4700000000.0 -0.9684256686860362 0.364872674303996
4703000000.0 -0.9341371356195622 0.35252739563010355
4706000000.0 -0.8659453525103069 0.4023014477787257
4709000000.0 -0.9313144980887472 0.4291821605369295
4712000000.0 -0.8841243605311868 0.4770264162133855
4716000000.0 -0.909510806622317 0.5757589935724827
4719000000.0 -0.8774016453783315 0.49983325269126505
4722000000.0 -0.9023647344074577 0.6268211829477164
4725000000.0 -0.8320696642105372 0.6270936034192556
4728000000.0 -0.8336043087674374 0.6916961130031343
4731000000.0 -0.8058070103243742 0.6765037797209776
4734000000.0 -0.770459647479001 0.6607906958343922
4738000000.0 -0.7285311565635115 0.7287619352769598
4741000000.0 -0.6836870758095726 0.7384458401719739
4744000000.0 -0.6791535487321395 0.782476570616035
4747000000.0 -0.6742187955384151 0.8120093472550575
4750000000.0 -0.5675001757543368 0.8531221343792923
4753000000.0 -0.5794683331424153 0.8747058383673777
4756000000.0 -0.5609264386702352 0.8733482027582653
4759000000.0 -0.5526041076049428 0.8610019975151394
4762000000.0 -0.5215688180247159 0.9239559842240826
4766000000.0 -0.4675193306660253 0.8945297100685197
4769000000.0 -0.44904817687725684 0.9591028880774837
4772000000.0 -0.4310109362805733 0.9375963795448602
4775000000.0 -0.39767800823796506 0.9412413277094146
4778000000.0 -0.3529933598130543 0.9526437610503381
4781000000.0 -0.30429186212243087 0.9883702006065215
4784000000.0 -0.30292445298264226 1.0138164995393275
4788000000.0 -0.25974024937817997 0.9789688589882438
4791000000.0 -0.21350522342543488 1.0111456835776698
4794000000.0 -0.1326460519636808 0.9819473837347203
4797000000.0 -0.15813716280105627 1.0597380491978627
4800000000.0 -0.07879978602505991 1.0490633652278247
4803000000.0 -0.13117319167207325 1.0131689794667853
4806000000.0 -0.023252366331447893 1.011237636692515
4809000000.0 -0.018745460398549685 1.021723524624773
4812000000.0 0.01970695454271834 1.0321586299248289
4816000000.0 0.09948382489632618 1.0238390408249425
4819000000.0 0.15685547549538903 0.9845478634860494
4822000000.0 0.13894628595319372 0.9930597059152475
4825000000.0 0.17578888495514244 0.9703056397933539
4828000000.0 0.18402330489971724 0.9802015374566716
4831000000.0 0.1566222283616108 1.011110365853096
4834000000.0 0.2910309634491328 0.9589031245741776
4838000000.0 0.322241984678693 0.9851685200864567
4841000000.0 0.34902569172480685 0.97788410399368
4844000000.0 0.38395728585301214 0.9566151752797123
4847000000.0 0.4135075042003894 0.9785986166971512
4850000000.0 0.40998652968494625 0.926588631568406
4853000000.0 0.4646951805792815 0.9085058285704226
4856000000.0 0.4771262416709627 0.9077405255980181
4859000000.0 0.5101415392626245 0.8379603561106919
4862000000.0 0.5814989833479498 0.8785536851528245
4866000000.0 0.5342609000275672 0.8617845816815497
4869000000.0 0.5519762738061093 0.8128100694164704
4872000000.0 0.5686470980177818 0.8030337590815023
4875000000.0 0.6799975787724191 0.7564419060217795
4878000000.0 0.6678342650449411 0.739341259563191
4881000000.0 0.6322301470102606 0.718819771566329
4884000000.0 0.7181401365231248 0.7414808507051684
4888000000.0 0.7550764908280129 0.7168881801496259
4891000000.0 0.7505147008903432 0.6693703945140217
4894000000.0 0.7509703615218145 0.6645168350676942
4897000000.0 0.7786371187648523 0.6194917259194742
4900000000.0 0.812104648933522 0.5747494649861019
4903000000.0 0.8323594386952026 0.5856367626510882
4906000000.0 0.8429053393837185 0.5743689103139245
4909000000.0 0.8689713287745311 0.5306855219695402
4912000000.0 0.8356437288217914 0.4814146169950779
4916000000.0 0.866854393621788 0.4719784905128484
4919000000.0 0.8835243868480478 0.4332891268488167
4922000000.0 0.9047370855545215 0.4576481248112975
4925000000.0 0.8900965275998931 0.43593736656753523
4928000000.0 0.9627127206733472 0.3848011709967024
4931000000.0 0.9588156913816502 0.3703927937698147
4934000000.0 0.9347407694689357 0.3519580961777523
4938000000.0 0.9538156452650417 0.32896438586301546
4941000000.0 0.995687465529446 0.2747621672075675
4944000000.0 1.0084938424010292 0.2749104198368092
4947000000.0 0.9949867146444441 0.26409575910078287
4950000000.0 1.0043040144644948 0.23720400154639146
4953000000.0 0.9859015034039534 0.20575843148005407
4956000000.0 0.9949283073827995 0.18726895885268763
4959000000.0 0.9977040065463786 0.15807560065733928
4962000000.0 0.9705759854754941 0.1126063158565885
4966000000.0 0.9971815150016657 0.09224373952744894
4969000000.0 1.000365034628015 0.08295253190285828
4972000000.0 1.02047915538956 0.03741036851544506
4975000000.0 1.0186332388408768 0.017270445826512833
4978000000.0 0.998668847536818 0.02512361470126058
4981000000.0 0.9895970117471248 -0.023936012595086105
4984000000.0 1.0192792740366832 -0.024520359470437646
4988000000.0 1.0050003661830056 -0.07299156144945937
4991000000.0 1.0417430381732047 -0.07658154991863521
4994000000.0 0.9919236405372085 -0.07131595264098599
4997000000.0 1.0024825708421226 -0.11118393459364943
5000000000.0 0.9984339944238435 -0.15006209218567604
5003000000.0 0.9961131167897836 -0.16801141239397466
5006000000.0 0.9906021438066182 -0.18710531890754892
5009000000.0 0.9753064898380767 -0.24153190104487934
5012000000.0 0.9386692845898885 -0.24068128974178798
5016000000.0 1.0036517702736436 -0.2448647359373179
5019000000.0 0.9538075154303123 -0.2679844617300795
5022000000.0 0.9690425511364952 -0.2852748060917446
5025000000.0 0.9962783324662974 -0.34482738301127736
5028000000.0 0.9563577390897646 -0.35777322743942147
5031000000.0 0.9356635562132384 -0.35417606784492284
5034000000.0 0.9828556815473832 -0.3889394965456541
5038000000.0 0.9195391064534119 -0.37649112535608276
5041000000.0 0.9505086116067113 -0.360944344881352
5044000000.0 0.9305338305479365 -0.41652300937688935
5047000000.0 0.926348973006659 -0.4208817330278094
5050000000.0 0.9515231234037084 -0.3655769212576289
5053000000.0 0.898126672369973 -0.48806481720438283
5056000000.0 0.8863685983312929 -0.46877686518327144
5059000000.0 0.9141529662195536 -0.44112551267231437
5062000000.0 0.8581057091787876 -0.5266655263668499
5066000000.0 0.8447645087387927 -0.4943316615018343
5069000000.0 0.8567152726089857 -0.5570633712104317
5072000000.0 0.8294000808667085 -0.553968597612694
5075000000.0 0.8457304165434945 -0.5769874695668602
5078000000.0 0.8230020000720897 -0.6798164527012465
5081000000.0 0.7682004605517778 -0.5793395005260893
5084000000.0 0.8178546542643778 -0.6587415761529074
5088000000.0 0.8112488418107509 -0.6095945415449711
5091000000.0 0.7673571433308195 -0.7136977511647347
5094000000.0 0.8060430710231274 -0.6714548022343787
5097000000.0 0.7915678486463116 -0.6956178183061494
5100000000.0 0.7490027566520431 -0.6636523933730194
5103000000.0 0.726770592322914 -0.6900790628789916
5106000000.0 0.7977972281109291 -0.7518197644302443
5109000000.0 0.7783754126120571 -0.6917560370193724
5112000000.0 0.7057556446615486 -0.7393346240550163
5116000000.0 0.6863228669853083 -0.6922612696721888
5119000000.0 0.7299551690075372 -0.7292320078625056
5122000000.0 0.7246682610662367 -0.7319445088738303
5125000000.0 0.6428815709582051 -0.7899378951560541
5128000000.0 0.6344363890820545 -0.8138392758832462
5131000000.0 0.6129533159334639 -0.7917569419645181
5134000000.0 0.6562331106488336 -0.8252980868351826
5138000000.0 0.6046849491449691 -0.8490438996050105
5141000000.0 0.6466412095409861 -0.8013358627165317
5144000000.0 0.6631061433550663 -0.8353648808367274
5147000000.0 0.594191064439404 -0.8412715706918433
5150000000.0 0.5859254197550003 -0.8419560924071953
5153000000.0 0.5450722197343452 -0.8625042440626004
5156000000.0 0.5879831854430199 -0.8866863362071058
5159000000.0 0.5757084645650894 -0.8849741038572543
5162000000.0 0.5116879251963167 -0.8498281313669842
5166000000.0 0.4817065195170011 -0.9987041977084001
5169000000.0 0.479246685501839 -0.9158594163521514
5172000000.0 0.45034072582409734 -0.8566880880166043
5175000000.0 0.4997005650644526 -0.9646095569729153
5178000000.0 0.43404251222916135 -0.9105935856060958
5181000000.0 0.5062484549486648 -0.9283863193117828
5184000000.0 0.38864292122688193 -0.9594370625481441
5188000000.0 0.470136212461486 -0.9049198610159337
