! Created with skrf 1.8.0 (http://scikit-rf.org).
# Hz S RI R 50.0 
!freq ReS11 ImS11
4000000000.0 0.7357405938360694 0.7467449413716716
4003000000.0 0.7896010124564008 0.7467149052942893
4006000000.0 0.7843124735465647 0.6769820299848283
4009000000.0 0.7377380151759125 0.7061479994326625
4012000000.0 0.7520480756207918 0.7702501623199034
4016000000.0 0.7956431367753644 0.7011101766880175
4019000000.0 0.8074288184147389 0.688550535175431
4022000000.0 0.7375674300680156 0.7593585007852794
4025000000.0 0.813483071208479 0.6290046072848366
4028000000.0 0.8460686517798843 0.6363405148488153
4031000000.0 0.7694410499631686 0.6601814934499417
4034000000.0 0.7706656473222545 0.6405823493484517
4038000000.0 0.8328015002247366 0.6036271898317032
4041000000.0 0.8096888602502427 0.6205815791011876
4044000000.0 0.8670306575358335 0.6536545921541596
4047000000.0 0.8355534208009068 0.6393482577663796
4050000000.0 0.8792455681788085 0.598737019285451
4053000000.0 0.8432914245496662 0.5572773014957442
4056000000.0 0.816347208967572 0.6030996440436336
4059000000.0 0.8297311040162954 0.6050914314409479
4062000000.0 0.8640753657275085 0.574072149842491
4066000000.0 0.8266663418427398 0.5037874092369851
4069000000.0 0.8530917614278759 0.5644776708411577
4072000000.0 0.8498661927193809 0.5718673881982717
4075000000.0 0.8890386719368066 0.5923907736666014
4078000000.0 0.8800341159581716 0.5232956360468164
4081000000.0 0.8435909176832483 0.5784755867836219
4084000000.0 0.9176797954795836 0.5191439574972732
4088000000.0 0.8558425165357071 0.5485435530677161
4091000000.0 0.9423374924195963 0.5303950002388265
4094000000.0 0.8915897619711125 0.4881143409656795
4097000000.0 0.8950333321743259 0.4596955524175987
4100000000.0 0.918103655002719 0.5030803274325903
4103000000.0 0.9286037569351835 0.45853239635519666
4106000000.0 0.933961189693556 0.43844711452874263
4109000000.0 0.9362443318353182 0.4755289252766341
4112000000.0 0.8975847472648177 0.4391500140965496
4116000000.0 0.8937538347671496 0.45146153257005517
4119000000.0 0.9621684886202355 0.43484743117731195
4122000000.0 0.9625617105370331 0.40008437807313657
4125000000.0 0.9511389261158005 0.41386237914051166
4128000000.0 0.9274817778351199 0.42389904155795144
4131000000.0 0.9562031423491005 0.3788773043243473
4134000000.0 0.9510762153965373 0.41746015062588515
4138000000.0 0.9391441777683773 0.3525393221367144
4141000000.0 0.9571708244437421 0.3752396876665548
4144000000.0 0.944904406517876 0.39276010958486113
4147000000.0 0.9635081162366933 0.3434409863946886
4150000000.0 0.977613327288374 0.355340444834589
4153000000.0 0.9405827267248157 0.3341576803208164
4156000000.0 0.9808346278003606 0.35722538140201654
4159000000.0 0.9604827388159225 0.33609962992522685
4162000000.0 0.966005874972681 0.3366584605406777
4166000000.0 1.0096258651081305 0.3112647845699802
4169000000.0 0.9653631042034482 0.24952596918824388
4172000000.0 0.9885450015650659 0.29358904304707895
4175000000.0 1.0161893748593431 0.29539460034541215
4178000000.0 1.0040512511233888 0.2734465997762522
4181000000.0 0.9997854112784916 0.2586770789008406
4184000000.0 0.9854391398083395 0.2549798153137857
4188000000.0 1.010481774136944 0.2539008951313443
4191000000.0 0.9874185467098942 0.2596434337658509
4194000000.0 0.9828259022688246 0.20414504020292779
4197000000.0 1.0038619514867149 0.22695570488592837
4200000000.0 0.9857125309927675 0.23910122949980128
4203000000.0 0.9951488079518951 0.22199638588839188
4206000000.0 1.0061041825981187 0.19632402573776242
4209000000.0 0.9920875280534034 0.17548405366875425
4212000000.0 0.9935851750117581 0.1424146208078224
4216000000.0 1.014246174280065 0.18368709801301664
4219000000.0 1.0368118098864412 0.16824939411700782
4222000000.0 1.0134606779795239 0.14015533545508535
4225000000.0 0.9949323947485917 0.14113324599550794
4228000000.0 1.0129308496370897 0.15051139111316472
4231000000.0 1.0269152645250599 0.1075429096968869
4234000000.0 1.032205476438981 0.10053779969120469
4238000000.0 0.9999625405224402 0.09116087634459277
4241000000.0 1.0027788824099557 0.0707269820780346
4244000000.0 1.003707706316179 0.07951248248406798
4247000000.0 1.0200520239399067 0.051691048237896664
4250000000.0 0.9893126390269895 0.05965164257809888
4253000000.0 0.9841305578618189 0.04601021562839169
4256000000.0 1.0452021722225489 0.026000697483364005
4259000000.0 0.9924250955269613 0.029212627611575614
4262000000.0 1.0124360144300155 0.007119376485222512
4266000000.0 1.0366858446945308 -0.028578274673626558
4269000000.0 1.0092367116202834 0.01108706271951096
4272000000.0 0.9970094484700829 0.0078004259471475546
4275000000.0 1.0101536884617872 -0.021311064302756755
4278000000.0 1.0402770009288378 -0.02787160343927106
4281000000.0 1.0228987834959244 -0.02458557499910291
4284000000.0 1.0225330235060133 -0.08542759997428112
4288000000.0 1.0258658356503498 -0.024085871941284698
4291000000.0 0.9804061287868795 -0.05105815061823489
4294000000.0 0.9925564358771288 -0.07792958161534892
4297000000.0 1.00435125730973 -0.045761617341579325
4300000000.0 0.9873645573672074 -0.051956786065080064
4303000000.0 0.9893830403986656 -0.10353492344322715
4306000000.0 1.0100762261158103 -0.07597342316652679
4309000000.0 0.9837680710193448 -0.10048986526914871
4312000000.0 1.0230586804665815 -0.07147247744165108
4316000000.0 1.0162934483275583 -0.11364244278049493
4319000000.0 0.9960780607610312 -0.14262390660984703
4322000000.0 0.992751717249104 -0.15477910480876406
4325000000.0 1.0159571167308608 -0.12611401589675844
4328000000.0 0.9985639250020583 -0.14497827536528166
4331000000.0 1.0014047033472426 -0.19404621747032488
4334000000.0 0.9824301499694701 -0.19863919256285506
4338000000.0 1.0123127232170699 -0.1694347439682722
4341000000.0 1.0395995509027978 -0.1810031809030648
4344000000.0 1.0391264060844578 -0.19631364949730154
4347000000.0 0.9967114665872684 -0.2515494152936035
4350000000.0 0.9466675766112085 -0.23053277221739787
4353000000.0 0.9738492104636323 -0.2091114770018403
4356000000.0 0.9527587508673023 -0.259520620878853
4359000000.0 0.9513997471194288 -0.23689692652047484
4362000000.0 0.967320731475908 -0.3210680668718867
4366000000.0 0.9875345443369272 -0.28891579637307097
4369000000.0 0.9356739528792879 -0.2902881028566399
4372000000.0 0.9302705111452614 -0.3292253883591084
4375000000.0 0.9578115890782943 -0.2795180083788879
4378000000.0 0.9239890860244317 -0.30223003484801797
4381000000.0 0.9439566303907159 -0.2990706399622488
4384000000.0 1.008210105250967 -0.36947545568738094
4388000000.0 0.9488032330939581 -0.3354178138889609
4391000000.0 0.960968086722614 -0.3548450384857362
4394000000.0 0.9150789600981876 -0.3758767863158131
4397000000.0 0.9342790045087204 -0.3735484728622134
4400000000.0 0.9578195447980131 -0.3918022415835122
4403000000.0 0.9281110118869557 -0.39587732941089326
4406000000.0 0.939518854063411 -0.41527125339093574
4409000000.0 0.9615097444599006 -0.4350237287398608
4412000000.0 0.8966529243456103 -0.46218309704332783
4416000000.0 0.9048552819959725 -0.42834527830334584
4419000000.0 0.8933870748576925 -0.4550177906257284
4422000000.0 0.9064327087315565 -0.42297758852744777
4425000000.0 0.9196789247568391 -0.44992131536516866
4428000000.0 0.8847920059791781 -0.4731802842627252
4431000000.0 0.9064587692285666 -0.48137317500485166
4434000000.0 0.869910888555944 -0.4702900466402607
4438000000.0 0.8979249458081449 -0.49415329987640094
4441000000.0 0.893224923433473 -0.49635489417547984
4444000000.0 0.8691694373906584 -0.4926179081990566
4447000000.0 0.8562593349175905 -0.5197248919617339
4450000000.0 0.8625541029492577 -0.5209528929747886
4453000000.0 0.8650338831608657 -0.5319293808385668
4456000000.0 0.8190916867985181 -0.5396996861929653
4459000000.0 0.8258105038284809 -0.5362533237689475
4462000000.0 0.8871646822377934 -0.5660242087383293
4466000000.0 0.8750736147253431 -0.5925942221539694
4469000000.0 0.8475776375068903 -0.5557650341937341
4472000000.0 0.811300097200941 -0.594849149246441
4475000000.0 0.7954447467786121 -0.5588050526257239
4478000000.0 0.8424264049094956 -0.6455531765184365
4481000000.0 0.7914712375338124 -0.5951856319492776
4484000000.0 0.7756948940675228 -0.6401822730217562
4488000000.0 0.7904747143180311 -0.6362022205174238
4491000000.0 0.7862231942188419 -0.63230326628998
4494000000.0 0.7902370091033816 -0.6264457200720162
4497000000.0 0.7625165298808877 -0.6345338815444438
4500000000.0 0.7932106185789657 -0.6470449729906671
4503000000.0 0.7836317907869395 -0.6664536542195139
4506000000.0 0.7463840723278712 -0.6676243324849467
4509000000.0 0.7335086806436593 -0.672742351587029
4512000000.0 0.7453884696577739 -0.6800823666299376
4516000000.0 0.7684875409844871 -0.6956696424634673
4519000000.0 0.7135515044859031 -0.6931517083380556
4522000000.0 0.7297809907387102 -0.7154231349179492
4525000000.0 0.7473424639916131 -0.7022645944666291
4528000000.0 0.7237931876586542 -0.7264827643011285
4531000000.0 0.727858535319067 -0.7175568525188105
4534000000.0 0.6845917230925553 -0.7319403504332187
4538000000.0 0.6975973257983588 -0.7272289157882678
4541000000.0 0.658380323503668 -0.7716510841155636
4544000000.0 0.6808429968620312 -0.7459804711896739
4547000000.0 0.6821076223525327 -0.713012909931015
4550000000.0 0.6547436993730772 -0.7741521273526926
4553000000.0 0.6514094569471297 -0.7758462543220495
4556000000.0 0.637679313597761 -0.7745874493863834
4559000000.0 0.6326285841236354 -0.7864093486585446
4562000000.0 0.6464662138358976 -0.7867837540537092
4566000000.0 0.62046945945499 -0.8109506261078598
4569000000.0 0.6143408121437124 -0.8142291056693018
4572000000.0 0.6137766211641497 -0.8191318004071878
4575000000.0 0.6019799494775302 -0.8202165786364375
4578000000.0 0.600254254994679 -0.8312166381503107
4581000000.0 0.5692528073522558 -0.8215272847640241
4584000000.0 0.5676779581161331 -0.8259809720895898
4588000000.0 0.5770957744364503 -0.8449011371681246
4591000000.0 0.5770326024968874 -0.8294230593079458
4594000000.0 0.5235089674111715 -0.8665725702217821
4597000000.0 0.5368020513376996 -0.8588531310417997
4600000000.0 0.5096441479196249 -0.878478216067131
4603000000.0 0.519990048402894 -0.863365089893627
4606000000.0 0.5318987687436154 -0.8870436099284886
4609000000.0 0.5241004376099055 -0.8794117480653586
4612000000.0 0.49582456355753396 -0.8889512512858343
4616000000.0 0.48144184002570933 -0.874999841643729
4619000000.0 0.45592685451198156 -0.8968446245217926
4622000000.0 0.4524330385185282 -0.9099261494353588
4625000000.0 0.44945208384683966 -0.919060972931692
4628000000.0 0.47599373742749457 -0.9124500532320164
4631000000.0 0.4382900443134757 -0.9033677404447925
4634000000.0 0.42736550772747967 -0.9201705529920254
4638000000.0 0.42451588684912045 -0.9311938724850807
4641000000.0 0.41835950312324277 -0.9166750047391645
4644000000.0 0.40329614466780456 -0.926939465216825
4647000000.0 0.4044043542838388 -0.9310582854341778
4650000000.0 0.36585454650574945 -0.9338237382633718
4653000000.0 0.3853923004849783 -0.965913184376495
4656000000.0 0.37353949380382473 -0.9512150397426513
4659000000.0 0.33688634845910526 -0.9540024616817907
4662000000.0 0.3456296027006831 -0.9600416446477792
4666000000.0 0.32711437607592375 -0.9893809286402392
4669000000.0 0.3441917968902747 -0.9636406022330394
4672000000.0 0.3204664077632102 -1.00315699220044
4675000000.0 0.30336674556124976 -0.9869094828352273
4678000000.0 0.2833916772559249 -0.9363545126985958
4681000000.0 0.2924659694207196 -0.984887628528025
4684000000.0 0.22916341680387342 -1.0111801083230012
4688000000.0 0.21358486370814295 -1.0031612835925705
4691000000.0 0.2915991420050298 -0.9715846533991777
4694000000.0 0.30448282554110595 -0.9877724810652007
4697000000.0 0.20708921908815547 -0.9732955674845238
4700000000.0 0.23853218809378612 -1.003348794200469
4703000000.0 0.2650470614766672 -0.9304144977149922
4706000000.0 0.20786520669297326 -0.9877040249380212
4709000000.0 0.19746510475806753 -1.00864441321674
4712000000.0 0.21474113812672707 -0.9998324450505208
4716000000.0 0.1638052700697057 -0.9993449713992677
4719000000.0 0.22264483005552904 -0.9851788063255095
4722000000.0 0.20080478896184112 -1.0183495182321625
4725000000.0 0.1611757559272421 -0.9948592867450915
4728000000.0 0.1346781774824728 -0.9963420442562128
4731000000.0 0.14128478583363718 -1.0602937304177737
4734000000.0 0.14191233828093006 -1.0253768462725288
4738000000.0 0.16643494110753965 -1.0664022565919435
4741000000.0 0.11599676938402331 -1.0400746580325293
4744000000.0 0.06289744728410157 -1.03041062792619
4747000000.0 0.13495326081561554 -0.964037904744447
4750000000.0 0.1001573095997988 -1.049867701965047
4753000000.0 0.09656525464152885 -1.0346190468960057
4756000000.0 0.06299123586234281 -1.0572184830361497
4759000000.0 0.06045339492649726 -1.0319829425010885
4762000000.0 -0.011982275696777067 -1.056137103667232
4766000000.0 0.03126982855214716 -1.037909718951167
4769000000.0 0.010214107184062848 -1.0597079945462133
4772000000.0 -0.018838508729206505 -1.0328093116562371
4775000000.0 -0.05274894395141849 -1.0874284382920854
4778000000.0 -0.020218511492649305 -1.0661274742276958
4781000000.0 -0.02628485153186555 -1.0299517925661403
4784000000.0 0.0020390577035750423 -1.0175467610331546
4788000000.0 -0.09894096993073792 -1.030172783769391
4791000000.0 -0.03316827786160209 -1.0177657840860543
4794000000.0 -0.008925200297855623 -1.067641332430675
4797000000.0 -0.08025697757307076 -1.0058966770712325
4800000000.0 -0.0707539346355214 -1.0108157298394551
4803000000.0 -0.1653438748970707 -0.9946975787190597
4806000000.0 -0.12770259117902566 -1.044998409509826
4809000000.0 -0.15802502863508805 -1.018463962388292
4812000000.0 -0.15992345341297287 -1.015316512168811
4816000000.0 -0.10201292329403983 -1.0288485168317567
4819000000.0 -0.12966270917483252 -1.0480055154570564
4822000000.0 -0.12792405107663557 -1.0563936139530716
4825000000.0 -0.10747901263509446 -1.0544685039898332
4828000000.0 -0.1694868793751941 -1.012194171911152
4831000000.0 -0.23990149660060223 -1.0696221301549493
4834000000.0 -0.15516029057715405 -1.0361013541268993
4838000000.0 -0.2261346804768179 -1.0157051693576304
4841000000.0 -0.21081118981258312 -1.0314597246600896
4844000000.0 -0.2032251323299782 -1.0272917653834885
4847000000.0 -0.1928599345573541 -1.0038989604463726
4850000000.0 -0.26685135017568146 -1.0547340290938554
4853000000.0 -0.23626856160203116 -0.9614579210684893
4856000000.0 -0.2701600183810822 -0.991976952607179
4859000000.0 -0.2817736749051083 -1.0525544246347245
4862000000.0 -0.25827455440211033 -0.9955748153915761
4866000000.0 -0.3288578279624311 -0.9975418096546894
4869000000.0 -0.3241748497324867 -0.993027531915221
4872000000.0 -0.3367238717616788 -1.009564957615097
4875000000.0 -0.2732040459319989 -1.065406736020252
4878000000.0 -0.3542596056824504 -0.9832130294688034
4881000000.0 -0.4242888114225799 -1.0102173444342257
4884000000.0 -0.3500151183006129 -0.9947902298552576
4888000000.0 -0.3229644202351452 -0.9724383638309503
4891000000.0 -0.35633494799725907 -0.9807016027922811
4894000000.0 -0.431000513609298 -0.9511731675920294
4897000000.0 -0.37522780076610057 -0.9432087469451621
4900000000.0 -0.38000741153764056 -0.9643457646471433
4903000000.0 -0.41094271158040385 -0.9573620037287096
4906000000.0 -0.41179630349950824 -0.9784495441430492
4909000000.0 -0.44156430477240527 -0.9713756478185698
4912000000.0 -0.469605566734929 -0.9646672125496094
4916000000.0 -0.44303244674130804 -0.9875176736603744
4919000000.0 -0.4301336634964658 -0.9592769197664754
4922000000.0 -0.43593996938969504 -0.9593510004278649
4925000000.0 -0.49484918712368753 -0.924052218745239
4928000000.0 -0.4317457493517383 -0.9357357318875335
4931000000.0 -0.49462973131986776 -0.9495362647422476
4934000000.0 -0.5044927858147951 -0.853839745110801
4938000000.0 -0.5479637876296943 -0.9177088918353112
4941000000.0 -0.47644108309205746 -0.9120723070985554
4944000000.0 -0.4611920179154355 -0.8818085093571142
4947000000.0 -0.5112253812878198 -0.8985154668881943
4950000000.0 -0.5130878350478314 -0.8579115845219558
4953000000.0 -0.6013885549063096 -0.8851105161470667
4956000000.0 -0.57763978761011 -0.8457837383012616
4959000000.0 -0.5594957916222015 -0.8391667324129074
4962000000.0 -0.6285868858680225 -0.8757224536140619
4966000000.0 -0.5780765174666778 -0.8829429049266168
4969000000.0 -0.6030322811911929 -0.8861799372551001
4972000000.0 -0.624747668495973 -0.8698735105421074
4975000000.0 -0.5605918393426518 -0.8385214766024657
4978000000.0 -0.6303646368922613 -0.8358090090355658
4981000000.0 -0.6462133150685092 -0.8153172736004207
4984000000.0 -0.5986248914380399 -0.8062102831625084
4988000000.0 -0.6515088460861698 -0.8253338592820658
4991000000.0 -0.6466081173484988 -0.8347948542047634
4994000000.0 -0.6385614641192088 -0.8019857706040997
4997000000.0 -0.7095959577482454 -0.7535631227384308
5000000000.0 -0.6947502623361236 -0.8141466889293179
5003000000.0 -0.698902837275234 -0.7914885209755543
5006000000.0 -0.7421522954874601 -0.809382554089287
5009000000.0 -0.7123562336412866 -0.754382646126587
5012000000.0 -0.7196566782845668 -0.76223156733132
5016000000.0 -0.7268686647505038 -0.8063815812062054
5019000000.0 -0.7375388404328442 -0.7454866680191442
5022000000.0 -0.7544240201292192 -0.7512046684285247
5025000000.0 -0.7614530955312537 -0.7234624175513037
5028000000.0 -0.7514131230783047 -0.7170926377686233
5031000000.0 -0.785135717022843 -0.737546266504114
5034000000.0 -0.8166929559478201 -0.7017430575541425
5038000000.0 -0.7720163487001982 -0.6663432932295419
5041000000.0 -0.7680471512834501 -0.7196086910481639
5044000000.0 -0.7394080886735473 -0.6918835580970659
5047000000.0 -0.801636893376737 -0.6727358423715566
5050000000.0 -0.7307033448649691 -0.6970231698125053
5053000000.0 -0.842588067813288 -0.6670971936559065
5056000000.0 -0.7969196127650752 -0.6824615153992325
5059000000.0 -0.8074618522963657 -0.6257111724432003
5062000000.0 -0.8321695381790265 -0.621125943418198
5066000000.0 -0.8257716087309557 -0.6325499454175688
5069000000.0 -0.8475753569161091 -0.6223565954464322
5072000000.0 -0.8167492038298861 -0.6444009318055892
5075000000.0 -0.7776466835405199 -0.5882844668634997
5078000000.0 -0.8756377240870608 -0.5345453815191332
5081000000.0 -0.8702039494537411 -0.5645796072798345
5084000000.0 -0.912380334380257 -0.5489486538862185
5088000000.0 -0.8500909019007072 -0.5610320592300169
5091000000.0 -0.9040508165056103 -0.5142128285519358
5094000000.0 -0.8659199306290356 -0.5228789143030887
5097000000.0 -0.8487339760474963 -0.5411423984548271
5100000000.0 -0.9173107225902511 -0.4890913128731138
5103000000.0 -0.9219011655753321 -0.4054118705063884
5106000000.0 -0.9385810818208796 -0.4663852914545944
5109000000.0 -0.8820334374228953 -0.5116622311977478
5112000000.0 -0.8749528337617123 -0.4666005075740381
5116000000.0 -0.9027997539371544 -0.4806568256155085
5119000000.0 -0.9540605031721229 -0.39126300610743253
5122000000.0 -0.9389929371578941 -0.39699682957638766
5125000000.0 -0.903087924246178 -0.47055009994234476
5128000000.0 -0.9800968039506837 -0.38889167378671335
5131000000.0 -1.0214789091660408 -0.3935394139085854
5134000000.0 -0.963286372048635 -0.37180763468029293
5138000000.0 -0.9239510834026232 -0.42740742823669625
5141000000.0 -0.9846070441627581 -0.4173556501738033
5144000000.0 -0.944115966668447 -0.3754040457070418
5147000000.0 -0.9908597493632463 -0.3168964785579863
5150000000.0 -1.0188104718500661 -0.3756291894293962
5153000000.0 -1.0181315394851074 -0.36702505715425715
5156000000.0 -0.9609177597323336 -0.3560953008159083
5159000000.0 -1.0264253537605252 -0.3442455769732713
5162000000.0 -1.082470080145304 -0.2388994173692881
5166000000.0 -1.0018662161571326 -0.32864133015124464
5169000000.0 -1.0025168615669964 -0.26713649428523306
5172000000.0 -1.0508789004301196 -0.29051976313117456
5175000000.0 -1.0229214539147866 -0.2562580632249091
5178000000.0 -1.0500581848074406 -0.22474984013160887
5181000000.0 -1.0452649774395837 -0.20690701761055655
5184000000.0 -1.0248819379513385 -0.24402755689718952
