! Created with skrf 1.8.0 (http://scikit-rf.org).
# Hz S RI R 50.0 
!freq ReS11 ImS11
4000000000.0 0.6247789324049868 0.8078396903227225
4003000000.0 0.6596530636768043 0.8601175278776555
4006000000.0 0.6831354562841057 0.7788909718202878
4009000000.0 0.7035816695744334 0.7905532441135004
4012000000.0 0.6244470632418591 0.9082681427963096
4016000000.0 0.691730718335875 0.7671775568172581
4019000000.0 0.7030372889047667 0.7878842741723587
4022000000.0 0.6219420115915691 0.7798839324483736
4025000000.0 0.7627848855654035 0.764531256637002
4028000000.0 0.7318338049803333 0.7821535754744087
4031000000.0 0.6766552178168874 0.7376541520675459
4034000000.0 0.7207128206112571 0.7259302628710933
4038000000.0 0.7596624418768559 0.7406662875806165
4041000000.0 0.741293592996915 0.7603926781871369
4044000000.0 0.7922119911700007 0.7535767068698458
4047000000.0 0.7241597398784212 0.7768554691384993
4050000000.0 0.7904397050679189 0.7239512517488192
4053000000.0 0.7761906943721384 0.6961450905028543
4056000000.0 0.8027916494142986 0.7317412217222059
4059000000.0 0.7447979463718533 0.6808614748800828
4062000000.0 0.8088077344022415 0.6680396194447564
4066000000.0 0.7307822236507582 0.6441129254788379
4069000000.0 0.8386742343403043 0.654549093601966
4072000000.0 0.7871364870511784 0.6828698880690685
4075000000.0 0.8186559724731357 0.7599941690412046
4078000000.0 0.8356354563573067 0.6679214406525632
4081000000.0 0.8118574649441382 0.7588981799522316
4084000000.0 0.8080017663951634 0.6679483787977316
4088000000.0 0.780993892341818 0.6759449427671379
4091000000.0 0.9206805772524103 0.6884236568179243
4094000000.0 0.8318950711977224 0.6577161394796458
4097000000.0 0.8503353246814314 0.6189291449567398
4100000000.0 0.8367784638189392 0.6255244926685912
4103000000.0 0.8379282779256396 0.6345302552183043
4106000000.0 0.8783527725852558 0.6045434951176266
4109000000.0 0.8576225328021327 0.6181508933530331
4112000000.0 0.8754458737688839 0.5660150911444122
4116000000.0 0.838037442003149 0.6234392805355978
4119000000.0 0.8620232118273482 0.5744259851199243
4122000000.0 0.8615166257508788 0.6082581203756309
4125000000.0 0.8830509283126362 0.5701011931001396
4128000000.0 0.8206428738554399 0.5406549885087829
4131000000.0 0.8789204754790337 0.5338409505556084
4134000000.0 0.8997507503719696 0.5486743799840379
4138000000.0 0.879586158370264 0.5165581631713447
4141000000.0 0.8961573888527414 0.5147905580310109
4144000000.0 0.9015537721969864 0.5357639074173697
4147000000.0 0.8859896285999115 0.49485662157633165
4150000000.0 0.9415120908815225 0.5260250046038166
4153000000.0 0.917479639004133 0.49203643375303185
4156000000.0 0.9555171242525704 0.5109182359766344
4159000000.0 0.8744676685566031 0.46171337683272123
4162000000.0 0.9027057874111515 0.4946522054842615
4166000000.0 0.9326756830053606 0.4589865093352108
4169000000.0 0.9226321523499665 0.4194288063992626
4172000000.0 0.9123227828624725 0.49029664880287055
4175000000.0 0.9632484466917848 0.4593699426009192
4178000000.0 0.9598143491743151 0.4692278800218823
4181000000.0 0.9446262870348847 0.4272013448467502
4184000000.0 0.9019957077502004 0.4409359498568733
4188000000.0 0.9373190185466438 0.3893730728806849
4191000000.0 0.9132304613606188 0.42296857358277945
4194000000.0 0.9462489063176936 0.36864780140432973
4197000000.0 0.9842689235575695 0.39995284545788895
4200000000.0 0.9574532142123233 0.40033458706824354
4203000000.0 0.9548852470790954 0.3937510771152304
4206000000.0 0.974450843699609 0.3776887885041879
4209000000.0 0.9373584045949628 0.3839676464185115
4212000000.0 0.9829355061478754 0.325302780840276
4216000000.0 0.9834265780596811 0.35040235432906935
4219000000.0 1.0058459258285324 0.3510422464392021
4222000000.0 0.9984917848149497 0.3074225241866128
4225000000.0 0.9567378545381962 0.3173013999336185
4228000000.0 0.9902706490562287 0.3228935083382447
4231000000.0 0.9760342258777777 0.3032082026388266
4234000000.0 1.0010159270667323 0.30224417745612414
4238000000.0 0.9878982577295401 0.263067499260522
4241000000.0 0.9904647449568023 0.2645765212312748
4244000000.0 0.9970109184269645 0.27917261968351254
4247000000.0 0.9881639115969616 0.2743089338179282
4250000000.0 0.9687725471571975 0.22941474429242031
4253000000.0 0.9746629372616877 0.2430939024338885
4256000000.0 0.9932116270303644 0.22251911912067784
4259000000.0 0.9618150199651798 0.19517225448398298
4262000000.0 0.9922624155033544 0.2108129375894617
4266000000.0 1.0188300308768765 0.22001006126006956
4269000000.0 1.0080103579117226 0.2279013278407457
4272000000.0 1.0043456157066555 0.2041999728044448
4275000000.0 1.019292717139631 0.1939984153589444
4278000000.0 1.034878572946741 0.20359403654141806
4281000000.0 1.0124412871620319 0.17566165376538972
4284000000.0 1.0026061926187881 0.15619643389541146
4288000000.0 1.0310127278410133 0.20412192352636674
4291000000.0 0.9923132930406813 0.15846347937030092
4294000000.0 1.0104441020402675 0.13731337051408732
4297000000.0 0.9888331264543369 0.1449632635887041
4300000000.0 0.9868495411757581 0.11515085965432689
4303000000.0 1.0172524200602584 0.09172812268488399
4306000000.0 1.0240804750410553 0.13501445262251055
4309000000.0 1.0049454213020141 0.09370778076326007
4312000000.0 1.0360081344328365 0.1078725578592476
4316000000.0 1.0415458529450003 0.08911061517137099
4319000000.0 0.9931738741767024 0.08613641507548107
4322000000.0 1.0089417201930344 0.036915570749048596
4325000000.0 1.0079334164357803 0.06024050403547131
4328000000.0 0.9873088205880126 0.0519466452522946
4331000000.0 1.0315534473815713 0.007451392076170432
4334000000.0 1.0439374491257565 0.015181209228974812
4338000000.0 1.0084966438300156 0.03486486142965155
4341000000.0 1.0505392845458545 0.03214242130671249
4344000000.0 1.0462502339702104 0.020143838976045603
4347000000.0 1.0409266806161537 -0.031065833012008492
4350000000.0 0.9867993362458013 -0.035304029975619294
4353000000.0 1.0054406160730656 -0.0059440587387554755
4356000000.0 1.0085884585660754 -0.045012916653689866
4359000000.0 0.9879252413537886 -0.02685260672751527
4362000000.0 1.0136876418328524 -0.1164615247131009
4366000000.0 1.0411087616222372 -0.06423468017271544
4369000000.0 0.9757838998275263 -0.0703734154351738
4372000000.0 0.9966679993573928 -0.12229765839077524
4375000000.0 1.0203158324287576 -0.05877006211807351
4378000000.0 0.9978592299539771 -0.08225082246419137
4381000000.0 0.9982189952685476 -0.09155274611819571
4384000000.0 1.0687060802984494 -0.10949043675361433
4388000000.0 0.9961465928517569 -0.12405852691538571
4391000000.0 1.0163103125945687 -0.12333055040991807
4394000000.0 0.9744621569939944 -0.1334807554478631
4397000000.0 1.0095853876611387 -0.14265213963359946
4400000000.0 1.0386725610181367 -0.15285935714956594
4403000000.0 1.0014423556289793 -0.17271232435248507
4406000000.0 0.9990021811657097 -0.19883089269059126
4409000000.0 1.0335060030164962 -0.193843374878771
4412000000.0 0.9820251093689659 -0.24458727079407216
4416000000.0 0.9869985349329544 -0.21429069399457398
4419000000.0 0.9824297601478195 -0.22986468636673857
4422000000.0 0.9855758492460456 -0.19845720077254855
4425000000.0 1.0116462986667845 -0.2107419378627642
4428000000.0 0.9764774738551011 -0.24266241124994423
4431000000.0 1.0111536005552368 -0.24538604137625078
4434000000.0 0.9724578451990292 -0.25553836305349553
4438000000.0 1.0063837985729165 -0.2685285308324071
4441000000.0 0.9918941922720506 -0.2689908648712297
4444000000.0 0.9563629377620941 -0.26463255027592875
4447000000.0 0.961593406946207 -0.2976170146597966
4450000000.0 0.9521059295575459 -0.2762877710902018
4453000000.0 0.9898616325884004 -0.29783811036315
4456000000.0 0.933100062385814 -0.3135864150565652
4459000000.0 0.9213189020961097 -0.3332348473559701
4462000000.0 1.0017809364479942 -0.34734946717114057
4466000000.0 0.9898986340281533 -0.3661638421235634
4469000000.0 0.9739398651953576 -0.32934713241329605
4472000000.0 0.9617770551766818 -0.3929843156014755
4475000000.0 0.9221703791455536 -0.36833681503464233
4478000000.0 0.9852879817850284 -0.4072133630059013
4481000000.0 0.9015184702144212 -0.38275482189682314
4484000000.0 0.9011628233663036 -0.42494684262612525
4488000000.0 0.9121124323507258 -0.41143316459532286
4491000000.0 0.9277067939204066 -0.3900239484152981
4494000000.0 0.9219179510810147 -0.39812602853932005
4497000000.0 0.9336871244719862 -0.41004941407657214
4500000000.0 0.9295753664333009 -0.43953999427538026
4503000000.0 0.9273769655449595 -0.4483610701416142
4506000000.0 0.8936573784760597 -0.44425655096637784
4509000000.0 0.8827547763583734 -0.4604719451291316
4512000000.0 0.881184997134329 -0.46866293945813686
4516000000.0 0.9238924772821696 -0.45963392430318184
4519000000.0 0.9061592055561177 -0.4686366786503889
4522000000.0 0.887548675600474 -0.4818316899343353
4525000000.0 0.9344775089237995 -0.4515815277107735
4528000000.0 0.9067583663582894 -0.5161386545393402
4531000000.0 0.9017720349192694 -0.5010462623041612
4534000000.0 0.8579317338102136 -0.5215074691647481
4538000000.0 0.8691491471587802 -0.5168976837606517
4541000000.0 0.8235701967769754 -0.5576155462574851
4544000000.0 0.8357962537224037 -0.5250813391047507
4547000000.0 0.8617037358912123 -0.5324471359729648
4550000000.0 0.8393297969128632 -0.5765801764354616
4553000000.0 0.8440309134722466 -0.574765622886985
4556000000.0 0.8263431373836598 -0.5581352479294146
4559000000.0 0.8280268670978416 -0.5870358756253085
4562000000.0 0.8435016857710893 -0.590915123217386
4566000000.0 0.8478941720913129 -0.6008538787607596
4569000000.0 0.8022145517388737 -0.5983695583271553
4572000000.0 0.8074984442355907 -0.6089958280267818
4575000000.0 0.7966457892701748 -0.6328804820366997
4578000000.0 0.8405576577028995 -0.6178179010336223
4581000000.0 0.8105079707314825 -0.6407955712488425
4584000000.0 0.7798371848367376 -0.629163484666159
4588000000.0 0.818666760614909 -0.6248702901057359
4591000000.0 0.8181947363699839 -0.6439218997994874
4594000000.0 0.7572728386467132 -0.6781738986254771
4597000000.0 0.7715979443678052 -0.6794960111714594
4600000000.0 0.7497432462088803 -0.6847092423336096
4603000000.0 0.7530418412022738 -0.6952761144185514
4606000000.0 0.7375771724435297 -0.6950654094832112
4609000000.0 0.7536135546251064 -0.6881923148513488
4612000000.0 0.7435169236101028 -0.6997034754784234
4616000000.0 0.7214392025018193 -0.7062554059921092
4619000000.0 0.7361953419861489 -0.7111707671908168
4622000000.0 0.7226315070683921 -0.7273987946284907
4625000000.0 0.6752369966140572 -0.7088352995432577
4628000000.0 0.733420808056605 -0.7048121678788717
4631000000.0 0.6948550048958075 -0.7362619669949687
4634000000.0 0.6908627581661142 -0.7544553381000736
4638000000.0 0.700955314787154 -0.7448931310247476
4641000000.0 0.7016100697062809 -0.7490854066871014
4644000000.0 0.672785181003615 -0.7503790536434822
4647000000.0 0.6787924711757117 -0.7711491833701065
4650000000.0 0.6504473187136813 -0.7675630220695098
4653000000.0 0.6721656236986226 -0.7875112938986542
4656000000.0 0.6284585784888781 -0.8001120198324685
4659000000.0 0.6336159193772282 -0.7869652576106285
4662000000.0 0.6440473807471672 -0.7793391459789126
4666000000.0 0.6222626165598215 -0.787128207912076
4669000000.0 0.6132240326556979 -0.7827286651748445
4672000000.0 0.6171337344016902 -0.8278983414617912
4675000000.0 0.6011162761948956 -0.8245198747256222
4678000000.0 0.5778324519312689 -0.8013755662014758
4681000000.0 0.5684339736208786 -0.8561042533346535
4684000000.0 0.5570630692835411 -0.8524422427066359
4688000000.0 0.5512646271518672 -0.8365309343527488
4691000000.0 0.5794005206822598 -0.8586161150850129
4694000000.0 0.5542764578793029 -0.8412460156149217
4697000000.0 0.528585011483695 -0.840105226761281
4700000000.0 0.570525377828802 -0.8640245081033833
4703000000.0 0.5617027426829906 -0.8290015081097362
4706000000.0 0.5117121046873465 -0.8822483404507727
4709000000.0 0.5263857918616257 -0.8531455112003418
4712000000.0 0.5177133967447203 -0.8717127983246543
4716000000.0 0.49890946950711323 -0.8909791742638631
4719000000.0 0.528843829914986 -0.8959534295344804
4722000000.0 0.5316248660806219 -0.8927058136713779
4725000000.0 0.47585277492460065 -0.8925105772908227
4728000000.0 0.4911717711092474 -0.9108445870027868
4731000000.0 0.47298078763208573 -0.8840688604263727
4734000000.0 0.48218617104171085 -0.9007597941615145
4738000000.0 0.49189212102022406 -0.9310812788490146
4741000000.0 0.4729220296195724 -0.9516788072459565
4744000000.0 0.41157589503470227 -0.9553120860287817
4747000000.0 0.4256645622417697 -0.8853322573959576
4750000000.0 0.4234857720676417 -0.9580728324620844
4753000000.0 0.4263024717256697 -0.9358395643529122
4756000000.0 0.4034018194621868 -0.9428785936528272
4759000000.0 0.4003111464131363 -0.9240084693520084
4762000000.0 0.3699021005040516 -0.9485427361501015
4766000000.0 0.38160858765832856 -0.9821824791802416
4769000000.0 0.40244667391821076 -0.9594335311940324
4772000000.0 0.3784972873031044 -0.9575027324177449
4775000000.0 0.36190426449750596 -1.0171973061308037
4778000000.0 0.345867605893954 -0.9749844523331911
4781000000.0 0.3631911151190794 -0.9601019815977052
4784000000.0 0.3706439189139618 -0.9665319941357801
4788000000.0 0.3180817721110506 -0.9869219066699892
4791000000.0 0.3094044093809541 -0.952172095436285
4794000000.0 0.3395663869717701 -1.0132460211528203
4797000000.0 0.286565097747193 -0.969207115277488
4800000000.0 0.27863180810141613 -0.9684842691112661
4803000000.0 0.24325166984074564 -0.9665330577147071
4806000000.0 0.2789570927652886 -0.9919101811377111
4809000000.0 0.23098654281559375 -0.984945127269283
4812000000.0 0.2271058898874092 -0.9944533859382507
4816000000.0 0.25725651035058483 -0.9866737151385248
4819000000.0 0.2696902112539525 -1.0149943875124166
4822000000.0 0.2539528373190725 -1.0315763381624605
4825000000.0 0.25668106332685625 -1.023871395044337
4828000000.0 0.20971155315075615 -1.0146794744662957
4831000000.0 0.18888596196695698 -1.0362796687297129
4834000000.0 0.2309037133359373 -1.017449545843837
4838000000.0 0.1703492918129902 -1.0471229217589977
4841000000.0 0.16722541494042276 -1.0084215525661375
4844000000.0 0.2103778080044234 -1.021817289838671
4847000000.0 0.19936775953132277 -0.9940628325439678
4850000000.0 0.15027786522514974 -1.0336877896064582
4853000000.0 0.15603098102722113 -0.9899406767637042
4856000000.0 0.15406874280023303 -1.017886327526676
4859000000.0 0.13973948916658363 -1.0403612366360346
4862000000.0 0.16703686854375524 -0.9951436097603877
4866000000.0 0.09484926436122171 -1.0369633455652902
4869000000.0 0.0956999494705842 -1.0249281936047612
4872000000.0 0.08683697899455986 -1.0644814156391156
4875000000.0 0.14950231146585322 -1.0562659981356695
4878000000.0 0.09282083094535212 -1.0330750366400396
4881000000.0 0.06013410282822416 -1.0990945074896963
4884000000.0 0.08642113647524889 -1.0092174426782834
4888000000.0 0.11212607381900774 -1.013257915143816
4891000000.0 0.09134941104093945 -1.0500085172450997
4894000000.0 0.03214665176405009 -1.031711959519803
4897000000.0 0.08629766241751412 -1.038670227382963
4900000000.0 0.0352386452004136 -1.0788535237325283
4903000000.0 0.05299549548195544 -1.060674811500203
4906000000.0 0.010119224277113117 -1.0708228737056327
4909000000.0 0.012935810557901582 -1.029421843324316
4912000000.0 -0.017643992954073713 -1.0934901734369595
4916000000.0 0.029275666909872638 -1.1100486464655162
4919000000.0 0.02615454560114028 -1.0886579015021702
4922000000.0 0.013395159990581731 -1.0299558915692275
4925000000.0 -0.028443175047598107 -1.0471876342788038
4928000000.0 0.01733365049082626 -1.0521433576453705
4931000000.0 -0.042547708626497135 -1.0493876690285944
4934000000.0 -0.05838861222974019 -1.0018522216675352
4938000000.0 -0.10787533541677917 -1.0683218538840626
4941000000.0 -0.041161536027139387 -1.0356637176717907
4944000000.0 -0.059661338963172356 -0.9650937639640764
4947000000.0 -0.09650052950252208 -1.0246645664554044
4950000000.0 -0.09426202344424552 -1.011029395008473
4953000000.0 -0.12332781297459514 -1.0596143159711493
4956000000.0 -0.1075747959460675 -1.0406006243978179
4959000000.0 -0.17728676940157925 -0.9820376387289018
4962000000.0 -0.12282707263641371 -1.043793019170758
4966000000.0 -0.1484367585926607 -1.0414752260648588
4969000000.0 -0.14702226678004215 -1.098705769703475
4972000000.0 -0.17601775832062452 -1.0377792637174008
4975000000.0 -0.1377220512351808 -1.03850161054719
4978000000.0 -0.17106389629176005 -1.0396740398818585
4981000000.0 -0.21204963772985394 -1.071901976466902
4984000000.0 -0.1732131786774194 -0.9910313293029819
4988000000.0 -0.1697215994728275 -1.011707372317183
4991000000.0 -0.1585120787095503 -1.070269413950439
4994000000.0 -0.18247574164269992 -1.032124604055536
4997000000.0 -0.24809891773496323 -1.005400497759892
5000000000.0 -0.2387970276039298 -1.0490447609590878
5003000000.0 -0.25222798401526336 -1.0255928323526922
5006000000.0 -0.26446354132895544 -1.080968570279087
5009000000.0 -0.270861816525361 -1.0290246660719813
5012000000.0 -0.27552204060607416 -1.0103976659408935
5016000000.0 -0.23826091245681186 -1.0365500566113695
5019000000.0 -0.30788609596923444 -1.0003550069576497
5022000000.0 -0.28554329571763293 -0.9934365086249899
5025000000.0 -0.30581160687085257 -1.0812820917896606
5028000000.0 -0.32320020803071814 -1.0369776925166447
5031000000.0 -0.31222229939407564 -0.9993367586824943
5034000000.0 -0.3673922146838767 -1.0167353087462274
5038000000.0 -0.3396412051478277 -0.951409082993447
5041000000.0 -0.3010797685163512 -1.0296700847616158
5044000000.0 -0.30817573754432326 -0.960422221228952
5047000000.0 -0.3479000686560007 -0.9870849762774206
5050000000.0 -0.26167338356068026 -1.0070865196610745
5053000000.0 -0.36908113952207633 -1.0269040067627004
5056000000.0 -0.3251196028769505 -1.0172324592696709
5059000000.0 -0.3400599521621103 -1.001546972430777
5062000000.0 -0.40043995385488773 -1.0296954766238267
5066000000.0 -0.33755249426821343 -1.016356864062466
5069000000.0 -0.39357833043453794 -1.0160198404780667
5072000000.0 -0.43296689039320435 -0.9499197153935011
5075000000.0 -0.41498938110404004 -0.9571700888520267
5078000000.0 -0.4265402162360927 -0.9593880821134728
5081000000.0 -0.438369637330466 -0.9332412856268936
5084000000.0 -0.4461345735330384 -0.9624396209579384
5088000000.0 -0.40195014143282287 -0.9488377707512516
5091000000.0 -0.488705288768254 -0.926333878242775
5094000000.0 -0.4906354929674996 -0.9479168297999608
5097000000.0 -0.4275461733394368 -0.9791154796716266
5100000000.0 -0.4441620756128071 -0.9441545848712697
5103000000.0 -0.5063877014037328 -0.894864654233409
5106000000.0 -0.49577515012955103 -1.0123408033781829
5109000000.0 -0.4819257742849865 -0.9443706284664235
5112000000.0 -0.5055254063983459 -0.8891972650934195
5116000000.0 -0.4577995088278096 -0.8649466067542937
5119000000.0 -0.5485498826918633 -0.9304164956974494
5122000000.0 -0.45248606528570245 -0.8630716043629916
5125000000.0 -0.5177606644607933 -0.924058001726003
5128000000.0 -0.5817404546572774 -0.871841201311397
5131000000.0 -0.5687046859639837 -0.9220212511761413
5134000000.0 -0.5662252532565303 -0.863725380304374
5138000000.0 -0.5648248449510435 -0.9024977489790496
5141000000.0 -0.5508615089008755 -0.9362578305210592
5144000000.0 -0.5209511589725901 -0.9149753342007042
5147000000.0 -0.6318065142811607 -0.8872822409504909
5150000000.0 -0.5746474736810111 -0.9105499529789017
5153000000.0 -0.5832012896936942 -0.8631960761673954
5156000000.0 -0.5907487530379594 -0.8896117067387764
5159000000.0 -0.6426105356477597 -0.9361098704619236
5162000000.0 -0.6264760010378966 -0.8408605781457901
5166000000.0 -0.64430006177247 -0.8322438366491128
5169000000.0 -0.6339023930577053 -0.8414145384140715
5172000000.0 -0.6128423756398867 -0.8785276548287421
5175000000.0 -0.6480940554882948 -0.9010771868664972
5178000000.0 -0.6418162125079407 -0.8142550520415687
5181000000.0 -0.6620099980264805 -0.8613424336944504
5184000000.0 -0.6521862606413008 -0.8272750678272285
5188000000.0 -0.6782157525083159 -0.8231513719370798
