! Created with skrf 1.8.0 (http://scikit-rf.org).
# Hz S RI R 50.0 
!freq ReS11 ImS11
4000000000.0 1.0316515762389404 0.02350903975896132
4003000000.0 1.0100904046112253 -0.03865881743342624
4006000000.0 1.0050665810746495 -0.06942184264563794
4009000000.0 1.0413786968088692 -0.05867119799276109
4012000000.0 1.0167464910431205 -0.05930376016393624
4016000000.0 1.041773266577568 -0.10140316843910172
4019000000.0 0.9883066284742528 -0.06530360065411064
4022000000.0 1.070535070256838 -0.15992259544466958
4025000000.0 1.02079254617607 -0.07662905752888614
4028000000.0 0.9826898638319848 -0.17469443432550152
4031000000.0 0.9954253366606587 -0.1518980041825405
4034000000.0 0.9556092721536323 -0.21723800629713355
4038000000.0 0.9693049530482156 -0.1851943517107556
4041000000.0 0.9950006591108904 -0.24713698421534508
4044000000.0 0.9935213840790857 -0.24455203692777322
4047000000.0 1.0245470005782409 -0.2869923495514249
4050000000.0 0.9689146649204912 -0.25645932581167386
4053000000.0 0.9737164035560635 -0.29067476402449977
4056000000.0 0.9773066941660901 -0.291181568067603
4059000000.0 0.929333710072575 -0.3585479725362809
4062000000.0 0.9578059012220029 -0.3162524813977231
4066000000.0 0.9728423923758478 -0.34974571958923434
4069000000.0 0.941530724588368 -0.4102151278145312
4072000000.0 0.9016091733474242 -0.44326054838258994
4075000000.0 0.9296546362329448 -0.4549886133985357
4078000000.0 0.9104601461551626 -0.42134283714725357
4081000000.0 0.8724937643443187 -0.46895959509152274
4084000000.0 0.8948919288719077 -0.4693601408679651
4088000000.0 0.855536465906054 -0.4627025996499057
4091000000.0 0.8476611936323923 -0.5089728815594712
4094000000.0 0.8423228793491625 -0.5141885183782061
4097000000.0 0.8426263124897082 -0.5444902536652291
4100000000.0 0.8139881589983519 -0.5512652714957373
4103000000.0 0.835188286551827 -0.5829161440314519
4106000000.0 0.8303725639988109 -0.6179009136801823
4109000000.0 0.8254661928902447 -0.598148458267753
4112000000.0 0.7885175021249033 -0.6240006984010309
4116000000.0 0.7675795332997617 -0.6521577253324715
4119000000.0 0.7826511426405379 -0.6506938569239857
4122000000.0 0.688261532783196 -0.6829795171953341
4125000000.0 0.7257146469814355 -0.682491484659487
4128000000.0 0.7309390007514949 -0.7133801341279147
4131000000.0 0.6739252579741597 -0.764553373422169
4134000000.0 0.6981126484406446 -0.7342452485935069
4138000000.0 0.6504649093054191 -0.7703295542193298
4141000000.0 0.6612729375328131 -0.7720927425714652
4144000000.0 0.6524778122953286 -0.7784940880940872
4147000000.0 0.651133317686599 -0.8257293749120969
4150000000.0 0.5664752279277817 -0.8473736883159788
4153000000.0 0.570844930980837 -0.8064441461607696
4156000000.0 0.5679870105891669 -0.8456145673610376
4159000000.0 0.5090282397271718 -0.8400534275343835
4162000000.0 0.5029207466936955 -0.8707329503659884
4166000000.0 0.49524156160771005 -0.9038558920574933
4169000000.0 0.4395247943745758 -0.8744813417863327
4172000000.0 0.42756423219313916 -0.9074875096226418
4175000000.0 0.4380026327524801 -0.9483231465190622
4178000000.0 0.41108830506770233 -0.9265798057637223
4181000000.0 0.3339699466619769 -0.9263273544330334
4184000000.0 0.3243671500765022 -0.9051710268607858
4188000000.0 0.2960728941907193 -0.9464589756695446
4191000000.0 0.29244712627448777 -0.9795424732770179
4194000000.0 0.26885510310744803 -0.9940317872982426
4197000000.0 0.24056016200164415 -0.9750105923577383
4200000000.0 0.2434349227559126 -0.996609467164946
4203000000.0 0.20057255929524778 -1.0074337400918072
4206000000.0 0.1575525896819871 -0.9951764699681447
4209000000.0 0.11886655733073909 -0.9923552058836411
4212000000.0 0.07144556982942127 -1.0290062072936743
4216000000.0 0.07902689565353918 -1.043256565742547
4219000000.0 0.06067384428842018 -1.0114908477949738
4222000000.0 0.0232030881384232 -0.9843024647899139
4225000000.0 -0.03656366811606743 -1.007617265044563
4228000000.0 -0.07371872310898508 -0.9601421393733613
4231000000.0 -0.09650755225613089 -1.0204350039279084
4234000000.0 -0.111458334808448 -1.0127482324179353
4238000000.0 -0.17281114133807896 -0.9945935305076933
4241000000.0 -0.18347066056211275 -0.964953350849765
4244000000.0 -0.21790885913368532 -0.9745328868234573
4247000000.0 -0.25800479772199914 -0.9834524211700981
4250000000.0 -0.25842023131084546 -0.9713480689140028
4253000000.0 -0.2931095596037803 -0.9719128649055876
4256000000.0 -0.34868447802889363 -0.9799762492947621
4259000000.0 -0.3726282884541331 -0.9583201570063163
4262000000.0 -0.4028988152416953 -0.943677808454908
4266000000.0 -0.4287088347949952 -0.8927339178315647
4269000000.0 -0.49947307748057324 -0.9283290849239322
4272000000.0 -0.492739273964901 -0.8802031134670072
4275000000.0 -0.5115014364734418 -0.8556821550269809
4278000000.0 -0.546081111674205 -0.834298290616254
4281000000.0 -0.6028290267781243 -0.8360389719232486
4284000000.0 -0.6031526315481929 -0.8309426708856132
4288000000.0 -0.6856250821284302 -0.7626773853132117
4291000000.0 -0.6539732449079196 -0.7993809895210926
4294000000.0 -0.7141368419233932 -0.7777046841975827
4297000000.0 -0.7346697812625951 -0.7347424100677507
4300000000.0 -0.7886815296636798 -0.7140696694954547
4303000000.0 -0.7700407187153141 -0.7147191904300175
4306000000.0 -0.8414615665998256 -0.6570243025115386
4309000000.0 -0.8709770324927767 -0.6334066085639779
4312000000.0 -0.840928571232302 -0.5445183415269539
4316000000.0 -0.8310523524064766 -0.5248513441473796
4319000000.0 -0.9020060508825828 -0.5603799633712123
4322000000.0 -0.9274515805812192 -0.48510271326829935
4325000000.0 -0.9085319894408147 -0.4761919057835135
4328000000.0 -0.962817212907631 -0.4509724448670558
4331000000.0 -0.935322842013501 -0.4061625889899181
4334000000.0 -0.9641493781964009 -0.38304274328698595
4338000000.0 -0.9971833811177077 -0.331316574518112
4341000000.0 -0.983530614265458 -0.29099321419149793
4344000000.0 -0.9873410706395941 -0.25913253848488077
4347000000.0 -0.9977551015181175 -0.26133134904522665
4350000000.0 -1.063111960444302 -0.1941856752610875
4353000000.0 -1.0593042873641128 -0.09048290656402347
4356000000.0 -1.0587018831016413 -0.16882428782060474
4359000000.0 -1.123199012092038 -0.09073203674584875
4362000000.0 -0.9941791197385774 -0.11294750934822155
4366000000.0 -0.9994158620675648 0.04195929539964108
4369000000.0 -1.096623857439258 0.021886902867225583
4372000000.0 -1.0713108178981279 0.05029470543117834
4375000000.0 -0.9916351196968587 0.1311702478732206
4378000000.0 -1.1213422717948047 0.1675814675091476
4381000000.0 -1.0986913059547392 0.1887294699973837
4384000000.0 -0.9385129731207976 0.1771669795745272
4388000000.0 -1.0156424794856989 0.2613273445733071
4391000000.0 -1.0111131650326421 0.2897908748545599
4394000000.0 -1.0396405272377265 0.3381258233935318
4397000000.0 -0.9834754274774198 0.33483374937659827
4400000000.0 -0.9540359301744756 0.35991927477493924
4403000000.0 -0.9581240655874975 0.4333209382432708
4406000000.0 -0.9104111658932259 0.49922778464296214
4409000000.0 -0.8587338096691535 0.42416016866321854
4412000000.0 -0.911078570863507 0.40994977048984466
4416000000.0 -0.9216624266975157 0.5359859821696351
4419000000.0 -0.8743393670769937 0.5051101996489733
4422000000.0 -0.7986614426600691 0.6417615291902368
4425000000.0 -0.8233064850437366 0.643492401934843
4428000000.0 -0.7947253363062177 0.6952897693271688
4431000000.0 -0.7225032307896431 0.7298935517583233
4434000000.0 -0.7868809438259635 0.7171302742081498
4438000000.0 -0.7224768958867018 0.6846135379610339
4441000000.0 -0.7184133635886891 0.7346946356324644
4444000000.0 -0.7108088947677584 0.7832494555141041
4447000000.0 -0.7100444791278171 0.8159302432186768
4450000000.0 -0.6884966352328852 0.8418810505308874
4453000000.0 -0.605368112679861 0.7775827599447578
4456000000.0 -0.6043896384279905 0.9061372881852275
4459000000.0 -0.5757127793155594 0.95019086642799
4462000000.0 -0.568006838399983 0.8743911244992999
4466000000.0 -0.5501598042790492 0.9069359354687784
4469000000.0 -0.45502063138105087 0.9191255986845956
4472000000.0 -0.4548106795998559 0.9468019052859661
4475000000.0 -0.3902026565744049 0.9932901784487826
4478000000.0 -0.4080234622894299 0.942473550596899
4481000000.0 -0.38970979725263055 0.9704754254841438
4484000000.0 -0.3729517159853987 0.954857710093269
4488000000.0 -0.2866637181459689 0.9822370762652276
4491000000.0 -0.3339992493272408 0.9702988801742702
4494000000.0 -0.286828272283163 1.0302496503733627
4497000000.0 -0.25837691817169967 1.0474860541600162
4500000000.0 -0.2035877505988713 1.010658285362881
4503000000.0 -0.1605582490573506 1.0234904503285218
4506000000.0 -0.19073840402297088 1.0470274749602355
4509000000.0 -0.10424020412227358 0.9990579576518709
4512000000.0 -0.10133191174616901 1.0041730382562846
4516000000.0 -0.07462382016104302 1.0153867599660205
4519000000.0 -0.04508741075100209 1.0199971380786048
4522000000.0 -0.016486654872236717 1.0257302627586378
4525000000.0 0.017192812356104925 1.0550885164288006
4528000000.0 0.04411698537438938 1.0465955670554288
4531000000.0 0.07815849317895321 1.0280328200119022
4534000000.0 0.0736058415695642 1.0202193039156453
4538000000.0 0.12397210614601863 1.0184242709013518
4541000000.0 0.14782111311669222 1.0176516025387679
4544000000.0 0.15646811069784158 1.0083896785541544
4547000000.0 0.18115378974268503 1.0065614034987722
4550000000.0 0.216497510191093 0.9920572933496941
4553000000.0 0.2395465314110007 1.0035981406299925
4556000000.0 0.2679503608463031 0.997001521133591
4559000000.0 0.2828708230848029 1.005326675047008
4562000000.0 0.3048504888642592 0.9917671052904191
4566000000.0 0.3467161242822595 0.9834503314734973
4569000000.0 0.34130166837652764 0.9556305427248319
4572000000.0 0.3801175868610355 0.9403929520314491
4575000000.0 0.3897996741681641 0.9279595891704062
4578000000.0 0.3785331312018842 0.9251847860019549
4581000000.0 0.45081600557375123 0.9441444896235877
4584000000.0 0.4299565786357292 0.8948997173575391
4588000000.0 0.44161214227587364 0.9292492587366973
4591000000.0 0.4763373365107013 0.8646996318630675
4594000000.0 0.5147890496732215 0.8941630172389141
4597000000.0 0.5990093108778884 0.8800681688396056
4600000000.0 0.5435163443475128 0.7885590552220917
4603000000.0 0.5726292877976655 0.8715594038684779
4606000000.0 0.5742774718594306 0.8190111027023537
4609000000.0 0.632620291779059 0.8203708416284272
4612000000.0 0.6302051259367943 0.8361387261729952
4616000000.0 0.656322309509918 0.7770376799650914
4619000000.0 0.6342160889146404 0.7957255681474042
4622000000.0 0.6389642519337783 0.783575357203624
4625000000.0 0.65441827394977 0.711205720542169
4628000000.0 0.6366631748936475 0.7377504832694751
4631000000.0 0.7175101634401368 0.678719162548723
4634000000.0 0.7255114780051231 0.7031780870865996
4638000000.0 0.7421542492223402 0.7063711521000093
4641000000.0 0.7799800515049047 0.6883104467370668
4644000000.0 0.791325501299064 0.670559188543637
4647000000.0 0.7979565930622426 0.6754570915585085
4650000000.0 0.8258193421890084 0.6089864122620031
4653000000.0 0.8271043673938905 0.6483071824120057
4656000000.0 0.8433374256183681 0.5697445048781833
4659000000.0 0.8034787652141265 0.592499113789949
4662000000.0 0.8058594450671903 0.5958337235705965
4666000000.0 0.8313554703123075 0.5858658054619089
4669000000.0 0.8302326722965205 0.573209008071819
4672000000.0 0.8622790375881318 0.4857334193743543
4675000000.0 0.8238720658621765 0.4493628935790466
4678000000.0 0.8833860946443814 0.4973087659215989
4681000000.0 0.9039585397554762 0.42287005725756766
4684000000.0 0.8478487774339015 0.45590130255745476
4688000000.0 0.8834182075549823 0.4901354533479042
4691000000.0 0.8619644245830936 0.4279531889385148
4694000000.0 0.9602989376532111 0.38316863952355534
4697000000.0 0.9412470043764516 0.4224787352457449
4700000000.0 0.956650882209361 0.41015289229897395
4703000000.0 1.0274661133140448 0.3376250827733411
4706000000.0 0.9263990929185344 0.36201268470981535
4709000000.0 0.9352422282366458 0.33676500844216584
4712000000.0 0.957393884338835 0.29465744759631585
4716000000.0 0.960838111357464 0.3048482248083678
4719000000.0 0.9773472601807133 0.24509974057277212
4722000000.0 1.003642553253865 0.2708602444747468
4725000000.0 0.9924219939651199 0.22810697936911387
4728000000.0 0.9833521242528707 0.20468648718817045
4731000000.0 0.9577401675418551 0.23220332658485243
4734000000.0 0.9890158381781319 0.20393716221488734
4738000000.0 0.9569558556594804 0.1759876774303769
4741000000.0 0.9768672704816649 0.15854109032083719
4744000000.0 0.9920942968309355 0.12202624134788796
4747000000.0 1.0166588778995829 0.11452601830412573
4750000000.0 0.9794508226108902 0.07384317037147334
4753000000.0 1.0299979214564357 0.056421828975953894
4756000000.0 0.9954897910969036 0.06237704835966765
4759000000.0 1.0030687447605218 0.0656523090139527
4762000000.0 1.0003734852535833 0.07374317677312073
4766000000.0 0.990698824865015 0.02523309652309941
4769000000.0 1.040178880290195 0.0338391729988055
4772000000.0 1.01251915398996 -0.018191756369710918
4775000000.0 1.019080169642277 -0.01885139840815335
4778000000.0 0.9874351910471499 0.018425742051913933
4781000000.0 1.0109718110727006 -0.04289853969733172
4784000000.0 0.9963569162478564 -0.01907798483405468
4788000000.0 1.000810934654591 -0.022374183106165846
4791000000.0 0.9988012056296501 -0.11513627164356961
4794000000.0 0.9819409584831387 -0.12257784956699236
4797000000.0 1.0212633628133212 -0.11081624388587648
4800000000.0 0.9934377961100721 -0.156004744344923
4803000000.0 0.9990319831819106 -0.1359584773536363
4806000000.0 0.989787467499576 -0.14438611457323963
4809000000.0 0.9925752690352634 -0.15399474311075603
4812000000.0 1.0054327373722778 -0.2034720530394029
4816000000.0 0.987450421334025 -0.2283128225772844
4819000000.0 0.9704292210354224 -0.2341558812182645
4822000000.0 0.983052467941399 -0.23622461054021623
4825000000.0 0.988229431508753 -0.24919985703397363
4828000000.0 0.9551076620581471 -0.26382954079858234
4831000000.0 0.9905828552791366 -0.2892218247360906
4834000000.0 0.9589728605506703 -0.2975419940091414
4838000000.0 0.9658722008722104 -0.31513936360446404
4841000000.0 0.9561837937693433 -0.31924038920130704
4844000000.0 0.969562594110299 -0.33592128258921117
4847000000.0 0.9493562005202135 -0.34936627034321555
4850000000.0 0.9420483311478829 -0.3589762403746507
4853000000.0 0.9530533361159945 -0.36060388961654394
4856000000.0 0.9381786293887362 -0.3778231258496485
4859000000.0 0.9315389119117832 -0.4098084684376988
4862000000.0 0.9149947366750634 -0.40454333089395966
4866000000.0 0.9156604645185497 -0.4385663917907396
4869000000.0 0.9071845541676569 -0.44497989745923605
4872000000.0 0.9197279506538686 -0.4836140639943878
4875000000.0 0.9258950380058804 -0.45731802938938393
4878000000.0 0.8948804084455428 -0.4977098614333399
4881000000.0 0.9041276786089105 -0.5031440123669841
4884000000.0 0.9008281656869934 -0.49199329534066355
4888000000.0 0.8940478098030603 -0.48854437376699283
4891000000.0 0.8836001436429054 -0.5168420480115824
4894000000.0 0.8434721459115259 -0.547302314347151
4897000000.0 0.8484678987770606 -0.5120485128463593
4900000000.0 0.8384295253830094 -0.5740671854380681
4903000000.0 0.859616830367775 -0.5641620385712967
4906000000.0 0.8440497428772713 -0.5996436738656085
4909000000.0 0.8278582068557232 -0.5805567718988682
4912000000.0 0.8232152329831335 -0.5956941065492701
4916000000.0 0.8423478527806713 -0.5962918471031364
4919000000.0 0.8105120982566778 -0.6156132546224329
4922000000.0 0.8379280557904293 -0.6222216941308306
4925000000.0 0.7781821805637243 -0.6239050063595286
4928000000.0 0.78088292210685 -0.6244283340134261
4931000000.0 0.7968614741935327 -0.6342151921069383
4934000000.0 0.7574977488210413 -0.6341135107509159
4938000000.0 0.7385606340590807 -0.6863168992024289
4941000000.0 0.7571189370893272 -0.6658927764759922
4944000000.0 0.7345480814298186 -0.6708249408381628
4947000000.0 0.7385162183666061 -0.7055824647197396
4950000000.0 0.732535419227449 -0.6847191475305429
4953000000.0 0.7163654541334045 -0.77802909972633
4956000000.0 0.6794848728735448 -0.750675096339651
4959000000.0 0.6752848149201608 -0.7307737024831199
4962000000.0 0.6958438768970936 -0.745506598476609
4966000000.0 0.6865505057024948 -0.7535631816803332
4969000000.0 0.7077259294201844 -0.7601819658182853
4972000000.0 0.6842666688832256 -0.7959022049574211
4975000000.0 0.6352577438121852 -0.7488100976686521
4978000000.0 0.6644604842898161 -0.7752583755689212
4981000000.0 0.6326966957946117 -0.8040659291636674
4984000000.0 0.6357481369527445 -0.787027270614506
4988000000.0 0.6056388248078166 -0.7809435630097308
4991000000.0 0.6398672156716945 -0.7974268188870044
4994000000.0 0.633794306465278 -0.8111165725962225
4997000000.0 0.5885314328764568 -0.8535759942774362
5000000000.0 0.6231442776701952 -0.8678915377555556
5003000000.0 0.6098979838737586 -0.857551469501168
5006000000.0 0.5687478104894832 -0.8913931449009084
5009000000.0 0.5699392957471322 -0.8456122399216225
5012000000.0 0.5543821398154383 -0.8756389912621578
5016000000.0 0.5861459450843061 -0.8939529408909975
5019000000.0 0.5212976306554575 -0.878542188390536
5022000000.0 0.5127597098858336 -0.8786861433124831
5025000000.0 0.5685492932338607 -0.9402004330320407
5028000000.0 0.5029932554363126 -0.9276905934009299
5031000000.0 0.48565673129539677 -0.8970780159381702
5034000000.0 0.47223961922216967 -0.9396493895894438
5038000000.0 0.4152988521054757 -0.9043647087816258
5041000000.0 0.49880502425169687 -0.9065763630692162
5044000000.0 0.46279757924082987 -0.9151779015797904
5047000000.0 0.46414410000824585 -0.9230597345723582
5050000000.0 0.5075454406973253 -0.8841619476274281
5053000000.0 0.432551210663237 -1.0266675166807497
5056000000.0 0.4738081344649401 -0.9285233608549139
5059000000.0 0.452805533150797 -0.9565747414966911
5062000000.0 0.39248427708175615 -0.9459982129354902
5066000000.0 0.4226232204100131 -0.8961197879739369
5069000000.0 0.3919125540989263 -0.9520760062304373
5072000000.0 0.3519742805599394 -0.9500015919720743
5075000000.0 0.3718657654231272 -0.993656823185725
5078000000.0 0.2863068023980667 -1.0034822608894278
5081000000.0 0.347301593427331 -0.9245582406105141
5084000000.0 0.35281373244818587 -1.0308459960366085
5088000000.0 0.31656575139569687 -0.958885100298509
5091000000.0 0.2528704226661132 -1.0137319827219682
5094000000.0 0.33035293208504785 -0.9999654457867003
5097000000.0 0.33870680784336515 -1.0080115637150298
5100000000.0 0.24828013286540884 -0.9470393890112451
5103000000.0 0.28148922144408417 -0.9707115077257279
5106000000.0 0.31911705435013477 -1.0826533396667766
5109000000.0 0.3277707616087377 -0.9902786044426253
5112000000.0 0.2523678389409315 -0.9714890391688893
5116000000.0 0.19466252434976394 -0.9190150473222247
5119000000.0 0.2103556129996621 -0.9983420298067844
5122000000.0 0.26772974773930125 -1.006604734086552
5125000000.0 0.16435839627610693 -1.02204384544358
5128000000.0 0.17838002112771192 -1.0195538663662516
5131000000.0 0.16993256133627438 -1.021733312192889
5134000000.0 0.16562321529589505 -1.0203526438232096
5138000000.0 0.1484215926992738 -1.0143572661658204
5141000000.0 0.22251143160319403 -0.9837657376933053
5144000000.0 0.1602284420336946 -1.0447423811983743
5147000000.0 0.19152294250278223 -1.018586134372621
5150000000.0 0.14464922102742694 -1.0076686005370035
5153000000.0 0.10361950572678308 -1.020009643589197
5156000000.0 0.07855723621371699 -1.0756996684491202
5159000000.0 0.09518086380274278 -1.0555202860211284
5162000000.0 0.13196789020236382 -0.9934232952450393
5166000000.0 0.026983117254411555 -1.1090995354881696
5169000000.0 0.0734356595510736 -1.0671024962528994
5172000000.0 0.030910000429139356 -0.9794504673387713
5175000000.0 0.09211128485198465 -1.086083893129548
5178000000.0 0.02519288201088403 -1.016565466868025
5181000000.0 0.04345300595415419 -1.0772434358051053
5184000000.0 0.02589610529931465 -1.0282371844311264
5188000000.0 0.03737827625921014 -1.0098032296808712
5191000000.0 -0.020198725066629262 -1.0882638151562265
