! Created with skrf 1.8.0 (http://scikit-rf.org).
# Hz S RI R 50.0 
!freq ReS11 ImS11
4000000000.0 0.6623286575236541 0.8130773884054752
4003000000.0 0.7128548666187119 0.8138991536132236
4006000000.0 0.7116166153262768 0.7438105246385129
4009000000.0 0.6763406790277954 0.7912640631656815
4012000000.0 0.6915455756996449 0.8014867430738583
4016000000.0 0.765114582048951 0.765189653042859
4019000000.0 0.7200634754352617 0.7966660252713129
4022000000.0 0.7024100706842369 0.8395748182317889
4025000000.0 0.7675012445477257 0.7217838730088577
4028000000.0 0.7631365896243426 0.723281825983866
4031000000.0 0.7441896036068926 0.7393645297504419
4034000000.0 0.7310123713769341 0.7360583586044936
4038000000.0 0.7723912815499925 0.7275042789803395
4041000000.0 0.7565312234114515 0.7038109279471269
4044000000.0 0.8069751826620385 0.7273323954776677
4047000000.0 0.7753934356437614 0.7579531181481883
4050000000.0 0.8281095835251319 0.7072415481107314
4053000000.0 0.8246187737966009 0.6854131913821992
4056000000.0 0.7741818617921273 0.6613421259810586
4059000000.0 0.7609203763341633 0.6934739219263761
4062000000.0 0.8473637076735488 0.6546801405871847
4066000000.0 0.7448490273454942 0.6372062336193568
4069000000.0 0.8965313831005816 0.7014455993756066
4072000000.0 0.8156315300515761 0.7029837483261427
4075000000.0 0.8379392700594966 0.738065645913158
4078000000.0 0.8736653018851882 0.629503740579469
4081000000.0 0.8314885415580769 0.6989421344397587
4084000000.0 0.8683733764991051 0.616182825260996
4088000000.0 0.8009103102885496 0.6416341070822705
4091000000.0 0.8808531531360192 0.7044285147601375
4094000000.0 0.8521925254927789 0.6253094901558283
4097000000.0 0.8597329802590898 0.6303412859215656
4100000000.0 0.8768329653967378 0.585444441070045
4103000000.0 0.8859762107396341 0.6296623707289519
4106000000.0 0.8859802280584931 0.5686940100523614
4109000000.0 0.8677995266287957 0.5617075865962748
4112000000.0 0.8777623866589062 0.5628942583494987
4116000000.0 0.8932453434324152 0.5873701951704381
4119000000.0 0.9200958953442574 0.5341735316865257
4122000000.0 0.9139663280101682 0.5217456954463621
4125000000.0 0.9127679215256331 0.5350179628471712
4128000000.0 0.8818183104778526 0.5347160375751772
4131000000.0 0.8967235661373903 0.4904238389047053
4134000000.0 0.9103339631375655 0.5139595689725177
4138000000.0 0.8860910289456743 0.47835289251775065
4141000000.0 0.8944126565440497 0.4795954587606842
4144000000.0 0.9211860769374389 0.4867360967326874
4147000000.0 0.9157509919699128 0.4657272178229172
4150000000.0 0.9645524298358913 0.47462105685154116
4153000000.0 0.9261846778343181 0.4753143494886417
4156000000.0 0.9599428494217741 0.4529615563929965
4159000000.0 0.9374637765104246 0.45277216479074195
4162000000.0 0.9258575711603525 0.4247174324502476
4166000000.0 0.9705263457574853 0.42839074257583654
4169000000.0 0.9318133209548575 0.43835114190372837
4172000000.0 0.9610383720149656 0.432806357411846
4175000000.0 0.9636699017243365 0.42771131471438756
4178000000.0 0.9600558969750079 0.42072061545276485
4181000000.0 0.98373480262262 0.4152621878950524
4184000000.0 0.95574828746337 0.39555063252869277
4188000000.0 0.9588044474631479 0.3883245948011712
4191000000.0 0.9173310213893919 0.40197039057278067
4194000000.0 0.9638665575810258 0.3578321199468165
4197000000.0 0.9824066867792492 0.3738598451545276
4200000000.0 0.964353169698265 0.3646866249241765
4203000000.0 0.9882167506122334 0.3719616816817224
4206000000.0 0.9997281866190345 0.3338321516728527
4209000000.0 0.9609888854277117 0.31854417705624266
4212000000.0 0.9971930336279258 0.30283813676990523
4216000000.0 0.9657343624114133 0.34527692305718355
4219000000.0 0.9891629113123624 0.30704612159449185
4222000000.0 0.9947101461574603 0.28771998739003596
4225000000.0 1.001730476215565 0.2949871929616489
4228000000.0 0.9974753894794639 0.28606679147682645
4231000000.0 1.0108434869554253 0.26268878995681644
4234000000.0 0.9965027590812109 0.25427144411290287
4238000000.0 1.007459799507041 0.23784506598503416
4241000000.0 1.006146533022164 0.22693386885393113
4244000000.0 1.011849168741287 0.24934930356773738
4247000000.0 1.0058607508693203 0.22945313889466407
4250000000.0 0.9789049278716544 0.2199119887687625
4253000000.0 0.9746125383327011 0.204929001308571
4256000000.0 1.0259429583114665 0.19566145250358846
4259000000.0 0.9793435970132798 0.18379461523906912
4262000000.0 1.0097847947556147 0.1670156995956463
4266000000.0 1.0405114648915834 0.15416267497686414
4269000000.0 1.013763364349193 0.16456727364931942
4272000000.0 0.9947119688035881 0.15089422913178385
4275000000.0 1.0293942717646125 0.15374808556811814
4278000000.0 1.0399460155998814 0.15076273481056113
4281000000.0 1.0289749665504937 0.14861095818765163
4284000000.0 1.0297536887718721 0.10176126987896661
4288000000.0 1.0074994468611345 0.15114739543938804
4291000000.0 1.000067098849019 0.09422918636918366
4294000000.0 1.01119228109999 0.09892822906649941
4297000000.0 0.9932386392048521 0.10501317807353179
4300000000.0 1.0343389022932437 0.09675230166002627
4303000000.0 1.0279624298892667 0.04764408322950188
4306000000.0 1.035474247463262 0.09969238103225414
4309000000.0 1.0413821580349134 0.048497784431613414
4312000000.0 1.0522025832309252 0.10838604661487397
4316000000.0 1.038999046475772 0.0602277035975682
4319000000.0 0.9947722077576835 0.0606799732577092
4322000000.0 0.9870001132728643 -0.00977509504557289
4325000000.0 1.001074494146394 0.013583878465429258
4328000000.0 1.021815429161003 0.015083385986572828
4331000000.0 1.033159234709568 -0.024774252741090227
4334000000.0 1.034096312622603 -0.03288981053374615
4338000000.0 1.0147593999250946 -0.01599734089365573
4341000000.0 1.0527835115827056 0.02345817773768097
4344000000.0 1.0494728725771776 -0.03325341904160162
4347000000.0 1.0306642144030949 -0.07429528596337444
4350000000.0 0.9943889741587061 -0.07522071698396324
4353000000.0 1.003228082107375 -0.037378596918257914
4356000000.0 1.0097616793328261 -0.09594254430270542
4359000000.0 0.9892346893964221 -0.06588190312766946
4362000000.0 1.0300956166970552 -0.1437561575344793
4366000000.0 1.0501905726557592 -0.1333057811528303
4369000000.0 0.9940139573864897 -0.11704926366501285
4372000000.0 1.010126687574461 -0.1590212840235836
4375000000.0 0.9968869708272408 -0.11621733734282985
4378000000.0 0.9740804117581492 -0.13405201501524217
4381000000.0 0.9913749023811023 -0.14664640215070907
4384000000.0 1.0685761425526388 -0.19151278719758028
4388000000.0 0.9951614484669665 -0.15448538681890184
4391000000.0 1.0186940501316104 -0.18034894886757474
4394000000.0 0.975837326501455 -0.18307445123026514
4397000000.0 0.9835768633678004 -0.20286793332547742
4400000000.0 1.0165849227077621 -0.21399995624405457
4403000000.0 0.9904031699963498 -0.20800282147752092
4406000000.0 0.9871065922260711 -0.2387533305195395
4409000000.0 1.021407996728541 -0.24887096331638942
4412000000.0 0.9804562548741617 -0.2885020798499052
4416000000.0 0.9766346200545597 -0.2555888884522901
4419000000.0 0.9836094534315705 -0.2782035753980314
4422000000.0 0.9768424620074974 -0.24447370816387337
4425000000.0 0.9943565690103512 -0.249375007968235
4428000000.0 0.9777866964690614 -0.2964281407735291
4431000000.0 1.0053622948402836 -0.2904383339402271
4434000000.0 0.9606498128090278 -0.29894880044603356
4438000000.0 0.9758879220938907 -0.3168643824046615
4441000000.0 0.9800047284923297 -0.32262095541929947
4444000000.0 0.9518977811643388 -0.3074562887905552
4447000000.0 0.949985187655751 -0.34569834265660426
4450000000.0 0.9529369591014145 -0.3240991958032684
4453000000.0 0.9817313158704492 -0.35468354806082375
4456000000.0 0.9300140435604626 -0.36302341353884326
4459000000.0 0.9104366807852242 -0.37215637688302095
4462000000.0 1.002621387264052 -0.388831442452496
4466000000.0 0.9954881776820171 -0.4093498521354812
4469000000.0 0.9617073130398858 -0.3783604167317721
4472000000.0 0.9347211419171375 -0.4274345975950521
4475000000.0 0.9052042294433826 -0.40102523294704173
4478000000.0 0.9675048231151149 -0.44344477432252083
4481000000.0 0.8721689875139985 -0.41948936341791554
4484000000.0 0.9131693692334713 -0.46602299586388374
4488000000.0 0.8901397563067542 -0.4493867486896274
4491000000.0 0.9115065306305761 -0.44873132566430396
4494000000.0 0.904973237745017 -0.4619086806047875
4497000000.0 0.8994441956290289 -0.45856050552733035
4500000000.0 0.8965298720650707 -0.46396162763771825
4503000000.0 0.9180835125864091 -0.4957748656301427
4506000000.0 0.8791528244889069 -0.5099792182605228
4509000000.0 0.8879989234315777 -0.48760664714599966
4512000000.0 0.8799851460058521 -0.5273768515299724
4516000000.0 0.8972757753179044 -0.5420162921433611
4519000000.0 0.8686215218108674 -0.5117784286617494
4522000000.0 0.8514092236935695 -0.5258421034748444
4525000000.0 0.8929135982519103 -0.538876149172703
4528000000.0 0.8900231591905905 -0.5557480728419029
4531000000.0 0.8472140041436853 -0.5336113174193872
4534000000.0 0.8319128513453691 -0.563737048659839
4538000000.0 0.8372811707550598 -0.5621882341295008
4541000000.0 0.8069274557372378 -0.6009118742634555
4544000000.0 0.8139023706905313 -0.5605827388550796
4547000000.0 0.8344469615426766 -0.570816138548248
4550000000.0 0.8181465063789068 -0.6229057992975366
4553000000.0 0.818270349066432 -0.6085563759144992
4556000000.0 0.7879320389939701 -0.6079918741820685
4559000000.0 0.8072659532376516 -0.6409440992594369
4562000000.0 0.8146882478213253 -0.6407658918285903
4566000000.0 0.796673056211624 -0.6508347271187516
4569000000.0 0.7837270160280888 -0.64066116420361
4572000000.0 0.7833375330048093 -0.6359412918668327
4575000000.0 0.7828182194232105 -0.673656740539977
4578000000.0 0.7957962722995964 -0.673676428277657
4581000000.0 0.7526945556216099 -0.6780665721148107
4584000000.0 0.753866956730252 -0.6870619188708683
4588000000.0 0.7716648515276051 -0.6993946891310673
4591000000.0 0.7575409318712298 -0.6792896469222679
4594000000.0 0.7245583212595779 -0.711896958170537
4597000000.0 0.7381570446421295 -0.7129182592718368
4600000000.0 0.7053211570987219 -0.7100836002477928
4603000000.0 0.7220293240764488 -0.730961253035274
4606000000.0 0.7366247623565733 -0.7254522097594418
4609000000.0 0.7127206645301438 -0.7291542684387164
4612000000.0 0.7059430390140974 -0.7460128613414198
4616000000.0 0.6937102532438058 -0.7421283584736171
4619000000.0 0.6907441327104314 -0.7373202717941665
4622000000.0 0.6739317373298209 -0.7482607351230612
4625000000.0 0.6241997749514904 -0.761707765378851
4628000000.0 0.6883819110467184 -0.7599255477973563
4631000000.0 0.6619146155714812 -0.7796094462826675
4634000000.0 0.6632379710587174 -0.7741905205054496
4638000000.0 0.6540689458011045 -0.78918720049815
4641000000.0 0.6560114629908282 -0.7959274849056155
4644000000.0 0.6362258802170102 -0.7979182546411395
4647000000.0 0.6382796913104313 -0.8082171505565349
4650000000.0 0.6017978083880214 -0.8072145912750341
4653000000.0 0.6246214693249208 -0.8238261665322711
4656000000.0 0.619194981249227 -0.8373324893519589
4659000000.0 0.5956972491041199 -0.8294180774579718
4662000000.0 0.593126039124962 -0.8477501549932172
4666000000.0 0.5774218030175637 -0.851778034940543
4669000000.0 0.5737599616481271 -0.8479589588440555
4672000000.0 0.5819972499713497 -0.8722057762527096
4675000000.0 0.5486078767428064 -0.8608694366658503
4678000000.0 0.5408274874263677 -0.843598032863369
4681000000.0 0.5306203248560328 -0.895227511897753
4684000000.0 0.5182640122516551 -0.8811492298354495
4688000000.0 0.5116788532029948 -0.8890608313585127
4691000000.0 0.537241496476086 -0.8726315773584736
4694000000.0 0.5396583266799 -0.8532440876128236
4697000000.0 0.46807219014202855 -0.8722860205483158
4700000000.0 0.5115665210982278 -0.8751129721292443
4703000000.0 0.4883169764362003 -0.8542726101806233
4706000000.0 0.4762484004884988 -0.9219986846634215
4709000000.0 0.4679348768376993 -0.9248698052692398
4712000000.0 0.49630410845481043 -0.9080514006073903
4716000000.0 0.44729944126036913 -0.935013068187279
4719000000.0 0.4825729139671392 -0.9154159850995807
4722000000.0 0.4901102537878279 -0.9200823879611577
4725000000.0 0.4361441434461809 -0.9155092996100874
4728000000.0 0.4244158709817344 -0.9448815317142647
4731000000.0 0.44807924736429255 -0.9762378177728714
4734000000.0 0.4424767494674139 -0.9158821923144752
4738000000.0 0.4323912060329287 -0.9805227503167147
4741000000.0 0.39791157880157313 -0.9815895725574525
4744000000.0 0.3548605010922822 -0.9944883189669522
4747000000.0 0.37576035818252845 -0.9062171120723148
4750000000.0 0.37988478515465884 -0.9660737533970714
4753000000.0 0.3934065514378623 -0.949513205066843
4756000000.0 0.35868464623139545 -0.9527078496616246
4759000000.0 0.33419347528288107 -0.9908563498148494
4762000000.0 0.3270050192196843 -0.9930242479302899
4766000000.0 0.3317520396826671 -1.006903712077644
4769000000.0 0.29577840622297485 -0.966361069771697
4772000000.0 0.3367872262973378 -0.9938290943680145
4775000000.0 0.31666432989772325 -1.0182087302554852
4778000000.0 0.30325188621118854 -1.0081065677845766
4781000000.0 0.2932291624774725 -0.9914563846516262
4784000000.0 0.3045368517144696 -0.9635064805071111
4788000000.0 0.24781964051323346 -1.024911339488206
4791000000.0 0.27346011396341724 -1.0010101010526449
4794000000.0 0.2900741123507102 -1.0190451260965188
4797000000.0 0.2443545155028618 -1.0011202814196833
4800000000.0 0.25436332342015183 -1.0083662242761555
4803000000.0 0.21934434621628668 -1.0126503089241252
4806000000.0 0.20571840979456382 -1.013976942345724
4809000000.0 0.17464239557043473 -1.0198924123649105
4812000000.0 0.16098966726248012 -1.0046037858018562
4816000000.0 0.21798060794375926 -0.9864646937265935
4819000000.0 0.1987847461571958 -1.05580272310104
4822000000.0 0.2013071464967729 -1.0662265490604894
4825000000.0 0.21329865515013452 -1.0387369776639805
4828000000.0 0.14945443402114356 -1.0152942021588425
4831000000.0 0.137055955880707 -1.036575983342164
4834000000.0 0.16983942564649182 -1.0168190628521743
4838000000.0 0.11215791723100592 -1.0297307469309616
4841000000.0 0.09666397479504027 -1.0245290810787528
4844000000.0 0.1621989988282243 -1.0194100023087924
4847000000.0 0.15945450474509804 -1.0014844813499508
4850000000.0 0.0929318410797737 -1.0782795451696712
4853000000.0 0.10642015423529327 -1.0123937177451503
4856000000.0 0.07341593204398696 -1.0283039979929043
4859000000.0 0.09385362914860199 -1.0630907993862486
4862000000.0 0.09687895775845154 -1.0073948621150264
4866000000.0 0.03871928144621006 -1.0426238347603374
4869000000.0 0.039733311257135744 -1.0288495597735554
4872000000.0 0.016274314741672832 -1.0784815374434873
4875000000.0 0.11102449142449618 -1.063742108064876
4878000000.0 0.01130021122394656 -1.0297263144469775
4881000000.0 -0.0163282762075001 -1.0855321480353957
4884000000.0 0.021666330441036098 -1.0284393905200577
4888000000.0 0.0220517199484253 -1.035227054222135
4891000000.0 -0.006208509557609085 -1.0466475798586836
4894000000.0 -0.03779751738238897 -1.037584063599986
4897000000.0 0.037469996580922434 -1.0160754162789745
4900000000.0 -0.03614393684026005 -1.063476684965891
4903000000.0 -0.017037495643662123 -1.0617820160712257
4906000000.0 -0.03589711317347598 -1.071197607306974
4909000000.0 -0.058834831493215924 -1.0474765546254843
4912000000.0 -0.07342192999778732 -1.0895430065528526
4916000000.0 -0.06409269926930353 -1.0985225404529513
4919000000.0 -0.05863355895281766 -1.0692798132390735
4922000000.0 -0.08746990979027697 -1.068483251960351
4925000000.0 -0.1099938594581269 -1.0389015847566512
4928000000.0 -0.08312894144152395 -1.038733762179739
4931000000.0 -0.11229627574694655 -1.063280463025295
4934000000.0 -0.1142506149794366 -0.9789426070466998
4938000000.0 -0.15589713100869562 -1.0336644734250697
4941000000.0 -0.11890881549345393 -1.0111908243123287
4944000000.0 -0.09173948991962219 -0.9919914289697658
4947000000.0 -0.14542147888383064 -0.9985918773531913
4950000000.0 -0.19003527876369053 -1.0014916514385344
4953000000.0 -0.22956594826643495 -1.0971086527796006
4956000000.0 -0.20269017676225642 -1.036954787498496
4959000000.0 -0.24090057027944964 -0.9665213902487559
4962000000.0 -0.22421058971523009 -1.0440105171740295
4966000000.0 -0.17272586938598455 -1.0466601976549255
4969000000.0 -0.21833192777409144 -1.0625773457646621
4972000000.0 -0.2236960775224581 -1.0354861356142087
4975000000.0 -0.1960429528532376 -1.021235434544918
4978000000.0 -0.246651372183171 -0.9971670494598471
4981000000.0 -0.25412513399842496 -1.0322797015729082
4984000000.0 -0.24195539386219037 -0.9854226553859535
4988000000.0 -0.2698536704993742 -0.9932630050165856
4991000000.0 -0.2166882673377606 -1.068693571952178
4994000000.0 -0.25956030425767374 -1.0038707972949397
4997000000.0 -0.3582878525104884 -1.0009242905971212
5000000000.0 -0.2912388081014431 -1.0316199896072202
5003000000.0 -0.30558139670519874 -1.0488240053263889
5006000000.0 -0.33304856420132356 -1.040470941037029
5009000000.0 -0.3225921824927118 -1.0060078276132876
5012000000.0 -0.3662378962179759 -0.9800427454238465
5016000000.0 -0.31398599599472393 -1.0500088494014417
5019000000.0 -0.36360352148341246 -0.9954316144286832
5022000000.0 -0.36242048011170735 -0.985773683121359
5025000000.0 -0.3825733615517473 -1.0522663920404463
5028000000.0 -0.37954192846835355 -1.0106378644018323
5031000000.0 -0.3962679743906886 -0.9914884925334085
5034000000.0 -0.39504992752424894 -1.0038073518199093
5038000000.0 -0.3796256440045648 -0.9293731511840837
5041000000.0 -0.38148906187989795 -0.9672701161604472
5044000000.0 -0.37104816988702083 -0.9569863408127027
5047000000.0 -0.3908628891463412 -0.9595143892225061
5050000000.0 -0.34657174453185846 -0.9556722262302813
5053000000.0 -0.4499077837617491 -1.002459623953807
5056000000.0 -0.43394358752878615 -1.0009220673827293
5059000000.0 -0.3833229430244662 -1.0052778262200972
5062000000.0 -0.5098263838779287 -0.9494328121132014
5066000000.0 -0.42610062952797934 -0.9877797592370245
5069000000.0 -0.4928715043341596 -0.9370711665347099
5072000000.0 -0.45070874621627965 -0.9075505722277599
5075000000.0 -0.4201057904305985 -0.9143537899061724
5078000000.0 -0.5049251640235308 -0.9381820781186163
5081000000.0 -0.5092394108310913 -0.9305881982858458
5084000000.0 -0.5466651313752834 -0.9592372418247137
5088000000.0 -0.48848077738653417 -0.9230843305670453
5091000000.0 -0.5414219383040086 -0.895031414239569
5094000000.0 -0.5472714301215371 -0.9169176295853475
5097000000.0 -0.517612629775294 -0.9517880895049424
5100000000.0 -0.5378498483779105 -0.9422343130648495
5103000000.0 -0.606061983321508 -0.8607665395489085
5106000000.0 -0.5941978989529964 -0.9784383700419688
5109000000.0 -0.5357676186431302 -0.911026863898889
5112000000.0 -0.588569491871579 -0.9108139323511899
5116000000.0 -0.5401922910497052 -0.8108083800336181
5119000000.0 -0.6025186039463454 -0.865091974868081
5122000000.0 -0.6007090695392521 -0.8573350832982403
5125000000.0 -0.5864471304902712 -0.8970162250965763
5128000000.0 -0.644283260944515 -0.8521714206568618
5131000000.0 -0.6216855181737138 -0.8651723339399816
5134000000.0 -0.647207964227676 -0.8341010277930062
5138000000.0 -0.5916203219610752 -0.8897732266284892
5141000000.0 -0.6042980939693388 -0.8565868054089882
5144000000.0 -0.5925098917338452 -0.8506917993827918
5147000000.0 -0.6528105168635191 -0.8428392728968092
5150000000.0 -0.619523646951146 -0.862735435518108
5153000000.0 -0.6615801412424942 -0.8468742507059269
5156000000.0 -0.6763594803030717 -0.8344211487907431
5159000000.0 -0.7047177379747336 -0.8249526986383561
5162000000.0 -0.7287892219304678 -0.800795310286984
5166000000.0 -0.6667373162945782 -0.8364160424832177
5169000000.0 -0.6801540032463329 -0.8440123735996264
5172000000.0 -0.680777510753729 -0.7917089271982072
5175000000.0 -0.7309008763988053 -0.8342841349735206
5178000000.0 -0.7281341979885911 -0.7892536035386856
5181000000.0 -0.6989760416521154 -0.7886199504295955
5184000000.0 -0.7575978140006362 -0.7635784815386099
5188000000.0 -0.722214101393296 -0.7753789200121807
