! Created with skrf 1.8.0 (http://scikit-rf.org).
# Hz S RI R 50.0 
!freq ReS11 ImS11
4000000000.0 0.05536501330729903 1.0335783475652376
4003000000.0 0.1189487124889689 1.090186608461217
4006000000.0 0.17254326570815795 1.0498971884647446
4009000000.0 0.10896469662521341 1.0041386645990393
4012000000.0 0.12049115230048066 1.0350805215964982
4016000000.0 0.12161975045590574 1.014931764698523
4019000000.0 0.19262667085906313 1.0144613330125871
4022000000.0 0.10101667742940486 1.0369788567375393
4025000000.0 0.26383403237776726 1.0362850207246233
4028000000.0 0.1846467178837879 1.0500287218182054
4031000000.0 0.2229556703793728 1.0236136007312684
4034000000.0 0.21843382363552002 1.051035417543801
4038000000.0 0.24730921459639832 1.0081813266923287
4041000000.0 0.24200094962640295 1.019648399444263
4044000000.0 0.2908191299206436 1.1007151746747588
4047000000.0 0.17707278367083457 1.0393793613189553
4050000000.0 0.3324808305925584 1.0428943871165484
4053000000.0 0.29790405824802585 0.9549130931179999
4056000000.0 0.31183105241835263 0.9883501369333313
4059000000.0 0.2753933390738549 0.9878695166833347
4062000000.0 0.3072759370011993 0.9987782086570951
4066000000.0 0.28099699578977727 0.907738644974652
4069000000.0 0.3020293505886188 1.0245604645431405
4072000000.0 0.2652433232206489 1.0402057137608394
4075000000.0 0.2938540971461018 1.0445557718301877
4078000000.0 0.3592152222863305 0.9932797944204159
4081000000.0 0.3044623923039776 1.041768765260849
4084000000.0 0.3667651549381714 0.9658268238463277
4088000000.0 0.3414608747437362 1.0210652545256953
4091000000.0 0.3952414050520794 1.0417786925345167
4094000000.0 0.37347879337249623 1.0035866520062275
4097000000.0 0.3811402698524967 0.9740748140431164
4100000000.0 0.3954657824644342 0.9285263451928685
4103000000.0 0.39857040097654445 0.9760585101366777
4106000000.0 0.4185600742441935 0.9393439883909218
4109000000.0 0.471864763833174 0.9395404109768954
4112000000.0 0.4245078739150693 0.9450984022257081
4116000000.0 0.40202020790178505 0.9995503509154691
4119000000.0 0.4803866742285204 0.9132943177393456
4122000000.0 0.5040237168643688 0.9645137699065165
4125000000.0 0.5544729018685601 0.9560124121313165
4128000000.0 0.44570109034830485 0.9060014509055334
4131000000.0 0.44325095428336914 0.936284676345772
4134000000.0 0.45979716688934585 0.9107775283630812
4138000000.0 0.5194195018034979 0.8748419494551816
4141000000.0 0.5730361155396022 0.8325476595209391
4144000000.0 0.5133553181432042 0.9086766111556841
4147000000.0 0.5254934223162824 0.8409537020041065
4150000000.0 0.5424353197980525 0.9147597298836887
4153000000.0 0.5805479560106255 0.8892975058031919
4156000000.0 0.5550352315313138 0.8649604666637809
4159000000.0 0.5480269556773144 0.8845935180277082
4162000000.0 0.5715565937475569 0.8569996852334663
4166000000.0 0.5895701888854186 0.8589806643346567
4169000000.0 0.5980016633332663 0.8199452538678086
4172000000.0 0.5690932221394791 0.8619410128659133
4175000000.0 0.5807036505616574 0.8446426031798557
4178000000.0 0.606868367950136 0.8791567350542269
4181000000.0 0.6072614021194951 0.9032923347014924
4184000000.0 0.617924525267254 0.86077283039406
4188000000.0 0.6554339177402171 0.8728196485461399
4191000000.0 0.542911248304862 0.8452509577810241
4194000000.0 0.6225876095071379 0.7942657666347196
4197000000.0 0.6479984784413785 0.8024063380034747
4200000000.0 0.6340726826737937 0.8329933316375403
4203000000.0 0.6296434732517323 0.7749376169017668
4206000000.0 0.6595337901696614 0.7908983753756118
4209000000.0 0.6800923864785615 0.7980545480100965
4212000000.0 0.6954552119606 0.767889719171131
4216000000.0 0.6670048663911028 0.7702559971217946
4219000000.0 0.6785914457466851 0.7596452127730119
4222000000.0 0.7236739079719232 0.7659053547343011
4225000000.0 0.6656617875016227 0.7636537335183782
4228000000.0 0.7201811332653784 0.7750501475672528
4231000000.0 0.7017582737692121 0.7427599125724836
4234000000.0 0.7117061734396385 0.7547272637522404
4238000000.0 0.7295823972162097 0.742249212875292
4241000000.0 0.7540052026513622 0.7262787044010122
4244000000.0 0.7016142776687362 0.732107217454756
4247000000.0 0.7400657493327476 0.738526983453986
4250000000.0 0.779123405668471 0.7105104381536144
4253000000.0 0.7120645564695357 0.6779706422952535
4256000000.0 0.7638104717164285 0.6862510609109576
4259000000.0 0.7516787957723416 0.6684460949282889
4262000000.0 0.7738158843341048 0.6747151992881094
4266000000.0 0.7911499807006273 0.6678983238607594
4269000000.0 0.7904496686704563 0.6855537368859425
4272000000.0 0.7975077431797956 0.6411639686356143
4275000000.0 0.8027937103022311 0.6361763996454248
4278000000.0 0.7808003746128411 0.6321765720188788
4281000000.0 0.7895853591547805 0.6397196969704214
4284000000.0 0.832356589247531 0.5965447530314404
4288000000.0 0.797331177524076 0.6236810273687763
4291000000.0 0.7976425226015682 0.6332541111030384
4294000000.0 0.7978793006149968 0.6022564771282547
4297000000.0 0.815323254747679 0.5928874829413736
4300000000.0 0.8451573063272175 0.5798881042369947
4303000000.0 0.8230470957264221 0.5879451241981658
4306000000.0 0.8366237029660502 0.5763762248811523
4309000000.0 0.842259159289271 0.5690276114731966
4312000000.0 0.8503195436664279 0.5887255599343921
4316000000.0 0.8534280595464072 0.6031337840454993
4319000000.0 0.8489004062991665 0.5358709402916515
4322000000.0 0.8745305820924274 0.5360009912528669
4325000000.0 0.8719741296306701 0.5309219219589629
4328000000.0 0.8951018586606883 0.5245650525725323
4331000000.0 0.9114567911079055 0.4908682623288424
4334000000.0 0.8885817051775898 0.5100122508655762
4338000000.0 0.8793579773298137 0.49559710439279797
4341000000.0 0.8971537030461824 0.5285907613535628
4344000000.0 0.8804806262733162 0.5023141326790194
4347000000.0 0.9160451891428993 0.47600079869560175
4350000000.0 0.8849098499672884 0.41958591051277566
4353000000.0 0.8875378806705123 0.45217771463031253
4356000000.0 0.9376425170551361 0.4470399566028914
4359000000.0 0.8811649804935804 0.4019532733421559
4362000000.0 0.9310172075660805 0.39820259279662895
4366000000.0 0.969388623531448 0.4244596458449046
4369000000.0 0.8759909922823924 0.4087330015778363
4372000000.0 0.9455704520554413 0.3671933245537201
4375000000.0 0.9443309185266495 0.39454184339333354
4378000000.0 0.9575567409966897 0.41182403043703364
4381000000.0 0.9280051025802081 0.4111539729863646
4384000000.0 0.9756282228561278 0.3877467258638715
4388000000.0 0.9377375606481521 0.3779978160564274
4391000000.0 0.9515311879665755 0.35604236331534767
4394000000.0 0.9167784573467727 0.3307940844746303
4397000000.0 0.9603571607725463 0.3251309956164735
4400000000.0 0.9815361350891256 0.35242167917460465
4403000000.0 0.972122544135255 0.3242488307202609
4406000000.0 0.9692300852550997 0.2746349401913182
4409000000.0 0.9901708791351975 0.33795428718684023
4412000000.0 0.9837658708055088 0.24312835911099434
4416000000.0 0.9556756451355313 0.2542503645582066
4419000000.0 0.9718547580038426 0.24965268020226722
4422000000.0 0.9652506650454582 0.2743384816814593
4425000000.0 0.9824203346697414 0.2828180134090371
4428000000.0 0.9896102176189575 0.24126105305963697
4431000000.0 1.0184313266191845 0.2541332258267165
4434000000.0 0.9823042280409684 0.22496690211951242
4438000000.0 1.0172412347219977 0.21864056861402714
4441000000.0 0.9970725619835037 0.24736663412488863
4444000000.0 0.9739788141733661 0.2166526966045413
4447000000.0 0.9820540819098093 0.18972128046377018
4450000000.0 0.9793919413370044 0.19710320474389742
4453000000.0 1.0196733583218704 0.1816949196110738
4456000000.0 0.9657257633805592 0.15756100176625806
4459000000.0 0.9592985062741424 0.13058284207299412
4462000000.0 1.0535228595872426 0.171265152699943
4466000000.0 1.033426352775562 0.13101493083248958
4469000000.0 0.999108469638151 0.15230688184311503
4472000000.0 1.042716327620583 0.10482684518689928
4475000000.0 0.983880144722974 0.11129728309730053
4478000000.0 1.0772648907293365 0.0919153530367671
4481000000.0 0.9985714619406026 0.08036335935220373
4484000000.0 0.9894675772688413 0.042053742984578785
4488000000.0 0.9873373727715257 0.06536680509195902
4491000000.0 1.0098804292307424 0.060189528857823305
4494000000.0 0.9878326441538727 0.049903314191944076
4497000000.0 0.9979318407864592 0.04462522544118418
4500000000.0 1.0023783228516419 0.06411393408205553
4503000000.0 1.0260030285834756 0.04023637977550777
4506000000.0 1.0125488838337307 0.009735138563866527
4509000000.0 1.0019481143993518 0.008923618288549064
4512000000.0 0.98583072683505 -0.006474695014790265
4516000000.0 1.0276245209001584 0.005734073010767098
4519000000.0 0.9803812820212756 -0.0008907664463791223
4522000000.0 1.007281453883851 -0.06080872782612507
4525000000.0 1.0117676001187454 0.016042263747311568
4528000000.0 1.0465203616295609 -0.05350739225577727
4531000000.0 0.9960066280054714 -0.024252460957491742
4534000000.0 0.9989286006308772 -0.03721733077922022
4538000000.0 1.0104530545201755 -0.09361964784654458
4541000000.0 1.0111905802822716 -0.13026722737144406
4544000000.0 0.9918258892726679 -0.06809899080430634
4547000000.0 0.9866260939167744 -0.07129872703352125
4550000000.0 1.0128835141203294 -0.12786130759103187
4553000000.0 1.0010825105318228 -0.10648174110469605
4556000000.0 0.9566057163326198 -0.16502995062238884
4559000000.0 0.9941452439333284 -0.16205496984718892
4562000000.0 1.0082641341960348 -0.12002873762497512
4566000000.0 1.0023639963463946 -0.1662379989544142
4569000000.0 0.9727441639112683 -0.17560658432997361
4572000000.0 0.9808954910993495 -0.1721484681960675
4575000000.0 1.0051528764724964 -0.20300597562023776
4578000000.0 1.0210473373938183 -0.18129748275482468
4581000000.0 0.9975095155595916 -0.22774098845697005
4584000000.0 0.96923406452503 -0.2112018610851444
4588000000.0 0.9912823771666625 -0.1976403181904621
4591000000.0 0.9890135429514639 -0.20948927395732286
4594000000.0 0.9590491917405513 -0.2561323030416969
4597000000.0 0.9900149588361902 -0.2413943081723626
4600000000.0 0.9339787415179343 -0.2912045713273165
4603000000.0 0.9973654694007389 -0.2736587998975662
4606000000.0 0.9598741394412893 -0.2781955100533412
4609000000.0 0.9660103971371155 -0.3057726894166902
4612000000.0 0.9940714066877766 -0.3189390653096698
4616000000.0 0.963508789298311 -0.3160275656741589
4619000000.0 0.9812911471778151 -0.3012138224369955
4622000000.0 0.9718817881916384 -0.29944849606167007
4625000000.0 0.8909002711740842 -0.3182161641444
4628000000.0 0.903824730325288 -0.3017342694672079
4631000000.0 0.9254693649791093 -0.3673514895094434
4634000000.0 0.9602980449361093 -0.339329855492409
4638000000.0 0.9564200192542569 -0.3666372171674912
4641000000.0 0.9561816612335884 -0.3555018076028926
4644000000.0 0.9214146308863221 -0.3774692383621975
4647000000.0 0.9598489268837009 -0.3939989821108768
4650000000.0 0.9096605680263355 -0.41838371497557864
4653000000.0 0.9384313008130459 -0.4030957541574832
4656000000.0 0.9021401414610632 -0.44427991755913304
4659000000.0 0.917204927321058 -0.40873007752625584
4662000000.0 0.9159013718444059 -0.42730317520495953
4666000000.0 0.902867387552935 -0.44288398703313675
4669000000.0 0.919038912573233 -0.444624317404904
4672000000.0 0.8762045963558076 -0.4786530439876614
4675000000.0 0.8547348450890531 -0.48885891988913355
4678000000.0 0.8779126536849571 -0.48166723198522465
4681000000.0 0.8909666166989875 -0.5149232762080674
4684000000.0 0.8481134116838602 -0.5142241839635133
4688000000.0 0.8822680735061736 -0.4968251599677854
4691000000.0 0.8560609090600834 -0.4806033132199074
4694000000.0 0.8549229024720473 -0.5324879590448142
4697000000.0 0.8296537269376665 -0.5189692385925518
4700000000.0 0.8717083908079065 -0.5285828825861069
4703000000.0 0.8643946302018455 -0.5535324322169678
4706000000.0 0.8497183839327009 -0.5615951328906934
4709000000.0 0.8244470121035176 -0.5693677100534754
4712000000.0 0.8185871182084838 -0.5636503346493256
4716000000.0 0.8219724473590551 -0.5676465351526849
4719000000.0 0.8258168907435882 -0.584378887046485
4722000000.0 0.8025493241815329 -0.5866161518559742
4725000000.0 0.8378608197019054 -0.6078347454012146
4728000000.0 0.8008930305758997 -0.6076367388194792
4731000000.0 0.810752159725084 -0.610954233062557
4734000000.0 0.7961748842201097 -0.6075255278276843
4738000000.0 0.7961206941426362 -0.6090197108154327
4741000000.0 0.8060793871185882 -0.6194446583537371
4744000000.0 0.7643628027999798 -0.6882598189346155
4747000000.0 0.7534797121597983 -0.62100463187526
4750000000.0 0.7567178284791087 -0.6744572442914757
4753000000.0 0.7647778644511962 -0.6726730541192228
4756000000.0 0.7553893512914491 -0.6716479681928869
4759000000.0 0.7625979018654181 -0.699140613243419
4762000000.0 0.7553887471821212 -0.6890851041294852
4766000000.0 0.7396869317314299 -0.6631260079233933
4769000000.0 0.7515191734161029 -0.7160583663102934
4772000000.0 0.723927111083352 -0.70856848154085
4775000000.0 0.7005744566855301 -0.7532595252996146
4778000000.0 0.7312276435032941 -0.7020681786389997
4781000000.0 0.7268573222713588 -0.6789930783057012
4784000000.0 0.7383024407726385 -0.6942413140801907
4788000000.0 0.6988055131992346 -0.7427039085908343
4791000000.0 0.6850821628355078 -0.7562409899292979
4794000000.0 0.6836032936215717 -0.7587666319882158
4797000000.0 0.6770208260168009 -0.7757047427235917
4800000000.0 0.6372690196930266 -0.7457710969677356
4803000000.0 0.6389434409320072 -0.7533690340210997
4806000000.0 0.6558026787619391 -0.7666641445690532
4809000000.0 0.6445324110997426 -0.7843336124628557
4812000000.0 0.6140198165340776 -0.7945240111458941
4816000000.0 0.6488133622549481 -0.8035672031564548
4819000000.0 0.6357226602387185 -0.8004882034051071
4822000000.0 0.6213374481811129 -0.8197343652181057
4825000000.0 0.6477984115364659 -0.8134438370389685
4828000000.0 0.6070001234006245 -0.8051918289169533
4831000000.0 0.5796990809892391 -0.860553995292859
4834000000.0 0.6077089061379927 -0.8324108195768383
4838000000.0 0.5758624120655456 -0.8483345702123672
4841000000.0 0.568632370959114 -0.8360747944967774
4844000000.0 0.5831755805581906 -0.8299839106093104
4847000000.0 0.577103115679999 -0.8325193477910026
4850000000.0 0.578975424981141 -0.8799969719462992
4853000000.0 0.5307105992458343 -0.8631960901205658
4856000000.0 0.5475672282739412 -0.8660007275042823
4859000000.0 0.5379128604951025 -0.9088196322838212
4862000000.0 0.5480927938240306 -0.8500502226095119
4866000000.0 0.5207968830125438 -0.8893407972751193
4869000000.0 0.4918294422897104 -0.880527846645037
4872000000.0 0.4591798246595416 -0.920079833912648
4875000000.0 0.5543866168990206 -0.9080325473068449
4878000000.0 0.4817074792187033 -0.912573076578629
4881000000.0 0.48993053394826386 -0.9475728718812604
4884000000.0 0.47788471572647256 -0.9065825516190665
4888000000.0 0.48927556456415117 -0.9014034462618209
4891000000.0 0.4815768642896664 -0.9289966328012663
4894000000.0 0.4328773557636113 -0.9406803246712033
4897000000.0 0.4655094537426316 -0.8943068562756723
4900000000.0 0.4511240610726117 -0.9488189723658371
4903000000.0 0.4464256298250694 -0.9366721243368198
4906000000.0 0.4371399025475371 -0.9546141515443994
4909000000.0 0.4093023213789614 -0.9583238468155811
4912000000.0 0.41025813071045825 -0.9778035343794641
4916000000.0 0.39195255156127395 -0.9737122405305514
4919000000.0 0.44478090343282484 -0.9546638323149397
4922000000.0 0.4215980486435884 -0.9466829762688453
4925000000.0 0.3573782685293301 -0.9451291052576675
4928000000.0 0.39953246551937965 -0.9510090320137409
4931000000.0 0.39710181238210984 -0.9782698211097276
4934000000.0 0.35552917706401177 -0.9445242743268081
4938000000.0 0.33844519056768363 -0.9746353549119555
4941000000.0 0.3158020342656605 -0.9494085698456445
4944000000.0 0.3363873772408231 -0.9013684147182208
4947000000.0 0.2989159755802737 -0.9517993637629735
4950000000.0 0.30218628483896715 -0.962710245036971
4953000000.0 0.26798906296623304 -1.0228781103819413
4956000000.0 0.25471186338283036 -1.0114937496170655
4959000000.0 0.24118387594765983 -0.9883771141593641
4962000000.0 0.2667656123493115 -1.0065980530482903
4966000000.0 0.29995084823544393 -1.0341439030763733
4969000000.0 0.26240516502095546 -1.0484553313728315
4972000000.0 0.2170665672819451 -1.01437517060626
4975000000.0 0.26879838035589326 -0.9700378704242869
4978000000.0 0.206093540615147 -0.983377766073669
4981000000.0 0.19014896701724 -1.013182794107201
4984000000.0 0.20217394794059065 -0.9756807364706918
4988000000.0 0.2231727248416221 -0.9897643498519108
4991000000.0 0.2683500537263382 -1.0255623830091305
4994000000.0 0.21003721757798505 -1.0129348936394889
4997000000.0 0.13287591089472606 -0.9980492694453643
5000000000.0 0.19797565215001134 -1.0516783205599676
5003000000.0 0.19653725460850738 -1.053603967151399
5006000000.0 0.15015703287362514 -1.090248981233281
5009000000.0 0.16914551172806014 -1.0012857108501703
5012000000.0 0.13862819209170768 -0.9915742418727047
5016000000.0 0.15929814292511688 -1.0526606074042424
5019000000.0 0.09255884811395707 -1.0200754164434396
5022000000.0 0.10438954152459196 -1.0260998953068639
5025000000.0 0.10986812972413781 -1.1119745292359853
5028000000.0 0.07965047550872248 -1.048505389954613
5031000000.0 0.10363915757451726 -1.0447318440940934
5034000000.0 0.021554328564864694 -1.0333529168244127
5038000000.0 0.041385142079106346 -0.9997998962490344
5041000000.0 0.11298369414497245 -1.0400846407615099
5044000000.0 0.0809359839985208 -1.0046429009465014
5047000000.0 0.09205865124326897 -1.0532214397500383
5050000000.0 0.09636796686175092 -0.979018588783136
5053000000.0 0.012107122043069768 -1.101074669004252
5056000000.0 0.08511839381729963 -1.0253908119177568
5059000000.0 0.09197524893314096 -1.0459189751938691
5062000000.0 0.0036234218288843933 -1.0525086084701565
5066000000.0 0.031887194183791934 -1.0042880322527683
5069000000.0 -0.02619740270635751 -1.0767904173011218
5072000000.0 -0.042723835997002566 -0.9936736927778378
5075000000.0 0.013018038780875804 -1.0336169630572416
5078000000.0 -0.07090733088329709 -1.0683148030679754
5081000000.0 -0.06039807866755763 -1.0258543480041893
5084000000.0 -0.08365217085115773 -1.074598093162026
5088000000.0 -0.04747781439988484 -0.9870261208811275
5091000000.0 -0.10572558970403528 -1.0473502427706716
5094000000.0 -0.08009163872561052 -1.0652121348274601
5097000000.0 -0.03261272423478799 -1.0590347701093938
5100000000.0 -0.09199702320223166 -1.0046746467980383
5103000000.0 -0.08701237944246967 -1.0219137718512723
5106000000.0 -0.06567981557007511 -1.109989604038565
5109000000.0 -0.03629546909234198 -1.0173872131530095
5112000000.0 -0.09378195288060379 -0.9867172597463323
5116000000.0 -0.11665788384994114 -0.9771104206184196
5119000000.0 -0.16665153135992006 -1.039195800131786
5122000000.0 -0.12268725368036218 -1.0281242471033036
5125000000.0 -0.1623735938990818 -1.0382161874348248
5128000000.0 -0.16934835153404973 -0.9940554052430004
5131000000.0 -0.18684291634049116 -1.0165706031241586
5134000000.0 -0.14983024700701875 -1.0352329260617052
5138000000.0 -0.16783145683471862 -1.065029548171899
5141000000.0 -0.13592162863331167 -1.0218881016550747
5144000000.0 -0.15585722758767634 -1.0343982341963007
5147000000.0 -0.18528551217807 -1.05223506730036
5150000000.0 -0.1679248115127239 -1.0130472630178924
5153000000.0 -0.2316892343756612 -0.9969956866246719
5156000000.0 -0.24245990292299544 -1.0288518494065113
5159000000.0 -0.24022775948241393 -0.9981740534511577
5162000000.0 -0.26614369854902076 -1.00791883466555
5166000000.0 -0.3223984297296197 -1.0610391713467549
5169000000.0 -0.22828910285409193 -1.030542713277957
5172000000.0 -0.279825057317591 -0.9454961576461558
5175000000.0 -0.25145331383014224 -1.0468167156367734
5178000000.0 -0.30731497026233856 -1.0265668376590955
5181000000.0 -0.2725263029643352 -1.0466951855365156
5184000000.0 -0.3174910206364423 -0.9813195790781725
5188000000.0 -0.2888557714400439 -0.9870851960152671
5191000000.0 -0.3436130461969064 -1.0158428094789218
5194000000.0 -0.3115935665973199 -0.9726973997779254
