! Created with skrf 1.8.0 (http://scikit-rf.org).
# Hz S RI R 50.0 
!freq ReS11 ImS11
4000000000.0 0.6572450888728524 0.7235441644209193
4003000000.0 0.7196950781041603 0.7822431396473486
4006000000.0 0.7359651545636431 0.7258823654868082
4009000000.0 0.7583134432926132 0.7708095012775473
4012000000.0 0.697904355242613 0.794607155887413
4016000000.0 0.7618005688662643 0.7139094841418889
4019000000.0 0.6982218251424945 0.7283472042156193
4022000000.0 0.7368261453283012 0.7564865240006348
4025000000.0 0.809316518518891 0.7290827535996683
4028000000.0 0.7848492086579829 0.6842586744856882
4031000000.0 0.7530111669438952 0.6710522997175961
4034000000.0 0.7647874679257065 0.6862742886248845
4038000000.0 0.7902620698867319 0.6807059397545231
4041000000.0 0.7448052748200873 0.6562634244787818
4044000000.0 0.8171600534837234 0.7167764096741822
4047000000.0 0.7936050476668458 0.6948508339702807
4050000000.0 0.8243775183576003 0.6198975874116275
4053000000.0 0.8173023799999218 0.6190575163853422
4056000000.0 0.7647574117632197 0.6358519007368153
4059000000.0 0.8099906562705426 0.6445469728618414
4062000000.0 0.8163374124021697 0.6218393944060006
4066000000.0 0.7998218475836796 0.5838708245988766
4069000000.0 0.8857663584271741 0.6062673051735988
4072000000.0 0.8097905360729053 0.6668714935564486
4075000000.0 0.8320947727519027 0.6298245720956088
4078000000.0 0.8960229553670365 0.5905259259744722
4081000000.0 0.8477496567565377 0.65257155626942
4084000000.0 0.8522279014208111 0.6033345783964854
4088000000.0 0.8493714103224456 0.6084392907923453
4091000000.0 0.9114088868917107 0.6074232867100766
4094000000.0 0.8756387355358097 0.5601587355062664
4097000000.0 0.8583073484821087 0.5573498119769931
4100000000.0 0.89134451347578 0.5231638383850834
4103000000.0 0.9115629221293962 0.5520792415158642
4106000000.0 0.8843657188441477 0.522366433192751
4109000000.0 0.8852212919979532 0.5216579345561545
4112000000.0 0.8766133649968475 0.4838872729594718
4116000000.0 0.8768827787486363 0.522406843394527
4119000000.0 0.9454204158912589 0.49821282090872454
4122000000.0 0.9458937341613699 0.4905306165072131
4125000000.0 0.9483959739489679 0.47315482383814195
4128000000.0 0.8891634006490035 0.4705958016820644
4131000000.0 0.9083984055755385 0.4425238460080011
4134000000.0 0.9139842992152846 0.4824765506312604
4138000000.0 0.9147770419267289 0.4344188869251872
4141000000.0 0.9347216580939581 0.42294856614821097
4144000000.0 0.9153043692712386 0.45460098546569055
4147000000.0 0.8958811891269566 0.4312502635866841
4150000000.0 0.9316760420287695 0.42198203582807486
4153000000.0 0.9231212911193009 0.3982565703126054
4156000000.0 0.9515658848895592 0.4197522196437593
4159000000.0 0.9446522883761166 0.4035443828194342
4162000000.0 0.9649999384193055 0.3696926967849675
4166000000.0 0.9706062437642495 0.38824346755904804
4169000000.0 0.9798416451285967 0.37049546471458206
4172000000.0 0.9707193415947105 0.37387838619054875
4175000000.0 0.9819520823373956 0.37264452330566095
4178000000.0 0.9900336802395138 0.34267403817861897
4181000000.0 0.9783073210228312 0.31801179867859375
4184000000.0 0.9659494760394638 0.3432366320484724
4188000000.0 0.9784846472836788 0.3150883657355191
4191000000.0 0.9323517272886047 0.3472499606789931
4194000000.0 0.9723523296954631 0.3032006176411658
4197000000.0 0.9955815061830185 0.3141115460096762
4200000000.0 0.9856493695330597 0.3054757967300398
4203000000.0 0.9882890371152487 0.2990582209359214
4206000000.0 1.0194697062141034 0.28234144715227477
4209000000.0 0.9863982769601058 0.2647928433607207
4212000000.0 0.9745859708242731 0.22217699958667658
4216000000.0 0.9895984998799774 0.26214876221094424
4219000000.0 1.0130966778234767 0.24912181856974128
4222000000.0 0.9845353064070017 0.22159457305633196
4225000000.0 0.9748047513391194 0.22610937743151374
4228000000.0 1.0044744733137152 0.2127511870887707
4231000000.0 1.0012992155869456 0.1972890524554094
4234000000.0 1.0301789872144005 0.20719982180932067
4238000000.0 1.0193826879175873 0.16294135450116523
4241000000.0 0.9955631400556022 0.16455157669947068
4244000000.0 1.0036141298807457 0.16789701941213697
4247000000.0 1.0096377003644763 0.1643532813435028
4250000000.0 0.9627169055531031 0.14314165893418068
4253000000.0 0.9714381742613643 0.13472554188633995
4256000000.0 1.031232200410841 0.12839594384409247
4259000000.0 0.983655151543947 0.12340734083852961
4262000000.0 1.0141606360732491 0.08971901825736533
4266000000.0 1.0355876768295167 0.0726823223386415
4269000000.0 1.0160064250637602 0.09346834796508588
4272000000.0 0.9976905087345139 0.08771287154425511
4275000000.0 1.008765535028827 0.07871008313723032
4278000000.0 1.0357454674087863 0.08153670435386828
4281000000.0 1.0230506629904366 0.08358555028460903
4284000000.0 1.0183422428238442 0.01698441174810339
4288000000.0 1.0025943332310039 0.07909349020896425
4291000000.0 0.9927718387419214 0.01812981682821871
4294000000.0 0.9916495835848342 0.036600188137350095
4297000000.0 1.0107987112835926 0.03862795737539955
4300000000.0 0.9951530782258029 -0.004863938730784591
4303000000.0 1.0110239815694242 -0.0016463559852488013
4306000000.0 1.0292269648883758 0.009214883707686292
4309000000.0 1.0200880073594711 -0.001385440578588748
4312000000.0 1.0149521418162302 0.0349856143498327
4316000000.0 1.0399897715919346 -0.014324311646013346
4319000000.0 0.9887000107213751 -0.04268275325249267
4322000000.0 0.980550136981973 -0.07912649224601531
4325000000.0 1.0212778764836117 -0.0741413304954992
4328000000.0 1.0158997283650577 -0.08404127114292427
4331000000.0 1.0130487116955662 -0.09210566109984913
4334000000.0 1.016152356658864 -0.10544128364242056
4338000000.0 1.023203442793031 -0.05934805386576532
4341000000.0 1.0313632155381824 -0.06796791799920879
4344000000.0 1.0270124469509776 -0.09938463353007168
4347000000.0 1.0404420826091003 -0.1542871265241195
4350000000.0 0.9760878875760698 -0.16238409470889165
4353000000.0 0.9849705324586455 -0.10685856047937577
4356000000.0 0.9780666331796384 -0.159978733589825
4359000000.0 0.9704595962623049 -0.16613348887948565
4362000000.0 0.9958260104255365 -0.23276200987129453
4366000000.0 1.0186632447464743 -0.19731924080747135
4369000000.0 0.9734299374569291 -0.1821932714095526
4372000000.0 0.9703826525960206 -0.221946310936119
4375000000.0 0.9855406818041177 -0.18981158024304676
4378000000.0 0.9524675283575276 -0.2106709997734602
4381000000.0 0.9742214283993706 -0.19902171616915162
4384000000.0 1.0381365640330968 -0.2522465507284521
4388000000.0 0.969233765642773 -0.22950971492953845
4391000000.0 0.9895280196144167 -0.25560434708162527
4394000000.0 0.9574937430766298 -0.2622457849329628
4397000000.0 0.973704934846741 -0.27422449277378297
4400000000.0 0.9968360648977561 -0.2956671377658875
4403000000.0 0.9903749563334958 -0.2903062564535812
4406000000.0 0.9717486587755709 -0.3125585240047847
4409000000.0 0.9947867589870538 -0.31166171114741326
4412000000.0 0.9375918759521766 -0.3752767957314944
4416000000.0 0.9423319330670423 -0.3348000700034342
4419000000.0 0.9571537728324097 -0.3490693503403825
4422000000.0 0.9485848260738796 -0.331475714836114
4425000000.0 0.9704997262327675 -0.34331860040439477
4428000000.0 0.9524344628952538 -0.35657063763830854
4431000000.0 0.9684787372793238 -0.36341794113217446
4434000000.0 0.934444128892547 -0.36799359473294757
4438000000.0 0.9486109799983875 -0.39895168277832993
4441000000.0 0.9472786112008833 -0.391049840634538
4444000000.0 0.9058315129090175 -0.3861618283667809
4447000000.0 0.9061584168007498 -0.4169144295145921
4450000000.0 0.9130798127072416 -0.39875001808634425
4453000000.0 0.9409572292464462 -0.44567899546082884
4456000000.0 0.8899200543318131 -0.42250270446731936
4459000000.0 0.8611632061446628 -0.4371513424145361
4462000000.0 0.9407324671720276 -0.4807153951313179
4466000000.0 0.9324568298372432 -0.48252554735203046
4469000000.0 0.9004091259153498 -0.4511068946288577
4472000000.0 0.898910975984882 -0.49828622069418876
4475000000.0 0.8602916573946753 -0.47884290336302693
4478000000.0 0.9198386585771591 -0.5197779900137972
4481000000.0 0.8463818940568701 -0.4952289957259949
4484000000.0 0.8568778055216166 -0.5345330070122946
4488000000.0 0.8468732639036144 -0.5261731107808219
4491000000.0 0.8838933647920992 -0.5422143996622303
4494000000.0 0.8477291473591867 -0.5226333010217603
4497000000.0 0.8409198298046359 -0.5235928144025132
4500000000.0 0.8516685846713157 -0.5365699671054807
4503000000.0 0.8780529356465689 -0.5688143211316592
4506000000.0 0.825606410728021 -0.5661224898414854
4509000000.0 0.8226176837098569 -0.5923691587161156
4512000000.0 0.8016223917590152 -0.5710357462267093
4516000000.0 0.8134972832162021 -0.6018941517974293
4519000000.0 0.8069900109829778 -0.5872499706506684
4522000000.0 0.8151073249035892 -0.6121780510049692
4525000000.0 0.817254789244998 -0.5857950095059357
4528000000.0 0.8175895805814366 -0.604383102330157
4531000000.0 0.8200058535566266 -0.6187631776917372
4534000000.0 0.7799299953712048 -0.6081313020643011
4538000000.0 0.7627770221725283 -0.6381928316549971
4541000000.0 0.7476435707844729 -0.6644281563940123
4544000000.0 0.7573378654363636 -0.6451118717690496
4547000000.0 0.7833075144651468 -0.6310400287653148
4550000000.0 0.7484080718686204 -0.6912920989643911
4553000000.0 0.7707315711363734 -0.6837990595436277
4556000000.0 0.7154306678722491 -0.6670259546335774
4559000000.0 0.7341383662462239 -0.6874787460090388
4562000000.0 0.7617567091417088 -0.6934749371373915
4566000000.0 0.740529716103971 -0.7010635970369272
4569000000.0 0.7178352959733123 -0.694125008862641
4572000000.0 0.7100140985310734 -0.7041602079775776
4575000000.0 0.6919253827712792 -0.7392258502565237
4578000000.0 0.7147523332998829 -0.7335589335607724
4581000000.0 0.6855509462043372 -0.7384494980746098
4584000000.0 0.6711384538786509 -0.7368498133034194
4588000000.0 0.6912679163013873 -0.7585437324989176
4591000000.0 0.6849957813679423 -0.7512574856520452
4594000000.0 0.6627997372238893 -0.7806249103603933
4597000000.0 0.6644465435336593 -0.7811666074070501
4600000000.0 0.6338454340100741 -0.8019884570500834
4603000000.0 0.650452354189711 -0.7785705572490328
4606000000.0 0.636567184683272 -0.7905544462624909
4609000000.0 0.615674638225038 -0.7700680305778043
4612000000.0 0.6287306683706925 -0.7888890340451975
4616000000.0 0.6142790326639351 -0.8016130780804568
4619000000.0 0.595543092979743 -0.790708439819405
4622000000.0 0.5896851147603159 -0.8154270166932513
4625000000.0 0.5577912993047004 -0.8153552819741542
4628000000.0 0.6026960223154088 -0.8219418293277232
4631000000.0 0.5585364921953713 -0.8435362728842958
4634000000.0 0.5625751773572596 -0.837442600686593
4638000000.0 0.5651316929148061 -0.851653636463259
4641000000.0 0.5559120996355387 -0.8279829232948583
4644000000.0 0.5421026191189168 -0.845718058205154
4647000000.0 0.5459395556166623 -0.8669140626064172
4650000000.0 0.5137207235965093 -0.8543813998166494
4653000000.0 0.5623004855364164 -0.8783320096456958
4656000000.0 0.533787891722969 -0.870460041355553
4659000000.0 0.5098787887211215 -0.8808040839680713
4662000000.0 0.4841014712278635 -0.8879911260854619
4666000000.0 0.47677942819358005 -0.8918786872876252
4669000000.0 0.5069322362514771 -0.8901681386643144
4672000000.0 0.44397141090794273 -0.9229093588763528
4675000000.0 0.4592433806824305 -0.9122995959470886
4678000000.0 0.44468917736792296 -0.8945572231163954
4681000000.0 0.43063529169778647 -0.9207010669265827
4684000000.0 0.4368883453180277 -0.9250532491379925
4688000000.0 0.39742725621934877 -0.9103581035869824
4691000000.0 0.42692211732511076 -0.9328620288918554
4694000000.0 0.4332159196649221 -0.8923418915211339
4697000000.0 0.3527318060111475 -0.8763827911217301
4700000000.0 0.37965892624602093 -0.9329558440393135
4703000000.0 0.39644792296613574 -0.8789205401790043
4706000000.0 0.36908089821164747 -0.9232875984080158
4709000000.0 0.3608570749775009 -0.9569927031692134
4712000000.0 0.3759141790663555 -0.9249608733395633
4716000000.0 0.36000630254136523 -0.9641507234668321
4719000000.0 0.3813606297689976 -0.9733602416818173
4722000000.0 0.3749245440941656 -0.9650407684086955
4725000000.0 0.367402560757078 -0.9580175379076896
4728000000.0 0.3089474588673047 -0.9764401382157284
4731000000.0 0.33262270866062765 -1.0002125195460043
4734000000.0 0.3082899452220667 -0.9724077558398156
4738000000.0 0.33054515479361996 -1.0100850984710639
4741000000.0 0.31225087479337976 -0.9868403130206923
4744000000.0 0.273055926168476 -0.9822460257008249
4747000000.0 0.29116368556296923 -0.9492460495825182
4750000000.0 0.28037858013041506 -1.0257746748823524
4753000000.0 0.2660651304977868 -1.0046429089239401
4756000000.0 0.2555522727547999 -0.9955569075509925
4759000000.0 0.2744535169105237 -0.9974536412739616
4762000000.0 0.2041576516245973 -1.0107931919618613
4766000000.0 0.23516228515206286 -0.9778556899017693
4769000000.0 0.2286585546904915 -0.9909277958341683
4772000000.0 0.20178392233368853 -0.9856390810951946
4775000000.0 0.16908429036285177 -1.063233580663475
4778000000.0 0.18760502362021692 -1.026559136579876
4781000000.0 0.19388438625404528 -0.9936179387132329
4784000000.0 0.18682231331393642 -1.0285665108889186
4788000000.0 0.15356715275759394 -1.0197423375866206
4791000000.0 0.12671344897075382 -1.0298734763421449
4794000000.0 0.16688016354678628 -1.0541990571464652
4797000000.0 0.11716135351132331 -0.9905645351824469
4800000000.0 0.10312641231073158 -1.005752760791832
4803000000.0 0.07135719284582774 -1.016532114444865
4806000000.0 0.10947757451096804 -1.0532819260687782
4809000000.0 0.05458343389607148 -1.0328666628383918
4812000000.0 0.03465707067321669 -1.0213269208320723
4816000000.0 0.09968172250188657 -1.0079934389376966
4819000000.0 0.07935871822234841 -1.047038388468426
4822000000.0 0.07603027373344882 -1.0691969544199247
4825000000.0 0.08919069795115009 -1.0573213666508028
4828000000.0 0.04445258541163706 -1.0444066869638804
4831000000.0 -0.020410516326364245 -1.069537549474699
4834000000.0 0.06580456311719718 -1.0385510659641546
4838000000.0 -0.008528033286637995 -1.0533208315681148
4841000000.0 -0.023024536911270335 -1.0077696550045254
4844000000.0 0.03310452590248546 -1.037484218951888
4847000000.0 -0.0038090135279212484 -0.9853201011165624
4850000000.0 -0.054263905948706045 -1.0569054630462578
4853000000.0 -0.025225872530350857 -0.9933536387012449
4856000000.0 -0.026084772461464636 -0.9997562427639698
4859000000.0 -0.0689116734940923 -1.0827668597135411
4862000000.0 -0.03989289491684023 -1.0167911179452565
4866000000.0 -0.10280581579754869 -1.037198518674545
4869000000.0 -0.09337443087676936 -1.0164509619394908
4872000000.0 -0.11672066881614446 -1.0534605066644773
4875000000.0 -0.040945387136088876 -1.0548186160465984
4878000000.0 -0.10348541054698204 -1.0352640437367846
4881000000.0 -0.13890216582877427 -1.0731370123860362
4884000000.0 -0.08734178029339096 -1.0446005432219263
4888000000.0 -0.0929179631937314 -1.015251260374207
4891000000.0 -0.11277755946517301 -1.0340214937919918
4894000000.0 -0.15672627641150272 -0.9950395286026296
4897000000.0 -0.12079959957068626 -1.0100178567550733
4900000000.0 -0.15357082172514813 -1.036087308980598
4903000000.0 -0.1577332380270436 -1.0256999078400295
4906000000.0 -0.16704157864551344 -1.0589496549931934
4909000000.0 -0.17152825416606876 -1.0349213151288224
4912000000.0 -0.23364798491186028 -1.0102875562317146
4916000000.0 -0.22561696194978847 -1.0302572175373985
4919000000.0 -0.17491437140529126 -1.0543935721779827
4922000000.0 -0.1848666501747648 -1.0447019607062116
4925000000.0 -0.24952887797133264 -1.0191540166124282
4928000000.0 -0.16788289018449182 -1.0079899284654612
4931000000.0 -0.20467425578785825 -1.0304534764353879
4934000000.0 -0.2766985353117138 -0.991442886916596
4938000000.0 -0.306687803125085 -1.0213712369406989
4941000000.0 -0.25372500977661727 -0.9856753684719097
4944000000.0 -0.22769400654724356 -0.9451372851959758
4947000000.0 -0.2920753428621612 -0.9705619362172021
4950000000.0 -0.3085056389736557 -0.9390956318896884
4953000000.0 -0.3732120721847357 -0.9830886331027092
4956000000.0 -0.35505393124058776 -0.9813545995117843
4959000000.0 -0.36183386081832636 -0.9288552369729918
4962000000.0 -0.34725270214053183 -0.9764877039455458
4966000000.0 -0.3400813794447525 -1.0185394018153753
4969000000.0 -0.3446860511934702 -1.0174681915289163
4972000000.0 -0.3791350000945113 -0.9798772893238598
4975000000.0 -0.37204944147597774 -0.974306985679147
4978000000.0 -0.38664819764501235 -0.9986344590001291
4981000000.0 -0.4134413513481847 -0.9610300991863225
4984000000.0 -0.36488533729893624 -0.9181542583883207
4988000000.0 -0.38932151320319003 -0.9653943207749691
4991000000.0 -0.3906148118909642 -0.9961393951200612
4994000000.0 -0.3886393029640166 -0.9661151100156777
4997000000.0 -0.4541700418114278 -0.9417811598701239
5000000000.0 -0.43402240772752776 -0.9419082583436638
5003000000.0 -0.45205516190498335 -0.9851196315034002
5006000000.0 -0.4714991215364551 -1.0243995082038204
5009000000.0 -0.45425336215127776 -0.9336800370125333
5012000000.0 -0.4860650640171646 -0.9341930539841159
5016000000.0 -0.46005679541901007 -0.9639500381783588
5019000000.0 -0.48169585569955875 -0.9022176088817496
5022000000.0 -0.49669683907213424 -0.902454788521827
5025000000.0 -0.5107397943427752 -0.9878671944792641
5028000000.0 -0.5249073795725552 -0.9074834092689876
5031000000.0 -0.5462203313749355 -0.8835540904962011
5034000000.0 -0.552578137477699 -0.9090465053796899
5038000000.0 -0.5230076203791433 -0.8552689737925323
5041000000.0 -0.5103188811414177 -0.904641577600236
5044000000.0 -0.48332406331893785 -0.8433819783937745
5047000000.0 -0.5534377045377978 -0.8711509470311144
5050000000.0 -0.5087302872978573 -0.8999676864096446
5053000000.0 -0.5632547982671429 -0.9084747887311191
5056000000.0 -0.5387943326651827 -0.8821268380364218
5059000000.0 -0.5711609711977685 -0.8693085525646703
5062000000.0 -0.6250902646577173 -0.842616518751722
5066000000.0 -0.5755572646568277 -0.8928065383692838
5069000000.0 -0.6018983360664675 -0.8751189266756872
5072000000.0 -0.5823163772443295 -0.8523853178085998
5075000000.0 -0.5898484707108976 -0.8459249904339741
5078000000.0 -0.6362098164644909 -0.8332918557836015
5081000000.0 -0.6323638101133108 -0.7876292993503833
5084000000.0 -0.681612821085752 -0.8295623509161765
5088000000.0 -0.6189241154704684 -0.8503768231810438
5091000000.0 -0.682571346532822 -0.8295654213142556
5094000000.0 -0.6564366399573878 -0.7705010964195779
5097000000.0 -0.6551327741285881 -0.8056168575537515
5100000000.0 -0.7070630937498796 -0.7883853501720414
5103000000.0 -0.7137850926808058 -0.7524016948013693
5106000000.0 -0.6481817545007388 -0.7993857074166182
5109000000.0 -0.6668909357743327 -0.8155518247580658
5112000000.0 -0.7218285981018974 -0.7507340000386538
5116000000.0 -0.6999556469542759 -0.7622320772818766
5119000000.0 -0.7551041428183086 -0.7625916386517073
5122000000.0 -0.696633743011641 -0.7588193528805125
5125000000.0 -0.6670537341792547 -0.7146811872992264
5128000000.0 -0.7650865705859007 -0.7492664955015949
5131000000.0 -0.759937841417513 -0.7416375656402058
5134000000.0 -0.7302556331729706 -0.7062647338571452
5138000000.0 -0.7116029677290062 -0.7177828251012084
5141000000.0 -0.739378876106835 -0.7941840146884251
5144000000.0 -0.7177250938363114 -0.7230459395330411
5147000000.0 -0.8180737510068993 -0.7341984716237496
5150000000.0 -0.7803391039460805 -0.6919572962067307
5153000000.0 -0.7953092130204471 -0.736788870469845
5156000000.0 -0.8153489892792848 -0.7088907074880756
5159000000.0 -0.7951983028703081 -0.6742330227361373
5162000000.0 -0.8470280357183652 -0.6218338574797819
5166000000.0 -0.8151178256234306 -0.6703532625455043
5169000000.0 -0.8135199963465688 -0.6690898630496724
5172000000.0 -0.8253446913111256 -0.6549693930984992
5175000000.0 -0.8495673136884448 -0.6622591114151986
5178000000.0 -0.8572162433295198 -0.6417656058712898
5181000000.0 -0.8863533674255722 -0.6197653630720336
5184000000.0 -0.841986816793703 -0.600574422182029
