! Created with skrf 1.8.0 (http://scikit-rf.org).
# Hz S RI R 50.0 
!freq ReS11 ImS11
4000000000.0 0.6079091828941476 0.8242572813845415
4003000000.0 0.6733011672441521 0.883172691830142
4006000000.0 0.6749147242041896 0.8030938368469058
4009000000.0 0.6849918064139853 0.8571643537206315
4012000000.0 0.6613336216097276 0.8478942628134314
4016000000.0 0.699926240908797 0.7848453822266046
4019000000.0 0.7071338177962314 0.7858305583362301
4022000000.0 0.6040767510697861 0.8251199309312666
4025000000.0 0.761452586831863 0.7833016790272105
4028000000.0 0.6761687740241777 0.770599708067941
4031000000.0 0.67525813747262 0.7039216917183587
4034000000.0 0.6959270958857514 0.7390698544605474
4038000000.0 0.756033496139038 0.7576031114523285
4041000000.0 0.7067385436067506 0.7676578310737966
4044000000.0 0.7806856504612817 0.7641654415958766
4047000000.0 0.7539231856791625 0.7795271310113469
4050000000.0 0.7445552317778185 0.7285615140052654
4053000000.0 0.7536361702506833 0.7188067235029805
4056000000.0 0.7587575575984518 0.7185890212356301
4059000000.0 0.7727999309161596 0.701043806690006
4062000000.0 0.7848736944960956 0.625483010541497
4066000000.0 0.7555868654010127 0.6317299893229956
4069000000.0 0.8499136044931898 0.6862160789304947
4072000000.0 0.7553638102872579 0.6964034512509645
4075000000.0 0.8028891737530953 0.69773561896967
4078000000.0 0.8259519811152477 0.6786174290010287
4081000000.0 0.7872648514917906 0.7160103479372938
4084000000.0 0.8511311546236234 0.6551849632195912
4088000000.0 0.7688774036574664 0.6743282319462609
4091000000.0 0.8805106960185174 0.6826648758978064
4094000000.0 0.8242206732051297 0.6492077394458499
4097000000.0 0.8312811358374652 0.6237680886434271
4100000000.0 0.8415738730993908 0.6177986702589582
4103000000.0 0.8307920962548907 0.6673047508246963
4106000000.0 0.8692482338617209 0.6119807133894252
4109000000.0 0.861068981201011 0.6203918668344022
4112000000.0 0.8597680918386754 0.5787256186410206
4116000000.0 0.8521321698073246 0.5993344026271902
4119000000.0 0.861762465457908 0.5396372874822274
4122000000.0 0.9359679339696809 0.5997837610351261
4125000000.0 0.9167363613284781 0.5675813536953365
4128000000.0 0.8631803490841147 0.5416124292945597
4131000000.0 0.8547909994943568 0.5730172948099136
4134000000.0 0.8785186516993717 0.5478668957639002
4138000000.0 0.865969283339618 0.4971088371116376
4141000000.0 0.8908684376672369 0.5466086485327977
4144000000.0 0.8770852855729858 0.5566944122188018
4147000000.0 0.8798860196751762 0.483518539906352
4150000000.0 0.9049473343934812 0.5396109268041522
4153000000.0 0.9057381309192514 0.4668326433310205
4156000000.0 0.9110464794037123 0.537072433728724
4159000000.0 0.8925076783173509 0.4700035763743881
4162000000.0 0.8708872068462781 0.49688590653510056
4166000000.0 0.9384046000003985 0.4743747363377724
4169000000.0 0.931460843416521 0.42211904716617277
4172000000.0 0.9439782744073661 0.49060117235097983
4175000000.0 0.956406211388882 0.45723001462986895
4178000000.0 0.9496419864783975 0.4620775493912803
4181000000.0 0.9408340757500464 0.4270592840587353
4184000000.0 0.94930830858051 0.4311592616505447
4188000000.0 0.9452907851650343 0.40753748026556147
4191000000.0 0.9451315250896117 0.42348588154872097
4194000000.0 0.9347853702423519 0.3700004727267263
4197000000.0 0.9776625163471355 0.399892071826417
4200000000.0 0.9519255092687506 0.3999073208598266
4203000000.0 0.969408405295127 0.4012488193319774
4206000000.0 0.9751370132991041 0.3810395839040234
4209000000.0 0.9374018905513661 0.36211691840176913
4212000000.0 0.9671624768392663 0.350382580010121
4216000000.0 0.9666174039347072 0.3429902251835086
4219000000.0 0.9747291881099278 0.35364459983166174
4222000000.0 0.9890504927520976 0.3250923581742296
4225000000.0 0.9656546817742024 0.32685438098486774
4228000000.0 0.9866692426805079 0.3315258551576694
4231000000.0 0.9806014303589169 0.3044346765684499
4234000000.0 0.9934854948011229 0.29036914045483264
4238000000.0 0.9793810671461605 0.2782546732945471
4241000000.0 0.9938283408471755 0.2712488373679757
4244000000.0 0.9911744679393149 0.28132903819938254
4247000000.0 0.9908491673002555 0.29368022881136024
4250000000.0 0.9826821644607158 0.24793391914536778
4253000000.0 0.9885757060248539 0.23896259015035326
4256000000.0 1.01074518234667 0.2356620350640904
4259000000.0 0.9936801729832916 0.2080871415131663
4262000000.0 0.9918043037220479 0.21401342466694948
4266000000.0 1.0059489381083089 0.19121408770409637
4269000000.0 1.0020797907531662 0.21243541308305217
4272000000.0 1.0150503581128265 0.19798598942750473
4275000000.0 1.0175287775452315 0.19822502652627222
4278000000.0 1.0477112477916877 0.20108176893982327
4281000000.0 1.0186437019662902 0.1947761955161615
4284000000.0 1.0285770487385082 0.13515003613011936
4288000000.0 0.9993864826488775 0.18801290993793354
4291000000.0 1.0003598908611757 0.1475484208134798
4294000000.0 1.0026103117297356 0.13840146110517892
4297000000.0 0.997281455366872 0.14244859408668503
4300000000.0 1.003223489993105 0.11163643095788744
4303000000.0 0.9907094845281458 0.08765779522674137
4306000000.0 1.041374880978512 0.13208845203811023
4309000000.0 1.0155193401287979 0.10961112650642867
4312000000.0 1.0323610427122172 0.1277377395143113
4316000000.0 1.0264720083804666 0.08561423938871797
4319000000.0 0.9961151248348222 0.05570061349570636
4322000000.0 1.0059260933251384 0.02170697674120324
4325000000.0 1.01317837238867 0.07246969993296339
4328000000.0 1.008571627622034 0.049076205558183025
4331000000.0 1.0047718229971878 -0.01366092238424331
4334000000.0 1.0360757452746578 0.012692450527406168
4338000000.0 1.000746158031125 0.03309596386404666
4341000000.0 1.0405123968825554 0.03977876606000719
4344000000.0 1.0355185542209235 0.02462802135525638
4347000000.0 1.0319995171836527 -0.021527937546083425
4350000000.0 0.9841409651245178 -0.017606771845358388
4353000000.0 0.9974686402111399 0.006279593548336654
4356000000.0 1.0128420341811217 -0.0657937142300815
4359000000.0 0.9809745325679105 -0.04919303339646661
4362000000.0 1.0210476050853547 -0.12180518974172184
4366000000.0 1.0167041441890035 -0.06301321889547185
4369000000.0 0.9922457176969796 -0.0652941529524734
4372000000.0 0.996123539155592 -0.1202675934978881
4375000000.0 1.000136854274198 -0.08456148796493904
4378000000.0 0.9991787818115263 -0.09785703364504368
4381000000.0 1.0039634967521995 -0.08872949594556727
4384000000.0 1.0749374090471395 -0.12016877460558241
4388000000.0 0.9971751018718419 -0.10464204853307067
4391000000.0 1.0096649980920998 -0.1273565982340713
4394000000.0 0.993118024645973 -0.1415239073796602
4397000000.0 0.993079828308542 -0.1549165957344762
4400000000.0 1.0349522137930756 -0.1564800687709718
4403000000.0 1.0024750207033613 -0.1654383509296418
4406000000.0 1.0035573794394768 -0.19000988524694695
4409000000.0 1.0222296576866643 -0.19742513086393756
4412000000.0 0.9774684598773034 -0.23061700102799612
4416000000.0 0.9735218947319098 -0.21978060376549546
4419000000.0 0.9971991739111166 -0.23227575242284032
4422000000.0 0.9959014463345921 -0.19839916244883027
4425000000.0 1.0156854551400416 -0.20102150607188313
4428000000.0 0.9924813266367774 -0.23419685180182298
4431000000.0 1.014394705073289 -0.23974936844764963
4434000000.0 0.9855181734486653 -0.2425393344021257
4438000000.0 1.0095489670314783 -0.26598182573262874
4441000000.0 1.0088989130135553 -0.2631154880066305
4444000000.0 0.9519373599154064 -0.25937783109746965
4447000000.0 0.9712197151537231 -0.2886382432794669
4450000000.0 0.9752053885185793 -0.2685911124997606
4453000000.0 0.998337729833239 -0.30128708845442664
4456000000.0 0.924616243521214 -0.3180205019103991
4459000000.0 0.9138406984920795 -0.32706631225473226
4462000000.0 1.0268030470701546 -0.3355048604272724
4466000000.0 0.9741069789261857 -0.35743587055321524
4469000000.0 0.9681263860004652 -0.32127982120617293
4472000000.0 0.966139572787248 -0.38506867351269675
4475000000.0 0.9287057002415237 -0.34749055414604524
4478000000.0 0.972958166370745 -0.40200578386176233
4481000000.0 0.9252820607337873 -0.36680903481624505
4484000000.0 0.9287546370916919 -0.41651920620906124
4488000000.0 0.9174030108410098 -0.4147631347661131
4491000000.0 0.9335700627634517 -0.40394884192906283
4494000000.0 0.920993071333794 -0.39375445516569185
4497000000.0 0.9012459446420773 -0.4040069105419577
4500000000.0 0.9152415949161663 -0.42637524560351725
4503000000.0 0.9322602597236651 -0.44971142986700435
4506000000.0 0.9277004740921457 -0.4543388429046301
4509000000.0 0.8844418434634773 -0.43336104608152237
4512000000.0 0.8852407787484506 -0.46943667070108164
4516000000.0 0.9145870815423428 -0.4716547307462537
4519000000.0 0.8838451162415564 -0.46816055733007955
4522000000.0 0.8870811329521815 -0.4921301310796755
4525000000.0 0.9015151884549235 -0.4581591119644637
4528000000.0 0.8830593030837413 -0.5194466507079842
4531000000.0 0.8690389339447292 -0.4953822735408009
4534000000.0 0.8476766068084814 -0.5047531398590414
4538000000.0 0.8721463837393486 -0.526044692636484
4541000000.0 0.834915089150073 -0.546990007922499
4544000000.0 0.8504550013603251 -0.549198882184677
4547000000.0 0.8471627918145438 -0.5379765192197914
4550000000.0 0.8474510138193971 -0.5629983531521396
4553000000.0 0.8350746151811148 -0.5786706672620965
4556000000.0 0.821152722286991 -0.5800141605664103
4559000000.0 0.8224901336067953 -0.5906143794293952
4562000000.0 0.8620265591136915 -0.5868699808346755
4566000000.0 0.8317417083568426 -0.5859325345535398
4569000000.0 0.8079842890875703 -0.597693372506721
4572000000.0 0.8115269072034108 -0.6037454968501597
4575000000.0 0.8124917780935594 -0.6395308600487819
4578000000.0 0.8404698172050329 -0.6346089603199541
4581000000.0 0.8066130962993201 -0.6488975922085488
4584000000.0 0.7818933208134157 -0.6167607744936718
4588000000.0 0.7988179053583447 -0.6456851198808757
4591000000.0 0.8021525791670616 -0.6261802658464632
4594000000.0 0.7629613959363452 -0.6678708811070603
4597000000.0 0.787236156311558 -0.6688268045791488
4600000000.0 0.7365235317148915 -0.6853370169760413
4603000000.0 0.7574893918810099 -0.6826517641403095
4606000000.0 0.7623012355841052 -0.670890749284359
4609000000.0 0.7376208387152854 -0.6968827721885045
4612000000.0 0.7494177309242644 -0.6917645482756682
4616000000.0 0.7161009717795503 -0.7173495378005698
4619000000.0 0.7321100487277918 -0.7134488280534518
4622000000.0 0.7131771666991656 -0.7136837471689375
4625000000.0 0.6797301425644843 -0.7169840091479691
4628000000.0 0.7216461089581848 -0.7083543820613135
4631000000.0 0.6930067900527526 -0.7495277828876216
4634000000.0 0.6812269410241203 -0.7421975195558764
4638000000.0 0.6914939951393195 -0.7458351225195942
4641000000.0 0.6815139768288393 -0.7591844640496704
4644000000.0 0.6778001702433657 -0.7508241029222078
4647000000.0 0.67792550450899 -0.7705104826933049
4650000000.0 0.6364183397817177 -0.7687719995653755
4653000000.0 0.6843494827849014 -0.7787882093272654
4656000000.0 0.6499932975576521 -0.793590266681182
4659000000.0 0.646701213268223 -0.7859608117923689
4662000000.0 0.6381888898314525 -0.8188299615472782
4666000000.0 0.6237512262543208 -0.8070596048911136
4669000000.0 0.6425287106768798 -0.8074966581950715
4672000000.0 0.5926575479085959 -0.8305787240416889
4675000000.0 0.6056335612020345 -0.837798308354585
4678000000.0 0.5750575603161092 -0.8053416393850595
4681000000.0 0.5663244909711653 -0.8365346974856185
4684000000.0 0.5748771757990403 -0.8515947076826506
4688000000.0 0.5472939659892475 -0.837162413651049
4691000000.0 0.6049669481125831 -0.8424870845943224
4694000000.0 0.5745064875738124 -0.8575830518629999
4697000000.0 0.5120748431182388 -0.8410222664498002
4700000000.0 0.5543259245984372 -0.8303110809171037
4703000000.0 0.536810937797743 -0.8417114724119286
4706000000.0 0.5218402055294649 -0.8635259544319913
4709000000.0 0.5084684971434665 -0.8666924208314364
4712000000.0 0.540272579935035 -0.8882998854969376
4716000000.0 0.5027470887004873 -0.8767870965636251
4719000000.0 0.5230312059085132 -0.8722497314964501
4722000000.0 0.5233385689735373 -0.8995485934932548
4725000000.0 0.49444889714363327 -0.9258917569025699
4728000000.0 0.46511606259593596 -0.893379553894903
4731000000.0 0.4818611203839931 -0.9177919522811531
4734000000.0 0.48999359051085944 -0.8905743953784279
4738000000.0 0.46793601648283867 -0.9182565660516266
4741000000.0 0.4486792684042415 -0.9545476335674642
4744000000.0 0.4358157047715876 -0.9351437796908693
4747000000.0 0.4004520967658264 -0.9013611568495712
4750000000.0 0.43128260029433063 -0.9511007653862781
4753000000.0 0.4394670933890623 -0.9345992905205187
4756000000.0 0.39261723091256595 -0.9416328896346831
4759000000.0 0.42139576071047 -0.9516117336914874
4762000000.0 0.3969677260106357 -0.9558243713868221
4766000000.0 0.38366317305984354 -0.9541671727858159
4769000000.0 0.3666962697169184 -0.9831392472271715
4772000000.0 0.3695478668106259 -0.9713123228652184
4775000000.0 0.38248222046221253 -0.9943555858054771
4778000000.0 0.3527061902573031 -0.9676977413590816
4781000000.0 0.3623159092234882 -0.9496182279189396
4784000000.0 0.3390570365127041 -0.9451559910466497
4788000000.0 0.3425286327190522 -0.9913980767740869
4791000000.0 0.33317010718573375 -0.9560459479091598
4794000000.0 0.340897449193519 -0.9974484877853198
4797000000.0 0.27114679607622494 -0.9772024228301731
4800000000.0 0.2729943391816695 -0.9663162315548157
4803000000.0 0.2516868260574822 -1.008513441422572
4806000000.0 0.2788804707417906 -1.0028734409033697
4809000000.0 0.22507663853079385 -1.0172264908116273
4812000000.0 0.21162055342037314 -1.0018948939987766
4816000000.0 0.2926663252490543 -0.9885077852355812
4819000000.0 0.26540683886343686 -1.025433351724049
4822000000.0 0.25549445901913914 -1.0118683260479784
4825000000.0 0.2720909279586071 -1.002065060871316
4828000000.0 0.22308964450134372 -0.994519134776355
4831000000.0 0.17314316355200263 -1.0070058686882724
4834000000.0 0.22933339558189392 -1.0137876595538489
4838000000.0 0.18879027625695288 -1.0404203926045663
4841000000.0 0.1946845932810234 -1.0006336323140332
4844000000.0 0.21543297964271296 -1.0206782555787317
4847000000.0 0.18691976015338851 -0.9743011297836581
4850000000.0 0.16011329426603954 -1.0341982766569837
4853000000.0 0.16847402943658601 -0.9892551066771205
4856000000.0 0.15181482120163975 -1.0279546767428673
4859000000.0 0.1237765705554052 -1.0521551616372955
4862000000.0 0.160496279823721 -0.9931637826225809
4866000000.0 0.09119177317070462 -1.0479026604477675
4869000000.0 0.09947312545481646 -1.0272659454264612
4872000000.0 0.08123220529645742 -1.0654626425524303
4875000000.0 0.13967072956156867 -1.0819060043742998
4878000000.0 0.09086364815081735 -1.020094242466704
4881000000.0 0.06932292490506149 -1.1076901824412013
4884000000.0 0.11486179928160832 -1.0401205634135744
4888000000.0 0.09177496754241103 -1.0349647284573933
4891000000.0 0.08057910182735906 -1.0654352178145325
4894000000.0 0.030765082369197685 -1.022636184838602
4897000000.0 0.06105587047726579 -1.0476199333546434
4900000000.0 0.04487493180578932 -1.0503000341202138
4903000000.0 0.04175415205528013 -1.0333834900779737
4906000000.0 0.004566706783116372 -1.0534271214466866
4909000000.0 -0.005839499402208695 -1.03996358430637
4912000000.0 -0.0014489029192759073 -1.0672632413956342
4916000000.0 -0.007098764829637075 -1.0780956194767224
4919000000.0 0.02743768191985627 -1.0743171054490617
4922000000.0 -0.001575847668717753 -1.0383034967743863
4925000000.0 -0.05775419727870933 -1.0588137857056266
4928000000.0 0.0005262938153833135 -1.0104904307264708
4931000000.0 -0.007311738024248476 -1.0393955605688057
4934000000.0 -0.03300569442846986 -0.9965500275947584
4938000000.0 -0.12762960582410615 -1.0193955350330697
4941000000.0 -0.06864924357703951 -1.0112853333927356
4944000000.0 -0.044672571497042846 -1.007799685492811
4947000000.0 -0.09376005503897153 -1.002376701415723
4950000000.0 -0.11644619963126336 -0.9967565608051466
4953000000.0 -0.14836655187500192 -1.0861196963314776
4956000000.0 -0.1740725723478529 -1.0449878003619082
4959000000.0 -0.18626635727499832 -0.9737398627465148
4962000000.0 -0.16035712450672088 -1.0803796441122977
4966000000.0 -0.09830535324273643 -1.0420839557433161
4969000000.0 -0.14096160727965618 -1.082798494150843
4972000000.0 -0.1613002912138333 -1.0320370289013026
4975000000.0 -0.1420786932438838 -1.0308848802895259
4978000000.0 -0.1863808612272017 -1.0086890658112817
4981000000.0 -0.20120485595514195 -1.046214728243187
4984000000.0 -0.18170977923534806 -1.0282426150452206
4988000000.0 -0.16915701256107535 -0.9996808186795763
4991000000.0 -0.17984184065724645 -1.0607531031372028
4994000000.0 -0.18109454084849136 -1.027594826792897
4997000000.0 -0.2618800543125007 -0.9937837945229946
5000000000.0 -0.19681110877782781 -1.0819662230618212
5003000000.0 -0.2352815363460618 -1.0442921421846725
5006000000.0 -0.2659920574166692 -1.0489084731317666
5009000000.0 -0.22679196284207312 -1.0388125365581633
5012000000.0 -0.2588835499355884 -0.9982984415017155
5016000000.0 -0.2501597748482896 -1.0448947542502296
5019000000.0 -0.2950622738551869 -1.0026890313923953
5022000000.0 -0.261928524549996 -1.0185527508761407
5025000000.0 -0.33145473072614356 -1.0498463901469517
5028000000.0 -0.31801464794233525 -1.004745404182472
5031000000.0 -0.2957086479187899 -0.9963056162087115
5034000000.0 -0.35307317343328537 -1.0068793396308173
5038000000.0 -0.3396071360851729 -0.9723642160926698
5041000000.0 -0.2956693169388288 -1.015210374897765
5044000000.0 -0.30929234529767713 -0.976891056845859
5047000000.0 -0.29908261891205395 -0.9907289015380641
5050000000.0 -0.2992932841054462 -1.0080183982651043
5053000000.0 -0.3795524323269336 -1.0125687476785186
5056000000.0 -0.31049320247555545 -1.0085374311967041
5059000000.0 -0.32093211768219015 -0.9844970582550853
5062000000.0 -0.41338796573784364 -1.0120253319567736
5066000000.0 -0.3396092770403518 -0.9774063121612175
5069000000.0 -0.4048151443201685 -0.960690603144159
5072000000.0 -0.3575118890317761 -0.932789069958347
5075000000.0 -0.41102660107721156 -0.9610055992458748
5078000000.0 -0.4470345782006105 -0.9243790794385176
5081000000.0 -0.4324469106951659 -0.9209355933920828
5084000000.0 -0.41824981094962566 -0.9862033263780361
5088000000.0 -0.42002516563702375 -0.9486109348548684
5091000000.0 -0.49853852160590034 -0.9414882093197408
5094000000.0 -0.4632270963714951 -0.9462987715060663
5097000000.0 -0.42725690943753436 -0.9500252940147249
5100000000.0 -0.45458987336892004 -0.9265278143362893
5103000000.0 -0.5048824180805107 -0.9679616587776182
5106000000.0 -0.49178434746642924 -0.9743660208383162
5109000000.0 -0.4512345665364613 -0.9797351538585692
5112000000.0 -0.557927735264733 -0.9072594979942061
5116000000.0 -0.4680185265233564 -0.8921369562354484
5119000000.0 -0.5384316709299809 -0.910431076419389
5122000000.0 -0.5061527789468073 -0.9428173746531117
5125000000.0 -0.5284828167815442 -0.9214446407647684
5128000000.0 -0.5778466726200105 -0.9032439790813953
5131000000.0 -0.5074816213602376 -0.8906895341336049
5134000000.0 -0.5286477402831107 -0.8924957143029446
5138000000.0 -0.5058883447785482 -0.9112077671677928
5141000000.0 -0.5475006821737639 -0.9460504132303502
5144000000.0 -0.5395443870293863 -0.8535504308373436
5147000000.0 -0.6225069557849912 -0.8884168870678344
5150000000.0 -0.5831177694503685 -0.8799546006124914
5153000000.0 -0.5907258651258693 -0.8796767645492296
5156000000.0 -0.6270402350897384 -0.8949797468288143
5159000000.0 -0.5993381558005832 -0.8624119535195112
5162000000.0 -0.6008946072230498 -0.8144477515304722
5166000000.0 -0.6253473933940249 -0.8669804228568979
5169000000.0 -0.6353330904731447 -0.8410750175402445
5172000000.0 -0.644952408268265 -0.8314601156507426
5175000000.0 -0.6330105438032094 -0.8750117290920036
5178000000.0 -0.6676557735282287 -0.8059138822063585
5181000000.0 -0.6770330872736074 -0.8678462849255609
5184000000.0 -0.6678848494486439 -0.8282135599475419
5188000000.0 -0.6578262762764975 -0.8395022498360794
