! Created with skrf 1.8.0 (http://scikit-rf.org).
# Hz S RI R 50.0 
!freq ReS11 ImS11
4000000000.0 0.6241860663902714 0.7426049732690794
4003000000.0 0.6881487920835359 0.7988115265793693
4006000000.0 0.6937374496282719 0.732544550581093
4009000000.0 0.7016078656192666 0.7463268399806333
4012000000.0 0.6701659129990675 0.7896151432243025
4016000000.0 0.7339247213693348 0.7067267907186059
4019000000.0 0.7146291811168282 0.7153764037067084
4022000000.0 0.6686210186816413 0.7650138357199731
4025000000.0 0.7821171770523403 0.7343665033447659
4028000000.0 0.761650162249783 0.7070330635165036
4031000000.0 0.7182055871048943 0.6743668771398648
4034000000.0 0.7347752596359135 0.731892419115153
4038000000.0 0.7685206306113511 0.6672852191118558
4041000000.0 0.7525479270109033 0.6535444098058926
4044000000.0 0.7995162992273928 0.7464629376976781
4047000000.0 0.7815997144543172 0.742024929282528
4050000000.0 0.7917642133276632 0.6901509973295588
4053000000.0 0.743007402469229 0.638487348274136
4056000000.0 0.7653570913776191 0.6570079395782407
4059000000.0 0.7569599103318507 0.674137233767478
4062000000.0 0.8107045092290605 0.5795863635623566
4066000000.0 0.792253634934897 0.6019349916009044
4069000000.0 0.8250737795454337 0.6440652347471898
4072000000.0 0.7930892893122278 0.650578673582108
4075000000.0 0.8407525043994081 0.6531097682082043
4078000000.0 0.8376454984312982 0.6107625203758026
4081000000.0 0.8321234931859665 0.6206790422508983
4084000000.0 0.8655223860263105 0.5730942147067415
4088000000.0 0.8322637949277732 0.621381539707106
4091000000.0 0.8790845658555353 0.5668321054396599
4094000000.0 0.8170039867367116 0.5430973372449882
4097000000.0 0.8451034521994172 0.5804447747773209
4100000000.0 0.8199802468994145 0.5450039917693548
4103000000.0 0.833419749881066 0.5751815931535711
4106000000.0 0.8758019268293754 0.5215608648718808
4109000000.0 0.8388854740102076 0.5084430245183371
4112000000.0 0.8550645647508781 0.5420502905832587
4116000000.0 0.8601743996781807 0.5302942965644879
4119000000.0 0.9179344773643634 0.47223960566209033
4122000000.0 0.9057981123620324 0.4860401881537799
4125000000.0 0.8963509308360498 0.4905846317801071
4128000000.0 0.837594913024216 0.46501177810216254
4131000000.0 0.9131812319698495 0.476339912730556
4134000000.0 0.8717203336955434 0.48213101393778646
4138000000.0 0.8966016268470329 0.45227982903000047
4141000000.0 0.892274755344477 0.43173306233011843
4144000000.0 0.9247222865038375 0.44410370146708195
4147000000.0 0.8991684872516451 0.4443715897780574
4150000000.0 0.9554529028754384 0.46960522763191476
4153000000.0 0.9307860030854428 0.4134086223894453
4156000000.0 0.9511537962050454 0.4441468659617307
4159000000.0 0.9197554160584103 0.41478780669889653
4162000000.0 0.8972611682478937 0.40747721886609845
4166000000.0 0.9478228864341791 0.3732739088941234
4169000000.0 0.9439323525147115 0.35914261699147587
4172000000.0 0.9420998530132718 0.38958114163705776
4175000000.0 0.9577633690766431 0.3983114844824585
4178000000.0 0.9483129837125018 0.375658238784254
4181000000.0 0.9689579210764137 0.3201349110808682
4184000000.0 0.9354160124041012 0.33711737234635736
4188000000.0 0.9594704697295564 0.33764659735069813
4191000000.0 0.9327660486668602 0.36195595725770263
4194000000.0 0.9470020236880727 0.3179205421230652
4197000000.0 0.9730249002793216 0.3211821910911305
4200000000.0 0.9421552503361106 0.33957831036924047
4203000000.0 0.9623140453183904 0.3210346760819053
4206000000.0 0.9953187270171495 0.2906917691644842
4209000000.0 0.9648980165439108 0.2950806844670634
4212000000.0 0.9960582838040517 0.24035329970075425
4216000000.0 0.9963107815604508 0.26775932522602514
4219000000.0 1.0023185567784225 0.28495102026101315
4222000000.0 0.9872190780141712 0.23883156876323286
4225000000.0 0.9818615317159005 0.24349395030957147
4228000000.0 0.9815945039511629 0.24063302867340816
4231000000.0 1.005895345835849 0.22391373792978403
4234000000.0 1.0170625862765137 0.21049684507407773
4238000000.0 0.9959189518518556 0.18789148393295088
4241000000.0 1.000769148723904 0.1635149375603962
4244000000.0 1.0040702496555165 0.1996454881781881
4247000000.0 0.9841937348113109 0.17816790778309755
4250000000.0 0.9808043248147049 0.14937924366313282
4253000000.0 0.9853191638679681 0.1622379875440519
4256000000.0 1.014725376501767 0.15090735966652313
4259000000.0 0.9885383853273817 0.12492022475253503
4262000000.0 0.9892107162719004 0.11311101641786109
4266000000.0 1.029040978718189 0.08786404600585498
4269000000.0 0.9944124328516344 0.144394639276315
4272000000.0 1.0079525087808956 0.11050189341230765
4275000000.0 1.0033239097471602 0.10411204584755537
4278000000.0 1.0355171975340058 0.09419420121945923
4281000000.0 1.0285828328938273 0.091004032379101
4284000000.0 1.00146159505083 0.05678846968062831
4288000000.0 0.986513822570372 0.0889684741914252
4291000000.0 0.9860944766360917 0.03387574143776638
4294000000.0 1.0088518956252361 0.027652043028959586
4297000000.0 1.006247279594181 0.05244242472633827
4300000000.0 0.9903528072846057 0.03527222664081061
4303000000.0 1.0061078028954138 0.0046219190381546205
4306000000.0 1.0127091160483195 0.03216150943364579
4309000000.0 1.0086610160626297 0.024266933901981383
4312000000.0 1.000373912915152 0.03863125425160828
4316000000.0 1.0297008910348437 0.01860646753507654
4319000000.0 1.0079646387273224 -0.019240818594493142
4322000000.0 0.9908331813624277 -0.05638458894190213
4325000000.0 1.0044343907094992 -0.017213757501015323
4328000000.0 0.975954303141215 -0.04911470795822953
4331000000.0 0.9991096077187223 -0.07486290303314401
4334000000.0 1.0226997039940444 -0.053199314204407766
4338000000.0 1.0189266297043083 -0.06323604402816965
4341000000.0 1.0200035256442384 -0.07325949131713458
4344000000.0 1.0313273369081406 -0.08277141234511923
4347000000.0 1.0107852452120334 -0.11491757876143466
4350000000.0 0.9622251240621225 -0.1249312521679024
4353000000.0 0.9602873236980538 -0.09226019371088087
4356000000.0 0.9811854084433288 -0.1629139900304733
4359000000.0 0.9273567948622957 -0.09890127511117887
4362000000.0 0.9961325789298681 -0.19881020894871113
4366000000.0 1.006280925420076 -0.17468963854691422
4369000000.0 0.9606553717250145 -0.16130548389982335
4372000000.0 0.9626548913163862 -0.21038550343309215
4375000000.0 0.9868204939656642 -0.1682265238880256
4378000000.0 0.9522457797969283 -0.189829641003413
4381000000.0 0.9627898992955757 -0.18735352941681704
4384000000.0 1.0418424676750564 -0.2354294375154533
4388000000.0 0.9386389314489523 -0.21067658946226173
4391000000.0 0.9789439957971453 -0.22414235209925987
4394000000.0 0.950910449989584 -0.23072299804618032
4397000000.0 0.9674742796259577 -0.24818245790140014
4400000000.0 0.9935149507521226 -0.2575754020520715
4403000000.0 0.9741497983573468 -0.2510815317095884
4406000000.0 0.9755524202300566 -0.29989971888108746
4409000000.0 0.987535497971769 -0.2942128049599051
4412000000.0 0.9453152782441651 -0.3367175627255652
4416000000.0 0.9454724038877613 -0.2935873325011249
4419000000.0 0.954708993728539 -0.3265937162039835
4422000000.0 0.9519494628920759 -0.30278031616025575
4425000000.0 0.9824553112269041 -0.2914503333686225
4428000000.0 0.9431319536498808 -0.33491503848392695
4431000000.0 0.9655854803540309 -0.3395659761674031
4434000000.0 0.9374083657531489 -0.3475529887264762
4438000000.0 0.9545480934183215 -0.36121380590290364
4441000000.0 0.9541183010938494 -0.35856442428338897
4444000000.0 0.9252786467854108 -0.3613266292230416
4447000000.0 0.9196501244574149 -0.4057762036999998
4450000000.0 0.9298032606708287 -0.36076429237294694
4453000000.0 0.9460869889330271 -0.40645671768132907
4456000000.0 0.9072811384561533 -0.3996958870001842
4459000000.0 0.8742904430586815 -0.4058737868865937
4462000000.0 0.972131507295007 -0.4487128931738088
4466000000.0 0.9331739703338453 -0.46296138283293764
4469000000.0 0.9160163952158145 -0.41247076944130634
4472000000.0 0.9116466353478501 -0.4796171090991524
4475000000.0 0.8739699851050159 -0.4485201644325496
4478000000.0 0.92696847317754 -0.49472069960044274
4481000000.0 0.8605121413362427 -0.46933211705839123
4484000000.0 0.8612527394141747 -0.538423605602587
4488000000.0 0.8566297650507082 -0.5084675696199467
4491000000.0 0.868532786250832 -0.5127196120397258
4494000000.0 0.8552424862458643 -0.4809488749465643
4497000000.0 0.8710258514075881 -0.5097598802894922
4500000000.0 0.865340358081935 -0.5012421504549307
4503000000.0 0.8877663819497457 -0.5385712730241345
4506000000.0 0.8473777535634044 -0.5207935023608867
4509000000.0 0.8394954091317843 -0.5393789259145346
4512000000.0 0.8413666597899251 -0.5458619415968556
4516000000.0 0.8295854736309433 -0.5730386400612867
4519000000.0 0.8115522216953678 -0.5352837698612446
4522000000.0 0.8267394536668866 -0.5735173490342204
4525000000.0 0.8451738790589978 -0.5624001067420056
4528000000.0 0.8375737907868681 -0.6022454654206549
4531000000.0 0.8117649763943595 -0.585651860168132
4534000000.0 0.7830506122031498 -0.573562965286548
4538000000.0 0.7819937481856587 -0.6303056855245937
4541000000.0 0.761206302776744 -0.6545882672153851
4544000000.0 0.7765571326343483 -0.6307082655182042
4547000000.0 0.7949221569371258 -0.6218792424973492
4550000000.0 0.7728529008385578 -0.6658578473936339
4553000000.0 0.7533061000702614 -0.6648835779746837
4556000000.0 0.7533365347276648 -0.650479461475989
4559000000.0 0.762821449707735 -0.6815361366594297
4562000000.0 0.7592654466604123 -0.676873739281551
4566000000.0 0.7601205241404485 -0.6874355683342157
4569000000.0 0.7301647571180845 -0.687237141354287
4572000000.0 0.7200729994915932 -0.674087141278809
4575000000.0 0.7257347471926685 -0.7188416153272347
4578000000.0 0.7614966749579399 -0.6967045821191135
4581000000.0 0.7059098831422879 -0.7149876020557303
4584000000.0 0.6875384350456457 -0.7179096129111733
4588000000.0 0.706626640883109 -0.7485938321383939
4591000000.0 0.6943532014316701 -0.7185093927202219
4594000000.0 0.6635885532668072 -0.7392583394514984
4597000000.0 0.6860297810730904 -0.7488430204859753
4600000000.0 0.6508270957064428 -0.7498685069413299
4603000000.0 0.6692701288384493 -0.766996440004058
4606000000.0 0.6713088229365378 -0.7798802507797646
4609000000.0 0.6504484851475528 -0.7688097636507231
4612000000.0 0.6436515962472578 -0.7855394760265888
4616000000.0 0.6249643176190298 -0.7700158487415757
4619000000.0 0.6306403670002698 -0.7875383972735007
4622000000.0 0.6191219905660343 -0.7967195797310826
4625000000.0 0.5867795565462331 -0.8131277244976723
4628000000.0 0.629861373169779 -0.7852724931239785
4631000000.0 0.5868986916623795 -0.8108698763200832
4634000000.0 0.590140872556228 -0.8189136790499081
4638000000.0 0.5902458997674978 -0.8098460554760214
4641000000.0 0.5921229137064687 -0.8150716481701678
4644000000.0 0.575051013600135 -0.8313596902493732
4647000000.0 0.5725731733932412 -0.8377227665657039
4650000000.0 0.537698687513757 -0.8461645545013186
4653000000.0 0.5621862799224295 -0.8523905548309161
4656000000.0 0.539773526021154 -0.8409202195396015
4659000000.0 0.5265756772837912 -0.8656023321335925
4662000000.0 0.52744721041065 -0.8708296078049732
4666000000.0 0.5025917013580027 -0.8791795075653344
4669000000.0 0.5147092242367393 -0.8729754923056523
4672000000.0 0.48465384710294995 -0.90797518188669
4675000000.0 0.4634390515892397 -0.9105137474852979
4678000000.0 0.48739165895632586 -0.8653659135138817
4681000000.0 0.46661284105592005 -0.9036990975742067
4684000000.0 0.43872196551242215 -0.9298603046428041
4688000000.0 0.4286439773538932 -0.9143419576016966
4691000000.0 0.4715828810906282 -0.9248553175007246
4694000000.0 0.45604944192556274 -0.8950562422167243
4697000000.0 0.4085457986766551 -0.9008269783326817
4700000000.0 0.4305537745173454 -0.901278355623925
4703000000.0 0.4485291333472706 -0.8977336450785478
4706000000.0 0.39582261958301457 -0.9297074789449549
4709000000.0 0.39353492312126415 -0.9320480780951845
4712000000.0 0.4034392193057488 -0.9238421138961931
4716000000.0 0.38149304924305755 -0.9356693149873982
4719000000.0 0.42524122832675326 -0.9226870063703314
4722000000.0 0.4129647309325669 -0.9191281184189743
4725000000.0 0.3744302086813824 -0.9458580713697121
4728000000.0 0.333111356498365 -0.9628033959474793
4731000000.0 0.3488570614211765 -0.9744360034271147
4734000000.0 0.3534271687730236 -0.9210410050790542
4738000000.0 0.3761285311254752 -0.9921102663696886
4741000000.0 0.3041885159000506 -0.9924633358609897
4744000000.0 0.2899665127713136 -0.9603232413543303
4747000000.0 0.2770530951618135 -0.9216489808891198
4750000000.0 0.32452579913782226 -0.9976953476032985
4753000000.0 0.3373337978153923 -0.9952267091388574
4756000000.0 0.2722720928394 -0.9623806678843521
4759000000.0 0.28530314157971753 -0.9859780843461975
4762000000.0 0.23647162443282996 -1.000439639007667
4766000000.0 0.22390217902612033 -0.9756467817230854
4769000000.0 0.2500767964978195 -0.9827366868683683
4772000000.0 0.24318091575902656 -0.9869504103443084
4775000000.0 0.21978690395159278 -1.0525834095348088
4778000000.0 0.20677855328303468 -1.025803791136859
4781000000.0 0.21844038363431192 -0.9854465738104119
4784000000.0 0.22678232414065927 -0.9836704578409609
4788000000.0 0.18606130787612585 -1.030577597186817
4791000000.0 0.17932463735423865 -0.9767802481721851
4794000000.0 0.2127579682284802 -1.0491271881368447
4797000000.0 0.1510389824036421 -0.9962612674759691
4800000000.0 0.1506041200799994 -0.9804803711799757
4803000000.0 0.12079360963906069 -0.976900551000113
4806000000.0 0.13737009747132967 -1.020583045927497
4809000000.0 0.10689286222406441 -1.0131511024667381
4812000000.0 0.10391510448039114 -1.0062223935708792
4816000000.0 0.1526761114798012 -0.9764113771756355
4819000000.0 0.1414777451841846 -1.0215987915457492
4822000000.0 0.09420614131730688 -1.051189037425796
4825000000.0 0.11249342814194993 -1.0306728239898164
4828000000.0 0.07344709478414442 -1.0090288442443862
4831000000.0 0.03134821406607294 -1.0413703000166776
4834000000.0 0.07741331042400851 -1.0244796680131936
4838000000.0 0.03481461210232273 -1.030236899474274
4841000000.0 0.042747007923628816 -1.0001270152104915
4844000000.0 0.0820971391116423 -1.019124290552785
4847000000.0 0.07030531699645373 -0.993760457061156
4850000000.0 0.0028813236187276436 -1.057519792667023
4853000000.0 0.002324107257728955 -0.992577712989283
4856000000.0 0.017894608708111957 -1.0052151350975806
4859000000.0 -0.016542445954285383 -1.0726148535266522
4862000000.0 -0.007375499311843531 -0.9926552607812668
4866000000.0 -0.031421659409831194 -1.0312534421204917
4869000000.0 -0.06493964918193487 -1.0120318077497692
4872000000.0 -0.10266242791395298 -1.0566687274841413
4875000000.0 -0.015853656414292247 -1.064439290947529
4878000000.0 -0.05422032959205126 -1.0294288937876532
4881000000.0 -0.08525685839275347 -1.080944201279256
4884000000.0 -0.06452377365713304 -1.0175097695163635
4888000000.0 -0.047274293701176 -1.0244177157005432
4891000000.0 -0.06624634080848106 -1.0354797824440407
4894000000.0 -0.1166238141279562 -0.9979323750666386
4897000000.0 -0.07255090300213804 -1.0244800090908932
4900000000.0 -0.11314812528420908 -1.0130611998299763
4903000000.0 -0.11893166898104274 -1.048372432749203
4906000000.0 -0.1406417009829974 -1.030554206515716
4909000000.0 -0.15816719144807623 -1.0339062953302562
4912000000.0 -0.17497227482160205 -1.0169903265164155
4916000000.0 -0.16838293114504346 -1.0218059444160499
4919000000.0 -0.12797224053906553 -1.0356089874754015
4922000000.0 -0.16749069286209942 -1.0348855409414424
4925000000.0 -0.23643031930706068 -1.01290903824517
4928000000.0 -0.13157464678905484 -0.9944114731402606
4931000000.0 -0.16876584739384792 -1.012077180471047
4934000000.0 -0.2197826935398406 -0.9766879327645045
4938000000.0 -0.24264587740827503 -0.97713005210049
4941000000.0 -0.23621411140265947 -1.0021762862071302
4944000000.0 -0.19387015460731308 -0.9282489661545612
4947000000.0 -0.23914371493686162 -0.9948767173645514
4950000000.0 -0.26968739509587936 -0.9913887500306021
4953000000.0 -0.309422618056809 -1.0410752904120777
4956000000.0 -0.2743835528431799 -0.9955495142402137
4959000000.0 -0.2863146340221777 -0.9712419619020464
4962000000.0 -0.29160495963714306 -0.9808025011063887
4966000000.0 -0.3045387875045888 -1.004955005324261
4969000000.0 -0.2988220736624034 -1.0129421148290998
4972000000.0 -0.3105546416681202 -0.97640059968799
4975000000.0 -0.30302251997703855 -1.0154870456541456
4978000000.0 -0.34247662272299007 -0.9658974654047477
4981000000.0 -0.35681412748480146 -0.9590421635365585
4984000000.0 -0.34528573691301634 -0.9614464629020345
4988000000.0 -0.3480199152978308 -0.9611254881152255
4991000000.0 -0.3210701445635867 -1.0021679893487183
4994000000.0 -0.35154286864532547 -0.9757627850086928
4997000000.0 -0.41659833312548694 -0.9304681393836366
5000000000.0 -0.33998937540216256 -0.9933631722841956
5003000000.0 -0.36132625089335396 -0.9928510762438786
5006000000.0 -0.4171955149617581 -0.9947713630019814
5009000000.0 -0.40502522477352665 -0.9323443585328638
5012000000.0 -0.41553980698288323 -0.9346660101446096
5016000000.0 -0.4125779097345949 -1.0158289431615375
5019000000.0 -0.4664370690597681 -0.9030744967952066
5022000000.0 -0.4432858444015434 -0.934656381039294
5025000000.0 -0.4876795897754113 -1.0020840969263105
5028000000.0 -0.4717251909210617 -0.9285639660823424
5031000000.0 -0.4825914917904601 -0.9307439238479086
5034000000.0 -0.4884547279169955 -0.9162763580588933
5038000000.0 -0.47998652684251 -0.8809273863868495
5041000000.0 -0.47825824576601617 -0.9065737549690448
5044000000.0 -0.43913321150336104 -0.8841245369222482
5047000000.0 -0.4902741355525237 -0.9207052015038449
5050000000.0 -0.42940340142710987 -0.918841087001077
5053000000.0 -0.5113404912407844 -0.8931014162089483
5056000000.0 -0.48115589286893123 -0.884817987504154
5059000000.0 -0.5231095762926272 -0.936260165014524
5062000000.0 -0.5909534623091908 -0.9055878327822329
5066000000.0 -0.5472419107559974 -0.8910022139717202
5069000000.0 -0.5653640499614282 -0.8739771877269961
5072000000.0 -0.5459553788011812 -0.8665899488256166
5075000000.0 -0.5629111695210395 -0.8531925420403643
5078000000.0 -0.5836379759432369 -0.8502294723893844
5081000000.0 -0.5871020983730391 -0.8191895781728197
5084000000.0 -0.5714691533240533 -0.8620207260152875
5088000000.0 -0.5823574747060519 -0.8226860033824746
5091000000.0 -0.6617397538213521 -0.8441160805484729
5094000000.0 -0.6085509286923666 -0.8401514438505903
5097000000.0 -0.5652914743651973 -0.8086858142387574
5100000000.0 -0.5866591180888887 -0.8326172247241027
5103000000.0 -0.6827810362269605 -0.8028132309139657
5106000000.0 -0.6660521233547831 -0.8191133112848007
5109000000.0 -0.6052772426788222 -0.8286078754765523
5112000000.0 -0.6485706439093756 -0.8314679822014805
5116000000.0 -0.6598365000681488 -0.7425922338018285
5119000000.0 -0.6863764756569735 -0.7912258531208336
5122000000.0 -0.6616154131099806 -0.7650029875764603
5125000000.0 -0.6523765606332648 -0.7713594563116862
5128000000.0 -0.7062737225127712 -0.7624855616946766
5131000000.0 -0.6657014627014817 -0.7734500965345558
5134000000.0 -0.6410716544166412 -0.7582172730335107
5138000000.0 -0.7186687324658132 -0.7326269327346999
5141000000.0 -0.6938729618532196 -0.7884111110307663
5144000000.0 -0.6764263194223081 -0.7366921238737367
5147000000.0 -0.7511975057056248 -0.7500661923315137
5150000000.0 -0.714303314472055 -0.7336352891503318
5153000000.0 -0.7176836206534929 -0.7676811924487689
5156000000.0 -0.7630516281634863 -0.7321923396342801
5159000000.0 -0.7323014668390488 -0.7613146166482962
5162000000.0 -0.710168150300712 -0.6533957147314648
5166000000.0 -0.7703985159942619 -0.7413864333949911
5169000000.0 -0.7705036193185694 -0.7267892011080346
5172000000.0 -0.7814288376608283 -0.7187599770555284
5175000000.0 -0.7870912287597358 -0.7444399767157519
5178000000.0 -0.8018241169188112 -0.6632200183058038
5181000000.0 -0.8321758909011254 -0.678067753918447
5184000000.0 -0.779114798404253 -0.6508679583245771
5188000000.0 -0.8182928581864174 -0.682952342914636
