! Created with skrf 1.8.0 (http://scikit-rf.org).
# Hz S RI R 50.0 
!freq ReS11 ImS11
4000000000.0 0.5347087896271056 0.8086057591002087
4003000000.0 0.6685490679507714 0.8817356404919628
4006000000.0 0.6799537074110339 0.7579188057562647
4009000000.0 0.6754822779739345 0.7692453653707679
4012000000.0 0.5933766984583911 0.797154392596519
4016000000.0 0.6885536809003182 0.7836913901357863
4019000000.0 0.6774193618499436 0.7881842418985752
4022000000.0 0.6296438449735182 0.8205595057868698
4025000000.0 0.7534031347354687 0.7571419760700068
4028000000.0 0.7202606089056377 0.7424735719623246
4031000000.0 0.6519830444863692 0.7082204684535567
4034000000.0 0.7051656638129312 0.7328628077374734
4038000000.0 0.7455844542037267 0.7138303202940242
4041000000.0 0.712034988930613 0.7500694121818956
4044000000.0 0.7758055095843391 0.7254161087567196
4047000000.0 0.7272852271034063 0.7883913214532161
4050000000.0 0.7616842858905231 0.7322687114724361
4053000000.0 0.7692059173014698 0.6672326501449359
4056000000.0 0.7332278918194501 0.7374989997893976
4059000000.0 0.7458683406913924 0.6922630306333588
4062000000.0 0.8078886024366331 0.6877001234659226
4066000000.0 0.7563195809139331 0.6395989379366583
4069000000.0 0.8281532971469844 0.6682136456564204
4072000000.0 0.7563839984929468 0.7017000436203473
4075000000.0 0.7946623744389933 0.7230321212138133
4078000000.0 0.8037598325018491 0.6767747553723307
4081000000.0 0.7437577629608148 0.7160752890077827
4084000000.0 0.833514350477637 0.66012748431391
4088000000.0 0.7717950982372593 0.6819515761697301
4091000000.0 0.8788947681816268 0.6800934800132594
4094000000.0 0.8100253131889362 0.6574414423042201
4097000000.0 0.8314140381136277 0.6165651463504971
4100000000.0 0.8189076530841826 0.590856301004582
4103000000.0 0.7975171923013469 0.6276627255228551
4106000000.0 0.8214079996059979 0.5801543805827947
4109000000.0 0.8638803416291134 0.6127800303893338
4112000000.0 0.8530391374079167 0.573548457040713
4116000000.0 0.8311429484186806 0.6044987913787258
4119000000.0 0.8609512712609984 0.5767925697771723
4122000000.0 0.8792829710390032 0.5234092667946528
4125000000.0 0.8720345079759086 0.5614228020349796
4128000000.0 0.8150699151485473 0.5576877548203276
4131000000.0 0.8098540715076367 0.5732750861218655
4134000000.0 0.8508301365314361 0.5183570408674326
4138000000.0 0.880138584520678 0.49483045515370455
4141000000.0 0.8584004097228781 0.5071523815277778
4144000000.0 0.8605700007395524 0.549849625772046
4147000000.0 0.9019566446486118 0.45676309931097353
4150000000.0 0.9631431685075272 0.5050776340714171
4153000000.0 0.8863838943719813 0.48147868842708286
4156000000.0 0.9257027226012688 0.5224674494937956
4159000000.0 0.8732427064872383 0.47618236937917763
4162000000.0 0.8813408227914374 0.4743024567241918
4166000000.0 0.9181013642661713 0.45962758679420135
4169000000.0 0.9154230191549361 0.4327895940945945
4172000000.0 0.9097834250462825 0.4515345884716941
4175000000.0 0.9417348298003033 0.4593317720053082
4178000000.0 0.9367893438702096 0.42851586022044286
4181000000.0 0.9230714163080294 0.4036019435492437
4184000000.0 0.9064305952444474 0.4225633962973971
4188000000.0 0.9242591523797872 0.40550370793973867
4191000000.0 0.9318972115681696 0.4428016430211999
4194000000.0 0.9317754470899213 0.38047589037591556
4197000000.0 0.9688247380766472 0.3892586919088022
4200000000.0 0.9133142627513018 0.4014530829538754
4203000000.0 0.9604505468839403 0.38236302977259873
4206000000.0 0.9555912116574928 0.3737291284880316
4209000000.0 0.9302730289232033 0.36583253995077963
4212000000.0 0.9721744051211108 0.31706073924726286
4216000000.0 0.9528412590223693 0.36806128651268316
4219000000.0 0.9770512985008036 0.3385986200492769
4222000000.0 0.9890344057319262 0.3164126986572104
4225000000.0 0.9614788192679051 0.30735389271567304
4228000000.0 0.9851738474447418 0.32532228342169767
4231000000.0 0.9768507597634046 0.3128502549288461
4234000000.0 0.987662242486637 0.28545541613160463
4238000000.0 0.9845267730937642 0.27207016171737175
4241000000.0 0.9812189928011332 0.2526679591461226
4244000000.0 0.9780611754548875 0.27231775284960197
4247000000.0 0.9766939265490316 0.2815927712707955
4250000000.0 0.9736113414771042 0.23004804412812058
4253000000.0 0.9683061368852135 0.22631534224991617
4256000000.0 1.0215783611504037 0.2337203641003468
4259000000.0 0.9619703694816948 0.2179310174411063
4262000000.0 0.9913328328265516 0.21664411408221015
4266000000.0 1.0029126939591009 0.17380386425455718
4269000000.0 0.9947967914494136 0.22723620662139885
4272000000.0 0.9812280278445107 0.19440594882618673
4275000000.0 1.014772035617968 0.17584930074571536
4278000000.0 1.0387591827817788 0.17034541339508513
4281000000.0 1.022893903242571 0.1775107132761335
4284000000.0 1.0121246320970672 0.1275795643736293
4288000000.0 0.9987103031108197 0.18111256148229996
4291000000.0 0.9941996966693964 0.1454773448322665
4294000000.0 1.0128376794648273 0.11173447490198161
4297000000.0 1.0043905815423873 0.1467058916086446
4300000000.0 0.9848664529182627 0.1308809529926364
4303000000.0 1.0146929067704247 0.10244353683874467
4306000000.0 0.9880624930298441 0.11171179996099842
4309000000.0 0.9790636874173514 0.09778565258910783
4312000000.0 1.0300809116600647 0.13560650276991634
4316000000.0 1.0218949232467023 0.05957652967155415
4319000000.0 0.9890981266265947 0.062238642217390575
4322000000.0 1.0002591192324237 0.061876139661590154
4325000000.0 1.0129051279133992 0.07603622920472565
4328000000.0 0.973730345487723 0.05816020733904541
4331000000.0 1.0091439507405973 0.01186199111023431
4334000000.0 1.0039102463147738 0.04945550557572673
4338000000.0 1.0044021552758773 0.03604319315263764
4341000000.0 0.9964044792177087 0.04597062581957373
4344000000.0 1.0172561446813608 0.007278320721083337
4347000000.0 1.016869265669467 -0.0269559999416297
4350000000.0 0.9755695957129191 -0.03422788887918703
4353000000.0 0.9974242011763033 -0.0010089277745735925
4356000000.0 1.0135574212849543 -0.049067999232399656
4359000000.0 0.9614014483414054 -0.05086842116603943
4362000000.0 0.998847776967672 -0.09119785453189355
4366000000.0 1.0199922224299434 -0.07104058432463593
4369000000.0 0.958525792762651 -0.0641293871484154
4372000000.0 1.0000582133004399 -0.12070181537118141
4375000000.0 0.9904854717851415 -0.06730723532339286
4378000000.0 0.982570869305051 -0.11656334027942589
4381000000.0 0.9973802603807818 -0.08755169957546165
4384000000.0 1.0601076190613654 -0.13233344281920872
4388000000.0 0.9846752358513454 -0.11294637630446808
4391000000.0 1.0072903972291432 -0.1171504768031155
4394000000.0 0.9657124421379547 -0.13276544135472118
4397000000.0 0.9755832324273437 -0.14771729985774448
4400000000.0 1.0225693283196151 -0.16431540250598073
4403000000.0 1.008815864149224 -0.1675310746212353
4406000000.0 0.9772422604022264 -0.20997038212108018
4409000000.0 1.0270107584654018 -0.19781834807599308
4412000000.0 0.9805426671690664 -0.24601786784389404
4416000000.0 0.9741841519613381 -0.21211909092497674
4419000000.0 0.9844377096443413 -0.242351694323319
4422000000.0 0.9754955913265526 -0.19989910626036353
4425000000.0 1.002428410521446 -0.20541545053990826
4428000000.0 0.9688385066216235 -0.24948248613865343
4431000000.0 1.0019316104172165 -0.24438911477823672
4434000000.0 0.9687558314261127 -0.2636708605654576
4438000000.0 1.0024118795175403 -0.2711126091712304
4441000000.0 0.9836324058217594 -0.27195667962042386
4444000000.0 0.9531242266709905 -0.2662867883096733
4447000000.0 0.9505917525640789 -0.3026851066635653
4450000000.0 0.9500274210058779 -0.27929405054575335
4453000000.0 0.9892950127039245 -0.31626653686074707
4456000000.0 0.925333464682072 -0.3162334004852132
4459000000.0 0.9069784242545529 -0.33272340901687264
4462000000.0 1.0103755093577496 -0.3570079271694909
4466000000.0 0.9872794594036074 -0.36711338726388193
4469000000.0 0.960129737712795 -0.3399314400612069
4472000000.0 0.9659566572736541 -0.3841986494793153
4475000000.0 0.9303837814248286 -0.35492659585262437
4478000000.0 0.984497336523508 -0.40262482625139484
4481000000.0 0.9087016421504848 -0.36613903879712245
4484000000.0 0.9100080150295482 -0.41584709566876976
4488000000.0 0.9015891942538088 -0.39526558062075473
4491000000.0 0.9206659907173392 -0.4077191105233668
4494000000.0 0.9141625977894129 -0.39306702556042217
4497000000.0 0.9060457607593393 -0.40353711952045984
4500000000.0 0.9015816596940152 -0.41160031686526216
4503000000.0 0.9292353830028928 -0.44865048717198136
4506000000.0 0.8981533012157166 -0.4619507020628841
4509000000.0 0.8786185853289281 -0.42798219956656114
4512000000.0 0.8904415330515777 -0.46676698224705193
4516000000.0 0.8916005282671545 -0.4667040828662017
4519000000.0 0.885831881266802 -0.4642096284029462
4522000000.0 0.8662705452244082 -0.49430543853942777
4525000000.0 0.8797276485099481 -0.45786659013538394
4528000000.0 0.8903016870455682 -0.5058060423145734
4531000000.0 0.8775613890055352 -0.4861537075511936
4534000000.0 0.8648429561395553 -0.4999288837480361
4538000000.0 0.8619847588452023 -0.5135438515304204
4541000000.0 0.8451837836948469 -0.5609351820805095
4544000000.0 0.816694541414783 -0.5243863160666229
4547000000.0 0.8493971875815441 -0.5150113088755317
4550000000.0 0.8416833731929758 -0.5771722721589795
4553000000.0 0.8289169414557145 -0.5508667180557761
4556000000.0 0.8127091257304884 -0.578897600311789
4559000000.0 0.8238526877371196 -0.5748103016650155
4562000000.0 0.835101395039507 -0.5809515651271314
4566000000.0 0.8230039601984667 -0.5916954758014146
4569000000.0 0.7860200758496899 -0.6031591614051495
4572000000.0 0.8054604252936649 -0.6092807847087025
4575000000.0 0.8028852891409686 -0.6295580408570609
4578000000.0 0.8237331518295314 -0.6173099310449184
4581000000.0 0.7675352811723805 -0.6385304699126028
4584000000.0 0.7636970552761055 -0.6298961466728956
4588000000.0 0.808109998315997 -0.6394855144010695
4591000000.0 0.7791018149069907 -0.6359723425536247
4594000000.0 0.7342770186998394 -0.6554764925823156
4597000000.0 0.7692951604930767 -0.6622153354330643
4600000000.0 0.7129402917561719 -0.6688939468119818
4603000000.0 0.7559569278117947 -0.680627226113832
4606000000.0 0.7499068239174919 -0.6771951041520751
4609000000.0 0.742318120888651 -0.6867953787417129
4612000000.0 0.7423924958856665 -0.7063022789650517
4616000000.0 0.7046559044920704 -0.6893547128212059
4619000000.0 0.7146148169255843 -0.7133984229486815
4622000000.0 0.7046018551652157 -0.7097828710743688
4625000000.0 0.6659681562082982 -0.6989502913906521
4628000000.0 0.700591633987636 -0.7072699281720605
4631000000.0 0.6780802485597814 -0.7435539655510572
4634000000.0 0.6668691080408568 -0.7350059441454126
4638000000.0 0.693183463464788 -0.7392162602460636
4641000000.0 0.6926535542345871 -0.7524415175539643
4644000000.0 0.6773391834670178 -0.7666467862453917
4647000000.0 0.6787910338668514 -0.7557690254844714
4650000000.0 0.6472476739884765 -0.7629325517060136
4653000000.0 0.6511055574485122 -0.7822659849158697
4656000000.0 0.6296200181737786 -0.7773493829215288
4659000000.0 0.6212019176008261 -0.7868948800356707
4662000000.0 0.6321023705437974 -0.8128799284371901
4666000000.0 0.6079615314729291 -0.812575835255941
4669000000.0 0.6271681908423223 -0.8163719166324073
4672000000.0 0.5918579745825739 -0.8192724594384546
4675000000.0 0.5773461991471139 -0.8130437760001286
4678000000.0 0.5880220756951489 -0.805169357656416
4681000000.0 0.5635709301616436 -0.852584879133222
4684000000.0 0.5506566389585625 -0.8478033092423958
4688000000.0 0.5500740906777888 -0.8230748129623016
4691000000.0 0.578793668504897 -0.8332193226080993
4694000000.0 0.5590038746169737 -0.8424452087574337
4697000000.0 0.5153583092367617 -0.8408824874086149
4700000000.0 0.5449870853921022 -0.8466564812025961
4703000000.0 0.5551144600090248 -0.8267100292756202
4706000000.0 0.5182307412977787 -0.9038294937349048
4709000000.0 0.491006278425019 -0.8552097745088038
4712000000.0 0.5150974341789407 -0.8653997193607995
4716000000.0 0.5032097033458985 -0.8878749245846209
4719000000.0 0.5181737809150636 -0.8655958166573311
4722000000.0 0.5221624335487349 -0.8864100568026019
4725000000.0 0.4870107898735128 -0.8687440663022563
4728000000.0 0.46585575355546716 -0.8868776526697599
4731000000.0 0.488126563261292 -0.9335590837264109
4734000000.0 0.47603082014828185 -0.896780595229746
4738000000.0 0.5065915339436731 -0.9388910483968786
4741000000.0 0.46293018305757105 -0.9442366214343911
4744000000.0 0.43652042006831526 -0.9307088496649387
4747000000.0 0.4403083750201968 -0.9084099225063501
4750000000.0 0.40622203945699137 -0.9391201519795955
4753000000.0 0.4345966741157677 -0.9315257470783522
4756000000.0 0.4114940502435909 -0.9411517685861108
4759000000.0 0.4111031941456823 -0.9395322266513403
4762000000.0 0.3833300204594437 -0.9722035215066979
4766000000.0 0.3907253090338737 -0.9569426552638601
4769000000.0 0.38100821185474426 -0.92372418159479
4772000000.0 0.3552649786861997 -0.9707069993855978
4775000000.0 0.35856564972461286 -1.0106085664777
4778000000.0 0.3690591620160453 -0.9529993297007401
4781000000.0 0.35958898048486 -0.9235040610967535
4784000000.0 0.3318431031176464 -0.9410574715584127
4788000000.0 0.31536691872023304 -0.9871887105762527
4791000000.0 0.2985190353138209 -0.9730738486778233
4794000000.0 0.36378514749572805 -0.9997255518602781
4797000000.0 0.2861519333881955 -0.9734119316679016
4800000000.0 0.29420368788734846 -0.9604840361371365
4803000000.0 0.2510411505873118 -0.9734446973978261
4806000000.0 0.27037083864111433 -0.99170183176771
4809000000.0 0.22927512360524568 -0.9856873581760498
4812000000.0 0.22342822311819022 -0.9860608596811127
4816000000.0 0.2934723925736771 -0.9535698851663212
4819000000.0 0.2689194963751234 -0.9947895037903531
4822000000.0 0.2565405596206639 -1.0342387489128304
4825000000.0 0.25184103846155065 -1.0221656250151316
4828000000.0 0.21403876753788637 -0.989783704722928
4831000000.0 0.1730191732923411 -1.0204779592942548
4834000000.0 0.21453624273623745 -0.996584871589014
4838000000.0 0.17803409266506465 -1.0146708506037108
4841000000.0 0.18925458078979335 -1.003373606801111
4844000000.0 0.20047832095763463 -1.0067030534395969
4847000000.0 0.1949471754595829 -0.9606275067490264
4850000000.0 0.14002951576442257 -1.0354443447302655
4853000000.0 0.15597215087424482 -0.9918344595427742
4856000000.0 0.14142490819472525 -1.0078313462575588
4859000000.0 0.12667391886059823 -1.0420230336240488
4862000000.0 0.160278909333226 -0.9887877792730401
4866000000.0 0.13117292969924135 -1.0136849769914726
4869000000.0 0.11156387680749966 -1.021708259456423
4872000000.0 0.0792522766848359 -1.0467802381880258
4875000000.0 0.14380917739415439 -1.0603455214323065
4878000000.0 0.09448513472542777 -1.0216957954166979
4881000000.0 0.055946986405831935 -1.0897000449622494
4884000000.0 0.09116505024875447 -1.017931201534611
4888000000.0 0.10321707549927414 -1.0172869724767954
4891000000.0 0.07795924830806777 -1.025524417364954
4894000000.0 0.020798868015438753 -1.024881740519029
4897000000.0 0.06573914141341586 -1.0128621615246054
4900000000.0 0.03207444767010396 -1.0347009339633788
4903000000.0 0.057054847690644214 -1.0499103888580494
4906000000.0 0.012183766407804076 -1.071497582674028
4909000000.0 -0.029958885593099185 -1.0370084422288117
4912000000.0 -0.0335306034691554 -1.0638164320057029
4916000000.0 0.009769784227254198 -1.0481150163265036
4919000000.0 0.015928949389349835 -1.0446419938289888
4922000000.0 -0.0010125651184620804 -1.0548847690854959
4925000000.0 -0.10299773686277586 -1.009085375745142
4928000000.0 -0.0027809481072415265 -1.0078983252648617
4931000000.0 -0.009480082124650263 -1.033317209378081
4934000000.0 -0.0703042867050702 -0.9700188077894086
4938000000.0 -0.11787443613425809 -0.9969395680478148
4941000000.0 -0.06193364022036034 -1.0314597934026786
4944000000.0 -0.08031469029616758 -0.9667890682916069
4947000000.0 -0.06181248011151208 -0.9987203882762443
4950000000.0 -0.08687739223276068 -1.0178710963722213
4953000000.0 -0.18943879308721784 -1.0491296021472216
4956000000.0 -0.11436561413193347 -1.0272143297545717
4959000000.0 -0.15077597290799413 -0.984943529181005
4962000000.0 -0.1658242277791536 -1.0151142551595844
4966000000.0 -0.1560412728883414 -1.0213477406711184
4969000000.0 -0.11360419978992153 -1.0408939659414338
4972000000.0 -0.15987296590012504 -1.0054812900707648
4975000000.0 -0.16201083237907646 -0.9954351362262517
4978000000.0 -0.21084872742459554 -0.9844661823182923
4981000000.0 -0.21649889393955582 -1.028082279638824
4984000000.0 -0.1948050969465067 -0.998930504127816
4988000000.0 -0.17697847999988453 -0.989129152923932
4991000000.0 -0.1652800150483082 -1.0478123965236823
4994000000.0 -0.18254292484818718 -1.0119880522437432
4997000000.0 -0.25103405221247804 -0.9784975926978429
5000000000.0 -0.20783483799088825 -1.034399494972338
5003000000.0 -0.23589256108251105 -1.0332362616347226
5006000000.0 -0.24765566597319824 -1.056448441650075
5009000000.0 -0.2609462878702862 -0.9930247809102811
5012000000.0 -0.25871137699660857 -0.993042336606285
5016000000.0 -0.24361482171670568 -1.057824815556138
5019000000.0 -0.2915086259712978 -1.0020609058687564
5022000000.0 -0.2748520046920496 -0.9771974588250834
5025000000.0 -0.31468072977665923 -1.0637813559195577
5028000000.0 -0.3416939152196976 -0.987558852529345
5031000000.0 -0.32353583329966984 -0.9627911691156289
5034000000.0 -0.3807474181886399 -1.0303778779876918
5038000000.0 -0.3144028705855906 -0.941603137945044
5041000000.0 -0.2855927389606179 -0.9780537656207359
5044000000.0 -0.2885235816858799 -0.9493174907548331
5047000000.0 -0.30759839179402143 -1.0142493762329234
5050000000.0 -0.28861180050262647 -0.945652405794974
5053000000.0 -0.37649717571972985 -1.0015447995727211
5056000000.0 -0.3506934961768726 -0.9994398181924495
5059000000.0 -0.3296242106908119 -0.9951208755689208
5062000000.0 -0.42642163676076006 -0.9701757412257885
5066000000.0 -0.35976936884957467 -0.9694550338003574
5069000000.0 -0.3952844384411791 -0.9700327512006864
5072000000.0 -0.4009680528688864 -0.9256827447395577
5075000000.0 -0.3932829396777514 -0.966936242753651
5078000000.0 -0.4811827520766118 -0.9130291606850949
5081000000.0 -0.43837198200467326 -0.9225876185906127
5084000000.0 -0.4658669829205412 -0.9818601653536934
5088000000.0 -0.418952698020918 -0.9292326386727419
5091000000.0 -0.4570768552289806 -0.9104052871215449
5094000000.0 -0.4834663082454806 -0.9258752234026012
5097000000.0 -0.47275992468526185 -0.9304182728914481
5100000000.0 -0.47332545974123147 -0.8960840769591251
5103000000.0 -0.5011084358993559 -0.8811673915691757
5106000000.0 -0.48207848237080136 -0.9628872626035359
5109000000.0 -0.38979804244533145 -0.9564915408419401
5112000000.0 -0.5034910688761235 -0.8875443054060228
5116000000.0 -0.5172023144120794 -0.8494183913783524
5119000000.0 -0.5396731553042805 -0.892397379585472
5122000000.0 -0.5266996873725657 -0.8582952906887511
5125000000.0 -0.47220342722556374 -0.8969249414662988
5128000000.0 -0.510638178306209 -0.9118867086882276
5131000000.0 -0.5324653883483108 -0.8979718487405924
5134000000.0 -0.5279194349663655 -0.9006688613068173
5138000000.0 -0.5549916547886489 -0.8979532443112123
5141000000.0 -0.5262244924254895 -0.9018373148943968
5144000000.0 -0.5310547906542986 -0.9067474492118778
5147000000.0 -0.5650554024242708 -0.903461243331039
5150000000.0 -0.5609991117234028 -0.9099480671224802
5153000000.0 -0.5775426568103075 -0.8558799068829164
5156000000.0 -0.5837251022429085 -0.8492393232522794
5159000000.0 -0.6047713328081018 -0.8879932369759869
5162000000.0 -0.5992565360528055 -0.7963834455437193
5166000000.0 -0.6312683896098343 -0.8544170023651746
5169000000.0 -0.615363262198111 -0.829935199729105
5172000000.0 -0.6065911848667587 -0.8211817154923768
5175000000.0 -0.630375494054016 -0.8555676152202356
5178000000.0 -0.6515417774962968 -0.8372591399587772
5181000000.0 -0.6623745386770982 -0.8481154351385923
5184000000.0 -0.6468494916953984 -0.7895300038920107
5188000000.0 -0.6067589402368078 -0.8010480125993381
