! Created with skrf 1.8.0 (http://scikit-rf.org).
# Hz S RI R 50.0 
!freq ReS11 ImS11
4000000000.0 0.6259398697497713 0.7052350546600141
4003000000.0 0.7206618536498072 0.8146756822128829
4006000000.0 0.7255237289513582 0.738435550669398
4009000000.0 0.6682294168162816 0.7732559497647401
4012000000.0 0.6711419215987069 0.804426587358013
4016000000.0 0.7034198076401809 0.6927418337058626
4019000000.0 0.7106526297425662 0.7474246652745818
4022000000.0 0.6388940526417816 0.7587446714768123
4025000000.0 0.7429771066161238 0.6936949706639582
4028000000.0 0.73619093631358 0.7209101887719345
4031000000.0 0.7093040367473914 0.6977427866681414
4034000000.0 0.731461592384584 0.7111023647483564
4038000000.0 0.7696627524017278 0.6768174876173514
4041000000.0 0.7658486142230673 0.694168875104368
4044000000.0 0.8220116750812717 0.7413282125042692
4047000000.0 0.7570914574722879 0.7361004315073474
4050000000.0 0.7980780131496281 0.7139919514422104
4053000000.0 0.7883817225465306 0.6500622983751376
4056000000.0 0.7732888756280631 0.6806286451349944
4059000000.0 0.7612714205619631 0.6830121550688373
4062000000.0 0.8010851255508664 0.6674614783886712
4066000000.0 0.761163962372881 0.5828342293771515
4069000000.0 0.8285141120118305 0.6224877940184148
4072000000.0 0.7785794241043127 0.6459814264793804
4075000000.0 0.8050739682568183 0.645090654777555
4078000000.0 0.8352601661120103 0.6444170938332275
4081000000.0 0.8272284388806748 0.6873567000877165
4084000000.0 0.8496210034657183 0.5528536687591918
4088000000.0 0.7752195508076776 0.6117858331157547
4091000000.0 0.8814762559547152 0.6111558974786646
4094000000.0 0.8427943922769133 0.5764135924778981
4097000000.0 0.8797468100465253 0.5841479497350237
4100000000.0 0.856032809501648 0.5932145460287757
4103000000.0 0.8608461019411742 0.5630966186320152
4106000000.0 0.8435416690392572 0.5727594239355165
4109000000.0 0.8981168038998619 0.543541180539244
4112000000.0 0.8603846382435414 0.5553268592663383
4116000000.0 0.8860806338122922 0.5369519904617008
4119000000.0 0.8944266915220017 0.5457541296686534
4122000000.0 0.91237686278578 0.5018336706383275
4125000000.0 0.9130645222249026 0.48926901346493185
4128000000.0 0.8831219267880116 0.5258693398915472
4131000000.0 0.892468583067569 0.44748333750529035
4134000000.0 0.8823996020161551 0.5122529160989251
4138000000.0 0.9006422318806626 0.4659916800981902
4141000000.0 0.8985602699314041 0.49098609183687636
4144000000.0 0.90835796572773 0.48033221710020196
4147000000.0 0.9348432953703388 0.4544382712885951
4150000000.0 0.9474053146768865 0.44146316499195254
4153000000.0 0.920698072527224 0.4300505694099107
4156000000.0 0.9290949171213816 0.4605010675727823
4159000000.0 0.9126027035190802 0.42296808760183185
4162000000.0 0.9370078755378586 0.420417618973573
4166000000.0 0.950474823808857 0.4176159378865917
4169000000.0 0.9234933272153676 0.38073125289469356
4172000000.0 0.9291650829939009 0.4119485395187567
4175000000.0 0.9447931836614908 0.4148734526515398
4178000000.0 0.9376564640735593 0.40513114852295895
4181000000.0 0.9631337364011527 0.3992444406095207
4184000000.0 0.9300140329355399 0.369185287691503
4188000000.0 0.9521306813519308 0.3723883361820741
4191000000.0 0.928745391576727 0.37016467075902665
4194000000.0 0.9342834010674622 0.3332059135056752
4197000000.0 0.9571524021666613 0.332799203382288
4200000000.0 0.9696955051970486 0.34702291030189414
4203000000.0 0.9483818893729627 0.3234806215613012
4206000000.0 0.9890853951170858 0.31574658257629656
4209000000.0 0.9508163309660963 0.3005820816364319
4212000000.0 0.9778421010026184 0.2838706883895753
4216000000.0 0.9719753179375555 0.2871895112590314
4219000000.0 1.0018386428238475 0.2885801410024027
4222000000.0 0.9943812363469069 0.2651747190384463
4225000000.0 0.982615723075924 0.26677422807496365
4228000000.0 0.9889786915631753 0.2635654171681635
4231000000.0 0.9904733270305919 0.24468822567261445
4234000000.0 1.0032816145761956 0.24916595687351445
4238000000.0 0.9899870349256661 0.22568293923143792
4241000000.0 1.0022717903249834 0.20130524084026824
4244000000.0 0.9825602186340879 0.20348149481398442
4247000000.0 1.003105706682204 0.21867626251818217
4250000000.0 0.9681438835349672 0.1843533334931578
4253000000.0 0.9800936326404579 0.17435876738361006
4256000000.0 1.0239688298234495 0.17635972775984482
4259000000.0 0.9815277983633276 0.1636777064927921
4262000000.0 0.9833421736365151 0.1117607983456588
4266000000.0 1.0171785425086637 0.11406887735304991
4269000000.0 1.0070256638320292 0.1553876478526927
4272000000.0 0.9947336830867977 0.1119592716976266
4275000000.0 1.0045259039968968 0.14135564756002233
4278000000.0 1.0063428640310572 0.11577852959411225
4281000000.0 1.0079953823921841 0.08591407363282925
4284000000.0 1.0172596181399274 0.07438011861846891
4288000000.0 1.012244414267816 0.12068303007615061
4291000000.0 0.9860103762154492 0.07579233775447537
4294000000.0 1.0059501175149217 0.06657090524042235
4297000000.0 0.9970272122318108 0.10498644297935618
4300000000.0 0.9869774330711116 0.04824981006802311
4303000000.0 1.0075477146633536 0.005727186228570949
4306000000.0 1.019090961543971 0.07318395163177435
4309000000.0 0.9982811921893809 0.03070662180928964
4312000000.0 1.0063560106980434 0.061921132862515715
4316000000.0 1.0151371765336799 0.030381274392773952
4319000000.0 1.0041889775006367 0.007204626941393455
4322000000.0 0.9759522242243472 -0.028945772108587647
4325000000.0 1.0086816890242505 -0.0014417696588420736
4328000000.0 0.9971382652566239 -0.012724868541492795
4331000000.0 1.0096805896871526 -0.05059183361778598
4334000000.0 1.0221625016412261 -0.04028237190800994
4338000000.0 0.9988626160400618 -0.009054325275683506
4341000000.0 1.0047524667031362 -0.026602221822866423
4344000000.0 1.0435428620164038 -0.03450315233095688
4347000000.0 1.021905261434044 -0.08807407398628016
4350000000.0 0.9597900598046987 -0.07606743096470464
4353000000.0 0.9796295257375653 -0.08300147955210975
4356000000.0 0.9777915982454897 -0.12605208758258513
4359000000.0 0.9619885181375487 -0.09976561041080612
4362000000.0 1.0032800176648276 -0.14461816206166395
4366000000.0 1.0003666462093541 -0.14264811772762498
4369000000.0 0.9529540551578364 -0.13886344641621978
4372000000.0 0.9838830033356563 -0.1648503926382479
4375000000.0 0.986279000125371 -0.13097297145685088
4378000000.0 0.9736578984265115 -0.15345265919529225
4381000000.0 0.9832681181073217 -0.14684299892855152
4384000000.0 1.0350044367008093 -0.2029170057313786
4388000000.0 0.9797018994921837 -0.1767362967093809
4391000000.0 0.9966891533526052 -0.186625634715537
4394000000.0 0.9611750670268503 -0.1811992799187069
4397000000.0 0.9848799743484584 -0.21004969956986844
4400000000.0 1.023039966218668 -0.2180884741657387
4403000000.0 0.9983483690071532 -0.2315259863638499
4406000000.0 0.9842210497469153 -0.2602948038725088
4409000000.0 0.9942345360215459 -0.2636914428953347
4412000000.0 0.9630612097039987 -0.31396881872921206
4416000000.0 0.9583892800380747 -0.27691262349559254
4419000000.0 0.9676881176811848 -0.29219060395205293
4422000000.0 0.9661012530037196 -0.27779490624116865
4425000000.0 0.9770456096268006 -0.27849944452742725
4428000000.0 0.9575273666987819 -0.3125825914380719
4431000000.0 0.9820709661103677 -0.2996498664208768
4434000000.0 0.9306993719655514 -0.3164527083290646
4438000000.0 0.9783522911333735 -0.3226730575003235
4441000000.0 0.9595986961374705 -0.3396018998278644
4444000000.0 0.9289880079420259 -0.33709025240346563
4447000000.0 0.9329578037626742 -0.3730221320699708
4450000000.0 0.94129104668178 -0.34527941026384457
4453000000.0 0.9567952175758457 -0.37300645307200153
4456000000.0 0.9132360814447877 -0.38991244035192574
4459000000.0 0.8927235686029218 -0.37255210362268193
4462000000.0 0.9835759149337635 -0.41758066642471403
4466000000.0 0.9524986821431703 -0.4330226003210108
4469000000.0 0.9382882344197042 -0.39494886179363237
4472000000.0 0.9210179043018366 -0.4466987131056952
4475000000.0 0.8691786733654642 -0.3972871936532927
4478000000.0 0.920260066101667 -0.4625429401915798
4481000000.0 0.8711637610122566 -0.4539894625271224
4484000000.0 0.8674081179090922 -0.4925194731840926
4488000000.0 0.884313102202638 -0.4757099538686992
4491000000.0 0.8852809200474681 -0.47440059243517213
4494000000.0 0.8820778483434808 -0.47058468633174955
4497000000.0 0.8733172184918534 -0.47308868452328856
4500000000.0 0.8708935780098113 -0.4821433899948304
4503000000.0 0.8878170469316811 -0.5087530723668707
4506000000.0 0.8643231141577721 -0.5182938727209699
4509000000.0 0.8356195396353887 -0.497632711323427
4512000000.0 0.8486218463072942 -0.5382668762462207
4516000000.0 0.8794238088866942 -0.5381701380795456
4519000000.0 0.8312730085074215 -0.5124537656227085
4522000000.0 0.839552591404777 -0.5653761454250108
4525000000.0 0.8494720442264785 -0.5176788784134017
4528000000.0 0.8547346180722992 -0.5820988156769042
4531000000.0 0.8438599806410342 -0.5528783389788304
4534000000.0 0.8052938954683263 -0.5739587858769427
4538000000.0 0.8238070317657422 -0.5909887693544014
4541000000.0 0.7824356042920393 -0.6079610321560399
4544000000.0 0.8016797373572699 -0.5900610086766352
4547000000.0 0.7966104392749954 -0.595981557597336
4550000000.0 0.7884724016548161 -0.6259688209302172
4553000000.0 0.7865038821016148 -0.6101030391533617
4556000000.0 0.764335080808497 -0.6183349471794766
4559000000.0 0.7779084110503809 -0.631314694308341
4562000000.0 0.7895277815788124 -0.6390031328596742
4566000000.0 0.7774466517126999 -0.6628318293830524
4569000000.0 0.7471821158415928 -0.6371405931787841
4572000000.0 0.7658151620293654 -0.6546996218657158
4575000000.0 0.7367061019936738 -0.6868643479890992
4578000000.0 0.7807014256691363 -0.6707858752468896
4581000000.0 0.7376013311956559 -0.7007375665337625
4584000000.0 0.7255055014612654 -0.6935042391290981
4588000000.0 0.748753886939702 -0.6894975834451469
4591000000.0 0.7469327827361482 -0.6932026440480369
4594000000.0 0.7185384076590282 -0.7248818835254202
4597000000.0 0.7137422209953181 -0.7176420142287555
4600000000.0 0.677966167555062 -0.7196413409563546
4603000000.0 0.6907244967144548 -0.7313972715365928
4606000000.0 0.6856688756383129 -0.7356196220177053
4609000000.0 0.6790503600501399 -0.7264426062720092
4612000000.0 0.6853474719196156 -0.7516219679866121
4616000000.0 0.6590985481106786 -0.7598594042046627
4619000000.0 0.650418006783297 -0.7612728733875092
4622000000.0 0.6526021243424935 -0.7720646298574241
4625000000.0 0.6034310360160882 -0.7644116319169458
4628000000.0 0.6639078919089892 -0.7634211844148658
4631000000.0 0.6139311557580682 -0.7848299476728545
4634000000.0 0.6321047449608502 -0.7784444989872764
4638000000.0 0.6107438219847481 -0.8038898399084026
4641000000.0 0.6278418703151135 -0.8052916355417852
4644000000.0 0.5958306231268271 -0.787490780032508
4647000000.0 0.6008790724943881 -0.8054061141388545
4650000000.0 0.5701949994663587 -0.8194377428914948
4653000000.0 0.5911547152440675 -0.833813460945247
4656000000.0 0.5695011316694718 -0.8229638265300236
4659000000.0 0.5515486270253651 -0.8365928369360429
4662000000.0 0.573314911783533 -0.8458289569976858
4666000000.0 0.5331713373951694 -0.8548143835208076
4669000000.0 0.5459592615583304 -0.8538788030868965
4672000000.0 0.5247099981980312 -0.8905986913953932
4675000000.0 0.5280736924012037 -0.8787316810762488
4678000000.0 0.5149469408420442 -0.8470110335379656
4681000000.0 0.5064278211842241 -0.893337537701349
4684000000.0 0.49073664283474067 -0.8866348845405373
4688000000.0 0.4758014418946323 -0.8866965442620468
4691000000.0 0.4981485037867963 -0.8779526256819401
4694000000.0 0.4852557630626564 -0.8770562209434123
4697000000.0 0.43487666658115554 -0.8379510612338321
4700000000.0 0.46394122147305494 -0.877903074357218
4703000000.0 0.46858019747879676 -0.853364645792426
4706000000.0 0.4453601247814225 -0.9111515448348717
4709000000.0 0.44773617824578305 -0.9135035839358174
4712000000.0 0.4515704211242592 -0.9127265968642247
4716000000.0 0.4283806454664702 -0.897130852314179
4719000000.0 0.462015176895363 -0.8892078213600895
4722000000.0 0.42392239015932887 -0.9131142533304943
4725000000.0 0.4275502873487563 -0.9172314229507776
4728000000.0 0.387585774895154 -0.9265777681802709
4731000000.0 0.42203683612288767 -0.9697836164847382
4734000000.0 0.39894913900102486 -0.924889709110034
4738000000.0 0.3921100049643614 -0.9712793185877345
4741000000.0 0.355763900821551 -0.9536398178520189
4744000000.0 0.3498930058863641 -0.978741317176869
4747000000.0 0.3789313324113892 -0.9208477690345442
4750000000.0 0.31890062902939414 -0.9501830691885282
4753000000.0 0.35488344345407125 -0.9667747989042047
4756000000.0 0.335334295107574 -0.975938895145821
4759000000.0 0.31887942829227744 -0.9730951564296944
4762000000.0 0.2894972002793817 -0.9780234679190712
4766000000.0 0.30324929272700923 -0.9926308841068835
4769000000.0 0.29672331772587 -0.9726403162479337
4772000000.0 0.29776184959255186 -0.9886087389844102
4775000000.0 0.25790699200224165 -1.0234162321199118
4778000000.0 0.24986973449154348 -0.9848754634192657
4781000000.0 0.27831459083699694 -0.9602958694671757
4784000000.0 0.27685708316022123 -0.9658526867159719
4788000000.0 0.233295736874598 -1.0143853807474728
4791000000.0 0.23072405364309193 -1.000912628522864
4794000000.0 0.25346425942982387 -1.03369649099527
4797000000.0 0.2096555808618528 -0.9609887984593547
4800000000.0 0.18438325804370154 -0.9729196826557471
4803000000.0 0.15650722145478946 -1.0055789988667627
4806000000.0 0.20716463463049878 -1.011252215930003
4809000000.0 0.13840681498162843 -0.9920044010030739
4812000000.0 0.13240574885121842 -0.9905521772374342
4816000000.0 0.15695013180453596 -0.9818927394425732
4819000000.0 0.17900416237289596 -1.020669816137798
4822000000.0 0.165938256721316 -1.039093964148672
4825000000.0 0.16389775533907827 -1.0336464742359535
4828000000.0 0.1262238713464368 -1.008370195140151
4831000000.0 0.06654191091855896 -1.0379949152849057
4834000000.0 0.12632286042790886 -1.011495650335627
4838000000.0 0.0942941571137694 -1.0387952224945942
4841000000.0 0.08230484498585726 -1.0049824820447681
4844000000.0 0.1099013453439365 -1.0143521293368272
4847000000.0 0.10787501160962902 -0.9797511504318075
4850000000.0 0.06755881320093984 -1.0443782685387066
4853000000.0 0.0754513620522649 -0.9990761408776971
4856000000.0 0.04215841162470271 -0.9972133856072255
4859000000.0 0.05499730272014371 -1.060707625184424
4862000000.0 0.05488647381482489 -1.0025261072703648
4866000000.0 0.012174999142172942 -1.0201013437671467
4869000000.0 0.010515630277996476 -1.039518244968576
4872000000.0 -0.011083912542630551 -1.0371483805227033
4875000000.0 0.042443753949944985 -1.0529522330628924
4878000000.0 -0.021766817052109526 -1.0167948082048446
4881000000.0 -0.03361753590982496 -1.0834349805187242
4884000000.0 0.006211299565960601 -1.0336493416163857
4888000000.0 0.008478829477683903 -1.021522941649227
4891000000.0 -0.028729148839592523 -1.0484827669464367
4894000000.0 -0.05711638821338761 -1.0176276580390604
4897000000.0 -0.019313176033507202 -1.0088036418499313
4900000000.0 -0.05740399469311873 -1.0579497434584555
4903000000.0 -0.04835354279476133 -1.046153762653872
4906000000.0 -0.05495326684020149 -1.0375853172349505
4909000000.0 -0.10148928635890553 -1.0418232071520475
4912000000.0 -0.1147285578514536 -1.0639467013470223
4916000000.0 -0.11024378887935926 -1.0298720234015502
4919000000.0 -0.08777287943153143 -1.0515641953993833
4922000000.0 -0.1033070891149627 -1.0111613952276568
4925000000.0 -0.1683088220166772 -1.0057597691616436
4928000000.0 -0.08728453228779283 -1.0449998960400293
4931000000.0 -0.126849235239479 -1.0442093236975418
4934000000.0 -0.14560821757042874 -0.9731475318045055
4938000000.0 -0.2071159922522272 -0.9900560142139115
4941000000.0 -0.1695270216839751 -0.9655204265118452
4944000000.0 -0.16336302643852627 -0.9774004248447512
4947000000.0 -0.2020358870342648 -0.9984596177066271
4950000000.0 -0.18210838197308404 -0.9791088986648969
4953000000.0 -0.25822291480407705 -1.0246604280254719
4956000000.0 -0.24374805464659682 -1.0060902262560236
4959000000.0 -0.28506904580677717 -0.9635175988042939
4962000000.0 -0.24246371471777303 -1.0138162704050917
4966000000.0 -0.2519468726632746 -1.0251974112239894
4969000000.0 -0.24891119351595942 -1.0568403235393484
4972000000.0 -0.26685686625128724 -0.998974573634179
4975000000.0 -0.22042030369678897 -0.9746707945191219
4978000000.0 -0.3232784397649846 -0.996732470050166
4981000000.0 -0.3190605520670792 -1.0160867843590815
4984000000.0 -0.2693180102676128 -0.9561449307555877
4988000000.0 -0.2662138964904091 -1.0074859752595242
4991000000.0 -0.2861186763855687 -1.031407063672511
4994000000.0 -0.31108371676579705 -0.9990052022637839
4997000000.0 -0.33616326552232306 -0.9578179953675258
5000000000.0 -0.3275350767863875 -1.0061160405735972
5003000000.0 -0.3212951435748081 -1.0044952724233536
5006000000.0 -0.35839884882687556 -1.0299207210365158
5009000000.0 -0.3640227819271389 -0.9876156902376191
5012000000.0 -0.3789434934294322 -0.9589460054282031
5016000000.0 -0.37161423510760044 -0.9956780327437673
5019000000.0 -0.39586398447999005 -0.9637509888176203
5022000000.0 -0.39356922692933016 -0.97422702888621
5025000000.0 -0.4309388639731924 -1.0044231466329414
5028000000.0 -0.4184983457650199 -0.9798350205472015
5031000000.0 -0.4492572184398329 -0.9398795758103177
5034000000.0 -0.4568597534774498 -0.9269007659255681
5038000000.0 -0.42732200846870316 -0.9067661865934464
5041000000.0 -0.41796212603381055 -0.9586102311855836
5044000000.0 -0.4173437173585559 -0.9418338289125924
5047000000.0 -0.4340733224878806 -0.9639372000432579
5050000000.0 -0.3815156937721236 -0.9215178921143807
5053000000.0 -0.5096074054688572 -0.9441865190672551
5056000000.0 -0.4470193748418122 -0.9643595253657267
5059000000.0 -0.42382669137251067 -0.9444021964880099
5062000000.0 -0.5069977029334068 -0.9127118509174859
5066000000.0 -0.46453633588938525 -0.8842391502827218
5069000000.0 -0.4786495858393526 -0.9141097099422454
5072000000.0 -0.5175925887988464 -0.8787277590969671
5075000000.0 -0.4748994730836428 -0.9269707580222317
5078000000.0 -0.544427859414736 -0.8813568114869339
5081000000.0 -0.5162078270666314 -0.8030631590316911
5084000000.0 -0.5395888786125937 -0.9216792762515167
5088000000.0 -0.4705102068824939 -0.8831222987107044
5091000000.0 -0.5571903008557733 -0.8792575202441173
5094000000.0 -0.5712765398847877 -0.8969530944671223
5097000000.0 -0.5285501168823934 -0.9174426673075349
5100000000.0 -0.5627052719259135 -0.8744356850611384
5103000000.0 -0.6007714665547262 -0.8528494454911703
5106000000.0 -0.5580968553421208 -0.9002162366527262
5109000000.0 -0.5018008077903796 -0.8702037972845633
5112000000.0 -0.6351167883734136 -0.8261863986976263
5116000000.0 -0.5514055423394395 -0.7888275236680203
5119000000.0 -0.6626599056632696 -0.8221849865976949
5122000000.0 -0.5693964899633948 -0.836600208427196
5125000000.0 -0.5797819347894129 -0.8142510205939649
5128000000.0 -0.613185836434277 -0.8049046902546122
5131000000.0 -0.6122145323177062 -0.794806147068032
5134000000.0 -0.6661249920605542 -0.7896852944405341
5138000000.0 -0.6084931558770615 -0.795127966605172
5141000000.0 -0.6391345958100592 -0.8726082455661255
5144000000.0 -0.6304586993663062 -0.82521369840391
5147000000.0 -0.6525950099304672 -0.7567620805525862
5150000000.0 -0.6597546866624409 -0.7846356749239608
5153000000.0 -0.6960448389361307 -0.7973367192700779
5156000000.0 -0.6865091346140234 -0.8505442281258622
5159000000.0 -0.7126161589905609 -0.8259474787046561
5162000000.0 -0.719954748418467 -0.7381752874417286
5166000000.0 -0.7287941295613998 -0.7221839332370018
5169000000.0 -0.70423098941011 -0.7739985308265436
5172000000.0 -0.685345128349043 -0.7469430188756394
5175000000.0 -0.6902708362824953 -0.7782170043450933
5178000000.0 -0.7277518321006702 -0.7233927459667602
5181000000.0 -0.7142392384967805 -0.757842807841496
5184000000.0 -0.7484467818862074 -0.7339454662230226
5188000000.0 -0.7330390628960173 -0.7370842451662296
