! Created with skrf 1.8.0 (http://scikit-rf.org).
# Hz S RI R 50.0 
!freq ReS11 ImS11
4000000000.0 0.9738600088970524 0.2674180431384092
4003000000.0 1.0168848198579152 0.2505332871054724
4006000000.0 0.9690679736790294 0.19949686579873238
4009000000.0 1.0261177563556543 0.21102943891926604
4012000000.0 1.0078756020749648 0.2481842928165823
4016000000.0 1.0012852558965606 0.17548563950688828
4019000000.0 0.9832857744929493 0.18448257315065344
4022000000.0 1.0572112891700967 0.20195644045562497
4025000000.0 1.0348204085580266 0.1632465047284967
4028000000.0 1.0000273025902746 0.10917985187902146
4031000000.0 0.9854955507132317 0.13990010827410584
4034000000.0 0.9709013954896043 0.10402152649189123
4038000000.0 1.0148050985790908 0.08073883222456413
4041000000.0 0.9989371431098999 0.07019190920561841
4044000000.0 1.0437442168183622 0.05866842037306025
4047000000.0 1.0711253586692886 0.056178235060624304
4050000000.0 1.0186540799720896 0.06660547885037399
4053000000.0 1.017983114411938 0.02468069704655798
4056000000.0 1.0157592531575361 0.03951532348694356
4059000000.0 1.0069432309168158 -0.0038827530303869595
4062000000.0 1.016038041148564 0.007656415611427547
4066000000.0 0.9889301382333142 -0.00038545709153187113
4069000000.0 1.0209217730871165 -0.06125517783447881
4072000000.0 0.9914138576900363 -0.0886402367913725
4075000000.0 1.0449065806888644 -0.07573061641394821
4078000000.0 1.0174561658083134 -0.10480344206127012
4081000000.0 0.9948276353971979 -0.12676464503053514
4084000000.0 1.021245178893468 -0.1212778456893909
4088000000.0 1.0021885600548583 -0.12447673500873141
4091000000.0 0.9918693274588112 -0.11833764578708159
4094000000.0 0.9555040344680753 -0.16882804074239469
4097000000.0 0.9622651657456756 -0.1930140015559384
4100000000.0 1.0089081675193838 -0.17602830689770452
4103000000.0 1.0043728101887974 -0.2051001164457447
4106000000.0 0.9988157933833212 -0.25492387117778065
4109000000.0 0.9877015278857051 -0.2395435595920906
4112000000.0 0.9588563905836134 -0.25515171967780137
4116000000.0 0.967272096746321 -0.2867521558505127
4119000000.0 0.9704573128769107 -0.2566935140447678
4122000000.0 0.938741338265519 -0.320032079720884
4125000000.0 0.9423202326677896 -0.3248385757617554
4128000000.0 0.9385208289971597 -0.33464715729375893
4131000000.0 0.9077252481652425 -0.3813720718868628
4134000000.0 0.9467504033219963 -0.35514931818479056
4138000000.0 0.9174121308844294 -0.40014893015287933
4141000000.0 0.934261894790797 -0.36306549476836014
4144000000.0 0.9303544886409486 -0.40455946925491415
4147000000.0 0.9310857122273545 -0.43792011005342973
4150000000.0 0.9030936661055969 -0.4708483052797272
4153000000.0 0.8968173919761016 -0.43342286240017186
4156000000.0 0.9127910783160822 -0.4699198770057862
4159000000.0 0.8618004215208117 -0.4859388117758513
4162000000.0 0.8831309767083333 -0.4938093804037161
4166000000.0 0.894677350361339 -0.5408418082349418
4169000000.0 0.8394100300115702 -0.5153727814651399
4172000000.0 0.8532197648975414 -0.5497045470100524
4175000000.0 0.8909561374964788 -0.5711626741318885
4178000000.0 0.8372626776296215 -0.5615508989687585
4181000000.0 0.7861026669571016 -0.5969483817752304
4184000000.0 0.778370474230068 -0.5697390489176087
4188000000.0 0.780257815524652 -0.617525308424173
4191000000.0 0.7874691224485704 -0.6192936421770121
4194000000.0 0.7721643651294563 -0.6775259416702627
4197000000.0 0.7818834683732536 -0.6592773517574925
4200000000.0 0.7872992705114576 -0.663153062955185
4203000000.0 0.7680827425872714 -0.7130389641289709
4206000000.0 0.7336630493199118 -0.6999947924592298
4209000000.0 0.678778828868084 -0.7136835950379332
4212000000.0 0.6756752275189928 -0.7602761360454866
4216000000.0 0.7272038391084944 -0.7577539864353846
4219000000.0 0.6883118024988454 -0.7689905822904511
4222000000.0 0.6368092486157982 -0.7487755862815255
4225000000.0 0.6208345525970522 -0.7945905204334347
4228000000.0 0.6031339153495021 -0.8019900575073601
4231000000.0 0.5937801956996854 -0.8256702609875116
4234000000.0 0.5629884011940004 -0.8582228522748068
4238000000.0 0.5442288391266672 -0.8589597518853369
4241000000.0 0.5234831436773375 -0.8374958006787596
4244000000.0 0.5244624945774818 -0.8444939314998566
4247000000.0 0.5076883254322986 -0.8757027315602324
4250000000.0 0.48907121034713125 -0.86781735672374
4253000000.0 0.46107647818798114 -0.8830950365986515
4256000000.0 0.48232554535270317 -0.9548130585791583
4259000000.0 0.4134988278358554 -0.9011781321632956
4262000000.0 0.3939102861326632 -0.9411166924607741
4266000000.0 0.36337453101989614 -0.9585004379273703
4269000000.0 0.362768595842776 -0.9158831396577902
4272000000.0 0.3224128668909115 -0.9322212849277023
4275000000.0 0.36194767083567325 -0.9511968258569299
4278000000.0 0.31559663371256397 -1.0016367819807945
4281000000.0 0.28018884846543357 -0.9830984585248009
4284000000.0 0.26486594997433954 -0.9658529435201095
4288000000.0 0.23720566349005923 -0.9698750133220623
4291000000.0 0.20779587670764785 -0.9777740414976344
4294000000.0 0.18072030693336405 -0.9984630148072621
4297000000.0 0.1917121387832346 -0.9859696824402275
4300000000.0 0.1266909324450347 -1.0054476032460047
4303000000.0 0.12141236146499457 -0.9975440627667489
4306000000.0 0.08656611907874223 -1.0096697640948262
4309000000.0 0.08625097215142626 -1.0222895100383753
4312000000.0 0.049703122909815045 -1.0207866997341448
4316000000.0 -0.009020559224805352 -0.9842817799394955
4319000000.0 0.016829346844214776 -1.009075892965762
4322000000.0 -0.06729856207712066 -0.995879533276283
4325000000.0 -0.06661579789087384 -1.0213517125238394
4328000000.0 -0.10210710339918402 -1.0131929452905994
4331000000.0 -0.1475151215637291 -0.9997000689913031
4334000000.0 -0.14990856740521025 -1.0096838092497464
4338000000.0 -0.18567017496972638 -0.9970766647616742
4341000000.0 -0.20284793974376433 -1.0050527706368724
4344000000.0 -0.2315396274768134 -1.0108293128280026
4347000000.0 -0.26079105343732173 -1.002293908767485
4350000000.0 -0.29583532985475325 -0.9772005107182495
4353000000.0 -0.32882753917415225 -0.9793908327839352
4356000000.0 -0.350161434198473 -0.9545817583508392
4359000000.0 -0.3968975409633458 -0.9602668346518777
4362000000.0 -0.37392920195647733 -0.9415181996961769
4366000000.0 -0.437764632321798 -0.9235849423921986
4369000000.0 -0.46263358342008487 -0.9163146901666547
4372000000.0 -0.46708465193937015 -0.9083742233139824
4375000000.0 -0.5053391544434329 -0.8681756181527085
4378000000.0 -0.573427084897809 -0.9094196568971545
4381000000.0 -0.5941388597004118 -0.8718414071391196
4384000000.0 -0.5756480811043879 -0.7867463511110141
4388000000.0 -0.6140367010136073 -0.8063160152837254
4391000000.0 -0.6404913010947355 -0.8021298002925396
4394000000.0 -0.6998012350872194 -0.7970449679305043
4397000000.0 -0.7064902299936153 -0.7860782693445275
4400000000.0 -0.6942876174798716 -0.7387770684864139
4403000000.0 -0.7276054999078749 -0.7421683584557665
4406000000.0 -0.7921568047640031 -0.66131880848279
4409000000.0 -0.7595127454367618 -0.6422316431963655
4412000000.0 -0.743810945018977 -0.7057358265513984
4416000000.0 -0.7898114974040651 -0.612506552805348
4419000000.0 -0.7936478695522353 -0.6097836557773357
4422000000.0 -0.8718747874455104 -0.579945686643796
4425000000.0 -0.8795644148855895 -0.5017858756581572
4428000000.0 -0.9176947495133854 -0.5099096924313196
4431000000.0 -0.8841097838065219 -0.45645703935086873
4434000000.0 -0.9413019904014485 -0.4612594841303613
4438000000.0 -0.8907053700621261 -0.4041610180514643
4441000000.0 -0.9075769510455183 -0.3393104900599954
4444000000.0 -0.9719162751663057 -0.4214324210297393
4447000000.0 -1.03493750229958 -0.3441753793002984
4450000000.0 -1.0379262201880495 -0.2969829101594855
4453000000.0 -0.9442995845570313 -0.22230589183854163
4456000000.0 -1.0385514057034055 -0.2834801376907122
4459000000.0 -1.1134224321231623 -0.2144248574718228
4462000000.0 -0.9896618947197469 -0.15274387879423532
4466000000.0 -1.0419726018525828 -0.1517117382567062
4469000000.0 -1.0186771336325582 -0.030123858441781393
4472000000.0 -0.9981702541122627 -0.002532609314477352
4475000000.0 -1.0996433093078006 0.0005123008848390148
4478000000.0 -0.9663249235625495 -0.0009567154804783345
4481000000.0 -1.1040057144197584 0.059242341576831614
4484000000.0 -1.0783295974084985 0.08847011350024156
4488000000.0 -1.0608993159194875 0.13553762203154013
4491000000.0 -1.0434944321495279 0.12038554577544491
4494000000.0 -1.0601331205133937 0.19833242168820048
4497000000.0 -1.0251203709686727 0.2796700127742671
4500000000.0 -0.9880009354451893 0.2826842083407155
4503000000.0 -1.0002348111563641 0.2978334996455539
4506000000.0 -0.9816267719159728 0.35321161922709926
4509000000.0 -0.9302813349114871 0.38328894484646514
4512000000.0 -0.9422566844527539 0.40485289582516537
4516000000.0 -0.9079259751041046 0.464851540706294
4519000000.0 -0.9203413139965668 0.5028756217078335
4522000000.0 -0.9315002347209962 0.45594927465445517
4525000000.0 -0.9076187095509609 0.5748235556539908
4528000000.0 -0.8859697879774511 0.5447661151181085
4531000000.0 -0.8175593133395069 0.6098723451042909
4534000000.0 -0.8263761013960743 0.6659028965678677
4538000000.0 -0.7838833091651152 0.6693977959155889
4541000000.0 -0.8054146610457974 0.6515914151645102
4544000000.0 -0.7597518105994452 0.7324903953019021
4547000000.0 -0.706962359091112 0.745970246266761
4550000000.0 -0.7481062317976181 0.7553722766194118
4553000000.0 -0.6654488072073901 0.776624815519157
4556000000.0 -0.6517566257409011 0.8182817460123097
4559000000.0 -0.6358694185753414 0.8151621676706338
4562000000.0 -0.5969243252570373 0.8284079804401834
4566000000.0 -0.5855197426363818 0.8347494073782116
4569000000.0 -0.5518655781515888 0.8918339603266341
4572000000.0 -0.5051034389374716 0.9026753898604649
4575000000.0 -0.5166574466638212 0.8771593474230053
4578000000.0 -0.46465297693753144 0.9000996620268742
4581000000.0 -0.4229916488469123 0.9320497001638428
4584000000.0 -0.3766173357390799 0.9457436187270669
4588000000.0 -0.36088769027395984 0.9227508376648917
4591000000.0 -0.30976245396015234 0.9943279644581738
4594000000.0 -0.358599900796175 0.9704579752550399
4597000000.0 -0.2655449075974703 1.0417029945702687
4600000000.0 -0.24188493429989108 0.9863004751510435
4603000000.0 -0.2211653786972702 1.0062504653073314
4606000000.0 -0.22860452788900532 1.0402039273562866
4609000000.0 -0.14628255230238044 1.0310048660391986
4612000000.0 -0.13688785926636376 1.0451845339117591
4616000000.0 -0.10587885642558328 1.0186281396435717
4619000000.0 -0.09911701934120137 1.0416221068624862
4622000000.0 -0.026917953924272812 1.0292868603467626
4625000000.0 -0.0002094110253844962 1.003681290057615
4628000000.0 0.03365158464657568 1.046041883573449
4631000000.0 0.09243974671060214 1.012732975472448
4634000000.0 0.09419535834129208 1.0513905242889676
4638000000.0 0.10200857649023519 1.025894266354557
4641000000.0 0.16848976800502452 1.0238763197371326
4644000000.0 0.16008462186172423 0.9966342664883392
4647000000.0 0.17684623144637016 0.9881217289597837
4650000000.0 0.25873610506308065 0.998608443285411
4653000000.0 0.2576487379735344 0.9804309021553035
4656000000.0 0.2824260713380292 0.9606880554336334
4659000000.0 0.30175956137324206 0.9404520492739288
4662000000.0 0.29018947519896693 0.9375524431952366
4666000000.0 0.33851796175763993 0.9656228155260378
4669000000.0 0.35336812288595154 0.9546902008279322
4672000000.0 0.4105885165681388 0.9254171585300356
4675000000.0 0.42559462854943947 0.8509506891304555
4678000000.0 0.4045299493080973 0.8930394735141699
4681000000.0 0.5132154507227258 0.896116041006558
4684000000.0 0.46694481323204184 0.8261825628274091
4688000000.0 0.48832797143394496 0.880423015824267
4691000000.0 0.49099120295259324 0.8418901685504427
4694000000.0 0.5909341219133784 0.8467537110315908
4697000000.0 0.5897061333663254 0.8887321502728871
4700000000.0 0.5977139131509279 0.8443927587865871
4703000000.0 0.686219237310836 0.8065457014654562
4706000000.0 0.5700180591817372 0.8001613596920862
4709000000.0 0.6137933940527237 0.7554584103306788
4712000000.0 0.676972368391735 0.722865797727551
4716000000.0 0.6754204555123662 0.7345128008344244
4719000000.0 0.7417192113914857 0.7068910461825815
4722000000.0 0.766161897635526 0.7303400011293615
4725000000.0 0.7469299165831844 0.6739538113877808
4728000000.0 0.7724798774030854 0.641995866635169
4731000000.0 0.7505338280982568 0.6643905072181084
4734000000.0 0.7858237589704617 0.6351485784195018
4738000000.0 0.7781006888314994 0.596806093770304
4741000000.0 0.7905638887192556 0.5996759495677695
4744000000.0 0.8302585931418864 0.5628120090829474
4747000000.0 0.8770884700707696 0.5675217682596398
4750000000.0 0.8445774878381591 0.49990727656318695
4753000000.0 0.9078101481441783 0.5038376560758432
4756000000.0 0.8606688576952297 0.4605317540279841
4759000000.0 0.8752901140550791 0.46791382963045164
4762000000.0 0.8692215237768033 0.48338236873416074
4766000000.0 0.8683898071416964 0.41961331539969454
4769000000.0 0.9579482276600136 0.4551428762746401
4772000000.0 0.934385299520001 0.4086074485295155
4775000000.0 0.9303973647618318 0.3728797810490907
4778000000.0 0.9154947193741778 0.43847572925783884
4781000000.0 0.9308219608251939 0.363801701936023
4784000000.0 0.9294941404960753 0.3500625530641065
4788000000.0 0.9392648358083974 0.36143027997314947
4791000000.0 0.9761847299424115 0.26700851014066457
4794000000.0 0.9468932434809791 0.2424256218322389
4797000000.0 0.9762339199756707 0.2808417906240203
4800000000.0 0.995917514409291 0.21722519390074646
4803000000.0 0.9762484123765551 0.2299247824428411
4806000000.0 0.972008223581103 0.22078740806219588
4809000000.0 0.9777665813692554 0.20846304466902169
4812000000.0 1.0057147813824427 0.1724471338734781
4816000000.0 1.0230356791201007 0.11674685042346421
4819000000.0 1.0021775327944438 0.11289266543563851
4822000000.0 1.014028141168768 0.13260745577508684
4825000000.0 1.012993282341883 0.060995318660215465
4828000000.0 0.9991327467395136 0.09244817561708825
4831000000.0 1.0080284279660938 0.07475223669883992
4834000000.0 0.9907702207356066 0.00862298818892121
4838000000.0 1.0108024115469874 0.009671458527113097
4841000000.0 1.0123746881722628 -0.003610657213937468
4844000000.0 1.0164323563389794 -0.031577111930303825
4847000000.0 1.0281672472675871 -0.04251651158913777
4850000000.0 1.0133331805320775 -0.04820879697569966
4853000000.0 1.0079846379421746 -0.06731873092334947
4856000000.0 0.9975288498223422 -0.09672233147934611
4859000000.0 0.9901526058351028 -0.10045849071943616
4862000000.0 1.0119552224482706 -0.1386452278524259
4866000000.0 1.0271278973727753 -0.12231915878073703
4869000000.0 1.000004292439737 -0.18343564855863478
4872000000.0 0.9874071486804341 -0.19571711728362795
4875000000.0 1.0148615453295686 -0.2007782852308984
4878000000.0 0.9904736940518222 -0.22074496252909764
4881000000.0 0.958850844799229 -0.2044720386292772
4884000000.0 0.9948241096996515 -0.23419391076990553
4888000000.0 0.9924375763607726 -0.2442969631992229
4891000000.0 0.9710595661611207 -0.27169303593412575
4894000000.0 0.9761759379794631 -0.2899250086685263
4897000000.0 0.9461443114600943 -0.2792057305711404
4900000000.0 0.9495258490025886 -0.34292931924846204
4903000000.0 0.9623503038694772 -0.31152372757369984
4906000000.0 0.9569103868177663 -0.3596906170550566
4909000000.0 0.9473011362278092 -0.37175786109392583
4912000000.0 0.9396377929470825 -0.3965921994213179
4916000000.0 0.9528130745254061 -0.38151637237711816
4919000000.0 0.9516940274047169 -0.4186358197068073
4922000000.0 0.9382699986050088 -0.4084439422716883
4925000000.0 0.9001332920637423 -0.4261542280402785
4928000000.0 0.9049379664739386 -0.43193259518474264
4931000000.0 0.9167860508839251 -0.4375233358873455
4934000000.0 0.8997483853490879 -0.4599872264027214
4938000000.0 0.8699232818404817 -0.5065417863181598
4941000000.0 0.8674693339256385 -0.5028477979220801
4944000000.0 0.8769448271150306 -0.4979376876427796
4947000000.0 0.886503161892965 -0.5145871421015861
4950000000.0 0.8415505827961054 -0.5428521763887532
4953000000.0 0.8598068166695776 -0.592482802540061
4956000000.0 0.8614792197639338 -0.5781010421483491
4959000000.0 0.8034207771759659 -0.569837150059464
4962000000.0 0.8293290851163487 -0.6139268623314146
4966000000.0 0.8203672962480024 -0.6035313012436653
4969000000.0 0.8315162835306925 -0.6274544836665539
4972000000.0 0.8144213077004936 -0.6428908921570133
4975000000.0 0.7824734743844307 -0.6063449198342329
4978000000.0 0.7909307627312073 -0.6668725677758633
4981000000.0 0.772535471465731 -0.6587016505371285
4984000000.0 0.7705382641191156 -0.6574691769409141
4988000000.0 0.7551954713507811 -0.6688190260387515
4991000000.0 0.7722466762591282 -0.6811953528308025
4994000000.0 0.729152186981585 -0.6773314945291761
4997000000.0 0.7290803020694065 -0.7280502301525066
5000000000.0 0.7483296168083415 -0.7261471709272316
5003000000.0 0.7281816934209125 -0.7174166846797704
5006000000.0 0.7296635791770643 -0.7408139829058292
5009000000.0 0.7083454017146035 -0.7289056908985713
5012000000.0 0.6814577512754364 -0.75939440506955
5016000000.0 0.7173545395862064 -0.7928640959120139
5019000000.0 0.6521809366093543 -0.7832734233793499
5022000000.0 0.6619677105840962 -0.770237672557633
5025000000.0 0.6862713584221126 -0.827211299545456
5028000000.0 0.6299148864321877 -0.853768247006394
5031000000.0 0.6071670681394694 -0.80007322549151
5034000000.0 0.5971271376286942 -0.8561775484158389
5038000000.0 0.5740541694937162 -0.8461637991841555
5041000000.0 0.6391591173689845 -0.835078039780783
5044000000.0 0.5940403123690156 -0.8065878731522034
5047000000.0 0.6098359167090053 -0.850520514800991
5050000000.0 0.6479687802964579 -0.7773887506416666
5053000000.0 0.5943455114293048 -0.9293296999135785
5056000000.0 0.5871425960574882 -0.864289803272628
5059000000.0 0.6106482612706903 -0.8264001398670079
5062000000.0 0.5319213102972815 -0.9118851346178529
5066000000.0 0.5612489123187479 -0.8250078794652072
5069000000.0 0.5296552886901081 -0.8778726954230741
5072000000.0 0.4812125392713134 -0.8847176502281697
5075000000.0 0.5129366128618962 -0.9381635877657288
5078000000.0 0.4396841191205752 -0.9424772972999476
5081000000.0 0.460404624283612 -0.8853075775126874
5084000000.0 0.48686098912163916 -0.9386658170003861
5088000000.0 0.46338875917644395 -0.9175019417234143
5091000000.0 0.4225367589572304 -0.9933722971093277
5094000000.0 0.4379714879807397 -0.9516178670695402
5097000000.0 0.4758452496737595 -0.9577966086593408
5100000000.0 0.430961127955026 -0.8918805181476651
5103000000.0 0.411177820653466 -0.9460812128228228
5106000000.0 0.43570109850615374 -1.0058991571279279
5109000000.0 0.4145612372940085 -0.9062081047338393
5112000000.0 0.34580215013630555 -0.9510123283637142
5116000000.0 0.3763554662916115 -0.9077733017149063
5119000000.0 0.3851407096832385 -0.9888003437885309
5122000000.0 0.38551753380836046 -0.9657953930593597
5125000000.0 0.30911230356803837 -0.9961645101876012
5128000000.0 0.2577847877740568 -1.00230263376926
5131000000.0 0.28284233945994425 -0.9720878751168652
5134000000.0 0.30506033552208756 -1.0241634381386135
5138000000.0 0.28060701735494087 -1.0199005102489695
5141000000.0 0.3540827730548118 -0.9352713479753472
5144000000.0 0.34771935175085755 -1.0181237277858053
5147000000.0 0.25694423064372446 -1.0347201059226763
5150000000.0 0.24807730373158332 -0.9954216377712927
5153000000.0 0.2303359901560118 -0.9975978694360548
5156000000.0 0.2642469705069989 -1.0419862361166423
5159000000.0 0.22726402588766326 -0.9946758608303328
5162000000.0 0.202152669044021 -0.9811475791247863
5166000000.0 0.1268759659224252 -1.0995560209141515
5169000000.0 0.15659575937421974 -1.0567352532438188
5172000000.0 0.1633719476543551 -1.0087816712227349
5175000000.0 0.15734641333048116 -1.0424891119114175
5178000000.0 0.10331322265553969 -1.0041467425017467
5181000000.0 0.18157793862651486 -1.0687385464981372
5184000000.0 0.09755613943261884 -1.0381599885195907
5188000000.0 0.14674737182175904 -0.9850330692299831
