! Created with skrf 1.8.0 (http://scikit-rf.org).
# Hz S RI R 50.0 
!freq ReS11 ImS11
4000000000.0 0.7001328361164403 0.7112406952948465
4003000000.0 0.7344132356542749 0.7680396965099932
4006000000.0 0.734321940410508 0.699767890630121
4009000000.0 0.7014191096389385 0.7447117740575617
4012000000.0 0.693741264001567 0.8152028467617529
4016000000.0 0.7555351101500166 0.7276389246720609
4019000000.0 0.759686361547097 0.7103447509794099
4022000000.0 0.7434223040831602 0.780207657223751
4025000000.0 0.7968102145118968 0.6817896753043668
4028000000.0 0.8124676185099451 0.6944839311110931
4031000000.0 0.7594055983439042 0.6353730396366447
4034000000.0 0.7984619661801823 0.6574534757728997
4038000000.0 0.8018908335459648 0.6724563654227315
4041000000.0 0.8259253181338326 0.6787626866696032
4044000000.0 0.8848371767890347 0.6659412865731993
4047000000.0 0.8140567734571186 0.7218909922919414
4050000000.0 0.8511402487780377 0.6200328723577354
4053000000.0 0.8167850309111602 0.590405654233793
4056000000.0 0.8120775161008628 0.6155829402462659
4059000000.0 0.8173761819888338 0.6470334058561245
4062000000.0 0.8717587818633202 0.5752943708133009
4066000000.0 0.7938507080513812 0.5430655722377928
4069000000.0 0.8870389745396959 0.593772363601959
4072000000.0 0.8386690745489185 0.6028724469955933
4075000000.0 0.9029840617112067 0.5853282186393747
4078000000.0 0.9032745318788276 0.5598914296026695
4081000000.0 0.8886877208021032 0.6473040267986393
4084000000.0 0.8792408724602948 0.5314360655819099
4088000000.0 0.856155413091283 0.564177987186057
4091000000.0 0.9213775719689385 0.5436359442742853
4094000000.0 0.8543979029988616 0.5415094141938388
4097000000.0 0.8958188826456457 0.5097434518096216
4100000000.0 0.9313865892801692 0.5022456033166869
4103000000.0 0.8834866387507487 0.49672927678803386
4106000000.0 0.9250194683863386 0.4985112991437546
4109000000.0 0.956638188564471 0.4773750116557461
4112000000.0 0.899305389521813 0.44585513331429133
4116000000.0 0.939905703632644 0.5257018402184556
4119000000.0 0.9154825682248565 0.46261572708285537
4122000000.0 0.9660123774577755 0.4189540835795491
4125000000.0 0.9293828336202419 0.4182699484178463
4128000000.0 0.9114108314340101 0.43976771586418595
4131000000.0 0.9275412786116788 0.4026738153360029
4134000000.0 0.9374203862005648 0.4332514023269255
4138000000.0 0.9363027268890751 0.3966749608309284
4141000000.0 0.9496188893179485 0.4200178964777579
4144000000.0 0.9828608651744606 0.4190914565626797
4147000000.0 0.9600537305879717 0.37110691972779836
4150000000.0 0.9704435186545778 0.38875310191734785
4153000000.0 0.9596036773819033 0.3636029804846693
4156000000.0 0.9747469312333412 0.36523019414919833
4159000000.0 0.94530067833859 0.3733007712781696
4162000000.0 0.9476756644332067 0.33708382805547066
4166000000.0 0.9789185147053849 0.3244701987191366
4169000000.0 0.9453312318316751 0.33001460891982437
4172000000.0 0.9789367018549673 0.3545327697119362
4175000000.0 0.9723609049893223 0.33091833586830194
4178000000.0 0.966125245786965 0.32398686744934024
4181000000.0 0.982172418068769 0.291790570942013
4184000000.0 0.983115841631957 0.285274017390947
4188000000.0 0.976311285604756 0.26990265797020474
4191000000.0 0.9780272295260928 0.2888761819574684
4194000000.0 0.95603484152537 0.2709825743172882
4197000000.0 1.016581368063937 0.26357563853399096
4200000000.0 0.9945385882522797 0.26571043123564897
4203000000.0 1.0089185936366518 0.261457424482206
4206000000.0 1.0074265564954783 0.24920996577206006
4209000000.0 0.9789594087139935 0.22251176200438355
4212000000.0 1.002727449104781 0.18341390942619384
4216000000.0 1.0145610259317883 0.2204981314849389
4219000000.0 1.020575543800507 0.21724075493929815
4222000000.0 1.007948890124549 0.191144670088421
4225000000.0 0.9910888552499719 0.17023975538160088
4228000000.0 1.0052402622830288 0.17666593385588072
4231000000.0 1.012184715094116 0.1497426253518176
4234000000.0 1.0230289791944753 0.13235940129316115
4238000000.0 1.021282838340392 0.13179684004893336
4241000000.0 0.9997020691605394 0.12640769677289382
4244000000.0 1.0133354089105076 0.13286728990269803
4247000000.0 0.9953142403461858 0.12804064043309205
4250000000.0 0.9964187104978102 0.10241507649651577
4253000000.0 0.9788731479323896 0.09236486908123345
4256000000.0 1.0437257222405851 0.08272046479806369
4259000000.0 0.983783414229611 0.059051377127978116
4262000000.0 1.0217484485579886 0.047884878768891914
4266000000.0 1.0319800828074512 0.039271307609585415
4269000000.0 1.0048221206809593 0.07554218089941195
4272000000.0 0.9998522650258707 0.04948885267663561
4275000000.0 1.0200218450332814 0.05263201878179807
4278000000.0 1.065463660252985 0.03573880783694908
4281000000.0 1.0211006691858608 0.038721012889490675
4284000000.0 1.0317161874817171 -0.019335072465434963
4288000000.0 1.0117976844775582 0.026046289525635348
4291000000.0 0.994897167693043 -0.012306318812184344
4294000000.0 1.010579222574779 -0.03169417854144868
4297000000.0 1.001420274240707 0.004992509196610165
4300000000.0 1.0192657958283822 -0.0229772082923412
4303000000.0 1.0025154212619394 -0.0776261937558297
4306000000.0 1.018467843615455 -0.02126569150284862
4309000000.0 0.9855340369858967 -0.05745032929784859
4312000000.0 1.0458591337830982 -0.0250513824425869
4316000000.0 1.0129816235324807 -0.08917888475089349
4319000000.0 1.0069357712827578 -0.09079518689548274
4322000000.0 1.0298485658654157 -0.1170370124540554
4325000000.0 1.0115909111802908 -0.1298744570734267
4328000000.0 1.0248114418207794 -0.11514034047883161
4331000000.0 1.0142753969004281 -0.15068843084064987
4334000000.0 1.0224919845403704 -0.13949267779742364
4338000000.0 0.9998092044853956 -0.12417790253335172
4341000000.0 1.0097122432517214 -0.12381433194307648
4344000000.0 1.0162380014206263 -0.14717432031417524
4347000000.0 1.0148982677777367 -0.20553997441388983
4350000000.0 0.96630719204068 -0.1767631842554339
4353000000.0 0.9983264515859924 -0.17035001298835611
4356000000.0 1.0005045441789044 -0.2142240064165465
4359000000.0 0.9336042661597299 -0.19649011787380424
4362000000.0 0.9885239006184299 -0.2689613864920455
4366000000.0 0.9916271008752577 -0.23313094232079973
4369000000.0 0.9426530799749367 -0.23893726035763543
4372000000.0 0.9665108084207146 -0.2761126486619333
4375000000.0 0.9942148650752807 -0.22587465922559613
4378000000.0 0.9503144311776779 -0.2532660992044008
4381000000.0 0.9723085880457849 -0.25186357979414953
4384000000.0 1.0362105105525727 -0.3086589846078632
4388000000.0 0.9478970643003801 -0.276761044399765
4391000000.0 0.9812046234923433 -0.2919737437250521
4394000000.0 0.9281824399240061 -0.29983798956237895
4397000000.0 0.963332728546828 -0.31652473565918265
4400000000.0 0.9703145423795709 -0.33395964859170413
4403000000.0 0.9615472323694936 -0.3327707499857544
4406000000.0 0.9625183598790897 -0.3655185806909576
4409000000.0 0.9757677058868108 -0.36968402976988574
4412000000.0 0.9330534105817495 -0.423643462731484
4416000000.0 0.9268782883566604 -0.38180794827756603
4419000000.0 0.9375501285603992 -0.39561443692278114
4422000000.0 0.9370334603487305 -0.37549807422461656
4425000000.0 0.9534908932111033 -0.3849544801146432
4428000000.0 0.9201812413224643 -0.41570277107722997
4431000000.0 0.953236897401724 -0.4130791183320891
4434000000.0 0.9119064091744924 -0.4217439843560693
4438000000.0 0.9165257082184184 -0.4342087198852469
4441000000.0 0.9195391138944609 -0.44008345867923626
4444000000.0 0.9012639247767575 -0.43250734023462994
4447000000.0 0.8975356013825369 -0.45775698497860084
4450000000.0 0.8819472873450322 -0.4451624137748308
4453000000.0 0.9121995962783573 -0.4788319798585018
4456000000.0 0.8553099428436444 -0.4765680369157439
4459000000.0 0.8385366072962641 -0.4789085923660752
4462000000.0 0.9397410957859584 -0.5225989125235239
4466000000.0 0.9145438965860878 -0.5404635977719733
4469000000.0 0.8783732312253528 -0.49596133084097743
4472000000.0 0.8673971763079256 -0.5480772421576312
4475000000.0 0.8487780640706716 -0.5207683812847245
4478000000.0 0.8810829126970042 -0.5727559306235
4481000000.0 0.8136329926128946 -0.551364135049109
4484000000.0 0.8399155825061522 -0.5797594976432533
4488000000.0 0.8262743070843875 -0.5827014234149124
4491000000.0 0.8325403888756671 -0.5681701707897093
4494000000.0 0.8347821721881085 -0.568813281247633
4497000000.0 0.8195326620832013 -0.571090032711362
4500000000.0 0.8091731249371088 -0.5843190154636655
4503000000.0 0.8294330641988426 -0.6012146619835097
4506000000.0 0.7771058076858728 -0.610496429791702
4509000000.0 0.790906204477276 -0.6078163808497317
4512000000.0 0.7632763298290315 -0.625883012219644
4516000000.0 0.8060162260078498 -0.6409749087325967
4519000000.0 0.7792684611184896 -0.6303658038418657
4522000000.0 0.7634912339874942 -0.6460146993652355
4525000000.0 0.8034933367775727 -0.6233929627120182
4528000000.0 0.7803694904223953 -0.6884860151943714
4531000000.0 0.7509649553964179 -0.6746196151786394
4534000000.0 0.7422257650068443 -0.658560957463437
4538000000.0 0.7489420572361978 -0.6823942660796418
4541000000.0 0.7001148901477349 -0.6963972375305438
4544000000.0 0.7233986569436617 -0.6943705316214152
4547000000.0 0.7319428688994695 -0.681070973460788
4550000000.0 0.7176886948178265 -0.7378584264633361
4553000000.0 0.7273808323400632 -0.7178767852204333
4556000000.0 0.6789409192910003 -0.7312843009059442
4559000000.0 0.6900119048375916 -0.7301239770750705
4562000000.0 0.6955046005149559 -0.7345697770288143
4566000000.0 0.6915683656785447 -0.7464319980306693
4569000000.0 0.6749264934992442 -0.7496568438357143
4572000000.0 0.6700305906356361 -0.7829580368399295
4575000000.0 0.647605658011426 -0.7624991526312032
4578000000.0 0.6683675961039941 -0.7675386782325203
4581000000.0 0.6451749815806517 -0.7718714549560937
4584000000.0 0.6326654351732525 -0.8000235666569323
4588000000.0 0.6555870578889298 -0.7931351189544461
4591000000.0 0.6356677909999046 -0.7977579125325175
4594000000.0 0.6049393045517877 -0.8073022546981837
4597000000.0 0.6028356719306229 -0.825690778550209
4600000000.0 0.5861897256709993 -0.8189475054470318
4603000000.0 0.5768205208753909 -0.8184584062589715
4606000000.0 0.6000171128809977 -0.8512036561437375
4609000000.0 0.5920319990880933 -0.8242675552810401
4612000000.0 0.5508582246158216 -0.8303056972961824
4616000000.0 0.5522526804416439 -0.853721595469224
4619000000.0 0.5515571601718307 -0.8416482552579244
4622000000.0 0.5206304635659872 -0.864122134011134
4625000000.0 0.5200452109839141 -0.8677236204072256
4628000000.0 0.5332456427566497 -0.8642627396396517
4631000000.0 0.5160037195458549 -0.8761032886266197
4634000000.0 0.5154094040507916 -0.888932413480477
4638000000.0 0.5195237070544708 -0.8996934284747872
4641000000.0 0.4851621256923041 -0.8888598700714562
4644000000.0 0.4658800325943921 -0.8939281197018131
4647000000.0 0.4779400203593641 -0.8935683427646378
4650000000.0 0.4599464535453216 -0.8921139338513695
4653000000.0 0.4752720323040936 -0.900643900288968
4656000000.0 0.46080973559417887 -0.8913876719076328
4659000000.0 0.44357117644722444 -0.9311980348817914
4662000000.0 0.41357486919068437 -0.9067434522552432
4666000000.0 0.4267064586822852 -0.9420530184595715
4669000000.0 0.43091012535642503 -0.9355326021934259
4672000000.0 0.41189369961460953 -0.948997774334717
4675000000.0 0.3872720217235167 -0.9562027774681243
4678000000.0 0.39291985267022256 -0.905209526871323
4681000000.0 0.3597922984814471 -0.9512602777568677
4684000000.0 0.3481930526304015 -0.9897683241913109
4688000000.0 0.3339612853925933 -0.9645230880378032
4691000000.0 0.359568013207141 -0.9771335027642245
4694000000.0 0.3625686767825488 -0.9528045263801532
4697000000.0 0.285840679250274 -0.929668378281765
4700000000.0 0.32841606298984893 -0.9378657242506523
4703000000.0 0.3555971557431929 -0.9075433389102137
4706000000.0 0.29876043806782465 -0.9593181702604233
4709000000.0 0.2742067447122811 -0.9674427508755341
4712000000.0 0.32176873236695225 -1.0179417260711794
4716000000.0 0.2673658771235369 -1.0143454989127334
4719000000.0 0.32643182346680294 -0.9805064297765096
4722000000.0 0.27839524553591394 -0.9669918877991974
4725000000.0 0.2432654422239635 -0.9810262561003096
4728000000.0 0.25884877417218866 -1.0066920772010115
4731000000.0 0.28258060220071574 -1.02833248897282
4734000000.0 0.24390314669865892 -0.9885538243601301
4738000000.0 0.22224880126076668 -1.0213684422679956
4741000000.0 0.19383593838587768 -1.0337507268887047
4744000000.0 0.18239197214145347 -0.9939360805952874
4747000000.0 0.20489285175242175 -0.9439060337510934
4750000000.0 0.1901676065547584 -1.0260711105337526
4753000000.0 0.2210681822315276 -0.9863829471052733
4756000000.0 0.18644181261000514 -1.025260772835694
4759000000.0 0.18044363269185182 -1.0385305714916941
4762000000.0 0.13681972908647583 -1.0354884715021373
4766000000.0 0.13857940717245568 -1.0295867876466163
4769000000.0 0.13252953876081003 -0.9940344794002357
4772000000.0 0.12229527833649748 -1.0344843490400981
4775000000.0 0.08635178678914926 -1.0904206151064788
4778000000.0 0.07260200845824319 -1.0195268609972683
4781000000.0 0.1277743525780767 -0.9988441747382555
4784000000.0 0.12027465439809276 -1.030136738288391
4788000000.0 0.05395982693072149 -1.0479464636573093
4791000000.0 0.07717821986887385 -1.0121960536068673
4794000000.0 0.08564133187270151 -1.0338021635258825
4797000000.0 0.034334490429311915 -0.9916940774843662
4800000000.0 0.0189989751421773 -0.9920332246870371
4803000000.0 -0.03420364513312721 -1.0268976027246237
4806000000.0 0.005431723457582083 -1.0431868196855436
4809000000.0 -0.033371260129551716 -1.0068051756298604
4812000000.0 -0.03706059684586102 -1.0052304372935568
4816000000.0 0.013184686113816124 -0.9825798711072404
4819000000.0 -0.01812573076598145 -1.0574611926835633
4822000000.0 -0.011472309429262778 -1.0680391260275137
4825000000.0 -0.00882327275609135 -1.0563025379476103
4828000000.0 -0.06943167249906412 -1.0273431920377125
4831000000.0 -0.11044144750709999 -1.0404325026369323
4834000000.0 -0.07711048606521972 -1.0435255038547087
4838000000.0 -0.0971726865925583 -1.0536110848969902
4841000000.0 -0.09348006257963414 -1.0182571987076714
4844000000.0 -0.0621170584451691 -1.0355369803918242
4847000000.0 -0.08787880994006253 -0.9881039956375637
4850000000.0 -0.1352831619051103 -1.0675929402087778
4853000000.0 -0.13113528825669007 -1.002766942247546
4856000000.0 -0.12073169458858596 -1.0107418517456912
4859000000.0 -0.1422578639125282 -1.0563866733426694
4862000000.0 -0.12569635296808418 -1.0027114110396027
4866000000.0 -0.18715833132871387 -1.0261402028174877
4869000000.0 -0.1865167749807628 -1.0280505729291745
4872000000.0 -0.20047334519744797 -1.0250197189988117
4875000000.0 -0.1364146490060668 -1.0862994125302345
4878000000.0 -0.198315404989211 -1.0152586592818227
4881000000.0 -0.25896713388068504 -1.0680832737322081
4884000000.0 -0.2141041979267233 -1.0334238078933728
4888000000.0 -0.1952794217653031 -1.0182863817493513
4891000000.0 -0.22101441206954123 -1.0260527828453303
4894000000.0 -0.2316285630564639 -1.0114619612742084
4897000000.0 -0.2462552843386431 -1.0500695243406746
4900000000.0 -0.25275264282858634 -1.00429901307218
4903000000.0 -0.2564777751067032 -1.0328607123007236
4906000000.0 -0.30562107384062454 -1.0145196405997217
4909000000.0 -0.311239465496721 -0.9886574428054272
4912000000.0 -0.3318695345429161 -0.9991505895664329
4916000000.0 -0.2933625052687299 -1.022512194444894
4919000000.0 -0.2921704905332467 -1.0016061865667565
4922000000.0 -0.3086491185779332 -1.015883751081921
4925000000.0 -0.34371974592089816 -0.9678934379572409
4928000000.0 -0.28179319538800374 -0.9533829792854336
4931000000.0 -0.336735820789123 -0.9949966366783509
4934000000.0 -0.34406881683828106 -0.953810812441244
4938000000.0 -0.3741522507817543 -0.9365697809143261
4941000000.0 -0.3745399905948054 -0.9564343559799965
4944000000.0 -0.3643229631469822 -0.9031299203949532
4947000000.0 -0.4182746437020646 -0.9385698532194505
4950000000.0 -0.4083176624470356 -0.954644151708573
4953000000.0 -0.45159848820801984 -0.9610152701810848
4956000000.0 -0.46840224612402964 -0.9411684555456822
4959000000.0 -0.44486644190039415 -0.8895361777950626
4962000000.0 -0.4829652424896128 -0.9551072201072724
4966000000.0 -0.46123438905153413 -0.9616207126013124
4969000000.0 -0.477225086038339 -0.973561050067312
4972000000.0 -0.47886044475856837 -0.9328168283620867
4975000000.0 -0.46422890817806395 -0.9114146171846229
4978000000.0 -0.48011087420716236 -0.9093868850317275
4981000000.0 -0.544714402966334 -0.9108277697909545
4984000000.0 -0.46163748408872674 -0.9031847688831631
4988000000.0 -0.4986446523581684 -0.9218369479459655
4991000000.0 -0.5410528434855135 -0.9425568237381703
4994000000.0 -0.5214269462091888 -0.9063896101823444
4997000000.0 -0.563684317167231 -0.8733220830904723
5000000000.0 -0.5419220439466097 -0.9348661215295693
5003000000.0 -0.5552745469660825 -0.9249940512071806
5006000000.0 -0.5561216911634234 -0.9098062652039546
5009000000.0 -0.5378220204896169 -0.8855767408231254
5012000000.0 -0.6117574711422591 -0.8603880133012392
5016000000.0 -0.5970238027489481 -0.9191061888237901
5019000000.0 -0.6006643193940513 -0.8779597013082207
5022000000.0 -0.6111998117161406 -0.8480945490152283
5025000000.0 -0.6271556991910252 -0.9138695014342497
5028000000.0 -0.6315518012412423 -0.8448737088974739
5031000000.0 -0.6334522581447473 -0.8364800854145706
5034000000.0 -0.6649800779526568 -0.8331170229847434
5038000000.0 -0.6451731355994714 -0.8015541731627582
5041000000.0 -0.5944327925306686 -0.8327294315023432
5044000000.0 -0.5869567224647445 -0.8288603377198873
5047000000.0 -0.6534484988358595 -0.8200029232065273
5050000000.0 -0.6068861187723423 -0.8280505672284497
5053000000.0 -0.6929713028373079 -0.814097524931799
5056000000.0 -0.6795533512013008 -0.8125663462846412
5059000000.0 -0.6944691785257471 -0.8093069060130821
5062000000.0 -0.7351236024542106 -0.7932120015762091
5066000000.0 -0.7049177301402229 -0.8024032113051468
5069000000.0 -0.7148870596987532 -0.7681822215548352
5072000000.0 -0.6926626382715038 -0.7563073800596114
5075000000.0 -0.7072694140677179 -0.7848662734182408
5078000000.0 -0.7441646886487496 -0.747153832268554
5081000000.0 -0.7353107166288416 -0.728146027286601
5084000000.0 -0.747313121910495 -0.7252524943632692
5088000000.0 -0.7424893609027349 -0.7210512812071292
5091000000.0 -0.8178135108133799 -0.6856623555123003
5094000000.0 -0.763995850077829 -0.7198517024222073
5097000000.0 -0.7593801648454324 -0.7069882080802405
5100000000.0 -0.7911909726070805 -0.6612237622645281
5103000000.0 -0.8348735295814848 -0.6523902129257219
5106000000.0 -0.8135812683329042 -0.681855421745634
5109000000.0 -0.7672728229188854 -0.6632791854315586
5112000000.0 -0.8229978142184015 -0.6779500303306707
5116000000.0 -0.8321455326987649 -0.6336254939966681
5119000000.0 -0.8651026059554671 -0.6148353746718278
5122000000.0 -0.8440088048723373 -0.6242907914594558
5125000000.0 -0.7524513657147319 -0.662774168771474
5128000000.0 -0.8334671040828426 -0.5794327039360052
5131000000.0 -0.8617893083476182 -0.6211160766607424
5134000000.0 -0.8463810686121306 -0.5917217151932198
5138000000.0 -0.8066808019998473 -0.6610170829537196
5141000000.0 -0.8237455859376068 -0.6228063098241943
5144000000.0 -0.8412551898938146 -0.5917013231767497
5147000000.0 -0.8699850550121626 -0.6455411339102091
5150000000.0 -0.9222383082466086 -0.5920048983986043
5153000000.0 -0.9349125266296718 -0.559857214775383
5156000000.0 -0.9021156967860484 -0.5555285049090734
5159000000.0 -0.9019785810521773 -0.5676327034730829
5162000000.0 -0.9360260869124548 -0.4691921178311951
5166000000.0 -0.8892273322590016 -0.5123874089785054
5169000000.0 -0.9251587712009206 -0.49952881262901033
5172000000.0 -0.8991612749465698 -0.5233387859049867
5175000000.0 -0.9674466696972311 -0.5306419384057699
5178000000.0 -0.9466779969609236 -0.5366637249165032
5181000000.0 -0.9734920468384314 -0.46124187647686127
5184000000.0 -0.9325318503620279 -0.45243309228022205
5188000000.0 -0.9583806433030748 -0.44730354369261854
