! Created with skrf 1.8.0 (http://scikit-rf.org).
# Hz S RI R 50.0 
!freq ReS11 ImS11
4000000000.0 0.6456657812545165 0.7675290123744198
4003000000.0 0.7219178193638047 0.7599308962713428
4006000000.0 0.6790161890327671 0.7237062135096538
4009000000.0 0.7019478211700453 0.7180026666220406
4012000000.0 0.6506579871911462 0.8006533376758798
4016000000.0 0.6758241178840934 0.766243621657182
4019000000.0 0.7207460632719065 0.7190013319270981
4022000000.0 0.683435012395877 0.782337072152457
4025000000.0 0.7704790875552844 0.7142828535058056
4028000000.0 0.7597414693028364 0.6962138382135696
4031000000.0 0.6723463726490668 0.7025954908572709
4034000000.0 0.7748178424291188 0.6578168227505089
4038000000.0 0.7870155588641757 0.6952344372138048
4041000000.0 0.7843822163840338 0.6913351825294388
4044000000.0 0.8126827116766401 0.7668784868358594
4047000000.0 0.7950067585875357 0.7073089802305723
4050000000.0 0.8236745112334283 0.6697224474646849
4053000000.0 0.7605410008039926 0.5931622522775226
4056000000.0 0.7667355497126771 0.688836523419672
4059000000.0 0.8069889034435584 0.6468232120661321
4062000000.0 0.7927238276765252 0.6202510196790083
4066000000.0 0.7618133993509144 0.5832800320010033
4069000000.0 0.8716020363560782 0.6323176652871103
4072000000.0 0.7644287393766341 0.6192970322398803
4075000000.0 0.8396983326527192 0.6415784220607079
4078000000.0 0.8270434067239198 0.6007756486544209
4081000000.0 0.8334958950113339 0.6343526164113334
4084000000.0 0.8611678673027384 0.5748468538932354
4088000000.0 0.8123349034648878 0.6209080350920287
4091000000.0 0.8889475709152534 0.6569447753349231
4094000000.0 0.8218431045036677 0.5400410545543194
4097000000.0 0.8740811602344135 0.5543933316902654
4100000000.0 0.8815859542751499 0.5132832264699883
4103000000.0 0.8524601337114386 0.5554445087682793
4106000000.0 0.8663096340557336 0.5337827663397895
4109000000.0 0.8879483412811064 0.5343159380092184
4112000000.0 0.8551403867744143 0.49876729356240906
4116000000.0 0.9047622031750346 0.5229148583955812
4119000000.0 0.860980572401119 0.48698229909689406
4122000000.0 0.899494375567268 0.47006424089679366
4125000000.0 0.9267485935305345 0.47605523663320876
4128000000.0 0.8759522882574561 0.5048879139660137
4131000000.0 0.8749367143938679 0.46636861788893136
4134000000.0 0.9074917000312002 0.48112769379170683
4138000000.0 0.9029856600938433 0.43130062759912885
4141000000.0 0.9077354488254272 0.4232082336092253
4144000000.0 0.9067406034790103 0.49223358045359084
4147000000.0 0.9257420349865868 0.4249897874098791
4150000000.0 0.966379101822016 0.4170169261350129
4153000000.0 0.9137824244669358 0.4139822444460587
4156000000.0 0.9477593086480982 0.44081615344140057
4159000000.0 0.8945562640342355 0.4262526858651449
4162000000.0 0.9267704817126867 0.4146161841138598
4166000000.0 0.9528289763704809 0.3771645239859428
4169000000.0 0.9379293836396442 0.37018817065909515
4172000000.0 0.9734420173812517 0.3944138015107242
4175000000.0 0.963252130153786 0.382084384207287
4178000000.0 0.9758537983325252 0.3808933863244892
4181000000.0 0.9580227220009023 0.35129929079279787
4184000000.0 0.94038462820283 0.3418490298629327
4188000000.0 0.9321076918988409 0.3265564429717398
4191000000.0 0.9412478197188288 0.3537310876893979
4194000000.0 0.9441113995209025 0.3304090010033529
4197000000.0 0.9687657745388063 0.3309131957130382
4200000000.0 0.9566802651567794 0.34591853621380386
4203000000.0 0.9732401377827515 0.3140797703098097
4206000000.0 0.9936032511126287 0.30328364980726225
4209000000.0 0.9616816607917689 0.2939635903377779
4212000000.0 1.0049793515640384 0.2569976817192451
4216000000.0 0.9711264326133561 0.29223124340397927
4219000000.0 0.980572577520631 0.2715420815199533
4222000000.0 1.0039093474129814 0.24570203433710675
4225000000.0 0.9910144032489967 0.24089504639358042
4228000000.0 0.9988303095469482 0.23382828453989227
4231000000.0 0.9933253490039979 0.22215311738132182
4234000000.0 0.9953666316465836 0.20666058566914625
4238000000.0 0.9845011453598205 0.1931043540584059
4241000000.0 0.9853330510698166 0.18893548300798158
4244000000.0 0.9935830617318195 0.18754673359917828
4247000000.0 0.9986313877845585 0.17851493660553175
4250000000.0 0.9747672843554946 0.16664933169834556
4253000000.0 0.9590244903534222 0.1512189601283505
4256000000.0 1.0286691277279545 0.17427114452551817
4259000000.0 0.9674907564028185 0.12634642851875533
4262000000.0 1.0028521052667305 0.12758246793920097
4266000000.0 1.008732251308094 0.09739700318012817
4269000000.0 1.0084268109125656 0.12167870104605277
4272000000.0 0.9965699073527832 0.10932897907468389
4275000000.0 1.0039735625342454 0.07675741349012188
4278000000.0 1.0306262116103064 0.09107884280715839
4281000000.0 1.0219412867191133 0.11103562442242172
4284000000.0 1.0196795353399346 0.039449118824505885
4288000000.0 1.0050924160396537 0.0908827647332471
4291000000.0 0.9878120884990794 0.0640906235443209
4294000000.0 1.029725819146975 0.032635949425247085
4297000000.0 1.0064218300294852 0.06082726750428115
4300000000.0 0.9870846400777535 0.04704217089713094
4303000000.0 0.9897846544837586 0.021669531407679007
4306000000.0 1.0118861181295211 0.0501940018035764
4309000000.0 1.00404071771899 0.014254839405364483
4312000000.0 1.036800692222152 0.03962190003188944
4316000000.0 1.0064022302666351 -0.00894169868624492
4319000000.0 0.9909429414015358 0.005021065106660227
4322000000.0 0.9834159601360462 -0.03326074421382515
4325000000.0 1.0166042421059875 -0.023609894386084934
4328000000.0 0.9986250275929908 -0.03813990302016999
4331000000.0 1.0091815753825895 -0.074416793008969
4334000000.0 1.01612561283859 -0.06316373129867245
4338000000.0 0.9956951172723156 -0.06177009828288384
4341000000.0 1.034304362485678 -0.039505192212261245
4344000000.0 1.019025044393409 -0.057817751909275295
4347000000.0 1.0387516258757687 -0.10586922542597363
4350000000.0 0.975634581245457 -0.10574006247762735
4353000000.0 0.9653847990342488 -0.07369001341939133
4356000000.0 0.9895866955336523 -0.1426111978463656
4359000000.0 0.9501150580184532 -0.10053067227464382
4362000000.0 0.996629210356671 -0.19509424573899597
4366000000.0 1.0174812511449711 -0.1515906117949657
4369000000.0 0.954683041598149 -0.16681398265254987
4372000000.0 0.9698248084028962 -0.19970002905643974
4375000000.0 0.9862889125006895 -0.1599753669551134
4378000000.0 0.9741463922086032 -0.17822880504095184
4381000000.0 0.9607970912808879 -0.19388799919543062
4384000000.0 1.0601785515831903 -0.23280313184849827
4388000000.0 0.9598896600846969 -0.18940381453676253
4391000000.0 0.9925450499842741 -0.21010229027064337
4394000000.0 0.9463126974466015 -0.2169600333142779
4397000000.0 0.9702979766824298 -0.23323909197076076
4400000000.0 1.006114166631106 -0.26129690796524524
4403000000.0 0.9918697275489021 -0.2642245051725455
4406000000.0 0.9799391514600024 -0.2908997031493615
4409000000.0 1.0022917103173352 -0.29189728100183704
4412000000.0 0.9506411742455537 -0.3293177445899912
4416000000.0 0.9527187994863024 -0.30457951561773444
4419000000.0 0.9631123476140557 -0.3196450287496619
4422000000.0 0.9585775700863501 -0.3034284833128078
4425000000.0 0.9882071529758446 -0.30114020712808415
4428000000.0 0.9408878331715662 -0.33197984298178973
4431000000.0 0.972803994733211 -0.31836452428668705
4434000000.0 0.9304428133145176 -0.3461144503462771
4438000000.0 0.9664963053180162 -0.35429967686899577
4441000000.0 0.9450059835569011 -0.373560980994886
4444000000.0 0.9130755343676271 -0.36089380093965756
4447000000.0 0.9218378608608293 -0.38245712590786224
4450000000.0 0.9272714895412818 -0.37245215897214773
4453000000.0 0.9453730587697314 -0.4092673528528934
4456000000.0 0.9022512588214466 -0.40802851969367465
4459000000.0 0.8771496813166435 -0.40797001646144043
4462000000.0 0.9703750559629392 -0.43902624479514474
4466000000.0 0.9400970793264708 -0.44128306199129075
4469000000.0 0.9167068484221764 -0.4291913880538907
4472000000.0 0.905367278372581 -0.4688994883129447
4475000000.0 0.8703755739712397 -0.4316271541304052
4478000000.0 0.9237876857199023 -0.4884696174513834
4481000000.0 0.8584456690437626 -0.47350002584637846
4484000000.0 0.8769013831778225 -0.5358709750453086
4488000000.0 0.8632781152722897 -0.4975562659999066
4491000000.0 0.8795817341759058 -0.521526698324799
4494000000.0 0.8699978123056912 -0.48864519721997
4497000000.0 0.8762181594361225 -0.5054536421674904
4500000000.0 0.8729370164321462 -0.5061899561498832
4503000000.0 0.8794194698589914 -0.5325555412776658
4506000000.0 0.8495828258884077 -0.5423534271244624
4509000000.0 0.8538402359023582 -0.515498736645061
4512000000.0 0.8265610113285644 -0.5646819838554669
4516000000.0 0.8541525924895859 -0.5600959861989205
4519000000.0 0.8274572470447967 -0.5439437744599743
4522000000.0 0.8418761915276785 -0.5867332137635415
4525000000.0 0.8486926610064416 -0.5425810364812101
4528000000.0 0.834292850710068 -0.5923863801707313
4531000000.0 0.8110507050900825 -0.5732923917703714
4534000000.0 0.801732546255304 -0.5856179204897642
4538000000.0 0.8117885459303271 -0.600273128524353
4541000000.0 0.7693239222148768 -0.6320527909300404
4544000000.0 0.7719742190675138 -0.6178235015613603
4547000000.0 0.780615487438953 -0.5954047757094327
4550000000.0 0.7794121293261769 -0.6496077087584501
4553000000.0 0.7728292986665282 -0.652207011306844
4556000000.0 0.7563923227012419 -0.6331682423709839
4559000000.0 0.7400434331658869 -0.6640234356576988
4562000000.0 0.7678318118405603 -0.672516903987379
4566000000.0 0.749643434755507 -0.6823981991607271
4569000000.0 0.7209758833068787 -0.6522834662137245
4572000000.0 0.7277475909136191 -0.692408945085318
4575000000.0 0.7125596496823745 -0.7190327526822345
4578000000.0 0.7498754537001531 -0.7153193457800445
4581000000.0 0.7172587869375945 -0.7172170409251428
4584000000.0 0.7216520981137375 -0.712129174158952
4588000000.0 0.7174640195826126 -0.7323820416530837
4591000000.0 0.692363678393066 -0.7092886489851741
4594000000.0 0.6714806477359851 -0.7519940913765476
4597000000.0 0.684007648400164 -0.7531021922508375
4600000000.0 0.6616245553731677 -0.7434015665849667
4603000000.0 0.6672982631852934 -0.7550105607822869
4606000000.0 0.6767601971582049 -0.772789056284839
4609000000.0 0.6588544562330025 -0.7541034385021895
4612000000.0 0.6427904805897476 -0.762836650732955
4616000000.0 0.6281378501641941 -0.776429570310148
4619000000.0 0.6309944486853659 -0.7703797656169366
4622000000.0 0.6241264763087678 -0.8013712561302792
4625000000.0 0.5850473004056014 -0.7888162745399793
4628000000.0 0.6251894228011013 -0.7969734860747923
4631000000.0 0.5982899495107024 -0.8101963016928718
4634000000.0 0.5990741188274757 -0.8085935637119281
4638000000.0 0.6094107756287159 -0.8151082125860235
4641000000.0 0.5981603435192404 -0.823328700367053
4644000000.0 0.588064435830444 -0.8094193359641776
4647000000.0 0.5706667426379651 -0.8416666926124717
4650000000.0 0.5423322188113769 -0.8333541185656944
4653000000.0 0.5776350287413055 -0.8389653315566094
4656000000.0 0.5347135326013301 -0.8530708616287179
4659000000.0 0.5371737560320895 -0.8783932094448311
4662000000.0 0.5136139914466973 -0.8778883038341561
4666000000.0 0.5084364864394647 -0.8693230056757678
4669000000.0 0.5144200434733557 -0.8711001383130149
4672000000.0 0.4963529221541995 -0.8831825436162489
4675000000.0 0.48777844972172896 -0.8888695639237503
4678000000.0 0.4844518100456532 -0.8732818087754808
4681000000.0 0.4397381188664821 -0.912858827927188
4684000000.0 0.44984439311736163 -0.9290286562878531
4688000000.0 0.445443789044704 -0.8931325381848684
4691000000.0 0.49406774527226716 -0.9253547554957926
4694000000.0 0.4691357427363192 -0.8563821561877849
4697000000.0 0.4020689733746903 -0.8807130228435467
4700000000.0 0.4333957564104949 -0.8824098509785865
4703000000.0 0.451253288081896 -0.8662549423710775
4706000000.0 0.39742095531430294 -0.9179601951405043
4709000000.0 0.3875260737121765 -0.9095575552665144
4712000000.0 0.4358410854145355 -0.9446917054686222
4716000000.0 0.37909634625591054 -0.9298971161894218
4719000000.0 0.42083532036923726 -0.92566854161466
4722000000.0 0.4045933257315776 -0.9354099377906506
4725000000.0 0.3922510609324097 -0.9506157577609289
4728000000.0 0.3671919154939439 -0.948560393734053
4731000000.0 0.37036776223722867 -0.9509161942918867
4734000000.0 0.36400934332974333 -0.9266053662360761
4738000000.0 0.37874078459802984 -0.9753971978584225
4741000000.0 0.34459752568565366 -0.9805932905103691
4744000000.0 0.2976781368009458 -0.9951898667002591
4747000000.0 0.32797911436354654 -0.8974416988478947
4750000000.0 0.3159217333238625 -0.9762918350764247
4753000000.0 0.31929299779045744 -0.9839242390477363
4756000000.0 0.27698799528602797 -0.9907752590414702
4759000000.0 0.27654208808285535 -1.0138329268233663
4762000000.0 0.2558949560159112 -1.0191035119281089
4766000000.0 0.2331093816632806 -0.9683710141012861
4769000000.0 0.24759261494865703 -0.9949746286212763
4772000000.0 0.25469667691135184 -0.9826486719893736
4775000000.0 0.22485233282426248 -1.0374295684016848
4778000000.0 0.21591142434972047 -1.0093200896060324
4781000000.0 0.22599602711833122 -0.9686143632111175
4784000000.0 0.23460305255059807 -0.9683832739074621
4788000000.0 0.18004438226827557 -0.9973488609899184
4791000000.0 0.1808471446642004 -0.9954543391534382
4794000000.0 0.21876043262905095 -1.0169227437053827
4797000000.0 0.15934146127726181 -0.9889529482867406
4800000000.0 0.15577241905357828 -0.9933437792636384
4803000000.0 0.11438745029431047 -1.0072743904270303
4806000000.0 0.13236394910916083 -1.0204549091197583
4809000000.0 0.08519394342489607 -1.0094075311603672
4812000000.0 0.08622431908946622 -1.006952362111697
4816000000.0 0.13840050659702446 -1.0062311404538635
4819000000.0 0.1462281338428086 -1.038890719033307
4822000000.0 0.11105958108111663 -1.0283354020684883
4825000000.0 0.10274188661531049 -1.0281729317209696
4828000000.0 0.06704741570998833 -1.0015496322908848
4831000000.0 0.035912208371468565 -1.033323899121396
4834000000.0 0.10530681359954147 -1.0046047685118358
4838000000.0 0.03344925868397629 -1.057965996733152
4841000000.0 0.029008629406469935 -1.0176351971926407
4844000000.0 0.08899747053904138 -1.0152563974472621
4847000000.0 0.07966774943380273 -0.9885789663119153
4850000000.0 0.0037579362096114705 -1.0497127867768772
4853000000.0 0.031027303480050013 -1.0102421249447486
4856000000.0 0.0041336378191046685 -0.9943426330474211
4859000000.0 -0.012168613922730935 -1.0668114882167234
4862000000.0 0.027127701750418766 -1.007503068900364
4866000000.0 -0.02991012477132917 -1.028473375181725
4869000000.0 -0.03900140234960259 -1.0425080335655033
4872000000.0 -0.08008863115513201 -1.0369536814817137
4875000000.0 -0.0002399502286254407 -1.0701750550659108
4878000000.0 -0.04283272356917587 -1.0366471560689452
4881000000.0 -0.09869587325170658 -1.0807388681174765
4884000000.0 -0.0666491415231338 -1.015400814966869
4888000000.0 -0.055352167813382425 -1.0319633158724986
4891000000.0 -0.07567058413664897 -1.0438519879061179
4894000000.0 -0.09532582072665516 -1.0362221682768689
4897000000.0 -0.06743991488959604 -0.9925996174650746
4900000000.0 -0.1100250737035134 -1.0563639828779423
4903000000.0 -0.11398154825442056 -1.0317572023987303
4906000000.0 -0.1372649287752194 -1.043260532427157
4909000000.0 -0.1520757976559429 -1.0237057729603352
4912000000.0 -0.17704306394462138 -1.0413691696681147
4916000000.0 -0.16323384275620353 -1.0382018131268351
4919000000.0 -0.13461908723677235 -1.0655568766314794
4922000000.0 -0.14407185196034344 -1.0807187992015996
4925000000.0 -0.21571693992055727 -1.0223838088478017
4928000000.0 -0.14872647730843003 -0.9874213418459817
4931000000.0 -0.20288298706284746 -1.0429560536276588
4934000000.0 -0.1566837580854215 -0.9996819879829411
4938000000.0 -0.2278398852471087 -1.0107202004065199
4941000000.0 -0.24064133692062684 -0.977809441539498
4944000000.0 -0.21472891273734687 -0.943179752522298
4947000000.0 -0.2854452589232098 -0.9760373890856626
4950000000.0 -0.2490271037179913 -0.9692286292207907
4953000000.0 -0.3211250413360394 -1.0362912034456353
4956000000.0 -0.28049098111689175 -0.9813803331961796
4959000000.0 -0.2898096834285978 -0.9218610461338007
4962000000.0 -0.3074265088957546 -1.0203541663088482
4966000000.0 -0.2938552389714151 -1.0243583642147835
4969000000.0 -0.3318378802802888 -1.0265609550255814
4972000000.0 -0.2973962174814184 -0.9872253532925104
4975000000.0 -0.285207548445808 -0.9560157106934213
4978000000.0 -0.3622152452654037 -0.9675332949253117
4981000000.0 -0.3347947251714236 -0.97415090108872
4984000000.0 -0.2948996353233435 -0.9602434943428089
4988000000.0 -0.32113419376244307 -0.954368202501715
4991000000.0 -0.3176128010055627 -1.0190690167732563
4994000000.0 -0.3649252818445863 -0.9367034060472731
4997000000.0 -0.37963218029890583 -0.9383511666385292
5000000000.0 -0.36622172183260737 -0.9883913709576664
5003000000.0 -0.37762324543884157 -0.9794543167536583
5006000000.0 -0.42043390393378555 -1.0056297527980655
5009000000.0 -0.39847439762294634 -0.9466688709082813
5012000000.0 -0.44012379806574636 -0.9464733498517286
5016000000.0 -0.40226568169135873 -1.002871573864683
5019000000.0 -0.4026136848046349 -0.9348378251567482
5022000000.0 -0.43210775853974104 -0.9535366408531447
5025000000.0 -0.4741479364350775 -0.9687909462647322
5028000000.0 -0.47146207390965766 -0.9433808880103616
5031000000.0 -0.47123798918742366 -0.93522343534924
5034000000.0 -0.49757831860253554 -0.9442931680134015
5038000000.0 -0.4608859547095915 -0.9038186178703205
5041000000.0 -0.479898294802763 -0.933583307138251
5044000000.0 -0.44119184495736463 -0.9228424317649754
5047000000.0 -0.4923339935324231 -0.9269706311942371
5050000000.0 -0.452266086360798 -0.9151399637315865
5053000000.0 -0.5454868067724623 -0.9283566979358084
5056000000.0 -0.48587475879110287 -0.9051376089197296
5059000000.0 -0.45545111281183753 -0.9183699393029582
5062000000.0 -0.5586844283439858 -0.8852644289193368
5066000000.0 -0.5000889093575385 -0.9232666764335706
5069000000.0 -0.5570702083692942 -0.8919403226435741
5072000000.0 -0.5476511529072644 -0.8732367141671202
5075000000.0 -0.5166125648220864 -0.8918508256420856
5078000000.0 -0.584448827153436 -0.8377524714856592
5081000000.0 -0.5550472004937493 -0.8056706793846885
5084000000.0 -0.6106379402998647 -0.8660993391816973
5088000000.0 -0.5848620614252751 -0.8467135671710908
5091000000.0 -0.6211601735298766 -0.8242703391475743
5094000000.0 -0.5803840555706734 -0.8478486381835802
5097000000.0 -0.612979762823404 -0.8559840111806032
5100000000.0 -0.6116095592318863 -0.8377249435705335
5103000000.0 -0.6500667544278734 -0.830232449839389
5106000000.0 -0.6292646131334686 -0.8270559466724322
5109000000.0 -0.6303901228902095 -0.813190063755331
5112000000.0 -0.6124291033434184 -0.7722352455545438
5116000000.0 -0.6383965831451286 -0.7730859448673308
5119000000.0 -0.6659705278229079 -0.7986491339036663
5122000000.0 -0.6519846828694924 -0.7846909371703186
5125000000.0 -0.6076900481763444 -0.7802745335972598
5128000000.0 -0.6722599358079779 -0.8024547667485815
5131000000.0 -0.72190506190071 -0.7733197334658015
5134000000.0 -0.708006437421957 -0.7475792772845533
5138000000.0 -0.7024564184080729 -0.7474050774082852
5141000000.0 -0.6427383513862601 -0.7720971191357868
5144000000.0 -0.7144531292441668 -0.8095642912912524
5147000000.0 -0.7428218289443543 -0.7607043720602538
5150000000.0 -0.7196286424240624 -0.7519628478564278
5153000000.0 -0.7398676560910951 -0.7729501158794221
5156000000.0 -0.7458689862275569 -0.7611388123169416
5159000000.0 -0.7930219990476716 -0.730753644392042
5162000000.0 -0.7618560162561748 -0.6777178575290962
5166000000.0 -0.7846382067258912 -0.7287343268234373
5169000000.0 -0.7858151895224359 -0.7293523346964799
5172000000.0 -0.7865289756519751 -0.7306056408798829
5175000000.0 -0.792947732993917 -0.7150258152262763
5178000000.0 -0.7928566224004707 -0.7154138925009114
5181000000.0 -0.805900757651634 -0.7140005499457511
5184000000.0 -0.8093492311629322 -0.6488162417939818
5188000000.0 -0.7869213775798545 -0.6687036389978466
