! Created with skrf 1.8.0 (http://scikit-rf.org).
# Hz S RI R 50.0 
!freq ReS11 ImS11
4000000000.0 0.659874267776673 0.805931768692121
4003000000.0 0.6776478973340367 0.8106472623920821
4006000000.0 0.708857156123718 0.7219344545118914
4009000000.0 0.6725907724807723 0.8103233617048669
4012000000.0 0.629576233694744 0.847751085813259
4016000000.0 0.6990661605048624 0.7631417059932262
4019000000.0 0.6978464638364628 0.7342204820291544
4022000000.0 0.6313297682389262 0.8581836837408662
4025000000.0 0.743261958090286 0.7495820242193726
4028000000.0 0.698062336288057 0.7364768332500455
4031000000.0 0.6996008098788247 0.7343337200701525
4034000000.0 0.6994325417641427 0.72092231615285
4038000000.0 0.7763533274258096 0.7218794037575079
4041000000.0 0.7343288052749178 0.7529369139400763
4044000000.0 0.7845794955361535 0.7636581689404383
4047000000.0 0.7262590018663934 0.7819547924001867
4050000000.0 0.773922387943928 0.6934531211727825
4053000000.0 0.7620500720598521 0.684655243686815
4056000000.0 0.7652175514279589 0.690384517113208
4059000000.0 0.7549873698841202 0.6877637050381895
4062000000.0 0.7863430937636389 0.6417745953235132
4066000000.0 0.7468459203538416 0.6087206568282668
4069000000.0 0.8194213620889281 0.6826531612710744
4072000000.0 0.7824562155336278 0.7017885648746107
4075000000.0 0.8102735945437856 0.7341860836350911
4078000000.0 0.780890884260589 0.6410774245980154
4081000000.0 0.8142387263235961 0.7233441411249423
4084000000.0 0.8190661614821773 0.6249464185657059
4088000000.0 0.7526976985951355 0.6617804518098337
4091000000.0 0.8807387503899716 0.6835984670756321
4094000000.0 0.8003891626891557 0.5947062614157614
4097000000.0 0.8350899948692511 0.560773663612971
4100000000.0 0.837194532987646 0.5744772812437071
4103000000.0 0.8380034695483853 0.6103939983037749
4106000000.0 0.8164482751318781 0.5600247443446551
4109000000.0 0.8683210830526555 0.5804273399493183
4112000000.0 0.8822049833645602 0.5512061939043416
4116000000.0 0.8661935105130434 0.5570406181708597
4119000000.0 0.8691885751128142 0.5474162980102786
4122000000.0 0.8973799982929072 0.5336011319076207
4125000000.0 0.9079566467649048 0.5318684223996624
4128000000.0 0.8105462201986563 0.5343637307277146
4131000000.0 0.8535941005697095 0.5332293331575683
4134000000.0 0.8842929423773778 0.5323708279514012
4138000000.0 0.877006701546108 0.48848030908683576
4141000000.0 0.8907261045481274 0.4981618294180922
4144000000.0 0.9045098197880459 0.5060651809382495
4147000000.0 0.9061604580257232 0.44773025560496854
4150000000.0 0.9445808767573065 0.5377386208077612
4153000000.0 0.9126481457447683 0.4383513579054841
4156000000.0 0.9234393207428597 0.5188220973615295
4159000000.0 0.8851526038827573 0.456231124134631
4162000000.0 0.9189178220817622 0.46926386416093957
4166000000.0 0.921282893383442 0.46846077249689944
4169000000.0 0.9195998748995687 0.41744101745672924
4172000000.0 0.9503053300159209 0.41747084670456286
4175000000.0 0.9207868669265937 0.41225543500031875
4178000000.0 0.9593976535352988 0.42008405811365623
4181000000.0 0.9271896326678994 0.41095016697683007
4184000000.0 0.9424411455057449 0.3939876817962024
4188000000.0 0.9675612481492644 0.3863297528386592
4191000000.0 0.9177209831161841 0.38802960094078526
4194000000.0 0.9271333154920525 0.3644275828570076
4197000000.0 0.9635263300668077 0.39059927085225105
4200000000.0 0.9363217141998639 0.38879691009918993
4203000000.0 0.9591773673459381 0.37059774970974146
4206000000.0 0.9663470771794611 0.371113388336672
4209000000.0 0.9562591109841361 0.3381776294863939
4212000000.0 0.9652607447426335 0.3066584888192011
4216000000.0 0.953261638093971 0.3339015791907622
4219000000.0 0.9813686422629906 0.3380129692562174
4222000000.0 0.9753741522449051 0.2925720106184526
4225000000.0 0.9672262346160059 0.29643757991925923
4228000000.0 0.9859519426534362 0.290472612088297
4231000000.0 0.972828935450146 0.26712039494918904
4234000000.0 0.988347701844787 0.2734782087830399
4238000000.0 0.992296937207974 0.2501231540016604
4241000000.0 0.9811826910906953 0.22739401432444695
4244000000.0 0.9915933315550378 0.26042479350782044
4247000000.0 0.9716986328868049 0.23331464418269832
4250000000.0 0.9747798104275673 0.21181426836381712
4253000000.0 0.96168119629509 0.22188016955621698
4256000000.0 1.015083154762017 0.22368950708115365
4259000000.0 0.9703002921595149 0.20416773652435707
4262000000.0 0.9966053670260198 0.2034099826484543
4266000000.0 1.037618187737781 0.15456861280796802
4269000000.0 0.9945033656436959 0.18863872071306934
4272000000.0 0.9899221726965556 0.16332150229898132
4275000000.0 1.0096462613002908 0.16285838882892167
4278000000.0 1.0186958759643903 0.15610858072504297
4281000000.0 1.0069278654138032 0.1415728766922657
4284000000.0 0.9957862301271234 0.09223324650374953
4288000000.0 1.0166457250146856 0.15161949158341134
4291000000.0 0.9737669541971993 0.10542699924625666
4294000000.0 0.9992399413534662 0.10623042104676857
4297000000.0 0.9678827559894252 0.13789517799945517
4300000000.0 1.0007270631790974 0.09653922045706056
4303000000.0 0.9978894533660226 0.09993946312437861
4306000000.0 1.0351580142670094 0.10430798762498125
4309000000.0 0.993380989048858 0.08155502782546924
4312000000.0 1.0107649896487847 0.10187103478905904
4316000000.0 1.0127110411897031 0.06684697672989996
4319000000.0 1.0133591299863662 0.05734961571235907
4322000000.0 1.0091884495589256 -0.005005696254262351
4325000000.0 0.996596254655538 0.044036817263400016
4328000000.0 0.9710498289243987 -0.0028855487023339843
4331000000.0 1.034806699215828 -0.01324860850300888
4334000000.0 0.9965282827308126 -0.005435840399079045
4338000000.0 1.0069437091232931 0.010729158445588624
4341000000.0 1.0482536229069206 0.026741134563684266
4344000000.0 1.0341175954919306 -0.01953031197022964
4347000000.0 1.011827437249811 -0.05399488336017985
4350000000.0 0.9844926260247632 -0.03653043195909757
4353000000.0 1.0016184082044006 -0.02799861708233231
4356000000.0 0.9935818433200398 -0.07290604748783072
4359000000.0 0.9683300916188469 -0.06452259103817994
4362000000.0 1.002755622621672 -0.12337458175883421
4366000000.0 1.0125104854793072 -0.10784670549230478
4369000000.0 0.9762967378332978 -0.09776749256951683
4372000000.0 0.9882119797218207 -0.13032981509421093
4375000000.0 1.0120801806391841 -0.07586072327009767
4378000000.0 0.9688186073330203 -0.11235446435379763
4381000000.0 0.9807576103509177 -0.10990131526635875
4384000000.0 1.0581302849206191 -0.15069506595603302
4388000000.0 0.9604223687975204 -0.13431229836452463
4391000000.0 0.9957970466835404 -0.1567626625502162
4394000000.0 0.957631989508797 -0.16976633031683763
4397000000.0 0.9896737833105318 -0.18263827091216506
4400000000.0 1.016473896172115 -0.1956969915341928
4403000000.0 0.9977853122792529 -0.18212260687645668
4406000000.0 0.9877806277080478 -0.19738610216424696
4409000000.0 1.0155861254366365 -0.2133002340477428
4412000000.0 0.9705804556041939 -0.2689092097249021
4416000000.0 0.96988483957487 -0.24198189865672476
4419000000.0 0.9686193119246761 -0.24069449648710523
4422000000.0 0.9724020262358686 -0.21162998774804495
4425000000.0 0.996264876929751 -0.24065278897818534
4428000000.0 0.9566232025410608 -0.26891882161222735
4431000000.0 0.9907461429230331 -0.25289520161713813
4434000000.0 0.958797324861124 -0.2714879309546972
4438000000.0 0.9863884517694899 -0.2957452909292986
4441000000.0 0.9858368417775889 -0.29334728639698504
4444000000.0 0.9654032798922152 -0.2969136885113454
4447000000.0 0.9423191183703592 -0.32282402550147915
4450000000.0 0.9542575604681925 -0.2944191597291854
4453000000.0 0.9774192686083997 -0.3424942658248923
4456000000.0 0.9132150458928572 -0.3470668409046388
4459000000.0 0.9040420318490328 -0.34872604500015303
4462000000.0 0.9917900983505425 -0.3847872771547958
4466000000.0 0.9607678060694551 -0.3841828140794292
4469000000.0 0.9358754839815606 -0.360103083390386
4472000000.0 0.9376832436817525 -0.4117987150124188
4475000000.0 0.9063898188594363 -0.3713842259526503
4478000000.0 0.9702840032788023 -0.4285352957299571
4481000000.0 0.896064118197327 -0.4045976713781405
4484000000.0 0.8840538442863166 -0.44016261136011103
4488000000.0 0.8954676081203652 -0.41368395965780597
4491000000.0 0.9187477565090739 -0.43692151110467115
4494000000.0 0.9011023091835862 -0.4278853467583338
4497000000.0 0.8979975695663771 -0.4338979414380077
4500000000.0 0.9008782535127584 -0.43173492028872
4503000000.0 0.917526358162573 -0.4565944546169803
4506000000.0 0.8849211241686419 -0.47443598327228514
4509000000.0 0.883676557079325 -0.4604928502414194
4512000000.0 0.8751292250050076 -0.4893691946544019
4516000000.0 0.8894003768977381 -0.5080593145060476
4519000000.0 0.8614610002917568 -0.4745941000234455
4522000000.0 0.8579199612495205 -0.5027782499574291
4525000000.0 0.8659429765955671 -0.47846949530168015
4528000000.0 0.9090365309225268 -0.5364497869167233
4531000000.0 0.8583120586132039 -0.5043607153253564
4534000000.0 0.834688537968626 -0.5292836435391026
4538000000.0 0.8408144546564813 -0.530106109190673
4541000000.0 0.8186840118550115 -0.5856510599152018
4544000000.0 0.8279628624418875 -0.5469379242845844
4547000000.0 0.8320976493114021 -0.5328115137530336
4550000000.0 0.8308214681357999 -0.5917808246143242
4553000000.0 0.7983369399734879 -0.5928498613917662
4556000000.0 0.8109347008057404 -0.5950943625625447
4559000000.0 0.80981762766023 -0.6119631017038152
4562000000.0 0.8075715401814263 -0.6026142152611391
4566000000.0 0.7928738070920611 -0.6038493017470363
4569000000.0 0.776666952109684 -0.6285826662530052
4572000000.0 0.7938346582795044 -0.6357389122861338
4575000000.0 0.7808338469303024 -0.63411896789125
4578000000.0 0.7867243799137567 -0.642838932061393
4581000000.0 0.7655877936309105 -0.6486621959305334
4584000000.0 0.7606492555027744 -0.6592375400645532
4588000000.0 0.7830230508403299 -0.6762592585915608
4591000000.0 0.758430819968494 -0.6571385619950214
4594000000.0 0.7325913611484025 -0.6942309150228921
4597000000.0 0.7522172802349496 -0.6926662655905975
4600000000.0 0.7111373817318344 -0.7066553888851239
4603000000.0 0.7199333706418555 -0.717311268256796
4606000000.0 0.7250743530220469 -0.7080360466287186
4609000000.0 0.7309282102460084 -0.6975172083174341
4612000000.0 0.7238822531451927 -0.7195151953466744
4616000000.0 0.6923769853191288 -0.7199926862489342
4619000000.0 0.7133147352342305 -0.7218303651245271
4622000000.0 0.6918350842482475 -0.7386601024693796
4625000000.0 0.6672672989292691 -0.7358490366535763
4628000000.0 0.6869808027084736 -0.7348673204862266
4631000000.0 0.6694273943313389 -0.7545958841315007
4634000000.0 0.6757649056971263 -0.7668931679803571
4638000000.0 0.654653388834609 -0.7774049378506928
4641000000.0 0.6591203683076797 -0.768584793952958
4644000000.0 0.6520015540311377 -0.7708412899998242
4647000000.0 0.6646762184283942 -0.7804104192718659
4650000000.0 0.6162137846064475 -0.7983986742654539
4653000000.0 0.6357341059060055 -0.782903335105704
4656000000.0 0.6082284535762634 -0.7969391498667859
4659000000.0 0.5988727116435809 -0.808494976715179
4662000000.0 0.6011522301310408 -0.8031255942331554
4666000000.0 0.5907699532886008 -0.807913618757866
4669000000.0 0.6117224181629943 -0.8233269325717479
4672000000.0 0.5605714474307757 -0.845410065346679
4675000000.0 0.5695420559857753 -0.8423545980418838
4678000000.0 0.5551502475804406 -0.8337448719729856
4681000000.0 0.529354057497602 -0.8656408666168408
4684000000.0 0.536088860752042 -0.8465340181743743
4688000000.0 0.5242536578105637 -0.8515626029500379
4691000000.0 0.5442707611414704 -0.859641792650411
4694000000.0 0.5151797320700945 -0.8496177535276217
4697000000.0 0.4895762440298596 -0.8286767449698644
4700000000.0 0.5197054121083221 -0.8470126656922599
4703000000.0 0.5228215664211815 -0.832903311067781
4706000000.0 0.48674442358540626 -0.867362492950732
4709000000.0 0.47369865833459446 -0.8721444156849666
4712000000.0 0.49876373066313406 -0.8886920707618078
4716000000.0 0.4739911235258452 -0.8931081272834362
4719000000.0 0.490418237414011 -0.9003674593769733
4722000000.0 0.47541277888159195 -0.914157436063779
4725000000.0 0.4406831089019658 -0.8651357433173154
4728000000.0 0.407440667217575 -0.9133087092752732
4731000000.0 0.45524790948294686 -0.9180406615859333
4734000000.0 0.43450918941313876 -0.9314385152486828
4738000000.0 0.43817320054460096 -0.9551700892757761
4741000000.0 0.4501435143218897 -0.9702595473889124
4744000000.0 0.3942614417027299 -0.9504799592947587
4747000000.0 0.43581478238236343 -0.9155979315533667
4750000000.0 0.38276135662209254 -0.9423056021761264
4753000000.0 0.3930158915774304 -0.9342452609265258
4756000000.0 0.3789541093033769 -0.9470746040853983
4759000000.0 0.38217637041616986 -0.9535006666707948
4762000000.0 0.3360786545011354 -0.9810252888922438
4766000000.0 0.35132551720191824 -0.9427699042034121
4769000000.0 0.3601973289120992 -0.9611275284042159
4772000000.0 0.36439903023760817 -0.962440399246017
4775000000.0 0.3201487679477881 -1.0079654673503926
4778000000.0 0.33309725703457893 -0.973758522778701
4781000000.0 0.33979129737850017 -0.977473753454607
4784000000.0 0.3344558396752233 -0.9471559959324739
4788000000.0 0.2745127195869552 -0.9992809487238901
4791000000.0 0.28486423187772925 -0.9798178280511723
4794000000.0 0.30204038706351155 -0.9930099541198028
4797000000.0 0.2505701622862781 -0.9758745976244413
4800000000.0 0.24019530992562765 -0.9704330751772765
4803000000.0 0.19463153228906457 -0.9801636173471042
4806000000.0 0.22715799978342016 -0.9979629193635513
4809000000.0 0.18990803830904526 -0.9905277930468436
4812000000.0 0.20657073663140996 -0.9770586177758434
4816000000.0 0.24117145311682456 -0.9652674953718201
4819000000.0 0.21461750350456985 -1.0293953704506906
4822000000.0 0.21772227998033875 -1.022464586017196
4825000000.0 0.21958737239963805 -1.0148173888239753
4828000000.0 0.1915879014808998 -1.0012641381455754
4831000000.0 0.1347189496371099 -1.0426371609745435
4834000000.0 0.19541659318406973 -0.9992447887119789
4838000000.0 0.16439593504136557 -1.0263805185092458
4841000000.0 0.14982514809952935 -0.9911423126173887
4844000000.0 0.16878779916061865 -1.0084038954651742
4847000000.0 0.17267237025263965 -0.9793026219156691
4850000000.0 0.11004900549163196 -1.0277048259184154
4853000000.0 0.11787374314065129 -0.9805236020182333
4856000000.0 0.1115407731004393 -0.9992577639972046
4859000000.0 0.09249213500175445 -1.0596993103589334
4862000000.0 0.12556913188685856 -0.9972459464266373
4866000000.0 0.06465602187925402 -1.0321838258490637
4869000000.0 0.07247841991388429 -1.0242195960042129
4872000000.0 0.03209596836731917 -1.0565988557380879
4875000000.0 0.10350401793559244 -1.0663421756547824
4878000000.0 0.04697434158034307 -1.011499461143118
4881000000.0 0.010550683758350932 -1.0853570554057674
4884000000.0 0.0527164917832685 -1.027237644806431
4888000000.0 0.046709295520005044 -1.0286440921721849
4891000000.0 0.03189225765809103 -1.0488933254146853
4894000000.0 -0.005159332869559571 -1.0188978822568464
4897000000.0 0.036668383784908845 -1.00588822766761
4900000000.0 -0.009308644430212724 -1.0162148794079002
4903000000.0 -0.006887282831783442 -1.0465239305733127
4906000000.0 -0.025438206129621027 -1.0350645058266004
4909000000.0 -0.041762434829545565 -1.0000699592538043
4912000000.0 -0.06669390886266285 -1.0317917631185205
4916000000.0 -0.05399556861726886 -1.053274010906667
4919000000.0 -0.029569007897346594 -1.0415286988878099
4922000000.0 -0.03417067864573124 -1.0291715268733612
4925000000.0 -0.1102586843069801 -1.0426453312399273
4928000000.0 -0.021188044914848922 -0.9980629601221345
4931000000.0 -0.09938735862833557 -1.065840035370691
4934000000.0 -0.10096145983986889 -0.9862979833957212
4938000000.0 -0.14502342238172816 -1.0140301447596651
4941000000.0 -0.10631907506076364 -0.9898081712774929
4944000000.0 -0.11828576246014269 -0.9591082603847219
4947000000.0 -0.13582196140783118 -0.9819397094023687
4950000000.0 -0.13754351886621546 -0.9945025209991926
4953000000.0 -0.19013765776924285 -1.0556387673266878
4956000000.0 -0.16741033646944137 -1.0497901343413174
4959000000.0 -0.1931976083076666 -0.9689025719979016
4962000000.0 -0.17603067645480278 -1.0220445036203418
4966000000.0 -0.18117893668454654 -1.0201135627036897
4969000000.0 -0.20775995218492788 -1.0269356028338115
4972000000.0 -0.1927336379763426 -1.0378494948195929
4975000000.0 -0.15699171523601488 -0.968439754062771
4978000000.0 -0.23555909136825925 -1.0244688342171948
4981000000.0 -0.26543024056068 -1.0198971529337837
4984000000.0 -0.20557665707106784 -0.9608866615020536
4988000000.0 -0.23490249193672902 -0.9949945279188851
4991000000.0 -0.21705528161954918 -1.0254519556818107
4994000000.0 -0.24147835496727266 -1.0069814430481396
4997000000.0 -0.3018661651800109 -0.978718874664148
5000000000.0 -0.23653899561995217 -1.0408529155670982
5003000000.0 -0.2635976449177278 -1.0294977501731741
5006000000.0 -0.3110014984052034 -1.0490426572906126
5009000000.0 -0.2781217299922888 -0.9980111497685457
5012000000.0 -0.3077772165595047 -0.9944364267714347
5016000000.0 -0.2933588261092743 -1.0247735243800988
5019000000.0 -0.3040011406833154 -0.9409718463968549
5022000000.0 -0.32928202702467313 -0.9791975931410144
5025000000.0 -0.36228293588454646 -1.0185634687570575
5028000000.0 -0.35418291830214144 -0.9459368061258877
5031000000.0 -0.3789243970428624 -0.9602353180978579
5034000000.0 -0.42331904598738335 -0.9639271432380503
5038000000.0 -0.3788397530889319 -0.920474371912424
5041000000.0 -0.33889591120623375 -0.9964899815778706
5044000000.0 -0.3381761269638113 -0.9565869157645818
5047000000.0 -0.3548272898010825 -0.9797645217769072
5050000000.0 -0.3429680241301786 -0.9910681028181298
5053000000.0 -0.420831939680835 -1.0089859124665086
5056000000.0 -0.3781928234425346 -0.9475942553197161
5059000000.0 -0.3802857529574684 -0.9656754353824456
5062000000.0 -0.4784249258485834 -0.9510785838271416
5066000000.0 -0.38348492100115505 -0.9300506107715016
5069000000.0 -0.4566210511395634 -0.9531059163571135
5072000000.0 -0.4013607383719543 -0.9439556177643516
5075000000.0 -0.41346048636181176 -0.9539836184716963
5078000000.0 -0.4874210357927949 -0.9132820478323489
5081000000.0 -0.4431526272872142 -0.9068726718695478
5084000000.0 -0.47794898013455234 -0.9215748302862987
5088000000.0 -0.43695049180963386 -0.9511639889548662
5091000000.0 -0.491044691732707 -0.8797055459373557
5094000000.0 -0.46074861870746814 -0.8992220752120003
5097000000.0 -0.48587928088948895 -0.9267234923434597
5100000000.0 -0.5115504004181887 -0.867262388110072
5103000000.0 -0.5668887346218044 -0.8589888863266263
5106000000.0 -0.5313190281405373 -0.9374686621484116
5109000000.0 -0.5065410262004438 -0.8934220186541195
5112000000.0 -0.5376813032197905 -0.881009306819734
5116000000.0 -0.53281288499845 -0.8679630436848931
5119000000.0 -0.5794258665942876 -0.8905595055014623
5122000000.0 -0.4988491946243648 -0.8843818668449017
5125000000.0 -0.5360215665115944 -0.8805887084818432
5128000000.0 -0.539128633758859 -0.8398743502052495
5131000000.0 -0.5970099098645546 -0.8453489231279924
5134000000.0 -0.5918165858690796 -0.8466146610449055
5138000000.0 -0.597839548681662 -0.8605491085418132
5141000000.0 -0.5837035698122337 -0.8657184078615494
5144000000.0 -0.5888228074156466 -0.8432828519611888
5147000000.0 -0.6347123007814396 -0.8538492899724448
5150000000.0 -0.5934556764397521 -0.8372779548302954
5153000000.0 -0.6193204967653461 -0.8433495307631521
5156000000.0 -0.6391263706960427 -0.8451105000095569
5159000000.0 -0.6668023177099436 -0.8491669738982334
5162000000.0 -0.6603200283222813 -0.7762303567249819
5166000000.0 -0.6952933234622898 -0.7859198769717147
5169000000.0 -0.6449492712294628 -0.829935236053346
5172000000.0 -0.6114265693783156 -0.7933041592554232
5175000000.0 -0.666420383018603 -0.881692304065751
5178000000.0 -0.6847011577102868 -0.783669833078097
5181000000.0 -0.6972430714592058 -0.8470596003059403
5184000000.0 -0.714266042766337 -0.7578959599396515
5188000000.0 -0.7193684932177409 -0.7751620865386557
