! Created with skrf 1.8.0 (http://scikit-rf.org).
# Hz S RI R 50.0 
!freq ReS11 ImS11
4000000000.0 0.6393011433213052 0.8098546837347427
4003000000.0 0.6986531860885937 0.8779334590884172
4006000000.0 0.6892514345410276 0.8076399068636153
4009000000.0 0.7023462633070852 0.7909541733639626
4012000000.0 0.6504486190636063 0.8824804582226905
4016000000.0 0.732215784882592 0.7750614956245985
4019000000.0 0.6903219624996508 0.8000556654939484
4022000000.0 0.6284080422886482 0.8328144334659456
4025000000.0 0.7353598023241235 0.7754774581892293
4028000000.0 0.7095975416836764 0.7432696622923636
4031000000.0 0.664410624754658 0.7312501215145086
4034000000.0 0.7127061229417394 0.7575616151565244
4038000000.0 0.766819926524397 0.7481061881799803
4041000000.0 0.7615350610241889 0.77691992571323
4044000000.0 0.7721400482506454 0.7765371754413132
4047000000.0 0.7596722144246115 0.7610125445842707
4050000000.0 0.7979920914896274 0.7305790097958075
4053000000.0 0.7864406045063688 0.6976910303341268
4056000000.0 0.796046076831075 0.7291710680486556
4059000000.0 0.7512673647306986 0.6912691507358173
4062000000.0 0.80791887354797 0.6944784610036061
4066000000.0 0.7644362664631807 0.6447965452562013
4069000000.0 0.8245986491971661 0.6895081879747252
4072000000.0 0.7512105610257993 0.6888507333776848
4075000000.0 0.8158225611934985 0.7359997159312861
4078000000.0 0.8279998399216306 0.6870630135207639
4081000000.0 0.7854185030288261 0.7265691251608815
4084000000.0 0.8119422775015072 0.670360913341193
4088000000.0 0.7780249786059031 0.700232500904594
4091000000.0 0.8792773836054522 0.6938671160848027
4094000000.0 0.8330681269631651 0.6339999876263721
4097000000.0 0.8216365448427744 0.6305999020220514
4100000000.0 0.8303756144390532 0.6233527860353791
4103000000.0 0.8555177128197331 0.6484257404705791
4106000000.0 0.9008247257427222 0.6428173278026613
4109000000.0 0.883865666067911 0.5986966407701826
4112000000.0 0.8646068940300657 0.6283780741388685
4116000000.0 0.8630691365684188 0.602561814057744
4119000000.0 0.9110690947698223 0.6103908020156229
4122000000.0 0.9042542918398664 0.5432251165474573
4125000000.0 0.901646131910711 0.5621836011819428
4128000000.0 0.8466810370060291 0.5774588669437517
4131000000.0 0.8917957679494662 0.5450523427183599
4134000000.0 0.8717423908195062 0.5600549379761925
4138000000.0 0.8879583834121485 0.511358748605881
4141000000.0 0.9034556628836766 0.5233024536290666
4144000000.0 0.9076681757922576 0.5130841580708267
4147000000.0 0.8911914885730378 0.4874584054457705
4150000000.0 0.9754933438668336 0.5419576360378644
4153000000.0 0.9507615264709685 0.48627747788183673
4156000000.0 0.9580533275099943 0.5213749963688356
4159000000.0 0.9068629408036255 0.5138721752427651
4162000000.0 0.9180342269617714 0.47155699642069915
4166000000.0 0.9577490701921318 0.4395535176595702
4169000000.0 0.9267111285896817 0.4123248107795039
4172000000.0 0.9590438297381936 0.4448460381561556
4175000000.0 0.9456439974944456 0.5228681429947661
4178000000.0 0.9563762481179869 0.446250381242968
4181000000.0 0.9572266053885055 0.4241902509320483
4184000000.0 0.9612588826408417 0.45065054596979176
4188000000.0 0.9569806900204845 0.40140719264704194
4191000000.0 0.9503319089133638 0.4452355132533448
4194000000.0 0.9267770732732284 0.42553913852584146
4197000000.0 0.9640807771555832 0.4127332070262851
4200000000.0 0.9474031305320143 0.3857075373480011
4203000000.0 0.967487309379217 0.40020110469345926
4206000000.0 0.9874597852611704 0.36091729804319944
4209000000.0 0.969647891177752 0.366517360942656
4212000000.0 0.9857412832935759 0.32797966168373405
4216000000.0 0.9657675426788892 0.36407502096504357
4219000000.0 0.990024027764899 0.3523692242721752
4222000000.0 0.9758994660508402 0.33185876406181275
4225000000.0 0.9588784034506974 0.3311054902432796
4228000000.0 1.0046427571370922 0.32117874002258895
4231000000.0 0.9856713487910722 0.3098058758124499
4234000000.0 0.9953682956289761 0.2955931104974881
4238000000.0 0.9732647034649715 0.2639927931381564
4241000000.0 0.9785911113891783 0.2640694177748578
4244000000.0 0.9862079449652907 0.2738342745591481
4247000000.0 0.9944616443878698 0.27864574289434135
4250000000.0 0.9994769056033299 0.22983215619685216
4253000000.0 0.9834981422988929 0.232140922917346
4256000000.0 1.0230920881417345 0.23930855798257433
4259000000.0 0.9651850213096392 0.20864604484304808
4262000000.0 0.9977341776667097 0.20327286863691305
4266000000.0 1.0282153893941661 0.20600902053854653
4269000000.0 1.000738116202898 0.20540790592232935
4272000000.0 1.0202285165733187 0.19559232043785818
4275000000.0 1.0255121598862769 0.19319767281531902
4278000000.0 1.0221114086245497 0.18734049672482977
4281000000.0 1.0193315780872352 0.15631830534236313
4284000000.0 1.0245258611628039 0.13572614165873398
4288000000.0 1.0153129947161952 0.1993273024435359
4291000000.0 0.9871328518539798 0.15079902990711402
4294000000.0 1.0155655415090243 0.13720649682221114
4297000000.0 1.034887486814772 0.13652340531986695
4300000000.0 1.0111463901174726 0.12493245360543084
4303000000.0 1.027164140118022 0.11870641443492895
4306000000.0 1.0226612672732283 0.1199940105186166
4309000000.0 1.009459048008761 0.12148789772891179
4312000000.0 1.0484899228285023 0.130265973408637
4316000000.0 1.0323959765998656 0.08613469025082114
4319000000.0 1.0122963272101488 0.08793710825368493
4322000000.0 1.0386692731857288 0.024776244604357053
4325000000.0 1.0289789738258963 0.0683042406468851
4328000000.0 1.0230490027159784 0.025054252397382945
4331000000.0 1.0497434302006998 -0.0015381705401732587
4334000000.0 1.0303540358635366 0.014636793295051853
4338000000.0 1.0521104406150175 0.032545090727511314
4341000000.0 1.0354298115181317 0.03643876821502834
4344000000.0 1.0560724572034752 0.009445768112839648
4347000000.0 1.0363550709449367 -0.02253633640785399
4350000000.0 1.0023331981048451 -0.029584147817142803
4353000000.0 1.0315840830369234 -0.014761864773652433
4356000000.0 1.0142905040277306 -0.05480928281010579
4359000000.0 0.9753915884761308 -0.058343804542191555
4362000000.0 1.0217850168503824 -0.10448877267486446
4366000000.0 1.02753930801956 -0.06473730096608965
4369000000.0 0.9906831336354299 -0.07561267009486594
4372000000.0 0.9962978341812019 -0.10333506015680746
4375000000.0 1.0063511303033248 -0.06076286696133956
4378000000.0 0.990608837026696 -0.08969671996015732
4381000000.0 1.0094505795923403 -0.057976785051700896
4384000000.0 1.0671443217614007 -0.13506457664053237
4388000000.0 1.001741230023808 -0.10465760823682072
4391000000.0 1.0234814160303642 -0.127785661411757
4394000000.0 0.9859699278964287 -0.14528284838608868
4397000000.0 1.0031844942429566 -0.16782318228199855
4400000000.0 1.0348553507476315 -0.1594845091516056
4403000000.0 1.0105129069227508 -0.17162597174161612
4406000000.0 1.0051237249230345 -0.19642115564320237
4409000000.0 1.0341233570710555 -0.1917556850605802
4412000000.0 0.9869416874420938 -0.231885357316833
4416000000.0 0.9801669852085444 -0.2097723976603717
4419000000.0 0.9884238331149163 -0.22718238124993803
4422000000.0 0.9948253077540912 -0.19718507129297874
4425000000.0 1.0019851730994718 -0.20047911412988154
4428000000.0 0.9736309422247885 -0.24404236094749376
4431000000.0 1.0219979015271383 -0.23303548324821785
4434000000.0 0.9682801871566085 -0.2645759757695922
4438000000.0 1.0096214658601794 -0.26880418866344835
4441000000.0 1.0095541530176502 -0.27194821483640574
4444000000.0 0.9603686831532825 -0.2628060977671096
4447000000.0 0.9704379783285949 -0.2985477705807118
4450000000.0 0.9762745339755576 -0.2720661570321447
4453000000.0 1.000453711429074 -0.3139587481985655
4456000000.0 0.9450963983965568 -0.3049071679049144
4459000000.0 0.9221989000034443 -0.32000865940604306
4462000000.0 1.0178775989303404 -0.34798529763004765
4466000000.0 0.9907224754745876 -0.36092366775313817
4469000000.0 0.9622281293304064 -0.33032020058192746
4472000000.0 0.9691664775714096 -0.3840890912237382
4475000000.0 0.9305648725220811 -0.36624778116938894
4478000000.0 0.9889074265337081 -0.39457344440629727
4481000000.0 0.9180987171029948 -0.3780667255495125
4484000000.0 0.9239529660081498 -0.42395397457696116
4488000000.0 0.9276556298677809 -0.40894278771422726
4491000000.0 0.927965560682181 -0.41110297104027116
4494000000.0 0.924307098094267 -0.395046430121403
4497000000.0 0.9335806274085614 -0.40840826061544255
4500000000.0 0.9226109768188349 -0.4290059875206489
4503000000.0 0.9332763704760809 -0.4363505747450073
4506000000.0 0.9154431176802964 -0.4440899659801391
4509000000.0 0.8963933922612197 -0.449969750610659
4512000000.0 0.9019522538605717 -0.45707647127683726
4516000000.0 0.922317937332367 -0.4792013978645533
4519000000.0 0.8748628117660695 -0.45647141126446533
4522000000.0 0.8864344179128227 -0.4694978118630021
4525000000.0 0.9163959962915627 -0.44838585772415845
4528000000.0 0.9051534223299706 -0.5248395014190189
4531000000.0 0.8871910352824474 -0.49923176123718294
4534000000.0 0.8578371233569542 -0.5161898341390144
4538000000.0 0.8616093854196016 -0.5308682715163935
4541000000.0 0.8264127886750487 -0.566196778850656
4544000000.0 0.8846711856474556 -0.5242545538719877
4547000000.0 0.8589581527467023 -0.5260334321702596
4550000000.0 0.8399860237156249 -0.5742034642880536
4553000000.0 0.8476537299607303 -0.5712210062639019
4556000000.0 0.8387426512944767 -0.5532640848628568
4559000000.0 0.819269772792746 -0.5833780068202237
4562000000.0 0.8544427425549657 -0.5962476901249547
4566000000.0 0.8196571754186144 -0.5914061372954631
4569000000.0 0.8158201077237771 -0.5805039772860741
4572000000.0 0.8081032520427902 -0.6142704365125485
4575000000.0 0.8147596079791288 -0.6464428703659505
4578000000.0 0.8323459708577723 -0.6349895732672446
4581000000.0 0.7818375554659938 -0.6630176881974253
4584000000.0 0.7873302603387291 -0.6259350067570868
4588000000.0 0.8296870246915455 -0.6519486126031265
4591000000.0 0.7937560049014811 -0.6232276049271099
4594000000.0 0.7597814238115889 -0.6808351078381027
4597000000.0 0.775517819484498 -0.6743351298594874
4600000000.0 0.7504867116827494 -0.6771857461255151
4603000000.0 0.7567392307967876 -0.6816146002285752
4606000000.0 0.7642330809160912 -0.687226966358227
4609000000.0 0.7629020979957631 -0.7016878196528279
4612000000.0 0.763558394358489 -0.7128931513575216
4616000000.0 0.7214035123741307 -0.6860218399850952
4619000000.0 0.7436466336439324 -0.6986830100209531
4622000000.0 0.7296685536076166 -0.7139467508480831
4625000000.0 0.7117686382693053 -0.7051612002939487
4628000000.0 0.7150508171194426 -0.7224603716013377
4631000000.0 0.688253425991507 -0.7417470983129824
4634000000.0 0.7076890269056083 -0.7375277044268659
4638000000.0 0.7023699243246762 -0.746175707366759
4641000000.0 0.7018143375039553 -0.7474720882200115
4644000000.0 0.6854445415731258 -0.7418745675549124
4647000000.0 0.6927948516585941 -0.7729560414591258
4650000000.0 0.6268727164765979 -0.7890790967485074
4653000000.0 0.6855161947798543 -0.7748468087759509
4656000000.0 0.6384888200919472 -0.7820903174303873
4659000000.0 0.653430165114777 -0.7889403312009271
4662000000.0 0.6373714017508318 -0.809612397952608
4666000000.0 0.6247308671970485 -0.7996736757934021
4669000000.0 0.6155329675338066 -0.8072884516586009
4672000000.0 0.6192001971524259 -0.836273172549236
4675000000.0 0.592934449570399 -0.831958533687555
4678000000.0 0.6014828576663767 -0.8257231004405408
4681000000.0 0.5964255606890811 -0.8478073457984827
4684000000.0 0.542736696383989 -0.8343887090703276
4688000000.0 0.5429570959717764 -0.8557303735612242
4691000000.0 0.5829835726598672 -0.8515424789268777
4694000000.0 0.567562711149907 -0.8433660548623583
4697000000.0 0.5604399807119157 -0.8312339529795698
4700000000.0 0.553008727074961 -0.8415940251813661
4703000000.0 0.5590476330494998 -0.8328288429368953
4706000000.0 0.5392978600129079 -0.8841377515876485
4709000000.0 0.5097073254858382 -0.8689580690630507
4712000000.0 0.5342328262370197 -0.8677966610689828
4716000000.0 0.5053918761151877 -0.8954296415821905
4719000000.0 0.5547991052029522 -0.8825795671178845
4722000000.0 0.5236842327342067 -0.8899762336596739
4725000000.0 0.48589288303146655 -0.8830052443871907
4728000000.0 0.4676364846226821 -0.9082042108189965
4731000000.0 0.5019990523206023 -0.8926663422532424
4734000000.0 0.48089260168180614 -0.8855581519384421
4738000000.0 0.5071848511331383 -0.9474134626091288
4741000000.0 0.4600203839138149 -0.9436535281988809
4744000000.0 0.4262539814867413 -0.9319299944446251
4747000000.0 0.4659958581072754 -0.8996232308206003
4750000000.0 0.4335643966310132 -0.929651643997025
4753000000.0 0.4314578923075472 -0.948855340110819
4756000000.0 0.404394098745375 -0.9301014620079522
4759000000.0 0.4257728195591226 -0.9589796869897884
4762000000.0 0.3871102465786772 -0.9660326404705031
4766000000.0 0.3923635904531831 -0.9583122515576904
4769000000.0 0.3677407809865587 -1.0123565418018086
4772000000.0 0.3694402853350496 -0.9740746126425349
4775000000.0 0.38017933275871774 -1.0077700162450542
4778000000.0 0.35808443684971014 -0.9673740819839366
4781000000.0 0.3511969177832253 -0.9554474674418676
4784000000.0 0.3685684805888858 -0.9355594035128164
4788000000.0 0.3380206933614499 -1.0192847934497735
4791000000.0 0.32317956393164865 -0.9454212631111291
4794000000.0 0.3698792548946197 -0.9977931933882993
4797000000.0 0.29977240459404475 -0.9932762282254762
4800000000.0 0.2815195804690334 -1.000211629098603
4803000000.0 0.24307589646044242 -0.9884268624194701
4806000000.0 0.26373512673860355 -1.005264384457728
4809000000.0 0.234337708563307 -0.9916529748078046
4812000000.0 0.22003035024253412 -1.004646577102695
4816000000.0 0.2842763511637303 -1.0033219936941984
4819000000.0 0.2886912267919913 -1.0313233032675202
4822000000.0 0.2620299349960912 -1.018570744645455
4825000000.0 0.2641985449764261 -1.0125971768714177
4828000000.0 0.20853945953004363 -1.004882508317197
4831000000.0 0.18486488171361037 -1.0662054790468614
4834000000.0 0.22856111904811227 -1.025848234817584
4838000000.0 0.18935375165765828 -1.0409601693613622
4841000000.0 0.1695387123584595 -1.0200162024871506
4844000000.0 0.21991828406847364 -1.0303911643269081
4847000000.0 0.2029238923988344 -0.9922220106609172
4850000000.0 0.18414040171973223 -1.0369688856542458
4853000000.0 0.15309657231587043 -0.9932080050178957
4856000000.0 0.1525522504526718 -1.015732891708699
4859000000.0 0.14630566714887028 -1.0825616529997566
4862000000.0 0.15692358762870312 -1.0155210115633129
4866000000.0 0.10825785492787154 -1.0546672483049866
4869000000.0 0.0943597374656304 -1.0320845662899751
4872000000.0 0.08308291213935044 -1.0627633558049443
4875000000.0 0.14996849811740487 -1.0777083194175472
4878000000.0 0.0883545996324686 -1.0565784684416768
4881000000.0 0.05455637925342183 -1.1045021300697548
4884000000.0 0.07888148361044284 -1.0401741011883185
4888000000.0 0.10718321068143527 -1.0193906280361433
4891000000.0 0.11461845784815229 -1.0593344497882777
4894000000.0 0.023929198528081175 -1.041440257320942
4897000000.0 0.09490000030962825 -1.0098366967268184
4900000000.0 0.04041511114930302 -1.0790404813226508
4903000000.0 0.03848095482407865 -1.0678960349676978
4906000000.0 0.009492149724611416 -1.0785422238848719
4909000000.0 -0.030138729178715976 -1.0681281049999456
4912000000.0 -0.0019057836374696685 -1.096190200566005
4916000000.0 0.008731166167043766 -1.0808306488859099
4919000000.0 0.00596977663291276 -1.0909651899006985
4922000000.0 0.02406725397946039 -1.0786030906039987
4925000000.0 -0.05569187825503981 -1.0526721416590363
4928000000.0 0.002564911288726282 -1.0374701451835182
4931000000.0 -0.03439331865877243 -1.0723513031837821
4934000000.0 -0.04638623460372329 -0.9759216561230049
4938000000.0 -0.08633198860053819 -1.0339127259069554
4941000000.0 -0.07232286159291983 -1.0485719015324404
4944000000.0 -0.10368388765746478 -0.9709367540430571
4947000000.0 -0.08237717195681737 -1.0089473855306643
4950000000.0 -0.09427686869719386 -1.029944149825362
4953000000.0 -0.14018158317660584 -1.0657409547786703
4956000000.0 -0.153799857103109 -1.0534730970341624
4959000000.0 -0.1630589445175177 -1.0055071037887071
4962000000.0 -0.1318452959769328 -1.0538380626908752
4966000000.0 -0.13338263680210644 -1.0622208354523779
4969000000.0 -0.1601688143077447 -1.057559534123524
4972000000.0 -0.16372475167766012 -1.0367315068288223
4975000000.0 -0.15051778249796646 -1.0444082924648659
4978000000.0 -0.21326046744535682 -1.0184742826970663
4981000000.0 -0.17760568093267562 -1.0425993827960658
4984000000.0 -0.17076073525320465 -1.004487775147075
4988000000.0 -0.19381255741000208 -1.0140657275365808
4991000000.0 -0.1631648495613538 -1.0560598290953234
4994000000.0 -0.19770856499122613 -1.0093239294777827
4997000000.0 -0.23451587275388702 -1.00859082997406
5000000000.0 -0.22265519922443083 -1.0711246249598794
5003000000.0 -0.23926957985069858 -1.0719364442172479
5006000000.0 -0.25489621898522385 -1.0562328840977224
5009000000.0 -0.2647026762364595 -1.0376510851457128
5012000000.0 -0.2672682590386955 -1.0181412748295338
5016000000.0 -0.24271166043312242 -1.0229607679436832
5019000000.0 -0.2987849319427436 -1.0292430704040607
5022000000.0 -0.29391837536472076 -1.0262781571386792
5025000000.0 -0.3023613924075957 -1.0747480644863712
5028000000.0 -0.34848219033798944 -1.0211141975701687
5031000000.0 -0.31606807554135197 -1.0126798379424786
5034000000.0 -0.38306204368127894 -1.0171498818962914
5038000000.0 -0.3414978712148288 -0.9512986914924895
5041000000.0 -0.2768091715931027 -1.0204414775138586
5044000000.0 -0.31016302070762436 -0.9877031495128422
5047000000.0 -0.3239681326617054 -1.017217165870218
5050000000.0 -0.2889328825482238 -0.9991110544226878
5053000000.0 -0.4078028351033264 -1.028377020141935
5056000000.0 -0.30191589175787814 -0.9967899307748518
5059000000.0 -0.33974674813851374 -1.0038539816862757
5062000000.0 -0.42418420895349307 -1.012532286063289
5066000000.0 -0.3426404646050397 -0.9906838496438757
5069000000.0 -0.40951825283542753 -1.0060113619947606
5072000000.0 -0.41557105090808877 -0.9557206842597483
5075000000.0 -0.38042666692349647 -0.9874726624657957
5078000000.0 -0.42532814972365957 -0.9412955136191372
5081000000.0 -0.4782363265911574 -0.9219315818809707
5084000000.0 -0.4738722032725703 -0.9236895126307638
5088000000.0 -0.41537977872726317 -0.9590066290205752
5091000000.0 -0.4974534149274878 -0.930358946817585
5094000000.0 -0.42775857470779716 -0.9031734921565949
5097000000.0 -0.4228295957969159 -0.967880366315226
5100000000.0 -0.44853341076621434 -0.9400790884902611
5103000000.0 -0.4985955761719737 -0.9552048972588113
5106000000.0 -0.4658642824383316 -1.0080449636814968
5109000000.0 -0.4528646647357786 -0.9671447172048131
5112000000.0 -0.47765836107140275 -0.9456195207029205
5116000000.0 -0.45956582750807157 -0.8324865607827396
5119000000.0 -0.5374050918330099 -0.9107518504819576
5122000000.0 -0.5404746640750844 -0.9209726873232478
5125000000.0 -0.5370676539890167 -0.9133299670503928
5128000000.0 -0.5423415701316597 -0.925718264759249
5131000000.0 -0.5049610192939048 -0.857665362269679
5134000000.0 -0.5563222371919824 -0.881634008661351
5138000000.0 -0.5270821787969364 -0.9203732402488021
5141000000.0 -0.5193945688704762 -0.9427493923582497
5144000000.0 -0.5697409470147475 -0.9061967608672806
5147000000.0 -0.6139664112893986 -0.8894092118227477
5150000000.0 -0.5754360351237853 -0.9162395181946944
5153000000.0 -0.5798539663779334 -0.8894104778083334
5156000000.0 -0.5664444262885142 -0.8755949507213345
5159000000.0 -0.6173185899043666 -0.9297129362175373
5162000000.0 -0.602594823232462 -0.8477806084073359
5166000000.0 -0.6321327775489975 -0.8549420258308178
5169000000.0 -0.6384254071564248 -0.8734636283740864
5172000000.0 -0.6380085177797802 -0.8484448252581395
5175000000.0 -0.642714939628867 -0.8847804329659827
5178000000.0 -0.634557179830266 -0.8566601547858661
5181000000.0 -0.6684297202541688 -0.8730675252647985
5184000000.0 -0.6368159450911038 -0.7854772210689682
5188000000.0 -0.6484594615806457 -0.8499229806131078
