! Created with skrf 1.8.0 (http://scikit-rf.org).
# Hz S RI R 50.0 
!freq ReS11 ImS11
4000000000.0 0.5847243376722803 0.8506216130063422
4003000000.0 0.6542005116104007 0.861112691630913
4006000000.0 0.6449644736417226 0.7895047940457638
4009000000.0 0.6312618616611811 0.8518791268882995
4012000000.0 0.6470439252044278 0.8447324800159965
4016000000.0 0.68215934789912 0.7939566716285216
4019000000.0 0.6179444625077635 0.78326477889786
4022000000.0 0.6212073895066005 0.8425056381891164
4025000000.0 0.7821088422464392 0.772871727583757
4028000000.0 0.7229536720970984 0.7539810448919699
4031000000.0 0.6598503596520328 0.7296038230969417
4034000000.0 0.7017909819361077 0.7164974083221397
4038000000.0 0.7523316715858838 0.7472226831898412
4041000000.0 0.7237828970737173 0.725037006305234
4044000000.0 0.7553640543842185 0.7562217137385598
4047000000.0 0.7072105505611318 0.7670286309224406
4050000000.0 0.7790556617042473 0.7069130484199874
4053000000.0 0.7513441992869239 0.6728916766537543
4056000000.0 0.744466073380781 0.7090767636097233
4059000000.0 0.7059486801187106 0.6952342538293883
4062000000.0 0.7850001752887482 0.6773618371010928
4066000000.0 0.712439294701293 0.6164254048784819
4069000000.0 0.8082395223693833 0.6690395817819292
4072000000.0 0.7419722931233482 0.7125622072339819
4075000000.0 0.7750069086047947 0.7242101495238678
4078000000.0 0.8049645023456476 0.6267742766981242
4081000000.0 0.7683164933105426 0.746219494797915
4084000000.0 0.8006919289656378 0.6570757371931553
4088000000.0 0.7643166811497466 0.6259297502108657
4091000000.0 0.8627526925624612 0.6869385187031443
4094000000.0 0.8061675661737943 0.6517560228001174
4097000000.0 0.8032716540599278 0.6406847761848864
4100000000.0 0.8157057629089074 0.6082058512818485
4103000000.0 0.8349153298684497 0.6532034692508462
4106000000.0 0.8466201247541207 0.582585135392808
4109000000.0 0.8484687828763404 0.5659860048518897
4112000000.0 0.830732243399807 0.6006914842808793
4116000000.0 0.8138895606193475 0.5903588322707558
4119000000.0 0.8411158901230937 0.5473007988713211
4122000000.0 0.8538574460488766 0.5498585303055408
4125000000.0 0.8952758594679113 0.5635531962268074
4128000000.0 0.836283654336284 0.5682058746826177
4131000000.0 0.8429933174263535 0.5451187518576451
4134000000.0 0.8777591096028555 0.5662904012454634
4138000000.0 0.8754740847937459 0.4973067037264926
4141000000.0 0.8579055474520236 0.5272864107309045
4144000000.0 0.8640285819611315 0.5334007042865672
4147000000.0 0.8966752403598935 0.4736115120945695
4150000000.0 0.9128585934472909 0.53264270261806
4153000000.0 0.8954309134941829 0.5088244591200556
4156000000.0 0.9242195216136138 0.5141707134402164
4159000000.0 0.9003512230981012 0.49402031783197936
4162000000.0 0.8726300655608614 0.4792723780388629
4166000000.0 0.9190438371689558 0.4423077001033965
4169000000.0 0.9348408943552015 0.43920247440763616
4172000000.0 0.9093015472992834 0.4631696839074449
4175000000.0 0.9220729372214873 0.43170710900722936
4178000000.0 0.9112775187876982 0.43394699096352785
4181000000.0 0.932767228184012 0.4466330406010297
4184000000.0 0.940951613260653 0.42145263928221416
4188000000.0 0.9162969355993522 0.3829609434152038
4191000000.0 0.8919874608637021 0.45595842545892057
4194000000.0 0.892531984628236 0.3783703251130336
4197000000.0 0.9549002067295715 0.38247655253220686
4200000000.0 0.9483353348972932 0.4028921223600961
4203000000.0 0.9332771449948161 0.3961586470591978
4206000000.0 0.9643990455495585 0.3872587996734432
4209000000.0 0.9429768107737659 0.38925716246217507
4212000000.0 0.9505624888416839 0.32992679217373955
4216000000.0 0.9476631674759562 0.3444928486108471
4219000000.0 0.9578766626712913 0.3370731742831147
4222000000.0 0.9873909547051152 0.30999010794778975
4225000000.0 0.9521728840756802 0.3326166211782732
4228000000.0 0.9840429130054067 0.31236034420359016
4231000000.0 0.9821945982978999 0.28863337235653347
4234000000.0 0.9789261138680584 0.2960473881536922
4238000000.0 0.9672240466501667 0.2883942846872023
4241000000.0 0.9925679104109815 0.26348039270726265
4244000000.0 0.9710123645220335 0.2865655800662289
4247000000.0 0.9536874902271789 0.27343783988168346
4250000000.0 0.9597848365381905 0.2415277521723755
4253000000.0 0.9497430488333267 0.22420199295213977
4256000000.0 1.0138071312880124 0.25131459203520456
4259000000.0 0.9664130888897912 0.21054515786861613
4262000000.0 0.9934091571815031 0.21124407978739282
4266000000.0 1.0249453517450362 0.20284099610411327
4269000000.0 0.9764691818431369 0.21031538752929405
4272000000.0 0.9830764356783371 0.18252814072882045
4275000000.0 1.0032624158756438 0.19030495581838358
4278000000.0 1.0257393511338329 0.18411800737888234
4281000000.0 1.009284710927904 0.18163458971573304
4284000000.0 1.0137964565695543 0.131469217631746
4288000000.0 1.0105135822355773 0.17763460731804112
4291000000.0 1.0007188264265046 0.13410469777574635
4294000000.0 1.0043743610200728 0.11136202509304348
4297000000.0 0.9988623995807326 0.15487587103169376
4300000000.0 0.9760800262465916 0.12522074540433292
4303000000.0 0.9723703860215177 0.08214577921495432
4306000000.0 1.019972620558414 0.12253674226416547
4309000000.0 0.9947859542543932 0.07428878151897482
4312000000.0 1.0046222373662814 0.132021849025027
4316000000.0 1.0169265506944525 0.0974866527060249
4319000000.0 0.991338145830622 0.08278651420240717
4322000000.0 1.0110837872359995 0.03290293811511867
4325000000.0 1.0106068391629666 0.04612316504078974
4328000000.0 0.9750642908543697 0.037410254787318506
4331000000.0 1.0554980482192662 0.016614023998986704
4334000000.0 1.02799983062263 0.016749292626980355
4338000000.0 1.0262518157693101 0.049819526650634896
4341000000.0 1.0319905560024158 0.03786615782943176
4344000000.0 1.0047774281192627 0.015185671992816258
4347000000.0 1.0110463941474122 -0.04155718894673585
4350000000.0 0.9743954496211069 -0.023464517103557653
4353000000.0 0.9705643507440929 -0.00509410047589931
4356000000.0 1.0026628507437676 -0.04959036502827843
4359000000.0 0.9638888801278708 -0.04513830158535287
4362000000.0 1.0178494907029532 -0.0964014190036539
4366000000.0 1.0223200255916833 -0.06235002918152849
4369000000.0 0.9697408427764763 -0.08852079608580024
4372000000.0 0.9968633660673385 -0.10368357739605888
4375000000.0 1.0122184500900229 -0.06121302890313718
4378000000.0 0.9882976389008797 -0.09171662246629504
4381000000.0 0.9791124616937881 -0.08453935370953539
4384000000.0 1.0561496946814721 -0.11903389938568372
4388000000.0 0.9854975675525748 -0.10638264787967242
4391000000.0 1.003288385205519 -0.11994728494997782
4394000000.0 0.9655162252050551 -0.12231594122615598
4397000000.0 1.004102443831983 -0.156979441231115
4400000000.0 1.015004619694403 -0.1527436588149813
4403000000.0 0.9965904322737107 -0.16337636681841575
4406000000.0 0.9963836302788855 -0.18631967153412715
4409000000.0 1.0304454392911782 -0.1936558323319511
4412000000.0 0.9802145028190958 -0.239496081491911
4416000000.0 0.9703574327480133 -0.20917784201919729
4419000000.0 0.9890277953595686 -0.22954948474950934
4422000000.0 0.9692749926461113 -0.21356636463140657
4425000000.0 1.0107192294514045 -0.205936338104868
4428000000.0 0.9806310865360734 -0.2403789010263575
4431000000.0 1.0092938624420498 -0.2348737909221451
4434000000.0 0.9688759011077727 -0.2503200723049301
4438000000.0 0.9957767159597315 -0.2666792937891094
4441000000.0 0.9791740600995962 -0.2681500936291142
4444000000.0 0.9524316197969411 -0.27507508486478327
4447000000.0 0.9507125782638158 -0.28987422884823866
4450000000.0 0.95905825362852 -0.2709779292142289
4453000000.0 0.97859906545064 -0.31272016951276793
4456000000.0 0.9316959990945383 -0.309848990685886
4459000000.0 0.8990748281299741 -0.3176302950188292
4462000000.0 1.0087969967059294 -0.3423199229115199
4466000000.0 0.9774774918589573 -0.33408466549759586
4469000000.0 0.976050433269268 -0.3328882902602801
4472000000.0 0.9536939611495912 -0.3893887157014948
4475000000.0 0.9232280732281295 -0.34308301146846903
4478000000.0 0.9799893301528201 -0.4114585892072842
4481000000.0 0.9034385694125139 -0.37953233960568744
4484000000.0 0.905588662185667 -0.4171419433941409
4488000000.0 0.9047250473405587 -0.3962859878996707
4491000000.0 0.9314438720440472 -0.3977342344355868
4494000000.0 0.9112588106557256 -0.40767212103287415
4497000000.0 0.923128284250837 -0.38297233111162543
4500000000.0 0.9085539581601536 -0.4139895337854421
4503000000.0 0.9331366237045178 -0.4374670452087373
4506000000.0 0.9039409428482548 -0.4389036631376175
4509000000.0 0.8798095654841005 -0.4488059994096336
4512000000.0 0.8764489335754977 -0.4766961226945927
4516000000.0 0.911410488723263 -0.4361391215591926
4519000000.0 0.8731095186256226 -0.45153211421706685
4522000000.0 0.88650274210419 -0.48265076960457953
4525000000.0 0.8969830829586256 -0.45475226696449
4528000000.0 0.8961696301954694 -0.5100662497702234
4531000000.0 0.8909747489777425 -0.49089269604360897
4534000000.0 0.8662848870107462 -0.486996025634887
4538000000.0 0.8329700761646159 -0.521164912249215
4541000000.0 0.8399506206072901 -0.543378118152616
4544000000.0 0.8386892528835459 -0.5182814425548479
4547000000.0 0.8501872415374226 -0.5063602347057814
4550000000.0 0.8359961160887759 -0.5598851748835634
4553000000.0 0.8337761190519604 -0.5725154816622483
4556000000.0 0.8186120803885255 -0.564869085030272
4559000000.0 0.8263222156335631 -0.5823065033416213
4562000000.0 0.8572458551523219 -0.5775992955644705
4566000000.0 0.8300137542596566 -0.5982627294198082
4569000000.0 0.8020313216164467 -0.5925042682511503
4572000000.0 0.8063454731699863 -0.6031221905364331
4575000000.0 0.7954505591851753 -0.642592355880054
4578000000.0 0.8271215942492303 -0.6113694457387222
4581000000.0 0.7809388506793123 -0.6279676677565588
4584000000.0 0.7763209928183823 -0.6218067972780278
4588000000.0 0.8010576825558058 -0.638516021424607
4591000000.0 0.772739485294137 -0.6330001770869318
4594000000.0 0.7482691823948363 -0.6610710043407682
4597000000.0 0.7699271882200265 -0.6705268842528621
4600000000.0 0.7297688633398474 -0.6865534566998902
4603000000.0 0.7450668002624684 -0.6654793476087513
4606000000.0 0.7545243140336367 -0.6797664474159908
4609000000.0 0.7555549399528058 -0.6794510363338843
4612000000.0 0.7383751420444249 -0.7045914625930092
4616000000.0 0.7048331025135428 -0.6880273236744173
4619000000.0 0.7328840141112939 -0.6827010641082868
4622000000.0 0.7027251405561327 -0.7117218985993371
4625000000.0 0.6696023277351749 -0.7115918781601993
4628000000.0 0.6968880141116739 -0.6826654121470616
4631000000.0 0.6744314303242693 -0.731273407314679
4634000000.0 0.6880177858446371 -0.7245003553115217
4638000000.0 0.6863930932423844 -0.7277229084337834
4641000000.0 0.6886035744428064 -0.7421529367999363
4644000000.0 0.6783240022633212 -0.7505440872175312
4647000000.0 0.6678090913526228 -0.7605535379949006
4650000000.0 0.643540513795615 -0.7616483982694517
4653000000.0 0.661142029605448 -0.7677141247814151
4656000000.0 0.6430998477773981 -0.7801994935606538
4659000000.0 0.6270549474371256 -0.7923118970970497
4662000000.0 0.6272438983129679 -0.793485976553513
4666000000.0 0.6181197833297208 -0.7954835309437648
4669000000.0 0.6225796362101284 -0.7920374280039416
4672000000.0 0.6013466430286232 -0.8088271951799086
4675000000.0 0.5760387068536374 -0.819100389983108
4678000000.0 0.5975377643576734 -0.7934855556517545
4681000000.0 0.5836055698699143 -0.8585911156171874
4684000000.0 0.5534414032760142 -0.8504771686621885
4688000000.0 0.5338463643996086 -0.8415313285396876
4691000000.0 0.5853640202402781 -0.8363804422374976
4694000000.0 0.5789648737751307 -0.831073319058947
4697000000.0 0.5092250419310713 -0.8296801130921105
4700000000.0 0.5488492378233788 -0.8329680544951528
4703000000.0 0.55356690204703 -0.8295839364561852
4706000000.0 0.5289713829088614 -0.8618092747429069
4709000000.0 0.4963529125005911 -0.8644949460691398
4712000000.0 0.5144488513709976 -0.8826435198855834
4716000000.0 0.4969389882326638 -0.8924084635538445
4719000000.0 0.5253445255693661 -0.8710637660656442
4722000000.0 0.5391145013992904 -0.8884549956841721
4725000000.0 0.4779324450030309 -0.8744806286903586
4728000000.0 0.47765617667058224 -0.864256727790951
4731000000.0 0.48319974056677323 -0.9014423594295906
4734000000.0 0.47943910275973955 -0.8755259898234578
4738000000.0 0.45146964500002773 -0.9064923942853954
4741000000.0 0.4703472370427829 -0.9252731594922765
4744000000.0 0.4510292402455527 -0.9332679048397523
4747000000.0 0.4513030588270252 -0.883740038496857
4750000000.0 0.4183270886688758 -0.9214066392877721
4753000000.0 0.4354910302034645 -0.9223403822688514
4756000000.0 0.4113388537676096 -0.9412033672472808
4759000000.0 0.40931320126333853 -0.9479558600400796
4762000000.0 0.40151019120654197 -0.9600440172762282
4766000000.0 0.3906016486983638 -0.9262514688540032
4769000000.0 0.38952701379270965 -0.9794238383303643
4772000000.0 0.3766129400286403 -0.9665208264037229
4775000000.0 0.3451399832304433 -0.9954080748890717
4778000000.0 0.3463371574470147 -0.9779086509338571
4781000000.0 0.3431236709563822 -0.961520302979628
4784000000.0 0.38814564660134687 -0.9576621401114228
4788000000.0 0.3419759739531453 -0.9849823687424324
4791000000.0 0.3216341382329652 -0.9487994726040324
4794000000.0 0.34880110599123754 -0.9799078366638303
4797000000.0 0.2951031622357597 -0.9627878912519897
4800000000.0 0.27779542545399394 -0.978064217722747
4803000000.0 0.2766073355083938 -0.975371809930595
4806000000.0 0.27713878123405233 -0.966288953766079
4809000000.0 0.24014023859275144 -0.9935674417343147
4812000000.0 0.21332983935219269 -0.9695005783288686
4816000000.0 0.28789693377027875 -0.976966646125057
4819000000.0 0.2958629699635861 -1.0243188620021353
4822000000.0 0.24777459167387073 -1.0417358757593567
4825000000.0 0.2793459500422271 -1.016387230163279
4828000000.0 0.22343829041918498 -0.9905753809400936
4831000000.0 0.1969403418550618 -1.0276738047896805
4834000000.0 0.23085756447509587 -0.9918834180040397
4838000000.0 0.17084718587855188 -1.0386338374475519
4841000000.0 0.17953948033269668 -1.005586930279546
4844000000.0 0.22740993694858386 -1.0112612441262432
4847000000.0 0.19237378357353574 -0.985001841761562
4850000000.0 0.15093911286909856 -1.0446988746999537
4853000000.0 0.13829859628118618 -0.9930225331659397
4856000000.0 0.15731782301092656 -0.9948383795130352
4859000000.0 0.13384547717557926 -1.036571524731822
4862000000.0 0.1563264391329337 -0.9698143795784183
4866000000.0 0.1005242041466993 -1.0261755190861028
4869000000.0 0.0985212199842816 -1.0064885360464015
4872000000.0 0.07474028708229893 -1.0464342930034107
4875000000.0 0.15860971528542878 -1.060522347160578
4878000000.0 0.07438284325343655 -1.0427311401340718
4881000000.0 0.0693817360497874 -1.1089315194529115
4884000000.0 0.08365866936281581 -1.0285137344380357
4888000000.0 0.09418616136839482 -1.009037241343835
4891000000.0 0.08443491685254229 -1.0132701721012156
4894000000.0 0.022374118281366775 -1.0366482213847883
4897000000.0 0.06915293029133049 -1.0092125756042045
4900000000.0 0.053797140218423176 -1.0350289812084885
4903000000.0 0.04317711169586136 -1.060085051664181
4906000000.0 0.016006069487885403 -1.048171429728068
4909000000.0 -0.010920253415135937 -1.0448778234814355
4912000000.0 -0.03514670788968298 -1.0858252522664518
4916000000.0 0.020598837596707862 -1.0495916222204968
4919000000.0 0.058480615684851606 -1.0787257317587509
4922000000.0 -0.0027644693697242845 -1.0312719933848513
4925000000.0 -0.046765819644303805 -1.0247304179644932
4928000000.0 -0.0112507986366705 -0.9988599636586117
4931000000.0 -0.014014840521486632 -1.0598498250138648
4934000000.0 -0.04516619891027998 -0.9814142099408005
4938000000.0 -0.07544547087380678 -0.993934190002044
4941000000.0 -0.0652539848180828 -0.9789094992178966
4944000000.0 -0.039695619636236995 -0.9322619114475759
4947000000.0 -0.06798167574772249 -1.0177603461842435
4950000000.0 -0.10340197624394022 -0.9881029697216392
4953000000.0 -0.18222870637837402 -1.0318314823151642
4956000000.0 -0.11973278463233497 -1.039800754360759
4959000000.0 -0.18338150760477398 -1.0046084759580993
4962000000.0 -0.15270849439848458 -1.000066354647746
4966000000.0 -0.10754427205562972 -1.02958649430787
4969000000.0 -0.13823542323333732 -1.0187005319958538
4972000000.0 -0.15807907770413301 -1.0231674243199769
4975000000.0 -0.134024270193466 -1.0090688834095927
4978000000.0 -0.16255312547960366 -1.0309400900819765
4981000000.0 -0.1932309438382462 -1.0361908075392108
4984000000.0 -0.19741825948683725 -0.9597554055065326
4988000000.0 -0.16504019729297947 -1.0228922179594877
4991000000.0 -0.1650122692643327 -1.052462330795757
4994000000.0 -0.18621767656404214 -1.0011248220586932
4997000000.0 -0.25616660646281664 -1.0074936916781554
5000000000.0 -0.23296476456163728 -1.0562924403523781
5003000000.0 -0.21585546026976393 -1.0309814862245203
5006000000.0 -0.25562860052854575 -1.04587017211734
5009000000.0 -0.2373271826415169 -0.9948525028221443
5012000000.0 -0.25961024551256806 -1.0087011986666226
5016000000.0 -0.22892016091344725 -1.0444339915444716
5019000000.0 -0.2913505332095585 -0.988130147584884
5022000000.0 -0.27579368943458604 -1.003243656146354
5025000000.0 -0.31829541793111266 -1.0386338795710988
5028000000.0 -0.2988901474987167 -0.9742611533244512
5031000000.0 -0.30959025430914977 -0.9755191556025881
5034000000.0 -0.3300759531621381 -1.0352002003158491
5038000000.0 -0.331996258966858 -0.9531131622185876
5041000000.0 -0.2951688055795154 -1.0050530619850448
5044000000.0 -0.2892917690218869 -0.9853451326416408
5047000000.0 -0.3044416360877557 -0.9609399444758039
5050000000.0 -0.24218157828279677 -0.9627317774699029
5053000000.0 -0.3771563967940351 -0.9910683842826749
5056000000.0 -0.3249859721331265 -0.9674516572953262
5059000000.0 -0.32588485351427393 -1.0078759431677908
5062000000.0 -0.4004866673534657 -0.9305401213869717
5066000000.0 -0.36284039562652703 -0.9635531454757873
5069000000.0 -0.38794178133301627 -0.973993044855403
5072000000.0 -0.3918505559177608 -0.9184095323121506
5075000000.0 -0.3912150031600794 -0.9228277450372993
5078000000.0 -0.4936761374514093 -0.9494788847569249
5081000000.0 -0.41468014710413464 -0.8895409196157499
5084000000.0 -0.4423973024903469 -0.9435656819200537
5088000000.0 -0.39078811489369797 -0.9441606930031823
5091000000.0 -0.48201475258730847 -0.903336013646713
5094000000.0 -0.4429124099377662 -0.9339085949140734
5097000000.0 -0.4333144445209163 -0.9576149972938852
5100000000.0 -0.4618894361266687 -0.9402066527845118
5103000000.0 -0.5113678977913699 -0.9293274628512905
5106000000.0 -0.4665093961262948 -0.9700343611674347
5109000000.0 -0.4909128438541076 -0.9113365825614912
5112000000.0 -0.48830303410268117 -0.840519048693896
5116000000.0 -0.4347817642320923 -0.8648446221819883
5119000000.0 -0.5278850223360001 -0.909652748203599
5122000000.0 -0.525343632916747 -0.8425243092781591
5125000000.0 -0.47449838885763235 -0.8818818072567591
5128000000.0 -0.5468163670947526 -0.9028385467769089
5131000000.0 -0.5681224179932314 -0.8661976606991927
5134000000.0 -0.503990827751569 -0.873711789915919
5138000000.0 -0.5078569055250174 -0.889100093080901
5141000000.0 -0.5371219868532184 -0.8794740299435373
5144000000.0 -0.5657989569182764 -0.8772346542035232
5147000000.0 -0.5594104699152921 -0.8938126514054122
5150000000.0 -0.5611539576821246 -0.8954222177561441
5153000000.0 -0.6040378534780795 -0.886701978047562
5156000000.0 -0.579181936732619 -0.8348808467044115
5159000000.0 -0.6152897493873212 -0.9107047690849608
5162000000.0 -0.6259027569954901 -0.7831978380623373
5166000000.0 -0.6228765852228392 -0.8352478444099445
5169000000.0 -0.6353606823710979 -0.8591996026367057
5172000000.0 -0.6032399649632173 -0.8135651827845292
5175000000.0 -0.6366900183790424 -0.8695285542624009
5178000000.0 -0.6497904464400517 -0.8216664947915177
5181000000.0 -0.620153637979357 -0.8559962043234712
5184000000.0 -0.6391629682562188 -0.7886369299739416
5188000000.0 -0.6512107294488709 -0.8443863674068588
5191000000.0 -0.7134878680307825 -0.8271737783122162
