! Created with skrf 1.8.0 (http://scikit-rf.org).
# Hz S RI R 50.0 
!freq ReS11 ImS11
4000000000.0 0.6076024904626299 0.8147975278984538
4003000000.0 0.701298499723599 0.8652095844042781
4006000000.0 0.6737158846716854 0.7587080256649532
4009000000.0 0.6551849532526469 0.7958811022987732
4012000000.0 0.618342686536652 0.8505818659725969
4016000000.0 0.7426598633566328 0.7523860795477235
4019000000.0 0.6915157443220676 0.7717815525439233
4022000000.0 0.6986713821092869 0.7960733068058945
4025000000.0 0.7473781903739465 0.7188567349723001
4028000000.0 0.6931563665789743 0.7711194670517245
4031000000.0 0.7090591212076143 0.7118145080875441
4034000000.0 0.7294804279169451 0.7348884153092692
4038000000.0 0.7571790780227603 0.7163415787036014
4041000000.0 0.7501550728308007 0.6997725584376956
4044000000.0 0.7988167630283731 0.7485868118186706
4047000000.0 0.7558077164660975 0.7869539986093333
4050000000.0 0.7873511151737952 0.6894291557000047
4053000000.0 0.7754026120553369 0.6472448928796632
4056000000.0 0.758749831796844 0.7140260193664523
4059000000.0 0.7595476640894844 0.7099448587948218
4062000000.0 0.8084069556716109 0.6664576115056355
4066000000.0 0.737725391828677 0.6221378321764124
4069000000.0 0.8653237783647785 0.6410745817940726
4072000000.0 0.7518784883195309 0.683388753054496
4075000000.0 0.8354310276906123 0.6870226266501092
4078000000.0 0.8004818712558273 0.6713357095955953
4081000000.0 0.8031300091958558 0.7218101148756316
4084000000.0 0.8322251348641874 0.6295208096945111
4088000000.0 0.7873284367484359 0.6798505500684529
4091000000.0 0.8666199349176615 0.6741813855213461
4094000000.0 0.7986124987358739 0.6417341853113595
4097000000.0 0.8110662194723383 0.6687274478827785
4100000000.0 0.8629000715064142 0.5613702077466443
4103000000.0 0.843067356135242 0.6152258245553976
4106000000.0 0.8817013072490467 0.5909404105011443
4109000000.0 0.8513981248321176 0.549661074184131
4112000000.0 0.8797738600184322 0.5621031032201376
4116000000.0 0.8879275337118876 0.578743697008442
4119000000.0 0.8932787499595334 0.5365412962308567
4122000000.0 0.8915866428560146 0.5044001736063989
4125000000.0 0.8889919981991119 0.5501636194234014
4128000000.0 0.8842219246498051 0.5142602501300635
4131000000.0 0.8893370867341711 0.5194795964782347
4134000000.0 0.8947520540283803 0.5348679569634421
4138000000.0 0.8468072549581509 0.47523469667833323
4141000000.0 0.903969760958879 0.5229819628958673
4144000000.0 0.8963761157135159 0.5450538072741953
4147000000.0 0.8810678379628993 0.4475247185340982
4150000000.0 0.9281165110810323 0.5326040847843143
4153000000.0 0.9168509222631228 0.49323594686898287
4156000000.0 0.9234748886695625 0.5117903995083924
4159000000.0 0.8848099333093489 0.4612722466697407
4162000000.0 0.9271821628177197 0.4403592300535256
4166000000.0 0.9457381796840425 0.403452101333288
4169000000.0 0.9233106258569396 0.4095307612552681
4172000000.0 0.9759895274458155 0.4692872224148566
4175000000.0 0.9649080238780635 0.4367663333997685
4178000000.0 0.9558095118020866 0.43145512349378057
4181000000.0 0.967071125899216 0.40566157036649797
4184000000.0 0.9521153755840543 0.40757119055338503
4188000000.0 0.9693302413876559 0.37894208862614576
4191000000.0 0.912432482219892 0.41363929135257976
4194000000.0 0.9195237246720543 0.3833045802665175
4197000000.0 0.952678373959787 0.3862784735180504
4200000000.0 0.9548075906224116 0.36722989485255075
4203000000.0 0.9659936129383062 0.39329645111823053
4206000000.0 0.9798867284309228 0.33972453877956726
4209000000.0 0.9408481509492332 0.35490431305486675
4212000000.0 0.984411680397675 0.29956618795777934
4216000000.0 0.9757495323927627 0.3269251541931218
4219000000.0 0.9874720686775823 0.3303975892201978
4222000000.0 0.9809000097738767 0.3049281245137793
4225000000.0 0.958205042955576 0.3239727102630229
4228000000.0 0.9796639323833491 0.30245465049688436
4231000000.0 0.9809691397983874 0.30192556748480925
4234000000.0 0.9996036126676732 0.2659014305424645
4238000000.0 0.9692703454291165 0.2344763918756966
4241000000.0 1.0016920581281559 0.2383634187097834
4244000000.0 1.00066870046084 0.27139357095631145
4247000000.0 0.983088967315128 0.24353163052500215
4250000000.0 0.9735967535704453 0.21206002404463598
4253000000.0 0.9808367413032215 0.20264100811698138
4256000000.0 1.0204573863170308 0.21652632860423005
4259000000.0 0.9688147752046699 0.205007960877611
4262000000.0 0.9982107967766398 0.17417447047382648
4266000000.0 1.0121788888143857 0.16522612710709894
4269000000.0 0.988010876476579 0.18048737705977144
4272000000.0 0.9824309808088798 0.18349323107232318
4275000000.0 1.0075214672498152 0.17706438898553056
4278000000.0 1.032264560131035 0.15011133143950584
4281000000.0 1.0067733587766408 0.1534818517304652
4284000000.0 1.0167002247744592 0.09388768240994302
4288000000.0 1.0105088025007638 0.168871742148391
4291000000.0 1.0045420513130963 0.11946011055848886
4294000000.0 1.0191057478777443 0.10686492163902954
4297000000.0 0.9721704955362817 0.13695740616545543
4300000000.0 1.0147385799889124 0.09503157161445319
4303000000.0 0.9779217601518176 0.05481255662476507
4306000000.0 1.0041827751158388 0.12493732279372485
4309000000.0 1.0160732268338857 0.06494583132769767
4312000000.0 1.0217050749127434 0.10225166743306871
4316000000.0 1.049498703569601 0.08733940435648334
4319000000.0 0.9811278087078223 0.06707352635393037
4322000000.0 1.012663548297828 0.032694287893692234
4325000000.0 1.0112980928402748 0.005681725628681716
4328000000.0 0.9912181173550055 0.012379888125183633
4331000000.0 0.9965516683214088 -0.005878382282142158
4334000000.0 1.0413356851455564 -0.011136863305103953
4338000000.0 1.0025676340627223 0.028898674130364274
4341000000.0 1.0391639566408473 0.005190017864097812
4344000000.0 1.0186858025025936 -0.007044878736961774
4347000000.0 1.029735246235916 -0.056832432898772836
4350000000.0 0.9828814704914657 -0.04082532301892962
4353000000.0 0.978815095970442 -0.028555879585365443
4356000000.0 0.985725089150498 -0.04715474983356677
4359000000.0 0.9622893435256362 -0.05204076129166618
4362000000.0 1.014869206793569 -0.1233915701794087
4366000000.0 1.0360798879708557 -0.09225274549492529
4369000000.0 0.9708862696372232 -0.09578871328719188
4372000000.0 0.9909700644110739 -0.15435352403592706
4375000000.0 1.0097187742897353 -0.10953257074938627
4378000000.0 0.9881816676070772 -0.12570869371207088
4381000000.0 0.9850358257202123 -0.1141292335403134
4384000000.0 1.0758713706969931 -0.13499168076925155
4388000000.0 0.9860071799750132 -0.1318306372866634
4391000000.0 1.005866341925548 -0.1453749716232195
4394000000.0 0.9739116063415426 -0.14774535694487795
4397000000.0 0.9907074788205195 -0.18015741040343386
4400000000.0 1.024199657746424 -0.1764558337049778
4403000000.0 1.0105206766007047 -0.18676179468110268
4406000000.0 0.9841927024082945 -0.2105932361190379
4409000000.0 1.0170122644627368 -0.21615497305565856
4412000000.0 0.9688070001674759 -0.2691381891205241
4416000000.0 0.9800707856740056 -0.22222409004686333
4419000000.0 0.9858080770636836 -0.2692344226049069
4422000000.0 0.9788126336471985 -0.22845321964350493
4425000000.0 0.9986039758724247 -0.238259461578811
4428000000.0 0.9822289944632289 -0.2669314494923656
4431000000.0 1.0035634632808161 -0.2713503408073815
4434000000.0 0.9630703615610473 -0.27458684421372626
4438000000.0 0.9960915770447136 -0.28642013116271753
4441000000.0 0.983319369499376 -0.2839125003411358
4444000000.0 0.955652238537334 -0.2999222617499585
4447000000.0 0.9464657033938624 -0.31584762958479135
4450000000.0 0.944789563500476 -0.2992660565764177
4453000000.0 0.9858167032078224 -0.329847967512368
4456000000.0 0.9238925273240597 -0.34541257924447144
4459000000.0 0.9056482155041103 -0.34028965591248334
4462000000.0 0.9990812998909409 -0.37409802170626383
4466000000.0 0.9691882923880982 -0.3980124189123339
4469000000.0 0.9517088249757425 -0.3466533659505077
4472000000.0 0.9497466869495941 -0.41166253657733715
4475000000.0 0.8973705528130854 -0.3736388113999015
4478000000.0 0.9633286363387982 -0.4222630946844794
4481000000.0 0.8951901810957436 -0.4086709601193511
4484000000.0 0.9056018503199574 -0.4672871671851715
4488000000.0 0.8949680144005252 -0.42150507321400743
4491000000.0 0.9237109684090133 -0.452024535844088
4494000000.0 0.9179057585435904 -0.4075792484569051
4497000000.0 0.9207683682174008 -0.42103737965627636
4500000000.0 0.8952591226405795 -0.4555305073801541
4503000000.0 0.9191292492815517 -0.47319320385384045
4506000000.0 0.8927894355215047 -0.45938756573493694
4509000000.0 0.8679575850654297 -0.4654975498569808
4512000000.0 0.8664297971611185 -0.4915755833539741
4516000000.0 0.907072990417818 -0.5114080183621416
4519000000.0 0.8677361836339843 -0.4962550471347559
4522000000.0 0.8700976422957754 -0.5196172656110947
4525000000.0 0.8785371332132546 -0.467348434919339
4528000000.0 0.9073804230429381 -0.5335730940871922
4531000000.0 0.8588143747765191 -0.5152849382397418
4534000000.0 0.8456885262981898 -0.5237083782968235
4538000000.0 0.8409275221223758 -0.5537533912398058
4541000000.0 0.8187750233283607 -0.583581759295568
4544000000.0 0.8462037120541812 -0.5667385774012282
4547000000.0 0.8358691259611427 -0.5446629825665859
4550000000.0 0.8340152008535151 -0.5899173758125499
4553000000.0 0.8245942012459606 -0.5523630424403352
4556000000.0 0.8021177343448453 -0.5896694369654886
4559000000.0 0.8104625284110668 -0.602367362394082
4562000000.0 0.8302446717693703 -0.6335929994612364
4566000000.0 0.8015254195810029 -0.6251590632370225
4569000000.0 0.8099507615685988 -0.6146156767091557
4572000000.0 0.789138412759072 -0.6162928405092002
4575000000.0 0.7725964840077455 -0.6427161133050806
4578000000.0 0.8030729280269964 -0.6391193864718832
4581000000.0 0.7702525283137628 -0.6550925425780688
4584000000.0 0.7600961355186943 -0.6680526763931306
4588000000.0 0.7798887168558164 -0.6599992898110746
4591000000.0 0.7654389382524232 -0.6513190001637195
4594000000.0 0.7290383165581744 -0.6884097777445982
4597000000.0 0.7536319442306767 -0.6856616804510085
4600000000.0 0.7172013183787957 -0.7009086252799316
4603000000.0 0.7329543546390662 -0.7096476214704568
4606000000.0 0.7393928833078947 -0.7159904638460308
4609000000.0 0.7350163594734914 -0.7044443882279094
4612000000.0 0.718391103449511 -0.7160110712536576
4616000000.0 0.7011751965584927 -0.7075380426053797
4619000000.0 0.708326197674333 -0.7202273090771649
4622000000.0 0.7021013401930056 -0.7211819425744975
4625000000.0 0.657536718372249 -0.7391895392997879
4628000000.0 0.7055426937481301 -0.7379076199927007
4631000000.0 0.6492627448046644 -0.741082070184725
4634000000.0 0.6740862767112857 -0.7627747901329408
4638000000.0 0.6917016709217384 -0.7576265138440559
4641000000.0 0.6546725311575501 -0.762136691514088
4644000000.0 0.6554953530226343 -0.7712241634104787
4647000000.0 0.6605657927569822 -0.7658056551434003
4650000000.0 0.6347445013696899 -0.7962751094607857
4653000000.0 0.6549992617298128 -0.8024511688660015
4656000000.0 0.6255595046829232 -0.8023299697524493
4659000000.0 0.6084659033901597 -0.8125627861798598
4662000000.0 0.61839285289316 -0.7999119942490618
4666000000.0 0.5968313478469166 -0.828198680338394
4669000000.0 0.6153161670340144 -0.8128134482726256
4672000000.0 0.5808374308012334 -0.8461949710716046
4675000000.0 0.5650457283016941 -0.8550647357648926
4678000000.0 0.558875192289052 -0.8218007903708137
4681000000.0 0.5519490603447412 -0.8474287114093827
4684000000.0 0.5264112749452567 -0.872445994169708
4688000000.0 0.5408729770181613 -0.8641911751713928
4691000000.0 0.5569466009801987 -0.8514395869795894
4694000000.0 0.570936524360958 -0.841324972163793
4697000000.0 0.4794945267919296 -0.8477398545536732
4700000000.0 0.526789852904229 -0.8650050839890864
4703000000.0 0.5248258385421721 -0.8356001258503902
4706000000.0 0.4796864452340299 -0.8843845095886274
4709000000.0 0.4841467040373914 -0.8638465111021681
4712000000.0 0.48532692109556863 -0.8895346704148482
4716000000.0 0.479285516778557 -0.9142609169641669
4719000000.0 0.4911641746966026 -0.8901169075037173
4722000000.0 0.4911367999227719 -0.8901041150391824
4725000000.0 0.4551810451566066 -0.8820431789125963
4728000000.0 0.4501112098775357 -0.8946471576913728
4731000000.0 0.4892455439650374 -0.9206285107166063
4734000000.0 0.45365185455264473 -0.9156366507480055
4738000000.0 0.45511756655721747 -0.9664338631321411
4741000000.0 0.43261809731290835 -0.9755161824073227
4744000000.0 0.3893638017605908 -0.9395243693861804
4747000000.0 0.4185461723975905 -0.8983269579679691
4750000000.0 0.40846716189444043 -0.9627154940970966
4753000000.0 0.4142022500018511 -0.9723156287273726
4756000000.0 0.36684712167034667 -0.9481188111282766
4759000000.0 0.3820982652372851 -0.9477004807667336
4762000000.0 0.33333911074193406 -0.958456592804861
4766000000.0 0.31595301162803124 -0.9630441318115746
4769000000.0 0.3756231919321613 -0.9566941982330869
4772000000.0 0.32922382669503375 -0.9408664992178261
4775000000.0 0.3269749816465348 -1.0098722622923646
4778000000.0 0.34049036591319953 -0.9772706606317677
4781000000.0 0.3372170601660339 -0.9277518898196868
4784000000.0 0.33052064680980625 -0.9499611447721387
4788000000.0 0.2853500343990248 -1.0007870312469633
4791000000.0 0.2686687152017516 -0.9827045846843353
4794000000.0 0.3149611079603755 -1.027691700575342
4797000000.0 0.27436843332724226 -1.0005146849633062
4800000000.0 0.25013572914100163 -0.9851590175889908
4803000000.0 0.20074025133826437 -0.973429468637014
4806000000.0 0.23837122290078389 -1.0046616430417057
4809000000.0 0.20767405204463474 -0.9789239662857793
4812000000.0 0.1657320019520745 -1.0059284615914046
4816000000.0 0.23034447240745537 -0.9576215888611941
4819000000.0 0.24355101437647228 -1.0127345854666447
4822000000.0 0.23560793676549233 -1.0392697776543596
4825000000.0 0.23385483993223172 -1.0286703528711723
4828000000.0 0.19341060108000388 -1.0023682137007328
4831000000.0 0.16517942707351324 -1.0145308374216955
4834000000.0 0.2131125017910852 -1.015523875327256
4838000000.0 0.16330592620602322 -1.0386816247989366
4841000000.0 0.13393348519990766 -1.0109064842336606
4844000000.0 0.17942456037318244 -1.0110340180651065
4847000000.0 0.17063813600330224 -0.9891662093935609
4850000000.0 0.11848211888367807 -1.050530678779184
4853000000.0 0.12921172474439327 -0.999423832194589
4856000000.0 0.12399285928729513 -1.0115397844758574
4859000000.0 0.10296129719025986 -1.053697699133553
4862000000.0 0.12709818529689185 -0.9856079609305627
4866000000.0 0.06723411557998166 -1.0514258187072316
4869000000.0 0.08719741398202044 -1.0509881574654287
4872000000.0 0.05129633545784568 -1.0676555561184944
4875000000.0 0.11663766205569887 -1.0375845565044883
4878000000.0 0.05828830424851965 -1.0410297382755953
4881000000.0 0.018066361129504126 -1.076422573163696
4884000000.0 0.0525128802867688 -1.0346997370390059
4888000000.0 0.0781579011596036 -1.0248761775316675
4891000000.0 0.04896394594356736 -1.0399202935312235
4894000000.0 0.0165676371899411 -1.0479955968222567
4897000000.0 0.063492410717561 -1.0124318368970973
4900000000.0 0.012818827546162778 -1.0567161648386516
4903000000.0 0.020103983260263615 -1.049036986219433
4906000000.0 -0.01647680779458178 -1.0397647227346367
4909000000.0 -0.047651612760071314 -1.0390949099909543
4912000000.0 -0.05776746810234794 -1.0903822336131124
4916000000.0 -0.02091377655433143 -1.0559765262418754
4919000000.0 -0.003901713408858594 -1.0529960498720587
4922000000.0 -0.006715473990964102 -1.0421281243336677
4925000000.0 -0.07225852472289218 -1.052620792338629
4928000000.0 -0.019221960925027468 -1.0405662467101346
4931000000.0 -0.059397531698675385 -1.0622021610018708
4934000000.0 -0.09851371470018967 -0.9900849742129605
4938000000.0 -0.11445097052309557 -1.0279814141543784
4941000000.0 -0.08357349047153124 -1.0212688494007398
4944000000.0 -0.07023805979065487 -0.994192466771169
4947000000.0 -0.13344755575078907 -1.0187879293317894
4950000000.0 -0.1445926755339359 -1.0206040525640427
4953000000.0 -0.196669588021121 -1.088148457641174
4956000000.0 -0.15913993591276443 -0.9958936502884491
4959000000.0 -0.18612996198238893 -0.9675086537725754
4962000000.0 -0.17272521635967467 -1.0447223317771204
4966000000.0 -0.16909801808545832 -1.0632227022442649
4969000000.0 -0.1659665508107146 -1.0756465405759583
4972000000.0 -0.20423571363178608 -1.0140610597757183
4975000000.0 -0.16246487723264133 -1.0156917029800585
4978000000.0 -0.2221448145228026 -1.019345697110562
4981000000.0 -0.24153362025031558 -1.0160740344766286
4984000000.0 -0.1912241108192513 -0.9964417439115333
4988000000.0 -0.1891685046343976 -1.0139171654558155
4991000000.0 -0.22081630574507827 -1.0578543989845137
4994000000.0 -0.22588236187806288 -0.985428632896534
4997000000.0 -0.2601432628969114 -1.005607866871411
5000000000.0 -0.24754810404160243 -1.0480638950707302
5003000000.0 -0.2722674043228019 -1.0392759254194908
5006000000.0 -0.31403686778749385 -1.0498640695230246
5009000000.0 -0.3027087719612217 -1.0006668727137618
5012000000.0 -0.30383704725106425 -1.0041519545890898
5016000000.0 -0.2729076858013186 -1.0031508559985343
5019000000.0 -0.3086074439937697 -1.007267481381738
5022000000.0 -0.3442164834906093 -1.0071110488024357
5025000000.0 -0.3533386571546578 -1.0318833585584566
5028000000.0 -0.34074266082160476 -0.9665986638608137
5031000000.0 -0.3505568559990003 -0.9633461252704046
5034000000.0 -0.37936768667821374 -1.0089347508321715
5038000000.0 -0.38271524728019346 -0.9587017926368062
5041000000.0 -0.3237197027954881 -0.9785547712636554
5044000000.0 -0.3300103137686946 -0.960172818029133
5047000000.0 -0.39957345757433277 -0.977036363215911
5050000000.0 -0.30345473431629666 -0.9676025534345414
5053000000.0 -0.4187598249815392 -1.0108169012795647
5056000000.0 -0.3765258261297728 -0.9954076206193738
5059000000.0 -0.37137960590356806 -0.9567529385725956
5062000000.0 -0.4493279012414665 -0.9464009809037652
5066000000.0 -0.4090740793523602 -0.9716653786731573
5069000000.0 -0.4493782649271163 -0.9519719684412268
5072000000.0 -0.44053633536642034 -0.9253494662880097
5075000000.0 -0.40364236391766894 -0.9594671586771948
5078000000.0 -0.4865944618888611 -0.9524031867292686
5081000000.0 -0.46137190471232975 -0.8979991991064823
5084000000.0 -0.4748032323702567 -0.9650518637906544
5088000000.0 -0.44734773597177024 -0.9076622629273265
5091000000.0 -0.5327113692734866 -0.9395724484907029
5094000000.0 -0.5012399484796461 -0.9259048998904301
5097000000.0 -0.48064004497416 -0.9813912194519077
5100000000.0 -0.5067639187830081 -0.9218006014273866
5103000000.0 -0.5654931522487006 -0.9171861298866316
5106000000.0 -0.539932754224056 -0.949912571995877
5109000000.0 -0.4562092047979459 -0.9206278051168217
5112000000.0 -0.5286141343482132 -0.8560028089326222
5116000000.0 -0.504825418590896 -0.8349511962259022
5119000000.0 -0.5510988700296955 -0.9337214379303875
5122000000.0 -0.5443395649946703 -0.862284230672985
5125000000.0 -0.54349833702213 -0.897406587033498
5128000000.0 -0.5913568116791051 -0.8317711401727292
5131000000.0 -0.6016462758574516 -0.8417794386887856
5134000000.0 -0.5687889589354339 -0.8323472806441081
5138000000.0 -0.6022406082721479 -0.8955005926651506
5141000000.0 -0.5127858006299472 -0.890799033651424
5144000000.0 -0.5731069446935995 -0.8993823586677858
5147000000.0 -0.6477658833826362 -0.8610121917380117
5150000000.0 -0.588560030981632 -0.8636403286486186
5153000000.0 -0.6096549609737696 -0.7981623374919931
5156000000.0 -0.6302819735992129 -0.8765192337477725
5159000000.0 -0.6606007301989674 -0.9308801519434329
5162000000.0 -0.6656904620508888 -0.8303307503528662
5166000000.0 -0.6850452360994816 -0.8429505815910814
5169000000.0 -0.6819803882529467 -0.8069013167979115
5172000000.0 -0.6623104884224318 -0.8165536141103992
5175000000.0 -0.6942523985042144 -0.8268137670016659
5178000000.0 -0.6627294530207255 -0.8261102885471201
5181000000.0 -0.6847384112153622 -0.7956649782617994
5184000000.0 -0.6879904272786806 -0.7607616213342026
5188000000.0 -0.6818693691347572 -0.7920474603044613
