! Created with skrf 1.8.0 (http://scikit-rf.org).
# Hz S RI R 50.0 
!freq ReS11 ImS11
4000000000.0 0.6218713637115748 0.8256858082215448
4003000000.0 0.6672143352732206 0.8420407546021824
4006000000.0 0.692185749441708 0.77879871584387
4009000000.0 0.664065189118292 0.8384367881718499
4012000000.0 0.609758645697399 0.863430490266034
4016000000.0 0.6909649860643408 0.7941351381002888
4019000000.0 0.6874330704153966 0.7627729467696412
4022000000.0 0.6235993983578985 0.8465111262479069
4025000000.0 0.7485783697343608 0.7140730694130976
4028000000.0 0.6940200443181255 0.7501822031302976
4031000000.0 0.6906578499617159 0.7306316610339325
4034000000.0 0.7495126404041713 0.7518383138684381
4038000000.0 0.7196553053090924 0.7317154951156394
4041000000.0 0.7665941020135223 0.7322774634254534
4044000000.0 0.7800323111336476 0.7728165585721254
4047000000.0 0.7296736075225609 0.747155749803753
4050000000.0 0.7664142117400221 0.7092577190461868
4053000000.0 0.7396800697685334 0.7032307118036571
4056000000.0 0.7711538901827882 0.703299391595018
4059000000.0 0.7035074123274494 0.6998935404366065
4062000000.0 0.7915726231037533 0.669834224581854
4066000000.0 0.7417648323404935 0.5816056125879984
4069000000.0 0.7996011183459549 0.6408293382356092
4072000000.0 0.7748885768043208 0.7070273271156087
4075000000.0 0.794756332170192 0.6946072074244913
4078000000.0 0.8225592638562087 0.6548981022790462
4081000000.0 0.7757186913644725 0.6934108848455379
4084000000.0 0.831173246407372 0.6727805487333443
4088000000.0 0.8037238318680492 0.6726453867358131
4091000000.0 0.8627646999032437 0.666256958854401
4094000000.0 0.8330253795748237 0.6444340090044528
4097000000.0 0.8097413383800612 0.6131549952412672
4100000000.0 0.8620017401194663 0.6459154617648777
4103000000.0 0.8410750518814138 0.6341811664671266
4106000000.0 0.8512257465298887 0.596261092382581
4109000000.0 0.8441035184681327 0.5917152729092348
4112000000.0 0.8188940203743325 0.5785192994413644
4116000000.0 0.828237161441189 0.6137417881458479
4119000000.0 0.8838573901400992 0.5683979630176744
4122000000.0 0.8905738022419311 0.5563228317485669
4125000000.0 0.9227170756526771 0.5362628282150299
4128000000.0 0.8289306653178324 0.5798005575907575
4131000000.0 0.8418738006898628 0.5265385797249752
4134000000.0 0.8495257252116986 0.5582696259686342
4138000000.0 0.8688152365826365 0.5049483303034654
4141000000.0 0.8750503404639348 0.5147242001592222
4144000000.0 0.8930044946594504 0.5318076559684075
4147000000.0 0.8857146264329615 0.49603007934900717
4150000000.0 0.9609480525553972 0.5349474710992339
4153000000.0 0.9031797579931621 0.49442921259475436
4156000000.0 0.9020181744019671 0.5070126934787917
4159000000.0 0.8760255716408343 0.4838983410497007
4162000000.0 0.8983410651258956 0.4778002243347278
4166000000.0 0.9462493158097258 0.46008295387032505
4169000000.0 0.9141510096763437 0.45401497481438935
4172000000.0 0.9173730645783359 0.47378582889031345
4175000000.0 0.9414808944702658 0.4634268425977615
4178000000.0 0.9373427771383694 0.4644453599563735
4181000000.0 0.9633247551898856 0.4391623707993859
4184000000.0 0.9323784198641017 0.40696949913266484
4188000000.0 0.9405295035122165 0.4044861087618452
4191000000.0 0.9170936631826473 0.43207696446386884
4194000000.0 0.9472147022354547 0.37490531708625696
4197000000.0 0.9613264169163972 0.4034640305113521
4200000000.0 0.9453985074945812 0.40956462198851573
4203000000.0 0.9577178443732557 0.39431767060205736
4206000000.0 0.9630509121840791 0.37351086248113013
4209000000.0 0.9441558861757734 0.36753199855588653
4212000000.0 0.9708874603865053 0.31817478954554357
4216000000.0 0.9684610721453739 0.3497265180233869
4219000000.0 0.9779859206841139 0.35199342220195773
4222000000.0 0.9706482798371079 0.32305175469570707
4225000000.0 0.9492435919783571 0.327211823168967
4228000000.0 0.9852664160983964 0.3166556239884397
4231000000.0 0.9705196199809936 0.2935651694791833
4234000000.0 0.996718145665263 0.29092341551977885
4238000000.0 0.9881105169359913 0.2763314770287527
4241000000.0 0.9981014030676254 0.27601795224119885
4244000000.0 0.9784160804955715 0.285870917104241
4247000000.0 0.9686905688242475 0.26333627509365093
4250000000.0 0.954091524771715 0.24695890530482056
4253000000.0 0.979586946632754 0.2156689579783133
4256000000.0 1.0066915673511028 0.2379574075138402
4259000000.0 0.9454314906238185 0.2130800561837681
4262000000.0 1.0014312996081456 0.20844870313105565
4266000000.0 1.0059560573653414 0.19119452426660355
4269000000.0 0.9838972698045191 0.20826153248590637
4272000000.0 0.9896184954067971 0.20093442110865256
4275000000.0 0.9960266038082424 0.18506568543813767
4278000000.0 1.0155665384719461 0.1856876304440419
4281000000.0 1.0045107624944192 0.17950552812347564
4284000000.0 1.0044633420994855 0.14632407484312612
4288000000.0 0.9997137245072507 0.18003568408641127
4291000000.0 0.9900158260265962 0.12579025532213478
4294000000.0 1.0232079387303736 0.15378765715983772
4297000000.0 1.005554892464503 0.1390085937023544
4300000000.0 1.0023962747146626 0.14006625470124284
4303000000.0 0.9868478368328254 0.10025079594865528
4306000000.0 1.0131125405197925 0.12901481614210525
4309000000.0 0.9932324609817877 0.11259155004371575
4312000000.0 1.0178273466745285 0.1325988536196455
4316000000.0 1.0374581569345025 0.08713096734718194
4319000000.0 0.9721469388108733 0.10193925033644487
4322000000.0 0.9929390023684362 0.06319444070335929
4325000000.0 0.9887411825274636 0.0590980416208365
4328000000.0 1.0012380524624853 0.0417876897534261
4331000000.0 1.0244488885030207 0.005658467732536282
4334000000.0 1.0149740780804417 0.020286753281780895
4338000000.0 1.0129909890442537 0.03975917867195043
4341000000.0 1.0220677934875217 0.038487801219843604
4344000000.0 1.0284099610019712 0.005150935584255056
4347000000.0 1.021384932156864 -0.01752332897284717
4350000000.0 0.9940964545941757 -0.015472805404030565
4353000000.0 1.0083079331313913 0.009869745381402062
4356000000.0 1.0035932567933223 -0.035373974419792564
4359000000.0 0.9587885799084409 -0.05704278057548788
4362000000.0 0.9928607985901321 -0.09461918541711244
4366000000.0 1.0377101978301035 -0.0756087167448248
4369000000.0 0.9776014388144191 -0.08313812659056069
4372000000.0 0.9877358148371644 -0.10514216270944084
4375000000.0 1.0007986288234 -0.08457958292383178
4378000000.0 0.9910399427022132 -0.0946908764023061
4381000000.0 1.0109096000893183 -0.07725726262409696
4384000000.0 1.0738160948960338 -0.12451217393515804
4388000000.0 0.9887225277911156 -0.11473368159683944
4391000000.0 1.0135206166713624 -0.1252614434545968
4394000000.0 0.9693263904772926 -0.13412801257589727
4397000000.0 0.9920275451233151 -0.14202146191923884
4400000000.0 1.0225275863017078 -0.15692094438996423
4403000000.0 0.9965118752830592 -0.1535342372739315
4406000000.0 0.9925583827350021 -0.19821107643405148
4409000000.0 1.0273027032883597 -0.19834690072618316
4412000000.0 0.960159255620345 -0.2584613238848322
4416000000.0 0.9726813198608855 -0.2216313443795125
4419000000.0 0.985382807521682 -0.241845927830935
4422000000.0 0.9820700984493025 -0.20378443988668854
4425000000.0 1.0094958216352752 -0.2135096177246079
4428000000.0 0.9687349333924589 -0.2518922473286851
4431000000.0 1.0002951536998876 -0.22683385228016775
4434000000.0 0.968317758370853 -0.2681234361484408
4438000000.0 0.9904879186596391 -0.2673308137111781
4441000000.0 0.9919741431952893 -0.2824088494340351
4444000000.0 0.9572003781695568 -0.2674848553385363
4447000000.0 0.9568205465615178 -0.3026102696093379
4450000000.0 0.9538901239521743 -0.28740494957807783
4453000000.0 0.9909854893560461 -0.3113305115554932
4456000000.0 0.9313337086184862 -0.31073669515455327
4459000000.0 0.9120431845520531 -0.3203524949833438
4462000000.0 1.0002517317546442 -0.3446563149672953
4466000000.0 0.9880283405970589 -0.3519547347397336
4469000000.0 0.9610576987532742 -0.3268570233315245
4472000000.0 0.9549925302758416 -0.39135790724506725
4475000000.0 0.9197643819833891 -0.35279184049700874
4478000000.0 0.9688644304706375 -0.40987296082504565
4481000000.0 0.9054764237197898 -0.3845106723604241
4484000000.0 0.907456859959153 -0.42623634674152777
4488000000.0 0.9126679494450154 -0.40147590551228135
4491000000.0 0.9293794021817426 -0.4164518017197785
4494000000.0 0.9054464973063464 -0.40519732439345507
4497000000.0 0.9141892877461901 -0.40351771972949446
4500000000.0 0.9359765367194373 -0.42181363734805677
4503000000.0 0.9344604006653867 -0.45237160054541786
4506000000.0 0.8992896779147823 -0.43568506644139005
4509000000.0 0.9006380005248344 -0.45363781342122267
4512000000.0 0.8838804071430144 -0.4791118408284297
4516000000.0 0.9217083049220292 -0.4716855329384754
4519000000.0 0.8717355899364967 -0.4584380422790992
4522000000.0 0.8791168695511054 -0.47247303830937165
4525000000.0 0.8827457752450425 -0.4593700686191008
4528000000.0 0.9092669243226874 -0.5146413798521275
4531000000.0 0.8937118052527355 -0.4854592182424231
4534000000.0 0.8758835043692159 -0.4747924263121117
4538000000.0 0.8483617573209454 -0.5151447391659462
4541000000.0 0.8309861965508288 -0.5415832980308741
4544000000.0 0.8544052630816514 -0.535734286176569
4547000000.0 0.8546703413490793 -0.5152941489227372
4550000000.0 0.8303617414256073 -0.5704671300926528
4553000000.0 0.8366036587287873 -0.5728837636453951
4556000000.0 0.8103075884471895 -0.5833348145984817
4559000000.0 0.8243513894192109 -0.5882884875764309
4562000000.0 0.8346766909679748 -0.5717014031235041
4566000000.0 0.794596971820771 -0.6012232529939872
4569000000.0 0.8066544716833454 -0.5760026958087439
4572000000.0 0.8039542333907438 -0.5994273540604788
4575000000.0 0.7966393359726118 -0.6249129677285883
4578000000.0 0.8123619068639067 -0.6200840673652007
4581000000.0 0.7816866153909113 -0.6382053905461258
4584000000.0 0.7694984541773612 -0.6523523802127222
4588000000.0 0.7978080661311667 -0.6382612647855475
4591000000.0 0.7886712255970246 -0.6493432403991559
4594000000.0 0.7643910399050159 -0.6746437343868936
4597000000.0 0.7716933561340731 -0.6766966826420492
4600000000.0 0.7261309328617757 -0.6717188174685459
4603000000.0 0.7354290333192801 -0.6774351919057999
4606000000.0 0.7516396482391944 -0.6815831754725785
4609000000.0 0.7447237847154494 -0.6699983487775572
4612000000.0 0.7348884077491364 -0.707231058772965
4616000000.0 0.715246130334082 -0.6858974732659366
4619000000.0 0.734482565004456 -0.6867432455290977
4622000000.0 0.7086610828786294 -0.7117559045918593
4625000000.0 0.6851318598860068 -0.7175877336314331
4628000000.0 0.6959473522092977 -0.7170742043755346
4631000000.0 0.6894727685851836 -0.7443337575330533
4634000000.0 0.6924385415630199 -0.7434885470802786
4638000000.0 0.692825216551179 -0.7574304163138932
4641000000.0 0.695596251636971 -0.752078820888904
4644000000.0 0.6743869939411311 -0.7625075600363364
4647000000.0 0.6781111035827688 -0.7648180629072538
4650000000.0 0.6469869151473934 -0.7775493361250887
4653000000.0 0.6735903075515235 -0.7842640710603908
4656000000.0 0.6453154283262408 -0.7884634866117493
4659000000.0 0.6176361303638294 -0.7911578560030201
4662000000.0 0.6396674799862361 -0.7953360967178461
4666000000.0 0.6035850302086389 -0.8121128002894838
4669000000.0 0.6356357161268993 -0.7979861502613498
4672000000.0 0.5860963639118034 -0.8135630787737195
4675000000.0 0.5843717751508875 -0.8311794290902669
4678000000.0 0.5974610397061312 -0.8092580475825351
4681000000.0 0.5780844462395824 -0.8532104254564776
4684000000.0 0.5419371382538822 -0.8525646537522572
4688000000.0 0.5551362146792942 -0.8286869793261433
4691000000.0 0.5912221254202086 -0.8296883446835779
4694000000.0 0.53841837442127 -0.8275741737609714
4697000000.0 0.5084890464174369 -0.8283839207982788
4700000000.0 0.5539302681482644 -0.8405413515858033
4703000000.0 0.5522162930555893 -0.8084365405439433
4706000000.0 0.5047653070999737 -0.8534024411823454
4709000000.0 0.5110948547574514 -0.8800610393502384
4712000000.0 0.5269569840588846 -0.8727294747002922
4716000000.0 0.5281370850835628 -0.893073383014096
4719000000.0 0.5146909186447808 -0.8850297651750428
4722000000.0 0.5148086820698017 -0.9009287476559864
4725000000.0 0.4858548063133419 -0.8659010823933447
4728000000.0 0.4608309518870427 -0.8820148303699651
4731000000.0 0.5179054657192298 -0.9370748234096351
4734000000.0 0.4874471582840284 -0.8862545063170784
4738000000.0 0.5054279959358164 -0.9346980059016881
4741000000.0 0.45921534253465346 -0.9397690029124692
4744000000.0 0.41359858681326883 -0.952647538501026
4747000000.0 0.4092300441080017 -0.8600437496186307
4750000000.0 0.4366667478241682 -0.9446029236223381
4753000000.0 0.46873358437744594 -0.9415557323464376
4756000000.0 0.38269493021673917 -0.9622887289265367
4759000000.0 0.41276812177063094 -0.932644870878168
4762000000.0 0.37447731459060923 -0.9495630177989748
4766000000.0 0.3767260128667076 -0.9375387620508059
4769000000.0 0.39954573709234825 -0.9670493475565146
4772000000.0 0.38995776426253936 -0.9596426559156898
4775000000.0 0.3905903691592366 -1.0145048707272222
4778000000.0 0.330849327293247 -0.9453878682564875
4781000000.0 0.3833742310650093 -0.9306026073078646
4784000000.0 0.35845115658797777 -0.952176573956712
4788000000.0 0.3197648457746884 -0.9668071212290543
4791000000.0 0.2928459946447372 -0.9513801730974848
4794000000.0 0.33537145611994723 -0.9909732427375362
4797000000.0 0.2798373538658187 -0.9697013703905625
4800000000.0 0.2629191374440604 -0.9489035085173687
4803000000.0 0.2678659390949907 -0.9737501143362621
4806000000.0 0.2828116701197114 -0.9728280283977833
4809000000.0 0.2511941690220165 -0.9903704590957084
4812000000.0 0.21635385070919616 -0.9945137040678582
4816000000.0 0.25249181237138363 -0.9885167121148224
4819000000.0 0.2658872014717968 -1.0145702151641756
4822000000.0 0.27866879354424123 -1.0165179629020324
4825000000.0 0.25079877628274455 -1.0294298934634196
4828000000.0 0.22257516286428142 -0.9928309440801765
4831000000.0 0.18534616031050571 -1.0422432314022596
4834000000.0 0.20268063867264913 -1.0139130009552932
4838000000.0 0.19301604956369967 -1.024970328649714
4841000000.0 0.1789758650029502 -0.9897884558297972
4844000000.0 0.2047042942158753 -1.019542051511729
4847000000.0 0.19167430797915025 -0.9750322745492652
4850000000.0 0.13954591523105253 -1.0648608520079825
4853000000.0 0.15783730307100913 -1.0069562641784586
4856000000.0 0.1474159437848465 -0.9969820155749886
4859000000.0 0.13963500801413878 -1.043024509352985
4862000000.0 0.1593239669511226 -0.9831202772319444
4866000000.0 0.1155855422826498 -1.0320803955050004
4869000000.0 0.08947662233705071 -1.0220786555658494
4872000000.0 0.08082051365699516 -1.0645718231444774
4875000000.0 0.14340950411648712 -1.0627917680880445
4878000000.0 0.08745781958620806 -1.0154400735801545
4881000000.0 0.04606765118255082 -1.0805284495020508
4884000000.0 0.08582224162663393 -1.0337214199515945
4888000000.0 0.09608770063246441 -1.0328321819483577
4891000000.0 0.08334165563062569 -1.0678563622752761
4894000000.0 0.03092225621139995 -1.017476866448823
4897000000.0 0.06424126480840678 -1.0332800855904167
4900000000.0 0.04636300523528826 -1.0521227905010075
4903000000.0 0.03691993002014604 -1.0374719208616447
4906000000.0 -0.006781330352418492 -1.0548732047150018
4909000000.0 0.003045002940686846 -1.0241937326573765
4912000000.0 -0.01710680115925607 -1.0665372047750419
4916000000.0 0.008899110724744044 -1.0656228912596126
4919000000.0 0.03164607639722934 -1.062227854849989
4922000000.0 -0.03941437900786819 -1.0628798681274572
4925000000.0 -0.05149412655328593 -1.0332443958255244
4928000000.0 0.01777235488538531 -1.021347680714819
4931000000.0 -0.04041290288326434 -1.0376050077231818
4934000000.0 -0.03994839667190528 -1.0022879367705202
4938000000.0 -0.08472754079990695 -0.9945218059698565
4941000000.0 -0.07669729728961426 -1.0254022690211653
4944000000.0 -0.07587273939702874 -0.9702512816780109
4947000000.0 -0.11913457881096245 -0.9871508294263733
4950000000.0 -0.12346181515100772 -1.0139413381725269
4953000000.0 -0.15740280435797854 -1.0341729684768568
4956000000.0 -0.1557337590360513 -1.0227025111776853
4959000000.0 -0.18880054462016246 -0.9550923271525665
4962000000.0 -0.15072642174609532 -1.0266831639465999
4966000000.0 -0.14242164062065255 -1.0340341156674482
4969000000.0 -0.1381990027083218 -1.0562872583295315
4972000000.0 -0.18491420797229122 -1.0036302767534468
4975000000.0 -0.14805387335377942 -0.9988958903929415
4978000000.0 -0.20230775124728884 -1.0012170711712947
4981000000.0 -0.20585849106647833 -1.019208250567771
4984000000.0 -0.1845016867667447 -0.9773989469094692
4988000000.0 -0.17729324265219776 -0.9977122291605034
4991000000.0 -0.16616336056930026 -1.0304065292120235
4994000000.0 -0.1997663311583156 -1.0222524831818085
4997000000.0 -0.2327693577968098 -1.0362330666977217
5000000000.0 -0.23878417480688058 -1.0278278971033017
5003000000.0 -0.23199229050510867 -1.0371270661650402
5006000000.0 -0.2763461605103622 -1.055703570331553
5009000000.0 -0.23257858933383105 -0.9983095999483141
5012000000.0 -0.26730879906697746 -1.026635585911702
5016000000.0 -0.22006948559233336 -1.0695510677768272
5019000000.0 -0.2921196377569306 -0.9681372751813468
5022000000.0 -0.2668829000324654 -1.012179896200879
5025000000.0 -0.3373251030545295 -1.029020618381441
5028000000.0 -0.3343026660831402 -0.9977371113905478
5031000000.0 -0.3340203582530149 -0.977838885972982
5034000000.0 -0.3592063748135389 -0.9929849562187869
5038000000.0 -0.34197172142762744 -0.9594853322401491
5041000000.0 -0.3021339623692849 -0.9966846374064539
5044000000.0 -0.286845247467296 -0.9601574759885291
5047000000.0 -0.32450263457521317 -0.9709115653812858
5050000000.0 -0.25331022921200075 -0.9808189884314602
5053000000.0 -0.35969077194599586 -0.9906773387158743
5056000000.0 -0.34789958260258524 -0.9799141491739951
5059000000.0 -0.3120804851688523 -1.0044627759760472
5062000000.0 -0.40219787897922266 -0.9473695563746931
5066000000.0 -0.367782694855169 -0.9656494202586319
5069000000.0 -0.43167910935652243 -0.9460268442580683
5072000000.0 -0.4031411601243361 -0.9435914638764067
5075000000.0 -0.3663686053518421 -0.9762231082658244
5078000000.0 -0.4486711174353442 -0.9587828311574007
5081000000.0 -0.42635022738420475 -0.8831753051955497
5084000000.0 -0.4539822470250737 -0.9425339394293859
5088000000.0 -0.41968879067282766 -0.9415844862362748
5091000000.0 -0.5416857100494736 -0.9134706597801721
5094000000.0 -0.4452391986385637 -0.946194168212061
5097000000.0 -0.459337887301554 -0.9622092230656971
5100000000.0 -0.45025053612628185 -0.9274496952260728
5103000000.0 -0.5226967466581215 -0.9571472826349657
5106000000.0 -0.504267582992808 -1.0217574116535781
5109000000.0 -0.47384280690807024 -0.9708468179499423
5112000000.0 -0.49463977997482744 -0.9253382292074261
5116000000.0 -0.47401246830320026 -0.8564338502800604
5119000000.0 -0.5515372274299662 -0.9499754691425175
5122000000.0 -0.4794380133824775 -0.9390659970637327
5125000000.0 -0.508916142462783 -0.8751402798432127
5128000000.0 -0.5563296203521036 -0.8619536533539671
5131000000.0 -0.5423869959542752 -0.8804667555946434
5134000000.0 -0.5517362897340107 -0.9106279520163864
5138000000.0 -0.5370827916469281 -0.8747461981236427
5141000000.0 -0.49839504302599164 -0.8505250969325251
5144000000.0 -0.5732125669317369 -0.8729315069374023
5147000000.0 -0.596936465317897 -0.8659990461555078
5150000000.0 -0.548564887738866 -0.901703088805337
5153000000.0 -0.584629455791331 -0.8446508047519017
5156000000.0 -0.6164522875480561 -0.8885220507960315
5159000000.0 -0.6608206574196258 -0.8932159962748413
5162000000.0 -0.6653689876126542 -0.8446904056003749
5166000000.0 -0.666858885963904 -0.8592264834895369
5169000000.0 -0.6558976605597567 -0.8339853265207468
5172000000.0 -0.5887926397738601 -0.8420382367788259
5175000000.0 -0.6591184531001896 -0.8571569348696138
5178000000.0 -0.6592215620034447 -0.8542007058653878
5181000000.0 -0.6540256977247768 -0.8160118424516448
5184000000.0 -0.6188760149906101 -0.8048485768835697
5188000000.0 -0.6638350656922267 -0.7997177251083353
