! Created with skrf 1.8.0 (http://scikit-rf.org).
# Hz S RI R 50.0 
!freq ReS11 ImS11
4000000000.0 0.5583743615728821 0.7787305248598331
4003000000.0 0.6883947441275867 0.8151227468729627
4006000000.0 0.655318801602837 0.7579452765159232
4009000000.0 0.6532204966330669 0.776233005450101
4012000000.0 0.6221241852442146 0.8931345275939103
4016000000.0 0.7407081819403373 0.7816656845718657
4019000000.0 0.6865918704793998 0.762836556620174
4022000000.0 0.6773050070158834 0.8339466902881639
4025000000.0 0.7385475952246742 0.7173114064289573
4028000000.0 0.7468478432496398 0.735193740417887
4031000000.0 0.6753607931952431 0.7145506974697038
4034000000.0 0.7285299810986933 0.7043504863743468
4038000000.0 0.7421360800656797 0.6770166427312602
4041000000.0 0.7449397228272495 0.7096268313370938
4044000000.0 0.7669549892881528 0.7784686143461581
4047000000.0 0.7631849233437944 0.7782104623150712
4050000000.0 0.7547265618380771 0.6854767679110789
4053000000.0 0.778740875327907 0.6680790309633802
4056000000.0 0.7326368153275454 0.6876901993847128
4059000000.0 0.7218772432564877 0.6646297344170407
4062000000.0 0.7880293092660876 0.6213971336546631
4066000000.0 0.7085922350870686 0.613598272299204
4069000000.0 0.8288100671331413 0.6455304633204061
4072000000.0 0.7865331657182819 0.6883467582985587
4075000000.0 0.7868712937835979 0.7011369668572083
4078000000.0 0.830717844052672 0.6313224947114665
4081000000.0 0.7995698881510536 0.6885467149993545
4084000000.0 0.8046099255203207 0.6294877684999185
4088000000.0 0.7725105408866811 0.6405005591371988
4091000000.0 0.8586615478776917 0.6613509473745907
4094000000.0 0.8236426168704726 0.6336591048668307
4097000000.0 0.8201933966592686 0.6103842832346267
4100000000.0 0.8676661886952053 0.6070689462267795
4103000000.0 0.8431534707403852 0.5812379651112491
4106000000.0 0.8375409282769831 0.603717073801896
4109000000.0 0.8379151792771875 0.5468158380005657
4112000000.0 0.8611884267790684 0.5594131810008853
4116000000.0 0.852304376723166 0.5791923317853245
4119000000.0 0.8407088441244831 0.5801129326334795
4122000000.0 0.8737464310655509 0.5358307923767461
4125000000.0 0.9249358310696113 0.5637598586226222
4128000000.0 0.8324706480806005 0.5394321655221503
4131000000.0 0.8595556080649468 0.5239699903388715
4134000000.0 0.8500217320893159 0.5363337516531101
4138000000.0 0.8555321998520995 0.4393876433894595
4141000000.0 0.8851418910971529 0.4829767247491934
4144000000.0 0.8791594650572254 0.5209376358611917
4147000000.0 0.891431392952202 0.47679118325009323
4150000000.0 0.8989473320225572 0.517101717155863
4153000000.0 0.9006039579906207 0.48920627477906464
4156000000.0 0.9543791891620153 0.49841592965904336
4159000000.0 0.8989643643688063 0.47585630173762955
4162000000.0 0.8926040551432801 0.4547870737031583
4166000000.0 0.9284782491276864 0.4518131998129227
4169000000.0 0.8840857328647798 0.4247967682261222
4172000000.0 0.9130312104706594 0.4352038317733062
4175000000.0 0.9124719971818829 0.4289693612016749
4178000000.0 0.9217592182143527 0.43677277128038705
4181000000.0 0.9205063112741045 0.4230768265002921
4184000000.0 0.9266462608403093 0.3976312391579833
4188000000.0 0.9203447349218974 0.37425439114841563
4191000000.0 0.9143469223779619 0.41129524657351707
4194000000.0 0.9327985504801872 0.388875256676409
4197000000.0 0.9443885093847022 0.40730711664427527
4200000000.0 0.9392437819523143 0.37559194474970026
4203000000.0 0.9665865949771972 0.37488581453253
4206000000.0 0.9786426164959793 0.3568352684684583
4209000000.0 0.9320006979949564 0.34487079793823844
4212000000.0 0.9695989732640752 0.30465152972639864
4216000000.0 0.9566610788267436 0.33158032073185223
4219000000.0 0.9754939679059129 0.3427278150214669
4222000000.0 0.9647487126826524 0.29769936550850856
4225000000.0 0.956927185148073 0.3087187481442514
4228000000.0 0.9914593926183 0.29405666539871866
4231000000.0 0.9803176983149231 0.28867718470198706
4234000000.0 0.9992833328777849 0.2758663287507481
4238000000.0 0.9962853125927896 0.23736421744772782
4241000000.0 0.9660830703729562 0.24527352293808763
4244000000.0 0.9829685245297355 0.2718781494659045
4247000000.0 0.9835996445489416 0.2717171346862252
4250000000.0 0.9951008992296275 0.2231097853136187
4253000000.0 0.9771162956948489 0.21829020923768966
4256000000.0 1.0134909443820868 0.2131626838466616
4259000000.0 0.9827850673491249 0.1776031623186455
4262000000.0 0.9837737657413228 0.17218606576191045
4266000000.0 1.0276359362829894 0.1801811893668966
4269000000.0 0.9987060237297185 0.20104169404712605
4272000000.0 0.9952064096081604 0.1716790145611808
4275000000.0 1.0102033670592168 0.17786344276424898
4278000000.0 1.0250916520130156 0.16682127828257093
4281000000.0 1.0183270825830057 0.16660777631386098
4284000000.0 1.0176332398480081 0.1081316594708186
4288000000.0 0.9989236838017863 0.18579509891260237
4291000000.0 0.9904463514670138 0.12363338370023903
4294000000.0 0.9623609035689782 0.13890816227666725
4297000000.0 0.9921536574726644 0.13859497761337758
4300000000.0 0.9795502085321952 0.12057778706958372
4303000000.0 0.992717627381937 0.0957161832444592
4306000000.0 1.0182216500625505 0.10950862525149482
4309000000.0 0.9883327563440418 0.0681969280926913
4312000000.0 1.018263764753144 0.10239258479717084
4316000000.0 1.045393628881913 0.0685657270160648
4319000000.0 0.9780391415228079 0.05239210790348363
4322000000.0 0.9833960318913948 0.017335953204438218
4325000000.0 0.9960439089215833 0.05984333881038166
4328000000.0 1.0073910420461416 0.037443279049984055
4331000000.0 1.0184997069947865 -0.00019488055946180471
4334000000.0 1.005022816989063 -0.014853470491102236
4338000000.0 1.013332641888112 0.013711601655080743
4341000000.0 1.0444054378804777 0.02974193243779738
4344000000.0 1.0307013260973132 -0.02632479707586638
4347000000.0 1.0194079277526604 -0.06389462501902436
4350000000.0 0.963170523004474 -0.0420353809873277
4353000000.0 0.987958389115116 -0.022207266411502752
4356000000.0 1.0249970057317432 -0.06723652666799289
4359000000.0 0.9590857090489132 -0.06399332604715069
4362000000.0 0.9947021065410411 -0.10862526712815138
4366000000.0 1.0079618804784656 -0.08487844103403588
4369000000.0 0.9736234523685029 -0.08736661471395567
4372000000.0 1.000985399141716 -0.1388726960548681
4375000000.0 1.0056255969641896 -0.09529392309160471
4378000000.0 0.9681886701956864 -0.10190513340814537
4381000000.0 0.9924753514866167 -0.10113593603213519
4384000000.0 1.0532059562305975 -0.1394486906111998
4388000000.0 0.9784051982378034 -0.1304328879706056
4391000000.0 1.0220285595865717 -0.13753854703205143
4394000000.0 0.9723978626690906 -0.1569976231674119
4397000000.0 0.9730671243088362 -0.17504591043717382
4400000000.0 1.008987010038846 -0.19136861525567941
4403000000.0 1.0051600784029617 -0.19299603209742644
4406000000.0 1.0010185588386344 -0.19146544792971276
4409000000.0 1.0077899223482367 -0.20777673751061743
4412000000.0 0.97046662839352 -0.2578913161493661
4416000000.0 0.9686376313457441 -0.22648362827976093
4419000000.0 0.9744862598154023 -0.2399190014211631
4422000000.0 0.9840672558963959 -0.21023838934330347
4425000000.0 0.9987445500871788 -0.21456911710249896
4428000000.0 0.9784720223520785 -0.266467673713905
4431000000.0 1.0071829224043853 -0.26301341795981603
4434000000.0 0.9695051031439882 -0.2768498278753745
4438000000.0 0.986504660926883 -0.28117703131517974
4441000000.0 0.9813761773312069 -0.2895967070680678
4444000000.0 0.944888822967775 -0.2896894285536021
4447000000.0 0.9479723744108963 -0.3175648253970472
4450000000.0 0.9542233218539068 -0.28956663492836193
4453000000.0 0.9806937261642237 -0.3238886932894778
4456000000.0 0.9252211416866063 -0.3327322608819936
4459000000.0 0.9062459035684978 -0.34216251418056465
4462000000.0 1.0098378212348245 -0.36020891417930406
4466000000.0 0.9674902884500801 -0.3742199571692838
4469000000.0 0.9508879739758598 -0.34346931601878156
4472000000.0 0.9465991711909442 -0.39570547228410596
4475000000.0 0.9213299246147767 -0.3549946650233189
4478000000.0 0.9762381177036786 -0.4131599559980823
4481000000.0 0.9010088045148682 -0.40515426772110746
4484000000.0 0.8909138506259577 -0.44162641711548334
4488000000.0 0.8898301832434581 -0.4148862775761242
4491000000.0 0.9108857512232671 -0.418190974341221
4494000000.0 0.8900327315139119 -0.40605175183274955
4497000000.0 0.9246437260884863 -0.4195868300590716
4500000000.0 0.9113566404707261 -0.4404579916491807
4503000000.0 0.9124415475942826 -0.4545869842157528
4506000000.0 0.885887954140377 -0.45824856393609975
4509000000.0 0.8718996957050911 -0.46260952224200647
4512000000.0 0.8578410387632048 -0.48256628291195935
4516000000.0 0.9004944897413351 -0.47181228337957276
4519000000.0 0.8754605315569909 -0.4750012391614225
4522000000.0 0.8683278876960339 -0.5047009148577506
4525000000.0 0.8792963507473506 -0.4824967694877025
4528000000.0 0.8927775394083726 -0.5283903123578234
4531000000.0 0.8833471378482579 -0.5134501690974139
4534000000.0 0.8426357791045983 -0.5256056240706185
4538000000.0 0.8443142417828804 -0.5368487083322719
4541000000.0 0.8087971893923054 -0.5564097340386397
4544000000.0 0.837410178747044 -0.5460561041717964
4547000000.0 0.8492037956465073 -0.5312522485763125
4550000000.0 0.8193490339950724 -0.6095527228622803
4553000000.0 0.8325753972049945 -0.5774682520958837
4556000000.0 0.7927785823431559 -0.5715732175343468
4559000000.0 0.8183157133144918 -0.5910168818287047
4562000000.0 0.8466329020037118 -0.5980212472217519
4566000000.0 0.8055473508647593 -0.6082659125806316
4569000000.0 0.778482418958742 -0.6008115282378161
4572000000.0 0.7940880377241513 -0.6095400786387317
4575000000.0 0.7702020365967113 -0.6485388407321595
4578000000.0 0.8040010364338919 -0.6289910249284115
4581000000.0 0.775647084547997 -0.6272809333872927
4584000000.0 0.7755256918085711 -0.6413501025317566
4588000000.0 0.7936229968484203 -0.654380430452978
4591000000.0 0.772105767964604 -0.6449912472575343
4594000000.0 0.7199296750179014 -0.6805221397154644
4597000000.0 0.7602257883911052 -0.6793137877588866
4600000000.0 0.7037659986596202 -0.7000362302771616
4603000000.0 0.7341833920002795 -0.7053927671006034
4606000000.0 0.7446673943409345 -0.7010278965186877
4609000000.0 0.7190889184949079 -0.6976610836873511
4612000000.0 0.7218253139726678 -0.7100249850624881
4616000000.0 0.7005895531282784 -0.7033181066668301
4619000000.0 0.7057458692008419 -0.7243190156154539
4622000000.0 0.7134004809033906 -0.7148342567261736
4625000000.0 0.6561177086696791 -0.7206966176272536
4628000000.0 0.6944064527223507 -0.7037217891234353
4631000000.0 0.6698388765474477 -0.749063455239021
4634000000.0 0.6596213389955604 -0.7487294079800803
4638000000.0 0.6742206918524197 -0.7642722447922108
4641000000.0 0.6783205716924327 -0.7553903003187835
4644000000.0 0.6621276816794445 -0.7591522656742011
4647000000.0 0.662772138761327 -0.7784282878360114
4650000000.0 0.6164758223403983 -0.783010388693339
4653000000.0 0.6386108445979778 -0.780454755573081
4656000000.0 0.6277455137540882 -0.7909261150078433
4659000000.0 0.618752854142339 -0.7879461831314049
4662000000.0 0.6144240985662927 -0.8159359357449074
4666000000.0 0.5948416822930569 -0.8320502277619587
4669000000.0 0.6238232749920827 -0.812934394024895
4672000000.0 0.5809233584634823 -0.8351512826518478
4675000000.0 0.5806307662284375 -0.8386681311159826
4678000000.0 0.5631365704151241 -0.8183915514863053
4681000000.0 0.5568164841891257 -0.8436686741455379
4684000000.0 0.5320801943361206 -0.8549186011192911
4688000000.0 0.5340030569959485 -0.85652096915807
4691000000.0 0.5644066427485224 -0.8262241428049286
4694000000.0 0.5382616577121858 -0.8505528029372531
4697000000.0 0.4849943528676628 -0.8540147644407174
4700000000.0 0.5113561041975057 -0.8729646562297684
4703000000.0 0.5430372499050041 -0.8272784816052867
4706000000.0 0.48382793949069736 -0.8862003242592921
4709000000.0 0.5152701349972666 -0.8764367292828148
4712000000.0 0.5152227628820772 -0.8819069005980633
4716000000.0 0.4829943769975462 -0.8774010038106348
4719000000.0 0.5024440478230547 -0.8882821874461418
4722000000.0 0.4692565653041071 -0.8849730788382226
4725000000.0 0.4551812644194438 -0.891642576326685
4728000000.0 0.4247488559124909 -0.8958573919677146
4731000000.0 0.4716895039961013 -0.913914099310517
4734000000.0 0.4593934870202421 -0.8966257735314859
4738000000.0 0.44343081593630784 -0.9473639107461155
4741000000.0 0.43058448145600325 -0.9598648866056354
4744000000.0 0.4213633695935635 -0.9310228274091407
4747000000.0 0.4329869525854425 -0.8876189176374347
4750000000.0 0.40522937182998153 -0.9218422000789479
4753000000.0 0.42411403111748325 -0.9486660204831133
4756000000.0 0.3732514740832002 -0.9566862090417858
4759000000.0 0.3913707376969191 -0.9707939510914411
4762000000.0 0.3538308913260079 -0.9648974277018219
4766000000.0 0.37263275322415007 -0.9436767363639409
4769000000.0 0.347741757545412 -0.9544487913724654
4772000000.0 0.35421452759001776 -0.9650323821157674
4775000000.0 0.3582843044477209 -1.0006517528939267
4778000000.0 0.3553475939750278 -0.9626345946965796
4781000000.0 0.32476128105741947 -0.9446554267760237
4784000000.0 0.32771872847359695 -0.9649673899933168
4788000000.0 0.3122852962216147 -0.9813344948663196
4791000000.0 0.3036743121221742 -0.9750372460514686
4794000000.0 0.31074678281297824 -1.0062677013519798
4797000000.0 0.2765375649881716 -0.9424887097583196
4800000000.0 0.26353587670140516 -0.960608023444923
4803000000.0 0.23244076213216575 -0.9916066138961457
4806000000.0 0.24403588094932277 -1.0093819023462318
4809000000.0 0.21062433258367647 -0.9936616959740837
4812000000.0 0.22534276020040703 -1.005055477362371
4816000000.0 0.23875217554441736 -0.9743184660603557
4819000000.0 0.24573613873334052 -1.0065941294952716
4822000000.0 0.2430066086170784 -1.0251103348829649
4825000000.0 0.2560690924364802 -1.0242526928916063
4828000000.0 0.17591389016640338 -1.0043028730488075
4831000000.0 0.1565989887251335 -1.021549243803592
4834000000.0 0.18955292667726095 -1.0071838385392575
4838000000.0 0.16509537203402241 -1.0257388745556586
4841000000.0 0.14916876086589878 -0.9981614864381093
4844000000.0 0.19430566410872468 -1.0026164810307825
4847000000.0 0.17108095470972778 -0.9825345343535896
4850000000.0 0.12119618327847148 -1.0424963853720228
4853000000.0 0.14395631709974446 -0.9949768781797301
4856000000.0 0.13622370884655138 -1.0092960589576656
4859000000.0 0.11722764878475256 -1.0504642925488445
4862000000.0 0.11563937775091075 -0.9856657207917866
4866000000.0 0.06913453706369185 -1.036119879225145
4869000000.0 0.07092140183988574 -1.0224719288401471
4872000000.0 0.051100167850612 -1.0444792271441423
4875000000.0 0.12828109723266973 -1.0618111928424196
4878000000.0 0.06002458107736608 -1.0210232055388406
4881000000.0 0.012046886040732379 -1.0760250499461521
4884000000.0 0.07179156308869863 -1.026260731247434
4888000000.0 0.05058136600492819 -1.0277628132496077
4891000000.0 0.056942074854000733 -1.0560227021092692
4894000000.0 0.007968391102862736 -1.0184357517681453
4897000000.0 0.03692195036473286 -1.016492218044127
4900000000.0 0.030090426678913106 -1.0293004392273053
4903000000.0 0.035723012247853514 -1.0780441532060236
4906000000.0 -0.028293164703348417 -1.0382971278263338
4909000000.0 -0.026993962681978186 -1.018200223875335
4912000000.0 -0.06011187644852331 -1.0552369770181687
4916000000.0 -0.02150494207169066 -1.0537987980425485
4919000000.0 0.03569985477693994 -1.0608369050211761
4922000000.0 -0.03242105570397412 -1.019228766168823
4925000000.0 -0.09457189476197714 -1.024013792725726
4928000000.0 0.018004921090871526 -1.0418427848456835
4931000000.0 -0.02637058508265755 -1.051689899646941
4934000000.0 -0.07667002426720139 -0.9795637629416339
4938000000.0 -0.11070240152212428 -0.992361160083748
4941000000.0 -0.07215895780148666 -0.984298027191833
4944000000.0 -0.0548040573011801 -0.9557011885948765
4947000000.0 -0.11771702735864537 -0.9871135219728041
4950000000.0 -0.1326329014571656 -1.0053385976791434
4953000000.0 -0.1835423957691213 -1.0480178249857872
4956000000.0 -0.13756305457500068 -1.006589434051027
4959000000.0 -0.19234688455071666 -0.9790972749217141
4962000000.0 -0.17066583010123274 -1.0134065184620173
4966000000.0 -0.12204825270531594 -1.0534567679601845
4969000000.0 -0.1615421247581182 -1.0885078904629846
4972000000.0 -0.19931399629443539 -1.0246514361329497
4975000000.0 -0.14854538180638724 -1.0145837861372717
4978000000.0 -0.1973235301430018 -0.994811745174651
4981000000.0 -0.21947186712719804 -0.9922901082210541
4984000000.0 -0.23457137629613575 -0.9770052160495247
4988000000.0 -0.19915975870758584 -1.0068361956878609
4991000000.0 -0.17382960366103856 -1.0391204066267183
4994000000.0 -0.223761638718261 -1.0063859772845745
4997000000.0 -0.26745650079363326 -1.01079018876048
5000000000.0 -0.27206696006609854 -1.0364152898898131
5003000000.0 -0.2480622159344839 -1.0276323163184187
5006000000.0 -0.2686075127243279 -1.0487188933791884
5009000000.0 -0.27358975555993115 -0.9858779225430777
5012000000.0 -0.2996590561459645 -0.9840562766903274
5016000000.0 -0.2596870700899601 -1.0367212013699352
5019000000.0 -0.29113102128350354 -1.0070830048378765
5022000000.0 -0.29612897268007454 -0.9827530523724564
5025000000.0 -0.32238347832210984 -1.0599543617119842
5028000000.0 -0.34002592277736043 -0.9791508891333192
5031000000.0 -0.35387831376700807 -0.9490026043814718
5034000000.0 -0.3922792888023001 -0.9763498402226074
5038000000.0 -0.3637116585377492 -0.93560164085118
5041000000.0 -0.3093689849057264 -0.985174522614254
5044000000.0 -0.3229308083359299 -0.9416635298652895
5047000000.0 -0.35089647272372676 -0.9653643463778158
5050000000.0 -0.2937042910532275 -0.9607865906583357
5053000000.0 -0.38602134244242525 -1.0008014632102868
5056000000.0 -0.3403118036656472 -0.9640719497003425
5059000000.0 -0.33844809767359857 -0.9618577330360844
5062000000.0 -0.4666749049586102 -0.9410776983334415
5066000000.0 -0.3762616936132396 -0.9559193059351818
5069000000.0 -0.42813325517883305 -0.9690130544777319
5072000000.0 -0.4400790914005992 -0.9431915241234632
5075000000.0 -0.3992775152268365 -0.9632628858170456
5078000000.0 -0.47534131166628807 -0.9393824797379451
5081000000.0 -0.44470032769610907 -0.92968829429759
5084000000.0 -0.43645197369664757 -0.9319541353713163
5088000000.0 -0.4619776000144351 -0.8895697669871994
5091000000.0 -0.4999644585497512 -0.929538533587436
5094000000.0 -0.48567492399425277 -0.9083567192221863
5097000000.0 -0.450035227403628 -0.9093781507549403
5100000000.0 -0.48940734933514657 -0.9286326543022904
5103000000.0 -0.4938513441083563 -0.9158490528227737
5106000000.0 -0.5337509783043786 -0.9483428586454694
5109000000.0 -0.4896881725924761 -0.8920279461872598
5112000000.0 -0.5649553335127261 -0.8670591439632971
5116000000.0 -0.5280000303652984 -0.8549765712608675
5119000000.0 -0.5579841935440647 -0.8974531119158302
5122000000.0 -0.5520690840275501 -0.8560787938711933
5125000000.0 -0.5259854072382754 -0.8542057437237982
5128000000.0 -0.5615458131875686 -0.8584658445605533
5131000000.0 -0.5469469704532272 -0.823173135699423
5134000000.0 -0.5371425307560092 -0.8890786386835499
5138000000.0 -0.537012869512999 -0.8702334965968115
5141000000.0 -0.5679488231307102 -0.8551192261918816
5144000000.0 -0.5704639028265281 -0.8514684634352243
5147000000.0 -0.5875484970687472 -0.8643996728248967
5150000000.0 -0.6109118658623902 -0.8431899023057505
5153000000.0 -0.6346668294419713 -0.8550618550941358
5156000000.0 -0.6286866592579569 -0.8540597293673976
5159000000.0 -0.6539835789697331 -0.8727273108628933
5162000000.0 -0.6141069546626343 -0.7959758304221114
5166000000.0 -0.6363295181722892 -0.778388261109605
5169000000.0 -0.7189210612302835 -0.8523674269794752
5172000000.0 -0.6550069016687865 -0.8062507402468335
5175000000.0 -0.6477587602002721 -0.8465211074313587
5178000000.0 -0.6763404468726744 -0.7950929961459958
5181000000.0 -0.6470404702009402 -0.8325582959362864
5184000000.0 -0.6714518851303977 -0.8184453507366155
5188000000.0 -0.6431099168813016 -0.7935625952341212
