! Created with skrf 1.8.0 (http://scikit-rf.org).
# Hz S RI R 50.0 
!freq ReS11 ImS11
4000000000.0 0.6298195288322904 0.8198658528054468
4003000000.0 0.6430309816640576 0.8573185381237906
4006000000.0 0.6636172316890465 0.7601805026879592
4009000000.0 0.6735127639716401 0.8285354186183203
4012000000.0 0.6638390948196097 0.8522132644858271
4016000000.0 0.7373510460632365 0.7739681754041998
4019000000.0 0.6597672272223492 0.8057327485429785
4022000000.0 0.641795474875072 0.8140855883879401
4025000000.0 0.8001733022052517 0.7757654987431645
4028000000.0 0.7456926783852516 0.7844018775322414
4031000000.0 0.682477633102533 0.7788366127763318
4034000000.0 0.7029430886727539 0.7213410927864338
4038000000.0 0.7467138933381464 0.7506085935609222
4041000000.0 0.7350894717228954 0.7343488495045519
4044000000.0 0.788109299218934 0.7940838785675307
4047000000.0 0.7409353860352749 0.8274565144930485
4050000000.0 0.7766937964311144 0.7005272372368339
4053000000.0 0.7429713306557589 0.6943141374424198
4056000000.0 0.7514447360981696 0.7161854969452099
4059000000.0 0.7310658356557017 0.6752238181397883
4062000000.0 0.7657213524750497 0.6484193336767599
4066000000.0 0.7277697615942114 0.6639606157219454
4069000000.0 0.8629019395757668 0.6968281284706821
4072000000.0 0.7518008484311287 0.7129619203789037
4075000000.0 0.8116849413281716 0.7142983753867509
4078000000.0 0.7836442407884061 0.6756172410304158
4081000000.0 0.7885158668155678 0.7013703550271266
4084000000.0 0.8623706900257285 0.622470924104364
4088000000.0 0.7925724429560914 0.6411899929886663
4091000000.0 0.8844050363957328 0.6985798156308785
4094000000.0 0.8087961004360474 0.6120884426015035
4097000000.0 0.8291078649432987 0.6375254555840317
4100000000.0 0.8146369624226306 0.6127706807584525
4103000000.0 0.8618520919148269 0.6726102671510947
4106000000.0 0.8536779588975562 0.5983991880339486
4109000000.0 0.8812957979537352 0.6088005071086138
4112000000.0 0.8125873076279462 0.6150305479561242
4116000000.0 0.8764321107955795 0.6241954218852778
4119000000.0 0.8717982497389895 0.5584338915742647
4122000000.0 0.8852297033895876 0.5222452363005948
4125000000.0 0.8786411480155722 0.5538903539220132
4128000000.0 0.8435305073471691 0.57455396106393
4131000000.0 0.871154660407316 0.5348430695517687
4134000000.0 0.8888880575142758 0.5588094794385776
4138000000.0 0.8802729720049058 0.48788230247860037
4141000000.0 0.8685890190901943 0.5162575995442232
4144000000.0 0.9026003805990102 0.5703974811668224
4147000000.0 0.8805242626320756 0.4832654718073261
4150000000.0 0.9148873354780294 0.5127930059499788
4153000000.0 0.8880974576253721 0.48395470086680814
4156000000.0 0.9179238877840343 0.5427986180188237
4159000000.0 0.9046521720856506 0.482770330401533
4162000000.0 0.9151784721109502 0.50035780614964
4166000000.0 0.9427459389372801 0.4567774764714161
4169000000.0 0.9081518423312558 0.4426582845612036
4172000000.0 0.9452725359960994 0.4724305159370274
4175000000.0 0.9273783955462869 0.464066346250171
4178000000.0 0.9817264186518261 0.4637115161680775
4181000000.0 0.9706883724299518 0.411336736372383
4184000000.0 0.9222963246728916 0.41240105890654793
4188000000.0 0.9597466140229605 0.38891741989275475
4191000000.0 0.916957501795161 0.40582347638379695
4194000000.0 0.9425102956561408 0.4043758987530225
4197000000.0 0.9668746385614986 0.3892824325432466
4200000000.0 0.9286283526671841 0.4080761599442567
4203000000.0 0.96146946601831 0.3866829641490599
4206000000.0 0.9643393169075146 0.37159917691642835
4209000000.0 0.9475463911165357 0.36690663106325244
4212000000.0 0.9726770308288686 0.3141093029897182
4216000000.0 0.9797814033170847 0.3556987100716588
4219000000.0 0.9894347086612832 0.3660033435152744
4222000000.0 0.9892268353766669 0.3279642639393214
4225000000.0 0.9597026229598766 0.32476248573139355
4228000000.0 0.9720078225467383 0.32732079838067185
4231000000.0 0.9910479170916046 0.2984439169406723
4234000000.0 0.9931817857027228 0.2990402609490687
4238000000.0 0.979831699770683 0.278767052427083
4241000000.0 0.9874654021384996 0.27049347083923414
4244000000.0 0.9742198330384432 0.2837941753980438
4247000000.0 0.9915276561621813 0.28587382364156855
4250000000.0 0.9767600519488084 0.2418885078983785
4253000000.0 0.9715675793100407 0.22623901204061786
4256000000.0 1.0030034744471519 0.224122604305868
4259000000.0 0.9671299413888865 0.21802475121024653
4262000000.0 1.0078708598217259 0.19512466601217568
4266000000.0 1.025225404578231 0.19746227799252558
4269000000.0 1.0058212912616231 0.23548357472414608
4272000000.0 0.9843002805794313 0.2071607816909135
4275000000.0 1.0131893657862017 0.18964885801867104
4278000000.0 1.0062745188814062 0.19694073208250207
4281000000.0 1.015870898445516 0.19058336147179183
4284000000.0 1.0340975506748833 0.14504141063683076
4288000000.0 0.9961267254190104 0.17434426346364446
4291000000.0 1.0035931166150702 0.11557303172175164
4294000000.0 1.0199191361132283 0.14383601868737056
4297000000.0 0.9994587464345933 0.1582035471760872
4300000000.0 1.0007601043584493 0.12695156756734477
4303000000.0 1.016458603946662 0.10700203554018776
4306000000.0 1.0056621475469745 0.11865655048867726
4309000000.0 0.994239793710555 0.13187383714717066
4312000000.0 1.043023669756545 0.11701151057036518
4316000000.0 1.0130664121549429 0.09128879051096193
4319000000.0 1.0087180601547385 0.09339354331571735
4322000000.0 1.0041588058453415 0.05069482887635181
4325000000.0 1.0305294382357224 0.07672935082341302
4328000000.0 1.0189195267387134 0.041073613368269354
4331000000.0 1.0052577963946756 0.028358257002846943
4334000000.0 1.003398302696212 0.034033681547218364
4338000000.0 1.0223154379043555 0.043602494603753414
4341000000.0 1.0257826833873904 0.030247892199177034
4344000000.0 1.0303492186010736 0.013622214697700752
4347000000.0 1.018824916252547 -0.04685433797926579
4350000000.0 0.9774988814298773 -0.014209068143897413
4353000000.0 1.008212227803097 -0.0002802498024758737
4356000000.0 1.0034710818670636 -0.053583114839939466
4359000000.0 0.9877055120483007 -0.04994587706493074
4362000000.0 1.0221075368476102 -0.10380204035425908
4366000000.0 1.0418112303532499 -0.06359867307790804
4369000000.0 0.9902390532109225 -0.06699872190485454
4372000000.0 0.9951274008834305 -0.10622520278840987
4375000000.0 0.9996553603364577 -0.07151204192416018
4378000000.0 1.003255111377238 -0.08509487059440786
4381000000.0 1.0042366583040367 -0.09811243391105627
4384000000.0 1.0569438755497529 -0.1304619795814962
4388000000.0 0.9844691316244334 -0.11733176861557283
4391000000.0 1.0154326124407707 -0.13393302057442819
4394000000.0 0.978677102117261 -0.13273737966293953
4397000000.0 1.007050628012795 -0.1512201549296135
4400000000.0 1.026135421270801 -0.17724447131932702
4403000000.0 1.0130653462476598 -0.15207019416661288
4406000000.0 0.9914191192847214 -0.18269166519141983
4409000000.0 1.0346265965368435 -0.19306230439608074
4412000000.0 0.9824193156455469 -0.2548659693913175
4416000000.0 0.9811536488818964 -0.19738631642861443
4419000000.0 0.98967687023673 -0.23677153884228228
4422000000.0 0.9810776461387372 -0.18962359295603437
4425000000.0 1.0266878739568466 -0.2051855400969514
4428000000.0 0.9774316411751457 -0.24633297948585942
4431000000.0 0.9991492546751415 -0.2399284572252316
4434000000.0 0.967249269484556 -0.2516411501664533
4438000000.0 1.005662234985139 -0.25452453003767994
4441000000.0 1.0028253537538863 -0.27568187529166327
4444000000.0 0.9647378219764047 -0.26511310714567116
4447000000.0 0.9622331418026995 -0.3117405034248346
4450000000.0 0.9636368534206919 -0.26984326952907184
4453000000.0 0.989214176962965 -0.31938678344636773
4456000000.0 0.9515634703215822 -0.3221385426306183
4459000000.0 0.9118306850406812 -0.3125154211370512
4462000000.0 1.0119378219500028 -0.35640045687913935
4466000000.0 0.9893653707996088 -0.359640035320535
4469000000.0 0.9614845144734667 -0.33098146006548407
4472000000.0 0.9721910058377264 -0.38167014869478977
4475000000.0 0.9307063554137477 -0.3468608414090889
4478000000.0 0.9790773891476733 -0.4141591621868118
4481000000.0 0.9136248950350653 -0.3997743058336566
4484000000.0 0.9133651526696749 -0.40457963994736246
4488000000.0 0.9155326723733538 -0.406023649725336
4491000000.0 0.9263633715799447 -0.40612645318725504
4494000000.0 0.9082551216137039 -0.4026255887287682
4497000000.0 0.9150038223173915 -0.4027096919655401
4500000000.0 0.9074192294233736 -0.41332928149689047
4503000000.0 0.9359004695621351 -0.4456810468245115
4506000000.0 0.9100015901943821 -0.45000270829820166
4509000000.0 0.8932361146027981 -0.43964723028776254
4512000000.0 0.887655765486588 -0.45158516759503164
4516000000.0 0.9136666830537756 -0.4799362351887039
4519000000.0 0.8818546960753035 -0.4510830272352216
4522000000.0 0.8779410069649181 -0.4894313122223801
4525000000.0 0.8845393707131552 -0.46286739475987065
4528000000.0 0.8952317299504753 -0.5238105478533016
4531000000.0 0.8927437586042707 -0.49799614792786884
4534000000.0 0.8636418243386981 -0.5198772494719586
4538000000.0 0.877721861262238 -0.5312454062124655
4541000000.0 0.8156658554392673 -0.5733081663804832
4544000000.0 0.8408781405891024 -0.5156221081470909
4547000000.0 0.8616914679763821 -0.5295838993122175
4550000000.0 0.8635405178631832 -0.5737120610720974
4553000000.0 0.8600178578983764 -0.575581854717497
4556000000.0 0.8097774964045006 -0.5753078478452733
4559000000.0 0.8323330508961279 -0.5923187351136971
4562000000.0 0.8386293966751444 -0.57297526536342
4566000000.0 0.8170520942828114 -0.6045887280576181
4569000000.0 0.8084471926550789 -0.5920979818543668
4572000000.0 0.7964288256501134 -0.5984573630759161
4575000000.0 0.8047646267296438 -0.634799199495497
4578000000.0 0.8429567892443623 -0.6324587562885946
4581000000.0 0.7731426780616587 -0.6533799609434149
4584000000.0 0.7862087636523112 -0.6258163472926153
4588000000.0 0.8220420026348132 -0.6333028298315787
4591000000.0 0.7717329907684072 -0.6223501725476219
4594000000.0 0.7644010400283512 -0.6744636043099272
4597000000.0 0.7819140705160745 -0.6754619829345817
4600000000.0 0.7254422751875355 -0.6987862656532949
4603000000.0 0.7550627390339445 -0.6909459586399915
4606000000.0 0.7508703210848214 -0.6869922803449421
4609000000.0 0.7431288823482712 -0.6912074106015261
4612000000.0 0.7402370993492474 -0.7035398316902831
4616000000.0 0.7251792511926778 -0.7115885510824379
4619000000.0 0.7176465745071225 -0.6977598300652125
4622000000.0 0.7061191021779479 -0.7190345540449503
4625000000.0 0.68329980346241 -0.7033242632392024
4628000000.0 0.7158737692097672 -0.7173100837926395
4631000000.0 0.6746739045163872 -0.7436989255615377
4634000000.0 0.7025548160598133 -0.7366086684961624
4638000000.0 0.6737950308546993 -0.7268906639813895
4641000000.0 0.6822901309065038 -0.7534040476055913
4644000000.0 0.6895042668778646 -0.7657157652637896
4647000000.0 0.6768943170072992 -0.7682771901849088
4650000000.0 0.646607607579731 -0.7733318362929783
4653000000.0 0.6687252430619074 -0.7940480107539536
4656000000.0 0.6337635309344312 -0.7709557111418555
4659000000.0 0.6226332636437237 -0.8052770621183324
4662000000.0 0.6318525219491613 -0.8046612715261503
4666000000.0 0.6019906006695341 -0.8020052226912661
4669000000.0 0.6208199273317196 -0.8048434495538446
4672000000.0 0.5956516182982845 -0.8224632158970058
4675000000.0 0.5875640024537534 -0.8480985272521938
4678000000.0 0.5818852111081994 -0.8127151773668617
4681000000.0 0.5607485463467079 -0.840058858480356
4684000000.0 0.5704476603308213 -0.8536588089267306
4688000000.0 0.5550213012407694 -0.8594330148338621
4691000000.0 0.6123058216350394 -0.8315924236673746
4694000000.0 0.5527861326636474 -0.8347396405964256
4697000000.0 0.5179991310913106 -0.8513690042259088
4700000000.0 0.5283375284868572 -0.8439111660245746
4703000000.0 0.5715238050457649 -0.8244547371658568
4706000000.0 0.5337825895100264 -0.8681541969358844
4709000000.0 0.49233953861427887 -0.8680738606256723
4712000000.0 0.5052187052044145 -0.8954329913257932
4716000000.0 0.525127160393144 -0.8953293980677777
4719000000.0 0.528200889959678 -0.899607883597267
4722000000.0 0.510255143062663 -0.8521709869578551
4725000000.0 0.5080202749402167 -0.8987494606641128
4728000000.0 0.4811706571610201 -0.9021359703817982
4731000000.0 0.5005369826068842 -0.9331604947747378
4734000000.0 0.48280120630329226 -0.8713545612843593
4738000000.0 0.47797322054947344 -0.9519997027064264
4741000000.0 0.46950938046875734 -0.9523291066834955
4744000000.0 0.42647530549285656 -0.9439008634291258
4747000000.0 0.4390588836800349 -0.9069621130041059
4750000000.0 0.42152423382361415 -0.9464786833028375
4753000000.0 0.4650977058076816 -0.8955416344852779
4756000000.0 0.3896609977489489 -0.9262824648602892
4759000000.0 0.41418764933804186 -0.9233090555198702
4762000000.0 0.39570751507045054 -0.9769224409179246
4766000000.0 0.38212563726633497 -0.9211614385220875
4769000000.0 0.4022625028163682 -0.9812074982975117
4772000000.0 0.367459863909196 -0.9572305136515776
4775000000.0 0.3669362576152604 -1.0270085519741199
4778000000.0 0.3166362274385631 -0.9756599262946534
4781000000.0 0.36389101840789384 -0.9290891882709815
4784000000.0 0.37262987958562915 -0.978492804019483
4788000000.0 0.2935790281720482 -0.9891592980469692
4791000000.0 0.32961682587789143 -0.9752679091594593
4794000000.0 0.3434794017009435 -1.0020551452239268
4797000000.0 0.29222827466574036 -0.982230957889081
4800000000.0 0.2691596622720959 -0.9538883114847361
4803000000.0 0.25750313271675607 -0.9893452721176763
4806000000.0 0.29032135971940126 -1.005875695997405
4809000000.0 0.22112846099026934 -1.0074538466253555
4812000000.0 0.21930534354397052 -0.9907731023378441
4816000000.0 0.2782968320943902 -0.9815199714029708
4819000000.0 0.2619819298060024 -1.0106167005488336
4822000000.0 0.263039552217899 -1.0312364325544336
4825000000.0 0.2564871592766485 -1.0324879402783782
4828000000.0 0.2226317565406793 -1.0024426266028486
4831000000.0 0.18564357485208555 -1.0409751478990654
4834000000.0 0.215052477034196 -1.0176630811388019
4838000000.0 0.21328530321214717 -1.0356040311302064
4841000000.0 0.1810923433080217 -1.0067463829106504
4844000000.0 0.21530318639552262 -0.9935885767728129
4847000000.0 0.1877894408820997 -0.9778331974305821
4850000000.0 0.14027052681509627 -1.0331575818895957
4853000000.0 0.16489677885350745 -0.9838150977516167
4856000000.0 0.14543187114748124 -1.0179192465295392
4859000000.0 0.138806224911474 -1.0707664166059003
4862000000.0 0.13836480904449996 -0.9848697706417237
4866000000.0 0.09103131609933593 -1.0359073735161533
4869000000.0 0.08942324552872255 -1.0433879040261518
4872000000.0 0.07983883391255847 -1.0564271382755102
4875000000.0 0.16484807384220926 -1.0549316284891075
4878000000.0 0.08526908884926898 -1.039048868393069
4881000000.0 0.05267544088665802 -1.0857525398609702
4884000000.0 0.08012903554987034 -1.0130106617809609
4888000000.0 0.10157761251219426 -1.0067508655548552
4891000000.0 0.08731940712231333 -1.0388724518539378
4894000000.0 0.026457043473834495 -0.9987162740972803
4897000000.0 0.0728907430515117 -1.0244796736553936
4900000000.0 0.04321720778637703 -1.0519722824556998
4903000000.0 0.014691073474799192 -1.0490596275549904
4906000000.0 0.0006178646012846498 -1.074976133293536
4909000000.0 -0.031196813994058673 -1.0453498539006467
4912000000.0 -0.03455459672319172 -1.0878087827499738
4916000000.0 0.026225318806666332 -1.0673507672015496
4919000000.0 0.010982905055542322 -1.08793902882155
4922000000.0 0.010969286182219248 -1.0685285077666007
4925000000.0 -0.0746111067162458 -1.0522570271779057
4928000000.0 0.01835198747670677 -1.0449339350758335
4931000000.0 -0.008850403211962787 -1.0532725297579177
4934000000.0 -0.07591035254478289 -0.9807092818141768
4938000000.0 -0.09992744830996068 -1.0264014430024382
4941000000.0 -0.06760156028957091 -1.0158103137028254
4944000000.0 -0.036327964889059566 -0.9912351109194248
4947000000.0 -0.08920178127535727 -0.9964032145471503
4950000000.0 -0.11713038762914922 -0.9780596897410199
4953000000.0 -0.13571659694675464 -1.066022222019252
4956000000.0 -0.1552827066036499 -1.042100132801297
4959000000.0 -0.1757077160827639 -1.0165069836992962
4962000000.0 -0.16367275987271981 -1.0415436171224028
4966000000.0 -0.15323070534606342 -1.0712848978988017
4969000000.0 -0.14057594273848467 -1.0498321784529263
4972000000.0 -0.17334525744066062 -1.045920631820003
4975000000.0 -0.12298510900626877 -1.0111842768311663
4978000000.0 -0.19648481963036185 -0.986176874530285
4981000000.0 -0.22057139511393034 -1.039347785736363
4984000000.0 -0.18215678133095106 -0.9861959203760182
4988000000.0 -0.17854590083640082 -1.0398552017596907
4991000000.0 -0.1970128763688766 -1.0665704671931828
4994000000.0 -0.1924689978603672 -1.01798368544188
4997000000.0 -0.2747910353869077 -1.0185244774764324
5000000000.0 -0.23566439642832476 -1.0542501905850152
5003000000.0 -0.2191129809809625 -1.0691351500592157
5006000000.0 -0.24518197981483528 -1.0379111230966311
5009000000.0 -0.2583574662239039 -0.9978628552841994
5012000000.0 -0.28012906560047063 -1.0079748025088069
5016000000.0 -0.27160485123745787 -1.0487335535811155
5019000000.0 -0.27604928378253335 -1.0076366841788507
5022000000.0 -0.2823947224597848 -1.0079785338601754
5025000000.0 -0.29885129331704813 -1.080898896364186
5028000000.0 -0.3187987520605169 -0.9897787960325597
5031000000.0 -0.3145406410288277 -0.9823941648503361
5034000000.0 -0.37679868864057076 -1.0156563958809786
5038000000.0 -0.31594701150863724 -0.9718646053848816
5041000000.0 -0.31884395036904256 -1.0133204797966444
5044000000.0 -0.3018644892802529 -0.9781307860421743
5047000000.0 -0.32760689989891095 -0.9976245768995528
5050000000.0 -0.29592920490274455 -0.9667072981925466
5053000000.0 -0.386667676477222 -1.0433090115872203
5056000000.0 -0.33688510568825236 -1.0042376778999986
5059000000.0 -0.3291273609993461 -1.012909584188748
5062000000.0 -0.3966332875179708 -0.9755680937422617
5066000000.0 -0.34422420493334904 -0.965967773859008
5069000000.0 -0.43958381581669503 -0.9737420476880242
5072000000.0 -0.40988434016152875 -0.9411692469825512
5075000000.0 -0.3642811514088723 -0.9628361022440257
5078000000.0 -0.4746792810596853 -0.9232501718936006
5081000000.0 -0.4155666067373897 -0.9194178019327427
5084000000.0 -0.4224955342224115 -1.001092544098936
5088000000.0 -0.41389012207509535 -0.931222083535916
5091000000.0 -0.49864739896849536 -0.9357108571939101
5094000000.0 -0.47896915216511365 -0.9087485595118857
5097000000.0 -0.44763133795647125 -0.9609606245816757
5100000000.0 -0.4618106940608243 -0.9133907320007492
5103000000.0 -0.5291754248707774 -0.9367752341972116
5106000000.0 -0.5269412561887745 -0.9504569992094449
5109000000.0 -0.47010528471991364 -0.9147971954573084
5112000000.0 -0.5283899020213891 -0.9032097846000806
5116000000.0 -0.4773141465913915 -0.9105906509700299
5119000000.0 -0.5780516327911326 -0.9486923916965158
5122000000.0 -0.495055246066753 -0.8925052064447012
5125000000.0 -0.5232930567544938 -0.889884944404318
5128000000.0 -0.5587441108052135 -0.8819881002812062
5131000000.0 -0.5481960221158881 -0.8945718847439142
5134000000.0 -0.5078720663858052 -0.8737563594165105
5138000000.0 -0.536655037693811 -0.9100375223876699
5141000000.0 -0.5222915860671595 -0.87023958509806
5144000000.0 -0.5370844419673653 -0.9085567180183761
5147000000.0 -0.5865091250181172 -0.8754298453571762
5150000000.0 -0.5322686539695877 -0.9100483792879658
5153000000.0 -0.590217896221326 -0.8904678488149134
5156000000.0 -0.5944351469615626 -0.8538345053806868
5159000000.0 -0.6024085075730972 -0.9163795255185092
5162000000.0 -0.649494836420254 -0.8245475123898952
5166000000.0 -0.6544334010854098 -0.8626611921564212
5169000000.0 -0.6524452189575582 -0.8481557377923489
5172000000.0 -0.6027455375438939 -0.8762336672646868
5175000000.0 -0.6315834540760875 -0.8537045852843229
5178000000.0 -0.6502753769463809 -0.8206358363928664
5181000000.0 -0.6431985054552954 -0.858902511433543
5184000000.0 -0.6484023535337867 -0.7785943182266153
5188000000.0 -0.6663974545239163 -0.8118730907434387
