! Created with skrf 1.8.0 (http://scikit-rf.org).
# Hz S RI R 50.0 
!freq ReS11 ImS11
4000000000.0 0.11560373431469198 0.9796101360960228
4003000000.0 0.1986094024492548 1.0934959979942382
4006000000.0 0.2191867812538522 0.9894713017289196
4009000000.0 0.16351182193802416 0.9994712747618386
4012000000.0 0.17203195352292208 1.0526903056528916
4016000000.0 0.22405565258142857 1.0172927874375526
4019000000.0 0.2571356446595341 1.0190421679446144
4022000000.0 0.12436882973226848 0.9691239366380507
4025000000.0 0.3308588868812087 0.9641458712166813
4028000000.0 0.2903981198035642 0.9991481865529495
4031000000.0 0.2512869093376988 0.959629731559105
4034000000.0 0.3098912253942905 1.0115251609248355
4038000000.0 0.3318816501794688 0.9900580057996725
4041000000.0 0.3046422682647187 1.0183364851970564
4044000000.0 0.31029073102581894 1.05295309450007
4047000000.0 0.2716407816419037 1.010710737347022
4050000000.0 0.34535835397869025 0.9740612152884033
4053000000.0 0.3188533851427396 0.9220051620472218
4056000000.0 0.3157962783840843 0.9999387032956558
4059000000.0 0.2846431228438353 0.9713497460239426
4062000000.0 0.37067395002430775 0.9503055846004973
4066000000.0 0.34606815190944434 0.8645418229329921
4069000000.0 0.4430469782191907 0.9910442382258672
4072000000.0 0.27529027640743664 0.9734241508869204
4075000000.0 0.36430593641105835 1.048962133356099
4078000000.0 0.4127025440806477 0.9487518335231977
4081000000.0 0.33896770901896 0.9881278470844812
4084000000.0 0.4595602702932232 0.9740593589458606
4088000000.0 0.38225304058696674 0.9448264490221451
4091000000.0 0.4811872853345325 1.0237200480233495
4094000000.0 0.44527055759475687 0.9689322109845656
4097000000.0 0.4396831856546416 0.967124363427309
4100000000.0 0.4463040494168881 0.9212045415262711
4103000000.0 0.4344681608537333 0.9499568717377105
4106000000.0 0.46642375088593224 0.8937678920302843
4109000000.0 0.5087493142470143 0.9035540566669222
4112000000.0 0.49933344789024586 0.9207110733524222
4116000000.0 0.45450920450643323 0.8861293371706769
4119000000.0 0.5240502570425665 0.898025257554508
4122000000.0 0.5666688402274952 0.9148849350054533
4125000000.0 0.5552114775520882 0.9252769988428082
4128000000.0 0.5087100395257164 0.866838802079507
4131000000.0 0.5001255887524043 0.8844204715662851
4134000000.0 0.5449513300850205 0.8854366287336619
4138000000.0 0.5381284555540848 0.8359672256809132
4141000000.0 0.5343250479286362 0.8541737880412723
4144000000.0 0.540439555464458 0.8629897404094387
4147000000.0 0.5741815881110947 0.832981135905599
4150000000.0 0.5522085857412752 0.8949315468330663
4153000000.0 0.5880856646327752 0.8324407176147578
4156000000.0 0.61636657247446 0.8675550113022295
4159000000.0 0.5710367858684456 0.8542298839705427
4162000000.0 0.5982487006888675 0.8234341759079165
4166000000.0 0.6001358387374711 0.8265529898375228
4169000000.0 0.6314711042061518 0.8098435756824681
4172000000.0 0.5990780754005143 0.8356242799736999
4175000000.0 0.6017520026792469 0.7954075194583441
4178000000.0 0.6507624522193781 0.8134666602758949
4181000000.0 0.6418318200041682 0.8502908395445762
4184000000.0 0.6630330716279296 0.7937950227941246
4188000000.0 0.6275845071485717 0.7694973066547599
4191000000.0 0.5985536994324775 0.7827237701378977
4194000000.0 0.648335253670312 0.7581777451559947
4197000000.0 0.6791995806132689 0.8042512370968791
4200000000.0 0.6881186531408954 0.7521918289058215
4203000000.0 0.6413194580921968 0.765558028853645
4206000000.0 0.6957969784000637 0.7515988930139039
4209000000.0 0.6552645380713101 0.7668863554008456
4212000000.0 0.7081056250595265 0.7379966007932055
4216000000.0 0.6896979638128505 0.7219054535030358
4219000000.0 0.7138718089472187 0.7584501080711167
4222000000.0 0.7476184920450426 0.7318724506771284
4225000000.0 0.7104737087702075 0.7171715112078481
4228000000.0 0.742666445128721 0.7343463424030041
4231000000.0 0.7260420128402938 0.7251320118467491
4234000000.0 0.7470341062188686 0.7338874830052964
4238000000.0 0.7463901460211579 0.7070446895789844
4241000000.0 0.7578205597993768 0.688010169496114
4244000000.0 0.7544500674909135 0.7004318264231426
4247000000.0 0.766763840141069 0.7045336500759048
4250000000.0 0.7943088575594188 0.6751672503560918
4253000000.0 0.7586642113018973 0.6540493231421186
4256000000.0 0.7791012594279996 0.6348763723358901
4259000000.0 0.7788631203412265 0.6348045351242478
4262000000.0 0.8034877343565845 0.6423419674781984
4266000000.0 0.8147800573644469 0.6334240880189699
4269000000.0 0.8020131103700607 0.6453586671346387
4272000000.0 0.8230867377467072 0.6175725268466012
4275000000.0 0.8181080514696923 0.5921309774807906
4278000000.0 0.8329313877223017 0.6163892775368492
4281000000.0 0.8270509114363113 0.6024108711162824
4284000000.0 0.8453453246403189 0.5927355716950853
4288000000.0 0.8251398506585417 0.6003010886519767
4291000000.0 0.8261629224733495 0.586218696207381
4294000000.0 0.8295815949512446 0.5512883397134393
4297000000.0 0.8291325063433566 0.5360210417986412
4300000000.0 0.857007218362428 0.5585555483551811
4303000000.0 0.8573095030904009 0.5184287812309831
4306000000.0 0.843193857115109 0.5477546594209607
4309000000.0 0.8601920451816633 0.5426185095220267
4312000000.0 0.8800250077216514 0.5415016764840851
4316000000.0 0.9020337503177266 0.5391735275300198
4319000000.0 0.8568306156814222 0.5218394965481363
4322000000.0 0.8604663794703111 0.4630848927371311
4325000000.0 0.8929876670505347 0.5145346638735753
4328000000.0 0.9131354460174563 0.45966762827003604
4331000000.0 0.8946881795866042 0.45002659949385526
4334000000.0 0.9180438966173593 0.48007580488439616
4338000000.0 0.8924033477980559 0.4777472087550049
4341000000.0 0.9272883292191594 0.4765155156687315
4344000000.0 0.9044784231746715 0.4566219732490804
4347000000.0 0.9229655073836258 0.45682278117735164
4350000000.0 0.8891289133011098 0.4061648121498686
4353000000.0 0.8962710045391675 0.43769927013479837
4356000000.0 0.9193618998161305 0.39939634949842395
4359000000.0 0.896820265363775 0.4139372348430609
4362000000.0 0.960674218555146 0.375201419395223
4366000000.0 0.9385768207617045 0.3692550400984096
4369000000.0 0.9073647646525815 0.3508821327927939
4372000000.0 0.9442878303512614 0.3174283669528738
4375000000.0 0.9399725268382906 0.365975427227373
4378000000.0 0.9400779606239601 0.35473419410255136
4381000000.0 0.9413284471657184 0.3703952226796
4384000000.0 0.978419299163493 0.33625471583356503
4388000000.0 0.9384578750253281 0.33909226476003734
4391000000.0 0.9737392537458205 0.31639744470799447
4394000000.0 0.9431491806409431 0.31745504250316015
4397000000.0 0.9406708485716997 0.3116274740859667
4400000000.0 0.991367601439848 0.3054428944098204
4403000000.0 0.956044885873741 0.2963696378607017
4406000000.0 0.982559307150944 0.2345430075043062
4409000000.0 0.9931242214894669 0.2861050511765379
4412000000.0 0.9794436177484115 0.23837978885483974
4416000000.0 0.9626291345357147 0.23950256679830825
4419000000.0 0.9662514065324745 0.2086206821386946
4422000000.0 0.9609888092212493 0.22755321552239693
4425000000.0 0.9987375863869516 0.25711612692261715
4428000000.0 0.991123674041073 0.2054489558767575
4431000000.0 1.0012143000712648 0.21225420558418098
4434000000.0 0.9888410841698045 0.20261061249906226
4438000000.0 1.0125184491842723 0.19631240876847988
4441000000.0 1.0117104861724493 0.19491154616302198
4444000000.0 0.9727214067082415 0.16248097286656163
4447000000.0 1.0007014071035631 0.16920918737627338
4450000000.0 0.9865936739795624 0.1621936347174029
4453000000.0 1.0398936737051228 0.15880954792841318
4456000000.0 0.9731856615029087 0.11915408717153433
4459000000.0 0.9523767355130315 0.08861772017286154
4462000000.0 1.0565056047416408 0.13111772806383318
4466000000.0 1.0327298349242346 0.10714403208030684
4469000000.0 1.0104868811106762 0.12248361564322197
4472000000.0 1.0277786821165977 0.06897050503548693
4475000000.0 0.979634691550479 0.07163659808273137
4478000000.0 1.0517853881297246 0.04889985463378288
4481000000.0 0.9885775466920177 0.05651863903064236
4484000000.0 0.9937887814096922 0.011677731017616128
4488000000.0 1.0025001197181624 0.019962817219110626
4491000000.0 1.0149807902731505 0.044962541271158035
4494000000.0 1.0002861396538547 0.03149304136267968
4497000000.0 0.9976678390624221 0.021585869294747498
4500000000.0 0.9979853566062902 0.00801521144721195
4503000000.0 1.0315769518725113 -0.0018839786659928734
4506000000.0 1.0037485354721927 0.009455407688279675
4509000000.0 0.9962168035673973 -0.007273739056869951
4512000000.0 0.9880031216387556 -0.05164003848756846
4516000000.0 1.0315292835895682 -0.034441032925172414
4519000000.0 0.9735267535043857 -0.03677513769147648
4522000000.0 0.9938699210101023 -0.05637633512642909
4525000000.0 0.9942022223741036 -0.022876511007207175
4528000000.0 1.0185939773096366 -0.08672087226739705
4531000000.0 1.0047515881840017 -0.06705488648707542
4534000000.0 0.9800724169476404 -0.08201048620024938
4538000000.0 0.9957913718017135 -0.10864416450649678
4541000000.0 0.9875252055861958 -0.14787399322145547
4544000000.0 0.9849371412159869 -0.10800465019674449
4547000000.0 1.0002076493440828 -0.10290680069937488
4550000000.0 0.995084735766707 -0.13998528500949853
4553000000.0 1.020784295431398 -0.15521722928556989
4556000000.0 0.9728361014183513 -0.17739903736198648
4559000000.0 1.0024465860737404 -0.1720941620758094
4562000000.0 1.025320714289818 -0.1732223807440015
4566000000.0 0.989067688888762 -0.19593380608187874
4569000000.0 0.9701310407841932 -0.16790678628393224
4572000000.0 0.9826765821350102 -0.21201123262953853
4575000000.0 0.9669105631048476 -0.24736534294322338
4578000000.0 1.0029166799415656 -0.2082438878782359
4581000000.0 0.9872348870670145 -0.25336819144239464
4584000000.0 0.9558562689407021 -0.24164613712879057
4588000000.0 1.0035895605108078 -0.22947825213769338
4591000000.0 0.9722344989280833 -0.22139243522939822
4594000000.0 0.9612218124490984 -0.27584052653559993
4597000000.0 0.9789292008857464 -0.27150677445009636
4600000000.0 0.932391069954479 -0.31973129762598035
4603000000.0 0.9899640715994615 -0.29607231297941766
4606000000.0 0.9503049214307718 -0.2809355592218367
4609000000.0 0.9477873205598343 -0.3149309752396428
4612000000.0 0.9784857709012014 -0.31673034570663167
4616000000.0 0.9372345413341547 -0.3264998904698763
4619000000.0 0.9678761693170935 -0.3256130392784728
4622000000.0 0.9387364243642906 -0.3351840736708446
4625000000.0 0.8974383571686387 -0.3352301235110136
4628000000.0 0.902839846424895 -0.3166895098333801
4631000000.0 0.9094423444446713 -0.3843694724193054
4634000000.0 0.9118822241227632 -0.37865081053404814
4638000000.0 0.9385578979378473 -0.3917808997910648
4641000000.0 0.9413678041328497 -0.3816987430733291
4644000000.0 0.9244371219865519 -0.4038571809779099
4647000000.0 0.9451254088209079 -0.4178660558717937
4650000000.0 0.9014085792466886 -0.42023872509349197
4653000000.0 0.9314597917121745 -0.43885468532578176
4656000000.0 0.8910505296222355 -0.46159925525811973
4659000000.0 0.8958640880093097 -0.44924942818684444
4662000000.0 0.8886702555774104 -0.4513184516460357
4666000000.0 0.8997737194411201 -0.45088050345432157
4669000000.0 0.8852793209243519 -0.4616877700166864
4672000000.0 0.8708490709482858 -0.5062968340737891
4675000000.0 0.8523334112968035 -0.5016433285138449
4678000000.0 0.8655566684747666 -0.4767284400149502
4681000000.0 0.8736062693037413 -0.5416973631716153
4684000000.0 0.8297133858529542 -0.5000857970022317
4688000000.0 0.8489573227222738 -0.506815291787537
4691000000.0 0.8410764779094767 -0.4947834844051642
4694000000.0 0.8465876472607676 -0.5604902310756571
4697000000.0 0.8389123213537291 -0.54808330485283
4700000000.0 0.8445929693190275 -0.5416857427829171
4703000000.0 0.8433439197353791 -0.5480873186836441
4706000000.0 0.8278224601874655 -0.5869248108214417
4709000000.0 0.7905158055857618 -0.5662266271921372
4712000000.0 0.813572865139077 -0.5825509682629391
4716000000.0 0.8153656550527405 -0.5901679245266188
4719000000.0 0.8243321926668997 -0.6048553147740381
4722000000.0 0.8311781387422328 -0.6025607610458579
4725000000.0 0.7688792185233709 -0.6369379591318154
4728000000.0 0.785031481528075 -0.6421942734446349
4731000000.0 0.7932981273126491 -0.6076978443995353
4734000000.0 0.7695229582057315 -0.6143846997985882
4738000000.0 0.7920645784332716 -0.6445644678634632
4741000000.0 0.780497731890323 -0.6535781848662985
4744000000.0 0.7619061800612498 -0.688334119467671
4747000000.0 0.7293760101381872 -0.6419992606406295
4750000000.0 0.7442976709879756 -0.6771884224836132
4753000000.0 0.7511542880395365 -0.6955109532735382
4756000000.0 0.735793532698501 -0.6873996655022772
4759000000.0 0.7338499442948632 -0.6992078007484754
4762000000.0 0.7229235636931979 -0.7154920489943145
4766000000.0 0.7075862893917454 -0.7165374358548421
4769000000.0 0.7600798996303588 -0.7174927210029967
4772000000.0 0.7045703955775086 -0.7347522236304085
4775000000.0 0.7043918772450355 -0.7518908094697176
4778000000.0 0.7080238970622863 -0.7278127959247948
4781000000.0 0.6953505107516709 -0.7340622316591026
4784000000.0 0.696572260802054 -0.7301186249502811
4788000000.0 0.68661458824265 -0.7837816127759487
4791000000.0 0.6539337703349213 -0.7671989217942583
4794000000.0 0.6572995119273151 -0.7406351787424437
4797000000.0 0.6333931201523821 -0.7884243796501565
4800000000.0 0.6332125698918507 -0.7807338898026501
4803000000.0 0.6055837137822861 -0.7746047503369204
4806000000.0 0.6385331582018299 -0.7730285964779394
4809000000.0 0.6118165268350326 -0.8158786576412703
4812000000.0 0.606246621425391 -0.8045572250295204
4816000000.0 0.6192025879004046 -0.7892803050320444
4819000000.0 0.6412750191001056 -0.8283590029007677
4822000000.0 0.6062759821164845 -0.8300606531112147
4825000000.0 0.5989383839367735 -0.8233976779390384
4828000000.0 0.5791751906376474 -0.8270379345759757
4831000000.0 0.5559888280592346 -0.8740181944516154
4834000000.0 0.5894939422249964 -0.8312906104697578
4838000000.0 0.5611096577537319 -0.8499988561984997
4841000000.0 0.5671879005901512 -0.8268246237118769
4844000000.0 0.5845545099654386 -0.8422315392234971
4847000000.0 0.5484395166053506 -0.8324181619053428
4850000000.0 0.5284601174717516 -0.8840409485354832
4853000000.0 0.528017678765978 -0.8415800156671509
4856000000.0 0.5260969533235146 -0.8648527113762066
4859000000.0 0.5273326082642694 -0.9058104846272935
4862000000.0 0.5006093892104001 -0.8463648006828265
4866000000.0 0.5005753661990743 -0.9134241343544977
4869000000.0 0.48425842733271074 -0.9169253655653028
4872000000.0 0.467886554686991 -0.9160451743265732
4875000000.0 0.5241270200884642 -0.913487007792564
4878000000.0 0.4658945146794824 -0.915427289870886
4881000000.0 0.4773404497726755 -0.9578445336679776
4884000000.0 0.48759837910269505 -0.9039066749506323
4888000000.0 0.4920024392423192 -0.898110491669618
4891000000.0 0.47768345973296233 -0.907717817344253
4894000000.0 0.4045831475907123 -0.9416712153715169
4897000000.0 0.43653852281664185 -0.9062448551712685
4900000000.0 0.42401643211564666 -0.9490712158863137
4903000000.0 0.41522232092091316 -0.942677882801355
4906000000.0 0.37576820424232404 -0.9628936115684432
4909000000.0 0.3749405427622342 -0.9646342592112259
4912000000.0 0.37701618644915735 -0.9730439994094056
4916000000.0 0.4008844056419762 -0.962970523293841
4919000000.0 0.4075314559676823 -0.9798298075540482
4922000000.0 0.37904089278662 -0.9440744176109135
4925000000.0 0.33085550233176697 -0.967921660169259
4928000000.0 0.37970443329691195 -0.9290438649232422
4931000000.0 0.3848998920785814 -0.988799859257121
4934000000.0 0.3399581690687329 -0.926206107060114
4938000000.0 0.299178190007037 -0.9558520988365425
4941000000.0 0.3033603746900457 -0.956224908359236
4944000000.0 0.33368622440993534 -0.9269599141279876
4947000000.0 0.28034210547590926 -0.9263026839848452
4950000000.0 0.2861696895911613 -0.9789566542164548
4953000000.0 0.237784037036747 -1.0283583356494796
4956000000.0 0.23679682515023387 -0.9946986983049015
4959000000.0 0.2012422767280183 -0.9607383778042741
4962000000.0 0.2614815937217931 -1.0215753699899297
4966000000.0 0.26004703371241933 -1.021132367658932
4969000000.0 0.267528192096919 -1.041242665718021
4972000000.0 0.2116648146346634 -1.0346693981687152
4975000000.0 0.24081924747471314 -0.9556051267040627
4978000000.0 0.19940197243995594 -0.9944234081508982
4981000000.0 0.19923699655484983 -1.0163945669447223
4984000000.0 0.2253640072965084 -0.9946102571179303
4988000000.0 0.16989363902894 -0.9916028208247092
4991000000.0 0.22693698412449675 -1.0266945025345784
4994000000.0 0.20007940085248085 -1.0031735443120526
4997000000.0 0.16198487668285166 -1.0296461791429417
5000000000.0 0.18435501544652716 -1.0638426449717677
5003000000.0 0.16171874343499737 -1.0305604612108406
5006000000.0 0.14113837399747453 -1.0536121696392229
5009000000.0 0.13558127083872595 -1.0133722385311386
5012000000.0 0.11105051274620806 -1.0094160045340057
5016000000.0 0.1536570198824564 -1.0574204921722092
5019000000.0 0.10932106699079716 -1.022397353318161
5022000000.0 0.08542932491650893 -1.0106763170300188
5025000000.0 0.08582723689509589 -1.0668704086137575
5028000000.0 0.06965018866485598 -1.051872754900481
5031000000.0 0.05461906882818002 -1.0313674774746313
5034000000.0 0.037850121078798815 -1.0557129460512669
5038000000.0 0.05172460292664696 -0.9904804082285128
5041000000.0 0.10587340244080104 -1.019671784282195
5044000000.0 0.07113019954503381 -1.0153654941752133
5047000000.0 0.06105553711013845 -1.0331669344715038
5050000000.0 0.0872333986745222 -0.9859400608802813
5053000000.0 0.016987640110839475 -1.0961662890319395
5056000000.0 0.04850646559688096 -1.052234019275821
5059000000.0 0.06636121627606639 -1.0472847328092745
5062000000.0 -0.03396178536733768 -1.0334777190575297
5066000000.0 0.04821442092802315 -1.0378946531104607
5069000000.0 -0.051034294958387044 -1.03697585033651
5072000000.0 -0.03590077483788669 -0.993091527461818
5075000000.0 -0.014612623424182652 -1.0448182355455629
5078000000.0 -0.08369224621913923 -1.0312465043933827
5081000000.0 -0.057563446952990885 -1.0180688854145967
5084000000.0 -0.0652187781486967 -1.0570850296971281
5088000000.0 -0.03175155571944391 -1.0372746563146367
5091000000.0 -0.12879165260843675 -1.040933707880275
5094000000.0 -0.0888998799125653 -1.0256338602522455
5097000000.0 -0.05910104949898845 -1.0702453681638573
5100000000.0 -0.07223177184359153 -1.0162578828857796
5103000000.0 -0.11293963780425462 -1.0255849954982081
5106000000.0 -0.08927976702731745 -1.1260312130848484
5109000000.0 -0.07950525241090024 -1.0257043812608488
5112000000.0 -0.18838136527083266 -1.0218546421573493
5116000000.0 -0.16126260494728584 -1.0004838206070465
5119000000.0 -0.1293324475791049 -1.0116356734458376
5122000000.0 -0.15376561427887553 -1.012493871803896
5125000000.0 -0.12879119048899204 -1.0233638758091543
5128000000.0 -0.18991314937936163 -0.9884001324254101
5131000000.0 -0.18781605997822154 -0.9985813383743819
5134000000.0 -0.2147996851547287 -1.0409996582826424
5138000000.0 -0.1706539068826197 -1.0015763401440685
5141000000.0 -0.20666524936181707 -1.0393349746232785
5144000000.0 -0.20439755624161918 -1.017491006614261
5147000000.0 -0.25627125945317514 -1.030604712147768
5150000000.0 -0.19341178174119078 -0.9961644360822995
5153000000.0 -0.28331657615183453 -0.9962629957356228
5156000000.0 -0.23704727376556226 -1.0312048775344016
5159000000.0 -0.23239349411198273 -1.0224785639784078
5162000000.0 -0.28131928319804606 -0.9303710651468636
5166000000.0 -0.3447376520050015 -1.037193182872224
5169000000.0 -0.2615126890367618 -1.0194359284769317
5172000000.0 -0.3165349497875176 -0.963975772780339
5175000000.0 -0.2900476346540826 -1.0471031081151485
5178000000.0 -0.3161475966134135 -0.9867783888699728
5181000000.0 -0.23900796959056014 -1.0078382202319132
5184000000.0 -0.3162949352034622 -0.973438263810298
5188000000.0 -0.2798805016246289 -0.9762286038371979
5191000000.0 -0.3839592985269067 -1.0090736333412598
5194000000.0 -0.3113571308549663 -0.9819123015354823
