! Created with skrf 1.8.0 (http://scikit-rf.org).
# Hz S RI R 50.0 
!freq ReS11 ImS11
4000000000.0 0.638035782755302 0.8452741049555137
4003000000.0 0.7085509526905414 0.8362759483682446
4006000000.0 0.6691574354391042 0.7665017730312681
4009000000.0 0.6988371176905385 0.8140308774558848
4012000000.0 0.6718339494452426 0.9126265590054227
4016000000.0 0.6968880220713722 0.8106209662910504
4019000000.0 0.6480969453353449 0.7561317365448326
4022000000.0 0.6021684852895046 0.8925934478500662
4025000000.0 0.7574099437054437 0.7367935582490565
4028000000.0 0.7515673010505961 0.7484232175876393
4031000000.0 0.6547542577848187 0.764242965268387
4034000000.0 0.7184067068348572 0.7499579078836114
4038000000.0 0.7421285140413978 0.7743350920797475
4041000000.0 0.7458857174558624 0.7454016020764297
4044000000.0 0.7939963719658608 0.810089718234486
4047000000.0 0.7022776290938662 0.7699248447886479
4050000000.0 0.8106449381126589 0.7063855542880105
4053000000.0 0.7341085582222977 0.6730090598164031
4056000000.0 0.7376642657799835 0.7009971566955491
4059000000.0 0.7726794827724472 0.7511728038244208
4062000000.0 0.8081672188303051 0.6488956928256069
4066000000.0 0.7151137035886359 0.6268027998969721
4069000000.0 0.8408922655762839 0.677953902724013
4072000000.0 0.7426539006630886 0.7169207936401034
4075000000.0 0.7940717673477875 0.704131988408484
4078000000.0 0.8228687919027996 0.6795462068828261
4081000000.0 0.7956897095491642 0.6763493778369686
4084000000.0 0.8525205151183853 0.6186507080507724
4088000000.0 0.7935030261239026 0.6804717562315731
4091000000.0 0.8557722982141115 0.716392098171257
4094000000.0 0.8088313033928609 0.6426981677134022
4097000000.0 0.8599431555007867 0.6026447584884318
4100000000.0 0.8311338344413982 0.6239699739327507
4103000000.0 0.8190467254226017 0.6319333193897501
4106000000.0 0.8744248290768873 0.6008854388021688
4109000000.0 0.8655441604531802 0.6111545047785127
4112000000.0 0.8546613712805233 0.5795651676794915
4116000000.0 0.8737588095188132 0.6017489009628565
4119000000.0 0.86149823860025 0.5937735358224472
4122000000.0 0.885351983258166 0.5683946694364012
4125000000.0 0.8947006816106885 0.522448924792416
4128000000.0 0.8464590284743141 0.5851951744473464
4131000000.0 0.8698740522601359 0.5632399523942888
4134000000.0 0.8909233126424981 0.5737910580697141
4138000000.0 0.8818169633744646 0.5036041648301679
4141000000.0 0.9146280586840324 0.5270344576825643
4144000000.0 0.88451396084143 0.534380094381794
4147000000.0 0.8750809904969916 0.5109146981717918
4150000000.0 0.933249764932505 0.5368729898688198
4153000000.0 0.8703323295095922 0.5020022063765804
4156000000.0 0.9235471804687958 0.5082051199941283
4159000000.0 0.8762237215008346 0.49406807303763295
4162000000.0 0.9521608590927839 0.46516390818356
4166000000.0 0.9365134120368841 0.4983997277676816
4169000000.0 0.9330017030595341 0.43490833398346473
4172000000.0 0.9379503877010155 0.4467907553392672
4175000000.0 0.9386809726673987 0.4828954240667524
4178000000.0 0.9517437104075163 0.4470673446366906
4181000000.0 0.9327308363886977 0.4131005322830348
4184000000.0 0.9282836218022799 0.4270176218154385
4188000000.0 0.9306971950746561 0.3908539636632796
4191000000.0 0.9225208306808234 0.4183808178746438
4194000000.0 0.930387447028528 0.3971905279794392
4197000000.0 0.9751337068314144 0.41143158420369447
4200000000.0 0.9562532591544457 0.4081800871914285
4203000000.0 0.9591486408435749 0.3942399676406205
4206000000.0 0.9923812015020906 0.3605510305760364
4209000000.0 0.9639446681668794 0.37530650260159587
4212000000.0 0.9807897369252822 0.3420538627745594
4216000000.0 0.9594090374489346 0.36758453843803024
4219000000.0 0.9683740335573922 0.33773099908920967
4222000000.0 0.9831600943992795 0.294228926957099
4225000000.0 0.9742335145086689 0.3269264421743989
4228000000.0 0.9937757657488187 0.32545359375464844
4231000000.0 0.986268649854004 0.3042960515904435
4234000000.0 0.9895751068538002 0.31189271795880397
4238000000.0 0.9977446852481276 0.2709658584480584
4241000000.0 0.9821614255096984 0.27003608419021574
4244000000.0 0.9854508811913109 0.27642917221287766
4247000000.0 0.9894040830446592 0.27130473487821505
4250000000.0 0.9819563376397289 0.26613688980333844
4253000000.0 0.9874494768546869 0.2478647922792499
4256000000.0 0.9979666492767938 0.23928624608277016
4259000000.0 0.9731873237017614 0.19383929470719977
4262000000.0 1.0022502330853382 0.20619027074067361
4266000000.0 1.0162203682166746 0.19034115798561851
4269000000.0 0.9985926359089679 0.2070061202889236
4272000000.0 1.0204008811184537 0.1880946745219348
4275000000.0 1.01504359185497 0.19328151641180408
4278000000.0 1.0109627373303622 0.19875650127016647
4281000000.0 1.015491956770707 0.17792759669050323
4284000000.0 1.0328091990286352 0.12229927088430648
4288000000.0 1.0080124617018649 0.2024294807745083
4291000000.0 0.9775841694928963 0.16778986616418923
4294000000.0 0.9931810942639683 0.14238798584699647
4297000000.0 1.0028849480839412 0.1453874641757832
4300000000.0 0.9922464345004816 0.12314349055451868
4303000000.0 1.0100071809036317 0.07909595733383272
4306000000.0 1.028575353400771 0.1278613150793932
4309000000.0 1.0008952255572214 0.12176572769015863
4312000000.0 1.0239715217073309 0.11715034587046966
4316000000.0 1.03818533496726 0.09394978487941198
4319000000.0 1.011314458964911 0.08023727981672739
4322000000.0 0.9983261476499203 0.05435345615276439
4325000000.0 1.0407055485193275 0.07221643897102441
4328000000.0 1.0170082578142476 0.04955753486030749
4331000000.0 0.9925140488564281 -0.010325164633673431
4334000000.0 1.0453623919103598 0.013118021455296558
4338000000.0 1.0017962847055522 0.00533869083574455
4341000000.0 1.058483968085281 0.030385529841373993
4344000000.0 1.0284549807842416 0.004676711045386472
4347000000.0 1.0010382572672663 -0.02670011159443486
4350000000.0 0.9892716855455171 -0.037720082185504086
4353000000.0 0.9898028288815726 -0.006773157806624547
4356000000.0 0.9991012938874152 -0.05301546976996879
4359000000.0 0.9651308749219182 -0.03936405699426518
4362000000.0 1.0305756891933813 -0.11614859032496132
4366000000.0 1.045436240566638 -0.07267015274214285
4369000000.0 0.9922866021570934 -0.06826014933011895
4372000000.0 0.9837653269832523 -0.09889807484810677
4375000000.0 1.0074241422159087 -0.06480924293716817
4378000000.0 0.9863622420977293 -0.09830953613998027
4381000000.0 0.9816380603496095 -0.0900179821616713
4384000000.0 1.068517436467856 -0.15321676986816757
4388000000.0 0.9941238771453706 -0.115250666984441
4391000000.0 1.012414279350557 -0.11597428444488712
4394000000.0 0.9746755876505877 -0.1306275177505536
4397000000.0 1.011416040819384 -0.14858818939959323
4400000000.0 1.0283036137330177 -0.15498438383677657
4403000000.0 1.0193992382328325 -0.15425593591191256
4406000000.0 1.0015343144867976 -0.2041884085601818
4409000000.0 1.0351539545466886 -0.194285627057799
4412000000.0 0.974647843466352 -0.23532104540096824
4416000000.0 0.9748570390169868 -0.21512712541683524
4419000000.0 0.9938970343797797 -0.23184270747302385
4422000000.0 0.9767373445060523 -0.20003722143261862
4425000000.0 1.0111659580978598 -0.2078869384006254
4428000000.0 0.9875591863246288 -0.24903195005171905
4431000000.0 1.0201219580012841 -0.2434679097805237
4434000000.0 0.9803113127876495 -0.25220320001210805
4438000000.0 0.9983138971139838 -0.2698183775695402
4441000000.0 1.006954036443248 -0.2622997500499345
4444000000.0 0.9589237157764847 -0.25922627266127185
4447000000.0 0.9575493170766212 -0.29260299094249564
4450000000.0 0.9636276150647305 -0.26818607220174057
4453000000.0 0.9833881830259138 -0.3075508711587086
4456000000.0 0.9484890845610829 -0.3133828856796901
4459000000.0 0.9288590594998962 -0.3172895365788766
4462000000.0 1.0256216043760231 -0.36106838676967157
4466000000.0 1.0065302185250724 -0.3574501211886209
4469000000.0 0.9797149391380835 -0.340173809638867
4472000000.0 0.9467078795473243 -0.3888633410247679
4475000000.0 0.9304271202727863 -0.35161076704659566
4478000000.0 0.9739301178364764 -0.39861461003345144
4481000000.0 0.9026617573023167 -0.39183175098588713
4484000000.0 0.9092482602769072 -0.42730463831346444
4488000000.0 0.9009177781002178 -0.4136070776099756
4491000000.0 0.9520837823789113 -0.41098527448984346
4494000000.0 0.9244012659785655 -0.40813106275739747
4497000000.0 0.9151603107830262 -0.40617704609168037
4500000000.0 0.9235363899139855 -0.4030029306911718
4503000000.0 0.9258021159861558 -0.435600033259866
4506000000.0 0.89407623829427 -0.4447073334674395
4509000000.0 0.873831961480859 -0.43170425677408075
4512000000.0 0.8879016118911661 -0.45520624397286624
4516000000.0 0.9137787607000633 -0.4888101905756733
4519000000.0 0.8773636194719733 -0.4697903627190885
4522000000.0 0.8898326487228625 -0.5011633718152909
4525000000.0 0.9017379465623205 -0.4573336585315982
4528000000.0 0.9034704152159547 -0.4979950575176819
4531000000.0 0.8880004447567347 -0.49819010022667154
4534000000.0 0.844519645975234 -0.4959247433066303
4538000000.0 0.8581711918687345 -0.5385824584643766
4541000000.0 0.8220551827822372 -0.5504902339221098
4544000000.0 0.8588121001976485 -0.5409514542712528
4547000000.0 0.8579443768054462 -0.5149672774905025
4550000000.0 0.840379345666102 -0.5690625181835551
4553000000.0 0.8595792038639554 -0.5579829268920254
4556000000.0 0.8129417592048735 -0.5734610125533594
4559000000.0 0.8196644527249429 -0.5878966190354533
4562000000.0 0.854323001349601 -0.5842047954517373
4566000000.0 0.8297798716646392 -0.604818508195101
4569000000.0 0.8114809616804518 -0.5784796224080162
4572000000.0 0.8117996834798702 -0.6057176544276209
4575000000.0 0.8056625189727207 -0.6198839868074233
4578000000.0 0.8268689807886653 -0.6289690121856796
4581000000.0 0.7819398731592636 -0.6421014852892232
4584000000.0 0.7819714561182378 -0.6421737931094463
4588000000.0 0.8027055911178582 -0.6460117169606305
4591000000.0 0.7984419616560995 -0.6316176287874206
4594000000.0 0.7613190784553899 -0.6757398784316591
4597000000.0 0.7779909233248277 -0.6824019593068712
4600000000.0 0.7355142583630471 -0.6735056096117168
4603000000.0 0.755530643321931 -0.6779637113743833
4606000000.0 0.7716513800702862 -0.6791593683271265
4609000000.0 0.7620737524703628 -0.6957788094412676
4612000000.0 0.7346050008250674 -0.7087211450026165
4616000000.0 0.7209439496198087 -0.6974887782552928
4619000000.0 0.7271203367961462 -0.6999539190427595
4622000000.0 0.7232383758328261 -0.7156875795191305
4625000000.0 0.6768641294081755 -0.7194783476897968
4628000000.0 0.7266304665134732 -0.7224788385524233
4631000000.0 0.6765081890877058 -0.7418323851954388
4634000000.0 0.6900787689767188 -0.7359820137994755
4638000000.0 0.7093444171202655 -0.7436912778268273
4641000000.0 0.6856379082671441 -0.7519634279310975
4644000000.0 0.6586051728273838 -0.763612881823208
4647000000.0 0.6695123276407423 -0.7710233832612319
4650000000.0 0.6504352810713457 -0.7686422497836887
4653000000.0 0.6714068641159804 -0.7810946408314967
4656000000.0 0.6399984917557406 -0.779497307770364
4659000000.0 0.6451602901854784 -0.7851832639738497
4662000000.0 0.648653845557797 -0.8001818956254693
4666000000.0 0.6135597039695571 -0.8141414331410818
4669000000.0 0.6392573262788517 -0.789804727155224
4672000000.0 0.6080889101337575 -0.8268341103702145
4675000000.0 0.5788956130842549 -0.8336161040298028
4678000000.0 0.5805556257171901 -0.8067189323725319
4681000000.0 0.5697341692253278 -0.854795503564843
4684000000.0 0.5587617472894698 -0.8410877484166374
4688000000.0 0.5590645124397029 -0.8215321632206152
4691000000.0 0.5976182665680444 -0.8415909902672201
4694000000.0 0.571026085555033 -0.8456288078033074
4697000000.0 0.5211659480864768 -0.8309568685199529
4700000000.0 0.5407973218551395 -0.8525395081404521
4703000000.0 0.5527422544661891 -0.8223998633322516
4706000000.0 0.5407110064503804 -0.8773987711501441
4709000000.0 0.508233652798447 -0.8855390225376583
4712000000.0 0.5225154413414452 -0.874008299957165
4716000000.0 0.4974771582571641 -0.8924494828877316
4719000000.0 0.5297354238967261 -0.8658321913966699
4722000000.0 0.5116339215022069 -0.872408312363397
4725000000.0 0.4933484120566535 -0.9096746730674078
4728000000.0 0.47682818462119886 -0.8794536329186697
4731000000.0 0.5101083920810376 -0.9165468531584047
4734000000.0 0.48118492541484514 -0.89438508168264
4738000000.0 0.48699505154892175 -0.947308857556032
4741000000.0 0.45551106414939657 -0.9496649257056065
4744000000.0 0.4295341525604399 -0.9205114724506885
4747000000.0 0.4231030872563575 -0.9029688874618356
4750000000.0 0.42744861472570445 -0.9316648082992149
4753000000.0 0.44441697093979105 -0.946381287847245
4756000000.0 0.3995162311432571 -0.944164625213876
4759000000.0 0.4438440588602378 -0.9583157120166635
4762000000.0 0.3845408591836468 -0.9543636896509173
4766000000.0 0.3956028844421794 -0.9600908021804803
4769000000.0 0.37289986782087325 -0.9539341322865663
4772000000.0 0.3797336203656613 -0.9862366558259236
4775000000.0 0.3483562177954498 -0.9866726884871599
4778000000.0 0.38136735312743 -0.9561419742209477
4781000000.0 0.3631344960245944 -0.9531255657189375
4784000000.0 0.35882450368761626 -0.9702463490143239
4788000000.0 0.33470989226369213 -0.9890608175531119
4791000000.0 0.338369747477654 -0.9825428387035032
4794000000.0 0.364634217483369 -1.0037826643423606
4797000000.0 0.2819961755073368 -0.981557991989907
4800000000.0 0.27104464159159 -0.9596517577045962
4803000000.0 0.2585350285936432 -1.0023510345655946
4806000000.0 0.29193296423376075 -1.0113899008331737
4809000000.0 0.23269409430959803 -0.9953386089074924
4812000000.0 0.20299357537887022 -1.0252986789854304
4816000000.0 0.27497899294364186 -0.9699088205845765
4819000000.0 0.28895579488927975 -1.00991270878023
4822000000.0 0.28816599494449907 -1.0374054083166582
4825000000.0 0.27015867325899656 -1.0164367091385687
4828000000.0 0.21904803702584247 -1.0066389568090242
4831000000.0 0.181788332705344 -1.0338650108018275
4834000000.0 0.22087093456650092 -1.0180570001425595
4838000000.0 0.1801961663905079 -1.0411947366793233
4841000000.0 0.16732680785006931 -0.9970043464810249
4844000000.0 0.20738366759828364 -1.013468011113845
4847000000.0 0.19667681083523253 -0.9629259988096546
4850000000.0 0.14298340156567585 -1.0157843738603425
4853000000.0 0.15762932936384927 -1.0126604239838448
4856000000.0 0.14589614674665813 -1.0020420998578292
4859000000.0 0.15125878018830757 -1.0482135087461395
4862000000.0 0.13785552236247212 -0.9745576546814555
4866000000.0 0.09396448879042432 -1.0390757652483813
4869000000.0 0.09812146891018579 -1.0303384718303754
4872000000.0 0.098058456284808 -1.0633346054556356
4875000000.0 0.13995741221884686 -1.0753429594620318
4878000000.0 0.1055281095199842 -1.0310294020922695
4881000000.0 0.06263216877821749 -1.1092194854202955
4884000000.0 0.0712548592595135 -1.0312856365308212
4888000000.0 0.10831882960904006 -1.0351149059985316
4891000000.0 0.08184445192793788 -1.053584198380575
4894000000.0 0.028135397542351125 -1.0157694632851533
4897000000.0 0.05862528586568044 -1.0311615650016657
4900000000.0 0.03253613062909739 -1.0312038595172779
4903000000.0 0.02756073947742287 -1.0468653268921357
4906000000.0 0.003219159366416948 -1.0679281004469723
4909000000.0 -0.01808626589431788 -1.0498260924064604
4912000000.0 -0.015568929579865255 -1.058623193924611
4916000000.0 -0.003683299149926718 -1.071763840064996
4919000000.0 0.0004503040167846209 -1.054929386893912
4922000000.0 -0.03524864569718625 -1.069910632289646
4925000000.0 -0.06373087548671041 -1.0069072590578325
4928000000.0 0.003575415188130676 -1.0063541092502308
4931000000.0 -0.02968297468508757 -1.0644323465190737
4934000000.0 -0.0546515423888775 -1.0022424972144848
4938000000.0 -0.093428367036328 -1.0303591291072351
4941000000.0 -0.06493500168165274 -1.021014931931386
4944000000.0 -0.06049891758603029 -0.9750396641215358
4947000000.0 -0.10199496960556939 -1.0055578552014854
4950000000.0 -0.10420826357331141 -0.9798051020903878
4953000000.0 -0.16073819350216534 -1.0558941671880935
4956000000.0 -0.12682607401646728 -1.0393329119939545
4959000000.0 -0.1724009718365079 -0.9759960710422529
4962000000.0 -0.13097680083250632 -1.0327506542141354
4966000000.0 -0.10233599842606028 -1.0431233027333695
4969000000.0 -0.12427975356182458 -1.0687320585274034
4972000000.0 -0.19837479320062515 -1.0356914616212942
4975000000.0 -0.11307213972160893 -1.0191020094052854
4978000000.0 -0.17618249103595163 -1.0449256213585028
4981000000.0 -0.19537354465396525 -1.0106577265085324
4984000000.0 -0.15021250351230456 -1.019410108507207
4988000000.0 -0.20217832930025886 -1.0492864876468393
4991000000.0 -0.161185096228864 -1.0759060214098606
4994000000.0 -0.1697739977007366 -1.0246685946581437
4997000000.0 -0.2612659656109069 -1.0152309965766648
5000000000.0 -0.22042029231206473 -1.0389572890068246
5003000000.0 -0.25611519411936756 -1.054738871643849
5006000000.0 -0.26319366652194154 -1.0504444223954719
5009000000.0 -0.23005377790880907 -1.015331231422827
5012000000.0 -0.2999861947545717 -1.0127661698899824
5016000000.0 -0.23180944351477528 -1.043931213051325
5019000000.0 -0.2926280015041859 -1.0129102555798386
5022000000.0 -0.311382828417213 -1.0115976753431104
5025000000.0 -0.31878197529282987 -1.0682253603132135
5028000000.0 -0.34415008815176773 -1.0146332313886093
5031000000.0 -0.34711111165721387 -0.9969844058639358
5034000000.0 -0.34091383562029465 -1.0422728465453168
5038000000.0 -0.36347254454414835 -0.9277355141630355
5041000000.0 -0.2999687848906485 -0.9806622388539447
5044000000.0 -0.30714114872403064 -0.9838222002334053
5047000000.0 -0.32729871102015035 -1.0223437835493474
5050000000.0 -0.2653233494820947 -1.0082383530765053
5053000000.0 -0.3636463533706056 -1.0462002333610003
5056000000.0 -0.3155883245427714 -0.9769953466314427
5059000000.0 -0.3419468367810636 -0.9982996396780376
5062000000.0 -0.4067062705214244 -0.9675382891213851
5066000000.0 -0.36365673628482276 -0.981707246158382
5069000000.0 -0.3724961985532828 -0.9738678822058787
5072000000.0 -0.3965229091820342 -0.9326031983449294
5075000000.0 -0.382337713414475 -0.9712656646400271
5078000000.0 -0.4507775682883149 -0.9596981311473065
5081000000.0 -0.43988406325523627 -0.9486028710013154
5084000000.0 -0.44278787132823594 -0.9824494390371745
5088000000.0 -0.4317530215154767 -0.9465831877456743
5091000000.0 -0.5137465072203926 -0.941145786188663
5094000000.0 -0.4692230232123496 -0.980294447180258
5097000000.0 -0.4449286555990656 -0.9483638187742951
5100000000.0 -0.4462152482824667 -0.9186343840946486
5103000000.0 -0.511853751585653 -0.9293637133882108
5106000000.0 -0.4687391895492932 -0.9542548691406607
5109000000.0 -0.4562149168205687 -0.9646508896248456
5112000000.0 -0.5372238850814023 -0.9203394719713918
5116000000.0 -0.5181035588475452 -0.8994853245483307
5119000000.0 -0.5318054292294305 -0.9192764675938763
5122000000.0 -0.48754879108011295 -0.9530431792901517
5125000000.0 -0.5169077441470917 -0.8919321081408186
5128000000.0 -0.5099060248375422 -0.9066484376132637
5131000000.0 -0.513780866971165 -0.9000420289053807
5134000000.0 -0.5492818558022939 -0.9095305836068818
5138000000.0 -0.5138775046282794 -0.9174604305014195
5141000000.0 -0.5000512294455313 -0.8977623290100187
5144000000.0 -0.5541667882031512 -0.932045309601958
5147000000.0 -0.6261394646156418 -0.9171951803066406
5150000000.0 -0.560428258812421 -0.9112175304238567
5153000000.0 -0.6167613977106279 -0.8769312932089517
5156000000.0 -0.6121121290756063 -0.8495325860689316
5159000000.0 -0.6376282950060439 -0.9260514955670789
5162000000.0 -0.6321459526405677 -0.8186629690562989
5166000000.0 -0.622988196439079 -0.86939621918768
5169000000.0 -0.6370012420932764 -0.866050015015241
5172000000.0 -0.6183556901106296 -0.8301259178899145
5175000000.0 -0.6079630696598132 -0.8899175428327866
5178000000.0 -0.6258156439967302 -0.830387607873816
5181000000.0 -0.6452389740232828 -0.8525770509691545
5184000000.0 -0.6570274778490773 -0.8052059856084407
5188000000.0 -0.6200811921722117 -0.8201783455371185
5191000000.0 -0.672984558393144 -0.7967300481124966
