! Created with skrf 1.8.0 (http://scikit-rf.org).
# Hz S RI R 50.0 
!freq ReS11 ImS11
4000000000.0 0.5839290385560393 0.8296170698713932
4003000000.0 0.6226614131050447 0.8249343966405022
4006000000.0 0.71887040656844 0.784440911326883
4009000000.0 0.6628140186785059 0.8348101530652435
4012000000.0 0.6128046713346094 0.8174408829284762
4016000000.0 0.6877869065009433 0.7394800811219033
4019000000.0 0.7110030197280099 0.7812347810011459
4022000000.0 0.6234358921960749 0.8500565766257201
4025000000.0 0.7492707357845669 0.7788239156642002
4028000000.0 0.7269953883521624 0.770852712925308
4031000000.0 0.6804064213467332 0.7548008416066652
4034000000.0 0.7076700397286468 0.7354427587852083
4038000000.0 0.7341281459674532 0.7444710892510955
4041000000.0 0.7398309998905997 0.7086895933368362
4044000000.0 0.7572499226399705 0.76451723998619
4047000000.0 0.7749853563456841 0.7701412298907795
4050000000.0 0.7837435520896927 0.6962293173872967
4053000000.0 0.7073411112466177 0.6916829826006936
4056000000.0 0.7720233673814961 0.727607217269182
4059000000.0 0.7251464277485937 0.7425870798847982
4062000000.0 0.7896018055839595 0.6652718987692408
4066000000.0 0.749460182975622 0.6416403383028804
4069000000.0 0.8223800175815366 0.6851327689674681
4072000000.0 0.7873114039777417 0.6777697132222635
4075000000.0 0.7664222295308999 0.7285819698061733
4078000000.0 0.8342870513215327 0.6709783234794234
4081000000.0 0.7841841708906641 0.7694236073393181
4084000000.0 0.834157816505975 0.6716243822863004
4088000000.0 0.7907046517906903 0.6886025959715588
4091000000.0 0.8479735333888178 0.6785695522332651
4094000000.0 0.8221510170328956 0.6591241534826666
4097000000.0 0.8200297050670398 0.6177536501320338
4100000000.0 0.8157034010656962 0.6304253719041695
4103000000.0 0.8695716253167023 0.6501914873051107
4106000000.0 0.8845606942947457 0.618717356154128
4109000000.0 0.8803330483054335 0.5908797247919237
4112000000.0 0.8870544844044927 0.5870451267664354
4116000000.0 0.824123873962144 0.5946810704783642
4119000000.0 0.8593474244186196 0.5485748852707979
4122000000.0 0.8952454379384194 0.5227758964235252
4125000000.0 0.8829527734707252 0.5614695868638806
4128000000.0 0.8475638806581063 0.5378634633387404
4131000000.0 0.8915018803458692 0.5536148751215363
4134000000.0 0.828172684792527 0.540956726495634
4138000000.0 0.9115954399389843 0.5240820643649322
4141000000.0 0.8566101405858739 0.50588751142045
4144000000.0 0.8704346585195278 0.556668594883936
4147000000.0 0.8899172136460625 0.4890324390453063
4150000000.0 0.919485337987588 0.5154520245634331
4153000000.0 0.9129274762706703 0.506544211024574
4156000000.0 0.934560859890541 0.5250847915844696
4159000000.0 0.9015741460018787 0.4959877588883222
4162000000.0 0.8919665894752635 0.46462290920664107
4166000000.0 0.9278092080654299 0.48532304835066
4169000000.0 0.9077471219237437 0.4289456034908191
4172000000.0 0.9213930969885968 0.4623981983855347
4175000000.0 0.9176580915042862 0.4622803718866599
4178000000.0 0.9524450327262411 0.43933822600823424
4181000000.0 0.9323901753214943 0.41233189477408405
4184000000.0 0.9342237582712657 0.3902411961979974
4188000000.0 0.9277494663914978 0.3700440128712369
4191000000.0 0.9110691162120459 0.4107532879283618
4194000000.0 0.9206182917572105 0.39542329510460206
4197000000.0 0.9469506160806052 0.3977545185732659
4200000000.0 0.9217016186481599 0.39354959546562407
4203000000.0 0.9536784097004246 0.4142047597634846
4206000000.0 0.9705101720587523 0.38203230174791464
4209000000.0 0.9553879563183224 0.38157036870110334
4212000000.0 0.9872586546865515 0.3318327278241553
4216000000.0 0.9642102880961586 0.3793590498943223
4219000000.0 0.9730837094240526 0.3586017923100484
4222000000.0 0.9581972397059235 0.3224187960595339
4225000000.0 0.9550268374001654 0.3407749682936886
4228000000.0 0.9817347590723708 0.30942838375688797
4231000000.0 0.9896068099919204 0.29222569827046285
4234000000.0 0.9867244856888708 0.29939763704230926
4238000000.0 0.9686483191206362 0.2649248760103241
4241000000.0 0.9864400820905959 0.25495228801009534
4244000000.0 0.9716079889127887 0.2779383656451029
4247000000.0 0.9792853782314586 0.26850750145374125
4250000000.0 0.9659021158948604 0.236273602619697
4253000000.0 0.9595717091287985 0.23895437471355818
4256000000.0 1.0140314899550422 0.21770399541748398
4259000000.0 0.9692019199873078 0.2010184900677969
4262000000.0 0.9991231682950703 0.18854189188242923
4266000000.0 1.0379217418706237 0.19730905345236194
4269000000.0 0.977640907748619 0.23411490739981064
4272000000.0 0.9719655161073382 0.19371685884732937
4275000000.0 1.0086661188023687 0.1989774599633865
4278000000.0 1.0168134141186913 0.19205091149069126
4281000000.0 0.9986061060238105 0.1811122647584073
4284000000.0 1.000630005296693 0.11794745000890855
4288000000.0 1.002684147961351 0.1769173946931906
4291000000.0 1.001653618497532 0.14906191657109785
4294000000.0 1.0072478207286084 0.13122954827412142
4297000000.0 0.9977010320971351 0.16259173881760025
4300000000.0 0.9990178396009228 0.12711767503997284
4303000000.0 0.9974010297175465 0.07632167351424059
4306000000.0 1.0133122599362678 0.13748781042736355
4309000000.0 1.0445182076989428 0.11044532530211947
4312000000.0 1.024055373303702 0.12038319039947701
4316000000.0 1.0468102418262846 0.0993748681134982
4319000000.0 1.009148387804426 0.07781856467511629
4322000000.0 0.9986459229667539 0.01887094193010698
4325000000.0 1.0144531725679111 0.04596385648874758
4328000000.0 1.0128904743225076 0.05458421345562213
4331000000.0 1.0247581699016968 0.00682781323722495
4334000000.0 1.0316019390994113 0.006611142299653788
4338000000.0 1.0131553852244881 0.05272881646249088
4341000000.0 1.0448626398358267 0.039296445127368795
4344000000.0 1.0462303088719032 0.01245092253492286
4347000000.0 1.0195178674374143 -0.036955812324588444
4350000000.0 0.9925346401966656 -0.043750772281032746
4353000000.0 0.9771536687593338 -0.010170830526303076
4356000000.0 0.988491640001011 -0.054299352150959226
4359000000.0 0.9593608403270583 -0.025566635765746443
4362000000.0 1.0185448849614924 -0.10757128718003843
4366000000.0 1.0233728504155437 -0.07330128707870967
4369000000.0 0.986944045986869 -0.07281556137074485
4372000000.0 0.9960459583122856 -0.12986133591629706
4375000000.0 1.022487722214573 -0.08899494609837832
4378000000.0 0.9713923481602478 -0.08078431673470085
4381000000.0 0.9963527320006031 -0.08277113306669254
4384000000.0 1.0645713048052228 -0.13452463500583872
4388000000.0 0.9986154862906391 -0.10145138922201208
4391000000.0 1.0192550622632284 -0.12247982646305557
4394000000.0 0.9881153168913518 -0.14124945433995328
4397000000.0 1.0015804892048195 -0.1577004804649808
4400000000.0 1.021379000067354 -0.1552135234016547
4403000000.0 1.005853900830163 -0.1656709317066652
4406000000.0 0.9892807860179705 -0.19554319118133318
4409000000.0 1.0123187560306117 -0.1945750117560521
4412000000.0 0.9846699087871874 -0.23666972511835244
4416000000.0 0.9874288427357893 -0.2133760101706908
4419000000.0 0.9812849229137104 -0.23121062064349793
4422000000.0 0.9965537948920655 -0.1926628789412826
4425000000.0 1.013105795974496 -0.20367764970078747
4428000000.0 0.9921596410853194 -0.2538753264079212
4431000000.0 1.010157266991347 -0.23279817403636963
4434000000.0 0.9807055024733851 -0.26345956869446135
4438000000.0 1.0003138657110016 -0.26878282081137006
4441000000.0 0.9886486190370116 -0.25791134014834804
4444000000.0 0.9556742306919361 -0.27484127069224235
4447000000.0 0.9527345715824217 -0.29866557015645145
4450000000.0 0.950697632100234 -0.2771644940927508
4453000000.0 0.9891243659840151 -0.2995458695357524
4456000000.0 0.9307283168947319 -0.3360362015265277
4459000000.0 0.9150892245999003 -0.3225909077216357
4462000000.0 1.0184344797609728 -0.34241123990930467
4466000000.0 0.9774802998935672 -0.3621271394499852
4469000000.0 0.9510669417889519 -0.32829850135337457
4472000000.0 0.9620163056982508 -0.37015535061609156
4475000000.0 0.9219629163884158 -0.3420652051258809
4478000000.0 0.9779876374716103 -0.39474831811616795
4481000000.0 0.9176444844035849 -0.3805101415771476
4484000000.0 0.9162000621090078 -0.4164333621548184
4488000000.0 0.9290089420899874 -0.38580163195798917
4491000000.0 0.9273169515351242 -0.4088966546085158
4494000000.0 0.9043854047787575 -0.3950957980805332
4497000000.0 0.920893507717411 -0.4063821015669122
4500000000.0 0.9249290019176724 -0.42234716581694975
4503000000.0 0.9479001034128558 -0.42507045893389644
4506000000.0 0.9162580896040287 -0.45587745610334834
4509000000.0 0.8771185316704329 -0.45364658541780545
4512000000.0 0.8654721716862162 -0.45690343262290245
4516000000.0 0.9148764529664671 -0.47626997980284813
4519000000.0 0.8639603300053882 -0.45833961068094314
4522000000.0 0.883919777447884 -0.4991961927127745
4525000000.0 0.8851788826549134 -0.4404545065984269
4528000000.0 0.9124585310448561 -0.5127381960549943
4531000000.0 0.8954544181870973 -0.4926917069926159
4534000000.0 0.8551609825431926 -0.5078359909067747
4538000000.0 0.8538072712313767 -0.5289319085524876
4541000000.0 0.816088201315101 -0.5581046043984301
4544000000.0 0.8640264830386528 -0.523697609394967
4547000000.0 0.8614426768912775 -0.5142214557444997
4550000000.0 0.8464850044306922 -0.5790346995122257
4553000000.0 0.8448981400996152 -0.568797508352495
4556000000.0 0.8260126334609541 -0.5681286122359033
4559000000.0 0.8260380084244912 -0.5710508258726867
4562000000.0 0.8288124088399222 -0.5727885996625612
4566000000.0 0.8318196883382221 -0.601228006478093
4569000000.0 0.7919607828134263 -0.5849934765297009
4572000000.0 0.814913190090013 -0.605956830260983
4575000000.0 0.7968457546853307 -0.6360095246516068
4578000000.0 0.8382049286367577 -0.6269172952000568
4581000000.0 0.7744902444985905 -0.6519910186250296
4584000000.0 0.7780022492931923 -0.6244657526827889
4588000000.0 0.8079208858252519 -0.6314459302735179
4591000000.0 0.8013230291216993 -0.627661663242429
4594000000.0 0.743248612611214 -0.6642640011923476
4597000000.0 0.7797962491847223 -0.6732818094992526
4600000000.0 0.7325550397796733 -0.6745996191842073
4603000000.0 0.737904073528714 -0.6734831360477771
4606000000.0 0.7610901950257314 -0.6891450102137472
4609000000.0 0.7506182656014491 -0.7016963704119354
4612000000.0 0.730015078635524 -0.7013444986195093
4616000000.0 0.721084861009321 -0.6923642106040463
4619000000.0 0.7285418155746354 -0.6986177473930127
4622000000.0 0.7193330090283535 -0.712536963086697
4625000000.0 0.6673025521376595 -0.7275444815491637
4628000000.0 0.7130472496452922 -0.6895727965893355
4631000000.0 0.7028664170875443 -0.7245733390885203
4634000000.0 0.6925736916867422 -0.7421535179667132
4638000000.0 0.6820398540948076 -0.7400451642351163
4641000000.0 0.6875833541826125 -0.7357744165866351
4644000000.0 0.663184458252154 -0.7490604563083029
4647000000.0 0.679029602928068 -0.7563520911318263
4650000000.0 0.6412477266357659 -0.7719325349400429
4653000000.0 0.6755828330986211 -0.7784045895573568
4656000000.0 0.6390176213750651 -0.7669799103621406
4659000000.0 0.627768390216016 -0.7785366251455275
4662000000.0 0.6388260733578427 -0.8136464182686415
4666000000.0 0.6255828607768658 -0.8064431502181707
4669000000.0 0.6283642574928583 -0.7920096534231608
4672000000.0 0.6096451461408311 -0.8372078505084002
4675000000.0 0.5933639636018307 -0.8354905403158583
4678000000.0 0.5887188698947268 -0.8074787277942131
4681000000.0 0.5729578534594868 -0.8701565860757746
4684000000.0 0.5531268487337451 -0.8300429966044078
4688000000.0 0.5392797670368202 -0.8241515375877497
4691000000.0 0.5802246237287834 -0.8334846134733316
4694000000.0 0.5561563080425685 -0.8350079611923305
4697000000.0 0.5285403455810944 -0.8365891696341561
4700000000.0 0.5691482589486319 -0.866701354548393
4703000000.0 0.5459131491030018 -0.8367087667483122
4706000000.0 0.5116658319137943 -0.8670378875516009
4709000000.0 0.5052244658451571 -0.8963397218307955
4712000000.0 0.5145420998380168 -0.8639736516944225
4716000000.0 0.4857620607234414 -0.8915208918487205
4719000000.0 0.5368889922180882 -0.9089731689616992
4722000000.0 0.5140063169267752 -0.8908143781414652
4725000000.0 0.49420700649732463 -0.8866288692847771
4728000000.0 0.44553927324676673 -0.8762387089242225
4731000000.0 0.4769701160687567 -0.8832202283695507
4734000000.0 0.46129864224161066 -0.907520814928964
4738000000.0 0.4942892869812924 -0.9243606423100458
4741000000.0 0.4214712430924787 -0.973646967283745
4744000000.0 0.4168200079006257 -0.9228769815239939
4747000000.0 0.4363680188047341 -0.8710142500748546
4750000000.0 0.4214948769989323 -0.91811797039212
4753000000.0 0.43062819701575816 -0.9163018070368628
4756000000.0 0.41790080814471364 -0.9543431869497501
4759000000.0 0.4315623198120446 -0.945648325034353
4762000000.0 0.4029176885842808 -0.9368564503075971
4766000000.0 0.395346379382635 -0.9369439736953057
4769000000.0 0.3849296424824637 -0.9608007888242557
4772000000.0 0.37998766504138903 -0.9429395716685298
4775000000.0 0.35654410392425384 -0.9984476791773929
4778000000.0 0.3722098390131981 -0.9782655909639765
4781000000.0 0.3498759894537973 -0.9342803381281843
4784000000.0 0.3411328069371753 -0.9370486821127676
4788000000.0 0.3005785007304288 -0.9880589700544333
4791000000.0 0.2967581261204234 -0.94527165745509
4794000000.0 0.3449746524364387 -0.9891854836719931
4797000000.0 0.27232280472192927 -0.9536367667439628
4800000000.0 0.2979516604285649 -0.9631086861224323
4803000000.0 0.25686961317466706 -0.980641249235414
4806000000.0 0.2941045383874508 -0.992272400140153
4809000000.0 0.2285818128214887 -0.9946647004428054
4812000000.0 0.21532582619166266 -0.9815322485566942
4816000000.0 0.2694939015292312 -0.9732043065182145
4819000000.0 0.2569538732393585 -1.0115184186143034
4822000000.0 0.24383084269566246 -1.0192292403709824
4825000000.0 0.2879875352625729 -1.0223041642618513
4828000000.0 0.2187875830951348 -1.0081945543155464
4831000000.0 0.17800095859035914 -1.0338780973900419
4834000000.0 0.230968190825541 -1.0031674614149575
4838000000.0 0.17844208530909683 -1.027276526671675
4841000000.0 0.17272796107596677 -1.005633992782157
4844000000.0 0.20792017692261477 -1.0303407159396203
4847000000.0 0.17339144445407811 -0.9805270085720499
4850000000.0 0.15137255699348423 -1.0649210100382371
4853000000.0 0.15537259861618247 -0.9701451638897356
4856000000.0 0.15240305590854356 -1.013574151069861
4859000000.0 0.13942879226499189 -1.0508879924657628
4862000000.0 0.14688547330444715 -1.0004610255013373
4866000000.0 0.10050579991093275 -1.0465837265756768
4869000000.0 0.1301206093690925 -1.0205410471613092
4872000000.0 0.07526500093138373 -1.0608281821735257
4875000000.0 0.14583884080091503 -1.0502021762420235
4878000000.0 0.09603850289276467 -1.0316110772666445
4881000000.0 0.06919475698525422 -1.0921474201242287
4884000000.0 0.08731915322273492 -1.0252645251281012
4888000000.0 0.11275335627846392 -1.0291794410338466
4891000000.0 0.09287024300413749 -1.0427800579236264
4894000000.0 0.02064599599467499 -1.009149127129911
4897000000.0 0.09072530561714859 -1.041620554147277
4900000000.0 0.04303743727018099 -1.0467045386633012
4903000000.0 0.03691878372950091 -1.0400890577920023
4906000000.0 0.018060491142853016 -1.0441195621999204
4909000000.0 -0.00018070442022343966 -1.0238699900415977
4912000000.0 -0.027842822941422776 -1.0504096679044934
4916000000.0 0.020951662588650243 -1.0618003189810687
4919000000.0 0.006256219031929473 -1.0492206274122937
4922000000.0 -0.00801127235921982 -1.0525356595772553
4925000000.0 -0.058755961589514516 -1.0060548285717452
4928000000.0 0.05463325110166391 -1.016981009773853
4931000000.0 -0.03953341684733962 -1.0349655563415925
4934000000.0 -0.031254941667145375 -0.9923674193422986
4938000000.0 -0.11730829722732448 -1.0422993070027262
4941000000.0 -0.0517369689390033 -1.0092511912671445
4944000000.0 -0.032090321250739684 -0.9674380639897955
4947000000.0 -0.09090625491743812 -1.0147786368364915
4950000000.0 -0.09978651275269375 -1.0236980075248523
4953000000.0 -0.15400690074129347 -1.0701940407204202
4956000000.0 -0.15556212080310988 -1.0485531002638244
4959000000.0 -0.1650956825508287 -1.0076551827443188
4962000000.0 -0.13624893087403142 -1.0083882683255003
4966000000.0 -0.12906385821060423 -1.0610839228587117
4969000000.0 -0.14243009209037416 -1.0761894162854626
4972000000.0 -0.15575613681692876 -1.0240157740535059
4975000000.0 -0.15386259620795403 -0.9990207547677791
4978000000.0 -0.20321863590893124 -1.0347828547423983
4981000000.0 -0.19318513230581588 -1.0203320434658691
4984000000.0 -0.18080725380224835 -1.0016922843881706
4988000000.0 -0.18067312299374327 -1.0153848597107442
4991000000.0 -0.1557771757059444 -1.0600129048766262
4994000000.0 -0.20007981727481167 -1.0146002145999886
4997000000.0 -0.2703349398224747 -1.0107819504453048
5000000000.0 -0.22864993048281085 -1.0623774065680796
5003000000.0 -0.22599020267126135 -1.0627358450536486
5006000000.0 -0.2452579127613346 -1.0415952240522328
5009000000.0 -0.24381536575985788 -1.0253803292344452
5012000000.0 -0.29662249134860325 -0.9870967651437452
5016000000.0 -0.24897546371148505 -1.0121681294481881
5019000000.0 -0.2839161280934709 -1.0018503848090177
5022000000.0 -0.290559894398257 -1.0111544898834937
5025000000.0 -0.34279702565107656 -1.0578097231923016
5028000000.0 -0.3474449411374968 -1.0314814863598056
5031000000.0 -0.32127805279247423 -0.9786283817155829
5034000000.0 -0.3551278511628644 -0.9959976360394822
5038000000.0 -0.33307401622679356 -0.955145423687727
5041000000.0 -0.29273367445917997 -1.0105884810210917
5044000000.0 -0.2997395912359374 -0.983549655318969
5047000000.0 -0.34677471291790257 -1.0191118377557644
5050000000.0 -0.2800980065921802 -0.9966253957534859
5053000000.0 -0.4004828788161512 -1.0347424544232704
5056000000.0 -0.33076280867933605 -1.0097067719338073
5059000000.0 -0.3336630860577375 -0.9986291146527256
5062000000.0 -0.4215594222915954 -1.0003658492422243
5066000000.0 -0.3415634245839526 -0.973041156684034
5069000000.0 -0.399639706481564 -0.9552278887029623
5072000000.0 -0.38162516894075277 -0.9082206492553808
5075000000.0 -0.36936176486069094 -0.9672715979533493
5078000000.0 -0.4494512166533197 -0.9492717770354935
5081000000.0 -0.4247118257450881 -0.9166587431484555
5084000000.0 -0.4566470389642109 -0.9767009350384213
5088000000.0 -0.4245207664705677 -0.9318955273515159
5091000000.0 -0.49762847882773914 -0.9337462265420129
5094000000.0 -0.45319727275651583 -0.9343424872502376
5097000000.0 -0.4566526085012719 -0.9894379788420022
5100000000.0 -0.41994297088315224 -0.9150865358952797
5103000000.0 -0.5343035418060831 -0.9371555904079886
5106000000.0 -0.4952477270270202 -0.9811890506772909
5109000000.0 -0.42958984995278765 -0.9235998035161344
5112000000.0 -0.5515962680294682 -0.9226211035431124
5116000000.0 -0.5180993667222533 -0.9078834475334694
5119000000.0 -0.5098894686313027 -0.930045969643674
5122000000.0 -0.5175479953048188 -0.9228808057091389
5125000000.0 -0.5182789741966205 -0.9009452744385779
5128000000.0 -0.541476816635968 -0.8573831863083128
5131000000.0 -0.5282971516486685 -0.9279110550286628
5134000000.0 -0.5540291043782707 -0.8941174283344071
5138000000.0 -0.5016480546146777 -0.891166872796335
5141000000.0 -0.48622041848571407 -0.8899443733102712
5144000000.0 -0.490911712503717 -0.9034704419349509
5147000000.0 -0.59345980582604 -0.8833075391328504
5150000000.0 -0.5730564675094739 -0.8991845967142816
5153000000.0 -0.6061980782579872 -0.9187232041125679
5156000000.0 -0.6106351804903911 -0.8660627135310891
5159000000.0 -0.6396761224364635 -0.9025097826208606
5162000000.0 -0.6231840830331938 -0.8248684782043519
5166000000.0 -0.6428369429460526 -0.8642193197362801
5169000000.0 -0.6429748704560155 -0.8455406655976389
5172000000.0 -0.6075241116656664 -0.8275946176756409
5175000000.0 -0.6516907907337043 -0.884460382769307
5178000000.0 -0.6292537928050252 -0.8575551866689741
5181000000.0 -0.6710897871646726 -0.8339232062042803
5184000000.0 -0.6476810358752783 -0.7988977195778381
5188000000.0 -0.6754785273614721 -0.8096555080666664
