! Created with skrf 1.8.0 (http://scikit-rf.org).
# Hz S RI R 50.0 
!freq ReS11 ImS11
4000000000.0 0.6057155948253207 0.8137674663717362
4003000000.0 0.6143980617656666 0.8882707744045907
4006000000.0 0.7225017507439895 0.8124881918883703
4009000000.0 0.6422616767970789 0.7831029230134711
4012000000.0 0.6662678883879593 0.8902783017802246
4016000000.0 0.6884212091757588 0.7762674121411686
4019000000.0 0.6769085188361936 0.8391970463946717
4022000000.0 0.6140231283499541 0.7989648806419275
4025000000.0 0.7331319446192067 0.7522981900311131
4028000000.0 0.7156509534336263 0.7272200033751937
4031000000.0 0.6605408694508534 0.7235380159932393
4034000000.0 0.6832968035847478 0.7661824596186658
4038000000.0 0.74558688238945 0.7054878544503382
4041000000.0 0.7044080664808944 0.7300887928957925
4044000000.0 0.7193855076316923 0.7714284491323411
4047000000.0 0.7498184678386299 0.7912916075303381
4050000000.0 0.7725038195603819 0.6803369258039291
4053000000.0 0.7802460605399759 0.69631342811231
4056000000.0 0.7780029829222764 0.7003732792043011
4059000000.0 0.77169697005132 0.719135655715309
4062000000.0 0.7975418664978169 0.6971079289539792
4066000000.0 0.7155491338510283 0.6349328376681304
4069000000.0 0.8436384575707918 0.6685852234214237
4072000000.0 0.7927334690844333 0.6780290055937628
4075000000.0 0.7918061902731889 0.6949625818563885
4078000000.0 0.8416812751567712 0.6693537797163989
4081000000.0 0.801696075236995 0.7056248462904824
4084000000.0 0.8033953353605392 0.6444260202446881
4088000000.0 0.8028726525720951 0.6794230722416273
4091000000.0 0.8817798813128273 0.6596973889737641
4094000000.0 0.8327861541284599 0.661106267455275
4097000000.0 0.8245220042572823 0.6291423255293029
4100000000.0 0.834471713001816 0.6050798079877577
4103000000.0 0.8604276147492698 0.6197566765438345
4106000000.0 0.8572345894161026 0.5894707551654279
4109000000.0 0.8868301156403875 0.5609287961240148
4112000000.0 0.8472163129458286 0.5724427372915943
4116000000.0 0.8915212593653229 0.6619039609940875
4119000000.0 0.8928900477710408 0.5705428191382915
4122000000.0 0.8887405369223977 0.5469861058147798
4125000000.0 0.8864821315121677 0.5632728707937125
4128000000.0 0.8388592049551579 0.5317180650253871
4131000000.0 0.8997538102556862 0.5389792167633615
4134000000.0 0.8629884633044353 0.50225003619744
4138000000.0 0.8875322218908936 0.5075544412278832
4141000000.0 0.8886917228300679 0.5182027253043432
4144000000.0 0.8869282556986021 0.5303678872105606
4147000000.0 0.8803150292498756 0.4613246336778742
4150000000.0 0.9498821536912208 0.5254665045316336
4153000000.0 0.9014313681188199 0.4919543950976325
4156000000.0 0.9278456915532405 0.5122658549424308
4159000000.0 0.8907364340056145 0.4865670274445772
4162000000.0 0.9120544105013688 0.44084591107612847
4166000000.0 0.9367040287144646 0.4711918768882668
4169000000.0 0.929031377396026 0.42664036800787164
4172000000.0 0.9354355749566572 0.44073402305799697
4175000000.0 0.9220394172169364 0.4550712835546202
4178000000.0 0.9302870864473995 0.44546285408758557
4181000000.0 0.9481920501319077 0.42277859361378367
4184000000.0 0.9564110291717418 0.40911948943116044
4188000000.0 0.9457103063672156 0.40908099077219473
4191000000.0 0.9191956494407617 0.40875459996573765
4194000000.0 0.9169704664103057 0.3898675754308707
4197000000.0 0.9487099196900107 0.38455069348579146
4200000000.0 0.9381982993975391 0.385137659158574
4203000000.0 0.9861003434156855 0.39960943348353684
4206000000.0 0.9796124895378062 0.389525815954234
4209000000.0 0.9516968790621788 0.3617909871221245
4212000000.0 0.9720241110251451 0.32900783750055496
4216000000.0 0.9649266548563297 0.3582870250594698
4219000000.0 0.9755614437719966 0.34198906024090425
4222000000.0 0.9742955876592356 0.3378028992941822
4225000000.0 0.9665161999382468 0.3274498982757501
4228000000.0 0.9720489781758821 0.3116802851796453
4231000000.0 0.9771464998538157 0.299765572767528
4234000000.0 0.9870655444357839 0.29973750760874784
4238000000.0 0.9871560217122232 0.27919685649275483
4241000000.0 0.9879643432713296 0.2677461171368526
4244000000.0 0.9723743858035206 0.26727985853877895
4247000000.0 0.9918907193053729 0.26531326998210425
4250000000.0 0.9735786056652083 0.23101590470865857
4253000000.0 0.9833804715590722 0.2312258786488665
4256000000.0 1.0143901549750367 0.2230364789210874
4259000000.0 0.9538449648977041 0.20430304832889315
4262000000.0 0.9901394996888089 0.20345097851807528
4266000000.0 1.0167669200358125 0.1858027750996803
4269000000.0 1.0013344589092004 0.18499982550476476
4272000000.0 1.005431704869285 0.1825793700112014
4275000000.0 0.9962114620123874 0.18047266915300036
4278000000.0 1.0212174603702686 0.19112193980408476
4281000000.0 1.0122254768884857 0.1770989175872219
4284000000.0 1.011214911901475 0.1360619849490751
4288000000.0 1.014530380410623 0.18209605783610985
4291000000.0 0.9821753789215136 0.13080374172635528
4294000000.0 1.0157158615544222 0.12233069504706408
4297000000.0 1.0102107830485776 0.14375950004092047
4300000000.0 1.0139719164336634 0.15514627151950738
4303000000.0 0.9949030402146946 0.08836533103543688
4306000000.0 1.0049567278217668 0.1143388785441378
4309000000.0 1.0003625764083364 0.08235732459456176
4312000000.0 1.0501626191189455 0.12591693932584927
4316000000.0 1.0248750484564109 0.09917114593495614
4319000000.0 1.0087975043836581 0.08015266446552817
4322000000.0 0.9923935558318236 0.03884924131530125
4325000000.0 0.9977534263049743 0.06024527103683415
4328000000.0 1.0084388526609671 0.03538165162187863
4331000000.0 1.0248368256415563 -0.0012047340572203108
4334000000.0 1.0318715874106699 0.01246585563591368
4338000000.0 1.0175642884488048 0.055766653806099395
4341000000.0 1.0298964340489345 0.03869011533813363
4344000000.0 1.0243866216957687 0.011406645384507141
4347000000.0 1.042663128262861 -0.036569828113717756
4350000000.0 0.9879188325182333 -0.025802659606013717
4353000000.0 0.9947418631662017 0.0006327535848063559
4356000000.0 1.0163909472143002 -0.06613071110528035
4359000000.0 0.9702396139311477 -0.05481591491532464
4362000000.0 1.029308661907961 -0.11516579347341269
4366000000.0 1.0310378176893846 -0.06150519235357335
4369000000.0 0.9826538119325795 -0.08550219797064673
4372000000.0 1.0008118015766712 -0.10623897667143588
4375000000.0 0.9995992489796577 -0.07433247305726788
4378000000.0 0.9741135986317857 -0.10944452571918953
4381000000.0 0.9949455955678246 -0.1009671262707066
4384000000.0 1.073833936532709 -0.14120389859549776
4388000000.0 0.9863956929418204 -0.09781423144746186
4391000000.0 1.0101401461914183 -0.1305684115682564
4394000000.0 0.977083485155676 -0.1548451505319657
4397000000.0 1.0030057305387683 -0.16473013792557825
4400000000.0 1.0331854756681031 -0.17535286296194685
4403000000.0 1.0052724895732643 -0.17119453030772996
4406000000.0 0.9881296142544124 -0.2038389087080542
4409000000.0 1.024149308001461 -0.19539143468388168
4412000000.0 0.9798630614025143 -0.24645492418747006
4416000000.0 0.978306644324944 -0.21709347741534724
4419000000.0 0.9862142074022939 -0.2439472247203732
4422000000.0 0.987164178972193 -0.2017462686263526
4425000000.0 1.0073241109895332 -0.20944164691132436
4428000000.0 0.9810053219199958 -0.24643580340051166
4431000000.0 0.9997801492231064 -0.25296221776097805
4434000000.0 0.972035795578082 -0.2614720504720746
4438000000.0 0.9983026325129871 -0.2694528567701082
4441000000.0 0.9810540966786616 -0.29078880277450125
4444000000.0 0.9528297746669372 -0.2884734484903239
4447000000.0 0.9586733520724736 -0.30136266398665423
4450000000.0 0.9472461190501483 -0.2892187615629221
4453000000.0 0.9929319363288971 -0.3177741498437421
4456000000.0 0.9295547047384185 -0.31740149994907413
4459000000.0 0.9165727965257031 -0.3346932329307869
4462000000.0 1.0072534881870516 -0.3614706090495906
4466000000.0 0.994233616963361 -0.3660933509152988
4469000000.0 0.95328875652876 -0.3303322177863115
4472000000.0 0.9657865582052568 -0.39529245381542394
4475000000.0 0.9172118084174655 -0.3631554387809608
4478000000.0 0.9636151689524004 -0.40024499539234626
4481000000.0 0.9104213739346801 -0.3870738806659035
4484000000.0 0.9102816444236677 -0.4244199215216029
4488000000.0 0.9057304158831762 -0.407580753656933
4491000000.0 0.9227447520971477 -0.4268448337015356
4494000000.0 0.9216550280192082 -0.41321988799232545
4497000000.0 0.9148937981032048 -0.3931625075800279
4500000000.0 0.9310847780255591 -0.4294021295328924
4503000000.0 0.9390132710377228 -0.45115569818407786
4506000000.0 0.9098520708678091 -0.44930449639397246
4509000000.0 0.8892155130151305 -0.44004343944425484
4512000000.0 0.8572836857538948 -0.47327088794913597
4516000000.0 0.914877023087684 -0.46657380726147807
4519000000.0 0.85191718542594 -0.45114324136534084
4522000000.0 0.8820668045563167 -0.5143302224287256
4525000000.0 0.8949089295476829 -0.46497327794885784
4528000000.0 0.9014136050481221 -0.5115889582434293
4531000000.0 0.8935309464544957 -0.5075953341523699
4534000000.0 0.864607760283229 -0.5109048655697906
4538000000.0 0.8474655040913535 -0.5256312113191437
4541000000.0 0.8303290357169739 -0.5569485999820593
4544000000.0 0.8335639232857055 -0.5281705527054827
4547000000.0 0.8450175549961497 -0.5347438441388483
4550000000.0 0.8448945135029697 -0.578172852301707
4553000000.0 0.8519203022388568 -0.5679341416305101
4556000000.0 0.8204293841554768 -0.5751474676055168
4559000000.0 0.8341773980662742 -0.5963850974780927
4562000000.0 0.8226200501369207 -0.5907362674797012
4566000000.0 0.8221942897664676 -0.5946808263219545
4569000000.0 0.7922659559346603 -0.5846371949098133
4572000000.0 0.8000476653292472 -0.5896174973904368
4575000000.0 0.8012496322865936 -0.6410158844863609
4578000000.0 0.8177125354679862 -0.621955604336301
4581000000.0 0.7823313156362786 -0.6324179272394158
4584000000.0 0.769789919579507 -0.6507796724519905
4588000000.0 0.7961049336664076 -0.6460149075208274
4591000000.0 0.7867722203664989 -0.6329717356725351
4594000000.0 0.747936172540785 -0.675580183174146
4597000000.0 0.7593348515473812 -0.6739623399334306
4600000000.0 0.7148594325400102 -0.6881465935013149
4603000000.0 0.7416885098537818 -0.6910433485725028
4606000000.0 0.7479221001063904 -0.7034830551383111
4609000000.0 0.7445369598098268 -0.6922305998997845
4612000000.0 0.7407586646136821 -0.7025821303976765
4616000000.0 0.7145068519943996 -0.7081291004762
4619000000.0 0.7083360742813882 -0.7162123748146412
4622000000.0 0.7076420186522315 -0.7165441164805312
4625000000.0 0.6712081713132415 -0.7202856250621495
4628000000.0 0.6890314629216672 -0.7223960653310868
4631000000.0 0.6847832232899034 -0.7435183217042913
4634000000.0 0.6788649053076842 -0.7454319317757176
4638000000.0 0.6783567127904013 -0.75895255078914
4641000000.0 0.6692870871318599 -0.7471156879597269
4644000000.0 0.6611092842272336 -0.7661862446412048
4647000000.0 0.684262448882232 -0.7673672582706811
4650000000.0 0.6401402596726169 -0.773824802441356
4653000000.0 0.6642097919991137 -0.7879746536913597
4656000000.0 0.6249048497925496 -0.7960920733303627
4659000000.0 0.6189200231738226 -0.8038243658196547
4662000000.0 0.6259573536507718 -0.8053957672881904
4666000000.0 0.609469350035656 -0.7934102968715843
4669000000.0 0.6271657866727698 -0.7916677944333829
4672000000.0 0.5948199780730956 -0.8572764773386924
4675000000.0 0.5815229745825936 -0.8303721785051635
4678000000.0 0.5789539450270325 -0.8274218121676464
4681000000.0 0.5698614050940396 -0.8495509883526235
4684000000.0 0.5552067518257175 -0.8523313624461027
4688000000.0 0.5527595424964074 -0.836918581926207
4691000000.0 0.5796965903353468 -0.8320252016253058
4694000000.0 0.5729148078343277 -0.8355086648643302
4697000000.0 0.5191127046268769 -0.8400237787061926
4700000000.0 0.5502202718902305 -0.865079736680195
4703000000.0 0.5266410169088253 -0.8054639307667271
4706000000.0 0.5256379546169901 -0.8907740747000528
4709000000.0 0.4854399428760445 -0.868183042430304
4712000000.0 0.5316905071953405 -0.875054290205651
4716000000.0 0.5194037445454539 -0.8968017064709766
4719000000.0 0.5189614984401215 -0.8728730635260209
4722000000.0 0.5112806880239136 -0.8938759863414745
4725000000.0 0.47770473903481936 -0.8938654359481122
4728000000.0 0.4534971456450021 -0.9100753837133178
4731000000.0 0.4920252422763965 -0.8886298775855932
4734000000.0 0.49036522869297466 -0.9063868147093358
4738000000.0 0.4963355480181082 -0.947140002795637
4741000000.0 0.4358904797585294 -0.9402160083355968
4744000000.0 0.43409862003165134 -0.9272818857927112
4747000000.0 0.4252107877974918 -0.890488098597052
4750000000.0 0.40440838802913903 -0.9542071277844445
4753000000.0 0.404836551100069 -0.9002944888665252
4756000000.0 0.3903403145483463 -0.9165004622694504
4759000000.0 0.42541886736148954 -0.9661984121711468
4762000000.0 0.3668982018157578 -1.0031076654942706
4766000000.0 0.3519428025351064 -0.9204070572926961
4769000000.0 0.3608655358797042 -0.9675356798886071
4772000000.0 0.35058934521036533 -0.9609269475060414
4775000000.0 0.33591801472670246 -0.9850084402125352
4778000000.0 0.3436123958522001 -1.0027434867951606
4781000000.0 0.33789826970214115 -0.9772093838107982
4784000000.0 0.3528842547718448 -0.9420066792643741
4788000000.0 0.3199830852920833 -1.0157792676439599
4791000000.0 0.3051808701945193 -0.9726055552652083
4794000000.0 0.3368815293898162 -1.009560203719443
4797000000.0 0.27389332750118783 -0.9697872554339123
4800000000.0 0.2656328993277398 -0.9681999110398247
4803000000.0 0.22723282203891088 -0.9931142056675377
4806000000.0 0.25408397532759835 -1.0068692054791506
4809000000.0 0.22216920179580646 -0.9914165915165697
4812000000.0 0.19289700347454916 -0.9773717594437998
4816000000.0 0.25709469401542345 -0.9521030548966423
4819000000.0 0.26424053338822345 -1.0107027542400482
4822000000.0 0.2522737380307136 -1.0142599045105918
4825000000.0 0.24993929366463213 -1.0063418326868117
4828000000.0 0.20168224922902328 -1.0061443994095236
4831000000.0 0.16305571797827864 -1.025534436292267
4834000000.0 0.2052201262593682 -1.0182794914759752
4838000000.0 0.17636403864617117 -1.0320772092941644
4841000000.0 0.15624798075239227 -0.9888943066091328
4844000000.0 0.20327209085645143 -1.0284893906939347
4847000000.0 0.1677841379741934 -0.9826600688127172
4850000000.0 0.1465042062525519 -1.0297853798506147
4853000000.0 0.1431127390465357 -0.9965828323647901
4856000000.0 0.14298378672696316 -0.9773935033960098
4859000000.0 0.14588599241093464 -1.0513774637147568
4862000000.0 0.14588535359470722 -1.0081468131539435
4866000000.0 0.08868069282992386 -1.0500587313935223
4869000000.0 0.10105104737338584 -1.0297973857803486
4872000000.0 0.09650733787257412 -1.0337834325743724
4875000000.0 0.12922912459003527 -1.0672611977348512
4878000000.0 0.061705009794559625 -1.0318341837587057
4881000000.0 0.04157218285658265 -1.1069855036186702
4884000000.0 0.07110696276570395 -1.031318845839226
4888000000.0 0.09955480762548988 -1.027635498618055
4891000000.0 0.062149981658942324 -1.047888020589408
4894000000.0 0.018106931683313357 -0.9935110063192035
4897000000.0 0.052435446576831954 -1.0305439427179377
4900000000.0 0.050393716543869066 -1.0365883388203108
4903000000.0 0.04375470724631012 -1.0483601321154887
4906000000.0 -0.00485091760439357 -1.0555849625001672
4909000000.0 -0.024386208879139948 -1.0466036118108262
4912000000.0 -0.011444597866485433 -1.0489309897105517
4916000000.0 -0.005928781278440952 -1.0680429183557303
4919000000.0 0.0045989032604263624 -1.0624096199478226
4922000000.0 0.017218255716408358 -1.0367893800245342
4925000000.0 -0.07174723105253848 -1.0205253051455423
4928000000.0 0.018235318648994192 -1.0453562970788144
4931000000.0 -0.038085814288504896 -1.0421619464442373
4934000000.0 -0.04323290630390336 -0.9953292400518393
4938000000.0 -0.1069317477765906 -1.023758553774156
4941000000.0 -0.05189742975873528 -1.007937637510127
4944000000.0 -0.049790983108345066 -0.9575095717337698
4947000000.0 -0.09820640078117038 -1.0182439993695496
4950000000.0 -0.07841107672222637 -1.010524850229376
4953000000.0 -0.16096746865774159 -1.0446243333825267
4956000000.0 -0.13217219889242388 -1.052109225542732
4959000000.0 -0.16251154807935417 -0.9826457515912331
4962000000.0 -0.17447694236770764 -1.0256827993623734
4966000000.0 -0.13441592786334355 -1.0484046701366692
4969000000.0 -0.12715265143247428 -1.0762450841108233
4972000000.0 -0.16851199279878246 -1.0071356447954891
4975000000.0 -0.14746923236547158 -0.9787264661625992
4978000000.0 -0.19288213988418068 -1.015408021024411
4981000000.0 -0.20557589511670907 -1.0119346532175837
4984000000.0 -0.17677093441688393 -0.9842290670107271
4988000000.0 -0.19764131806954383 -0.9906281814201628
4991000000.0 -0.13756412861177242 -1.0146689932951716
4994000000.0 -0.20818102516991083 -0.9979633396642716
4997000000.0 -0.27137682053344364 -0.9939679385359761
5000000000.0 -0.2550098759053975 -1.0253294575016418
5003000000.0 -0.25356763417808104 -1.0471523553753495
5006000000.0 -0.27107195293746933 -1.0698534682496612
5009000000.0 -0.2433622945305385 -1.0145779988493533
5012000000.0 -0.28018604983338363 -0.9919926240396306
5016000000.0 -0.2631146413760989 -1.0408927412974647
5019000000.0 -0.3013402119954598 -0.9940576294940282
5022000000.0 -0.2959497471524223 -1.0085858153451364
5025000000.0 -0.34078375224003826 -1.0810156488484564
5028000000.0 -0.32983638165716456 -1.0069819062751233
5031000000.0 -0.3449952865510848 -0.9835105110247003
5034000000.0 -0.36879160891544316 -1.0017366588350778
5038000000.0 -0.33042546481719104 -0.9387724835771458
5041000000.0 -0.3079617622024703 -0.9649041765197844
5044000000.0 -0.3211909704861454 -1.0000464929012942
5047000000.0 -0.3866997165024097 -0.9928092998280734
5050000000.0 -0.26544353439590673 -0.9734493607252335
5053000000.0 -0.41544195594838196 -1.024173699617114
5056000000.0 -0.3365226924324203 -0.9974556946931254
5059000000.0 -0.341992287560457 -0.9936660077233098
5062000000.0 -0.4126994687512189 -0.9751768724251568
5066000000.0 -0.38043475963105344 -0.9819595271881509
5069000000.0 -0.40579245559820165 -0.971786571026165
5072000000.0 -0.3939310796420662 -0.9443836486123864
5075000000.0 -0.36435288458731585 -0.9618234969764035
5078000000.0 -0.46414536673779 -0.9646480000976043
5081000000.0 -0.44647224179745143 -0.8726591032899468
5084000000.0 -0.4716227284972627 -0.9236242701667179
5088000000.0 -0.39686978120818756 -0.9312007467288455
5091000000.0 -0.518215675493517 -0.8947329262718953
5094000000.0 -0.4746792855975091 -0.9241799930376698
5097000000.0 -0.4302263002621183 -0.9323040160105243
5100000000.0 -0.45749273940527196 -0.8714496096622778
5103000000.0 -0.5043916745723339 -0.9044511300640764
5106000000.0 -0.48521895149542577 -0.9935170622679954
5109000000.0 -0.4499704208669647 -0.9406037073980398
5112000000.0 -0.5220271790549745 -0.8916209424548074
5116000000.0 -0.4760637292114106 -0.8608644109246226
5119000000.0 -0.5664316658219162 -0.8961171064018052
5122000000.0 -0.4917818254806747 -0.8649854746459769
5125000000.0 -0.4966435397254279 -0.9142509774723256
5128000000.0 -0.536138592868475 -0.8613627050699331
5131000000.0 -0.5430016894342359 -0.8988522789680317
5134000000.0 -0.5667153931116367 -0.8926785374430491
5138000000.0 -0.5685178561321557 -0.9019065592069193
5141000000.0 -0.5747293511041922 -0.8953990014062179
5144000000.0 -0.5497670632209692 -0.8730860580406281
5147000000.0 -0.5714383613222664 -0.882868179652
5150000000.0 -0.560222639125065 -0.8749514945126677
5153000000.0 -0.6132684534035004 -0.8325404195236574
5156000000.0 -0.5709978029806297 -0.8597920144256485
5159000000.0 -0.6186722220497436 -0.9074711182338435
5162000000.0 -0.635694059964947 -0.7989778948511415
5166000000.0 -0.6216257843424773 -0.8147779672479324
5169000000.0 -0.65061653928179 -0.825216311391606
5172000000.0 -0.615858889520633 -0.8182453533738598
5175000000.0 -0.6566173338738301 -0.8492759778242015
5178000000.0 -0.6691135287250274 -0.8231833441323622
5181000000.0 -0.6489058952964207 -0.8319571387735739
5184000000.0 -0.6649630520765863 -0.794362039606475
5188000000.0 -0.6492573521153924 -0.7811012256192019
