! Created with skrf 1.8.0 (http://scikit-rf.org).
# Hz S RI R 50.0 
!freq ReS11 ImS11
4000000000.0 0.6554555398935267 0.7604741006639679
4003000000.0 0.7097480156048309 0.7965322874276121
4006000000.0 0.7254996069459346 0.7559318746999021
4009000000.0 0.6857737816508753 0.7950388272979949
4012000000.0 0.6757887527380387 0.817691013351388
4016000000.0 0.7657814398463006 0.7673710650303267
4019000000.0 0.6969508970343925 0.7334547081491178
4022000000.0 0.6910210333501441 0.8318420818002834
4025000000.0 0.7941452169699298 0.7114184696606736
4028000000.0 0.7449168575922569 0.745673831557877
4031000000.0 0.6804433105605692 0.6843168939817844
4034000000.0 0.758061012776246 0.7145139456546632
4038000000.0 0.8017406956091516 0.700070880109804
4041000000.0 0.7439112048852237 0.6965323080608037
4044000000.0 0.7945439850209831 0.736475640615169
4047000000.0 0.7745196976891403 0.7744525065968948
4050000000.0 0.8052806703882172 0.6616114947754103
4053000000.0 0.7687341228504988 0.6569451840992222
4056000000.0 0.7784247576352112 0.6856716137672558
4059000000.0 0.804281564660003 0.6484783710663309
4062000000.0 0.8095239491770748 0.6376955649451426
4066000000.0 0.7418713368487981 0.5998843241769723
4069000000.0 0.8310893722264727 0.6507356606887178
4072000000.0 0.7431414916133813 0.688278949455615
4075000000.0 0.8368655623304635 0.665819842131617
4078000000.0 0.8642867909885398 0.6175491806348933
4081000000.0 0.8393868808288815 0.652871227183612
4084000000.0 0.8320631273760012 0.5844574519636385
4088000000.0 0.79938259809908 0.612362946626157
4091000000.0 0.8903336245961506 0.6195722966495569
4094000000.0 0.7830983131039757 0.5597472862094933
4097000000.0 0.8507654355910393 0.5741456090648385
4100000000.0 0.8912920463345748 0.5892487875547752
4103000000.0 0.8603275132213903 0.6202450736285163
4106000000.0 0.8788888740073516 0.5785319969401436
4109000000.0 0.9026754272175492 0.557233737243376
4112000000.0 0.8517600788648312 0.5476802241188841
4116000000.0 0.8999604591104556 0.5682948293557607
4119000000.0 0.8904356240294236 0.5246324711051186
4122000000.0 0.898349906717008 0.505842402794513
4125000000.0 0.9147653908273706 0.48667054118335057
4128000000.0 0.8604148708995352 0.5309906462869133
4131000000.0 0.9123107806322379 0.5226256199019793
4134000000.0 0.9102526816436517 0.5140265168446325
4138000000.0 0.8979374087006708 0.46337644328569866
4141000000.0 0.8642676734975636 0.4725787039685727
4144000000.0 0.8990667645658305 0.4895865112366434
4147000000.0 0.9292255245434883 0.4411436340933576
4150000000.0 0.9483083376859814 0.4523075267947218
4153000000.0 0.9591796650422235 0.4407727550355577
4156000000.0 0.9427983840111813 0.4689242979038317
4159000000.0 0.9261332912001126 0.4398207211450384
4162000000.0 0.9041980758401362 0.41678344994608674
4166000000.0 0.9616590878797524 0.39780951351309
4169000000.0 0.936351498258941 0.4013994831488813
4172000000.0 0.9730856297708245 0.40210436590083726
4175000000.0 0.9557369223102461 0.4022684194820713
4178000000.0 0.9663194761034891 0.3900221526721963
4181000000.0 0.9531036485193534 0.3677235849589221
4184000000.0 0.966630758177728 0.3743693754964685
4188000000.0 0.974896014856667 0.3527830663415227
4191000000.0 0.9400446541198302 0.3919118710107989
4194000000.0 0.9557034035669348 0.34020902012682763
4197000000.0 0.972174668801636 0.3500743440701873
4200000000.0 0.9859734356928718 0.32757200461362357
4203000000.0 0.9918558285915624 0.328031395310757
4206000000.0 0.9778342442810333 0.323981394843087
4209000000.0 0.9381772403624377 0.3266231980214301
4212000000.0 0.9928818930985911 0.27011419166519224
4216000000.0 0.982521760155939 0.3015589899335875
4219000000.0 0.9883273542229325 0.28707863846490134
4222000000.0 0.9944378042091961 0.27517850574562985
4225000000.0 0.9858947807228069 0.27015552814807986
4228000000.0 1.005700659978435 0.26971930930287236
4231000000.0 1.000026159613385 0.26377778014280034
4234000000.0 0.992751685076555 0.24207779428952514
4238000000.0 0.9848897545982748 0.21908164953387552
4241000000.0 0.9789490201748567 0.2092690518399516
4244000000.0 0.9854841119075077 0.2147287329850452
4247000000.0 0.9984129888150398 0.2089451534526558
4250000000.0 0.9831357183189713 0.18023159689789714
4253000000.0 0.9911824084253436 0.16144318286786824
4256000000.0 1.0246574169038836 0.18933505802172645
4259000000.0 0.9640405132330723 0.16583910133835103
4262000000.0 1.0260520215588271 0.14458716233859467
4266000000.0 1.0275049341156508 0.13610199740100254
4269000000.0 1.0145427140852292 0.14254097437687402
4272000000.0 1.0051293236289836 0.13566563281620103
4275000000.0 1.0177594236342749 0.12744365031395055
4278000000.0 1.0203153800460503 0.12801216771399987
4281000000.0 1.0190342246661623 0.11508459035354059
4284000000.0 1.0163433308640837 0.06226598567296798
4288000000.0 1.010108397871017 0.11972381304558258
4291000000.0 0.9860401382435767 0.07748077695753362
4294000000.0 1.005110908279312 0.05898144662817907
4297000000.0 0.997145066236743 0.09839463449104775
4300000000.0 1.0014505793361406 0.050389574412885225
4303000000.0 1.0280448942991907 0.040539134006026836
4306000000.0 1.0367688758163243 0.07647160713997428
4309000000.0 0.9953415105147476 0.025028071505991248
4312000000.0 1.036106691604332 0.08579474054618555
4316000000.0 1.033133410554412 0.029778075757774122
4319000000.0 0.9932768638019948 0.00927836757697062
4322000000.0 1.017523544873176 -0.027082108020348314
4325000000.0 1.031683651848862 0.004440574495975333
4328000000.0 1.0065394055287495 -0.01448836917947216
4331000000.0 0.9960661709321517 -0.07287411266786498
4334000000.0 1.0095566928606385 -0.05386972671541472
4338000000.0 1.0190584812589307 -0.04208733679737667
4341000000.0 1.0148103927877135 -0.043555579730261404
4344000000.0 1.0478453405018926 -0.037749256834461814
4347000000.0 1.0244086207130094 -0.09455398227519125
4350000000.0 0.9811260104501792 -0.08896723335422708
4353000000.0 0.9840860394679958 -0.07341604031751858
4356000000.0 1.007547909645723 -0.12043204068890323
4359000000.0 0.9579262545447513 -0.11270386989250539
4362000000.0 0.995587448581396 -0.16113623018289672
4366000000.0 1.00471881178098 -0.1294733388068287
4369000000.0 0.9748267786514276 -0.15137171079884756
4372000000.0 0.9876996100633293 -0.16313432762597052
4375000000.0 0.9967490729312489 -0.12724136936439037
4378000000.0 0.9901759318947221 -0.15275272127172543
4381000000.0 0.9773973339764863 -0.15736976021543683
4384000000.0 1.057018729044877 -0.2136427077165934
4388000000.0 0.9893823396410758 -0.1689922181136934
4391000000.0 0.9966810813943168 -0.19826622649421533
4394000000.0 0.956382113226851 -0.1889785896653309
4397000000.0 0.9861302354776906 -0.21460129922861346
4400000000.0 1.0073004930289795 -0.2386253860930219
4403000000.0 0.9802558115165961 -0.23273522220936507
4406000000.0 0.9783793289312898 -0.2686737315813016
4409000000.0 1.0073928097091582 -0.28406820494123985
4412000000.0 0.9565266915507353 -0.3027770812423564
4416000000.0 0.951292184724317 -0.26402946445134323
4419000000.0 0.9791921657002832 -0.2888171868022602
4422000000.0 0.9628688363628981 -0.27130393432895616
4425000000.0 0.9833272692720691 -0.28238040062351283
4428000000.0 0.9647961588968319 -0.3049267507451975
4431000000.0 0.9828417375844518 -0.29990116826847
4434000000.0 0.9422649386259782 -0.314409164725905
4438000000.0 0.9638151910132196 -0.3299669976994083
4441000000.0 0.9623569752751375 -0.33760411295825304
4444000000.0 0.9387074875469339 -0.35083116991403734
4447000000.0 0.9386476413914793 -0.37525982314208406
4450000000.0 0.9352423755226044 -0.3459428867671197
4453000000.0 0.9663142791083608 -0.38050417221965593
4456000000.0 0.9092650665791716 -0.36435120777431435
4459000000.0 0.8926840730849681 -0.3850014065060216
4462000000.0 0.9663873759569697 -0.4179363562781421
4466000000.0 0.9697934802576216 -0.4262517470857846
4469000000.0 0.9478586439051323 -0.4079819758210202
4472000000.0 0.9303110230519319 -0.4456685951932004
4475000000.0 0.8872046328716557 -0.4214247813519003
4478000000.0 0.9383250761331742 -0.45966286906205567
4481000000.0 0.885358518515492 -0.44836583158873594
4484000000.0 0.880225842870866 -0.49739998089430737
4488000000.0 0.8813408803435877 -0.47616037061716154
4491000000.0 0.8893330048357047 -0.4785251744422776
4494000000.0 0.8693691759176495 -0.4647175857026093
4497000000.0 0.8799519757267364 -0.47024590283255224
4500000000.0 0.8935086675441677 -0.4810962120711762
4503000000.0 0.9034061026126239 -0.5150391222640784
4506000000.0 0.8612608816591627 -0.5108284592750277
4509000000.0 0.8488932792768873 -0.5139872646919499
4512000000.0 0.8251818932564664 -0.5198697968831014
4516000000.0 0.8655302198323434 -0.524614390195913
4519000000.0 0.843726056727327 -0.5279440578643696
4522000000.0 0.8669588981382661 -0.5505643729109466
4525000000.0 0.8601712825674297 -0.5109759645042029
4528000000.0 0.8515536317824366 -0.5761741184502321
4531000000.0 0.830673011824095 -0.5513720307563325
4534000000.0 0.8172419789984519 -0.5646148280118153
4538000000.0 0.8198593635691187 -0.5869304223882054
4541000000.0 0.7736646382185708 -0.607015114382627
4544000000.0 0.7913734368599161 -0.5945006187687593
4547000000.0 0.7937837218265663 -0.5909544206593662
4550000000.0 0.783625286670645 -0.6400645208845879
4553000000.0 0.8046243718596982 -0.6345741412880315
4556000000.0 0.7770993213443396 -0.6275102782534918
4559000000.0 0.7755285400245913 -0.663851229554419
4562000000.0 0.7881219283224663 -0.6524779065825373
4566000000.0 0.7681509621523375 -0.6572147065186764
4569000000.0 0.7512303216428788 -0.6519818208020578
4572000000.0 0.7631020033090973 -0.6645244543981855
4575000000.0 0.739902786905718 -0.6984150228952314
4578000000.0 0.7600260379429351 -0.6788827741412876
4581000000.0 0.7273058857832845 -0.7115168631772938
4584000000.0 0.7190732614592701 -0.6762916504786908
4588000000.0 0.7583575811557094 -0.7102384500088439
4591000000.0 0.7341767313061962 -0.7182021065320239
4594000000.0 0.705183932353391 -0.7082283214360846
4597000000.0 0.7020543277580642 -0.7394554755525772
4600000000.0 0.679047340352403 -0.7292419625810465
4603000000.0 0.6783017442945759 -0.7454974391458052
4606000000.0 0.702223819385916 -0.757887442598875
4609000000.0 0.6913404878602273 -0.7283994797940411
4612000000.0 0.6720890479170961 -0.7698198461752216
4616000000.0 0.6700005119623278 -0.7349035456934585
4619000000.0 0.6708596921141442 -0.7636286991494428
4622000000.0 0.6522092105277538 -0.7727056395746041
4625000000.0 0.6158192646464015 -0.7618346908109819
4628000000.0 0.6611078054453532 -0.7783344642229472
4631000000.0 0.6364125629415751 -0.7940501997748187
4634000000.0 0.6303805813404362 -0.7814366851374669
4638000000.0 0.6192387813656186 -0.7937274249798966
4641000000.0 0.6210050053001462 -0.8009777822815934
4644000000.0 0.608007771632423 -0.7932336728386863
4647000000.0 0.5934336025272235 -0.8252954249434648
4650000000.0 0.56883365004353 -0.8164680043948781
4653000000.0 0.6167907912977462 -0.834382840470189
4656000000.0 0.5855287269337771 -0.8209917680735295
4659000000.0 0.5641210970013797 -0.8373215562727668
4662000000.0 0.5854433485795438 -0.8575522985174557
4666000000.0 0.5504121257332342 -0.8457489672839016
4669000000.0 0.5630283467351802 -0.860039664717085
4672000000.0 0.5281937711398011 -0.8837269367752424
4675000000.0 0.5364526609962537 -0.8687816125156742
4678000000.0 0.5159241688101264 -0.86666196675808
4681000000.0 0.5069545724675085 -0.8865404497432946
4684000000.0 0.46935345461155403 -0.8963469069449217
4688000000.0 0.4648660887573728 -0.9081884296620221
4691000000.0 0.5228524409173191 -0.897302741108968
4694000000.0 0.48314076255252936 -0.878760088629434
4697000000.0 0.452250720380689 -0.8401710880384787
4700000000.0 0.4859310239072512 -0.8862775236150231
4703000000.0 0.45515445832239176 -0.8866053190542784
4706000000.0 0.44611567887037357 -0.9194940480737316
4709000000.0 0.41825144455064933 -0.9140046917973634
4712000000.0 0.4349935030725205 -0.9183979398382545
4716000000.0 0.4067391248966019 -0.9387963523148395
4719000000.0 0.45075411284307004 -0.9131600370552408
4722000000.0 0.45555180086669267 -0.9339451489540909
4725000000.0 0.40202263292261886 -0.9214597915978996
4728000000.0 0.3846119690614187 -0.9306456531772964
4731000000.0 0.399022642959295 -0.9803426867245035
4734000000.0 0.39925981330756966 -0.8901966624193187
4738000000.0 0.4101443681097008 -0.976618817967193
4741000000.0 0.36773609209943925 -0.9830183522988025
4744000000.0 0.3434777410379033 -0.9464179066956458
4747000000.0 0.3483010419873387 -0.9024177086588766
4750000000.0 0.3457505280089811 -0.9692883819219034
4753000000.0 0.3507474674189794 -0.9612202144894982
4756000000.0 0.3105087941087479 -0.9741137501552446
4759000000.0 0.3373357788448856 -0.9422505066643189
4762000000.0 0.31641200118473173 -0.9882576513948466
4766000000.0 0.2943491635437869 -0.9843956525998825
4769000000.0 0.2827470433492088 -0.9920367320591416
4772000000.0 0.27030525147152107 -1.006243449290231
4775000000.0 0.24086788989060776 -1.0112407160140469
4778000000.0 0.2590295970315436 -0.9854649305784916
4781000000.0 0.2885842757726127 -0.9887508165535057
4784000000.0 0.2765114877226241 -0.9910434111755476
4788000000.0 0.22534756221071497 -0.9719837663849935
4791000000.0 0.22765869953984086 -0.983820486652479
4794000000.0 0.2681544476832153 -1.0102666222396628
4797000000.0 0.1963246770139272 -0.9778902725936042
4800000000.0 0.20494070285264446 -0.9963860038633543
4803000000.0 0.1666501352571742 -1.0062510543216974
4806000000.0 0.1599443361946799 -1.0054478478357234
4809000000.0 0.13618596981934863 -1.0234056104189058
4812000000.0 0.1176181257144501 -1.0137256918643227
4816000000.0 0.1915754508966095 -0.9818288766641317
4819000000.0 0.17037177726181155 -1.0364252068583986
4822000000.0 0.16412160257627215 -1.0685920327509142
4825000000.0 0.17052020663855882 -1.037124326158577
4828000000.0 0.12079855125111827 -1.0228406285128568
4831000000.0 0.08218283133407189 -1.0530789520429853
4834000000.0 0.12860339875418483 -1.0350106405175874
4838000000.0 0.07528867279573445 -1.0411160540059623
4841000000.0 0.06392711524489039 -1.00876998413263
4844000000.0 0.10954133710433762 -1.0560179263716847
4847000000.0 0.10632227106074355 -0.9928582702664361
4850000000.0 0.04408861426454574 -1.0485428932641818
4853000000.0 0.061599372584570045 -1.0105879394663453
4856000000.0 0.033523308045816776 -1.0100338580275405
4859000000.0 0.02276114082081202 -1.0595252458028335
4862000000.0 0.06192192375561056 -1.011244057306434
4866000000.0 0.00381137566074494 -1.042102486597155
4869000000.0 -0.012602656413090964 -1.0320950777966165
4872000000.0 -0.01352119807710637 -1.0512109239194989
4875000000.0 0.05709456294574192 -1.0461693682859439
4878000000.0 -0.017911358393799162 -1.0366676438901379
4881000000.0 -0.044608308079095875 -1.0961906612556154
4884000000.0 -0.019392644284368807 -1.0557413850299608
4888000000.0 0.01148237717526892 -1.031530710412663
4891000000.0 -0.023439757559690952 -1.0704682674610566
4894000000.0 -0.06983964384005831 -1.0156405518322016
4897000000.0 -0.05958029297245823 -1.03734486309054
4900000000.0 -0.07428387332959183 -1.051617132922589
4903000000.0 -0.04252544180016347 -1.0328095235505055
4906000000.0 -0.11636699861992007 -1.0488237502518276
4909000000.0 -0.12216924029469672 -1.0535863026511323
4912000000.0 -0.14338828185274882 -1.0618428641965114
4916000000.0 -0.12908148696684674 -1.0298862574758996
4919000000.0 -0.1148748233236793 -1.0478377793424212
4922000000.0 -0.09412359953792934 -1.063078429028901
4925000000.0 -0.16212465614035582 -1.0032470693775153
4928000000.0 -0.1061332384758248 -1.023045415494932
4931000000.0 -0.12562140678561345 -1.0382831779952943
4934000000.0 -0.13629280590827797 -0.9349971520923878
4938000000.0 -0.24202139412274992 -1.0161662402408709
4941000000.0 -0.17388606101133303 -0.9947099716948226
4944000000.0 -0.15999158492949175 -0.9439965945749209
4947000000.0 -0.16102893449536207 -0.9937248565026015
4950000000.0 -0.1838273578578874 -1.021969763323538
4953000000.0 -0.24222117247326408 -1.0591403839680247
4956000000.0 -0.21314757904501863 -1.0145658192159583
4959000000.0 -0.2635544058649858 -0.9576016838501752
4962000000.0 -0.26854257131819803 -1.015137785261721
4966000000.0 -0.21305272850922102 -1.0455626898775452
4969000000.0 -0.2402070252666822 -1.032299778320629
4972000000.0 -0.2901378521366821 -0.994582154552438
4975000000.0 -0.24217479287761154 -0.9889425895876949
4978000000.0 -0.26860944510364154 -0.9679760185345654
4981000000.0 -0.31720673277917344 -1.0063456414967829
4984000000.0 -0.25181999091127427 -0.9825407334902572
4988000000.0 -0.27045508310958355 -0.999923042244246
4991000000.0 -0.27018378283275973 -1.0563604648167555
4994000000.0 -0.31448456223792653 -0.9817799602181488
4997000000.0 -0.35022421872740267 -0.9532555548355149
5000000000.0 -0.3394158854492476 -1.0039522164233603
5003000000.0 -0.34768272676285644 -1.0051356802479892
5006000000.0 -0.39980617959501674 -0.9998023113112353
5009000000.0 -0.35226453284257386 -0.9580629262986785
5012000000.0 -0.39400968817856813 -0.9694073336677573
5016000000.0 -0.35581145792266794 -1.0170061601997844
5019000000.0 -0.3638453029559964 -0.9502928001556108
5022000000.0 -0.3912916103559788 -0.9635119616202128
5025000000.0 -0.44393638082250103 -0.9932350098826834
5028000000.0 -0.42003369405060853 -0.9508374340258992
5031000000.0 -0.38682895746317303 -0.9596307190870045
5034000000.0 -0.44380108909290694 -0.9509021449860968
5038000000.0 -0.4470570317868645 -0.8888931170133785
5041000000.0 -0.43488029351311663 -0.9847745491086134
5044000000.0 -0.39954440623699083 -0.9310635448796333
5047000000.0 -0.45110030540344986 -0.9374282194848095
5050000000.0 -0.3740389916227733 -0.9626587650188025
5053000000.0 -0.49104370920110285 -0.9460502714027115
5056000000.0 -0.43150052555069307 -0.8940417040372814
5059000000.0 -0.44468831927934965 -0.9392430719731059
5062000000.0 -0.517926425564901 -0.921951539205148
5066000000.0 -0.44556208048321844 -0.9272637392158047
5069000000.0 -0.523255775622186 -0.9007854892951775
5072000000.0 -0.4749005348096281 -0.8829321706704585
5075000000.0 -0.4656862216383817 -0.905682513631471
5078000000.0 -0.5664059303795257 -0.8574007220174233
5081000000.0 -0.5280139947647331 -0.8516612402209153
5084000000.0 -0.5652483230822128 -0.924494786458607
5088000000.0 -0.5172016453433217 -0.8818209149715435
5091000000.0 -0.5658365016747029 -0.8681642790499102
5094000000.0 -0.5924711592703947 -0.8811224527420664
5097000000.0 -0.5222720554393979 -0.9003918643470088
5100000000.0 -0.5746626390807349 -0.8428957630462356
5103000000.0 -0.6157127969077195 -0.8477512299321154
5106000000.0 -0.6170544946893614 -0.9440079446047323
5109000000.0 -0.5528136313217775 -0.868972560236285
5112000000.0 -0.6138629882272252 -0.8498326414356792
5116000000.0 -0.6112692148030572 -0.8102441875627105
5119000000.0 -0.622566433009095 -0.8500377247126585
5122000000.0 -0.5961527038711868 -0.8190217384142195
5125000000.0 -0.6214360834988563 -0.8139672467413084
5128000000.0 -0.6047537066808071 -0.8345836260970985
5131000000.0 -0.5852629245795752 -0.8395302462347493
5134000000.0 -0.6535203216917073 -0.8123606819880888
5138000000.0 -0.6483062832602303 -0.8652758824923249
5141000000.0 -0.6288508731081446 -0.8127215925992568
5144000000.0 -0.6307858349367048 -0.7912692069390955
5147000000.0 -0.7022210573600615 -0.789174235959583
5150000000.0 -0.6727695346367892 -0.8151424304577741
5153000000.0 -0.7047357912848491 -0.7951162478718502
5156000000.0 -0.6667161030926202 -0.7720288855544127
5159000000.0 -0.7105775927279557 -0.7795425659863057
5162000000.0 -0.7289850452017865 -0.7316105645540666
5166000000.0 -0.7203643019444776 -0.7780793681225016
5169000000.0 -0.7496387962053268 -0.7585769199276283
5172000000.0 -0.6948142355253257 -0.7322114957894241
5175000000.0 -0.7413913073172589 -0.7743050717560358
5178000000.0 -0.7336375057046374 -0.7159952915220222
5181000000.0 -0.735350267923634 -0.7801614267592892
5184000000.0 -0.7515446380201116 -0.7384957226204576
5188000000.0 -0.7729967556046248 -0.7264588180181183
