! Created with skrf 1.8.0 (http://scikit-rf.org).
# Hz S RI R 50.0 
!freq ReS11 ImS11
4000000000.0 0.8349496114899282 0.6640760091823008
4003000000.0 0.8452927500203079 0.6392739004034795
4006000000.0 0.8332625358794732 0.59594498295407
4009000000.0 0.8247146024305658 0.6192980237382748
4012000000.0 0.8170943899983097 0.6343124046799423
4016000000.0 0.8401602499802275 0.5774758193199561
4019000000.0 0.8270406568215878 0.5809143346438548
4022000000.0 0.850406049026804 0.6512218144151084
4025000000.0 0.8776105544758452 0.5755823627371708
4028000000.0 0.8759906884848351 0.5322276645195543
4031000000.0 0.841164219366978 0.5237504852382184
4034000000.0 0.8501721193601263 0.5485364878321314
4038000000.0 0.8913407646796979 0.4794248603105621
4041000000.0 0.8917089780289622 0.5105257680062008
4044000000.0 0.9372626015901123 0.5579214832308484
4047000000.0 0.9032355472517124 0.5677288826127068
4050000000.0 0.9211824718023132 0.47400895573716195
4053000000.0 0.8940374974372399 0.4696513299128205
4056000000.0 0.9005043241244114 0.5023366227234259
4059000000.0 0.8912230530890021 0.4715884974023538
4062000000.0 0.9267309808249355 0.49321828740975965
4066000000.0 0.8884314138861831 0.3958603664081445
4069000000.0 0.9875367657859624 0.42584654192493254
4072000000.0 0.9719120464666865 0.42927956222321545
4075000000.0 0.9496443454966407 0.443809626088473
4078000000.0 0.9396910843081444 0.4462394302313727
4081000000.0 0.91505677548231 0.417230901577307
4084000000.0 0.982424722706558 0.39074859560081415
4088000000.0 0.9554193262339755 0.42299369558964073
4091000000.0 0.9818866775403502 0.4073053010946254
4094000000.0 0.9380269177962128 0.35475022850087556
4097000000.0 0.9538967768883363 0.3680972935475832
4100000000.0 0.9604407623513849 0.32996339490890475
4103000000.0 0.9515981531820974 0.3898522180895431
4106000000.0 0.9657844381438335 0.3425776458775469
4109000000.0 0.9588077048679597 0.326788058180937
4112000000.0 0.98254611235655 0.31271875669100685
4116000000.0 0.9432579350622652 0.31820014511991757
4119000000.0 1.0171003300660004 0.2989938407593622
4122000000.0 0.9790111875777597 0.2530072829273362
4125000000.0 0.9947532854822372 0.26306575156256456
4128000000.0 0.9543159938831347 0.2582973781353194
4131000000.0 0.9730877627942264 0.2667719165784853
4134000000.0 1.0058916625253147 0.28520814508600645
4138000000.0 0.9829215525827646 0.2408524350052284
4141000000.0 0.999671922822025 0.246082571718384
4144000000.0 1.004409505040027 0.24279621097777265
4147000000.0 0.985214158933332 0.2317104663444623
4150000000.0 1.0203879245537715 0.1978895384387715
4153000000.0 1.0069229513043567 0.21257465135254783
4156000000.0 1.0507269958279501 0.20548764921130824
4159000000.0 0.9863282127132516 0.17352334374354778
4162000000.0 1.0002846929269635 0.1493183397209964
4166000000.0 1.0284673255193346 0.14650723428160162
4169000000.0 1.0030479172871893 0.12477330650254792
4172000000.0 1.0137309628152835 0.14385355128714228
4175000000.0 1.0511955994908084 0.1326850785979255
4178000000.0 1.0319295668931086 0.12146101209548349
4181000000.0 1.0094364405483554 0.10040447898513105
4184000000.0 0.9925454272935954 0.10237337694770865
4188000000.0 1.013290529377887 0.0698445358672326
4191000000.0 1.0158008849037783 0.1248419276201509
4194000000.0 1.0218367565265605 0.07448189013631185
4197000000.0 1.0302883003849492 0.07304338769765473
4200000000.0 1.0237450968958441 0.08146822723092967
4203000000.0 1.054459552935328 0.04434523739524998
4206000000.0 1.0387371707423383 0.044177476558760975
4209000000.0 1.004250074492203 0.0176939236394712
4212000000.0 1.023879780955708 -0.01820651055042033
4216000000.0 1.0380817590083158 0.032950421233034266
4219000000.0 1.013413738091601 -0.00586852290759296
4222000000.0 1.003960800001795 -0.018233125986291177
4225000000.0 1.0018421240408208 -0.032057431221166444
4228000000.0 1.0252250435042662 -0.0499356932358595
4231000000.0 1.018285255179603 -0.05048221933125069
4234000000.0 1.0434142727455962 -0.07179758190087121
4238000000.0 1.0166052497044178 -0.07908819279317798
4241000000.0 1.0002760591235476 -0.10141085724047008
4244000000.0 1.002463810008861 -0.09206777309045817
4247000000.0 0.9905980938669419 -0.1030811296314786
4250000000.0 0.9718439566789159 -0.10939174121086907
4253000000.0 0.9727237562322277 -0.13350683904815167
4256000000.0 1.049110427266951 -0.14169117081943639
4259000000.0 0.9622850066590762 -0.1488100066641575
4262000000.0 1.0073594302696545 -0.16502986125652924
4266000000.0 1.0160051900528366 -0.19894603623666676
4269000000.0 1.0008152020441838 -0.1785400991912282
4272000000.0 1.0079482603078218 -0.19103645711736184
4275000000.0 1.0019406008828178 -0.1883980610529334
4278000000.0 1.010039343472593 -0.20608382931047967
4281000000.0 0.9950453109547857 -0.21018289249176925
4284000000.0 1.0039702855636299 -0.27084696565427985
4288000000.0 0.9945150801379312 -0.203703127437987
4291000000.0 0.9515784356393492 -0.25428357077107083
4294000000.0 0.9729351800892836 -0.2780434067718143
4297000000.0 0.9848694637525957 -0.2021218535338724
4300000000.0 0.966680946692952 -0.26881868029496375
4303000000.0 0.9367370349218928 -0.2885798952265098
4306000000.0 0.9646486463389031 -0.28114382474508937
4309000000.0 0.9604595673485399 -0.30471117485587274
4312000000.0 0.9854970060367535 -0.28515225168326896
4316000000.0 0.9736846564810644 -0.31532572385523017
4319000000.0 0.9305342944131418 -0.3143923198888834
4322000000.0 0.9261323435287899 -0.36546014668450766
4325000000.0 0.9522668752650136 -0.33779348087644206
4328000000.0 0.9380015953835803 -0.361175125297972
4331000000.0 0.930519533886805 -0.3931636493514691
4334000000.0 0.9402697365617197 -0.4027317665081478
4338000000.0 0.9296525523984054 -0.3716196112380417
4341000000.0 0.9377664542828272 -0.399920151221951
4344000000.0 0.950339987134747 -0.4023526103154126
4347000000.0 0.9095405149104001 -0.4549769035473793
4350000000.0 0.8963183922584869 -0.4207851009625481
4353000000.0 0.9002217503312786 -0.4226502515365529
4356000000.0 0.8804509148429975 -0.46935475391192116
4359000000.0 0.8667876935333563 -0.45061245824560603
4362000000.0 0.8908274406192886 -0.5244981316902811
4366000000.0 0.9125581314776186 -0.48314725754162274
4369000000.0 0.8458965285725281 -0.49995461985711687
4372000000.0 0.8469672333700085 -0.5260233097707249
4375000000.0 0.876208046305853 -0.47009957039379613
4378000000.0 0.8422808111286889 -0.5137078435976425
4381000000.0 0.8385369472211519 -0.5187126076991921
4384000000.0 0.8979521892273264 -0.5879880226983139
4388000000.0 0.8436622945340626 -0.5325750801879195
4391000000.0 0.8489735472259479 -0.5648571078520246
4394000000.0 0.7975511469111237 -0.5665029917425295
4397000000.0 0.8259254419560569 -0.602100057872764
4400000000.0 0.8379518964828383 -0.6114096258592956
4403000000.0 0.819117572008224 -0.6112783447038092
4406000000.0 0.8128849519977379 -0.6205253533652878
4409000000.0 0.8073414043518363 -0.6404645704396509
4412000000.0 0.7539828748890538 -0.6605177562293334
4416000000.0 0.7794865458669733 -0.63278637213663
4419000000.0 0.7780816354769434 -0.667265893474982
4422000000.0 0.7761031362407389 -0.6530166678063984
4425000000.0 0.7777072629727229 -0.6580153267247135
4428000000.0 0.7659660484453302 -0.6768911293992375
4431000000.0 0.7607873176446456 -0.6841064202468463
4434000000.0 0.7194457121120882 -0.700517930155576
4438000000.0 0.7380683731043516 -0.7055938349007543
4441000000.0 0.7175308392997635 -0.7176538154527701
4444000000.0 0.7027287360154872 -0.7102753352027682
4447000000.0 0.7041930447565137 -0.7388402404707519
4450000000.0 0.6803680941151223 -0.7336200521373323
4453000000.0 0.6816838207189877 -0.7397929355402038
4456000000.0 0.6772768151024691 -0.7378958184069893
4459000000.0 0.6641673854752016 -0.7527056560707744
4462000000.0 0.6894075418112285 -0.8029378840888083
4466000000.0 0.6894807618947555 -0.8204935915885617
4469000000.0 0.661276313414415 -0.7830887148390768
4472000000.0 0.6224979646725789 -0.8102515741432289
4475000000.0 0.6228932562661392 -0.7858734706425508
4478000000.0 0.6169704809270068 -0.8293164831684279
4481000000.0 0.5964234861226583 -0.8056052711706724
4484000000.0 0.5633710848875491 -0.85697507221594
4488000000.0 0.5694617435897572 -0.8408060314468899
4491000000.0 0.5921999711756234 -0.8462932591953681
4494000000.0 0.568169902912354 -0.8213373619770703
4497000000.0 0.5502667721204224 -0.8246358156074319
4500000000.0 0.5331206574319158 -0.8568594748415459
4503000000.0 0.5533919566616075 -0.8755397015710109
4506000000.0 0.5263326495770007 -0.8678262527042655
4509000000.0 0.5139286695652688 -0.8370625592754886
4512000000.0 0.5000534588596541 -0.8740710571618088
4516000000.0 0.5026597204178478 -0.877519879774481
4519000000.0 0.4999820039322912 -0.8758418167536064
4522000000.0 0.4727533523479386 -0.8938832169264054
4525000000.0 0.47913840401945573 -0.8908972458479097
4528000000.0 0.4625071518999812 -0.9352844498632163
4531000000.0 0.44324264041635275 -0.9083087528878984
4534000000.0 0.42395707910214475 -0.9257674694873891
4538000000.0 0.43973230927265816 -0.9384216432221653
4541000000.0 0.3766246310573801 -0.9193320733988717
4544000000.0 0.40302155344541435 -0.9485394193717163
4547000000.0 0.39721149118780685 -0.9600992600731864
4550000000.0 0.3797763244694319 -0.9243541522710135
4553000000.0 0.3404380638873871 -0.9535461238836954
4556000000.0 0.34978441603686283 -0.9549207355783154
4559000000.0 0.34149605623001517 -0.9716455808885296
4562000000.0 0.3389414703588705 -0.9655356315277815
4566000000.0 0.32279419254363256 -0.971017130785603
4569000000.0 0.2885906013018209 -0.9822583476864635
4572000000.0 0.2863387863885976 -0.9627098617593673
4575000000.0 0.2742995453950503 -0.9993360380962901
4578000000.0 0.2797345642882227 -1.0095212113486849
4581000000.0 0.25151851512196544 -0.969515986147069
4584000000.0 0.21517942421038 -1.0009984828924328
4588000000.0 0.22461764134030576 -1.010176985593193
4591000000.0 0.1919083080382602 -0.9985189380889892
4594000000.0 0.19771570063668664 -0.9850217162452967
4597000000.0 0.16588676967164756 -1.016738998347251
4600000000.0 0.17565694436047194 -1.0049925209947463
4603000000.0 0.15334827386320912 -1.0060589594304936
4606000000.0 0.15021542815474662 -1.0496800427431843
4609000000.0 0.15658357768389963 -0.9834577152773963
4612000000.0 0.1166984000112494 -1.0078701514531565
4616000000.0 0.09601790064909357 -1.0042647113993806
4619000000.0 0.0643315239960738 -1.0198529899838074
4622000000.0 0.05262286589682906 -1.0186941706905142
4625000000.0 0.04236325906828238 -1.0394138520999912
4628000000.0 0.06993374281222206 -1.0871385331407255
4631000000.0 0.07153435409109654 -1.0279332819361762
4634000000.0 0.020556010366804517 -1.0271321817937606
4638000000.0 0.01470773093425929 -1.0411253933062006
4641000000.0 -0.009532776190803088 -1.0076805301446867
4644000000.0 0.00572707034246743 -0.9925091521374514
4647000000.0 -0.002074178594796458 -1.0172758223797216
4650000000.0 -0.0333001021794998 -0.9889038141591638
4653000000.0 -0.05515065783479209 -1.0087617582686623
4656000000.0 -0.04845328595914292 -1.035344518348038
4659000000.0 -0.12047687052354594 -1.026243057449823
4662000000.0 -0.08017187700041303 -1.0168935376638784
4666000000.0 -0.15486854034990544 -1.0201326250969331
4669000000.0 -0.11442939762099777 -1.0425876471015543
4672000000.0 -0.180137101605778 -1.0725289531471087
4675000000.0 -0.16607284693070334 -1.0366171680250527
4678000000.0 -0.1477874066573689 -0.9727029590630595
4681000000.0 -0.17839577385769056 -1.0298360917180183
4684000000.0 -0.235001345300217 -1.0437101682600987
4688000000.0 -0.25319392486791886 -0.9786582784165719
4691000000.0 -0.17921963258430687 -1.0577260371727277
4694000000.0 -0.1679212217721677 -0.9794533777382926
4697000000.0 -0.2495546184393883 -0.9390728342679551
4700000000.0 -0.2286239294767404 -0.984492351383935
4703000000.0 -0.16912001602859617 -0.9095669074122095
4706000000.0 -0.3192482115566387 -1.0146579510138174
4709000000.0 -0.3177683294321373 -0.9783402178885561
4712000000.0 -0.29528135564615793 -1.0184290233750586
4716000000.0 -0.3229588280492972 -0.9920097111042017
4719000000.0 -0.2725568609925615 -0.9764366302113298
4722000000.0 -0.3469489416451292 -0.9697343338280489
4725000000.0 -0.33736153919478196 -1.0178070233689582
4728000000.0 -0.3699254026293028 -0.9556903726649049
4731000000.0 -0.39162683670180615 -0.9953671614553661
4734000000.0 -0.3841992439479751 -0.9611938558240891
4738000000.0 -0.34658988798666684 -1.0069048264092268
4741000000.0 -0.5128728769687267 -1.0057224703454792
4744000000.0 -0.44673457765516744 -0.9403231142172314
4747000000.0 -0.4066709445116048 -0.9065873423075854
4750000000.0 -0.45565438900570093 -0.9372580813698653
4753000000.0 -0.4476504414612853 -0.9713383932250653
4756000000.0 -0.5121806012669777 -0.9093799208915636
4759000000.0 -0.4861339912421419 -0.9687734318165956
4762000000.0 -0.5556014918288669 -0.9008818133857502
4766000000.0 -0.5690304346556772 -0.8888404431097465
4769000000.0 -0.5339309033808185 -0.8716488932072122
4772000000.0 -0.5942885668638014 -0.8652190921301034
4775000000.0 -0.6044897011631372 -0.9402395273274279
4778000000.0 -0.6568535067015542 -0.8562388909767303
4781000000.0 -0.6197979821484391 -0.8725018223362867
4784000000.0 -0.6188536712717322 -0.8391243834715528
4788000000.0 -0.6788044918031885 -0.796585342217732
4791000000.0 -0.6448018247874395 -0.8116024292408233
4794000000.0 -0.6157840694713983 -0.8769814384446182
4797000000.0 -0.6626366022607515 -0.782776785707845
4800000000.0 -0.6885019929711066 -0.7658315712746622
4803000000.0 -0.7459133186806381 -0.7381489752971566
4806000000.0 -0.7323154772868246 -0.7632694868342597
4809000000.0 -0.7622781449457272 -0.7255782037747337
4812000000.0 -0.7515358557053928 -0.6917027736822104
4816000000.0 -0.7296157961031431 -0.7140502029484943
4819000000.0 -0.7602665284309091 -0.7611960176851162
4822000000.0 -0.7927910286800326 -0.7558735451766632
4825000000.0 -0.7879863460660743 -0.7255757647776971
4828000000.0 -0.7936427697305842 -0.6558521454898245
4831000000.0 -0.8248970549681656 -0.6735012614950826
4834000000.0 -0.809381454151022 -0.6747779582186747
4838000000.0 -0.8424229910554326 -0.6258991969828522
4841000000.0 -0.8334049588812512 -0.587049940815904
4844000000.0 -0.8456989028287891 -0.6288668798638425
4847000000.0 -0.835974366429792 -0.6047779061511923
4850000000.0 -0.90329306327526 -0.5584567007426957
4853000000.0 -0.8780500519967196 -0.5424587750919909
4856000000.0 -0.8501770529931725 -0.5609716000142076
4859000000.0 -0.9423183779806861 -0.5275145503581937
4862000000.0 -0.882466818862549 -0.534903917676899
4866000000.0 -0.9306725280726265 -0.49404317769597467
4869000000.0 -0.9201575834988022 -0.5226409366196738
4872000000.0 -0.9570220627406608 -0.4862673545020614
4875000000.0 -0.9618421895594537 -0.4947060992410388
4878000000.0 -0.9407210396409641 -0.4387539852852235
4881000000.0 -1.0416509483271161 -0.43284385360892036
4884000000.0 -0.9565693693899611 -0.4220222037469237
4888000000.0 -0.9601427941880063 -0.4051633283784313
4891000000.0 -0.994360348173057 -0.31715713444219895
4894000000.0 -0.9940482196840137 -0.3412081107755183
4897000000.0 -0.9747139202562113 -0.35064725032844274
4900000000.0 -1.0186659305624155 -0.3373812129663048
4903000000.0 -0.9924471607053148 -0.2740702858494923
4906000000.0 -1.0420927290521251 -0.2706644656001752
4909000000.0 -1.0290960357368968 -0.2545404933923179
4912000000.0 -1.0401265587970754 -0.18112839880292936
4916000000.0 -1.0835521136301371 -0.14454552088729727
4919000000.0 -1.0631702896317607 -0.22638416208782186
4922000000.0 -1.020755547741794 -0.16568772521375486
4925000000.0 -1.0251366805358637 -0.0773917480148314
4928000000.0 -1.0295807485274773 -0.12361881338542194
4931000000.0 -1.027491190800271 -0.09797776979938236
4934000000.0 -1.0223152050522772 -0.08060207903257444
4938000000.0 -1.0146264298008736 -0.049012505131164695
4941000000.0 -1.0000136005156963 -0.012667579253417438
4944000000.0 -1.0606357894664233 0.0049141914857413
4947000000.0 -1.0910736775450134 0.023663850399465655
4950000000.0 -1.0298621151420975 0.00955275160361839
4953000000.0 -1.0097115012679412 0.06572456858893988
4956000000.0 -1.0290923774004734 0.09769046038714134
4959000000.0 -1.035400979646937 0.11714282590531118
4962000000.0 -1.0214049262955323 0.12634252497190124
4966000000.0 -1.0482609157801563 0.15807630592450864
4969000000.0 -1.0159240273638566 0.18564014027420286
4972000000.0 -0.9806515139034325 0.20351719474465088
4975000000.0 -1.0095020665710208 0.2654545665551724
4978000000.0 -1.0402553957967806 0.2672839238544492
4981000000.0 -1.0112113685271042 0.3148292409965584
4984000000.0 -1.0142159017308299 0.3367293191958548
4988000000.0 -1.0176963979895532 0.34762705249869086
4991000000.0 -0.9846508793347384 0.3703562928576062
4994000000.0 -0.931408743528306 0.3937078434134287
4997000000.0 -0.9647033562316745 0.41120490795889886
5000000000.0 -0.8912684571360673 0.4543096733409737
5003000000.0 -0.9028508984872836 0.4618643736780508
5006000000.0 -0.8770511915968989 0.46640806486772884
5009000000.0 -0.8547606177223128 0.5771873712009871
5012000000.0 -0.9104747604571337 0.5865433570523173
5016000000.0 -0.8469331224375851 0.5541622149189733
5019000000.0 -0.8868051488078909 0.5587238866769462
5022000000.0 -0.8193596943034939 0.6199977556202678
5025000000.0 -0.780273495262022 0.5755496092855567
5028000000.0 -0.7879573190488881 0.6296517159189714
5031000000.0 -0.8043693311586524 0.7166980480323492
5034000000.0 -0.7917872454401137 0.6932706334608815
5038000000.0 -0.7538434881581269 0.7027189232602993
5041000000.0 -0.6892312646100117 0.7007077086474521
5044000000.0 -0.6891719079653608 0.7194299887326905
5047000000.0 -0.6390721395151595 0.7957990792555996
5050000000.0 -0.6365841918941366 0.8333278564559183
5053000000.0 -0.6001843501841638 0.7880482106539104
5056000000.0 -0.5303916606141983 0.812985132578562
5059000000.0 -0.46661728849167233 0.9237252286780717
5062000000.0 -0.5325051537290376 0.8580162859345318
5066000000.0 -0.466527361001405 0.9861157486517029
5069000000.0 -0.5009847070087017 0.8614019674865676
5072000000.0 -0.5598624988496986 0.9634493625776044
5075000000.0 -0.3786637280963323 0.8857117339756866
5078000000.0 -0.4598752659596094 0.9271057594389819
5081000000.0 -0.32248406863503143 0.9779408714177992
5084000000.0 -0.3017849311126065 0.8942238531743865
5088000000.0 -0.24898387322411952 1.0401228472841741
5091000000.0 -0.2576353392632051 0.9651863718363323
5094000000.0 -0.18576627191259626 0.9432979906322856
5097000000.0 -0.156173987934291 0.9259863476719448
5100000000.0 -0.1370270282252391 1.0149263406139646
5103000000.0 -0.0763614151027491 1.0003211203419826
5106000000.0 -0.026612551312568608 0.9264697201496306
5109000000.0 -0.024751537833082784 1.0157824532421655
5112000000.0 -0.003714752675944876 1.0093361793949234
5116000000.0 0.02989147817310378 1.016063386208649
5119000000.0 0.14721549621826674 0.9931736739272827
5122000000.0 0.16208353922922067 0.9753231297601628
5125000000.0 0.09586552444155083 0.9989554440429587
5128000000.0 0.15530871109541322 0.9916947382607371
5131000000.0 0.23927205173418897 1.0211841748769754
5134000000.0 0.2710015939419075 0.973622727109211
5138000000.0 0.24942636924360453 0.9380081834549491
5141000000.0 0.33035486557888677 0.9828789259158577
5144000000.0 0.39261125373955286 0.9247055829494052
5147000000.0 0.3857903006578812 0.9287213172434137
5150000000.0 0.47595738377190483 0.9427266736704775
5153000000.0 0.47088327636903765 0.9552897198423927
5156000000.0 0.4622673866769805 0.8582096756304932
5159000000.0 0.5053141949148954 0.8378007130525708
5162000000.0 0.5711642921938591 0.8383207705291743
5166000000.0 0.5870423402288939 0.806090774934743
5169000000.0 0.5984889876674401 0.7545103538126604
5172000000.0 0.6507743615064122 0.7900007595341454
5175000000.0 0.6426117421611794 0.7715365843765711
5178000000.0 0.7073769509522776 0.7461879751672388
5181000000.0 0.7232960123154298 0.7197320283440449
5184000000.0 0.7413514857410515 0.6888360348771598
5188000000.0 0.7463360292720775 0.6499771390650628
