! Created with skrf 1.8.0 (http://scikit-rf.org).
# Hz S RI R 50.0 
!freq ReS11 ImS11
4000000000.0 0.6733914251180294 0.793238207827103
4003000000.0 0.7291271019821239 0.8313982256308793
4006000000.0 0.7070647272135099 0.7256215696036625
4009000000.0 0.6877218135329664 0.779318340121998
4012000000.0 0.689872882192113 0.8358779899690006
4016000000.0 0.7594043452286172 0.7359555553216013
4019000000.0 0.7653233466005875 0.7246805198764956
4022000000.0 0.6665926835470314 0.7699003396720198
4025000000.0 0.7912319343125648 0.6460693421838165
4028000000.0 0.7523834154797621 0.6860826638892707
4031000000.0 0.7277131425669344 0.69849533902788
4034000000.0 0.7544065151574576 0.6992660006345246
4038000000.0 0.8270705239166557 0.7089343639870076
4041000000.0 0.7396080146969053 0.6480545626771995
4044000000.0 0.8143771347051127 0.7174132034735492
4047000000.0 0.780790701884028 0.7496817320785272
4050000000.0 0.7991008569746665 0.6582627383694151
4053000000.0 0.8144211242431395 0.6271612187215059
4056000000.0 0.7998722093348252 0.671895615867111
4059000000.0 0.8042120585331503 0.6269324265835001
4062000000.0 0.7993445302321128 0.6269195262931699
4066000000.0 0.7430800753897013 0.5824807448833444
4069000000.0 0.827640757494993 0.6128393366694902
4072000000.0 0.8032280404870569 0.6454239197451443
4075000000.0 0.8372045937683085 0.645448251351495
4078000000.0 0.8425804516559356 0.6256324630314399
4081000000.0 0.8390633898021282 0.6626891338589305
4084000000.0 0.8360899967685996 0.5972160372414639
4088000000.0 0.8262965934671009 0.6171085523347004
4091000000.0 0.9346912732163688 0.6148389347199101
4094000000.0 0.8422651733499862 0.5653923709244711
4097000000.0 0.8647270568135039 0.5873282410979963
4100000000.0 0.8935206403828239 0.5534815682244361
4103000000.0 0.8734648624674342 0.5697805703436445
4106000000.0 0.9244674156727528 0.559188617892649
4109000000.0 0.871794503317987 0.5077060987294946
4112000000.0 0.8663172615664474 0.5322480243438759
4116000000.0 0.8891712691050028 0.5133830892524494
4119000000.0 0.9201030004711049 0.5383983128259178
4122000000.0 0.935247578693364 0.48941492919621976
4125000000.0 0.9201983563188783 0.5205696958402719
4128000000.0 0.8570609490619232 0.5019337064991144
4131000000.0 0.8818833442356335 0.44846289089994507
4134000000.0 0.9067836903205484 0.5127905814922585
4138000000.0 0.8863938929569763 0.45775914997011763
4141000000.0 0.9212535800262803 0.46853179235091114
4144000000.0 0.9129009623952906 0.46575675142335865
4147000000.0 0.9635095114403479 0.44704497320720776
4150000000.0 0.9334842080918762 0.4430194656433361
4153000000.0 0.9374249685596046 0.451944040996363
4156000000.0 0.9406195214526067 0.4516738689159191
4159000000.0 0.9228286971118342 0.42986683741609527
4162000000.0 0.9191649358775669 0.41633353757534153
4166000000.0 0.9397723082960892 0.39970146565198816
4169000000.0 0.9398670130125588 0.3855510248382893
4172000000.0 0.9742482964814488 0.3948028042192215
4175000000.0 0.9868792042529027 0.39253830020157227
4178000000.0 0.962556026329296 0.38075163267228707
4181000000.0 0.9975968625678036 0.3853501808815136
4184000000.0 0.9672420356717985 0.3564754448992508
4188000000.0 0.9366367613405278 0.33890986211859786
4191000000.0 0.9450729146385813 0.37101633254605143
4194000000.0 0.9555838239396948 0.3207651026893472
4197000000.0 0.9726504756889143 0.3291114102098381
4200000000.0 0.9770241804857283 0.3388332247692719
4203000000.0 0.9937617455253955 0.33032601498103675
4206000000.0 0.9707658370027866 0.3110845264742999
4209000000.0 0.9526230840846152 0.2785771674720267
4212000000.0 0.9955822230360186 0.24208764433683172
4216000000.0 0.9867932084676051 0.2996213872867675
4219000000.0 0.9934148448328377 0.2826084360904846
4222000000.0 0.9965514709527215 0.2464193428271541
4225000000.0 0.9672902730298263 0.23620598338562657
4228000000.0 1.0143349740465606 0.24833452926115243
4231000000.0 1.0054692140387365 0.22404324865392639
4234000000.0 1.0055612060453156 0.21180899095258088
4238000000.0 1.0085794503254806 0.1900309156241967
4241000000.0 0.993012776524218 0.18661355803433533
4244000000.0 1.0019228301531422 0.19623661522979685
4247000000.0 0.9971695238345105 0.20565880505739415
4250000000.0 0.9868690487090834 0.16136003758624534
4253000000.0 0.9858234036465701 0.16740735008075558
4256000000.0 1.028774696813789 0.1601155435532587
4259000000.0 0.9864277039242727 0.14169572712503217
4262000000.0 1.0156115184676227 0.10935833759989011
4266000000.0 1.0237965969102236 0.0928031320987786
4269000000.0 0.9910613212819862 0.1439231989645063
4272000000.0 1.015566419706932 0.12053310787565097
4275000000.0 1.024880339427667 0.11601234219415163
4278000000.0 1.0360197168777157 0.08789372767110931
4281000000.0 1.0225632889181993 0.10024672061579819
4284000000.0 1.0290738369537333 0.0473437729770165
4288000000.0 1.0056736811909202 0.10799069449930587
4291000000.0 1.011655506656659 0.05060181406275176
4294000000.0 1.010981393211203 0.034144357731832206
4297000000.0 0.9996326632793178 0.07626955717105792
4300000000.0 1.0049226174030133 0.042566952568221635
4303000000.0 1.0091099901283522 -0.00021164012162182277
4306000000.0 1.028486451415871 0.03750757702090306
4309000000.0 1.0309497174573186 0.016536586933577888
4312000000.0 1.0298666608415874 0.0483761986469638
4316000000.0 1.0435872109941178 0.022892348666315787
4319000000.0 1.0120944188135037 -0.02616123523868931
4322000000.0 0.9940405883545338 -0.046653297871168224
4325000000.0 1.0334270458006827 -0.02975276929480189
4328000000.0 1.0102224168215779 -0.050401517427039015
4331000000.0 0.9889828046151312 -0.06716187928755564
4334000000.0 1.0188548923975596 -0.07737008626355857
4338000000.0 1.0167583130172457 -0.01660240700854701
4341000000.0 1.031338412540034 -0.0621693225927709
4344000000.0 1.0374990742617005 -0.06388848663546182
4347000000.0 1.0263667984223046 -0.1092634279839071
4350000000.0 0.9844786008792558 -0.09815106752428329
4353000000.0 0.9947358083906999 -0.09019708412999844
4356000000.0 0.9872477204486676 -0.13660093722063965
4359000000.0 0.9777511016013285 -0.1357559603446938
4362000000.0 1.0117621713711848 -0.17787398527698156
4366000000.0 1.0334067150965431 -0.15917301089796196
4369000000.0 0.9741877750626342 -0.1490353509843868
4372000000.0 0.9933429625830985 -0.20826463280568752
4375000000.0 1.002511178690014 -0.17181720007838786
4378000000.0 0.9655253815527396 -0.16570703740208864
4381000000.0 0.9859006125841578 -0.17522124088062163
4384000000.0 1.0526114612587472 -0.22970718578293922
4388000000.0 0.9740039069147927 -0.2002838471126202
4391000000.0 1.0028498341077001 -0.226393857356945
4394000000.0 0.9487171992631614 -0.2322165258664917
4397000000.0 0.9691884629372054 -0.24608965444014358
4400000000.0 0.9957864241877521 -0.2509364448372798
4403000000.0 0.9853434768025122 -0.25294145023324077
4406000000.0 0.9746357980898983 -0.28514056909259367
4409000000.0 1.0022260686400222 -0.2921967295465044
4412000000.0 0.9435270225919401 -0.32785604414330477
4416000000.0 0.9532646636788658 -0.29900677883146104
4419000000.0 0.9587314894497901 -0.338194404800965
4422000000.0 0.96138072115175 -0.2939876671055112
4425000000.0 0.9946330038571626 -0.30432895554302153
4428000000.0 0.9565693124324638 -0.3390920331848778
4431000000.0 0.9656436205241585 -0.3390899930006137
4434000000.0 0.9397215871917153 -0.35945901792135615
4438000000.0 0.9743491616987046 -0.3595845619327767
4441000000.0 0.958834266920902 -0.3659959752317288
4444000000.0 0.9256710023365291 -0.3556635476920889
4447000000.0 0.9343344462008427 -0.38886371255323937
4450000000.0 0.9298039747655252 -0.3620286332742455
4453000000.0 0.9512475960639328 -0.4071456099011805
4456000000.0 0.9052832871738594 -0.40118722574166327
4459000000.0 0.8846506502175193 -0.4256767387530557
4462000000.0 0.9789844373565733 -0.45204190971875224
4466000000.0 0.9456560914649945 -0.44213320007598744
4469000000.0 0.9373615609010462 -0.41751915196182543
4472000000.0 0.9230501692537905 -0.4785022105637104
4475000000.0 0.8804789211171115 -0.42899124030771896
4478000000.0 0.945488514720882 -0.5041825677463297
4481000000.0 0.8628298992819814 -0.4733763930475948
4484000000.0 0.8809603080574704 -0.5321463313804587
4488000000.0 0.8748584510938865 -0.48968311129363556
4491000000.0 0.8789634407755829 -0.5138319024237087
4494000000.0 0.860679340886505 -0.47540497160377343
4497000000.0 0.8740231949969297 -0.483938106863841
4500000000.0 0.8644705634996823 -0.5106241751451668
4503000000.0 0.8828228919457866 -0.5365532629926264
4506000000.0 0.8606581790825747 -0.5376082873904804
4509000000.0 0.8357482208597455 -0.5348013692165178
4512000000.0 0.8305865358868966 -0.5644803329389441
4516000000.0 0.8595178441913839 -0.5612978307014654
4519000000.0 0.8257823750366552 -0.5504348951553495
4522000000.0 0.8352197926779799 -0.5755616960524881
4525000000.0 0.8568720435086972 -0.5569724548327806
4528000000.0 0.8482937875769871 -0.6050669201121973
4531000000.0 0.8339678663046287 -0.581114487510801
4534000000.0 0.7870914959712045 -0.6003927897388129
4538000000.0 0.8024117158803565 -0.622561380071203
4541000000.0 0.7734081802016574 -0.6293368098242362
4544000000.0 0.7876713303013085 -0.6287667300946873
4547000000.0 0.7820906674597562 -0.6197429676758395
4550000000.0 0.7904081336538504 -0.6490683397988575
4553000000.0 0.7781489732096867 -0.6657258651228876
4556000000.0 0.7530057067557097 -0.6460478312949577
4559000000.0 0.7576738237367303 -0.6582480064486971
4562000000.0 0.7846378646842531 -0.6808927111185834
4566000000.0 0.7581349180907282 -0.6896686827016731
4569000000.0 0.7321399747466538 -0.6711374629293219
4572000000.0 0.75282966000249 -0.6903218394675357
4575000000.0 0.7154409977898546 -0.6944774235166424
4578000000.0 0.7573154647376927 -0.7030043996390463
4581000000.0 0.7078903574518455 -0.713591133484257
4584000000.0 0.7169701673584559 -0.7176436529134093
4588000000.0 0.7216676054558002 -0.7308854543562404
4591000000.0 0.7165768982932016 -0.7217800227348841
4594000000.0 0.6879764984469163 -0.761201590632128
4597000000.0 0.6912634654846297 -0.750187991942693
4600000000.0 0.6772353296494344 -0.7647235266107406
4603000000.0 0.664520089619636 -0.7598359480553759
4606000000.0 0.6996938618742619 -0.7725374371423273
4609000000.0 0.6604805256281577 -0.7662849329474246
4612000000.0 0.6609059955125566 -0.7862280227723702
4616000000.0 0.633294467105392 -0.770147059674198
4619000000.0 0.6483495090765142 -0.7675349049015596
4622000000.0 0.6271463419960597 -0.8021329389876073
4625000000.0 0.6116092904706055 -0.7945176608185535
4628000000.0 0.627550133420042 -0.8085216298201616
4631000000.0 0.6067591964813552 -0.8012851787521986
4634000000.0 0.5958523058140734 -0.8092895512244446
4638000000.0 0.6050355532585804 -0.8112135048653459
4641000000.0 0.5908248342928658 -0.8217850367929918
4644000000.0 0.5811691738449156 -0.8269672508742962
4647000000.0 0.5806086265067864 -0.8356094862033326
4650000000.0 0.566659263026689 -0.8378443816418394
4653000000.0 0.5873040581536144 -0.8610558459188241
4656000000.0 0.5619469015977667 -0.8432357023932224
4659000000.0 0.533862882291589 -0.860743081188417
4662000000.0 0.531464022428757 -0.8609925304759155
4666000000.0 0.5152571071630974 -0.8840712970457067
4669000000.0 0.511405877793533 -0.8853068430893916
4672000000.0 0.49084133517293577 -0.908462444756205
4675000000.0 0.507434390167536 -0.8919111089343351
4678000000.0 0.5016096059392228 -0.8587039977218641
4681000000.0 0.4798789295040209 -0.9277930259905193
4684000000.0 0.46280566892810643 -0.9264775636095074
4688000000.0 0.43756574409114135 -0.8995790568104687
4691000000.0 0.46512140392617074 -0.9230962493326746
4694000000.0 0.4668122886392626 -0.918184137679747
4697000000.0 0.41942347373077665 -0.8785099283402447
4700000000.0 0.4342830848831155 -0.899075191372094
4703000000.0 0.44588622295974434 -0.8687656730257611
4706000000.0 0.39521541290466083 -0.9363912572549619
4709000000.0 0.38448524972271975 -0.9256266582356943
4712000000.0 0.4088760879791208 -0.9248051321245282
4716000000.0 0.40077164941394827 -0.9464723701259243
4719000000.0 0.43084040189118655 -0.928950877374274
4722000000.0 0.395574105518528 -0.9217350935767739
4725000000.0 0.4046234514222596 -0.9202243510666775
4728000000.0 0.3614206440788409 -0.9445954935727587
4731000000.0 0.4009864100879331 -0.9864617096685333
4734000000.0 0.3707250416887956 -0.9182156735625159
4738000000.0 0.37574230558709537 -0.9891071506650178
4741000000.0 0.3087185339518427 -0.9759603444304218
4744000000.0 0.32533108568852975 -1.0041946173981338
4747000000.0 0.3062740705139912 -0.9571721763454538
4750000000.0 0.3055001817572291 -0.9646919612474198
4753000000.0 0.27460139118676913 -0.9865061273525235
4756000000.0 0.30552048737518 -0.9866060851353835
4759000000.0 0.26310706096986985 -0.995421187563508
4762000000.0 0.26136862098949654 -0.9889356163115465
4766000000.0 0.25177696201449823 -0.9647966925595841
4769000000.0 0.26259105855871984 -1.0085452383687161
4772000000.0 0.2613225918566891 -0.999530909599854
4775000000.0 0.22931967379474283 -1.0355293641330359
4778000000.0 0.25224023234821535 -1.0047324599168543
4781000000.0 0.24441407756990297 -1.0038847621014053
4784000000.0 0.2220601360788572 -0.9954036380055836
4788000000.0 0.17820144337117524 -1.0535665194786061
4791000000.0 0.1757945520820629 -0.9953000859086766
4794000000.0 0.20212874497578676 -1.0379602500297966
4797000000.0 0.18705236788038576 -0.999757591715866
4800000000.0 0.1651022220830361 -1.008926472429285
4803000000.0 0.10756118524489831 -0.9999098296880431
4806000000.0 0.14005192800642124 -1.0363886651833252
4809000000.0 0.0945092330176298 -1.0402081402627714
4812000000.0 0.08374064427279357 -1.0133034402905667
4816000000.0 0.15407993750924912 -0.9936087790648744
4819000000.0 0.11657031756624008 -1.040658894608994
4822000000.0 0.14978044021480244 -1.0672795876205057
4825000000.0 0.12342122607355546 -1.0430577365025289
4828000000.0 0.08243556291609276 -1.0217518273347457
4831000000.0 0.03843747685010131 -1.0584777042868212
4834000000.0 0.11970508093600778 -1.0402784813497536
4838000000.0 0.03802998007151956 -1.0643682292608423
4841000000.0 0.029368923186583254 -1.0050832498179147
4844000000.0 0.09187865014056734 -1.0405843276575615
4847000000.0 0.05498317895784558 -0.9990003328815509
4850000000.0 0.01968444332872247 -1.0526663478564764
4853000000.0 0.04586786887172634 -1.0122390252318696
4856000000.0 -0.0006635756309235075 -1.0184733898965022
4859000000.0 0.006431290494468542 -1.0764286334759436
4862000000.0 0.015548667317122754 -1.026519154255643
4866000000.0 -0.03036926122737741 -1.0562089552532308
4869000000.0 -0.020800918625001743 -1.0284074086947586
4872000000.0 -0.05939546951586964 -1.0534209228797389
4875000000.0 0.030701949907105206 -1.0648404719284135
4878000000.0 -0.06718999818042679 -1.0334677607607072
4881000000.0 -0.07390595496714107 -1.0793319757329627
4884000000.0 -0.06579402828379084 -1.035104101077378
4888000000.0 -0.04157209272522641 -1.0072830539536963
4891000000.0 -0.06292393613600505 -1.0112169911556668
4894000000.0 -0.10573965820739711 -0.9920639100684417
4897000000.0 -0.10056136154791517 -1.014398160219803
4900000000.0 -0.10815287561606775 -1.047095530179365
4903000000.0 -0.09435664280542652 -1.0097075327414513
4906000000.0 -0.11559080974933024 -1.0257774724884328
4909000000.0 -0.15882718073298294 -1.0448599171691146
4912000000.0 -0.1995088846634257 -1.0782528864352727
4916000000.0 -0.13174476517579845 -1.0362693212474932
4919000000.0 -0.14588124950520248 -1.0455343598124132
4922000000.0 -0.13394864308000445 -1.0391228281934073
4925000000.0 -0.23656186722677744 -0.9880084606955659
4928000000.0 -0.12645985176891256 -1.0129179266598196
4931000000.0 -0.1410837748009922 -1.0134824660656625
4934000000.0 -0.16434498502388356 -0.9630083425812744
4938000000.0 -0.26613047987596944 -1.0041391102088435
4941000000.0 -0.22625923247266216 -1.0004166321224337
4944000000.0 -0.20840448410966458 -0.9273918759071551
4947000000.0 -0.2267293860420239 -1.006897200341572
4950000000.0 -0.25763867126517453 -1.0004051873594453
4953000000.0 -0.28162557017280776 -1.0332607990088167
4956000000.0 -0.29558068773789015 -1.0035981528562383
4959000000.0 -0.273768305519152 -0.959312976817873
4962000000.0 -0.30461233673229593 -1.0174327013799684
4966000000.0 -0.2572767027276255 -1.043523060088365
4969000000.0 -0.28470642426743925 -1.0271229213780455
4972000000.0 -0.3055441005429763 -0.9909636157544888
4975000000.0 -0.2667232193124828 -0.9720267604282239
4978000000.0 -0.3237210553837062 -0.9951957487139823
4981000000.0 -0.3540509489433443 -1.0094949787229301
4984000000.0 -0.3353560713746343 -0.9645216599342271
4988000000.0 -0.35313600080455304 -0.9755111831109632
4991000000.0 -0.30927596708723876 -1.021036995205679
4994000000.0 -0.34442975988682034 -1.0007421577489752
4997000000.0 -0.39783573221274954 -0.9572805375483999
5000000000.0 -0.3715634507635186 -1.0074448812743892
5003000000.0 -0.38742419806016876 -1.0082546836566337
5006000000.0 -0.42021091952238365 -1.0134166780331053
5009000000.0 -0.43459392887009296 -0.9631933951252991
5012000000.0 -0.4202015028856116 -0.9451062650609858
5016000000.0 -0.42433791454217734 -0.9738357807159035
5019000000.0 -0.45795129971449977 -0.9222792749705877
5022000000.0 -0.4127497432231191 -0.9326858517897711
5025000000.0 -0.48057727729197103 -0.9806350234975147
5028000000.0 -0.45850116503069516 -0.9346728007624925
5031000000.0 -0.46706985495162745 -0.8868414214086735
5034000000.0 -0.5231000456297424 -0.9153411985753053
5038000000.0 -0.49091662208611786 -0.9185717923610195
5041000000.0 -0.45628794690465846 -0.9369397874304907
5044000000.0 -0.4368732310411968 -0.9203442245314778
5047000000.0 -0.48462637412966997 -0.9345345447485757
5050000000.0 -0.4315707510474873 -0.9405356072701603
5053000000.0 -0.5617867634995718 -0.9520078456798664
5056000000.0 -0.47604344733494064 -0.9201079745478846
5059000000.0 -0.5211975761312224 -0.9345149139396022
5062000000.0 -0.5878218894623592 -0.8458506171197693
5066000000.0 -0.4939796405310818 -0.9132789494089515
5069000000.0 -0.538385697416005 -0.9091621122034425
5072000000.0 -0.535482028286755 -0.8739016845134608
5075000000.0 -0.5367744588761084 -0.8929255818069814
5078000000.0 -0.6238238077574239 -0.8590428178412075
5081000000.0 -0.607993008673439 -0.8355820175595466
5084000000.0 -0.5944055114792726 -0.8685604593128851
5088000000.0 -0.5258923335076474 -0.8557613541681433
5091000000.0 -0.6077757483486146 -0.8219771071478017
5094000000.0 -0.6117853557558787 -0.8460193853389589
5097000000.0 -0.5608621871408318 -0.8650155809493669
5100000000.0 -0.6222318200966412 -0.8253972802408299
5103000000.0 -0.5872697487111804 -0.8284758867105252
5106000000.0 -0.6163046717563315 -0.8773588062553803
5109000000.0 -0.5755996009153644 -0.8577847241683263
5112000000.0 -0.6357475964410645 -0.8217035026303765
5116000000.0 -0.6470838136796856 -0.7603117889684718
5119000000.0 -0.691371329228501 -0.8259836218218193
5122000000.0 -0.6474282725800034 -0.8117182892846615
5125000000.0 -0.6736506111028974 -0.801716887334954
5128000000.0 -0.6731126053466799 -0.786023878622927
5131000000.0 -0.6576385165100078 -0.8100135159032674
5134000000.0 -0.6627318218110387 -0.7788618196832608
5138000000.0 -0.7125555166908113 -0.7873724640742573
5141000000.0 -0.6697319187502595 -0.7981922714499623
5144000000.0 -0.7117337008811288 -0.7781107643337197
5147000000.0 -0.7322537970892395 -0.7902813712790308
5150000000.0 -0.7050695261011816 -0.7846858916969989
5153000000.0 -0.7466858092534796 -0.7612729157272095
5156000000.0 -0.6832524345021496 -0.7755446146591259
5159000000.0 -0.7514914528570983 -0.8079881042497628
5162000000.0 -0.7675200592522567 -0.7182623261734866
5166000000.0 -0.7461328444704008 -0.7054495683870695
5169000000.0 -0.777944440543911 -0.7546490511497718
5172000000.0 -0.7143856765681583 -0.7175923454168509
5175000000.0 -0.7783724091559207 -0.7452589474148015
5178000000.0 -0.7844250631779199 -0.6923901086865747
5181000000.0 -0.8048729971710772 -0.6961859097686983
5184000000.0 -0.7698514290765242 -0.690503026416612
5188000000.0 -0.814012813186945 -0.6725744282267558
