! Created with skrf 1.8.0 (http://scikit-rf.org).
# Hz S RI R 50.0 
!freq ReS11 ImS11
4000000000.0 0.6926157854727562 0.8082884669877286
4003000000.0 0.731673132780359 0.8184070956110804
4006000000.0 0.718474094131106 0.748448255478667
4009000000.0 0.7213392222730642 0.7614661533131372
4012000000.0 0.708765168989967 0.8388414345498473
4016000000.0 0.7330201254295585 0.7848257926573365
4019000000.0 0.7387273690084895 0.7248485648094865
4022000000.0 0.6916943222920124 0.7898541473925654
4025000000.0 0.7752346545392315 0.7158358805904911
4028000000.0 0.7478885753517004 0.7071310428681534
4031000000.0 0.7133900826013853 0.6715208594608546
4034000000.0 0.7535998203624797 0.6873346003897678
4038000000.0 0.7893273207914335 0.672331083522296
4041000000.0 0.7557769035010915 0.681661635833261
4044000000.0 0.8032292252378265 0.7290614511551146
4047000000.0 0.786867180927014 0.6915989048112535
4050000000.0 0.7789655323440577 0.6654228408509874
4053000000.0 0.8014551862872731 0.6401318232650728
4056000000.0 0.7873729047395639 0.6673877008921902
4059000000.0 0.8115051065232508 0.6314865783238948
4062000000.0 0.820606005116555 0.615786026843933
4066000000.0 0.7431348139769189 0.5799682790647939
4069000000.0 0.8564151771745847 0.6153517855234276
4072000000.0 0.7892333508637122 0.6613030775699202
4075000000.0 0.8239130322246608 0.6692875388478086
4078000000.0 0.880288179966956 0.5959816409946818
4081000000.0 0.8364381871998412 0.6583531909049923
4084000000.0 0.8830766011129385 0.5774364148022255
4088000000.0 0.8526736483663259 0.6118342929579246
4091000000.0 0.8878056664217453 0.5789083277760858
4094000000.0 0.8383657116168831 0.5921373037185933
4097000000.0 0.8741162332791738 0.5890372853022106
4100000000.0 0.8772254635994087 0.5738727891386155
4103000000.0 0.9173411941515892 0.5810029354235637
4106000000.0 0.8919210456852282 0.5432871710346577
4109000000.0 0.9083027000308241 0.5109861061390748
4112000000.0 0.9275481279020301 0.5437903339778558
4116000000.0 0.8780508774223212 0.5492280558490295
4119000000.0 0.9372908285247451 0.5150191197178777
4122000000.0 0.9194986992472649 0.5149603618210965
4125000000.0 0.9321384791530314 0.501885100795672
4128000000.0 0.8663515715462263 0.49256163697318844
4131000000.0 0.8873774209650745 0.4782116191092515
4134000000.0 0.8945249097759873 0.48638748079582694
4138000000.0 0.9338194531989357 0.4520612388853153
4141000000.0 0.9205856964944424 0.4747862549201146
4144000000.0 0.8902779442947916 0.46435145474808365
4147000000.0 0.9457068923703422 0.4360751436930434
4150000000.0 0.9866160764821181 0.4504766201047618
4153000000.0 0.927876851046008 0.43745542784926794
4156000000.0 0.9668927650271018 0.4490651695389172
4159000000.0 0.9355185011179008 0.42780450527806974
4162000000.0 0.921086904601151 0.41945045124244085
4166000000.0 0.940766345585937 0.3969508540154032
4169000000.0 0.9312012168947988 0.3637764604104169
4172000000.0 0.9582190965981989 0.41776444077875047
4175000000.0 0.9558561963224633 0.3861146596318861
4178000000.0 0.9571282713837849 0.35647252589605216
4181000000.0 0.9840293722942617 0.3594849488208087
4184000000.0 0.9564678767995047 0.35560369866839886
4188000000.0 0.9507630246881897 0.3472209280620051
4191000000.0 0.9621232239217629 0.35618959933205924
4194000000.0 0.9588356379571751 0.3205107937680405
4197000000.0 0.9952463492048808 0.34860161929383154
4200000000.0 0.9821363036000741 0.3224712177346294
4203000000.0 0.9685040923263036 0.31126680610602364
4206000000.0 0.9963295980044008 0.30377297269046816
4209000000.0 0.988940027328263 0.2816614824620876
4212000000.0 0.9727108400682716 0.25066077700362344
4216000000.0 0.9837390440349364 0.29476880279270484
4219000000.0 1.000044853594042 0.28505381229470417
4222000000.0 1.0093109430072824 0.24582223778305645
4225000000.0 0.9720402839571645 0.2458804968138316
4228000000.0 0.9960050660004298 0.2387583596031209
4231000000.0 1.0002347222849566 0.2227199570381843
4234000000.0 1.0187252859511262 0.23740047072071752
4238000000.0 1.0038007709438062 0.19699711524743466
4241000000.0 0.998207438387281 0.19215536954112933
4244000000.0 1.0074904587395008 0.20777479969556178
4247000000.0 0.9966829177635464 0.19407349348301595
4250000000.0 0.9892819784514602 0.16755122126618927
4253000000.0 0.9820563754605527 0.14147183459107926
4256000000.0 1.0345021288291265 0.15539322720264565
4259000000.0 0.9806586529381487 0.14344472543856798
4262000000.0 1.0080877712850616 0.14194166995927407
4266000000.0 1.0490107551432792 0.12280188998234376
4269000000.0 1.0214915930876227 0.15252462773233436
4272000000.0 1.0012222383514824 0.12281545881612302
4275000000.0 1.0178132995067681 0.10189186699077421
4278000000.0 1.0424371936987251 0.11243668043031876
4281000000.0 1.004123774786083 0.07527452839357866
4284000000.0 0.9995759409316207 0.04203034617271606
4288000000.0 1.0241209904333433 0.10161620211928465
4291000000.0 0.9916593822321418 0.05908221862142564
4294000000.0 1.0183884862082666 0.040187803474696346
4297000000.0 0.9976452547100295 0.06465138501740074
4300000000.0 0.9983535520228664 0.029999014782841886
4303000000.0 1.0139657629698076 0.009822150500570018
4306000000.0 1.0050926162970593 0.0404223438732105
4309000000.0 1.0157284398311444 0.01570358866876216
4312000000.0 1.0468203917233354 0.03927827983172273
4316000000.0 1.029748738225908 0.011799195273280813
4319000000.0 1.0176521171851909 0.021264393424169983
4322000000.0 1.0107479046091383 -0.03745905651553956
4325000000.0 1.0163308886414284 -0.0222850021401213
4328000000.0 1.0000550169843245 -0.018415288779068187
4331000000.0 1.009116066028163 -0.07738724284272647
4334000000.0 1.0270071749053438 -0.07990004189701833
4338000000.0 1.02214750746348 -0.04595364603488987
4341000000.0 1.0239955326306067 -0.04357595935660946
4344000000.0 1.0255577354055547 -0.07733961757643666
4347000000.0 1.014105969135748 -0.1288085530730531
4350000000.0 0.97140709722478 -0.132392931424374
4353000000.0 0.963199445513252 -0.09886293136428682
4356000000.0 1.0026661864740565 -0.13206268113555134
4359000000.0 0.9575523174119505 -0.11780097541221621
4362000000.0 1.0075200515112204 -0.18928121426136468
4366000000.0 1.0113509081375576 -0.1596685435653606
4369000000.0 0.9719703069460234 -0.15102616694856416
4372000000.0 0.9932463705867562 -0.1932741785802879
4375000000.0 0.9830994778720881 -0.1699659719842788
4378000000.0 0.9703015769195574 -0.1793868115985577
4381000000.0 0.9784035278529963 -0.16554515433639794
4384000000.0 1.0352608758462178 -0.22751431886784576
4388000000.0 0.9708413804565783 -0.19762397952562852
4391000000.0 0.999252799535945 -0.2119324583116717
4394000000.0 0.9544065618393078 -0.20933920198068623
4397000000.0 0.980869646060955 -0.2467512084548063
4400000000.0 1.0181870388216516 -0.2453557843960864
4403000000.0 0.9927993781928834 -0.2632524082345604
4406000000.0 0.9773264658103766 -0.27020085700371366
4409000000.0 1.0113557201398877 -0.28691901880631665
4412000000.0 0.9444177061364849 -0.3296203897795281
4416000000.0 0.9547619459872199 -0.29857656577955605
4419000000.0 0.9590748816266675 -0.32057304527749947
4422000000.0 0.962701676676393 -0.29195649651457106
4425000000.0 0.9899741563047161 -0.2918990618375154
4428000000.0 0.9560480655082153 -0.32695967485167354
4431000000.0 0.9893423559502299 -0.32634511450668113
4434000000.0 0.9437684996156094 -0.34521300092162177
4438000000.0 0.9745577853488734 -0.365385828466491
4441000000.0 0.9609335441931017 -0.3689254858493194
4444000000.0 0.9207121905441533 -0.3504822774668958
4447000000.0 0.9276100327652874 -0.3921762932328965
4450000000.0 0.9249314625877901 -0.3664793395479109
4453000000.0 0.963964170092558 -0.39740783912425076
4456000000.0 0.9024755850453126 -0.4114480747619932
4459000000.0 0.8750224396156663 -0.405127316211037
4462000000.0 0.9753219482661541 -0.4489751371969817
4466000000.0 0.9546668342613223 -0.4544063615334498
4469000000.0 0.9280343561504912 -0.42339177953774826
4472000000.0 0.9217782631228407 -0.47535134140091706
4475000000.0 0.8878894540727041 -0.4462267292135812
4478000000.0 0.9442129601200772 -0.48947506571113397
4481000000.0 0.87547536431706 -0.45021092303534177
4484000000.0 0.8749356557721006 -0.5191416944823674
4488000000.0 0.8686019478807989 -0.4856323985240486
4491000000.0 0.8944517886011741 -0.5067218549072694
4494000000.0 0.8703958210779731 -0.47636396011205434
4497000000.0 0.8867880532884296 -0.4914383412557064
4500000000.0 0.8701927350503058 -0.5044481071477505
4503000000.0 0.8889163414380361 -0.5447127693124294
4506000000.0 0.8516456612549681 -0.5201458307630958
4509000000.0 0.8400372753768368 -0.5313931256392187
4512000000.0 0.840869330779031 -0.5527392179936355
4516000000.0 0.8623048479041613 -0.5729881171000889
4519000000.0 0.833755397050517 -0.5397511049346254
4522000000.0 0.8243620617665623 -0.5626090075784228
4525000000.0 0.8697294789084271 -0.5607341631092955
4528000000.0 0.834183154277077 -0.5964218383822169
4531000000.0 0.8156408007173853 -0.5945185800890368
4534000000.0 0.7815020280243495 -0.5898682767450385
4538000000.0 0.8054276260321132 -0.6113890413951822
4541000000.0 0.7476495605654173 -0.6421188640608932
4544000000.0 0.7867855625813698 -0.608084291882112
4547000000.0 0.8014079025524018 -0.615230913609546
4550000000.0 0.8082475120086459 -0.6646500266534676
4553000000.0 0.7900495927828011 -0.6437851531008338
4556000000.0 0.7536387411203396 -0.6472036985631113
4559000000.0 0.7623453800723421 -0.6629460381702419
4562000000.0 0.7772268410624465 -0.6595453301274272
4566000000.0 0.7682219333636817 -0.6809274469026161
4569000000.0 0.7457743366758207 -0.6680075765782256
4572000000.0 0.7400985628369263 -0.6789336016248496
4575000000.0 0.7409590828639436 -0.7026620560481089
4578000000.0 0.7608840054570793 -0.687759779619559
4581000000.0 0.7231908344604433 -0.7192794771740669
4584000000.0 0.707137150636832 -0.7246816806433072
4588000000.0 0.7295127677827937 -0.7070395323602766
4591000000.0 0.7186243599629031 -0.7049682092844962
4594000000.0 0.6794085993900755 -0.7401067088139598
4597000000.0 0.6980080454629229 -0.7478933156383215
4600000000.0 0.671435165516271 -0.7608489695171297
4603000000.0 0.6866711830568416 -0.7557960756502492
4606000000.0 0.6784824448009089 -0.7732854059033547
4609000000.0 0.6819778193912448 -0.7546327800554816
4612000000.0 0.6500259030509082 -0.7862791064023494
4616000000.0 0.6348483936124383 -0.7702782388955619
4619000000.0 0.6409347214387443 -0.77933258232014
4622000000.0 0.640266320786703 -0.8044419700092568
4625000000.0 0.6105304098602029 -0.7964278629352745
4628000000.0 0.6453567683046587 -0.7824644900535641
4631000000.0 0.6052802879017523 -0.8006882397243975
4634000000.0 0.6123269724459065 -0.8036262548206642
4638000000.0 0.5905285585048219 -0.81379246835579
4641000000.0 0.590166054810729 -0.7989884213740055
4644000000.0 0.5943115454122991 -0.8198334925443053
4647000000.0 0.5838840596533583 -0.8156184319361831
4650000000.0 0.5518454222792343 -0.8349986529669654
4653000000.0 0.5949420140125579 -0.842652220826055
4656000000.0 0.5439728211234764 -0.8505016870359117
4659000000.0 0.5448310303569679 -0.8613681943785892
4662000000.0 0.5412534472429607 -0.8830511898889001
4666000000.0 0.5260563231987793 -0.8682836444770452
4669000000.0 0.5247098270828975 -0.8469921189929643
4672000000.0 0.5015227844957619 -0.8970265603782632
4675000000.0 0.5040880243407122 -0.8622279024208309
4678000000.0 0.4749011833607391 -0.8541072402330682
4681000000.0 0.4790679581156726 -0.9020714411427231
4684000000.0 0.4569174139295053 -0.9281399220311167
4688000000.0 0.45415438012246656 -0.9284797641290564
4691000000.0 0.5104954635560647 -0.9113241993716807
4694000000.0 0.4663897411592334 -0.8857320587833053
4697000000.0 0.42140827491306665 -0.8896779580575018
4700000000.0 0.44414228445870185 -0.8837777384534127
4703000000.0 0.4533256315306844 -0.8756547408213213
4706000000.0 0.4196438225047011 -0.9295018434235914
4709000000.0 0.4193399930501929 -0.9367948850601477
4712000000.0 0.4240260723871717 -0.9331943206942229
4716000000.0 0.4049025327918506 -0.9445580787315138
4719000000.0 0.41789048974407883 -0.9275339836892413
4722000000.0 0.4131554971477252 -0.9315745768166948
4725000000.0 0.38723101643696 -0.9311701662500863
4728000000.0 0.3842156466529782 -0.9548750797771173
4731000000.0 0.3969216282848319 -0.9614785077614969
4734000000.0 0.3670233478312201 -0.9212177362772535
4738000000.0 0.41001454680835064 -0.9939015007670713
4741000000.0 0.34460988638227025 -0.9826435355837972
4744000000.0 0.30035836773069313 -0.9467434290475992
4747000000.0 0.3391197195924262 -0.9304814011131399
4750000000.0 0.31645666839666514 -0.9714432765141424
4753000000.0 0.3084147382135666 -0.9736733679955086
4756000000.0 0.29779677431589857 -0.9940730685088388
4759000000.0 0.2909774034809561 -0.9951636348576399
4762000000.0 0.2641181462016123 -1.0207803765989296
4766000000.0 0.2554593750077184 -0.9825593912410012
4769000000.0 0.24243305958819505 -0.9927078081500268
4772000000.0 0.23287470584028608 -1.0333852212606607
4775000000.0 0.23051177932833267 -1.0454384070442182
4778000000.0 0.2444748060839624 -1.014102476172746
4781000000.0 0.25430209532290393 -0.9877219003101976
4784000000.0 0.22093134400258113 -0.9898115548713761
4788000000.0 0.18275423983159275 -1.003497106729901
4791000000.0 0.18942630214601505 -0.9694344457590988
4794000000.0 0.23264891221484382 -1.0388205212450075
4797000000.0 0.18120010561926508 -0.9676315474827318
4800000000.0 0.1580806178874934 -0.9938667345973813
4803000000.0 0.1216523308125131 -1.0039667244548103
4806000000.0 0.14908424048624241 -1.0144068355592917
4809000000.0 0.07964812206727183 -1.0223131896436264
4812000000.0 0.10791669740010588 -1.032955880374976
4816000000.0 0.15531476375418987 -0.9847471735401796
4819000000.0 0.14044872683120618 -1.0391884237672735
4822000000.0 0.13444035773211274 -1.0567657595161257
4825000000.0 0.1470212615184645 -1.0482417958535517
4828000000.0 0.09338560266712294 -1.0347419107435547
4831000000.0 0.03413123458307675 -1.0495232087774329
4834000000.0 0.09898704883759156 -1.0273645234322555
4838000000.0 0.020689052195364127 -1.051360602726602
4841000000.0 0.048558629690951746 -1.0141902837102106
4844000000.0 0.07704237703346824 -1.0269451655474713
4847000000.0 0.07014895417483026 -1.0004654646986058
4850000000.0 0.04069879575102349 -1.044728886273963
4853000000.0 0.02198381765903054 -0.9925981165003153
4856000000.0 0.016596569479752278 -1.0142047957572502
4859000000.0 0.0028408436191379102 -1.0848383629489549
4862000000.0 0.03477231995550578 -1.0184198897536392
4866000000.0 -0.039240492418090835 -1.0371546898163775
4869000000.0 -0.028219786838430006 -1.0268892541924897
4872000000.0 -0.05065367318399682 -1.0677796049755317
4875000000.0 0.022622028433012503 -1.0701143160298772
4878000000.0 -0.041792743385189575 -1.0334474795512016
4881000000.0 -0.08301139110993087 -1.0758088756438426
4884000000.0 -0.05216220516649976 -1.0258760723700737
4888000000.0 -0.027181194169172487 -1.0627321901603193
4891000000.0 -0.065629799109501 -1.056059810389822
4894000000.0 -0.10110270019824111 -1.0263601377341873
4897000000.0 -0.07044587467873767 -1.0085947233179187
4900000000.0 -0.10424104626874447 -1.0547752413105758
4903000000.0 -0.09591174017865445 -1.0321533306263242
4906000000.0 -0.15280409836987724 -1.0683906233423628
4909000000.0 -0.14514751344990717 -1.0234223188329779
4912000000.0 -0.15548006130822467 -1.0797340702066323
4916000000.0 -0.12170048575554418 -1.0906613154725509
4919000000.0 -0.13542182028978778 -1.0570393943101948
4922000000.0 -0.15500933874056724 -1.0429492890289929
4925000000.0 -0.18135097089170008 -1.0230665983469371
4928000000.0 -0.12119369472217499 -1.0391387040321576
4931000000.0 -0.14756546935623782 -1.0339665849073394
4934000000.0 -0.17208095442945054 -0.9796055243947605
4938000000.0 -0.2590570812023448 -0.9979522851732232
4941000000.0 -0.2024851733490297 -0.9916186883846728
4944000000.0 -0.16576625352436483 -0.9546964362973256
4947000000.0 -0.2471635108267254 -0.9850985657786758
4950000000.0 -0.21448696878645607 -0.9727147633564664
4953000000.0 -0.29631357783863893 -1.0151316193688444
4956000000.0 -0.279019695339382 -0.9974623113802054
4959000000.0 -0.2926260752843751 -0.9745499273127993
4962000000.0 -0.27342837490143845 -1.0202987982444554
4966000000.0 -0.26744858235296703 -1.0425657909739703
4969000000.0 -0.28316105924783413 -1.0563639354065895
4972000000.0 -0.32434991545688363 -1.0170970023627166
4975000000.0 -0.28845852572742636 -0.9939591417489284
4978000000.0 -0.3402322758296388 -0.9973290469533098
4981000000.0 -0.36141209965722265 -0.995824743260421
4984000000.0 -0.30073672747543356 -0.935956020092739
4988000000.0 -0.32653896297337165 -0.9914761833716232
4991000000.0 -0.2903677653988785 -0.9929966401029707
4994000000.0 -0.3163957878139867 -0.9560949089649107
4997000000.0 -0.3993089127379192 -0.9458148904913928
5000000000.0 -0.36762414221486106 -0.9799820781617483
5003000000.0 -0.36825530757751407 -0.9945398862934768
5006000000.0 -0.41786314303986016 -1.0071280606329334
5009000000.0 -0.37112116036701837 -0.9322036278577762
5012000000.0 -0.4000390928025755 -0.98699215623435
5016000000.0 -0.38524398752635486 -1.0017558259917274
5019000000.0 -0.45720628515442074 -0.905206904006152
5022000000.0 -0.4458052865590092 -0.9554747910052093
5025000000.0 -0.48378934620259056 -0.9902797326135071
5028000000.0 -0.4650894880380755 -0.9310282321287997
5031000000.0 -0.4633560318112684 -0.9193936704420668
5034000000.0 -0.4864893920912001 -0.9350666062667272
5038000000.0 -0.48216673534116594 -0.9041282807122386
5041000000.0 -0.4470945061697911 -0.9376009884841957
5044000000.0 -0.4484988158544745 -0.9218177801531847
5047000000.0 -0.5008308659403258 -0.9467972410308293
5050000000.0 -0.4031818989958138 -0.9404401891645313
5053000000.0 -0.5372837936134479 -0.9520793947673183
5056000000.0 -0.4925541966670024 -0.8978680393683705
5059000000.0 -0.44778624355886626 -0.9072311106007122
5062000000.0 -0.573831249115689 -0.895210111217617
5066000000.0 -0.48949534512396486 -0.9323798827720753
5069000000.0 -0.5288488942896485 -0.8989749994949224
5072000000.0 -0.5417105517245906 -0.8679141493840827
5075000000.0 -0.49625801974414563 -0.8938852723946187
5078000000.0 -0.6288446974014903 -0.8735206419658095
5081000000.0 -0.5826002461860509 -0.8278698277016096
5084000000.0 -0.5910629109860069 -0.8893530894324453
5088000000.0 -0.6005239463644153 -0.886473431971915
5091000000.0 -0.6188411342380347 -0.8121609261334743
5094000000.0 -0.6128396127443997 -0.8905884116888722
5097000000.0 -0.5542271987811416 -0.848047861572262
5100000000.0 -0.6133753836992101 -0.8626997277260718
5103000000.0 -0.6435321522794614 -0.8087655378737609
5106000000.0 -0.6116804205743465 -0.8532768646423592
5109000000.0 -0.5723120483877043 -0.9101722782001722
5112000000.0 -0.6446782538396745 -0.8169206065299015
5116000000.0 -0.6514263361636977 -0.7952982040225576
5119000000.0 -0.6434965182445215 -0.7659278746431932
5122000000.0 -0.6938550294035178 -0.815434452511115
5125000000.0 -0.6386293056259039 -0.8448790689175139
5128000000.0 -0.6686075652557272 -0.7578194939881979
5131000000.0 -0.6847128347503998 -0.7782849833861393
5134000000.0 -0.6721579065501091 -0.8044859913634855
5138000000.0 -0.6764145268407449 -0.7960372215655784
5141000000.0 -0.6316120789521067 -0.8399845482248713
5144000000.0 -0.6794566001492605 -0.8145211346106676
5147000000.0 -0.7046167121775079 -0.7546263434284842
5150000000.0 -0.7397472859808312 -0.8255215568627876
5153000000.0 -0.7213084181049136 -0.7704849013358813
5156000000.0 -0.7040813427871432 -0.7667924669579741
5159000000.0 -0.7704111958015636 -0.8056380584191276
5162000000.0 -0.7592969445768554 -0.7381391265605282
5166000000.0 -0.7439254324011828 -0.7338173206975594
5169000000.0 -0.7371388590037076 -0.7399980143526926
5172000000.0 -0.7434929120702196 -0.7242965927527274
5175000000.0 -0.7669097566722193 -0.7415023099809672
5178000000.0 -0.7225707418456497 -0.7066712637781386
5181000000.0 -0.785420069884948 -0.724077043983137
5184000000.0 -0.7482163399996359 -0.6853515333415646
5188000000.0 -0.7424425101520653 -0.668097160214376
