! Created with skrf 1.8.0 (http://scikit-rf.org).
# Hz S RI R 50.0 
!freq ReS11 ImS11
4000000000.0 0.62771038283882 0.7964645759889599
4003000000.0 0.7216668327771323 0.8841709552777989
4006000000.0 0.7000005846138627 0.8137459882259944
4009000000.0 0.6741734466743221 0.8013480650461102
4012000000.0 0.6362198673739604 0.8437630252583882
4016000000.0 0.7558487701845747 0.8313668588714744
4019000000.0 0.7133141427943466 0.8075826499408109
4022000000.0 0.6838309005308159 0.8464925391272896
4025000000.0 0.7311002416705573 0.7374562559719786
4028000000.0 0.7533997845889423 0.7379764786453127
4031000000.0 0.6649507697155398 0.7540670186236569
4034000000.0 0.7404385834895048 0.7287374750758201
4038000000.0 0.7532149095683359 0.7404989665313634
4041000000.0 0.7464906542535997 0.7554217437805624
4044000000.0 0.8202162534026902 0.8064718243347738
4047000000.0 0.7852516994591716 0.784883195743317
4050000000.0 0.7776711744445938 0.753357873657327
4053000000.0 0.7631852787913421 0.6865191011374858
4056000000.0 0.7685035974742697 0.6844685431263116
4059000000.0 0.7228009060291084 0.6855681048314675
4062000000.0 0.7692949350211301 0.6668574213490932
4066000000.0 0.7290870448511029 0.6324635344990736
4069000000.0 0.8574361374171726 0.688212235362945
4072000000.0 0.7928534564501852 0.7115400726479182
4075000000.0 0.8195382690424086 0.7019703937572277
4078000000.0 0.8102054605782176 0.6855994163496252
4081000000.0 0.8094400957524318 0.7538135154370218
4084000000.0 0.8298806960067662 0.6449719023547367
4088000000.0 0.8075324788790464 0.6879282312724286
4091000000.0 0.8552765831928039 0.6719525985523318
4094000000.0 0.8128236934502 0.667385296265091
4097000000.0 0.862175050953309 0.6755579657773854
4100000000.0 0.8381894935751815 0.641862110903374
4103000000.0 0.8531944387233179 0.6594950447611811
4106000000.0 0.8822182474191494 0.601193385824578
4109000000.0 0.8806447141271752 0.5841459305412275
4112000000.0 0.8619103790908791 0.6024038242557979
4116000000.0 0.82043885457072 0.6441537546575514
4119000000.0 0.9017373975343751 0.5673615719574095
4122000000.0 0.9139234899719773 0.5423724116784095
4125000000.0 0.9232307609892303 0.5738418387749269
4128000000.0 0.8115282785265769 0.5493884056562234
4131000000.0 0.8607542448767146 0.5879017986186779
4134000000.0 0.9037622442276884 0.5801907809338234
4138000000.0 0.9416231744706374 0.5013915010673073
4141000000.0 0.9101587932335141 0.5001596283437556
4144000000.0 0.9254382576242342 0.5684420506050973
4147000000.0 0.8893104987357993 0.5063269704939706
4150000000.0 0.9256278542934794 0.5172784742379763
4153000000.0 0.9153671745181045 0.4916922681518532
4156000000.0 0.9364171328404871 0.5436970780418914
4159000000.0 0.935968276362311 0.5055845125176177
4162000000.0 0.9228392517039217 0.4866296888768251
4166000000.0 0.9335248003441834 0.48124440278811176
4169000000.0 0.9341868225322864 0.4291044153897059
4172000000.0 0.9529581842584551 0.45957349620393645
4175000000.0 0.9314421449314255 0.48379482959772574
4178000000.0 0.9592657572743083 0.46525423333923455
4181000000.0 0.9687499287464025 0.43469318017611636
4184000000.0 0.94673822480754 0.4467884235186928
4188000000.0 0.9444962860898951 0.41916438370067455
4191000000.0 0.9333987330405744 0.40594514028882484
4194000000.0 0.9622363765863757 0.38825136255546056
4197000000.0 0.9719069490514182 0.40900245240872074
4200000000.0 0.9734559029343879 0.40086078797473534
4203000000.0 0.9728028112468733 0.39584212555993126
4206000000.0 0.9923993813654772 0.3877243844530996
4209000000.0 0.936033904829881 0.38874120488892244
4212000000.0 0.9693083564307389 0.3423029022698739
4216000000.0 0.9855325547937724 0.3523520248339059
4219000000.0 0.9911243480899401 0.3465659246881029
4222000000.0 0.9952054247602116 0.329947054365386
4225000000.0 0.9752529086406834 0.3440600250264013
4228000000.0 0.9855419467761015 0.32932400329852574
4231000000.0 0.9747660948709043 0.3080326449813786
4234000000.0 0.976385346606554 0.2983781571833309
4238000000.0 0.9897019546100925 0.26374256841981947
4241000000.0 0.9850638801113145 0.28603281170064887
4244000000.0 0.9929161175368816 0.2687752572272625
4247000000.0 0.9967755779541272 0.2687408721210463
4250000000.0 0.9905332780356255 0.23298447951816015
4253000000.0 0.9789692420308926 0.22578363663483225
4256000000.0 1.0241277755201388 0.2321147683996166
4259000000.0 0.9863503803712993 0.21731600250622043
4262000000.0 0.9968226491017773 0.21603739824094467
4266000000.0 1.0239361730643912 0.18428899251652126
4269000000.0 1.0138477259711969 0.2276274728740689
4272000000.0 1.0121613993438694 0.20783821910776024
4275000000.0 1.0290873146714188 0.21158865503808455
4278000000.0 1.0286240379305012 0.2032029449860867
4281000000.0 1.012192780330539 0.19252813191429657
4284000000.0 1.0377603266251563 0.12754144070067838
4288000000.0 1.0155095126645322 0.16878115750831335
4291000000.0 1.0007154548614992 0.1372777723859252
4294000000.0 1.0008554823267302 0.1509298367395125
4297000000.0 0.9968934026234834 0.14740878720168588
4300000000.0 0.993629260003968 0.1321980127756474
4303000000.0 1.034541012464538 0.09218039743325838
4306000000.0 1.0235062228240308 0.12881336778294272
4309000000.0 1.0263822530413782 0.11508628052985535
4312000000.0 1.032267433499621 0.12294222364344398
4316000000.0 1.0281096962931908 0.11815481494184112
4319000000.0 1.037153005323952 0.07192566913285352
4322000000.0 1.0145869387725386 0.024925308014849254
4325000000.0 1.0078284655573273 0.03638284128496007
4328000000.0 1.0256999851858923 0.0479350916688155
4331000000.0 1.0262434561277174 0.006876187728254213
4334000000.0 1.0629674672881313 0.05128303164457987
4338000000.0 1.0192941799750344 0.06051187718406602
4341000000.0 1.0391080327878384 0.04438060940542021
4344000000.0 1.0563677989166487 0.0225800825189561
4347000000.0 1.044432502948694 -0.02316121524441586
4350000000.0 0.9799037791195983 -0.02766634007103974
4353000000.0 1.013270803942401 -0.00555159623950599
4356000000.0 1.009089606635702 -0.04822757126141064
4359000000.0 0.9787058524206204 -0.0312484373022823
4362000000.0 1.0185562865473705 -0.09887636488612911
4366000000.0 1.0474497919649113 -0.06709460432777548
4369000000.0 0.9861768231430839 -0.08021907048839935
4372000000.0 0.9898898315001605 -0.13066925218820136
4375000000.0 1.013617244846569 -0.0774331044983746
4378000000.0 0.9930836892489886 -0.08282467206447076
4381000000.0 0.9935627060473808 -0.10912570719455522
4384000000.0 1.0690102757185742 -0.1408085725200982
4388000000.0 1.0106358612809687 -0.10207912019224
4391000000.0 1.0292162848951125 -0.12678913728019173
4394000000.0 0.9829293325901194 -0.14933918123730477
4397000000.0 0.9931285118465016 -0.15286364810134967
4400000000.0 1.0365373888988998 -0.15817733597279465
4403000000.0 1.0199717149598606 -0.15937824964035216
4406000000.0 1.003960755958876 -0.1864090426453259
4409000000.0 1.0283274099126194 -0.1826510548728355
4412000000.0 0.982583120859618 -0.24470988339054303
4416000000.0 0.9810205366739775 -0.20820249524073403
4419000000.0 0.9865885689608183 -0.23424760115275786
4422000000.0 0.9892970332940065 -0.19733234368428082
4425000000.0 1.016334880063525 -0.20347429013845786
4428000000.0 0.9875268526747403 -0.24721400699984572
4431000000.0 1.009287434021113 -0.24649256181385637
4434000000.0 0.9859936841216983 -0.2556437566188572
4438000000.0 1.002306174260922 -0.2675079916819109
4441000000.0 1.0018395025519649 -0.2602315776800682
4444000000.0 0.9617077863343475 -0.26879391623749443
4447000000.0 0.961653202117644 -0.2913177146582593
4450000000.0 0.9770358612392244 -0.28222365756601187
4453000000.0 1.006999087589921 -0.3058244953169016
4456000000.0 0.93812541483254 -0.31177780922466447
4459000000.0 0.9113600154793271 -0.32675232287808254
4462000000.0 1.0049454230184325 -0.3509631661850139
4466000000.0 1.0110525360856106 -0.36603897870402796
4469000000.0 0.9624821914156377 -0.3205081289119125
4472000000.0 0.9643879147590982 -0.38468976620868545
4475000000.0 0.9240875421364733 -0.3556616848502583
4478000000.0 0.982435945154474 -0.39188780944521406
4481000000.0 0.9161260995331705 -0.3762870569389079
4484000000.0 0.9096528216094877 -0.4316963083703579
4488000000.0 0.9324801415195524 -0.41677078968444353
4491000000.0 0.9396091702692431 -0.4141806908084349
4494000000.0 0.9244781890549346 -0.4028547083123115
4497000000.0 0.9101414491859026 -0.4094914483607087
4500000000.0 0.9373580328893709 -0.41852610174572275
4503000000.0 0.9439610595721337 -0.42644817630765125
4506000000.0 0.8966299263901318 -0.4591611442368616
4509000000.0 0.880920802966435 -0.4307869732441494
4512000000.0 0.9047393313748087 -0.47418172999392183
4516000000.0 0.9286763981145272 -0.45958712706609534
4519000000.0 0.8858462653374298 -0.4599737495136228
4522000000.0 0.8859905495129288 -0.4954333758632908
4525000000.0 0.9007622910252722 -0.4609540046126956
4528000000.0 0.9162471751546588 -0.5266953034031844
4531000000.0 0.9051787930931823 -0.4903317469010753
4534000000.0 0.8697025123861124 -0.5197206607493495
4538000000.0 0.8655896024394096 -0.5279991513869279
4541000000.0 0.8404234543594934 -0.5671970259102956
4544000000.0 0.841059943481292 -0.5284989446164893
4547000000.0 0.8475612884719306 -0.5140998560020404
4550000000.0 0.8517480290135067 -0.5693288548303297
4553000000.0 0.8408429928816137 -0.5885676189427125
4556000000.0 0.8059688783136227 -0.5744999934796594
4559000000.0 0.8360273213697457 -0.5972577608072929
4562000000.0 0.8453747617903467 -0.5816309818799502
4566000000.0 0.8212062305566619 -0.6108704862819627
4569000000.0 0.814590061424212 -0.5960408496372152
4572000000.0 0.8192477284425081 -0.6053599656731005
4575000000.0 0.8056178669003713 -0.6392438890255467
4578000000.0 0.8285407981187156 -0.6130441973447829
4581000000.0 0.7989948714675849 -0.6458798786076523
4584000000.0 0.7964932591550371 -0.62889770775653
4588000000.0 0.8243022622205498 -0.6554704537255392
4591000000.0 0.7777129532188284 -0.6354742711528695
4594000000.0 0.784030201393411 -0.6586476413756618
4597000000.0 0.7738076347100935 -0.6726023374343785
4600000000.0 0.7621557413158816 -0.6729331257201047
4603000000.0 0.7560562073655502 -0.6949310260324785
4606000000.0 0.7732233760443676 -0.6753677884380728
4609000000.0 0.7487634101036427 -0.696944028513089
4612000000.0 0.7430371527732851 -0.7178501186251063
4616000000.0 0.7318381737544573 -0.6953634721413482
4619000000.0 0.7307639738292963 -0.702069102759187
4622000000.0 0.733631142138551 -0.7205716924257871
4625000000.0 0.693702166034611 -0.724253009655529
4628000000.0 0.7193040854458964 -0.6997030891287919
4631000000.0 0.680454284697996 -0.7460825585306643
4634000000.0 0.6821747646336985 -0.7492656870605826
4638000000.0 0.7046516833989954 -0.7615174819552422
4641000000.0 0.6930215960542306 -0.7542962731331017
4644000000.0 0.6916519902432715 -0.771955420523732
4647000000.0 0.6982880542201743 -0.754010288659122
4650000000.0 0.638460079589009 -0.7812706831472284
4653000000.0 0.6783310906510412 -0.7883688423148081
4656000000.0 0.6411967704700392 -0.796635804627708
4659000000.0 0.6311558980251178 -0.808184288138932
4662000000.0 0.6378955964960165 -0.7946394060543313
4666000000.0 0.6253498874415274 -0.8204140966730645
4669000000.0 0.6193456874100527 -0.8152919681238634
4672000000.0 0.61741609907514 -0.8511384602589475
4675000000.0 0.5755783624489048 -0.8126688628886338
4678000000.0 0.5995580159061502 -0.816139114875021
4681000000.0 0.5934936186460389 -0.8668937797290659
4684000000.0 0.5710428010841662 -0.8814493037958783
4688000000.0 0.562595095987332 -0.8512151366045887
4691000000.0 0.5868407142880978 -0.8539803153672236
4694000000.0 0.5436956203013071 -0.8206991004736948
4697000000.0 0.5004483145386188 -0.8416527278918444
4700000000.0 0.5688185178632892 -0.8704328013794067
4703000000.0 0.5585399376348723 -0.8140553398229047
4706000000.0 0.5141195401282772 -0.8664249989536514
4709000000.0 0.5242506046601902 -0.8835703497077428
4712000000.0 0.5128980609414386 -0.8801848300230123
4716000000.0 0.5179230817288742 -0.8852387257950891
4719000000.0 0.5264676524488897 -0.8563774485239353
4722000000.0 0.5150952310207745 -0.8723643280409266
4725000000.0 0.4995885034117523 -0.9040884305936118
4728000000.0 0.48461291690946084 -0.925357870316329
4731000000.0 0.4979592645426167 -0.916584300869483
4734000000.0 0.46110340762629043 -0.909680171438197
4738000000.0 0.5080852660517657 -0.9635090345205771
4741000000.0 0.5035998047560805 -0.9406211850999749
4744000000.0 0.44593550175753105 -0.9486413626645402
4747000000.0 0.454789460823521 -0.9044548077791076
4750000000.0 0.4373046541915316 -0.9226091566026815
4753000000.0 0.4399571889542566 -0.9316637517998209
4756000000.0 0.44273153574029506 -0.937351226972958
4759000000.0 0.42199851314067144 -0.9445935708510202
4762000000.0 0.38478707298030895 -0.9747327714517121
4766000000.0 0.38108553300307313 -0.9311080507106829
4769000000.0 0.38333114627487963 -0.9538951689533773
4772000000.0 0.381615277397143 -0.9698148685170574
4775000000.0 0.362992118097491 -1.024788917795283
4778000000.0 0.36617773758553157 -0.9943908432621417
4781000000.0 0.33881242435406655 -0.9474479339518569
4784000000.0 0.3487503665434151 -0.9725879734392481
4788000000.0 0.33550765761290785 -0.9988499878816328
4791000000.0 0.31715406388157225 -0.9740325724179998
4794000000.0 0.3624961536126252 -0.9841445154340978
4797000000.0 0.30617959393351946 -0.9929316906705755
4800000000.0 0.28222870836231106 -0.98439165002085
4803000000.0 0.2776851736376745 -1.000935320039302
4806000000.0 0.2773432359480609 -0.9982679901258951
4809000000.0 0.24050576779549657 -0.9982933707568721
4812000000.0 0.2178028735278805 -1.0239959846028541
4816000000.0 0.2669397780439786 -0.9764046176718093
4819000000.0 0.27478753507651 -1.0202953388720561
4822000000.0 0.26740073798870356 -1.0494364123899227
4825000000.0 0.2742149201489881 -1.0261527276320714
4828000000.0 0.25704984227875305 -1.015447128161175
4831000000.0 0.185112434145289 -1.0608811536316496
4834000000.0 0.22913918103057096 -1.013047767791589
4838000000.0 0.18874884587430962 -1.0244830637379836
4841000000.0 0.1650151544446559 -1.009693023895469
4844000000.0 0.2286548046581896 -1.0204760845189589
4847000000.0 0.1973712814708401 -0.9990573997401311
4850000000.0 0.16532107938307794 -1.0638976879309365
4853000000.0 0.17191385347314617 -1.0039655353853651
4856000000.0 0.15607119340267572 -1.003488884352022
4859000000.0 0.15265819806243924 -1.066601154381397
4862000000.0 0.15202083561694152 -1.0057564492631943
4866000000.0 0.10285204923849428 -1.057906822760002
4869000000.0 0.10154149199049016 -1.0564497899986622
4872000000.0 0.11164004954113191 -1.071412601835293
4875000000.0 0.1667706869404425 -1.064541556416809
4878000000.0 0.09389865078979076 -1.0558635931116906
4881000000.0 0.07633388011605978 -1.1096907686309723
4884000000.0 0.07469656578884726 -1.039495408712759
4888000000.0 0.10276222562847591 -1.0211659099026928
4891000000.0 0.08855351021382546 -1.0504008721821092
4894000000.0 0.03315086212886818 -1.0172794283465627
4897000000.0 0.0745933049749347 -1.0253081117975755
4900000000.0 0.06239482922531623 -1.058098212713535
4903000000.0 0.03855550162169995 -1.0559709517912885
4906000000.0 0.023515072271181874 -1.069017398391231
4909000000.0 -0.0027298694463745027 -1.0556314069559545
4912000000.0 -0.007730971628325277 -1.0744457499807223
4916000000.0 0.024632998844772817 -1.0750844071942864
4919000000.0 0.025283092445632663 -1.0639353213437754
4922000000.0 0.025832943583982665 -1.0840517271908303
4925000000.0 -0.042677624254677665 -1.0505061466687617
4928000000.0 0.012624959721656837 -1.044151439849377
4931000000.0 -0.0052658214036637035 -1.0656839145062906
4934000000.0 -0.05935666021296508 -0.9805788965639209
4938000000.0 -0.1096963240195611 -1.0507554426572958
4941000000.0 -0.05533028166142086 -1.022151810174961
4944000000.0 -0.0353278687943247 -0.9715511230855671
4947000000.0 -0.09646061984226445 -1.028245616641727
4950000000.0 -0.0766445572322121 -0.9999612951751438
4953000000.0 -0.14976945648062012 -1.0673203414799117
4956000000.0 -0.10862994934404605 -1.0407106080004473
4959000000.0 -0.17058382964620364 -1.0370592426836958
4962000000.0 -0.13525239599824565 -1.061696643445996
4966000000.0 -0.12315242607877591 -1.0665427049195482
4969000000.0 -0.12450802199508276 -1.0679170420082733
4972000000.0 -0.1782903785063271 -1.041479808733036
4975000000.0 -0.12785460598394668 -1.0285000845558543
4978000000.0 -0.1650124404338953 -1.0007900606410558
4981000000.0 -0.20357817656988617 -1.0513294148830596
4984000000.0 -0.18629676647951385 -1.0246438349324452
4988000000.0 -0.186466894674858 -0.9975340267179323
4991000000.0 -0.16452281145600345 -1.0698899420306636
4994000000.0 -0.179996407058633 -1.0163025191481174
4997000000.0 -0.2700238704755809 -1.018537648282626
5000000000.0 -0.21025041790250643 -1.0564747900158307
5003000000.0 -0.24531268198134898 -1.0703195856460384
5006000000.0 -0.2621923554530219 -1.0634677942532895
5009000000.0 -0.23473993657954836 -1.048044474596671
5012000000.0 -0.27353515028514463 -1.016302087350519
5016000000.0 -0.22671490785888943 -1.0924997201249826
5019000000.0 -0.2797402774228456 -0.9913345268986662
5022000000.0 -0.28056761956193454 -1.0240109118111438
5025000000.0 -0.337529826991295 -1.0946429004716698
5028000000.0 -0.33204049491538923 -1.0005799384995098
5031000000.0 -0.3074071176888967 -1.014211154731649
5034000000.0 -0.38264664312748764 -1.0714471684368687
5038000000.0 -0.3497420529777505 -0.971207384475095
5041000000.0 -0.3133178420118027 -1.0255592230336128
5044000000.0 -0.2833610099754751 -0.9671747944001351
5047000000.0 -0.3336389096451136 -0.9934406632156277
5050000000.0 -0.2737928157958621 -1.0134479688370874
5053000000.0 -0.3983319033939615 -1.0131806712421096
5056000000.0 -0.33276810841198823 -1.0272261238339149
5059000000.0 -0.3143985080137676 -0.9957589193876814
5062000000.0 -0.39100706528480567 -0.9939240212516669
5066000000.0 -0.36472964493141957 -0.9959455996295534
5069000000.0 -0.3805164494143777 -0.9830292142453957
5072000000.0 -0.40153417541670405 -0.9424613287748409
5075000000.0 -0.3907442966309844 -0.9534587970605763
5078000000.0 -0.4293556483552499 -0.9445170366124558
5081000000.0 -0.44650987890249844 -0.9376704852837495
5084000000.0 -0.4786605733796705 -0.9963133912412214
5088000000.0 -0.4254604588237101 -0.9307979029940034
5091000000.0 -0.45641568102358127 -0.9573188353908999
5094000000.0 -0.4714171578306366 -0.9739925971775153
5097000000.0 -0.46230111676478136 -0.9490357823961919
5100000000.0 -0.4580942110341274 -0.9263915948753049
5103000000.0 -0.46978461754407497 -0.9516017521717209
5106000000.0 -0.4567632533258046 -0.9742845662584292
5109000000.0 -0.4322706451466755 -0.9423701373750597
5112000000.0 -0.5197035466592006 -0.9357462873227895
5116000000.0 -0.4917472059733126 -0.9224314684523174
5119000000.0 -0.49516066444864193 -0.9694837326150991
5122000000.0 -0.5049359030042099 -0.9176732091075044
5125000000.0 -0.5148609533188813 -0.9290613839838323
5128000000.0 -0.5584458930894283 -0.9065577027909673
5131000000.0 -0.5044123805776449 -0.8639984645653149
5134000000.0 -0.5521062195542691 -0.8739200981214782
5138000000.0 -0.5262271420071188 -0.8997579569679924
5141000000.0 -0.5573395728182975 -0.9135977971589588
5144000000.0 -0.526960075755807 -0.9378480060166389
5147000000.0 -0.6024486138914127 -0.9447231679168023
5150000000.0 -0.5654242098886338 -0.9276852718412527
5153000000.0 -0.5684185972876321 -0.8934644482618079
5156000000.0 -0.588891874129492 -0.8935157590731424
5159000000.0 -0.60897970689592 -0.8965922287426029
5162000000.0 -0.6305479334003322 -0.8511423659783715
5166000000.0 -0.6509073626566044 -0.8585162421224267
5169000000.0 -0.6421044391728639 -0.8752430804355159
5172000000.0 -0.6360308542279676 -0.821952329353714
5175000000.0 -0.6341360457419678 -0.8719015337723307
5178000000.0 -0.6643437245779009 -0.8421743514001617
5181000000.0 -0.6687775255092663 -0.8829578478065567
5184000000.0 -0.6617130244275882 -0.8025418367686012
5188000000.0 -0.6417549083349187 -0.7950360232672107
5191000000.0 -0.6530475107600022 -0.80497900506464
