! Created with skrf 1.8.0 (http://scikit-rf.org).
# Hz S RI R 50.0 
!freq ReS11 ImS11
4000000000.0 0.6210759534663178 0.8068344101295548
4003000000.0 0.6456756075514543 0.8423512873231758
4006000000.0 0.68365796765179 0.7747565139645476
4009000000.0 0.6307934282454328 0.8157629159642591
4012000000.0 0.6279283947120209 0.893132230191427
4016000000.0 0.7094487769626945 0.7731506452984716
4019000000.0 0.6641845533329529 0.7695144166096161
4022000000.0 0.6220454184597708 0.8157919137190724
4025000000.0 0.7179864999270166 0.7737466112066878
4028000000.0 0.7063881699793253 0.7606133054021236
4031000000.0 0.6764105617624707 0.7097094605952669
4034000000.0 0.6822379360743588 0.7451477453196587
4038000000.0 0.7220776794615775 0.7374190056259567
4041000000.0 0.7254140881342714 0.7432306677197961
4044000000.0 0.7841808956381202 0.7641148202849679
4047000000.0 0.7515394130183758 0.7843606414180423
4050000000.0 0.7733704260154304 0.6989507907190159
4053000000.0 0.7603653265642558 0.6667901802953966
4056000000.0 0.7668928995823155 0.7187996024604776
4059000000.0 0.7470737693570529 0.7112551229174848
4062000000.0 0.7741313661811455 0.6673730393224062
4066000000.0 0.70876406925745 0.6479142422997307
4069000000.0 0.8318507676455992 0.6787999088519235
4072000000.0 0.7040626380694327 0.7119869559980978
4075000000.0 0.830790321498721 0.7159940719742959
4078000000.0 0.8470495306908531 0.6560332984402687
4081000000.0 0.7493702344075046 0.7452837827655707
4084000000.0 0.8455806308536482 0.6213944621597127
4088000000.0 0.7938741423310146 0.672737173843995
4091000000.0 0.8677382384356456 0.6542969947147392
4094000000.0 0.8137375781866841 0.6456227055622192
4097000000.0 0.8435853947016457 0.6267273880131667
4100000000.0 0.8126395919739828 0.6316815487802183
4103000000.0 0.8188083051428152 0.6513994029457324
4106000000.0 0.872257767079292 0.6197106599472012
4109000000.0 0.8445914342716228 0.5904173273767099
4112000000.0 0.8651485368806124 0.5788777891155952
4116000000.0 0.8683372509221022 0.6180328518673347
4119000000.0 0.8490514265424656 0.5997018516207484
4122000000.0 0.887830379462072 0.5911486613073271
4125000000.0 0.9215824353186833 0.5634130167181213
4128000000.0 0.8413673229780949 0.5233909551876862
4131000000.0 0.8863588186835477 0.541865135647657
4134000000.0 0.843843085916785 0.5384013880981348
4138000000.0 0.8743711965412577 0.5340450249111357
4141000000.0 0.8994542772074008 0.46721856433543285
4144000000.0 0.869791333197852 0.558561035266459
4147000000.0 0.9055414014874067 0.49757511280987726
4150000000.0 0.9561202075129392 0.5189924944077648
4153000000.0 0.8990460863398443 0.5107758054942113
4156000000.0 0.9166487041919413 0.5028309212692197
4159000000.0 0.8579062695824391 0.47534425228034743
4162000000.0 0.9066905306468929 0.47698708592502514
4166000000.0 0.9436544679813066 0.4810962257729573
4169000000.0 0.9047783614191289 0.43618470241624396
4172000000.0 0.9239324177384174 0.45866692250820934
4175000000.0 0.962234021467715 0.46093076411219874
4178000000.0 0.936742403789089 0.43924562657055144
4181000000.0 0.9386308544632553 0.4159972705658186
4184000000.0 0.9252711403427517 0.4392445292590334
4188000000.0 0.9299288392522893 0.39089505592270357
4191000000.0 0.9069575033707812 0.432988825512787
4194000000.0 0.9328042786668845 0.38901263993604795
4197000000.0 0.946118432431392 0.3762833404940919
4200000000.0 0.9477031260044408 0.37299684535430333
4203000000.0 0.9455363543307896 0.41011113636375585
4206000000.0 0.9815271809395224 0.371229324859265
4209000000.0 0.9383402214269864 0.3799465326788453
4212000000.0 0.9755992649844586 0.33040702122968024
4216000000.0 0.9751136534873537 0.3438923141225924
4219000000.0 0.9705663597978107 0.3445270366746914
4222000000.0 0.9773107722612313 0.3071920497464928
4225000000.0 0.9584315978680935 0.3410568836062218
4228000000.0 0.9704778412476562 0.3212541150057787
4231000000.0 0.985177097269412 0.30165922624975816
4234000000.0 0.9982775355529896 0.28527035767132164
4238000000.0 0.9725522999605675 0.27472518730428397
4241000000.0 0.9871086335753771 0.25616783567469104
4244000000.0 0.9673548504860111 0.28588868020716907
4247000000.0 0.9769039274696754 0.25405366315336225
4250000000.0 0.9739410625588953 0.23677535821556867
4253000000.0 0.9664942300496626 0.24158773102259368
4256000000.0 1.0110471120766005 0.2341347526705907
4259000000.0 0.9697308053406367 0.2152135154174197
4262000000.0 0.9945421847472666 0.19777104479139365
4266000000.0 1.019688435949437 0.1838436826476132
4269000000.0 0.9937995324975599 0.21659500014854358
4272000000.0 0.9780572214540172 0.19278394776536906
4275000000.0 1.007849278133449 0.19525882395560212
4278000000.0 1.0050597453294654 0.1912822309325724
4281000000.0 0.9992759088025371 0.1880124127138048
4284000000.0 1.0334513425141556 0.11687468795508907
4288000000.0 0.9959147899219903 0.16268653426778557
4291000000.0 0.9945061720975151 0.1446215697615046
4294000000.0 1.008829444163219 0.13230934156213464
4297000000.0 0.992822080909423 0.14953170359120227
4300000000.0 0.997060403992504 0.1308510805911539
4303000000.0 1.0106168989061994 0.08655320209087015
4306000000.0 1.0074680743819762 0.13241130747794366
4309000000.0 0.9942981087057663 0.1237755788689837
4312000000.0 1.0111653110532595 0.13157423749695782
4316000000.0 1.0293133354832371 0.08309217595577904
4319000000.0 0.9824628938601023 0.08155917834720842
4322000000.0 1.0021988736682355 0.043267521566506636
4325000000.0 1.0117277001422698 0.0641922105287643
4328000000.0 0.9770947549900596 0.05020827777935084
4331000000.0 1.00087963201895 0.01986929440062793
4334000000.0 1.0504302897543998 0.0311024645442389
4338000000.0 0.9992964466942019 0.020688744844235038
4341000000.0 1.0218712405059862 0.051575313155549085
4344000000.0 1.0382854224584073 0.0017629805855063074
4347000000.0 1.0236877854392732 -0.03477253558825172
4350000000.0 0.9798001560180447 -0.015712698450741636
4353000000.0 0.9714131058381967 0.01010242254431687
4356000000.0 1.0047922446356035 -0.04601301792365439
4359000000.0 0.9618270677813111 -0.05151199972751684
4362000000.0 1.0148489770122602 -0.09993927438122291
4366000000.0 1.0235805951957277 -0.07646324845337849
4369000000.0 0.9882204988405997 -0.07097284146490358
4372000000.0 1.01759263456442 -0.11578767060525613
4375000000.0 1.009050448849739 -0.07807089550241941
4378000000.0 0.9812396473210144 -0.0862218572378056
4381000000.0 0.9956476438478499 -0.09298315754077376
4384000000.0 1.0820298917186046 -0.13160793209594063
4388000000.0 0.9858601039140609 -0.11776707053501127
4391000000.0 1.0140195417358608 -0.13021676589926645
4394000000.0 0.9854733326569095 -0.13993985203792753
4397000000.0 0.99441641027663 -0.16344975433690148
4400000000.0 1.0042208096211667 -0.1559043802419407
4403000000.0 1.0050291788360672 -0.16445716746551622
4406000000.0 0.9940960807482734 -0.1919195337161039
4409000000.0 1.026864711822218 -0.1845528332418413
4412000000.0 0.9693241493638022 -0.24361595636978428
4416000000.0 0.9814376661043065 -0.2168620541833157
4419000000.0 0.9911157865038075 -0.22712542655810597
4422000000.0 0.9881228208533843 -0.20732413725859564
4425000000.0 1.0128481131103861 -0.1850537443991693
4428000000.0 0.9761880666519227 -0.24912143998721822
4431000000.0 1.0100795637865925 -0.2350441567543814
4434000000.0 0.971258981451418 -0.2555005128568115
4438000000.0 0.9970326443701458 -0.25064084969359857
4441000000.0 0.9865197118070423 -0.2537662288915657
4444000000.0 0.9544735947398069 -0.2722229370633288
4447000000.0 0.9576493401328842 -0.29340061769538195
4450000000.0 0.9565756459791142 -0.27979896662779163
4453000000.0 0.9893549523939671 -0.3159046257701127
4456000000.0 0.9329083443984098 -0.3159957953499546
4459000000.0 0.9086666959178351 -0.3332233856510257
4462000000.0 1.0108554279270536 -0.352284546668879
4466000000.0 0.9769113204590483 -0.3618609746698319
4469000000.0 0.9680415273626489 -0.3385625633914523
4472000000.0 0.9730130284805333 -0.39434032379213757
4475000000.0 0.9200824262948775 -0.347777815217004
4478000000.0 0.9778430786538541 -0.4000847551961212
4481000000.0 0.8886090555804178 -0.37690785694804
4484000000.0 0.9068330737923438 -0.4124085669678843
4488000000.0 0.9104172820309683 -0.40736270394406154
4491000000.0 0.915793828347436 -0.39065414771367196
4494000000.0 0.9176432401296875 -0.39860069706033047
4497000000.0 0.9123275991476367 -0.40193227113442326
4500000000.0 0.9117124231048082 -0.40799710790684784
4503000000.0 0.9363393830823972 -0.44724549438870603
4506000000.0 0.8827124559145467 -0.44769551300911525
4509000000.0 0.888314436991442 -0.44368876933161083
4512000000.0 0.8726369623946657 -0.4557633768490138
4516000000.0 0.9158973853707755 -0.45680049761491137
4519000000.0 0.894113493988354 -0.45899090514897417
4522000000.0 0.8696870805683843 -0.5141363974280555
4525000000.0 0.8978392611896862 -0.4416179764748554
4528000000.0 0.9009484649692272 -0.5149633198897909
4531000000.0 0.8634081725422235 -0.4949158217060985
4534000000.0 0.8676847549734366 -0.4955614274122524
4538000000.0 0.8507058171928419 -0.5116635734128185
4541000000.0 0.8378314596243991 -0.5564293969752996
4544000000.0 0.8474419716054726 -0.5514323991552835
4547000000.0 0.8374346701575792 -0.5141589658172394
4550000000.0 0.8381841188802757 -0.5819905681307157
4553000000.0 0.8427805066472773 -0.5591159256126376
4556000000.0 0.8132131879597899 -0.5619481146833196
4559000000.0 0.8227647871374723 -0.602104899723247
4562000000.0 0.8257825125213076 -0.5908705245987081
4566000000.0 0.8284895208747993 -0.6067024499275666
4569000000.0 0.7815888702250448 -0.6022580479890212
4572000000.0 0.8026188863685549 -0.6076668299140746
4575000000.0 0.7958399979308268 -0.6294871350312616
4578000000.0 0.8295182862890547 -0.6330574041221961
4581000000.0 0.7940321130591463 -0.6299374533929645
4584000000.0 0.7725505829719316 -0.6386812852833994
4588000000.0 0.790831485509082 -0.6550945463507222
4591000000.0 0.7881848346302718 -0.645669692433012
4594000000.0 0.7552326501717067 -0.6678052371647951
4597000000.0 0.7720508385034062 -0.6646270998001391
4600000000.0 0.744463331932699 -0.6736633247704474
4603000000.0 0.7518444852019055 -0.7038816967664914
4606000000.0 0.7521888166970718 -0.6877217393998547
4609000000.0 0.7505216493206577 -0.6902752639761123
4612000000.0 0.7476515467186899 -0.709293835068064
4616000000.0 0.7115070585154308 -0.6885888698578617
4619000000.0 0.7285022473224535 -0.7041978896100434
4622000000.0 0.7266405854461215 -0.6984536242049264
4625000000.0 0.6721467556503965 -0.7167546340582238
4628000000.0 0.7136376083247453 -0.7085989330341671
4631000000.0 0.6755214786055685 -0.7313613328724323
4634000000.0 0.6960961405472252 -0.7288757649040497
4638000000.0 0.6792163582472336 -0.7503064915599447
4641000000.0 0.6781386866275354 -0.7402103212759424
4644000000.0 0.6707471170606202 -0.749957817645939
4647000000.0 0.6786054303025877 -0.7515093400956455
4650000000.0 0.6494666829461448 -0.7715649834534147
4653000000.0 0.6800763615758145 -0.7925129130430643
4656000000.0 0.642904962935992 -0.7814875012088267
4659000000.0 0.6243002858656381 -0.7886190875843605
4662000000.0 0.6191427709396798 -0.7777164379961129
4666000000.0 0.6009551940511267 -0.8166209080801603
4669000000.0 0.6244074590629225 -0.8089766890620665
4672000000.0 0.6032413097725601 -0.8312082009558553
4675000000.0 0.5832192356151988 -0.8308893897396971
4678000000.0 0.5836151879001639 -0.7953577676813031
4681000000.0 0.5749566948971543 -0.8417737673091662
4684000000.0 0.5565094330662721 -0.8322225998061398
4688000000.0 0.5724025371551609 -0.866534696552683
4691000000.0 0.5923712286018927 -0.8346017161166916
4694000000.0 0.5661349436326623 -0.8411024095272266
4697000000.0 0.5078617630867244 -0.8413502578798373
4700000000.0 0.5412641542604661 -0.8654963381327738
4703000000.0 0.539075298892213 -0.8591524133605881
4706000000.0 0.49578281655609857 -0.8527418537591404
4709000000.0 0.5203543402785751 -0.8833800988297066
4712000000.0 0.5015801926916363 -0.8781055568545414
4716000000.0 0.5243848571175623 -0.9066647550026343
4719000000.0 0.5417040642570159 -0.8603147459675703
4722000000.0 0.4963574722716425 -0.8633708838018637
4725000000.0 0.46981370586504106 -0.8944803562696906
4728000000.0 0.46497767147460295 -0.9183028308321302
4731000000.0 0.5081107531380885 -0.8896345563593555
4734000000.0 0.4816744824075915 -0.8940620307306448
4738000000.0 0.499393075244308 -0.9545682508761321
4741000000.0 0.4296529337837599 -0.9628654060956361
4744000000.0 0.43297252468064357 -0.8949716577517376
4747000000.0 0.4269570876097289 -0.8933246627506503
4750000000.0 0.440176415508449 -0.9284555142883616
4753000000.0 0.41355417443450765 -0.9348234330595775
4756000000.0 0.4191311885015401 -0.9195578979951216
4759000000.0 0.4184173916648006 -0.93252438802609
4762000000.0 0.3526703128978329 -0.9611302044031208
4766000000.0 0.3941288989143934 -0.9540296176598497
4769000000.0 0.38234057579757774 -0.983064427463309
4772000000.0 0.37135981887905223 -0.9337017771565728
4775000000.0 0.3529268348930893 -1.003576749809553
4778000000.0 0.3477112312752608 -0.9955699979516871
4781000000.0 0.36112528644165226 -0.9790121278607955
4784000000.0 0.35928390516240966 -0.9481687069577275
4788000000.0 0.3166037231039579 -1.0021686463707946
4791000000.0 0.2914427352649185 -0.9651448813435194
4794000000.0 0.32366696695898883 -1.000707447252386
4797000000.0 0.2873657816707153 -0.96978947366364
4800000000.0 0.2958062144736607 -0.9741471088215217
4803000000.0 0.24480184315716652 -0.983727648237589
4806000000.0 0.27706033285041665 -0.9763331954217223
4809000000.0 0.24808196527870682 -0.9940231564878442
4812000000.0 0.22160002448493302 -1.0027683756726251
4816000000.0 0.2770091828841977 -1.0007484510157778
4819000000.0 0.25933784237637975 -1.0124512724447394
4822000000.0 0.2588208158626161 -1.0156815860818282
4825000000.0 0.26594911615448613 -1.039780213411177
4828000000.0 0.21345497279317183 -0.9960956642563225
4831000000.0 0.1752808857056637 -1.0463701040220024
4834000000.0 0.22755231991544494 -1.0116386105977306
4838000000.0 0.1850745096778189 -1.0197120823306316
4841000000.0 0.18096361669504057 -0.9908565368569066
4844000000.0 0.2166662436002889 -1.0187974858111666
4847000000.0 0.21828213755653258 -0.9756711680354586
4850000000.0 0.14117958393592667 -1.0426855137971343
4853000000.0 0.14061987519014338 -0.9939443465205116
4856000000.0 0.14936531656955937 -0.9991525024692441
4859000000.0 0.12567576860256435 -1.0433153131584563
4862000000.0 0.1514817224967766 -0.9992372557723169
4866000000.0 0.11113457884310654 -1.026427773391513
4869000000.0 0.0997516773045862 -1.0483325793741751
4872000000.0 0.07739401319558302 -1.035992374733788
4875000000.0 0.14036568472142769 -1.0498945069432928
4878000000.0 0.10917265702087864 -1.0303446032742825
4881000000.0 0.055083750772012295 -1.0999180698067588
4884000000.0 0.07382531785246883 -1.0372433321112895
4888000000.0 0.10426928261884 -1.006732425949632
4891000000.0 0.10380437712691634 -1.0626680636004688
4894000000.0 0.021926894699283585 -1.0086660993742034
4897000000.0 0.03922323613324908 -1.0158230492356821
4900000000.0 0.04440452379490378 -1.0546570643127153
4903000000.0 0.05918526603875254 -1.061991332806696
4906000000.0 -0.011462260973419583 -1.0612328802940632
4909000000.0 -0.00760692215288241 -1.0101106000785005
4912000000.0 -0.018347903627228872 -1.0818881000717422
4916000000.0 0.0024592368668643616 -1.067104377235474
4919000000.0 0.012646043498829272 -1.0797476865831825
4922000000.0 0.018601410175079706 -1.0643454786527593
4925000000.0 -0.09371576507482746 -1.035102760043177
4928000000.0 0.016092281222357188 -1.037858569528339
4931000000.0 -0.0068823728149052105 -1.030699175878429
4934000000.0 -0.03159641803957988 -0.9698923935166993
4938000000.0 -0.10511859183030593 -1.009084610411526
4941000000.0 -0.06596492794542762 -1.0284695704677407
4944000000.0 -0.04271480423591653 -0.9659860436250971
4947000000.0 -0.06282315465892563 -0.9931996740314212
4950000000.0 -0.10697627588669047 -1.0165505476441907
4953000000.0 -0.17273474925266158 -1.0611931357031583
4956000000.0 -0.13261448973961032 -1.024808619575383
4959000000.0 -0.15483728157304902 -0.9930367202360769
4962000000.0 -0.1448048837561088 -1.0416951689275258
4966000000.0 -0.13365550643311613 -1.0487792816065615
4969000000.0 -0.11868339769379177 -1.0992280322077899
4972000000.0 -0.1638534018528439 -1.0184000478398114
4975000000.0 -0.13476200744162117 -1.0059617468295374
4978000000.0 -0.19058217097633734 -1.0041459899446776
4981000000.0 -0.19168125294848412 -1.03599649167035
4984000000.0 -0.18452156627465796 -0.9715863768249348
4988000000.0 -0.17778178408053114 -0.997785551046136
4991000000.0 -0.1699325275882509 -1.0498147929903199
4994000000.0 -0.1763880833136735 -1.0222164372294018
4997000000.0 -0.2600481629559767 -1.0152326001091565
5000000000.0 -0.20831815331834325 -1.019996915892125
5003000000.0 -0.2196679117648725 -1.0223589150276013
5006000000.0 -0.25482423484258276 -1.0463106149019457
5009000000.0 -0.23951274780177276 -1.0045267390884625
5012000000.0 -0.24535279134904509 -1.0118199149484453
5016000000.0 -0.250898782332575 -1.0221009679517299
5019000000.0 -0.29285404620123 -0.9750266279583615
5022000000.0 -0.24291291280189287 -1.0050501381571288
5025000000.0 -0.34272942197183903 -1.0240026284147377
5028000000.0 -0.3229675531006517 -1.0107565129659406
5031000000.0 -0.3081724751652287 -0.9911761913286355
5034000000.0 -0.36756166403637947 -1.0265849088796533
5038000000.0 -0.3398010859237254 -0.957103421816152
5041000000.0 -0.3062929031117205 -1.0041731096542974
5044000000.0 -0.27869222469373944 -0.966713150353791
5047000000.0 -0.37013408203039183 -0.9795501643251304
5050000000.0 -0.2783631829377782 -1.0028109325935526
5053000000.0 -0.35376971772474863 -1.0204049776155422
5056000000.0 -0.3447815488673639 -1.0001654391564045
5059000000.0 -0.303245897495983 -0.9800427586017016
5062000000.0 -0.410317354231182 -0.9662192120086117
5066000000.0 -0.3654091906371889 -0.9583145547232033
5069000000.0 -0.41549448001535316 -0.9685405441837772
5072000000.0 -0.3522140421021321 -0.9272816466649891
5075000000.0 -0.3892226338356888 -0.9901829589953657
5078000000.0 -0.4919364636641405 -0.9328774005624056
5081000000.0 -0.4188898383708089 -0.9192832496846614
5084000000.0 -0.4369217508095006 -0.9744164015209023
5088000000.0 -0.4632481568453226 -0.9291375056685274
5091000000.0 -0.5335508621863589 -0.9312041449833777
5094000000.0 -0.449028133963351 -0.9245574632519605
5097000000.0 -0.4206364790530407 -0.9413486428040247
5100000000.0 -0.467320429233337 -0.9461885354940306
5103000000.0 -0.5219244838478828 -0.9203228705692611
5106000000.0 -0.47758671691410287 -0.963175464062026
5109000000.0 -0.46231090617396503 -0.9165522508454786
5112000000.0 -0.5170395387253041 -0.8619279649663654
5116000000.0 -0.4408178377414961 -0.863370654657732
5119000000.0 -0.5057412573851113 -0.9474850477567898
5122000000.0 -0.4844928920772426 -0.8838095314311771
5125000000.0 -0.5059997583172238 -0.9509928550535743
5128000000.0 -0.5522999136165959 -0.8740126012671823
5131000000.0 -0.5081694341884148 -0.8861240237247706
5134000000.0 -0.5335221818673316 -0.9033570657521988
5138000000.0 -0.5272726856986407 -0.8843135763688302
5141000000.0 -0.5439125620910982 -0.9224146581140154
5144000000.0 -0.5319402640473985 -0.9057598514117858
5147000000.0 -0.5379179998233767 -0.901603000315818
5150000000.0 -0.52376511497235 -0.849486011437274
5153000000.0 -0.5729223047987719 -0.8616820178531456
5156000000.0 -0.6023338318640501 -0.8402326872207038
5159000000.0 -0.6057142133330224 -0.9039303734933982
5162000000.0 -0.6000545907452884 -0.8525546028780275
5166000000.0 -0.653088183119053 -0.8455309246139356
5169000000.0 -0.6396683703246021 -0.885082006136619
5172000000.0 -0.6249642551724732 -0.8326561132166573
5175000000.0 -0.6486673112131743 -0.8923981313347428
5178000000.0 -0.6723930095135386 -0.8309740469007627
5181000000.0 -0.6543217779221298 -0.8521139012781758
5184000000.0 -0.6300178785770764 -0.8040764657583718
5188000000.0 -0.6638795693569236 -0.8313878007352853
5191000000.0 -0.6771315116878031 -0.8105520867716584
