! Created with skrf 1.8.0 (http://scikit-rf.org).
# Hz S RI R 50.0 
!freq ReS11 ImS11
4000000000.0 0.6403653441945915 0.8482334887142389
4003000000.0 0.7126988036902537 0.8431315157044398
4006000000.0 0.6685590129053808 0.7628839737370019
4009000000.0 0.6854926991640233 0.8055884662279176
4012000000.0 0.6906886654048977 0.8510006551337788
4016000000.0 0.7037567998312552 0.7445344751817562
4019000000.0 0.6976023254045269 0.7417741606269715
4022000000.0 0.6521937255073705 0.7861275361874067
4025000000.0 0.762657433345684 0.7212651135314879
4028000000.0 0.7244623740448566 0.8193905891879854
4031000000.0 0.6577452875625676 0.745772415620107
4034000000.0 0.7104431693090818 0.7593415703519856
4038000000.0 0.7958151261294519 0.7548410754247947
4041000000.0 0.7667179466152425 0.7330956919903214
4044000000.0 0.781835292766969 0.7510467273044806
4047000000.0 0.7869748855549352 0.7946573351926286
4050000000.0 0.795532264886782 0.7107985233776837
4053000000.0 0.7876579509852596 0.6436611557760588
4056000000.0 0.7766822894193238 0.710052258364366
4059000000.0 0.7874694413593972 0.6850772262075437
4062000000.0 0.7816513571942906 0.6705939566705426
4066000000.0 0.7314168417985132 0.6408634552554073
4069000000.0 0.8295449796894252 0.6635479615619063
4072000000.0 0.7609199526254774 0.711457741305001
4075000000.0 0.7831421016472931 0.7113047841452693
4078000000.0 0.8325421904048473 0.6569784829184165
4081000000.0 0.7960544742290588 0.7151611857848217
4084000000.0 0.82638586323575 0.6134638474864114
4088000000.0 0.7734712214878481 0.6494234021216604
4091000000.0 0.8970492064961724 0.6696761450963373
4094000000.0 0.8376080428540945 0.6284411415479563
4097000000.0 0.8352117124671314 0.6159686255779107
4100000000.0 0.856703306797977 0.5827172047671825
4103000000.0 0.8790505408857074 0.6182115693662447
4106000000.0 0.8743302553330815 0.5406867565358521
4109000000.0 0.8704827092724015 0.5860541817226714
4112000000.0 0.8734933419753792 0.5812032125608109
4116000000.0 0.8273031989744778 0.574249530949931
4119000000.0 0.8791882227230554 0.5482845685904373
4122000000.0 0.8945751454689275 0.5746564302490398
4125000000.0 0.958125937502071 0.5094684147079669
4128000000.0 0.8592938012465381 0.5217498143019441
4131000000.0 0.8797256228682567 0.5127994245164232
4134000000.0 0.8665511904325223 0.5248148317226882
4138000000.0 0.861738110052213 0.47380293189352457
4141000000.0 0.8894641049588178 0.5177295093832178
4144000000.0 0.9317587121007788 0.5045086919134436
4147000000.0 0.920665032559564 0.4678773567388019
4150000000.0 0.8959199158225639 0.5135907793082364
4153000000.0 0.8952630598733672 0.4680090297840074
4156000000.0 0.9281642513809243 0.4926767509526355
4159000000.0 0.9117382407901553 0.47148969320013895
4162000000.0 0.8940982316449437 0.4558448554239446
4166000000.0 0.9417012870969033 0.4161253597455983
4169000000.0 0.9183168920798563 0.4267347719307121
4172000000.0 0.932752699728282 0.46039744111682684
4175000000.0 0.9486148403866809 0.4625120905090742
4178000000.0 0.9600369522612966 0.4180548981889345
4181000000.0 0.9730500062248075 0.40466415629624963
4184000000.0 0.9512674685439878 0.4151827265540186
4188000000.0 0.9638308749221225 0.3813428002049143
4191000000.0 0.9462996511067119 0.41149026073741574
4194000000.0 0.9278124931383399 0.3644743304834208
4197000000.0 0.9612603963061278 0.35826717955062654
4200000000.0 0.9605005281659864 0.3886898539382435
4203000000.0 0.9791127626979792 0.35916433727058905
4206000000.0 0.9582143906498767 0.3596501443194022
4209000000.0 0.9420663081647817 0.35328005829374237
4212000000.0 0.9852595817391251 0.3064724401165576
4216000000.0 0.9861598594189521 0.32921305872268264
4219000000.0 1.0002158506822159 0.3107981924695229
4222000000.0 0.9876798260557662 0.3074759645912655
4225000000.0 0.9763820839269042 0.2999128283283208
4228000000.0 0.9819623625066201 0.285756186930918
4231000000.0 0.9897132306781168 0.27392580701497476
4234000000.0 1.0143384857371949 0.2679604548864679
4238000000.0 0.992702262730854 0.2518509735800887
4241000000.0 0.9995771014994386 0.2308935710233725
4244000000.0 0.9783926651033951 0.25217456213037726
4247000000.0 1.0057614326339102 0.25468998967227346
4250000000.0 0.9657786356664511 0.2156330204840422
4253000000.0 0.987887469681753 0.21152250937347444
4256000000.0 1.0260393718076353 0.2011522029626011
4259000000.0 0.9677887766391335 0.19174912798086316
4262000000.0 0.9959696467405208 0.1807323692424633
4266000000.0 1.0210949943271652 0.1487291140869072
4269000000.0 1.0115544051487495 0.18830491049284034
4272000000.0 0.9960803924535686 0.16948014383835353
4275000000.0 1.0032269115712988 0.15339313192086876
4278000000.0 1.0411232231535867 0.14898763467500997
4281000000.0 1.009879719093739 0.1480257953434111
4284000000.0 1.0134839247817773 0.09332133814140739
4288000000.0 0.9968811901452994 0.15475146919817317
4291000000.0 1.0083513204309986 0.09843404756451037
4294000000.0 1.0121959726451641 0.10763041094897115
4297000000.0 1.013921460127422 0.107650062340663
4300000000.0 0.9936623817724359 0.11253261636879813
4303000000.0 0.9955562284482943 0.08790019686165755
4306000000.0 1.0038915358356086 0.08280786746249452
4309000000.0 1.0141071068821197 0.048229089498195
4312000000.0 1.025316854559119 0.08382063348421787
4316000000.0 1.0318737800045314 0.08510965616853776
4319000000.0 1.0067512065207032 0.06756958252204677
4322000000.0 0.9928301569242899 -0.0030203316632790855
4325000000.0 1.0194778992404203 0.040522837444274026
4328000000.0 1.0255788157575851 0.009122191705535354
4331000000.0 1.0236293939458012 -0.022298608869774264
4334000000.0 1.0103673592675655 0.007007411637252048
4338000000.0 1.0199396823112314 0.009680310699865982
4341000000.0 1.0262265811142124 -0.0005217678701329165
4344000000.0 1.0392898548461693 -0.02445862732239655
4347000000.0 1.018125800137179 -0.03431259021137939
4350000000.0 0.9982857892846847 -0.055409480324879745
4353000000.0 1.0128855811434672 -0.04825596861316778
4356000000.0 0.9958423353595447 -0.06984562105369752
4359000000.0 0.9707186594203807 -0.0629773350499195
4362000000.0 1.0323061676109981 -0.13040333334057908
4366000000.0 1.0252372310446176 -0.1016766647972514
4369000000.0 0.9685870738308234 -0.10756533508119591
4372000000.0 0.9871067259728961 -0.14967498050230746
4375000000.0 1.0125575397510413 -0.10393367473505224
4378000000.0 0.9810709508821134 -0.11959525359552549
4381000000.0 0.9984368375940025 -0.11437350939024987
4384000000.0 1.0776213845458837 -0.15832370764461562
4388000000.0 0.9703160339957775 -0.13464258350856365
4391000000.0 1.0188915457918464 -0.15715629466895467
4394000000.0 0.9825068000041626 -0.15521717686774258
4397000000.0 0.9905015322296824 -0.18570645907015257
4400000000.0 1.0207312665506802 -0.1999501556423934
4403000000.0 1.0018868464589148 -0.1990810137494437
4406000000.0 0.9978369200537416 -0.2191779444843093
4409000000.0 1.0203235237826953 -0.2201274420617206
4412000000.0 0.9701542271095692 -0.27256491661366256
4416000000.0 0.9795432159656914 -0.24096240971322763
4419000000.0 0.9758698365470959 -0.26651752907200277
4422000000.0 0.9888254322174721 -0.24205736318651372
4425000000.0 1.0170954739606293 -0.23905409979156125
4428000000.0 0.9789333922617531 -0.2748967802544342
4431000000.0 0.9956470961258623 -0.26802153052346495
4434000000.0 0.9740739633636287 -0.29137632505381333
4438000000.0 0.9960086857432944 -0.3083255279407768
4441000000.0 0.9778894218571463 -0.29537063567904137
4444000000.0 0.9492450631332312 -0.3019234837283843
4447000000.0 0.9533943576618498 -0.3313627264640605
4450000000.0 0.9510869549594647 -0.3192620528520258
4453000000.0 0.9793679136740787 -0.34999667885494024
4456000000.0 0.916596640366878 -0.3553748232495191
4459000000.0 0.8990842534488173 -0.352518912663577
4462000000.0 1.0019682846090194 -0.37981247482599667
4466000000.0 0.9661263893179522 -0.39619890284969456
4469000000.0 0.9438325230965262 -0.35463795122907066
4472000000.0 0.9609479021773113 -0.4287829901950025
4475000000.0 0.9214249497874727 -0.3835858911421973
4478000000.0 0.9597902120813269 -0.4438102925017967
4481000000.0 0.9059284942480784 -0.405265777262338
4484000000.0 0.8963144915695886 -0.4581504708275197
4488000000.0 0.9056970730494894 -0.4544115527480934
4491000000.0 0.9166691381301543 -0.43391008348332344
4494000000.0 0.9095309080614042 -0.43890144898831657
4497000000.0 0.9090658948132921 -0.4317909723827276
4500000000.0 0.9022250687555662 -0.4622423931870438
4503000000.0 0.9216345035210398 -0.4646804818826683
4506000000.0 0.8951895485446932 -0.4791600581414244
4509000000.0 0.8813623784435702 -0.4690740643885103
4512000000.0 0.8719778135382141 -0.4974554459827307
4516000000.0 0.9064278524263584 -0.5124464226022537
4519000000.0 0.8674644289596682 -0.4839188278093957
4522000000.0 0.8697450567788143 -0.521136670854233
4525000000.0 0.8750909613250486 -0.4854323794876656
4528000000.0 0.8875903990372385 -0.5361810875444328
4531000000.0 0.8944290249871971 -0.527306968828647
4534000000.0 0.8373237650093308 -0.5341175613565912
4538000000.0 0.8443121785883727 -0.5367829398779659
4541000000.0 0.8038517903257253 -0.587588470474625
4544000000.0 0.8356211382165348 -0.556146648888113
4547000000.0 0.8488143077946375 -0.5625526167616184
4550000000.0 0.8443328711079903 -0.5983516184097202
4553000000.0 0.8179133395740976 -0.5883862985206401
4556000000.0 0.7794840170907218 -0.5916223912368079
4559000000.0 0.8029123799246918 -0.6058975644288591
4562000000.0 0.8411344078633656 -0.6179921024068458
4566000000.0 0.8293322382684132 -0.625861015402734
4569000000.0 0.7795628140473526 -0.636413560703629
4572000000.0 0.7966863526479478 -0.6178979828163892
4575000000.0 0.7778741864901835 -0.6660208178277103
4578000000.0 0.8100834746125758 -0.6579618919294927
4581000000.0 0.7589315193615932 -0.673522334963453
4584000000.0 0.762900785018018 -0.6523462144836197
4588000000.0 0.7964615245378792 -0.6747820128901615
4591000000.0 0.771310080262686 -0.6653138327343927
4594000000.0 0.7276636408360576 -0.6894991381380736
4597000000.0 0.7532711003452635 -0.7005642053996558
4600000000.0 0.701631670335148 -0.7056330929221232
4603000000.0 0.7436099415085904 -0.7148982740975929
4606000000.0 0.7345730293478842 -0.7339770623598281
4609000000.0 0.7376916239027494 -0.7120332977964848
4612000000.0 0.711670016671775 -0.724592351791709
4616000000.0 0.6962635585899213 -0.7201791139288285
4619000000.0 0.7074796970686191 -0.730661152262946
4622000000.0 0.6858643697317081 -0.7316396101526026
4625000000.0 0.654232837044098 -0.741452509900618
4628000000.0 0.7012600917344664 -0.7385178132635382
4631000000.0 0.6586235785049648 -0.755140218364659
4634000000.0 0.6594288415718281 -0.7668056734570324
4638000000.0 0.6575879376566052 -0.7837082760353268
4641000000.0 0.6531470859157583 -0.7620005708327776
4644000000.0 0.630010808959857 -0.7724182789934096
4647000000.0 0.6571074642381303 -0.783492211041179
4650000000.0 0.6156161248681818 -0.7996503969377426
4653000000.0 0.6370346704243501 -0.8082131049816185
4656000000.0 0.6130353102029782 -0.8051533693481512
4659000000.0 0.5889416478664492 -0.8199831358090994
4662000000.0 0.6086626196057199 -0.8110973802730808
4666000000.0 0.5905072690384807 -0.8300329656134219
4669000000.0 0.596056671124054 -0.8188716009524041
4672000000.0 0.5708129697458515 -0.8349969543139028
4675000000.0 0.5680491673668031 -0.8350723430147602
4678000000.0 0.5490102301605809 -0.8347512486472848
4681000000.0 0.5679452050630895 -0.8594087739535516
4684000000.0 0.5240000308022671 -0.8702289473039281
4688000000.0 0.5362309338157176 -0.8731474485432741
4691000000.0 0.5359316213025973 -0.8710146348715324
4694000000.0 0.532933081857289 -0.8715439607698123
4697000000.0 0.49900759951203455 -0.8438317169590912
4700000000.0 0.5181966855533705 -0.8578615396856089
4703000000.0 0.48662505311103016 -0.8618548712800878
4706000000.0 0.5077808782803044 -0.921486766348796
4709000000.0 0.47406286335739467 -0.8945519580839811
4712000000.0 0.4837700676437874 -0.8810471881083566
4716000000.0 0.4754701303541287 -0.9304691011141655
4719000000.0 0.4639195210714381 -0.8986852777012508
4722000000.0 0.4858520307796388 -0.912307051615723
4725000000.0 0.4361834018151727 -0.9161503594641901
4728000000.0 0.43841237054059085 -0.9060292885800969
4731000000.0 0.4804476287549796 -0.9362422902087955
4734000000.0 0.4257355310825165 -0.9104954214675186
4738000000.0 0.44377820985613703 -0.9444372341861547
4741000000.0 0.39916065441384596 -0.9376314242371586
4744000000.0 0.3796439927169859 -0.9519687276928795
4747000000.0 0.3848454003131186 -0.9431022478041994
4750000000.0 0.3795786401279626 -0.9474986328489781
4753000000.0 0.39801307118087803 -0.9503033241792965
4756000000.0 0.37662129370032454 -0.9828071955675057
4759000000.0 0.36034902492275844 -0.9700290171886998
4762000000.0 0.34605707804110614 -0.9892854615952927
4766000000.0 0.3605005455007688 -0.9758117164731624
4769000000.0 0.3474608883372656 -0.9534925274620508
4772000000.0 0.3487581112462075 -0.9607239624127787
4775000000.0 0.3379117454799503 -1.0210140339580926
4778000000.0 0.28831701889311273 -0.9939952510587983
4781000000.0 0.32816755071561604 -0.981159525083936
4784000000.0 0.3381093166919753 -0.9712144482196842
4788000000.0 0.266641249744084 -0.9996664778766486
4791000000.0 0.26418323074543554 -0.984292817834768
4794000000.0 0.30156928854952075 -1.021647509138784
4797000000.0 0.2520819457614736 -0.9920974682229519
4800000000.0 0.23398469587651174 -0.9797245097597094
4803000000.0 0.19691712526549426 -0.9888238331765906
4806000000.0 0.24780264421291273 -1.0378938600019312
4809000000.0 0.19682369501100108 -1.0263705918955148
4812000000.0 0.19961859052472203 -0.9837648443543647
4816000000.0 0.2349249037918783 -0.9853673877793969
4819000000.0 0.24678912487381194 -1.016043158461839
4822000000.0 0.2263563121244274 -1.0448722216587565
4825000000.0 0.22152065597039344 -1.0221596586609618
4828000000.0 0.1847869397147045 -1.0306020159114602
4831000000.0 0.13502912407856163 -1.0620065415358033
4834000000.0 0.1882447119049304 -1.0216450405749946
4838000000.0 0.1422614898886228 -1.0203191914689755
4841000000.0 0.1276614599067806 -1.0108741251632716
4844000000.0 0.19401866074698837 -1.0224247834292224
4847000000.0 0.15234927580770127 -0.9988467994336119
4850000000.0 0.09365724374809803 -1.0385147241176986
4853000000.0 0.10183089014207337 -1.000135437529205
4856000000.0 0.09105002048331738 -1.025038888454336
4859000000.0 0.09588873567461176 -1.0513526426529078
4862000000.0 0.11127725342224154 -1.0101618993576635
4866000000.0 0.07163477036411774 -1.0433445329284492
4869000000.0 0.07326852622604019 -1.0271472011580676
4872000000.0 0.05801701839572653 -1.052585330621085
4875000000.0 0.10942866402209496 -1.0694468853579309
4878000000.0 0.046601829646450744 -1.0192481187287648
4881000000.0 0.02192762641263609 -1.1014968948203199
4884000000.0 0.030989445020537045 -1.0238355996611714
4888000000.0 0.049668664205338685 -1.036762990623916
4891000000.0 0.05070371613751275 -1.0808821277258023
4894000000.0 0.005226136146224382 -1.0359965357045735
4897000000.0 0.05166007502721122 -1.022514850589151
4900000000.0 -0.013265706538200896 -1.0357292866719479
4903000000.0 -0.005838945471312952 -1.071228230480839
4906000000.0 -0.020341798182167088 -1.0411938711449011
4909000000.0 -0.029361896915799227 -1.0410001027599818
4912000000.0 -0.06686280053069207 -1.0734356906825373
4916000000.0 -0.023513038265876078 -1.0278832404384832
4919000000.0 -0.03701859105288767 -1.068108627057975
4922000000.0 -0.03938240108528612 -1.0370944090382936
4925000000.0 -0.09149938637807115 -1.0378158954203083
4928000000.0 -0.01921088951614909 -1.0190153871639205
4931000000.0 -0.05004183658755211 -1.0769901316739252
4934000000.0 -0.07833517079946851 -0.9834510277835626
4938000000.0 -0.13388495606366352 -1.0079030492511434
4941000000.0 -0.09725859974467728 -0.9944038104313607
4944000000.0 -0.09233074327733828 -0.9694162643398858
4947000000.0 -0.12163563706687727 -1.0006121326829835
4950000000.0 -0.16376794630365576 -1.0072922535293987
4953000000.0 -0.16436631363875698 -1.086118475222809
4956000000.0 -0.162475464263644 -1.026754938945704
4959000000.0 -0.19728472659378418 -0.9991805666300791
4962000000.0 -0.2084569684072972 -1.060822363656261
4966000000.0 -0.22160288596277045 -1.0153884360582113
4969000000.0 -0.1608800233813682 -1.0675955755908513
4972000000.0 -0.1888455212216202 -1.0323540351267053
4975000000.0 -0.20013708979436592 -1.0049831267862004
4978000000.0 -0.2210248658669443 -1.0468822360825367
4981000000.0 -0.23075672630388042 -1.074474299255911
4984000000.0 -0.23185104204190812 -1.0095008089625457
4988000000.0 -0.1913051242032231 -0.9911991605408453
4991000000.0 -0.1987795925594279 -1.0454654791070574
4994000000.0 -0.22552901746652143 -1.0274248645095836
4997000000.0 -0.3061236046240801 -0.9953837521415443
5000000000.0 -0.2711707798724836 -1.0371045840439892
5003000000.0 -0.28303685963308617 -1.0553185224235044
5006000000.0 -0.3075482612005216 -1.0635365129662584
5009000000.0 -0.29262497739882354 -0.9946708075542569
5012000000.0 -0.3335835291159884 -0.984557892360971
5016000000.0 -0.28383272181245406 -1.047609981804038
5019000000.0 -0.3301330846819911 -1.021026306484066
5022000000.0 -0.3191540905997947 -0.998047473598219
5025000000.0 -0.3442998935444677 -1.0399085996567488
5028000000.0 -0.3744103383429356 -0.9962777140181884
5031000000.0 -0.3639827249933164 -1.0019473616895995
5034000000.0 -0.40364981993241644 -1.0075248185663577
5038000000.0 -0.39229495032127004 -0.9399809894211695
5041000000.0 -0.38360210748388124 -1.010447355550642
5044000000.0 -0.32231238392414785 -0.9661823205701742
5047000000.0 -0.40396180144426325 -0.9655201134952448
5050000000.0 -0.3252238765754826 -0.9922831950598616
5053000000.0 -0.4252438395169794 -0.9777017584978775
5056000000.0 -0.3717115312015823 -0.9651061775032326
5059000000.0 -0.38111094411096297 -0.9450384374868498
5062000000.0 -0.45528405158223373 -0.9717037961432267
5066000000.0 -0.40253257628835604 -0.959219119226322
5069000000.0 -0.4240768911477849 -0.9684944607523124
5072000000.0 -0.43869031817795034 -0.9190541351676287
5075000000.0 -0.427519875735339 -0.9559685332312835
5078000000.0 -0.5131953870052353 -0.9523217970419287
5081000000.0 -0.4911750773968953 -0.8825059282810227
5084000000.0 -0.5222631955044279 -0.9481469546290038
5088000000.0 -0.47482241106958956 -0.9474079298836173
5091000000.0 -0.5532180494235837 -0.9014997805693596
5094000000.0 -0.5306986300887919 -0.9295244194261559
5097000000.0 -0.49330234830108066 -0.8754418743571044
5100000000.0 -0.5067013675631057 -0.873588337355622
5103000000.0 -0.5738271776919407 -0.9066210886070799
5106000000.0 -0.5342852317129808 -0.9447306432881475
5109000000.0 -0.5330949309937466 -0.9006643204403806
5112000000.0 -0.5462504526563577 -0.8577248481890363
5116000000.0 -0.5146951390919857 -0.8289317617743444
5119000000.0 -0.5641011324030875 -0.9077963027734743
5122000000.0 -0.553287775808696 -0.9094960351505914
5125000000.0 -0.5526320093612626 -0.8317163628307985
5128000000.0 -0.5972454884320529 -0.8476036546430876
5131000000.0 -0.5860582934350289 -0.8275153826059362
5134000000.0 -0.5843193091546538 -0.870199472807894
5138000000.0 -0.5687883493709982 -0.8438561803689402
5141000000.0 -0.619534685048649 -0.8826571277309783
5144000000.0 -0.5784398336957075 -0.8684995551888613
5147000000.0 -0.6388728416433332 -0.8384322296419019
5150000000.0 -0.6130352146751603 -0.8614119215210395
5153000000.0 -0.6594797189838977 -0.8514548058201511
5156000000.0 -0.6604894317788713 -0.8463924494751218
5159000000.0 -0.6573592374460846 -0.8732101043303516
5162000000.0 -0.66853329602031 -0.8176876462813945
5166000000.0 -0.6824908828145466 -0.8378766565207497
5169000000.0 -0.7198282349479775 -0.813905456870264
5172000000.0 -0.6723424757820182 -0.7943239238476689
5175000000.0 -0.7279457859331389 -0.838278851934911
5178000000.0 -0.6994920529788755 -0.7698188312698934
5181000000.0 -0.7041807634432165 -0.7966533880691854
5184000000.0 -0.6811530054498608 -0.7535850344139102
5188000000.0 -0.7052875688619361 -0.7771628332831887
