! Created with skrf 1.8.0 (http://scikit-rf.org).
# Hz S RI R 50.0 
!freq ReS11 ImS11
4000000000.0 0.6167172266097994 0.7966184323674861
4003000000.0 0.6395841621373727 0.9011191578654097
4006000000.0 0.6803974761525965 0.7840050123889172
4009000000.0 0.6621190965890738 0.8103386526207791
4012000000.0 0.6529721156791507 0.8647074259060311
4016000000.0 0.7131055167093537 0.742117460265004
4019000000.0 0.6692325540920179 0.7564750921809703
4022000000.0 0.5956503642291615 0.8186395356256074
4025000000.0 0.7438228714192621 0.7224790549740355
4028000000.0 0.7248606578679138 0.7323735727204905
4031000000.0 0.6480436461355528 0.7265014864371514
4034000000.0 0.7145015530419617 0.7274730686172681
4038000000.0 0.7306562995069348 0.7813008755072703
4041000000.0 0.7148097087606312 0.7329178628068199
4044000000.0 0.7818495766556892 0.7760219242784264
4047000000.0 0.7465300222639072 0.7572319292276327
4050000000.0 0.7710900852450578 0.7006608313766546
4053000000.0 0.7533932403987781 0.6953623130053266
4056000000.0 0.8213179811208013 0.7226123746190712
4059000000.0 0.7308649408908506 0.6985700925444771
4062000000.0 0.7819696924581234 0.7214758405573705
4066000000.0 0.7333673585783071 0.6261124847710485
4069000000.0 0.8348161288563635 0.6812631649089399
4072000000.0 0.777879393998896 0.7081994389764084
4075000000.0 0.8169280133359565 0.7060774653241537
4078000000.0 0.8037668466951269 0.6595539733620689
4081000000.0 0.7840990990515747 0.7328874558638371
4084000000.0 0.8206663867203003 0.6301204675774263
4088000000.0 0.7761192256908058 0.6926596177906447
4091000000.0 0.8877215654739153 0.6878276588941519
4094000000.0 0.8042439654959759 0.6364802196692224
4097000000.0 0.8194461300362894 0.6014156972588027
4100000000.0 0.8407973331087066 0.5911568054846565
4103000000.0 0.8335254519004649 0.6501164417221768
4106000000.0 0.8247386069272833 0.5829502224865502
4109000000.0 0.8693404012936359 0.5978891485860751
4112000000.0 0.852306002727151 0.5431062367835451
4116000000.0 0.8615930588696612 0.5784414183735603
4119000000.0 0.8626429196913102 0.5562702300151706
4122000000.0 0.8953141940495778 0.5449320502501322
4125000000.0 0.895034506777443 0.5394240588726873
4128000000.0 0.8280369019667341 0.5569677111979597
4131000000.0 0.8568003554675163 0.5351581044756458
4134000000.0 0.8782672551865783 0.5480663066810506
4138000000.0 0.8477190026423305 0.5094820148045445
4141000000.0 0.9047674214188899 0.504718985304615
4144000000.0 0.9037935778146671 0.5287407493783982
4147000000.0 0.9040205533161371 0.4832895545448039
4150000000.0 0.89168358773593 0.5201320821336117
4153000000.0 0.9133860891995413 0.4853061842694196
4156000000.0 0.9369752780289338 0.5143700878391324
4159000000.0 0.8871022504064023 0.4724737006435686
4162000000.0 0.9183137968033659 0.49288722737051915
4166000000.0 0.9145737585857598 0.47396656105936286
4169000000.0 0.9311023651693047 0.43305427150999853
4172000000.0 0.936905661096986 0.4627041726252286
4175000000.0 0.9307415881874417 0.4841709319185327
4178000000.0 0.9387494388749971 0.44922082077702474
4181000000.0 0.9329955881738607 0.43244684232458397
4184000000.0 0.9270339121717205 0.4410344287595572
4188000000.0 0.948478781369271 0.390375882826967
4191000000.0 0.9024464442482607 0.4246693296613013
4194000000.0 0.9346274243982503 0.38330649137996975
4197000000.0 0.933185537350326 0.4039089894064077
4200000000.0 0.956052202695435 0.39342205326084767
4203000000.0 0.9555975917305488 0.388467292955072
4206000000.0 0.9746812231215453 0.3734743038248503
4209000000.0 0.930405887869132 0.39017226268174005
4212000000.0 0.9647152874849432 0.3469277927197969
4216000000.0 0.9635997766119078 0.36148209907685075
4219000000.0 0.9687008586151125 0.34895333118078287
4222000000.0 0.9678611056602269 0.32633319684675194
4225000000.0 0.9595346734297823 0.31261835515717384
4228000000.0 0.9800975992825944 0.3167986292651346
4231000000.0 0.9757070071159591 0.3038552302126384
4234000000.0 0.9857634791086717 0.30133557933634764
4238000000.0 0.9787307903221116 0.2930671117196775
4241000000.0 0.9747838967467104 0.2641479858342728
4244000000.0 0.9796380860931702 0.2734573605376303
4247000000.0 0.9928877021576519 0.26292299496477506
4250000000.0 0.9719599543853528 0.2674134442728318
4253000000.0 0.9803684436429119 0.23673784896122485
4256000000.0 1.0087320396256207 0.23869471613361298
4259000000.0 0.96793111509253 0.21439190711960085
4262000000.0 1.002239404825438 0.20735461914853812
4266000000.0 1.0153288565413496 0.1989094084245453
4269000000.0 0.9870065810701468 0.22355648253782692
4272000000.0 1.0018107828023077 0.22182819091302708
4275000000.0 1.0069557501959037 0.1972727825930234
4278000000.0 1.0084737923356157 0.190492892000857
4281000000.0 0.9999786944265775 0.19474659408988898
4284000000.0 1.051063226489369 0.12714505561765163
4288000000.0 0.9904962612675761 0.1884892622089447
4291000000.0 0.9819295955648925 0.13341690396303002
4294000000.0 0.9817451128313002 0.14469805627154242
4297000000.0 0.9890896121662026 0.14282071822173764
4300000000.0 0.9875285098992701 0.14041786690414892
4303000000.0 0.9843958033777004 0.0953229606912586
4306000000.0 1.0285211449287868 0.1336967879419388
4309000000.0 1.006884968403293 0.10327158989654024
4312000000.0 1.0447959831899023 0.12015559002088522
4316000000.0 1.0272269968834786 0.10213819601365422
4319000000.0 1.0009162948962758 0.08525244227114755
4322000000.0 1.0077603892101608 0.03378938243831926
4325000000.0 1.0089393315784558 0.058698623135304925
4328000000.0 0.9938609115830582 0.03618987739941605
4331000000.0 1.025386997573392 0.003644827920248367
4334000000.0 1.0386635008270328 0.02279171133550989
4338000000.0 1.0227675485562233 0.05994620568637617
4341000000.0 0.9994528306865695 0.03043414838907385
4344000000.0 1.0245838029736887 0.009369481334951218
4347000000.0 1.0383798491285827 -0.021003971842747132
4350000000.0 0.9564272522211056 -0.03549040800491615
4353000000.0 0.9797931505061375 -0.027923372630905455
4356000000.0 1.0158023959810105 -0.060792189379799175
4359000000.0 0.958800156266199 -0.060949955850159915
4362000000.0 1.0326838821167166 -0.10100390978219459
4366000000.0 1.0296482111444345 -0.05343685766849074
4369000000.0 0.9806718944264179 -0.08347386946592958
4372000000.0 1.0011289040873776 -0.12520650891781862
4375000000.0 0.9945566409758846 -0.08205939653255075
4378000000.0 0.9898136207879851 -0.08838906138988187
4381000000.0 0.9830218044217629 -0.09988638910775001
4384000000.0 1.067418714247201 -0.13570801411313166
4388000000.0 0.9995814893060835 -0.10336276389134699
4391000000.0 1.0232394639518478 -0.13844770378960158
4394000000.0 0.9667135529092172 -0.1530477549102269
4397000000.0 1.0041867399154059 -0.1641175139874051
4400000000.0 1.0347200509784884 -0.17310416324257916
4403000000.0 1.0171775586711078 -0.1607404521124694
4406000000.0 0.9860737930705485 -0.18624496465756288
4409000000.0 1.0308553463212355 -0.19074474604369257
4412000000.0 0.9753360290619095 -0.23488093964245452
4416000000.0 0.9648001478598986 -0.20980892839731569
4419000000.0 0.984133195965823 -0.23404964646836898
4422000000.0 0.9859421322021771 -0.20654622440627604
4425000000.0 1.0085877969247978 -0.19888500442754276
4428000000.0 0.9807547792583039 -0.22984877329212594
4431000000.0 1.0098330611615587 -0.2361830105769844
4434000000.0 0.9725276712063278 -0.26157553139553463
4438000000.0 1.002081410130893 -0.25845617093667256
4441000000.0 0.9935388199040704 -0.2638917518589248
4444000000.0 0.9683031396849644 -0.27029579843822676
4447000000.0 0.962202588668252 -0.29928941516193697
4450000000.0 0.9660108291688854 -0.2739251470715256
4453000000.0 0.9749008807911073 -0.2985784063980583
4456000000.0 0.9325442970502341 -0.3079640569819997
4459000000.0 0.9133311629578613 -0.31072598511021954
4462000000.0 0.9948296780288652 -0.3514975153950254
4466000000.0 0.9971896737674978 -0.35675001726736466
4469000000.0 0.9606240588829047 -0.3266928967394221
4472000000.0 0.9538573302754748 -0.3711959838646852
4475000000.0 0.9226230926539208 -0.3498063282777863
4478000000.0 0.9756725685440057 -0.4057396141983046
4481000000.0 0.9249505618028118 -0.38103698566462707
4484000000.0 0.9110392694939988 -0.4243090721189934
4488000000.0 0.9030180965197949 -0.39322366174210044
4491000000.0 0.9223774633232789 -0.40678161553012626
4494000000.0 0.92622711702686 -0.3989854512849167
4497000000.0 0.9171571256286137 -0.4113302071861092
4500000000.0 0.9112504426018051 -0.4146768223318772
4503000000.0 0.9474336492254691 -0.42381982027891624
4506000000.0 0.8873318178657563 -0.4467714901074181
4509000000.0 0.8905538876188217 -0.44770101419946806
4512000000.0 0.871231763627517 -0.46844210560226796
4516000000.0 0.9100390388583635 -0.4692105141843391
4519000000.0 0.883209919341652 -0.4512050705116235
4522000000.0 0.8941444852355849 -0.48907640836860733
4525000000.0 0.8928434823014477 -0.4325261634671144
4528000000.0 0.9143169091032759 -0.503145173624537
4531000000.0 0.9029360491068722 -0.4718223169099678
4534000000.0 0.8724125503641975 -0.5064814908789793
4538000000.0 0.8652609658142238 -0.5134603754349298
4541000000.0 0.8421439057394318 -0.5594401852405423
4544000000.0 0.8485536538604184 -0.5073603583775446
4547000000.0 0.8661690671308445 -0.5140634144112639
4550000000.0 0.8450291309582161 -0.5552834548748025
4553000000.0 0.8405016260377467 -0.561114670860722
4556000000.0 0.8096270729154675 -0.5693327614086785
4559000000.0 0.8293844578824904 -0.5870562953795222
4562000000.0 0.8535135367116136 -0.5848352219039927
4566000000.0 0.8355992520485005 -0.6107691686982062
4569000000.0 0.7988852973989747 -0.5870580880405281
4572000000.0 0.8044089242071663 -0.5929846260513592
4575000000.0 0.7950289660462344 -0.6306604134326919
4578000000.0 0.8540771665658049 -0.6172542421928028
4581000000.0 0.7986710081207907 -0.6450973355441165
4584000000.0 0.7844620380933811 -0.6387388689989605
4588000000.0 0.8090894240169066 -0.6380526387649968
4591000000.0 0.8099836980524602 -0.6384635883524112
4594000000.0 0.7822280893809885 -0.6681080900835424
4597000000.0 0.7637554319938644 -0.6763524934608544
4600000000.0 0.729855322579132 -0.6739301582850398
4603000000.0 0.7495437636457216 -0.6841053656691799
4606000000.0 0.7626455391627018 -0.6859746905939681
4609000000.0 0.7513407236254892 -0.6946201806868543
4612000000.0 0.752857923697867 -0.6958056763211646
4616000000.0 0.7229285408206365 -0.7034469814580402
4619000000.0 0.7412928556966176 -0.7024503216524715
4622000000.0 0.7120609488589921 -0.7155440571819643
4625000000.0 0.671283081859981 -0.7263093696368155
4628000000.0 0.7043620449706711 -0.7014979572553633
4631000000.0 0.6965881223592003 -0.7304836239767085
4634000000.0 0.6918641407706992 -0.7557782473520263
4638000000.0 0.6825976062292531 -0.7531158033046389
4641000000.0 0.6826405835014336 -0.7378114764836997
4644000000.0 0.6649996774949348 -0.7523747055835197
4647000000.0 0.6867113913821741 -0.7739836709824439
4650000000.0 0.6558274642039893 -0.7673624407252215
4653000000.0 0.6775102259577235 -0.776754386660163
4656000000.0 0.6349369931123314 -0.7709253528002589
4659000000.0 0.63903177331926 -0.797893521635485
4662000000.0 0.6443813164104472 -0.7971915740888912
4666000000.0 0.6304848613545844 -0.8045153147938943
4669000000.0 0.6314540255952046 -0.7988477877722294
4672000000.0 0.6107240827768716 -0.8224995408358723
4675000000.0 0.5780974443513112 -0.8172828119433441
4678000000.0 0.5825690161157083 -0.8077513413807531
4681000000.0 0.5826518709813089 -0.8463408568843107
4684000000.0 0.5710543708085651 -0.852324451529927
4688000000.0 0.5608965324988733 -0.8286771575997579
4691000000.0 0.597056200132047 -0.8455912562047925
4694000000.0 0.5610619816491236 -0.8495396629942604
4697000000.0 0.5156108123384953 -0.8297134336684613
4700000000.0 0.5686282092316013 -0.8647328226660136
4703000000.0 0.5326931402744908 -0.8117048247344576
4706000000.0 0.5437204966978451 -0.8881705693421796
4709000000.0 0.4947078591959134 -0.8803571832225346
4712000000.0 0.5158683811389086 -0.8822753683565882
4716000000.0 0.5264194018716348 -0.9074918794310807
4719000000.0 0.5460559739673511 -0.886117067243257
4722000000.0 0.5321644201588338 -0.8737241170407897
4725000000.0 0.4730439092331735 -0.8720861004805065
4728000000.0 0.487766166013526 -0.9044569813447605
4731000000.0 0.4937127778029307 -0.9216156236009068
4734000000.0 0.4666532287968057 -0.887850604140217
4738000000.0 0.49108978535417563 -0.9228645174046566
4741000000.0 0.4622104279640191 -0.9489036173618901
4744000000.0 0.4671089325049925 -0.9210810976249937
4747000000.0 0.4475682484073143 -0.9187994333544519
4750000000.0 0.3973487384945121 -0.9591940824809077
4753000000.0 0.4258858147412084 -0.9428351007133028
4756000000.0 0.4274014202505778 -0.9244333571624768
4759000000.0 0.4270016985090249 -0.9402663162115894
4762000000.0 0.38561411522778066 -0.9592204090748492
4766000000.0 0.3712275622674802 -0.970938711247532
4769000000.0 0.3898097635900474 -0.9292616395465452
4772000000.0 0.37365396644034354 -0.9588249376565763
4775000000.0 0.35355242328819203 -0.993567524566574
4778000000.0 0.3653009625462146 -0.9473637598831829
4781000000.0 0.3805462462373037 -0.9658664690374599
4784000000.0 0.3615452478726115 -0.9657874808518848
4788000000.0 0.33301013266911306 -1.0073780326873105
4791000000.0 0.32167680615983457 -0.9771556166379031
4794000000.0 0.3367922433938449 -0.9980871169029881
4797000000.0 0.30829633392144584 -0.9559535997774772
4800000000.0 0.28300654392084135 -0.9668130893835702
4803000000.0 0.25337925119581967 -0.9728830161587882
4806000000.0 0.29755381170663475 -0.9969148761880164
4809000000.0 0.2552666725440906 -0.9697647794439582
4812000000.0 0.20869543156939863 -0.9969220391527294
4816000000.0 0.2801986730618602 -0.9750573493764756
4819000000.0 0.2701641177306857 -1.0148253034185157
4822000000.0 0.24921021982442093 -1.0167087093145644
4825000000.0 0.2812908036866566 -1.0133045492498995
4828000000.0 0.25506249846832185 -1.002363649625777
4831000000.0 0.19135813393597267 -1.0281162433688458
4834000000.0 0.22989854907879587 -1.005485513569953
4838000000.0 0.18038821074475633 -1.0441055079529669
4841000000.0 0.16588710215885175 -0.9843980415103742
4844000000.0 0.21574436715739656 -1.0096946144190262
4847000000.0 0.2051236154466458 -0.9815990934018979
4850000000.0 0.15152380047295178 -1.0362799134415002
4853000000.0 0.16895778035235892 -0.9824401639624822
4856000000.0 0.13982074021290256 -1.0201129004454659
4859000000.0 0.14444316577643285 -1.0443999659538323
4862000000.0 0.1621078652403927 -1.0030709480337257
4866000000.0 0.11108637842584601 -1.0459269946682823
4869000000.0 0.10707755020330201 -1.0253901741016456
4872000000.0 0.09191830317771915 -1.0523493296770239
4875000000.0 0.15934987827508096 -1.0392399851312806
4878000000.0 0.07219556870883943 -1.0289169248985073
4881000000.0 0.04101385484617333 -1.089173409369207
4884000000.0 0.08670266271399772 -1.0513992973999025
4888000000.0 0.09990896083789934 -1.0373194723811443
4891000000.0 0.07031631962130291 -1.0732216921096942
4894000000.0 0.022151042269853018 -1.021802839140952
4897000000.0 0.0784564713157556 -1.0501476529247349
4900000000.0 0.05694693951875945 -1.0413012565808402
4903000000.0 0.026368838679435305 -1.0653545378031344
4906000000.0 0.02328775926704834 -1.0624099576654413
4909000000.0 -0.012978777683755792 -1.0323500276834021
4912000000.0 -0.029471995840634313 -1.0626435669983945
4916000000.0 0.02198017682457496 -1.065112870729388
4919000000.0 0.0016393488858983535 -1.105762932557592
4922000000.0 0.002873681464789085 -1.0618543643085003
4925000000.0 -0.05653209084888905 -1.0430521507450816
4928000000.0 0.02984844712249181 -1.0240729137927387
4931000000.0 -0.028607355385378785 -1.0604189352121516
4934000000.0 -0.05331389956931047 -0.9795634423243071
4938000000.0 -0.09606681804691107 -1.034883846308085
4941000000.0 -0.06264511548374292 -0.9853385455645154
4944000000.0 -0.05534491216565943 -0.95236186183367
4947000000.0 -0.09648967852421927 -0.9709978141195554
4950000000.0 -0.10340663451791195 -1.004431467140183
4953000000.0 -0.12478758574028681 -1.057988707834552
4956000000.0 -0.14229389730957348 -1.0312293493961655
4959000000.0 -0.18413534911665844 -0.9721092324241822
4962000000.0 -0.13654675273581138 -1.0643536381431584
4966000000.0 -0.09098958101920529 -1.0527827798853133
4969000000.0 -0.13845363726897697 -1.0824688938613407
4972000000.0 -0.133930265464868 -1.0268218883451836
4975000000.0 -0.13134563292771065 -1.0374130205806757
4978000000.0 -0.20726050385158235 -1.0187809128688081
4981000000.0 -0.22010080535528206 -1.0225059657450335
4984000000.0 -0.17651384401223705 -1.0075416434723803
4988000000.0 -0.15503985311801205 -1.0036090439442362
4991000000.0 -0.18520734703139663 -1.009714190752728
4994000000.0 -0.16759282075324772 -1.0132688955733258
4997000000.0 -0.25382058226700166 -0.9915989351841324
5000000000.0 -0.20323433270721736 -1.0476889173511312
5003000000.0 -0.2229194199426061 -1.0612569105276994
5006000000.0 -0.23542019054002986 -1.0593707675986919
5009000000.0 -0.24056542886062796 -1.0238894680490853
5012000000.0 -0.28555457976977855 -1.019157039762663
5016000000.0 -0.24039700201242292 -1.0768145083743006
5019000000.0 -0.3012814791919243 -1.003039909752296
5022000000.0 -0.24191550379360222 -0.9933368279751944
5025000000.0 -0.3020068731738566 -1.0578304837074812
5028000000.0 -0.3131605753817417 -0.9998669429075011
5031000000.0 -0.3201775196759763 -0.9876339540331288
5034000000.0 -0.3553403714352933 -1.0047177948246713
5038000000.0 -0.34944662822461103 -0.9205042694000733
5041000000.0 -0.3081483436638943 -0.9864131220192457
5044000000.0 -0.26585559500683875 -0.9477668932980604
5047000000.0 -0.33615698844714664 -1.0212534944772562
5050000000.0 -0.2641128116187216 -1.0313025152466198
5053000000.0 -0.38075693223522034 -1.0042761011629366
5056000000.0 -0.31603745441349973 -0.9883398224490547
5059000000.0 -0.3163942252036079 -0.9693668302679462
5062000000.0 -0.4457483788211757 -0.9861585975958158
5066000000.0 -0.36880928959114334 -0.9695301935799994
5069000000.0 -0.40211172454069843 -0.9426796340710776
5072000000.0 -0.37012307769715674 -0.9379249376671479
5075000000.0 -0.3844166712362892 -0.9847055712502126
5078000000.0 -0.46869196131526386 -0.922802766884123
5081000000.0 -0.425460246235932 -0.8977702822814405
5084000000.0 -0.4351644065154535 -0.9728624343780761
5088000000.0 -0.42995925391740164 -0.9366963988285804
5091000000.0 -0.48080706190352757 -0.9186114279351327
5094000000.0 -0.45450195030626755 -0.9293070581665522
5097000000.0 -0.42841015748667377 -0.9638875248307854
5100000000.0 -0.4706637849873731 -0.9557118723321242
5103000000.0 -0.5098645342944415 -0.9097032275150968
5106000000.0 -0.4957402932673421 -0.9681895180742579
5109000000.0 -0.4551990295130665 -0.9511769475690415
5112000000.0 -0.5014613429670144 -0.9059383288167462
5116000000.0 -0.4984585320833534 -0.8652160210120301
5119000000.0 -0.5135437484470246 -0.958679619750795
5122000000.0 -0.481528699307236 -0.9145146811224214
5125000000.0 -0.48383185015693597 -0.9136739574414495
5128000000.0 -0.5597276050428143 -0.8815833429412603
5131000000.0 -0.5129616766022094 -0.9215872554319563
5134000000.0 -0.5791977685096206 -0.8954745828748757
5138000000.0 -0.5226616406391844 -0.8926433884578716
5141000000.0 -0.5135258388943206 -0.9178807809262641
5144000000.0 -0.539111528692854 -0.8849320656749926
5147000000.0 -0.5600647272895817 -0.8980563944978381
5150000000.0 -0.5477112446135814 -0.8961500835381447
5153000000.0 -0.6075029514816432 -0.883097379498076
5156000000.0 -0.5889546765665679 -0.8650882796120638
5159000000.0 -0.5882593049096101 -0.9084412766148198
5162000000.0 -0.6256201857604723 -0.8388722495992447
5166000000.0 -0.6167790948349494 -0.8878593400152625
5169000000.0 -0.6383388821919299 -0.8455087446818521
5172000000.0 -0.6257154293027414 -0.8325943158213674
5175000000.0 -0.632137851148563 -0.8730404853171269
5178000000.0 -0.6251681794856612 -0.8380467912514389
5181000000.0 -0.6490013221923459 -0.8515011109801272
5184000000.0 -0.6558864170903028 -0.8474599117556625
5188000000.0 -0.6681072053396715 -0.8268473744993408
