! Created with skrf 1.8.0 (http://scikit-rf.org).
# Hz S RI R 50.0 
!freq ReS11 ImS11
4000000000.0 0.041957394628466774 -1.0094388983544582
4003000000.0 0.015542015923755273 -0.9700273462447973
4006000000.0 -0.025720721280520928 -1.0288651871372403
4009000000.0 -0.0883954242664079 -1.010623302808926
4012000000.0 -0.16539115392902207 -0.9893629287197799
4016000000.0 -0.11525800360754669 -0.9956303105604885
4019000000.0 -0.153841891176764 -0.9889251171631248
4022000000.0 -0.2909009417894164 -0.9884251108504131
4025000000.0 -0.2073731291065725 -0.9702043177653175
4028000000.0 -0.2954758660844652 -0.9628403460995287
4031000000.0 -0.30915783537575 -0.9757787538894261
4034000000.0 -0.3562665304482329 -0.9502121955714523
4038000000.0 -0.38767996933866067 -0.9040692760890698
4041000000.0 -0.4454315123374283 -0.8750631190207692
4044000000.0 -0.48844272459240723 -0.8819429010105012
4047000000.0 -0.4943204498186438 -0.8652522089989869
4050000000.0 -0.5155417196577584 -0.8248100476632916
4053000000.0 -0.5194449776566891 -0.8565937560741461
4056000000.0 -0.600215020199947 -0.7858704526250541
4059000000.0 -0.6836970917509039 -0.7711800618213775
4062000000.0 -0.6713896678385219 -0.7348892827167821
4066000000.0 -0.6826951492356954 -0.7346648370110583
4069000000.0 -0.7040875181874748 -0.702062819582878
4072000000.0 -0.7463764989059448 -0.6677694794350568
4075000000.0 -0.77189965127269 -0.63838271482645
4078000000.0 -0.8252521573921026 -0.644749022939661
4081000000.0 -0.8490713435344039 -0.5532778822594224
4084000000.0 -0.8494117472039069 -0.5691106611466021
4088000000.0 -0.8699742651404219 -0.5363919240141977
4091000000.0 -0.9602459482383536 -0.49044403953275667
4094000000.0 -0.9397407894567914 -0.45172313150482135
4097000000.0 -0.9154984376586709 -0.4073298413936101
4100000000.0 -0.9473888235421519 -0.3833009704883402
4103000000.0 -0.9727600395447311 -0.35605183939977814
4106000000.0 -0.9981156689550356 -0.3356770591825796
4109000000.0 -0.9699898672492322 -0.2556036810940483
4112000000.0 -1.013121870861561 -0.21885735718323415
4116000000.0 -1.0035841928929257 -0.24423212954296664
4119000000.0 -1.0111325098402313 -0.13507675029745037
4122000000.0 -1.03572142402059 -0.09855927491796923
4125000000.0 -1.0632772422466779 -0.07318757184890945
4128000000.0 -0.9984613306214077 -0.05221865233850759
4131000000.0 -1.0079577236194448 -0.04578389463309879
4134000000.0 -1.010834110025842 0.03142901791053415
4138000000.0 -1.0010578995267292 0.04014740649359627
4141000000.0 -1.0297645875063484 0.13040709334451445
4144000000.0 -1.0164927593883246 0.11819097852382793
4147000000.0 -0.9869554263760691 0.195037420696981
4150000000.0 -1.059492825427422 0.17704784525794431
4153000000.0 -1.0451679040772253 0.21767666756599657
4156000000.0 -1.0348007429673522 0.29524490726809527
4159000000.0 -1.031286998000249 0.28307427444781647
4162000000.0 -0.9505424816832235 0.31675838880933005
4166000000.0 -0.9910399097713907 0.39506168878532566
4169000000.0 -0.9352520151773247 0.48183653008201965
4172000000.0 -0.980318293250275 0.414466387301153
4175000000.0 -0.9285500693579153 0.4127261082408868
4178000000.0 -0.930623263628927 0.4927982912822739
4181000000.0 -0.9497526607047302 0.43991074252751816
4184000000.0 -0.9674360222649838 0.577373684866566
4188000000.0 -0.9185182272547205 0.5633491987114382
4191000000.0 -0.875225149252675 0.5305309125369617
4194000000.0 -0.8245190014437002 0.5837356039401821
4197000000.0 -0.8237842435695946 0.6229025934028989
4200000000.0 -0.763066413130101 0.723607303543016
4203000000.0 -0.7643258360196808 0.5840948516376111
4206000000.0 -0.7923901114929216 0.6844805540756456
4209000000.0 -0.8347499719179339 0.6732589974714962
4212000000.0 -0.722021304222976 0.7764093681903711
4216000000.0 -0.6817660818611783 0.7944890852068756
4219000000.0 -0.6749154125689469 0.7763867899749562
4222000000.0 -0.6995804474852894 0.8123843082872892
4225000000.0 -0.6665364324969041 0.821685446766614
4228000000.0 -0.6850899261948404 0.8280911703515884
4231000000.0 -0.5685015999673453 0.8261167475335055
4234000000.0 -0.6943877239422089 0.8130650172857485
4238000000.0 -0.6152709742120376 0.8806855267095801
4241000000.0 -0.6197866058825545 0.8845665720299041
4244000000.0 -0.5820994643030734 0.9059099080513977
4247000000.0 -0.5764241298586148 0.9868049488928055
4250000000.0 -0.5500735418277962 0.9507116160958117
4253000000.0 -0.5211235330713546 0.8679577950451438
4256000000.0 -0.4084821280283259 0.8732322979967324
4259000000.0 -0.4591067134557806 1.0035618840743477
4262000000.0 -0.4100544315724803 0.9965527105913882
4266000000.0 -0.41935319479215394 0.9377088650438669
4269000000.0 -0.42148105489641474 1.0290723949490124
4272000000.0 -0.30360484811943844 0.999960052415295
4275000000.0 -0.3011406655573275 0.9889317523698706
4278000000.0 -0.293974296946226 0.9628148289479225
4281000000.0 -0.23596919478023784 0.9827468962987873
4284000000.0 -0.2915623136096647 1.0217789403447224
4288000000.0 -0.20067655330372156 1.0375688412961852
4291000000.0 -0.26446899852919786 1.047117901964198
4294000000.0 -0.19612515870795394 0.9999929720976862
4297000000.0 -0.14847487996548306 1.0071864989916859
4300000000.0 -0.1398326838811218 1.09491426693242
4303000000.0 -0.21339317669098112 1.0445301273570726
4306000000.0 -0.07821142571705852 1.0871161061737553
4309000000.0 -0.06081991267237234 1.0546788280144237
4312000000.0 -0.05787199024830339 1.0413974920362088
4316000000.0 -0.0466816709159725 1.0214359412279905
4319000000.0 -0.04463231369798003 1.0236690050404371
4322000000.0 0.017206860383395778 1.0285509324458588
4325000000.0 -0.025287530799506436 1.0482376536510711
4328000000.0 0.04726206144932598 1.0619937757295903
4331000000.0 0.07741431511827376 1.0287007290955745
4334000000.0 0.059162386093091456 1.0673860041843386
4338000000.0 0.0576228972926868 1.0170225616260895
4341000000.0 0.09334533808869222 1.0226562880345067
4344000000.0 0.13032264395909154 0.9883035152427934
4347000000.0 0.16686549269759446 1.0658205856734686
4350000000.0 0.18936761312015832 1.0175541565199124
4353000000.0 0.18459778977389468 1.019574579506247
4356000000.0 0.14744488204231665 1.0486482670859731
4359000000.0 0.21422368745994272 1.051564562140928
4362000000.0 0.194922693549466 0.9975883809515511
4366000000.0 0.2959890289737578 0.9783015530116896
4369000000.0 0.2597981962781114 1.0271005724979485
4372000000.0 0.2771846510661209 0.9880850239203033
4375000000.0 0.2992575435497989 0.9528100774741434
4378000000.0 0.3342829081180953 1.0274735074584402
4381000000.0 0.3074814492308066 1.0017741650493286
4384000000.0 0.36339303423575176 0.9339561729752739
4388000000.0 0.36562379347236734 0.9700797908442447
4391000000.0 0.3621292259082364 0.9442198137901916
4394000000.0 0.34707328901047196 0.9543272878235588
4397000000.0 0.39748191307559416 0.9532394581090249
4400000000.0 0.3893400362141388 0.9520067293095797
4403000000.0 0.41985264923574217 0.9665229959561926
4406000000.0 0.48851971624169366 0.894315568231504
4409000000.0 0.4651693071018565 0.9061112591911584
4412000000.0 0.4553525724804237 0.9147462949643572
4416000000.0 0.507058240725129 0.8900561754712047
4419000000.0 0.5167790671141083 0.9190223330825569
4422000000.0 0.5261089764525437 0.8719583532236908
4425000000.0 0.5127488864368301 0.8978853252539479
4428000000.0 0.5446233747756877 0.8438912449666182
4431000000.0 0.5686535254673277 0.8671077600101383
4434000000.0 0.5772857262162259 0.875950143865116
4438000000.0 0.5855566283983773 0.8866000771022555
4441000000.0 0.5931416071351729 0.8732268347241601
4444000000.0 0.5883600598017271 0.8127818116150006
4447000000.0 0.6143629739914309 0.8229386234598164
4450000000.0 0.6377035886871156 0.8182041834457614
4453000000.0 0.6502523059701908 0.7936634304565111
4456000000.0 0.6522571608616716 0.7799450611293349
4459000000.0 0.6587514694179668 0.7201255654237679
4462000000.0 0.7090041593609386 0.8073733924348876
4466000000.0 0.7067541415084181 0.7602309840732988
4469000000.0 0.6935714922201528 0.7572326062121137
4472000000.0 0.7399048916105002 0.7414930794531509
4475000000.0 0.7327168959981345 0.7229229501037829
4478000000.0 0.7783965878174626 0.7442989736419239
4481000000.0 0.735635061583443 0.691201241490169
4484000000.0 0.7533613547739815 0.666989972347559
4488000000.0 0.753662537052705 0.6724773153413123
4491000000.0 0.7786013427390065 0.6641034560453946
4494000000.0 0.7772808514996274 0.6471581391067667
4497000000.0 0.7821109916888933 0.6477623540019
4500000000.0 0.7883023317318392 0.6553963177619635
4503000000.0 0.8045487387472419 0.6298959711937588
4506000000.0 0.8024428016738778 0.6135189113801824
4509000000.0 0.815709025717529 0.6039463006995438
4512000000.0 0.8109447187798601 0.5822811695080797
4516000000.0 0.8453611714978496 0.6118340744778408
4519000000.0 0.8303635806591392 0.5739898158808918
4522000000.0 0.8672860018685118 0.5419998854239965
4525000000.0 0.8314772334547493 0.5618698998694974
4528000000.0 0.896525036351095 0.5524709865723172
4531000000.0 0.8715913688213641 0.5396237216267601
4534000000.0 0.8647966073125541 0.498064532460683
4538000000.0 0.861096025962881 0.4619703596860486
4541000000.0 0.9260517400593604 0.44012928372355536
4544000000.0 0.8648736380905466 0.4815241828783721
4547000000.0 0.8687075445789662 0.49303207305472263
4550000000.0 0.9407679468163246 0.42924947920910117
4553000000.0 0.9350020588749808 0.43102805993644544
4556000000.0 0.9094228546724081 0.3910426059686817
4559000000.0 0.9238277846435219 0.3957997796100281
4562000000.0 0.9373937391115812 0.4299897880848993
4566000000.0 0.9451519830292128 0.37612612797127076
4569000000.0 0.9068946869108971 0.3683447687258362
4572000000.0 0.9268341655043963 0.3553005912861116
4575000000.0 0.9687548465846127 0.32281063018357337
4578000000.0 0.9639572693925491 0.3864895539108179
4581000000.0 0.9958925793399938 0.2909182665963571
4584000000.0 0.9427306550216705 0.3084230127266266
4588000000.0 0.9722737498330423 0.3101705288059474
4591000000.0 0.9522636497693232 0.3204891733914677
4594000000.0 0.9842701579112542 0.2607186408566443
4597000000.0 0.9968932509624271 0.25794769488233316
4600000000.0 0.9503582778509732 0.18979633256353703
4603000000.0 1.0156718309241772 0.26370088237985584
4606000000.0 0.9720666077481618 0.21579876468538123
4609000000.0 1.003766126340242 0.20871102619943188
4612000000.0 1.0208877673502719 0.20985101210749613
4616000000.0 0.9746132830306953 0.1580618226972325
4619000000.0 0.9866814661582591 0.20683354422576225
4622000000.0 0.9737090545731827 0.20112678162126368
4625000000.0 0.931678117351103 0.14495293800569814
4628000000.0 0.9352708550826395 0.16200838000678983
4631000000.0 0.9852938249751635 0.07696409773926728
4634000000.0 1.0070319225406295 0.13604100670230052
4638000000.0 0.9865923843761147 0.1087165061510974
4641000000.0 1.0303828294618562 0.11270447429728099
4644000000.0 1.006188363979 0.07637306640060884
4647000000.0 1.0171141492266071 0.07380186157152047
4650000000.0 1.0188402927738824 0.011329204703139695
4653000000.0 1.027148932574648 0.04829117149470438
4656000000.0 1.0072733336749373 -0.022563775388791937
4659000000.0 0.9911447541064168 0.02853049058564694
4662000000.0 1.0019819409760706 0.03321324843637824
4666000000.0 1.0116824876969823 0.016970515860119204
4669000000.0 1.0170427080241153 0.024256901095267097
4672000000.0 0.9865451529539541 -0.0783774770682296
4675000000.0 0.9609320113037998 -0.07926423891163763
4678000000.0 1.0144760807776858 -0.058235614738897934
4681000000.0 1.009723823254892 -0.11452611076208696
4684000000.0 0.9614716702281787 -0.08632132963311188
4688000000.0 0.9819956710948519 -0.08106168953095272
4691000000.0 0.9708555761479766 -0.09627245431636583
4694000000.0 1.0034300866154893 -0.14351888346355723
4697000000.0 1.0040125336347392 -0.12363333591524914
4700000000.0 1.0041861675427115 -0.11783904348753738
4703000000.0 1.0240014513754712 -0.18780240534424242
4706000000.0 0.9870524721308545 -0.14961119225579844
4709000000.0 0.9771917003961254 -0.1832104376711447
4712000000.0 0.9760979341726741 -0.21360856101073727
4716000000.0 0.9885991684942369 -0.19331533918724358
4719000000.0 0.988418215757523 -0.2254314866329835
4722000000.0 1.000955360148941 -0.23483624744651407
4725000000.0 0.955310650392579 -0.26958620284610046
4728000000.0 0.94779943683329 -0.24623210355748548
4731000000.0 0.9734946366138972 -0.23654086806378938
4734000000.0 0.958033709441269 -0.2661206137340287
4738000000.0 0.9448399060140882 -0.27408373761739
4741000000.0 0.9503864214847347 -0.27645490027150965
4744000000.0 0.9594879504302203 -0.32145701178469016
4747000000.0 0.9577814415411366 -0.3095621905555137
4750000000.0 0.925206603879067 -0.3421267125675113
4753000000.0 0.9366080615735416 -0.37413669586867754
4756000000.0 0.9403723201428891 -0.37875805358383724
4759000000.0 0.9379164542127785 -0.37644535241296095
4762000000.0 0.9278210513578352 -0.3408799996808243
4766000000.0 0.9227307523254209 -0.3874815595363277
4769000000.0 0.9690867227750091 -0.3938365215841477
4772000000.0 0.9225619818863284 -0.4256239096954314
4775000000.0 0.9110372114465171 -0.44225341197767254
4778000000.0 0.9220625366444166 -0.3799881656552345
4781000000.0 0.9173268688767333 -0.4258821576745697
4784000000.0 0.9057559110605377 -0.43028118871732585
4788000000.0 0.8889446693104565 -0.4365754612659859
4791000000.0 0.8895761848654712 -0.48344323909335873
4794000000.0 0.8744464839458914 -0.4677072457349534
4797000000.0 0.9016851780639854 -0.49763276117204436
4800000000.0 0.8732516501737536 -0.5100748109948798
4803000000.0 0.8637921993083714 -0.4981722428435598
4806000000.0 0.8752676101405233 -0.4944698315045646
4809000000.0 0.8552522560551217 -0.5297933546820752
4812000000.0 0.8512653899689084 -0.55823832828262
4816000000.0 0.8491487414160128 -0.5426570161664233
4819000000.0 0.8463606516936653 -0.5597730500640979
4822000000.0 0.8531335686941193 -0.5694494569020326
4825000000.0 0.8462485360103393 -0.5453408622379496
4828000000.0 0.8250050272062748 -0.5730325379541577
4831000000.0 0.8179091537922635 -0.6266106108157093
4834000000.0 0.8094965523449971 -0.6053095124586029
4838000000.0 0.8068209594903376 -0.6373967238054196
4841000000.0 0.7821186850157988 -0.619732068225314
4844000000.0 0.8165233947482591 -0.6109446049197867
4847000000.0 0.782197794413017 -0.6352349807617071
4850000000.0 0.7839570403922955 -0.6663654662709013
4853000000.0 0.7812389977420449 -0.6507468881631013
4856000000.0 0.764301260807368 -0.6767234665118943
4859000000.0 0.7760841703954512 -0.695460623117225
4862000000.0 0.7574983705971636 -0.6506234916493732
4866000000.0 0.7610978571592087 -0.6770607869842001
4869000000.0 0.7438304298558154 -0.7029645673169567
4872000000.0 0.7424645212615729 -0.7378832191140712
4875000000.0 0.7551624079127782 -0.7086929558595456
4878000000.0 0.7258821014374978 -0.7345287144178397
4881000000.0 0.7489680296796172 -0.7677016671675432
4884000000.0 0.7267317329248418 -0.7324962175193018
4888000000.0 0.7172392209635319 -0.7386613097508264
4891000000.0 0.6993529573720759 -0.7469182834318842
4894000000.0 0.6829728429354107 -0.7480658320645212
4897000000.0 0.6973703156055642 -0.7499463912444199
4900000000.0 0.675912008791742 -0.7852448217494973
4903000000.0 0.6845534041978639 -0.7728538590404501
4906000000.0 0.6632176693716679 -0.8142596791977449
4909000000.0 0.638927964082308 -0.7972508108787212
4912000000.0 0.6340675789238778 -0.8186532774022477
4916000000.0 0.6623744675811405 -0.8223064436247871
4919000000.0 0.6448689601245121 -0.8292362442398662
4922000000.0 0.6508707717669149 -0.8226358379154449
4925000000.0 0.5918501536166247 -0.8188735897745615
4928000000.0 0.6194746959178664 -0.8006767827934534
4931000000.0 0.6212948960416621 -0.8255749331435285
4934000000.0 0.558943289514009 -0.8244043216957918
4938000000.0 0.5643864500083635 -0.8596667144631359
4941000000.0 0.5302609857698588 -0.848922097341275
4944000000.0 0.5586742793859881 -0.8140256521730524
4947000000.0 0.5624847568914387 -0.8312159507386843
4950000000.0 0.505691007754658 -0.8406221883253566
4953000000.0 0.5389679150551021 -0.9076588144742819
4956000000.0 0.4846170027916162 -0.8739554191547783
4959000000.0 0.4694611351153041 -0.8622155584895038
4962000000.0 0.5143188234853533 -0.8983589013444623
4966000000.0 0.5241382502677534 -0.9089927208673445
4969000000.0 0.5144880897757471 -0.9353675022970842
4972000000.0 0.47058452969508435 -0.9510077986371175
4975000000.0 0.48858364803620147 -0.8999503458078018
4978000000.0 0.4819545884893889 -0.9042277133175501
4981000000.0 0.4387216855415045 -0.9526698831996858
4984000000.0 0.4515758802192983 -0.8977123775486379
4988000000.0 0.43630382228961434 -0.9022107472448186
4991000000.0 0.4837250016993686 -0.9288494764330324
4994000000.0 0.43230417612245386 -0.9123949708506136
4997000000.0 0.3869141934566931 -0.955069608151139
5000000000.0 0.4655629876983918 -0.9461171276542661
5003000000.0 0.38906558350521075 -0.9755888338702317
5006000000.0 0.39831437484897825 -1.0163561719314842
5009000000.0 0.3822081573986954 -0.9414453151264092
5012000000.0 0.3653645915466355 -0.9616269979288015
5016000000.0 0.42183449997679434 -0.9756055259706526
5019000000.0 0.34019092475599194 -0.9533282380993515
5022000000.0 0.29977301903296827 -0.978733558788133
5025000000.0 0.3522643931151286 -1.0395206513334345
5028000000.0 0.2836010078141031 -0.9983771682284477
5031000000.0 0.28240531367565924 -0.9826328916156529
5034000000.0 0.26143677527563225 -1.0164432039916826
5038000000.0 0.26175202777032974 -0.965335589512829
5041000000.0 0.3221038492492567 -0.9900375856612021
5044000000.0 0.3084144869441095 -0.9446594385077677
5047000000.0 0.30382349563616784 -1.007087685159612
5050000000.0 0.3245108018900307 -0.942424703646515
5053000000.0 0.23216078210940014 -1.0475270511059769
5056000000.0 0.2947911804767266 -1.0264436361829157
5059000000.0 0.29021426682106105 -0.9971616041922561
5062000000.0 0.20107687639902838 -1.039860990337335
5066000000.0 0.26143097118140074 -0.9924893311048957
5069000000.0 0.22178855463275038 -1.0251667935984963
5072000000.0 0.17510063452275873 -0.9745731445563104
5075000000.0 0.17897262017845605 -1.0186265249409334
5078000000.0 0.10996865253060426 -1.0445694614262762
5081000000.0 0.130148724355285 -0.9831587164359769
5084000000.0 0.17814399071089562 -1.0415818602437585
5088000000.0 0.16491723731876104 -1.0053191001761306
5091000000.0 0.12855223521832781 -1.0569343311716355
5094000000.0 0.11625593472504506 -1.0675005292722446
5097000000.0 0.17957593109065467 -1.0301060418430403
5100000000.0 0.11775776279238984 -1.031940435817693
5103000000.0 0.09879713027159562 -1.0297840048409737
5106000000.0 0.15188023980735738 -1.113838749632053
5109000000.0 0.10971947999852048 -1.0429319908917776
5112000000.0 0.06559027809132836 -1.0163498914100013
5116000000.0 0.07392562879908 -0.9819034238699089
5119000000.0 0.058884291058644685 -1.0014380247701822
5122000000.0 0.09791324092644457 -1.023073275071318
5125000000.0 0.07284667611223283 -1.0202371970243478
5128000000.0 0.024038603966699275 -1.0556090730660619
5131000000.0 0.03109480272523009 -0.9887945838523858
5134000000.0 0.012435289144028805 -1.0506068215500763
5138000000.0 0.019179683280758197 -1.0634028597777916
5141000000.0 0.050006347694757744 -1.0515498619911712
5144000000.0 0.019065626086128204 -1.0765781148578144
5147000000.0 -0.048661309601468666 -1.0281624083954954
5150000000.0 -0.005594303337182714 -0.9989439160816697
5153000000.0 -0.03630775609629662 -1.0441341358272538
5156000000.0 -0.04585364703499871 -1.0869827830013312
5159000000.0 0.001507266982906555 -1.082191316252987
5162000000.0 -0.09988614977131155 -1.0437311643079623
5166000000.0 -0.10763264108073248 -1.0903486932067632
5169000000.0 -0.083350496433074 -1.0588753558911432
5172000000.0 -0.09601700231426603 -1.039171292237569
5175000000.0 -0.0968435967670049 -1.0579854480825401
5178000000.0 -0.0986282062986909 -1.001457803037847
5181000000.0 -0.08537259862481607 -1.0591942015124605
5184000000.0 -0.1457524524614358 -1.0175163514210501
5188000000.0 -0.11254656364974075 -1.051304782859276
5191000000.0 -0.15506744210924445 -1.0417392205120806
