! Created with skrf 1.8.0 (http://scikit-rf.org).
# Hz S RI R 50.0 
!freq ReS11 ImS11
4000000000.0 0.6138230815696119 0.7824161897888946
4003000000.0 0.6750646841459538 0.873868277678871
4006000000.0 0.6830796665391482 0.7334131022818632
4009000000.0 0.6600457126850546 0.7809079957540145
4012000000.0 0.6761906831466036 0.8527990150671666
4016000000.0 0.6864698258404128 0.7880690388767135
4019000000.0 0.6622712998608766 0.7662474999680596
4022000000.0 0.6451173136253961 0.8528763631323738
4025000000.0 0.749920650980933 0.7594392753443132
4028000000.0 0.7296936228300642 0.7292189905690383
4031000000.0 0.6505175853296566 0.7225431010171739
4034000000.0 0.6969956978917705 0.7297997631852251
4038000000.0 0.7273901962638172 0.7615887940808421
4041000000.0 0.7237382491748939 0.7308888652187172
4044000000.0 0.7312131513528763 0.7392094296082807
4047000000.0 0.7133925193004942 0.7544062785944979
4050000000.0 0.7942001994830284 0.7190182127856853
4053000000.0 0.7597135849473388 0.6902561847957924
4056000000.0 0.7194101480083186 0.6939913699547461
4059000000.0 0.7363219647303886 0.6975226925254263
4062000000.0 0.7589797141556547 0.6836686458610934
4066000000.0 0.7328596564255623 0.6254802457333539
4069000000.0 0.8297854997578905 0.6463431697511874
4072000000.0 0.7542362396842723 0.7158582008640029
4075000000.0 0.7774334782871132 0.721536896937363
4078000000.0 0.8054723440974535 0.6767521614035046
4081000000.0 0.7488789773057106 0.7438033706458689
4084000000.0 0.8540579575602741 0.6638254067686367
4088000000.0 0.7559400821564183 0.6879569810704107
4091000000.0 0.8698728689210593 0.6469497225519489
4094000000.0 0.7989299441719035 0.6486583222985798
4097000000.0 0.816808891046494 0.6335301247035492
4100000000.0 0.8640216450171149 0.6366133061064385
4103000000.0 0.8114707483374273 0.6610062362531226
4106000000.0 0.8290988234981042 0.6082634911966416
4109000000.0 0.8680194183262124 0.5754876000532976
4112000000.0 0.8720545993199746 0.5806500040881195
4116000000.0 0.8656523327054535 0.5779710186753677
4119000000.0 0.8534632381936701 0.5987505869420146
4122000000.0 0.8756159023929898 0.5469493481003765
4125000000.0 0.8714582733670743 0.5328090394295848
4128000000.0 0.8315283976238852 0.5639248017356275
4131000000.0 0.8476521985854315 0.5797013065711206
4134000000.0 0.8555392703281889 0.5441707397385259
4138000000.0 0.8556712885941515 0.5241700729781666
4141000000.0 0.8627853859125922 0.5045563208730165
4144000000.0 0.8853157807253365 0.5385878752864395
4147000000.0 0.9386337531428601 0.5050907304146255
4150000000.0 0.9425730450721145 0.5316096774017292
4153000000.0 0.8934131414934293 0.47842688631837405
4156000000.0 0.9601265520449742 0.45788628791963704
4159000000.0 0.9115339121047383 0.5051351176462975
4162000000.0 0.9035490276340628 0.46434774103151233
4166000000.0 0.9366316770465033 0.430815822174065
4169000000.0 0.9151276944474218 0.4401108812751121
4172000000.0 0.939691951262352 0.4222451173403124
4175000000.0 0.9158633889821489 0.43107243180925553
4178000000.0 0.9167086996348446 0.456774516040687
4181000000.0 0.9346937069284307 0.4113092948910425
4184000000.0 0.9517388276244022 0.4431073853339092
4188000000.0 0.9356712578065689 0.40695772326870006
4191000000.0 0.916106631860889 0.4194241499701918
4194000000.0 0.9279663296392257 0.36928869754790905
4197000000.0 0.9643524861203642 0.3934233724963448
4200000000.0 0.946602798040423 0.39053265049253716
4203000000.0 0.9520486897251966 0.40798821796606344
4206000000.0 0.9769717882071026 0.36509946232798424
4209000000.0 0.9416080898307078 0.3468934937119829
4212000000.0 0.9828689880282954 0.330806143632589
4216000000.0 0.9779323951552761 0.3498405073206661
4219000000.0 0.9636031604737716 0.34679843359244
4222000000.0 0.9709537700317996 0.3204491792829915
4225000000.0 0.9532677903839843 0.33363604596358465
4228000000.0 0.9813661849699549 0.2997330521058179
4231000000.0 0.9682964930380418 0.29639201328421183
4234000000.0 0.992775144814426 0.2748270481869467
4238000000.0 1.0024193628890885 0.2615002917569491
4241000000.0 0.9964774429122223 0.2458941601856724
4244000000.0 0.9830693763916238 0.27315776552627746
4247000000.0 0.9903460869427658 0.2639668603365939
4250000000.0 0.9682112538721752 0.23221960451053236
4253000000.0 0.9755702991595874 0.2283992335727112
4256000000.0 1.0180238416078118 0.23683991487699596
4259000000.0 0.9623532548221505 0.21378119217315764
4262000000.0 1.0051849824383856 0.19451761377565194
4266000000.0 1.0194736360098176 0.18443282519774112
4269000000.0 1.0045581517448008 0.23344146457435308
4272000000.0 0.996210916486865 0.189170734638835
4275000000.0 1.012046454670934 0.18842511453791333
4278000000.0 1.02940495961721 0.18757233234183562
4281000000.0 1.0080045182213457 0.18263137799511803
4284000000.0 1.0420919880274362 0.13820855761090478
4288000000.0 1.0210828390083673 0.1705678064249692
4291000000.0 0.9840387572177124 0.13532460625158815
4294000000.0 1.0107449966372712 0.12482105974888126
4297000000.0 0.9889560029517551 0.1528266249368006
4300000000.0 1.00592508056787 0.11234883029685566
4303000000.0 0.9982431733852878 0.09569499726974294
4306000000.0 0.9882881474172669 0.12536156612498195
4309000000.0 1.0056807210336616 0.11621795156649443
4312000000.0 1.0190080303716793 0.13293888217369393
4316000000.0 1.0370680670517611 0.08885639927393561
4319000000.0 0.9843316973011526 0.06696213456468807
4322000000.0 1.0025698840340305 0.050900118878051334
4325000000.0 1.0174128798847484 0.043391932247577966
4328000000.0 1.0124823196142592 0.041363523051570664
4331000000.0 1.0208104240131537 0.0058086820813086915
4334000000.0 1.0237166324605813 0.01785793495353266
4338000000.0 1.0187275435751446 0.042157754685614876
4341000000.0 1.0257674801955647 0.04448125731608013
4344000000.0 1.0249238198025223 -0.008268956359918339
4347000000.0 1.0003123853919542 -0.03112080843599524
4350000000.0 0.981667844553284 -0.0297309508858232
4353000000.0 0.9915320148710207 -0.014706502091142576
4356000000.0 1.015517188032427 -0.06747824812064969
4359000000.0 0.9872378319467952 -0.055049210752046884
4362000000.0 1.012499965405508 -0.12420250115353515
4366000000.0 1.035148278185553 -0.05840443071678167
4369000000.0 0.964973756201471 -0.09047455588034949
4372000000.0 0.9904465831117848 -0.13150967269916986
4375000000.0 1.0082433440152567 -0.08276015544122353
4378000000.0 0.9789238154706562 -0.08554218309266007
4381000000.0 1.0019161879724392 -0.09247957404619399
4384000000.0 1.0488539803301418 -0.132220317793472
4388000000.0 0.9967614741444709 -0.09733661771450099
4391000000.0 1.0088349630566635 -0.1320741434352118
4394000000.0 0.9690664702328858 -0.1447639987066051
4397000000.0 1.0103302808674959 -0.16343853640108819
4400000000.0 1.0257774431605855 -0.15330746565511946
4403000000.0 0.9971683482547778 -0.16414847695651913
4406000000.0 0.9912704539456796 -0.20834607156581467
4409000000.0 1.02988218188209 -0.2017069975253391
4412000000.0 0.9642000070098329 -0.25136817615824386
4416000000.0 0.9779273541542068 -0.22852543332778075
4419000000.0 0.9887745435639382 -0.2409087093087047
4422000000.0 0.9764840856671151 -0.21656137400123807
4425000000.0 1.0020806851478952 -0.22211969296444736
4428000000.0 0.9730018732072845 -0.25932669704691613
4431000000.0 1.0019952060529307 -0.23429075643723882
4434000000.0 0.9715540166680869 -0.25729220508951794
4438000000.0 0.9916106427191802 -0.2638601260045323
4441000000.0 0.9780591965314318 -0.2740291555266579
4444000000.0 0.9613984739417216 -0.2705310176715249
4447000000.0 0.9613447852891233 -0.2889667103000104
4450000000.0 0.966919074579476 -0.27629093575188574
4453000000.0 0.9872913110739056 -0.31792607599933675
4456000000.0 0.9307986548400062 -0.3162566058083635
4459000000.0 0.9186670818414759 -0.335311061041132
4462000000.0 1.0069095057676105 -0.3473820395010633
4466000000.0 0.9813206862054054 -0.3587216794836334
4469000000.0 0.9628416683572868 -0.3339640873631118
4472000000.0 0.9627997474007652 -0.38938254717800835
4475000000.0 0.9164426545730879 -0.3587794583062245
4478000000.0 0.9834023300541095 -0.41854599619268673
4481000000.0 0.9089055319881593 -0.3843081780323806
4484000000.0 0.9148864853837735 -0.4366840387441524
4488000000.0 0.9220414770054663 -0.4019614217968276
4491000000.0 0.9290761600610579 -0.4204876369389764
4494000000.0 0.9216197820699026 -0.41205358422404803
4497000000.0 0.9099575812424967 -0.39217159158327614
4500000000.0 0.9078736027786036 -0.424281283247655
4503000000.0 0.9341301346102873 -0.4447087139248268
4506000000.0 0.8837325375212339 -0.45603603244675633
4509000000.0 0.8944408819070258 -0.4342276078149665
4512000000.0 0.8759125064160653 -0.46843841553642906
4516000000.0 0.9051518485066651 -0.47165813540281454
4519000000.0 0.8697668903172308 -0.46092393863363657
4522000000.0 0.8751396092130939 -0.49849227080360664
4525000000.0 0.8991126151580016 -0.4594874784296108
4528000000.0 0.8984888858903584 -0.5187572733746652
4531000000.0 0.8912471731352701 -0.49396095459187095
4534000000.0 0.8594742534105196 -0.5227966745851198
4538000000.0 0.8533830686930175 -0.538733350700259
4541000000.0 0.8284130937821835 -0.5669020760795377
4544000000.0 0.8715308543449094 -0.5291442251012829
4547000000.0 0.8559864874753633 -0.5171646871922913
4550000000.0 0.8447550966323027 -0.575367718979367
4553000000.0 0.8366995783002833 -0.5613225155900545
4556000000.0 0.8243303548839129 -0.5683496569052423
4559000000.0 0.8335572283390174 -0.5897943838119772
4562000000.0 0.8312933307189048 -0.5978803879788162
4566000000.0 0.8127653841350746 -0.6139334699718857
4569000000.0 0.8078191328461846 -0.5736450530089863
4572000000.0 0.8222045801827226 -0.6156456036721684
4575000000.0 0.7964100345111906 -0.6480379254526384
4578000000.0 0.8243961446058883 -0.6220173720731401
4581000000.0 0.7874044996036532 -0.6570915707974304
4584000000.0 0.7732633261476259 -0.620577655621951
4588000000.0 0.7878515738656167 -0.6628202942513601
4591000000.0 0.7768781607801681 -0.650880734663083
4594000000.0 0.7580801918801535 -0.6579771309092267
4597000000.0 0.7562504240518058 -0.6827762232471057
4600000000.0 0.732162663833222 -0.6723749071784091
4603000000.0 0.7587980392744037 -0.6916882007458995
4606000000.0 0.7563663008427016 -0.6771072719134702
4609000000.0 0.7426876796372305 -0.6857445817511848
4612000000.0 0.7386572037251702 -0.6924684716452779
4616000000.0 0.7156154411258404 -0.6955380389184006
4619000000.0 0.7282700296346831 -0.706000705545619
4622000000.0 0.7253051359073099 -0.73470255818719
4625000000.0 0.6508876776627629 -0.722870685230255
4628000000.0 0.7330676652318505 -0.6995946146232475
4631000000.0 0.6724982589849775 -0.7362533269676608
4634000000.0 0.685313971988881 -0.7354773150043995
4638000000.0 0.6804513087427196 -0.7528176624159924
4641000000.0 0.6859044803164885 -0.7285002123321525
4644000000.0 0.6619656849846869 -0.7511870121129164
4647000000.0 0.6706063902497147 -0.7741016071507126
4650000000.0 0.6465738902741112 -0.7711838204481973
4653000000.0 0.6546443131160185 -0.7879494953361699
4656000000.0 0.6300880466403134 -0.7908348886925167
4659000000.0 0.6299311831221099 -0.7790928550635019
4662000000.0 0.6526068484971836 -0.7943802560849687
4666000000.0 0.6038186452958871 -0.794667135601371
4669000000.0 0.6243705583174479 -0.7976903205950516
4672000000.0 0.5978288917113074 -0.8285101605170787
4675000000.0 0.5837252172328298 -0.8266399897407394
4678000000.0 0.5806971860891026 -0.7887875525882414
4681000000.0 0.5855814516082816 -0.8547028430750492
4684000000.0 0.5639818423740385 -0.8532893975631705
4688000000.0 0.5366199845659606 -0.857658388207407
4691000000.0 0.568233574235932 -0.8212321369633526
4694000000.0 0.5601040809520753 -0.832315874799858
4697000000.0 0.5066586853146466 -0.8124080234622764
4700000000.0 0.5335134469229736 -0.8493518865273375
4703000000.0 0.5303796260209287 -0.8425924375316762
4706000000.0 0.4934038021895694 -0.8864505207543476
4709000000.0 0.5058740011339428 -0.8672355506745243
4712000000.0 0.5139745332165058 -0.872305732663845
4716000000.0 0.5004404343543528 -0.9011219145252403
4719000000.0 0.5281915542718619 -0.8773758962779784
4722000000.0 0.516325105325723 -0.8854880286927733
4725000000.0 0.4847139539518309 -0.885017427926904
4728000000.0 0.44906664846196775 -0.8951040970699569
4731000000.0 0.4828146009228947 -0.9202804572488807
4734000000.0 0.47716320986280125 -0.8740141279711204
4738000000.0 0.4640077279633689 -0.9447515607074972
4741000000.0 0.44845240132947917 -0.9435860614571703
4744000000.0 0.40430015054252044 -0.9132309989947982
4747000000.0 0.4188230957485999 -0.8806795387157487
4750000000.0 0.4347292607641947 -0.9385635469739722
4753000000.0 0.41669177883281106 -0.9323805755566397
4756000000.0 0.39458418284023417 -0.9438704828038966
4759000000.0 0.40706470168556835 -0.9423984246611098
4762000000.0 0.38917818172094587 -0.9574819710627313
4766000000.0 0.3805621128386632 -0.9420621710025203
4769000000.0 0.3998603989530044 -0.9543347172763369
4772000000.0 0.36088874468818694 -0.9796511152717434
4775000000.0 0.3457771436555162 -1.0168717210342513
4778000000.0 0.34554035167505026 -0.959285061788968
4781000000.0 0.3126353589528321 -0.9339661399793369
4784000000.0 0.3446243518418931 -0.9543979668757844
4788000000.0 0.3212278976201671 -0.9800982064464321
4791000000.0 0.31743985193994234 -0.986250252747635
4794000000.0 0.3142375630850243 -0.9987350006953224
4797000000.0 0.30953513680497297 -0.9702489011417296
4800000000.0 0.26804624558825874 -0.966969807987055
4803000000.0 0.2325980020370289 -0.988051637975911
4806000000.0 0.2844269849345861 -1.0121370457405703
4809000000.0 0.2328118636112696 -0.9864400936271113
4812000000.0 0.20808362682860562 -1.0126573896323245
4816000000.0 0.2787645221057447 -0.9684320960674861
4819000000.0 0.27279169312427076 -1.017448384864111
4822000000.0 0.2618267102913404 -1.0264163308612109
4825000000.0 0.24909471636411584 -1.0097008724088787
4828000000.0 0.2095623115099624 -0.9930366867914843
4831000000.0 0.1636219839082705 -1.0261005134809438
4834000000.0 0.22132048599164267 -1.0180294706328796
4838000000.0 0.18323058758109412 -1.0283603551172633
4841000000.0 0.17290092870494594 -1.004077051284845
4844000000.0 0.18556071066292135 -1.0022935580948724
4847000000.0 0.1876530998582725 -0.9771076193322543
4850000000.0 0.1472797608293523 -1.0268329952631308
4853000000.0 0.15755097905327536 -0.9748860802152084
4856000000.0 0.16369118422942203 -1.0092538063149727
4859000000.0 0.1151346412803523 -1.0480718454626143
4862000000.0 0.13856337194830012 -1.0116185009710468
4866000000.0 0.10269921969459886 -1.0272734253247453
4869000000.0 0.1071778210593054 -1.032661091929919
4872000000.0 0.07116573011812345 -1.0613987412744437
4875000000.0 0.1430026316554875 -1.0589874559483743
4878000000.0 0.0809603140059794 -1.0267686647953518
4881000000.0 0.046515578191394576 -1.0957451039910466
4884000000.0 0.06575419764988924 -1.0325232958588977
4888000000.0 0.0972095344936337 -1.0291824802201912
4891000000.0 0.06767124515525663 -1.0462251643758582
4894000000.0 0.016181050792669117 -1.0304820726447865
4897000000.0 0.062005379576436065 -1.006089861312653
4900000000.0 0.029796977894684773 -1.0495627154702487
4903000000.0 0.033403948385017965 -1.069590886081189
4906000000.0 0.005964592263046764 -1.0503888552533454
4909000000.0 -0.01330309792739267 -1.0420407257522961
4912000000.0 -0.028638939477481126 -1.068835500486313
4916000000.0 0.0034606047759215275 -1.0722324665013512
4919000000.0 -0.0018412174400514875 -1.0258543215770484
4922000000.0 -0.00847753958651129 -1.0417199155461063
4925000000.0 -0.07437191130967771 -1.0270950756071202
4928000000.0 0.009033140273944779 -1.0134905928636868
4931000000.0 0.0072209050961503235 -1.041012694474044
4934000000.0 -0.06725394972241254 -1.0018049787471985
4938000000.0 -0.08431164558700334 -1.0499235048944051
4941000000.0 -0.08638669608388709 -1.011969315949822
4944000000.0 -0.0803464378394253 -0.9789654559755829
4947000000.0 -0.12089830688780989 -0.9941208783937364
4950000000.0 -0.11594566894629448 -1.0162302394494949
4953000000.0 -0.14705472783577483 -1.0447942151902185
4956000000.0 -0.13126024418048937 -1.013973033215816
4959000000.0 -0.143197262353533 -0.9886720624120807
4962000000.0 -0.16472652994881007 -1.066856760147343
4966000000.0 -0.15902511384559315 -1.0431811848752186
4969000000.0 -0.1615998583278706 -1.0476857469468435
4972000000.0 -0.198808440125781 -1.028000734459876
4975000000.0 -0.13903746464399155 -1.0159028258412315
4978000000.0 -0.18134545195479618 -1.024683575381029
4981000000.0 -0.23108213789917584 -0.999478151407487
4984000000.0 -0.16138777186466088 -0.9885362605453786
4988000000.0 -0.2034939910645162 -1.0002532829460913
4991000000.0 -0.13065637285547582 -1.0350979109275142
4994000000.0 -0.20855450610156134 -1.025766771339983
4997000000.0 -0.2774974497135685 -1.0340603321666895
5000000000.0 -0.22840504483430674 -1.0554963348810151
5003000000.0 -0.2682293955621941 -1.0690862952731144
5006000000.0 -0.2722194260548966 -1.0467317172504786
5009000000.0 -0.24562578388127357 -0.9932189948324953
5012000000.0 -0.2783251368284128 -0.993609171081604
5016000000.0 -0.2286312726830838 -1.030427954219103
5019000000.0 -0.3004748069235106 -0.9801931866603453
5022000000.0 -0.2944715109427761 -1.0143418167758746
5025000000.0 -0.3276600163250058 -1.0412107621352358
5028000000.0 -0.32512693652800895 -1.0163934398511234
5031000000.0 -0.3274608999830809 -0.9935693554212509
5034000000.0 -0.37781908886122484 -1.0383643718561997
5038000000.0 -0.3385386580901468 -0.952116359874092
5041000000.0 -0.29569338940884327 -0.9967697066252054
5044000000.0 -0.32327743198014036 -0.963572324488217
5047000000.0 -0.3615610338574404 -0.9972586104115589
5050000000.0 -0.2910822212436931 -0.9926177938086698
5053000000.0 -0.38156681096802425 -0.9927557446869406
5056000000.0 -0.3308559008110058 -0.9945790935235905
5059000000.0 -0.3272105059083255 -0.9758828238668275
5062000000.0 -0.44106288442492025 -0.9549436584276634
5066000000.0 -0.3603474236184733 -0.9774187210349454
5069000000.0 -0.3866321029378854 -0.9782196377878726
5072000000.0 -0.4117024818418946 -0.9474255905283369
5075000000.0 -0.3908820926762605 -0.9718818574585657
5078000000.0 -0.4836960789700186 -0.9456912869627234
5081000000.0 -0.4536839335264759 -0.9364889553139103
5084000000.0 -0.45590931375197896 -0.9648264542112175
5088000000.0 -0.42472408545948764 -0.9160159350195003
5091000000.0 -0.49088140089407534 -0.9634634650130807
5094000000.0 -0.4913011676754793 -0.9634981147261942
5097000000.0 -0.3950607176854225 -0.9784052101599949
5100000000.0 -0.43614012868249863 -0.934376003552346
5103000000.0 -0.46719677744814664 -0.9029954032186737
5106000000.0 -0.4791803186770575 -0.9478248753412748
5109000000.0 -0.4579341558649934 -0.9609267962935581
5112000000.0 -0.5681787013933546 -0.8939295183777787
5116000000.0 -0.4815413411873934 -0.8524406563987514
5119000000.0 -0.553634502292836 -0.9384015693305132
5122000000.0 -0.5203408281595158 -0.8993282747451414
5125000000.0 -0.4651246780098982 -0.9150062761749874
5128000000.0 -0.5633154452318215 -0.8921347914967026
5131000000.0 -0.5288314979570321 -0.8215297174501717
5134000000.0 -0.538807766848288 -0.8534331177958722
5138000000.0 -0.5604421325612368 -0.874757552972961
5141000000.0 -0.4967176451006167 -0.9032540623952239
5144000000.0 -0.5695917383502336 -0.9058799572215999
5147000000.0 -0.6082637630049129 -0.9058370056392505
5150000000.0 -0.5394540594210198 -0.866533548055946
5153000000.0 -0.6089660162359993 -0.878149627028714
5156000000.0 -0.6033503212173689 -0.9047831613669666
5159000000.0 -0.5813410774835714 -0.9020552624717783
5162000000.0 -0.5855771118420001 -0.8216400612663668
5166000000.0 -0.6438995678165366 -0.8455826879629877
5169000000.0 -0.6072692342837025 -0.8603631266711169
5172000000.0 -0.6102432982210058 -0.8511810627215007
5175000000.0 -0.6298512729972724 -0.8707097507117896
5178000000.0 -0.6683257063871864 -0.8023491530246261
5181000000.0 -0.6764539590180189 -0.8418377375005315
5184000000.0 -0.6865298208868849 -0.8029540368881454
5188000000.0 -0.6235809841295493 -0.8257463141943336
