! Created with skrf 1.8.0 (http://scikit-rf.org).
# Hz S RI R 50.0 
!freq ReS11 ImS11
4000000000.0 0.7012098399372244 0.7116036331536881
4003000000.0 0.7707934289293783 0.7406039813786385
4006000000.0 0.7255760487450754 0.6923668008241773
4009000000.0 0.7160721707662564 0.717749539035405
4012000000.0 0.7239299744239364 0.746501357721957
4016000000.0 0.7717601235521842 0.7039639979438399
4019000000.0 0.7556241281281018 0.6368438613753646
4022000000.0 0.7743133230913796 0.7616263843610901
4025000000.0 0.8415543729531278 0.6788020657094642
4028000000.0 0.7778770732356611 0.6451427313601266
4031000000.0 0.7397934300458566 0.6436835366407805
4034000000.0 0.807729104075178 0.6388371857367495
4038000000.0 0.8048555302445572 0.6167037644413312
4041000000.0 0.7851638982869474 0.6438296221995923
4044000000.0 0.850059297525125 0.697526251402873
4047000000.0 0.8186255254038449 0.6633357966626766
4050000000.0 0.8558766173877873 0.5953781016507166
4053000000.0 0.8348188710801043 0.5814351126381487
4056000000.0 0.85114454687728 0.6124163999616314
4059000000.0 0.8078133450125862 0.6018568813059026
4062000000.0 0.8292170239620541 0.5880451607887849
4066000000.0 0.801319839583184 0.5535443972524672
4069000000.0 0.8725154840708497 0.5411756658607454
4072000000.0 0.8460323463842476 0.5888408913198979
4075000000.0 0.8512161820521912 0.6341784332330678
4078000000.0 0.8906574290453563 0.5464042097839407
4081000000.0 0.836902888176066 0.6540698744284753
4084000000.0 0.8699313809764583 0.5201748349619348
4088000000.0 0.8440126236287286 0.5583019281248198
4091000000.0 0.911990707010332 0.5366895718116438
4094000000.0 0.8672354211539592 0.5457745386417426
4097000000.0 0.9248444042871183 0.5377281723778056
4100000000.0 0.9268413094156377 0.4803354514014277
4103000000.0 0.9330666006099662 0.518822152665553
4106000000.0 0.9363071338276532 0.4619521117058134
4109000000.0 0.9253857718429959 0.4479274512211641
4112000000.0 0.8987377381089117 0.48675262246016743
4116000000.0 0.9464434959462079 0.49412777770850147
4119000000.0 0.9305754051944276 0.45769395433942883
4122000000.0 0.9174340334813215 0.4114219295699344
4125000000.0 0.9325713145151515 0.4486836213921656
4128000000.0 0.8964184798500153 0.4322661715763634
4131000000.0 0.8900059172802625 0.4186071373445457
4134000000.0 0.9311222867920652 0.41612300289206783
4138000000.0 0.9346014463230996 0.379603681605499
4141000000.0 0.9535778656717226 0.393442558896994
4144000000.0 0.9707552281837407 0.3857217747277499
4147000000.0 0.9703366340055748 0.34332003745820666
4150000000.0 0.9830336822618566 0.3758069976886486
4153000000.0 0.955694519637694 0.36856405404239045
4156000000.0 0.9765012357929743 0.36245220991283433
4159000000.0 0.9653303610875659 0.3490839243783718
4162000000.0 0.9359317601248573 0.33383194882045586
4166000000.0 0.9737380009737175 0.3016081780535702
4169000000.0 0.9517909945956141 0.2969302961160516
4172000000.0 0.9591391197215455 0.32750734433549505
4175000000.0 0.9797360679004672 0.32504789621957825
4178000000.0 0.98447139871405 0.31154837139769453
4181000000.0 0.9725285882554018 0.2873587175889555
4184000000.0 0.9842067114620552 0.28620534225722144
4188000000.0 0.9867778384677846 0.2745826955128634
4191000000.0 0.9391665137027813 0.2867227676622423
4194000000.0 0.9669704605941154 0.25688396858489726
4197000000.0 1.0068601245863844 0.2700373392103865
4200000000.0 1.0029613211882749 0.25656046814665046
4203000000.0 1.0159219347401047 0.24967636481938604
4206000000.0 1.0362076143265107 0.24181522515338127
4209000000.0 0.9820109923007658 0.20182878669941673
4212000000.0 1.0003063495877942 0.1755565211169962
4216000000.0 1.0022427946171466 0.21510111330294107
4219000000.0 1.0157829663125515 0.20463461494081317
4222000000.0 1.0061297892417465 0.1789904843999709
4225000000.0 0.987071733764924 0.16969843794412973
4228000000.0 1.0140182534480906 0.1690126746561538
4231000000.0 0.9990811614770029 0.14960162610702954
4234000000.0 1.0211427516885456 0.13630057974655746
4238000000.0 1.011395071604683 0.10444492470009661
4241000000.0 0.9980851785398075 0.1086795334349614
4244000000.0 1.0289730758243212 0.10205981138241121
4247000000.0 1.0077318824116588 0.11496839905585585
4250000000.0 0.9695838939972972 0.09705889936193318
4253000000.0 0.9937813296921525 0.07813929785287688
4256000000.0 1.0422780298615641 0.07970659536779973
4259000000.0 0.9756206517659374 0.06685279109087222
4262000000.0 1.0160929353987096 0.049516203823881194
4266000000.0 1.0238893321073808 0.04153862618868731
4269000000.0 1.0206495424579982 0.047700661060978644
4272000000.0 1.004353375338365 0.029754613288307183
4275000000.0 1.0207068972941689 0.018060308265134897
4278000000.0 1.0327006164930952 0.022904084592085525
4281000000.0 1.016872166540212 0.014756007198470422
4284000000.0 1.032205113568826 -0.030391818307266838
4288000000.0 1.0048834898874697 0.029587096232467212
4291000000.0 1.0129810867207498 -0.031497279406390584
4294000000.0 1.0170294182471131 -0.035555411620113435
4297000000.0 1.0270736904082967 0.0017828781859896697
4300000000.0 1.0060169126445586 -0.054901112924524216
4303000000.0 0.9994685677192141 -0.06493504156553775
4306000000.0 1.0204998655434072 -0.034792745403288174
4309000000.0 1.0025024837686867 -0.06979657478326798
4312000000.0 1.0488849188760954 -0.04924472025400087
4316000000.0 1.0213852328149946 -0.08160337029323118
4319000000.0 0.973259222247328 -0.09264624779106669
4322000000.0 1.011149476004486 -0.1337115664891559
4325000000.0 1.0176216326717489 -0.10982105535990529
4328000000.0 0.9926256749203877 -0.13629835872391285
4331000000.0 1.0063327725961555 -0.16762197967313408
4334000000.0 0.9949532228673668 -0.16622853371326868
4338000000.0 0.9703290289238279 -0.13039045651164372
4341000000.0 1.0304066708385438 -0.14523362579565605
4344000000.0 1.008142304486289 -0.16713934428389984
4347000000.0 0.9975786248784932 -0.2227205410941389
4350000000.0 0.9420724196580156 -0.19917045066324524
4353000000.0 0.9864396623270142 -0.1784579795041147
4356000000.0 0.9724492012790954 -0.24885923172624924
4359000000.0 0.9237767131818055 -0.1947663857457682
4362000000.0 0.9930245590698215 -0.2818383721547062
4366000000.0 1.017360162150798 -0.246271221524993
4369000000.0 0.9592413136623987 -0.23226961407933902
4372000000.0 0.9631754203993814 -0.2809471320682308
4375000000.0 0.9653357628192039 -0.24697440988298974
4378000000.0 0.9408662066666597 -0.27222590087927273
4381000000.0 0.9494713311962004 -0.27651738378403995
4384000000.0 1.012986293770385 -0.3205676129871041
4388000000.0 0.948491448487979 -0.28329779767395535
4391000000.0 0.966823042511519 -0.31324559160539206
4394000000.0 0.9267391558051683 -0.3248843372960517
4397000000.0 0.9416354543787206 -0.318749867223063
4400000000.0 0.9693632673928327 -0.3537882684372847
4403000000.0 0.9633818423872376 -0.35567608950076207
4406000000.0 0.9365674296234524 -0.3765072730177514
4409000000.0 0.9618863751803342 -0.3656839882462186
4412000000.0 0.9029866868587569 -0.42204268376093024
4416000000.0 0.9118092503924644 -0.39776054004063466
4419000000.0 0.9209379794894995 -0.40653520971851176
4422000000.0 0.9275859231234982 -0.3742442126799625
4425000000.0 0.944988254975544 -0.39025874113020687
4428000000.0 0.9109758639351361 -0.42281499513302057
4431000000.0 0.9410398975025271 -0.42650145683534557
4434000000.0 0.9008604288734323 -0.44131047865368
4438000000.0 0.9342849919328295 -0.45005625536372207
4441000000.0 0.931258151832451 -0.4555757756320479
4444000000.0 0.8833277478445827 -0.45462777378635466
4447000000.0 0.8799083140946653 -0.48538184597748274
4450000000.0 0.8682135111320735 -0.46996628011349717
4453000000.0 0.9107713439497941 -0.4911317970430836
4456000000.0 0.8421194306010279 -0.49855236116828006
4459000000.0 0.825055050727983 -0.49460115174874997
4462000000.0 0.9262008174037843 -0.5457731759000379
4466000000.0 0.8837835300370945 -0.5441330821281045
4469000000.0 0.8515703379499207 -0.5076690336435867
4472000000.0 0.85931079788812 -0.5603979639101941
4475000000.0 0.8453780506035344 -0.527517280075414
4478000000.0 0.8706484907649802 -0.5634244009736862
4481000000.0 0.8153921537682273 -0.5537853961593302
4484000000.0 0.7908069193769357 -0.610180607494388
4488000000.0 0.8288221371694587 -0.5900741660617104
4491000000.0 0.8163415981999197 -0.6094115423854601
4494000000.0 0.8176103144247114 -0.5853161220888714
4497000000.0 0.8032145635462523 -0.5845299266021958
4500000000.0 0.8072465645912852 -0.6040722395003697
4503000000.0 0.8250039621499403 -0.6355607865366131
4506000000.0 0.7773657239170274 -0.6259592446909163
4509000000.0 0.7617193512402529 -0.6174620918519884
4512000000.0 0.7475344765400318 -0.6248741364546934
4516000000.0 0.7928557369818738 -0.6604439292454769
4519000000.0 0.747233959263125 -0.6307338559486176
4522000000.0 0.7565412116214765 -0.6692188428246044
4525000000.0 0.7964628305113339 -0.6356690222038213
4528000000.0 0.766602019081177 -0.7031809544062622
4531000000.0 0.7504533184387542 -0.6705365163610126
4534000000.0 0.7290258989319005 -0.6877447231202771
4538000000.0 0.7254447192875385 -0.6885769754012563
4541000000.0 0.6958237454364316 -0.7285754970239491
4544000000.0 0.6996360495698007 -0.7132273015094013
4547000000.0 0.7273156841785671 -0.7063074407827594
4550000000.0 0.6954244303051504 -0.7535542930603608
4553000000.0 0.6889918356287663 -0.7386314462265439
4556000000.0 0.6683620417173647 -0.739796889314255
4559000000.0 0.6786555245585311 -0.7626171888334248
4562000000.0 0.6798832650143556 -0.7578627648309059
4566000000.0 0.6621876833520648 -0.7612864056715871
4569000000.0 0.6547690053198775 -0.7781066205880576
4572000000.0 0.6435830272203525 -0.778538034523121
4575000000.0 0.6300784145267967 -0.7947133903835399
4578000000.0 0.6565361953089708 -0.7945370555765856
4581000000.0 0.6177447071959837 -0.7863971512976726
4584000000.0 0.6168935270564899 -0.7972573991663192
4588000000.0 0.6328029487998058 -0.8161187059481539
4591000000.0 0.6178929636948917 -0.791744954550024
4594000000.0 0.5750355118068156 -0.8260029848132976
4597000000.0 0.5965747246206892 -0.8435530856740469
4600000000.0 0.5725862854050702 -0.8184998538318861
4603000000.0 0.575099789658363 -0.8460206229071062
4606000000.0 0.5948707692186265 -0.8592048942847914
4609000000.0 0.5559820761071974 -0.8322781899694545
4612000000.0 0.5473066139736228 -0.8504512637244381
4616000000.0 0.536842077236188 -0.8583167814412717
4619000000.0 0.5212087252269149 -0.8612339101056248
4622000000.0 0.5255135157094228 -0.8857670101458623
4625000000.0 0.490202964976701 -0.8774034420081921
4628000000.0 0.5252096182000153 -0.8827477653381285
4631000000.0 0.4973997989198664 -0.8784189372651231
4634000000.0 0.4798949910850762 -0.8837113178297328
4638000000.0 0.48694027664980466 -0.8963289638673084
4641000000.0 0.4853541489495803 -0.9022952558559945
4644000000.0 0.46352121003850894 -0.9017309802483974
4647000000.0 0.46491866117961445 -0.9113765573034164
4650000000.0 0.4416286940898698 -0.8825755286853401
4653000000.0 0.45904067525920383 -0.920558763261844
4656000000.0 0.43950059248391926 -0.918652398672618
4659000000.0 0.4001018505157437 -0.9220243047361624
4662000000.0 0.41940331442593143 -0.9447552875745288
4666000000.0 0.3722274383130005 -0.9352989400077157
4669000000.0 0.4044597795632143 -0.9676910411507236
4672000000.0 0.38289533263503284 -0.9593559700215352
4675000000.0 0.3881892997053905 -0.9561563056501914
4678000000.0 0.34636957400314045 -0.9509652518607302
4681000000.0 0.3468076381799916 -0.9980688845316916
4684000000.0 0.32452673225101547 -0.9972581826111165
4688000000.0 0.2837402985628761 -0.9585654170393179
4691000000.0 0.36455924906432946 -0.960290680873334
4694000000.0 0.34237821392616874 -0.9279765338314965
4697000000.0 0.2798699349787456 -0.940069200004789
4700000000.0 0.325811386942453 -0.9727109432092493
4703000000.0 0.3420785425591608 -0.9375996081368689
4706000000.0 0.28197390725502486 -0.9895828477812115
4709000000.0 0.27037477202550353 -0.9581151367850164
4712000000.0 0.26373307181966676 -0.9903658165258379
4716000000.0 0.28335304322274923 -0.991612706078471
4719000000.0 0.27336288442512424 -0.9917853616850816
4722000000.0 0.256445246582706 -0.9786947926013498
4725000000.0 0.2651338399150146 -0.9844836889298311
4728000000.0 0.2428346485638146 -0.9980358851950801
4731000000.0 0.22905912910027695 -1.0456319910221705
4734000000.0 0.2168329574710096 -0.986924145209695
4738000000.0 0.23213890833301387 -1.0779290055814603
4741000000.0 0.17889450755638947 -1.0290957632015552
4744000000.0 0.158554609217292 -1.0270655581132415
4747000000.0 0.1715170883522798 -0.9870562431659397
4750000000.0 0.19500634396112926 -1.028295178387199
4753000000.0 0.17343897837814332 -0.9908616089613607
4756000000.0 0.13164562538420357 -1.0326372872917968
4759000000.0 0.16944132085208194 -1.0284123434963148
4762000000.0 0.09181641583130362 -1.0519563651299007
4766000000.0 0.12249688374300255 -1.0289951791036906
4769000000.0 0.10495551074190446 -1.0209216476589467
4772000000.0 0.10848423319413486 -1.0189852109814503
4775000000.0 0.08360043480685717 -1.0972495157007145
4778000000.0 0.07237898628742684 -1.0462192941084643
4781000000.0 0.09031454644980391 -1.0454241867276244
4784000000.0 0.09275213622625575 -1.0428908002430193
4788000000.0 0.04870220772026748 -1.030719933715161
4791000000.0 0.01473311341816716 -1.0308092960378248
4794000000.0 0.06718070876501006 -1.0486580408392223
4797000000.0 0.02860553813940414 -0.991591222225158
4800000000.0 -0.01391125785365041 -0.9954350913109806
4803000000.0 -0.07986389134249727 -1.0108418258947773
4806000000.0 -0.02828863191325684 -1.021584629920503
4809000000.0 -0.06810957699636325 -1.0077954242660805
4812000000.0 -0.06654639850226732 -0.9957112993267017
4816000000.0 -0.008686539161392975 -0.9900231104948201
4819000000.0 -0.005991718548676639 -1.035375694375829
4822000000.0 -0.046995409112404546 -1.0654293129375025
4825000000.0 -0.04505266763582441 -1.0552650283824656
4828000000.0 -0.10610553284125057 -1.0091033803176388
4831000000.0 -0.13502927794640668 -1.0220640731518853
4834000000.0 -0.0784893645652926 -1.0492025720768245
4838000000.0 -0.14529272427035944 -1.0426385248918295
4841000000.0 -0.14119078101094273 -1.0053153696490598
4844000000.0 -0.10791210880761432 -1.0430518980732475
4847000000.0 -0.0871712434216178 -0.9885546068346791
4850000000.0 -0.1655682631258787 -1.0479281329800463
4853000000.0 -0.13255104753936922 -0.985613153932273
4856000000.0 -0.1459878579686219 -1.0043681198232728
4859000000.0 -0.20714118359947561 -1.0671829506812833
4862000000.0 -0.14900115200239245 -0.9820519937284679
4866000000.0 -0.19785235240870527 -1.0349017048017624
4869000000.0 -0.20924119941813468 -1.0160714805953006
4872000000.0 -0.25796268088789526 -1.045241564964525
4875000000.0 -0.17528017993131684 -1.0454017793258072
4878000000.0 -0.23131825840402634 -0.9855411490516065
4881000000.0 -0.2823550222830028 -1.0661385879771084
4884000000.0 -0.24471451246767156 -1.0131462721270632
4888000000.0 -0.22262960316243252 -1.0237236027530807
4891000000.0 -0.2424571653930435 -0.9977073274998791
4894000000.0 -0.2902411570348405 -0.9832946866562201
4897000000.0 -0.24955532818769313 -1.0083180463906887
4900000000.0 -0.2658953343288253 -1.0253545749580701
4903000000.0 -0.30415083780938384 -0.9982619302075486
4906000000.0 -0.3377801888334326 -1.0068169508533975
4909000000.0 -0.3377984778194171 -0.9555983689209279
4912000000.0 -0.39546000931984365 -1.0358705342302603
4916000000.0 -0.3281316602437302 -1.0219259410805317
4919000000.0 -0.32541154791234955 -1.0010796920426346
4922000000.0 -0.30495346774906273 -0.9960034837953928
4925000000.0 -0.4133805349976528 -0.9460016248454289
4928000000.0 -0.3506289319605095 -0.9566558403049917
4931000000.0 -0.33358482616354695 -0.9998619253679575
4934000000.0 -0.380417621786661 -0.9518318957346945
4938000000.0 -0.46264053285424594 -0.9396362072319767
4941000000.0 -0.3981671965114555 -0.9455123471155571
4944000000.0 -0.38579571250788625 -0.9104471170786856
4947000000.0 -0.4474319993407059 -0.8965355039499426
4950000000.0 -0.39039067864796717 -0.9244500795085835
4953000000.0 -0.4926784840687538 -0.9457751267684698
4956000000.0 -0.5126758517520056 -0.8880729853977827
4959000000.0 -0.4807047293109665 -0.863128800164526
4962000000.0 -0.5128319129327547 -0.9266189476162064
4966000000.0 -0.48390913163544624 -0.954942819440297
4969000000.0 -0.5213183360631681 -0.9474949582920373
4972000000.0 -0.5086942239054956 -0.909013359528967
4975000000.0 -0.49579627484759947 -0.9277318704703508
4978000000.0 -0.5344340992139713 -0.9170106661650221
4981000000.0 -0.5169056083226344 -0.8631791384797597
4984000000.0 -0.4906123809158789 -0.8688339329883605
4988000000.0 -0.5185648747132683 -0.9225917220767424
4991000000.0 -0.49515199871428855 -0.9394891145381237
4994000000.0 -0.5138104233774126 -0.8655243540684081
4997000000.0 -0.5992261444800944 -0.8638582418105499
5000000000.0 -0.5697123814257982 -0.8940428076948439
5003000000.0 -0.5762116401502093 -0.9063833461711363
5006000000.0 -0.6054170388228404 -0.9128272070040375
5009000000.0 -0.5709409367600472 -0.8609647292833603
5012000000.0 -0.6282292389362527 -0.8593161376883625
5016000000.0 -0.5977574389392439 -0.8842948980310414
5019000000.0 -0.6319330787947238 -0.8318080400266158
5022000000.0 -0.6350392959012258 -0.8375624595266333
5025000000.0 -0.6891671628409322 -0.8450142007823505
5028000000.0 -0.6726173943728634 -0.8075595517270213
5031000000.0 -0.705740075226785 -0.8187564069233163
5034000000.0 -0.6982173569214757 -0.8145364931659217
5038000000.0 -0.6507266345382776 -0.7532038882154319
5041000000.0 -0.6695348763357342 -0.8042044494133088
5044000000.0 -0.68030783757939 -0.8185871460766302
5047000000.0 -0.685553859588063 -0.7882189310447227
5050000000.0 -0.6273222742740552 -0.8261719658541471
5053000000.0 -0.7405866168035667 -0.7692807800812376
5056000000.0 -0.6611338704724289 -0.7803615021404869
5059000000.0 -0.6784460005010773 -0.780406739663123
5062000000.0 -0.754021225605947 -0.7168158432009111
5066000000.0 -0.7077323653703991 -0.7156647985478929
5069000000.0 -0.7131529469981791 -0.7554868022847632
5072000000.0 -0.7254937117941128 -0.7428259649002569
5075000000.0 -0.7123564941615617 -0.7291002104382136
5078000000.0 -0.7949601339672379 -0.6555372506831307
5081000000.0 -0.7374764821791996 -0.6538830202665347
5084000000.0 -0.7479199955920283 -0.7222564177910569
5088000000.0 -0.740118256640597 -0.6807385172922038
5091000000.0 -0.7953099773135086 -0.6652806826201703
5094000000.0 -0.7612228693935791 -0.6567730130192408
5097000000.0 -0.7607687573006455 -0.6885933928759089
5100000000.0 -0.7577917222752582 -0.692400973827726
5103000000.0 -0.8621791681855059 -0.5763601230865929
5106000000.0 -0.8387689837002745 -0.649097207997137
5109000000.0 -0.8181760287108428 -0.658755429741487
5112000000.0 -0.8167906106705479 -0.5921828891210825
5116000000.0 -0.8349645588829677 -0.6242735069058676
5119000000.0 -0.8435724683688968 -0.5900169918795803
5122000000.0 -0.839556409558126 -0.5930836130539447
5125000000.0 -0.8203889304214472 -0.6110343372281681
5128000000.0 -0.8760646285972964 -0.580179284327202
5131000000.0 -0.8701035454535686 -0.557324348539851
5134000000.0 -0.8632100060643016 -0.5740973989239385
5138000000.0 -0.8217415625349644 -0.5874096853644516
5141000000.0 -0.9202176141737777 -0.6346205193671712
5144000000.0 -0.8823270231437986 -0.5544241701744194
5147000000.0 -0.9217011803073432 -0.539944907462093
5150000000.0 -0.8883494145601317 -0.5667171885022174
5153000000.0 -0.9348512744985908 -0.5443102777883113
5156000000.0 -0.8807619881635078 -0.49653728015253734
5159000000.0 -0.9429539843196335 -0.49286141172374676
5162000000.0 -0.9598384509392689 -0.4718959955720964
5166000000.0 -0.8891231902471881 -0.4830228130402612
5169000000.0 -0.9320565496211258 -0.4684572581768601
5172000000.0 -0.9054289090147992 -0.49155742069997227
5175000000.0 -0.9512370697109299 -0.49173917916005616
5178000000.0 -0.9435912308234093 -0.45924129100043176
5181000000.0 -0.9491865393809766 -0.40425419741132496
5184000000.0 -0.9697059531228082 -0.4256967062398889
