! Created with skrf 1.8.0 (http://scikit-rf.org).
# Hz S RI R 50.0 
!freq ReS11 ImS11
4000000000.0 0.6272197708561172 0.8106699441161689
4003000000.0 0.6700218253824227 0.8462578816996166
4006000000.0 0.6913838355129351 0.7528788181215604
4009000000.0 0.6513933076083902 0.8264970242182167
4012000000.0 0.6294918247813198 0.8630356212556761
4016000000.0 0.6823348826878957 0.7679343820739972
4019000000.0 0.6777719282633186 0.7813274338027725
4022000000.0 0.6128670953313368 0.8065251746734912
4025000000.0 0.7358022359723527 0.7401580380662355
4028000000.0 0.7211905344694266 0.7398361370895568
4031000000.0 0.6900071875133916 0.6838186779292179
4034000000.0 0.7364663920181926 0.7196980527022975
4038000000.0 0.7286039602089311 0.73084786596249
4041000000.0 0.7281146723541624 0.7690212175565984
4044000000.0 0.7803535810473176 0.8003272139953712
4047000000.0 0.7347258437917413 0.7501228085932022
4050000000.0 0.7528717297297478 0.7040553924118703
4053000000.0 0.7463450052405766 0.6910436341327202
4056000000.0 0.7653350364562082 0.6641886090171316
4059000000.0 0.7639015133536774 0.646765727254891
4062000000.0 0.7815534836316993 0.6942962050436083
4066000000.0 0.6992928298891914 0.6257500224170587
4069000000.0 0.8270704866118272 0.6966180236377858
4072000000.0 0.7986561008773029 0.6940189740066562
4075000000.0 0.7801246868351162 0.7065107244220046
4078000000.0 0.8225640264294543 0.7048076511508155
4081000000.0 0.7196197198729104 0.7206269203033344
4084000000.0 0.8015300319027445 0.6287245927165743
4088000000.0 0.7759848406973648 0.6805007978852345
4091000000.0 0.8591984544739182 0.6553577354587383
4094000000.0 0.8084459541247101 0.6431598857341215
4097000000.0 0.832999094018122 0.6335970829337427
4100000000.0 0.8473502602002001 0.625466776225132
4103000000.0 0.8636108070371791 0.6541255480725177
4106000000.0 0.8439104330094379 0.6165446453257614
4109000000.0 0.8794369443580139 0.5670517165213438
4112000000.0 0.8862696605444125 0.5895939974785649
4116000000.0 0.8315003050345272 0.5952086134120835
4119000000.0 0.8804217334565227 0.5490536339332042
4122000000.0 0.8769130611064384 0.5409804864573436
4125000000.0 0.8334523753639556 0.5474328503489547
4128000000.0 0.8204439231609069 0.5939123924194901
4131000000.0 0.8462226809849038 0.5467468559701744
4134000000.0 0.8804523732534677 0.5436018748120651
4138000000.0 0.8696265715886795 0.5063708886105964
4141000000.0 0.907102705788367 0.5425645704021574
4144000000.0 0.8875840123624565 0.5719864319490846
4147000000.0 0.9205195113889652 0.483849985850283
4150000000.0 0.9094578781855631 0.5170576557582776
4153000000.0 0.9021578886649553 0.48774028487625554
4156000000.0 0.9374472525838895 0.5260566380981064
4159000000.0 0.9230380607031097 0.4837781292812093
4162000000.0 0.8674993489109453 0.46880124363163667
4166000000.0 0.9671048235994475 0.46024931495333843
4169000000.0 0.914818294573101 0.4594028646909524
4172000000.0 0.9258312178355746 0.4582930967330892
4175000000.0 0.9187596982252443 0.4450618979329732
4178000000.0 0.9381869513828616 0.4322014030714948
4181000000.0 0.9466540916162165 0.42348233691998516
4184000000.0 0.9359432763424296 0.4120306312329414
4188000000.0 0.9317088088068104 0.40083551241012916
4191000000.0 0.9244598724265793 0.45585229876528016
4194000000.0 0.9336678399746017 0.39310998317282286
4197000000.0 0.968146053432 0.4043449823000496
4200000000.0 0.9579385003787759 0.40121640776765866
4203000000.0 0.970763894708493 0.39697565562850623
4206000000.0 0.9682585352369536 0.38500447260657183
4209000000.0 0.9420501129664367 0.3616671205485001
4212000000.0 0.9755481918798554 0.3457165100371148
4216000000.0 0.9661273739878813 0.3528029162216389
4219000000.0 0.9681213196548969 0.35769804046633624
4222000000.0 0.9845033242639416 0.32313176439321684
4225000000.0 0.9526032140150908 0.31154221514990654
4228000000.0 0.9804079076169323 0.3184666696771653
4231000000.0 0.9797001800819889 0.30669150215250673
4234000000.0 0.9913349676652631 0.30055705125537
4238000000.0 0.9777141263353717 0.2695543188887227
4241000000.0 0.979802240905679 0.26604084530401656
4244000000.0 0.9791178332860254 0.2703634891166522
4247000000.0 0.9801937644775407 0.28514898050319737
4250000000.0 0.9804705343440394 0.24820067320862899
4253000000.0 0.9688625216671625 0.23078362907464683
4256000000.0 1.0058621268301244 0.25839422917563676
4259000000.0 0.9669086549176082 0.2102634376078706
4262000000.0 0.9905880309094115 0.1794777327970716
4266000000.0 1.0065379501126077 0.1835316907925968
4269000000.0 1.0040713003132693 0.21040067052195408
4272000000.0 0.999786124075285 0.20107307279536019
4275000000.0 1.0065296936262873 0.1917885185558939
4278000000.0 1.0170915184281668 0.18134880507096196
4281000000.0 1.002716780456545 0.18014241866197578
4284000000.0 1.0201286897159774 0.12437048019619745
4288000000.0 0.9887805835058378 0.1898163722866718
4291000000.0 0.9979652665243367 0.1402060060799899
4294000000.0 1.0057230032002649 0.14864854074478911
4297000000.0 1.0013959877102354 0.15836467568398094
4300000000.0 1.0017108921371958 0.1333226508388457
4303000000.0 1.0019894470414363 0.10791656074543986
4306000000.0 1.0211922452725224 0.09694229901594043
4309000000.0 1.010044130158425 0.10743528342680232
4312000000.0 1.0223778592571722 0.11968636664655319
4316000000.0 1.032405651573983 0.10271593651045073
4319000000.0 1.0070757168907956 0.08745134672958117
4322000000.0 0.9757608313087489 0.032419279948803545
4325000000.0 1.025401407753687 0.08424716414188081
4328000000.0 0.9995678909712075 0.06207067436287041
4331000000.0 1.0457564578296241 0.01625230333480515
4334000000.0 1.0254507079296178 0.010413247993603686
4338000000.0 1.0131123419275174 0.041583203579724934
4341000000.0 1.0415216481728302 0.05811703646387306
4344000000.0 1.0211393851619637 0.0235373011490336
4347000000.0 1.014105411691411 -0.03518573992012977
4350000000.0 0.9954906800502898 -0.027829737278341482
4353000000.0 0.9921378244788468 -0.006230220824075594
4356000000.0 1.0003677064051246 -0.043501462881702285
4359000000.0 0.9680506900354422 -0.04407858411711918
4362000000.0 1.0296076550432582 -0.08027971815548879
4366000000.0 1.0340427050992653 -0.052929007454220606
4369000000.0 0.9840170832295103 -0.08880498160498262
4372000000.0 1.0068929642102098 -0.11544973496346321
4375000000.0 1.002014374099732 -0.0683541400527253
4378000000.0 0.9781566155794676 -0.084442018345085
4381000000.0 0.974130718126464 -0.09291999512886519
4384000000.0 1.0751050633708952 -0.11774683936575465
4388000000.0 0.9903981157989287 -0.09635328632708176
4391000000.0 1.0066299925320064 -0.11105359919402939
4394000000.0 0.9640117107962736 -0.13742557970927533
4397000000.0 0.9847101539071981 -0.1377762789916012
4400000000.0 1.0278568879267425 -0.16242903725085292
4403000000.0 0.9994159826257805 -0.15288033734170875
4406000000.0 0.9958012979216846 -0.20194134899084945
4409000000.0 1.0303504597725168 -0.17740569984278326
4412000000.0 0.9803386362224498 -0.23893544658103716
4416000000.0 0.992550702176966 -0.2119475414013176
4419000000.0 0.9911047199089157 -0.23264722162658563
4422000000.0 0.979371287858249 -0.19597910069596586
4425000000.0 1.012145388590751 -0.20381586509712393
4428000000.0 0.98098436100463 -0.23303657272606793
4431000000.0 1.0052376499086817 -0.24826714617800882
4434000000.0 0.9788083038119781 -0.2650189002124868
4438000000.0 1.003390553343579 -0.2624080957294095
4441000000.0 0.9881128794602065 -0.26359464408393257
4444000000.0 0.955164733706231 -0.264776498234632
4447000000.0 0.9567009208460041 -0.2914815410940306
4450000000.0 0.9699668837798371 -0.2782514332948262
4453000000.0 0.9818552447416484 -0.3038049896830956
4456000000.0 0.9370201066904872 -0.31056463331696915
4459000000.0 0.9169389154221059 -0.32031706760862083
4462000000.0 1.0196884828093145 -0.3351038240211359
4466000000.0 0.9983898820997542 -0.3510956226026981
4469000000.0 0.9621535639336704 -0.3292029415249941
4472000000.0 0.9635759564869532 -0.37572882074663755
4475000000.0 0.9371107682566205 -0.34533032002910624
4478000000.0 0.9729599449474068 -0.40134918320117774
4481000000.0 0.9029350139021759 -0.3786054591652894
4484000000.0 0.9215258178677921 -0.41804148684000975
4488000000.0 0.9105758551908268 -0.4106069239467459
4491000000.0 0.9265882099327 -0.38984504587193436
4494000000.0 0.9163189617495312 -0.4081476398064817
4497000000.0 0.9244862224393424 -0.41809901067030886
4500000000.0 0.9088747165369793 -0.4227050240010164
4503000000.0 0.9257773839835737 -0.4408386897840117
4506000000.0 0.9054585355616291 -0.433324835743863
4509000000.0 0.8949420628089821 -0.4311574329591983
4512000000.0 0.8848091806350993 -0.45813255228765126
4516000000.0 0.9006768588142626 -0.4649715862536019
4519000000.0 0.8948323578652936 -0.4631622331577119
4522000000.0 0.8685709953009282 -0.5106595512100638
4525000000.0 0.8873833398780526 -0.45740971982463946
4528000000.0 0.8816336311282671 -0.5156317992933654
4531000000.0 0.8769235879569702 -0.49614173194643885
4534000000.0 0.8489126245823839 -0.5189471207116312
4538000000.0 0.8495343500603576 -0.5121538150236656
4541000000.0 0.8390785073514406 -0.549205351837788
4544000000.0 0.8508673955194688 -0.526208640390681
4547000000.0 0.8530083990538783 -0.5198217754263037
4550000000.0 0.8242461031788211 -0.5812470509976313
4553000000.0 0.8423035915751949 -0.5621993246223944
4556000000.0 0.8051966714853707 -0.5567423935831274
4559000000.0 0.8209878272885216 -0.5849071721524286
4562000000.0 0.8527974527737257 -0.5784554893761525
4566000000.0 0.8344420030992827 -0.6157294212799442
4569000000.0 0.805226850019105 -0.5857419974799318
4572000000.0 0.7974033035801292 -0.6030262701838665
4575000000.0 0.8030780939959838 -0.6213259344378822
4578000000.0 0.8303428200302003 -0.6139010115775971
4581000000.0 0.8061749123776017 -0.6352817179670821
4584000000.0 0.7890737939575013 -0.6264338275715985
4588000000.0 0.8123873153869415 -0.6262948082014481
4591000000.0 0.7931525357955881 -0.6212760349598788
4594000000.0 0.751136935837399 -0.6487763568210952
4597000000.0 0.7752688383828354 -0.6719144889740928
4600000000.0 0.7430745010157389 -0.6830331497145798
4603000000.0 0.7596125438659818 -0.6759724404483856
4606000000.0 0.7509267448851693 -0.6965094648811689
4609000000.0 0.7394727635146677 -0.6949363984059591
4612000000.0 0.7332794189301194 -0.696162803029982
4616000000.0 0.712483917231514 -0.706527106233899
4619000000.0 0.729816446675373 -0.709290509281276
4622000000.0 0.7032585803019273 -0.7028455178445661
4625000000.0 0.6748558048699267 -0.7094331875119394
4628000000.0 0.7164754956576643 -0.7152599588377003
4631000000.0 0.6735477310607099 -0.7422609241599994
4634000000.0 0.6769549270860439 -0.7388886328082728
4638000000.0 0.6936789865105861 -0.7395220846159248
4641000000.0 0.6991159825642864 -0.7389758673888267
4644000000.0 0.6754247043861181 -0.7762416276228589
4647000000.0 0.6731091794491358 -0.7552391493790866
4650000000.0 0.6453392097051917 -0.7671643152752904
4653000000.0 0.6650810555614308 -0.7764436877149707
4656000000.0 0.6409959880258689 -0.783108777156934
4659000000.0 0.6281303306754688 -0.7959338723238788
4662000000.0 0.6386755416009733 -0.8023191890661093
4666000000.0 0.6047462566889988 -0.7903829457354774
4669000000.0 0.6320328677946729 -0.8021144625417774
4672000000.0 0.604495977383483 -0.836879018671656
4675000000.0 0.5952944429358272 -0.8203413059690514
4678000000.0 0.5747477192915015 -0.7816056466126434
4681000000.0 0.5719717155130779 -0.8516419966770331
4684000000.0 0.5580292856947485 -0.8293396267191506
4688000000.0 0.5552581192214447 -0.8150585728364134
4691000000.0 0.582809531464684 -0.8343762720171131
4694000000.0 0.5437104053225346 -0.8406658846806143
4697000000.0 0.539168304723409 -0.8348787711866597
4700000000.0 0.5534775766622132 -0.8522691973009839
4703000000.0 0.5402687974425397 -0.8375264388849011
4706000000.0 0.5225801517805921 -0.8698115531568176
4709000000.0 0.5129057885556656 -0.8911427184968751
4712000000.0 0.5307596080398836 -0.8594689839834982
4716000000.0 0.5149476195127146 -0.8894536777530195
4719000000.0 0.5287823247105006 -0.8791532601343051
4722000000.0 0.5059080219521153 -0.8745759907736779
4725000000.0 0.4888282457714094 -0.8927783519110474
4728000000.0 0.4638209500331232 -0.8815987292997682
4731000000.0 0.4947342296308541 -0.8910538773147367
4734000000.0 0.4685305710714418 -0.898701488740911
4738000000.0 0.4850368837944623 -0.9441585925736959
4741000000.0 0.4369358412373949 -0.9510556770787136
4744000000.0 0.44736394096321114 -0.9204566664405059
4747000000.0 0.43054884701582335 -0.8876310107144509
4750000000.0 0.4339210095234095 -0.8996363018548583
4753000000.0 0.4300342736499857 -0.9482786692527336
4756000000.0 0.38587881720244377 -0.9419168736692414
4759000000.0 0.3957920129122139 -0.938619591157582
4762000000.0 0.3663386421184479 -0.9750882353363383
4766000000.0 0.3787209940658065 -0.9490796203016855
4769000000.0 0.38440776454366776 -0.9543221260393543
4772000000.0 0.36230323119341257 -0.9733165745171736
4775000000.0 0.3369724973233892 -0.9979304934855084
4778000000.0 0.353823974497954 -0.9617445356764228
4781000000.0 0.37582618196926504 -0.9632510260986527
4784000000.0 0.3637986164158526 -0.9595314478809519
4788000000.0 0.30538592898734757 -0.9824869888154162
4791000000.0 0.3297301045870542 -0.9657704939329447
4794000000.0 0.33849366618028165 -0.9928938758441046
4797000000.0 0.2983245136060596 -0.9770679495180207
4800000000.0 0.28109513106618816 -0.9619397958232223
4803000000.0 0.2344607909326095 -0.9626367817134747
4806000000.0 0.27567016333592315 -0.9735571481062382
4809000000.0 0.23527303889575635 -0.9849131644732111
4812000000.0 0.23215252593122673 -0.9670156739576752
4816000000.0 0.29225676762068226 -0.9930177647202978
4819000000.0 0.2694922045591223 -1.0079417291971728
4822000000.0 0.2592974982947918 -1.0457415340085305
4825000000.0 0.2682153892633199 -0.9997506101061133
4828000000.0 0.22148659033871126 -1.0054487185205465
4831000000.0 0.18743855221050404 -1.0528314810867188
4834000000.0 0.21162917097956582 -0.9997762195818982
4838000000.0 0.20322327433399584 -1.0270773662083854
4841000000.0 0.18946311661547272 -0.9972726222409175
4844000000.0 0.21440685988974623 -1.0218502599562533
4847000000.0 0.2124192731442625 -0.9881221725108125
4850000000.0 0.1664408401359752 -1.033982293744206
4853000000.0 0.15501387123122715 -0.9990661405127323
4856000000.0 0.1389547955021206 -1.0034980096229111
4859000000.0 0.14489888242601115 -1.037506707694146
4862000000.0 0.14484157136266734 -0.9965516258130965
4866000000.0 0.09400181284915655 -1.0526881952970535
4869000000.0 0.11229506256971412 -1.0254314103156026
4872000000.0 0.09346978092081641 -1.0558928157976097
4875000000.0 0.151168061094765 -1.0558095675671726
4878000000.0 0.08338201747597285 -1.0435972463924628
4881000000.0 0.052878260010263405 -1.0907489402166262
4884000000.0 0.0998831497752026 -1.0354296486654142
4888000000.0 0.09445367264544352 -1.0319630492437097
4891000000.0 0.10325691916112953 -1.0332956616439348
4894000000.0 0.03347973359286112 -1.0269108564136118
4897000000.0 0.06925935050475754 -1.0272673747263377
4900000000.0 0.0520411313191399 -1.038424438987676
4903000000.0 0.07387960656664103 -1.0534208618436038
4906000000.0 0.02162460994738561 -1.0503057296689544
4909000000.0 0.01904855129261872 -1.0442658560705997
4912000000.0 -0.025299434999445633 -1.0592984703943409
4916000000.0 0.01665398782264097 -1.0644502822366997
4919000000.0 0.018895353379099332 -1.0512741786618225
4922000000.0 0.00025774534453422426 -1.0594200111940832
4925000000.0 -0.05759510709873984 -1.0384305329594261
4928000000.0 0.02655224097129942 -1.0483101529035663
4931000000.0 -0.030891499522018875 -1.0429377152137114
4934000000.0 -0.04596441344518869 -0.9991669807456545
4938000000.0 -0.09850766809402124 -1.0145001252446662
4941000000.0 -0.05506353417401262 -1.0371078800671567
4944000000.0 -0.030889090909552025 -0.959849875861309
4947000000.0 -0.08485662649391898 -1.0228774918888035
4950000000.0 -0.09344284758446496 -1.0011181808071064
4953000000.0 -0.1536625697876956 -1.054020578265367
4956000000.0 -0.14089692403133808 -1.023665212039046
4959000000.0 -0.18682351969086983 -0.9954953372767459
4962000000.0 -0.1468315503374709 -1.0618892443694434
4966000000.0 -0.0932900611573022 -1.0567656681467916
4969000000.0 -0.09395354769518743 -1.0651151617251347
4972000000.0 -0.17180625974575528 -1.0535149277794256
4975000000.0 -0.1396856692585672 -0.9913044362726527
4978000000.0 -0.1724166567412188 -1.0130057271605049
4981000000.0 -0.18684723564823094 -1.0269022879965044
4984000000.0 -0.15890895293490234 -1.0100791858854172
4988000000.0 -0.17941031206098373 -1.0025786217185124
4991000000.0 -0.19508952485988912 -1.057375452955344
4994000000.0 -0.20241208065017446 -1.023669490530943
4997000000.0 -0.2592675519435931 -1.0108070388861121
5000000000.0 -0.2083717564619324 -1.0339943942400858
5003000000.0 -0.21056690932594807 -1.0278972877922712
5006000000.0 -0.2856615706361657 -1.0793911106363314
5009000000.0 -0.26222482564339145 -1.011222230396776
5012000000.0 -0.2813407132697097 -0.9980357645222713
5016000000.0 -0.23585957694024412 -1.0182993731028154
5019000000.0 -0.2646626497518258 -0.9849499680360427
5022000000.0 -0.29043327199717184 -1.0212368795785556
5025000000.0 -0.32866068261486575 -1.0423156967983631
5028000000.0 -0.30447492575202095 -1.0193334626791317
5031000000.0 -0.28731448372952073 -0.9949524755210791
5034000000.0 -0.37552888726175593 -0.9897477130691079
5038000000.0 -0.31797090898244085 -0.9582109923666269
5041000000.0 -0.30320163012154167 -0.9975257950610749
5044000000.0 -0.3051330180409959 -0.9417162353375895
5047000000.0 -0.33883502874798194 -1.0078217947174672
5050000000.0 -0.3069575681100235 -0.9938995547629415
5053000000.0 -0.4036625624669081 -0.9937851107525411
5056000000.0 -0.33598759660863786 -0.9988936222109213
5059000000.0 -0.3106239202396803 -0.984288598564614
5062000000.0 -0.4283141085442659 -0.967294906934927
5066000000.0 -0.36084683760055447 -0.9854686768137246
5069000000.0 -0.40735828560176357 -0.9879117944447547
5072000000.0 -0.3942384203790031 -0.9281270091271645
5075000000.0 -0.347583656566127 -0.9575930332690363
5078000000.0 -0.4694902516650558 -0.9285816848148156
5081000000.0 -0.44629891060869725 -0.9205333733425266
5084000000.0 -0.4436907397016553 -0.9612341748126265
5088000000.0 -0.40444851699178436 -0.9154852741640773
5091000000.0 -0.5036232160351319 -0.926042708925477
5094000000.0 -0.47081444430071 -0.9512554784707997
5097000000.0 -0.4161295282485462 -0.9859208663562451
5100000000.0 -0.4521801201835864 -0.9145852535520086
5103000000.0 -0.48134177871285677 -0.9440504673259645
5106000000.0 -0.4879518463759214 -0.9867298990693687
5109000000.0 -0.45139775902447116 -0.9544093070917179
5112000000.0 -0.48774815163843177 -0.8661187094603675
5116000000.0 -0.48574275275847245 -0.868500915567388
5119000000.0 -0.5002568294831796 -0.9181582367326004
5122000000.0 -0.5242873149116908 -0.9126917895693987
5125000000.0 -0.48585890938935994 -0.9134032073485979
5128000000.0 -0.5467401721881504 -0.8800292412497159
5131000000.0 -0.504635642136412 -0.8923735919972501
5134000000.0 -0.5163376784011842 -0.8604685407839662
5138000000.0 -0.5614841937179206 -0.8945780335733584
5141000000.0 -0.5437529141595547 -0.9313803381779688
5144000000.0 -0.5387197681527404 -0.873693694827166
5147000000.0 -0.5557870027998597 -0.8625352550336718
5150000000.0 -0.5225187755559579 -0.9225779936172849
5153000000.0 -0.5800685280196322 -0.8881669121841711
5156000000.0 -0.5972637142848048 -0.8694805984201649
5159000000.0 -0.6202076761583522 -0.8875189168073436
5162000000.0 -0.6365519725758878 -0.8178429496387902
5166000000.0 -0.6644249593642887 -0.8755086894720979
5169000000.0 -0.6733550728400439 -0.8531421263309692
5172000000.0 -0.6489423257290365 -0.8375488497993852
5175000000.0 -0.6132915487126398 -0.8918804046029267
5178000000.0 -0.6709557369111032 -0.8176680281041124
5181000000.0 -0.6534008123036998 -0.8511711697015917
5184000000.0 -0.644799691275236 -0.773864828184318
5188000000.0 -0.6317506735029316 -0.7953236764537651
