! Created with skrf 1.8.0 (http://scikit-rf.org).
# Hz S RI R 50.0 
!freq ReS11 ImS11
4000000000.0 0.6116223720305298 0.7731606650421137
4003000000.0 0.6588047475053352 0.9033587212426889
4006000000.0 0.6598960008465129 0.776324962343309
4009000000.0 0.6574276711873933 0.8093098043515212
4012000000.0 0.6689664726985789 0.8608490334757369
4016000000.0 0.6799450828911136 0.76817197395347
4019000000.0 0.6588559559590113 0.7920443940671875
4022000000.0 0.6393179573554253 0.7898423696107348
4025000000.0 0.7341926021519996 0.7111604473514199
4028000000.0 0.7210832145211602 0.7409222829490187
4031000000.0 0.6727403528440445 0.7520645466311253
4034000000.0 0.7304727195751495 0.7371626726065684
4038000000.0 0.7639546852990201 0.7568455389270577
4041000000.0 0.7272094122081113 0.7195725860494243
4044000000.0 0.7646738638251663 0.7889649657581673
4047000000.0 0.7679887688332638 0.759497702183105
4050000000.0 0.8060512449354383 0.7140473045904657
4053000000.0 0.782146004239065 0.6644355683586463
4056000000.0 0.7502140791069362 0.7075884846446552
4059000000.0 0.7391732426951584 0.6727324968069961
4062000000.0 0.7903784877973665 0.6718153310443724
4066000000.0 0.7399309369819709 0.6406269692667753
4069000000.0 0.8171009043441231 0.6664691873102883
4072000000.0 0.7672168071880612 0.7222621750041218
4075000000.0 0.7439033346097615 0.7240637211174725
4078000000.0 0.8235543310650332 0.699787567316646
4081000000.0 0.7841530833389176 0.7242844695562035
4084000000.0 0.8623443209215838 0.6802264705238772
4088000000.0 0.8101245730019394 0.6890613889244208
4091000000.0 0.8334134040461005 0.6750258793003343
4094000000.0 0.8209144378679101 0.6340203550336523
4097000000.0 0.8570914043762721 0.6053621178671293
4100000000.0 0.8420295979700883 0.6374213123611085
4103000000.0 0.8054933930544588 0.6420006893986538
4106000000.0 0.8378106648475376 0.5712989394801666
4109000000.0 0.8609876319022749 0.5603710326755313
4112000000.0 0.832359603998678 0.5768861085262076
4116000000.0 0.8699361167461678 0.5481751446467535
4119000000.0 0.8860755191285667 0.5871310252364583
4122000000.0 0.8775574351720751 0.5520111831696979
4125000000.0 0.8954111593544414 0.5346135350437111
4128000000.0 0.8146183079909223 0.5377138150813537
4131000000.0 0.8523443025691876 0.49360021279583843
4134000000.0 0.8366942717666007 0.568058562896346
4138000000.0 0.8661847749533698 0.5018180337554083
4141000000.0 0.8809633698993576 0.5088049690904575
4144000000.0 0.9203430677933738 0.5669840146996397
4147000000.0 0.8966791562779368 0.5205574009536107
4150000000.0 0.9252822550726435 0.5180525335847854
4153000000.0 0.8990505125293746 0.4807146450265233
4156000000.0 0.9047966114718557 0.514968586034625
4159000000.0 0.919323504687861 0.4846948218291433
4162000000.0 0.8949280809773887 0.5042013322293395
4166000000.0 0.9337735224315062 0.4347951013601391
4169000000.0 0.9327297790438974 0.4434884515741133
4172000000.0 0.9354490362585223 0.4505974256998057
4175000000.0 0.9319011334996613 0.41982071476328203
4178000000.0 0.9305533598379763 0.4367541670873074
4181000000.0 0.9426442213516439 0.4004238757311943
4184000000.0 0.9228455735689165 0.4166861103790401
4188000000.0 0.9297443563232377 0.4084304808169684
4191000000.0 0.9329179620588322 0.41113821213767104
4194000000.0 0.912997800891747 0.41673905220438145
4197000000.0 0.9460664527169956 0.398559580620138
4200000000.0 0.9484335114516005 0.40622072886257643
4203000000.0 0.970514470269048 0.3950075074723046
4206000000.0 0.9638685499468649 0.3887924401976249
4209000000.0 0.9409133302146561 0.3584718443182702
4212000000.0 0.9776501266996064 0.31835889317013044
4216000000.0 0.9620869004188347 0.3522157313941447
4219000000.0 0.9657703383160583 0.3340262142035424
4222000000.0 0.9869362296712316 0.31400312134745006
4225000000.0 0.960339287218186 0.3249504961988001
4228000000.0 1.0015348220858442 0.3105254907635864
4231000000.0 0.9861388049744572 0.30171908520376245
4234000000.0 0.9938644285258387 0.3019915228260012
4238000000.0 0.9867240333103957 0.2774076130257134
4241000000.0 0.9884581168216795 0.2516234787884621
4244000000.0 0.9933300693426829 0.25620322798474743
4247000000.0 0.9877501368224656 0.2685091322238984
4250000000.0 0.9726056973277644 0.2318118562244621
4253000000.0 0.9834541989792669 0.2389429553516243
4256000000.0 1.00738601665498 0.22850452291285017
4259000000.0 0.9764560032368007 0.20825885905537636
4262000000.0 0.9967720185306037 0.19809773275792883
4266000000.0 1.0105744812338557 0.17105262041540376
4269000000.0 1.0100612529148898 0.21371135995780968
4272000000.0 1.0079309986268228 0.19694476868362953
4275000000.0 0.9930181360074875 0.1727576863706038
4278000000.0 1.0166371658764752 0.18697741434073772
4281000000.0 0.9966703849794198 0.19028942326211706
4284000000.0 1.044138946048569 0.12110751764719549
4288000000.0 0.9844865377967623 0.18255843450875023
4291000000.0 0.9913055230884127 0.13371091762873571
4294000000.0 0.9852728982060848 0.13297301675352324
4297000000.0 0.9929903946924286 0.16827828300293385
4300000000.0 1.0058463772745903 0.11681262345455715
4303000000.0 1.0071287259971706 0.07754082948714904
4306000000.0 1.02054095344354 0.12873175467938305
4309000000.0 0.9992627448484247 0.11644111387345453
4312000000.0 1.0350379858453038 0.12125611156636434
4316000000.0 1.0241471497132724 0.08916187987970943
4319000000.0 0.9869280472735464 0.06424020970505788
4322000000.0 1.0037390213820476 0.025836793709780384
4325000000.0 1.0165945177187024 0.0646103990787993
4328000000.0 1.0184200749082737 0.017191667444906022
4331000000.0 1.0567022209733243 0.002287238197412028
4334000000.0 1.0049980959518432 0.029328153463490964
4338000000.0 1.0001323350715825 0.03441105701166623
4341000000.0 1.0245464333704917 0.03502492708976246
4344000000.0 1.045131968349077 0.0014835752513499278
4347000000.0 1.0192482236390155 -0.01923928363528568
4350000000.0 0.9723580586490987 -0.03153520239532463
4353000000.0 1.0086593894546343 0.007736753191864759
4356000000.0 1.0049009189866773 -0.08294680632127864
4359000000.0 0.9712494940633185 -0.055589541439239123
4362000000.0 1.0292122534847736 -0.09486880943872605
4366000000.0 1.0125059962739527 -0.08238600430944547
4369000000.0 0.9835708910212271 -0.07195162142107721
4372000000.0 1.0180726194603262 -0.11911734493622717
4375000000.0 1.0003035755027379 -0.09343010252345003
4378000000.0 0.9836837182542416 -0.09029948484740864
4381000000.0 0.9908601870639178 -0.0794985013731996
4384000000.0 1.0664266124667334 -0.16042082739070884
4388000000.0 0.9846563113361613 -0.10756905829603997
4391000000.0 1.0207008775938746 -0.12969655258259435
4394000000.0 0.9819919578889512 -0.1435175045185208
4397000000.0 0.986174335124449 -0.16244701709794696
4400000000.0 1.0309496875853572 -0.17568995856343278
4403000000.0 0.998939469766195 -0.16186262521415468
4406000000.0 0.9982340317042108 -0.20363340040123368
4409000000.0 1.01767969321819 -0.1836613599255167
4412000000.0 0.9776275790031204 -0.23922033606912468
4416000000.0 0.9672467362688355 -0.2077970708785137
4419000000.0 0.9810454964304929 -0.23211329047477625
4422000000.0 0.9637604375041611 -0.20632690441332002
4425000000.0 1.0128350167195348 -0.2140006033067036
4428000000.0 0.9853886088260131 -0.25514893685629236
4431000000.0 1.00372497780965 -0.23585893513386316
4434000000.0 0.9640130889158766 -0.26505021711441223
4438000000.0 1.0077114868732064 -0.272569073951831
4441000000.0 0.9899908732870748 -0.2794867905482069
4444000000.0 0.9561740097722702 -0.27237572722095016
4447000000.0 0.9534425842566454 -0.30538759348734457
4450000000.0 0.958247201313878 -0.27775950713888364
4453000000.0 0.9837950166828329 -0.3154737656162374
4456000000.0 0.9368285392680106 -0.31964644529434294
4459000000.0 0.9003878482542012 -0.3234691789838078
4462000000.0 1.0042879881542903 -0.3543255193367284
4466000000.0 0.9804230189151367 -0.3442586403823948
4469000000.0 0.9642026882812073 -0.3382752469397643
4472000000.0 0.9603988941286519 -0.40142328910773134
4475000000.0 0.9131508302608838 -0.34920608825407107
4478000000.0 0.9807988290670092 -0.42328241697910174
4481000000.0 0.9200870174752858 -0.38096217961571616
4484000000.0 0.9089515295146169 -0.4366424008383981
4488000000.0 0.9159647878372595 -0.40463752209159354
4491000000.0 0.9341391671392397 -0.418874127817689
4494000000.0 0.9038569244688174 -0.39775084504525676
4497000000.0 0.9020249533443554 -0.40534167135372334
4500000000.0 0.8987166787562588 -0.4210833077798233
4503000000.0 0.9211164992918239 -0.45202497626553795
4506000000.0 0.907552362565776 -0.4255681773026781
4509000000.0 0.8867203852173982 -0.4387901833616774
4512000000.0 0.8590145867978911 -0.45217811694903465
4516000000.0 0.9287961244883906 -0.4719200903269034
4519000000.0 0.8726891054739613 -0.46921499163453123
4522000000.0 0.887621157042251 -0.4928061730712001
4525000000.0 0.8968185415452499 -0.46548537264903533
4528000000.0 0.8857457696640729 -0.5015303408504745
4531000000.0 0.9043108878712761 -0.49183081950759766
4534000000.0 0.8444673765802538 -0.5139872482587653
4538000000.0 0.8625034463621446 -0.5344476657443368
4541000000.0 0.8180809062324678 -0.55000582293543
4544000000.0 0.8450479171629557 -0.5281994892847632
4547000000.0 0.8554980550083565 -0.5008542510186915
4550000000.0 0.836553084226729 -0.5661264086124049
4553000000.0 0.8559049204675719 -0.586027355493196
4556000000.0 0.8069958925195837 -0.5731414455865695
4559000000.0 0.8328709877631381 -0.5929784076324822
4562000000.0 0.8474822346126751 -0.5799885756957859
4566000000.0 0.8352121227309177 -0.601720426566192
4569000000.0 0.7937129696362645 -0.5890402883083079
4572000000.0 0.8072254719494362 -0.6170724901261435
4575000000.0 0.8053697472187336 -0.6237098359206199
4578000000.0 0.8150912287089995 -0.6332864804553981
4581000000.0 0.8034921581414757 -0.6350397949478899
4584000000.0 0.7731415433325072 -0.6376590562475662
4588000000.0 0.8032340958213814 -0.6556167905889415
4591000000.0 0.7870262815370115 -0.643359512293745
4594000000.0 0.744390407320207 -0.65983265447921
4597000000.0 0.7587888730243011 -0.6863157390009025
4600000000.0 0.7158294308632861 -0.6902651669851301
4603000000.0 0.7491163946854354 -0.69372530746327
4606000000.0 0.7545101964938421 -0.6848599977473532
4609000000.0 0.7337045328336729 -0.6962943488885059
4612000000.0 0.747086567441766 -0.7175368134596785
4616000000.0 0.7121302704708754 -0.6964711876710433
4619000000.0 0.7269403728767617 -0.7064637137216595
4622000000.0 0.7201955569486743 -0.7200501553460041
4625000000.0 0.6713734373069328 -0.7108398446925541
4628000000.0 0.7140508461301969 -0.7084310182604326
4631000000.0 0.6654065369257796 -0.7298498663435506
4634000000.0 0.6890986700223632 -0.7415752675847855
4638000000.0 0.6924039516023434 -0.7501502189736915
4641000000.0 0.6934388909568506 -0.763351335108559
4644000000.0 0.6741028932670737 -0.7479445454677874
4647000000.0 0.6763262436788167 -0.7781496608407824
4650000000.0 0.6407469465811162 -0.7747581021066802
4653000000.0 0.6626875218974099 -0.7832426885214908
4656000000.0 0.6335561405225392 -0.7829752912416101
4659000000.0 0.6294751275895113 -0.8013374189793641
4662000000.0 0.6215420070047424 -0.8288122671400567
4666000000.0 0.6248269388636905 -0.7913387659264446
4669000000.0 0.63719842359577 -0.7977961419558076
4672000000.0 0.6105907427690304 -0.8417412829062587
4675000000.0 0.5798774114252145 -0.8161199444963981
4678000000.0 0.601996710422426 -0.8103852460493638
4681000000.0 0.5661711095374153 -0.8464551638672085
4684000000.0 0.5408973045940224 -0.8392222750489516
4688000000.0 0.570547778460547 -0.8381343610971201
4691000000.0 0.5882204149208456 -0.8477385355755627
4694000000.0 0.5684786943550465 -0.8406188878885332
4697000000.0 0.5074066252376942 -0.8348009611266696
4700000000.0 0.5500682890818703 -0.8564173806511748
4703000000.0 0.5512919205985722 -0.8278724646468985
4706000000.0 0.503996626028951 -0.8792368072847793
4709000000.0 0.5004027449725414 -0.8839223242673988
4712000000.0 0.5113793781463317 -0.886555740033418
4716000000.0 0.5014743865522023 -0.8973025413465692
4719000000.0 0.5128217261076375 -0.8811355233568612
4722000000.0 0.5298462528201513 -0.8805685538440216
4725000000.0 0.4900844397353902 -0.8803398404654351
4728000000.0 0.46609483367476023 -0.8991386856852523
4731000000.0 0.49783623424109325 -0.941384164268187
4734000000.0 0.48111800640038715 -0.9145999469229094
4738000000.0 0.45419454114676727 -0.9367857433920966
4741000000.0 0.4376169957883286 -0.9158109197204216
4744000000.0 0.41278294294151074 -0.9388051314191973
4747000000.0 0.43081617042472864 -0.9009254088407921
4750000000.0 0.442816616029148 -0.9279758569966966
4753000000.0 0.43141125692466786 -0.9427380453526719
4756000000.0 0.4120068978395887 -0.9496081829245637
4759000000.0 0.4061385650121764 -0.9595807963000322
4762000000.0 0.37079565821945637 -0.9588754129051821
4766000000.0 0.38711047927044123 -0.9721568619542466
4769000000.0 0.37995500502851176 -0.9549814850548398
4772000000.0 0.35138459035094155 -0.9739969393310631
4775000000.0 0.33481302930680207 -1.0218628314946585
4778000000.0 0.31250855648658965 -0.98280084733656
4781000000.0 0.35955066245740097 -0.941051292615946
4784000000.0 0.35593145542566057 -0.948939257829401
4788000000.0 0.31704810934390903 -1.0029747304746266
4791000000.0 0.29454224461173817 -0.9564668910753481
4794000000.0 0.3559505542057368 -0.9878221099101507
4797000000.0 0.2903738484681457 -0.9642414232094146
4800000000.0 0.2758607053433912 -0.9705205383986186
4803000000.0 0.22373714475392276 -0.9968128945583905
4806000000.0 0.25544212835677105 -1.0114807437008
4809000000.0 0.22787748194803467 -0.9774622225587516
4812000000.0 0.20842612131742816 -1.0004309080569538
4816000000.0 0.2798457819665576 -0.9853414848330666
4819000000.0 0.2838388232884749 -1.0135096360882332
4822000000.0 0.2441865129564753 -1.029046174498376
4825000000.0 0.27129087924794953 -1.0091465329332563
4828000000.0 0.20131765955704217 -0.9948610879580678
4831000000.0 0.14592751542994303 -1.004487228701269
4834000000.0 0.2062417951845108 -1.0129350688933931
4838000000.0 0.2004149210268461 -1.0243685736242627
4841000000.0 0.16769455849775097 -0.9893146097014679
4844000000.0 0.2061772228849268 -1.0415062073446877
4847000000.0 0.1776404232923951 -0.9767151935137461
4850000000.0 0.15195668726186273 -1.0487862603083524
4853000000.0 0.15106636431610254 -0.9920572012811228
4856000000.0 0.14062390449144752 -1.0056645965554551
4859000000.0 0.12107618965026914 -1.0416324146283205
4862000000.0 0.1411085289147438 -0.9826590259582749
4866000000.0 0.09839228782751824 -1.0344792569042944
4869000000.0 0.09602482927391232 -1.009257934153033
4872000000.0 0.0815762162192393 -1.0426143678413193
4875000000.0 0.1395502854384612 -1.0527077354646304
4878000000.0 0.06743673487519555 -1.0242314936354109
4881000000.0 0.0765693032378815 -1.0963432970377047
4884000000.0 0.10102124502790104 -1.0287148607277992
4888000000.0 0.09156893541675504 -1.0142152226366323
4891000000.0 0.07836599460767354 -1.0402644171023248
4894000000.0 0.036648679772468384 -1.017465029644807
4897000000.0 0.03060032559368933 -1.032195178481962
4900000000.0 0.021650428718031425 -1.0332333224142287
4903000000.0 0.03910594006405327 -1.0367111705363927
4906000000.0 0.010104351326457227 -1.0631981705426607
4909000000.0 -0.01992484648082942 -1.0113651995572448
4912000000.0 -0.002435530546927654 -1.0336890898947717
4916000000.0 0.006377651550490304 -1.0537078752022926
4919000000.0 0.021632162481418533 -1.0852360526077862
4922000000.0 0.024563783048205327 -1.025116801475899
4925000000.0 -0.04055023984552181 -1.0264683829503694
4928000000.0 0.0023141698137956607 -1.0222951402612939
4931000000.0 -0.015360555150465527 -1.06042416355223
4934000000.0 -0.07212424647143122 -0.9954131427941947
4938000000.0 -0.13049002494406509 -1.0239521931729012
4941000000.0 -0.07732721125224355 -1.0125013694235887
4944000000.0 -0.0581155670496995 -0.9854418451606832
4947000000.0 -0.10958695611097227 -1.0156842224241893
4950000000.0 -0.1221335957311492 -0.9779960428364557
4953000000.0 -0.15936092725671158 -1.0506428465673938
4956000000.0 -0.13161253558880887 -1.023752963333433
4959000000.0 -0.18280278197486635 -0.9936094738291192
4962000000.0 -0.15592075452246476 -1.0207518507363194
4966000000.0 -0.14951492204941136 -1.0521879045161608
4969000000.0 -0.10686928831665832 -1.073507141097257
4972000000.0 -0.16584783374885717 -1.0165224942852913
4975000000.0 -0.12418326953549427 -1.0171685626596614
4978000000.0 -0.21365519963588092 -1.019566921279371
4981000000.0 -0.22513946431041312 -1.0489681916185853
4984000000.0 -0.21872320048643637 -0.9780900918235966
4988000000.0 -0.18666357082406415 -1.0132373961863665
4991000000.0 -0.14293136003630158 -1.0712258766458744
4994000000.0 -0.21559419777844552 -1.0095944542853916
4997000000.0 -0.26867868370536846 -0.9836062245264076
5000000000.0 -0.23190996559550114 -1.0655766432504636
5003000000.0 -0.2191139012964009 -1.0397106983503208
5006000000.0 -0.23968326000528675 -1.0670025887107861
5009000000.0 -0.2531820164943819 -0.985467573673987
5012000000.0 -0.28682688025209474 -0.9942778434520454
5016000000.0 -0.26704518359976565 -1.0352642096367153
5019000000.0 -0.3013492035259907 -0.9781071894012683
5022000000.0 -0.29152854563744157 -1.0016421418824946
5025000000.0 -0.35676348746031555 -1.04684276691367
5028000000.0 -0.31390644776619947 -0.9921300206668031
5031000000.0 -0.3341029310722432 -0.9842268147447105
5034000000.0 -0.3961202618610892 -1.0033060666720583
5038000000.0 -0.34889755096265374 -0.9444831838695569
5041000000.0 -0.3297063534585808 -1.0052880379713995
5044000000.0 -0.32925517737196 -0.9655136776631338
5047000000.0 -0.33292290789427476 -1.0161208463849856
5050000000.0 -0.28686106913570386 -1.0092656708765764
5053000000.0 -0.40487579712521615 -0.989714086962687
5056000000.0 -0.3177434235544008 -1.007128150248837
5059000000.0 -0.3221348002251197 -0.9984536690060971
5062000000.0 -0.4038504258179635 -0.963127426036257
5066000000.0 -0.33823360028821225 -0.9670838400131527
5069000000.0 -0.42759573656622274 -0.9557689001560395
5072000000.0 -0.4015054430365317 -0.9291716092756119
5075000000.0 -0.3904951908538984 -0.9585549601063403
5078000000.0 -0.48302407444383005 -0.9628334485184336
5081000000.0 -0.4286538745448795 -0.8922787418783104
5084000000.0 -0.4536278331033524 -0.9463902263672626
5088000000.0 -0.4016602960557984 -0.9350472032580115
5091000000.0 -0.5100970655134067 -0.9434840112816023
5094000000.0 -0.4648050439577845 -0.9363253080854049
5097000000.0 -0.44509959835231805 -0.9296848070738308
5100000000.0 -0.5203595953765509 -0.9185202815246837
5103000000.0 -0.501825320897153 -0.8994119971612623
5106000000.0 -0.5285655237651156 -0.9380282676320992
5109000000.0 -0.4533568794650369 -0.9340319073913501
5112000000.0 -0.5149547184813054 -0.8938363670998708
5116000000.0 -0.5029923535887276 -0.847593942684006
5119000000.0 -0.5539468927605329 -0.9001013516614602
5122000000.0 -0.4900828032409887 -0.8844147897198069
5125000000.0 -0.5030351335479488 -0.9122383766849863
5128000000.0 -0.5355075030391758 -0.8361236996493944
5131000000.0 -0.5593198220918003 -0.8820947180825428
5134000000.0 -0.526031100920195 -0.874084010148433
5138000000.0 -0.5549768661712005 -0.9071216202924394
5141000000.0 -0.5102863483395088 -0.9302593848898923
5144000000.0 -0.5706462491686172 -0.8546597641194666
5147000000.0 -0.5573349249843766 -0.9027920358060634
5150000000.0 -0.534468045334268 -0.875391636549032
5153000000.0 -0.6023847220350236 -0.8861724846938799
5156000000.0 -0.566747189698401 -0.8686473941803321
5159000000.0 -0.6305946331082821 -0.8538988760125968
5162000000.0 -0.6499295139486967 -0.8056606357753591
5166000000.0 -0.647944055914066 -0.806631065469509
5169000000.0 -0.5998485763270796 -0.8185686694458685
5172000000.0 -0.6272357757834156 -0.8351418947592898
5175000000.0 -0.6291179663866381 -0.8684318025289873
5178000000.0 -0.6524773040338667 -0.8330588860497276
5181000000.0 -0.6515861895223635 -0.8448209413311055
5184000000.0 -0.6886389215121356 -0.8163367508430668
5188000000.0 -0.6492233528101935 -0.8185613122800173
