! Created with skrf 1.8.0 (http://scikit-rf.org).
# Hz S RI R 50.0 
!freq ReS11 ImS11
4000000000.0 0.616232798536196 0.79903504938915
4003000000.0 0.6372498588824561 0.8463514600025307
4006000000.0 0.6631960147170857 0.7944269346651891
4009000000.0 0.6151767896258945 0.8248658601002838
4012000000.0 0.6045272638561234 0.8338585080497085
4016000000.0 0.6643474051050352 0.7877390412185044
4019000000.0 0.656670259276281 0.7581424233372975
4022000000.0 0.6193437887225539 0.8177152257178687
4025000000.0 0.7159433477391195 0.741291068770015
4028000000.0 0.6959982253654311 0.7357704528605795
4031000000.0 0.6854575687226074 0.7284399784801217
4034000000.0 0.6911262488869323 0.7685929922568097
4038000000.0 0.7654218446450134 0.7266879055693112
4041000000.0 0.7120803999504645 0.7568075549078032
4044000000.0 0.7540533317829399 0.8049188495571942
4047000000.0 0.7317626628559022 0.7743371956231975
4050000000.0 0.7682477713888275 0.675446033834488
4053000000.0 0.7526450879720616 0.7071996449373357
4056000000.0 0.7756291463603396 0.667914203243225
4059000000.0 0.7276321255605845 0.6761971504739137
4062000000.0 0.7417489217142255 0.6750538168277169
4066000000.0 0.707355778212313 0.6077076962401697
4069000000.0 0.8133014950047236 0.7180890511032789
4072000000.0 0.7593790139666146 0.7201962542579547
4075000000.0 0.7985208461187245 0.7119612619740403
4078000000.0 0.8109997763712247 0.6559612997623008
4081000000.0 0.7710831528112098 0.7473917686633842
4084000000.0 0.8474226946445863 0.6537142726781426
4088000000.0 0.7477476626127851 0.6713469940908503
4091000000.0 0.8542484957269222 0.6467782466752874
4094000000.0 0.7720726196369911 0.6210175743996903
4097000000.0 0.811233955043772 0.6284423848618588
4100000000.0 0.8255294477677292 0.5890763857994519
4103000000.0 0.8051467242630013 0.6659838146298491
4106000000.0 0.84320946333031 0.6344747119242463
4109000000.0 0.8395565090222443 0.5925415929518547
4112000000.0 0.8555277628281175 0.5958971730353562
4116000000.0 0.8254555728129789 0.5967555794469371
4119000000.0 0.8501658824245594 0.5780886848546976
4122000000.0 0.8414692575806164 0.5602485977023636
4125000000.0 0.8911373991380819 0.5200756687179124
4128000000.0 0.802626674157281 0.5505725693304414
4131000000.0 0.8484515319098764 0.5465408426585269
4134000000.0 0.8315469357514227 0.5855093026123294
4138000000.0 0.8287558769544925 0.5081230447261686
4141000000.0 0.8789606843260154 0.5502620186777426
4144000000.0 0.8664225514667256 0.5424676859773288
4147000000.0 0.886811240328896 0.4892196291884166
4150000000.0 0.9107622047292162 0.5218508224457339
4153000000.0 0.874815825299787 0.458261751831781
4156000000.0 0.9158486197193483 0.5022863319569335
4159000000.0 0.8728185192360496 0.4553926859063346
4162000000.0 0.8812721321245112 0.43929625538732076
4166000000.0 0.9181946789870794 0.45790509607676066
4169000000.0 0.9065470438883185 0.4299839876297278
4172000000.0 0.8998291113294065 0.4422225348178443
4175000000.0 0.9162602726873311 0.4580932395571646
4178000000.0 0.9052387162554812 0.44610669831926
4181000000.0 0.9324713079162892 0.4270892973575997
4184000000.0 0.92765155770648 0.411774018204255
4188000000.0 0.9112666314216276 0.4135839844645569
4191000000.0 0.9086071676155172 0.45555745331966463
4194000000.0 0.9110361637083436 0.4000502264181227
4197000000.0 0.9431574942698929 0.40030472090915264
4200000000.0 0.9373499449797291 0.4011651766836982
4203000000.0 0.9587567092786583 0.39867001997102836
4206000000.0 0.953473003559914 0.38487199534237887
4209000000.0 0.9334738928009815 0.3731785413082011
4212000000.0 0.9596468904364173 0.31489685789527333
4216000000.0 0.9608007003014886 0.3564025095198306
4219000000.0 0.9646854452944884 0.3519468143511362
4222000000.0 0.9769132595023711 0.31856270704962847
4225000000.0 0.9435972600602431 0.32971387953853903
4228000000.0 0.9724894995620044 0.3261901082943065
4231000000.0 0.9753140871368644 0.30833498826515604
4234000000.0 0.9890698265289007 0.2980362679013195
4238000000.0 0.9764891750976925 0.28713790824736596
4241000000.0 0.9593284213618385 0.27874263386561626
4244000000.0 0.9690169560260883 0.27857012003459264
4247000000.0 0.9727527136248627 0.2671852632279999
4250000000.0 0.9847616753817277 0.24975688890756903
4253000000.0 0.9732758714875944 0.2173111451392723
4256000000.0 1.023960514368116 0.23414449259293751
4259000000.0 0.9667908516833945 0.21151879689762484
4262000000.0 0.9889282412102594 0.2193513046029554
4266000000.0 1.0033411345371017 0.18167274089990604
4269000000.0 1.0008864941147295 0.22916185807275777
4272000000.0 0.9876577646468996 0.22415739360061981
4275000000.0 1.0250323634267124 0.187010802512454
4278000000.0 1.0203261421755363 0.20388087533626142
4281000000.0 1.002874611068125 0.1790902292706495
4284000000.0 1.0121157926338578 0.13259418861369787
4288000000.0 0.9945458752486825 0.17353397685341834
4291000000.0 0.9794781542765986 0.16274446436493684
4294000000.0 0.9828880197239943 0.11620268535992721
4297000000.0 0.9891506017848916 0.13956996650663994
4300000000.0 0.9826419155200301 0.13605361437505237
4303000000.0 0.9863426275058829 0.11164857036673413
4306000000.0 1.0010916636189804 0.13360241276575344
4309000000.0 0.9932662789599092 0.12712517481056734
4312000000.0 1.0204248188744247 0.12531959297510517
4316000000.0 1.0240149967424466 0.09632101776025818
4319000000.0 0.9941721787135781 0.08945644834588447
4322000000.0 1.01345513090459 0.04573173828821182
4325000000.0 1.0295446930292316 0.05079462409908546
4328000000.0 0.9875528033490517 0.030098019725497596
4331000000.0 1.016661758633576 0.023788910571541866
4334000000.0 1.0201033878435244 0.036714014322997396
4338000000.0 1.0068325277911676 0.05238488295422768
4341000000.0 1.0329144949390334 0.055148452590781216
4344000000.0 1.0331800046088302 0.03498935041566292
4347000000.0 1.0207588966567922 -0.02402240243344475
4350000000.0 0.979440834416784 -0.02848500567196266
4353000000.0 0.9764847971970294 -0.01453405313570405
4356000000.0 0.9857083307854502 -0.023540308210080824
4359000000.0 0.970426429835227 -0.03297898513171238
4362000000.0 1.002542388539869 -0.09498164650383731
4366000000.0 1.0374528682496804 -0.04614582179659213
4369000000.0 0.9564951123445316 -0.07900435837543975
4372000000.0 0.9876505773163868 -0.13183946057093887
4375000000.0 1.008841160539672 -0.07382453623677758
4378000000.0 0.980149669864513 -0.07523383956919996
4381000000.0 1.0038063235901462 -0.08351502408327237
4384000000.0 1.0635707272313013 -0.12254324204183556
4388000000.0 0.9760587857670532 -0.11113132882276545
4391000000.0 1.004408822865736 -0.12154455108830525
4394000000.0 0.97765643556568 -0.12803042708745843
4397000000.0 0.9876459968954932 -0.14673727654458474
4400000000.0 1.0178077193204873 -0.17334632696728186
4403000000.0 1.0022781830073044 -0.15499898033726583
4406000000.0 0.9927561621890605 -0.1873155454027028
4409000000.0 1.0157595727063287 -0.18562908387742932
4412000000.0 0.9710122426537835 -0.23571191306430406
4416000000.0 0.9786378512915426 -0.20884319295730208
4419000000.0 0.9723432755475049 -0.22992898736517686
4422000000.0 0.9728189318932658 -0.193891432955483
4425000000.0 1.0026721747331737 -0.1989884151700042
4428000000.0 0.9812331028241965 -0.23981763279726268
4431000000.0 1.0030982060972287 -0.2310950383439847
4434000000.0 0.9706783119256974 -0.23922730460289757
4438000000.0 1.0048102663462204 -0.2522223320033977
4441000000.0 0.985958205663167 -0.2559420813838773
4444000000.0 0.9575591809343416 -0.2687001825363167
4447000000.0 0.9613640019769591 -0.2971212981916219
4450000000.0 0.955451439936247 -0.27217028785123165
4453000000.0 0.9836768278577593 -0.30840880842843044
4456000000.0 0.9295330659376889 -0.30623983433726953
4459000000.0 0.9152892649482225 -0.3149860663928465
4462000000.0 0.9970935282402498 -0.3556144344568065
4466000000.0 0.9964413430683506 -0.3526377307647688
4469000000.0 0.9533711645856976 -0.3235404936448686
4472000000.0 0.9535532031077257 -0.38141953529419764
4475000000.0 0.9239890533885221 -0.33276457193333175
4478000000.0 0.9675820401214211 -0.40431976045473994
4481000000.0 0.9008788099013928 -0.3701716573297189
4484000000.0 0.9024163053210639 -0.42423619081499275
4488000000.0 0.9049586618004986 -0.4046863275334629
4491000000.0 0.9085346387221853 -0.40647943331901276
4494000000.0 0.9028337102185321 -0.4090578759522268
4497000000.0 0.9098497460976367 -0.39056937768110256
4500000000.0 0.894150122469237 -0.41907349682876305
4503000000.0 0.929381549714509 -0.4372492084186198
4506000000.0 0.8901188009638081 -0.43327374656464884
4509000000.0 0.8886596133306568 -0.44624647717310284
4512000000.0 0.8743366840589851 -0.4654848030289712
4516000000.0 0.9041158341919303 -0.4605451539897744
4519000000.0 0.873099889638569 -0.46416983331259554
4522000000.0 0.8747828201335159 -0.4956824331809094
4525000000.0 0.8858736647065029 -0.45289482511881574
4528000000.0 0.9160532287577714 -0.5090543408418621
4531000000.0 0.866866430407547 -0.4887293205088905
4534000000.0 0.8518912860633056 -0.4955343843396127
4538000000.0 0.8701567154073528 -0.5018126905143191
4541000000.0 0.8256199950918867 -0.5309206213268741
4544000000.0 0.839170923351533 -0.5091092462617868
4547000000.0 0.8502714496203239 -0.5019022541571498
4550000000.0 0.8444227400158693 -0.5790541829286235
4553000000.0 0.8404406765875572 -0.5650317181836322
4556000000.0 0.8088193843059086 -0.5554042844544864
4559000000.0 0.8309922403806742 -0.5827725626874427
4562000000.0 0.828023136203696 -0.5629346343338234
4566000000.0 0.849331792835827 -0.582928557841289
4569000000.0 0.7912195029461492 -0.5726598510629266
4572000000.0 0.8070843987965546 -0.6016782153809999
4575000000.0 0.807039756498033 -0.6247139012407801
4578000000.0 0.8302991334253158 -0.620921351997225
4581000000.0 0.791060276589702 -0.6449600218969103
4584000000.0 0.7854219815664399 -0.6021796314798195
4588000000.0 0.8225413938633025 -0.6427790843778312
4591000000.0 0.7986815386902054 -0.6306116905290278
4594000000.0 0.7590383207156906 -0.6407207930250183
4597000000.0 0.7783366750381175 -0.6623226395785764
4600000000.0 0.7232407430282927 -0.6745353736679391
4603000000.0 0.7604180716965417 -0.6824677514334228
4606000000.0 0.7638369266924765 -0.6728108254778854
4609000000.0 0.7422015386335171 -0.6720681687767935
4612000000.0 0.7249547759304968 -0.6921924789767464
4616000000.0 0.7177680067329537 -0.679895148815116
4619000000.0 0.7392421606239569 -0.6894150869516724
4622000000.0 0.7070194451496657 -0.7001522299191464
4625000000.0 0.6692977990807204 -0.7029031762717147
4628000000.0 0.7056598149439112 -0.71004173355421
4631000000.0 0.6836686610837495 -0.7263602487892469
4634000000.0 0.6936375207927398 -0.74281813459732
4638000000.0 0.6904531907938638 -0.7391261379941813
4641000000.0 0.7068464732397377 -0.7367428661637403
4644000000.0 0.6748471172076439 -0.7635531815207385
4647000000.0 0.6747541781781556 -0.7648173111581305
4650000000.0 0.6505429642212252 -0.7659254862402907
4653000000.0 0.6639703669830306 -0.7640952442589674
4656000000.0 0.635611080371433 -0.7782943314320039
4659000000.0 0.640532007272991 -0.7891863060279081
4662000000.0 0.6204951420025064 -0.8018692385256209
4666000000.0 0.6104097688502459 -0.7960106140720834
4669000000.0 0.6284596655002139 -0.7959588949818809
4672000000.0 0.6085210372356024 -0.8171065535544241
4675000000.0 0.6038139907561957 -0.8166998124445224
4678000000.0 0.5759803942026669 -0.8049047303714217
4681000000.0 0.5908736776561598 -0.8558592411660212
4684000000.0 0.5792214168825405 -0.840601571794968
4688000000.0 0.5572653563912026 -0.8357211556517384
4691000000.0 0.5912067796851519 -0.8275692342517764
4694000000.0 0.5425827907200289 -0.822400813567238
4697000000.0 0.5387811696938253 -0.8189577648485233
4700000000.0 0.5342725191826536 -0.8308692220294753
4703000000.0 0.5402669527750543 -0.8168249414263618
4706000000.0 0.5151654686941347 -0.8506827589356076
4709000000.0 0.4941724937870411 -0.853471095593517
4712000000.0 0.5277345606748736 -0.8837066088536571
4716000000.0 0.5115874203938048 -0.907337048593241
4719000000.0 0.5271544958055567 -0.8820099043202562
4722000000.0 0.5040462768102976 -0.8671055040959039
4725000000.0 0.49623567376423783 -0.8761668669777131
4728000000.0 0.470546838510555 -0.8778029432187386
4731000000.0 0.48273284558624124 -0.9051541456935779
4734000000.0 0.4772382060521475 -0.88394776062599
4738000000.0 0.48691161963255875 -0.9383186596540649
4741000000.0 0.4196110341274471 -0.9264903643740369
4744000000.0 0.42646022907938785 -0.944794651395966
4747000000.0 0.4550517870496861 -0.8599118879628863
4750000000.0 0.4218493620147502 -0.9335830879287733
4753000000.0 0.4174246358002892 -0.93854624623358
4756000000.0 0.38727261965505455 -0.9193943311467183
4759000000.0 0.4149068182998343 -0.9329399114883118
4762000000.0 0.38184304804637764 -0.9363660072965495
4766000000.0 0.3855644550707291 -0.9443222630443376
4769000000.0 0.40688129145545016 -0.9406300628377124
4772000000.0 0.36341413871889494 -0.9715838103821007
4775000000.0 0.34168141694580717 -0.9941892176071525
4778000000.0 0.3605991113316136 -0.9888415529944702
4781000000.0 0.3679295907764159 -0.9530462697005828
4784000000.0 0.36306816237269784 -0.933013948158698
4788000000.0 0.33146926373186475 -0.9701349550465439
4791000000.0 0.29897750415754987 -0.9596392666187091
4794000000.0 0.34219505721910454 -0.9988015247495461
4797000000.0 0.289332591284013 -0.9578028588697024
4800000000.0 0.3013381335683625 -0.9567882483597512
4803000000.0 0.2640139171622249 -0.974275498061683
4806000000.0 0.3091065127105787 -0.9980920758170033
4809000000.0 0.2422971917693758 -0.9843713435554137
4812000000.0 0.24054219197549603 -0.9593310418422045
4816000000.0 0.27356968023427825 -0.9709477543634932
4819000000.0 0.2794026893662558 -1.0035302781475828
4822000000.0 0.27857263778536334 -1.0252669612169167
4825000000.0 0.2627694204794521 -1.0087702285474434
4828000000.0 0.21420553859409866 -0.9978237801373732
4831000000.0 0.18050728141844657 -1.0010149594839157
4834000000.0 0.21168188909471924 -0.9929752566531371
4838000000.0 0.17866031852012149 -1.0466992387278502
4841000000.0 0.16948718251143718 -0.9828171315004836
4844000000.0 0.21611349487010523 -0.9875329007284365
4847000000.0 0.19651298663486882 -0.9923756196554598
4850000000.0 0.16883831822932224 -1.0158649634367845
4853000000.0 0.1718865287226632 -0.9819630554844663
4856000000.0 0.15934391218332947 -0.9934034317406636
4859000000.0 0.10866148485253524 -1.0398417351735771
4862000000.0 0.15746487603044518 -0.9961756434419077
4866000000.0 0.09370498375093378 -1.0261527734901634
4869000000.0 0.1064006119002179 -1.002106869717518
4872000000.0 0.09154883750413181 -1.04199187679332
4875000000.0 0.15577031059827914 -1.0713821948513043
4878000000.0 0.09740505933321658 -1.0316356685333405
4881000000.0 0.07864754798299513 -1.071841200498891
4884000000.0 0.08970292366548992 -1.0239275432097852
4888000000.0 0.10143353532849173 -1.011240478650344
4891000000.0 0.08568862737938501 -1.037772923429498
4894000000.0 0.022452942427069647 -1.0001002739935998
4897000000.0 0.07230854276733303 -1.0345530329880452
4900000000.0 0.04476851492578607 -1.0292729624117505
4903000000.0 0.0453158844768077 -1.0286533750635216
4906000000.0 0.023170925507946985 -1.0245787303124385
4909000000.0 0.012322837930136268 -1.042572504848017
4912000000.0 -0.0038399961378958805 -1.059470640690599
4916000000.0 0.004361585829054111 -1.050076987637311
4919000000.0 0.03588322909163956 -1.0406387969696922
4922000000.0 -0.010057285548801476 -1.0243061960794086
4925000000.0 -0.053681257306172306 -1.0386318763246927
4928000000.0 -0.0013977906301923249 -1.0055025424981692
4931000000.0 -0.06510033101314215 -1.0502518078509764
4934000000.0 -0.034542430162610466 -0.985753783787586
4938000000.0 -0.08467433684878438 -1.0149239772219647
4941000000.0 -0.09419950747068205 -0.9821553675151647
4944000000.0 -0.03740030122633928 -0.9720429630604748
4947000000.0 -0.08873993469499977 -1.0362123382694897
4950000000.0 -0.07584545946034056 -0.9960124895332692
4953000000.0 -0.1350717012265902 -1.0622977210581714
4956000000.0 -0.12564897177873297 -1.0051192316336746
4959000000.0 -0.1457193252128056 -0.9700483571786384
4962000000.0 -0.12979479304714917 -1.037377192762608
4966000000.0 -0.11304811790605912 -1.0556024184156643
4969000000.0 -0.1311283986164521 -1.0782259321365069
4972000000.0 -0.16516328389111987 -1.034845014821022
4975000000.0 -0.12108343301612293 -1.0253720261362016
4978000000.0 -0.18978441372358956 -1.038561818957864
4981000000.0 -0.17669217551935837 -1.0457134702385507
4984000000.0 -0.1666057311867367 -0.998675052217976
4988000000.0 -0.13452465067898284 -1.0225214005741994
4991000000.0 -0.1433445216214721 -1.048097035296643
4994000000.0 -0.17810903381281717 -1.0079575432766579
4997000000.0 -0.2604215440004209 -0.9865081355060651
5000000000.0 -0.18326241533261767 -1.0528194450825556
5003000000.0 -0.2204172397926895 -1.0179090117253966
5006000000.0 -0.23582724815413178 -1.0454951138681028
5009000000.0 -0.22923698280092794 -0.9959939623114004
5012000000.0 -0.26014821226270557 -0.9989869743426238
5016000000.0 -0.2399665350355863 -1.0087959776880915
5019000000.0 -0.26360597271640557 -0.992012260251637
5022000000.0 -0.29972316527585097 -1.0119148248619179
5025000000.0 -0.3072989448926596 -1.045452164640976
5028000000.0 -0.3210427999640487 -0.9953508984497932
5031000000.0 -0.3256873476210784 -0.973356133279513
5034000000.0 -0.36038300259153744 -0.9858150520564357
5038000000.0 -0.3289464082975837 -0.9333678339591625
5041000000.0 -0.2761750405464585 -0.9715256651658754
5044000000.0 -0.26651367972128737 -0.9588005743103832
5047000000.0 -0.3366029012147666 -0.9491109933371437
5050000000.0 -0.24890847181386425 -0.9666053120934615
5053000000.0 -0.37304505263275156 -0.9693725285038266
5056000000.0 -0.33977575501957824 -0.9922859692770833
5059000000.0 -0.3157637208900285 -0.9918446865469047
5062000000.0 -0.420146359810708 -0.9779305847686728
5066000000.0 -0.3668900797399727 -0.9474815228582414
5069000000.0 -0.40663612796716053 -0.9778015074382439
5072000000.0 -0.3783424003165964 -0.9340366153970976
5075000000.0 -0.3736886955500587 -0.9594249625058751
5078000000.0 -0.446062161412176 -0.9200317573024184
5081000000.0 -0.4440903511422994 -0.9007411780710884
5084000000.0 -0.4333959232615999 -0.9676595607246092
5088000000.0 -0.43776758876585675 -0.9470489585702933
5091000000.0 -0.4605260964374856 -0.9332100162698391
5094000000.0 -0.4305965470374677 -0.9342788927168099
5097000000.0 -0.4328845128283719 -0.9076534542086148
5100000000.0 -0.4433712521726533 -0.9291799469392074
5103000000.0 -0.4747985456990692 -0.8842430653989896
5106000000.0 -0.445273235127945 -0.972050999021284
5109000000.0 -0.40544672827387984 -0.9600796032571028
5112000000.0 -0.48734995841954465 -0.9076112411536517
5116000000.0 -0.5033489812242224 -0.8184753143131868
5119000000.0 -0.5355562164585335 -0.9167572037319609
5122000000.0 -0.4977942694972609 -0.9138698107652785
5125000000.0 -0.5013707813008378 -0.8867507118530535
5128000000.0 -0.5157752283409515 -0.9150219195637572
5131000000.0 -0.5392924830565907 -0.8364610089950597
5134000000.0 -0.49132206881114915 -0.8525057289797585
5138000000.0 -0.49871839297411225 -0.8751115808649648
5141000000.0 -0.5172668487091296 -0.935709798128256
5144000000.0 -0.5618557786148508 -0.9069072034389754
5147000000.0 -0.5674025145049929 -0.8757141271364282
5150000000.0 -0.5388859743553805 -0.8561545600246866
5153000000.0 -0.6056288816446156 -0.8719699174245277
5156000000.0 -0.5527769186977852 -0.8746923340651372
5159000000.0 -0.5661057521338071 -0.898593481776271
5162000000.0 -0.5857829065215211 -0.8321711089763528
5166000000.0 -0.6358323506208695 -0.8817142494034824
5169000000.0 -0.6350258300746296 -0.8030569137279305
5172000000.0 -0.6284117841245128 -0.8219333463199266
5175000000.0 -0.6221832716862473 -0.8575236121382401
5178000000.0 -0.6336123137454048 -0.8200290824707758
5181000000.0 -0.6540168263758633 -0.8704078054472477
5184000000.0 -0.6830429646763085 -0.8208097495782438
5188000000.0 -0.6238443878267406 -0.8276395254145819
