! Created with skrf 1.8.0 (http://scikit-rf.org).
# Hz S RI R 50.0 
!freq ReS11 ImS11
4000000000.0 0.6957383063304976 0.6961931583199015
4003000000.0 0.7433362951873551 0.778788474714835
4006000000.0 0.732770677842972 0.6672882815473643
4009000000.0 0.771267117734715 0.6999673981579714
4012000000.0 0.7318157774515375 0.7291820152206849
4016000000.0 0.7643424021535206 0.7117434809687022
4019000000.0 0.7537236270429188 0.6504511640206336
4022000000.0 0.7456189559084865 0.733560753723248
4025000000.0 0.8431448225079257 0.6441859894877241
4028000000.0 0.7900241017177728 0.6557037042063085
4031000000.0 0.7718720576996353 0.6488004358474649
4034000000.0 0.7933416287061288 0.6269133418768944
4038000000.0 0.8222792374909107 0.6304475573863879
4041000000.0 0.7742470266968834 0.6519841780430256
4044000000.0 0.8443447668154818 0.6730360531645456
4047000000.0 0.8370524620129637 0.6319496261496191
4050000000.0 0.8630841602250559 0.6146105783412892
4053000000.0 0.8442143169644968 0.6003027399711305
4056000000.0 0.8344994947208103 0.5906820598139119
4059000000.0 0.793058123208056 0.5993077498687702
4062000000.0 0.8388758166720938 0.5904957064604668
4066000000.0 0.8117283307614436 0.5641630464788832
4069000000.0 0.880112247305715 0.5710495493058577
4072000000.0 0.8362813040784778 0.5731848914459778
4075000000.0 0.8872163299369776 0.5989394419307121
4078000000.0 0.8959638629280803 0.5638991572000057
4081000000.0 0.8519307281231242 0.6014608508538262
4084000000.0 0.8954648395284875 0.560833285026954
4088000000.0 0.8720777085162706 0.5398855124860883
4091000000.0 0.9208484601694417 0.5381120125925263
4094000000.0 0.9169198523748406 0.48867349666653825
4097000000.0 0.8900926625399797 0.4902492323367739
4100000000.0 0.8786482591722954 0.495114382982552
4103000000.0 0.9072754710884088 0.4825914194918682
4106000000.0 0.9390698590882606 0.4739646908832317
4109000000.0 0.9483696011871388 0.45951887770439487
4112000000.0 0.9226216456587975 0.4660029851931588
4116000000.0 0.9299134798347172 0.4820504929207521
4119000000.0 0.902057403938421 0.4375625130755638
4122000000.0 0.9416433195468406 0.3930949436112775
4125000000.0 0.948123141822908 0.4367922413282654
4128000000.0 0.9171682357964714 0.41303618300618006
4131000000.0 0.9306461823766022 0.4026757638716114
4134000000.0 0.9334067770601521 0.4141719456303069
4138000000.0 0.9437525314878135 0.3855751853585157
4141000000.0 0.9401218994765341 0.3944522223433371
4144000000.0 0.956999469928976 0.4030946631270514
4147000000.0 0.9485848469100482 0.348141620786445
4150000000.0 0.9952416735586253 0.3876056575315015
4153000000.0 0.9503966584891329 0.3891229325130696
4156000000.0 0.9833180967434751 0.3532578998526664
4159000000.0 0.9212445091314343 0.35528591160909245
4162000000.0 0.9434607788015827 0.33178789519709617
4166000000.0 0.9933010869352794 0.3044788886098557
4169000000.0 0.9753972344354693 0.2827915092500842
4172000000.0 0.996101953775824 0.31878316079443153
4175000000.0 1.0088259795857826 0.32585988446698205
4178000000.0 1.0042130895106052 0.29842085320963574
4181000000.0 0.9739212904394261 0.27768323909602877
4184000000.0 0.9785763422197451 0.2653331563811738
4188000000.0 0.9917420834293429 0.2618563004918828
4191000000.0 0.9775635753735152 0.2667868765483356
4194000000.0 0.9889352295557436 0.23056772787873236
4197000000.0 0.9824858575645199 0.25500421124430467
4200000000.0 1.0030110491180388 0.2562906964220588
4203000000.0 1.0064014109654527 0.23352893277174502
4206000000.0 1.0003565415668518 0.21595992532132247
4209000000.0 1.000437570494344 0.19406882649990814
4212000000.0 0.9963260312813086 0.16839038501059883
4216000000.0 1.0199302956216627 0.20033546706587368
4219000000.0 1.026199418788651 0.1861059891698236
4222000000.0 1.0055930144764487 0.1517326478165314
4225000000.0 1.0137675903616556 0.16453862803354521
4228000000.0 1.0219060060692173 0.15739761058738774
4231000000.0 1.034282399099102 0.13423516487287646
4234000000.0 1.0138859380850593 0.13170204365773852
4238000000.0 1.0162797534013381 0.09849853026740737
4241000000.0 1.0079413710244192 0.08563130679518047
4244000000.0 1.0118397051125285 0.1011935796373794
4247000000.0 1.004636473983188 0.08633175662383816
4250000000.0 0.9874990989434027 0.06606628551357197
4253000000.0 0.994004664909188 0.056970223974987716
4256000000.0 1.041246025988895 0.07814199445184097
4259000000.0 0.9990203942225064 0.04435325799800843
4262000000.0 1.0102175996768714 0.034009328500292424
4266000000.0 1.028268879942713 -0.003604048375103003
4269000000.0 1.0156473698011077 0.026605400634022836
4272000000.0 1.0058020205808527 0.015181521847819499
4275000000.0 1.0285016742309332 0.004026126270204239
4278000000.0 1.0560125703605894 0.016978230679936063
4281000000.0 1.024940166679057 -0.011211128843528193
4284000000.0 1.0288243366683183 -0.04963912092587305
4288000000.0 1.0285829483500137 -0.003640107178490129
4291000000.0 1.0022392358787648 -0.050729446427523806
4294000000.0 1.0194578624973052 -0.055050120720448605
4297000000.0 0.9914118516810688 -0.025785851276708432
4300000000.0 1.0072187334288665 -0.07539114405970035
4303000000.0 0.9790173429125417 -0.07168689194624893
4306000000.0 1.010752426995198 -0.06832404551023598
4309000000.0 0.9937468971767074 -0.0847851436592375
4312000000.0 1.026028009774903 -0.047043762444817706
4316000000.0 1.0370675328407244 -0.10714548443862279
4319000000.0 0.9926414160005252 -0.11388606079424858
4322000000.0 0.9899627604506571 -0.1488422909583067
4325000000.0 0.9897045903227796 -0.1532763284769619
4328000000.0 0.9812083044044939 -0.13569929020697274
4331000000.0 1.011961988406211 -0.17735618688156596
4334000000.0 1.0220284215660567 -0.1674170614100909
4338000000.0 0.9809612867278013 -0.16117549093557137
4341000000.0 1.0195702285668442 -0.16049419342599064
4344000000.0 1.0070226404967275 -0.17449735884029058
4347000000.0 1.0067557044938704 -0.22570158197632695
4350000000.0 0.9648614263957992 -0.20248551821829966
4353000000.0 0.9613426080912795 -0.19856486072369078
4356000000.0 0.9726403013651861 -0.2629923352606835
4359000000.0 0.9180354107678214 -0.23465289905644338
4362000000.0 0.9661883254637238 -0.2881669673407068
4366000000.0 0.9942221422274822 -0.272706695186541
4369000000.0 0.9341494732530364 -0.26789391042244537
4372000000.0 0.9564048535087841 -0.3157070236456344
4375000000.0 0.970063270509925 -0.266597263256833
4378000000.0 0.9371032164625289 -0.27784681513977905
4381000000.0 0.9483592244172889 -0.29336615928704757
4384000000.0 1.0160821535975395 -0.34491257862531627
4388000000.0 0.9650271321243222 -0.30607437007715144
4391000000.0 0.9647134829115513 -0.32706717878586944
4394000000.0 0.9297468297609807 -0.3358365709835856
4397000000.0 0.9553526371420287 -0.36630570680866975
4400000000.0 0.9583108305182935 -0.3787207327917888
4403000000.0 0.9505827623007873 -0.3600535779469251
4406000000.0 0.9356373137339065 -0.3809874221251112
4409000000.0 0.955175891509698 -0.4025062067237698
4412000000.0 0.9012068334513911 -0.43875091958349194
4416000000.0 0.9097856804401336 -0.4149481912907381
4419000000.0 0.9109052184020573 -0.4270248351161172
4422000000.0 0.9188661833184677 -0.39828548408683273
4425000000.0 0.944121470066697 -0.4176080890773744
4428000000.0 0.9098782485263679 -0.4413923958545341
4431000000.0 0.9294458631700839 -0.45084182521099975
4434000000.0 0.8822811258527359 -0.4614236242567067
4438000000.0 0.9171294581307521 -0.47655478137817203
4441000000.0 0.910458042333472 -0.476272765149899
4444000000.0 0.8891692540854224 -0.48271385209528606
4447000000.0 0.8764158519362093 -0.5104146588696343
4450000000.0 0.8696969005906593 -0.49356549044814046
4453000000.0 0.8790567887979206 -0.528437893547923
4456000000.0 0.835833874097819 -0.5104828340420591
4459000000.0 0.8263208941033415 -0.5155557590175674
4462000000.0 0.9149832935568389 -0.5694883930180911
4466000000.0 0.8720408630934046 -0.5742560292578305
4469000000.0 0.8502843947058571 -0.5425823224312394
4472000000.0 0.8386078322811245 -0.5964088758469925
4475000000.0 0.8072939969866313 -0.5384535708696019
4478000000.0 0.855139650469091 -0.6104919168142884
4481000000.0 0.8013931465497987 -0.5641549612958114
4484000000.0 0.7941694616175801 -0.6344624646873193
4488000000.0 0.7975203782326028 -0.5989988268565041
4491000000.0 0.7930947468888724 -0.6043845857928709
4494000000.0 0.7985848110685062 -0.5932260454875617
4497000000.0 0.7932934694739906 -0.6162989374252087
4500000000.0 0.8088215309509663 -0.6314128497495952
4503000000.0 0.808223404920416 -0.6425043901786822
4506000000.0 0.7736636059596007 -0.6663239946448934
4509000000.0 0.7612908290295813 -0.640651377161979
4512000000.0 0.739845872338919 -0.6411542569708182
4516000000.0 0.7624366973575678 -0.6922441714920917
4519000000.0 0.7278348401759297 -0.6624559242909078
4522000000.0 0.7641677145481656 -0.6809135486510753
4525000000.0 0.7506472720248054 -0.6521575512744499
4528000000.0 0.7528030921564115 -0.7106084170825491
4531000000.0 0.7597915799014495 -0.694692921322198
4534000000.0 0.7128501415919907 -0.6853901336388027
4538000000.0 0.7237783279783223 -0.7204550900353313
4541000000.0 0.6547802477779131 -0.7454427048173983
4544000000.0 0.6975828584224179 -0.725861913951616
4547000000.0 0.694693614250605 -0.7256293032840908
4550000000.0 0.6739483716988984 -0.7557579627182855
4553000000.0 0.6748825261566402 -0.7638753866221698
4556000000.0 0.6644468128883902 -0.7678766657628451
4559000000.0 0.6704707395655605 -0.7583300515915168
4562000000.0 0.6872499423769234 -0.7805469882415089
4566000000.0 0.640565275911098 -0.7998302827224373
4569000000.0 0.6370055275342505 -0.7651732555586559
4572000000.0 0.6304944839293213 -0.7667693109148904
4575000000.0 0.5974991708470854 -0.7900721421183053
4578000000.0 0.6197201447043708 -0.8017061923826558
4581000000.0 0.5984754146313752 -0.8063860755795903
4584000000.0 0.6063288121224412 -0.8045482547169456
4588000000.0 0.6047091962232765 -0.8397646118689784
4591000000.0 0.6067462015366277 -0.8239499149447197
4594000000.0 0.5457281500404264 -0.823373798882173
4597000000.0 0.5660470799333376 -0.8634815023575486
4600000000.0 0.544100962372222 -0.850795637121633
4603000000.0 0.550387701458478 -0.8607057916216815
4606000000.0 0.5451917167578245 -0.8749728154256876
4609000000.0 0.5400399057415997 -0.8633202709623526
4612000000.0 0.5235317366963566 -0.8651788578913766
4616000000.0 0.5202095580406987 -0.880970153628922
4619000000.0 0.5027473267745327 -0.8838570005120499
4622000000.0 0.5100948171570275 -0.8722290236564177
4625000000.0 0.45684195791080284 -0.8864804542576668
4628000000.0 0.48617839880609687 -0.8983133224385143
4631000000.0 0.4683339516126011 -0.9004265396000436
4634000000.0 0.46836831266242934 -0.9006616037028164
4638000000.0 0.4585908214948414 -0.9192821402312004
4641000000.0 0.43873901866458154 -0.9099157878699741
4644000000.0 0.43799831354286395 -0.9144738431759327
4647000000.0 0.43677320447569645 -0.9318036902612415
4650000000.0 0.4137071131228436 -0.9166200674055549
4653000000.0 0.41753218751606375 -0.9313008765938976
4656000000.0 0.39293497683927947 -0.9330777936780428
4659000000.0 0.38930544729878336 -0.9386318604145754
4662000000.0 0.37766554201827435 -0.9512510526799907
4666000000.0 0.3585692595694897 -0.9592988708832707
4669000000.0 0.36878839032948824 -0.9587949345125801
4672000000.0 0.36483463238400404 -0.9784875399292351
4675000000.0 0.33206629160951695 -0.9701381058914437
4678000000.0 0.32450550869024797 -0.9229688948794038
4681000000.0 0.29857447290863715 -0.9762018055779287
4684000000.0 0.29418633968364427 -0.9934985460051242
4688000000.0 0.28465238315032 -0.9766778582945632
4691000000.0 0.32828320129749244 -0.9758268318668446
4694000000.0 0.30177879449783074 -0.9599753143749274
4697000000.0 0.24226070867043872 -0.9372441389932966
4700000000.0 0.26470775038455235 -0.9455589858555058
4703000000.0 0.2990549479228024 -0.9076132903984979
4706000000.0 0.21813480207144556 -0.9902548803235189
4709000000.0 0.2486252940796785 -0.9917971995941254
4712000000.0 0.25697569844718127 -0.9888558399185885
4716000000.0 0.2143291117607136 -1.0139729327130593
4719000000.0 0.26279348192539914 -1.002271787653629
4722000000.0 0.24117704228036577 -0.9870200202354207
4725000000.0 0.18173284501030434 -1.0100207339564664
4728000000.0 0.1752104756323637 -1.0005142744461308
4731000000.0 0.1850064179732214 -1.0027852875125305
4734000000.0 0.19882446845721008 -0.9851911554925463
4738000000.0 0.18439604927303993 -1.0683030020987692
4741000000.0 0.15105720945388215 -1.0337408442999307
4744000000.0 0.11656976502862079 -1.0381321393153948
4747000000.0 0.1345269689114344 -0.9987036093968249
4750000000.0 0.12997686486962318 -1.037298947421369
4753000000.0 0.1481994608853964 -1.0514277184151253
4756000000.0 0.14210039532987384 -1.0451137422481869
4759000000.0 0.12341218071434551 -1.036201491401962
4762000000.0 0.054645623429635415 -1.0475306911109046
4766000000.0 0.09178951170048896 -1.021953379782211
4769000000.0 0.053802424135393906 -1.0157206553014395
4772000000.0 0.0415819892378739 -1.0434398041885455
4775000000.0 0.03304021027761614 -1.0632889829667158
4778000000.0 0.014789949424696441 -1.0109448238693426
4781000000.0 0.032080437341016066 -1.007891874709449
4784000000.0 0.010599529149795173 -0.9899630080856464
4788000000.0 -0.02394855161304349 -1.0432483317215748
4791000000.0 0.008147565858735911 -1.02132314575039
4794000000.0 0.03740218613861551 -1.0608662079185398
4797000000.0 -0.021047974940609726 -0.9977350432327868
4800000000.0 -0.042579659799308806 -1.023666738301263
4803000000.0 -0.07453084144505345 -0.9906593126109271
4806000000.0 -0.05329011719031457 -1.0434252593860995
4809000000.0 -0.12170216303503506 -1.0227240280879788
4812000000.0 -0.10392754381546826 -1.0080964982253338
4816000000.0 -0.05518564373989243 -1.0025562936072083
4819000000.0 -0.08336379120430953 -1.0493400356201825
4822000000.0 -0.07923113488580674 -1.067614453317833
4825000000.0 -0.08917520369772564 -1.0332481566454363
4828000000.0 -0.11554768627385006 -1.0169043171601202
4831000000.0 -0.18838173181044915 -1.0588100625933594
4834000000.0 -0.12883946812220368 -1.0403554544322533
4838000000.0 -0.17112969406165796 -1.0199521662281512
4841000000.0 -0.16775720979434222 -0.993557258153167
4844000000.0 -0.14352202899196725 -1.03270856272557
4847000000.0 -0.13396548025068628 -0.9842567264217614
4850000000.0 -0.20404292598291895 -1.0201252688283102
4853000000.0 -0.1976273278082151 -0.9956426806106045
4856000000.0 -0.21610086909790566 -0.9889540466747299
4859000000.0 -0.24629628726329808 -1.034053220150294
4862000000.0 -0.20875557116508991 -1.0153806362586493
4866000000.0 -0.26981480985135403 -1.0117075011994356
4869000000.0 -0.2602353767146218 -0.9981183431228572
4872000000.0 -0.3003963929061 -1.0299375096795196
4875000000.0 -0.22937145663092928 -1.0518053637245426
4878000000.0 -0.2763806813178353 -0.9735354285854191
4881000000.0 -0.33626175512288725 -1.01971311155414
4884000000.0 -0.3060550626412848 -1.0091377987947705
4888000000.0 -0.2721719987052331 -1.0058695716310329
4891000000.0 -0.27849848573116986 -1.0043843810838304
4894000000.0 -0.3464549733164121 -0.984171473957638
4897000000.0 -0.3035041642082785 -0.9959136658715981
4900000000.0 -0.3460345335324029 -1.026323658399388
4903000000.0 -0.3557292291197366 -1.0038411730390027
4906000000.0 -0.3673807099237148 -1.0150398253371091
4909000000.0 -0.369927764266243 -0.9870050247430707
4912000000.0 -0.39772660027206197 -0.9770190192038272
4916000000.0 -0.36462151144812216 -0.9717229609484939
4919000000.0 -0.3838758451860817 -1.0134006841865162
4922000000.0 -0.3890224593906789 -0.9560103844723233
4925000000.0 -0.40594235269110746 -0.9397054433310488
4928000000.0 -0.3654502618389344 -0.9295563313342864
4931000000.0 -0.4215985518457849 -0.9413833579203388
4934000000.0 -0.384233264740823 -0.8984318204783542
4938000000.0 -0.4857211544286307 -0.9188574668575389
4941000000.0 -0.42484892858284107 -0.9132224673193265
4944000000.0 -0.4681642429711613 -0.8866520038388961
4947000000.0 -0.46893450251339885 -0.8979005785223982
4950000000.0 -0.493451679387896 -0.9030112606260479
4953000000.0 -0.5497452302798199 -0.919222221615739
4956000000.0 -0.5281764215412228 -0.8910495043745145
4959000000.0 -0.5175462458651839 -0.8890751982402878
4962000000.0 -0.5398364803047814 -0.9127280050746506
4966000000.0 -0.5053222343907451 -0.903209613983804
4969000000.0 -0.5602912970268229 -0.9296752622104244
4972000000.0 -0.5527755860656909 -0.8738266402239699
4975000000.0 -0.5187217260793031 -0.8993139399801633
4978000000.0 -0.5851899797016661 -0.8697435369477677
4981000000.0 -0.601988920013991 -0.8851401484874029
4984000000.0 -0.5709917587683161 -0.8500774403001594
4988000000.0 -0.6012170776866879 -0.8444871927561349
4991000000.0 -0.5796790562763221 -0.9201895958587295
4994000000.0 -0.6059249332322332 -0.8528794984831849
4997000000.0 -0.6266546063733791 -0.81740169754729
5000000000.0 -0.6206646691694472 -0.862829185146248
5003000000.0 -0.6484187961829797 -0.8476864072472211
5006000000.0 -0.6400020507973425 -0.8423264006728998
5009000000.0 -0.6200355181493303 -0.8166388485086686
5012000000.0 -0.6696060329590254 -0.786385530144508
5016000000.0 -0.6527487681565636 -0.8490238351245625
5019000000.0 -0.6731815691888058 -0.7880848369206231
5022000000.0 -0.7238993506552568 -0.7943304758099397
5025000000.0 -0.733233360485811 -0.812401887725794
5028000000.0 -0.7239281753062198 -0.7784034216701923
5031000000.0 -0.6893118745522702 -0.7642542031136456
5034000000.0 -0.73290826183165 -0.7426463079718022
5038000000.0 -0.7311262917532647 -0.7318252180155382
5041000000.0 -0.7039869538112292 -0.7307338514095892
5044000000.0 -0.7084440832833286 -0.7599343752372918
5047000000.0 -0.7353826841397371 -0.7280033111295007
5050000000.0 -0.7145271273450399 -0.7591320774725712
5053000000.0 -0.764273335561271 -0.7093009763264675
5056000000.0 -0.7264395060941217 -0.7533919788444634
5059000000.0 -0.7738173862739348 -0.7217278484161885
5062000000.0 -0.8032407415979398 -0.6620171648803289
5066000000.0 -0.7734032391848852 -0.7047624476143629
5069000000.0 -0.7739147001522266 -0.6776749581561201
5072000000.0 -0.7862703817909732 -0.6690985053350675
5075000000.0 -0.775930893276515 -0.6765302208603929
5078000000.0 -0.8591362965115656 -0.6572391140496884
5081000000.0 -0.78226520951013 -0.6093716093656734
5084000000.0 -0.8017735606804249 -0.6258310696695448
5088000000.0 -0.8637111313152576 -0.6183800256146177
5091000000.0 -0.8504161318476084 -0.5851518071043094
5094000000.0 -0.8410690530171628 -0.6275432481493991
5097000000.0 -0.7848694698945312 -0.5669539938788688
5100000000.0 -0.8594908701823125 -0.5690959047463692
5103000000.0 -0.9277931869914443 -0.565481335617353
5106000000.0 -0.894727866312501 -0.5707728860485559
5109000000.0 -0.8555333764340479 -0.6109603913901575
5112000000.0 -0.8777038984125956 -0.49373005865447034
5116000000.0 -0.873668199142806 -0.515646303044131
5119000000.0 -0.9026772298844656 -0.48829151832815115
5122000000.0 -0.8862002228513791 -0.5092542475941619
5125000000.0 -0.8491208625511943 -0.5118420464505699
5128000000.0 -0.8922042598876389 -0.5388062902266832
5131000000.0 -0.9769597959612845 -0.5058528379585815
5134000000.0 -0.9207016799202977 -0.46778342192492
5138000000.0 -0.8960654689272309 -0.4922691826295226
5141000000.0 -0.897908191535775 -0.47901399377005077
5144000000.0 -0.9172523185737085 -0.4141785339201542
5147000000.0 -0.9703704982270973 -0.4531552786504945
5150000000.0 -1.0073808654192615 -0.4794147143336942
5153000000.0 -1.0010717981779622 -0.43922729555359
5156000000.0 -0.9284688740367795 -0.4439742315768489
5159000000.0 -0.9713898069800616 -0.4234440054992984
5162000000.0 -0.9987960683561198 -0.342996047842725
5166000000.0 -0.9135414414647375 -0.40887278192375603
5169000000.0 -0.9725741768909784 -0.40928979094597473
5172000000.0 -0.9586909134715693 -0.41858564203991006
5175000000.0 -0.97807090505623 -0.38171610996982275
5178000000.0 -1.015757413968001 -0.3581450459820954
5181000000.0 -1.0520057382881938 -0.3216018730946479
5184000000.0 -1.0091535157357276 -0.35286442544476415
