! Created with skrf 1.8.0 (http://scikit-rf.org).
# Hz S RI R 50.0 
!freq ReS11 ImS11
4000000000.0 0.7867862641342825 0.6008432391458032
4003000000.0 0.8988994955636901 0.6377393475177136
4006000000.0 0.8496379873375677 0.5633744500658499
4009000000.0 0.8703422062994164 0.5675604589693535
4012000000.0 0.8530331406609766 0.593930394814321
4016000000.0 0.928478878616643 0.5541856810573622
4019000000.0 0.8720943724439636 0.5460519562269985
4022000000.0 0.8776016156848112 0.6150325532652678
4025000000.0 0.8489517623396833 0.499304745626984
4028000000.0 0.8990112141323441 0.519076471384522
4031000000.0 0.856969353138879 0.4928638065030454
4034000000.0 0.8456222083973401 0.4801165132376445
4038000000.0 0.90979916594456 0.48174961719691933
4041000000.0 0.8953366851938499 0.481375375734416
4044000000.0 0.9402318601522092 0.4835571254127198
4047000000.0 0.9554617721332146 0.4708991760091146
4050000000.0 0.9255646167647685 0.4647126193810813
4053000000.0 0.8849691444892039 0.39556676445604183
4056000000.0 0.9029017363005678 0.49092225536709966
4059000000.0 0.9131210476322718 0.4540256625463815
4062000000.0 0.9313481974946933 0.43355132512331657
4066000000.0 0.8808113901765728 0.3959792815820512
4069000000.0 0.9678755720748069 0.38239805449804265
4072000000.0 0.9472075823507687 0.4416469168554658
4075000000.0 0.9969129166309892 0.4102951105536187
4078000000.0 0.9358329007804742 0.3596659367113574
4081000000.0 0.9752179400019361 0.4386589017705591
4084000000.0 0.9603889755276314 0.3542880980390017
4088000000.0 0.9341061065746629 0.3899778043057127
4091000000.0 0.9823680564681162 0.3818017777477491
4094000000.0 0.9370303119713659 0.31165794875138175
4097000000.0 0.9879440063393101 0.3269769965224602
4100000000.0 0.9820667494032655 0.3102363817192865
4103000000.0 0.9562090443550106 0.3203503304745356
4106000000.0 0.9761137194393651 0.3116694164558712
4109000000.0 1.009085863711763 0.2974004084648059
4112000000.0 0.9811492865022768 0.27959621775028737
4116000000.0 0.9900216763989065 0.2948462800397411
4119000000.0 0.9845128691483132 0.2621094296722889
4122000000.0 0.9979680462083149 0.21556535496379026
4125000000.0 0.9950413789499255 0.23882025441277693
4128000000.0 0.9530256518845258 0.24576110085545155
4131000000.0 0.950935352314889 0.20484908584136985
4134000000.0 1.0148597278663145 0.21176565162167738
4138000000.0 1.0116551835458223 0.17795334322857254
4141000000.0 0.9974087075988612 0.19095265517274795
4144000000.0 1.0192710518147676 0.19461190107312448
4147000000.0 1.0141001890336692 0.16307404358771455
4150000000.0 1.0132230662444122 0.14630938509262287
4153000000.0 0.9982453938979698 0.18027061983867387
4156000000.0 1.0404162378782558 0.16139687805095548
4159000000.0 0.9812883888463195 0.1589226210728642
4162000000.0 0.9997338943699818 0.12314134314598929
4166000000.0 1.0163180902119289 0.11177680435629056
4169000000.0 1.018665259632756 0.0773420935020615
4172000000.0 1.026863447367203 0.11245142777062894
4175000000.0 1.027776318468256 0.09591069461670282
4178000000.0 1.0150419100114847 0.08773829594489141
4181000000.0 1.0178007355269358 0.06370442467161669
4184000000.0 0.9816259735904014 0.06408769225861166
4188000000.0 1.0084667916641452 0.03517157662819287
4191000000.0 1.0075730088784454 0.06882726358602814
4194000000.0 1.0034883852228762 0.019601966625642342
4197000000.0 1.0258424311586825 0.01324505135564491
4200000000.0 1.0276324764403937 0.03315581761631997
4203000000.0 1.041963714188079 0.016849721406112017
4206000000.0 1.022877544278583 0.0035325051778229977
4209000000.0 0.9984054891600425 -0.027957181377069734
4212000000.0 1.0144243037067002 -0.06105501716677411
4216000000.0 1.0179307112919107 -0.032732794906140394
4219000000.0 1.0287164012821757 -0.036358323001352555
4222000000.0 1.0071489021322586 -0.06347654529865662
4225000000.0 1.0069641547474457 -0.08723644384059953
4228000000.0 1.0169508149151734 -0.09453698159172574
4231000000.0 1.026041531794597 -0.09158326745926428
4234000000.0 1.023478650052117 -0.13287340786163063
4238000000.0 1.0051084405130921 -0.1486157963015908
4241000000.0 0.9929535203660786 -0.17037657552421798
4244000000.0 0.9990450855140555 -0.13215827069290068
4247000000.0 0.9788828956081063 -0.14948910135620766
4250000000.0 0.9815523653064504 -0.17177456251891254
4253000000.0 0.9738409055771746 -0.17582786322602317
4256000000.0 1.0292226022910302 -0.19922105258156994
4259000000.0 0.9562232956528014 -0.18994216473488523
4262000000.0 0.9661802298979896 -0.2122340533875433
4266000000.0 1.0009042429125297 -0.25532824977642543
4269000000.0 0.9875928547955547 -0.20599156105762492
4272000000.0 1.0001664741725815 -0.23381939266368212
4275000000.0 0.9954107913639259 -0.24474507374123375
4278000000.0 0.9951623445274242 -0.2739875585772543
4281000000.0 1.0038427710098086 -0.26937938524375366
4284000000.0 0.9829177302061006 -0.32646770589891216
4288000000.0 0.9837620646351344 -0.23904031825476918
4291000000.0 0.9356261705718838 -0.27867643578237206
4294000000.0 0.952472999636303 -0.3337098339955208
4297000000.0 0.963694177340985 -0.2985943344757532
4300000000.0 0.9414945576238753 -0.3278814114737966
4303000000.0 0.9225206606825793 -0.3483123132221175
4306000000.0 0.9471778061017063 -0.33253375263063734
4309000000.0 0.9684321890322802 -0.3470764665610043
4312000000.0 0.9653497558444543 -0.3291618328076008
4316000000.0 0.9389917693490777 -0.3837150183441212
4319000000.0 0.9075001834435942 -0.34921959791363916
4322000000.0 0.9203806553575318 -0.40279706426454837
4325000000.0 0.9393853477168357 -0.4073522393679696
4328000000.0 0.9072817936311212 -0.4128795370050209
4331000000.0 0.9252572967796714 -0.4754938313683088
4334000000.0 0.9134902634692225 -0.446211513741825
4338000000.0 0.9134313459353859 -0.4484194249781361
4341000000.0 0.9089289818460473 -0.43602216612241396
4344000000.0 0.9166082081453842 -0.4544320940291824
4347000000.0 0.8769028447656606 -0.49756464912505394
4350000000.0 0.8521280601185137 -0.4858907337146604
4353000000.0 0.8686502111228638 -0.49167499272701665
4356000000.0 0.8368827695860012 -0.5503998100951661
4359000000.0 0.8284903025770106 -0.5180447665965742
4362000000.0 0.848814183845946 -0.5632394285242619
4366000000.0 0.8591328429380936 -0.568571314679299
4369000000.0 0.8141352583960205 -0.5475466836947581
4372000000.0 0.8013951445625103 -0.5888436269580045
4375000000.0 0.8325891915035399 -0.5541199961337197
4378000000.0 0.7928841527306801 -0.569585769400157
4381000000.0 0.8017877616012601 -0.584303823707022
4384000000.0 0.8554556581337343 -0.6459273829740866
4388000000.0 0.7986253360718595 -0.596866938241982
4391000000.0 0.7955099904829253 -0.6155680365753174
4394000000.0 0.7592659892220418 -0.6253166386987071
4397000000.0 0.7676203364299632 -0.6531164477915458
4400000000.0 0.7917722939060892 -0.6605390100270493
4403000000.0 0.7566314898727095 -0.664864847202808
4406000000.0 0.7467201615713944 -0.6692217377984924
4409000000.0 0.7502502904551192 -0.7065940748506718
4412000000.0 0.694013218736596 -0.7030507443376071
4416000000.0 0.7252250041831101 -0.693881199388689
4419000000.0 0.7143827084214406 -0.729004488764263
4422000000.0 0.7208869686136821 -0.693604180486988
4425000000.0 0.7291243315400784 -0.7191432991079945
4428000000.0 0.7023759618705315 -0.743513841780854
4431000000.0 0.7036484566411103 -0.7395106636207167
4434000000.0 0.6707318125939044 -0.74325867621464
4438000000.0 0.6833303523832106 -0.7612771025687992
4441000000.0 0.6683120711148944 -0.7820692574511758
4444000000.0 0.6412345654693824 -0.7612080484824413
4447000000.0 0.6380667947321792 -0.7800285591420351
4450000000.0 0.6321582053812631 -0.7911198316604172
4453000000.0 0.6370661964259119 -0.7961587437944389
4456000000.0 0.5900798893505681 -0.8036800455406533
4459000000.0 0.5649922225960897 -0.7951461480659933
4462000000.0 0.6068883162524011 -0.8488450522114949
4466000000.0 0.5958042344189516 -0.8446595398085852
4469000000.0 0.5832736892921815 -0.8170146060613543
4472000000.0 0.5746795361426069 -0.8503168477255995
4475000000.0 0.5357210772623648 -0.8322340949583811
4478000000.0 0.5400878898205733 -0.8857555478376231
4481000000.0 0.5246854707032549 -0.8485245320134996
4484000000.0 0.47118428646353816 -0.8812612026220367
4488000000.0 0.5062535464626922 -0.888578515933681
4491000000.0 0.48330875592922046 -0.8847092450450569
4494000000.0 0.48617617773912386 -0.8623366647999102
4497000000.0 0.46270626012752125 -0.8944694796113559
4500000000.0 0.46011167098158623 -0.898969299136152
4503000000.0 0.4605411955194376 -0.9136876452549756
4506000000.0 0.4181853658245648 -0.9069377332387865
4509000000.0 0.4164343324374097 -0.9032575969601302
4512000000.0 0.39750915701378 -0.9124952401454827
4516000000.0 0.3934143676026889 -0.9540799164014735
4519000000.0 0.3993880405993562 -0.9218944082594941
4522000000.0 0.38346398199782183 -0.9387306828753772
4525000000.0 0.38860516204476425 -0.9806659664710017
4528000000.0 0.36115355408701005 -0.9791140518340574
4531000000.0 0.34041934904608967 -0.9470863883730339
4534000000.0 0.3154364063492955 -0.9607724953274852
4538000000.0 0.30887446875335023 -0.9499616082403015
4541000000.0 0.26910426033778906 -0.9530735367097235
4544000000.0 0.2876403343105517 -0.9773349746715377
4547000000.0 0.2734869533543957 -0.9625348406474867
4550000000.0 0.2778109334650739 -0.9926992726179474
4553000000.0 0.23015393803197945 -0.9925120298452516
4556000000.0 0.23250365586054014 -0.9962057741140725
4559000000.0 0.22700648179599786 -0.9822947587154605
4562000000.0 0.2201680141058816 -0.9915727333311807
4566000000.0 0.21577446624841023 -1.004216656434064
4569000000.0 0.1775713734533197 -1.0052475650795496
4572000000.0 0.15983879655984715 -1.010923944877637
4575000000.0 0.1596306961645864 -0.9882386681784638
4578000000.0 0.14673304518912855 -0.9885001691460761
4581000000.0 0.10746118023163159 -0.9839350611923077
4584000000.0 0.09914080100643002 -1.0186702360035842
4588000000.0 0.09169111657547777 -1.0322963510521053
4591000000.0 0.07144796352148285 -1.0060493898932494
4594000000.0 0.07043151627992619 -0.9976737156563146
4597000000.0 0.03889241738168154 -1.0275951481574925
4600000000.0 0.0518106236989995 -1.0360240561655034
4603000000.0 -0.008674780090061979 -0.9955551208487963
4606000000.0 0.01193191582702302 -1.0453066038794887
4609000000.0 0.021577239080290703 -1.0118923418978645
4612000000.0 -0.01247901484515869 -0.9870508567907055
4616000000.0 -0.03250867399375104 -1.0141019086210885
4619000000.0 -0.05568128258693221 -0.9985185694478688
4622000000.0 -0.11261345231881831 -1.0343775948477347
4625000000.0 -0.09155892134831427 -1.0301369496345192
4628000000.0 -0.1209517604650697 -1.1026317082090433
4631000000.0 -0.09620659291381858 -1.026477991209501
4634000000.0 -0.15765821436897168 -1.0434514240156472
4638000000.0 -0.131805302831578 -1.0174443849411767
4641000000.0 -0.15495211000646353 -0.9781730086951815
4644000000.0 -0.18585575132874632 -1.0085438980344414
4647000000.0 -0.16952622725990815 -0.9924463517167447
4650000000.0 -0.1806484973960791 -0.9991074145632887
4653000000.0 -0.19891552159641823 -1.0249076320814186
4656000000.0 -0.20544566355278943 -1.0077959733204205
4659000000.0 -0.25374161031934567 -0.974436185787543
4662000000.0 -0.24955205865884422 -1.0125757161645204
4666000000.0 -0.2810590113979214 -1.0052249204730657
4669000000.0 -0.30253698928514067 -0.9814953353136189
4672000000.0 -0.30633736085627433 -1.0605191702331502
4675000000.0 -0.33173506194665997 -0.969951211033156
4678000000.0 -0.32401057389422216 -0.9461392159913412
4681000000.0 -0.38048642180534764 -0.9362505830916862
4684000000.0 -0.41860423075829156 -0.9957562199645119
4688000000.0 -0.43610140030750016 -0.9038590460953996
4691000000.0 -0.40859306482812585 -0.9980741280846643
4694000000.0 -0.3899909399156152 -0.9136877371315706
4697000000.0 -0.40466267574228415 -0.8771309302918777
4700000000.0 -0.46588850945409654 -0.8913559547013872
4703000000.0 -0.3142536508402169 -0.9060713021054534
4706000000.0 -0.46831484562080944 -0.8776694229470914
4709000000.0 -0.48743163039144977 -0.9179922971403347
4712000000.0 -0.4899328317300808 -0.9222470156321394
4716000000.0 -0.5911784281306882 -0.913459116536959
4719000000.0 -0.4720442993142533 -0.9317979855665612
4722000000.0 -0.5113520102999554 -0.8686806544745505
4725000000.0 -0.5420489561681759 -0.8997904500497346
4728000000.0 -0.6049543015223477 -0.8603522097856642
4731000000.0 -0.6128331154586308 -0.924942053237924
4734000000.0 -0.5731739734647425 -0.8195234732081402
4738000000.0 -0.6178334581168126 -0.903878645179797
4741000000.0 -0.6471011284978189 -0.8279162534273882
4744000000.0 -0.6376916523746787 -0.8348572476104393
4747000000.0 -0.590329212088915 -0.7763803207080501
4750000000.0 -0.7293877171087355 -0.865561658587803
4753000000.0 -0.6423370721836413 -0.8198749813344554
4756000000.0 -0.7015621327657637 -0.7839919751995665
4759000000.0 -0.6910707069821556 -0.8082954338805393
4762000000.0 -0.7583555571989161 -0.7622425936288986
4766000000.0 -0.70748996234244 -0.7129843206528608
4769000000.0 -0.7518094847192975 -0.6790585734990294
4772000000.0 -0.7628986805108572 -0.7241200547237114
4775000000.0 -0.8158320018411452 -0.7124311581841556
4778000000.0 -0.8270395102044634 -0.6609555814642236
4781000000.0 -0.7720224691920471 -0.6627932626328681
4784000000.0 -0.8141398458371348 -0.6428038922472844
4788000000.0 -0.8654002890628844 -0.5879766060307554
4791000000.0 -0.770971553430643 -0.6241966350918698
4794000000.0 -0.8586577900021559 -0.6698035704004888
4797000000.0 -0.8328564859205556 -0.5664593272300112
4800000000.0 -0.8420130488862619 -0.543163536806403
4803000000.0 -0.8718278129393786 -0.5376566030708385
4806000000.0 -0.9163683319003157 -0.5352554516109809
4809000000.0 -0.9337592482218924 -0.4640254021120359
4812000000.0 -0.9065934469289363 -0.47281057294862916
4816000000.0 -0.8882312798190184 -0.48415585615304424
4819000000.0 -0.9545758412745764 -0.4701536119158446
4822000000.0 -0.9648810326827681 -0.47676538244950306
4825000000.0 -0.9648401618320528 -0.47120506677941687
4828000000.0 -0.9415534354681186 -0.3893299631282642
4831000000.0 -0.9901794612589075 -0.39749764735054227
4834000000.0 -0.9793668302125189 -0.3715979685303249
4838000000.0 -0.9900123204466577 -0.294647202649021
4841000000.0 -0.9740226343188045 -0.3215207335123491
4844000000.0 -1.0237162231335022 -0.33340359431290545
4847000000.0 -0.9862379612145971 -0.3068740346423653
4850000000.0 -1.0362661098326031 -0.22294622401961994
4853000000.0 -1.0045112136414964 -0.22094467049628624
4856000000.0 -0.9891300559235243 -0.2271325842688572
4859000000.0 -1.064474731630978 -0.125820693433132
4862000000.0 -1.0108769006716163 -0.19497033678152997
4866000000.0 -1.04159543319865 -0.12803027843417325
4869000000.0 -1.0233631897130808 -0.12110567177124917
4872000000.0 -1.031146804011272 -0.07700490133814175
4875000000.0 -1.07422914244031 -0.08137488694437033
4878000000.0 -1.0515749655394595 -0.0674875392619764
4881000000.0 -1.048999515256724 0.005545249330684544
4884000000.0 -1.0489424555956626 -0.013086084731729834
4888000000.0 -1.065876782752545 -0.0021066615461045185
4891000000.0 -0.997422088702308 0.09030325043062652
4894000000.0 -0.946700561539207 0.03653836409117471
4897000000.0 -1.0274352580839483 0.11364590788564348
4900000000.0 -1.0674878868309428 0.11209205461539368
4903000000.0 -1.048176185302957 0.170101800445558
4906000000.0 -1.0583029963568895 0.13978890618971346
4909000000.0 -1.0033969360026185 0.16441709399496743
4912000000.0 -0.9947625518905181 0.27570970668900857
4916000000.0 -1.0180025772910475 0.3177590351031786
4919000000.0 -0.9434345547374702 0.27010656679453027
4922000000.0 -0.9848075020840952 0.32177151735303355
4925000000.0 -0.9376741043889014 0.34850453820970545
4928000000.0 -1.0018295104980428 0.37772173930241737
4931000000.0 -0.9585339354413351 0.39677756632086286
4934000000.0 -0.9752148424140563 0.3769500687531622
4938000000.0 -0.9560428508316346 0.438217461413573
4941000000.0 -0.9082556793241984 0.444391129633514
4944000000.0 -0.91154728933517 0.5256464386795434
4947000000.0 -0.9433879861134622 0.5232559736584109
4950000000.0 -0.8864977438083537 0.516718405524512
4953000000.0 -0.8162146515751222 0.5153006527257926
4956000000.0 -0.8596585780306913 0.5815541249333825
4959000000.0 -0.7934329665291222 0.6161147920583697
4962000000.0 -0.7797635605432476 0.6464506507913312
4966000000.0 -0.783264851836108 0.6422488607613503
4969000000.0 -0.7257807915881147 0.6628649997195689
4972000000.0 -0.7149685577837966 0.6832049045208249
4975000000.0 -0.6922550809565395 0.7748093631937637
4978000000.0 -0.7089626599707225 0.7520834661473034
4981000000.0 -0.6546317606728705 0.7573971282287582
4984000000.0 -0.6413998464687629 0.8251856243757418
4988000000.0 -0.6065773792825335 0.8304523914264901
4991000000.0 -0.5679633087195699 0.8763800798579715
4994000000.0 -0.5084695029806466 0.839329857551095
4997000000.0 -0.5415084515001123 0.8705976201266729
5000000000.0 -0.4558117278230518 0.876781100340366
5003000000.0 -0.4378918271156977 0.8964309078211788
5006000000.0 -0.4270627773522805 0.8591459952379298
5009000000.0 -0.35782107187033896 0.9487841509818842
5012000000.0 -0.39114541517576235 0.98524422543357
5016000000.0 -0.3329073428934007 0.9462050754381551
5019000000.0 -0.3302860214020634 0.9881226001352287
5022000000.0 -0.26202930369354477 0.9810828440664243
5025000000.0 -0.23267768941362849 0.9234031691313468
5028000000.0 -0.2196143692464515 0.9804478536574464
5031000000.0 -0.14148575245575187 1.0241881864150026
5034000000.0 -0.16955462690090067 0.9898626355407288
5038000000.0 -0.09129702338887846 0.9985743609228332
5041000000.0 -0.03786994330449686 0.9761795380707065
5044000000.0 -0.032692510700928934 1.0009711067763218
5047000000.0 0.05328998498359322 0.9660549492607802
5050000000.0 0.10723139087358412 1.0558693476750176
5053000000.0 0.08499875697532612 0.9480875479188438
5056000000.0 0.13761237245981078 0.9663018136971845
5059000000.0 0.2206517135333713 0.9950055084794376
5062000000.0 0.18098181262841834 1.0070058573847396
5066000000.0 0.29211927102555146 1.0128503546891077
5069000000.0 0.22759479798014437 0.985349418430324
5072000000.0 0.26759258905729316 1.0607057739989558
5075000000.0 0.35696381321239634 0.9326892086214393
5078000000.0 0.3350170505689394 0.9641509307999307
5081000000.0 0.4027111877035084 0.9238784605976763
5084000000.0 0.42480794237423725 0.8658676684507169
5088000000.0 0.47814447156143236 0.895725824404723
5091000000.0 0.4763663657362276 0.8395929889315792
5094000000.0 0.5334811216802072 0.811041868469701
5097000000.0 0.5648593252552448 0.8077982232235184
5100000000.0 0.5767474112118122 0.8001049391470466
5103000000.0 0.6185934478199541 0.7622398667958902
5106000000.0 0.6652341484696356 0.716739038402581
5109000000.0 0.6754962971521308 0.7573683343039752
5112000000.0 0.7392576769680689 0.7446385986596338
5116000000.0 0.7041463737980321 0.7348494298764344
5119000000.0 0.752554825657641 0.6392968708219162
5122000000.0 0.7674788456033458 0.6282028199804898
5125000000.0 0.7603212022955346 0.6246240635382099
5128000000.0 0.828631319232332 0.6170733628070522
5131000000.0 0.816901124862712 0.5860110316606926
5134000000.0 0.8553489237430627 0.4976752350684598
5138000000.0 0.8432004936706348 0.47507173624707516
5141000000.0 0.8774904941051906 0.5087175854964521
5144000000.0 0.9299473482663574 0.4052195230323676
5147000000.0 0.9032764563865534 0.4210578623807333
5150000000.0 0.9299619043968177 0.3725607964876204
5153000000.0 0.9629966317048997 0.3527661501932986
5156000000.0 0.975561831639675 0.30786339917027467
5159000000.0 0.9658590681720729 0.3047333129874794
5162000000.0 0.9527015746643461 0.24007977305925096
5166000000.0 1.0571067805564378 0.21411919893190398
5169000000.0 0.9780328295853512 0.16791037019845031
5172000000.0 0.9844187786041074 0.17558810533222563
5175000000.0 1.004588893922749 0.16995193787850427
5178000000.0 1.0205226255720126 0.07848689492757076
5181000000.0 1.0126936841607659 0.07588619237763314
5184000000.0 1.0214439973944611 0.020511436106612393
5188000000.0 0.9617961200925804 0.0472639629764963
