! Created with skrf 1.8.0 (http://scikit-rf.org).
# Hz S RI R 50.0 
!freq ReS11 ImS11
4000000000.0 0.5699844678726407 0.8343719258027646
4003000000.0 0.6606576177620485 0.8669153467919916
4006000000.0 0.7299620672349327 0.7705005859138784
4009000000.0 0.6947644335847616 0.8649848543600256
4012000000.0 0.6587847869794157 0.8264994359130782
4016000000.0 0.7430396960643898 0.7673810881454357
4019000000.0 0.7250401933768875 0.8315943519829602
4022000000.0 0.6543297554905471 0.8461967885370855
4025000000.0 0.7677441900201449 0.7646319007976923
4028000000.0 0.7432880053376405 0.7662961430410449
4031000000.0 0.6741723191652084 0.739548040180372
4034000000.0 0.7518328412884658 0.752686670170695
4038000000.0 0.7646987385536743 0.7868334185985203
4041000000.0 0.7463529618844688 0.7428132961182435
4044000000.0 0.7896921143161653 0.763060622175461
4047000000.0 0.7389646594190651 0.79018775840925
4050000000.0 0.7964936509135879 0.72242035503082
4053000000.0 0.7489438059674391 0.6935692087192846
4056000000.0 0.7898099033596132 0.7355743559489584
4059000000.0 0.7580956370965896 0.7049931905423079
4062000000.0 0.8009303036584303 0.6937052295067598
4066000000.0 0.729902539344421 0.643918925642634
4069000000.0 0.8328671406156457 0.6997616702379845
4072000000.0 0.7751401499976349 0.724248517394773
4075000000.0 0.8152077583203686 0.7454769471992733
4078000000.0 0.8123861262743801 0.6831052962536986
4081000000.0 0.8252779078800184 0.722154418564539
4084000000.0 0.8443530135985181 0.6315597373166677
4088000000.0 0.7985609417643683 0.6918802526412873
4091000000.0 0.8729722298418285 0.692416596012446
4094000000.0 0.8131893535125436 0.6595514164615879
4097000000.0 0.8608320490363931 0.6110630517742965
4100000000.0 0.8426453740739711 0.6081943272324786
4103000000.0 0.862037566379231 0.6817090646258239
4106000000.0 0.8724146733869432 0.5740512333558012
4109000000.0 0.8974338966387554 0.5842200244295497
4112000000.0 0.862021820044302 0.588968746427021
4116000000.0 0.8417168965950217 0.6127939326295294
4119000000.0 0.8768766364141561 0.5382956813449379
4122000000.0 0.8949254364650276 0.5679681567188921
4125000000.0 0.9125522613613279 0.5689965768255805
4128000000.0 0.8786945397882888 0.5424213274875288
4131000000.0 0.8546606075506387 0.5753723617274081
4134000000.0 0.8876257329766593 0.550190489555558
4138000000.0 0.9188850419161929 0.5680424756357243
4141000000.0 0.8843338237313882 0.49973935401610925
4144000000.0 0.9030626383107414 0.5481912878517115
4147000000.0 0.9193648651601037 0.5003874182046884
4150000000.0 0.9548313733732441 0.5058001872904305
4153000000.0 0.9042626502043701 0.4881012992303707
4156000000.0 0.9487743272116191 0.4999533679866863
4159000000.0 0.9172009431603845 0.47645974061950386
4162000000.0 0.9266473961239885 0.481130844544737
4166000000.0 0.9718867482472484 0.49479182553373124
4169000000.0 0.9230482779801323 0.4581289873329297
4172000000.0 0.9100113924861742 0.497349874731507
4175000000.0 0.946409328636635 0.45087989418248836
4178000000.0 0.9531452878525131 0.456557366730561
4181000000.0 0.9725823015586752 0.4328556043635198
4184000000.0 0.9293728828656675 0.42649368818375427
4188000000.0 0.975262434861125 0.4316221120512298
4191000000.0 0.9181566944594229 0.4261129543978652
4194000000.0 0.9521883708763368 0.3919865093969295
4197000000.0 0.9813763004456143 0.4045489278453385
4200000000.0 0.9470345791479013 0.37331208198764076
4203000000.0 0.9470996972299137 0.38117169168128495
4206000000.0 0.9851028139947248 0.3858770459296533
4209000000.0 0.9621570881092171 0.3753782396489698
4212000000.0 0.9909051710924809 0.3265415844466122
4216000000.0 0.9792201193502205 0.36247297559427655
4219000000.0 0.985090713942807 0.34811734053961974
4222000000.0 1.0011959713602137 0.32679335738248777
4225000000.0 0.9729221128861045 0.34375912704115164
4228000000.0 0.9977600052948297 0.3195340458843938
4231000000.0 0.9826038769807957 0.3007875311713187
4234000000.0 0.9972254290990328 0.28655365381566467
4238000000.0 1.0025812295044014 0.2897693086318155
4241000000.0 0.9943641280986633 0.27140365486241463
4244000000.0 0.9826402032725067 0.27462099049522126
4247000000.0 0.9926914496720868 0.26845237778033465
4250000000.0 0.9807785887561802 0.2393372367792327
4253000000.0 0.977139155573364 0.24412194184907243
4256000000.0 1.0132336963274142 0.23411064787360164
4259000000.0 0.9617801242247156 0.20498484051265656
4262000000.0 1.0154518894456577 0.17889845003115315
4266000000.0 1.0393843122557027 0.2024175553353979
4269000000.0 1.0063855819047227 0.22172486786485643
4272000000.0 1.0128753884806327 0.1958284095295567
4275000000.0 0.9911036911305982 0.1896511120813139
4278000000.0 1.0340537053168435 0.19313123628080736
4281000000.0 1.0282021647343433 0.19888152492163896
4284000000.0 1.0161682673137922 0.14205782809128842
4288000000.0 1.015169827955324 0.2015135254811994
4291000000.0 1.0081922661606044 0.15202506047186226
4294000000.0 1.0072212254901345 0.12333040802398805
4297000000.0 1.0042157370154308 0.149277685451081
4300000000.0 1.0114838998547029 0.12994660168134026
4303000000.0 1.025874088993979 0.11181221081501826
4306000000.0 1.0153833761217843 0.11554185746464071
4309000000.0 1.0205875316532966 0.10060241747328318
4312000000.0 1.0159492340490919 0.12432104438326463
4316000000.0 1.0182388084469558 0.11473020318300085
4319000000.0 1.0073204592326244 0.08789312406960893
4322000000.0 1.0129645566731955 0.05154680100603369
4325000000.0 1.0339405234191772 0.07103414273287413
4328000000.0 1.0079778148685399 0.058028994853234414
4331000000.0 1.0402552450513056 -0.01743055159520518
4334000000.0 1.0269907994345902 0.02068562071558888
4338000000.0 1.008172982542601 0.019131620548456976
4341000000.0 1.0622225646419146 0.053349495826550714
4344000000.0 1.059332302749499 -0.00549599242926091
4347000000.0 1.0296370671310333 -0.02689115262501207
4350000000.0 0.9844469008179437 -0.02767970816264112
4353000000.0 0.9979688189283316 -0.01992778323726327
4356000000.0 1.025698793066688 -0.05588666334834083
4359000000.0 0.9817970760874777 -0.03729314283624732
4362000000.0 1.0354100561667097 -0.08287042942455888
4366000000.0 1.0346583440084143 -0.04842076695555131
4369000000.0 0.985384515791607 -0.09803390713577217
4372000000.0 1.0062951918178742 -0.11746869765716728
4375000000.0 1.010316700662391 -0.05644597800299281
4378000000.0 0.988913824979574 -0.11893228243902774
4381000000.0 1.0124702020960439 -0.0679294166901212
4384000000.0 1.080312246949191 -0.1497035697640443
4388000000.0 0.9878950059736952 -0.09972504324281371
4391000000.0 1.0280058095365139 -0.12586460278175582
4394000000.0 0.9852342289071584 -0.14298774436282097
4397000000.0 0.9974175656098148 -0.15091255921801416
4400000000.0 1.0241292981528733 -0.1691280774759965
4403000000.0 1.019455375433994 -0.1585270507959915
4406000000.0 0.9978882556797088 -0.20050276615578552
4409000000.0 1.023703962291646 -0.1907526823886412
4412000000.0 0.9781227282088996 -0.23697241948315947
4416000000.0 0.98873601923285 -0.21898700556856499
4419000000.0 1.0096030092843464 -0.23248077398384953
4422000000.0 0.9919957863206128 -0.208558477937678
4425000000.0 1.017647127670494 -0.2073882921529328
4428000000.0 1.0024113556686092 -0.24220424182642722
4431000000.0 1.0057340985316163 -0.24984240421834525
4434000000.0 0.9796431109890865 -0.2532453135526588
4438000000.0 1.01508505492886 -0.26110290687216675
4441000000.0 0.9961202010142383 -0.2865409162022056
4444000000.0 0.9620164242232456 -0.27260990950988345
4447000000.0 0.9685067198672491 -0.2807610819601628
4450000000.0 0.9740539269572758 -0.2851713334293827
4453000000.0 1.0079994721219614 -0.30257845043812903
4456000000.0 0.9325054685672854 -0.31189870133248787
4459000000.0 0.9230221349608061 -0.3250094468731083
4462000000.0 1.0231228613442576 -0.35418616866694885
4466000000.0 0.9946065754707254 -0.3464357785912746
4469000000.0 0.9735837899997093 -0.33029483428500894
4472000000.0 0.968541203359016 -0.37633959571707665
4475000000.0 0.927925421813418 -0.3616742270123736
4478000000.0 0.9887999881762234 -0.3927123297719429
4481000000.0 0.9196782252801047 -0.3858871031775693
4484000000.0 0.9140066028574818 -0.4190870288932682
4488000000.0 0.9323130691678827 -0.39887153578531614
4491000000.0 0.9396988762064984 -0.4243466452780428
4494000000.0 0.9411977724932842 -0.40122369006707415
4497000000.0 0.9240447436320225 -0.40347562196404335
4500000000.0 0.9420825996492936 -0.4262742505810666
4503000000.0 0.9415764438671224 -0.43537670501836584
4506000000.0 0.9256697308981168 -0.44789654890977465
4509000000.0 0.8983227021026854 -0.43853953395234924
4512000000.0 0.8987226642826334 -0.467073720051293
4516000000.0 0.9171589242237748 -0.46830130460253505
4519000000.0 0.8843496669090581 -0.4713833626397632
4522000000.0 0.8882059674732428 -0.505162378374607
4525000000.0 0.9105813208702362 -0.4573370231620474
4528000000.0 0.9055519684240037 -0.5029418937417706
4531000000.0 0.8801024340861183 -0.48635540638386077
4534000000.0 0.8667147946101048 -0.508983433583508
4538000000.0 0.8778461868356371 -0.5417585825554466
4541000000.0 0.8491464180934438 -0.55072106151896
4544000000.0 0.8542397699179294 -0.5256307431087125
4547000000.0 0.8528050821900341 -0.534645267376042
4550000000.0 0.8353737909587349 -0.5736967280511464
4553000000.0 0.8466258019465855 -0.5757126487204981
4556000000.0 0.828763146242246 -0.5793476922278264
4559000000.0 0.8344644792038947 -0.5982124388032628
4562000000.0 0.8446879390264266 -0.5899872551660773
4566000000.0 0.8316021642752562 -0.5972642956195067
4569000000.0 0.8022140602813078 -0.5953299219285526
4572000000.0 0.8126473502967518 -0.6189852736592997
4575000000.0 0.7919591521662648 -0.6248317802545601
4578000000.0 0.838893766769697 -0.6399721658390379
4581000000.0 0.7974779858423475 -0.653447530366025
4584000000.0 0.789264122272144 -0.6305671199464897
4588000000.0 0.8186428928502999 -0.6572985811535396
4591000000.0 0.8148990418777172 -0.6409447739921084
4594000000.0 0.7651132079589812 -0.6619539065241214
4597000000.0 0.7943681625243337 -0.6682899948974065
4600000000.0 0.7511527755239209 -0.6924095061336085
4603000000.0 0.7589043836911422 -0.6970719202905559
4606000000.0 0.7526846336881774 -0.6881535420007384
4609000000.0 0.7484334013215375 -0.7029250726149053
4612000000.0 0.7500306788581597 -0.7198281034368155
4616000000.0 0.7378899817117732 -0.6958814758855386
4619000000.0 0.729050709296714 -0.7123890980746299
4622000000.0 0.7247106827356204 -0.7079687158921606
4625000000.0 0.6915275740233939 -0.7176212645961615
4628000000.0 0.7157653848130935 -0.7167533679686707
4631000000.0 0.6967687180998492 -0.7384624523968643
4634000000.0 0.6906020360455607 -0.7482995336806902
4638000000.0 0.6974036880590515 -0.7561215672959866
4641000000.0 0.6995452588687918 -0.7486915723907216
4644000000.0 0.677171715271991 -0.7548799565805215
4647000000.0 0.6893402740842898 -0.7794408287522077
4650000000.0 0.6333653795277486 -0.7847129004489315
4653000000.0 0.673580489131838 -0.7869996425338666
4656000000.0 0.645124612662793 -0.8051304407074245
4659000000.0 0.6377599244296027 -0.7954916326167527
4662000000.0 0.6466686526685372 -0.8072818525200249
4666000000.0 0.617117690980259 -0.8170988920006497
4669000000.0 0.6205105626108811 -0.8094354430262943
4672000000.0 0.6018747509495131 -0.8334060656440822
4675000000.0 0.6178001198756425 -0.8325969018264381
4678000000.0 0.5945800478323994 -0.8126003809653508
4681000000.0 0.5890665557333465 -0.8586477839937149
4684000000.0 0.5713387931732066 -0.8545627336371239
4688000000.0 0.5587834237130849 -0.8478218616715719
4691000000.0 0.5904960831228979 -0.8392568154913627
4694000000.0 0.5586382995587064 -0.8499845718241785
4697000000.0 0.5255089161469364 -0.8592684160566917
4700000000.0 0.5559858665406697 -0.8549692526453305
4703000000.0 0.5560390187207402 -0.8367271825230866
4706000000.0 0.5093439507739717 -0.8964627922022751
4709000000.0 0.5327239975095105 -0.8719814471218361
4712000000.0 0.5207740520479447 -0.8854585458199884
4716000000.0 0.5306213184984288 -0.911777026008552
4719000000.0 0.5269908019608128 -0.9001761447183421
4722000000.0 0.5162899674725439 -0.8847059923389704
4725000000.0 0.49577491726070716 -0.9036110848875218
4728000000.0 0.49295722059766645 -0.8785093230076828
4731000000.0 0.5100228115403518 -0.9097228049464208
4734000000.0 0.459114735735372 -0.8766889613839557
4738000000.0 0.5089141372217453 -0.9173002204744499
4741000000.0 0.4647362033108109 -0.9372171219082346
4744000000.0 0.42558147867827034 -0.9438855922095921
4747000000.0 0.46326793269281774 -0.9042762628425838
4750000000.0 0.43101742985879493 -0.9447340001653087
4753000000.0 0.4125426076804227 -0.9476089565082532
4756000000.0 0.42040817351954196 -0.9525362881173578
4759000000.0 0.4291290849813501 -0.9217714595464426
4762000000.0 0.39749637723336206 -0.9868637841929776
4766000000.0 0.3864005686482025 -0.9520308324961246
4769000000.0 0.38831099397071667 -0.9653957533460226
4772000000.0 0.35668946653523137 -0.9764229947980817
4775000000.0 0.3545893480847194 -0.9925624645299553
4778000000.0 0.36929804982585435 -0.9833643710490535
4781000000.0 0.36426859405988177 -0.9728142498912558
4784000000.0 0.34959907270944257 -0.9580358363019622
4788000000.0 0.3199774208838089 -0.9941149241030593
4791000000.0 0.30129100081661775 -0.9701937491754905
4794000000.0 0.343906399164589 -1.0183880404620915
4797000000.0 0.31420823481937854 -0.9807734745294842
4800000000.0 0.291076366877379 -0.9801736938136971
4803000000.0 0.24585840997318353 -0.9909799123176612
4806000000.0 0.2764085331248179 -1.011043686067041
4809000000.0 0.23256695169217417 -0.981198528423514
4812000000.0 0.23363203441892372 -1.0034660316235957
4816000000.0 0.2743095305248827 -0.9828725788827095
4819000000.0 0.2668013513085513 -1.0151347558217525
4822000000.0 0.2672351486150353 -1.0441162471777894
4825000000.0 0.2637901083069293 -1.0128504349736882
4828000000.0 0.22635039426725748 -0.9974717467597457
4831000000.0 0.17546989782942987 -1.0410815372068365
4834000000.0 0.2231420309925377 -1.0006082177329205
4838000000.0 0.18006345995928658 -1.0566489333889306
4841000000.0 0.1872737809317244 -1.0234696295699997
4844000000.0 0.21010232866592363 -1.0272533856229085
4847000000.0 0.1808278376953229 -0.9894163369929196
4850000000.0 0.15920485356059821 -1.0556959419597876
4853000000.0 0.1688009954660855 -1.0211530710511516
4856000000.0 0.14613770938347007 -1.0143126166721632
4859000000.0 0.11892793594200532 -1.0713245281081107
4862000000.0 0.14811696151591341 -1.0030982786967277
4866000000.0 0.10117970839383872 -1.0426761629382422
4869000000.0 0.11369248284783907 -1.0231688586752752
4872000000.0 0.0750881140869764 -1.0718507119340903
4875000000.0 0.16436839665401456 -1.0481584387665874
4878000000.0 0.10438538189988819 -1.0355498425030418
4881000000.0 0.07528818611002847 -1.0978816337769943
4884000000.0 0.08425076597304444 -1.013747144906912
4888000000.0 0.10750670201766879 -1.0295855996425596
4891000000.0 0.10761704762089953 -1.0506533102068814
4894000000.0 0.02981901221277726 -1.0110631155339982
4897000000.0 0.08420451509858715 -1.0200781277362503
4900000000.0 0.019975032872204545 -1.0428794411703426
4903000000.0 0.08142731094155714 -1.0612105733765038
4906000000.0 0.01862382635475174 -1.0706271075418248
4909000000.0 -0.024381489896607593 -1.0516880203861552
4912000000.0 0.01184105216053323 -1.091963028088259
4916000000.0 0.01066060789430072 -1.0648654447865278
4919000000.0 0.026640413472777524 -1.0829264427064933
4922000000.0 0.004648092355621414 -1.0617042744481036
4925000000.0 -0.06391512033556347 -1.0186610561159424
4928000000.0 0.0017779562215666789 -1.0553225354734128
4931000000.0 -0.029599813453640766 -1.0853671884016987
4934000000.0 -0.0398372875103024 -1.0032455670343203
4938000000.0 -0.09204730543401686 -1.0622103554521938
4941000000.0 -0.04340571536307784 -1.039309531119126
4944000000.0 -0.08390225356977224 -0.9721595296017973
4947000000.0 -0.08089469985317493 -1.0043496053352334
4950000000.0 -0.15979205261030371 -1.0402181930511984
4953000000.0 -0.15586497772558783 -1.0645350631080706
4956000000.0 -0.1379362336529622 -1.051722033724346
4959000000.0 -0.1477029823145604 -0.984661011998905
4962000000.0 -0.14691826612544176 -1.0324114662557822
4966000000.0 -0.11843615199178043 -1.0548274323260838
4969000000.0 -0.14744256499576142 -1.0730718238502348
4972000000.0 -0.1904076164578599 -1.0522925371002454
4975000000.0 -0.12738740604425056 -1.0078120726765118
4978000000.0 -0.1639088386096887 -1.026504870983601
4981000000.0 -0.18068179649226548 -1.041098937562332
4984000000.0 -0.17983331924275195 -1.0042912953725516
4988000000.0 -0.1900795563465683 -1.0482089303774942
4991000000.0 -0.14110344704387484 -1.0794368053319432
4994000000.0 -0.17799076923452867 -1.029251425964969
4997000000.0 -0.28392756066542507 -0.9867159739050093
5000000000.0 -0.2105604499793824 -1.0689080052791655
5003000000.0 -0.24101859905788825 -1.0619863663362223
5006000000.0 -0.28035198130448813 -1.068517222073256
5009000000.0 -0.2755088164850631 -1.0489913387505774
5012000000.0 -0.2859959340670674 -1.0275534707294538
5016000000.0 -0.24392612341629155 -1.059188326552901
5019000000.0 -0.3028835307212515 -1.0088599340492352
5022000000.0 -0.2863815519653763 -1.0167686355704946
5025000000.0 -0.2935882558528901 -1.088008585579187
5028000000.0 -0.3019048959398456 -0.9972359879699444
5031000000.0 -0.3282375560702786 -1.0142365975419507
5034000000.0 -0.36077437832567094 -0.999971434519227
5038000000.0 -0.3693964461133866 -0.957722782744304
5041000000.0 -0.30254492582896253 -1.0427565832055872
5044000000.0 -0.328426976379795 -0.9753856852346713
5047000000.0 -0.34173671959936475 -1.0222468140271843
5050000000.0 -0.26856014942226003 -1.00720808432243
5053000000.0 -0.41654363822574925 -1.0062435453284306
5056000000.0 -0.36934540786360426 -1.0073138361154448
5059000000.0 -0.314579484069145 -1.0022044517805955
5062000000.0 -0.4332619149392338 -0.9830139807092657
5066000000.0 -0.38480921030691406 -0.9936186165000991
5069000000.0 -0.4157629658687023 -0.9756583647825029
5072000000.0 -0.41462072273539596 -0.9579458114045503
5075000000.0 -0.3974460753946486 -0.993881720507535
5078000000.0 -0.4763019683433311 -0.9680178422960037
5081000000.0 -0.43753020006268 -0.9489987545613862
5084000000.0 -0.46854678919520454 -0.9436575783252406
5088000000.0 -0.39657394167584264 -0.9479456761519132
5091000000.0 -0.4881262877311762 -0.9162092113897671
5094000000.0 -0.50295645615549 -0.9525362104950233
5097000000.0 -0.4580787808952165 -0.9752253160610638
5100000000.0 -0.47010495007769754 -0.8943811870186945
5103000000.0 -0.516372204193159 -0.9787526359908291
5106000000.0 -0.4908796711210857 -1.020738910428447
5109000000.0 -0.46165139407812655 -0.9482135702479695
5112000000.0 -0.5132983490585004 -0.878582627050436
5116000000.0 -0.4688098224426052 -0.8671387869113238
5119000000.0 -0.5523132252295825 -0.9565750500505721
5122000000.0 -0.541626954737433 -0.9414271714668774
5125000000.0 -0.4936017050983807 -0.9215493752084466
5128000000.0 -0.5620009353463297 -0.9171471498132187
5131000000.0 -0.582577963721437 -0.8849631906646614
5134000000.0 -0.5295277590066849 -0.8990436281984722
5138000000.0 -0.551582870755055 -0.9278060337782933
5141000000.0 -0.5280536751928648 -0.8741442141880651
5144000000.0 -0.5255625228238071 -0.945508142254746
5147000000.0 -0.5685444089951459 -0.9005644543113457
5150000000.0 -0.5795291128364815 -0.9184454637013988
5153000000.0 -0.5625444321080699 -0.8890649980912478
5156000000.0 -0.5637674923000341 -0.9098532558047743
5159000000.0 -0.6316741995195727 -0.9022536982183376
5162000000.0 -0.6288918669571096 -0.8913887336758985
5166000000.0 -0.6646751203095775 -0.8609832503377249
5169000000.0 -0.639013752086367 -0.8614081903309992
5172000000.0 -0.6345189869749331 -0.8483734686416425
5175000000.0 -0.6305140432096478 -0.8589626624523744
5178000000.0 -0.6819037772223453 -0.8478274432860179
5181000000.0 -0.6729973284806825 -0.8576589190289411
5184000000.0 -0.6664899108698545 -0.8103449699192345
5188000000.0 -0.6592070908216404 -0.7886772886055743
5191000000.0 -0.7067205166181794 -0.8144588167253048
