! Created with skrf 1.8.0 (http://scikit-rf.org).
# Hz S RI R 50.0 
!freq ReS11 ImS11
4000000000.0 0.6101877130672052 0.7983500053215777
4003000000.0 0.6590690616919015 0.8220859561858957
4006000000.0 0.663778814747127 0.7912377688477351
4009000000.0 0.6648654967050442 0.7776711075466738
4012000000.0 0.6210263162035041 0.8558550089683336
4016000000.0 0.6967880283467396 0.7632506036304143
4019000000.0 0.6795594517479766 0.7238982335724822
4022000000.0 0.6228253258200882 0.8277007871218955
4025000000.0 0.7325461608045841 0.7301962092460879
4028000000.0 0.7179202518849819 0.781941618785545
4031000000.0 0.6979862187849095 0.7408070251388464
4034000000.0 0.6969849357762452 0.7209750285787289
4038000000.0 0.7457494095201981 0.7269490703037885
4041000000.0 0.7017455879533422 0.7354477360245879
4044000000.0 0.7428238197140286 0.8003190119978326
4047000000.0 0.7403501560563375 0.7786604037411657
4050000000.0 0.7724708867082315 0.735512152342751
4053000000.0 0.7829302243822048 0.6614802380821367
4056000000.0 0.7775191097658359 0.7060449369390351
4059000000.0 0.7290247369838704 0.7447770356348724
4062000000.0 0.786199298056616 0.6753781988663332
4066000000.0 0.7410355380236973 0.6643527199846254
4069000000.0 0.8375007850301023 0.6709874863940685
4072000000.0 0.7659332121598356 0.6813021151676306
4075000000.0 0.8156751126568911 0.7194279299838799
4078000000.0 0.8236340709989299 0.6628160355903445
4081000000.0 0.7824603487701187 0.7062738870239385
4084000000.0 0.8203351682699831 0.653510468885349
4088000000.0 0.7800428877085588 0.6633660560031498
4091000000.0 0.8823773013544844 0.682208251334252
4094000000.0 0.7939267850501561 0.6385604238685467
4097000000.0 0.8262058442904573 0.6393729146439184
4100000000.0 0.846960777724529 0.6282971922981202
4103000000.0 0.8239381201735665 0.6468756539877905
4106000000.0 0.8391460772927815 0.6284667915879648
4109000000.0 0.8426638283738375 0.5843043537296482
4112000000.0 0.8406379307039704 0.6148744160483322
4116000000.0 0.8348181740679786 0.620108698847696
4119000000.0 0.8990059036086397 0.534112180560821
4122000000.0 0.8708015440034854 0.5462602956717826
4125000000.0 0.9180490197269258 0.5831765412031751
4128000000.0 0.8349011257880891 0.553251046360419
4131000000.0 0.8750802553063575 0.5198364912185727
4134000000.0 0.8618067890777832 0.5555529947107378
4138000000.0 0.8985327387649866 0.4988493329729394
4141000000.0 0.8926456084221749 0.5016619415303284
4144000000.0 0.8886021823754505 0.5186294362830488
4147000000.0 0.9137463197814565 0.47607414790788266
4150000000.0 0.9133329672429857 0.5419266257775688
4153000000.0 0.9136933378344211 0.49924369474850216
4156000000.0 0.9261940219393179 0.521735970515886
4159000000.0 0.915970234077653 0.44735817444969744
4162000000.0 0.9054827691026575 0.4689340833372526
4166000000.0 0.9647430198966322 0.44602537186891655
4169000000.0 0.9161809647135071 0.420439388778755
4172000000.0 0.9372617650125401 0.45565165445654915
4175000000.0 0.9268774770766065 0.44567880370712504
4178000000.0 0.9423471943674142 0.4354827216076119
4181000000.0 0.9412049143207175 0.4176103728276258
4184000000.0 0.9283428313558152 0.4066250911243137
4188000000.0 0.9357685783467857 0.4073263714223859
4191000000.0 0.9160735753730311 0.4474181619475744
4194000000.0 0.9312269098685615 0.38399182608528093
4197000000.0 0.9700045313006226 0.37834729629996106
4200000000.0 0.9501484818559989 0.39160961095895275
4203000000.0 0.9479256825262552 0.3835142477397949
4206000000.0 0.9749940997917368 0.3708064380604021
4209000000.0 0.9466481296620934 0.37934547102931077
4212000000.0 0.9696768361971821 0.32021457715816415
4216000000.0 0.9533218970851908 0.3474692538432657
4219000000.0 0.984841172816571 0.33147009624958657
4222000000.0 0.983791091442509 0.3166825193521537
4225000000.0 0.9506566625318802 0.30886286400103635
4228000000.0 0.9888953718425526 0.3189069268018514
4231000000.0 0.982449752184568 0.3062379491089403
4234000000.0 0.9945175033938463 0.2958838630461749
4238000000.0 0.9854849261822444 0.2696681957261402
4241000000.0 0.976479699135729 0.27162436951276575
4244000000.0 0.9763214560808875 0.2717262221192125
4247000000.0 0.9966175767685156 0.2490861404979462
4250000000.0 0.9670973370402827 0.24987098560853904
4253000000.0 0.960387310438265 0.2266789679700273
4256000000.0 1.016504484995003 0.23187601959661047
4259000000.0 0.9791075179435841 0.2000222995704786
4262000000.0 1.0002086178388858 0.18843688630528724
4266000000.0 1.0282178342900057 0.19221709543795906
4269000000.0 0.9838581595617197 0.21130762490558783
4272000000.0 0.992266596881135 0.1987577430132791
4275000000.0 0.9924838935077569 0.19392160769555378
4278000000.0 1.0392239827284393 0.19374458260705657
4281000000.0 1.016448230481114 0.17908752109476617
4284000000.0 1.0022135233618084 0.11775151397699415
4288000000.0 0.9969035550356898 0.17742202084303232
4291000000.0 1.0027800195477568 0.14541363292423354
4294000000.0 0.9878573048891105 0.12430546664626553
4297000000.0 1.0013402814575836 0.13671349462782006
4300000000.0 1.0346979466011479 0.13345492781955848
4303000000.0 0.9849142431828876 0.07494699409750562
4306000000.0 1.0140420434519797 0.11920518229857946
4309000000.0 1.0208648918557086 0.08969119656817075
4312000000.0 1.03207998346734 0.1273187250303433
4316000000.0 1.0253596984114957 0.11356216250463223
4319000000.0 0.9973055774116383 0.06975221892352128
4322000000.0 1.0152878022489646 0.03163877734119998
4325000000.0 1.0305013216893864 0.0745266100776693
4328000000.0 1.001433728242767 0.0444914570516141
4331000000.0 1.009016912483763 -0.011329923733788494
4334000000.0 1.0310801199151411 0.012349283361119068
4338000000.0 1.0144942726648938 0.03105356803282798
4341000000.0 1.0278399627091825 0.030411314432077813
4344000000.0 1.0497486685876445 -0.02064537695073644
4347000000.0 1.0063964861891073 -0.0365218379634458
4350000000.0 0.9926951710833543 -0.0268872036588223
4353000000.0 0.9955299462465959 -0.003495990936026372
4356000000.0 1.0055412438202294 -0.08284236778514546
4359000000.0 0.9803742667725079 -0.028209618008818577
4362000000.0 1.0209056568009098 -0.12032627517035624
4366000000.0 1.0252791244881387 -0.0679740845176453
4369000000.0 0.9721544078836215 -0.08035601500078819
4372000000.0 1.0067103963136734 -0.1266261236349489
4375000000.0 1.0213008946978013 -0.08788754652367779
4378000000.0 0.9898908016165043 -0.09156722399087892
4381000000.0 0.9806130143121969 -0.09880338026214634
4384000000.0 1.0585590304808066 -0.13147194282215588
4388000000.0 1.0120407588231242 -0.11929814123193906
4391000000.0 1.0059874916495348 -0.14057574886365046
4394000000.0 0.9836730994008812 -0.1454725904571564
4397000000.0 0.9820372815153966 -0.15149337235574253
4400000000.0 1.0246589596757278 -0.16965491261248777
4403000000.0 0.9858143000393671 -0.16561302667594258
4406000000.0 0.9893738729286922 -0.18666104931468513
4409000000.0 1.0303784872675985 -0.20613645816124967
4412000000.0 0.9731615711140236 -0.24354753768401083
4416000000.0 0.9710730709115583 -0.21113685545494132
4419000000.0 0.9789978294916157 -0.23453486611316526
4422000000.0 0.9795967161086676 -0.20186736092039104
4425000000.0 1.0151624768098024 -0.20118120422689584
4428000000.0 0.9762729694978941 -0.25190390565276916
4431000000.0 1.0025261936551257 -0.23374314409168173
4434000000.0 0.9638536220967043 -0.25953798830274405
4438000000.0 0.998663621805665 -0.2679376548246257
4441000000.0 0.9818952623931754 -0.2622292175210021
4444000000.0 0.9589407283539639 -0.27880800131193917
4447000000.0 0.9607988221151987 -0.2974094666394714
4450000000.0 0.9576640814391926 -0.2800186525087859
4453000000.0 1.0088148812368045 -0.3151719815694663
4456000000.0 0.932123502886748 -0.3217597853227828
4459000000.0 0.9154265316549719 -0.321746728202522
4462000000.0 1.0187163083745883 -0.3492045128794321
4466000000.0 0.9757674653484057 -0.3548376974322461
4469000000.0 0.9475972033327813 -0.33487593146769423
4472000000.0 0.9646323997449298 -0.38070291977225346
4475000000.0 0.9117022627566532 -0.35843329972199345
4478000000.0 0.9675409664765768 -0.4050100056555168
4481000000.0 0.9055422814011174 -0.388337888615653
4484000000.0 0.9134840250599539 -0.4400497280929896
4488000000.0 0.9180776523581627 -0.38837881145129527
4491000000.0 0.9230905975730505 -0.41116216471173006
4494000000.0 0.9162178889773929 -0.40777737676559805
4497000000.0 0.9077819010309078 -0.407590460055324
4500000000.0 0.9036526967191649 -0.4116515726971313
4503000000.0 0.9437645326849462 -0.4329507624991845
4506000000.0 0.8938341467985504 -0.4711018808409351
4509000000.0 0.8893629055030048 -0.44389286585709964
4512000000.0 0.8885185149590138 -0.4623036827728655
4516000000.0 0.9119832935254472 -0.4596259604324792
4519000000.0 0.8803387427611583 -0.46809742738110777
4522000000.0 0.8671494947611025 -0.4895596701398834
4525000000.0 0.8872790583336807 -0.46032258124062675
4528000000.0 0.904697660615253 -0.5251128429938384
4531000000.0 0.8915388700866093 -0.49689658128345426
4534000000.0 0.8611298321206962 -0.5068920789690938
4538000000.0 0.8515944709886474 -0.5155202862096183
4541000000.0 0.8269587468529431 -0.5518957630732675
4544000000.0 0.8502357509016072 -0.5283995519389787
4547000000.0 0.8493699136413382 -0.5179428020657877
4550000000.0 0.8375610123168411 -0.5786390004492745
4553000000.0 0.84337375952276 -0.5764363563279533
4556000000.0 0.7981110564272189 -0.5638944180059654
4559000000.0 0.8375810128463985 -0.5900522456109336
4562000000.0 0.8285276251064098 -0.5895873479705253
4566000000.0 0.8123223789392664 -0.5914759083523411
4569000000.0 0.7863509029011015 -0.6007297158117457
4572000000.0 0.8023781903798131 -0.5962874681424013
4575000000.0 0.7903180579661813 -0.6352066267171345
4578000000.0 0.8252331074142876 -0.6224631291472342
4581000000.0 0.7972375435451308 -0.6437148793575069
4584000000.0 0.7811294511594852 -0.6320192266639234
4588000000.0 0.7971589655379507 -0.6352070235512375
4591000000.0 0.7792479820858008 -0.6260440504085527
4594000000.0 0.7607529737663745 -0.6620651898508313
4597000000.0 0.7954472658640692 -0.6866652961117301
4600000000.0 0.7303575053240386 -0.6875908919035087
4603000000.0 0.7422646749413427 -0.6979800587365426
4606000000.0 0.7571886350120451 -0.6964547625449421
4609000000.0 0.73061710512902 -0.6932843578308862
4612000000.0 0.740850010710096 -0.7084989801250333
4616000000.0 0.7263216713821881 -0.7071858770689461
4619000000.0 0.7168308565915354 -0.7112845612789392
4622000000.0 0.725529296243836 -0.7073132389304889
4625000000.0 0.689312985992979 -0.7080355795498708
4628000000.0 0.7058636476561589 -0.7153991523054964
4631000000.0 0.6747095271617507 -0.7406929290616329
4634000000.0 0.6816999726851735 -0.7596712171652827
4638000000.0 0.6813536511615816 -0.7540086235904729
4641000000.0 0.6814525675689437 -0.7482970570303192
4644000000.0 0.6518582785867257 -0.7649532010468949
4647000000.0 0.6681820864595486 -0.7627850759103475
4650000000.0 0.6455939505809751 -0.7698017078263715
4653000000.0 0.6637527100128789 -0.7862813721558162
4656000000.0 0.6218505468232607 -0.7893710473527114
4659000000.0 0.6138560674091755 -0.7834058325484663
4662000000.0 0.6326933307541426 -0.8031343020570052
4666000000.0 0.597339976758849 -0.8142927932488282
4669000000.0 0.6218403257090623 -0.7982213239333746
4672000000.0 0.6008120011966844 -0.8445865109356592
4675000000.0 0.5713563108199226 -0.841049066744116
4678000000.0 0.5927934076647596 -0.8114763692434468
4681000000.0 0.5680654823922267 -0.8606478372201868
4684000000.0 0.5674121975949917 -0.8504185620658631
4688000000.0 0.5557198502204084 -0.8473908990495221
4691000000.0 0.5869662347638755 -0.846162402063978
4694000000.0 0.5382275096989557 -0.8156569275163408
4697000000.0 0.5273296590988498 -0.8348318261176879
4700000000.0 0.5573621595128126 -0.8285215632778093
4703000000.0 0.5405640133806509 -0.8253447144750659
4706000000.0 0.5160637603232368 -0.8652711951008739
4709000000.0 0.5149487593046722 -0.8617272954851045
4712000000.0 0.5121775780093121 -0.8848075329859774
4716000000.0 0.48840041444831483 -0.9152125649148255
4719000000.0 0.5118618855450086 -0.8866836523695052
4722000000.0 0.5203393453396815 -0.8908143955386865
4725000000.0 0.49875556431601875 -0.8831993956842181
4728000000.0 0.4511982296553332 -0.8676584184553819
4731000000.0 0.46680844617057815 -0.9183599053444107
4734000000.0 0.4676382676220132 -0.8791890255491452
4738000000.0 0.4561972628904766 -0.9342934603194567
4741000000.0 0.45282134219542075 -0.9639811746237682
4744000000.0 0.3989481356185477 -0.9278787999435736
4747000000.0 0.4268727224698542 -0.901462631638413
4750000000.0 0.4064624934883427 -0.93631728248786
4753000000.0 0.44408135797772086 -0.949096570607096
4756000000.0 0.4111504416722205 -0.93648142802033
4759000000.0 0.4092814583947717 -0.9282469380006088
4762000000.0 0.3661326379235943 -0.9632884728346727
4766000000.0 0.3749321961808859 -0.9215056698382589
4769000000.0 0.3809408784419208 -0.9452511842096039
4772000000.0 0.36373030720421357 -0.9392875799864085
4775000000.0 0.33577471989963736 -0.9961325601102669
4778000000.0 0.3594134678676368 -0.9918724704554033
4781000000.0 0.3559377171648779 -0.9482640675356366
4784000000.0 0.36028953536298136 -0.959390003150003
4788000000.0 0.3448670598999464 -0.9733823181664003
4791000000.0 0.32566020140043406 -0.9747875966591627
4794000000.0 0.3350506917655931 -1.0089973783182082
4797000000.0 0.27228364880122075 -0.9736167458070769
4800000000.0 0.2764657499845924 -0.9635513453693685
4803000000.0 0.2292244455921354 -0.9664499628015932
4806000000.0 0.25377877252771497 -1.0004505097959515
4809000000.0 0.21431947055664383 -0.9840332673224833
4812000000.0 0.21701909972306563 -0.9796430481243839
4816000000.0 0.2751467055548189 -0.977660020930992
4819000000.0 0.2638006319273882 -1.0099684696981959
4822000000.0 0.2564210662502498 -1.024521791987822
4825000000.0 0.2456726098822994 -1.0383109940821407
4828000000.0 0.22761659600672718 -0.9904853547828992
4831000000.0 0.182498145777634 -1.0302071611080454
4834000000.0 0.2237571110450482 -1.0246434918731828
4838000000.0 0.16593397678335609 -1.0175743475229269
4841000000.0 0.15500457798689954 -1.0165882179771346
4844000000.0 0.20307019792196712 -1.0125264545321135
4847000000.0 0.19199806533828023 -0.9756605979050565
4850000000.0 0.1434885712608192 -1.0244768363432064
4853000000.0 0.14598592371432656 -0.9924208050967862
4856000000.0 0.1530003610910841 -1.0207653677141273
4859000000.0 0.12097622708102768 -1.0481402208268689
4862000000.0 0.1428231229185008 -0.9859324873858136
4866000000.0 0.09855693789826711 -1.0532455360998894
4869000000.0 0.09853559854844766 -1.0415654344169485
4872000000.0 0.08489882461468429 -1.0529506350149203
4875000000.0 0.12987991049676062 -1.0698262800766225
4878000000.0 0.07015499133023287 -1.031953489231346
4881000000.0 0.05095900453965384 -1.0838720616583473
4884000000.0 0.08812616181119835 -1.0364524034416862
4888000000.0 0.10043742372390609 -1.0217348615108024
4891000000.0 0.09283582626872866 -1.0474443812047531
4894000000.0 0.023796203049007383 -1.0344595727698467
4897000000.0 0.08217139299341694 -1.0258828380197735
4900000000.0 0.04539911711129391 -1.0503255116302024
4903000000.0 0.03791778733960277 -1.0562692870178971
4906000000.0 0.028859225779057328 -1.059782646671265
4909000000.0 -0.013612620767379305 -1.0442528266076634
4912000000.0 -0.005341365176681302 -1.045069964432001
4916000000.0 0.002943357736494061 -1.044993280551385
4919000000.0 -0.0058216200747243235 -1.0655515487872758
4922000000.0 -0.011842757574726373 -1.0086897784113087
4925000000.0 -0.054858268109471545 -1.0298123602970635
4928000000.0 -0.008831483260648268 -0.9952311124668803
4931000000.0 -0.05781180164923212 -1.0562137125056679
4934000000.0 -0.06650384745210662 -0.9951574762189122
4938000000.0 -0.11688379519748644 -1.0424962977118146
4941000000.0 -0.07737997386713606 -0.9954564020813832
4944000000.0 -0.04385577248042766 -0.9755850674325308
4947000000.0 -0.09979044920366664 -0.9973496882619695
4950000000.0 -0.1029523516263433 -1.0324070103387173
4953000000.0 -0.174953749246557 -1.0342412715326916
4956000000.0 -0.15983486653202617 -1.02597146600066
4959000000.0 -0.15428090922610224 -0.989219776997824
4962000000.0 -0.16042834399871989 -1.0566248265998488
4966000000.0 -0.11934086363972884 -1.0608877485348989
4969000000.0 -0.11601408188635592 -1.057401251631808
4972000000.0 -0.17348697637905727 -1.0279399195192802
4975000000.0 -0.14376660593536497 -1.011889791371826
4978000000.0 -0.18560991820927492 -1.0035873303559693
4981000000.0 -0.1914724844850675 -1.0115470281173646
4984000000.0 -0.20561225431829702 -0.9748610800084052
4988000000.0 -0.18870196713366405 -1.0176596658155768
4991000000.0 -0.15495482887635498 -1.0369513691507468
4994000000.0 -0.19299644346324302 -1.0362543477769053
4997000000.0 -0.25986763298445004 -0.985738423648539
5000000000.0 -0.24413093234818017 -1.0435743655150138
5003000000.0 -0.25787136039559355 -1.0602322107018949
5006000000.0 -0.24323394053282196 -1.0563686393057263
5009000000.0 -0.2501490297945883 -1.0241769118115926
5012000000.0 -0.2803427463532004 -1.0036535657069465
5016000000.0 -0.25540977294943357 -1.0319583652302349
5019000000.0 -0.2865335981449383 -0.9906261277455108
5022000000.0 -0.32957615515572813 -1.0032644021220054
5025000000.0 -0.3285032059552326 -1.0433634233099338
5028000000.0 -0.32125990441807517 -0.9987938200152158
5031000000.0 -0.2871309161445067 -0.9959202977734952
5034000000.0 -0.365000005052591 -1.0200571967915617
5038000000.0 -0.33235240793246856 -0.9557289434076832
5041000000.0 -0.3180045556232899 -0.9929135801993859
5044000000.0 -0.30781840910656966 -0.9682471621544416
5047000000.0 -0.3272907814224118 -0.9647002762065776
5050000000.0 -0.2873574488549723 -1.003948274787799
5053000000.0 -0.3880189864917919 -1.0169831254625394
5056000000.0 -0.325493724170556 -0.975312456579094
5059000000.0 -0.3116261660854254 -0.978262366002214
5062000000.0 -0.4131391459910688 -0.9597253089914506
5066000000.0 -0.3565586448576432 -0.979015377850406
5069000000.0 -0.42533171395192837 -0.9581031806337111
5072000000.0 -0.43372634211087746 -0.9103602397017809
5075000000.0 -0.40293200814943186 -0.9850617815625147
5078000000.0 -0.4606131524477031 -0.9329438366434191
5081000000.0 -0.44946489081322044 -0.9118109667582456
5084000000.0 -0.4564557528849159 -0.9780219677583064
5088000000.0 -0.42888164128877204 -0.9765240413622376
5091000000.0 -0.47208763109220625 -0.9545954596122941
5094000000.0 -0.4646805033438643 -0.9323873994363349
5097000000.0 -0.44010829950491803 -0.9022654044350478
5100000000.0 -0.48985153155533007 -0.9154474918093239
5103000000.0 -0.5351134921009276 -0.9065565633344578
5106000000.0 -0.49886527123953844 -0.9420944964582065
5109000000.0 -0.44303933663520695 -0.9482412096096628
5112000000.0 -0.5223712616686995 -0.9089108052397652
5116000000.0 -0.5318426065852075 -0.8861927397336886
5119000000.0 -0.5481389891526526 -0.8801897755086028
5122000000.0 -0.4746026011981774 -0.9005857870684473
5125000000.0 -0.5025753577316305 -0.9088533082952109
5128000000.0 -0.5391955551606961 -0.8891933807482022
5131000000.0 -0.514465787610105 -0.9082814306464922
5134000000.0 -0.5555205942445232 -0.8617389434152631
5138000000.0 -0.55510344572775 -0.9119153792908785
5141000000.0 -0.5211868005891893 -0.9021782273569858
5144000000.0 -0.5316016660194649 -0.8926718478332759
5147000000.0 -0.562719340133911 -0.894657090556205
5150000000.0 -0.5937493295377859 -0.9271540022569117
5153000000.0 -0.6019595000457554 -0.878776275472455
5156000000.0 -0.6284532815515582 -0.9002337432394828
5159000000.0 -0.6197071822276662 -0.8900106549406779
5162000000.0 -0.5977269756493032 -0.8104514038537086
5166000000.0 -0.6166907574917893 -0.8415304783236875
5169000000.0 -0.629859426019185 -0.8292139188330474
5172000000.0 -0.6120051812608772 -0.8197249113199014
5175000000.0 -0.6522378133615163 -0.8700284040664042
5178000000.0 -0.6485499979587919 -0.8279259876710775
5181000000.0 -0.7149176911134487 -0.8087080320778348
5184000000.0 -0.6599218299738675 -0.8232934783494903
5188000000.0 -0.6348100868097609 -0.8220332290388276
