! Created with skrf 1.8.0 (http://scikit-rf.org).
# Hz S RI R 50.0 
!freq ReS11 ImS11
4000000000.0 0.6696875224159672 0.8346760846118308
4003000000.0 0.6209303059583327 0.8302817299942965
4006000000.0 0.6721071470402387 0.7739658077743543
4009000000.0 0.6390102573743353 0.804544565395168
4012000000.0 0.5992252591743521 0.8403773879630794
4016000000.0 0.6969588768157747 0.7539318175227725
4019000000.0 0.6592681257372688 0.8239289475601486
4022000000.0 0.6361574872321725 0.8272569438086078
4025000000.0 0.7762670310541927 0.748474886986677
4028000000.0 0.7365548269681985 0.7471117605636579
4031000000.0 0.6862147044119754 0.7443379061341069
4034000000.0 0.7028889187231783 0.7426206729309923
4038000000.0 0.760229362089699 0.7310997041269672
4041000000.0 0.7044285484179045 0.7367801967641091
4044000000.0 0.7403592209466859 0.8057020134653586
4047000000.0 0.7538368156194182 0.7566355140837447
4050000000.0 0.7569181652904677 0.7378871509232897
4053000000.0 0.762195624638073 0.6932265986142905
4056000000.0 0.7476386752787182 0.7278368085797712
4059000000.0 0.7285178730965345 0.7127708700289845
4062000000.0 0.7731333267540532 0.6980595537809571
4066000000.0 0.7370165489540779 0.6329157487991449
4069000000.0 0.8065101992843586 0.6700920224490176
4072000000.0 0.7671816904470669 0.7210474950064469
4075000000.0 0.7657101661915586 0.6796589453992361
4078000000.0 0.8084191651615202 0.6716153179378821
4081000000.0 0.7848560367891033 0.7337066977701273
4084000000.0 0.8178390133661397 0.6457224437739042
4088000000.0 0.7832393298953472 0.6900370467159593
4091000000.0 0.850620867345115 0.6730409623756977
4094000000.0 0.8270846050091828 0.6486977505631994
4097000000.0 0.8390431415909211 0.6130956002888255
4100000000.0 0.8219253171517211 0.6006452583022193
4103000000.0 0.8400121628607025 0.6343632349421207
4106000000.0 0.8439688825115919 0.5794260389097172
4109000000.0 0.8642383454002378 0.5800931352329988
4112000000.0 0.8219364677511667 0.5884138805106693
4116000000.0 0.8014569202941657 0.625785799619047
4119000000.0 0.8458522713802058 0.5832752285393544
4122000000.0 0.8803812671228168 0.527701261828018
4125000000.0 0.8981115105525684 0.5309790741446436
4128000000.0 0.8332663045512287 0.5785845276691717
4131000000.0 0.8702318159030134 0.530724540319525
4134000000.0 0.8917169146406294 0.5469068051196103
4138000000.0 0.8803223084961955 0.512300041613722
4141000000.0 0.8484977835978509 0.5106420552363248
4144000000.0 0.891330352109775 0.5470439879579823
4147000000.0 0.9016238371372685 0.4800362075926103
4150000000.0 0.928507797247299 0.5317252923922733
4153000000.0 0.9146743943934666 0.49592185604316774
4156000000.0 0.9403737470281075 0.47951359020073225
4159000000.0 0.8601213708016426 0.5061838378394401
4162000000.0 0.9072056545344873 0.497997834586244
4166000000.0 0.9403285871005531 0.4493588413262035
4169000000.0 0.922209313527432 0.46368911192723683
4172000000.0 0.8978703806153506 0.46500274200313146
4175000000.0 0.9310562101181763 0.47301392501061773
4178000000.0 0.9294252116947014 0.4348855462450518
4181000000.0 0.9249748388581824 0.42483050915453024
4184000000.0 0.9249371237057354 0.42503374704265656
4188000000.0 0.9601494972679905 0.4126574392835972
4191000000.0 0.8900220030099929 0.4431663514147887
4194000000.0 0.9222816281158771 0.4027973626087701
4197000000.0 0.954800063196719 0.38879721740082757
4200000000.0 0.9504989520353087 0.4010518918172289
4203000000.0 0.9499525075007295 0.40205191538672336
4206000000.0 0.9786272646687614 0.36207423346543527
4209000000.0 0.9421317398148816 0.3568420828342597
4212000000.0 0.9680436298581038 0.32509068811094544
4216000000.0 0.9658459204493787 0.3567787768394645
4219000000.0 0.971102150280532 0.3413287256844544
4222000000.0 0.9802019920878877 0.32323090925144543
4225000000.0 0.959363476251283 0.327086704051771
4228000000.0 0.9972936427215202 0.3329218897335152
4231000000.0 0.9552468106988635 0.3192900510709741
4234000000.0 0.9962868291294996 0.2982417587384028
4238000000.0 0.98863140975731 0.27223331785216
4241000000.0 0.9692157869846099 0.2591500742619721
4244000000.0 0.9684539722032239 0.2723534306395182
4247000000.0 0.9876370409648786 0.2790183144758325
4250000000.0 0.9645714892189134 0.25721692381356
4253000000.0 0.9693705317043626 0.22356738235000323
4256000000.0 1.013471502914879 0.2408457962483938
4259000000.0 0.9554656056635867 0.21695563010859895
4262000000.0 0.9815976531972543 0.20188316348646732
4266000000.0 1.015822859579221 0.19907095982337508
4269000000.0 0.9890793865307208 0.23722436688453788
4272000000.0 0.9974128211965433 0.19099667636024742
4275000000.0 1.0002573348602064 0.20569470760018266
4278000000.0 1.0263334111303108 0.18209973203355428
4281000000.0 1.0169058490222587 0.18740296022755326
4284000000.0 1.0152506752513544 0.13908912831526574
4288000000.0 1.0004430530399084 0.17973349713663492
4291000000.0 0.9735072244975848 0.15957043900104662
4294000000.0 1.0098328009261015 0.130469329051897
4297000000.0 0.971873967107925 0.1425420709826391
4300000000.0 1.0090476826753705 0.13105798454175066
4303000000.0 0.9961435427546006 0.10409098135094678
4306000000.0 1.0227753442420533 0.105302967704242
4309000000.0 0.9866109695759727 0.13698857862226094
4312000000.0 1.032174190423679 0.13237845724137198
4316000000.0 1.0296490239822775 0.09155624878859032
4319000000.0 0.983589334027978 0.0972178670018304
4322000000.0 1.0115300882242595 0.014188232689898689
4325000000.0 1.0058261417655128 0.06956097892254721
4328000000.0 1.007145736494293 0.05499256544372082
4331000000.0 1.0207889083584258 0.014138108305774527
4334000000.0 0.998311270964432 0.016483271396404542
4338000000.0 0.9851225112378137 0.03927635460794736
4341000000.0 1.017912269082853 0.051437393056672054
4344000000.0 1.0336873945079228 0.007218482736912085
4347000000.0 1.0301279900317073 -0.0206207638323834
4350000000.0 0.9847062795697873 -0.017219589141345387
4353000000.0 1.0201487894403964 -0.002907925933521488
4356000000.0 1.0150679005196384 -0.058793701202467075
4359000000.0 0.9698094130579975 -0.048404932992220456
4362000000.0 1.0211474663761557 -0.1021297412946778
4366000000.0 1.008332207590766 -0.05591083945879555
4369000000.0 0.9807152324840265 -0.07893065915511902
4372000000.0 1.0034538554949697 -0.1191703305114684
4375000000.0 1.0007549228506196 -0.07369523500010085
4378000000.0 0.9855552626975486 -0.0942594697638465
4381000000.0 0.9961804194407213 -0.09644131040623945
4384000000.0 1.0577945344156032 -0.11595241835880367
4388000000.0 0.9837502356191049 -0.09992670849130204
4391000000.0 1.0171643263195294 -0.1262713961607298
4394000000.0 0.9609269004439551 -0.12783510226515477
4397000000.0 0.9844126143221426 -0.1482254126144259
4400000000.0 1.0203197016970202 -0.16128607697663194
4403000000.0 1.0083914493805994 -0.16026780335734161
4406000000.0 1.002989372222833 -0.18265631377458788
4409000000.0 1.0320616855551041 -0.1836766494380668
4412000000.0 0.9808147746106005 -0.23285009095916614
4416000000.0 0.9904073176945338 -0.20814387975732657
4419000000.0 0.9820408490294924 -0.22227249568051038
4422000000.0 0.9757813495581997 -0.1977742607509166
4425000000.0 1.015802866819376 -0.2075179936346932
4428000000.0 0.9842010047010421 -0.22879860851066006
4431000000.0 1.002845585112138 -0.24197047848197709
4434000000.0 0.9630554388612851 -0.2555804946877697
4438000000.0 1.0115463316329925 -0.2651672882753603
4441000000.0 0.9836683765062917 -0.2590770457033892
4444000000.0 0.9722053184622905 -0.26548157600160927
4447000000.0 0.9700356363370283 -0.29846275537309924
4450000000.0 0.9564841665070253 -0.28369203465637766
4453000000.0 0.986165965623978 -0.3040381734820673
4456000000.0 0.9179142103286206 -0.3007430709237613
4459000000.0 0.9090179979597635 -0.32334966274646737
4462000000.0 1.0154276169734848 -0.3603188259641073
4466000000.0 0.9854547675168659 -0.3498123472626238
4469000000.0 0.9684703802043013 -0.3190892085831363
4472000000.0 0.9588384642935092 -0.36068952609702243
4475000000.0 0.9271862518638364 -0.36027865544877424
4478000000.0 0.980485787751948 -0.3841963346729621
4481000000.0 0.8994569402972558 -0.37569662568397505
4484000000.0 0.9151376140848466 -0.41208198776972493
4488000000.0 0.919454294725328 -0.40769117801573845
4491000000.0 0.9373600450129456 -0.4207682421871796
4494000000.0 0.9016920591492527 -0.4175343387982231
4497000000.0 0.9179915579692597 -0.39841952383214346
4500000000.0 0.9193039452600025 -0.4107252531868578
4503000000.0 0.9354857095034153 -0.4388305643941434
4506000000.0 0.912817120604769 -0.43902132686632744
4509000000.0 0.8911943642358737 -0.43899052325985366
4512000000.0 0.8767269143908233 -0.45454665964608454
4516000000.0 0.9237347815382795 -0.46622539328611545
4519000000.0 0.8991098062784698 -0.4380586991994231
4522000000.0 0.8910913575150214 -0.4725347023436717
4525000000.0 0.9001078378338878 -0.4583245247838368
4528000000.0 0.9100594809293763 -0.5164872017374466
4531000000.0 0.8899108946496156 -0.48873081999164114
4534000000.0 0.8660671043032102 -0.4979226287563313
4538000000.0 0.8454854899624353 -0.5231207327368984
4541000000.0 0.8114189229592129 -0.5426931179923575
4544000000.0 0.8387046376746692 -0.533881402284142
4547000000.0 0.8655040267858517 -0.5109974615774711
4550000000.0 0.8501127602599519 -0.5741829054479084
4553000000.0 0.8460493695907698 -0.5734084121275315
4556000000.0 0.8053788556704882 -0.5634637907017672
4559000000.0 0.8345413106622898 -0.6042008111511374
4562000000.0 0.8442421217763207 -0.5868596530402455
4566000000.0 0.8364048814974994 -0.6048543330198013
4569000000.0 0.8017415883626285 -0.5837297286859717
4572000000.0 0.8144938425903131 -0.5806699893213536
4575000000.0 0.7981510613769327 -0.6352588175627538
4578000000.0 0.8305371867907094 -0.6145431671421837
4581000000.0 0.8145894407903148 -0.6410200198701809
4584000000.0 0.7766960361579265 -0.6180652559531342
4588000000.0 0.8047515454248975 -0.6546982944439
4591000000.0 0.7829945030379596 -0.6352391174973456
4594000000.0 0.7527740342078765 -0.6488701167205171
4597000000.0 0.7803183453542273 -0.6628736301209973
4600000000.0 0.7303912424637558 -0.667518245624486
4603000000.0 0.7653633928059129 -0.6857460277026903
4606000000.0 0.7444316227697237 -0.6781630777616554
4609000000.0 0.7483057729189374 -0.6915532873849621
4612000000.0 0.7550169972341004 -0.7025265286345985
4616000000.0 0.710693636923031 -0.6988570286187987
4619000000.0 0.7316887097479783 -0.6948769058162404
4622000000.0 0.7139485356308362 -0.6960168214158582
4625000000.0 0.6837133533050384 -0.723870875998934
4628000000.0 0.7205988241903732 -0.7027825835864545
4631000000.0 0.6974844225637562 -0.7394663998985859
4634000000.0 0.7002338581006047 -0.7397733558980597
4638000000.0 0.6948084091950745 -0.7362068807944991
4641000000.0 0.6790346235797077 -0.7525779423090799
4644000000.0 0.6745859576637087 -0.7460664732838321
4647000000.0 0.6653048607454879 -0.7703558000219087
4650000000.0 0.661287386271065 -0.7714266039820261
4653000000.0 0.6747412125936421 -0.774923415429525
4656000000.0 0.6265270808728138 -0.7909976131309442
4659000000.0 0.6307662721647448 -0.7936787719823132
4662000000.0 0.6398025952802466 -0.7952152038298564
4666000000.0 0.6017317825072885 -0.8015464703129753
4669000000.0 0.6325503090190334 -0.8054744854755355
4672000000.0 0.599021946495978 -0.8142809485940423
4675000000.0 0.6063667563720553 -0.8181084974925208
4678000000.0 0.5840143287521274 -0.798473007492194
4681000000.0 0.5708778987978966 -0.8550352504262516
4684000000.0 0.5484410610253951 -0.8313870593974865
4688000000.0 0.5508103597922807 -0.8509694736278997
4691000000.0 0.5836061747794925 -0.8528911176483729
4694000000.0 0.5519630039717797 -0.8264629930500118
4697000000.0 0.5136144039129749 -0.8338961681586377
4700000000.0 0.5637721047788969 -0.8513956309312272
4703000000.0 0.5160014910827269 -0.8147011378820865
4706000000.0 0.5126704987585076 -0.8876184337878331
4709000000.0 0.5064818673432717 -0.8757319514509718
4712000000.0 0.515823559595741 -0.8647203587796005
4716000000.0 0.5148875565481034 -0.9015333032635973
4719000000.0 0.5378397779055825 -0.8845560104660162
4722000000.0 0.5117920806345935 -0.8818567695123187
4725000000.0 0.49675627094467145 -0.8740997695969729
4728000000.0 0.47440988997187244 -0.9069376407053722
4731000000.0 0.4967855424660332 -0.9055310655290687
4734000000.0 0.4901888183163435 -0.8884460285997332
4738000000.0 0.47636693037399325 -0.9443493797634173
4741000000.0 0.4689192962485813 -0.9122690274762576
4744000000.0 0.45020897550711964 -0.9292700623359451
4747000000.0 0.45165518295632806 -0.9133501399024898
4750000000.0 0.42827791068782817 -0.8897468505351389
4753000000.0 0.4100627934389006 -0.9336602555839704
4756000000.0 0.39736810131192246 -0.9593262908860394
4759000000.0 0.4309034604559955 -0.9381420377254085
4762000000.0 0.3896898868852779 -0.9831451892771169
4766000000.0 0.36249738184264596 -0.9467071071700122
4769000000.0 0.4012738292360192 -0.9477297866212704
4772000000.0 0.37718189266121993 -0.9822782136287503
4775000000.0 0.34674713941325275 -0.9852824010009138
4778000000.0 0.33392893897253123 -0.9658374853466808
4781000000.0 0.3612016521183801 -0.9218429210763932
4784000000.0 0.3685632310690377 -0.9765795686036255
4788000000.0 0.3173002630121803 -0.9935137649159906
4791000000.0 0.3277001392459251 -0.9712215322452201
4794000000.0 0.33614547610179407 -0.9921665536525464
4797000000.0 0.2850137489174495 -0.9660213458949579
4800000000.0 0.298776019809331 -0.9845670543546436
4803000000.0 0.23960098053656545 -0.9737749401992286
4806000000.0 0.29413750625312307 -0.9986605698594972
4809000000.0 0.23657705380291122 -0.9802779256935886
4812000000.0 0.24503845712455208 -0.997259485546347
4816000000.0 0.2655147685117176 -0.9841243670792448
4819000000.0 0.2823034292580991 -1.0211678610294934
4822000000.0 0.2741487964151024 -1.0386339371417324
4825000000.0 0.272387022551758 -1.0037640627357047
4828000000.0 0.21131702344137462 -1.006946612642765
4831000000.0 0.16593676631784737 -1.0272941009286027
4834000000.0 0.2328421237330954 -1.0030600947258945
4838000000.0 0.17827970658868958 -1.0055289222321737
4841000000.0 0.15905983101957522 -1.0072787543377517
4844000000.0 0.2170644682480552 -1.023710593691181
4847000000.0 0.19386164887408824 -0.9667509234595715
4850000000.0 0.14872694156221772 -1.0318076381834456
4853000000.0 0.17057022694301277 -1.0032020378697595
4856000000.0 0.15362531284004521 -1.0128519549067379
4859000000.0 0.13859383333831546 -1.0646764203748371
4862000000.0 0.1485760834119471 -1.005198776949113
4866000000.0 0.12078473488389718 -1.0355552297488297
4869000000.0 0.10136756413762384 -1.006827810353987
4872000000.0 0.07345062099599621 -1.0405489278257547
4875000000.0 0.1570278299409317 -1.0712796740644073
4878000000.0 0.09463422854672981 -1.0255032236814208
4881000000.0 0.05455637925342183 -1.1045021300697548
4884000000.0 0.09433816813377303 -1.032625971889211
4888000000.0 0.09744670364307369 -1.0283161324572034
4891000000.0 0.07947397307943073 -1.0444174409873195
4894000000.0 0.0421349529160773 -1.0277500548599914
4897000000.0 0.06903597383621177 -0.9997443057277684
4900000000.0 0.037745923098636405 -1.0622521173722252
4903000000.0 0.03204323908353851 -1.0434152942243486
4906000000.0 -0.010862438867769279 -1.0726890915801106
4909000000.0 -0.023492493344954443 -1.0431490947153463
4912000000.0 -0.031827853413570806 -1.0729904044846825
4916000000.0 -0.00879879834069558 -1.0361989033876786
4919000000.0 0.013316731209419293 -1.06537821502355
4922000000.0 -0.008901850523065885 -1.0454463599990944
4925000000.0 -0.0863957152849548 -1.0430453121577212
4928000000.0 0.04388144964459529 -1.0101376871288004
4931000000.0 -0.01590166507649153 -1.05501877410257
4934000000.0 -0.000661652835797652 -0.9782765665265082
4938000000.0 -0.07312863241485655 -0.9933907719844526
4941000000.0 -0.048925494034162506 -0.9879671427839822
4944000000.0 -0.0651639919634592 -0.9531130649525721
4947000000.0 -0.08861838660927954 -0.993813142136574
4950000000.0 -0.10227215300355845 -1.004271697888288
4953000000.0 -0.1395095378867104 -1.068425324469998
4956000000.0 -0.13815130712691542 -1.0232595543739105
4959000000.0 -0.17515259019397586 -1.0001258369360255
4962000000.0 -0.13760111997770838 -1.0561705164427906
4966000000.0 -0.11678537722217697 -1.062393799907062
4969000000.0 -0.11301654985025966 -1.062777417594744
4972000000.0 -0.16392943111814443 -1.0308286059984233
4975000000.0 -0.10855103541430935 -1.0305251457599243
4978000000.0 -0.18183437665642554 -1.0499413654762388
4981000000.0 -0.1701750966433421 -0.9991426897322765
4984000000.0 -0.20762777257866408 -1.0058261962087085
4988000000.0 -0.18982912483265885 -1.0071980480819624
4991000000.0 -0.16831764408598388 -1.0499239321405682
4994000000.0 -0.19561146497063653 -1.0338129435028274
4997000000.0 -0.24125443247714162 -1.0037433510064544
5000000000.0 -0.1829198402943208 -1.0474865956171466
5003000000.0 -0.24596624682199952 -1.0544512967373163
5006000000.0 -0.26131902047067024 -1.0215953441189034
5009000000.0 -0.22397367899798817 -1.016510388284685
5012000000.0 -0.2710042662947237 -0.9925900979760154
5016000000.0 -0.25773286235775855 -1.0540179543032164
5019000000.0 -0.3084785524044984 -0.9823332752619891
5022000000.0 -0.26997492309404836 -0.9977341034436842
5025000000.0 -0.306067946639998 -1.0707210692047826
5028000000.0 -0.2833717494485054 -1.00586153417728
5031000000.0 -0.30639608912619587 -0.983283071674342
5034000000.0 -0.36192452697631783 -1.0391310991308877
5038000000.0 -0.31310190593205145 -0.9704059118591142
5041000000.0 -0.2818081029269513 -0.998132792481785
5044000000.0 -0.3247018316834107 -0.9678505484346097
5047000000.0 -0.32480360217323817 -1.0058867539896021
5050000000.0 -0.2636667911495614 -0.9809177904929529
5053000000.0 -0.41261510410423297 -1.0024923529114294
5056000000.0 -0.34988343451289317 -1.017320092517749
5059000000.0 -0.32463490305297255 -0.9748855727986562
5062000000.0 -0.3974210498581283 -0.9654779955219455
5066000000.0 -0.3495179489965343 -0.9936376675786458
5069000000.0 -0.39638728452985195 -0.9698958559960845
5072000000.0 -0.3926436401639381 -0.9469356936876923
5075000000.0 -0.415053227627302 -0.9695083068657249
5078000000.0 -0.4853741632099467 -0.9443891316319062
5081000000.0 -0.41554153972711333 -0.9469863599898242
5084000000.0 -0.4332342051567003 -0.9860156211209041
5088000000.0 -0.4345041175894584 -0.9401804355494929
5091000000.0 -0.4850929579286664 -0.9080434281072018
5094000000.0 -0.44358714300038854 -0.9285996662042927
5097000000.0 -0.40522168297512384 -0.9277502685424523
5100000000.0 -0.4411700049762579 -0.9343839726671427
5103000000.0 -0.4818919208731499 -0.8968084668643418
5106000000.0 -0.48516191665218616 -0.9731140368452675
5109000000.0 -0.45108621672561905 -0.9520841835801359
5112000000.0 -0.48119429943947367 -0.8973594599480335
5116000000.0 -0.4514620094682143 -0.9166379227484249
5119000000.0 -0.5123667751333965 -0.9104073396830374
5122000000.0 -0.5391903180114026 -0.86758123577161
5125000000.0 -0.4889383245002185 -0.8946538299862224
5128000000.0 -0.5284118574292958 -0.8822598884184698
5131000000.0 -0.5286254538531343 -0.8918681286634657
5134000000.0 -0.5536110111280523 -0.9336720829989418
5138000000.0 -0.5038981449773648 -0.8923283951757571
5141000000.0 -0.5227830618213846 -0.9242896705550294
5144000000.0 -0.5747948463176097 -0.8821339849085379
5147000000.0 -0.5424740267369359 -0.8519553693729018
5150000000.0 -0.5792919138702036 -0.9317987429108872
5153000000.0 -0.6004008564446148 -0.8414090763004138
5156000000.0 -0.5668215544680787 -0.8685534289446387
5159000000.0 -0.6142354832509263 -0.8805435429573958
5162000000.0 -0.6262761549256278 -0.8251501993177645
5166000000.0 -0.6307692451147916 -0.8645909455084775
5169000000.0 -0.6095185304431314 -0.8359890638968618
5172000000.0 -0.6020555094872692 -0.8369961397520909
5175000000.0 -0.621340791089887 -0.8905247243628329
5178000000.0 -0.6382621621945002 -0.8516206874204342
5181000000.0 -0.6662631021373453 -0.8365831318576524
5184000000.0 -0.6640052076085279 -0.8095960729918115
5188000000.0 -0.6260907418079097 -0.7874576200426501
