! Created with skrf 1.8.0 (http://scikit-rf.org).
# Hz S RI R 50.0 
!freq ReS11 ImS11
4000000000.0 0.5827195595400275 0.7805550100019738
4003000000.0 0.6677206594665487 0.8336427184499446
4006000000.0 0.6612758449029367 0.7621550330893475
4009000000.0 0.6538058895368764 0.7906636329010307
4012000000.0 0.6118315081258924 0.8166600462697912
4016000000.0 0.699595113776743 0.8286517611822122
4019000000.0 0.6880252855557771 0.7257877007390824
4022000000.0 0.637432918360999 0.8206457631630524
4025000000.0 0.7074747195178108 0.7523206227876771
4028000000.0 0.7072267706943726 0.7447935905287628
4031000000.0 0.6329345149758994 0.7442300957617953
4034000000.0 0.705529624072202 0.7344956003245177
4038000000.0 0.7080110883185311 0.7191449092442115
4041000000.0 0.7277742138314838 0.7420681242400893
4044000000.0 0.7660828109384601 0.7663264078952785
4047000000.0 0.7264461520721345 0.8172604221691965
4050000000.0 0.7697167671277308 0.707806287434147
4053000000.0 0.7280941511158128 0.6452257482794987
4056000000.0 0.7619485633988399 0.7099389231661412
4059000000.0 0.7142745667662452 0.70392982019551
4062000000.0 0.7484893438049277 0.7005760466496447
4066000000.0 0.7247450899521617 0.6277274024956815
4069000000.0 0.8270704866118272 0.6966180236377858
4072000000.0 0.7042475616956616 0.7167041545054718
4075000000.0 0.7482961199079216 0.695845654888912
4078000000.0 0.81180831300211 0.6479344210459785
4081000000.0 0.7748599648765371 0.7487339271285944
4084000000.0 0.8207306877449713 0.6611522890127774
4088000000.0 0.7640543142552318 0.6767902213798419
4091000000.0 0.8598079445567437 0.6620585570551005
4094000000.0 0.8207236675429531 0.6386690032234168
4097000000.0 0.814382496656761 0.616485487857229
4100000000.0 0.8309919508412944 0.6104391409542058
4103000000.0 0.8439300215838683 0.6351996855012358
4106000000.0 0.8086046741214188 0.6191333949763256
4109000000.0 0.878389735757388 0.5554280443000768
4112000000.0 0.8552837969556086 0.6038024904294677
4116000000.0 0.8265440604263241 0.603572018732228
4119000000.0 0.8631931496840188 0.5582597812399482
4122000000.0 0.8743185652716005 0.5449229687507252
4125000000.0 0.8799187167969746 0.5874857154426041
4128000000.0 0.8425241342979869 0.5266464695250445
4131000000.0 0.8777683939513642 0.5068412827098677
4134000000.0 0.8507993378434797 0.5250382571955785
4138000000.0 0.8692706734512141 0.496426759503476
4141000000.0 0.8758185322314342 0.4794085288282959
4144000000.0 0.8899166883884401 0.5312380273013122
4147000000.0 0.904242257455798 0.4694590897579369
4150000000.0 0.8935309915567383 0.5087479050993129
4153000000.0 0.8979346671809673 0.5070677663384445
4156000000.0 0.9143933675660207 0.5078636224698974
4159000000.0 0.8721871036813076 0.4838514696879142
4162000000.0 0.901056749397251 0.49910012350239574
4166000000.0 0.9323683451000138 0.44585908641088945
4169000000.0 0.8994480855222098 0.42795000444921405
4172000000.0 0.8988046672219376 0.4694481654133837
4175000000.0 0.9133570481821596 0.4566588048088103
4178000000.0 0.9161122863880973 0.4481069686069198
4181000000.0 0.9341825908719841 0.41429676330811693
4184000000.0 0.9343466966259614 0.4248800775264399
4188000000.0 0.9088577167569494 0.37447726814960425
4191000000.0 0.9029426261900795 0.42177767073476596
4194000000.0 0.9413489335072184 0.3646666216372121
4197000000.0 0.9338162884214606 0.3775687940536025
4200000000.0 0.9342359311295705 0.3973162866473964
4203000000.0 0.9635415698301442 0.3967499218695886
4206000000.0 0.9521917503435414 0.3711780011137344
4209000000.0 0.9481770212372688 0.36366931431945554
4212000000.0 0.9613934624470148 0.3288468352827345
4216000000.0 0.9640132415479579 0.35071228831724216
4219000000.0 0.9748262009204158 0.33793388090778553
4222000000.0 0.9809728317954483 0.32059856213060683
4225000000.0 0.9489628311917759 0.3316671031600136
4228000000.0 0.9791532499123703 0.3226144332030667
4231000000.0 0.9679858628047573 0.30557962229653934
4234000000.0 0.984625312432669 0.29440039277206453
4238000000.0 0.9806590368358227 0.28511893525860044
4241000000.0 0.9569564671211417 0.2734854081336408
4244000000.0 0.9692051936772798 0.2746796087012223
4247000000.0 0.9760827465037457 0.2643311820353716
4250000000.0 0.9776415863378811 0.2514343415972679
4253000000.0 0.9599553262498821 0.2231190929711962
4256000000.0 0.9876378739188347 0.238179478071108
4259000000.0 0.9663709487065395 0.23204835905345386
4262000000.0 0.9971201467441633 0.20713857779991265
4266000000.0 1.024146178099068 0.17617395384298162
4269000000.0 0.9925934399499862 0.23794007220246335
4272000000.0 0.9931734599818807 0.2019540180267564
4275000000.0 1.0150269480698215 0.20629375520004983
4278000000.0 1.0316786782243195 0.1818262838562218
4281000000.0 0.995276409438206 0.16196097043975843
4284000000.0 1.0058715180050277 0.12303130847203794
4288000000.0 1.0005213277598877 0.17951223225641946
4291000000.0 0.9715391334399602 0.14677118732410194
4294000000.0 0.9922941949892006 0.12282759883988449
4297000000.0 0.9959352683677768 0.15629005351307168
4300000000.0 0.9835750678899804 0.12171475853641317
4303000000.0 0.9863159706387498 0.11130389342170606
4306000000.0 1.0053642535450522 0.12833773080968372
4309000000.0 0.9821634438122205 0.10229596809872023
4312000000.0 1.0273619305176103 0.13777516315408114
4316000000.0 1.0282389565401626 0.10434339015730025
4319000000.0 0.9833742668491614 0.10591443910280883
4322000000.0 0.9853108580511846 0.05889868833106783
4325000000.0 1.030792622462234 0.06258762221538215
4328000000.0 1.015337251598584 0.04194126612715875
4331000000.0 1.008188233873889 -0.0032268062746345777
4334000000.0 1.0069232841000555 0.029112258320082324
4338000000.0 1.0276187812616575 0.020703388710921464
4341000000.0 1.031109645286046 0.027811795857420746
4344000000.0 1.0308178542183888 0.0013484288835074743
4347000000.0 1.0062611201468141 -0.04010639389839438
4350000000.0 0.9432785678603505 -0.01373478037375922
4353000000.0 0.9762406620898001 0.004086389613972313
4356000000.0 0.9897447035633112 -0.05033975715697145
4359000000.0 0.9795907377760545 -0.045740743548773194
4362000000.0 0.9961661354852314 -0.10623236201863821
4366000000.0 1.0113555514942236 -0.06657127664706916
4369000000.0 0.9703356138478144 -0.07361079968604606
4372000000.0 0.9962112015101163 -0.1111751336115728
4375000000.0 0.9777516125806713 -0.0557083869198749
4378000000.0 0.9829915317281429 -0.08407599860907385
4381000000.0 0.9973874152462439 -0.10417697994429627
4384000000.0 1.0641464026542244 -0.12665957711334563
4388000000.0 0.9814611903321833 -0.10626994357545076
4391000000.0 1.0156653127189628 -0.124954177120483
4394000000.0 0.9644863910303965 -0.14447156577131684
4397000000.0 0.9927700942665962 -0.13386387885881867
4400000000.0 1.0096798974606218 -0.16483001415883064
4403000000.0 0.9984708946233041 -0.15998967071825004
4406000000.0 0.9923830396188145 -0.18750457815646046
4409000000.0 1.0174470014105932 -0.178264691532919
4412000000.0 0.9706682689335285 -0.23593352687256772
4416000000.0 0.968603270668811 -0.2141625046303537
4419000000.0 0.9841593879218172 -0.227221698776189
4422000000.0 0.9747155979710354 -0.19504846662529365
4425000000.0 1.0045407944257918 -0.20965417247411097
4428000000.0 0.9737359569702276 -0.2424845450610762
4431000000.0 0.9993394184255087 -0.24298440441934674
4434000000.0 0.9635892539473552 -0.26386250958102025
4438000000.0 1.0063349566494895 -0.26671012287624307
4441000000.0 0.9868879714573038 -0.25961651793370943
4444000000.0 0.9408589486579613 -0.2794888702784829
4447000000.0 0.9457426228418502 -0.28480771475330313
4450000000.0 0.958518994606035 -0.2774082377709501
4453000000.0 0.9866330833949651 -0.3038498628542186
4456000000.0 0.9330188140311425 -0.31477718665090787
4459000000.0 0.9080055262417677 -0.33049422118087723
4462000000.0 1.007351900126549 -0.3629588437622412
4466000000.0 0.9862816733167679 -0.35421971739685854
4469000000.0 0.9468290319301024 -0.33693512931222375
4472000000.0 0.9475367925045193 -0.3855600711483467
4475000000.0 0.9094126089466786 -0.354618288442048
4478000000.0 0.9690874957311939 -0.3879261188628784
4481000000.0 0.9112709998670194 -0.3786928663839374
4484000000.0 0.8887332669085424 -0.41718220428390784
4488000000.0 0.9036860868321714 -0.40993979734142905
4491000000.0 0.9196964730884672 -0.4292241260600954
4494000000.0 0.9110278142774116 -0.39818228093537045
4497000000.0 0.9130098401800744 -0.4035820178277612
4500000000.0 0.9280906200100865 -0.42859071761532636
4503000000.0 0.9359659905226279 -0.43498794755149284
4506000000.0 0.8847096099529117 -0.4517431502532801
4509000000.0 0.8776375255925593 -0.4642635072515454
4512000000.0 0.8783166400698211 -0.46142232081844703
4516000000.0 0.9226745336332801 -0.4651091675579944
4519000000.0 0.8727591614679278 -0.45781982841070984
4522000000.0 0.8642443754540992 -0.48671507373035044
4525000000.0 0.8755457256570462 -0.46571998479074495
4528000000.0 0.9124585310448561 -0.5127381960549943
4531000000.0 0.8875116771849133 -0.5019710690880764
4534000000.0 0.8759303837242729 -0.5104396826696054
4538000000.0 0.85798120365065 -0.5027468215165984
4541000000.0 0.8274120100295804 -0.5377251597955752
4544000000.0 0.8281647767626292 -0.5169905037612074
4547000000.0 0.8495883187071379 -0.5261945616505648
4550000000.0 0.836630136172219 -0.5582312835084614
4553000000.0 0.835212685487327 -0.5556716868837354
4556000000.0 0.808419382838631 -0.5715524866910332
4559000000.0 0.8383298038519542 -0.5803512848737551
4562000000.0 0.8395274126028112 -0.5827166681890567
4566000000.0 0.8092206107263666 -0.5946358213596368
4569000000.0 0.8009537129738559 -0.5876849025127591
4572000000.0 0.8051754730896844 -0.6019427871839396
4575000000.0 0.7804457158546669 -0.6232074151513992
4578000000.0 0.8273360002145584 -0.618318049084799
4581000000.0 0.7823566082345967 -0.6294140581026131
4584000000.0 0.7793359683547842 -0.6180989949609088
4588000000.0 0.805972253631494 -0.6431698538455942
4591000000.0 0.7684562967324884 -0.6348748293538167
4594000000.0 0.7467125223779556 -0.6606843570384677
4597000000.0 0.7638376406532932 -0.67626263951282
4600000000.0 0.7298550921082813 -0.6819576010364663
4603000000.0 0.7396082578169463 -0.6775143256277562
4606000000.0 0.7384259896685422 -0.6812793017755947
4609000000.0 0.7302900063575103 -0.6942333432663792
4612000000.0 0.7483575463650862 -0.7036089024572173
4616000000.0 0.6955840828031803 -0.7029649205694057
4619000000.0 0.7293466594116119 -0.6907389861180612
4622000000.0 0.7115118606817242 -0.7050402837596005
4625000000.0 0.6778408700596221 -0.7199671286067301
4628000000.0 0.7169572828458435 -0.7102561479268011
4631000000.0 0.6789813923806509 -0.7397681126555896
4634000000.0 0.6978475375803637 -0.7379600142454666
4638000000.0 0.6783404324503571 -0.7294592303246409
4641000000.0 0.6848270027865564 -0.7359454191073163
4644000000.0 0.6735434128344082 -0.7489190074403098
4647000000.0 0.6655024573758129 -0.7627619581635919
4650000000.0 0.6488763928492964 -0.7695530865766588
4653000000.0 0.6786396350822147 -0.76889188158341
4656000000.0 0.6344891212494526 -0.7842558857650297
4659000000.0 0.6235160209427788 -0.8102638348527903
4662000000.0 0.6260384929704167 -0.8014760142940897
4666000000.0 0.6155983399336936 -0.791381281896835
4669000000.0 0.6097338053712837 -0.7794384049137506
4672000000.0 0.6115844033105399 -0.8264570976995514
4675000000.0 0.5784480564611187 -0.8270401079878764
4678000000.0 0.5847020481001848 -0.7928722911707607
4681000000.0 0.5652113015739191 -0.8596461312145586
4684000000.0 0.5575896416883763 -0.8445374358109623
4688000000.0 0.5507269888673634 -0.813841299446953
4691000000.0 0.558608661465163 -0.8469963649287766
4694000000.0 0.5627243242063669 -0.8226307799355181
4697000000.0 0.5289921754836902 -0.8193265010273507
4700000000.0 0.5522032328962122 -0.8411610084688161
4703000000.0 0.5322100564876628 -0.8387661945001585
4706000000.0 0.5149567980851321 -0.8811418968235433
4709000000.0 0.5168150804737941 -0.8659396964061437
4712000000.0 0.5376096100538279 -0.8569171462256326
4716000000.0 0.49203226076376894 -0.8887443716669665
4719000000.0 0.5267396173688388 -0.8773951919019408
4722000000.0 0.5080048387503983 -0.8474999956676545
4725000000.0 0.4871738630250954 -0.895077281576887
4728000000.0 0.46797966598449947 -0.8894730467719381
4731000000.0 0.45379863024444894 -0.9133921576214703
4734000000.0 0.4819971943122523 -0.87884444893061
4738000000.0 0.47723100093157744 -0.9073301026657247
4741000000.0 0.4563651884680229 -0.9182846109614503
4744000000.0 0.39829758360910733 -0.9286705022483627
4747000000.0 0.4325295190776075 -0.8967941113416786
4750000000.0 0.4246260386272327 -0.9093858101384592
4753000000.0 0.440058265254371 -0.9346576656953602
4756000000.0 0.3892911242111081 -0.909202840847275
4759000000.0 0.3898793387114803 -0.9173417261346836
4762000000.0 0.363726008324197 -0.9612118736964654
4766000000.0 0.3712521283248663 -0.9274422598695655
4769000000.0 0.3580645844359207 -0.9568255961482731
4772000000.0 0.3679677548742835 -0.9517488232639205
4775000000.0 0.360932865879378 -0.9961951013458579
4778000000.0 0.35564287046485005 -0.9724307463164296
4781000000.0 0.3780941054548546 -0.9336290922938495
4784000000.0 0.37015334131678046 -0.9571008505524176
4788000000.0 0.33604165886384035 -0.9854642423832223
4791000000.0 0.3092118517819575 -0.9692787167114035
4794000000.0 0.34870542779273306 -0.9808288649554386
4797000000.0 0.2803127637958718 -0.9584819851394896
4800000000.0 0.258980165779453 -0.956009849541718
4803000000.0 0.24829317589878808 -0.9685802952211664
4806000000.0 0.29518996033679623 -1.0005098846311666
4809000000.0 0.22248129838023262 -0.9765554364752086
4812000000.0 0.22082852609931924 -0.9522916080635935
4816000000.0 0.28266905906112727 -0.9775439958561596
4819000000.0 0.2730313706788375 -1.0031231361096924
4822000000.0 0.25778405058005754 -1.005625088687197
4825000000.0 0.25860752268678544 -1.019841107381737
4828000000.0 0.22625716400069165 -1.0046521907824606
4831000000.0 0.17812481546355327 -1.027615311033036
4834000000.0 0.21420025370312126 -1.0086749368187469
4838000000.0 0.17108155738386305 -1.0427636674350207
4841000000.0 0.1804547691932468 -0.9879352945330887
4844000000.0 0.21017747925173108 -1.0185639348909412
4847000000.0 0.1905315645355244 -0.9795978298737866
4850000000.0 0.1350040065234871 -1.037521589603931
4853000000.0 0.1405324412647717 -0.9661430111590246
4856000000.0 0.16012816106465808 -0.995570421664424
4859000000.0 0.1363607620474507 -1.0561446649824355
4862000000.0 0.14269129669672254 -0.9904315891933865
4866000000.0 0.1225217880928477 -1.0271061616079034
4869000000.0 0.08734848634892252 -1.0156866326129634
4872000000.0 0.07223834455261093 -1.0465975177448084
4875000000.0 0.1640921098844137 -1.0648906195260577
4878000000.0 0.09171541478390607 -1.0406601124198418
4881000000.0 0.03681046935984217 -1.068722081494183
4884000000.0 0.08995339592806587 -1.0482118084603562
4888000000.0 0.11003561310177334 -1.0113454561780801
4891000000.0 0.0666309539753147 -1.033568611215876
4894000000.0 0.03281499382413854 -1.0371001617430422
4897000000.0 0.051104953006324956 -1.017558878947849
4900000000.0 0.05288751407061325 -1.0279960170660578
4903000000.0 0.04553515254855245 -1.0534181565238796
4906000000.0 -0.02324633648683789 -1.0569710927384655
4909000000.0 -0.008220507836391618 -1.0305681559077224
4912000000.0 -0.010393821852285413 -1.0603158704660973
4916000000.0 0.023116039448367376 -1.0502728750746033
4919000000.0 0.0441378994788848 -1.0550675733007466
4922000000.0 -0.029959243445333683 -1.029081233562898
4925000000.0 -0.0469272382584171 -1.0152897321845946
4928000000.0 0.0037707092945560433 -1.0093440605713737
4931000000.0 -0.004836240195537633 -1.010051121342003
4934000000.0 -0.0197295330798518 -0.9870998724771813
4938000000.0 -0.08207984585582777 -1.0297017263316943
4941000000.0 -0.057471117732741175 -1.0065067542982873
4944000000.0 -0.05326384955411104 -0.9913684687147717
4947000000.0 -0.06930616119577135 -0.9878340706945814
4950000000.0 -0.08364910598995402 -0.9907693060532381
4953000000.0 -0.15395530180889505 -1.0518086368492217
4956000000.0 -0.14225109891761456 -1.0128634870600555
4959000000.0 -0.15791223660523632 -0.9729806050492834
4962000000.0 -0.15927328552344175 -1.023854881141409
4966000000.0 -0.1266656520263758 -1.028306961419439
4969000000.0 -0.1490293344482096 -1.0226042806078761
4972000000.0 -0.15835889196298056 -1.0110660047193942
4975000000.0 -0.14833363917424 -1.0072209193550656
4978000000.0 -0.20588133892448318 -1.0207182706739377
4981000000.0 -0.22478153880808213 -1.021302509822355
4984000000.0 -0.16742634661085845 -0.9891692449448211
4988000000.0 -0.21682930687989121 -1.0124153016187805
4991000000.0 -0.1246481851017342 -1.0308917653995717
4994000000.0 -0.18170099585039562 -1.0154684501609526
4997000000.0 -0.237063235862235 -1.0023055395534355
5000000000.0 -0.22753123295934807 -1.0321573846469383
5003000000.0 -0.23557195215425902 -1.0594211391791415
5006000000.0 -0.24509054843223296 -1.0516276919231724
5009000000.0 -0.24795814964367172 -1.0063720955094793
5012000000.0 -0.27409768318078875 -1.0203930504443224
5016000000.0 -0.2362342831279714 -1.0322167105274964
5019000000.0 -0.29181071089139776 -0.9661800360936055
5022000000.0 -0.283388340996117 -1.0084020319401423
5025000000.0 -0.31585379054391066 -1.0575036509130131
5028000000.0 -0.31506122366186473 -0.9852932911788816
5031000000.0 -0.3288077236040138 -0.9590957996235528
5034000000.0 -0.3412924889884976 -1.00797360535125
5038000000.0 -0.3494023616641353 -0.9337213781207039
5041000000.0 -0.3120581437257015 -0.9847056202111367
5044000000.0 -0.2881800706380345 -0.9925196809515408
5047000000.0 -0.30860426482005604 -0.9803663081520618
5050000000.0 -0.2427116356221227 -0.9981807603193886
5053000000.0 -0.3729844422738594 -0.9936408779088177
5056000000.0 -0.3219884579958069 -0.9864138183411111
5059000000.0 -0.33462304229785883 -0.9860449280474969
5062000000.0 -0.41223446478456993 -0.9960803629036148
5066000000.0 -0.31237244562876765 -0.9433022557819901
5069000000.0 -0.4114379328341362 -0.9853769669084632
5072000000.0 -0.40059324576478916 -0.9446855561276004
5075000000.0 -0.3805281975889572 -0.9191023234760514
5078000000.0 -0.4688374561908129 -0.930370585087894
5081000000.0 -0.44353872421393264 -0.9155017758801084
5084000000.0 -0.4339864910035528 -0.938098262810779
5088000000.0 -0.4262106487544183 -0.9265473565152011
5091000000.0 -0.4456239240007938 -0.9436996170999898
5094000000.0 -0.4781622174456808 -0.9336554864243433
5097000000.0 -0.4675167348234449 -0.9520483215737225
5100000000.0 -0.45951773874805907 -0.9329532968343001
5103000000.0 -0.4495323381167952 -0.939013822009055
5106000000.0 -0.45817525186622426 -0.9451342251932386
5109000000.0 -0.4766706862075316 -0.9024087878030909
5112000000.0 -0.5152666418541194 -0.8896564970460261
5116000000.0 -0.4383551367580796 -0.8668489905010932
5119000000.0 -0.5300402575820001 -0.8589540972676644
5122000000.0 -0.4844569017675983 -0.8947199395023933
5125000000.0 -0.5065339661866851 -0.8513062648934192
5128000000.0 -0.5273588716680243 -0.8628063223192548
5131000000.0 -0.5250625954686701 -0.8645712714461317
5134000000.0 -0.5621369342482057 -0.8850772145353665
5138000000.0 -0.5130757111762652 -0.8494177277793066
5141000000.0 -0.5366024782674035 -0.934731428211564
5144000000.0 -0.570539628145907 -0.902143160193322
5147000000.0 -0.557846049098074 -0.8888313704552945
5150000000.0 -0.5575251963588217 -0.8725214879691976
5153000000.0 -0.6362648618252733 -0.8626997298601369
5156000000.0 -0.5636770664472347 -0.8268042971258618
5159000000.0 -0.5931440509765757 -0.8619151455433961
5162000000.0 -0.6232402424540983 -0.8402114674229234
5166000000.0 -0.6298678203835253 -0.8425089523901205
5169000000.0 -0.6039884784012451 -0.8293859811889494
5172000000.0 -0.5940473759715607 -0.8208644686336493
5175000000.0 -0.6422310607853816 -0.8588583542088688
5178000000.0 -0.659865143584593 -0.7886087162549525
5181000000.0 -0.6322940849942759 -0.8389216970691176
5184000000.0 -0.660770103549712 -0.7768105789045413
5188000000.0 -0.6517748986590615 -0.8032268930029974
