! Created with skrf 1.8.0 (http://scikit-rf.org).
# Hz S RI R 50.0 
!freq ReS11 ImS11
4000000000.0 0.981136497471287 0.18067338818325396
4003000000.0 1.0507286147993213 0.20773032016593276
4006000000.0 0.9805373556806516 0.16255661063025295
4009000000.0 1.0284435558636502 0.17177075005428896
4012000000.0 1.0292302963279718 0.14823117106869074
4016000000.0 0.9930097026387366 0.12545133059821767
4019000000.0 0.9935415637664382 0.1144574995955949
4022000000.0 1.0271258373351597 0.14567949831570473
4025000000.0 0.99054900545487 0.08189664706253771
4028000000.0 1.0003817754925837 0.06779501469026328
4031000000.0 0.9985788450675197 0.062396558814570596
4034000000.0 0.9893759284756356 0.023397645258070282
4038000000.0 1.0091904637004514 0.023619726071132163
4041000000.0 1.038619497687632 0.008663874293852708
4044000000.0 1.0397860393417555 0.016292737420488562
4047000000.0 1.0525811436652808 -0.01862139677231922
4050000000.0 1.0177214737031062 -0.003772118857552881
4053000000.0 0.995607288197284 -0.025400211393071498
4056000000.0 1.017520692319829 -0.05124640434526953
4059000000.0 1.00311843508702 -0.09192669264793867
4062000000.0 1.039890805995705 -0.036050220605215094
4066000000.0 1.0013710816531063 -0.0610586843825055
4069000000.0 1.0185334420595904 -0.13252597201650274
4072000000.0 1.0052219040729449 -0.16405304457301279
4075000000.0 1.0288578515370719 -0.13400674248499528
4078000000.0 1.018105342416375 -0.14231302176736288
4081000000.0 1.0055478972154899 -0.19130535581956098
4084000000.0 1.0194271069506577 -0.20819639476256924
4088000000.0 0.9819988682907675 -0.21478028151085898
4091000000.0 1.0013000508436143 -0.19316259462652702
4094000000.0 0.9558167768909961 -0.23620780970096472
4097000000.0 0.9678022719012028 -0.2549972908248231
4100000000.0 0.9571388575231705 -0.29275688169175146
4103000000.0 0.9699500675939188 -0.26667679411832984
4106000000.0 0.9753358985983649 -0.32823730290561764
4109000000.0 0.9755641762486906 -0.334129257048783
4112000000.0 0.9513504913966191 -0.34166209114995183
4116000000.0 0.9617835648226809 -0.36577198624092805
4119000000.0 0.9717423326553261 -0.34922436342718494
4122000000.0 0.8961667335076946 -0.4012054770189377
4125000000.0 0.9203251436239641 -0.38036553346780994
4128000000.0 0.9246325233119652 -0.37663019645845885
4131000000.0 0.8986804129885394 -0.4463187534643377
4134000000.0 0.8982899097917705 -0.45355810481824754
4138000000.0 0.891931396405887 -0.46659351365362034
4141000000.0 0.9064107487070732 -0.4667287947831915
4144000000.0 0.8893641637390275 -0.4717102817702028
4147000000.0 0.9150084228912846 -0.526647002112307
4150000000.0 0.8490502470124236 -0.5386193561252708
4153000000.0 0.8542151825258409 -0.5264025416673477
4156000000.0 0.8659213246013397 -0.5474496285297138
4159000000.0 0.8090234244613062 -0.5570659222259998
4162000000.0 0.8303374167835877 -0.5836367252493708
4166000000.0 0.833872287169013 -0.6174074961918444
4169000000.0 0.7731053779868706 -0.6051005452588417
4172000000.0 0.7835201786851066 -0.6367195567798742
4175000000.0 0.7998715960184001 -0.6603793206447142
4178000000.0 0.7765911879376628 -0.6561204594631042
4181000000.0 0.7065977749188033 -0.687369557300324
4184000000.0 0.7133537351223531 -0.663342766812701
4188000000.0 0.6912126822652032 -0.7030952199568339
4191000000.0 0.7024517737626437 -0.7244867125325725
4194000000.0 0.7062786117652846 -0.747082921039862
4197000000.0 0.7036019003434293 -0.7369666631839733
4200000000.0 0.7021762626967742 -0.7538757988508213
4203000000.0 0.6738167608365168 -0.7933122334934687
4206000000.0 0.6547601817423478 -0.7900812623231348
4209000000.0 0.5848996355665478 -0.8058223647777012
4212000000.0 0.5571602009629052 -0.8315406946900807
4216000000.0 0.6280910049007871 -0.8451448925496701
4219000000.0 0.578867016805195 -0.8482419534007897
4222000000.0 0.5422465193428168 -0.8227485889786905
4225000000.0 0.506006406431138 -0.8719489092302298
4228000000.0 0.4915771648172873 -0.870489181663908
4231000000.0 0.47018186092142433 -0.8860419840238053
4234000000.0 0.4500539973580455 -0.9151699033687775
4238000000.0 0.42885265491556124 -0.9224740851245141
4241000000.0 0.37841426735049083 -0.913324338009792
4244000000.0 0.37191539889539904 -0.9151745668806969
4247000000.0 0.36150533406670515 -0.9367387129282247
4250000000.0 0.3402163771320583 -0.9102699377437056
4253000000.0 0.3162497559105641 -0.9387426394718642
4256000000.0 0.30433929771319057 -1.036537747988107
4259000000.0 0.266557774568319 -0.9557806921458232
4262000000.0 0.2448498048848279 -0.9912336242403614
4266000000.0 0.18599832394310456 -0.9843887034027231
4269000000.0 0.18809514017247092 -0.9981075612606083
4272000000.0 0.20218068396224748 -0.9513757878695448
4275000000.0 0.17020024571960107 -1.0091289717013652
4278000000.0 0.14282788083944264 -1.0259414157917872
4281000000.0 0.10939885389933367 -1.0195833765308893
4284000000.0 0.08326630221396673 -1.0374636651243734
4288000000.0 0.04852901489961303 -0.9980445057000136
4291000000.0 0.043737517858270375 -1.0195086311949655
4294000000.0 -0.0023663636609800587 -1.0407241021589595
4297000000.0 -0.010033113721922116 -1.0140633828368295
4300000000.0 -0.0480433328137396 -1.0084480993732203
4303000000.0 -0.07485443190696482 -1.010796049854883
4306000000.0 -0.1015343406681885 -1.0298904699858162
4309000000.0 -0.1259217707207872 -1.0225018055248931
4312000000.0 -0.15636095336480163 -1.0044083615848292
4316000000.0 -0.19719624666460972 -0.9713349989237134
4319000000.0 -0.21067869884338014 -0.9785676892141307
4322000000.0 -0.26411050051171164 -0.9904239241786841
4325000000.0 -0.2796086222775293 -0.9878260357912653
4328000000.0 -0.3036244996372368 -0.9707658873763101
4331000000.0 -0.337514059561341 -0.960166146001566
4334000000.0 -0.36761145027278785 -0.9534076834202916
4338000000.0 -0.3777108130290223 -0.9471943637629779
4341000000.0 -0.3994042925052548 -0.9260809327994346
4344000000.0 -0.44547449010557233 -0.9132915487595713
4347000000.0 -0.4663893155824421 -0.9192139098964394
4350000000.0 -0.5224992498356411 -0.8959869859268863
4353000000.0 -0.538815923309812 -0.86843998696119
4356000000.0 -0.5642406641482036 -0.8453706750187331
4359000000.0 -0.6230561021644625 -0.861524809108209
4362000000.0 -0.5898525686315292 -0.826125357837093
4366000000.0 -0.6325947747241849 -0.7889292414378626
4369000000.0 -0.6882856596972605 -0.7969048829171499
4372000000.0 -0.6949455794909076 -0.7745943336594477
4375000000.0 -0.707086505901336 -0.7129841637061481
4378000000.0 -0.7937138606803363 -0.7365908938047218
4381000000.0 -0.8014147736573678 -0.6801894039109879
4384000000.0 -0.7490353092178191 -0.6291878526578638
4388000000.0 -0.8408540815094544 -0.6434663750392129
4391000000.0 -0.8361777295295003 -0.6332804977778955
4394000000.0 -0.8871593927159994 -0.6038737961009583
4397000000.0 -0.9127250824109092 -0.5595870363271064
4400000000.0 -0.8553034629653857 -0.5034357912352871
4403000000.0 -0.9074661106578229 -0.47814498274221773
4406000000.0 -0.928209325928236 -0.4350472476335161
4409000000.0 -0.93116234558558 -0.3839305220654419
4412000000.0 -0.891654563394169 -0.446329007238821
4416000000.0 -0.9854841189765011 -0.38988782887190243
4419000000.0 -0.9333227391781489 -0.37539208277730307
4422000000.0 -1.0373347276278297 -0.3056218007877319
4425000000.0 -0.9860299828150354 -0.22896701748181678
4428000000.0 -1.0188681080188497 -0.2703005871563193
4431000000.0 -0.9875267651580997 -0.1705733641996553
4434000000.0 -1.0075912043810273 -0.19932504144256966
4438000000.0 -0.9704440434312214 -0.1381776012251819
4441000000.0 -1.0305156177507337 -0.08105919301633613
4444000000.0 -1.0795963029526476 -0.059029632669422266
4447000000.0 -1.0399002745701438 -0.046022416212677414
4450000000.0 -1.0561155056224978 0.05457130935988913
4453000000.0 -0.9616571725246442 -0.0012102697310912014
4456000000.0 -1.0803706621525118 0.072403840166375
4459000000.0 -1.0871352722027687 0.10241667677263452
4462000000.0 -0.9986753308940213 0.1514143260962744
4466000000.0 -1.0024236627976282 0.21019918942792995
4469000000.0 -1.003212139288363 0.23749773478308212
4472000000.0 -0.9521404489452524 0.25160253503489993
4475000000.0 -1.0315124103120987 0.34591419624025743
4478000000.0 -0.9589793580643551 0.28770616545833605
4481000000.0 -1.0148533720784725 0.3501207585789041
4484000000.0 -0.9776237090218831 0.38808792856034113
4488000000.0 -0.9695953384092875 0.43706750425828655
4491000000.0 -0.9680460651698224 0.43572982648577163
4494000000.0 -0.9797420748726395 0.4597587492116872
4497000000.0 -0.9255632582180964 0.550495689967098
4500000000.0 -0.8720921172787597 0.5507944296870546
4503000000.0 -0.8703637230994694 0.6006168656523527
4506000000.0 -0.856214012628757 0.6148972046817214
4509000000.0 -0.8013427268944124 0.6721394448612397
4512000000.0 -0.8058934122828169 0.643587987358786
4516000000.0 -0.7505242539229403 0.7023986849895022
4519000000.0 -0.7460197655345719 0.703076755028328
4522000000.0 -0.7510239541537762 0.721609791699898
4525000000.0 -0.7085758119666072 0.7995337525092425
4528000000.0 -0.6562989706734355 0.7721194697280745
4531000000.0 -0.6104535182467667 0.8415432765672854
4534000000.0 -0.597067108182679 0.8468629071458011
4538000000.0 -0.5912738279751839 0.8544252460488537
4541000000.0 -0.5966452747209722 0.8491834953625512
4544000000.0 -0.5439486852218345 0.9031364701226958
4547000000.0 -0.4874916088644583 0.9142560278063692
4550000000.0 -0.4781848730212241 0.9331966649193933
4553000000.0 -0.43077899229731503 0.9424490089007236
4556000000.0 -0.41394230930513004 0.9681156822581332
4559000000.0 -0.40276875944729174 0.9800247846400307
4562000000.0 -0.36190662166045257 0.9857657138512625
4566000000.0 -0.36604232571700307 0.9628022693928044
4569000000.0 -0.3489078875537342 1.0051064363318174
4572000000.0 -0.267255716026055 0.9800324962863934
4575000000.0 -0.26209075673170606 0.9989588455902432
4578000000.0 -0.2353669126662205 1.003662513507271
4581000000.0 -0.14723700834907769 1.0511062095923136
4584000000.0 -0.14578492206260452 1.0076003224019008
4588000000.0 -0.13468141743481474 1.0368382541815924
4591000000.0 -0.10103285599245972 1.0508058344411035
4594000000.0 -0.09946439368868698 1.051840652136738
4597000000.0 -0.025976056871082398 1.0358191678082496
4600000000.0 0.016553360535437087 1.016905522147966
4603000000.0 0.015677998846113872 1.0054521949100679
4606000000.0 0.023646086347255454 1.0579949666383053
4609000000.0 0.1233711938935614 1.0426499143971077
4612000000.0 0.09559075240947056 1.0671447002803698
4616000000.0 0.16671776153040652 1.017680793374033
4619000000.0 0.17418237217275181 1.0334299128554578
4622000000.0 0.1723360131690711 1.0183914726201808
4625000000.0 0.2120181593160216 0.9645598389433069
4628000000.0 0.24357597453518473 0.9817626661081907
4631000000.0 0.2871719567733496 0.953171738286799
4634000000.0 0.2715901482625623 0.9821028048691534
4638000000.0 0.33401483289420353 1.0079935647260367
4641000000.0 0.3598823104213973 0.9908971805750446
4644000000.0 0.3770481603336208 0.9793729620451175
4647000000.0 0.4067227103345664 0.9386097643789713
4650000000.0 0.4647473871839348 0.9347617414796052
4653000000.0 0.46748332901553624 0.9039083882938685
4656000000.0 0.49439591683817796 0.8998085589742619
4659000000.0 0.4599750993242516 0.8890725749556925
4662000000.0 0.4769694769543845 0.8513062927361302
4666000000.0 0.505388649812923 0.8986530002805564
4669000000.0 0.545912808877269 0.8746395931638762
4672000000.0 0.6116667739135259 0.8199502742925883
4675000000.0 0.5764266434514245 0.7611113328697352
4678000000.0 0.5913568307348014 0.8189851709846648
4681000000.0 0.6680480353394818 0.7708474699120934
4684000000.0 0.5857717593209338 0.7301199974615613
4688000000.0 0.6253992099341286 0.7655661361177408
4691000000.0 0.6304119242454203 0.7145215563947287
4694000000.0 0.7785729401928358 0.7414991964880397
4697000000.0 0.732568535764178 0.7546754531569853
4700000000.0 0.7196736115540225 0.7477174305378929
4703000000.0 0.8284613106769669 0.7149334065250454
4706000000.0 0.7046977849729494 0.7209435322241199
4709000000.0 0.7549395805450563 0.6601658205995513
4712000000.0 0.776390226069386 0.6042780109629499
4716000000.0 0.769683640758159 0.6313940090838845
4719000000.0 0.8578208222527185 0.5760725588285778
4722000000.0 0.861537500556232 0.5821222309971374
4725000000.0 0.846148612138526 0.539600023241035
4728000000.0 0.8418334041798456 0.5218557285085939
4731000000.0 0.8146212367975716 0.5504483140172862
4734000000.0 0.8628564480508433 0.5137519011603285
4738000000.0 0.8463499070076368 0.46617254605720815
4741000000.0 0.8562662124260633 0.4683375651794727
4744000000.0 0.9208354178683036 0.44828340449746346
4747000000.0 0.9506859840824996 0.44142436338035873
4750000000.0 0.8940240093655096 0.3694185173679192
4753000000.0 0.9619823407939694 0.3686324594719948
4756000000.0 0.9367483606496767 0.33748631248747346
4759000000.0 0.9357494237465305 0.3383880099502944
4762000000.0 0.9169884414876902 0.3751425269249175
4766000000.0 0.9343663419354211 0.2925293232894473
4769000000.0 0.9814389920883586 0.36203744681976
4772000000.0 0.9724763105600548 0.2811145742790745
4775000000.0 0.9531287824794197 0.2815160939175814
4778000000.0 0.9269304445218829 0.31282462508728803
4781000000.0 0.9835284797571048 0.2538887257860142
4784000000.0 1.0011660138850837 0.257646309804345
4788000000.0 0.9842011864283319 0.2294881345945935
4791000000.0 1.0087256946222314 0.16306859665427378
4794000000.0 0.9887793065208996 0.15163473595814603
4797000000.0 1.0242472900378021 0.15986308350973955
4800000000.0 1.0018912582082298 0.09908770240232154
4803000000.0 1.0216272509564601 0.13135436760087849
4806000000.0 1.0071227706075025 0.11584930814073316
4809000000.0 0.9982891729848045 0.11164364428984772
4812000000.0 1.0306859575007514 0.07050687825760596
4816000000.0 1.0368228863641868 0.012193677863511374
4819000000.0 1.0175597955243951 0.0045939695875148595
4822000000.0 1.0199739931834513 0.005133524860348987
4825000000.0 1.003828241404286 -0.022196875453282028
4828000000.0 0.9906303917203023 -0.015733607571545405
4831000000.0 1.010397889707558 -0.041833602172223844
4834000000.0 1.0006835746770701 -0.07179483081108254
4838000000.0 1.0233403719508765 -0.09286773291435921
4841000000.0 1.0074775345089801 -0.10244550309096656
4844000000.0 0.991841469950042 -0.11953798169600668
4847000000.0 0.9981363777832876 -0.13901132973526506
4850000000.0 0.9939371842392848 -0.14002059849456383
4853000000.0 0.9886195801210219 -0.16619216964631062
4856000000.0 1.0110371450535574 -0.19222833894644223
4859000000.0 0.9803602889501365 -0.1877204533612301
4862000000.0 0.9783540318698527 -0.18453371751054554
4866000000.0 0.9975755516020821 -0.2243588990779884
4869000000.0 0.9892315122094358 -0.24942313948711628
4872000000.0 0.9663547068141636 -0.2729079150433557
4875000000.0 0.9844027742841632 -0.2730293660344323
4878000000.0 0.9734757160517423 -0.2949813279160268
4881000000.0 0.9550637102605621 -0.290550548393407
4884000000.0 0.9782665421796173 -0.32644374396172626
4888000000.0 0.9838896790629515 -0.325868265358001
4891000000.0 0.9441889409631671 -0.3449891038531117
4894000000.0 0.9499999350982452 -0.3642016488405232
4897000000.0 0.9325824478266826 -0.35728940294036865
4900000000.0 0.932877196673653 -0.40745071304338065
4903000000.0 0.9428862154667369 -0.406884582483884
4906000000.0 0.9246032463071464 -0.40721413507105036
4909000000.0 0.9196632063249144 -0.44376987128833356
4912000000.0 0.904292844463858 -0.4482716562121179
4916000000.0 0.9290015920589185 -0.42601743325110614
4919000000.0 0.8928085951495901 -0.464958035511686
4922000000.0 0.9077684490665111 -0.4856441267472169
4925000000.0 0.8588887496472116 -0.4934177025487604
4928000000.0 0.8964860834356541 -0.4847882562677767
4931000000.0 0.877985414473391 -0.5253129252855562
4934000000.0 0.8523414010008412 -0.5169899546873942
4938000000.0 0.8391360064017801 -0.5709133124316427
4941000000.0 0.8397575393409026 -0.5603828470261321
4944000000.0 0.8248252635603901 -0.5308013292378779
4947000000.0 0.8225414898932063 -0.554148677378043
4950000000.0 0.8182370834888021 -0.6027233477616833
4953000000.0 0.8067051762518054 -0.6615961460030834
4956000000.0 0.8142580913077091 -0.6333260350582108
4959000000.0 0.7746485370506089 -0.6413198476811466
4962000000.0 0.7682121532103429 -0.6429446872320002
4966000000.0 0.7810767491080692 -0.6565829633034475
4969000000.0 0.8013247228341895 -0.654962598297204
4972000000.0 0.7458622338748043 -0.6973478376039852
4975000000.0 0.7564335571870177 -0.6514982778714933
4978000000.0 0.7489701538254031 -0.671402624834243
4981000000.0 0.7288197637124608 -0.7045998859749009
4984000000.0 0.7247485350901804 -0.6919096724549936
4988000000.0 0.7113710272134381 -0.6919289629817142
4991000000.0 0.732068319795694 -0.7277792376648048
4994000000.0 0.7140045369595429 -0.7325273853865859
4997000000.0 0.6935369454243898 -0.7366800043712112
5000000000.0 0.7167720635143828 -0.7896352876757657
5003000000.0 0.6998341026831622 -0.768670350041864
5006000000.0 0.651233142524822 -0.7987979999064668
5009000000.0 0.6556110860770702 -0.7677422576669222
5012000000.0 0.6296187340665238 -0.7933118350528354
5016000000.0 0.7035120136561337 -0.8260465049877934
5019000000.0 0.6105442023883496 -0.8069953520383039
5022000000.0 0.6258750018298338 -0.8697287869953236
5025000000.0 0.6516516090932423 -0.872042589544935
5028000000.0 0.5841512611053478 -0.8458787495401211
5031000000.0 0.5967417447505773 -0.8581517017035887
5034000000.0 0.5551856295988729 -0.911940816440822
5038000000.0 0.5367052843824229 -0.8082596593760234
5041000000.0 0.6017541544726412 -0.8587569996805535
5044000000.0 0.571735605306545 -0.8293973922080562
5047000000.0 0.6080324307227297 -0.8832619091780839
5050000000.0 0.6045686214248559 -0.8164215247112705
5053000000.0 0.5228543332623874 -0.9386391720837615
5056000000.0 0.5734969821306055 -0.8482309060755006
5059000000.0 0.5860829422842321 -0.8964340845144093
5062000000.0 0.4726251528446262 -0.9153465315875502
5066000000.0 0.4990303442129047 -0.8794625387439046
5069000000.0 0.4894952693802024 -0.9190547505813021
5072000000.0 0.41025929249070064 -0.897651764705796
5075000000.0 0.4680756456452845 -0.9129817651819814
5078000000.0 0.4036972573166723 -0.964116289182827
5081000000.0 0.40664397833443816 -0.8934525520183673
5084000000.0 0.4059691239093831 -1.004209325001073
5088000000.0 0.442859903714762 -0.9351021841704652
5091000000.0 0.39345291948327393 -1.0043660083372676
5094000000.0 0.42587558250710733 -0.9863085714186702
5097000000.0 0.45259048893623643 -0.9745069310482104
5100000000.0 0.3564564324361525 -0.9421217758614665
5103000000.0 0.34494768044046786 -0.9665087461679386
5106000000.0 0.3873876878589294 -0.9950863185527561
5109000000.0 0.3600177287998699 -0.9538900667249097
5112000000.0 0.3577988965914946 -0.9641240182337794
5116000000.0 0.32812022858708395 -0.9158655038877361
5119000000.0 0.35071345348829924 -1.0004527639627665
5122000000.0 0.31827392815644906 -1.0201757425311149
5125000000.0 0.3100448526828035 -0.9849527243426927
5128000000.0 0.26072408989133894 -1.0085191141672183
5131000000.0 0.2704003455789263 -0.9740897939896546
5134000000.0 0.23824058149745497 -0.9886379386833106
5138000000.0 0.2570607387902416 -0.9983103109119905
5141000000.0 0.29829707749369605 -0.9871534838018368
5144000000.0 0.2640136784230386 -1.0512120552614173
5147000000.0 0.25872297293479085 -0.9901589322611061
5150000000.0 0.24542617706208658 -1.0162422215850448
5153000000.0 0.17924053239952942 -0.9981558674240927
5156000000.0 0.2255509558985902 -1.0718248937482282
5159000000.0 0.17698654528161262 -0.998233576882741
5162000000.0 0.1676676194302861 -1.0168026185311994
5166000000.0 0.11511351467430861 -1.0680871082169294
5169000000.0 0.17643789098072368 -1.0659783333155488
5172000000.0 0.12053127012565437 -0.9569604721930542
5175000000.0 0.17257716989120814 -1.032445761769962
5178000000.0 0.08621353034099058 -1.020193888128422
5181000000.0 0.14284754102558742 -1.040772020429836
5184000000.0 0.056560475290509046 -1.0429493629803765
5188000000.0 0.13670204484690038 -1.0181033995826976
