! Created with skrf 1.8.0 (http://scikit-rf.org).
# Hz S RI R 50.0 
!freq ReS11 ImS11
4000000000.0 -0.33260472130833785 0.9600137885888187
4003000000.0 -0.3067336671851235 1.08354308534546
4006000000.0 -0.25696968480585447 1.0099750573984092
4009000000.0 -0.2531858480148079 0.9898695408341132
4012000000.0 -0.30094370086521705 1.0126456154193189
4016000000.0 -0.25607878891376706 1.1057851766366837
4019000000.0 -0.21571848018512235 1.0049613543208713
4022000000.0 -0.27764190739313366 0.9370378860520626
4025000000.0 -0.09515364266962639 1.0421381774147072
4028000000.0 -0.2399860453200537 1.058313634173391
4031000000.0 -0.1669881738429801 0.9530385810950214
4034000000.0 -0.15109938380228136 1.0377848241388623
4038000000.0 -0.08236232126217159 1.0663926089998985
4041000000.0 -0.11307541455472903 1.0704943546826011
4044000000.0 -0.18207075284775037 1.1177573573950381
4047000000.0 -0.15466896990611656 1.1027133035731516
4050000000.0 -0.051516948382221456 1.0330415907475075
4053000000.0 -0.011590563963342796 0.9951379748113729
4056000000.0 -0.11339524998954198 1.0274026349439789
4059000000.0 -0.11397175353641756 1.022437382013678
4062000000.0 -0.022016623409316448 1.0280162877544643
4066000000.0 0.010449478231714708 0.9457579385085159
4069000000.0 0.0007272905550182451 1.0765273650358522
4072000000.0 -0.10135531031358777 1.059138936572032
4075000000.0 -0.08138808904317679 1.0515184031216627
4078000000.0 0.03369036672596995 1.060281282850867
4081000000.0 -0.08976051557686494 1.114854849416631
4084000000.0 0.07506929643898684 1.0930035906636266
4088000000.0 -0.03527850351993655 1.0060989208344386
4091000000.0 0.09407198482317401 1.1187200664323327
4094000000.0 0.08436160760575882 1.1026345898737695
4097000000.0 0.08757977161601108 1.0416220792580868
4100000000.0 0.13250635362256288 1.0365741410831435
4103000000.0 0.08238596757109837 1.0444288500132943
4106000000.0 0.14329971341749276 1.0596716274383575
4109000000.0 0.15650962800758064 1.0574573647423182
4112000000.0 0.13666194079541882 1.073852284445101
4116000000.0 0.11137452798515915 1.0663029019466395
4119000000.0 0.16837229385219327 0.9941819756749206
4122000000.0 0.2076358229275363 1.05121856442727
4125000000.0 0.23627434792962482 1.1104474786220166
4128000000.0 0.16734895595352 0.9623460412790572
4131000000.0 0.21870246734834098 1.008474198183719
4134000000.0 0.22036513766798335 1.00880096702656
4138000000.0 0.218132722569906 0.9834574908107849
4141000000.0 0.2605709113144507 0.9834387428151785
4144000000.0 0.2889607928061679 1.041268991558203
4147000000.0 0.30903615280454066 0.9504265699965406
4150000000.0 0.23962672211970368 1.070152377642481
4153000000.0 0.32959483567465114 0.9629170268132047
4156000000.0 0.325194115494865 1.0167263570879967
4159000000.0 0.30394281803346257 1.03394450715715
4162000000.0 0.26770069319424095 0.989810863019837
4166000000.0 0.35201095729441806 1.022024269430033
4169000000.0 0.3955864574728482 0.9696529108738358
4172000000.0 0.33195995881056534 0.9780136077891037
4175000000.0 0.3254154310071635 0.9445962183384045
4178000000.0 0.4051077884244119 1.0153973864661605
4181000000.0 0.35354161146901264 0.9835885816978075
4184000000.0 0.39081228070758633 0.9913712346632584
4188000000.0 0.38835689209109897 0.930541953407618
4191000000.0 0.3769271251099811 0.929191619963466
4194000000.0 0.37005732543080133 0.8829049435254369
4197000000.0 0.4261902347390122 0.9459275606033695
4200000000.0 0.4499323548787163 0.9128624977146057
4203000000.0 0.403457734324536 0.8989196316494126
4206000000.0 0.4778118018494072 0.9008644798689489
4209000000.0 0.4609335907261235 0.911912040533396
4212000000.0 0.47400047516350774 0.8855504325663534
4216000000.0 0.49183482178924237 0.8606341488466542
4219000000.0 0.4746613622534982 0.9252689660191021
4222000000.0 0.5524686044584769 0.9157056758906994
4225000000.0 0.46684959386685293 0.8941597411132639
4228000000.0 0.5123328233294256 0.9196702207269652
4231000000.0 0.5099884780495242 0.8946117497683411
4234000000.0 0.5317195348430975 0.9069863835841439
4238000000.0 0.5463504482762038 0.8720290215559057
4241000000.0 0.5446447700162879 0.9118994581700652
4244000000.0 0.5447864411685367 0.8944690289552268
4247000000.0 0.5780433737646673 0.8940245774166473
4250000000.0 0.5801300210602909 0.8496684164645861
4253000000.0 0.566687349689182 0.8455264435003401
4256000000.0 0.576440605419323 0.8250861257648101
4259000000.0 0.5950279283149377 0.8153603194157377
4262000000.0 0.6225541403442583 0.8296271009751388
4266000000.0 0.6023486839364984 0.8209718708790973
4269000000.0 0.640209147335276 0.8430714032974105
4272000000.0 0.6601942537248033 0.7965888896477278
4275000000.0 0.6211579334517741 0.7883792544334254
4278000000.0 0.6221818674128153 0.7905258561433018
4281000000.0 0.6639012884647012 0.7804882157327871
4284000000.0 0.6820446525244532 0.7569391304931139
4288000000.0 0.6677991871043464 0.7881571055527443
4291000000.0 0.664408813914996 0.7845509538266032
4294000000.0 0.6807326936358978 0.7542194547223027
4297000000.0 0.678587983571496 0.7314746250580164
4300000000.0 0.7044394989346485 0.7379567172437727
4303000000.0 0.7059680475754054 0.7350156651671609
4306000000.0 0.7091941575571307 0.7413690970974613
4309000000.0 0.7402826182700484 0.7009977799566801
4312000000.0 0.7051341718690324 0.7359626288594316
4316000000.0 0.7224455563517895 0.7130155241222991
4319000000.0 0.7224365627768747 0.7211536581574591
4322000000.0 0.7574614578631493 0.6771161655990898
4325000000.0 0.7341856670122993 0.6868859200990036
4328000000.0 0.7628859755444184 0.676321627885165
4331000000.0 0.8084363057437147 0.6542858096482015
4334000000.0 0.7645265938521446 0.6614597031271466
4338000000.0 0.7760332234080676 0.6858687163304726
4341000000.0 0.7714045214365197 0.685387484421279
4344000000.0 0.7881428823064747 0.6482899506667793
4347000000.0 0.8117212846614069 0.6415284387664673
4350000000.0 0.8126090319700852 0.5866608219251641
4353000000.0 0.7880286633614866 0.5993973268124555
4356000000.0 0.8063459610054071 0.6169302993891722
4359000000.0 0.7840574492420234 0.5857157363405066
4362000000.0 0.8349539998261379 0.5410559294672698
4366000000.0 0.8332589330766018 0.5828903414921289
4369000000.0 0.8361226238917838 0.533773343939983
4372000000.0 0.8330002309593514 0.5204252271866822
4375000000.0 0.8435035293495159 0.5623386468814451
4378000000.0 0.8366356632799267 0.5402945126726407
4381000000.0 0.8577433767927072 0.5534479302903487
4384000000.0 0.8886011124854556 0.5429862855749745
4388000000.0 0.8392173069309814 0.49136320477241696
4391000000.0 0.8666853335316258 0.5295774128633127
4394000000.0 0.8598743338580237 0.4768115880047489
4397000000.0 0.8866231299736256 0.48251592121905884
4400000000.0 0.9068227507883351 0.5056020049351923
4403000000.0 0.8889480998921937 0.48293825425381676
4406000000.0 0.9376894994229704 0.4309404090556809
4409000000.0 0.9152426587352829 0.46097974436425976
4412000000.0 0.916949350016638 0.42467436893970695
4416000000.0 0.9021194065355735 0.42467734241029886
4419000000.0 0.9367417473896517 0.4311534945450474
4422000000.0 0.8987903556102776 0.446960459125296
4425000000.0 0.922091961256817 0.4481379748790253
4428000000.0 0.9240990357961357 0.42068211890560814
4431000000.0 0.9662667671045215 0.41221745511872265
4434000000.0 0.9397984041500921 0.3898177579195204
4438000000.0 0.9579807754046801 0.3992743675038701
4441000000.0 0.9543604943398178 0.40115779656629297
4444000000.0 0.9305160018908338 0.35774602641876174
4447000000.0 0.9518221168856082 0.34030157269134065
4450000000.0 0.928361464332511 0.35238530145442826
4453000000.0 0.9864723990295714 0.33339931836076697
4456000000.0 0.9399815373790752 0.30084647326313796
4459000000.0 0.9240745821686993 0.283151840107003
4462000000.0 1.0162296582609034 0.3142416183483222
4466000000.0 1.0060094627220295 0.29620651970490175
4469000000.0 0.9813284480656507 0.2993184281461479
4472000000.0 1.0139038271231717 0.2554976434000654
4475000000.0 0.9500986149635257 0.2601503020745819
4478000000.0 1.0332421386665185 0.2645589455424465
4481000000.0 0.9743626884642614 0.23780088177159142
4484000000.0 0.984454844041134 0.18998652485232978
4488000000.0 0.9686261295267431 0.19549882419213382
4491000000.0 0.9809381598677401 0.21663281571614912
4494000000.0 0.9606783607759105 0.20205831126506563
4497000000.0 0.9923491243164253 0.20170638379040373
4500000000.0 0.994266322068194 0.19177014029576286
4503000000.0 1.0080574280641865 0.17498700558186317
4506000000.0 0.9622237068942843 0.15710694619351673
4509000000.0 1.0021294644910015 0.1379040350801538
4512000000.0 0.9849925989360211 0.13257086648330788
4516000000.0 1.0235821099141513 0.15916047812178236
4519000000.0 0.981888950236212 0.14087246711301793
4522000000.0 0.990393802895633 0.11505656209799645
4525000000.0 0.9911580590517406 0.14518784240255317
4528000000.0 1.0449451919297734 0.11135589748774136
4531000000.0 1.007794203941418 0.11322682649376799
4534000000.0 0.9857232486795395 0.08076132466333591
4538000000.0 1.0004460477781085 0.054724092021194465
4541000000.0 1.0038032322313337 0.014367223877368406
4544000000.0 0.9852686364676537 0.06841336954889116
4547000000.0 0.9905064531987582 0.06617890525294082
4550000000.0 1.0044463100819259 -0.008073285121982562
4553000000.0 1.0128850217473397 0.03325071334580012
4556000000.0 0.9694471052357805 -0.012909006783692757
4559000000.0 1.0016870358992933 -0.014028215922037221
4562000000.0 1.0258412933549084 -0.010625515101727878
4566000000.0 1.0163630888736355 -0.03096347795375974
4569000000.0 0.9796683673234178 -0.03907485803311862
4572000000.0 0.9924419354459906 -0.054884673654284996
4575000000.0 1.0198531435467775 -0.09809065560914369
4578000000.0 1.0227273055093722 -0.044915309321709916
4581000000.0 1.012515996902148 -0.09274209193028597
4584000000.0 0.9891243116105621 -0.08938748126555435
4588000000.0 1.0103423488556817 -0.07797660772902805
4591000000.0 0.9910431513126506 -0.08741256565817969
4594000000.0 0.9836186062900512 -0.12898697654010957
4597000000.0 1.016516707402562 -0.1354079171121082
4600000000.0 0.9563510876953083 -0.16244113998635729
4603000000.0 1.0002961247580373 -0.15088871313792457
4606000000.0 0.9883764311823837 -0.13168456348658525
4609000000.0 0.9960475543391821 -0.17010676313989265
4612000000.0 1.0283869870369882 -0.16921355410674982
4616000000.0 0.9688408179535561 -0.18853505554237845
4619000000.0 0.9961233157151844 -0.1535003465390518
4622000000.0 0.9916568829688508 -0.15619818645220637
4625000000.0 0.9218294088321153 -0.20237605348996152
4628000000.0 0.9477314934499336 -0.18887712098714235
4631000000.0 0.9356175623414404 -0.25671104020254054
4634000000.0 0.9615677037803071 -0.23030183581165836
4638000000.0 0.9596074710506023 -0.249874980007289
4641000000.0 0.9729885551807664 -0.24086648248426806
4644000000.0 0.9784782413245449 -0.2819911894644983
4647000000.0 0.9689572706220353 -0.2749164972805377
4650000000.0 0.9653444443904656 -0.30853562283576513
4653000000.0 0.9782523860678751 -0.3062175199591377
4656000000.0 0.9398148363865926 -0.3341973107749768
4659000000.0 0.934018877818303 -0.3184627373135839
4662000000.0 0.9674846824246008 -0.312238087732556
4666000000.0 0.9527416245413057 -0.33338466816649975
4669000000.0 0.947505478907807 -0.3114055495172162
4672000000.0 0.9098221559117567 -0.381943651101509
4675000000.0 0.9053579053998413 -0.38461189549069097
4678000000.0 0.9078781679875638 -0.3758607532432884
4681000000.0 0.910337073058419 -0.41546006331040974
4684000000.0 0.9008017746670576 -0.39860086629788544
4688000000.0 0.9150994354959308 -0.3907579592323349
4691000000.0 0.8928157558999459 -0.3757318580987701
4694000000.0 0.9027818958006177 -0.42785378893095066
4697000000.0 0.9039871964687587 -0.4151033413896311
4700000000.0 0.9427233236758445 -0.42147011310282834
4703000000.0 0.9211248901553746 -0.450533406121607
4706000000.0 0.8991688252001839 -0.4337714079148361
4709000000.0 0.8690660477056283 -0.4613311393462176
4712000000.0 0.8738782900277546 -0.4794498210617102
4716000000.0 0.8817614563642454 -0.4714443580459131
4719000000.0 0.8957567713019401 -0.4996645278408846
4722000000.0 0.899897898203015 -0.47098733330954945
4725000000.0 0.8473084161741468 -0.5030901337008957
4728000000.0 0.8355578515347588 -0.5203926823691676
4731000000.0 0.8515307869594724 -0.5131782628655935
4734000000.0 0.8588302295639426 -0.52968795318988
4738000000.0 0.8409251857635445 -0.540588437106517
4741000000.0 0.8403784948979001 -0.5275736232223883
4744000000.0 0.8346275986062972 -0.5870128765209254
4747000000.0 0.8483248472495197 -0.5662284182830551
4750000000.0 0.8049299157368404 -0.571666571247612
4753000000.0 0.8481683949197398 -0.5992534273306157
4756000000.0 0.8007629418980434 -0.5830320747232591
4759000000.0 0.8135911110182514 -0.610724543776308
4762000000.0 0.7941188276595423 -0.5783360882844372
4766000000.0 0.7829770762727346 -0.6107734254023203
4769000000.0 0.8130800006813051 -0.6263214943301983
4772000000.0 0.781996422031537 -0.6550893810091504
4775000000.0 0.7715523561201205 -0.6794161387345735
4778000000.0 0.8321432060182994 -0.6234757363464872
4781000000.0 0.7892642184538068 -0.6140190223896018
4784000000.0 0.7694379155165701 -0.648824412917231
4788000000.0 0.7728444115523305 -0.6669094933720662
4791000000.0 0.7382814355057348 -0.6860203761695015
4794000000.0 0.7753853560221773 -0.6756782601421405
4797000000.0 0.7231711161827796 -0.7031750693019486
4800000000.0 0.6971698508764285 -0.7074706097280854
4803000000.0 0.6956722789167842 -0.7159714588674053
4806000000.0 0.725849499360563 -0.708327593038447
4809000000.0 0.6969875508716108 -0.7311130686848083
4812000000.0 0.6803333365104309 -0.7296909580383917
4816000000.0 0.6871728073351147 -0.7162192848486351
4819000000.0 0.7181149124701232 -0.7339808801946973
4822000000.0 0.6946663247677562 -0.7638731184360852
4825000000.0 0.6857273458132565 -0.7651367788574355
4828000000.0 0.6777368293792604 -0.7363092680625795
4831000000.0 0.6374943875199642 -0.7974453542282185
4834000000.0 0.6674084947245841 -0.780142020911734
4838000000.0 0.6424213113631358 -0.7915212814348894
4841000000.0 0.6286304502605297 -0.777877484559011
4844000000.0 0.646753900663058 -0.7649752960184041
4847000000.0 0.6273045981013885 -0.7661541031830201
4850000000.0 0.6232313152707827 -0.8103520133000965
4853000000.0 0.6103850458746768 -0.7991074996880565
4856000000.0 0.5907507629700408 -0.8120813590176937
4859000000.0 0.6083052093077254 -0.8301938883662903
4862000000.0 0.6025068641513861 -0.7935251947133533
4866000000.0 0.5852034546186444 -0.829491820501783
4869000000.0 0.5772818326392003 -0.8513163600725798
4872000000.0 0.5424108112598611 -0.8785556991837359
4875000000.0 0.5932319284284748 -0.8486697747871266
4878000000.0 0.5430624439893968 -0.884620877570976
4881000000.0 0.5699836218531975 -0.8970348109545743
4884000000.0 0.5650373891464412 -0.8556939329358916
4888000000.0 0.5556645504253653 -0.8503275595140765
4891000000.0 0.5708961593439729 -0.8729146405049789
4894000000.0 0.5106034184579707 -0.8699080393861117
4897000000.0 0.5313504801322633 -0.885211013392793
4900000000.0 0.5000956972465416 -0.8750319885880141
4903000000.0 0.5175718741280226 -0.8840093088429783
4906000000.0 0.49193117331932057 -0.9117639688860362
4909000000.0 0.4648587142825591 -0.9159518218001176
4912000000.0 0.489221612146846 -0.9285872090732806
4916000000.0 0.49262059838616196 -0.9248369270147874
4919000000.0 0.49890734098034617 -0.9251737011252095
4922000000.0 0.5022964349136055 -0.9008503136299852
4925000000.0 0.4254939982830953 -0.926682968099438
4928000000.0 0.47683304158337175 -0.9007310828994083
4931000000.0 0.46856035394083795 -0.9377096689986106
4934000000.0 0.4056481491892319 -0.8848527358064344
4938000000.0 0.3889458459919305 -0.9465212148756736
4941000000.0 0.38819391111021434 -0.9233194675699979
4944000000.0 0.397758644966814 -0.8981068533010472
4947000000.0 0.3673274767809722 -0.9364480036488592
4950000000.0 0.3551481043275349 -0.939576262032894
4953000000.0 0.34454079666735904 -0.9746609103822127
4956000000.0 0.3560404614663292 -0.9503539331865906
4959000000.0 0.31237671503836184 -0.9538127715748668
4962000000.0 0.34198407664983466 -0.9818196087556346
4966000000.0 0.33812118691308535 -0.9751184268684001
4969000000.0 0.378568558989661 -1.0053806646517742
4972000000.0 0.3143809007460413 -0.9755577879690909
4975000000.0 0.3525437963581214 -0.9781470530774822
4978000000.0 0.2822947658473254 -1.007476509486936
4981000000.0 0.27052985766844484 -0.9756447944705582
4984000000.0 0.2843527000056187 -0.9600154380996677
4988000000.0 0.29324506127289407 -0.9903014699082248
4991000000.0 0.3248520703414318 -0.9662782777041193
4994000000.0 0.2972626534803187 -0.963109281198477
4997000000.0 0.20089446313796794 -1.0367783411092297
5000000000.0 0.2769064860286631 -1.0169754424757245
5003000000.0 0.24969960404574407 -1.040335183267736
5006000000.0 0.22369252661547992 -1.0532001368494934
5009000000.0 0.21647545322932446 -0.9938877477421039
5012000000.0 0.17488285815767246 -0.9721683079708328
5016000000.0 0.22046207995221317 -1.018067484423731
5019000000.0 0.1936581148454709 -0.9928865251668884
5022000000.0 0.18818722845179015 -0.9984790256499534
5025000000.0 0.18564714097166035 -1.0990340366810014
5028000000.0 0.1387861603205694 -1.012683096478174
5031000000.0 0.12506582578132996 -0.9979664458712877
5034000000.0 0.10673227560141658 -1.0698676987762539
5038000000.0 0.09158717864929182 -0.968321151801208
5041000000.0 0.1579339095358798 -1.032456999917219
5044000000.0 0.13212328839683668 -0.9760653989144387
5047000000.0 0.12526976078697888 -1.0258983355813127
5050000000.0 0.20926529903467025 -1.0201008431748386
5053000000.0 0.09796598036327683 -1.0806764740480121
5056000000.0 0.1400313420745396 -1.0248114995289708
5059000000.0 0.17167630603778705 -1.0031205866592159
5062000000.0 0.04104155871628312 -1.0369754682910157
5066000000.0 0.08556443604407911 -0.9928859233075518
5069000000.0 0.04012340439339347 -1.0318698467331202
5072000000.0 0.030110860434205258 -0.9711158380403468
5075000000.0 0.07029065068198592 -1.0487602620318637
5078000000.0 -0.016411608254860918 -1.0252615935407567
5081000000.0 -0.007527669681635998 -1.0281415252010526
5084000000.0 0.023182991342650255 -1.0677001777522361
5088000000.0 0.017194310759538145 -1.0509790397465317
5091000000.0 -0.022485577555580324 -1.025988984401926
5094000000.0 -0.0404129980628338 -1.0442044142220643
5097000000.0 0.028326090545717268 -1.0540790407140843
5100000000.0 -0.03200560150703572 -1.0085791854416566
5103000000.0 -0.04080992156482717 -1.025313929899716
5106000000.0 -0.013656691740187347 -1.1532747662011904
5109000000.0 -0.030040411727582827 -1.0361029796091514
5112000000.0 -0.09570985115136016 -1.029480147924744
5116000000.0 -0.019743195354998543 -0.9514082241128063
5119000000.0 -0.05622767328170875 -1.0428846684973685
5122000000.0 -0.09017892139239694 -1.0208344405614787
5125000000.0 -0.07612217604020734 -1.0383330978419814
5128000000.0 -0.11768758206625146 -1.0853722718412047
5131000000.0 -0.1079891766431845 -1.0131968399173585
5134000000.0 -0.11972380150360593 -1.0404214823479383
5138000000.0 -0.0989108574163408 -1.0547614357401476
5141000000.0 -0.09260149378434916 -0.9873051580913521
5144000000.0 -0.11523805147782527 -1.022640421137896
5147000000.0 -0.14549047520641994 -1.0572800443923258
5150000000.0 -0.13901906893379162 -0.9691923780347519
5153000000.0 -0.19243585067665742 -1.0072399645328503
5156000000.0 -0.15319689246692184 -1.0415398248171852
5159000000.0 -0.122393301386762 -1.0440639356056964
5162000000.0 -0.19869553840821869 -1.0026378086834555
5166000000.0 -0.23833566312968013 -1.0450312822620245
5169000000.0 -0.21569741483392899 -1.0313654408419026
5172000000.0 -0.19030140338137722 -1.009810445777165
5175000000.0 -0.20407671276010997 -1.0806199646469454
5178000000.0 -0.26950726360501565 -1.0060222723057324
5181000000.0 -0.18008498002028703 -1.0209964706987547
5184000000.0 -0.27754667677834616 -1.009904961903389
5188000000.0 -0.23657322607528755 -0.9822215885014953
5191000000.0 -0.30511364034870947 -1.0259526848599354
