! Created with skrf 1.8.0 (http://scikit-rf.org).
# Hz S RI R 50.0 
!freq ReS11 ImS11
4000000000.0 0.6217753067307022 0.8096293706185489
4003000000.0 0.7195395901444351 0.8331923304302793
4006000000.0 0.6731446834805758 0.8137346265796196
4009000000.0 0.6663891841184829 0.7826131291371585
4012000000.0 0.6232436971009901 0.8298508634095383
4016000000.0 0.7262593724090509 0.7991176342511026
4019000000.0 0.6946165790479677 0.7894292140352264
4022000000.0 0.6448092144133528 0.8278607476553396
4025000000.0 0.7773767126094705 0.7320096141656692
4028000000.0 0.7059537221164114 0.7680587047577878
4031000000.0 0.6653333589234647 0.7664196277711658
4034000000.0 0.6818754774334947 0.6994904745846534
4038000000.0 0.743975654458117 0.7385849230492292
4041000000.0 0.7260563747615458 0.754083470020536
4044000000.0 0.8163114626633471 0.7546468648282744
4047000000.0 0.7062720088493106 0.7534769162534967
4050000000.0 0.7975679876995716 0.7051373849949703
4053000000.0 0.7297995709615054 0.6679377654300385
4056000000.0 0.7364321668383507 0.7160520707433348
4059000000.0 0.7454542625014213 0.6892124840852349
4062000000.0 0.7640221596798199 0.6740186696434118
4066000000.0 0.7255911440918419 0.6415995103576132
4069000000.0 0.8557260687647198 0.7169191031622455
4072000000.0 0.7236665433681453 0.7020196879526579
4075000000.0 0.7977587669596587 0.7613325677980209
4078000000.0 0.8144064832349167 0.6494643412241783
4081000000.0 0.7702108476732651 0.7608224407019202
4084000000.0 0.8701716554271426 0.6319697891764202
4088000000.0 0.7640405017022107 0.6350220687873342
4091000000.0 0.8676945509767832 0.682797763426529
4094000000.0 0.8417420117884936 0.6501551149026694
4097000000.0 0.7988715814988874 0.6587255556767175
4100000000.0 0.846103656874094 0.6340283100718858
4103000000.0 0.811656365100996 0.6329380713025525
4106000000.0 0.9077433977162096 0.6316838476255418
4109000000.0 0.887100667983318 0.5807785208049843
4112000000.0 0.8179316259971452 0.6042336477137902
4116000000.0 0.8811958317529343 0.613505468522235
4119000000.0 0.8726428805668834 0.5752370108257593
4122000000.0 0.8629995911737339 0.5659403827548448
4125000000.0 0.896893654974401 0.5671550688565621
4128000000.0 0.8525100362446869 0.5642114270884045
4131000000.0 0.8424345686102456 0.5358061239356365
4134000000.0 0.8711783152172868 0.5468549298183754
4138000000.0 0.8507528258909898 0.4709497114321732
4141000000.0 0.9120985821882175 0.5346230813437559
4144000000.0 0.9170846343380479 0.5419688531310114
4147000000.0 0.894188169519702 0.4841273655556619
4150000000.0 0.9287475339731343 0.5285601583725428
4153000000.0 0.9213194658096198 0.49786720783547667
4156000000.0 0.9079006035350918 0.5173441887328833
4159000000.0 0.8626459988317707 0.4570544124525437
4162000000.0 0.9238572066347481 0.5033100230704886
4166000000.0 0.9348424649728688 0.4719367874998679
4169000000.0 0.9325267076918262 0.450858197265408
4172000000.0 0.9423534136565709 0.4322767533269681
4175000000.0 0.928668652425303 0.4594346986355811
4178000000.0 0.9629383808471549 0.45616609837266087
4181000000.0 0.9585930503272155 0.4451823720159632
4184000000.0 0.9311273707158126 0.4042184730014117
4188000000.0 0.9283199280836099 0.4151335230850972
4191000000.0 0.9384975775388377 0.42847118095543785
4194000000.0 0.9205887855186002 0.3731276636930305
4197000000.0 0.9574540097607194 0.40525075226966606
4200000000.0 0.9519214311882069 0.3921442519758006
4203000000.0 0.9379024011703004 0.3916154429349431
4206000000.0 0.9675340565934863 0.36947741627247915
4209000000.0 0.9369656883078439 0.3828874053737917
4212000000.0 0.9837786077782307 0.3249205681001799
4216000000.0 0.9556732332589237 0.3546036001354325
4219000000.0 0.9697334497386696 0.3514167762864945
4222000000.0 0.987036851654141 0.3216944191724939
4225000000.0 0.9776401778073314 0.33303866293096074
4228000000.0 0.9917269069841195 0.32671564638287076
4231000000.0 0.9741021132055995 0.3092862839896613
4234000000.0 1.0014360973483356 0.28589797983054327
4238000000.0 0.9880940113829665 0.27747304342852797
4241000000.0 0.9755185715023602 0.26181055598842273
4244000000.0 0.9928426458034791 0.2922130245571981
4247000000.0 0.9974199092836027 0.2774008865782558
4250000000.0 0.9717152918918206 0.2379563923744964
4253000000.0 0.9788623631121687 0.22863680297485084
4256000000.0 1.0271466036883883 0.24076832550142552
4259000000.0 0.9689466614294818 0.21354793962671023
4262000000.0 0.999904726062478 0.2152244649533364
4266000000.0 1.0133192223151388 0.1892039917292362
4269000000.0 1.0025256317298274 0.21994109024893435
4272000000.0 1.0001139110434656 0.18784284681083052
4275000000.0 0.9997189861641329 0.1708568922183381
4278000000.0 1.0337079755564464 0.18821920751546534
4281000000.0 1.0115582139828363 0.19684561781265597
4284000000.0 1.016327495696879 0.12691410048478194
4288000000.0 0.9954392197137525 0.18331866149898784
4291000000.0 1.0006891085526894 0.14198365306918198
4294000000.0 1.0239199163773434 0.13379678143953305
4297000000.0 0.9915749936745121 0.15681435521130244
4300000000.0 1.0188661713149918 0.12102847529293126
4303000000.0 1.0306460294854143 0.0950045424501018
4306000000.0 1.0156629673888635 0.11441510220476245
4309000000.0 1.0191961631512445 0.10817135840481469
4312000000.0 1.0402338355038725 0.12227424019782535
4316000000.0 1.0352389717401764 0.0902566043769057
4319000000.0 0.9908814820846247 0.07745644727005115
4322000000.0 1.0143879101462498 0.045220800856837925
4325000000.0 1.0237990869433513 0.060698933988267076
4328000000.0 1.0031215396196713 0.03810092435024161
4331000000.0 1.0394300677972041 0.0038576821401088146
4334000000.0 1.029626391848687 0.016926159388373857
4338000000.0 1.0223809119306833 0.024820774879359672
4341000000.0 1.0505248863143128 0.010129654137406768
4344000000.0 1.0570572727562826 0.005765882909917225
4347000000.0 1.0262778882421575 -0.02120451073628829
4350000000.0 0.9923276751238128 -0.007369794028950438
4353000000.0 0.9965957229500928 -0.017066046021047304
4356000000.0 0.9877304274134427 -0.045121107416718154
4359000000.0 0.9699300774446863 -0.03448128897216704
4362000000.0 1.010796418404816 -0.10164735852445558
4366000000.0 1.0283829699672746 -0.05365786696298172
4369000000.0 0.9865210921111599 -0.07992321291061734
4372000000.0 0.988865255594022 -0.10679980895650074
4375000000.0 1.0068731639764492 -0.07008634597019878
4378000000.0 0.9912522081946475 -0.10126779878171294
4381000000.0 0.9985878027790089 -0.10636291905556414
4384000000.0 1.0569768028069224 -0.1250749450273623
4388000000.0 0.9866932392176218 -0.098564140129744
4391000000.0 1.0021412181832094 -0.1326557516679843
4394000000.0 0.9654823029572837 -0.1361799818836974
4397000000.0 0.9831014650604235 -0.1557291717263162
4400000000.0 1.0305704535210904 -0.1583529216632989
4403000000.0 1.0129097643712657 -0.1691338040832706
4406000000.0 1.0024913494979169 -0.1895316094546391
4409000000.0 1.0382350573089387 -0.20488006075226922
4412000000.0 0.9681420634874738 -0.25070751445386313
4416000000.0 0.9825709101430704 -0.20858631784301299
4419000000.0 0.985461208925108 -0.2244724214118681
4422000000.0 0.9866283761629393 -0.21568183834488205
4425000000.0 1.0161765999867258 -0.20670854924132695
4428000000.0 0.9830251138155472 -0.2469630677187973
4431000000.0 1.015619148696832 -0.23411887492069025
4434000000.0 0.9695115005911646 -0.25285662571996137
4438000000.0 0.9922958126190784 -0.25888825384366465
4441000000.0 0.9852771926108008 -0.2718024946049148
4444000000.0 0.9567085711647423 -0.2741577817467016
4447000000.0 0.9568662678652355 -0.29625755539481474
4450000000.0 0.972100260421055 -0.28107064963227035
4453000000.0 0.9954904504599091 -0.297865185315194
4456000000.0 0.9409017042804091 -0.30428330524085423
4459000000.0 0.9210848308237019 -0.3350839462526741
4462000000.0 1.018032928393738 -0.34536775653809704
4466000000.0 0.9817891878185733 -0.34560618854702396
4469000000.0 0.9631348292941937 -0.32922611897172327
4472000000.0 0.9699055123044074 -0.38220943014667663
4475000000.0 0.9288958829615832 -0.3492791391934381
4478000000.0 0.9896640428970357 -0.40958269038133843
4481000000.0 0.9140969545619334 -0.3684486453527889
4484000000.0 0.9279577696059924 -0.4118802488956349
4488000000.0 0.9206468436472524 -0.41646731737299236
4491000000.0 0.9272346231374712 -0.4193917095910438
4494000000.0 0.9198786613097175 -0.39693742010353145
4497000000.0 0.9287732297319422 -0.38730666430191085
4500000000.0 0.9456743812063142 -0.42527743048694505
4503000000.0 0.9360294356785339 -0.4446265473736112
4506000000.0 0.9155713058544275 -0.434802737107319
4509000000.0 0.8922112327078282 -0.449346843116911
4512000000.0 0.8896282610375622 -0.4628671686300029
4516000000.0 0.9233188175429485 -0.46496570568938883
4519000000.0 0.8713851943234576 -0.4605342745113953
4522000000.0 0.8827645747801511 -0.48637206917712583
4525000000.0 0.9127201186782556 -0.45696198296579077
4528000000.0 0.900431370858197 -0.5168212219487704
4531000000.0 0.9035552486899057 -0.49247139677307017
4534000000.0 0.8648793105378851 -0.5070673712813359
4538000000.0 0.8635699806357164 -0.5165194345611928
4541000000.0 0.8441892034874049 -0.5639852408333683
4544000000.0 0.8556453098230707 -0.5232101616584145
4547000000.0 0.8562872755657284 -0.526689152727885
4550000000.0 0.8351501859120702 -0.5794982271459699
4553000000.0 0.8570193022075792 -0.5681712957830719
4556000000.0 0.8058542358699881 -0.5700147783943654
4559000000.0 0.8328873953895192 -0.5834561470649724
4562000000.0 0.8547857288319185 -0.5855780924089251
4566000000.0 0.829576574279544 -0.5932792604020918
4569000000.0 0.8044887800033099 -0.5744734263202835
4572000000.0 0.8054799465091614 -0.6179887718146408
4575000000.0 0.8087187161845637 -0.6325046008270653
4578000000.0 0.8182034705722145 -0.6175923763205788
4581000000.0 0.7947279910177624 -0.6577745639751615
4584000000.0 0.7755568587949233 -0.6307128593613636
4588000000.0 0.8106687633276748 -0.6487585370361962
4591000000.0 0.790896609796803 -0.6580967726006952
4594000000.0 0.7734150261208489 -0.6644985414746413
4597000000.0 0.7770938445544322 -0.664559650871764
4600000000.0 0.7383351609243228 -0.6941344363260681
4603000000.0 0.7750052172260558 -0.691529634244371
4606000000.0 0.7686388655573706 -0.6702463985720097
4609000000.0 0.7355589078810991 -0.6790944634023012
4612000000.0 0.7294477787207325 -0.7043334232191394
4616000000.0 0.7135615300454066 -0.7154694077665551
4619000000.0 0.7216917459717609 -0.7050765329146201
4622000000.0 0.7259082618201379 -0.7206899209089421
4625000000.0 0.6695037534622109 -0.7056326532309027
4628000000.0 0.7132542578750332 -0.7039385966541801
4631000000.0 0.6923850934858964 -0.7298171403625598
4634000000.0 0.7002671239021705 -0.7284679450722173
4638000000.0 0.6941601261321153 -0.7559612701809373
4641000000.0 0.6828060465809676 -0.7514999054246774
4644000000.0 0.668490724233949 -0.7579723015494081
4647000000.0 0.6746380114807132 -0.7559068469480477
4650000000.0 0.6469853943019712 -0.7737792095356658
4653000000.0 0.6749341334080391 -0.7852719621154818
4656000000.0 0.6458420000058815 -0.7846336645877083
4659000000.0 0.6424331350493987 -0.7976328480391814
4662000000.0 0.6140176379774946 -0.8124185698657809
4666000000.0 0.6175230432375015 -0.7952179869553979
4669000000.0 0.6365620958985396 -0.8161386835827521
4672000000.0 0.6133970074232215 -0.8301433183726666
4675000000.0 0.5835818165921292 -0.830021583288011
4678000000.0 0.5754512209970772 -0.8098091086281137
4681000000.0 0.5685073333211745 -0.8383496181491359
4684000000.0 0.5490920000433609 -0.8292062505464076
4688000000.0 0.5463706017635661 -0.8167103237161092
4691000000.0 0.5702490949574057 -0.8500832612543587
4694000000.0 0.5490841493697015 -0.8395945845201747
4697000000.0 0.5321662810856296 -0.8382839626465346
4700000000.0 0.5634055097420979 -0.8314101941412646
4703000000.0 0.5390489481300118 -0.8346161031913446
4706000000.0 0.5236715006593847 -0.8523925528767381
4709000000.0 0.5076780033281472 -0.871024100463533
4712000000.0 0.5377976880141706 -0.8779956057423814
4716000000.0 0.5289029878758768 -0.9101738487669759
4719000000.0 0.532682338349133 -0.9002108303734494
4722000000.0 0.5286966391961581 -0.8816386221977968
4725000000.0 0.5189211220805452 -0.9067523962200905
4728000000.0 0.47228226953137453 -0.913217530615376
4731000000.0 0.5009596436917602 -0.9445724250785472
4734000000.0 0.44981793983675733 -0.8846969529383144
4738000000.0 0.5113182097468603 -0.9650365022842619
4741000000.0 0.45161249945720705 -0.9336031268227686
4744000000.0 0.4288534519737973 -0.9312698721992005
4747000000.0 0.4172666901483054 -0.9316079730070115
4750000000.0 0.43136000443144545 -0.9254913753376651
4753000000.0 0.4225476904509177 -0.9207125887340973
4756000000.0 0.42612872136345314 -0.9678747429613432
4759000000.0 0.4363140300885182 -0.9476725023122803
4762000000.0 0.39948648131857134 -0.9923834083128199
4766000000.0 0.36833841876577417 -0.9444439783908432
4769000000.0 0.4089265208234616 -0.9676295481957079
4772000000.0 0.37889700117422936 -0.9529409964265617
4775000000.0 0.36933059709058347 -0.9988888958619451
4778000000.0 0.34818073467363625 -0.9758302374198392
4781000000.0 0.36421643560955036 -0.9443531939570127
4784000000.0 0.3403140496609409 -0.9353261316609228
4788000000.0 0.3102499319907262 -0.9819787484966951
4791000000.0 0.3150674191826213 -0.9596289077865358
4794000000.0 0.34262081886293544 -0.9894088504281842
4797000000.0 0.294923898352106 -0.9499294979208835
4800000000.0 0.287581642593838 -0.9705127686185933
4803000000.0 0.2745702699275008 -0.9757170614214605
4806000000.0 0.27802271065730794 -1.0165652945313453
4809000000.0 0.2670425351578428 -0.9931311490195157
4812000000.0 0.2149850153167939 -0.9754604444324921
4816000000.0 0.2875678088126617 -0.9565883002747613
4819000000.0 0.3001262796666829 -1.0183632177614994
4822000000.0 0.26926153636289946 -1.0307794105298507
4825000000.0 0.25811633465282713 -1.0192030822523745
4828000000.0 0.20296067385734226 -1.0119617187733994
4831000000.0 0.17720015931985156 -1.0283700507954205
4834000000.0 0.22230742750881605 -1.0157130917313848
4838000000.0 0.19552204584288724 -1.019025205072607
4841000000.0 0.16841664526144107 -1.002072486819424
4844000000.0 0.20395489399690261 -1.0279688299695096
4847000000.0 0.17350519681279647 -0.9932536693228593
4850000000.0 0.16713013551717545 -1.0472866339216034
4853000000.0 0.15884012205767223 -0.9969268155914701
4856000000.0 0.14864448513818931 -1.0070944602904086
4859000000.0 0.13966075680065412 -1.072193386567314
4862000000.0 0.14884874983880128 -1.0088296796330942
4866000000.0 0.11469623455055811 -1.0341779450749125
4869000000.0 0.10120557359839438 -1.0248361655076796
4872000000.0 0.08062960134237038 -1.077928138916998
4875000000.0 0.1436366496736625 -1.0605010431045836
4878000000.0 0.11427552014263634 -1.0319571610681169
4881000000.0 0.06733343575925212 -1.0865528677718517
4884000000.0 0.08099121336135601 -1.036436476718955
4888000000.0 0.12143947393392465 -1.0138167251140708
4891000000.0 0.081939853289094 -1.0526033115717421
4894000000.0 0.028048604979599774 -1.0383049397564421
4897000000.0 0.07510287865310684 -1.0026073115277316
4900000000.0 0.03559807582716179 -1.042812095512218
4903000000.0 0.03775570219774009 -1.0510404111722975
4906000000.0 -0.017283529212538083 -1.097689794391277
4909000000.0 -0.005717809456122033 -1.024069217642753
4912000000.0 -0.016061086913895843 -1.07264163150229
4916000000.0 -0.0069848328025940015 -1.077235777789128
4919000000.0 0.0233301572889337 -1.091903358464216
4922000000.0 0.012652815074331927 -1.061846938838089
4925000000.0 -0.038284965329259665 -1.0368296786089757
4928000000.0 0.0009786058976579415 -1.0405254346628907
4931000000.0 -0.03459163738258192 -1.0532695757667943
4934000000.0 -0.06773811417147989 -0.9696591098870395
4938000000.0 -0.1103349790425512 -1.0573651121394376
4941000000.0 -0.06684752761579581 -1.0019008535762726
4944000000.0 -0.06802630099293774 -0.9863973882219186
4947000000.0 -0.0627598128795353 -1.0199215334584129
4950000000.0 -0.11098708648366802 -1.0445823889585317
4953000000.0 -0.13542109082171194 -1.072960139888715
4956000000.0 -0.12991686125703383 -1.0214528963132772
4959000000.0 -0.12515053662509681 -1.004787372740672
4962000000.0 -0.14977017583251576 -1.0443919133151987
4966000000.0 -0.14398117686565126 -1.0587909341835748
4969000000.0 -0.15108048185107575 -1.0624977108539964
4972000000.0 -0.1964669078037206 -1.0213703158667113
4975000000.0 -0.13889666241536683 -1.0117949707836178
4978000000.0 -0.209553267549143 -1.0176858187519493
4981000000.0 -0.21289992696640495 -1.0531177335270896
4984000000.0 -0.17330683564752444 -1.0037811920899187
4988000000.0 -0.17262787902357918 -1.0330501092722484
4991000000.0 -0.1788013073684866 -1.0643114321598874
4994000000.0 -0.20613205878471158 -1.016612818687319
4997000000.0 -0.28974830670679846 -0.9695655460676886
5000000000.0 -0.22907499798465214 -1.0535774161839715
5003000000.0 -0.23696115916112043 -1.0562129929892359
5006000000.0 -0.2717120323410621 -1.0545031770207194
5009000000.0 -0.25727876311633024 -0.9821753208727814
5012000000.0 -0.28810170742717206 -0.9928336430313023
5016000000.0 -0.19319599045417113 -1.0344295287876182
5019000000.0 -0.2969506740840284 -0.9845521062096436
5022000000.0 -0.301968875861079 -0.9868366491705662
5025000000.0 -0.32484169719222983 -1.0717161122654557
5028000000.0 -0.33465793523701204 -0.9998823505195249
5031000000.0 -0.29059317213244507 -0.9893781064464123
5034000000.0 -0.3586053506109138 -1.0042942728802948
5038000000.0 -0.3434909416742159 -0.954859664492947
5041000000.0 -0.30051361034808466 -1.0287398347328582
5044000000.0 -0.3190642518164094 -0.9640330612406823
5047000000.0 -0.3488943006523411 -1.0128953891825407
5050000000.0 -0.2663440997542341 -0.9852258075873648
5053000000.0 -0.3935555073059762 -0.9955265002277636
5056000000.0 -0.3471640809452331 -0.969804594323429
5059000000.0 -0.3685890889228283 -1.0107910567512244
5062000000.0 -0.46677649773317664 -0.9564785196073702
5066000000.0 -0.34547345891433157 -0.955530922026864
5069000000.0 -0.3490766021594594 -1.0130787060186992
5072000000.0 -0.40079932781607214 -0.9271790167509328
5075000000.0 -0.3713354701047986 -1.0020921827216551
5078000000.0 -0.4686231602717245 -0.9560902001457277
5081000000.0 -0.4478576388688124 -0.9060361369218538
5084000000.0 -0.48386271961727234 -0.9567381674724864
5088000000.0 -0.4176997633133038 -0.9550938079903513
5091000000.0 -0.49386852596168723 -0.9269395969118863
5094000000.0 -0.4901640851051919 -0.9192854551923372
5097000000.0 -0.42151958442783344 -0.9470714813761285
5100000000.0 -0.43221567675182937 -0.909798943115116
5103000000.0 -0.5244770894457799 -0.9548314040978526
5106000000.0 -0.5279305501689888 -0.994314751571775
5109000000.0 -0.4692596459368876 -0.9524159299145072
5112000000.0 -0.5304030465340903 -0.8914316764036265
5116000000.0 -0.46059136119173943 -0.8685974586350202
5119000000.0 -0.5414579203674026 -0.9434965942907121
5122000000.0 -0.49602565124299225 -0.8956015172197129
5125000000.0 -0.48392029607196 -0.88893145775749
5128000000.0 -0.5742622185148222 -0.9066169751596245
5131000000.0 -0.5653713705065323 -0.8880004307455699
5134000000.0 -0.568296683450117 -0.9154233445393977
5138000000.0 -0.5195501212617019 -0.875455873292858
5141000000.0 -0.501820506505571 -0.8989606403077302
5144000000.0 -0.5327396922860039 -0.8638616459843868
5147000000.0 -0.6233163693634425 -0.9544182224789194
5150000000.0 -0.5644797091176055 -0.9432918761747376
5153000000.0 -0.582497574171549 -0.86243244748449
5156000000.0 -0.594813119124873 -0.8725986637689573
5159000000.0 -0.6321236733706345 -0.9232747758778366
5162000000.0 -0.5815624173466282 -0.808446838689848
5166000000.0 -0.6373705474982988 -0.8533298924318742
5169000000.0 -0.6450135347821766 -0.8666530062417923
5172000000.0 -0.6289119318040484 -0.8273381039720034
5175000000.0 -0.6431720622198935 -0.8660474069675546
5178000000.0 -0.644935428313508 -0.8286649524176891
5181000000.0 -0.6784357599464411 -0.8424530305249984
5184000000.0 -0.6431173634708184 -0.8190620405195688
5188000000.0 -0.6689150504045972 -0.8550698414314328
