! Created with skrf 1.8.0 (http://scikit-rf.org).
# Hz S RI R 50.0 
!freq ReS11 ImS11
4000000000.0 0.6088260413812984 0.7727049433872635
4003000000.0 0.6485483807201267 0.8331485423087946
4006000000.0 0.6692653444292158 0.7500181562241137
4009000000.0 0.6422606849038056 0.7908127500046288
4012000000.0 0.633635987757864 0.837559229085557
4016000000.0 0.7418609904355675 0.7957318917890137
4019000000.0 0.6674385874700441 0.7549082193525948
4022000000.0 0.6650511698237411 0.7766893344627602
4025000000.0 0.8047966651265572 0.7228217426545515
4028000000.0 0.7614270425603693 0.72952974034479
4031000000.0 0.6880543978389879 0.7217663822513585
4034000000.0 0.7443127113920278 0.7183216312810583
4038000000.0 0.7467683152071373 0.6983797571245141
4041000000.0 0.745519188748581 0.7253522325085033
4044000000.0 0.7362954823282574 0.7170742136478576
4047000000.0 0.787573776551691 0.7538192186930058
4050000000.0 0.7947263638423386 0.6777441231100412
4053000000.0 0.774118570915567 0.6854390099057173
4056000000.0 0.7658001414114228 0.7001172474047568
4059000000.0 0.7225428350726076 0.699415630708677
4062000000.0 0.8185370799337369 0.673141126001676
4066000000.0 0.7454018736669821 0.6030454189213599
4069000000.0 0.8006387110806993 0.6425445028536549
4072000000.0 0.7874315388067783 0.6579424017094919
4075000000.0 0.8047748337901677 0.7093539554778336
4078000000.0 0.8175727112107803 0.6862513906188901
4081000000.0 0.8408612085347483 0.7021596635972026
4084000000.0 0.8362992228371614 0.6327749733041823
4088000000.0 0.7613633733933618 0.6636233517747876
4091000000.0 0.8632008959510474 0.6475772199609677
4094000000.0 0.8468193404131372 0.6067222252225501
4097000000.0 0.8348578594809988 0.5779831276727159
4100000000.0 0.8204346811362702 0.5945026528787405
4103000000.0 0.8336757323596973 0.635250465355526
4106000000.0 0.8582062296201339 0.5866139203070129
4109000000.0 0.8613648071388595 0.5707507607243933
4112000000.0 0.892494438217299 0.5164030028470836
4116000000.0 0.8584326709928513 0.6128573875330124
4119000000.0 0.9308572009595222 0.5473348322696922
4122000000.0 0.8270293253577119 0.5540315372963577
4125000000.0 0.9342022298034682 0.5335155036932735
4128000000.0 0.8706080865205954 0.5371176132412344
4131000000.0 0.9069739315193451 0.5158101363383326
4134000000.0 0.8739643836701759 0.5270467305506737
4138000000.0 0.8781783099851548 0.5308260867307635
4141000000.0 0.9105389771503682 0.5141139300958593
4144000000.0 0.9081300726728787 0.5253355462786409
4147000000.0 0.9154682577034007 0.4870409177792346
4150000000.0 0.9032820749359463 0.5027359583028228
4153000000.0 0.9196283563878053 0.47341456919154357
4156000000.0 0.9157701807136012 0.48360288141687346
4159000000.0 0.8913661116466849 0.44552666134056734
4162000000.0 0.9207524917274457 0.46326885903621107
4166000000.0 0.9387800687004342 0.4223725547473237
4169000000.0 0.9571598460944414 0.3952477194164207
4172000000.0 0.9327215328759436 0.4407774440872834
4175000000.0 0.9366048291550123 0.4288747329429449
4178000000.0 0.9497630600371522 0.42330049264874925
4181000000.0 0.968071046701878 0.39417914875730653
4184000000.0 0.9384901961479125 0.4064042750712648
4188000000.0 0.9431702533697521 0.3938276458380575
4191000000.0 0.9382996214511886 0.41010985014797846
4194000000.0 0.9262379341971759 0.35694860111163174
4197000000.0 0.9705977906488092 0.368961323017524
4200000000.0 0.9655003599020315 0.3688172785949968
4203000000.0 0.9658397953781725 0.36840100121142805
4206000000.0 0.9782927627003112 0.3647824102195066
4209000000.0 0.9458027227032078 0.3301067823004576
4212000000.0 0.9844544800495448 0.3036556868491457
4216000000.0 0.9798679590642185 0.3308572066867102
4219000000.0 0.9780947412798148 0.3269210294082472
4222000000.0 1.0037895420488123 0.28538659862960325
4225000000.0 0.9723189481604568 0.3089109621201809
4228000000.0 0.9840689455429115 0.2821858009674447
4231000000.0 0.989566809155313 0.273258328111716
4234000000.0 0.9955750295797862 0.2539152562430384
4238000000.0 0.9918668185858387 0.24934326786567743
4241000000.0 0.9877266941273264 0.22865472814838728
4244000000.0 0.97252416372601 0.247958027992063
4247000000.0 0.9813855907676787 0.2442066343489352
4250000000.0 0.9779282306016903 0.208201105541647
4253000000.0 0.9732491950433448 0.20109332792823814
4256000000.0 1.022134801564956 0.21694953125338
4259000000.0 0.9549355039565917 0.19348131673989657
4262000000.0 0.9972733798443942 0.16616555118511936
4266000000.0 1.0150737431297725 0.17534221055534016
4269000000.0 1.0042890091546712 0.184221739769355
4272000000.0 1.0018561029515873 0.14398592627565662
4275000000.0 1.0152608983460232 0.1607889686167649
4278000000.0 1.031338686238833 0.13834115453158322
4281000000.0 0.9959490677871253 0.15758683339763274
4284000000.0 1.0073772238400251 0.10341393379604358
4288000000.0 1.0050593880039678 0.15972457224871495
4291000000.0 0.982090222151506 0.09034918495062776
4294000000.0 1.023037162819985 0.0983515138584486
4297000000.0 1.0059123462002788 0.11240902505725887
4300000000.0 0.9971614157020126 0.10349219647683042
4303000000.0 1.0022564325166725 0.07683143365959465
4306000000.0 1.022090616676027 0.0930360638378569
4309000000.0 0.99037617328126 0.05447030203805782
4312000000.0 1.0309341165095298 0.07937083344316301
4316000000.0 1.0170072353384279 0.051486454188517064
4319000000.0 0.9898932876944065 0.04139113519499822
4322000000.0 1.0074805800676696 0.01939077894418899
4325000000.0 1.0315242282788923 0.028872289262556153
4328000000.0 1.023089847939877 0.015644788928262668
4331000000.0 1.013279012963932 -0.020157562222700334
4334000000.0 1.0463512399747408 -0.02339375170564864
4338000000.0 1.0291638885386982 0.022920526200405564
4341000000.0 1.0539395082941785 0.014684245173723548
4344000000.0 1.0408569704344346 -0.034472074768267955
4347000000.0 1.0410168298522073 -0.06510091694997804
4350000000.0 0.9611326380464483 -0.04161564003312597
4353000000.0 0.9980877687839238 -0.029647661307252923
4356000000.0 0.9935230945800859 -0.08699484721305546
4359000000.0 0.9700883945632928 -0.07067121637398646
4362000000.0 1.0051444240157537 -0.13942576222158043
4366000000.0 1.0413453667315222 -0.11121055440314793
4369000000.0 0.9772647463422552 -0.12728333445511225
4372000000.0 0.978427976908574 -0.1659390074286834
4375000000.0 1.0178480891885693 -0.10842825547065353
4378000000.0 0.9799415292593399 -0.14399589186755812
4381000000.0 0.9806435580479225 -0.11807127353336312
4384000000.0 1.0679023270284085 -0.1756948179255083
4388000000.0 0.9830606527952355 -0.13352333013522757
4391000000.0 0.9938703899212444 -0.15817069858568977
4394000000.0 0.963772740039008 -0.17367448009028288
4397000000.0 0.966814473467875 -0.1910802490728512
4400000000.0 1.0134045569685721 -0.199384375392764
4403000000.0 1.004598681173468 -0.19493811417244414
4406000000.0 0.9849629102880292 -0.22848533295847084
4409000000.0 1.0348567089487937 -0.22595058975621907
4412000000.0 0.9661550628999881 -0.27093005404458037
4416000000.0 0.9602351253787815 -0.23718729141896064
4419000000.0 0.9790065240284336 -0.2613816176769837
4422000000.0 0.9690025559527837 -0.2350049853649328
4425000000.0 0.9995002909943348 -0.2464948743621382
4428000000.0 0.9636022916935045 -0.2744158986991021
4431000000.0 0.9991000996851096 -0.2802595124488964
4434000000.0 0.9628891062252152 -0.2860999471283078
4438000000.0 0.9843314853792211 -0.302618305345043
4441000000.0 0.978927778294727 -0.29239968493185176
4444000000.0 0.9364219615528147 -0.29984222359714774
4447000000.0 0.9518892538199353 -0.3441293506752122
4450000000.0 0.940121723774533 -0.30605511896504073
4453000000.0 0.9707183360832926 -0.3530300063669549
4456000000.0 0.9261208581878726 -0.34212993278887294
4459000000.0 0.907166400658475 -0.3655329584436984
4462000000.0 1.0102111245414749 -0.3900721378164812
4466000000.0 0.9638363785639993 -0.38913316775397566
4469000000.0 0.9582808033326256 -0.365577874834743
4472000000.0 0.9498048473283567 -0.3998272248817743
4475000000.0 0.9160174781597197 -0.3881963088856656
4478000000.0 0.9607738924832299 -0.4296549528057566
4481000000.0 0.8979512576636597 -0.4179633207280805
4484000000.0 0.891916789825894 -0.4395609526543647
4488000000.0 0.9032709098494455 -0.42360091399604366
4491000000.0 0.9199094370907093 -0.43818857913422726
4494000000.0 0.8856405920233263 -0.4321435011708821
4497000000.0 0.8936581713240768 -0.43479516785283673
4500000000.0 0.9037395204256238 -0.46835802684717887
4503000000.0 0.9237525429846154 -0.49080952349932355
4506000000.0 0.8704111566378403 -0.49166081740563267
4509000000.0 0.8674479110362379 -0.4821338237058894
4512000000.0 0.8508734650250266 -0.4986013815719097
4516000000.0 0.8985583913823512 -0.4910523862562214
4519000000.0 0.8451603684296852 -0.49298635875992924
4522000000.0 0.8641153686493026 -0.5029347759232214
4525000000.0 0.8714745379883198 -0.48612551313768915
4528000000.0 0.8937801935465388 -0.5425599735523323
4531000000.0 0.8659288927428958 -0.5321785452750953
4534000000.0 0.8280470462703267 -0.5390399857897076
4538000000.0 0.845182146379827 -0.549260119043163
4541000000.0 0.8037307240173124 -0.5857488457567229
4544000000.0 0.810873837089475 -0.5659579049647228
4547000000.0 0.8167452004728181 -0.5470907947026882
4550000000.0 0.8302521880922409 -0.5955646085392611
4553000000.0 0.8052582664857229 -0.6251227335128651
4556000000.0 0.7900955272853438 -0.5990708120663913
4559000000.0 0.8028440972398133 -0.6293414721288886
4562000000.0 0.8226635010951417 -0.6073037329794208
4566000000.0 0.8083907031350834 -0.62099823548426
4569000000.0 0.7670418806868534 -0.624657622751797
4572000000.0 0.7936300858098626 -0.6297380112596281
4575000000.0 0.794905414902547 -0.6616327947798142
4578000000.0 0.8175844134105006 -0.6653977128739718
4581000000.0 0.7607963753417301 -0.6619649372238566
4584000000.0 0.756330032563 -0.6622834396787555
4588000000.0 0.7833100272331815 -0.6842577885887339
4591000000.0 0.7640902582051021 -0.6475066070861665
4594000000.0 0.7369108284442442 -0.6905015540446366
4597000000.0 0.7516506061749133 -0.6942013717419645
4600000000.0 0.7206971841328889 -0.6991030078910494
4603000000.0 0.7157874863279057 -0.7047040459745028
4606000000.0 0.7338012728419017 -0.7119932613715849
4609000000.0 0.7180597551311146 -0.712963851720794
4612000000.0 0.7206413812614365 -0.7307151238336412
4616000000.0 0.6900532184970949 -0.7401098931330602
4619000000.0 0.699407532036182 -0.7304654630551538
4622000000.0 0.6794071569431087 -0.7529443214506789
4625000000.0 0.650537531136288 -0.7527982492108839
4628000000.0 0.6787940809638445 -0.7568019291108371
4631000000.0 0.6477636395789945 -0.777383654249347
4634000000.0 0.640839365714813 -0.7596150154307099
4638000000.0 0.6601639592952618 -0.7810639439271793
4641000000.0 0.6623933235860406 -0.7990512616797364
4644000000.0 0.6232665669642313 -0.7927969239945609
4647000000.0 0.6434526902584234 -0.7810534361049567
4650000000.0 0.5961327320919587 -0.7993756260537842
4653000000.0 0.6368583999910726 -0.797209764838243
4656000000.0 0.5975562399885384 -0.8109302030047099
4659000000.0 0.5782544075233311 -0.8365155241024727
4662000000.0 0.5982018752151301 -0.8310141530615944
4666000000.0 0.5843493930501356 -0.8238476676429035
4669000000.0 0.5815157980580203 -0.8189284109493336
4672000000.0 0.5624470925654567 -0.8553934660221808
4675000000.0 0.5551048049912356 -0.8705503271249765
4678000000.0 0.5405304317545108 -0.8294217874035932
4681000000.0 0.5454306939362359 -0.8673737664759569
4684000000.0 0.5326639415826924 -0.8645777357161228
4688000000.0 0.5141186136943308 -0.8643604353438349
4691000000.0 0.5513608468421082 -0.8612284094016402
4694000000.0 0.5374608654375614 -0.8616950926575566
4697000000.0 0.48302272474974906 -0.8590162923977047
4700000000.0 0.5088932904352487 -0.8383663490970314
4703000000.0 0.5177106204780633 -0.8523794497373041
4706000000.0 0.46047289211729747 -0.882898345493946
4709000000.0 0.4607571912583688 -0.8729500068774474
4712000000.0 0.4486642172751106 -0.9022194235088832
4716000000.0 0.4516637830565286 -0.9227267335800444
4719000000.0 0.487295275431861 -0.9130180772207146
4722000000.0 0.4516967192737802 -0.9038283733364902
4725000000.0 0.44182416219256326 -0.9133433324026035
4728000000.0 0.42381799477397386 -0.9205946670971639
4731000000.0 0.44901807522489345 -0.9337843926674045
4734000000.0 0.4391102169546527 -0.9089024186039425
4738000000.0 0.4449933633978401 -0.9776978025597701
4741000000.0 0.43187426151049313 -0.9415882412637974
4744000000.0 0.40716503589576514 -0.9552381237606948
4747000000.0 0.4032163913670306 -0.9283176219653672
4750000000.0 0.37931968378227665 -0.9197686377067199
4753000000.0 0.3883514888144462 -0.9247417016911786
4756000000.0 0.373210171205848 -0.9508868020741097
4759000000.0 0.37108792965595094 -0.9624643513950794
4762000000.0 0.311974616316856 -0.9849060894119547
4766000000.0 0.3299743849086024 -0.9745324669712138
4769000000.0 0.3420842362879996 -1.0109671416035615
4772000000.0 0.3508496953377419 -0.9720830718826156
4775000000.0 0.29220561886494584 -0.9998654953314687
4778000000.0 0.30521120047079764 -1.008991249976969
4781000000.0 0.30600902143167613 -0.9609512878395263
4784000000.0 0.3272502344978541 -0.9871699645591848
4788000000.0 0.30733388189257727 -1.0013537676053577
4791000000.0 0.26487500106936634 -0.9878590444083096
4794000000.0 0.2925855724501833 -0.9986826818539771
4797000000.0 0.23612432930143068 -0.9713477390249164
4800000000.0 0.2147179623203872 -0.9717774259944829
4803000000.0 0.21425079347463255 -0.985377429461846
4806000000.0 0.2285274101242858 -1.0172765330859144
4809000000.0 0.19100798228589552 -1.0110381416593333
4812000000.0 0.18862592225304908 -0.9847220891767805
4816000000.0 0.23469034607036743 -0.9746914923751617
4819000000.0 0.21682298754112025 -1.026805823279018
4822000000.0 0.20367988184241248 -1.0326146787029435
4825000000.0 0.20831886981204192 -1.003781308550109
4828000000.0 0.1765965258468441 -0.9947703391273469
4831000000.0 0.13133189872748827 -1.0526702319857073
4834000000.0 0.19297894402871107 -1.0228439095546797
4838000000.0 0.12435629425569952 -1.0262619999771794
4841000000.0 0.11358784808422284 -1.0058276889230848
4844000000.0 0.1679056263964134 -1.0264423094978634
4847000000.0 0.1531366819342581 -0.9815332644584736
4850000000.0 0.07633045322708162 -1.0657258398367555
4853000000.0 0.11083843913228311 -1.0012476731761846
4856000000.0 0.11815095500386458 -1.0072242060101049
4859000000.0 0.09720974731486152 -1.06514118215408
4862000000.0 0.09911611280928082 -0.9939212323134919
4866000000.0 0.06045083390241966 -1.0438238179236494
4869000000.0 0.05400103353493516 -1.0104851765199587
4872000000.0 0.0533569426759584 -1.067359614240534
4875000000.0 0.0836470724187842 -1.0587653257580933
4878000000.0 0.03416083000903731 -1.0416060518289507
4881000000.0 0.027797698243528825 -1.0878220849263025
4884000000.0 0.03954018806506202 -1.0161242385593556
4888000000.0 0.046119936135095914 -1.0339068121823247
4891000000.0 0.04374089198766169 -1.061377493491706
4894000000.0 -0.005619172991724873 -1.027554694470632
4897000000.0 0.012862485306292644 -1.0163067284941474
4900000000.0 -0.03174973879381627 -1.0528030893274605
4903000000.0 -0.02800713984306432 -1.0541165462026345
4906000000.0 -0.03555576114795508 -1.0701815694397203
4909000000.0 -0.08092668018296409 -1.0307196581612263
4912000000.0 -0.05990550282685829 -1.035761113912343
4916000000.0 -0.05449066005279119 -1.058387731039186
4919000000.0 -0.052834605480946206 -1.014390472106755
4922000000.0 -0.06382702109150001 -1.0496406034713184
4925000000.0 -0.11781365028956492 -1.0293398753913843
4928000000.0 -0.0300230565795966 -1.0250643585379522
4931000000.0 -0.09629423635937913 -1.043824355719692
4934000000.0 -0.08740937915753903 -0.9563379783369053
4938000000.0 -0.17151902216670378 -0.997970326707052
4941000000.0 -0.10994303243890328 -1.0045096288641724
4944000000.0 -0.12769102827974615 -0.9616685805009955
4947000000.0 -0.17138326443467003 -0.9846169041787959
4950000000.0 -0.17270946729544795 -0.9954643428970623
4953000000.0 -0.21239642020512373 -1.073156122688475
4956000000.0 -0.17102780316157107 -0.9906819452777059
4959000000.0 -0.2188013715773117 -0.9804516641226517
4962000000.0 -0.1650873130301306 -0.9994125759990177
4966000000.0 -0.178953158379553 -1.0338710831099498
4969000000.0 -0.21906302417143342 -1.0910767948478508
4972000000.0 -0.20745215178016294 -1.013233059815104
4975000000.0 -0.17201468499849595 -1.0034053836647565
4978000000.0 -0.22690648420541032 -1.0324911263324172
4981000000.0 -0.261865664852839 -0.9966221150252388
4984000000.0 -0.2241723195331964 -0.9823674024165034
4988000000.0 -0.23293020447167911 -1.008414904829984
4991000000.0 -0.2087391726615701 -1.020289309962649
4994000000.0 -0.24639037741232978 -0.9973766281162553
4997000000.0 -0.30199421091962225 -1.019497477150692
5000000000.0 -0.25590230895406463 -1.0374285292918932
5003000000.0 -0.2682303919360453 -1.0268656800076623
5006000000.0 -0.2874609430865048 -1.0533276909261275
5009000000.0 -0.2905437957416982 -0.9770614910735006
5012000000.0 -0.31925381133144154 -0.9867269279062056
5016000000.0 -0.29992608480491406 -1.0262778005108624
5019000000.0 -0.3369541611161254 -0.9842794711536507
5022000000.0 -0.33000971194847384 -0.9813272311230512
5025000000.0 -0.3650299597579781 -1.0557018155920466
5028000000.0 -0.3796599659170662 -0.9864229149648629
5031000000.0 -0.3755119634537335 -0.9900675120138008
5034000000.0 -0.39743027692033095 -0.9993737235969122
5038000000.0 -0.3643723803783726 -0.9613085537650772
5041000000.0 -0.3527034180952513 -1.0023469158034781
5044000000.0 -0.37507193622337154 -0.9312614479285531
5047000000.0 -0.38538571471264943 -0.9876343033808755
5050000000.0 -0.3148921929102704 -0.9367644725890447
5053000000.0 -0.45231936575355436 -0.9921191940503409
5056000000.0 -0.3867141963246076 -0.9713109489254337
5059000000.0 -0.37090557218527725 -0.9753131383754027
5062000000.0 -0.474368842774885 -0.9558879232312654
5066000000.0 -0.40895395492483544 -0.9127540771140452
5069000000.0 -0.4676812925841477 -0.9310627288760601
5072000000.0 -0.4275589284909991 -0.9028242383815972
5075000000.0 -0.45084291565726164 -0.9606570648233803
5078000000.0 -0.49835277072917167 -0.9381539506116725
5081000000.0 -0.4966995108915713 -0.9033663562262159
5084000000.0 -0.4585445912764968 -0.9401953252525874
5088000000.0 -0.47144502808112976 -0.9240261114326354
5091000000.0 -0.5329556599011329 -0.8932504185263446
5094000000.0 -0.5267654269283942 -0.9031597145047195
5097000000.0 -0.481579156678395 -0.9589142163369073
5100000000.0 -0.511479260825096 -0.9301626896664713
5103000000.0 -0.5254437246650737 -0.8686060341075991
5106000000.0 -0.5274115654052486 -0.9118172012175134
5109000000.0 -0.47294656858147177 -0.9248943383622508
5112000000.0 -0.5620024433429773 -0.8767181872956822
5116000000.0 -0.5444865006726914 -0.8435774138763654
5119000000.0 -0.5447622823230927 -0.9152488180465108
5122000000.0 -0.5536048327150725 -0.8771824251164959
5125000000.0 -0.5441732199699968 -0.8629260070403636
5128000000.0 -0.5561824141379601 -0.8282103060963277
5131000000.0 -0.5724335630122602 -0.838549550598157
5134000000.0 -0.5758260598834851 -0.8801118284343282
5138000000.0 -0.5438531738229323 -0.8703745370485493
5141000000.0 -0.5924020442218347 -0.8886622523044294
5144000000.0 -0.6143750918816301 -0.8887341719215924
5147000000.0 -0.6484960833671302 -0.8712673480381669
5150000000.0 -0.6093482434371352 -0.9049951780134222
5153000000.0 -0.6216874099870999 -0.8418191450953814
5156000000.0 -0.6461356827875426 -0.8303284744478022
5159000000.0 -0.6727819641254983 -0.8790033798028097
5162000000.0 -0.6485298029831289 -0.782718751237871
5166000000.0 -0.6933700202225147 -0.7949200139754303
5169000000.0 -0.656570779617575 -0.8327123332513297
5172000000.0 -0.6704565959264839 -0.7707947120666966
5175000000.0 -0.67133025728598 -0.8265861970145761
5178000000.0 -0.6927804847820125 -0.7782767348042503
5181000000.0 -0.6902401566395403 -0.7877539180366447
5184000000.0 -0.7108636473473947 -0.7802885124836961
5188000000.0 -0.6982000801524147 -0.7592630015416312
