! Created with skrf 1.8.0 (http://scikit-rf.org).
# Hz S RI R 50.0 
!freq ReS11 ImS11
4000000000.0 0.6169329913678113 0.8146465670240974
4003000000.0 0.6882969069578494 0.8535380803019905
4006000000.0 0.6663262452739628 0.8107717518982398
4009000000.0 0.6536425132653381 0.8085460247637241
4012000000.0 0.6955429966056043 0.891559789682907
4016000000.0 0.705403396425925 0.7437611450795536
4019000000.0 0.713135445636387 0.7666118256004526
4022000000.0 0.6526861585929475 0.8439369821607966
4025000000.0 0.7419206104094891 0.7257511645256511
4028000000.0 0.7131122294015746 0.7675452192351557
4031000000.0 0.6624638265126233 0.7515041054532664
4034000000.0 0.7314610005086464 0.787129950663983
4038000000.0 0.7141738291944728 0.7597474001954396
4041000000.0 0.6976195460671002 0.7159434839573485
4044000000.0 0.7858761351915499 0.7727282317684254
4047000000.0 0.6982144973669597 0.7662868617089404
4050000000.0 0.7827997502206199 0.695923898761114
4053000000.0 0.7447056584038737 0.6439939910162227
4056000000.0 0.7296046671969004 0.7298288012336412
4059000000.0 0.7346233191438694 0.6816432277375142
4062000000.0 0.7710291010688872 0.6782395416813525
4066000000.0 0.7115507289867757 0.648340316886814
4069000000.0 0.8339289412147227 0.6914057749090743
4072000000.0 0.7462747529289152 0.7101968150441735
4075000000.0 0.7961927796660851 0.7422165400961283
4078000000.0 0.8318849729729292 0.6769003000730287
4081000000.0 0.7471002344721319 0.7211042195251969
4084000000.0 0.8101740165165171 0.6788568238677017
4088000000.0 0.7800395774170096 0.6721886228774647
4091000000.0 0.8912437933579451 0.6740890546907343
4094000000.0 0.7841092714994875 0.6400000475994502
4097000000.0 0.826554458268703 0.6228214256201023
4100000000.0 0.819906051119968 0.6307132509681055
4103000000.0 0.8552953977230211 0.6396433890463165
4106000000.0 0.8584918487240422 0.5783515641237013
4109000000.0 0.8467235697310616 0.5988471551446295
4112000000.0 0.8187370442442587 0.606161417984419
4116000000.0 0.8394565820425989 0.6210340511644359
4119000000.0 0.867766476507009 0.5351409017932519
4122000000.0 0.9114150867452808 0.5525291135947852
4125000000.0 0.8880856969096782 0.5286724488567229
4128000000.0 0.8220185388343062 0.5466305796268277
4131000000.0 0.8648963072149038 0.5270759716937606
4134000000.0 0.8767865810396238 0.5234605506861191
4138000000.0 0.8835954384124298 0.5119004830684499
4141000000.0 0.9153784775221118 0.5146268144322766
4144000000.0 0.8914602271401584 0.5466460967462448
4147000000.0 0.900468513534559 0.5060878414954804
4150000000.0 0.9318896819015892 0.5293706067254809
4153000000.0 0.9032685786336033 0.44897787008056156
4156000000.0 0.9063818987563574 0.5456221743467801
4159000000.0 0.8725213236569247 0.4782666460298491
4162000000.0 0.900615073910098 0.4901241805719706
4166000000.0 0.9246894614493788 0.49258254745786645
4169000000.0 0.9191178895953094 0.4143801993906371
4172000000.0 0.8974326275133708 0.47612587582763993
4175000000.0 0.9368852377834497 0.4530797117147101
4178000000.0 0.9362471213347554 0.4568914348773393
4181000000.0 0.9321561926855559 0.40145046633862647
4184000000.0 0.952516674030842 0.4413048194659707
4188000000.0 0.9230416605640743 0.3882795865301629
4191000000.0 0.9148557314707005 0.4430502155644446
4194000000.0 0.9275878647325286 0.39647554928974793
4197000000.0 0.9538139056743028 0.398668649024934
4200000000.0 0.9366460040642581 0.39053635589737246
4203000000.0 0.960234648763361 0.3922462606329734
4206000000.0 0.957621649120271 0.38717975420680867
4209000000.0 0.9351013149464303 0.3521385681180947
4212000000.0 0.9663512161249012 0.33330055855720053
4216000000.0 0.9699668831253848 0.35864727038796046
4219000000.0 0.9780399411597386 0.3553656371401869
4222000000.0 0.9793881205202075 0.31365964952006137
4225000000.0 0.9648734373506669 0.32835278661719214
4228000000.0 0.9866210912728677 0.3291866242570316
4231000000.0 0.9606918955980048 0.3177389423213226
4234000000.0 0.9873517448604082 0.30318370339478645
4238000000.0 0.9868545124654565 0.26960299057798964
4241000000.0 0.9781336589793055 0.27443480119793
4244000000.0 0.9534954324957082 0.2885675724984792
4247000000.0 0.983059229978229 0.25702807043276565
4250000000.0 0.9559436823045577 0.23630163863347275
4253000000.0 0.9759825745076576 0.23165906950199783
4256000000.0 1.015185361698854 0.2507242097277925
4259000000.0 0.957078877529014 0.2251682618804459
4262000000.0 0.9881746920709038 0.19657583596647668
4266000000.0 1.0368429120949743 0.2049282435640294
4269000000.0 0.9845415822377146 0.20063123448752665
4272000000.0 0.9940712618744615 0.2079156695139876
4275000000.0 1.0106576538846104 0.19084047796578002
4278000000.0 1.0440423769348979 0.19839375868378334
4281000000.0 1.014130276922562 0.1794754305261967
4284000000.0 1.0127451114751662 0.15010069247676724
4288000000.0 1.005301249608767 0.17479617330561803
4291000000.0 0.9766337506200142 0.14626107467793925
4294000000.0 1.007595408939425 0.1147163241377878
4297000000.0 1.0004792675609633 0.1709431517108957
4300000000.0 1.0026396833707594 0.1463243194208416
4303000000.0 0.9855521744596791 0.11039214353906883
4306000000.0 1.0241183955167514 0.14656414657473524
4309000000.0 1.0348456816465053 0.09131043102581492
4312000000.0 1.0426017755375947 0.12050612177120504
4316000000.0 1.030048940058024 0.09975086021721548
4319000000.0 0.9814924425468757 0.07676296843610185
4322000000.0 1.0145051967282166 0.04707758719417472
4325000000.0 1.044327913377179 0.06713792743082357
4328000000.0 0.9961862325517832 0.050103570352341045
4331000000.0 1.0350017797257283 0.023091880747210247
4334000000.0 1.0392609146421938 0.014382792685605716
4338000000.0 1.017834323197408 0.04948097362797489
4341000000.0 1.0425223498592011 0.016721503166130164
4344000000.0 1.0456208986191096 0.019470138875041787
4347000000.0 1.020664039307084 -0.02640990484299116
4350000000.0 0.9830981397454127 -0.0360697193419314
4353000000.0 1.0077670618211758 0.003074743061563523
4356000000.0 1.0142909038500507 -0.04352859224957081
4359000000.0 0.9521784525769499 -0.019837861869703044
4362000000.0 1.0245648376553722 -0.11680601608622465
4366000000.0 1.0295087395256777 -0.06841525576838511
4369000000.0 0.984652652155104 -0.07853442741764345
4372000000.0 1.0039672745590043 -0.12260638176526036
4375000000.0 0.9966689752539513 -0.0598971704959638
4378000000.0 0.9864614497593459 -0.09337665442385548
4381000000.0 0.9922668905989276 -0.06452998288728803
4384000000.0 1.0735211940276288 -0.12240513749747836
4388000000.0 0.9803474342423015 -0.1084514708849491
4391000000.0 1.0159803075177323 -0.119430811971581
4394000000.0 0.9759565719432095 -0.15817730531516358
4397000000.0 0.9962098081461526 -0.14555796467693644
4400000000.0 1.0284795485243297 -0.15639647504226079
4403000000.0 1.0025054853963238 -0.1563919645147701
4406000000.0 1.011033914500681 -0.19811391982304027
4409000000.0 1.0237035484557804 -0.18460960912794372
4412000000.0 0.9791611426769484 -0.23099767337792892
4416000000.0 0.9860317402125769 -0.2019725955973847
4419000000.0 0.9894018952891367 -0.23402377393817314
4422000000.0 0.9774221206930638 -0.19954775029237323
4425000000.0 1.0229370290863453 -0.19420691376190305
4428000000.0 0.988255751843234 -0.23537081682371
4431000000.0 1.0033049097490359 -0.232050136498146
4434000000.0 0.9651415963964101 -0.27026881939723646
4438000000.0 0.9938292007131733 -0.2696342512561544
4441000000.0 0.9912703823612654 -0.2684390832364398
4444000000.0 0.9548395561044871 -0.26507864609992043
4447000000.0 0.9502386016737554 -0.28993749739789854
4450000000.0 0.9632427092933027 -0.25674425364499487
4453000000.0 0.9964344796891043 -0.30228864612380935
4456000000.0 0.9347726886463509 -0.3159585965814471
4459000000.0 0.9145697994577968 -0.32606349403471535
4462000000.0 1.0173683367878603 -0.3487033228209139
4466000000.0 0.9938869882096427 -0.3696821806483397
4469000000.0 0.951597724895087 -0.33751320383833
4472000000.0 0.9606259261896569 -0.3919174761702572
4475000000.0 0.9280504305001743 -0.3546591188065221
4478000000.0 0.9868005584942618 -0.4086142525644785
4481000000.0 0.9089023818205287 -0.3841122750831672
4484000000.0 0.917063312109428 -0.41861268438322485
4488000000.0 0.9214784827963866 -0.4062602840691602
4491000000.0 0.9273685819535507 -0.4295680872227964
4494000000.0 0.9127599136293667 -0.4056618450244956
4497000000.0 0.9246315639756058 -0.423739831849328
4500000000.0 0.9172341287140127 -0.41971960505696054
4503000000.0 0.9430222871803828 -0.4338620515547541
4506000000.0 0.9023720222001632 -0.46051519293576937
4509000000.0 0.8881647729961304 -0.4258901450079752
4512000000.0 0.9046811781874 -0.46441080341018337
4516000000.0 0.9176206833294104 -0.4812139455230564
4519000000.0 0.8729202450635815 -0.467344232102071
4522000000.0 0.879107892243131 -0.49829272522223456
4525000000.0 0.9053471487092906 -0.4341490748487704
4528000000.0 0.9181547530196361 -0.5093464360633185
4531000000.0 0.8815003727103087 -0.4860003115261694
4534000000.0 0.8379579894236285 -0.48747548814204233
4538000000.0 0.8450352525321558 -0.532481666411181
4541000000.0 0.8357399814184151 -0.5538739520112724
4544000000.0 0.8453201897294198 -0.5448228610433066
4547000000.0 0.8625486543859952 -0.5294251135262806
4550000000.0 0.8551307248846753 -0.560303174526773
4553000000.0 0.852290669009206 -0.5707513948024502
4556000000.0 0.8043476139361974 -0.5648221125688575
4559000000.0 0.8249174686405311 -0.5793422975980307
4562000000.0 0.8241562492064274 -0.6000098674843379
4566000000.0 0.8338914311338903 -0.6056752954175912
4569000000.0 0.8060566185991698 -0.5898308654784448
4572000000.0 0.7998123818718773 -0.5932813698401488
4575000000.0 0.7903458959821161 -0.610026707708646
4578000000.0 0.8302040256484349 -0.6090341329710645
4581000000.0 0.7973736921866863 -0.6580567439854058
4584000000.0 0.7765746027189221 -0.6407933501189654
4588000000.0 0.800679466400244 -0.6552563878696421
4591000000.0 0.7819903740137392 -0.6336103298014543
4594000000.0 0.7355655535590344 -0.6649689024661601
4597000000.0 0.7774661834373964 -0.6659501150670496
4600000000.0 0.7321845196206359 -0.6872599686471298
4603000000.0 0.7494744848200419 -0.6864498033527215
4606000000.0 0.7697505875649603 -0.6805583624013906
4609000000.0 0.7457052113852727 -0.693934167942532
4612000000.0 0.7362668387071655 -0.6998018133474206
4616000000.0 0.7227155207026204 -0.6886708307195826
4619000000.0 0.7260968133957989 -0.7080538322583797
4622000000.0 0.7185713618474916 -0.7207847033798571
4625000000.0 0.696081068643715 -0.7125188164243934
4628000000.0 0.7158228982772871 -0.7107177155358825
4631000000.0 0.676036012831879 -0.7300444875654364
4634000000.0 0.6890701191828315 -0.7409602683993884
4638000000.0 0.6896175027582281 -0.7439792540490421
4641000000.0 0.6843651561083728 -0.7501527556294446
4644000000.0 0.6755437628734577 -0.7518974891290796
4647000000.0 0.6721377794528542 -0.7720109831566726
4650000000.0 0.6483510001669714 -0.7745254724524673
4653000000.0 0.6763755782153579 -0.7726029548245699
4656000000.0 0.6524401069427299 -0.7763881087936029
4659000000.0 0.6184786532505736 -0.7895437629631934
4662000000.0 0.6507112212125651 -0.7975819894432967
4666000000.0 0.6138352048614308 -0.8106139379411933
4669000000.0 0.6317314066963773 -0.789282084826878
4672000000.0 0.5969322323194514 -0.8323950823836802
4675000000.0 0.591305938412944 -0.8389403490926107
4678000000.0 0.6026423934571259 -0.8028809371646389
4681000000.0 0.5844657379183898 -0.8410812506619934
4684000000.0 0.5398150771794581 -0.8493055325454156
4688000000.0 0.5538116812516246 -0.8231842621616408
4691000000.0 0.6066832919107259 -0.826310735648103
4694000000.0 0.5815372314342487 -0.8369393990457756
4697000000.0 0.5107900073696677 -0.8538875323426982
4700000000.0 0.5712529630978488 -0.8429318269669652
4703000000.0 0.5532684553825896 -0.8306736649882764
4706000000.0 0.5340476766485092 -0.8629746257001781
4709000000.0 0.48111295250623304 -0.8411373820965222
4712000000.0 0.5223344039052334 -0.863482282777167
4716000000.0 0.4993459917777848 -0.9051052185294461
4719000000.0 0.5278490097340462 -0.8886129532240457
4722000000.0 0.5012049184215113 -0.8955998607600735
4725000000.0 0.47558719551628825 -0.8967338970233375
4728000000.0 0.4520891180530968 -0.9151745622754834
4731000000.0 0.5075066810965287 -0.8988208970346936
4734000000.0 0.4799672578314207 -0.8801680216651906
4738000000.0 0.4522579595495052 -0.9405370930760808
4741000000.0 0.45011852546975895 -0.9374494961347388
4744000000.0 0.4137437444680995 -0.944566451277744
4747000000.0 0.4260815878230112 -0.879329896826974
4750000000.0 0.4210510717500603 -0.9337259110489704
4753000000.0 0.43298805055200373 -0.9554768116734811
4756000000.0 0.40139375619936163 -0.9291705987849141
4759000000.0 0.4146606336532899 -0.9733883908190677
4762000000.0 0.35442321717107117 -0.9787021891756204
4766000000.0 0.40641263633022123 -0.9430238082234175
4769000000.0 0.4256697963348963 -0.9632548874541987
4772000000.0 0.35658817164377105 -0.9412474325116735
4775000000.0 0.37323307611201156 -1.0248716728896488
4778000000.0 0.3702452334003582 -0.9705437394597948
4781000000.0 0.36767694644232857 -0.9327716144346683
4784000000.0 0.3577711601254396 -0.9513788710320347
4788000000.0 0.3236948584979543 -0.9880494278841636
4791000000.0 0.33171532071973103 -0.9593953353721995
4794000000.0 0.35488767476856803 -0.9903447670631413
4797000000.0 0.2706377706010829 -0.9694770855811393
4800000000.0 0.2893452119569424 -0.9815575867845827
4803000000.0 0.279926620378196 -0.9855388440253896
4806000000.0 0.25540002789181054 -1.0133117814542834
4809000000.0 0.24894733385255507 -0.9758470740580355
4812000000.0 0.21640168152301914 -0.9805678375884455
4816000000.0 0.2635196399200267 -0.9876683719726651
4819000000.0 0.2652435073664399 -0.9969824118180481
4822000000.0 0.23168895344209028 -1.0158588834608757
4825000000.0 0.23112489888371152 -1.022793422779676
4828000000.0 0.21103441222348918 -1.0004949722252414
4831000000.0 0.18695460020524196 -1.0286261948978046
4834000000.0 0.23486031961580472 -0.9961772106355453
4838000000.0 0.19386949832748807 -1.0172263918623763
4841000000.0 0.17348376204939414 -0.9963533632208944
4844000000.0 0.20768851947575984 -1.0048370521282666
4847000000.0 0.19090938507239485 -0.9690611314901474
4850000000.0 0.15462345630372182 -1.040032317808928
4853000000.0 0.16305498883635527 -1.0000092910402638
4856000000.0 0.15520447197434922 -1.0070905814370725
4859000000.0 0.14763281933694827 -1.0491162181531575
4862000000.0 0.15329000459052627 -0.9869069809240435
4866000000.0 0.11799884648002279 -1.0392330152092903
4869000000.0 0.1021164614759599 -1.0154535402475657
4872000000.0 0.08545609472102088 -1.0601962478653515
4875000000.0 0.16078609840976132 -1.057535484701113
4878000000.0 0.08898031282685101 -1.0124214694988518
4881000000.0 0.06158831502515142 -1.0894970238055615
4884000000.0 0.10079837382627893 -1.016652537086936
4888000000.0 0.09704496289315107 -1.0458174900757335
4891000000.0 0.06183961399008883 -1.0640853188688353
4894000000.0 0.05037127338985719 -1.0112440695578147
4897000000.0 0.07204942902536428 -1.0176583962439947
4900000000.0 0.08043860989216661 -1.0347617225809138
4903000000.0 0.027799355474962872 -1.0513226484424034
4906000000.0 0.02486606678638073 -1.0764226146422498
4909000000.0 0.005099881640731649 -1.054120650075741
4912000000.0 -0.040577552719050045 -1.0787931290680843
4916000000.0 0.0013546498081826452 -1.045019364046425
4919000000.0 0.008732719621395435 -1.0619488451709296
4922000000.0 -0.002836821329311928 -1.0605819500847367
4925000000.0 -0.06017459845162727 -1.0336704157557135
4928000000.0 0.03535173455446923 -0.9901903324851494
4931000000.0 -0.003831621697693563 -1.0609797111830808
4934000000.0 -0.038436198745607816 -0.9850480809829557
4938000000.0 -0.09791805485416018 -1.025711751602588
4941000000.0 -0.07470053988973356 -1.0192052091903547
4944000000.0 -0.0595680956774674 -0.9769933754968785
4947000000.0 -0.09771845233956694 -0.9842299814189536
4950000000.0 -0.07808743910607495 -1.0068616194694109
4953000000.0 -0.13736969878665695 -1.0395558765927913
4956000000.0 -0.1488815582146361 -1.031435133470576
4959000000.0 -0.1272889579582687 -1.0142995403182662
4962000000.0 -0.13005625179829053 -1.0454582255544254
4966000000.0 -0.12396411768320253 -1.028262578309965
4969000000.0 -0.11289356862693117 -1.055548126028186
4972000000.0 -0.1778172412238672 -1.0230834756731
4975000000.0 -0.11867289525054389 -1.0287800673488954
4978000000.0 -0.14914211162133906 -1.015175801685343
4981000000.0 -0.24261325848371798 -1.0567323380472096
4984000000.0 -0.16868393896296355 -0.9899773858607419
4988000000.0 -0.190021665156567 -1.0142467433654332
4991000000.0 -0.19857946428066364 -1.0443161540085202
4994000000.0 -0.1880556311351091 -1.0315794455117326
4997000000.0 -0.24267944958861326 -1.0152320163513187
5000000000.0 -0.21765909237497888 -1.0466776814659664
5003000000.0 -0.24131720737041512 -1.0498050124274159
5006000000.0 -0.27207622699194645 -1.066801830561255
5009000000.0 -0.254960296434553 -1.0133058347330035
5012000000.0 -0.2749346184206025 -1.0105707045047558
5016000000.0 -0.26323510703494285 -1.0606790553414813
5019000000.0 -0.3050671062756459 -0.9737238869184146
5022000000.0 -0.27779681999599015 -1.0154301868959719
5025000000.0 -0.3105237519678788 -1.0995491600710587
5028000000.0 -0.33235308336916847 -0.9955478813000342
5031000000.0 -0.3487562121714004 -0.9723782201656629
5034000000.0 -0.36141366682987286 -1.0349588981829405
5038000000.0 -0.32610497230345725 -0.9360449199608243
5041000000.0 -0.29138337512565105 -0.9913702060709441
5044000000.0 -0.2950722647176487 -0.9786382486655195
5047000000.0 -0.32427039084594206 -1.0038330789015766
5050000000.0 -0.2428708342645313 -0.9956034375803176
5053000000.0 -0.4093421300745951 -1.0222198692393487
5056000000.0 -0.31273724610751474 -0.995829520926834
5059000000.0 -0.3016268639208802 -1.0019412891636628
5062000000.0 -0.39725017657125183 -0.9677192962975623
5066000000.0 -0.32003016518475647 -0.9949331831933403
5069000000.0 -0.395794228158886 -0.9506236113885022
5072000000.0 -0.3661040821163174 -0.9615745611536983
5075000000.0 -0.35251835839330503 -0.9680936267054732
5078000000.0 -0.4395532530535102 -0.9442249719139992
5081000000.0 -0.4260160852373686 -0.8926214920842183
5084000000.0 -0.45324185390385274 -0.9833112442375611
5088000000.0 -0.402258238683723 -0.9675599853633481
5091000000.0 -0.517697160335636 -0.9709829645770363
5094000000.0 -0.4667039124363324 -0.9227360737391647
5097000000.0 -0.41646808095952204 -0.9591478943063318
5100000000.0 -0.4622330504809841 -0.909820244118876
5103000000.0 -0.4843754047861759 -0.9515990348311044
5106000000.0 -0.5192045727530298 -0.9914313523575651
5109000000.0 -0.44103986319216176 -0.9287501705539583
5112000000.0 -0.4842468011453876 -0.9277792775918774
5116000000.0 -0.4746734270161116 -0.8817406478641647
5119000000.0 -0.5482050063358067 -0.9128102568562999
5122000000.0 -0.5070521974295031 -0.9050516504310346
5125000000.0 -0.4636537335370429 -0.887693161746093
5128000000.0 -0.5223361230314252 -0.8816510986989363
5131000000.0 -0.505808430289572 -0.9035914246474314
5134000000.0 -0.5590495234740147 -0.8469434289557621
5138000000.0 -0.5167092201032052 -0.9058030456763446
5141000000.0 -0.5335871958834073 -0.9231750414467415
5144000000.0 -0.5124363638562301 -0.9035850510872302
5147000000.0 -0.5660219944315624 -0.8793402204308022
5150000000.0 -0.5598250047638333 -0.857621400285842
5153000000.0 -0.6097625610373625 -0.8796392701604678
5156000000.0 -0.5989185550737048 -0.885473568806886
5159000000.0 -0.5769665469674768 -0.9058741326752244
5162000000.0 -0.666381113294089 -0.8001029423646239
5166000000.0 -0.659667510602508 -0.8227192644239665
5169000000.0 -0.6566528819408619 -0.8669475066395232
5172000000.0 -0.6011805731355634 -0.820826163253171
5175000000.0 -0.6627938324551439 -0.8914155764843521
5178000000.0 -0.6886311492056381 -0.8629144718167335
5181000000.0 -0.6394663091493714 -0.8755761222556758
5184000000.0 -0.6102845198913339 -0.810765706170068
5188000000.0 -0.6769137994324388 -0.8258187780447582
