! Created with skrf 1.8.0 (http://scikit-rf.org).
# Hz S RI R 50.0 
!freq ReS11 ImS11
4000000000.0 0.6256406861739292 0.7553520842845043
4003000000.0 0.6793612945989014 0.8595017483527244
4006000000.0 0.6536088703160309 0.7625367003646615
4009000000.0 0.6507328396093097 0.8277279588496448
4012000000.0 0.6425640754402763 0.8771136584591487
4016000000.0 0.7131517561418033 0.7481268971381574
4019000000.0 0.6748622951066774 0.7764264157216337
4022000000.0 0.6089686275122687 0.8126576638704722
4025000000.0 0.7101238687496805 0.733089944845053
4028000000.0 0.7324552869368368 0.7508327737858234
4031000000.0 0.6897953421276702 0.7283967343913893
4034000000.0 0.7207445157145329 0.7109214375573235
4038000000.0 0.7014133301306821 0.7487524141526491
4041000000.0 0.7498803155582519 0.7786580164181789
4044000000.0 0.7708950699209822 0.7792703212945414
4047000000.0 0.7358786730353343 0.7779382869613327
4050000000.0 0.7555725418035515 0.7606327528392589
4053000000.0 0.7207656596557841 0.6622461930750023
4056000000.0 0.735568190511887 0.7291974781086276
4059000000.0 0.7314186289746559 0.7225848353684681
4062000000.0 0.8003515561391853 0.7015011616334155
4066000000.0 0.698494645870491 0.6488692021936591
4069000000.0 0.8219789275828596 0.6806027094936
4072000000.0 0.744622993624249 0.6858159629777412
4075000000.0 0.7868077226658888 0.7399770778035284
4078000000.0 0.813628194557771 0.6382032517748812
4081000000.0 0.7565988416557559 0.6993803502431754
4084000000.0 0.8258688854283149 0.6290828427873096
4088000000.0 0.7850325486448382 0.6835784273211741
4091000000.0 0.8758002979035621 0.6552807341273281
4094000000.0 0.8346490127874828 0.6261478044237246
4097000000.0 0.8034718548447898 0.6340226895912859
4100000000.0 0.8423448008637886 0.6421803944402418
4103000000.0 0.8397990112738403 0.6162595426673965
4106000000.0 0.8487359537104677 0.6232707261566667
4109000000.0 0.8959788655265224 0.5674871567363633
4112000000.0 0.8623130711664864 0.5888572483989762
4116000000.0 0.8800929136452654 0.5679721762908904
4119000000.0 0.8981450057740091 0.5480340074032535
4122000000.0 0.8617293551186969 0.5460169945707009
4125000000.0 0.8912443347282195 0.5356517134201955
4128000000.0 0.8365276510104965 0.5281455675462025
4131000000.0 0.8347847779349187 0.5347940330525645
4134000000.0 0.870788889546935 0.5322544236035438
4138000000.0 0.897226421287705 0.5330868395673194
4141000000.0 0.8971008699893492 0.527247192086477
4144000000.0 0.9352015663005929 0.5507812570266943
4147000000.0 0.8998688928627451 0.4881785971674402
4150000000.0 0.9303112387739517 0.5119513502796544
4153000000.0 0.9364241885505112 0.510242000255163
4156000000.0 0.8978475675539304 0.52843063066626
4159000000.0 0.9049354505199556 0.49216311461145607
4162000000.0 0.8918340820158781 0.47399174848717107
4166000000.0 0.9288834759397044 0.46235780619177047
4169000000.0 0.9345827656723601 0.44900688308892933
4172000000.0 0.9379589055151487 0.45177728639909603
4175000000.0 0.9292000136060773 0.465075341154958
4178000000.0 0.9735317852556484 0.42994904243730103
4181000000.0 0.9420754002117788 0.4052522331294821
4184000000.0 0.9506267404283694 0.42428862163659836
4188000000.0 0.9266596449115676 0.38721489106656426
4191000000.0 0.9182317119464426 0.41909767595345054
4194000000.0 0.9307016778323184 0.4043950925349127
4197000000.0 0.9470109013269835 0.39949751051443444
4200000000.0 0.9542068564601642 0.38565239136077845
4203000000.0 0.9557442052033025 0.3946884450405148
4206000000.0 0.973323684051709 0.36860869347760566
4209000000.0 0.9325175114272535 0.37048592945770425
4212000000.0 0.9777229019358207 0.32676263324285226
4216000000.0 0.9625480835486546 0.35143967764497747
4219000000.0 0.983924743782611 0.33566540688417423
4222000000.0 0.9879804002258565 0.31312723711184137
4225000000.0 0.961209505066835 0.312779958639696
4228000000.0 0.9968326007751449 0.3061664230549458
4231000000.0 0.9750107470174452 0.30496921831638124
4234000000.0 0.9885327256631838 0.29642519379572646
4238000000.0 0.9893690217410576 0.2857189443728183
4241000000.0 0.9752860860488504 0.27493866113027876
4244000000.0 0.9715163901013508 0.26694066371006986
4247000000.0 0.9777621486808555 0.2561899546326998
4250000000.0 0.9850046074322869 0.24283922741369385
4253000000.0 0.9743591410222372 0.22617231503272106
4256000000.0 1.0256882958719524 0.2182432035568621
4259000000.0 0.9685300822648073 0.20310695648107854
4262000000.0 0.9971142082458702 0.1926850280669755
4266000000.0 1.028371515392704 0.18723316190682748
4269000000.0 1.0036638081982852 0.20295225107996087
4272000000.0 0.9945361741526911 0.1889628575924328
4275000000.0 0.9981648243291621 0.19922436805933952
4278000000.0 1.0173060317063929 0.17519300693919404
4281000000.0 1.025677404927478 0.1777573879027337
4284000000.0 1.0139256516345676 0.12995160857435104
4288000000.0 1.0231008035341558 0.17890928466612632
4291000000.0 0.9954944328653712 0.14381358468056837
4294000000.0 1.0173505198376183 0.12993820884880197
4297000000.0 0.9839740791531112 0.1426433498141642
4300000000.0 1.002427856354615 0.13344806817636157
4303000000.0 0.9905449165604927 0.08553298925923598
4306000000.0 1.0126178909108683 0.1256369143177083
4309000000.0 0.9851248572846928 0.0937785161257441
4312000000.0 1.041468975521348 0.1345655139953993
4316000000.0 1.0189461804617195 0.08222338722458404
4319000000.0 1.0055513124710742 0.07726268785676767
4322000000.0 1.018844105744466 0.021278340788716946
4325000000.0 1.019190598042707 0.06098494614022214
4328000000.0 1.0007571562468511 0.02581424277832732
4331000000.0 1.023229507763439 -0.0017333072401449767
4334000000.0 1.0480513191495917 0.021857069219326536
4338000000.0 1.027601487285052 0.029976718951801665
4341000000.0 1.0122736660113956 0.023890935279449965
4344000000.0 1.032198043887348 0.008517415998253758
4347000000.0 1.0309645572555508 -0.03967887654855193
4350000000.0 0.9753796591765638 -0.03057953610461349
4353000000.0 0.9937105433233837 -0.001510262780274274
4356000000.0 1.0206603584636702 -0.057160748477382964
4359000000.0 0.9696985218835602 -0.044873813694866455
4362000000.0 1.0200878572124918 -0.10403048840908916
4366000000.0 1.03064070246888 -0.06911556285983353
4369000000.0 0.9900014601373969 -0.06945338915694439
4372000000.0 0.9837328355200101 -0.1302735488001941
4375000000.0 1.0202952366191649 -0.08386659340185962
4378000000.0 0.9766342510066811 -0.08769575453037766
4381000000.0 0.9870011289113949 -0.08444084535110775
4384000000.0 1.060747202969834 -0.14867952572743354
4388000000.0 0.9896744268024101 -0.1006428597205189
4391000000.0 1.01519354791616 -0.13527292235404506
4394000000.0 0.9852135588464939 -0.13744241565030196
4397000000.0 0.9868247056328703 -0.15636355198007806
4400000000.0 1.0074273843378234 -0.18413949168641278
4403000000.0 1.0044036932101705 -0.16109141913475633
4406000000.0 0.9922345677770704 -0.2029988071210247
4409000000.0 1.010552715181663 -0.20092096266961734
4412000000.0 0.9774495978647549 -0.25089969202445705
4416000000.0 0.9927598052214983 -0.21564182021330103
4419000000.0 0.9914885517748926 -0.23648601043027193
4422000000.0 0.9855945363175342 -0.21156933655987137
4425000000.0 1.0161852390997566 -0.21250401146793202
4428000000.0 0.9753504821407765 -0.24658420717943796
4431000000.0 1.002391688085007 -0.25219841873371907
4434000000.0 0.9600335039131859 -0.2678632411208147
4438000000.0 0.9934514803874899 -0.2815794174487954
4441000000.0 0.9877328237418113 -0.2598715716238357
4444000000.0 0.963165873094094 -0.2695559830065989
4447000000.0 0.9567392567194696 -0.29345262225349195
4450000000.0 0.9649424946641681 -0.2794018778950653
4453000000.0 0.9841333383050606 -0.3186957587058601
4456000000.0 0.9272934048034737 -0.3121896437399961
4459000000.0 0.9148283065526903 -0.3243269312311361
4462000000.0 0.9983795169066907 -0.33600515901427636
4466000000.0 0.9896000042266933 -0.3651889884091959
4469000000.0 0.9654707956439235 -0.32827689777526425
4472000000.0 0.966249118432675 -0.38527988321034434
4475000000.0 0.9223950841480106 -0.34824345059094397
4478000000.0 0.9872045710053601 -0.4024241845199368
4481000000.0 0.9087475978434415 -0.3719666228412607
4484000000.0 0.9072197392370382 -0.4404186583360511
4488000000.0 0.9063286373626811 -0.4076046960273411
4491000000.0 0.9319430668507337 -0.43353124507377927
4494000000.0 0.9207298340394957 -0.41055013266540596
4497000000.0 0.9222737957642866 -0.4280481254496491
4500000000.0 0.9003548054519999 -0.4085369990667474
4503000000.0 0.9288411282340054 -0.44670923957319847
4506000000.0 0.9032204972430053 -0.4479476627193369
4509000000.0 0.8765804147332499 -0.46941946392045875
4512000000.0 0.8738631326809969 -0.46212328502472444
4516000000.0 0.897948689401207 -0.46061051402772774
4519000000.0 0.8811294355315433 -0.4427707912067877
4522000000.0 0.8827429916903817 -0.5072697311003448
4525000000.0 0.9038665829153996 -0.4595418353365863
4528000000.0 0.8764702144088405 -0.5249539676996295
4531000000.0 0.8687092855954507 -0.5031273317017652
4534000000.0 0.8418323998792479 -0.504665129228155
4538000000.0 0.850918717297455 -0.5267814433653302
4541000000.0 0.8393244018653777 -0.5625697457291058
4544000000.0 0.8431797776809029 -0.5261936213542106
4547000000.0 0.8484285079369852 -0.5240239063076824
4550000000.0 0.8375321984220225 -0.5843675012617479
4553000000.0 0.8409233489330465 -0.5638098290198981
4556000000.0 0.8242515521729201 -0.5699045053205168
4559000000.0 0.8183932194059472 -0.5842815871172791
4562000000.0 0.8498124219158918 -0.5859852294134114
4566000000.0 0.8284182024776636 -0.6174717657955722
4569000000.0 0.7914772785112698 -0.5835263920171003
4572000000.0 0.8031134139586218 -0.6230127910704548
4575000000.0 0.7879982131757817 -0.6340032196223739
4578000000.0 0.8207184851435263 -0.618930658265767
4581000000.0 0.7779938134838168 -0.6400963133802007
4584000000.0 0.7805057212605538 -0.6316408232974121
4588000000.0 0.7914877942956368 -0.6429575106642861
4591000000.0 0.7925907125543646 -0.6436931100509871
4594000000.0 0.7625611079964056 -0.6642846213395123
4597000000.0 0.7487304271662858 -0.6901749152600151
4600000000.0 0.7230392448774324 -0.6929397468673467
4603000000.0 0.7540343650165391 -0.6881253029641842
4606000000.0 0.7385038276232705 -0.6831672733305514
4609000000.0 0.736247193655995 -0.6872675084832963
4612000000.0 0.7436563334671125 -0.7108859153154226
4616000000.0 0.6992147957383836 -0.6879006691589934
4619000000.0 0.7228910582476695 -0.6944097409055576
4622000000.0 0.7304841873899685 -0.7132925685770759
4625000000.0 0.6665626748473161 -0.7174257907293279
4628000000.0 0.6995220917109004 -0.7265147176454039
4631000000.0 0.6868069750761163 -0.7255276471567733
4634000000.0 0.6751365773967024 -0.7596260091850229
4638000000.0 0.6759572056233393 -0.7568098780516114
4641000000.0 0.6809117197098282 -0.7589792192576044
4644000000.0 0.6605531013534005 -0.7599573440482398
4647000000.0 0.6786196364708357 -0.7722917776995553
4650000000.0 0.6537619578474573 -0.7683883863090328
4653000000.0 0.6663559230314919 -0.7789854641114662
4656000000.0 0.6405542665612503 -0.7880905986536209
4659000000.0 0.614427223622657 -0.796742824221579
4662000000.0 0.6444976711783411 -0.8122977456589281
4666000000.0 0.6155888856858305 -0.8072443239318222
4669000000.0 0.6297538601722277 -0.8053882144757929
4672000000.0 0.603794329483003 -0.8400959927648876
4675000000.0 0.5814574465218543 -0.8351252118046754
4678000000.0 0.5757209848570284 -0.8070211781999403
4681000000.0 0.5799453924783563 -0.861477075297959
4684000000.0 0.5599174883169962 -0.8467434692045925
4688000000.0 0.5618820081094924 -0.8227761628193008
4691000000.0 0.5841375737816625 -0.8554630640869043
4694000000.0 0.5562436195740986 -0.8398586450070415
4697000000.0 0.5262497740681878 -0.8186654827582582
4700000000.0 0.5624141710743248 -0.8446911998126825
4703000000.0 0.5480792354502004 -0.8404474210397175
4706000000.0 0.5094696379208223 -0.9109569555927732
4709000000.0 0.5135160291068446 -0.8708129170052769
4712000000.0 0.5045262462682643 -0.8665057137216936
4716000000.0 0.48937049341426075 -0.8985100609189005
4719000000.0 0.5317570622735457 -0.8726190559520876
4722000000.0 0.48993269418782526 -0.8752224259196058
4725000000.0 0.49357584498673057 -0.8807897965395486
4728000000.0 0.46248828207117837 -0.9007377057117252
4731000000.0 0.49387883747772265 -0.9196107044778965
4734000000.0 0.47109185212889537 -0.8960074705264511
4738000000.0 0.46550861975621727 -0.9558168893456038
4741000000.0 0.43676881365374554 -0.9321881595405425
4744000000.0 0.4165139403116646 -0.9079704401195444
4747000000.0 0.41292298168452923 -0.8953876699259918
4750000000.0 0.39914804262548087 -0.9449854993591376
4753000000.0 0.3976109847548013 -0.9255883659821299
4756000000.0 0.3931073628775416 -0.9655893925678614
4759000000.0 0.43407945865720365 -0.9791673849648929
4762000000.0 0.366864914657749 -0.9672559290538698
4766000000.0 0.38266887889378076 -0.9355063039978607
4769000000.0 0.37978947083738396 -0.9756078644966152
4772000000.0 0.36750894785739846 -0.9757205910863954
4775000000.0 0.36165283195957354 -1.0090765572724114
4778000000.0 0.35077034365898496 -0.9796095704151094
4781000000.0 0.3808900440425923 -0.944717650976739
4784000000.0 0.33850938445929923 -0.9462357494404773
4788000000.0 0.3333906025158848 -0.9756521010573989
4791000000.0 0.28083592878315594 -0.9622452477292066
4794000000.0 0.3220941795868014 -1.010737858961372
4797000000.0 0.2860393496565797 -0.9764639586645879
4800000000.0 0.256682774255089 -0.9821858759604891
4803000000.0 0.2281085742525944 -0.9913280503593025
4806000000.0 0.2632904582618363 -0.9970180423353046
4809000000.0 0.23694524651050713 -0.9881384227209741
4812000000.0 0.20325329632051847 -0.9756016384874271
4816000000.0 0.25866179754578617 -0.9693707047373126
4819000000.0 0.2804716945018805 -1.0120416725139236
4822000000.0 0.267026216027968 -1.0088892016905415
4825000000.0 0.25922771551105506 -1.0241724175241773
4828000000.0 0.20796824973377603 -1.0063885531654786
4831000000.0 0.17425178614431866 -1.025639801101851
4834000000.0 0.21968089006557906 -1.0083449962865265
4838000000.0 0.20489644706108873 -1.0425053530188377
4841000000.0 0.16100629620925527 -1.0182179186584124
4844000000.0 0.17815936754557135 -1.0248946114583648
4847000000.0 0.18789651907000224 -0.9714075820330512
4850000000.0 0.14044447797740356 -1.030076656667016
4853000000.0 0.14476822277859297 -1.0026725196827133
4856000000.0 0.13952526171012036 -0.9962546163009561
4859000000.0 0.13792829444708576 -1.0452297229545975
4862000000.0 0.16517621159815402 -0.9963663850670873
4866000000.0 0.07620134462663422 -1.0515639642268602
4869000000.0 0.08041504503737143 -1.0221732096096596
4872000000.0 0.08764766838105549 -1.0536412977803804
4875000000.0 0.14191152750334574 -1.0620575484346655
4878000000.0 0.08407690353510577 -1.0428434973856386
4881000000.0 0.04592229521631891 -1.0964574378905523
4884000000.0 0.06079031093114226 -1.0418577444131984
4888000000.0 0.10560395928012567 -1.038959774132195
4891000000.0 0.07188869185503298 -1.03580737236583
4894000000.0 0.02904665159447397 -1.0325317550985647
4897000000.0 0.06030552012010228 -1.0148503479122224
4900000000.0 0.04426116949640628 -1.0467659789203831
4903000000.0 0.04017030405665999 -1.0384231419844279
4906000000.0 0.0021044113818740346 -1.0346592131697239
4909000000.0 -0.018378453147850415 -1.0659632344726893
4912000000.0 -0.039881811756682095 -1.0785883852141371
4916000000.0 -0.009714076659969748 -1.059163398321225
4919000000.0 -0.008152800282899025 -1.0614519792496597
4922000000.0 -0.01323753678986428 -1.036344932034503
4925000000.0 -0.057740589667458445 -1.0187976295251322
4928000000.0 -0.003945267129052965 -1.0368454383454992
4931000000.0 -0.03393189448494735 -1.0558266775997949
4934000000.0 -0.04998495458672937 -0.9877285490338078
4938000000.0 -0.1121200563608115 -1.0078457398317986
4941000000.0 -0.06649888687115858 -0.9678562211080878
4944000000.0 -0.04677529056530905 -1.0266263885000362
4947000000.0 -0.07696784102607868 -1.0157085428705441
4950000000.0 -0.0897664633638142 -1.0189170656261763
4953000000.0 -0.15716900266935485 -1.077678337650612
4956000000.0 -0.12100828394890056 -1.0176967667091608
4959000000.0 -0.1618269225934105 -1.0043490239865782
4962000000.0 -0.17008013692625498 -1.0484226075064975
4966000000.0 -0.1544950615881177 -1.0676064491178152
4969000000.0 -0.1490464195424437 -1.0535359112840976
4972000000.0 -0.2202842184487516 -1.003941864754803
4975000000.0 -0.16637911848640177 -0.9952176592624928
4978000000.0 -0.2056740383991384 -1.0093088737297065
4981000000.0 -0.23440742388662986 -1.007942588822622
4984000000.0 -0.16840672025825063 -0.9970143990497913
4988000000.0 -0.18637288217481734 -1.0101859691718484
4991000000.0 -0.18184779613601032 -1.0443532503368798
4994000000.0 -0.2014232352617899 -1.0300913173980326
4997000000.0 -0.27352983150000093 -1.0063427980549144
5000000000.0 -0.2212520944546117 -1.034101164134475
5003000000.0 -0.23801000048113746 -1.0359573899905885
5006000000.0 -0.27508547016779183 -1.0476503758151734
5009000000.0 -0.2221037181424402 -0.9929890568188234
5012000000.0 -0.31972336843064003 -1.007977271914556
5016000000.0 -0.2442006382050083 -1.0551866026122634
5019000000.0 -0.27832804942146633 -0.9835244086226418
5022000000.0 -0.29417478798621266 -0.9890042407126396
5025000000.0 -0.31150536241221666 -1.0456695570582677
5028000000.0 -0.32997255133040637 -0.9960746372910203
5031000000.0 -0.33512309793381656 -0.9715932617138864
5034000000.0 -0.36060679786403604 -1.026514720990365
5038000000.0 -0.3447706453693179 -0.9622961861802977
5041000000.0 -0.289038684076138 -1.0183802531069874
5044000000.0 -0.3038130969807472 -0.9906297430695733
5047000000.0 -0.3257946057464694 -0.9678079730021357
5050000000.0 -0.265915920679616 -0.9606774834921832
5053000000.0 -0.4389689881358887 -0.9891892294346891
5056000000.0 -0.3218209170041332 -1.0096628361603202
5059000000.0 -0.3325300607640333 -1.0123177590979475
5062000000.0 -0.42369735384694573 -0.9613220844296229
5066000000.0 -0.33791535546532636 -0.9340569875254927
5069000000.0 -0.4228334865991429 -1.0320387629850138
5072000000.0 -0.370861068957693 -0.9319114842944982
5075000000.0 -0.38210497852575476 -0.949804710339623
5078000000.0 -0.47510996567853586 -0.9727601855109682
5081000000.0 -0.439291462697272 -0.9015551326783958
5084000000.0 -0.43602138383284605 -0.9492589276017434
5088000000.0 -0.4115419456056376 -0.9403561680411106
5091000000.0 -0.4569031562599643 -0.9377984504149204
5094000000.0 -0.46862000272422116 -0.9082340423128151
5097000000.0 -0.4244883704360235 -0.9282152461660194
5100000000.0 -0.4344650186463725 -0.935940142800011
5103000000.0 -0.4728386973630715 -0.9469997478791944
5106000000.0 -0.5273979876803471 -0.9596657475431158
5109000000.0 -0.44025159686523657 -0.8943240461373911
5112000000.0 -0.5203924395926711 -0.8843874457287033
5116000000.0 -0.4877276050587977 -0.8443476598774409
5119000000.0 -0.5304829046655762 -0.9156187210047879
5122000000.0 -0.5173926451142011 -0.8787530652196736
5125000000.0 -0.5102160780245169 -0.9262278524249253
5128000000.0 -0.5702400399509471 -0.8298116549022163
5131000000.0 -0.5231302027256624 -0.8823358618944063
5134000000.0 -0.5602064227350857 -0.8746705635967125
5138000000.0 -0.5408618797700729 -0.8735857065438114
5141000000.0 -0.5418424850877874 -0.8998831152994424
5144000000.0 -0.5303859172706396 -0.9096505972156725
5147000000.0 -0.5764335187513664 -0.8585376789787849
5150000000.0 -0.5775752462948787 -0.881917347054024
5153000000.0 -0.636005473169097 -0.8838297771082185
5156000000.0 -0.5942652174197771 -0.8594936589554699
5159000000.0 -0.622136490502062 -0.9168539225134773
5162000000.0 -0.5986481580389653 -0.7945225395512261
5166000000.0 -0.6304158549690027 -0.8234168350525637
5169000000.0 -0.6450283104708959 -0.8345300954362072
5172000000.0 -0.6445515346065279 -0.8363941351689479
5175000000.0 -0.6455971454011001 -0.8385268763385217
5178000000.0 -0.6738359161191128 -0.8327666665289772
5181000000.0 -0.6363509422894094 -0.8361835366485736
5184000000.0 -0.6888628881546653 -0.8214455610916218
5188000000.0 -0.6489731319018441 -0.7636836555712746
