! Created with skrf 1.8.0 (http://scikit-rf.org).
# Hz S RI R 50.0 
!freq ReS11 ImS11
4000000000.0 0.678482578077114 0.7567984623150712
4003000000.0 0.7035294650697452 0.8574468265374927
4006000000.0 0.7365039923158012 0.7674693685250259
4009000000.0 0.7199101814399874 0.8052100185656491
4012000000.0 0.6404071866996794 0.8127827653533986
4016000000.0 0.7452905658910434 0.7486091275033875
4019000000.0 0.7303409285950213 0.7423304899417279
4022000000.0 0.638662140538385 0.8061365576945659
4025000000.0 0.7851628068353351 0.7127830594389772
4028000000.0 0.7840639814288052 0.7418516990756863
4031000000.0 0.7395599406762551 0.7285985564790365
4034000000.0 0.7611062175670175 0.696537462831938
4038000000.0 0.7896106142162961 0.7177569073160438
4041000000.0 0.732401017376817 0.654717328048191
4044000000.0 0.8109379648374505 0.7253412123590847
4047000000.0 0.7646691824700769 0.732557460286661
4050000000.0 0.8069521105788704 0.6836428401767354
4053000000.0 0.7746464418704909 0.6410651366480435
4056000000.0 0.7868076854976379 0.6811679588381335
4059000000.0 0.7391133503713113 0.6805120325193466
4062000000.0 0.8524485557909607 0.6768973394172766
4066000000.0 0.7219100966153895 0.6076817203619427
4069000000.0 0.8711432723068778 0.6449726916981725
4072000000.0 0.7800849394769237 0.6864654189288837
4075000000.0 0.8270279065741634 0.70338833791258
4078000000.0 0.8473100565762842 0.6203509869913083
4081000000.0 0.8083987229155248 0.6643339134089755
4084000000.0 0.8526595739459188 0.6282801074119948
4088000000.0 0.8304731444948927 0.6478662539113325
4091000000.0 0.908080159169766 0.6169950205903492
4094000000.0 0.8506886214428319 0.6212152155120204
4097000000.0 0.8552170820002857 0.6036475587632903
4100000000.0 0.8915021617101002 0.5764980977443583
4103000000.0 0.8583971086767039 0.6543866078500342
4106000000.0 0.9130747243939956 0.5483751457664724
4109000000.0 0.8849369835245577 0.5545409274232316
4112000000.0 0.8792564498693731 0.5834097854613767
4116000000.0 0.8331956275152368 0.5577638184345726
4119000000.0 0.9025426185706857 0.5227567652737468
4122000000.0 0.9161611022914438 0.4896813594998517
4125000000.0 0.9356998384421193 0.535980399570404
4128000000.0 0.9067245192229363 0.5240249943235107
4131000000.0 0.8979293209131145 0.4854911217313673
4134000000.0 0.923724981830323 0.5372708615322246
4138000000.0 0.8931702824511722 0.47994341973751037
4141000000.0 0.8994262443739856 0.4454459673368647
4144000000.0 0.9395079689500061 0.4891646515256433
4147000000.0 0.9095768251323008 0.4297356679764112
4150000000.0 0.9420544012623125 0.4956286638893778
4153000000.0 0.9454415206495497 0.42593746652521103
4156000000.0 0.984850520864404 0.4736436853601279
4159000000.0 0.9133519745083567 0.45562433838526367
4162000000.0 0.9322108264634217 0.4165106142689087
4166000000.0 0.9661588850469034 0.4255344077010468
4169000000.0 0.9360304624604504 0.40168764282533764
4172000000.0 0.9558352836357998 0.4110058554817477
4175000000.0 0.970907961033343 0.4217341475112904
4178000000.0 0.9840995224973808 0.4117974582391847
4181000000.0 0.9722123896808046 0.3571008193553783
4184000000.0 0.9712301044075072 0.36745891673123526
4188000000.0 0.9710301417413991 0.37138416948369
4191000000.0 0.9455803642714894 0.3962979124998815
4194000000.0 0.951885676084345 0.3269865451072369
4197000000.0 0.9945716451323175 0.3667762214965719
4200000000.0 0.9683615658625655 0.3623759131336659
4203000000.0 1.0005240816454892 0.32930508834437855
4206000000.0 0.9812274294392593 0.3244289377080409
4209000000.0 0.9726134778672958 0.32355653012104874
4212000000.0 1.001732205704025 0.2992033818378851
4216000000.0 0.9931090699973592 0.3123355039256956
4219000000.0 0.9936307313548282 0.2824186630290164
4222000000.0 1.012217222521253 0.26144295908212667
4225000000.0 0.9835085508916721 0.27241750160227807
4228000000.0 0.9999231921541707 0.25063887174654476
4231000000.0 1.0131371740235195 0.239458426939978
4234000000.0 1.0241870328702443 0.21830477023456824
4238000000.0 1.0122699502245012 0.22629727588369405
4241000000.0 1.000059171484978 0.21976891250204889
4244000000.0 0.9782879953885721 0.20776436311520607
4247000000.0 0.9982297588785746 0.20208556665731153
4250000000.0 0.9847637477040319 0.1957011281042525
4253000000.0 0.9876521896554644 0.17643279277814267
4256000000.0 1.0357152582655744 0.1775655446556565
4259000000.0 0.9824443134722837 0.15969932607229406
4262000000.0 1.0043581567979138 0.14419751269992573
4266000000.0 1.030436426902008 0.11685821049000536
4269000000.0 1.0188854315066602 0.16075226180958313
4272000000.0 0.9972253266687301 0.1427623409057635
4275000000.0 1.0273731993684183 0.13111404891397382
4278000000.0 1.0576889704171537 0.13076958154152443
4281000000.0 1.030373191595796 0.135987051052532
4284000000.0 1.0436128040057953 0.07467181399892264
4288000000.0 1.021861139987419 0.11467379261853694
4291000000.0 1.0075170860762506 0.06764671508934068
4294000000.0 0.9942047095555377 0.07607516757824369
4297000000.0 1.008593187498123 0.06982048093919689
4300000000.0 1.0150316774025905 0.0697835975934199
4303000000.0 1.0018039201851845 0.045133098920249456
4306000000.0 1.0404815482100003 0.07676419062439332
4309000000.0 1.0361066654926014 0.03689714570197229
4312000000.0 1.0384179461952854 0.059836209921383665
4316000000.0 1.0292649363924364 0.01724761053050207
4319000000.0 1.0218859691512918 0.005726063379207447
4322000000.0 1.0102465556650968 -0.012381292507920319
4325000000.0 1.006400048792456 -0.0013742603620688076
4328000000.0 1.0174950931345785 -0.03612543619025395
4331000000.0 1.0334015477210663 -0.0453651361155271
4334000000.0 1.0394323545989579 -0.028250436202117785
4338000000.0 1.015881059441904 -0.009494540706127985
4341000000.0 1.0595551439646351 -0.01897225627128482
4344000000.0 1.0453494869229252 -0.06286234637649629
4347000000.0 1.028405315817116 -0.07946098243533502
4350000000.0 0.9934831817329574 -0.10495812142849975
4353000000.0 0.9906404702068528 -0.04951740829460287
4356000000.0 1.0221013753193857 -0.11856692693165852
4359000000.0 0.9564970117685397 -0.09969368110137226
4362000000.0 1.0265877142019784 -0.16789933271558682
4366000000.0 1.0397936162770975 -0.14993889618552297
4369000000.0 0.9732124469305428 -0.13675784063334417
4372000000.0 0.9720515087986561 -0.17698016225728264
4375000000.0 0.9998647659803293 -0.13908859506090235
4378000000.0 0.9772283614847124 -0.16922175096696826
4381000000.0 0.9989274172082265 -0.16721465632060634
4384000000.0 1.0626529896284154 -0.18582961995674685
4388000000.0 1.0028095631219889 -0.18186191226378112
4391000000.0 0.9968641037721997 -0.1946443636928247
4394000000.0 0.959548784117937 -0.21427009048062998
4397000000.0 1.0058832749959046 -0.2202925617621779
4400000000.0 1.0061812377105817 -0.2347737781620928
4403000000.0 1.0106767294248533 -0.22958342529868841
4406000000.0 0.9914794301996138 -0.25602322790762894
4409000000.0 1.011775504161166 -0.2496133902298485
4412000000.0 0.9574607394382635 -0.30838618731975487
4416000000.0 0.9713762249948426 -0.2832039310265797
4419000000.0 0.9697913964782827 -0.2971492982467857
4422000000.0 0.9772931137975578 -0.27427352951737693
4425000000.0 0.99620659928121 -0.2660972337206217
4428000000.0 0.96997066253358 -0.2998789682314612
4431000000.0 0.980144395525822 -0.31226824274013304
4434000000.0 0.9702421315493255 -0.32467427894948675
4438000000.0 0.9933571692765581 -0.3388492467122586
4441000000.0 0.9819776790929859 -0.3361587620475347
4444000000.0 0.9339382183885527 -0.3308159440528839
4447000000.0 0.9491329918462251 -0.359440249998667
4450000000.0 0.9598768920948739 -0.3501114919135016
4453000000.0 0.968792154896667 -0.36083974368303584
4456000000.0 0.921850388581265 -0.39112518842307875
4459000000.0 0.8962708410897791 -0.3807386433850907
4462000000.0 0.9814947316467701 -0.4207864307362039
4466000000.0 0.9730949279281534 -0.43288613841166046
4469000000.0 0.9346662530317584 -0.4043756738503102
4472000000.0 0.925194197643682 -0.44647736457309883
4475000000.0 0.8910720470889164 -0.41750623145235055
4478000000.0 0.9416409743868739 -0.45891992606864274
4481000000.0 0.8705852469457592 -0.4525152992612001
4484000000.0 0.8964952594915623 -0.5001833473049844
4488000000.0 0.897981313900999 -0.4714629317368346
4491000000.0 0.9059525305236769 -0.4841380493403542
4494000000.0 0.8933694442000959 -0.4624082733620483
4497000000.0 0.8941627820454858 -0.45866647359803125
4500000000.0 0.889419098491713 -0.47238266399303297
4503000000.0 0.9154369004377576 -0.5119405020200067
4506000000.0 0.8528201313452308 -0.528628258283926
4509000000.0 0.8582771948483288 -0.5127474016455126
4512000000.0 0.8358098610191178 -0.5367309284538273
4516000000.0 0.888396236244911 -0.546563205138483
4519000000.0 0.8596731042261831 -0.5243617163252497
4522000000.0 0.8362088495376192 -0.5507278486183931
4525000000.0 0.8492433949100195 -0.5321395969474659
4528000000.0 0.8753628646824316 -0.561566541738485
4531000000.0 0.8486432604969437 -0.5678017962172746
4534000000.0 0.8141289148303081 -0.5702818919585413
4538000000.0 0.8366283958754535 -0.5806686757075205
4541000000.0 0.7960529311149755 -0.60733728314876
4544000000.0 0.8120891542244051 -0.5876927068820453
4547000000.0 0.8319055174875666 -0.5949295579433247
4550000000.0 0.8208165283690394 -0.637693274961464
4553000000.0 0.8011069709746326 -0.6243559896081396
4556000000.0 0.765516531860901 -0.6168527661734333
4559000000.0 0.7956005297833991 -0.6553195844547466
4562000000.0 0.8102655183157503 -0.6443106656691857
4566000000.0 0.7860446641861414 -0.6686208736533734
4569000000.0 0.7558171254161207 -0.6619913104600459
4572000000.0 0.7738184305004466 -0.6635361056415496
4575000000.0 0.7697176644256141 -0.703476414983379
4578000000.0 0.7852365530080105 -0.6833642704198877
4581000000.0 0.7451317065458504 -0.7038460748760056
4584000000.0 0.7351187021020017 -0.7009975925920823
4588000000.0 0.7546434216520028 -0.7157710026959869
4591000000.0 0.7432176113430276 -0.7062930820648515
4594000000.0 0.7156788727623575 -0.7205948744491059
4597000000.0 0.7351354781567692 -0.743756378881939
4600000000.0 0.6762386358423149 -0.7396466002820211
4603000000.0 0.7034487408932809 -0.7620892206637875
4606000000.0 0.7150275253969074 -0.7489404755701389
4609000000.0 0.7073681282750514 -0.7512400869364314
4612000000.0 0.6864007135133984 -0.7671244566232994
4616000000.0 0.6698639898275882 -0.7633990404149681
4619000000.0 0.6844596613934935 -0.7638332824440308
4622000000.0 0.6547992539077206 -0.7635060206563653
4625000000.0 0.628963659526967 -0.7687712529517691
4628000000.0 0.6532845460952382 -0.7806795426309503
4631000000.0 0.6301809564694996 -0.8010098076783605
4634000000.0 0.6304916354504031 -0.7957251528330506
4638000000.0 0.64786057923681 -0.8110040818794783
4641000000.0 0.6332402616100781 -0.7964948688848242
4644000000.0 0.6070675283061768 -0.808510786643546
4647000000.0 0.6176426693356116 -0.8170003379264956
4650000000.0 0.5837624170966861 -0.8277763165832872
4653000000.0 0.6170993185759289 -0.8276193162160513
4656000000.0 0.5786427100922804 -0.8281598650849686
4659000000.0 0.5505792692152802 -0.8412219680013862
4662000000.0 0.5733226265859701 -0.8506770992513949
4666000000.0 0.542161089151987 -0.8643773267991582
4669000000.0 0.5703271448490039 -0.8532207199623983
4672000000.0 0.5448425122473761 -0.8802485745034652
4675000000.0 0.5233772080447354 -0.8773924451383012
4678000000.0 0.5127735191054369 -0.8439464531358037
4681000000.0 0.5058988188713756 -0.9061274412642584
4684000000.0 0.49349314665291943 -0.9133653120991785
4688000000.0 0.482228994645913 -0.903503782232304
4691000000.0 0.5330067268947272 -0.8934903872811439
4694000000.0 0.5001590305578286 -0.8615777118844323
4697000000.0 0.4667504814036906 -0.8939521149539937
4700000000.0 0.4891400616139546 -0.8993791396328796
4703000000.0 0.48533234049142837 -0.8772391276494109
4706000000.0 0.44446321375418263 -0.915216466941539
4709000000.0 0.44601258798586974 -0.9219519287024025
4712000000.0 0.43829966057020747 -0.9255634675389023
4716000000.0 0.4427458836471825 -0.9353593183146924
4719000000.0 0.4318612223776662 -0.9248858447678425
4722000000.0 0.4519983198331078 -0.9053856967897944
4725000000.0 0.42389453016545975 -0.9347200561365038
4728000000.0 0.3857395223523263 -0.91454797272489
4731000000.0 0.41114724204583086 -0.9692595243735853
4734000000.0 0.41704200047008655 -0.9326966293896027
4738000000.0 0.3988495964215432 -0.9739024760056725
4741000000.0 0.37335031249790757 -0.9884020803565858
4744000000.0 0.3466547502948788 -0.9474331060826289
4747000000.0 0.3510124008350774 -0.9563973178662447
4750000000.0 0.34228749973974726 -1.0030774712798847
4753000000.0 0.36021711941629514 -0.979320101427545
4756000000.0 0.3135388926516667 -0.9770911458263121
4759000000.0 0.34538197383784774 -0.9750815443482047
4762000000.0 0.3025390635818561 -1.0113557249242284
4766000000.0 0.3328401381161519 -0.9801161200902706
4769000000.0 0.28567485339771376 -0.9924537218885233
4772000000.0 0.3096561901712896 -0.9871295072987692
4775000000.0 0.2873848163788422 -1.0367958214241129
4778000000.0 0.2899971940558412 -1.000867833711138
4781000000.0 0.267062656300727 -0.971713292596768
4784000000.0 0.27997827428334743 -0.9999393918830729
4788000000.0 0.20663130626892479 -1.0515327460430492
4791000000.0 0.2161003052389169 -1.011842493146078
4794000000.0 0.2776261922595809 -1.0219117989519126
4797000000.0 0.21433674726742585 -1.0107107609639503
4800000000.0 0.18469142022029594 -0.9873317171735139
4803000000.0 0.1761881627294935 -1.007356089399156
4806000000.0 0.20085833931203417 -1.054379524399382
4809000000.0 0.1466150768080394 -1.037269889955739
4812000000.0 0.13479395818133993 -1.027896752553043
4816000000.0 0.20870666684464084 -1.0238108078301407
4819000000.0 0.1923021333241412 -1.0347717889433807
4822000000.0 0.15030676833835357 -1.0683435121817804
4825000000.0 0.17446808069756195 -1.0653053988127958
4828000000.0 0.14076417756350637 -1.0203470539686914
4831000000.0 0.06859834357334865 -1.06237347036507
4834000000.0 0.1447708803136289 -1.0254222780049034
4838000000.0 0.10496795312565184 -1.0666897221968707
4841000000.0 0.08667275777290498 -1.0123857176006528
4844000000.0 0.12268462120637429 -1.049760573390327
4847000000.0 0.11573920859219904 -0.99996536513451
4850000000.0 0.04136112271636179 -1.0638368876133655
4853000000.0 0.06435130411118822 -1.0130785260639255
4856000000.0 0.06921578566057791 -1.0085531002204686
4859000000.0 0.04150890407537449 -1.0966755908716044
4862000000.0 0.07696884146884322 -1.0236830776427075
4866000000.0 0.01236374831829102 -1.0496838352016575
4869000000.0 -0.0037443880500755214 -1.0354387106661158
4872000000.0 -0.019929514446858636 -1.0586303389760268
4875000000.0 0.05798147334241168 -1.1022151212413318
4878000000.0 -0.008354613048007997 -1.0453766572011765
4881000000.0 -0.03708014122169417 -1.0975918611409943
4884000000.0 -0.0016554138187579136 -1.0658214211550694
4888000000.0 0.002388493716481893 -1.0476309915426953
4891000000.0 -0.03578921572481264 -1.0596833037661884
4894000000.0 -0.08425634720709882 -1.0231236362117115
4897000000.0 -0.025802750561633687 -1.0371280622879047
4900000000.0 -0.05630778996800634 -1.0580012068820428
4903000000.0 -0.04612296749587482 -1.064163831647772
4906000000.0 -0.09113787237327184 -1.0676012702076432
4909000000.0 -0.09335885330442537 -1.0534338484949948
4912000000.0 -0.07360754067015872 -1.0753792876852353
4916000000.0 -0.10467717564793796 -1.0635178257349889
4919000000.0 -0.0855509638566015 -1.0690765642412314
4922000000.0 -0.11688086096862943 -1.0712580303611303
4925000000.0 -0.1718338747509208 -1.0112033179572895
4928000000.0 -0.060197967926444954 -1.0323751885676709
4931000000.0 -0.11519202220323006 -1.0734274024701942
4934000000.0 -0.1489778843216143 -0.9767386270610647
4938000000.0 -0.1792530907269289 -1.0223889076966395
4941000000.0 -0.17387307096733468 -1.010380851593922
4944000000.0 -0.14946015263735216 -0.9753811097448344
4947000000.0 -0.19498395488700335 -1.0025478715942222
4950000000.0 -0.20268100698823266 -0.9968941451212788
4953000000.0 -0.256338146747933 -1.0458202850769132
4956000000.0 -0.25345811841159 -1.033223573634319
4959000000.0 -0.2382194877908387 -0.9722162992960646
4962000000.0 -0.24957870718439515 -1.0269737221470072
4966000000.0 -0.23375810011500936 -1.0577380987760154
4969000000.0 -0.2489535470153446 -1.051554711295607
4972000000.0 -0.2510565491718296 -1.006233974166879
4975000000.0 -0.2353806149510139 -1.0071702388339696
4978000000.0 -0.2625515428904806 -1.0087513586316068
4981000000.0 -0.3101339144318891 -0.9949541729399071
4984000000.0 -0.30065795214576496 -1.0108073778101105
4988000000.0 -0.2957855382016165 -1.0004894092931318
4991000000.0 -0.2758403906206623 -1.0311269562655412
4994000000.0 -0.31289771533211663 -0.9818649275740922
4997000000.0 -0.34220628262041614 -0.9686636717499835
5000000000.0 -0.3315188486413604 -1.018871571392526
5003000000.0 -0.3136299087248356 -1.0511915481067502
5006000000.0 -0.38803575721461414 -1.043463703705494
5009000000.0 -0.3161493676559819 -0.9737703718356218
5012000000.0 -0.4104252880507216 -0.9697610596408341
5016000000.0 -0.3518610519657435 -1.030191307209358
5019000000.0 -0.3881961373717171 -0.9545688597728517
5022000000.0 -0.38685457082217867 -0.9825381822583408
5025000000.0 -0.42367864739016964 -1.0200456316291249
5028000000.0 -0.4386401452062906 -0.9480851996518942
5031000000.0 -0.44103718503105227 -0.9584783542463654
5034000000.0 -0.4403940847344231 -0.9902790576709961
5038000000.0 -0.44076101941459267 -0.9724321255778303
5041000000.0 -0.39857007490679 -0.953809843010026
5044000000.0 -0.3984562242387941 -0.9699452397820411
5047000000.0 -0.4689757909352515 -0.9307125210094819
5050000000.0 -0.3696699791367005 -0.9581539908198173
5053000000.0 -0.5179708821412269 -0.999062322131679
5056000000.0 -0.4248359703526585 -0.9665837961791355
5059000000.0 -0.46379465816976634 -0.994855562092939
5062000000.0 -0.49394962077742643 -0.9353606660667309
5066000000.0 -0.46627300932323146 -0.9314564035675126
5069000000.0 -0.5001783618221212 -0.9527170504751609
5072000000.0 -0.49578177479836405 -0.9308015539130847
5075000000.0 -0.5100470777854168 -0.9176170910354298
5078000000.0 -0.5446741269327195 -0.9019547752874053
5081000000.0 -0.5372148986804886 -0.8786693199578485
5084000000.0 -0.5121556263824254 -0.9657615773859867
5088000000.0 -0.5449863228958313 -0.9381413044907942
5091000000.0 -0.5809888917732078 -0.8641150442327965
5094000000.0 -0.557850024210942 -0.8726238358675668
5097000000.0 -0.5444593952500747 -0.8824353337165676
5100000000.0 -0.5390875939159144 -0.8435345196796019
5103000000.0 -0.6395686428461361 -0.8605190163767334
5106000000.0 -0.5997747066338655 -0.9691709312177106
5109000000.0 -0.5375886900578877 -0.8840236320890489
5112000000.0 -0.6104155797427138 -0.8159314910974842
5116000000.0 -0.6180518062039628 -0.8135015834322216
5119000000.0 -0.6306984289011639 -0.8458685149835912
5122000000.0 -0.5904633706756179 -0.8092810390302134
5125000000.0 -0.6063277710956907 -0.8536729474287398
5128000000.0 -0.6586546333961761 -0.8726071810975213
5131000000.0 -0.6116483964748068 -0.809014695646944
5134000000.0 -0.6333716069022414 -0.7953779830495027
5138000000.0 -0.6771277091329516 -0.8044976071158416
5141000000.0 -0.6294543916839719 -0.8524683675594185
5144000000.0 -0.6252206079302823 -0.7819135862791528
5147000000.0 -0.6694371959639954 -0.8186925220409222
5150000000.0 -0.657449098183687 -0.8303701761531579
5153000000.0 -0.7312958373382765 -0.78548260337918
5156000000.0 -0.6667058834241261 -0.8244568476714944
5159000000.0 -0.710612888362401 -0.8117253924033577
5162000000.0 -0.7386758619899527 -0.7549765466122462
5166000000.0 -0.7631930447360488 -0.7772979390628018
5169000000.0 -0.7412062368571098 -0.7816490988687539
5172000000.0 -0.6876077038820579 -0.7560617627285507
5175000000.0 -0.7523497713822895 -0.7940657919206225
5178000000.0 -0.7337530798643965 -0.752934946650569
5181000000.0 -0.7456296489491249 -0.7785582858078598
5184000000.0 -0.7726369595386204 -0.7630655745273073
5188000000.0 -0.7816796155219156 -0.7637906168359557
