! Created with skrf 1.8.0 (http://scikit-rf.org).
# Hz S RI R 50.0 
!freq ReS11 ImS11
4000000000.0 0.5982823586240745 0.7831015636016438
4003000000.0 0.6754609872235566 0.8828889427142853
4006000000.0 0.672849481252453 0.7600530588392339
4009000000.0 0.7028449457842448 0.779891695998069
4012000000.0 0.6657249074623803 0.7913720163089274
4016000000.0 0.6615220416317495 0.7705255197673184
4019000000.0 0.6950917900887257 0.7740479199620299
4022000000.0 0.6787946550542365 0.8029296145849242
4025000000.0 0.746789254575832 0.7261485695612132
4028000000.0 0.7116657280779292 0.783933226824536
4031000000.0 0.6826266615123416 0.7224105636676569
4034000000.0 0.7264550754026118 0.7441034508845832
4038000000.0 0.7308976797255752 0.7570130938868938
4041000000.0 0.7522110810397837 0.7369288867576157
4044000000.0 0.7818745571261448 0.7562410448434727
4047000000.0 0.7660343802023589 0.793596317774
4050000000.0 0.7813287076799774 0.7123612225907202
4053000000.0 0.7513067292110011 0.66414086053984
4056000000.0 0.7371726750687492 0.7057378973515017
4059000000.0 0.7463419546374108 0.6835976180971821
4062000000.0 0.7993217558831307 0.6873267480756933
4066000000.0 0.7537203958077339 0.6793178146811106
4069000000.0 0.8673638273674155 0.6780473891054224
4072000000.0 0.7814051209741234 0.6927600569444834
4075000000.0 0.8026291298059747 0.716252369828424
4078000000.0 0.8222215553797941 0.6561945169473292
4081000000.0 0.7474289379890654 0.7311425307135478
4084000000.0 0.8345718666889681 0.619914610608769
4088000000.0 0.8013075018733056 0.6981640861213558
4091000000.0 0.8559886247563265 0.6708034067791377
4094000000.0 0.8170222846018821 0.6181974708240608
4097000000.0 0.822188300694249 0.6478854255210531
4100000000.0 0.8320384317255685 0.573876803132801
4103000000.0 0.8542933772994858 0.634617364206042
4106000000.0 0.8515341437795403 0.621744755912312
4109000000.0 0.8499423422181425 0.5959163466192634
4112000000.0 0.8424537871891729 0.5841653078719109
4116000000.0 0.8381796405184135 0.5643190073765995
4119000000.0 0.8693399024467751 0.5653492957903841
4122000000.0 0.8926154017603735 0.5369571919464559
4125000000.0 0.8822119520198386 0.5799997768206624
4128000000.0 0.8301253745334073 0.5475851862251344
4131000000.0 0.9148452832803462 0.5583184911222197
4134000000.0 0.8454707430438447 0.5749576002635184
4138000000.0 0.8627556317175173 0.4914484221427636
4141000000.0 0.8819294238618935 0.497705578749461
4144000000.0 0.8881617720175042 0.556716040605213
4147000000.0 0.8973008683323606 0.5009531422944056
4150000000.0 0.9234019693053146 0.5274572017019603
4153000000.0 0.8774882035508091 0.4919885901677461
4156000000.0 0.9255853482541825 0.5103970814664966
4159000000.0 0.9000104002304301 0.4618445463493051
4162000000.0 0.878284011316391 0.4734995530002468
4166000000.0 0.969191221056718 0.44792941822671994
4169000000.0 0.9421706457764867 0.4433330636225089
4172000000.0 0.906577272792028 0.47686216588961333
4175000000.0 0.9275454182724017 0.433671265401054
4178000000.0 0.9410496858039844 0.42878782135808824
4181000000.0 0.9610986660505199 0.4205151795803421
4184000000.0 0.9577686504789793 0.423268336293343
4188000000.0 0.949157808783262 0.42449904991627374
4191000000.0 0.9242785255057105 0.41849680654545235
4194000000.0 0.926762889693891 0.3740960605110406
4197000000.0 0.9441109387770507 0.3824966843643795
4200000000.0 0.9543857701705494 0.40814524018554177
4203000000.0 0.955181936360463 0.38381165394570893
4206000000.0 0.9757945138512133 0.37025016988944465
4209000000.0 0.9595900417721293 0.3636895952592077
4212000000.0 0.9664246826101369 0.3246348135833452
4216000000.0 0.9758165251083897 0.33845661686627265
4219000000.0 0.973267494822975 0.3373322007374969
4222000000.0 0.9780223065165228 0.2939523449299205
4225000000.0 0.9519948730063064 0.312395275998964
4228000000.0 0.9878085826865886 0.3166662146719279
4231000000.0 0.9757694207930927 0.29158646201426364
4234000000.0 0.9949935326010353 0.2780837256692394
4238000000.0 0.9766663573718638 0.27595625654636413
4241000000.0 0.9819683543787641 0.25266122520491907
4244000000.0 0.9728528103340043 0.26092606398087936
4247000000.0 0.9992486472118235 0.2627748885549707
4250000000.0 0.9752767865060976 0.2454591785684938
4253000000.0 0.9661233093849557 0.21200438909811048
4256000000.0 1.002421719612314 0.2271527784347972
4259000000.0 0.9703219891010575 0.20885109549328865
4262000000.0 0.9900716060872086 0.20581576849184466
4266000000.0 1.0193659055338629 0.17718333488849902
4269000000.0 0.9982662483864467 0.23094901039225288
4272000000.0 1.0208415508062478 0.20192425184709945
4275000000.0 1.0029209869263822 0.18581002702251892
4278000000.0 1.0105863470207836 0.19160714291204556
4281000000.0 0.9959491379267784 0.16127068826060048
4284000000.0 1.010109777968733 0.1239208287674872
4288000000.0 1.0069586772876482 0.16661729106197334
4291000000.0 0.9909182213692016 0.12957690048795828
4294000000.0 0.9978336963886062 0.12593789944364825
4297000000.0 0.9819853039450276 0.12768627071324862
4300000000.0 0.9820747169497217 0.13026444752308183
4303000000.0 0.9975102714472694 0.06895925637970944
4306000000.0 1.011207704479296 0.12984961331626926
4309000000.0 1.008617314108654 0.09224971286020155
4312000000.0 1.0184468128231492 0.12663923768898788
4316000000.0 1.017347588899601 0.08260884732095992
4319000000.0 0.9783783915000814 0.06351183518550739
4322000000.0 1.0161061342318685 0.016138181253085374
4325000000.0 1.0235211085905014 0.03879315896642489
4328000000.0 1.0183046151873627 0.025170042269748574
4331000000.0 1.022525678986517 -0.0016207745824393799
4334000000.0 1.014184854058324 0.021398695078773677
4338000000.0 1.0214436514682446 0.021331635730535495
4341000000.0 1.030679233914414 0.019278968999024704
4344000000.0 1.0284228258818675 0.005015432341367393
4347000000.0 1.0073192001816398 -0.01588198478699801
4350000000.0 0.9851877845057084 -0.042494005940803714
4353000000.0 0.9916035084221049 -0.02174934975101228
4356000000.0 0.9923226337413288 -0.06244879891968426
4359000000.0 0.989184717919732 -0.0530516663196926
4362000000.0 1.0032062503813413 -0.09240893963186554
4366000000.0 1.0231850442159574 -0.06518786979172786
4369000000.0 0.983276217464015 -0.06994456291899746
4372000000.0 1.0044909653650973 -0.12524967106730708
4375000000.0 0.9993458433648641 -0.08471805362074133
4378000000.0 0.9965330530885709 -0.10361344033497362
4381000000.0 0.9863572274440671 -0.1003320279464324
4384000000.0 1.0507199764318167 -0.14048205467792974
4388000000.0 0.9840373527046119 -0.11524521231193073
4391000000.0 1.0258044032858942 -0.13202672120771825
4394000000.0 0.9671626408735096 -0.1457897163371463
4397000000.0 0.9936782829485957 -0.16026245646801696
4400000000.0 1.0324500825612926 -0.18358747112462726
4403000000.0 1.0077108484716946 -0.16861132989065844
4406000000.0 0.9919588362131411 -0.19555746257011797
4409000000.0 1.0326931639990573 -0.20269571697264044
4412000000.0 0.9806047297131709 -0.25795727624598014
4416000000.0 0.9649368272580046 -0.21810659169225985
4419000000.0 0.9830323690577534 -0.24340806753157881
4422000000.0 0.9829712780320041 -0.21537634828331303
4425000000.0 1.0169201825432093 -0.21966474237774294
4428000000.0 0.9782227268977262 -0.23817839737184154
4431000000.0 1.0024149144451713 -0.24206169599073055
4434000000.0 0.9643933569600698 -0.2827411892367781
4438000000.0 1.012207626056082 -0.27480907908652485
4441000000.0 0.9909268166793495 -0.2838938093560005
4444000000.0 0.9554002020909398 -0.28609498163431346
4447000000.0 0.9606790182089139 -0.30705446221498944
4450000000.0 0.9532261135423674 -0.2724625109625799
4453000000.0 0.9890031240896547 -0.31282649312326716
4456000000.0 0.9379865133709189 -0.32192556039265596
4459000000.0 0.9091524487384715 -0.3200584094278234
4462000000.0 1.009485705928568 -0.3485807939864264
4466000000.0 0.9902613977031012 -0.3751697419808998
4469000000.0 0.9683075439561012 -0.3208055832815472
4472000000.0 0.9548884268022311 -0.3948718179771022
4475000000.0 0.9195188997714103 -0.3574359039417674
4478000000.0 0.9705495563528652 -0.4045807743133748
4481000000.0 0.8892596748288335 -0.3875441578063175
4484000000.0 0.9080566962445575 -0.43365495275323696
4488000000.0 0.9042361376585123 -0.42650910191812985
4491000000.0 0.9332595288181307 -0.4113724450748274
4494000000.0 0.9111415794538925 -0.40245190822979754
4497000000.0 0.9305128575868962 -0.4274556122708802
4500000000.0 0.9055383151014944 -0.4299168258940316
4503000000.0 0.9458419184808826 -0.46252035534267005
4506000000.0 0.9081829799879102 -0.45254183898207334
4509000000.0 0.8791288650528288 -0.4517202365792168
4512000000.0 0.8825092942336584 -0.47490671910570603
4516000000.0 0.9178334897346832 -0.4734355432384025
4519000000.0 0.8616168585418301 -0.45173197904111667
4522000000.0 0.8806653777073679 -0.5044629695541165
4525000000.0 0.8810048590022703 -0.4658188470580828
4528000000.0 0.9013760677835021 -0.5061945788093608
4531000000.0 0.8801037429365322 -0.5070948159408772
4534000000.0 0.8609991134811504 -0.5097054662681223
4538000000.0 0.8484136363023589 -0.5288273217431386
4541000000.0 0.8374163017530096 -0.5666422278185738
4544000000.0 0.8532141299383278 -0.5407179772762432
4547000000.0 0.8516200289891356 -0.5310739771648532
4550000000.0 0.835578522825728 -0.5764848352681718
4553000000.0 0.8261599688070773 -0.5672904456916199
4556000000.0 0.8051685233212116 -0.575726788218325
4559000000.0 0.8180516080330639 -0.5922554754111875
4562000000.0 0.8405732270444535 -0.5949477911543977
4566000000.0 0.8194067639914882 -0.6014034007874869
4569000000.0 0.7948849079143344 -0.5957945936559397
4572000000.0 0.7924651309110229 -0.5946365402834823
4575000000.0 0.7973365588628356 -0.6261851550398252
4578000000.0 0.8280989753102694 -0.64188149242773
4581000000.0 0.7842427739323296 -0.6505175752043488
4584000000.0 0.753693094661044 -0.6302366544940875
4588000000.0 0.8087389889264252 -0.6545207257604939
4591000000.0 0.7853192132255172 -0.6357878273558166
4594000000.0 0.7373548276475841 -0.6548428646720729
4597000000.0 0.7542827991164625 -0.6785994948830927
4600000000.0 0.7317629585995576 -0.6861926341803386
4603000000.0 0.7477355762371717 -0.6903389838504056
4606000000.0 0.7425467057260409 -0.6980922433490916
4609000000.0 0.7357433111952878 -0.6819446675762556
4612000000.0 0.7392265946004971 -0.7100809755736225
4616000000.0 0.7070624295245749 -0.6966409356996909
4619000000.0 0.7081153106632309 -0.7212315111444365
4622000000.0 0.7043004388054922 -0.7379526831484304
4625000000.0 0.6630321951817086 -0.7158499707447874
4628000000.0 0.6979981295897227 -0.7089380440419417
4631000000.0 0.6595330894795965 -0.748201647013225
4634000000.0 0.6877636219214877 -0.7435857657586887
4638000000.0 0.6894747862199022 -0.7545814296486708
4641000000.0 0.6799357770385595 -0.7539868589414439
4644000000.0 0.6687409873400255 -0.7574843783557729
4647000000.0 0.6677407798571706 -0.7524526600900233
4650000000.0 0.6390036077221533 -0.7773495241069286
4653000000.0 0.6587063745623396 -0.7924000204061037
4656000000.0 0.6394972686571214 -0.789853061870698
4659000000.0 0.6279450802900188 -0.7775495478209453
4662000000.0 0.6433640968494972 -0.8140938893152678
4666000000.0 0.6024139714312228 -0.8153583578418327
4669000000.0 0.6236176385125454 -0.7977383891988509
4672000000.0 0.5821158962075018 -0.8556141406572616
4675000000.0 0.5810707033847893 -0.8299279791967713
4678000000.0 0.5562946249038129 -0.7814195879551015
4681000000.0 0.5474923944238466 -0.8346810606452809
4684000000.0 0.5477929811210569 -0.8602299327567163
4688000000.0 0.5354608380993422 -0.8326497721707737
4691000000.0 0.5938306774096169 -0.8434378886572635
4694000000.0 0.5626122718488269 -0.8324573730702423
4697000000.0 0.5052971126015677 -0.8367645424329178
4700000000.0 0.540665759344573 -0.8547730614242952
4703000000.0 0.5432635835037076 -0.8481860477686942
4706000000.0 0.49462185785480917 -0.8822985464321612
4709000000.0 0.48162018408771656 -0.8577124309481862
4712000000.0 0.5207521811912148 -0.8707988176020375
4716000000.0 0.4801120776350027 -0.9073923784273192
4719000000.0 0.5145543773299734 -0.8962167113838032
4722000000.0 0.4890721921826945 -0.8826122341664819
4725000000.0 0.4837767682448222 -0.884983170579911
4728000000.0 0.46126336693265 -0.8862361025298342
4731000000.0 0.4698150898536473 -0.9202442135922668
4734000000.0 0.45051896302570604 -0.8943355501461162
4738000000.0 0.4736007748034545 -0.9381952798862238
4741000000.0 0.44358763562329806 -0.9295368789624652
4744000000.0 0.42683353354525444 -0.9388142009797026
4747000000.0 0.4208294626831995 -0.8874849010034886
4750000000.0 0.4392794246474226 -0.9295280791355838
4753000000.0 0.458389009895793 -0.9338627269289502
4756000000.0 0.36905863157956664 -0.946432625343554
4759000000.0 0.3964593124438999 -0.9736557857292626
4762000000.0 0.36867069419647275 -0.9555915573621305
4766000000.0 0.3649295600482451 -0.9454456469440703
4769000000.0 0.39001470639103464 -0.9688246142783151
4772000000.0 0.376489188313402 -0.9471552789942904
4775000000.0 0.3422565363343889 -1.0243621324912449
4778000000.0 0.33535511420624436 -0.9736294867906402
4781000000.0 0.35154202677325963 -0.9450486321005231
4784000000.0 0.3392725140015344 -0.9460623338792261
4788000000.0 0.3130159529981729 -1.0051970866465525
4791000000.0 0.33426003250352926 -0.9556591340161528
4794000000.0 0.33288443089481545 -1.0197901842276842
4797000000.0 0.26198985566465754 -0.9749563740281203
4800000000.0 0.2855512054953436 -0.9736027513500549
4803000000.0 0.2243492695567916 -0.9814575537087951
4806000000.0 0.260616073673868 -0.9978686571120279
4809000000.0 0.22443732798694294 -1.0146150792255144
4812000000.0 0.2292353889835956 -0.9933985208145535
4816000000.0 0.2634248255962844 -0.973274223276019
4819000000.0 0.2509511150616271 -1.0091987546386656
4822000000.0 0.26442945065872053 -1.0132547115904649
4825000000.0 0.2541701145535269 -1.0216591319570947
4828000000.0 0.21512968412018826 -0.9899681813105216
4831000000.0 0.16610212951128311 -1.0364181887971307
4834000000.0 0.20843180321723515 -1.010535862563822
4838000000.0 0.18300501479256875 -1.0301610189771857
4841000000.0 0.16140016394367118 -1.0006519411874257
4844000000.0 0.20832835010568052 -1.0209951042208403
4847000000.0 0.17253288694062408 -0.9785753440975518
4850000000.0 0.1469376926438446 -1.0314331280598452
4853000000.0 0.13648154991201472 -0.9907628520362033
4856000000.0 0.14358654281882327 -1.00493550975721
4859000000.0 0.11603889410041691 -1.0494539026345024
4862000000.0 0.15730266167649326 -0.99178184312743
4866000000.0 0.09198727615933144 -1.0380891308883822
4869000000.0 0.09250197849984264 -1.0231360206728781
4872000000.0 0.07380190748211671 -1.0501650459400773
4875000000.0 0.1265866790279148 -1.0707215434284199
4878000000.0 0.05890388698257836 -1.034107294281315
4881000000.0 0.03868833288390438 -1.0893201101164964
4884000000.0 0.06511462538757218 -1.0326675366655529
4888000000.0 0.06152748456180467 -1.0219402317723956
4891000000.0 0.06313147728408339 -1.038955285793558
4894000000.0 0.03982766862046399 -1.0244731765118784
4897000000.0 0.03163694194322362 -1.0346663463131827
4900000000.0 0.025548794658806676 -1.0378701715379937
4903000000.0 0.02876850793842786 -1.0485756951120624
4906000000.0 -0.0004083118496909007 -1.041641253121256
4909000000.0 -0.027559451617143807 -1.0433518952984215
4912000000.0 -0.04926027963601927 -1.0705206548000705
4916000000.0 -0.0018668627259389933 -1.07857985336101
4919000000.0 -0.002081964960311211 -1.0735319858239616
4922000000.0 -0.04577701519933004 -1.0378954978098094
4925000000.0 -0.061238623351008215 -1.000751142251999
4928000000.0 0.0012348869314547373 -1.0196942782651535
4931000000.0 -0.026524887217739643 -1.0377412187687836
4934000000.0 -0.061795956822510587 -0.9891325925717255
4938000000.0 -0.1233875924687204 -1.006596135784021
4941000000.0 -0.07809721881263156 -0.9992091334334255
4944000000.0 -0.06548749038017984 -0.9703367281687345
4947000000.0 -0.10105278383068059 -1.0141683179648107
4950000000.0 -0.11305681114473602 -0.998194000097908
4953000000.0 -0.15874337666781518 -1.017813353607782
4956000000.0 -0.1566612483064267 -1.017986905777416
4959000000.0 -0.18572765052356224 -0.9715886715292382
4962000000.0 -0.2066477060203132 -1.0333065953050715
4966000000.0 -0.14766096380206584 -1.0366553246588184
4969000000.0 -0.14869992821864159 -1.0717757338367242
4972000000.0 -0.17291938648167868 -1.03468580628085
4975000000.0 -0.1568160613987555 -0.9987370987143636
4978000000.0 -0.22863436575445906 -0.9910519691924866
4981000000.0 -0.23757151357800096 -1.0064372702961877
4984000000.0 -0.1745537557135027 -1.00575980336999
4988000000.0 -0.20327896131165962 -1.0044358341517894
4991000000.0 -0.16871653858144836 -1.0371628510844833
4994000000.0 -0.23401653769211894 -1.0061624143405137
4997000000.0 -0.28022116658470403 -1.017396209657397
5000000000.0 -0.21876184198116516 -1.0571196702797507
5003000000.0 -0.24116986545760905 -1.068493522241319
5006000000.0 -0.25156206941476766 -1.0592983480428648
5009000000.0 -0.25347625132217777 -1.014392797766038
5012000000.0 -0.30504395247124244 -0.9792421130294287
5016000000.0 -0.2572959139259305 -1.045580096952893
5019000000.0 -0.3262054434676884 -0.9754425844529124
5022000000.0 -0.30766747458012733 -0.9782134642381588
5025000000.0 -0.32634274537705427 -1.0379804140496869
5028000000.0 -0.32327753435480167 -0.9733157835545374
5031000000.0 -0.29856362993574403 -0.9918276002014171
5034000000.0 -0.36203431506507544 -1.0071029209647824
5038000000.0 -0.3458188068339567 -0.9540369585865889
5041000000.0 -0.33160242052269984 -0.9771678921844597
5044000000.0 -0.31816783910263746 -0.9784169151005139
5047000000.0 -0.3331307376894878 -0.9852052056143231
5050000000.0 -0.3086165534517814 -0.9752064806076508
5053000000.0 -0.42883650037633514 -1.022925165388527
5056000000.0 -0.3392995867282047 -1.005317387162335
5059000000.0 -0.32708655906898937 -0.9753665999722597
5062000000.0 -0.415642572046234 -0.9697355761983513
5066000000.0 -0.37673248588071206 -0.9570459006572176
5069000000.0 -0.39664040112632937 -0.9484785086566875
5072000000.0 -0.40677448343484834 -0.9454557897552422
5075000000.0 -0.3652843813562233 -0.9812360038342025
5078000000.0 -0.4215517931730292 -0.9480361654282097
5081000000.0 -0.44173504103751654 -0.9139366043037508
5084000000.0 -0.478663538635961 -0.9569310828879349
5088000000.0 -0.4182937391295917 -0.9435401307363196
5091000000.0 -0.4977188264790641 -0.9141983595965602
5094000000.0 -0.48332983430337656 -0.970370201727273
5097000000.0 -0.45434082957594524 -0.9299333112319248
5100000000.0 -0.4720697595299529 -0.9575641343416345
5103000000.0 -0.5522743300216815 -0.8892848211967089
5106000000.0 -0.48954431844263974 -0.9398379681751239
5109000000.0 -0.4875262316580286 -0.9370023553272397
5112000000.0 -0.5085322009157756 -0.9010739752215853
5116000000.0 -0.4761318425978881 -0.9224724227061014
5119000000.0 -0.559289791998069 -0.9352879764987594
5122000000.0 -0.5154086825441687 -0.8554094637345468
5125000000.0 -0.5378171878644359 -0.9005193782807585
5128000000.0 -0.6007233112746911 -0.8631589854073314
5131000000.0 -0.5414911652944423 -0.8779071412354313
5134000000.0 -0.5343994415825791 -0.8516759438322342
5138000000.0 -0.5442964221467664 -0.8845702581648991
5141000000.0 -0.5089649778040761 -0.8775556547138985
5144000000.0 -0.5635061644793293 -0.8950215343024
5147000000.0 -0.6089268843944724 -0.9166186368306541
5150000000.0 -0.5772360759871517 -0.8764251604212894
5153000000.0 -0.6380638917232162 -0.8472677632237311
5156000000.0 -0.6119356193942637 -0.8241906525115955
5159000000.0 -0.6789474426562386 -0.8658085671024636
5162000000.0 -0.6153975675601332 -0.8248476137397575
5166000000.0 -0.6544729476280953 -0.8381603185540232
5169000000.0 -0.6287896543119336 -0.8346627187581734
5172000000.0 -0.6117304148551248 -0.8110408089140758
5175000000.0 -0.647694214849215 -0.8008196146262141
5178000000.0 -0.655977395777974 -0.8265620948849438
5181000000.0 -0.6792085711196569 -0.8387007231882375
5184000000.0 -0.6786875350605444 -0.8074336115867626
5188000000.0 -0.6698677539912604 -0.7906321018407922
