! Created with skrf 1.8.0 (http://scikit-rf.org).
# Hz S RI R 50.0 
!freq ReS11 ImS11
4000000000.0 0.6232388797092099 0.7948706755735166
4003000000.0 0.6572390810166436 0.8579356402826815
4006000000.0 0.6706137531450682 0.7398146421175597
4009000000.0 0.6633272651355274 0.8238968377571134
4012000000.0 0.6421816400620378 0.862772838667408
4016000000.0 0.7110305580677856 0.8049360066046325
4019000000.0 0.6497893615942303 0.784066710741661
4022000000.0 0.6271303875786004 0.8439947785882177
4025000000.0 0.70773397498231 0.7322860563103631
4028000000.0 0.724590428636311 0.7447463872259337
4031000000.0 0.6565789579565702 0.731251652569711
4034000000.0 0.7445207365876296 0.7076529078516867
4038000000.0 0.7524082463685694 0.6981893587671696
4041000000.0 0.722071303578583 0.7495709976916306
4044000000.0 0.786211464234972 0.7408177349572295
4047000000.0 0.7569265597754299 0.8173019592263101
4050000000.0 0.7764467412421603 0.7314787993432893
4053000000.0 0.7808661367997525 0.6753968895685507
4056000000.0 0.757266556804235 0.7009942137139323
4059000000.0 0.7602589825819284 0.6811421263446049
4062000000.0 0.8116625404199075 0.6858904210865027
4066000000.0 0.7602744808083342 0.6435777634024205
4069000000.0 0.8617356501958484 0.6676962519042461
4072000000.0 0.7529402407643633 0.676379125690975
4075000000.0 0.7756151119531326 0.6993306591283577
4078000000.0 0.7957491693531159 0.6743663074516295
4081000000.0 0.7673883364844294 0.7375101217317769
4084000000.0 0.819399107264806 0.6597120325052603
4088000000.0 0.787763908825369 0.6720416187625738
4091000000.0 0.892622361107913 0.6915778088980964
4094000000.0 0.8188049198738004 0.6116573294326183
4097000000.0 0.8324637276334098 0.6107198079288192
4100000000.0 0.8336894011383938 0.6156439199761472
4103000000.0 0.8418381021711885 0.6545978829048209
4106000000.0 0.8591408720174799 0.6093799734031734
4109000000.0 0.8537845368719394 0.5770838909688905
4112000000.0 0.8702043696307526 0.5992217148901222
4116000000.0 0.821489193916478 0.6120420629167505
4119000000.0 0.8927587437774939 0.5387702897418553
4122000000.0 0.862075458258898 0.5317020186077178
4125000000.0 0.8986751633547324 0.5347800870525286
4128000000.0 0.8355828037174401 0.5585014822790543
4131000000.0 0.8239324061684683 0.5486639258438252
4134000000.0 0.8489355784271757 0.5411947406684879
4138000000.0 0.8255580666057589 0.5133627981441538
4141000000.0 0.8872588495731025 0.5120109434280383
4144000000.0 0.8893420347350769 0.5531212083642254
4147000000.0 0.883426357341241 0.49269353412797295
4150000000.0 0.9713788070556155 0.5294482844512918
4153000000.0 0.9474434324350112 0.5005147163038116
4156000000.0 0.9249794653261938 0.5008761328335192
4159000000.0 0.8886407394299471 0.453928671431915
4162000000.0 0.8993830099359654 0.4753737737053537
4166000000.0 0.922748399096242 0.47568398225661046
4169000000.0 0.9391694983092029 0.434102113058894
4172000000.0 0.9145900577100614 0.45495035925366406
4175000000.0 0.9496262439919868 0.45010799375097205
4178000000.0 0.9505722724332278 0.45354550537973215
4181000000.0 0.9447635407090491 0.4234147977808995
4184000000.0 0.9373277380386851 0.39431424726802483
4188000000.0 0.9648786330604593 0.42083492319987803
4191000000.0 0.9030090294283234 0.4251323418433534
4194000000.0 0.9208432967608768 0.40159866039708025
4197000000.0 0.9695691781825815 0.4103018919124894
4200000000.0 0.9267380326962726 0.3970880932338319
4203000000.0 0.962135907150109 0.3786770365182325
4206000000.0 0.9749277173774665 0.38165304441287057
4209000000.0 0.9443487154020246 0.36806560698164764
4212000000.0 0.973778820305469 0.3433112125212999
4216000000.0 0.9570603180354115 0.3413388560308977
4219000000.0 0.977227861248192 0.3418141535701541
4222000000.0 0.976267319195335 0.30796669339826493
4225000000.0 0.977627098893407 0.30028803525487424
4228000000.0 0.9784081228845334 0.3053278485220081
4231000000.0 0.9918693478409929 0.30989150733994697
4234000000.0 0.9957710334861694 0.30267242352951423
4238000000.0 0.993992428832201 0.28014729418179485
4241000000.0 0.9898659210263281 0.2720912212165674
4244000000.0 0.9802401797181782 0.2779274858694469
4247000000.0 0.9891727302465115 0.26593658652137636
4250000000.0 0.9759684539108233 0.24237617479571455
4253000000.0 0.9664742924570298 0.2266348463413292
4256000000.0 1.0314618899878176 0.23133230290645107
4259000000.0 0.9712612349880082 0.21900677529948434
4262000000.0 1.0046224895852234 0.22265018160675157
4266000000.0 0.9973010845309368 0.1921182556277361
4269000000.0 1.0177300305279444 0.2233548976075542
4272000000.0 1.0074417150083104 0.19132677004092968
4275000000.0 1.026353292855691 0.18377294905488106
4278000000.0 1.0203963856893883 0.1598124099107387
4281000000.0 1.001235680135525 0.18246917700355475
4284000000.0 1.0044384497660932 0.13128352660124862
4288000000.0 1.0079324980413036 0.17790331844460266
4291000000.0 0.9657726614047973 0.12464246095654176
4294000000.0 0.9824108162182773 0.12101848392031088
4297000000.0 0.9995004095703202 0.14421298215135037
4300000000.0 1.0052287001665934 0.11546636495973786
4303000000.0 0.9969537561008658 0.07938444569457266
4306000000.0 1.0208076990828687 0.12270835854135137
4309000000.0 0.9861672632196877 0.09760550943449971
4312000000.0 1.0476650200447963 0.11578949385775827
4316000000.0 1.0385875610826294 0.08882183568539355
4319000000.0 1.0070291876071487 0.0680713892147768
4322000000.0 1.0074371100644595 0.032545936794127275
4325000000.0 1.0340592507794812 0.06712244577329486
4328000000.0 1.0055604183835756 0.03486054419887703
4331000000.0 1.0079717658037761 -0.006899250654672728
4334000000.0 1.046825034473935 0.03124718102430002
4338000000.0 1.020912289544797 0.023616125508248556
4341000000.0 1.0344205381115568 0.042473402166917085
4344000000.0 1.0463803609477016 0.018642186262517402
4347000000.0 1.0323615792046332 -0.04673052724908068
4350000000.0 0.9784303271774747 -0.018307433478400026
4353000000.0 0.9936139533029367 -0.0060386772142953515
4356000000.0 1.0068884652800345 -0.06086203010662275
4359000000.0 0.9744517080426885 -0.05354712969600782
4362000000.0 1.019628579995989 -0.10945077892099296
4366000000.0 1.029202063260538 -0.07074907801926424
4369000000.0 0.9929795641374813 -0.07664335997766195
4372000000.0 0.9926748921428565 -0.13313781445808037
4375000000.0 1.008906786925531 -0.07373747547159104
4378000000.0 0.9857708776621154 -0.08988542278087297
4381000000.0 0.9978404497783016 -0.10886333152686117
4384000000.0 1.0617215173059906 -0.1387957602687082
4388000000.0 0.988636802488208 -0.10248786832119637
4391000000.0 1.019540178817086 -0.13225350437347122
4394000000.0 0.9821088712624071 -0.14196968503305263
4397000000.0 1.0163057934272712 -0.15517981107004877
4400000000.0 1.0140741117179966 -0.1697210370337819
4403000000.0 1.0076137569523742 -0.16610607389706686
4406000000.0 0.9963998965533738 -0.2045773293875099
4409000000.0 1.026693025830021 -0.1881789225973334
4412000000.0 0.9861484441796008 -0.24052664490609085
4416000000.0 0.9613205483707572 -0.22076957046354856
4419000000.0 0.9751209024687013 -0.2253925007357126
4422000000.0 0.9829417812036576 -0.19580595361170627
4425000000.0 1.0099661528965211 -0.2105111841224943
4428000000.0 0.9844482461149711 -0.2454209412205199
4431000000.0 1.005464102519666 -0.24518225586359524
4434000000.0 0.9792064815027763 -0.26721666037309366
4438000000.0 0.9907435695922258 -0.2748000799402815
4441000000.0 0.9983571734457115 -0.2769816061289559
4444000000.0 0.9434223845974608 -0.27004630680480657
4447000000.0 0.9624802730196518 -0.30174308067429456
4450000000.0 0.9643217527421797 -0.2863984357061611
4453000000.0 0.9755815434318156 -0.3022079779487021
4456000000.0 0.9241672664334388 -0.31899900455110686
4459000000.0 0.9017423437402228 -0.333953086847536
4462000000.0 1.0185055251690875 -0.35030344168409655
4466000000.0 0.9831392888142545 -0.36629449936686564
4469000000.0 0.9578373733385529 -0.3288152186083484
4472000000.0 0.9474861683248789 -0.38910822278462753
4475000000.0 0.9169935976062502 -0.36460564304427023
4478000000.0 0.9740340046407974 -0.41098841870472624
4481000000.0 0.9176335349137517 -0.37973026251504044
4484000000.0 0.9010787426639799 -0.40882561169637577
4488000000.0 0.9282136530961366 -0.4095065094443899
4491000000.0 0.9193610614925309 -0.427537404959755
4494000000.0 0.8934328061590527 -0.41516106350468684
4497000000.0 0.9190997964848997 -0.39266133350872967
4500000000.0 0.9024173462618239 -0.4306436535485082
4503000000.0 0.9382880793657791 -0.4266016075393455
4506000000.0 0.8918034820398846 -0.45102981045962626
4509000000.0 0.8621202182819447 -0.45759845366308116
4512000000.0 0.881221073519212 -0.4815291068373103
4516000000.0 0.9357189459408831 -0.47117249295595054
4519000000.0 0.8760873031460309 -0.47092140128484045
4522000000.0 0.8747232066210249 -0.49309865086276905
4525000000.0 0.8971390861061908 -0.46175169984309966
4528000000.0 0.893066997939792 -0.5181214375351881
4531000000.0 0.8950227399229997 -0.5117581422292229
4534000000.0 0.8425944431893339 -0.531076869548767
4538000000.0 0.8606260819180043 -0.5415220741589122
4541000000.0 0.8412534462805692 -0.5682231886063163
4544000000.0 0.8263516370853263 -0.5461853115536882
4547000000.0 0.8534154759644381 -0.5205051955323983
4550000000.0 0.8342748742467316 -0.5697944156572509
4553000000.0 0.8281238891214888 -0.5641917523983039
4556000000.0 0.8131598581366635 -0.5839350286020594
4559000000.0 0.8301712314518382 -0.5771406379858819
4562000000.0 0.8283738252929722 -0.5888355806165243
4566000000.0 0.8165086769538041 -0.6110052446983274
4569000000.0 0.778304187406821 -0.6051135382009223
4572000000.0 0.7970969104233974 -0.591638484668952
4575000000.0 0.7877185330593779 -0.6241131826280694
4578000000.0 0.8233767664862821 -0.6237307098153975
4581000000.0 0.7883028046230943 -0.6493013309406978
4584000000.0 0.7858061395281227 -0.6281464284790712
4588000000.0 0.7862884239723589 -0.6364612226260151
4591000000.0 0.7844082760652903 -0.6218459630298501
4594000000.0 0.7557080037399735 -0.6827891523231587
4597000000.0 0.7639484263654326 -0.6806514090897849
4600000000.0 0.7391984872780613 -0.6814353149024793
4603000000.0 0.7500877701767031 -0.6743089496107378
4606000000.0 0.7460717896669059 -0.6832343336591118
4609000000.0 0.7360531115875373 -0.6912142737728456
4612000000.0 0.7470128135031147 -0.7109751607441718
4616000000.0 0.7264979008920378 -0.7142038570110701
4619000000.0 0.7462066369386341 -0.7182536368567162
4622000000.0 0.7051216943078943 -0.7032652179673754
4625000000.0 0.6733549842254075 -0.7128090887072543
4628000000.0 0.6937221152705403 -0.7143469395272544
4631000000.0 0.675643675111478 -0.7296097796736629
4634000000.0 0.6686500056437371 -0.7416641804819128
4638000000.0 0.672577050592594 -0.7607746994437504
4641000000.0 0.6949158103894375 -0.7331680206598258
4644000000.0 0.6503222116625094 -0.7529778530087983
4647000000.0 0.6837116317001916 -0.7617978511571862
4650000000.0 0.6376891810689398 -0.7917358775300896
4653000000.0 0.6693766491712474 -0.7748706311889457
4656000000.0 0.6426204685121819 -0.7857840671966894
4659000000.0 0.6264224040260502 -0.7927116713900474
4662000000.0 0.6220754695693317 -0.7904434441480936
4666000000.0 0.6201029149701677 -0.8075374990547608
4669000000.0 0.613184957061738 -0.7951180168636293
4672000000.0 0.6021165892951633 -0.820068309041187
4675000000.0 0.579914660278622 -0.8326997205796708
4678000000.0 0.5740668860085646 -0.8091378951597342
4681000000.0 0.5787361331329892 -0.8749755075090232
4684000000.0 0.5593767407139263 -0.8282432975604694
4688000000.0 0.5570156399048092 -0.8561469471344899
4691000000.0 0.5830460014843328 -0.8179959687749632
4694000000.0 0.5749100551474193 -0.8497811300422939
4697000000.0 0.5045256065982193 -0.8403418785007388
4700000000.0 0.5582454600220711 -0.843316339884284
4703000000.0 0.5263397386371471 -0.8327927591643567
4706000000.0 0.5056060824769395 -0.883375224490759
4709000000.0 0.5178676468769698 -0.8738111215921455
4712000000.0 0.5297750862229285 -0.8652202941520953
4716000000.0 0.49224922872070953 -0.8956299749989964
4719000000.0 0.5200250137875575 -0.9118889180618396
4722000000.0 0.5203063322308163 -0.8852923554103598
4725000000.0 0.4826655218549019 -0.8842541410331476
4728000000.0 0.4695267605855868 -0.9020396718976582
4731000000.0 0.47578602816647814 -0.9241643906245729
4734000000.0 0.4661700003264827 -0.8671590799485175
4738000000.0 0.48902693093699806 -0.9665311849340734
4741000000.0 0.44880333339518774 -0.9487791608352065
4744000000.0 0.4370740845178726 -0.9296526977651263
4747000000.0 0.42812311632282735 -0.8833704740798185
4750000000.0 0.422501734292015 -0.9462997270046687
4753000000.0 0.4110420657887256 -0.9331196150555202
4756000000.0 0.4164562400362346 -0.9586749044696528
4759000000.0 0.39404010011064206 -0.9514559861784255
4762000000.0 0.3804661759182845 -0.9628064367614254
4766000000.0 0.3760447431177031 -0.9531328525993163
4769000000.0 0.3692981178763153 -0.9597136266868954
4772000000.0 0.3484441812547504 -0.9643982291567407
4775000000.0 0.33492041275404094 -0.998030686507255
4778000000.0 0.36115523052957643 -0.946631716648194
4781000000.0 0.3554597815561304 -0.9571633606737677
4784000000.0 0.3568104886973891 -0.933489616617425
4788000000.0 0.32841593903782795 -0.9925733232761988
4791000000.0 0.2893814029978961 -0.9450207141598993
4794000000.0 0.32962279615615897 -1.010191355555942
4797000000.0 0.28498744832355655 -0.975013980588516
4800000000.0 0.27323917082564136 -0.9477109374878374
4803000000.0 0.23602479841819257 -0.9809660358530976
4806000000.0 0.28932379040768097 -0.9976359678753735
4809000000.0 0.2394898644650278 -1.0094520066120096
4812000000.0 0.2283948021906789 -0.98476165944936
4816000000.0 0.2681101740031905 -0.9427318867936652
4819000000.0 0.25820791246400565 -1.0155299192535565
4822000000.0 0.26780887850995794 -1.009165672096138
4825000000.0 0.25887811161110036 -1.0008062360633254
4828000000.0 0.21015043861643612 -1.0019486499946404
4831000000.0 0.16894639121102975 -1.017630921721224
4834000000.0 0.2201087188394212 -1.0263735812304078
4838000000.0 0.17384151571686784 -1.0304993399870206
4841000000.0 0.17518731147810127 -0.9921675121547912
4844000000.0 0.1994520773469557 -1.005491450233175
4847000000.0 0.19148578869764002 -0.9751294129154
4850000000.0 0.15169895171769945 -1.04252839326679
4853000000.0 0.1440821125851991 -0.9735373906795608
4856000000.0 0.12166801564585669 -0.999201906120129
4859000000.0 0.12244834238681732 -1.04495211960319
4862000000.0 0.15997643307087445 -0.9955155979460067
4866000000.0 0.12035263620684766 -1.0463354417668447
4869000000.0 0.08748655164395573 -1.0385657693309143
4872000000.0 0.08265872294614059 -1.0420973840517305
4875000000.0 0.1277172731652863 -1.0855348133649991
4878000000.0 0.07870863071238551 -1.0389611600164552
4881000000.0 0.04997387191851749 -1.1021241798116708
4884000000.0 0.06915730501276594 -1.0342120826948884
4888000000.0 0.1128551344454627 -0.988547496058931
4891000000.0 0.09115086943859513 -1.0603580819950864
4894000000.0 0.018396402560410433 -1.0232962255029252
4897000000.0 0.06125881807878471 -1.019476563386935
4900000000.0 0.021731961562158904 -1.0677444533926335
4903000000.0 0.033899228113733505 -1.055908441371121
4906000000.0 0.021478343297849516 -1.049376919484908
4909000000.0 -0.008576287547233358 -1.0397611661139277
4912000000.0 -0.01618400299893053 -1.0844574868886476
4916000000.0 0.014430542145578665 -1.0579625195300966
4919000000.0 0.03705497578275835 -1.058808446179016
4922000000.0 0.03170952741504861 -1.0313980551560034
4925000000.0 -0.047211760485548065 -1.029043140244327
4928000000.0 0.025864616761404766 -1.0110578766899998
4931000000.0 -0.031707788213539645 -1.0798609255600349
4934000000.0 -0.04213466078179996 -1.009639934677016
4938000000.0 -0.09909162104516421 -0.9929541838140826
4941000000.0 -0.10596089393293372 -1.0102208286893934
4944000000.0 -0.05870732352757155 -0.9802517679684479
4947000000.0 -0.09637080765714093 -0.9869396212495656
4950000000.0 -0.0980021866855557 -1.0171049005987098
4953000000.0 -0.18968392258151362 -1.0480654823868036
4956000000.0 -0.14485941201302355 -1.0084673066998895
4959000000.0 -0.1542139036700614 -1.022561649835282
4962000000.0 -0.14448853406710696 -1.0597510689207645
4966000000.0 -0.13311129924277487 -1.0326255236726694
4969000000.0 -0.1455376250127584 -1.1052288813597306
4972000000.0 -0.1702030423140751 -1.0077185829636641
4975000000.0 -0.14467666896337808 -1.0028580218024066
4978000000.0 -0.19266910261906944 -1.0346501650844178
4981000000.0 -0.17604017038538725 -1.0363473241756176
4984000000.0 -0.1651056004453196 -1.0002511491867931
4988000000.0 -0.18310852703744457 -0.979013052640745
4991000000.0 -0.1515190254675598 -1.0753395801357326
4994000000.0 -0.22824853318700494 -1.0376350754356776
4997000000.0 -0.2382739679529592 -1.0048443074638342
5000000000.0 -0.24583953336999542 -1.0564568929922233
5003000000.0 -0.25731051905557983 -1.03980521393439
5006000000.0 -0.2643197036663528 -1.0398549910350767
5009000000.0 -0.27488897509952925 -0.9956412424705178
5012000000.0 -0.31740732737749117 -1.0257833562491006
5016000000.0 -0.23718879638056561 -1.038078243577518
5019000000.0 -0.31671400354779466 -1.007421229628352
5022000000.0 -0.2884600413857181 -0.9961906942315848
5025000000.0 -0.3020264663710876 -1.0515023225843885
5028000000.0 -0.33937801087754493 -1.0204913935502105
5031000000.0 -0.32422351248047754 -0.9850267035799317
5034000000.0 -0.36118808058856455 -0.9942626640494394
5038000000.0 -0.3290899830622348 -0.9530036848149499
5041000000.0 -0.31903009040146213 -1.0030116987860547
5044000000.0 -0.34573213526685986 -0.9864571251605819
5047000000.0 -0.36192673184859975 -0.9931152307305716
5050000000.0 -0.2816880955548372 -1.0004753944148084
5053000000.0 -0.3806406937239828 -1.0317986730812043
5056000000.0 -0.32840101954693457 -0.9784408127697837
5059000000.0 -0.35503419258083363 -1.0083490380609228
5062000000.0 -0.4392948586638088 -0.970954153769767
5066000000.0 -0.32475917404930876 -0.9640643766673358
5069000000.0 -0.3873438064267958 -0.9466165904282448
5072000000.0 -0.4313868970650664 -0.9500807587305549
5075000000.0 -0.3561085524441294 -0.9561603526521962
5078000000.0 -0.42226955562570095 -0.9664863961907466
5081000000.0 -0.42479614997468923 -0.9113758716898251
5084000000.0 -0.45421311742452153 -0.98037550075599
5088000000.0 -0.4097447582936385 -0.9580950942708486
5091000000.0 -0.4983624935632583 -0.9277654195664593
5094000000.0 -0.4575356699501239 -0.9080309941153711
5097000000.0 -0.39763148766612 -0.9828255468180853
5100000000.0 -0.48380643769023085 -0.9179896774647248
5103000000.0 -0.5401505805937755 -0.9117970569500787
5106000000.0 -0.509081543481367 -0.9817069822891455
5109000000.0 -0.44320754363241854 -0.9919054184216385
5112000000.0 -0.5050480900417603 -0.9228774958180335
5116000000.0 -0.48805297644268436 -0.8849806786438472
5119000000.0 -0.524567588551296 -0.9215091207785513
5122000000.0 -0.5299032772266253 -0.9199229729047023
5125000000.0 -0.4916078541385578 -0.9229631702501434
5128000000.0 -0.5098738140294776 -0.8831231464673577
5131000000.0 -0.5393523685726584 -0.8778801567239377
5134000000.0 -0.5571799151785329 -0.882481235645525
5138000000.0 -0.5607371436530406 -0.874457994425551
5141000000.0 -0.524029248963696 -0.9314691716164902
5144000000.0 -0.5723876081076397 -0.8689784913705195
5147000000.0 -0.5845848073408534 -0.8327029105903748
5150000000.0 -0.5761954166443856 -0.8817337777105891
5153000000.0 -0.6075178508783698 -0.8656270269668669
5156000000.0 -0.583266988832328 -0.8568009293564179
5159000000.0 -0.5925712365635323 -0.8931728535434915
5162000000.0 -0.6340412559769333 -0.8369612157983067
5166000000.0 -0.6399886688185055 -0.8281581519822615
5169000000.0 -0.6145977661482909 -0.840644631999383
5172000000.0 -0.6349004745983416 -0.832644690655752
5175000000.0 -0.6589852724639811 -0.8655374528894123
5178000000.0 -0.6283100119423848 -0.8130327979802662
5181000000.0 -0.6381974644591614 -0.852653387142694
5184000000.0 -0.6561605067238334 -0.8177088952046836
5188000000.0 -0.6368002398770066 -0.7868381929669167
