! Created with skrf 1.8.0 (http://scikit-rf.org).
# Hz S RI R 50.0 
!freq ReS11 ImS11
4000000000.0 0.6263542207315341 0.8090422807309621
4003000000.0 0.658219008790832 0.8480825176944046
4006000000.0 0.7438132817153367 0.767985714801427
4009000000.0 0.6573520244090996 0.8153554482680603
4012000000.0 0.6597129354212824 0.8358125149388919
4016000000.0 0.6863049043633848 0.7610103695627906
4019000000.0 0.6970805014295096 0.7351164073186156
4022000000.0 0.6419776934878413 0.7969487193840235
4025000000.0 0.7534576079312092 0.7243923734735921
4028000000.0 0.7252900784522353 0.7341220125596724
4031000000.0 0.666855901536326 0.6991187042977606
4034000000.0 0.7222833717800188 0.7466451243584854
4038000000.0 0.7772745912334097 0.7167521066910655
4041000000.0 0.7196309590163023 0.7189275834065247
4044000000.0 0.7195544303268346 0.7635139274656465
4047000000.0 0.7647382025330043 0.7319375608193134
4050000000.0 0.8057745431665799 0.7050002866289335
4053000000.0 0.745916181186302 0.6454696201629164
4056000000.0 0.7982957176952217 0.7235891098629676
4059000000.0 0.740302061332681 0.6724302851996948
4062000000.0 0.8018769588075886 0.6672627115015002
4066000000.0 0.7397891774345617 0.5974552464501062
4069000000.0 0.8402972732269474 0.6241670307604291
4072000000.0 0.7782415201572814 0.6818706442733442
4075000000.0 0.7933764187293553 0.7303987710283664
4078000000.0 0.8108150369156413 0.636824781722442
4081000000.0 0.792595200800397 0.6762524908238193
4084000000.0 0.8187299754796508 0.636662479652206
4088000000.0 0.81419750485131 0.6624914399086644
4091000000.0 0.8996151750368153 0.6759454781887382
4094000000.0 0.7959227822959019 0.6130093015176061
4097000000.0 0.8609023898674736 0.6001039234953975
4100000000.0 0.8717734418167978 0.5935392686328846
4103000000.0 0.8606376556791788 0.6286698934965338
4106000000.0 0.8982606483937681 0.6062130461065477
4109000000.0 0.8536138852615085 0.5747098094582062
4112000000.0 0.8636016242643867 0.5486005033986503
4116000000.0 0.8820599949764335 0.6142492846453078
4119000000.0 0.9088565748611546 0.5528518093197266
4122000000.0 0.8681854899077857 0.5402764229036328
4125000000.0 0.9004225595044762 0.5105728900000523
4128000000.0 0.8646072744624103 0.4928641190292178
4131000000.0 0.9033735847952252 0.5280283198133895
4134000000.0 0.9049598293746827 0.47919256091608553
4138000000.0 0.8727687784087412 0.4946091355764494
4141000000.0 0.9253754695686673 0.48813712666253983
4144000000.0 0.8955583911145649 0.5038488947533262
4147000000.0 0.925094769755734 0.46388723249995084
4150000000.0 0.9540415305654371 0.5184536891084652
4153000000.0 0.9080668430892119 0.480966108497927
4156000000.0 0.9456180545639226 0.47327539074102354
4159000000.0 0.9026618296655247 0.4531959794217531
4162000000.0 0.8526943392074342 0.453991967354893
4166000000.0 0.9371412634404501 0.439601745157306
4169000000.0 0.9134008226150787 0.41128068290606223
4172000000.0 0.9452020576083663 0.4570589988503058
4175000000.0 0.9183768276559331 0.44526123091422726
4178000000.0 0.9372933358268086 0.41654216626606433
4181000000.0 0.9438534210512763 0.38897402336654463
4184000000.0 0.9718074083919627 0.4039509430277441
4188000000.0 0.94274914682117 0.37173146742384766
4191000000.0 0.9157462127438541 0.4039090764808067
4194000000.0 0.9404990346792429 0.3767736040545355
4197000000.0 0.9625338081773066 0.3816989759893534
4200000000.0 0.9563015947207514 0.38796322536256034
4203000000.0 0.9641497282934177 0.3734422344290562
4206000000.0 0.9763067205215976 0.3480969968794408
4209000000.0 0.978266140867435 0.3389648553391708
4212000000.0 0.9804567531448861 0.3072832151438024
4216000000.0 0.9690248504127351 0.34137856367741753
4219000000.0 0.9928036896699772 0.3221834566025489
4222000000.0 0.9812054661230516 0.28044344254878256
4225000000.0 0.96288014535556 0.29611715400787564
4228000000.0 0.992924131573947 0.2861255471813998
4231000000.0 0.9920751601997659 0.2698225867529165
4234000000.0 1.0023266179574088 0.2744058847776077
4238000000.0 0.9875754228387803 0.25747141403374096
4241000000.0 0.9992000006958186 0.23802634637025227
4244000000.0 0.983676430674904 0.25048201944149934
4247000000.0 0.9881466884450671 0.24511369044328857
4250000000.0 0.9875865481396935 0.2102608033845082
4253000000.0 0.9785177897669606 0.19434803040178578
4256000000.0 1.0154742171094004 0.2277453268665609
4259000000.0 0.9717182596316886 0.1899067472624282
4262000000.0 0.9882308571696976 0.17288608886128018
4266000000.0 1.0117865708300846 0.16181800872478463
4269000000.0 1.0206970676153904 0.196320293230444
4272000000.0 1.003189065234816 0.167912449009831
4275000000.0 1.0154703487148682 0.15627534073981786
4278000000.0 1.0220834096299865 0.16947872774580885
4281000000.0 1.0116684469015689 0.15107222436785867
4284000000.0 1.0297571194116157 0.09217054027897861
4288000000.0 1.0173203247436413 0.12896806352889567
4291000000.0 0.9729663942576077 0.11800793547049203
4294000000.0 1.0106518588118818 0.10649628258140519
4297000000.0 0.9931724451843037 0.1407642745709759
4300000000.0 1.006256650579332 0.0945277440931438
4303000000.0 0.9858059840633154 0.07763124561124445
4306000000.0 1.0155390884761135 0.09358154095468499
4309000000.0 0.9828644683350348 0.059428268861810865
4312000000.0 1.034242083801262 0.08558312628803769
4316000000.0 1.0178656509283202 0.05752709224442447
4319000000.0 0.9911018362935755 0.018512063639020443
4322000000.0 0.9968811456974983 0.00034214222668128846
4325000000.0 1.0096368430846032 0.028572042288252428
4328000000.0 0.9987108476943347 -0.00370521498400303
4331000000.0 1.021362018083202 -0.04992592250348493
4334000000.0 1.0205545677463783 -0.020892020112932938
4338000000.0 1.018821404016961 -0.006427206432599253
4341000000.0 1.019978134299965 0.029121537447363594
4344000000.0 1.0239125828617277 -0.04655250080111753
4347000000.0 1.0163408279157964 -0.07352597620497203
4350000000.0 0.9802393924990755 -0.07410921960893424
4353000000.0 0.9969758321772815 -0.03906279411631672
4356000000.0 1.0081128117861076 -0.08608722023572608
4359000000.0 0.9614257932088227 -0.08015669740861923
4362000000.0 1.0078566791810815 -0.1380392275484303
4366000000.0 1.0544811327004417 -0.1152419303912022
4369000000.0 0.9911695895380406 -0.11146151799941784
4372000000.0 0.9920693368046976 -0.1557274717300998
4375000000.0 1.003209906336055 -0.09945648381319196
4378000000.0 0.9777038177262218 -0.13368618866699256
4381000000.0 0.9889779061401087 -0.1312407606722586
4384000000.0 1.0505887065526505 -0.15080509810796272
4388000000.0 0.9710731754390317 -0.14714874296579167
4391000000.0 1.0054947762301407 -0.1579697356934402
4394000000.0 0.971227153346326 -0.17733428607368104
4397000000.0 0.9895891630657625 -0.18339837083254745
4400000000.0 1.0270183011929954 -0.19664065358849114
4403000000.0 0.9973692402084395 -0.19476819116315341
4406000000.0 0.9929378321678644 -0.22968356758593028
4409000000.0 1.012798743175746 -0.22699978117662734
4412000000.0 0.9655255363854001 -0.2834244666250025
4416000000.0 0.968977813019309 -0.22856172133392422
4419000000.0 0.9766676491260475 -0.2642682935371729
4422000000.0 0.985493071981133 -0.23851229058859996
4425000000.0 0.9968330734504938 -0.2455481511542875
4428000000.0 0.9760141428667543 -0.27520910928612713
4431000000.0 0.9891955234919649 -0.2835438687214246
4434000000.0 0.9451776173784199 -0.29054889629058944
4438000000.0 0.9836341281949934 -0.304573009186857
4441000000.0 0.9840002096062945 -0.3033221289270218
4444000000.0 0.954897011955457 -0.31148057493622
4447000000.0 0.9644620490890728 -0.33085421687202454
4450000000.0 0.9542002561617487 -0.31165239241429876
4453000000.0 0.9683986431289824 -0.3329903709916615
4456000000.0 0.924203847802171 -0.3531560786991467
4459000000.0 0.8985447808987388 -0.36238504174996966
4462000000.0 0.9878638750487312 -0.3922912278606406
4466000000.0 0.9902732963604121 -0.402458881914601
4469000000.0 0.9468988795811332 -0.3655662340891215
4472000000.0 0.9352956881483843 -0.41786486458460315
4475000000.0 0.9235150953915513 -0.3689160332241047
4478000000.0 0.9586179564247326 -0.4221004576511962
4481000000.0 0.8960333748467093 -0.4196091132162006
4484000000.0 0.9017999715879934 -0.4612485648436637
4488000000.0 0.9014049609914322 -0.43185072995693335
4491000000.0 0.9236516259662881 -0.44266079222310917
4494000000.0 0.9061593269124957 -0.4460447939286946
4497000000.0 0.8979110148536402 -0.43002078085250917
4500000000.0 0.8927484244288508 -0.4522247342857559
4503000000.0 0.922171165183113 -0.476516275796226
4506000000.0 0.8787108448759895 -0.47264306164405184
4509000000.0 0.8676306588024798 -0.4845348916119139
4512000000.0 0.8486862126008929 -0.4943581432630263
4516000000.0 0.9003910169968196 -0.5094121584461813
4519000000.0 0.8694273440301052 -0.502897725835478
4522000000.0 0.8486428019505505 -0.5258522360451555
4525000000.0 0.8776243830501853 -0.49145030754374786
4528000000.0 0.8727656871948495 -0.5381122777992646
4531000000.0 0.8644010826587859 -0.5248049558371848
4534000000.0 0.8248057559115173 -0.5383901110109314
4538000000.0 0.8387196473540031 -0.5583126226693231
4541000000.0 0.8077615547115238 -0.5802175989890463
4544000000.0 0.8347577031037525 -0.5606724077142724
4547000000.0 0.8366709548448789 -0.5563053324841654
4550000000.0 0.8072085075546569 -0.6089626415400147
4553000000.0 0.8154505751407752 -0.5985701132432768
4556000000.0 0.7948269857531367 -0.5878847441290754
4559000000.0 0.8010905478128085 -0.6312917419612196
4562000000.0 0.8147362066095218 -0.6363490223948561
4566000000.0 0.7841452869928882 -0.6365550464207947
4569000000.0 0.7731436996652343 -0.6153288051041592
4572000000.0 0.7835032415248858 -0.6352456278976863
4575000000.0 0.7684725814052034 -0.658009825872311
4578000000.0 0.7973160194173108 -0.6647860215837293
4581000000.0 0.7730818492066803 -0.6698856384660994
4584000000.0 0.7586978828518477 -0.6744875281290429
4588000000.0 0.7821308832760715 -0.6930481166495086
4591000000.0 0.7638197152038927 -0.6600560978135446
4594000000.0 0.7375047853000951 -0.6866693353370206
4597000000.0 0.7436668400134363 -0.6994459130608958
4600000000.0 0.7085243754892322 -0.7100304800446084
4603000000.0 0.7292868338617143 -0.7065571956677265
4606000000.0 0.7339423522639642 -0.7029873615561164
4609000000.0 0.7228299560407273 -0.7320558696349606
4612000000.0 0.7140081614513093 -0.7238989794460448
4616000000.0 0.6950509222448729 -0.7209822961117758
4619000000.0 0.7108044658690854 -0.730645859053846
4622000000.0 0.6771876244009085 -0.7420005990417156
4625000000.0 0.6586112228640653 -0.7457845769884597
4628000000.0 0.6741065836648307 -0.7496370648638829
4631000000.0 0.6641758948298127 -0.7672644101996057
4634000000.0 0.6487893442371632 -0.7756366949875266
4638000000.0 0.663193389764931 -0.7790949895777571
4641000000.0 0.66204326141464 -0.7882256994902774
4644000000.0 0.6381153972805109 -0.7972679233543708
4647000000.0 0.6303360448218241 -0.7767857170766036
4650000000.0 0.6098902798876376 -0.8011772022176711
4653000000.0 0.6454640010335425 -0.8066577242638733
4656000000.0 0.5965422101923505 -0.8115133204602156
4659000000.0 0.6077181937556853 -0.806543715401417
4662000000.0 0.6040820440789147 -0.839710902259162
4666000000.0 0.5827854969824046 -0.8216864855400148
4669000000.0 0.6019635200531553 -0.833568802114201
4672000000.0 0.5794459476066386 -0.8631727901159415
4675000000.0 0.5459156205725135 -0.8546315443840966
4678000000.0 0.552431294387266 -0.8262928028766786
4681000000.0 0.5501151411631461 -0.8774706617183035
4684000000.0 0.522588949356437 -0.8843117536204905
4688000000.0 0.5101758610923514 -0.8485456073956945
4691000000.0 0.5497720259424311 -0.8826637772866452
4694000000.0 0.5379958236334194 -0.8590150571608255
4697000000.0 0.4739023041697311 -0.8392494808149302
4700000000.0 0.5095379047238974 -0.8959964694407918
4703000000.0 0.5146955794103893 -0.8442642780196474
4706000000.0 0.4686826711540363 -0.9293235353802798
4709000000.0 0.507036029765432 -0.8853697612804957
4712000000.0 0.50186181973117 -0.8887143915213421
4716000000.0 0.47554837443649456 -0.8993490058363296
4719000000.0 0.5038499168566948 -0.9028241070135992
4722000000.0 0.46625532255262225 -0.9018678917522551
4725000000.0 0.4537615758216897 -0.9070481362501083
4728000000.0 0.44285385560009105 -0.9418918382945263
4731000000.0 0.4481350472374338 -0.9566020257295389
4734000000.0 0.44456993272854384 -0.9134788217438977
4738000000.0 0.45643026566288697 -0.9600027977125265
4741000000.0 0.40833228839895064 -0.9983022677677399
4744000000.0 0.3921226501954025 -0.9450112381549517
4747000000.0 0.39155286613932233 -0.9102584930574077
4750000000.0 0.3700702432649096 -0.947282072802429
4753000000.0 0.3851042350033491 -0.9391036323803537
4756000000.0 0.36599062460067505 -0.9688017984647628
4759000000.0 0.38342261740540784 -0.9812886460713321
4762000000.0 0.36439813255331904 -0.9771163484232501
4766000000.0 0.32967334836130785 -0.9648064680482906
4769000000.0 0.3554889924937114 -0.9425850763779205
4772000000.0 0.32460082461153794 -0.9925183522559448
4775000000.0 0.333345944691988 -0.9944478308246016
4778000000.0 0.30996405188838794 -0.9829387137153173
4781000000.0 0.3024505011726324 -0.9496767713154259
4784000000.0 0.32598655668219007 -0.9653628773735637
4788000000.0 0.2802659063211661 -1.0052260377818985
4791000000.0 0.2697635383110685 -0.9994674967672325
4794000000.0 0.28503758038333776 -0.9982351046602833
4797000000.0 0.2695280466161148 -0.9580738523737474
4800000000.0 0.2584048275322993 -0.9647775246937154
4803000000.0 0.19424616487043728 -1.0045445744474035
4806000000.0 0.22044803902411636 -1.017087257048041
4809000000.0 0.18254509777982492 -1.0226638911319417
4812000000.0 0.17997690434115812 -0.9968193509614622
4816000000.0 0.22797399761835077 -0.9743928640668069
4819000000.0 0.22709043260173342 -1.0311699594119508
4822000000.0 0.21039365510566138 -1.0367049847006478
4825000000.0 0.23354782090686788 -1.0155913044612084
4828000000.0 0.1680781556439202 -1.000609411183044
4831000000.0 0.11392561924556086 -1.0360198331505992
4834000000.0 0.1881151916010844 -1.0329870369319238
4838000000.0 0.12308831360207317 -1.048040047188937
4841000000.0 0.13708578912634728 -1.009394524454363
4844000000.0 0.16767773425222537 -1.0327294885733032
4847000000.0 0.1384471841750656 -0.9731534171090164
4850000000.0 0.09728451900227751 -1.0470809036732325
4853000000.0 0.11124746153289194 -0.9962146738384312
4856000000.0 0.0894460979373117 -1.0111759346963827
4859000000.0 0.10342761321372748 -1.0505113405048636
4862000000.0 0.10288120668609932 -0.9959099590482704
4866000000.0 0.062033045822217296 -1.0291634743472535
4869000000.0 0.04269802601721938 -1.0257750522189382
4872000000.0 0.033175798173420555 -1.0600674882248042
4875000000.0 0.08799426185030279 -1.0548150320348644
4878000000.0 0.024502542403597206 -1.0321882455071618
4881000000.0 0.014805561500840116 -1.0930279224154207
4884000000.0 0.038304737132340866 -1.0205406473501928
4888000000.0 0.0605100367136233 -1.0390747099931252
4891000000.0 0.023888478306924033 -1.0249583773165332
4894000000.0 -0.01607922702026828 -1.0209315409676936
4897000000.0 0.0050217580035216425 -1.0167946343359264
4900000000.0 -0.0099788956311503 -1.0655183052876969
4903000000.0 -0.00676768698827572 -1.0462510948212331
4906000000.0 -0.037042492219239206 -1.0713493215412024
4909000000.0 -0.048546446870756994 -1.0264395829306328
4912000000.0 -0.0526017542309444 -1.0769054175187698
4916000000.0 -0.0537996964346883 -1.0682648380669453
4919000000.0 -0.058724379355581446 -1.0618151542393621
4922000000.0 -0.009064388518177244 -1.0089350166402928
4925000000.0 -0.11919585803837279 -1.0385764005517801
4928000000.0 -0.022732969854843757 -1.0389435501322417
4931000000.0 -0.04979002944893339 -1.0380038664711122
4934000000.0 -0.10047354755374151 -1.0217313986090946
4938000000.0 -0.15679091240719534 -1.0112228691406793
4941000000.0 -0.10988531593576771 -1.0076921343810525
4944000000.0 -0.12617886474143086 -0.9519432474613199
4947000000.0 -0.12716413128630355 -0.9840867751281217
4950000000.0 -0.12304950200633787 -0.9980180605385701
4953000000.0 -0.20454225152664995 -1.0343878784775353
4956000000.0 -0.1852363344842376 -1.0104833344110358
4959000000.0 -0.20589841160581354 -0.94940981856965
4962000000.0 -0.2007013151768848 -1.0297563807008683
4966000000.0 -0.1614378760286237 -1.077027267623947
4969000000.0 -0.2042066546578823 -1.0397959762198057
4972000000.0 -0.22302042148505283 -1.004740959486966
4975000000.0 -0.20182394034371684 -1.02130969799313
4978000000.0 -0.2511211304819461 -1.0182206999834869
4981000000.0 -0.24203982668284532 -1.0258621663469742
4984000000.0 -0.23470769113305975 -1.0063311732100801
4988000000.0 -0.21092141034022183 -1.0233733499022473
4991000000.0 -0.21019428556673359 -1.0422921201712871
4994000000.0 -0.23302386623742 -1.0070690245179839
4997000000.0 -0.317166980360057 -0.982308287155996
5000000000.0 -0.2827215018775774 -1.048220527750355
5003000000.0 -0.28523129147339604 -1.0642143300868374
5006000000.0 -0.3055818186900282 -1.058342313005251
5009000000.0 -0.27019463021375334 -0.9778769464410141
5012000000.0 -0.2892134378177165 -1.0116840486436687
5016000000.0 -0.2741070608962714 -1.0506102470243495
5019000000.0 -0.3403328692537332 -0.9739111805113727
5022000000.0 -0.3508878640871933 -1.0003604060305757
5025000000.0 -0.3718123611633219 -1.0179257873377154
5028000000.0 -0.3685818975018632 -0.9920789723129688
5031000000.0 -0.3784338085485277 -0.9722539262556528
5034000000.0 -0.40054499619214545 -0.9923802634383505
5038000000.0 -0.384483912158295 -0.9365260878676478
5041000000.0 -0.3732549868014484 -0.9915237684825785
5044000000.0 -0.35912876918658854 -0.9320083104753881
5047000000.0 -0.40214882807616154 -0.982199675884098
5050000000.0 -0.3155015003197913 -0.9778387939819695
5053000000.0 -0.47522223901806504 -0.9888804888890861
5056000000.0 -0.39896820869615157 -0.9884291623497943
5059000000.0 -0.37970386454202604 -0.9538798484067129
5062000000.0 -0.46561057446828047 -0.9657235231578112
5066000000.0 -0.40315784213024286 -0.9583704727059643
5069000000.0 -0.4632960711338464 -0.9759536215961576
5072000000.0 -0.41128592751592363 -0.9624191383710334
5075000000.0 -0.47863432488581403 -0.9875379531829602
5078000000.0 -0.45559770656252657 -0.9100040831261786
5081000000.0 -0.4846544354101641 -0.8947029755384835
5084000000.0 -0.484470830213409 -0.9588929862469697
5088000000.0 -0.4650189036815744 -0.9547505874803606
5091000000.0 -0.525803988727279 -0.9325929795555956
5094000000.0 -0.4955010898470689 -0.887236539215203
5097000000.0 -0.5072148841250679 -0.9115052126114276
5100000000.0 -0.5003836333957263 -0.9038146379054374
5103000000.0 -0.6063029381374795 -0.9223087348844264
5106000000.0 -0.5738900117818726 -0.8907368260917026
5109000000.0 -0.5007450149101724 -0.8991596317891226
5112000000.0 -0.5761040631339047 -0.8449651520290022
5116000000.0 -0.514483564919031 -0.8194034301845451
5119000000.0 -0.6168405868852803 -0.8658129916589101
5122000000.0 -0.5548213747111598 -0.8942324298716244
5125000000.0 -0.5468080790646732 -0.8573520887059639
5128000000.0 -0.5786285097150551 -0.8491999658618976
5131000000.0 -0.6066319527886197 -0.8789467308323214
5134000000.0 -0.6018947454371771 -0.8647218925985568
5138000000.0 -0.5862314935419745 -0.8430714442926684
5141000000.0 -0.5632844711443534 -0.8816733400689467
5144000000.0 -0.5779335706164003 -0.8684518942363247
5147000000.0 -0.6204535045015463 -0.8343162493426967
5150000000.0 -0.632243520954894 -0.8310779512023659
5153000000.0 -0.6406924649519044 -0.8571008606727922
5156000000.0 -0.621736972142291 -0.8220952507468332
5159000000.0 -0.6580848811580019 -0.8688332457376303
5162000000.0 -0.690432704327234 -0.82495145362358
5166000000.0 -0.6903225609075623 -0.7785484717034052
5169000000.0 -0.6687880007461009 -0.8017911878070578
5172000000.0 -0.6585901271526964 -0.8216246355844938
5175000000.0 -0.6974600257894853 -0.8690473657958805
5178000000.0 -0.6859038582623826 -0.7539012525932807
5181000000.0 -0.7189877057578262 -0.8135098129233411
5184000000.0 -0.6920211015958013 -0.7858912574362666
5188000000.0 -0.7625664561831614 -0.7585553094325357
