! Created with skrf 1.8.0 (http://scikit-rf.org).
# Hz S RI R 50.0 
!freq ReS11 ImS11
4000000000.0 -0.3301822509799943 -0.9486455961693459
4003000000.0 -0.3414467069527388 -0.9338055857449837
4006000000.0 -0.39642481407962554 -0.9646845633887743
4009000000.0 -0.41420389263630447 -0.9008660936982618
4012000000.0 -0.5064696208678485 -0.8590790479024916
4016000000.0 -0.5089870260428985 -0.8668487914951972
4019000000.0 -0.5247805283885416 -0.8498976643094786
4022000000.0 -0.6243224319699379 -0.8272904538344498
4025000000.0 -0.5844193619742248 -0.8093841872376498
4028000000.0 -0.6174898142518846 -0.8101886182441262
4031000000.0 -0.6257532449097487 -0.7766482429950504
4034000000.0 -0.6947062656236472 -0.749632351319912
4038000000.0 -0.7336449368353012 -0.7162837174459848
4041000000.0 -0.7208103163867394 -0.6491094353511938
4044000000.0 -0.7864514061185363 -0.6424541194133739
4047000000.0 -0.7984961022394836 -0.6273529226621551
4050000000.0 -0.8192115522534715 -0.5727402656091966
4053000000.0 -0.8254033741540179 -0.5568258060420881
4056000000.0 -0.8459688514579479 -0.5243621111900404
4059000000.0 -0.8859552178854406 -0.4994313733233022
4062000000.0 -0.9184443530331748 -0.44139322049981244
4066000000.0 -0.9079141454164203 -0.44022592853260967
4069000000.0 -0.9438731115630471 -0.3822811882118242
4072000000.0 -0.9173954348226403 -0.3829572607148387
4075000000.0 -0.9639989160395785 -0.32336204097936266
4078000000.0 -0.9944203551058304 -0.3027615427461753
4081000000.0 -0.9909355542091407 -0.25883712534011877
4084000000.0 -0.9730236082706382 -0.21659160805353098
4088000000.0 -1.0263557278829876 -0.17676435059597229
4091000000.0 -1.0917652717070978 -0.11879397527292965
4094000000.0 -1.0378592357891003 -0.09443906185383258
4097000000.0 -1.0196127416485437 -0.06547949802931124
4100000000.0 -1.0208704239400606 -0.015549365942578997
4103000000.0 -1.021797063233049 -0.00834178430910093
4106000000.0 -1.058455720819571 0.0502857741606379
4109000000.0 -1.0374650761119901 0.11097512213022587
4112000000.0 -1.0336709131944424 0.10221753034502512
4116000000.0 -1.030274835100319 0.12979481135418214
4119000000.0 -1.0098494956082908 0.24754884003266575
4122000000.0 -1.029451999645927 0.2247939212530632
4125000000.0 -1.038944356928567 0.28171318047642163
4128000000.0 -0.9595007144009663 0.273978617099205
4131000000.0 -0.9591298192225126 0.2829281394376649
4134000000.0 -0.9957986165385859 0.33188873880888237
4138000000.0 -0.9400558617982555 0.38258154124977467
4141000000.0 -0.8817715470106032 0.4456265489260932
4144000000.0 -0.9846339579386724 0.4160087985306507
4147000000.0 -0.8955493600448912 0.4576361960734802
4150000000.0 -0.9963190163029009 0.48380077484428957
4153000000.0 -0.9590604137278161 0.5698637642257144
4156000000.0 -0.8729334675809013 0.5791796267888191
4159000000.0 -0.8898940569271436 0.5696137430155048
4162000000.0 -0.8329243162264286 0.5814062089597203
4166000000.0 -0.7724767480239141 0.6228920416956768
4169000000.0 -0.8344764880371919 0.6671009437260879
4172000000.0 -0.8443465394175449 0.6489421001393711
4175000000.0 -0.8173698411520988 0.609393286767167
4178000000.0 -0.7901709350510399 0.7356648283628797
4181000000.0 -0.8039993814000412 0.715819049334273
4184000000.0 -0.7685229106128353 0.7841197662397374
4188000000.0 -0.7169447736038252 0.7875675347203801
4191000000.0 -0.6835565039719025 0.7648435780873748
4194000000.0 -0.6791682838107965 0.7085132011299277
4197000000.0 -0.6158724223090021 0.8055636939118551
4200000000.0 -0.6302533810886195 0.8591684730867016
4203000000.0 -0.587021136977951 0.8127948345911384
4206000000.0 -0.5917921867063559 0.8850503394864262
4209000000.0 -0.6345469189112769 0.8562294982604617
4212000000.0 -0.5662285998392727 0.9189302121377482
4216000000.0 -0.5118206395950162 0.860557715207316
4219000000.0 -0.5027263352275226 0.8712229186940322
4222000000.0 -0.5060474559917081 0.9503402466895072
4225000000.0 -0.48326968667215947 0.9412549229823911
4228000000.0 -0.5514659405564488 0.9200270756526417
4231000000.0 -0.4333520336596488 0.9753324059411405
4234000000.0 -0.47653357960831333 0.9143563114960152
4238000000.0 -0.4349260470004479 0.9537907849836949
4241000000.0 -0.43491459613613065 1.0178925141919146
4244000000.0 -0.40579525224969293 0.9701257500450664
4247000000.0 -0.38006117917014726 1.0868479309375125
4250000000.0 -0.35759479994671234 1.0582608559828466
4253000000.0 -0.325831284042755 0.9990165143209113
4256000000.0 -0.2478568248368837 0.9271134751760288
4259000000.0 -0.2958945035488657 1.0696859392330664
4262000000.0 -0.23393016505168351 1.0303317618774464
4266000000.0 -0.265160099290528 0.9819400089598064
4269000000.0 -0.22567372668156377 1.0836000313412055
4272000000.0 -0.1486361283954008 1.023838461439359
4275000000.0 -0.12977719956017997 1.014787394221828
4278000000.0 -0.1311081109683123 0.9606324488050831
4281000000.0 -0.1202523813786732 1.033431202211357
4284000000.0 -0.0948258123337199 1.0693406954653661
4288000000.0 -0.05707992938508363 1.0471009711336918
4291000000.0 -0.08058387060406441 1.0638578550474584
4294000000.0 -0.052507579933648046 1.0342230165981043
4297000000.0 0.013299583272968124 1.0365879849271349
4300000000.0 0.02710899860111446 1.0897089423422934
4303000000.0 -0.014937688486776499 1.09612362965034
4306000000.0 0.04200463037946249 1.0732855984665057
4309000000.0 0.047485338642044406 1.0507845096100792
4312000000.0 0.08653405117081794 1.022132174329909
4316000000.0 0.10411237831801887 1.039890300185409
4319000000.0 0.1186794420917522 1.0505954762010195
4322000000.0 0.14934600829954892 1.0027295678458172
4325000000.0 0.1173363715150453 1.045971907918472
4328000000.0 0.18935559428263282 1.0383432177598693
4331000000.0 0.20648732994819585 1.0539753790816653
4334000000.0 0.15993001097598075 1.0514036989806237
4338000000.0 0.1950386209142805 1.0184932027854443
4341000000.0 0.25012676678016166 1.002137518437111
4344000000.0 0.2130725016935942 1.0180104644153938
4347000000.0 0.23631293936702674 0.9958521980816424
4350000000.0 0.2892726927232235 1.0308703629886269
4353000000.0 0.2796572869267299 0.9623423683789603
4356000000.0 0.27269510453639106 1.0351462759359529
4359000000.0 0.31044061882599305 0.9900488294796801
4362000000.0 0.3381540789613061 0.940085337313654
4366000000.0 0.3846180744909754 0.9670160049374721
4369000000.0 0.3714641304269042 1.0044145354913578
4372000000.0 0.40727769486820553 0.9322823156817696
4375000000.0 0.42964001658542683 0.9501058204486913
4378000000.0 0.4107131080384888 0.9791952297378947
4381000000.0 0.43703966805113714 1.0007000097262533
4384000000.0 0.4501046556056062 0.9192927515492049
4388000000.0 0.4620246066865418 0.9383180876873514
4391000000.0 0.4825708750325902 0.919719619122118
4394000000.0 0.47109381575437537 0.9132923229389015
4397000000.0 0.49022405475048186 0.9243147912786593
4400000000.0 0.5319189652593967 0.9247858266142488
4403000000.0 0.4849084864916195 0.8979896049168071
4406000000.0 0.5622959498982899 0.9074550333030973
4409000000.0 0.5400999558019777 0.8512950133600186
4412000000.0 0.5755763427084996 0.8589803546990729
4416000000.0 0.5778432474149675 0.8286659513973481
4419000000.0 0.6016331720843447 0.8309778845995521
4422000000.0 0.593372156142897 0.8116663288718964
4425000000.0 0.60810631732947 0.8683331610364754
4428000000.0 0.5927258362425658 0.8078107237641429
4431000000.0 0.6443113443243859 0.8156343055241307
4434000000.0 0.6480914824676136 0.8151897021695644
4438000000.0 0.6588901079115349 0.8218853733905516
4441000000.0 0.6508700501406823 0.7953922093274264
4444000000.0 0.673877396671364 0.7779281134404296
4447000000.0 0.678489302087449 0.7741826641235506
4450000000.0 0.685078636032491 0.7564773198139884
4453000000.0 0.7129940710731804 0.7493675252366147
4456000000.0 0.698408290882021 0.7074353325850091
4459000000.0 0.7131429583593234 0.685382011994845
4462000000.0 0.7683243246130785 0.7427455595573147
4466000000.0 0.7731857794622381 0.7245825354982341
4469000000.0 0.7606546332304462 0.6889455858713844
4472000000.0 0.803282580926828 0.6676376089322439
4475000000.0 0.7757369349906087 0.6540076079917386
4478000000.0 0.8200213186909558 0.6696806293429087
4481000000.0 0.8007616942599309 0.6205706206463331
4484000000.0 0.8169694767913354 0.5951379097224805
4488000000.0 0.8013032291680618 0.5964521185988703
4491000000.0 0.8237242771171073 0.6153402311697773
4494000000.0 0.8060723176299794 0.5971825055222866
4497000000.0 0.8094905600784368 0.5950709216385889
4500000000.0 0.8004025965518178 0.6017689030533862
4503000000.0 0.8550761629279406 0.5993224984923058
4506000000.0 0.8399676607761992 0.5565111266969618
4509000000.0 0.8648401952611879 0.530986539759833
4512000000.0 0.843564969396837 0.509299109669992
4516000000.0 0.8676381575254385 0.5562024610690974
4519000000.0 0.8457829084799184 0.5174341265781733
4522000000.0 0.8917509163356288 0.48360898631902677
4525000000.0 0.8676068217283639 0.49403443332510455
4528000000.0 0.9252675453806958 0.4696539351450471
4531000000.0 0.8845801090257197 0.46728749063295477
4534000000.0 0.8729920211168478 0.4660865005519644
4538000000.0 0.9087338720482039 0.42764393987623783
4541000000.0 0.9394632328405037 0.40344589828886007
4544000000.0 0.875364129352654 0.4067621688660454
4547000000.0 0.8959041824088401 0.42161098419085646
4550000000.0 0.9391462659981604 0.37523635870659766
4553000000.0 0.9484020866012381 0.38491415997477185
4556000000.0 0.8990412319708914 0.3393451016521061
4559000000.0 0.9606421056748929 0.32451762571588055
4562000000.0 0.9732056449953663 0.37613238761070744
4566000000.0 0.9656533632166118 0.3294065072065924
4569000000.0 0.9029100850540158 0.30310148745146787
4572000000.0 0.942675519175285 0.3125983646698067
4575000000.0 0.9651013723137003 0.2873305323745137
4578000000.0 0.9877607723598696 0.32510383946647964
4581000000.0 1.004000763022764 0.24903709770773408
4584000000.0 0.9536637825030505 0.2590983986967458
4588000000.0 0.9870071410604839 0.2739152837550409
4591000000.0 0.9798594061486879 0.255327330530278
4594000000.0 0.996489873366728 0.23051413157712922
4597000000.0 1.0174245783459557 0.21676246416329686
4600000000.0 0.9449386433109043 0.137944187309218
4603000000.0 1.0308547427995387 0.20659670739830202
4606000000.0 1.0033530795185168 0.1848128819905961
4609000000.0 1.0043711706382104 0.12894344493672721
4612000000.0 1.058508713559968 0.16767810991644616
4616000000.0 1.010117284076572 0.14318195585924753
4619000000.0 1.0157717677038147 0.16135894468644146
4622000000.0 0.9861760232490816 0.15280619211404486
4625000000.0 0.920741269384707 0.10323173622958869
4628000000.0 0.948461185803316 0.12922548002308396
4631000000.0 0.9835587983258993 0.05384256883349382
4634000000.0 0.9915241078290635 0.08641694292403315
4638000000.0 1.0063515088748125 0.0632641367954952
4641000000.0 1.0172512320749632 0.04951739117779576
4644000000.0 1.0200938748956254 0.0463739534670555
4647000000.0 1.0324315571273628 0.023154440109492927
4650000000.0 1.0254460199335265 -0.020525537680586445
4653000000.0 1.0445322394734569 0.00299670542081365
4656000000.0 1.0016970870197779 -0.045204909030093
4659000000.0 0.9855523054483327 -0.022519719461884052
4662000000.0 0.9792564035058456 -0.022309219619269682
4666000000.0 1.00731039809822 -0.040140006459487676
4669000000.0 0.9911887122640901 -0.045847330964397706
4672000000.0 0.9881696081503698 -0.10807037693104508
4675000000.0 0.9672311845311061 -0.10284953809993538
4678000000.0 1.0094153458804103 -0.07243025275595924
4681000000.0 0.9964213722974028 -0.14612876868398553
4684000000.0 0.960732136341342 -0.12966798048456646
4688000000.0 0.981501362583584 -0.10673277694774648
4691000000.0 0.9609414121507182 -0.14667753286051513
4694000000.0 1.0053849897045979 -0.15618401127894227
4697000000.0 0.9978756890471991 -0.1607822810743485
4700000000.0 1.0078946050603081 -0.16610709333077806
4703000000.0 1.0325325583084386 -0.21936604236151225
4706000000.0 0.9733893503318003 -0.17396780336085507
4709000000.0 0.9925120946343289 -0.2179602835356983
4712000000.0 0.975675945443218 -0.24543412186362912
4716000000.0 0.974348859899357 -0.22803143364092648
4719000000.0 0.9754775464306215 -0.26624361306113964
4722000000.0 0.9885588969389014 -0.25046773151059487
4725000000.0 0.9670968698002468 -0.2817966777625778
4728000000.0 0.9410570706060677 -0.2866494146919875
4731000000.0 0.9715649916538396 -0.26483515628942034
4734000000.0 0.961970350916768 -0.2946549125878839
4738000000.0 0.9416298623174788 -0.3323253881348607
4741000000.0 0.961737842854548 -0.3372162813975441
4744000000.0 0.9605719077339235 -0.3672043767266015
4747000000.0 0.9578157580292125 -0.3447829314846165
4750000000.0 0.9190552447317324 -0.3599444360770328
4753000000.0 0.949656432949584 -0.40197553343965725
4756000000.0 0.9218092662482525 -0.39379982880562847
4759000000.0 0.9366227834745893 -0.37453221781102786
4762000000.0 0.9342040476905416 -0.39397056751760995
4766000000.0 0.9197342214992672 -0.40560128851098703
4769000000.0 0.9426197641574199 -0.4149764067221039
4772000000.0 0.9074529661950118 -0.46308716986086096
4775000000.0 0.8963352302764235 -0.46145615158922043
4778000000.0 0.8957309447708035 -0.4594185880779834
4781000000.0 0.8977671899594617 -0.4459918465286856
4784000000.0 0.8911192108548817 -0.4467255029872426
4788000000.0 0.9121064006905759 -0.46658392185452446
4791000000.0 0.8525380786751608 -0.49822068404613773
4794000000.0 0.8569035531094071 -0.5080335774510838
4797000000.0 0.874968080864003 -0.5147907909144103
4800000000.0 0.8550336087503153 -0.548292578245577
4803000000.0 0.874741539759766 -0.5175588608265786
4806000000.0 0.8858314221012694 -0.5274214237683154
4809000000.0 0.82672846036422 -0.5527198878931953
4812000000.0 0.8303699503574629 -0.5829919564476626
4816000000.0 0.8423225732802352 -0.5663458379684411
4819000000.0 0.8200079945369112 -0.598925102872952
4822000000.0 0.8541528062753132 -0.6113623159677535
4825000000.0 0.840506895474574 -0.5998346535163486
4828000000.0 0.7881061686599278 -0.5841654051230984
4831000000.0 0.794048092364363 -0.6177064715052791
4834000000.0 0.8071519390853229 -0.6288668194787046
4838000000.0 0.8059226117621427 -0.6531349782514296
4841000000.0 0.78305131093347 -0.6471951806517966
4844000000.0 0.7905981976049794 -0.6279544163783021
4847000000.0 0.7819507983433169 -0.6457904186997526
4850000000.0 0.7741304533689244 -0.6606748757144794
4853000000.0 0.763271228812028 -0.6424807530500043
4856000000.0 0.7418144644397231 -0.6833179045049165
4859000000.0 0.7683402617509766 -0.7122893562856754
4862000000.0 0.7350133246322091 -0.6500889149372774
4866000000.0 0.7339622478800524 -0.7191055178425344
4869000000.0 0.7099265304450276 -0.730729321755223
4872000000.0 0.7192926251314995 -0.7526588695962806
4875000000.0 0.7427134042984866 -0.7346516027815903
4878000000.0 0.6967941526752842 -0.7588669444073335
4881000000.0 0.7001423849304047 -0.7656364324394267
4884000000.0 0.6991046580486325 -0.7502641251025152
4888000000.0 0.6914093180189019 -0.7423451266664082
4891000000.0 0.7047368308641534 -0.7678708714320704
4894000000.0 0.6545137509710118 -0.7649841877219221
4897000000.0 0.6744214986096937 -0.7689449886197559
4900000000.0 0.6613308257168242 -0.813464092283555
4903000000.0 0.6660574706021666 -0.801989791482897
4906000000.0 0.6345768556520233 -0.8144249795262354
4909000000.0 0.6280771354448502 -0.8141788524697426
4912000000.0 0.6182092095901036 -0.8407191417051957
4916000000.0 0.6409526859963256 -0.8244412922255184
4919000000.0 0.6316182788498137 -0.832818467936072
4922000000.0 0.6271673687890008 -0.8225803815865875
4925000000.0 0.5891549358337357 -0.8248421771023479
4928000000.0 0.5953692387296186 -0.8199484002075724
4931000000.0 0.6081368212674816 -0.8475067582358893
4934000000.0 0.5312641566442701 -0.8050408971520004
4938000000.0 0.5199562080149603 -0.8577073451029774
4941000000.0 0.5310927864028928 -0.8557011230568173
4944000000.0 0.5487112742250325 -0.8276410715811935
4947000000.0 0.5276449429073786 -0.8664786928321869
4950000000.0 0.48560424644050887 -0.8851529266881908
4953000000.0 0.5114213627465143 -0.9160771522404311
4956000000.0 0.47820028838858614 -0.9131793472253453
4959000000.0 0.4518602845318537 -0.8896395293397703
4962000000.0 0.49293733448639476 -0.9141542193398174
4966000000.0 0.4931747433747092 -0.8985183433443802
4969000000.0 0.49893339013186366 -0.939957473020706
4972000000.0 0.44449482654431716 -0.943987878866771
4975000000.0 0.4454479285996641 -0.8895058929034411
4978000000.0 0.44342659294724673 -0.9331985211456078
4981000000.0 0.4282375601981998 -0.9507015453651292
4984000000.0 0.42608143017295264 -0.9204239406630355
4988000000.0 0.4206113549256336 -0.9314632435219914
4991000000.0 0.4384014169439135 -0.9249032238945303
4994000000.0 0.4074368541228873 -0.9226386960519728
4997000000.0 0.36921486264800185 -0.9542410545406711
5000000000.0 0.41769700176621055 -0.99800757384949
5003000000.0 0.4107622113289208 -0.9902065957142859
5006000000.0 0.37673546634578226 -1.0178441108190834
5009000000.0 0.36958952010395374 -0.9583878778647515
5012000000.0 0.3501777370298125 -0.9577838631929132
5016000000.0 0.39278177813483495 -0.9982198218897265
5019000000.0 0.3103604208903916 -0.9435742476322431
5022000000.0 0.3226902508452039 -0.9774430602848383
5025000000.0 0.34747130945056137 -1.0370643333336076
5028000000.0 0.27053083436995823 -1.0133073049978598
5031000000.0 0.28721477974013215 -0.9917005232913801
5034000000.0 0.2634243700031219 -1.0257201962691285
5038000000.0 0.2327496430264459 -0.976846164167656
5041000000.0 0.30990553862567544 -0.9797492613571402
5044000000.0 0.27567098912912347 -0.9845349616987903
5047000000.0 0.2873977462561079 -1.025064879282041
5050000000.0 0.3090865958394834 -0.9555662480934541
5053000000.0 0.23594875327772669 -1.0751598082470142
5056000000.0 0.2786733093551951 -1.0034250636069793
5059000000.0 0.30038165049407783 -1.0086908296008374
5062000000.0 0.1795052209201798 -1.0068638798643026
5066000000.0 0.25558272634231893 -0.9604255756500997
5069000000.0 0.19959316703735885 -1.0135787736803215
5072000000.0 0.16039469126139194 -0.9758115336972257
5075000000.0 0.1841324734319254 -1.0172129552025113
5078000000.0 0.0973951160977136 -1.0496774861004732
5081000000.0 0.14077041153321376 -0.9799630723253082
5084000000.0 0.15977962643324983 -1.0761611801176911
5088000000.0 0.14749058802609527 -0.9816480293983909
5091000000.0 0.08801766810316862 -1.0637918996638727
5094000000.0 0.09990368618627246 -1.0726676386380092
5097000000.0 0.15125808899840076 -1.0787859686749761
5100000000.0 0.11988292853784666 -1.0084233653999568
5103000000.0 0.07136337305903283 -1.0255648465602936
5106000000.0 0.1238777776447168 -1.1081546971148615
5109000000.0 0.13518580895316776 -1.0016329300264202
5112000000.0 0.05488660846561778 -0.9984928590357505
5116000000.0 0.0630580268745541 -1.0011837428225066
5119000000.0 0.1129709541846176 -1.0715009714493982
5122000000.0 0.05721069331363617 -1.0670422978274356
5125000000.0 0.06513988713071076 -1.0485382918293835
5128000000.0 0.0031117092704095947 -1.0720324760843984
5131000000.0 -0.02596301355251287 -0.9813085224563326
5134000000.0 -0.002227117615291034 -1.0396950961755889
5138000000.0 0.024805975408693948 -1.0308722659331195
5141000000.0 0.03647035811971622 -1.0530924916596405
5144000000.0 0.036627844190819055 -1.0811553716376916
5147000000.0 -0.06238452133661375 -1.0534772790074263
5150000000.0 0.013426147452620621 -1.0253151099277802
5153000000.0 -0.04736902959876353 -1.034004361080903
5156000000.0 -0.0881859411246377 -1.0872685711676882
5159000000.0 -0.09400278332288892 -1.0776266254182345
5162000000.0 -0.0600813243278295 -1.0170643957427101
5166000000.0 -0.13883578052494996 -1.0746132288822143
5169000000.0 -0.10178321271312668 -1.0209452403493111
5172000000.0 -0.08363846009119415 -1.0255353133902052
5175000000.0 -0.11147413648118959 -1.085365191562374
5178000000.0 -0.1478329206490779 -1.0110199170396994
5181000000.0 -0.10617590141102738 -1.037296062726155
5184000000.0 -0.18615355624043203 -1.0405510763390515
5188000000.0 -0.13535375306342826 -1.0171709074907078
5191000000.0 -0.15856360889226165 -1.0585489847775271
