! Created with skrf 1.8.0 (http://scikit-rf.org).
# Hz S RI R 50.0 
!freq ReS11 ImS11
4000000000.0 0.6190052180478932 0.811275473553015
4003000000.0 0.6541888546278456 0.8678116097126128
4006000000.0 0.6342486371415654 0.7707057253812895
4009000000.0 0.6555930724507808 0.7776043899730647
4012000000.0 0.6233356193276224 0.8298354872702686
4016000000.0 0.6947146279365835 0.7767512060557522
4019000000.0 0.6674744805817485 0.8172907345071532
4022000000.0 0.6411330696978448 0.8202528630591439
4025000000.0 0.7456100345644335 0.7306313125346219
4028000000.0 0.7180700423370051 0.7510270002713055
4031000000.0 0.707143796218448 0.7236021158921677
4034000000.0 0.7086931292468885 0.7403768231949228
4038000000.0 0.7546558966767616 0.734473271009808
4041000000.0 0.7100547175882473 0.7285250614531106
4044000000.0 0.7791414685170039 0.7593611759196996
4047000000.0 0.7424288697760114 0.7612740001225116
4050000000.0 0.760193780915239 0.6884971379650139
4053000000.0 0.7657571367094765 0.7044656120996395
4056000000.0 0.7378255526756868 0.7337593123519681
4059000000.0 0.7292013121475118 0.7114390226978395
4062000000.0 0.7406442808918023 0.7041220799182952
4066000000.0 0.7156831412264655 0.6621111675059771
4069000000.0 0.820938189897831 0.699919494799639
4072000000.0 0.744173057547027 0.6984355302424865
4075000000.0 0.7957040412663868 0.7058639707069068
4078000000.0 0.812004221470821 0.6833524471757143
4081000000.0 0.7825435318347179 0.7032450911635136
4084000000.0 0.811741439906177 0.6480476005220337
4088000000.0 0.8053604897850121 0.677120517343664
4091000000.0 0.8576872308949263 0.6822112791145698
4094000000.0 0.8027603529701138 0.6838341815336128
4097000000.0 0.8325576386428704 0.6052471465297291
4100000000.0 0.8122669624582296 0.6319845018752834
4103000000.0 0.8148645317499146 0.632329150972943
4106000000.0 0.8548714087921653 0.5849815600231657
4109000000.0 0.8756634668288852 0.6184789051570827
4112000000.0 0.8057693703325546 0.5810447328471198
4116000000.0 0.8830198180383009 0.5943542639080378
4119000000.0 0.8937949273752044 0.5788841516040537
4122000000.0 0.8763721727063969 0.5298465226772031
4125000000.0 0.9201627956075858 0.5544263587333578
4128000000.0 0.8643579060177712 0.5359547007807446
4131000000.0 0.8652849793435051 0.5185435911287424
4134000000.0 0.8314218559971224 0.5465060492230006
4138000000.0 0.8676816722048784 0.4639038140650011
4141000000.0 0.8747258951139859 0.5290416739086137
4144000000.0 0.8852608617066395 0.5221980483829767
4147000000.0 0.9217226379124811 0.49402615019637847
4150000000.0 0.9421326238889729 0.5460586585282512
4153000000.0 0.8915368392498856 0.47206438747586354
4156000000.0 0.9192034591320262 0.4922020016278196
4159000000.0 0.8822604593527326 0.4961666577871023
4162000000.0 0.8969154866811124 0.49133224254203256
4166000000.0 0.924324784047299 0.481005804389383
4169000000.0 0.9115227136590704 0.4385481748420733
4172000000.0 0.9086387970594908 0.4711554298948171
4175000000.0 0.91586335093368 0.48405566148183105
4178000000.0 0.9577764219315674 0.4334608571788965
4181000000.0 0.9562641385389643 0.4181248144258497
4184000000.0 0.9218402661689387 0.42990499802296817
4188000000.0 0.9462451703951427 0.38205338130953037
4191000000.0 0.9166310479901959 0.4349833290752912
4194000000.0 0.9553726979974526 0.39950434213397923
4197000000.0 0.9583470012784383 0.3811027799080415
4200000000.0 0.9520868673048917 0.39111790842776073
4203000000.0 0.9455826246029082 0.3771185562230144
4206000000.0 0.9710011066604504 0.36654986637857073
4209000000.0 0.9282724761483945 0.34614162383835484
4212000000.0 0.9741986688580913 0.3147005134091798
4216000000.0 0.9705439602783811 0.36795896726982463
4219000000.0 0.9700518506807636 0.3614182014248677
4222000000.0 0.9860033423916905 0.30973641813857605
4225000000.0 0.9676263800233147 0.3236391696716513
4228000000.0 0.9747110509637409 0.3209911332782591
4231000000.0 0.980476507567116 0.30593870203888696
4234000000.0 0.9860636291354264 0.27918063634640483
4238000000.0 0.9959149576895661 0.27198311434751066
4241000000.0 0.9801159311568985 0.276391721017452
4244000000.0 0.9834434054945559 0.25908346136787996
4247000000.0 0.9940841130250034 0.2812960588574869
4250000000.0 0.9888747839661081 0.2341045864743172
4253000000.0 0.9478806916933362 0.23221228461300364
4256000000.0 1.0133871563675563 0.2283082015077787
4259000000.0 0.9666549655615488 0.20798831326326225
4262000000.0 0.9973746922459863 0.21335926983751938
4266000000.0 1.0097906614827177 0.19130493009603994
4269000000.0 1.0108343930625705 0.20817485042886383
4272000000.0 0.9849370545914374 0.19886581850841406
4275000000.0 1.008747446491018 0.19329808557224187
4278000000.0 1.0295190240734398 0.1629132954232308
4281000000.0 1.0029389647001026 0.18244071000875184
4284000000.0 1.0167378800785172 0.1259246779452955
4288000000.0 1.019271926582137 0.18097281154743336
4291000000.0 0.9804207614041587 0.14900568060687613
4294000000.0 0.978639952900022 0.14903316187992793
4297000000.0 0.9883536522275945 0.1422518448201493
4300000000.0 0.9835873997510971 0.13041607948278178
4303000000.0 0.9851715134941763 0.08739383087348963
4306000000.0 1.035182913831254 0.11485003913090736
4309000000.0 1.0198147346779634 0.09349246027331583
4312000000.0 1.026550233621593 0.12009999062204935
4316000000.0 1.0107228739612721 0.09808828619339648
4319000000.0 0.9973647753560035 0.06391089970813897
4322000000.0 0.9919240699276916 0.046639030387877936
4325000000.0 1.0138222752045958 0.07207687951702936
4328000000.0 1.0423345537302846 0.03494980008901975
4331000000.0 1.0312727002786144 0.020234568134095465
4334000000.0 1.0385360203706182 0.04955963238580435
4338000000.0 1.014942000959433 0.02740446305279083
4341000000.0 1.0458425845573105 0.03124967424803987
4344000000.0 1.0526315517856708 0.017868788112154504
4347000000.0 1.0256857391514151 -0.02424568976026703
4350000000.0 0.9957999887450739 -0.029249976452221715
4353000000.0 0.9841818264699609 -0.02295232561679872
4356000000.0 1.0053253932441717 -0.03626384521053985
4359000000.0 0.9796012486239588 -0.02859220421525832
4362000000.0 1.0332245561949538 -0.10953890996543963
4366000000.0 1.0473083966625767 -0.06808601062979347
4369000000.0 0.9804558007528166 -0.06859891989300868
4372000000.0 1.0044893947272198 -0.1253617018762058
4375000000.0 0.9998645310157335 -0.06756781910154697
4378000000.0 0.9629937391408461 -0.0878095568495703
4381000000.0 1.0087177008608572 -0.08229099267246122
4384000000.0 1.0677867866963684 -0.1324492329496435
4388000000.0 0.9940550698916849 -0.10312716058562993
4391000000.0 1.0162934744423502 -0.13684982128384396
4394000000.0 0.9643916559590712 -0.13869910909066327
4397000000.0 0.9960476613522191 -0.16366816850648608
4400000000.0 1.0207917833320441 -0.17164694730720909
4403000000.0 1.0148324028928 -0.16397024491519335
4406000000.0 0.9918001187278481 -0.19966533800891634
4409000000.0 1.0248226627379313 -0.18538757401237824
4412000000.0 0.9691354430285204 -0.2544173431335643
4416000000.0 0.9703828856996701 -0.20850769625599713
4419000000.0 0.979120260343408 -0.2356350418455384
4422000000.0 0.9821213000816595 -0.21359891054862898
4425000000.0 1.0059077504616205 -0.20960306979486099
4428000000.0 0.9767488735334179 -0.23965769649409052
4431000000.0 0.9961053671760136 -0.2366839438566652
4434000000.0 0.974146554611876 -0.25112688754122753
4438000000.0 0.9968508716925297 -0.26122642760734893
4441000000.0 1.0058159334960854 -0.26873288796146577
4444000000.0 0.9621544400674986 -0.2661129458053588
4447000000.0 0.9573979541131775 -0.2981236485842602
4450000000.0 0.9519192960598599 -0.279235472884456
4453000000.0 1.0045978853778417 -0.3024022939897703
4456000000.0 0.9317982979660432 -0.30419150270077266
4459000000.0 0.9109894959261924 -0.32719419172777475
4462000000.0 0.9991207288948714 -0.34867539692116645
4466000000.0 0.9871463267412894 -0.3587113478888905
4469000000.0 0.9612993603505526 -0.31841751092042175
4472000000.0 0.9645806951531474 -0.3781047966030615
4475000000.0 0.9272015560036853 -0.3540039236980609
4478000000.0 0.9819839648175575 -0.4039747912053505
4481000000.0 0.8975512281853185 -0.3807941068949515
4484000000.0 0.9212915340685477 -0.43368534215246346
4488000000.0 0.9010684800254183 -0.4034709861799392
4491000000.0 0.9306010222343166 -0.4118350880209372
4494000000.0 0.9200950018474506 -0.4180417040886365
4497000000.0 0.9073135286442877 -0.41734586282714925
4500000000.0 0.9233324551140565 -0.41409270892026856
4503000000.0 0.9300881359171784 -0.4366440508258468
4506000000.0 0.8958918327128185 -0.44385996937582145
4509000000.0 0.879668226021461 -0.43702580832760773
4512000000.0 0.8727512360895348 -0.465516776589986
4516000000.0 0.9141004216600562 -0.48574686128525546
4519000000.0 0.9016091355291486 -0.45114376885521035
4522000000.0 0.8875317382932089 -0.489628143450139
4525000000.0 0.8953236604045616 -0.46597168423350027
4528000000.0 0.889307000265986 -0.5126052429927547
4531000000.0 0.8817605763165907 -0.49947323484261974
4534000000.0 0.8609586225061338 -0.5025606983233658
4538000000.0 0.8695325688752282 -0.5113877011027287
4541000000.0 0.8331399056474272 -0.5626148985103498
4544000000.0 0.8159104449484984 -0.5219972978208072
4547000000.0 0.8428642501446764 -0.5329752906769798
4550000000.0 0.8512324840234917 -0.5652340723592261
4553000000.0 0.841341674265357 -0.5589923421887227
4556000000.0 0.8078199407626645 -0.5658365885987022
4559000000.0 0.8324256773309721 -0.5887337511460926
4562000000.0 0.8270472808453557 -0.5933681507234726
4566000000.0 0.8339426441579094 -0.5973743932742082
4569000000.0 0.7802993745118487 -0.5823389291144725
4572000000.0 0.8059458986012887 -0.5978094931201844
4575000000.0 0.8028585007347544 -0.6330059559763873
4578000000.0 0.8084642741889976 -0.6240953092545386
4581000000.0 0.8011507579871137 -0.6545005406782959
4584000000.0 0.7825236312199004 -0.6263360549372731
4588000000.0 0.8069188872679417 -0.6568181755571105
4591000000.0 0.7800151536405366 -0.6531986624039212
4594000000.0 0.7567080482667263 -0.666253479562103
4597000000.0 0.7614052596267096 -0.6500118534323881
4600000000.0 0.7393092208651653 -0.6814157368171536
4603000000.0 0.7608607895867165 -0.6873132982651836
4606000000.0 0.7514815883969433 -0.6822847430936376
4609000000.0 0.7466208264175976 -0.6729934560942865
4612000000.0 0.738289631829699 -0.7099489799825762
4616000000.0 0.7176254732020106 -0.7013984336463015
4619000000.0 0.7286104398806463 -0.6938025303472771
4622000000.0 0.7208581471698435 -0.7106464501479824
4625000000.0 0.6580350261638108 -0.7032135018561051
4628000000.0 0.716923299739025 -0.6988549136847441
4631000000.0 0.6838404430469069 -0.7301883464104478
4634000000.0 0.6956478122419091 -0.7448391662648386
4638000000.0 0.6889989803895678 -0.7411826493372227
4641000000.0 0.6855600088828524 -0.7425817228630399
4644000000.0 0.6737872950729957 -0.7571618574477545
4647000000.0 0.674110470744926 -0.7747943021133952
4650000000.0 0.641693590570968 -0.7739863349836636
4653000000.0 0.665070931518471 -0.7576455962804384
4656000000.0 0.6400579707740262 -0.7652462929377324
4659000000.0 0.635775235526757 -0.7907160061222134
4662000000.0 0.63956426938695 -0.7984716522868325
4666000000.0 0.6069677874625986 -0.7952876156884378
4669000000.0 0.627229928071388 -0.807997330517061
4672000000.0 0.6093157299736469 -0.8294931028168719
4675000000.0 0.6115264050510356 -0.8356673115164951
4678000000.0 0.5874140506460648 -0.8061167229843129
4681000000.0 0.5757364806406264 -0.8553721642867474
4684000000.0 0.55568695328131 -0.8436298013543417
4688000000.0 0.5479258560180118 -0.8313965531349569
4691000000.0 0.6002670579716762 -0.8401916554663422
4694000000.0 0.5630851715318249 -0.8373588228377411
4697000000.0 0.5205022141503243 -0.846345354480049
4700000000.0 0.5708341291225488 -0.8423669361490336
4703000000.0 0.553765466762715 -0.8302668711958161
4706000000.0 0.521076050413704 -0.8639793904753829
4709000000.0 0.5120581753531419 -0.881847800594332
4712000000.0 0.5279054031493097 -0.8806073941013591
4716000000.0 0.522386587407057 -0.8698594167571794
4719000000.0 0.5106924362767028 -0.8849283833005276
4722000000.0 0.5356613279353324 -0.8752161554146809
4725000000.0 0.48870925649209257 -0.8888257182751653
4728000000.0 0.4789858638531279 -0.8697821070668732
4731000000.0 0.4991092943504555 -0.9262145419575145
4734000000.0 0.4838519280752137 -0.878631619045085
4738000000.0 0.47606696038919827 -0.903884651949652
4741000000.0 0.4460198591101503 -0.9465530334554069
4744000000.0 0.41976590684018855 -0.9437825199621763
4747000000.0 0.43031457456721056 -0.9007104392492314
4750000000.0 0.4218828969593159 -0.9519279426792642
4753000000.0 0.4190347058139787 -0.9275389377525655
4756000000.0 0.40745386715475385 -0.9214679297315096
4759000000.0 0.392439647960744 -0.9565454258626307
4762000000.0 0.3994389462323715 -0.9599867339629023
4766000000.0 0.3825928538648218 -0.9379501184152755
4769000000.0 0.3755841243459323 -0.9692543742380081
4772000000.0 0.3636180274890812 -0.9577344338402722
4775000000.0 0.3832976455430439 -1.0176527510533653
4778000000.0 0.36214259485006806 -0.9583085730942115
4781000000.0 0.3876566050103666 -0.9658938745620274
4784000000.0 0.35784989798167777 -0.9867608768246644
4788000000.0 0.3303444386492487 -0.9588427833583366
4791000000.0 0.3065950828365095 -0.9683124704936948
4794000000.0 0.36903854771795314 -1.011768585399007
4797000000.0 0.30232962818135434 -0.9590441123060113
4800000000.0 0.3008116028584765 -0.9673023869296387
4803000000.0 0.24514614248102998 -0.9857683984898604
4806000000.0 0.2705069330422887 -0.9898765891747574
4809000000.0 0.25282437522510176 -0.999922358544597
4812000000.0 0.23628532368467348 -0.9805998609696525
4816000000.0 0.26985876625082095 -0.9877600418521295
4819000000.0 0.272829841874857 -1.002304745242059
4822000000.0 0.29152954941503373 -1.0298250801797095
4825000000.0 0.2828415799380257 -1.0114066975096137
4828000000.0 0.21294768082713617 -0.989599287692197
4831000000.0 0.18592311623737506 -1.0243373919127208
4834000000.0 0.23323696045171233 -1.0188112884877347
4838000000.0 0.18927710469109024 -1.0158851692488482
4841000000.0 0.1758114303071419 -0.9882270512893471
4844000000.0 0.21085316479924193 -1.0267618060091577
4847000000.0 0.17610753814615837 -0.9719160730980623
4850000000.0 0.13563405057529476 -1.0462150015034357
4853000000.0 0.16451472822823326 -1.00068395488954
4856000000.0 0.1585888454657663 -1.0063722166606213
4859000000.0 0.14856877064919302 -1.0643413215831354
4862000000.0 0.15785881207391736 -0.9842388704779922
4866000000.0 0.10267987450014496 -1.0340774358265312
4869000000.0 0.10339127439036358 -1.031158376821386
4872000000.0 0.08094824453908538 -1.034521482399162
4875000000.0 0.16283998497148738 -1.058790378147541
4878000000.0 0.0918021868708781 -1.052811619763727
4881000000.0 0.06375818787899747 -1.1091713675935637
4884000000.0 0.08996352117886675 -1.031982118659076
4888000000.0 0.10763077232736795 -1.0284029921540292
4891000000.0 0.09820271939069912 -1.0569862952539635
4894000000.0 0.027655610785730363 -1.01997031514454
4897000000.0 0.06526691962551066 -1.018559383262333
4900000000.0 0.019205246588899428 -1.029551524978368
4903000000.0 0.036275939130281404 -1.0390086455029008
4906000000.0 0.030270946204945914 -1.0539284544295116
4909000000.0 0.007827016731740825 -1.0407503918130723
4912000000.0 -0.011727603557941654 -1.0692281608212924
4916000000.0 0.027013977907037478 -1.045045349903233
4919000000.0 0.010791076333655877 -1.077676268037684
4922000000.0 0.016068805255032244 -1.045608866665554
4925000000.0 -0.08421376713080791 -1.04801114720876
4928000000.0 -0.012373084836741155 -1.0351835933469613
4931000000.0 -0.014761958636233918 -1.0820280505187607
4934000000.0 -0.05482630019673619 -0.9729995835327432
4938000000.0 -0.12715144233598635 -1.0075941214021518
4941000000.0 -0.06932125616018574 -1.0254421162980716
4944000000.0 -0.05241973684494555 -0.9673273408354168
4947000000.0 -0.11246844015683738 -0.9923564595050749
4950000000.0 -0.08788237047065546 -1.0148793835816454
4953000000.0 -0.1516832975454111 -1.0807703770031423
4956000000.0 -0.14048345028701148 -1.0185836740922958
4959000000.0 -0.15264880516221216 -0.9947564723594104
4962000000.0 -0.14483884579384995 -1.037692763498357
4966000000.0 -0.13754337131977729 -1.0664936641650984
4969000000.0 -0.1229822119132129 -1.0358614436170956
4972000000.0 -0.20517683064990275 -1.0511439003383718
4975000000.0 -0.1559354224616932 -1.027342968782622
4978000000.0 -0.19018706385832135 -1.0059888350704969
4981000000.0 -0.21406889562470452 -1.0417530782899795
4984000000.0 -0.16306265595217787 -0.9892277575525037
4988000000.0 -0.18369264506974747 -1.0043736056195247
4991000000.0 -0.1543057612300029 -1.0427660614896168
4994000000.0 -0.1682140374215506 -0.9989214968784804
4997000000.0 -0.27525967462471884 -1.0273999055722132
5000000000.0 -0.24935034714124793 -1.0183254496376961
5003000000.0 -0.2302074153223851 -1.025677761018101
5006000000.0 -0.25531484677450955 -1.0447973635481276
5009000000.0 -0.23929966637339237 -0.9955671025308749
5012000000.0 -0.2854596480041737 -0.9936192085444857
5016000000.0 -0.23477237615666346 -1.0451272789937345
5019000000.0 -0.2974022689550423 -0.9775306833694053
5022000000.0 -0.2653909340392204 -1.0292497098320519
5025000000.0 -0.29231757197474967 -1.0710266916620406
5028000000.0 -0.3144578004105476 -0.9965279246413277
5031000000.0 -0.3387588873942937 -1.000901808264931
5034000000.0 -0.34049758294447574 -1.000637271161669
5038000000.0 -0.3368986887914751 -0.9563600698900665
5041000000.0 -0.30121712113940236 -1.0152938800616256
5044000000.0 -0.3094584959743416 -0.9855660187274794
5047000000.0 -0.33663099192471074 -1.0037169683463003
5050000000.0 -0.25968328156588516 -1.0060098563978879
5053000000.0 -0.38136233176012113 -1.0117738327646393
5056000000.0 -0.3508804745067544 -1.024953394185512
5059000000.0 -0.33020909858583597 -0.9972336071948581
5062000000.0 -0.4114573638316742 -0.9832686870588447
5066000000.0 -0.3356550517775603 -0.9433106127277413
5069000000.0 -0.4044617498411497 -0.9586955070207918
5072000000.0 -0.4046750679947888 -0.9073987178246794
5075000000.0 -0.3874951619635346 -0.9706150574353127
5078000000.0 -0.43317913406370806 -0.921177679506638
5081000000.0 -0.4079030808133123 -0.9172851876004363
5084000000.0 -0.48277664876638826 -0.9461996208635202
5088000000.0 -0.41076585656136605 -0.9473927793603394
5091000000.0 -0.5064521843083514 -0.946967592881381
5094000000.0 -0.45231282777382203 -0.9327888751065058
5097000000.0 -0.46284932356138675 -0.9571877810463598
5100000000.0 -0.49069007011937477 -0.9178460048932101
5103000000.0 -0.5123269116824948 -0.962448063201493
5106000000.0 -0.5219926226252927 -0.9383851886008658
5109000000.0 -0.4807557211491746 -0.9454047526004168
5112000000.0 -0.5126982656016118 -0.9137309959593878
5116000000.0 -0.45681356767454734 -0.8938714724780061
5119000000.0 -0.5301080604811721 -0.8575824186348857
5122000000.0 -0.4668774521101192 -0.9071995264892978
5125000000.0 -0.473219948724388 -0.9105068918611948
5128000000.0 -0.5573577722302069 -0.9119493222019583
5131000000.0 -0.5571601154101822 -0.8585863991079721
5134000000.0 -0.5265791697799554 -0.8798158303791458
5138000000.0 -0.5302749947339992 -0.8901210232087529
5141000000.0 -0.5201919159639699 -0.9614434928922939
5144000000.0 -0.5228535132309513 -0.8754017651332645
5147000000.0 -0.5702946160838683 -0.8972041234979665
5150000000.0 -0.547921013915822 -0.8745332339903799
5153000000.0 -0.6085439422861625 -0.8905478449351882
5156000000.0 -0.5935822366012463 -0.875912782116719
5159000000.0 -0.6025359321284531 -0.8868686429436743
5162000000.0 -0.6324075938832268 -0.8526218766630931
5166000000.0 -0.6534993283879125 -0.8418225182535092
5169000000.0 -0.656767915778681 -0.9098308853236737
5172000000.0 -0.6065160785419118 -0.802929643346696
5175000000.0 -0.6104507688642489 -0.8703663187144529
5178000000.0 -0.6880558540035984 -0.8448854782782655
5181000000.0 -0.6559479281921567 -0.8338379843786722
5184000000.0 -0.6197800968275501 -0.8113314985897268
5188000000.0 -0.6750362508682397 -0.8002924689013841
