! Created with skrf 1.8.0 (http://scikit-rf.org).
# Hz S RI R 50.0 
!freq ReS11 ImS11
4000000000.0 0.6328212164975804 0.8030231055014763
4003000000.0 0.6864700307998095 0.7977214413007601
4006000000.0 0.6894792080042015 0.78881921895565
4009000000.0 0.6693765751361804 0.7710791059434161
4012000000.0 0.6571184231969441 0.8324850147318374
4016000000.0 0.7332952089792876 0.773525544114785
4019000000.0 0.6834236797325983 0.7428490914838862
4022000000.0 0.6422198285468519 0.7933832069657433
4025000000.0 0.7489110792037726 0.7000005160460605
4028000000.0 0.7521251419751979 0.7583411794271087
4031000000.0 0.7201127784978553 0.7051614363260272
4034000000.0 0.7165240855291375 0.7542749846022735
4038000000.0 0.7207191545346349 0.7149592529044897
4041000000.0 0.770277905099803 0.6852679213784404
4044000000.0 0.7955865531377405 0.739197001780941
4047000000.0 0.7454547138263976 0.74338332741581
4050000000.0 0.7939554585475276 0.6783299183225341
4053000000.0 0.7503324253587939 0.6735946534956518
4056000000.0 0.7593969338810219 0.6336552512776451
4059000000.0 0.7569177181179003 0.6761581669368029
4062000000.0 0.8351465334917825 0.6528634435860812
4066000000.0 0.7632821624299624 0.6049783898630053
4069000000.0 0.8357438781381235 0.5946883772549308
4072000000.0 0.7957457621947274 0.6729379665773005
4075000000.0 0.7964126235619691 0.6849919724579232
4078000000.0 0.8129839620087617 0.6131146141734601
4081000000.0 0.8147265326338706 0.6900915709225305
4084000000.0 0.8578532102262494 0.626215507708433
4088000000.0 0.810446203368859 0.6347278883566587
4091000000.0 0.8838827181163453 0.6523205967013339
4094000000.0 0.8001514692909172 0.6195422418735553
4097000000.0 0.8674575687636715 0.6117632486810727
4100000000.0 0.8509029917731379 0.5727949021521694
4103000000.0 0.8536860670008444 0.6081136515264265
4106000000.0 0.854396803691455 0.5690846476350562
4109000000.0 0.8651059421954925 0.5490807813980425
4112000000.0 0.8681389714710612 0.5282699026173667
4116000000.0 0.869466928801236 0.5578856936063602
4119000000.0 0.894076766757773 0.5310964483104654
4122000000.0 0.8897451035581326 0.537359708779883
4125000000.0 0.9181360528198927 0.5077097097673102
4128000000.0 0.8580399578621113 0.4863588135686894
4131000000.0 0.8540370398603865 0.5030927809802408
4134000000.0 0.8661156715962584 0.4984659420635672
4138000000.0 0.8898683706099892 0.4618613162875134
4141000000.0 0.8814996317433949 0.4564926986202561
4144000000.0 0.8650785352629663 0.5080593817950103
4147000000.0 0.8930707376982924 0.4782376889688829
4150000000.0 0.9282475353362839 0.4829798874670879
4153000000.0 0.9001416469046176 0.4645873196521383
4156000000.0 0.9016752061175739 0.47378875058896974
4159000000.0 0.9334748745396357 0.4701704317342817
4162000000.0 0.889098815319078 0.4662891724127356
4166000000.0 0.934049016038796 0.40978951638923466
4169000000.0 0.9279022201945114 0.3689431462420709
4172000000.0 0.9237088926117125 0.40807156038347286
4175000000.0 0.9477158922977725 0.4018547086739502
4178000000.0 0.9454709929076165 0.4152719142819352
4181000000.0 0.9465749600593816 0.3950037865177577
4184000000.0 0.9456373480088989 0.38145526169697813
4188000000.0 0.9171885637859871 0.3834404501062225
4191000000.0 0.9269842295943073 0.39011542635777047
4194000000.0 0.9439155149950551 0.3241013316058693
4197000000.0 0.9572467209793833 0.3506405101888667
4200000000.0 0.9631335177591334 0.3647284888029898
4203000000.0 0.9755623981771143 0.36519673047028833
4206000000.0 0.9773399508093787 0.3285951890902164
4209000000.0 0.9667051399503431 0.32161945101124617
4212000000.0 0.9696337371505358 0.2973823750589657
4216000000.0 0.9590920115158134 0.3159982698523038
4219000000.0 0.9864037983212187 0.30103917708229244
4222000000.0 0.988789655236084 0.2830249736324105
4225000000.0 0.9457203190922754 0.28203786030731115
4228000000.0 0.9956675346045449 0.2676135634882054
4231000000.0 0.9882490429182851 0.26502472996780424
4234000000.0 0.9849516539146355 0.2360692501445676
4238000000.0 0.9901481441833184 0.2463117846507694
4241000000.0 0.9876232274277486 0.2207884911155673
4244000000.0 0.989658925553635 0.23122906042352226
4247000000.0 0.9792448039830922 0.20944758941101815
4250000000.0 0.9702803099853421 0.22226084075419816
4253000000.0 0.9678613455857792 0.19858242907668539
4256000000.0 1.017943310990239 0.19192590315661412
4259000000.0 0.9747345377485648 0.17893019739543894
4262000000.0 0.9911172770654575 0.16079244103847032
4266000000.0 1.0336300136401793 0.15643598867522845
4269000000.0 1.0116095228492634 0.16932772476027833
4272000000.0 1.0102885444951724 0.14229372877627527
4275000000.0 1.0106670842218246 0.13096799258305408
4278000000.0 1.0286569488737685 0.14735381941926812
4281000000.0 1.0078255622818293 0.13945177481634236
4284000000.0 1.0087556462887926 0.07758266691859053
4288000000.0 1.0066140081195896 0.12939214039000274
4291000000.0 0.9808834801642184 0.10029380347014376
4294000000.0 0.9905291782644862 0.10628357896800252
4297000000.0 0.9839099692216436 0.10593359963783099
4300000000.0 1.002093752934936 0.07958197931869565
4303000000.0 0.990394816529724 0.04779140399314162
4306000000.0 1.0157204666360635 0.08425695727067159
4309000000.0 0.9946235313532845 0.08331598618558013
4312000000.0 1.0100018222352978 0.07952237138434054
4316000000.0 1.018201192637762 0.05932906765825281
4319000000.0 1.004424694793878 0.0280502152890236
4322000000.0 1.0022526755444425 0.019302633079209194
4325000000.0 0.9904839107805651 0.02273766151160915
4328000000.0 1.01383417899409 -0.0014338354019530208
4331000000.0 1.0074064490657217 -0.028793305392136384
4334000000.0 1.0019863480299769 -0.017892451989448124
4338000000.0 1.0046722869133184 0.007428705879146999
4341000000.0 1.03884696744097 0.009850578053402309
4344000000.0 1.020228397780969 -0.04303782021568449
4347000000.0 0.995391162991953 -0.06957297874249699
4350000000.0 0.9703979455019195 -0.08876138389514691
4353000000.0 0.9787290716711665 -0.05193639014895084
4356000000.0 0.990460137964372 -0.11059376933291601
4359000000.0 0.9593806034419489 -0.09636622045940448
4362000000.0 1.0129970259066412 -0.1323451512644236
4366000000.0 0.9988913657409035 -0.10103885149472688
4369000000.0 0.9845591761843804 -0.11719929456202063
4372000000.0 0.9839474500247658 -0.17307703663438007
4375000000.0 0.996497955603298 -0.11856152813504406
4378000000.0 0.9806185665221365 -0.13495935650659602
4381000000.0 0.9739626557174847 -0.1403082695815471
4384000000.0 1.053710586619355 -0.18628347997543654
4388000000.0 0.9690862492197582 -0.1569951871048199
4391000000.0 0.9946722285407106 -0.1752549108243745
4394000000.0 0.966793905760053 -0.19583796156334737
4397000000.0 0.9888208988957004 -0.19091471107115876
4400000000.0 1.025526743133846 -0.20495833430529758
4403000000.0 0.9926951795836471 -0.2073114751311368
4406000000.0 0.9791675156618981 -0.24075539552747785
4409000000.0 1.0199257306951262 -0.23630458348941744
4412000000.0 0.9686302858892067 -0.29758776936110687
4416000000.0 0.9712648213213455 -0.2586470145829289
4419000000.0 0.9725253906418366 -0.27831024544444616
4422000000.0 0.9715986312173457 -0.2579993127990812
4425000000.0 0.9912089458349067 -0.2559444852338138
4428000000.0 0.9609548331904596 -0.2916973705498659
4431000000.0 0.9819783673828126 -0.29014837111560204
4434000000.0 0.9525486975059884 -0.306678001516534
4438000000.0 0.9773675461156073 -0.32038546482867586
4441000000.0 0.9899876131294583 -0.33510449775234663
4444000000.0 0.9323063758529586 -0.3225922987470498
4447000000.0 0.9391746772002454 -0.34894374461833
4450000000.0 0.9291885516007431 -0.32921001417708473
4453000000.0 0.9727759650709806 -0.3507135017144958
4456000000.0 0.9172871992973507 -0.3599278704341868
4459000000.0 0.889984040889974 -0.36722679967573074
4462000000.0 0.9895481627775571 -0.38474444197534297
4466000000.0 0.9621965387088599 -0.4068051436640343
4469000000.0 0.9411093161227955 -0.38511823445827104
4472000000.0 0.9453519198798563 -0.4303529572751505
4475000000.0 0.9077903026512502 -0.3996259677003102
4478000000.0 0.9517547339705614 -0.45991814929268904
4481000000.0 0.8910917494874704 -0.43266144965027814
4484000000.0 0.8846438986596084 -0.47461493589566806
4488000000.0 0.8963411879432498 -0.45318455794086926
4491000000.0 0.8888968589720184 -0.47324846541462523
4494000000.0 0.8908870846321499 -0.449394884247643
4497000000.0 0.8945259832771064 -0.46168474846804686
4500000000.0 0.892364181088888 -0.45462482406645177
4503000000.0 0.908451672296168 -0.4984910960840397
4506000000.0 0.8709877321958923 -0.48767239853373895
4509000000.0 0.8610854784429425 -0.4772502833448169
4512000000.0 0.8425189794236739 -0.49322981882386585
4516000000.0 0.8804536686416531 -0.5079303351679465
4519000000.0 0.8583772371224804 -0.5066264084066163
4522000000.0 0.8608647200048991 -0.5339771313552139
4525000000.0 0.8671045736852763 -0.5242492317630133
4528000000.0 0.8558757397861503 -0.5656410544709878
4531000000.0 0.8393887660988987 -0.5396668378912371
4534000000.0 0.8185595426279384 -0.5405123614745464
4538000000.0 0.828760440408361 -0.5654141447258838
4541000000.0 0.8091824352238141 -0.5845346124652677
4544000000.0 0.8199124230613821 -0.5742435689481445
4547000000.0 0.8132058651192939 -0.5744702592286117
4550000000.0 0.8121734356902739 -0.6172060078840166
4553000000.0 0.8045302987249783 -0.6057169023631048
4556000000.0 0.7778031429405852 -0.6155919047744037
4559000000.0 0.7925359042430276 -0.6434729411440572
4562000000.0 0.8094899970281537 -0.6309035419355666
4566000000.0 0.798689324198951 -0.6406007684761066
4569000000.0 0.7643047271043313 -0.6186564257243565
4572000000.0 0.762223572487562 -0.6518895284323084
4575000000.0 0.7557161611535994 -0.6874071554319018
4578000000.0 0.7982651119784432 -0.6504563104822962
4581000000.0 0.7551394677065815 -0.6651887844286447
4584000000.0 0.747254690949636 -0.6714906525238765
4588000000.0 0.7732456247998154 -0.6948765096328868
4591000000.0 0.7347567590554966 -0.6745300101387677
4594000000.0 0.7009126317906261 -0.7038659451028844
4597000000.0 0.7399432359134008 -0.7191198117952459
4600000000.0 0.6974130877202904 -0.7202732226303158
4603000000.0 0.7062012829174136 -0.7101682002358873
4606000000.0 0.7146591055426799 -0.7163700211613534
4609000000.0 0.6952546372732349 -0.7234977190576743
4612000000.0 0.6996625083506987 -0.7302963699773377
4616000000.0 0.672307895734412 -0.72406041262573
4619000000.0 0.6697444733886785 -0.7336085346229703
4622000000.0 0.6622925613401032 -0.7513649652062037
4625000000.0 0.6367426568587301 -0.7406924534660368
4628000000.0 0.6878932471718918 -0.738143029376672
4631000000.0 0.6324748956000337 -0.7813051200780546
4634000000.0 0.62232596318044 -0.7922071350829637
4638000000.0 0.6422904435349497 -0.7909135037232947
4641000000.0 0.6398747566597143 -0.7791162090253474
4644000000.0 0.6164496150851252 -0.7840052966851669
4647000000.0 0.6259261213390067 -0.7963351959303832
4650000000.0 0.589915056183641 -0.82101967686647
4653000000.0 0.6323313179963989 -0.8239714081875488
4656000000.0 0.5614464103385367 -0.8214587158758162
4659000000.0 0.5773219832717711 -0.8237637942793147
4662000000.0 0.5838240909135207 -0.8358164109329805
4666000000.0 0.5650875698149458 -0.8357867770055917
4669000000.0 0.5853600087069578 -0.8380154114250052
4672000000.0 0.551868599304359 -0.8823836355332777
4675000000.0 0.5268297356476256 -0.8535204263208951
4678000000.0 0.5322342994689595 -0.8362628561398251
4681000000.0 0.5073599850315029 -0.8848745294347751
4684000000.0 0.5119376515857903 -0.8814156396357108
4688000000.0 0.497417265018963 -0.8622905316325232
4691000000.0 0.519551082633426 -0.8660271832271107
4694000000.0 0.5150132026993811 -0.8943467920132813
4697000000.0 0.48307273899319175 -0.856711125794327
4700000000.0 0.4823984337782612 -0.8365963804053522
4703000000.0 0.49015316072555304 -0.8149510184790953
4706000000.0 0.4748096790189655 -0.8942068027332516
4709000000.0 0.45000029720353657 -0.8836270525816452
4712000000.0 0.4341637270803298 -0.8996400072295612
4716000000.0 0.4545738140764155 -0.9383866789201485
4719000000.0 0.4699587922710383 -0.8985334289833243
4722000000.0 0.4539971859041524 -0.9048930204722412
4725000000.0 0.4250202878489803 -0.9194634550743953
4728000000.0 0.40388158961759923 -0.9094129380249412
4731000000.0 0.4534609169055204 -0.9617972965476842
4734000000.0 0.4098255245859878 -0.9270950202383188
4738000000.0 0.4272847944690812 -0.9718640390199021
4741000000.0 0.3989654526953912 -0.9834526570741899
4744000000.0 0.3872586294761069 -0.9521399860663042
4747000000.0 0.3907666016190573 -0.8753443313794002
4750000000.0 0.3761457262446525 -0.9518175892915745
4753000000.0 0.3810166046546572 -0.9323089813778843
4756000000.0 0.32679087544758306 -0.9561308119273864
4759000000.0 0.34802568710059073 -0.9631904932801086
4762000000.0 0.31539372872477023 -0.9691180516922612
4766000000.0 0.31506284965879106 -0.9454078168926261
4769000000.0 0.33388441619780074 -0.9726231367488661
4772000000.0 0.3270923798405231 -0.9741186523078741
4775000000.0 0.29292358799929985 -1.0133250211419005
4778000000.0 0.2698038618799088 -0.9919317018506072
4781000000.0 0.28228548364766903 -0.975710457865459
4784000000.0 0.2896132552337605 -0.9630088716276418
4788000000.0 0.2626922883512844 -0.9963005617283591
4791000000.0 0.25869022313875895 -0.9757556649611988
4794000000.0 0.27954571493576824 -1.0013190436452728
4797000000.0 0.23538691974431733 -0.9697279909628568
4800000000.0 0.22217804657299572 -0.9707956043816788
4803000000.0 0.1788590948614436 -1.0077100846032876
4806000000.0 0.22257018153444227 -1.001521198839531
4809000000.0 0.19276125562023833 -1.0063130710671901
4812000000.0 0.15613449936041834 -0.9901937033982318
4816000000.0 0.21523342926191552 -1.0067830741386437
4819000000.0 0.19590381486981737 -1.0280701261867116
4822000000.0 0.18458501458008414 -1.03486859903307
4825000000.0 0.19686342815543353 -1.0395804286017387
4828000000.0 0.1482672968178536 -1.0046383224506417
4831000000.0 0.08909470879795593 -1.017108967584344
4834000000.0 0.17326288021099237 -1.0158289980631308
4838000000.0 0.1162528873139388 -1.0358586513549026
4841000000.0 0.10383715631746462 -0.9981933864592595
4844000000.0 0.15980289534513686 -1.0112590076197432
4847000000.0 0.12252396652398215 -0.9962830897690143
4850000000.0 0.10474453956134844 -1.0376032724503526
4853000000.0 0.1115336968603268 -1.002559856946365
4856000000.0 0.07049717098397136 -1.0144163796378827
4859000000.0 0.05691050814752609 -1.0654120252480097
4862000000.0 0.08755340394311792 -0.9986358076952325
4866000000.0 0.048981874451405776 -1.0252681490139928
4869000000.0 0.015282565975127333 -1.0211942705287858
4872000000.0 0.012056705096394418 -1.0694518615926618
4875000000.0 0.09801963007003842 -1.060675080092755
4878000000.0 0.020370232097579002 -1.0313703805204224
4881000000.0 -0.02206416904003059 -1.117715075648872
4884000000.0 0.03681216841619243 -1.0200436544051381
4888000000.0 0.04603512941633242 -1.0144752178626373
4891000000.0 0.01730110553213782 -1.050039371392532
4894000000.0 -0.033721260672327606 -1.002309271664872
4897000000.0 0.020652574149155334 -1.0114868791737315
4900000000.0 -0.01575279006969433 -1.0400874359699734
4903000000.0 -0.025731586774373268 -1.041825761122399
4906000000.0 -0.06328635123825871 -1.0297687558096256
4909000000.0 -0.08639852844316284 -1.0226172872117303
4912000000.0 -0.10350575452616824 -1.0575332397007784
4916000000.0 -0.0744877522921171 -1.0343161492563973
4919000000.0 -0.07817094743205667 -1.0517941779765914
4922000000.0 -0.08487541413382044 -1.0372773394124473
4925000000.0 -0.11557687563620886 -1.0070086256060171
4928000000.0 -0.05302407855264711 -1.0156231554061657
4931000000.0 -0.11101301053961797 -1.033947548040476
4934000000.0 -0.1350502289825155 -0.9994670654011426
4938000000.0 -0.1609467604078672 -1.0083489609123437
4941000000.0 -0.1312125404390212 -0.9791410430026157
4944000000.0 -0.1074305921203422 -0.9772769576879503
4947000000.0 -0.17008002302962935 -1.011625814490045
4950000000.0 -0.16711147969083717 -0.9803015889054362
4953000000.0 -0.1740623746799077 -1.0056505888344414
4956000000.0 -0.2330550929207736 -0.990589781146965
4959000000.0 -0.23988376540106324 -0.9719903285283171
4962000000.0 -0.22582893789891953 -1.0376654471752524
4966000000.0 -0.22289429576007608 -1.0330506032855755
4969000000.0 -0.2065547299829268 -1.0649427792631105
4972000000.0 -0.2329355923530355 -1.0317583385915672
4975000000.0 -0.20364662025889604 -1.0089357869911846
4978000000.0 -0.27174968735108296 -0.950384905851131
4981000000.0 -0.2975960248877133 -1.0107034624804379
4984000000.0 -0.2417840631478189 -0.9795964321397611
4988000000.0 -0.23482971531842128 -1.0078316435694537
4991000000.0 -0.229728795727568 -1.0337816551319137
4994000000.0 -0.25154028145965673 -1.0191836026252612
4997000000.0 -0.3328119594758307 -0.9693682949942299
5000000000.0 -0.25843571920171476 -1.04259827083951
5003000000.0 -0.2915171789634507 -1.0221514588867995
5006000000.0 -0.3256836075812761 -1.0181905858707139
5009000000.0 -0.3202095257910922 -0.979190580365685
5012000000.0 -0.3512650884983864 -0.978141640272592
5016000000.0 -0.31281394800569623 -1.0131190804513852
5019000000.0 -0.35883179755575356 -0.9718873426912733
5022000000.0 -0.32640233337597746 -0.9663470575432225
5025000000.0 -0.4026304893126876 -1.0086373470237873
5028000000.0 -0.39384188513044793 -0.9567298985645138
5031000000.0 -0.3804934564586667 -0.939370364173952
5034000000.0 -0.42108502338669396 -0.9849415888146666
5038000000.0 -0.3991822280878601 -0.9327436493897494
5041000000.0 -0.3602054084124482 -0.989674943251387
5044000000.0 -0.35678633821672945 -0.9422554968154625
5047000000.0 -0.4028616549699309 -0.945777119151307
5050000000.0 -0.32295490530139814 -0.9574382266771131
5053000000.0 -0.4858186883292561 -0.9764056341211236
5056000000.0 -0.3963841084049642 -0.9532559347290837
5059000000.0 -0.39957298636158284 -0.9444112795965581
5062000000.0 -0.46567410540921716 -0.9260034334954406
5066000000.0 -0.401773315354055 -0.9352824756523266
5069000000.0 -0.4868274029969968 -0.8943632491124326
5072000000.0 -0.4656524085628836 -0.8959140216644241
5075000000.0 -0.48080139509028164 -0.9169376565450171
5078000000.0 -0.5003462268882335 -0.8786018885676321
5081000000.0 -0.4689149533967428 -0.8808058660966059
5084000000.0 -0.5362174839180579 -0.9271907352441195
5088000000.0 -0.5026089839774681 -0.8989190304373944
5091000000.0 -0.5557262256936792 -0.8576935239496695
5094000000.0 -0.4973507101764943 -0.8691833017102214
5097000000.0 -0.49116733650957645 -0.9003174004341603
5100000000.0 -0.5431626292275716 -0.8999209922865984
5103000000.0 -0.5736826596616336 -0.9313304216192918
5106000000.0 -0.5421563172181336 -0.9193393610963871
5109000000.0 -0.5190702492652359 -0.942595185343629
5112000000.0 -0.5361776328913928 -0.8399773234344299
5116000000.0 -0.49129349790815635 -0.7880187766821888
5119000000.0 -0.5388413950483141 -0.8899490970801789
5122000000.0 -0.5694501558480497 -0.8788473422016767
5125000000.0 -0.5696836820452161 -0.8832175187689025
5128000000.0 -0.5485029593443209 -0.845472237944068
5131000000.0 -0.6167862426377864 -0.8348181111245282
5134000000.0 -0.5944494911336862 -0.7910108423349298
5138000000.0 -0.6261822344666769 -0.8303865813758206
5141000000.0 -0.5698457809643209 -0.8433453842321215
5144000000.0 -0.644939791400369 -0.8146975585324274
5147000000.0 -0.6418946957675633 -0.8101758397227992
5150000000.0 -0.6100489769893049 -0.8087474244632078
5153000000.0 -0.6817420705424915 -0.798982670404273
5156000000.0 -0.6563551656858787 -0.7880276121830335
5159000000.0 -0.6562739852563145 -0.8185268010405597
5162000000.0 -0.7029410728278602 -0.7763832764487067
5166000000.0 -0.6776775023569023 -0.7919124211995213
5169000000.0 -0.6721208078119532 -0.8199945886338439
5172000000.0 -0.6580140279996018 -0.7919335664815341
5175000000.0 -0.7173191546093999 -0.820004594035047
5178000000.0 -0.7203420295146856 -0.809326343319973
5181000000.0 -0.7015560845758609 -0.7461765195617298
5184000000.0 -0.6915967002629329 -0.7292235464775373
5188000000.0 -0.7177013929732157 -0.7610889612013932
