! Created with skrf 1.8.0 (http://scikit-rf.org).
# Hz S RI R 50.0 
!freq ReS11 ImS11
4000000000.0 0.7116928445285221 0.7217768668976436
4003000000.0 0.7153385091803894 0.6996509902074481
4006000000.0 0.7302530462523413 0.6911667555938394
4009000000.0 0.7988855545735118 0.7357691375693951
4012000000.0 0.6744691303201691 0.752611132078888
4016000000.0 0.8057914262198966 0.6671397295030834
4019000000.0 0.7652873657251358 0.7006918914183835
4022000000.0 0.6566004258246754 0.752527344137936
4025000000.0 0.8296812187968043 0.6321842072952851
4028000000.0 0.7986436602219965 0.6349122099282252
4031000000.0 0.7545699460071194 0.6261067866034737
4034000000.0 0.7619480684360471 0.6142911976523033
4038000000.0 0.8152142837064906 0.6088118805240187
4041000000.0 0.793133827308766 0.6841905652725322
4044000000.0 0.8551257861532602 0.6447059121269326
4047000000.0 0.847202787504084 0.7092473118160307
4050000000.0 0.8331638720289044 0.6210774922285799
4053000000.0 0.8004122822517434 0.5630408405915408
4056000000.0 0.8230601222838215 0.6338862364624592
4059000000.0 0.8313187616946143 0.5898604146848534
4062000000.0 0.8521501720114864 0.587864523875649
4066000000.0 0.7993672682277835 0.5399724360251298
4069000000.0 0.9043065327331848 0.5673315873526181
4072000000.0 0.8541607553484497 0.6011795157453936
4075000000.0 0.8913577348766255 0.5889861517329027
4078000000.0 0.8712389795686257 0.5470690037305442
4081000000.0 0.8952345327262083 0.6020921611995668
4084000000.0 0.8713690589982824 0.5177115782913242
4088000000.0 0.8667680367551579 0.5709846527649711
4091000000.0 0.9682179994988059 0.5382684426346236
4094000000.0 0.8775838597381954 0.5340598014829018
4097000000.0 0.873847161521456 0.5000310939711141
4100000000.0 0.9082013253227961 0.47016584264529354
4103000000.0 0.879896886072199 0.5313433269371208
4106000000.0 0.9280376069567037 0.4817998917936249
4109000000.0 0.920868608661612 0.45862489525327094
4112000000.0 0.9232143749262258 0.4635984913245094
4116000000.0 0.9007945323226175 0.4761236549525514
4119000000.0 0.9122524912179362 0.43398148760146127
4122000000.0 0.9285526086711973 0.4190211835083595
4125000000.0 0.9379205633056393 0.4376838588363408
4128000000.0 0.9135273564477713 0.4330857155871993
4131000000.0 0.9337680800132496 0.41847727404801893
4134000000.0 0.9524062201356722 0.432340300396616
4138000000.0 0.9575624086279537 0.3373029896372752
4141000000.0 0.9426541926681403 0.3781857603981883
4144000000.0 0.9561023876776948 0.3991338573066083
4147000000.0 0.9646129585249357 0.37715496428110445
4150000000.0 0.9831344277077481 0.37026781699091266
4153000000.0 0.9618928764314958 0.36757618764259337
4156000000.0 0.9559411936137681 0.3796945631505554
4159000000.0 0.9143105071731517 0.3562519320134406
4162000000.0 0.9604463127062268 0.34798379249011435
4166000000.0 0.9863081196890153 0.32860906373987286
4169000000.0 0.9824769378479106 0.30345003173001417
4172000000.0 0.978425021241594 0.311104874033082
4175000000.0 0.9855358865210015 0.32002024617739927
4178000000.0 0.9728473344688635 0.30577907010767813
4181000000.0 0.9917367796820544 0.2817779233132912
4184000000.0 0.9781310435192647 0.26632055817015793
4188000000.0 0.9925905753898401 0.2649247963543697
4191000000.0 0.9645634147628149 0.28688216235728076
4194000000.0 0.9580012535319 0.24219077680486056
4197000000.0 0.9835587053010756 0.24699731647952844
4200000000.0 0.9946537169927347 0.25909564177431954
4203000000.0 1.0005186566578308 0.2401965185418472
4206000000.0 1.0105960563025604 0.2321900597308032
4209000000.0 0.9819795436193759 0.22027446901509817
4212000000.0 1.0123930390154545 0.17741154002459003
4216000000.0 1.0018288441582837 0.20675751168333006
4219000000.0 1.0108394447526141 0.19870665350165043
4222000000.0 0.9972427790712557 0.16791869989447034
4225000000.0 0.9873325353475615 0.1513055728454835
4228000000.0 1.0100521601012864 0.1625528762054053
4231000000.0 1.0280274656481434 0.12969890547768897
4234000000.0 1.024828472283554 0.13690479533240135
4238000000.0 1.011390958953121 0.10872817070485866
4241000000.0 1.0056727875750946 0.09378458417657304
4244000000.0 1.0207587542784515 0.10921137197390385
4247000000.0 1.0026229015027233 0.10771343992839619
4250000000.0 0.9767306895185586 0.08644856412100557
4253000000.0 1.0096546989618045 0.05859851189374962
4256000000.0 1.0523273397463857 0.07548157153135421
4259000000.0 0.9684085615341513 0.045719045571747
4262000000.0 1.0132241446963433 0.026573746275418697
4266000000.0 1.038438884753905 0.020851988541109895
4269000000.0 1.0102241545969068 0.034946249041928584
4272000000.0 1.0005478122698146 0.03580315185795549
4275000000.0 1.0134983507039668 0.004362043754587014
4278000000.0 1.0356051568839053 0.026254830339714486
4281000000.0 1.02162021228033 -0.008440234983803072
4284000000.0 1.0174317927318581 -0.052357553054841716
4288000000.0 1.00935634567761 0.016073672422193742
4291000000.0 0.9996496377436271 -0.05246276387542771
4294000000.0 0.9968844202646387 -0.03527504127034784
4297000000.0 1.0016180656878018 -0.02040669238733537
4300000000.0 0.9860616051367268 -0.0508865391082031
4303000000.0 0.973357460598187 -0.08648580427688247
4306000000.0 1.0019775811117064 -0.06201249592787045
4309000000.0 0.9933419501050733 -0.08755029233364825
4312000000.0 1.0263667111027706 -0.05154311048944235
4316000000.0 1.0028956814826304 -0.07015020938286422
4319000000.0 0.9970385423799442 -0.08470120652478234
4322000000.0 0.9895157941157505 -0.15163725110107928
4325000000.0 1.0072505625871147 -0.10170792269833634
4328000000.0 0.9773402279010917 -0.1168780070788651
4331000000.0 0.9983243467026989 -0.16679374247353423
4334000000.0 0.9989853257673412 -0.16091860174501782
4338000000.0 1.0039453525917506 -0.1508778798001036
4341000000.0 1.0253663763087861 -0.14870235076423693
4344000000.0 1.017300443788112 -0.1641222200271422
4347000000.0 1.0092519200452268 -0.2027899645424826
4350000000.0 0.9506038263122035 -0.2046354905689531
4353000000.0 0.9742455697934682 -0.19996626851753035
4356000000.0 0.9571998878406994 -0.2494274165694746
4359000000.0 0.9389241327523106 -0.23173484519220078
4362000000.0 0.9641039475288753 -0.2947188952330332
4366000000.0 0.9972795207813181 -0.26235974167640513
4369000000.0 0.926300030974517 -0.24063773601025612
4372000000.0 0.9393592360148244 -0.29634806589447577
4375000000.0 0.964782144258856 -0.270336687426357
4378000000.0 0.9538768150254867 -0.2783903011818959
4381000000.0 0.9524993629887994 -0.2777731293900766
4384000000.0 1.0291967119313097 -0.3257076788166909
4388000000.0 0.9480865744568783 -0.2905065202710449
4391000000.0 0.9609722107668792 -0.3160200418345045
4394000000.0 0.9236633250037867 -0.33661561355728375
4397000000.0 0.9524137696878887 -0.3477047170126296
4400000000.0 0.9774309538586956 -0.3637769931808946
4403000000.0 0.951095868725374 -0.35546322724586676
4406000000.0 0.9420370140440443 -0.38602690289109887
4409000000.0 0.9595140686950956 -0.3790804357280829
4412000000.0 0.9129174625480796 -0.432084688142994
4416000000.0 0.9181884672908742 -0.3984376278275183
4419000000.0 0.9283316741861382 -0.41255848508550663
4422000000.0 0.9226650272320756 -0.38840428013512784
4425000000.0 0.9489158153397897 -0.3938179183716967
4428000000.0 0.909261828318296 -0.43367234711067193
4431000000.0 0.9318339234396475 -0.4379578523904937
4434000000.0 0.901255571032833 -0.45400942672234473
4438000000.0 0.9144358026996484 -0.4590214517703498
4441000000.0 0.9179986913835398 -0.4752360626806994
4444000000.0 0.878163150150391 -0.4655377285957286
4447000000.0 0.8752975267533414 -0.48318161511496277
4450000000.0 0.8663803501938667 -0.48500084809890504
4453000000.0 0.9056141512199418 -0.499027459048123
4456000000.0 0.835223987535072 -0.5001234882465938
4459000000.0 0.8202380217559677 -0.508661268782665
4462000000.0 0.9177257887452037 -0.5592347743214503
4466000000.0 0.8723802424995396 -0.5554643754488441
4469000000.0 0.8733577323238721 -0.5244006776556666
4472000000.0 0.8586918827445963 -0.5613953814488521
4475000000.0 0.821682994472407 -0.5275441251168163
4478000000.0 0.8548531330887246 -0.6062746449616764
4481000000.0 0.8109968600159376 -0.5695872030427778
4484000000.0 0.8027250203612977 -0.6026019853655011
4488000000.0 0.813136540428599 -0.5931122111145144
4491000000.0 0.8040680302972238 -0.6135627894773485
4494000000.0 0.810366613778974 -0.5845368890430509
4497000000.0 0.7958239252713202 -0.5879895205103556
4500000000.0 0.8051878547433591 -0.618670453129156
4503000000.0 0.8244735689608493 -0.6328259388917703
4506000000.0 0.7739385137188796 -0.6350796631111424
4509000000.0 0.7586085434307812 -0.6396721492224301
4512000000.0 0.7599187981364167 -0.6382593549494603
4516000000.0 0.760841124777564 -0.6767878082220151
4519000000.0 0.7665907940800961 -0.6440601174458749
4522000000.0 0.7429439419170665 -0.6673613278264386
4525000000.0 0.7678872580194107 -0.6663971786611991
4528000000.0 0.7700240472939006 -0.6822019495055771
4531000000.0 0.7439554492748566 -0.6795199528012011
4534000000.0 0.7207459037599797 -0.6872470896146096
4538000000.0 0.7232351256645342 -0.7022479398539292
4541000000.0 0.6658157337645958 -0.723434533076767
4544000000.0 0.7013975505613821 -0.7120607264129539
4547000000.0 0.7120762377102515 -0.7362315003356619
4550000000.0 0.7031595660170284 -0.7481756087836234
4553000000.0 0.7001527926106497 -0.7426233605534495
4556000000.0 0.6729917777150375 -0.7280255657363244
4559000000.0 0.6723765138964433 -0.757008154379732
4562000000.0 0.676925812256143 -0.7594942286119625
4566000000.0 0.6596226227123173 -0.7599563496503867
4569000000.0 0.6318533614671721 -0.7609127722963076
4572000000.0 0.6358771202269236 -0.7589211740295555
4575000000.0 0.6343217658970988 -0.8025530107018126
4578000000.0 0.6586744539194158 -0.8015597785170403
4581000000.0 0.6072941955049187 -0.8095467617098463
4584000000.0 0.5834118637233598 -0.810761749199902
4588000000.0 0.612658243414507 -0.8195192543338541
4591000000.0 0.5883478702204863 -0.8045737538564399
4594000000.0 0.5727015107746053 -0.8242714149780284
4597000000.0 0.5930646424342272 -0.8362244984354489
4600000000.0 0.5603586015181212 -0.830740418632811
4603000000.0 0.5551569975409363 -0.8487010376602595
4606000000.0 0.5622366187766045 -0.8644112013726418
4609000000.0 0.544470358795358 -0.8431460158333672
4612000000.0 0.5325416713379207 -0.8388175751414825
4616000000.0 0.5360679055976707 -0.8515599273695936
4619000000.0 0.5181917483952141 -0.8520927357391884
4622000000.0 0.4776725496729588 -0.8829041218673214
4625000000.0 0.47367111675106466 -0.8816479627864948
4628000000.0 0.509338336265648 -0.8949186216395038
4631000000.0 0.48408269131808457 -0.8818740696382446
4634000000.0 0.48883291405734497 -0.8851822983382017
4638000000.0 0.4858158252325775 -0.9008435697632232
4641000000.0 0.46270826306912727 -0.9088644516377027
4644000000.0 0.4615352668333877 -0.8796484073410968
4647000000.0 0.4541528419286154 -0.9080659048386964
4650000000.0 0.4106449349499789 -0.9116937373054746
4653000000.0 0.4522267124141899 -0.9269745021706457
4656000000.0 0.4296467927484802 -0.9313376001566418
4659000000.0 0.42441468102969543 -0.9243712644499811
4662000000.0 0.41193591095207077 -0.950172341858904
4666000000.0 0.35419236897537687 -0.9412065242244007
4669000000.0 0.39313045711554945 -0.9367591214457447
4672000000.0 0.3797954036723125 -0.972546704187585
4675000000.0 0.35876156294483763 -0.9651986626793009
4678000000.0 0.364323011001655 -0.9373876793512218
4681000000.0 0.3321808026098787 -0.9538156643867872
4684000000.0 0.33714684157269975 -0.9922749386354707
4688000000.0 0.31335096298759213 -0.9633891992433742
4691000000.0 0.35241385203739417 -0.9833723361173634
4694000000.0 0.32460170732660587 -0.9241823939497089
4697000000.0 0.2768461681411383 -0.9568814190953381
4700000000.0 0.2938959085445273 -0.9490954037123642
4703000000.0 0.31658048363188873 -0.9270709211771433
4706000000.0 0.2541510472976114 -0.9904819764774944
4709000000.0 0.23803962366173195 -0.9847077627984405
4712000000.0 0.2706219992189053 -0.981900589320944
4716000000.0 0.2370238428135714 -0.9843792915753709
4719000000.0 0.29448873753018123 -0.9905324587690327
4722000000.0 0.2868711408068984 -0.9923866254276306
4725000000.0 0.22596176237054083 -0.9586443113508952
4728000000.0 0.21385815650739487 -1.0108583492769574
4731000000.0 0.24415760681036291 -1.058338271807964
4734000000.0 0.19839843666004697 -1.0054949712134427
4738000000.0 0.2251105117428563 -1.0514045642500098
4741000000.0 0.16733533818767635 -1.0033922824819783
4744000000.0 0.14148581923606313 -1.0233846733956242
4747000000.0 0.1944938477766649 -0.9997794573512074
4750000000.0 0.15333639645671718 -1.0237075265180382
4753000000.0 0.1505978589062416 -1.0019971831054746
4756000000.0 0.10043222051506906 -1.0335410897244
4759000000.0 0.1432282149580399 -1.027647407557709
4762000000.0 0.042678675644895026 -1.0252596778749214
4766000000.0 0.10340788569906828 -1.014109132207402
4769000000.0 0.08651886976514214 -1.0133848990523142
4772000000.0 0.08227310304305696 -1.0164187534133804
4775000000.0 0.048950219925510435 -1.0684330746240913
4778000000.0 0.06166495212650533 -1.0279113907893227
4781000000.0 0.056281378244636554 -1.0123297951161034
4784000000.0 0.06306916506673549 -0.9964581841387302
4788000000.0 0.009479538320207676 -1.0375925802262946
4791000000.0 0.027732473487849296 -1.0097292122142598
4794000000.0 0.03910352312910037 -1.0343296375848468
4797000000.0 -0.00938748450414148 -1.0212574932372638
4800000000.0 -0.010915547418525656 -1.0143960739977775
4803000000.0 -0.07962574386711219 -1.018292388513026
4806000000.0 -0.0264017925735458 -1.0244586019589441
4809000000.0 -0.08866968541787418 -0.9981595058890208
4812000000.0 -0.10706097771300349 -1.0057557547434073
4816000000.0 -0.051947764911362104 -1.002503556680789
4819000000.0 -0.05284280487641327 -1.0472353967646377
4822000000.0 -0.05708237133359356 -1.0702824508676347
4825000000.0 -0.0625473450781136 -1.0798855352117647
4828000000.0 -0.10933189811912719 -1.020225323855119
4831000000.0 -0.16660854305825312 -1.0564187113102848
4834000000.0 -0.10739093935400704 -1.0316517033876351
4838000000.0 -0.15240908429904038 -1.0384976530976133
4841000000.0 -0.17491720684373768 -0.978570252301686
4844000000.0 -0.10879273942827566 -1.04442060871834
4847000000.0 -0.10859722386611936 -0.9838874668656972
4850000000.0 -0.18251892067158404 -1.0261441244357254
4853000000.0 -0.16420515978615755 -0.9943438231249047
4856000000.0 -0.1731945096488656 -0.9902616357462356
4859000000.0 -0.2248558344718968 -1.0525210848683924
4862000000.0 -0.17672623689138217 -0.9902221864762594
4866000000.0 -0.24097680323024462 -1.0301390969862783
4869000000.0 -0.23194570525129085 -0.9992302588064478
4872000000.0 -0.24006052786995938 -1.01252793671008
4875000000.0 -0.16937785851566955 -1.034644401108776
4878000000.0 -0.26852298815383957 -0.9848730631481896
4881000000.0 -0.30593873648971237 -1.0647769438287664
4884000000.0 -0.25989895455158113 -0.9990505777528589
4888000000.0 -0.2344803610624398 -0.9712628776610176
4891000000.0 -0.2912287457385756 -1.0261138376755838
4894000000.0 -0.2955702568426581 -0.9688700215635659
4897000000.0 -0.27034561523161793 -0.996877064344408
4900000000.0 -0.307872546855879 -1.001268570115583
4903000000.0 -0.32620871047405076 -0.979134101753609
4906000000.0 -0.34806245091289056 -0.9887715921189011
4909000000.0 -0.3816149264411355 -0.9945605135118418
4912000000.0 -0.3759155594560045 -1.0191316306952667
4916000000.0 -0.35329446138466714 -1.0092892459334437
4919000000.0 -0.3559800962383689 -1.022896983054542
4922000000.0 -0.3664730404245605 -1.0089011171830173
4925000000.0 -0.4112084911077709 -0.9541542088460042
4928000000.0 -0.3284659712094888 -0.9847435377150182
4931000000.0 -0.3919039658452831 -0.939016597692695
4934000000.0 -0.3917124056342347 -0.9000429245350532
4938000000.0 -0.4338951550474954 -0.9435568789767488
4941000000.0 -0.4076859488017217 -0.9280165809441067
4944000000.0 -0.3664334591708789 -0.9167879854799772
4947000000.0 -0.44265633480956423 -0.8826040298387446
4950000000.0 -0.4644743618298328 -0.9186021870646505
4953000000.0 -0.5266235192039379 -0.9100679452946075
4956000000.0 -0.5057331590279492 -0.9480535646565665
4959000000.0 -0.5112212904597018 -0.8798791560493281
4962000000.0 -0.5153543351915124 -0.9232086042284507
4966000000.0 -0.508398036166079 -0.9465370474423638
4969000000.0 -0.5032582831621335 -0.9302115730467443
4972000000.0 -0.5328273163437875 -0.8819324693916932
4975000000.0 -0.4802624390237513 -0.9318094361917295
4978000000.0 -0.5355094951306979 -0.8752629860597854
4981000000.0 -0.5422357939535616 -0.8770468187450274
4984000000.0 -0.5541857670463883 -0.8809178841304214
4988000000.0 -0.5443265749715971 -0.9029239384237132
4991000000.0 -0.5506399525754222 -0.9090904531820329
4994000000.0 -0.553068978101383 -0.8459640414846342
4997000000.0 -0.6050329525800322 -0.8277605367287643
5000000000.0 -0.5865400714905539 -0.8777349210720771
5003000000.0 -0.6385156672175778 -0.8485926791727623
5006000000.0 -0.6247522002943672 -0.878311647108949
5009000000.0 -0.5949770110786224 -0.8228369774803844
5012000000.0 -0.6324718868120673 -0.8179902070517169
5016000000.0 -0.6269722812768586 -0.8540160627925543
5019000000.0 -0.6422759033212144 -0.7986255322188037
5022000000.0 -0.6756875600238181 -0.8025411754170055
5025000000.0 -0.676633621650784 -0.8464001744009824
5028000000.0 -0.6656161660377059 -0.8240772663633615
5031000000.0 -0.6901088458730937 -0.7937008845055892
5034000000.0 -0.7158646028231225 -0.7705236625688845
5038000000.0 -0.6910322924968579 -0.73553964450881
5041000000.0 -0.6730624301883932 -0.795900359793521
5044000000.0 -0.6616818736634615 -0.7724958930303447
5047000000.0 -0.6958397387786341 -0.745252193158694
5050000000.0 -0.6535249287535152 -0.7869423440624768
5053000000.0 -0.7606907129617688 -0.7642585569136744
5056000000.0 -0.7251412859830929 -0.7643932893012059
5059000000.0 -0.7123392091159988 -0.7301012108005113
5062000000.0 -0.7816097639505398 -0.7099912815903174
5066000000.0 -0.7557764699297074 -0.7108430966871935
5069000000.0 -0.7408434946354991 -0.7531276572280001
5072000000.0 -0.7521234622195868 -0.7545354732213867
5075000000.0 -0.760137203875711 -0.7285249074555733
5078000000.0 -0.8090461273528784 -0.6907970874025675
5081000000.0 -0.7633586687578828 -0.6459914819228015
5084000000.0 -0.829851285681742 -0.6704213419482308
5088000000.0 -0.7606036642622124 -0.6773009199524977
5091000000.0 -0.8104203082452937 -0.6372339313587294
5094000000.0 -0.7678124187279451 -0.6275358246611359
5097000000.0 -0.7803053679939937 -0.6309867745168378
5100000000.0 -0.826164757211926 -0.6184643117764133
5103000000.0 -0.8585877354034759 -0.5589713744500507
5106000000.0 -0.8260648128505944 -0.6256825702727967
5109000000.0 -0.8446119995412019 -0.6596617762977398
5112000000.0 -0.8600668746316145 -0.5683634157597295
5116000000.0 -0.83125704086276 -0.5962935955952325
5119000000.0 -0.9050422924169815 -0.5812559635268757
5122000000.0 -0.8497035560003985 -0.5273275856513586
5125000000.0 -0.7783875166721198 -0.5841011678730872
5128000000.0 -0.8596050556429824 -0.5295718577580244
5131000000.0 -0.8980138509110143 -0.5526197173106586
5134000000.0 -0.867589922808401 -0.5234976988601974
5138000000.0 -0.8664575129410188 -0.5369141371948938
5141000000.0 -0.8661817116192063 -0.5592550420681535
5144000000.0 -0.8831195247228267 -0.5106077767303436
5147000000.0 -0.8954992373770294 -0.5338647380965014
5150000000.0 -0.9204694134474289 -0.553880303693054
5153000000.0 -0.9369983814207556 -0.5098885024259348
5156000000.0 -0.9141824176930842 -0.5040509180532696
5159000000.0 -0.9441010672938934 -0.47544228892290197
5162000000.0 -0.9362444279664854 -0.43398986598708217
5166000000.0 -0.9450473359291348 -0.4455055455012334
5169000000.0 -0.945550185162605 -0.4272603509796769
5172000000.0 -0.9600321893058644 -0.3939307865164684
5175000000.0 -0.9692166049459062 -0.41798813369237175
5178000000.0 -0.9716058333938065 -0.4106132192659645
5181000000.0 -0.975872178674508 -0.400158491763167
5184000000.0 -0.9562746523178133 -0.40158631903482195
5188000000.0 -0.983179570573729 -0.36131163313949255
