! Created with skrf 1.8.0 (http://scikit-rf.org).
# Hz S RI R 50.0 
!freq ReS11 ImS11
4000000000.0 0.6119051706606112 0.7888443360431254
4003000000.0 0.6621285148537216 0.8823720493884449
4006000000.0 0.635784333398758 0.7469718206250091
4009000000.0 0.6633243735594287 0.7962520731098963
4012000000.0 0.6088806461398285 0.8152611850190595
4016000000.0 0.6543769644288617 0.7651703959929066
4019000000.0 0.6628543757056515 0.7493106928851824
4022000000.0 0.5966225158644358 0.8314717677341321
4025000000.0 0.7228831214186167 0.7014607989919841
4028000000.0 0.7039737641690685 0.7438351367921792
4031000000.0 0.6839679800028686 0.7145730607158804
4034000000.0 0.7360331900866199 0.7040131072540171
4038000000.0 0.7171661976245166 0.7628690933376174
4041000000.0 0.6862728912569355 0.73904861404347
4044000000.0 0.7422636063108624 0.773439737831051
4047000000.0 0.7390950250697255 0.7891051718283794
4050000000.0 0.7631969388079215 0.737319782866836
4053000000.0 0.7090938786552027 0.6713670866639037
4056000000.0 0.7604285833011568 0.716055954289151
4059000000.0 0.7472101430174132 0.6896118755741372
4062000000.0 0.7929533010889637 0.675392763554121
4066000000.0 0.7351147386258425 0.6327080629500115
4069000000.0 0.8077153729513384 0.6955477443458578
4072000000.0 0.7415529951161518 0.7030796342586583
4075000000.0 0.7803097829187319 0.7163245602837909
4078000000.0 0.8181800080168963 0.6620576135433287
4081000000.0 0.7543575073773032 0.7079134661239219
4084000000.0 0.8342019238038367 0.6239193811033321
4088000000.0 0.7487611378336803 0.6455760491828946
4091000000.0 0.8460194311758679 0.7086872689615091
4094000000.0 0.792366551037418 0.6447721418709718
4097000000.0 0.8505119697389304 0.6023778300738956
4100000000.0 0.7972388941713823 0.6182774608763184
4103000000.0 0.8146036670697769 0.6608893738025712
4106000000.0 0.8039445064642132 0.5905569278877363
4109000000.0 0.8548459439184857 0.5798955243861885
4112000000.0 0.8372678817287051 0.6239613249239435
4116000000.0 0.8081637176006632 0.5554120716131876
4119000000.0 0.8695718635306123 0.5706081882771542
4122000000.0 0.9205200879260712 0.5651417792578499
4125000000.0 0.8910172431022563 0.5266376183409873
4128000000.0 0.8161771079970498 0.5304204810930517
4131000000.0 0.8656345280374498 0.534926033483234
4134000000.0 0.8542754077971652 0.5791324141883131
4138000000.0 0.8451482433019251 0.47292982962957014
4141000000.0 0.8998487415958819 0.5555191440329456
4144000000.0 0.9065722582993734 0.4860179831875428
4147000000.0 0.9046163062689963 0.4968873156857167
4150000000.0 0.9041336958333099 0.5059047680319342
4153000000.0 0.8703667049797701 0.4949984041588986
4156000000.0 0.8965817703968477 0.46780779108729464
4159000000.0 0.8523361494594197 0.48651066939128734
4162000000.0 0.8911460760824128 0.46547670832869414
4166000000.0 0.9072880904402061 0.4884052518076869
4169000000.0 0.9192814276109964 0.43410386871436346
4172000000.0 0.9041966276671453 0.48878879838492
4175000000.0 0.9216182592631534 0.4830235387934058
4178000000.0 0.9226455254324993 0.434172810819362
4181000000.0 0.9516564001663819 0.39815738855200233
4184000000.0 0.9268821867571303 0.426360142783428
4188000000.0 0.9351295936426212 0.41986073831047166
4191000000.0 0.916353147074531 0.42372478909731365
4194000000.0 0.9162287189195878 0.388231783292746
4197000000.0 0.9523920007681628 0.3874297649332343
4200000000.0 0.9390423617220676 0.3874589138765018
4203000000.0 0.9351007881012792 0.36945939262609917
4206000000.0 0.9816349824865716 0.36914043098964816
4209000000.0 0.934443860766064 0.3673834948721512
4212000000.0 0.95907328974785 0.3338141288311809
4216000000.0 0.9583205586517413 0.36628051585019966
4219000000.0 0.9552078931047451 0.34487791569299
4222000000.0 0.9678002325425397 0.3268560377327617
4225000000.0 0.9621028095353461 0.3213244467279751
4228000000.0 0.9840351551111832 0.3171515394610289
4231000000.0 0.9769340212829548 0.292556357821924
4234000000.0 0.9776354635529714 0.2878204655847036
4238000000.0 0.988068423899959 0.2793462031126447
4241000000.0 0.9634281604744255 0.2678014717418218
4244000000.0 0.9728738941491362 0.2818172998538417
4247000000.0 0.9870665352460353 0.27526442967797676
4250000000.0 0.9614738463972594 0.2609275834464899
4253000000.0 0.9851432993935381 0.24114115570815897
4256000000.0 0.9970571909298722 0.22803372695560853
4259000000.0 0.957417798302127 0.21624076243479148
4262000000.0 1.0030817427241132 0.19757494496184877
4266000000.0 1.032811412432047 0.1916766322877579
4269000000.0 0.96970132131337 0.21910926190310967
4272000000.0 0.9927870408003131 0.19523537408323544
4275000000.0 1.0263598893898362 0.19731593149808896
4278000000.0 1.0033233297531252 0.1965712026607505
4281000000.0 1.006339574489952 0.1711221400727191
4284000000.0 1.0072902770628964 0.11958539869736787
4288000000.0 0.9994852383136021 0.19657755074618424
4291000000.0 0.9681896645650591 0.1466913870079179
4294000000.0 0.9913195443883758 0.13650686013167168
4297000000.0 0.9810892728080298 0.14792134238219679
4300000000.0 1.0083657507189272 0.14625004480623677
4303000000.0 0.986909199762359 0.11000997106791842
4306000000.0 1.0256725633057795 0.14219121947673383
4309000000.0 1.0089852436323208 0.1112186996209981
4312000000.0 1.0331376166047999 0.106946207167253
4316000000.0 1.0151372191663384 0.09540429008695604
4319000000.0 0.9881498935403892 0.11315497179285049
4322000000.0 0.9962462220516255 0.04080796952258105
4325000000.0 1.007832661643753 0.05996365455530918
4328000000.0 0.9937741066741381 0.030240665391035135
4331000000.0 1.01229330207737 -0.0015075155204565677
4334000000.0 1.0099822336212545 0.0347516217507268
4338000000.0 0.9927996379097599 0.05174175502014007
4341000000.0 1.014981816835098 0.02884539410507736
4344000000.0 1.0298101223139058 0.012062157341884927
4347000000.0 1.0353922231271868 -0.038306965357837175
4350000000.0 0.9672545757993276 -0.03466823563087962
4353000000.0 0.9802125441439717 -0.016832381527386087
4356000000.0 1.0078798978902603 -0.06351827775885484
4359000000.0 0.9656434388380851 -0.05729479310354976
4362000000.0 1.0028182682977411 -0.0855650159296154
4366000000.0 1.0112518082572686 -0.06235379113484707
4369000000.0 0.9683150415195306 -0.06852813438367154
4372000000.0 0.9752497950520513 -0.11876668326086803
4375000000.0 0.9963144936025148 -0.06313791843523522
4378000000.0 0.9892684363468272 -0.09665543788309734
4381000000.0 0.9960376613696442 -0.10559032401799658
4384000000.0 1.0639087533623217 -0.13843896456131344
4388000000.0 0.9859160553762945 -0.12120272940203936
4391000000.0 1.0125387509782382 -0.11529551075019118
4394000000.0 0.9512944547382185 -0.14088204600176335
4397000000.0 0.996060244575542 -0.1550267703869758
4400000000.0 1.0141216745875374 -0.1667558639963229
4403000000.0 1.00665638481198 -0.16692129474177334
4406000000.0 1.0022031140330838 -0.19224960927901555
4409000000.0 1.0283047174005737 -0.20103150607974032
4412000000.0 0.9736176219016259 -0.2538828834616235
4416000000.0 0.9761684501469943 -0.20239356166018843
4419000000.0 0.9927795801320533 -0.22093378210867426
4422000000.0 0.9837860556608842 -0.19932678640470194
4425000000.0 0.9967765505610567 -0.21395918108550518
4428000000.0 0.9782452440407917 -0.2523142320446392
4431000000.0 0.9936211691273691 -0.23666083710866817
4434000000.0 0.9642444615831682 -0.25665343791328254
4438000000.0 0.9956570391581785 -0.26239982767966225
4441000000.0 0.9879331944098557 -0.27237435259744314
4444000000.0 0.9383242471642201 -0.26700790054773405
4447000000.0 0.9623290836026867 -0.3010622508930059
4450000000.0 0.9598345624000502 -0.2924912321775195
4453000000.0 0.9881698717525734 -0.30250600714708603
4456000000.0 0.9272674466952089 -0.31277375297658216
4459000000.0 0.9160322892033967 -0.3086085305751744
4462000000.0 1.004758868016 -0.3415557115205715
4466000000.0 0.9814841455491791 -0.3576507122657341
4469000000.0 0.9702199798750067 -0.3235583704935794
4472000000.0 0.9561569579643024 -0.39296314080567374
4475000000.0 0.9180868145414911 -0.35434537205600003
4478000000.0 0.9570524678033937 -0.4030941142129174
4481000000.0 0.9103165168399658 -0.3804674187565493
4484000000.0 0.8950513586008495 -0.4283116784786495
4488000000.0 0.906471240340134 -0.3956792185507365
4491000000.0 0.9238492285599121 -0.4062949024261669
4494000000.0 0.9034854242329946 -0.3760837876629436
4497000000.0 0.918583802968953 -0.40235722106208743
4500000000.0 0.9283488452824566 -0.42982175933152017
4503000000.0 0.928971193974415 -0.4354944918917449
4506000000.0 0.898477345094362 -0.4532166998569635
4509000000.0 0.8942950306354629 -0.4318516884605974
4512000000.0 0.8736029300554233 -0.4535565683316949
4516000000.0 0.8973445413625021 -0.48116577435002883
4519000000.0 0.8557495244772791 -0.4492387123407471
4522000000.0 0.879258251217313 -0.5038566205547024
4525000000.0 0.8920135548480446 -0.4579799165752863
4528000000.0 0.9131779073031019 -0.5277643985765861
4531000000.0 0.8763169563124871 -0.49457515593866397
4534000000.0 0.8559146265352444 -0.5098470000835473
4538000000.0 0.868833183711504 -0.5148104443422854
4541000000.0 0.8248619024456819 -0.5424933396810165
4544000000.0 0.8459229406694733 -0.524238841483227
4547000000.0 0.8692918973717079 -0.5154385908328782
4550000000.0 0.8511997238584477 -0.5766489151398891
4553000000.0 0.8466611082164728 -0.549346022575355
4556000000.0 0.8017207618312674 -0.5557200177438368
4559000000.0 0.8208766509184662 -0.5665042755386369
4562000000.0 0.8445158359316733 -0.5736110386204054
4566000000.0 0.8246491183551501 -0.6041856354253834
4569000000.0 0.8098171193239525 -0.5773827620361356
4572000000.0 0.8090230922745265 -0.5908759015716906
4575000000.0 0.795249591460361 -0.6200790104894325
4578000000.0 0.8173078454412177 -0.6185685075852317
4581000000.0 0.7805004990074599 -0.6421895663844175
4584000000.0 0.8003203364935111 -0.6240894457401001
4588000000.0 0.7951735743406951 -0.6382102047349802
4591000000.0 0.7705777721155371 -0.6257535152932898
4594000000.0 0.7470701201333396 -0.6596718091283059
4597000000.0 0.7593310303375091 -0.6604007571255119
4600000000.0 0.7283128058773887 -0.6661573064732232
4603000000.0 0.7491422521955535 -0.6813918415994165
4606000000.0 0.7571626205399604 -0.6818679701912077
4609000000.0 0.7445745104502997 -0.6687558324939102
4612000000.0 0.7430606844572974 -0.6900021142125216
4616000000.0 0.7191485549255685 -0.6861004285802945
4619000000.0 0.7198963886141951 -0.6956375753159817
4622000000.0 0.6983740237629436 -0.7238964680069707
4625000000.0 0.6678874805068094 -0.7081716605657062
4628000000.0 0.7025303706869852 -0.6992116888022974
4631000000.0 0.6677098225851352 -0.7428849938315677
4634000000.0 0.6713049093837952 -0.7286890137090054
4638000000.0 0.6891546461515717 -0.7466979900831486
4641000000.0 0.6891158804819002 -0.7446140676349612
4644000000.0 0.6758725253394796 -0.7503454263947635
4647000000.0 0.6580975430016832 -0.7756391391426024
4650000000.0 0.6386596516306546 -0.7666035728348795
4653000000.0 0.6640534836131697 -0.7706398246680808
4656000000.0 0.6264538480605961 -0.7784611446807941
4659000000.0 0.6222638099321836 -0.7873051978694807
4662000000.0 0.626311660618431 -0.7820829484461207
4666000000.0 0.608317377820498 -0.7939322829942401
4669000000.0 0.63676579376501 -0.7791888254025711
4672000000.0 0.6202130266488255 -0.8180990671089724
4675000000.0 0.5894331234003187 -0.8191794957892415
4678000000.0 0.5848037530100676 -0.8252372484117891
4681000000.0 0.5657641071306954 -0.8491522021248187
4684000000.0 0.568031603436434 -0.8449550409866411
4688000000.0 0.543166250709278 -0.8434640037583224
4691000000.0 0.6029076636511549 -0.8495938477724836
4694000000.0 0.5459339241648181 -0.8404574789099637
4697000000.0 0.5248049493489941 -0.8290911725265118
4700000000.0 0.5441501449009133 -0.8317383720609246
4703000000.0 0.5548496826221274 -0.8140318195997618
4706000000.0 0.5142628610529711 -0.8866538823573529
4709000000.0 0.5233949387409058 -0.8775346173632719
4712000000.0 0.5181197737077432 -0.8732820088079132
4716000000.0 0.4830377870743453 -0.8781660382639325
4719000000.0 0.5184576490659506 -0.8572845417160001
4722000000.0 0.5046402262300773 -0.8788449214635234
4725000000.0 0.48426484294095834 -0.8969353046725064
4728000000.0 0.4671160110324438 -0.8722723131232104
4731000000.0 0.4944337740210556 -0.9113928492166354
4734000000.0 0.48823546236343274 -0.8827426012647532
4738000000.0 0.47936066585939624 -0.9295915161472925
4741000000.0 0.44114421476571686 -0.9337287135265566
4744000000.0 0.44901760187830364 -0.9513440375479493
4747000000.0 0.43942103379086683 -0.8850721129893274
4750000000.0 0.43484915477442876 -0.9486018709294947
4753000000.0 0.41589505319959696 -0.9397949157416345
4756000000.0 0.40447661622575753 -0.9281633578153838
4759000000.0 0.40057789711932934 -0.965224458216401
4762000000.0 0.37725503039075253 -0.9321530781712581
4766000000.0 0.35445512831484843 -0.9378785926125709
4769000000.0 0.4042518581758486 -0.9650556000209868
4772000000.0 0.37138969675426664 -0.9567351896481101
4775000000.0 0.3682582522435189 -0.9976521609728048
4778000000.0 0.32780409946190675 -0.9563446309241533
4781000000.0 0.3652814844162071 -0.933494423242393
4784000000.0 0.35802115751930064 -0.9341656806034423
4788000000.0 0.32321235781796565 -0.9949141916274358
4791000000.0 0.3105082486748195 -0.9555658921828142
4794000000.0 0.369833460243156 -0.9778750435154846
4797000000.0 0.27762026275575985 -0.9698523979294199
4800000000.0 0.27023719093512333 -0.9612454911027948
4803000000.0 0.2449218171092805 -0.974474857286421
4806000000.0 0.27455110193636767 -0.9744417806619861
4809000000.0 0.22429043875290106 -0.9831736156265077
4812000000.0 0.22620748129592705 -1.0075922495454692
4816000000.0 0.29542280582572783 -0.9407987843819414
4819000000.0 0.27876333555074795 -1.0019787016810326
4822000000.0 0.2714349498375466 -0.9937159832843102
4825000000.0 0.2569513131499911 -1.0057723166098371
4828000000.0 0.22411902383868915 -0.9978942042886251
4831000000.0 0.16881319842337347 -1.0228842654774135
4834000000.0 0.22142126263107684 -1.0097468473503346
4838000000.0 0.18803270085761886 -1.011928280216758
4841000000.0 0.18520229233487007 -1.0088342938488073
4844000000.0 0.2052243134920397 -0.9766379075520165
4847000000.0 0.20328990666640914 -0.9746232706664688
4850000000.0 0.14573199822999203 -1.0428466769999702
4853000000.0 0.1690463944163375 -0.9869637214057614
4856000000.0 0.15664862982116684 -1.0027690203087478
4859000000.0 0.14659992611520536 -1.0479268640494288
4862000000.0 0.15641914296332488 -0.9883132265689153
4866000000.0 0.09497579789482405 -1.0165287739338
4869000000.0 0.10440840821206959 -1.0144072594583535
4872000000.0 0.06989946468301314 -1.0404425705214375
4875000000.0 0.16343011256796758 -1.0376963996791673
4878000000.0 0.11036552128556751 -1.0394308641746342
4881000000.0 0.040955662050497776 -1.0613734814698388
4884000000.0 0.09841496409158708 -1.034142039783683
4888000000.0 0.10909666097691922 -1.0050896027862972
4891000000.0 0.07800757810631037 -1.0563472018877047
4894000000.0 0.024065677825601536 -1.0171541204348282
4897000000.0 0.08618370003009074 -1.0143351889319905
4900000000.0 0.04063414111381413 -1.0439512939395927
4903000000.0 0.03454892947518993 -1.0358199442769482
4906000000.0 0.026373469399756024 -1.0402512381794546
4909000000.0 -0.003977332944189862 -1.0189063065829662
4912000000.0 -0.009506246327405939 -1.0430786287474012
4916000000.0 -0.005944287630040464 -1.0632872612197914
4919000000.0 0.010067628649624294 -1.0600432930034485
4922000000.0 0.007495177573398071 -1.0552741044571103
4925000000.0 -0.07238519998876981 -1.0063125738277567
4928000000.0 0.011925806834449854 -1.0347604253453013
4931000000.0 -0.013519463892887315 -1.0323031481086111
4934000000.0 -0.06974403130930894 -0.9908244413393877
4938000000.0 -0.09211790793480028 -1.017681335572662
4941000000.0 -0.034361206550675136 -1.0495925900327525
4944000000.0 -0.04798282469588491 -0.9868006941847121
4947000000.0 -0.10766928388681885 -0.991792404264675
4950000000.0 -0.11143795857222423 -0.9769607929230871
4953000000.0 -0.14154595381101742 -1.0389894181533486
4956000000.0 -0.14647676089683803 -1.0335419987479055
4959000000.0 -0.13856336433009933 -0.9760965561087055
4962000000.0 -0.1276424284000988 -1.0131714385361654
4966000000.0 -0.12127199118862408 -1.028053413921803
4969000000.0 -0.13149266986534053 -1.0643622093873963
4972000000.0 -0.15081284140624754 -1.0245262219240578
4975000000.0 -0.15412766712748036 -0.9888464856761764
4978000000.0 -0.1844480886854562 -0.991819321448317
4981000000.0 -0.19742121710913915 -1.024612519493826
4984000000.0 -0.16895038095282336 -0.9794715076746913
4988000000.0 -0.20774903639567865 -0.9892945956642597
4991000000.0 -0.1627242291969473 -1.0225713418093567
4994000000.0 -0.20661116741907903 -1.0293023477793004
4997000000.0 -0.23993418406358058 -0.992496446377653
5000000000.0 -0.21978787922515364 -1.0084709948367223
5003000000.0 -0.22740785206138786 -1.0543257706468034
5006000000.0 -0.24924174501882793 -1.036931999042701
5009000000.0 -0.23939064065220247 -1.0048167119168607
5012000000.0 -0.2738277959641682 -0.9949427674104474
5016000000.0 -0.24879914511081674 -1.028732553202527
5019000000.0 -0.2768973286817481 -0.9946142983585344
5022000000.0 -0.27957446260321617 -0.9738476202426529
5025000000.0 -0.3063259236972485 -1.0211861732980672
5028000000.0 -0.2878161625619633 -0.9906822441053613
5031000000.0 -0.3267834392378729 -0.9678331233475305
5034000000.0 -0.35903279014089373 -0.9974777809526185
5038000000.0 -0.3246979275862668 -0.9543555254907579
5041000000.0 -0.3129584831776916 -1.0071358358393163
5044000000.0 -0.30679952366570673 -0.978308729339551
5047000000.0 -0.33528985547725904 -0.9769367590821804
5050000000.0 -0.2508375262485605 -0.9825700355266946
5053000000.0 -0.3951853792583051 -0.9915208811005249
5056000000.0 -0.3601169247679781 -1.012066530110688
5059000000.0 -0.3226091246741037 -0.9803677757599666
5062000000.0 -0.43190442891955516 -0.9824115645238969
5066000000.0 -0.3252738129440935 -0.9670163272122527
5069000000.0 -0.3876106166706277 -0.9770832446909216
5072000000.0 -0.4187273420633282 -0.9527363536004969
5075000000.0 -0.4015927006414589 -0.962400187922392
5078000000.0 -0.47043194976608665 -0.915033792770481
5081000000.0 -0.4425385312719354 -0.91948684024101
5084000000.0 -0.45343550227470864 -0.9207577495157437
5088000000.0 -0.3938206594733139 -0.9296053447532364
5091000000.0 -0.4673515454855343 -0.958393287525722
5094000000.0 -0.4354648424311934 -0.9398858369255311
5097000000.0 -0.42436986060297566 -0.9293870989964503
5100000000.0 -0.45223208068695514 -0.8939655844981563
5103000000.0 -0.5057630486820884 -0.9142826996234309
5106000000.0 -0.49131127594641016 -0.944777965369181
5109000000.0 -0.43645244858845 -0.878077371287886
5112000000.0 -0.4955865385185771 -0.9021857652657721
5116000000.0 -0.5037378161134872 -0.8872801959286323
5119000000.0 -0.516273290737896 -0.9294573125082899
5122000000.0 -0.5308967716715436 -0.9075708732664378
5125000000.0 -0.49861898265781246 -0.9438879933023326
5128000000.0 -0.5001375878675665 -0.8891673986820505
5131000000.0 -0.5573819059527145 -0.8929482285542069
5134000000.0 -0.5424860199370566 -0.8331297910322989
5138000000.0 -0.5664804367807111 -0.8692639716404462
5141000000.0 -0.5466496516568238 -0.9450784286196054
5144000000.0 -0.5194235856945929 -0.887717685373526
5147000000.0 -0.5832286222019829 -0.8849975364328659
5150000000.0 -0.5612258500547659 -0.864846495959571
5153000000.0 -0.5735309029857729 -0.8754599642767674
5156000000.0 -0.6243997422918315 -0.8636828226619022
5159000000.0 -0.612574715232817 -0.902585231532205
5162000000.0 -0.6096535453564219 -0.8149031283082638
5166000000.0 -0.6540542703480733 -0.8278190768341724
5169000000.0 -0.6306038203135427 -0.8464427600133033
5172000000.0 -0.6220462599977485 -0.8302752805726302
5175000000.0 -0.6145864206906784 -0.8994412499286252
5178000000.0 -0.6339575694753847 -0.7978368522252899
5181000000.0 -0.6704881539609784 -0.8942241368075136
5184000000.0 -0.6574719824064416 -0.8154000201197732
5188000000.0 -0.6449776892358172 -0.7910505022289038
