! Created with skrf 1.8.0 (http://scikit-rf.org).
# Hz S RI R 50.0 
!freq ReS11 ImS11
4000000000.0 0.6231602824167913 0.7949175444382646
4003000000.0 0.6998463026127423 0.8881088667320639
4006000000.0 0.7120124357432903 0.8113060389186635
4009000000.0 0.6594439091479111 0.8015955800028786
4012000000.0 0.6581975849927371 0.877238078007205
4016000000.0 0.6988897937296539 0.8016684700167405
4019000000.0 0.6689917579028772 0.7776907269592969
4022000000.0 0.6296887294587565 0.7855352067781898
4025000000.0 0.7214679993718807 0.7532734540620419
4028000000.0 0.7236893837460793 0.7039232159756019
4031000000.0 0.643203618191136 0.7384223261614168
4034000000.0 0.7212563783243879 0.751518537927054
4038000000.0 0.7558638694571759 0.744196039354175
4041000000.0 0.7065820186747828 0.7015478152729252
4044000000.0 0.7489827454309511 0.7672577874690233
4047000000.0 0.7366246484550808 0.7793054756642689
4050000000.0 0.8105208029745676 0.7136921513277878
4053000000.0 0.7446516953186717 0.6704676009828308
4056000000.0 0.7524836534373834 0.7267212540946622
4059000000.0 0.7531412929449625 0.7266615031536883
4062000000.0 0.7652732118382407 0.7042222158180782
4066000000.0 0.7090071396552888 0.6364878692264617
4069000000.0 0.8596856349780808 0.7285700755433404
4072000000.0 0.7647508283206265 0.6983206608366688
4075000000.0 0.7869698689762024 0.722557203304786
4078000000.0 0.8165785015541253 0.6890702834622562
4081000000.0 0.8118095906208826 0.7473976286985227
4084000000.0 0.8506398165594107 0.6068522861826557
4088000000.0 0.7929322338642982 0.6618352349480601
4091000000.0 0.8695496070689539 0.7071553122819734
4094000000.0 0.824758887982288 0.6544851471821637
4097000000.0 0.8193181202543571 0.6478156458985149
4100000000.0 0.8297371496488499 0.6525983037966945
4103000000.0 0.8281559017001816 0.6698371035631634
4106000000.0 0.8600470326487216 0.6182474592709823
4109000000.0 0.8885774484244937 0.5884521283852939
4112000000.0 0.8420570997683523 0.6009555099876129
4116000000.0 0.8656584877332594 0.6025080942489538
4119000000.0 0.8433804561585276 0.5816730991597474
4122000000.0 0.8877463431385457 0.5749118670140837
4125000000.0 0.8851107846304642 0.5228708333028751
4128000000.0 0.8378873386027199 0.5400155499864111
4131000000.0 0.8031662315745987 0.5311434429739016
4134000000.0 0.8500548986569242 0.5782716678730935
4138000000.0 0.8708163503786344 0.49967029114770284
4141000000.0 0.8632142166748946 0.5229736639135717
4144000000.0 0.9218129023173673 0.533721870920151
4147000000.0 0.890601048704439 0.4718639067651637
4150000000.0 0.9463497627705134 0.5229007135257187
4153000000.0 0.912184200932015 0.4717684235746895
4156000000.0 0.9482689324108995 0.49191473285975384
4159000000.0 0.8917532450766688 0.48701776397702873
4162000000.0 0.9103356168105414 0.493302561619376
4166000000.0 0.930265518874146 0.49237606677361245
4169000000.0 0.9230931118019203 0.4260394385234755
4172000000.0 0.9516706600535623 0.47260652044715296
4175000000.0 0.9497974808887687 0.46087234100709
4178000000.0 0.9223144507412058 0.4455231228458638
4181000000.0 0.9696513565605747 0.4267414144893453
4184000000.0 0.9256609230470955 0.4124325138822363
4188000000.0 0.945449949248347 0.4168358975352555
4191000000.0 0.9335856393488854 0.43827844569665847
4194000000.0 0.9282266638499668 0.4114125966270601
4197000000.0 0.9840648791287626 0.39651237146233925
4200000000.0 0.9454081980688736 0.40950337566653083
4203000000.0 0.9394446316914441 0.38870241877621003
4206000000.0 0.9595780951226008 0.3643404570800091
4209000000.0 0.9657039943265127 0.36560650392909894
4212000000.0 0.9525863738269584 0.3329350657769401
4216000000.0 0.9701549848324054 0.3440555957879033
4219000000.0 0.9838695548864808 0.34585280990767064
4222000000.0 0.9901825428196542 0.3233593622859167
4225000000.0 0.9612796952758385 0.3217711677283601
4228000000.0 0.9676133649007985 0.32551452200664455
4231000000.0 0.9738427749543251 0.3163401628673205
4234000000.0 0.9706045839491131 0.2842656408592973
4238000000.0 0.9956440344263648 0.26146153086041724
4241000000.0 0.975274761046844 0.2608321258734749
4244000000.0 0.9718103530350105 0.28713338466230987
4247000000.0 0.9902523771500924 0.2709527891824249
4250000000.0 0.9840712050635241 0.2538024012012847
4253000000.0 0.9756427564525101 0.23987703585407077
4256000000.0 1.021690429239118 0.24243429550652096
4259000000.0 0.9674606647061785 0.19967656830208966
4262000000.0 0.9747818207822863 0.21495502410351106
4266000000.0 1.0054207413517582 0.2033800562998292
4269000000.0 0.9864780227664123 0.22982209164340964
4272000000.0 1.0116035047992602 0.18596989994630014
4275000000.0 1.0033385119906884 0.1912980562938178
4278000000.0 1.0356132334598984 0.18801509687498025
4281000000.0 1.0011114191112453 0.2063593138722944
4284000000.0 1.0328491305919654 0.1329912175863764
4288000000.0 1.0058503680591968 0.1802763605143468
4291000000.0 0.9889384430996796 0.14077516238912235
4294000000.0 1.0123150987581724 0.12856886625101327
4297000000.0 0.9963017698918171 0.1440834171876083
4300000000.0 0.9943247194779508 0.13782466052771722
4303000000.0 0.9953678455659215 0.08550176494894098
4306000000.0 0.9971664665930011 0.1216492904763112
4309000000.0 1.0280060889817617 0.10475609694141703
4312000000.0 1.036898845525901 0.1276427996614314
4316000000.0 1.0381660188987556 0.12419095871332399
4319000000.0 0.9953631934316088 0.07516278461623284
4322000000.0 0.9896299146738963 0.03810238387669772
4325000000.0 1.01232101922456 0.05080965685503856
4328000000.0 0.9984373905800353 0.05807632203750836
4331000000.0 1.0098560186041918 0.014623815526654094
4334000000.0 1.0182474952278953 0.015665541095277707
4338000000.0 1.0248360293784224 0.039826130574655796
4341000000.0 1.0299631805688436 0.02356248791826754
4344000000.0 1.0252056731945922 0.024278384836086297
4347000000.0 1.0174331952128302 -0.03185481076234373
4350000000.0 0.9963241358871829 -0.022724537590306848
4353000000.0 0.9775612878378108 0.011326828864346938
4356000000.0 0.9890920840795104 -0.05045219851013924
4359000000.0 0.9702128874346431 -0.04910850039011973
4362000000.0 1.0141589118964889 -0.11604476445404292
4366000000.0 1.006737118121392 -0.06931823883133797
4369000000.0 0.9872229807346319 -0.0718258791200966
4372000000.0 0.9990204485806156 -0.11307490464961191
4375000000.0 1.0019601710192463 -0.0848341703002732
4378000000.0 0.9753789021481695 -0.09219883014598546
4381000000.0 0.9871931524184294 -0.09874920091871035
4384000000.0 1.060568103489516 -0.12518395376075203
4388000000.0 0.9995424860966254 -0.1052309031791932
4391000000.0 1.0101491963878142 -0.14644247426440227
4394000000.0 0.981041068094068 -0.14399556130212748
4397000000.0 0.9899857472089566 -0.1529231404125764
4400000000.0 1.0262695499228505 -0.17141426888186884
4403000000.0 1.0017301698380738 -0.15057973371658973
4406000000.0 1.002215926016574 -0.19573222796068487
4409000000.0 1.0321349411005847 -0.19094410971486264
4412000000.0 0.9828635109468357 -0.23685090347116147
4416000000.0 0.9829031535094812 -0.20989328547553768
4419000000.0 0.9829064802444005 -0.23363890132295106
4422000000.0 0.9819062193631951 -0.20474482259461246
4425000000.0 1.0145430369394761 -0.215132137182309
4428000000.0 0.9827994891050008 -0.24475042526285182
4431000000.0 1.0049375992992615 -0.23405567485573503
4434000000.0 0.9666062941650715 -0.24808418435414464
4438000000.0 0.9766619063370159 -0.2594847261081959
4441000000.0 0.9870352258165 -0.2594145311504735
4444000000.0 0.9514068129539119 -0.266088038182767
4447000000.0 0.943846119370159 -0.2954669785141598
4450000000.0 0.9701641980445252 -0.27373130580205857
4453000000.0 0.998067381710666 -0.3003776285540045
4456000000.0 0.9301743308824554 -0.31795212120060157
4459000000.0 0.9270649883446735 -0.32009838943301716
4462000000.0 1.0025464928777446 -0.3486942341678704
4466000000.0 0.9780324799964265 -0.3509939144393501
4469000000.0 0.9555688501901232 -0.344245367910464
4472000000.0 0.9428076642545329 -0.37966131428331124
4475000000.0 0.9197625544730308 -0.34978132948919405
4478000000.0 0.9749522356720033 -0.406314986527628
4481000000.0 0.925371113716107 -0.3761761850231019
4484000000.0 0.8999304349364043 -0.4240009235845976
4488000000.0 0.903735583900758 -0.40593653844466604
4491000000.0 0.9255393140358655 -0.4122608790438411
4494000000.0 0.9190096088431177 -0.4001381328337196
4497000000.0 0.9143134624174669 -0.40308953608497045
4500000000.0 0.9146727821834686 -0.418601284044769
4503000000.0 0.9257814680565051 -0.4278310159248729
4506000000.0 0.898342639655886 -0.45334266421163416
4509000000.0 0.88606378645177 -0.44408227545395007
4512000000.0 0.882107305400394 -0.4595813665063663
4516000000.0 0.910599119080866 -0.4686786389761264
4519000000.0 0.8748196435801728 -0.4593600255087743
4522000000.0 0.8870381694523934 -0.47649917879291426
4525000000.0 0.8880674642567876 -0.44986772653830354
4528000000.0 0.8951926171395508 -0.5121984456974755
4531000000.0 0.8801542925936053 -0.4808904277143774
4534000000.0 0.8699171921697092 -0.5159315697248181
4538000000.0 0.8573749040631768 -0.5103130188204391
4541000000.0 0.8116324007529704 -0.555215234977867
4544000000.0 0.8442962563860914 -0.5291832867104975
4547000000.0 0.8593545412509416 -0.5281779478546436
4550000000.0 0.8362344473161829 -0.5741061206495913
4553000000.0 0.8411312723150559 -0.5745897952585205
4556000000.0 0.8261420353869469 -0.5537278803627699
4559000000.0 0.816901329779952 -0.5627592087298932
4562000000.0 0.8320940024644778 -0.598122496820393
4566000000.0 0.8404798327855538 -0.5951421198673805
4569000000.0 0.8109588928291214 -0.5952298016954101
4572000000.0 0.7947183031431265 -0.5972834937288628
4575000000.0 0.8023376716886499 -0.6280743485617013
4578000000.0 0.8401214183884802 -0.6249394752857483
4581000000.0 0.791760291796977 -0.624426295379074
4584000000.0 0.7861667303340045 -0.6265447080149403
4588000000.0 0.7954096771345998 -0.6371374169172052
4591000000.0 0.7911340605048907 -0.6497657982068481
4594000000.0 0.7638634192998371 -0.6523754094145668
4597000000.0 0.7910563921155136 -0.6709546499722795
4600000000.0 0.7382787023589608 -0.6884463312103688
4603000000.0 0.7639404094351091 -0.6924155142478982
4606000000.0 0.7551339630992671 -0.671880484544661
4609000000.0 0.7377803049213529 -0.6795205975526905
4612000000.0 0.7384495753463264 -0.6998997720668171
4616000000.0 0.7191868129825125 -0.6858251472002851
4619000000.0 0.7234937053292109 -0.7081373577581768
4622000000.0 0.7314022505502901 -0.6945524305142612
4625000000.0 0.6785104660936624 -0.7006936885063734
4628000000.0 0.702370657771864 -0.6980649081166109
4631000000.0 0.6843016470906491 -0.752001021186779
4634000000.0 0.6896949668661363 -0.7406109535256271
4638000000.0 0.6849711178289944 -0.752027453725503
4641000000.0 0.6928617650135911 -0.7486435783354058
4644000000.0 0.6637896558956287 -0.7756647531247014
4647000000.0 0.6716267660617112 -0.7754494352412462
4650000000.0 0.6415249458030766 -0.7724058403171943
4653000000.0 0.6613217745163728 -0.7673119077480391
4656000000.0 0.6332932982465502 -0.7849055744325499
4659000000.0 0.6310115828216364 -0.80563597873277
4662000000.0 0.6288018488717537 -0.798216419897903
4666000000.0 0.6270185156074171 -0.8211307740846101
4669000000.0 0.6332403141674854 -0.8085909812996398
4672000000.0 0.5988306384476485 -0.8070897297660475
4675000000.0 0.5776028505708046 -0.8229709732170957
4678000000.0 0.5999075451517769 -0.7923875376146647
4681000000.0 0.5774631343760507 -0.8463280996478421
4684000000.0 0.5565109733958014 -0.8412936511794329
4688000000.0 0.5417950168190332 -0.8329828101175438
4691000000.0 0.594244645023354 -0.8214489802823131
4694000000.0 0.5691747418703695 -0.8524659311850051
4697000000.0 0.5097742711126869 -0.8360575289249341
4700000000.0 0.5516180051864997 -0.8348729947772657
4703000000.0 0.5417422221763777 -0.8363505786381706
4706000000.0 0.5173033023157303 -0.8712769836233081
4709000000.0 0.49615416706816867 -0.880350678427059
4712000000.0 0.5218606139657607 -0.8542577422620622
4716000000.0 0.5238720398303572 -0.8837850951972188
4719000000.0 0.5446952501856688 -0.8872691567848746
4722000000.0 0.5081903960792266 -0.8787762670740398
4725000000.0 0.5060951250597272 -0.8850350951532865
4728000000.0 0.4757832964005677 -0.8886834025299948
4731000000.0 0.527932657024555 -0.9033833889443412
4734000000.0 0.47067004399935963 -0.8872365059150821
4738000000.0 0.5002107153392874 -0.9163055980420544
4741000000.0 0.4279406392975582 -0.9425036284678243
4744000000.0 0.44395060404224607 -0.9378584367994507
4747000000.0 0.4488909748359722 -0.8994759819030326
4750000000.0 0.42370948408943343 -0.9250265385940846
4753000000.0 0.42998869349985325 -0.9575959650141438
4756000000.0 0.41984695593498833 -0.9364608601863122
4759000000.0 0.41678490156020587 -0.9511100637424494
4762000000.0 0.3834057963749236 -0.9873347992619305
4766000000.0 0.3877625366532913 -0.9599739538826314
4769000000.0 0.4052363414520164 -0.9803590340914791
4772000000.0 0.3772804668392906 -0.961980465595632
4775000000.0 0.3443385526130323 -1.0027667144463566
4778000000.0 0.3408529373268525 -1.002915085792032
4781000000.0 0.3550328001193453 -0.981273451512934
4784000000.0 0.34263945077426283 -0.9615493800211817
4788000000.0 0.29304261262609643 -0.9617787624623535
4791000000.0 0.2990344567881265 -0.9463643401506582
4794000000.0 0.34734554210404844 -0.977554191847507
4797000000.0 0.29018107222864414 -0.9673325675035284
4800000000.0 0.27635619789145427 -0.9812920959924967
4803000000.0 0.2615409180016537 -0.9680690338513449
4806000000.0 0.3070198392883601 -1.0016907107239363
4809000000.0 0.22913868601080697 -0.993819744414573
4812000000.0 0.2193234503479764 -0.9785729013133464
4816000000.0 0.2752125717543538 -0.9939244422909683
4819000000.0 0.2874332969293608 -1.0051244216866555
4822000000.0 0.2559110326453159 -1.0269828517758859
4825000000.0 0.2640839298331147 -1.0230357639408094
4828000000.0 0.2322587041193242 -0.979268888702577
4831000000.0 0.16077500096907313 -1.0428447336655384
4834000000.0 0.21895821193594692 -1.0271974182410366
4838000000.0 0.20102329819802156 -1.0083009349123224
4841000000.0 0.17995071119399006 -1.0047352821457802
4844000000.0 0.2060929088315935 -1.0097656609669259
4847000000.0 0.1929328679940933 -0.9688178931016
4850000000.0 0.15941447164873213 -1.037154796273117
4853000000.0 0.14208225665465318 -0.9890554618636551
4856000000.0 0.13677094522193484 -0.9969812387392633
4859000000.0 0.13801256759620456 -1.0565350171942547
4862000000.0 0.17422897416537364 -1.0079566962209199
4866000000.0 0.10213725359506601 -1.047395347864024
4869000000.0 0.11189279366580156 -1.025615924907968
4872000000.0 0.08086354904969055 -1.0740464581061993
4875000000.0 0.15140290615378266 -1.0670231924886417
4878000000.0 0.08100238296551246 -1.0244756782998883
4881000000.0 0.05941446761596711 -1.0816501706966715
4884000000.0 0.07824063990259364 -1.0191244233779324
4888000000.0 0.09270927146760058 -1.0162928155365611
4891000000.0 0.08721686548631341 -1.0370594945226208
4894000000.0 0.03056002102336487 -1.0433628143498062
4897000000.0 0.05949333812763441 -1.044515332446674
4900000000.0 0.056388317863702915 -1.054342652503098
4903000000.0 0.04920691474990006 -1.0582940713636797
4906000000.0 0.019491558863045422 -1.049628613938871
4909000000.0 -0.031952070182965565 -1.0498347801442778
4912000000.0 -0.015055593000190853 -1.0563450356409738
4916000000.0 0.00462349709068819 -1.0430906246480995
4919000000.0 0.03509606467927579 -1.0704503103568108
4922000000.0 -0.013417468204731497 -1.0619297078776335
4925000000.0 -0.08512039914587746 -1.0324805564103037
4928000000.0 -0.008156854348122897 -1.0220193579938242
4931000000.0 -0.03178323424564847 -1.0695071155273828
4934000000.0 -0.0481817800113052 -0.9843928029340794
4938000000.0 -0.08534749500163193 -1.0184160579676442
4941000000.0 -0.06280490855095598 -1.0257644994824764
4944000000.0 -0.04908433816852084 -0.9468027068149192
4947000000.0 -0.07094996210956037 -0.987854799351029
4950000000.0 -0.11725913630264513 -1.0357517372086926
4953000000.0 -0.12552195104744637 -1.0586140583438555
4956000000.0 -0.1171120276577425 -1.056845457382158
4959000000.0 -0.1411866537389688 -1.01656335812108
4962000000.0 -0.13003225002360272 -1.0608603853384764
4966000000.0 -0.12411746654575151 -1.06849610088747
4969000000.0 -0.13717854087408993 -1.0810867578688728
4972000000.0 -0.18214978661916933 -1.04445364809422
4975000000.0 -0.13211498068520208 -1.0350201948471858
4978000000.0 -0.18864147880012577 -1.0301660208987278
4981000000.0 -0.19005879245933835 -1.0404302133458494
4984000000.0 -0.17580598140709094 -1.0100647766746003
4988000000.0 -0.16700472491562468 -1.010190611551684
4991000000.0 -0.16737903446417202 -1.0199311133426392
4994000000.0 -0.1965011378502871 -1.0109354305334548
4997000000.0 -0.2654780869974391 -1.0174391733949708
5000000000.0 -0.24399915469392075 -1.0380063292138757
5003000000.0 -0.2566860552201367 -1.029035666477219
5006000000.0 -0.25780659773655124 -1.069606688368586
5009000000.0 -0.23618957506953056 -1.0231756497576034
5012000000.0 -0.27492723809911834 -0.9861098239735349
5016000000.0 -0.24510119002913544 -1.0267807542836986
5019000000.0 -0.2747019020163104 -0.9868863561165784
5022000000.0 -0.2700549489195988 -1.0019100529094846
5025000000.0 -0.31700419056980195 -1.0617893988574796
5028000000.0 -0.3204377663866015 -0.978984829319008
5031000000.0 -0.316448356595026 -1.0138189816441192
5034000000.0 -0.35674980768786635 -1.0161855595528066
5038000000.0 -0.3420430356725095 -0.946705518729825
5041000000.0 -0.29934698470415533 -0.9971649266096777
5044000000.0 -0.30304328589531937 -0.9738051843887573
5047000000.0 -0.3393415019657247 -0.9964709151212442
5050000000.0 -0.2543824472762066 -1.0097221536388026
5053000000.0 -0.4012627413842049 -1.0178537470417939
5056000000.0 -0.34923515634591906 -0.9943695048971526
5059000000.0 -0.3261852587933441 -0.9939660996654213
5062000000.0 -0.40558436366780415 -0.9843055271624805
5066000000.0 -0.3695288832540734 -0.9825710996749917
5069000000.0 -0.40951127675679166 -0.9896916826511232
5072000000.0 -0.38126091632116 -0.9458408137829084
5075000000.0 -0.37075228664937443 -0.9663521362908019
5078000000.0 -0.4251831695295388 -0.9655041899571826
5081000000.0 -0.43853503069907046 -0.8769089177054631
5084000000.0 -0.45690353065857015 -0.9679975052135916
5088000000.0 -0.3996163378607018 -0.9454122601797408
5091000000.0 -0.5095801400610744 -0.958613771114597
5094000000.0 -0.4679071312971485 -0.9440541779551571
5097000000.0 -0.4714730989862226 -0.9504905687409895
5100000000.0 -0.47675873422610765 -0.945282336350208
5103000000.0 -0.5252354458032531 -0.9561199465191398
5106000000.0 -0.4476367814986618 -0.940720651467366
5109000000.0 -0.4533424873591551 -0.9613162501238111
5112000000.0 -0.5283899020213891 -0.9032097846000806
5116000000.0 -0.48494852958235074 -0.8996121581161216
5119000000.0 -0.5630242704013432 -0.9464590859496644
5122000000.0 -0.4910940631026316 -0.8825741503464377
5125000000.0 -0.5073125497009566 -0.9346801716717822
5128000000.0 -0.5579748740553918 -0.9354223321432358
5131000000.0 -0.5025988966714855 -0.8559735430761722
5134000000.0 -0.5687323084173985 -0.8930395005353013
5138000000.0 -0.511247797345265 -0.8738193449891194
5141000000.0 -0.5376425793650057 -0.906110867965209
5144000000.0 -0.5755170986900072 -0.8871109434075737
5147000000.0 -0.5939297161810821 -0.9015080502170749
5150000000.0 -0.5809374310517491 -0.902905794098392
5153000000.0 -0.623639219938064 -0.8928505007423272
5156000000.0 -0.5764850685611419 -0.9033537383185868
5159000000.0 -0.6082567684670388 -0.8867568483777496
5162000000.0 -0.6203631518660547 -0.796437493348825
5166000000.0 -0.612200880143744 -0.8383231153343743
5169000000.0 -0.6247447085471338 -0.8754096084010301
5172000000.0 -0.6298725912977149 -0.8249383195538094
5175000000.0 -0.6492914707674324 -0.8435054686497404
5178000000.0 -0.6628274507730956 -0.8387456820366732
5181000000.0 -0.6212178841636476 -0.8985881653606598
5184000000.0 -0.6755003923922779 -0.8177897328240621
5188000000.0 -0.6403221651894447 -0.7780482297537228
5191000000.0 -0.6821358478905183 -0.8040489135378315
