! Created with skrf 1.8.0 (http://scikit-rf.org).
# Hz S RI R 50.0 
!freq ReS11 ImS11
4000000000.0 0.6677648893636863 0.7795280612005178
4003000000.0 0.7560522341598404 0.7602539340282993
4006000000.0 0.7078557390570813 0.7137688002938772
4009000000.0 0.6489803985982896 0.7648681118482228
4012000000.0 0.6764926541268729 0.7959170797601607
4016000000.0 0.7549721916621566 0.7115349478598012
4019000000.0 0.7017678353345305 0.7414428804867185
4022000000.0 0.6344436943836296 0.805781162974121
4025000000.0 0.7815238158343712 0.694957739062379
4028000000.0 0.7263777103153867 0.7222803897591699
4031000000.0 0.7146952644555047 0.696987809097884
4034000000.0 0.7697463615961812 0.663363410527696
4038000000.0 0.7296807765452176 0.6925833296352867
4041000000.0 0.742945886790163 0.7307312652361011
4044000000.0 0.7899717021866647 0.70413285055283
4047000000.0 0.7900560315598498 0.7297177996952633
4050000000.0 0.7971465245613867 0.6467001041446987
4053000000.0 0.7946197213897439 0.6144060676534777
4056000000.0 0.767079448439652 0.6589689012291298
4059000000.0 0.760278529793194 0.6214732977307864
4062000000.0 0.8044243420272718 0.6373068358236449
4066000000.0 0.7703179404772904 0.5989140612529176
4069000000.0 0.8675409377169302 0.6193012875315621
4072000000.0 0.8002865345194234 0.639392382706734
4075000000.0 0.8474756509506607 0.6588016684645712
4078000000.0 0.852284408265015 0.5861804170244025
4081000000.0 0.8279342473893888 0.6707084212223758
4084000000.0 0.8825495377853435 0.5642567627015953
4088000000.0 0.8278872700055286 0.610841767363671
4091000000.0 0.8474452308875875 0.597298701134575
4094000000.0 0.8255765818669071 0.5642081658212073
4097000000.0 0.8292536720067597 0.5782712005899233
4100000000.0 0.8276581728898562 0.5229685695176745
4103000000.0 0.8494545073493531 0.5798420601646879
4106000000.0 0.8771646665202701 0.5094089970268527
4109000000.0 0.885515350024126 0.4976314211559119
4112000000.0 0.8715738588715798 0.5356468594717683
4116000000.0 0.8953090178345685 0.5562663897581709
4119000000.0 0.9187609649991152 0.49577935824547337
4122000000.0 0.8756199067678399 0.5329818834213432
4125000000.0 0.9364104413693228 0.4956140748265581
4128000000.0 0.8794721188054426 0.47328945132990097
4131000000.0 0.8853790514601682 0.47343742091998475
4134000000.0 0.9220793310208061 0.4824746662507633
4138000000.0 0.8862140561305352 0.4463609055936714
4141000000.0 0.8933073726421299 0.4595325068453888
4144000000.0 0.929210766996598 0.4567449644052893
4147000000.0 0.9366012864023866 0.4100172243302283
4150000000.0 0.9431681237170375 0.43081656048249023
4153000000.0 0.9235148227213356 0.4359305214753493
4156000000.0 0.9496978484502294 0.4327559242765212
4159000000.0 0.9314138143538497 0.4189855599884476
4162000000.0 0.9187351502522585 0.4129204585228007
4166000000.0 0.9389272975833443 0.3990521906772634
4169000000.0 0.9270048082065084 0.3708610262461045
4172000000.0 0.9651309391614151 0.386906419734425
4175000000.0 0.9321717342151817 0.3921472199699721
4178000000.0 0.9516515049996712 0.3630561996647276
4181000000.0 0.9473520659279406 0.3490896908182225
4184000000.0 0.9390416112823639 0.36556042679475237
4188000000.0 0.9159377926668881 0.3431655103936315
4191000000.0 0.9378110909028856 0.3678490732236202
4194000000.0 0.9308936767767163 0.32991431433118357
4197000000.0 0.9700308437135281 0.3306235962570104
4200000000.0 0.9800999120405132 0.34177338729699047
4203000000.0 0.9759632591032409 0.32057293977482404
4206000000.0 0.9947553993801171 0.2859820101483653
4209000000.0 0.9491014113978788 0.28852132193706687
4212000000.0 0.9713390266149488 0.2567045053988528
4216000000.0 0.9708536099938171 0.27902988743244966
4219000000.0 0.988731056158978 0.27272668053680826
4222000000.0 0.993508044714764 0.23339900398257069
4225000000.0 0.9790619990194289 0.2468942722826941
4228000000.0 0.9933430949029236 0.2338604058684934
4231000000.0 1.0173942104181402 0.23815619188868953
4234000000.0 1.0151927219252863 0.22172608840904323
4238000000.0 1.0030711125479326 0.2120098359655557
4241000000.0 0.9813912037320827 0.17363594118467524
4244000000.0 0.9884576321561824 0.20997321165722127
4247000000.0 0.9753429212190339 0.19629107641037774
4250000000.0 0.9738814302228964 0.1757638241825915
4253000000.0 0.9788136520263209 0.16607564004841652
4256000000.0 1.0247435630793962 0.1585595969745084
4259000000.0 0.9831000943571289 0.1276822790426579
4262000000.0 0.9870915069788633 0.14098630711579976
4266000000.0 1.0229966614553812 0.10616613022407176
4269000000.0 1.0178850225124876 0.1430511968539809
4272000000.0 1.0167689903040378 0.11530091263187064
4275000000.0 1.0179317732893698 0.11303786058197651
4278000000.0 1.0314102721678837 0.11024389999974155
4281000000.0 0.9985651573999731 0.09849164878741491
4284000000.0 1.016416711225667 0.04734985031999253
4288000000.0 1.0204203078644098 0.10157060547959937
4291000000.0 0.994922646421875 0.06715291704990521
4294000000.0 1.0080921339806812 0.04840911575734057
4297000000.0 0.9833674918429665 0.07696899819502227
4300000000.0 1.0139819541949846 0.04223684685887746
4303000000.0 0.9996424026598575 0.02615219127204088
4306000000.0 1.0090888149548136 0.052249976401276474
4309000000.0 0.9965882397416912 0.019363929984909364
4312000000.0 1.0251041024688274 0.04891742245298354
4316000000.0 1.01499388304972 0.021279100866547357
4319000000.0 0.999830780844423 0.0022218712235277382
4322000000.0 0.9880534741346451 -0.03591445292042353
4325000000.0 0.9966002883468077 -0.005095906613289472
4328000000.0 1.0016025133772766 -0.033472443931345894
4331000000.0 1.0376659845012959 -0.07719302978723068
4334000000.0 1.0264883172046584 -0.042801869021980604
4338000000.0 1.015712625240611 -0.02197792053178403
4341000000.0 1.0186455461675257 -0.04437222072736667
4344000000.0 1.0595787059385113 -0.05876219626969126
4347000000.0 1.0138033214727127 -0.11086455686551047
4350000000.0 0.9540492105383966 -0.1067439244021546
4353000000.0 0.9735787609459057 -0.0904212576262397
4356000000.0 0.9977723673637966 -0.15535432993020634
4359000000.0 0.9551325280728207 -0.12562212888918622
4362000000.0 1.0005088958616086 -0.1658643411805792
4366000000.0 1.004922267576657 -0.15473898789967783
4369000000.0 0.9722921076590129 -0.1558281952490298
4372000000.0 0.9741765816639263 -0.20355081096054384
4375000000.0 1.003075848746839 -0.16661323386344407
4378000000.0 0.9602942885153007 -0.1699705988345834
4381000000.0 0.9663275644921394 -0.17418676717563036
4384000000.0 1.049950045123298 -0.2043689865250285
4388000000.0 0.9731531513322528 -0.18785457701288105
4391000000.0 0.9985064359725444 -0.21595229053814355
4394000000.0 0.9624411177212124 -0.220381233415208
4397000000.0 0.9831139376721318 -0.23874821911471403
4400000000.0 0.9968230089611108 -0.25406326995681217
4403000000.0 0.9894656790664227 -0.25684384235338753
4406000000.0 0.9804629035701242 -0.2845957006961292
4409000000.0 1.0049167132595993 -0.272793624283383
4412000000.0 0.9597469965798024 -0.33503437123070934
4416000000.0 0.9537045289833457 -0.30072968834791847
4419000000.0 0.9576452736860578 -0.32451247043201664
4422000000.0 0.9598561907588883 -0.2757341222732806
4425000000.0 0.981134629524629 -0.29497649722507735
4428000000.0 0.9667530559249161 -0.3276217545492449
4431000000.0 0.9757713409380648 -0.33518215037362015
4434000000.0 0.9472906851314538 -0.3450665709714339
4438000000.0 0.9656893723343722 -0.3543820298779162
4441000000.0 0.9498712419271078 -0.3590897555033559
4444000000.0 0.9208583857143113 -0.35763150678282674
4447000000.0 0.9374426143394521 -0.38112566558467176
4450000000.0 0.9286267553500569 -0.365569525246514
4453000000.0 0.9607620509619497 -0.403166661072747
4456000000.0 0.8948406209809411 -0.38425911314770994
4459000000.0 0.8791825282912469 -0.41018566523345046
4462000000.0 0.9608086629427823 -0.4390015964859999
4466000000.0 0.9476429998687406 -0.45242458398551844
4469000000.0 0.9389897810450127 -0.41399032752056564
4472000000.0 0.9200375446029375 -0.46306646055179623
4475000000.0 0.886930781311534 -0.44607993555422587
4478000000.0 0.9425654168170975 -0.48883653386591697
4481000000.0 0.8614832901335515 -0.453440856581127
4484000000.0 0.8806745992899885 -0.5141308871164809
4488000000.0 0.8685439979811239 -0.4899913088364041
4491000000.0 0.8822680835722163 -0.49298563521259053
4494000000.0 0.883007700459456 -0.48241333818201193
4497000000.0 0.8804305399943362 -0.4887620149204921
4500000000.0 0.8571629738939484 -0.5194019714176147
4503000000.0 0.8731053104341142 -0.5267754965767979
4506000000.0 0.848190477835405 -0.5340354984458222
4509000000.0 0.8436218179976376 -0.5237896599207474
4512000000.0 0.8353388169266351 -0.5229535247075849
4516000000.0 0.8688809085527932 -0.5626983674506735
4519000000.0 0.8377734506599315 -0.550728811484177
4522000000.0 0.806093519279818 -0.5638856891412252
4525000000.0 0.8448900728982649 -0.530206726297993
4528000000.0 0.8558121079357894 -0.5932679830147737
4531000000.0 0.8204184776647031 -0.5794386304064184
4534000000.0 0.7930240450620257 -0.5901307768656368
4538000000.0 0.7919736266632069 -0.5984117811136104
4541000000.0 0.7695204852492427 -0.6428790227328448
4544000000.0 0.7943941780512431 -0.611183952014189
4547000000.0 0.7931352358793634 -0.5847211264596073
4550000000.0 0.7746889200309823 -0.6434290213202674
4553000000.0 0.7835704423107652 -0.6511909115960522
4556000000.0 0.7639025061092968 -0.6532336799226839
4559000000.0 0.7540018718770931 -0.6686244699698107
4562000000.0 0.7606957968543826 -0.6570543681722616
4566000000.0 0.7616497355885898 -0.6847256913755733
4569000000.0 0.7588309011423383 -0.6697440869389351
4572000000.0 0.7497807631589003 -0.695514076412787
4575000000.0 0.7331837478928591 -0.7097986627905049
4578000000.0 0.7680783069671546 -0.6938441153242424
4581000000.0 0.7119277447618253 -0.6997040335061419
4584000000.0 0.7045634188754808 -0.6930476951266334
4588000000.0 0.7204272253324912 -0.7098793495656468
4591000000.0 0.7047188930952616 -0.7035930585824728
4594000000.0 0.6860426878794683 -0.7300132446980209
4597000000.0 0.6933834884827583 -0.7551780090258073
4600000000.0 0.661239786474232 -0.7515899823984524
4603000000.0 0.6661928794490023 -0.7557412582969766
4606000000.0 0.6696077548384594 -0.7559407192523311
4609000000.0 0.6739775476183739 -0.7427408280047312
4612000000.0 0.6611680680065432 -0.7759019111688338
4616000000.0 0.6405247191988499 -0.7724358211346087
4619000000.0 0.6359675106629434 -0.7769584306851579
4622000000.0 0.6350938475645591 -0.7784649547274215
4625000000.0 0.5950929798912071 -0.7935566098448191
4628000000.0 0.6218490666901797 -0.7947535289981988
4631000000.0 0.6072725239512107 -0.7997236098324019
4634000000.0 0.6076380044836879 -0.8078684846148145
4638000000.0 0.608888155608596 -0.8054441039446755
4641000000.0 0.597427035855447 -0.8084706883458448
4644000000.0 0.5849295838855331 -0.8113135141802087
4647000000.0 0.5942937969058083 -0.832973542504916
4650000000.0 0.5658001216732212 -0.8442656725789471
4653000000.0 0.5713287569898025 -0.8364036450313344
4656000000.0 0.5587547707741719 -0.8515260351255505
4659000000.0 0.5281531735404641 -0.848234012465213
4662000000.0 0.5505239221643711 -0.8465712902918039
4666000000.0 0.5188451524490268 -0.8806331999626333
4669000000.0 0.5261775066596518 -0.8687714958300847
4672000000.0 0.5081472119088816 -0.8864304462167222
4675000000.0 0.4966306205525033 -0.8753015592296378
4678000000.0 0.4859012167813332 -0.8668507556914857
4681000000.0 0.4525188486497377 -0.8999002684047079
4684000000.0 0.45694480363246104 -0.9090290807280715
4688000000.0 0.44791720860003503 -0.882205113948205
4691000000.0 0.4810901137306898 -0.902825702293379
4694000000.0 0.4558879705206747 -0.8930423355055264
4697000000.0 0.41951680914792877 -0.8803063211705806
4700000000.0 0.43485414000346034 -0.8803246135012381
4703000000.0 0.4714315105789417 -0.8655932983541201
4706000000.0 0.4056003192340827 -0.897036068173575
4709000000.0 0.4059531659510934 -0.9118991396409395
4712000000.0 0.4170059204576625 -0.9180412827828522
4716000000.0 0.4048075755540296 -0.9550417270732086
4719000000.0 0.41707902081532483 -0.9109143580838919
4722000000.0 0.4042368121046386 -0.9346621348399637
4725000000.0 0.39502742938221036 -0.9204196071015579
4728000000.0 0.3687397913768321 -0.9413564450150702
4731000000.0 0.3744229439945421 -0.9767416810686746
4734000000.0 0.37060675853534053 -0.9115322754278642
4738000000.0 0.3783007629140093 -0.994896144861565
4741000000.0 0.310645183273221 -0.9750620379490901
4744000000.0 0.32438307026059615 -0.9790792096547687
4747000000.0 0.3337774688225412 -0.9620576567690629
4750000000.0 0.31211916412013296 -0.9740742171996466
4753000000.0 0.3096319084214189 -0.95665468309438
4756000000.0 0.2835132734954946 -0.9886967234563109
4759000000.0 0.32403619565361286 -0.9818656802169435
4762000000.0 0.2751904959943503 -1.014440637135479
4766000000.0 0.2624470045658 -0.9687789519906062
4769000000.0 0.2599731582725442 -0.9974649485473851
4772000000.0 0.2686668482983446 -0.9965950989951992
4775000000.0 0.22268905096723757 -1.0192379697429066
4778000000.0 0.2413993792613339 -1.0232766934649675
4781000000.0 0.2340142447900605 -0.9778058540963253
4784000000.0 0.2682234503462682 -0.9725969398387667
4788000000.0 0.20646810091539494 -0.9887489307383472
4791000000.0 0.21096149209404502 -0.9839437761182382
4794000000.0 0.2446310760414822 -1.0183285286921748
4797000000.0 0.1627095589787365 -0.9771595870883937
4800000000.0 0.16780841485433454 -0.9799074355577824
4803000000.0 0.13744453708545443 -1.0014865483244217
4806000000.0 0.16558269306872686 -1.0369936120087904
4809000000.0 0.08765465082849531 -1.0097445482568308
4812000000.0 0.11898671336007446 -1.0066109618067764
4816000000.0 0.13244088381710123 -0.9862988747423029
4819000000.0 0.1548556726234362 -1.0357461885874022
4822000000.0 0.13927646469929444 -1.070825067031765
4825000000.0 0.13845591125080353 -1.0411751490606007
4828000000.0 0.10750497309324952 -1.0175373409680013
4831000000.0 0.056454644021887296 -1.0349403648824458
4834000000.0 0.09371905633867643 -1.0216350498226838
4838000000.0 0.05490591791093927 -1.0345373329026406
4841000000.0 0.05515041905382289 -1.011748090614084
4844000000.0 0.10299530683700125 -1.0165516115181665
4847000000.0 0.04968012605074036 -0.9994857885725366
4850000000.0 0.01258137469579887 -1.0489583985768027
4853000000.0 0.038699784239686945 -0.9834682919179458
4856000000.0 0.04339550004945467 -1.0068375555486626
4859000000.0 0.004400995177665387 -1.071340734361066
4862000000.0 0.03272086261156554 -0.9950052620128619
4866000000.0 -0.0360198016503557 -1.0526722276783294
4869000000.0 -0.028428552192700737 -1.0098387120401773
4872000000.0 -0.0555980645519133 -1.0551339038782965
4875000000.0 0.015526847544041333 -1.0969152179908814
4878000000.0 -0.046500767482676654 -1.0246264148973192
4881000000.0 -0.07599623474599393 -1.0818211997796279
4884000000.0 -0.04429002096986151 -1.033493197974467
4888000000.0 -0.0363803168148744 -1.0417350408912707
4891000000.0 -0.052692907466464003 -1.0638076376553656
4894000000.0 -0.09057212063569833 -1.03577960460109
4897000000.0 -0.06368175111973678 -1.0145506412948302
4900000000.0 -0.07905384357747132 -1.0421347289063208
4903000000.0 -0.08116522151877081 -1.0430445901097014
4906000000.0 -0.11011657130142603 -1.060047094867885
4909000000.0 -0.10080789502837437 -1.0172366618165938
4912000000.0 -0.14638429792604546 -1.0309521739249385
4916000000.0 -0.13485871324715268 -1.0484682069332536
4919000000.0 -0.14862856226645121 -1.0378874895553776
4922000000.0 -0.13016128300727609 -1.0697159719648481
4925000000.0 -0.2056178019865101 -1.0163285727671107
4928000000.0 -0.12591036853100546 -1.0091301209777515
4931000000.0 -0.18100450291331127 -1.0189132409562751
4934000000.0 -0.19909513346356933 -0.9823866232316284
4938000000.0 -0.22855898250443457 -0.9972062268062304
4941000000.0 -0.21508693267525075 -0.983779518885196
4944000000.0 -0.17607412604329206 -0.9777956139495638
4947000000.0 -0.20106543502571386 -0.9831541891450987
4950000000.0 -0.22858159197031874 -0.9643752946584587
4953000000.0 -0.2850074830247873 -1.017755129989289
4956000000.0 -0.24468973710493463 -1.00258608064123
4959000000.0 -0.30410520743306413 -0.9381423833751098
4962000000.0 -0.3081939474727404 -1.0621421914544542
4966000000.0 -0.24951116294618353 -1.0290147010008326
4969000000.0 -0.3010285689190841 -1.0465905519798662
4972000000.0 -0.30159536853530455 -0.9746409321640315
4975000000.0 -0.28335542842732775 -1.0020250839715483
4978000000.0 -0.3141897937510106 -0.9803748234820415
4981000000.0 -0.33056515751470494 -1.0085088902471382
4984000000.0 -0.31774945315813263 -0.9603991159976399
4988000000.0 -0.32202583835795046 -0.9975650767752411
4991000000.0 -0.27914375968098953 -1.0061393220437655
4994000000.0 -0.33644028608901877 -0.9673278088056529
4997000000.0 -0.40257419863525307 -0.964379823881648
5000000000.0 -0.3434469537378939 -1.0138018002831128
5003000000.0 -0.3859129756205724 -0.9811477255720907
5006000000.0 -0.3947750531973071 -1.0103383319706336
5009000000.0 -0.3864954774865965 -0.9610156611676136
5012000000.0 -0.4228869778549937 -0.9464338524989875
5016000000.0 -0.3778646162072217 -1.0126164107953963
5019000000.0 -0.39979419205280164 -0.9261241997968602
5022000000.0 -0.4342750134089757 -0.9542211937635405
5025000000.0 -0.46063857652659573 -0.9779052837123385
5028000000.0 -0.4700770468270916 -0.9370924194759698
5031000000.0 -0.4555505566519136 -0.9113916410165114
5034000000.0 -0.4928920051028878 -0.9576801851698342
5038000000.0 -0.475174760222137 -0.8756024638917498
5041000000.0 -0.4150492633263341 -0.9466419997194112
5044000000.0 -0.4316490462070893 -0.9128430311552799
5047000000.0 -0.4831963552259259 -0.9009122933285462
5050000000.0 -0.42408648446541464 -0.9020079867875666
5053000000.0 -0.5479792808260644 -0.9502292966920252
5056000000.0 -0.4610371556882368 -0.9294105740973748
5059000000.0 -0.4626825873587857 -0.9079049051140268
5062000000.0 -0.5736952627023646 -0.8851372581655612
5066000000.0 -0.5377649132521511 -0.9211404835987704
5069000000.0 -0.5363054203994909 -0.9000399860055185
5072000000.0 -0.5318631639913793 -0.8649903890887416
5075000000.0 -0.533287617255785 -0.9011329918167152
5078000000.0 -0.6109642441579735 -0.8415821207778758
5081000000.0 -0.5637990681972476 -0.7997246242770927
5084000000.0 -0.5608779607846233 -0.8564205803392808
5088000000.0 -0.5598676337058812 -0.8562175075864853
5091000000.0 -0.6150374226040993 -0.8229197890389561
5094000000.0 -0.6040226655241282 -0.8363757530558754
5097000000.0 -0.5843232169663984 -0.84179338429979
5100000000.0 -0.6116887457636994 -0.8292732110551607
5103000000.0 -0.6250461534805756 -0.7928180970161051
5106000000.0 -0.6002911568312623 -0.8496130178204058
5109000000.0 -0.6114807548876876 -0.8564251302664563
5112000000.0 -0.662834609780006 -0.7876471911753349
5116000000.0 -0.5953602157590081 -0.7861911823291211
5119000000.0 -0.660461860856377 -0.7992405852392104
5122000000.0 -0.6574380076083136 -0.7966821325202529
5125000000.0 -0.6324191018625448 -0.8192844573758701
5128000000.0 -0.6646096123753193 -0.7979638889300191
5131000000.0 -0.665835967414478 -0.7967362685525634
5134000000.0 -0.6497290821361724 -0.7597041927204337
5138000000.0 -0.608675648893151 -0.802133620536571
5141000000.0 -0.657789403231706 -0.7550877646431751
5144000000.0 -0.6488515132595172 -0.7439758207990146
5147000000.0 -0.7260151036541612 -0.8211377586489895
5150000000.0 -0.7154089455906585 -0.775702418114492
5153000000.0 -0.708465193098355 -0.76039864006615
5156000000.0 -0.7180319297805479 -0.7397184402110112
5159000000.0 -0.7399761262348695 -0.7877120589704139
5162000000.0 -0.7499757567604475 -0.6959948333476649
5166000000.0 -0.7633995210039639 -0.7220179991532688
5169000000.0 -0.7611539672406133 -0.7071418912856889
5172000000.0 -0.7905265304956173 -0.7128428865365696
5175000000.0 -0.7562847855048332 -0.7375411920411745
5178000000.0 -0.7905489830432697 -0.7077123717772194
5181000000.0 -0.789203627732967 -0.6823902290955026
5184000000.0 -0.7820988067519419 -0.6692015664877846
5188000000.0 -0.7982596643370227 -0.6771240450011975
