! Created with skrf 1.8.0 (http://scikit-rf.org).
# Hz S RI R 50.0 
!freq ReS11 ImS11
4000000000.0 0.09994740301242988 1.0385973875473897
4003000000.0 0.08251381176041855 1.0676499804549509
4006000000.0 0.18242237624008092 1.0035219940066118
4009000000.0 0.12553617977139295 0.9812359353670403
4012000000.0 0.10576010510310863 1.058041234315343
4016000000.0 0.22851448341396247 1.0297279017597736
4019000000.0 0.168765555133347 1.0305406958358945
4022000000.0 0.07265631110225831 1.0155988439925803
4025000000.0 0.22252524224704828 1.0616225338240373
4028000000.0 0.23225978471096081 1.0429302809741015
4031000000.0 0.2340036253625834 0.9645234196242732
4034000000.0 0.22487921188484208 1.0289668573066746
4038000000.0 0.27784533391201066 1.0415440883396623
4041000000.0 0.2539416711465796 0.9982746795234309
4044000000.0 0.29112712970795235 1.1004560160468921
4047000000.0 0.18884550833673214 1.0119276958027434
4050000000.0 0.2725606785889873 1.010404710943215
4053000000.0 0.33753659946279096 0.9793261902374537
4056000000.0 0.29241484212688806 0.9674941571349692
4059000000.0 0.3324833033703968 1.0316394311115837
4062000000.0 0.36423969097117603 1.0005705933995281
4066000000.0 0.3395167976678701 0.9143181990604189
4069000000.0 0.3674286474554933 0.9892969900418619
4072000000.0 0.29979550210156425 0.9493693036266506
4075000000.0 0.29924141862147446 1.0232516904275801
4078000000.0 0.3601570784641823 1.0330987890534016
4081000000.0 0.2624003978167018 1.0587538986369311
4084000000.0 0.3808345097861989 0.958649925978289
4088000000.0 0.37315931090923476 0.9541009821575116
4091000000.0 0.43584318802904043 1.0413809163881913
4094000000.0 0.39131010646218345 0.9553606183689757
4097000000.0 0.4035502868958549 0.9284173513573442
4100000000.0 0.45133319024896396 0.9624602444560988
4103000000.0 0.4237311987021041 1.0242273623592584
4106000000.0 0.4764001532984956 0.9729053994306482
4109000000.0 0.4901278283359082 0.9391230734976475
4112000000.0 0.45967180433268 0.9425695478082312
4116000000.0 0.43229222462928585 0.9703630745177538
4119000000.0 0.53485168278927 0.894983485603553
4122000000.0 0.49338390214720396 0.92383931846828
4125000000.0 0.5521339347284796 0.959800664797325
4128000000.0 0.4616174109617701 0.919146634432108
4131000000.0 0.47935928670043193 0.8922988268805769
4134000000.0 0.47385053194833526 0.8968309776163734
4138000000.0 0.5190563391953958 0.8618456602442275
4141000000.0 0.5249448206074857 0.873188812881343
4144000000.0 0.5403930223187416 0.917577111448481
4147000000.0 0.530766862168154 0.8459677597299715
4150000000.0 0.5609637037667226 0.9685076386301996
4153000000.0 0.5511199310731812 0.8926397007312815
4156000000.0 0.5476041953182946 0.8878256277192653
4159000000.0 0.5301261461932529 0.8588558163790785
4162000000.0 0.5113630093779133 0.8327570719174886
4166000000.0 0.6075480086214597 0.8364281372428954
4169000000.0 0.6226443381305203 0.8321097734299346
4172000000.0 0.6064908969892833 0.8323351536675909
4175000000.0 0.5726490526714012 0.8149749226901732
4178000000.0 0.6752001327116078 0.8737883396666215
4181000000.0 0.6434203086879162 0.8817442728627888
4184000000.0 0.6597670178774176 0.8634924013963259
4188000000.0 0.6075729720068347 0.8155699278615356
4191000000.0 0.605101369197147 0.8344114998902619
4194000000.0 0.6149546632145966 0.7701149062852316
4197000000.0 0.6601279559009944 0.800890548164203
4200000000.0 0.6306171000308893 0.7862923405655301
4203000000.0 0.6552990616930909 0.7746065344755841
4206000000.0 0.6743292786037443 0.7960205573209875
4209000000.0 0.6725738931403794 0.7828461403847804
4212000000.0 0.6815873131322213 0.76242970185862
4216000000.0 0.6664677778051715 0.7569157910546043
4219000000.0 0.6833288401550432 0.780827715748149
4222000000.0 0.7318042131223983 0.7661533504068774
4225000000.0 0.6817117037627695 0.7237367271684976
4228000000.0 0.7127533301021824 0.7487495689298022
4231000000.0 0.721387199973917 0.7287069243412064
4234000000.0 0.714721869051587 0.7259545151340567
4238000000.0 0.7425403985952002 0.7248861529084468
4241000000.0 0.7483334458491344 0.7384162239957912
4244000000.0 0.7441416771977178 0.7368498724576178
4247000000.0 0.7787142695939255 0.7258961604395452
4250000000.0 0.7447898021333799 0.6937373382449166
4253000000.0 0.7559631245012817 0.7002065671616932
4256000000.0 0.7586991342152261 0.6400604295911354
4259000000.0 0.75682504352568 0.6637438300212822
4262000000.0 0.7997934161852092 0.634678359475688
4266000000.0 0.7912634951911166 0.6488669777607264
4269000000.0 0.8145877932315857 0.6888939512167368
4272000000.0 0.8010006828718259 0.6403194408645945
4275000000.0 0.813856467683308 0.6308717244638131
4278000000.0 0.8042614834645399 0.6493203021151419
4281000000.0 0.7873745921178736 0.6163588932994977
4284000000.0 0.8252366829250484 0.5905852808716722
4288000000.0 0.8356043362587624 0.6317006567684115
4291000000.0 0.8197233741900039 0.5992687378193872
4294000000.0 0.8418232750570545 0.5951552528392614
4297000000.0 0.8206218350097753 0.6074636147743696
4300000000.0 0.8654988329735627 0.5807483063734581
4303000000.0 0.8384287812596225 0.5717661265130606
4306000000.0 0.8438147073529106 0.6060568465802968
4309000000.0 0.8581300474520054 0.5469881372045523
4312000000.0 0.8572254709171889 0.589989892558531
4316000000.0 0.8660138282094072 0.5544383997759991
4319000000.0 0.8478960581579266 0.5446557203315594
4322000000.0 0.8824207594050647 0.4670090077686046
4325000000.0 0.8773621538982449 0.5453235944559083
4328000000.0 0.9147592777425488 0.5320191590944408
4331000000.0 0.9061618286142329 0.4817930207173121
4334000000.0 0.8844282888706088 0.5248322212378584
4338000000.0 0.881180131072425 0.5067072413780792
4341000000.0 0.9215127175271782 0.5346117775901519
4344000000.0 0.9162007061135429 0.4568270526708481
4347000000.0 0.9202571279579116 0.46278771206758207
4350000000.0 0.9088994179350296 0.4502517347843716
4353000000.0 0.8834546354266875 0.4470715095554355
4356000000.0 0.9326620973349476 0.4205109507102818
4359000000.0 0.896468957242294 0.4279653395778681
4362000000.0 0.9370019402253287 0.40943540998731975
4366000000.0 0.9184429629363613 0.413378671329522
4369000000.0 0.923786866936086 0.38877137657164784
4372000000.0 0.916056959560178 0.3442188551805967
4375000000.0 0.9338655434512981 0.42656363833660094
4378000000.0 0.9182215887243468 0.36584401754715856
4381000000.0 0.934317423977008 0.38783886246956045
4384000000.0 0.9731049324923594 0.35438863585625135
4388000000.0 0.9349100014161225 0.3676355739053561
4391000000.0 0.9425244904699137 0.33363424384763674
4394000000.0 0.9141438537818185 0.3212858835932898
4397000000.0 0.9600525251291161 0.33373191047525463
4400000000.0 0.9717896941176682 0.35127927597212705
4403000000.0 0.9672486487213652 0.3251916289169662
4406000000.0 0.972475630659846 0.28702736775973436
4409000000.0 1.0035409072495265 0.2923470843777128
4412000000.0 0.9874134953650288 0.24642468271010326
4416000000.0 0.9910659244069362 0.25152294318242685
4419000000.0 0.9763189271732008 0.24970487164444338
4422000000.0 0.9721044034556539 0.2654757277534851
4425000000.0 0.9898599449191513 0.26278487426740965
4428000000.0 0.990553797504874 0.23025009939067487
4431000000.0 1.0164490015913135 0.24111841387034952
4434000000.0 0.9973124871863847 0.20974621457825204
4438000000.0 1.0121168260615434 0.2295670764581812
4441000000.0 1.0115081603267866 0.21276112692493476
4444000000.0 0.9871113143421877 0.2078722674529289
4447000000.0 0.9985053339935201 0.18111986630483223
4450000000.0 0.9838979774199834 0.19440013864847183
4453000000.0 1.021411987142192 0.19269433498846533
4456000000.0 1.0000167611035806 0.15658393562106912
4459000000.0 0.9604187740885111 0.1253689696781589
4462000000.0 1.069203186589784 0.1534206087485979
4466000000.0 1.0389923940260113 0.13176978146824667
4469000000.0 1.0082773326182706 0.13583244035609532
4472000000.0 1.0388806452852366 0.10049506805056471
4475000000.0 0.9777703510407378 0.10784230271112047
4478000000.0 1.04668516553415 0.10390323851451291
4481000000.0 0.9950306506591966 0.07169466454462955
4484000000.0 1.0017703916816054 0.04144583684599895
4488000000.0 1.0016874595483893 0.041126604064431416
4491000000.0 0.9850691456038477 0.0372001010837833
4494000000.0 0.9857657020064272 0.03506166538695023
4497000000.0 0.9936249144528722 0.04046182193671442
4500000000.0 1.0193820561821278 0.03728211868334762
4503000000.0 1.0458997490603859 0.012900077582500821
4506000000.0 1.0094440618919875 0.014060520622754105
4509000000.0 0.981244256134876 0.00025294298554173755
4512000000.0 0.9954771792349042 -0.014363514279759139
4516000000.0 1.044323752424643 -0.0038959352286865503
4519000000.0 1.000600811083183 -0.014757751212448988
4522000000.0 1.0199730293091815 -0.06270838332593032
4525000000.0 0.9940917639448834 -0.011292487935611786
4528000000.0 1.0390731169921608 -0.06833281130963983
4531000000.0 0.9989169704099499 -0.043160368865823334
4534000000.0 0.9831767068597407 -0.053687684242280403
4538000000.0 1.0050453650434117 -0.0803845670656732
4541000000.0 0.9826037012413159 -0.13575360312419404
4544000000.0 0.9890691177820097 -0.0856344960986884
4547000000.0 0.9842594927713317 -0.08428634608149571
4550000000.0 1.0080859020206683 -0.13406741082194965
4553000000.0 1.0181483950596246 -0.13678355979211362
4556000000.0 0.9700127151916618 -0.16847273607242438
4559000000.0 0.9975919285804854 -0.18271049919572457
4562000000.0 1.0154027318236043 -0.15362910682230135
4566000000.0 1.0077293591617704 -0.18264771201209462
4569000000.0 0.9692534651309042 -0.16411283300220533
4572000000.0 0.977968138263002 -0.16786989575618683
4575000000.0 1.0029091758649025 -0.22471413442774862
4578000000.0 1.011681574355595 -0.1917254866075882
4581000000.0 1.0036211719945025 -0.23202814798601534
4584000000.0 0.9743338096157146 -0.21911010872634262
4588000000.0 1.0060186223254308 -0.21584273447624827
4591000000.0 0.9768488877002289 -0.21340439041392262
4594000000.0 0.9708043018825411 -0.267310623891562
4597000000.0 1.002343227963292 -0.2674307935018152
4600000000.0 0.9387550216484414 -0.2855180039187053
4603000000.0 0.9864302351102852 -0.2943253421987677
4606000000.0 0.9726720536256207 -0.2671019077181812
4609000000.0 0.9599191409682732 -0.302058914708747
4612000000.0 0.9977198660150055 -0.3020121284921264
4616000000.0 0.9620083560353898 -0.31502118559807607
4619000000.0 0.9530256196508637 -0.3064703721004195
4622000000.0 0.953641028785178 -0.30220303558395073
4625000000.0 0.8893860050832678 -0.34571166912850176
4628000000.0 0.919494007143033 -0.31930724696230983
4631000000.0 0.9058022955044109 -0.3702515159494706
4634000000.0 0.9461312520004468 -0.34604351829267477
4638000000.0 0.9449396179340774 -0.3618176894410293
4641000000.0 0.9449047916710384 -0.37365732881590746
4644000000.0 0.9346451760664161 -0.39385192144208186
4647000000.0 0.9362220144145713 -0.40748108880974643
4650000000.0 0.9217302613078867 -0.427708369415812
4653000000.0 0.9522215102363569 -0.4074454720245887
4656000000.0 0.8839985747052219 -0.44482478046271096
4659000000.0 0.9000432199893851 -0.434435539120223
4662000000.0 0.9110624698943072 -0.4299994040639149
4666000000.0 0.896537616694459 -0.436869290386305
4669000000.0 0.911699385021336 -0.43309252699325734
4672000000.0 0.8939898327240439 -0.4782475120813132
4675000000.0 0.854684152371346 -0.490642656544542
4678000000.0 0.8810612550741153 -0.46495300392854
4681000000.0 0.8759663495618523 -0.5184751950532225
4684000000.0 0.8670027891535926 -0.4951796882706654
4688000000.0 0.8663150847708798 -0.492818549620498
4691000000.0 0.855498782320218 -0.47187320091237206
4694000000.0 0.8480624896047387 -0.5302892376280806
4697000000.0 0.8450368681267242 -0.525555435566444
4700000000.0 0.8654544261001521 -0.5279715138883488
4703000000.0 0.8552016498693347 -0.5532867670929765
4706000000.0 0.8417533221527649 -0.5552873504827601
4709000000.0 0.8199412879166452 -0.5591892100173214
4712000000.0 0.840530807722834 -0.5796689678437174
4716000000.0 0.8577178650315427 -0.5924893635463231
4719000000.0 0.8380393411181188 -0.602135602524348
4722000000.0 0.8563627855466844 -0.5840728044953967
4725000000.0 0.8082802410540595 -0.6081468278642334
4728000000.0 0.7746896114854007 -0.6142388020572558
4731000000.0 0.8259428221677636 -0.6045704584258544
4734000000.0 0.8020215043648393 -0.6110476963676472
4738000000.0 0.8175121035341548 -0.6348776711886246
4741000000.0 0.8062985770734669 -0.6486978227757342
4744000000.0 0.7583681272139786 -0.6734132632772829
4747000000.0 0.7622269323521504 -0.640862059268126
4750000000.0 0.7875567548425646 -0.6766168051699388
4753000000.0 0.7839739092215282 -0.694525348350764
4756000000.0 0.7251610535295585 -0.6614226818783995
4759000000.0 0.7583922624833321 -0.7171142473378067
4762000000.0 0.7552178147824797 -0.7064211936040323
4766000000.0 0.7396366752490318 -0.6977851675213429
4769000000.0 0.7492177986620027 -0.715546323818593
4772000000.0 0.7216321651974422 -0.7276114664461123
4775000000.0 0.7166622670461148 -0.7642687419549508
4778000000.0 0.7340095971577274 -0.7240176603111929
4781000000.0 0.7052659731561515 -0.7192847810954937
4784000000.0 0.7127928070323803 -0.7004054398034987
4788000000.0 0.7077942553162434 -0.7234846691788278
4791000000.0 0.664681767255519 -0.7517516061593206
4794000000.0 0.6971855104513216 -0.7738352976628435
4797000000.0 0.6788900947180095 -0.7747460050286895
4800000000.0 0.649155119976815 -0.779662944104984
4803000000.0 0.6388903847458729 -0.7803282480173379
4806000000.0 0.6636236703626712 -0.8052159221319933
4809000000.0 0.6476155029891515 -0.7861986457869861
4812000000.0 0.624552675866062 -0.8196930019123382
4816000000.0 0.6313809296935691 -0.7911615019028677
4819000000.0 0.6368879158063222 -0.7865817199307781
4822000000.0 0.6306595352660954 -0.8324807931751277
4825000000.0 0.6193730407543425 -0.8113268638009737
4828000000.0 0.6075194201263369 -0.8326316953992483
4831000000.0 0.5640532632715799 -0.859307086476721
4834000000.0 0.6079483482774843 -0.8345838912628414
4838000000.0 0.5993204804944537 -0.8572743754845307
4841000000.0 0.5621174436814516 -0.8362200451356512
4844000000.0 0.5929677985103492 -0.8426838003725383
4847000000.0 0.5617916902594509 -0.8324577302648506
4850000000.0 0.5566718565354822 -0.8751341566482511
4853000000.0 0.5343510946666608 -0.8624833085900421
4856000000.0 0.5287152734914036 -0.8604000141458665
4859000000.0 0.5256652090428979 -0.8931428784499521
4862000000.0 0.5264317146311994 -0.8423148295455671
4866000000.0 0.5254835417998743 -0.9075238912782148
4869000000.0 0.48528983795799313 -0.8968011353224661
4872000000.0 0.47420049460275243 -0.9167332914360604
4875000000.0 0.5334287232805832 -0.9035219278061598
4878000000.0 0.46471530359553753 -0.9099107711022988
4881000000.0 0.48026905138893 -0.9536507921669264
4884000000.0 0.4804140552053066 -0.9110415837750293
4888000000.0 0.5058421626233611 -0.8933713554323689
4891000000.0 0.4661683994119 -0.9261312546838313
4894000000.0 0.435175757458187 -0.9278942108002868
4897000000.0 0.4410722816829157 -0.9109236408689623
4900000000.0 0.4298766138319457 -0.9375492479345815
4903000000.0 0.42934258278592347 -0.9368104680920272
4906000000.0 0.4257784902234746 -0.9344153186842186
4909000000.0 0.40842028592338386 -0.9452597636728659
4912000000.0 0.41328482464460575 -0.9688335833110147
4916000000.0 0.42204030775354323 -0.9659518407015935
4919000000.0 0.41486015904542173 -0.944898728074692
4922000000.0 0.4039381613223223 -0.9479358473193124
4925000000.0 0.3443957146767789 -0.9660199537356847
4928000000.0 0.40099124113553986 -0.9288347927290604
4931000000.0 0.4025196483551538 -0.966514912631049
4934000000.0 0.33390264976994083 -0.9439175153846401
4938000000.0 0.27770522776432754 -0.9827892380403379
4941000000.0 0.2875293836445321 -0.9513579638148713
4944000000.0 0.307346971869979 -0.9348746357304205
4947000000.0 0.30250365584123196 -0.933896002363314
4950000000.0 0.29241472012861286 -0.9423008521680969
4953000000.0 0.26851368085713423 -1.0324681372660431
4956000000.0 0.2629035613301581 -0.9974641589872226
4959000000.0 0.22704645242270094 -0.9698412564850346
4962000000.0 0.28021189276141445 -1.014870919384937
4966000000.0 0.27824739026573064 -1.0204277644508113
4969000000.0 0.28619342096439243 -1.0101954418610952
4972000000.0 0.20175944331795584 -1.0436445391288012
4975000000.0 0.2457788642275884 -0.9769593775383606
4978000000.0 0.2056855068150464 -1.0023603762038575
4981000000.0 0.22366561208269453 -1.009906611354872
4984000000.0 0.23105578851172814 -0.9921908992769883
4988000000.0 0.19324140749166877 -0.973796750131372
4991000000.0 0.2446966186900058 -1.019308689956932
4994000000.0 0.19380828839774233 -1.0247115692088407
4997000000.0 0.1620525507653472 -1.0641688564381977
5000000000.0 0.1923814502107938 -1.0522192822771366
5003000000.0 0.18155431256011517 -1.0545958524979133
5006000000.0 0.16634364921203593 -1.077385031371867
5009000000.0 0.14930624551809132 -1.0282068247710008
5012000000.0 0.11694592545837033 -1.0251889714335056
5016000000.0 0.1470366441463389 -1.0569224814776128
5019000000.0 0.11068244511260027 -1.0138829580827171
5022000000.0 0.1293159122443292 -1.0343826808172796
5025000000.0 0.11344682637803558 -1.1198814687582292
5028000000.0 0.02444163127472221 -1.0629192935142315
5031000000.0 0.0774844127863677 -1.0469635516327465
5034000000.0 0.04183049056994434 -1.075641220855652
5038000000.0 0.04371005320763027 -1.0271515043315327
5041000000.0 0.1014442141151057 -1.0460688335566575
5044000000.0 0.09226074441294595 -0.9872085927234225
5047000000.0 0.04723574837577377 -1.057602807045816
5050000000.0 0.12053414476850521 -1.0012480817409823
5053000000.0 0.021387898337838163 -1.0953830113418686
5056000000.0 0.08348051738708721 -1.0330763398083513
5059000000.0 0.11055833815974254 -1.0243216502026056
5062000000.0 -0.013959570387651138 -1.0515836891634591
5066000000.0 0.023737047405200357 -1.0164241902143325
5069000000.0 -0.046801523515317855 -1.0498535665261977
5072000000.0 -0.012009106891451904 -0.9763007586943457
5075000000.0 -0.009537334604842657 -1.0167352282334194
5078000000.0 -0.12475200002054249 -1.027653952943784
5081000000.0 -0.05873707490464426 -0.9957477436444292
5084000000.0 -0.04791022364909908 -1.0715620963616195
5088000000.0 -0.06123955283882421 -1.034745601077323
5091000000.0 -0.13120731139953215 -1.0060444986484995
5094000000.0 -0.06230166077235601 -1.038844917699254
5097000000.0 -0.030352642786406564 -1.0385538023974232
5100000000.0 -0.09404419826904312 -0.977572952035689
5103000000.0 -0.19241848043055768 -1.0736686867168515
5106000000.0 -0.11505186070752725 -1.0639587454767052
5109000000.0 -0.05138168058618123 -1.025095301228392
5112000000.0 -0.14289753202944336 -1.0437486009274521
5116000000.0 -0.1735762282268984 -1.0122567919375605
5119000000.0 -0.14270429149030373 -1.0407103751751963
5122000000.0 -0.13345478239521302 -1.0195111129466616
5125000000.0 -0.15762547510801572 -1.0419116813885698
5128000000.0 -0.18330455594392242 -1.0131096596961144
5131000000.0 -0.18448112570714703 -0.9925271207094376
5134000000.0 -0.18802552949994808 -1.0380488269410282
5138000000.0 -0.17987900770278986 -0.9875702423996572
5141000000.0 -0.1722887428467292 -1.0166151018659257
5144000000.0 -0.1850342853986785 -1.0475301444443197
5147000000.0 -0.19807226010065987 -1.0378266917113708
5150000000.0 -0.21740074972829637 -1.0151607790614958
5153000000.0 -0.24239247032210223 -1.0090588369633802
5156000000.0 -0.26262630897244843 -1.0795323062022848
5159000000.0 -0.24635504962852606 -1.063147992178725
5162000000.0 -0.26199479502265277 -0.9722429237773401
5166000000.0 -0.3472965992812338 -1.060832378617075
5169000000.0 -0.2549932096135701 -1.0151829826810614
5172000000.0 -0.29644613365358163 -0.9732750197337867
5175000000.0 -0.28580882609261105 -1.0698374868339107
5178000000.0 -0.2830753295849883 -0.9667440012175867
5181000000.0 -0.27524190876268484 -1.006863692226943
5184000000.0 -0.2933879761908012 -0.9801467219287786
5188000000.0 -0.27218319114478234 -1.0037591906744512
5191000000.0 -0.3516988315139915 -0.9948521611922277
5194000000.0 -0.33316249780736135 -0.9850615437510457
