! Created with skrf 1.8.0 (http://scikit-rf.org).
# Hz S RI R 50.0 
!freq ReS11 ImS11
4000000000.0 0.62072644331366 0.8328386097865201
4003000000.0 0.6973746010280423 0.8398728271120259
4006000000.0 0.6998832555470612 0.8088388463474889
4009000000.0 0.6471424252775095 0.7991928331086612
4012000000.0 0.602001265214268 0.8352066641733127
4016000000.0 0.7090452493265155 0.7952895757055352
4019000000.0 0.6694288613262604 0.7717062654777473
4022000000.0 0.6191512650741903 0.8223781299422891
4025000000.0 0.7519285434557347 0.7440894320007407
4028000000.0 0.7231293403752346 0.7508001759823475
4031000000.0 0.6700978113764398 0.7060887330402034
4034000000.0 0.6991123659883041 0.7718233357029219
4038000000.0 0.7533332486551106 0.7402834705007069
4041000000.0 0.6859240977938104 0.7223729089202328
4044000000.0 0.7496498959600707 0.7821848275725239
4047000000.0 0.7135945650549136 0.7809854609361899
4050000000.0 0.7284766445171246 0.7589058721288443
4053000000.0 0.7195870597167169 0.6922970931937202
4056000000.0 0.7514723242110074 0.6934471606771835
4059000000.0 0.7120612114172882 0.7119993210177451
4062000000.0 0.7729986248066831 0.7006429985713942
4066000000.0 0.7360106575320702 0.6291515871846964
4069000000.0 0.8249238356749102 0.6931427103789395
4072000000.0 0.737323116447316 0.7164358805774016
4075000000.0 0.8123035535766746 0.7452803423671701
4078000000.0 0.790267418885948 0.6671198685720039
4081000000.0 0.7412141139710404 0.7360697250494851
4084000000.0 0.7887361507984912 0.6625099022001224
4088000000.0 0.7632745741387501 0.6501279332576411
4091000000.0 0.8880352000172224 0.6493351770310716
4094000000.0 0.8121532164234212 0.62261207352855
4097000000.0 0.7907423291694914 0.6168409620068371
4100000000.0 0.8456458815200224 0.6193897708997442
4103000000.0 0.8285122567361891 0.6447982971340405
4106000000.0 0.8568465491409399 0.5978174576917411
4109000000.0 0.8356279015247867 0.5667172000313745
4112000000.0 0.817242181366937 0.5934224312863492
4116000000.0 0.8184908789169758 0.5762626671917728
4119000000.0 0.8570214421575554 0.5904704143624636
4122000000.0 0.8895747941136142 0.5680326145854895
4125000000.0 0.8888094235392827 0.5720431053261774
4128000000.0 0.8369078774668843 0.5780314181609065
4131000000.0 0.849770190261916 0.5224851003942005
4134000000.0 0.852733327053432 0.5844339946108322
4138000000.0 0.8633840171782317 0.48797173496046603
4141000000.0 0.8991954216929523 0.5402792089033722
4144000000.0 0.8665915592890744 0.554914448255815
4147000000.0 0.8736203870996722 0.4944493778415741
4150000000.0 0.9282426369513129 0.4958579663886162
4153000000.0 0.8994142063489299 0.4985727651299926
4156000000.0 0.8975159575850695 0.4881267020513218
4159000000.0 0.8466350922804551 0.48706238461362744
4162000000.0 0.8807520957740183 0.45921221177512184
4166000000.0 0.9399586355422795 0.4584804741115629
4169000000.0 0.9181540299255381 0.4672815217859545
4172000000.0 0.8997700486768699 0.4875224194798196
4175000000.0 0.9061422415181338 0.4593981053422575
4178000000.0 0.92458886950109 0.4572105155770114
4181000000.0 0.9253740874782639 0.4320913310334026
4184000000.0 0.9223446734639797 0.4325256561743814
4188000000.0 0.9171278516508299 0.40218383026186
4191000000.0 0.8991153419963674 0.43101005078671933
4194000000.0 0.916550237814828 0.39827193849286113
4197000000.0 0.9416523780288852 0.37325104534058967
4200000000.0 0.9504132807218331 0.397676080003157
4203000000.0 0.9449758421005466 0.3795176883987019
4206000000.0 0.9695089120708836 0.3796018887656692
4209000000.0 0.9372817897222498 0.35496274632880837
4212000000.0 0.9660798371621737 0.3220363136391765
4216000000.0 0.9568103778378378 0.37505224126632924
4219000000.0 0.9590461139209666 0.35641735962029986
4222000000.0 0.9696376932414938 0.3077167588624407
4225000000.0 0.9454998323011907 0.3131738017967939
4228000000.0 0.9678029650107087 0.31551354491957073
4231000000.0 0.9774507772841732 0.3052146814607124
4234000000.0 0.9807902681641381 0.2780661345124399
4238000000.0 0.9916947805619949 0.28171926237785605
4241000000.0 0.9881299695044328 0.2582681857150064
4244000000.0 0.9639571939123119 0.2585843762362184
4247000000.0 0.9941683346720983 0.270815895965365
4250000000.0 0.9830390832296958 0.25287260659612976
4253000000.0 0.947346589129151 0.21986678232813478
4256000000.0 1.0132936192878372 0.24100256953347443
4259000000.0 0.9604811714623082 0.22400947766571952
4262000000.0 0.9727492028924585 0.1946554694263252
4266000000.0 1.0045736568234802 0.18284529955712153
4269000000.0 0.9922019236371145 0.2182303246795466
4272000000.0 0.9861546269410817 0.20251581694904847
4275000000.0 1.0148730882193755 0.18422509038444168
4278000000.0 1.0332307344944984 0.17896017750972676
4281000000.0 1.0085183268954612 0.17167792885560768
4284000000.0 1.0236055834964224 0.12561462664248457
4288000000.0 0.9999485902413224 0.17937183606765172
4291000000.0 0.9978455631990314 0.1431007186133666
4294000000.0 0.9936196819767387 0.1283386031003645
4297000000.0 0.989989233061864 0.14431372667191783
4300000000.0 0.9758666056873784 0.1298627014696447
4303000000.0 0.9882362387636651 0.09136796723448203
4306000000.0 0.9865214433236015 0.12060156324543869
4309000000.0 1.0042402071968712 0.10881884099756615
4312000000.0 1.0194265374590812 0.1277184101456031
4316000000.0 1.0309936165460731 0.07239539499259488
4319000000.0 0.9890976614655564 0.10882798262183822
4322000000.0 0.9774381249931853 0.036197124935048244
4325000000.0 0.9984146229228718 0.057738266023366194
4328000000.0 0.9908397539241636 0.02982940296682275
4331000000.0 1.0242652973909707 0.030175753121227
4334000000.0 1.031064118648687 0.01487118543258778
4338000000.0 0.9882305408200155 0.04509447569298301
4341000000.0 1.0137012367427929 0.022377696729967006
4344000000.0 1.0098621898062448 0.012558182878946611
4347000000.0 1.0326491274355567 -0.006000534386960826
4350000000.0 0.9721966862821683 -0.008215369338213069
4353000000.0 0.9846693731309839 -0.016119503777805244
4356000000.0 0.9985080650815418 -0.060571113415643404
4359000000.0 0.9679565697859359 -0.044365911425034266
4362000000.0 1.0167023410962484 -0.09316387433363951
4366000000.0 1.0333328551513747 -0.07186431035488024
4369000000.0 0.9764245336775659 -0.0751154765513168
4372000000.0 0.9808939243005865 -0.1069459387983657
4375000000.0 0.9902627074049246 -0.05554492679415288
4378000000.0 0.9778440211021956 -0.08559643153759786
4381000000.0 0.9928340913520102 -0.09822985186978896
4384000000.0 1.0807273486474753 -0.13127487493327816
4388000000.0 0.9840953997065999 -0.10232166711664385
4391000000.0 1.0228111303479623 -0.12766065946910787
4394000000.0 0.9794486457285873 -0.14076082332897577
4397000000.0 0.9927060679540407 -0.1493151824543617
4400000000.0 1.008692622247314 -0.18031801156319366
4403000000.0 1.0111261169582002 -0.1589980212263194
4406000000.0 0.988625767215949 -0.19388303798405113
4409000000.0 1.0290973082817312 -0.1815770612707585
4412000000.0 0.9745392083095517 -0.25086814705531085
4416000000.0 0.9727653066475697 -0.2081272856490181
4419000000.0 0.9935822588475844 -0.22793764691146007
4422000000.0 0.9820292986912922 -0.19534217568873094
4425000000.0 0.9917846926758989 -0.20902893549968177
4428000000.0 0.9782185883284038 -0.23906217080576347
4431000000.0 1.0010297436247457 -0.23883649211300134
4434000000.0 0.9641357447564947 -0.252646743835338
4438000000.0 0.9924914168751775 -0.2660015526328725
4441000000.0 1.0020948997210397 -0.2682661566082265
4444000000.0 0.9562821684176648 -0.2782130472159669
4447000000.0 0.9557411867374939 -0.2916449307518165
4450000000.0 0.9595598372101933 -0.2710201844671156
4453000000.0 0.9958358330232802 -0.2935509331362842
4456000000.0 0.9290627336599557 -0.31729373933401894
4459000000.0 0.9081525725083239 -0.33647207433563564
4462000000.0 1.018515325734088 -0.34309501679333126
4466000000.0 0.9854266775099071 -0.35622188249626474
4469000000.0 0.9442186879939045 -0.31482244353116495
4472000000.0 0.9529421183408533 -0.3822204959562132
4475000000.0 0.9215687962114191 -0.34744304188043645
4478000000.0 0.9650585587683843 -0.3852061940722715
4481000000.0 0.9121772142308988 -0.3724229632250407
4484000000.0 0.9328922225637442 -0.41392019605906993
4488000000.0 0.9172923288321905 -0.40969253277923506
4491000000.0 0.9275290169976202 -0.3903531603705342
4494000000.0 0.9041905716198854 -0.4024131407680875
4497000000.0 0.907129114152895 -0.40181468645906376
4500000000.0 0.9038946166728714 -0.42818162536233934
4503000000.0 0.9401664800604728 -0.44167455472138506
4506000000.0 0.902547297162638 -0.44857543554256024
4509000000.0 0.8939555108203203 -0.42911633121924664
4512000000.0 0.8719754484355674 -0.4605560511061042
4516000000.0 0.9098790807040278 -0.46022535641023155
4519000000.0 0.8726522912642952 -0.45662904568003326
4522000000.0 0.871579854270488 -0.49104360093536686
4525000000.0 0.9033912312154462 -0.448724209566789
4528000000.0 0.8936297876019914 -0.4929892414519149
4531000000.0 0.8800308455387468 -0.49202057629647633
4534000000.0 0.8393698593767345 -0.49699285807371074
4538000000.0 0.8759624839824305 -0.5197275447470536
4541000000.0 0.8191436208068373 -0.5400179111889527
4544000000.0 0.8582526521090525 -0.5261499360813813
4547000000.0 0.848106285831979 -0.5289625242528782
4550000000.0 0.8504323843130916 -0.5576725651269493
4553000000.0 0.8394768228819376 -0.5806932441856087
4556000000.0 0.8198477925917906 -0.5611313671936916
4559000000.0 0.8191470164551246 -0.5967115446005002
4562000000.0 0.8424325217042585 -0.5960992059350415
4566000000.0 0.8368288919645033 -0.6058104470239338
4569000000.0 0.7824176200646429 -0.5808816068125953
4572000000.0 0.800579165092911 -0.5944528201864968
4575000000.0 0.8036088309142662 -0.6273792063647978
4578000000.0 0.8304747601454239 -0.6152629828223372
4581000000.0 0.7881830840805508 -0.6304364756194593
4584000000.0 0.7707009384184833 -0.6162446122010588
4588000000.0 0.8030203333206034 -0.6415927377588663
4591000000.0 0.7831497333488611 -0.6359284551097916
4594000000.0 0.7449331755531261 -0.6486713649171807
4597000000.0 0.7848626434231387 -0.6794165653137808
4600000000.0 0.7288485764631921 -0.6718117068051153
4603000000.0 0.7507512090522451 -0.6743755665730554
4606000000.0 0.7620088734308259 -0.6798944950345662
4609000000.0 0.7531284235352735 -0.6945455946455127
4612000000.0 0.734464378262964 -0.692828486930751
4616000000.0 0.7118961647819326 -0.6982322361248743
4619000000.0 0.7269307720185845 -0.6834889135257095
4622000000.0 0.7051889578531506 -0.7091406376037835
4625000000.0 0.6697925846771027 -0.7092528270609768
4628000000.0 0.7206021059174068 -0.694987098278007
4631000000.0 0.6722072174222158 -0.722565438759939
4634000000.0 0.6680701204576214 -0.7330527231827134
4638000000.0 0.6908294404022465 -0.7401252433991322
4641000000.0 0.676063914081769 -0.7536953169647744
4644000000.0 0.6599791145439258 -0.7672985783940207
4647000000.0 0.6771013299534351 -0.7526128171785681
4650000000.0 0.6307292423014739 -0.7652596848236523
4653000000.0 0.6719217411558078 -0.7691698379649183
4656000000.0 0.6322542934399353 -0.7818928248717103
4659000000.0 0.6279912875735162 -0.7868856292114583
4662000000.0 0.6367958122526632 -0.7887760948430818
4666000000.0 0.615280710721387 -0.8022860213781889
4669000000.0 0.6378220198232085 -0.7787214294148233
4672000000.0 0.5955712830952009 -0.8236965027624763
4675000000.0 0.5799516470324105 -0.8249870154395387
4678000000.0 0.5813033295415689 -0.8123301065165317
4681000000.0 0.5651763651881041 -0.8494410329400686
4684000000.0 0.5289181840735897 -0.8567219550762681
4688000000.0 0.5439446955414554 -0.8352490148574604
4691000000.0 0.5766159237390805 -0.8285443839911892
4694000000.0 0.5764087740407474 -0.8251900407092732
4697000000.0 0.5194549764318597 -0.8251792145242287
4700000000.0 0.5603247624115688 -0.8396887271348703
4703000000.0 0.5327016965363525 -0.8140258150485473
4706000000.0 0.5189363415980071 -0.8560124735237379
4709000000.0 0.505744230000581 -0.8586682684192172
4712000000.0 0.5250603726627042 -0.8823437748535252
4716000000.0 0.4977085278071165 -0.8877712792112082
4719000000.0 0.5190672409184541 -0.8701477071370337
4722000000.0 0.5035949586492467 -0.8846574030863812
4725000000.0 0.49865467914787764 -0.884268645913687
4728000000.0 0.472686175874253 -0.8550666787106582
4731000000.0 0.49275482302748475 -0.9063242137943748
4734000000.0 0.47042179490633707 -0.886395345201792
4738000000.0 0.4650923777562762 -0.9331271635101793
4741000000.0 0.4581897110245592 -0.9482107167646865
4744000000.0 0.4321092844347163 -0.9493509992939669
4747000000.0 0.44157562267052447 -0.9012592909094133
4750000000.0 0.4356283994575095 -0.9274578693185931
4753000000.0 0.41971697211066916 -0.939258359652907
4756000000.0 0.4324260846739525 -0.9398783844414831
4759000000.0 0.39753250451449473 -0.970522503236989
4762000000.0 0.3899668860983963 -0.9797582644179955
4766000000.0 0.3782692790603053 -0.9584687785776035
4769000000.0 0.3804443069135603 -0.9569334104118957
4772000000.0 0.36270913067770316 -0.9483985350509266
4775000000.0 0.3740144374085937 -1.0056038732801147
4778000000.0 0.3413297985585334 -0.9831329734904678
4781000000.0 0.37890899125131206 -0.9319429559650001
4784000000.0 0.3591426424968749 -0.926300066900101
4788000000.0 0.30502937593623436 -0.9799405899539981
4791000000.0 0.3161303123450375 -0.9857703335779328
4794000000.0 0.3725435795095967 -0.9749232086338353
4797000000.0 0.30897565870723837 -0.9944675243447657
4800000000.0 0.2908630596155731 -0.9552890176444131
4803000000.0 0.2598414470653781 -0.9887812245655732
4806000000.0 0.27568460573493303 -0.9625974643037791
4809000000.0 0.20810164754124433 -0.9749425075254862
4812000000.0 0.23881214024991587 -0.9838664595102329
4816000000.0 0.2628331747757675 -0.975777876414216
4819000000.0 0.25191324212488797 -0.9847606932647115
4822000000.0 0.2501154204581809 -1.0143825598971978
4825000000.0 0.2851873321666414 -1.0015101041328995
4828000000.0 0.20302169205472453 -0.9847146375533286
4831000000.0 0.18718463702762778 -1.019206567483071
4834000000.0 0.22729631784008902 -1.0161635870606716
4838000000.0 0.1734865006898627 -1.02804545931407
4841000000.0 0.1668340857936746 -0.9788491719753168
4844000000.0 0.21572670358306972 -1.000936622264165
4847000000.0 0.19918822817940562 -0.9600566507744535
4850000000.0 0.14863684689371504 -1.0434467744429028
4853000000.0 0.17290501035544512 -0.9738204957499965
4856000000.0 0.13681204082287673 -1.0114632834017045
4859000000.0 0.14249127850526022 -1.0570509970449944
4862000000.0 0.15442485636406933 -1.000676414559947
4866000000.0 0.06909629897555934 -1.0429466890870653
4869000000.0 0.09331246684750616 -1.0293019847051963
4872000000.0 0.09476402088661628 -1.0601536857747071
4875000000.0 0.12740450950528193 -1.0584002958307028
4878000000.0 0.08004476816918749 -1.0420322102459958
4881000000.0 0.06285691042409636 -1.0723738317348486
4884000000.0 0.09194830857455553 -1.035592012883536
4888000000.0 0.10499044203114519 -1.0118187956853855
4891000000.0 0.08283581531167629 -1.0662245173815317
4894000000.0 0.03648898521370656 -1.019149182166717
4897000000.0 0.07310834464184628 -0.9966976535832923
4900000000.0 0.027642198886846575 -1.0450441779834083
4903000000.0 0.018384374106914757 -1.03718784520745
4906000000.0 0.027467617813248288 -1.0713261900393987
4909000000.0 0.020273233420533148 -1.0298598535544734
4912000000.0 0.00117413493324868 -1.0856352981583928
4916000000.0 0.006376378499566855 -1.072824629938381
4919000000.0 -0.003678650868546726 -1.0734484827369566
4922000000.0 -0.0012797000509472412 -1.0140996906428388
4925000000.0 -0.06183345300970583 -1.0258222117369558
4928000000.0 0.003105552597892247 -1.0073993645644734
4931000000.0 -0.010333383136637009 -1.0554326945231827
4934000000.0 -0.07421536803863525 -0.9469588519814462
4938000000.0 -0.10497329584783098 -1.0177903408020066
4941000000.0 -0.04422997769204877 -1.0172160624029387
4944000000.0 -0.07149976336022063 -0.9771015826587313
4947000000.0 -0.10084476313494514 -0.9941676793469967
4950000000.0 -0.08381533832762604 -1.0401470465185954
4953000000.0 -0.15173784524882894 -1.0625122530707287
4956000000.0 -0.15273467223544807 -1.0215352975134389
4959000000.0 -0.16461369667898837 -1.0081353265622242
4962000000.0 -0.14822332939209779 -1.0587514033365322
4966000000.0 -0.1288588269862645 -1.0391615719977543
4969000000.0 -0.11384061729387673 -1.0574753144379998
4972000000.0 -0.14211576864707934 -1.0252366036665395
4975000000.0 -0.13170401577227434 -1.0276961314464295
4978000000.0 -0.1808524060319603 -1.0002596209776426
4981000000.0 -0.2057617028579424 -0.999631869871997
4984000000.0 -0.19146162945568476 -0.9870557974985416
4988000000.0 -0.15794325410689458 -1.0058014868762717
4991000000.0 -0.14940368507232482 -1.0419364867156646
4994000000.0 -0.21323514549665396 -1.0144069519514674
4997000000.0 -0.23872123992457323 -0.9857803384572426
5000000000.0 -0.2248671980162188 -1.0229028496247645
5003000000.0 -0.24405726613995787 -1.0408938595999264
5006000000.0 -0.2821112333994982 -1.0625399929743984
5009000000.0 -0.22546461207352023 -1.0178266745629205
5012000000.0 -0.2779125108377675 -1.0001154232733362
5016000000.0 -0.24714986517296822 -1.005724169675494
5019000000.0 -0.29024649523509183 -1.0081708639764355
5022000000.0 -0.2905751721727491 -1.0210946992579821
5025000000.0 -0.3488699563562963 -1.0591658854938268
5028000000.0 -0.30871319122846297 -0.9599152564397697
5031000000.0 -0.321144428420563 -0.9783843476242698
5034000000.0 -0.34909545321926594 -1.0076350777535823
5038000000.0 -0.33768317172589035 -0.9434226792155815
5041000000.0 -0.31111035424159617 -0.9869235993519313
5044000000.0 -0.2861933893328866 -0.971254716838699
5047000000.0 -0.3103419484684569 -0.9516196472209576
5050000000.0 -0.2626756143786789 -0.9816199321862293
5053000000.0 -0.391325275276326 -1.0291383690621936
5056000000.0 -0.3395979546121417 -0.9807459124873841
5059000000.0 -0.3301403610777293 -0.9755287622080616
5062000000.0 -0.40272152480875534 -0.9689925814870262
5066000000.0 -0.3463100352722974 -0.9561467351668609
5069000000.0 -0.417646357521929 -0.9539625894840985
5072000000.0 -0.37167588976331073 -0.9470346890083237
5075000000.0 -0.3894395469739005 -0.9748472092536422
5078000000.0 -0.469918330979648 -0.9026043590367001
5081000000.0 -0.4272777766979536 -0.8813066432824882
5084000000.0 -0.4468398957104237 -0.9669717343128297
5088000000.0 -0.43480021209200725 -0.9424205059374722
5091000000.0 -0.47295678795507795 -0.9440327600397405
5094000000.0 -0.489689109437591 -0.9089342626775899
5097000000.0 -0.43345096692532836 -0.9319911891416375
5100000000.0 -0.4618781003720909 -0.9196631339862283
5103000000.0 -0.5308640096461531 -0.918509088894038
5106000000.0 -0.43550123062269325 -0.9778380972621903
5109000000.0 -0.48745964973271194 -0.9354881893202214
5112000000.0 -0.49900376413094766 -0.8617437876106118
5116000000.0 -0.45509455747059513 -0.8598204940812026
5119000000.0 -0.5290241498876312 -0.9147159518191446
5122000000.0 -0.48896939696040054 -0.8889612590205918
5125000000.0 -0.5320001934881968 -0.8734505997544882
5128000000.0 -0.527662211516213 -0.8647949801243062
5131000000.0 -0.5138317242973922 -0.8696075831540443
5134000000.0 -0.5758526082166371 -0.8703833293206582
5138000000.0 -0.536297721059449 -0.8980774532722952
5141000000.0 -0.5204207689058782 -0.9151903593679125
5144000000.0 -0.5383616527219439 -0.87069676274124
5147000000.0 -0.5727732020578882 -0.8431482714268134
5150000000.0 -0.6142820772145031 -0.9062220130221392
5153000000.0 -0.6039690308364785 -0.8626574118568003
5156000000.0 -0.5802513912495092 -0.8373898566183977
5159000000.0 -0.5872684208862148 -0.90781265490945
5162000000.0 -0.563802552057196 -0.811075489159059
5166000000.0 -0.6705348727150342 -0.8400025202763052
5169000000.0 -0.6296738491981625 -0.8387397573609133
5172000000.0 -0.5751609216749454 -0.827385508763737
5175000000.0 -0.6527339318672151 -0.8906048697336153
5178000000.0 -0.6380395564484544 -0.8238693683193656
5181000000.0 -0.6386820272442787 -0.8321610646842
5184000000.0 -0.6550262761137327 -0.8345087392549251
5188000000.0 -0.6615277759665125 -0.7774505408279436
