! Created with skrf 1.8.0 (http://scikit-rf.org).
# Hz S RI R 50.0 
!freq ReS11 ImS11
4000000000.0 0.6251137008711377 0.7990847090758981
4003000000.0 0.6878369791587169 0.8273661194945218
4006000000.0 0.6830406660888686 0.7955936417991684
4009000000.0 0.6480855980116784 0.7896787650278035
4012000000.0 0.6530821994878165 0.8105445444573562
4016000000.0 0.7317930178647393 0.7741083887199487
4019000000.0 0.669924105834 0.7665801184578298
4022000000.0 0.6229413418309665 0.7982345317900665
4025000000.0 0.7134671645556477 0.7502308583047523
4028000000.0 0.7247707709785878 0.7456480830148224
4031000000.0 0.6656431991420889 0.7325229272185676
4034000000.0 0.7112699392445957 0.7447172077336244
4038000000.0 0.7335902503900114 0.7538835983758725
4041000000.0 0.7286209599686959 0.717715818124834
4044000000.0 0.7540419706807674 0.7512173378060777
4047000000.0 0.7347060645845053 0.7726035343561665
4050000000.0 0.7236000022359587 0.739818403347945
4053000000.0 0.7270509185389129 0.6892894895143995
4056000000.0 0.7197910159219189 0.6758279253899107
4059000000.0 0.729826600436638 0.6929199795301939
4062000000.0 0.7722678159154047 0.7178795075757689
4066000000.0 0.6930375117435403 0.6614712263338965
4069000000.0 0.8189905309207741 0.6881739827801018
4072000000.0 0.7147961818679699 0.7227502573597513
4075000000.0 0.769675043298737 0.7321030317137751
4078000000.0 0.7896470319005369 0.6879598698830818
4081000000.0 0.8005004361821414 0.7289115206599884
4084000000.0 0.814934386184712 0.6536295898615869
4088000000.0 0.7522926258465191 0.6763061058902949
4091000000.0 0.856314030151232 0.6805625833721711
4094000000.0 0.8234361173457397 0.6309640340813008
4097000000.0 0.806296550282806 0.6350571108254217
4100000000.0 0.8358518458526591 0.6113683213568673
4103000000.0 0.8214593944143931 0.6626399773030176
4106000000.0 0.8233061760629351 0.6032698551721204
4109000000.0 0.8580765417934022 0.5882562367499653
4112000000.0 0.8754816063534665 0.5737595909199056
4116000000.0 0.846553177380988 0.5498476185694885
4119000000.0 0.8762023450684123 0.58618581705891
4122000000.0 0.8687758712896325 0.545339787722429
4125000000.0 0.871009181976221 0.5701905620101875
4128000000.0 0.8135151349482742 0.5373191293727767
4131000000.0 0.856887388900064 0.5548896202220488
4134000000.0 0.8497385621258035 0.5894794632259893
4138000000.0 0.8774900429259154 0.5040279584328333
4141000000.0 0.8511584691404964 0.4791823067688581
4144000000.0 0.9044837308436067 0.5265693722980069
4147000000.0 0.9147939739440503 0.47351873248788906
4150000000.0 0.9073132945356193 0.5166563692450332
4153000000.0 0.909242526629119 0.49458670082178924
4156000000.0 0.9051518117431001 0.480488974256049
4159000000.0 0.8798199297357445 0.48355749679978904
4162000000.0 0.9342070849173347 0.45130347182259634
4166000000.0 0.913909544563434 0.4694362975861539
4169000000.0 0.919807342688061 0.4056812084457818
4172000000.0 0.9262883687711662 0.43660063887809925
4175000000.0 0.9174293928232191 0.453563186944777
4178000000.0 0.9479949348243297 0.4533441010270459
4181000000.0 0.9389759800063249 0.416765693256948
4184000000.0 0.8955546452969416 0.42545478418875277
4188000000.0 0.95731426833577 0.4335056077167473
4191000000.0 0.9162115222811925 0.4472454210606846
4194000000.0 0.9131143822937217 0.39963710099269134
4197000000.0 0.9464234687428547 0.42094026688533787
4200000000.0 0.9232601713614335 0.39187969473559625
4203000000.0 0.9534578667909992 0.4022663666875401
4206000000.0 0.9422102886266049 0.3713804526235806
4209000000.0 0.9629758477978927 0.39027989338107677
4212000000.0 0.9522937859285934 0.3430683087548254
4216000000.0 0.9498290981380952 0.36878656731733456
4219000000.0 0.9874519920892956 0.3534172757276134
4222000000.0 0.9669186926608451 0.32208278059332357
4225000000.0 0.9487952232796284 0.3263796493339628
4228000000.0 0.974755616189767 0.313729462677935
4231000000.0 0.9786595847929037 0.30631515370585993
4234000000.0 0.9827682023759898 0.3142051111530498
4238000000.0 0.9724444393358496 0.2802972615553718
4241000000.0 0.9654838356355733 0.26442007079957464
4244000000.0 0.9866145472933611 0.2806362322328914
4247000000.0 0.9868293347040769 0.28185645551735833
4250000000.0 0.9797706619576667 0.24667511330223046
4253000000.0 0.9689842801244304 0.23175113363773225
4256000000.0 0.996246682500785 0.24079967565664046
4259000000.0 0.9527871375048013 0.2103331002760541
4262000000.0 0.9800622027616241 0.21626548555811928
4266000000.0 0.9991526827198883 0.196183750916802
4269000000.0 1.011104467299097 0.22902513323097104
4272000000.0 0.99884199639715 0.19429906106009848
4275000000.0 1.0060202292501907 0.1851034490175667
4278000000.0 1.0200808212586108 0.17571787005955442
4281000000.0 0.9923697146133719 0.16985202636559643
4284000000.0 1.0142560573254262 0.13760635532075677
4288000000.0 0.9797441933497998 0.18537190613078253
4291000000.0 0.9648534995899559 0.13533640821768
4294000000.0 0.9852365805156788 0.12511363360445282
4297000000.0 1.001097319440059 0.15670106981555482
4300000000.0 0.9944823231304316 0.1092588096572214
4303000000.0 0.9877108485793408 0.10246737540025895
4306000000.0 0.9981833321806328 0.12539122266091127
4309000000.0 1.0001098530047763 0.1074658608503856
4312000000.0 1.0375405797677342 0.11272829239996285
4316000000.0 1.0193964996732554 0.09336278117268328
4319000000.0 0.9868096759656793 0.08953586845728571
4322000000.0 1.0077229520407203 0.04261499698349734
4325000000.0 1.0013553268162987 0.05073748522198991
4328000000.0 0.9957999857702899 0.050855440736538596
4331000000.0 1.0016655939307217 0.025870802002781357
4334000000.0 1.0214364087716885 0.01984869901722361
4338000000.0 1.0311834565934288 0.04086178596221525
4341000000.0 1.0194578090709505 0.05823996268238027
4344000000.0 1.022514626214481 0.009510873789694563
4347000000.0 1.0190042665717545 -0.035391487313096576
4350000000.0 0.9697673500549356 -0.02596588574996997
4353000000.0 0.9933711731468655 0.00790898639915849
4356000000.0 1.0096209554378357 -0.060807409173816135
4359000000.0 0.9812154321001411 -0.04469513653802237
4362000000.0 1.0332038717321177 -0.10192531991152796
4366000000.0 1.012168188689854 -0.0498076807092378
4369000000.0 0.9677496943316632 -0.06596838266544192
4372000000.0 1.0074828887813994 -0.11399299313967001
4375000000.0 1.0184725184802674 -0.07463896045346048
4378000000.0 0.9771167153179547 -0.06823992233206816
4381000000.0 0.9952901796134637 -0.08473215142677899
4384000000.0 1.0629411529861164 -0.10989846096134825
4388000000.0 0.9887531014337759 -0.12002970077314166
4391000000.0 1.013394217058422 -0.10877144855038451
4394000000.0 0.9572358792646529 -0.13453847183837092
4397000000.0 0.9940162813151361 -0.14256832588800955
4400000000.0 1.0081148357760739 -0.1916398051933771
4403000000.0 1.0049110293011516 -0.1619799619158585
4406000000.0 0.9937704422285061 -0.1853177838656183
4409000000.0 1.0055882973579422 -0.17850889732426262
4412000000.0 0.9681743153401089 -0.2174757075141258
4416000000.0 0.9700861446425415 -0.21692528654025586
4419000000.0 0.9761871937297952 -0.2310054218599834
4422000000.0 0.9837448504697011 -0.20409340085080807
4425000000.0 0.9958614109639178 -0.20698375845185196
4428000000.0 0.9627861070406681 -0.2366125775387501
4431000000.0 1.0021373328766034 -0.24141900257868124
4434000000.0 0.9712370891568316 -0.25297834949472525
4438000000.0 1.002001630991616 -0.2545099787809181
4441000000.0 0.9874784511529022 -0.2644703713145485
4444000000.0 0.9537076782894873 -0.26686049932759315
4447000000.0 0.9326195435903695 -0.29334799926032157
4450000000.0 0.9581513422511176 -0.2726996872531815
4453000000.0 0.9761190372066831 -0.3067172589103932
4456000000.0 0.9363871714199468 -0.3155917175577917
4459000000.0 0.907947075744312 -0.32036300740098
4462000000.0 1.0126097829806107 -0.3417846719399551
4466000000.0 0.9832805416583722 -0.3571583953773404
4469000000.0 0.9460061362366037 -0.3089436119889021
4472000000.0 0.9540073759162887 -0.3833418195078462
4475000000.0 0.9256449355620305 -0.337094210251923
4478000000.0 0.9692118375079188 -0.38933095603102263
4481000000.0 0.9190220090816508 -0.3737195707314088
4484000000.0 0.9056573665516143 -0.41786871807562964
4488000000.0 0.9137036824513927 -0.40483447598280753
4491000000.0 0.9243683196693123 -0.40189945722332576
4494000000.0 0.9130140496877427 -0.3881296145261491
4497000000.0 0.920980695862287 -0.3921726956708731
4500000000.0 0.9254867976205958 -0.4204375414704873
4503000000.0 0.930771233810445 -0.4362253587554492
4506000000.0 0.9076158140545576 -0.4346666140686247
4509000000.0 0.8837005461049721 -0.43142679164120046
4512000000.0 0.8877799823922657 -0.4396712149178795
4516000000.0 0.906666283609527 -0.4613405749360412
4519000000.0 0.8666613868556446 -0.44603763515525646
4522000000.0 0.867383962876281 -0.46853133673708564
4525000000.0 0.8922418075056286 -0.46473523234272296
4528000000.0 0.8970711891677055 -0.5141783932910098
4531000000.0 0.8827853134021808 -0.4763809230491045
4534000000.0 0.8611842080952539 -0.5077404431360588
4538000000.0 0.8582906800779571 -0.5127849500138001
4541000000.0 0.8336022541455861 -0.5309111254491147
4544000000.0 0.8506564804408927 -0.5069231564164749
4547000000.0 0.8330648065984377 -0.5309994964443998
4550000000.0 0.8372616127639729 -0.5522869301136233
4553000000.0 0.8625535035745164 -0.5598344328767686
4556000000.0 0.815656077962251 -0.5809588731584931
4559000000.0 0.8152912851733214 -0.5892125471435725
4562000000.0 0.835646302445203 -0.5901057932837637
4566000000.0 0.8163518340830695 -0.5886982339050859
4569000000.0 0.7916629213117355 -0.5802633393157999
4572000000.0 0.8068566317548628 -0.5912387167961546
4575000000.0 0.802376550799847 -0.6132418043035057
4578000000.0 0.8260753631339925 -0.603962611609754
4581000000.0 0.785002495583399 -0.6238628122392962
4584000000.0 0.7867761874369384 -0.6262252784856798
4588000000.0 0.8028362982070926 -0.6394382274853843
4591000000.0 0.7774681884772877 -0.6356747119751172
4594000000.0 0.7417655373813034 -0.6647944488130522
4597000000.0 0.7794021718358626 -0.6790783804488834
4600000000.0 0.7229621353280709 -0.6774607465881815
4603000000.0 0.7682177720796228 -0.6823631327222702
4606000000.0 0.7458323662725909 -0.6673626218927895
4609000000.0 0.7332524965077404 -0.6805976107463092
4612000000.0 0.7447276536664912 -0.6923910502780283
4616000000.0 0.7221004200381524 -0.6971991767349943
4619000000.0 0.7271707864728506 -0.6999064602618198
4622000000.0 0.7155540676868395 -0.7076101220994382
4625000000.0 0.6765083262862908 -0.7088702692393658
4628000000.0 0.706983386333413 -0.7058760865904259
4631000000.0 0.6813302112571391 -0.72374629733439
4634000000.0 0.7020712606716311 -0.7343702564797878
4638000000.0 0.6882149108526181 -0.7457706528068742
4641000000.0 0.6772484776814252 -0.7329472439508843
4644000000.0 0.669039055717909 -0.7534762173085452
4647000000.0 0.660657257198094 -0.7555946730113348
4650000000.0 0.635239704647864 -0.7690582349494616
4653000000.0 0.6833984894084415 -0.7742550336551551
4656000000.0 0.6345071807834701 -0.7687755014840985
4659000000.0 0.6368265723097983 -0.7601181469040962
4662000000.0 0.6192077558396247 -0.8022631940113085
4666000000.0 0.6299534950257247 -0.798153982556537
4669000000.0 0.611380346766939 -0.8080898444682589
4672000000.0 0.584346552445697 -0.8213559989658626
4675000000.0 0.5812314129235362 -0.8144568967899063
4678000000.0 0.5899022940610787 -0.8023054325525474
4681000000.0 0.5680344593211608 -0.8356651283002641
4684000000.0 0.5602896153264416 -0.8381790212118833
4688000000.0 0.548248576388388 -0.8346999757939805
4691000000.0 0.5849474827355459 -0.813408033135715
4694000000.0 0.5654262848330286 -0.8164653866482612
4697000000.0 0.5068531554454376 -0.8320247685250364
4700000000.0 0.5410363993767519 -0.8509962617860847
4703000000.0 0.5562950019336217 -0.8271141756321421
4706000000.0 0.5207956834976832 -0.8473941270704305
4709000000.0 0.5042035623520413 -0.8565613152614892
4712000000.0 0.5312450201429526 -0.8832833255415883
4716000000.0 0.5007069312932612 -0.8718102991327041
4719000000.0 0.5236479877402485 -0.8643100850040608
4722000000.0 0.5161595360998424 -0.8799969715629947
4725000000.0 0.4990072890587306 -0.886682005616191
4728000000.0 0.47506091465996214 -0.9119616115647278
4731000000.0 0.5184059949447715 -0.9151522484069592
4734000000.0 0.46419643019829215 -0.8754134357660001
4738000000.0 0.48048239004574417 -0.9100905345735525
4741000000.0 0.43879519113019216 -0.9113121514528655
4744000000.0 0.417249731701356 -0.9071905247877152
4747000000.0 0.43542776016481444 -0.901445936233103
4750000000.0 0.42969235168530445 -0.9103274691537662
4753000000.0 0.4151603001382036 -0.9198883064356344
4756000000.0 0.4067054548169755 -0.9236180860830157
4759000000.0 0.3952371303141772 -0.9175304323062933
4762000000.0 0.3697191017214493 -0.9550857725743196
4766000000.0 0.3907370647007518 -0.9473758001988752
4769000000.0 0.3737991878919201 -0.9499348881114854
4772000000.0 0.3794356837931889 -0.9539198996061468
4775000000.0 0.36121095325772956 -0.9865453896924885
4778000000.0 0.4035480240770128 -0.9362228687826505
4781000000.0 0.3547229125017836 -0.9180555486889206
4784000000.0 0.3779752567158037 -0.9295985150303386
4788000000.0 0.3298758544793078 -0.9745802461185904
4791000000.0 0.3343358319955263 -0.9537445453457795
4794000000.0 0.3348232311437166 -0.9765071203453444
4797000000.0 0.28136283891200486 -0.9419924138400516
4800000000.0 0.2810048333540698 -0.9494881755199853
4803000000.0 0.24709457269409296 -0.961442904479409
4806000000.0 0.28705480756199764 -1.013108774301448
4809000000.0 0.23386869202296118 -0.9821933607244971
4812000000.0 0.2293810871406715 -0.989031593420117
4816000000.0 0.2604627385583081 -0.9513161748950505
4819000000.0 0.2723099311480882 -0.9900299106393202
4822000000.0 0.26041791200531667 -1.0241633927729947
4825000000.0 0.2317598449726832 -1.0034333337509556
4828000000.0 0.21620362511606858 -0.9789239034227019
4831000000.0 0.17016555204512512 -1.0084031524683794
4834000000.0 0.2440831123185504 -1.003927512746734
4838000000.0 0.16866178599239798 -1.0339653939055669
4841000000.0 0.18334366429907722 -0.9842469976277005
4844000000.0 0.22798257322318322 -1.0186217473247956
4847000000.0 0.196289756749326 -0.980597148662143
4850000000.0 0.1517815942932374 -1.032447736056632
4853000000.0 0.15473647251405542 -0.9724956556197266
4856000000.0 0.15421681256860933 -0.979638822536509
4859000000.0 0.11998645772341857 -1.027769041370035
4862000000.0 0.13510642169195314 -0.9834892062827522
4866000000.0 0.10528320452517503 -1.0277258982659607
4869000000.0 0.1048550906403837 -1.007690224431335
4872000000.0 0.09883944977714552 -1.0391246762467703
4875000000.0 0.16256011523407324 -1.06937611219629
4878000000.0 0.0902672512112685 -1.0269403548857032
4881000000.0 0.07979122096841049 -1.0640619893894845
4884000000.0 0.07056980067563924 -1.031439493958217
4888000000.0 0.092212706110337 -1.0224957445429321
4891000000.0 0.0695603693417557 -1.0322086058824682
4894000000.0 0.0258360156478808 -1.0098541041651252
4897000000.0 0.06486331077357299 -1.006066309884367
4900000000.0 0.028522704339640548 -1.0680243381338852
4903000000.0 0.056650938421093935 -1.0424031403904999
4906000000.0 0.008643292508194043 -1.051002831831013
4909000000.0 -0.015049520926053932 -1.055725475572084
4912000000.0 -0.0011767009921312965 -1.0735610784695568
4916000000.0 0.010188477342063046 -1.0492958471866791
4919000000.0 0.005101947708932644 -1.051254145746314
4922000000.0 0.007157884838420517 -1.0320753569648902
4925000000.0 -0.06289979811221699 -1.0085482953075848
4928000000.0 0.030359073872385678 -1.035492980846471
4931000000.0 -0.028322808408344793 -1.0149239564367458
4934000000.0 -0.04454146918153107 -0.9690712257970681
4938000000.0 -0.09863499224891766 -1.0116383863139313
4941000000.0 -0.05128198269297486 -1.0065759431199774
4944000000.0 -0.05829498092950991 -0.9666705375362954
4947000000.0 -0.08767211724388946 -0.9989228631668062
4950000000.0 -0.08164187500097704 -1.0168823649682486
4953000000.0 -0.1939409581573988 -1.0575906186581858
4956000000.0 -0.13175532575558335 -0.981058751144156
4959000000.0 -0.15410520283129528 -0.964719612563359
4962000000.0 -0.14778663246636783 -1.0646843882199757
4966000000.0 -0.13531884279818002 -1.0364262585525474
4969000000.0 -0.1396283184813346 -1.0809229595937406
4972000000.0 -0.14881006763976753 -1.04498341690231
4975000000.0 -0.12174272213912077 -1.033359041401702
4978000000.0 -0.182145687257514 -1.012095287289536
4981000000.0 -0.18911905629427014 -1.0260400059850028
4984000000.0 -0.17278196678384597 -0.9865104940474535
4988000000.0 -0.18089161867366926 -0.9933553192140401
4991000000.0 -0.13854777018238262 -1.0599355386810803
4994000000.0 -0.18432919871211284 -1.0139782014809247
4997000000.0 -0.21398461129839802 -0.9858565146428495
5000000000.0 -0.19443690221300974 -1.0318723860834091
5003000000.0 -0.22599162385819144 -1.05050245241764
5006000000.0 -0.2454036019216432 -1.0440001345669787
5009000000.0 -0.20047960542270335 -1.0041372962851134
5012000000.0 -0.2815650912507173 -0.9873258799290165
5016000000.0 -0.22863399628043718 -1.0466416435116483
5019000000.0 -0.2979741640438497 -0.9744815926577544
5022000000.0 -0.28354312162314943 -1.0167719511774447
5025000000.0 -0.30228631480669105 -1.0241369113067098
5028000000.0 -0.31872266252905146 -0.9946341240362109
5031000000.0 -0.31289944338982456 -0.9750530802343839
5034000000.0 -0.3683895236643907 -0.9986138999839964
5038000000.0 -0.33776827938894427 -0.9534166929848127
5041000000.0 -0.31340181653258503 -0.98652450309389
5044000000.0 -0.28309127122129973 -0.9645370746858403
5047000000.0 -0.33836372581907154 -1.0016376156579727
5050000000.0 -0.28494437913912607 -1.0118484232998253
5053000000.0 -0.3920302800909409 -1.009085001911856
5056000000.0 -0.3262081728614683 -0.9853839430685329
5059000000.0 -0.32829449757306656 -1.012425438142306
5062000000.0 -0.4299608683162349 -0.938197996071501
5066000000.0 -0.35830377404833846 -0.9503704575587484
5069000000.0 -0.4046111247023967 -0.9729524352601703
5072000000.0 -0.3932334615965392 -0.9556516667144512
5075000000.0 -0.3830037428428916 -0.9733573071947272
5078000000.0 -0.44848873268659756 -0.8950993192116838
5081000000.0 -0.4346795358131071 -0.9300732532660297
5084000000.0 -0.451549249329652 -0.9254084464070864
5088000000.0 -0.41845909218096256 -0.9557410007373901
5091000000.0 -0.506598749744523 -0.912415402758527
5094000000.0 -0.45962650655348386 -0.9191353518888704
5097000000.0 -0.4184696628459641 -0.9659411811546736
5100000000.0 -0.4341343602973497 -0.9048395675007815
5103000000.0 -0.482146133692427 -0.9198308055684222
5106000000.0 -0.4704776703844404 -0.9356949537437655
5109000000.0 -0.4609452858336395 -0.9204923851558369
5112000000.0 -0.4903604951391088 -0.8981207677481828
5116000000.0 -0.4528377579865542 -0.8980239209565661
5119000000.0 -0.4987760988473897 -0.8582670710689397
5122000000.0 -0.4906811860480482 -0.8799855599758315
5125000000.0 -0.5197083257494619 -0.9180282908967144
5128000000.0 -0.4767137833412846 -0.8824273182378022
5131000000.0 -0.5270861956605222 -0.8950843912143075
5134000000.0 -0.546660509931603 -0.9023580313105924
5138000000.0 -0.5121663231675446 -0.8781352461846135
5141000000.0 -0.48406510903726035 -0.9022906475370378
5144000000.0 -0.5363148735315817 -0.8832690160261083
5147000000.0 -0.5945865427468967 -0.8562756952434305
5150000000.0 -0.5746780706204374 -0.8719919526124499
5153000000.0 -0.6254875089246228 -0.916048437379562
5156000000.0 -0.587049928683381 -0.8548966192690605
5159000000.0 -0.6250653225747657 -0.8936315548028747
5162000000.0 -0.6145142051361834 -0.8634152524601089
5166000000.0 -0.6451234531446779 -0.8654278578741903
5169000000.0 -0.6030673593639525 -0.8762871368595305
5172000000.0 -0.5776051117146315 -0.7941945299336889
5175000000.0 -0.6240171126066004 -0.8772545248899299
5178000000.0 -0.6312567259616819 -0.80280884484691
5181000000.0 -0.632879911638751 -0.8204183984850515
5184000000.0 -0.651228297320542 -0.7950362868437426
5188000000.0 -0.6728921413753378 -0.8283638078085284
5191000000.0 -0.7059948460909468 -0.7952044591122122
