! Created with skrf 1.8.0 (http://scikit-rf.org).
# Hz S RI R 50.0 
!freq ReS11 ImS11
4000000000.0 0.6448559891888185 0.7743949274209099
4003000000.0 0.6784476126487369 0.8660127967126509
4006000000.0 0.7009661261011031 0.7418403896174146
4009000000.0 0.6579395989260859 0.7673913342915192
4012000000.0 0.6678587368333367 0.8305265200523625
4016000000.0 0.7197197438676136 0.7404429750009915
4019000000.0 0.6685618979549335 0.7213146056272337
4022000000.0 0.6921257171802409 0.7826676984836974
4025000000.0 0.7793448878451135 0.7270068408617784
4028000000.0 0.731467255074844 0.7463693389949557
4031000000.0 0.6798763844088733 0.7074629386267264
4034000000.0 0.7526020952418948 0.7167379639546811
4038000000.0 0.784048875474185 0.6922731345895107
4041000000.0 0.7456763161578056 0.6740888361609111
4044000000.0 0.7832055154552419 0.7468665710375046
4047000000.0 0.7366464051818181 0.7641156316782293
4050000000.0 0.8072069973790378 0.6997940654961968
4053000000.0 0.7709362702022192 0.6729117800925817
4056000000.0 0.7264627079134787 0.7019752948717433
4059000000.0 0.767036703712013 0.659799374220877
4062000000.0 0.7853264048914113 0.6478714631030402
4066000000.0 0.71218294792735 0.6142727202169967
4069000000.0 0.8530916656230173 0.6722097609197719
4072000000.0 0.8002443938409837 0.6826740762529646
4075000000.0 0.7989593856266681 0.6644833832239248
4078000000.0 0.8493779222769902 0.5775583433708341
4081000000.0 0.8144689986217838 0.7140001582717515
4084000000.0 0.8782544688504493 0.6083074881470092
4088000000.0 0.8324271927911415 0.6337214889826769
4091000000.0 0.8910166361840789 0.6692129477006103
4094000000.0 0.8334598883566579 0.608442890622945
4097000000.0 0.8713023734527662 0.5582040245514657
4100000000.0 0.871701266710142 0.5761348432464477
4103000000.0 0.8263019817591923 0.6221994603820558
4106000000.0 0.8789196167991186 0.5773513914965654
4109000000.0 0.8690449632644941 0.5697845251918887
4112000000.0 0.8825261528318025 0.5665551812111449
4116000000.0 0.8732573842844902 0.5824015585351942
4119000000.0 0.9099542663171137 0.5188378219117656
4122000000.0 0.8808858609173034 0.5489495129947581
4125000000.0 0.9094996670727918 0.5139939715058248
4128000000.0 0.8558261785634286 0.5104988643178209
4131000000.0 0.864307495647551 0.4914582775067846
4134000000.0 0.8629511497431873 0.537055959093059
4138000000.0 0.9102128975519839 0.46467328482468934
4141000000.0 0.9061183770819826 0.45614300179804945
4144000000.0 0.878798591480572 0.47365259634722684
4147000000.0 0.9105510644495709 0.4615894507809291
4150000000.0 0.9531203429642129 0.48041519278404493
4153000000.0 0.9444908940239853 0.4584811924325294
4156000000.0 0.9566272775592384 0.46157298954598946
4159000000.0 0.9082134355890716 0.4665457623836005
4162000000.0 0.9256139069024447 0.4580064129429987
4166000000.0 0.9548969805206355 0.4174164501728236
4169000000.0 0.92248150643676 0.4149036774246362
4172000000.0 0.9382979255715279 0.42012372423369676
4175000000.0 0.9563795758887056 0.4239823777478429
4178000000.0 0.9651417509353527 0.4236831348385832
4181000000.0 0.9520652680648298 0.39705754711502783
4184000000.0 0.9486577871645229 0.39669384834337035
4188000000.0 0.9443592924312598 0.3661817619929023
4191000000.0 0.9324675861761084 0.4174734856540013
4194000000.0 0.9366579728455405 0.34630280294994076
4197000000.0 0.9632865046741983 0.374807571557591
4200000000.0 0.966018971677306 0.37699486593163867
4203000000.0 0.9709836529448442 0.38079553293080337
4206000000.0 0.9838962795834403 0.3486798321599455
4209000000.0 0.9760144442948425 0.328123666906265
4212000000.0 0.975690588840918 0.2833604108253305
4216000000.0 0.9677982639635121 0.3251502185635204
4219000000.0 0.99486683812644 0.30127570088439026
4222000000.0 0.979205375444816 0.27797765157547344
4225000000.0 0.9760899008905861 0.2778162555666509
4228000000.0 0.9993674518282878 0.26828122214530004
4231000000.0 0.996940018310667 0.2687112235260469
4234000000.0 0.9957176893351267 0.24868467909781183
4238000000.0 0.9978381494731119 0.23132065681113348
4241000000.0 0.979649692721293 0.23256105244429692
4244000000.0 0.9863242600342009 0.2373220202638574
4247000000.0 0.9911351815396461 0.21902595164783534
4250000000.0 0.9904908513953294 0.20880605844235522
4253000000.0 0.9890333301847904 0.19355023574749936
4256000000.0 1.0108308110915625 0.18740051366082167
4259000000.0 0.9769699893310463 0.1712090462889099
4262000000.0 1.0163263756513357 0.17664059388567602
4266000000.0 1.0217988173011983 0.1293626026699159
4269000000.0 1.0017966412284693 0.17193942158785921
4272000000.0 0.9940264982861015 0.14477075984906473
4275000000.0 1.0218302260191057 0.1721916411059624
4278000000.0 1.0254990783560234 0.13014072576078775
4281000000.0 1.0104224811458655 0.13014507632294386
4284000000.0 1.0212150231817136 0.08571463777479821
4288000000.0 1.0051865704108776 0.141990683965387
4291000000.0 0.998469021738227 0.12230098609695046
4294000000.0 1.0113912169980024 0.09593647655463612
4297000000.0 1.0119350694880147 0.125009524847427
4300000000.0 0.9695187913087333 0.09712589926497764
4303000000.0 0.9887888887492111 0.04463357079079859
4306000000.0 1.0491048907376928 0.07839826558380514
4309000000.0 1.001963628936174 0.05069758269018905
4312000000.0 1.0256866910105622 0.06769165429281801
4316000000.0 1.0216403665886917 0.08035418947791516
4319000000.0 0.9963971160568491 0.031101778612621908
4322000000.0 0.9916277800020201 -0.0017246900190542036
4325000000.0 1.0131637398238282 0.0023747408262298625
4328000000.0 1.0039889401789983 -0.010998495988185211
4331000000.0 1.0307394683387872 -0.039150964077380196
4334000000.0 1.037604473739109 -0.033019982586891816
4338000000.0 1.0054092865449276 -0.002581147482311072
4341000000.0 1.0228830127890767 0.0009216506158424564
4344000000.0 1.0505185456716508 -0.045609253741913075
4347000000.0 1.0180390038619245 -0.09867726343886718
4350000000.0 0.9719792275395363 -0.08209010199567694
4353000000.0 0.9873527576765171 -0.046477686764067216
4356000000.0 0.9943920067029709 -0.106864400969111
4359000000.0 0.9678713194687967 -0.0851975072978677
4362000000.0 1.010937952803539 -0.15760903784267058
4366000000.0 1.0178626332884704 -0.11807978320336866
4369000000.0 0.9692915092983362 -0.11514187804923441
4372000000.0 0.9883111544329117 -0.17651660512031844
4375000000.0 0.9991464471645519 -0.13112208447472268
4378000000.0 0.9768889074868325 -0.14681561057961062
4381000000.0 0.9873510130252519 -0.11756854939490625
4384000000.0 1.060194702325632 -0.18286603286041372
4388000000.0 0.9801181143451886 -0.1712198733194554
4391000000.0 1.0206500347921657 -0.16861172166617866
4394000000.0 0.9629588761723217 -0.17187525959321998
4397000000.0 0.9890859355272885 -0.19793015163795882
4400000000.0 1.0197027556091236 -0.21673384505105855
4403000000.0 1.0018454689759686 -0.2201421924528752
4406000000.0 0.9773448271154543 -0.25168907408836794
4409000000.0 1.0149274347294963 -0.2388802039687265
4412000000.0 0.9777458836522903 -0.28939587230637487
4416000000.0 0.9785144059899085 -0.2584263822554027
4419000000.0 0.9778077450157557 -0.2729179118354433
4422000000.0 0.968985397046096 -0.25993142764214566
4425000000.0 0.9946133554808408 -0.2657578833380154
4428000000.0 0.9729787609866483 -0.2989121048966644
4431000000.0 0.9698694887397539 -0.29173028262523637
4434000000.0 0.9495348081273368 -0.2998863107284798
4438000000.0 0.9999607235793666 -0.3200072630008645
4441000000.0 0.9795512418415773 -0.32706292058032793
4444000000.0 0.9291568419477034 -0.32085174588922494
4447000000.0 0.9367000365593972 -0.3497144145267922
4450000000.0 0.9391167053737691 -0.3267932104259068
4453000000.0 0.9756790756672147 -0.35475421666416973
4456000000.0 0.9128506385420851 -0.3602180910594547
4459000000.0 0.8912942401452828 -0.3711073338229825
4462000000.0 0.9799951435103667 -0.40495862854166365
4466000000.0 0.9631745443323054 -0.3870724196121669
4469000000.0 0.9366593568052191 -0.3706006814478152
4472000000.0 0.9208825836511312 -0.43694745600034396
4475000000.0 0.9226322438407452 -0.39590348139501697
4478000000.0 0.965275140756533 -0.4533175245633996
4481000000.0 0.8691978820178112 -0.43357524016392335
4484000000.0 0.8992637407053643 -0.476204493579235
4488000000.0 0.8954046786769575 -0.453584957114579
4491000000.0 0.9278009755070975 -0.4654062696978393
4494000000.0 0.8890733321217883 -0.4591084319073368
4497000000.0 0.904892778747074 -0.45343952940217325
4500000000.0 0.8996620148636714 -0.46898984264750637
4503000000.0 0.9176705537642094 -0.49021121084981456
4506000000.0 0.8620258512346466 -0.5005566108922949
4509000000.0 0.8601023318756564 -0.5035155562442233
4512000000.0 0.852710660251472 -0.48614593241065773
4516000000.0 0.8837100875678026 -0.512806975228122
4519000000.0 0.8541657257527575 -0.48063014959666445
4522000000.0 0.8486467461229701 -0.5268900064198754
4525000000.0 0.8575578763566707 -0.5077492499735429
4528000000.0 0.8792207681626152 -0.5701684941250207
4531000000.0 0.8597211274167591 -0.5504160159829229
4534000000.0 0.8104352711923541 -0.5544469115890036
4538000000.0 0.8330375445615728 -0.5684830256843403
4541000000.0 0.7945732386344534 -0.5981023994870472
4544000000.0 0.8231821490581677 -0.5659888911512301
4547000000.0 0.8142955607161589 -0.5753491421175847
4550000000.0 0.8097679314950581 -0.6180905514181894
4553000000.0 0.8028216927275982 -0.6140402752757447
4556000000.0 0.7761725327226667 -0.6173391358794535
4559000000.0 0.8080129310278462 -0.6305989780643464
4562000000.0 0.8023345119175549 -0.6296044964458034
4566000000.0 0.7882486702605864 -0.6485565450578652
4569000000.0 0.7721418346657837 -0.6370841102332265
4572000000.0 0.7527608151987683 -0.6371646731340819
4575000000.0 0.7745984503577414 -0.6685551889939726
4578000000.0 0.7954360157745404 -0.6632783885713281
4581000000.0 0.7486407956714153 -0.6733057238679461
4584000000.0 0.740239013603005 -0.6739089402188285
4588000000.0 0.7677188264967508 -0.6835084456281229
4591000000.0 0.7490908414068618 -0.6855904053740681
4594000000.0 0.706207372567038 -0.7221064694804087
4597000000.0 0.7432650030666379 -0.6944279115234542
4600000000.0 0.693889084286718 -0.7238620194597724
4603000000.0 0.7159111184033481 -0.7125061631198446
4606000000.0 0.7232010364936681 -0.7299814520862692
4609000000.0 0.7040299447679254 -0.7289603558778637
4612000000.0 0.7099071630734921 -0.7503376864891563
4616000000.0 0.6758704617054925 -0.7323531181135893
4619000000.0 0.6843805603768534 -0.7427799141911774
4622000000.0 0.6654980147670683 -0.7421172825493977
4625000000.0 0.6435259435823157 -0.7538678095834918
4628000000.0 0.667493985571278 -0.7556347439304882
4631000000.0 0.6364107100989203 -0.784398569799255
4634000000.0 0.6654973920812042 -0.7754242338264289
4638000000.0 0.6525904902451202 -0.7879925492251403
4641000000.0 0.6431415124051715 -0.7844233220850616
4644000000.0 0.6279822909506686 -0.8000453730335713
4647000000.0 0.6294197988209466 -0.8066412626702161
4650000000.0 0.6065385720200648 -0.8086682952902526
4653000000.0 0.6393304667500435 -0.8127589519527517
4656000000.0 0.5955948112727302 -0.8163581965017512
4659000000.0 0.5904947035004257 -0.8299712994724388
4662000000.0 0.5841172526098293 -0.8331409400138069
4666000000.0 0.5781176202803436 -0.8389732245742337
4669000000.0 0.5800383151629682 -0.8637336784938691
4672000000.0 0.5518813186678736 -0.8629842377001373
4675000000.0 0.5465732794188878 -0.8594840689437765
4678000000.0 0.5467182569007988 -0.8617843977346057
4681000000.0 0.5425466221819355 -0.8958329107984704
4684000000.0 0.5209072168030522 -0.8814565569071042
4688000000.0 0.4964234184828171 -0.8784280509210659
4691000000.0 0.5149809178764584 -0.8814898979924626
4694000000.0 0.4998224750603397 -0.8461471490492707
4697000000.0 0.4616267699138213 -0.8505469328352302
4700000000.0 0.4799668564406321 -0.8689321718475898
4703000000.0 0.4940910209477965 -0.8758462627203527
4706000000.0 0.47789605862775536 -0.9113982691826245
4709000000.0 0.45804763068901205 -0.9030208795596466
4712000000.0 0.4599773164710128 -0.9261527533108047
4716000000.0 0.46532116543918267 -0.9178344504433078
4719000000.0 0.502471886272022 -0.9296074502207472
4722000000.0 0.4748389501415945 -0.9134931205483285
4725000000.0 0.4352181168312518 -0.9155856223176418
4728000000.0 0.40903625139288424 -0.9271660796706491
4731000000.0 0.45224025034149584 -0.926834572448229
4734000000.0 0.42427289633652654 -0.9320460699212842
4738000000.0 0.43024847246017073 -0.9895252617295974
4741000000.0 0.39645512321648757 -0.9178202420257118
4744000000.0 0.3644794526315631 -0.950682869327555
4747000000.0 0.38442408383352644 -0.9146903728748533
4750000000.0 0.35498128426973663 -0.9536016091932774
4753000000.0 0.3805031071625232 -0.9645121735600136
4756000000.0 0.36135158732195055 -0.9402133170806346
4759000000.0 0.3363148893480381 -0.9923401550132729
4762000000.0 0.3227604191167069 -0.9786831574053901
4766000000.0 0.28358628718341317 -0.9726813265021184
4769000000.0 0.34769073599496264 -0.978480777570767
4772000000.0 0.3115095933394416 -0.9723609259635858
4775000000.0 0.3022868113716549 -1.0281508247698097
4778000000.0 0.2775620911891878 -0.9806255642737632
4781000000.0 0.30762730749285067 -0.9870067059214709
4784000000.0 0.28303843577262144 -0.9615870456976708
4788000000.0 0.2635546547404407 -1.006708045631298
4791000000.0 0.23982571590801316 -0.9433363206099848
4794000000.0 0.30278843480505924 -1.0229844672358281
4797000000.0 0.20806856565802034 -0.9968988831444566
4800000000.0 0.2144361435768174 -0.9860129309537158
4803000000.0 0.18976171341524387 -0.9882933339695539
4806000000.0 0.23734975623084154 -1.012893368829464
4809000000.0 0.1632076251084327 -1.017390214354769
4812000000.0 0.1655218037817257 -1.0251380371479173
4816000000.0 0.20620215471065423 -0.9965002020992473
4819000000.0 0.20084003688601068 -1.0307809869097306
4822000000.0 0.20541658479306965 -1.0332157648805644
4825000000.0 0.21396594416582498 -1.0468817480906314
4828000000.0 0.1324469748406682 -1.0230575765697383
4831000000.0 0.11315594833786032 -1.0273207653757168
4834000000.0 0.16490067427988656 -1.0308171891836575
4838000000.0 0.11642767670643056 -1.0419291761086868
4841000000.0 0.10224737662039374 -1.0131800442933563
4844000000.0 0.13765218050546704 -1.0186358866183745
4847000000.0 0.1482552431365437 -0.9712068014840873
4850000000.0 0.08071974939389855 -1.0288440471809754
4853000000.0 0.09506445278265124 -1.0019057070040465
4856000000.0 0.07306588054290258 -1.009959495973508
4859000000.0 0.0720189933298023 -1.0565171698027322
4862000000.0 0.08113777287195582 -1.0004302965645202
4866000000.0 0.04382169484036097 -1.0313429231244957
4869000000.0 0.05226611073430812 -1.0495075611441673
4872000000.0 0.025339412174368216 -1.0283642128169792
4875000000.0 0.08577607213311324 -1.0729550845354152
4878000000.0 -0.006826617742493768 -1.0587694250830009
4881000000.0 -0.008697357695190928 -1.0950431003006542
4884000000.0 0.044593841943209714 -1.0422942064655358
4888000000.0 0.008740158607908142 -1.0322645357313933
4891000000.0 -0.008860612951675097 -1.0566428688542597
4894000000.0 -0.0355121287417019 -1.0258105381541138
4897000000.0 -0.008680770946880027 -1.0206285143981888
4900000000.0 -0.03432679965714617 -1.0481439075742038
4903000000.0 -0.03939156419822424 -1.0519416019319927
4906000000.0 -0.05772870709141785 -1.0418175690511013
4909000000.0 -0.05968499766918376 -1.015256947384601
4912000000.0 -0.06627379803027449 -1.08744038103288
4916000000.0 -0.08342507006265812 -1.0750117258960217
4919000000.0 -0.030301079436058642 -1.0691899044517421
4922000000.0 -0.04816171597762013 -1.0465428762682238
4925000000.0 -0.14802776439477058 -1.0040652877094456
4928000000.0 -0.03535071513717693 -1.0342921487228163
4931000000.0 -0.12072439733226258 -1.0667273947958567
4934000000.0 -0.11320685027925616 -0.988748253830231
4938000000.0 -0.15372472619415883 -1.0375246606118549
4941000000.0 -0.13382528022948176 -1.0022921033719978
4944000000.0 -0.13656409866364402 -0.9606348059340566
4947000000.0 -0.1577457997390799 -0.9721167529098581
4950000000.0 -0.18967626210751032 -1.0021258513073839
4953000000.0 -0.2251404288681878 -1.030105937403817
4956000000.0 -0.22049940007105245 -1.007894596487068
4959000000.0 -0.2335088746088412 -0.95257947077015
4962000000.0 -0.23933556768315553 -1.0472119475334538
4966000000.0 -0.21815587126896208 -1.0560512237765771
4969000000.0 -0.19738783406530885 -1.0765034295036546
4972000000.0 -0.23761877131143158 -1.0070570704752515
4975000000.0 -0.2188444600267995 -0.9862297899705842
4978000000.0 -0.2703152673283646 -0.9932631461675067
4981000000.0 -0.2697048771187722 -0.9896996558537564
4984000000.0 -0.24366084060146628 -0.9884541251237103
4988000000.0 -0.25272198817536395 -0.9889821387145824
4991000000.0 -0.24388705936941069 -1.0338131808452629
4994000000.0 -0.30300684159874725 -0.9827826571566161
4997000000.0 -0.340035672667302 -0.9646061378353045
5000000000.0 -0.301561440667067 -1.0207279872149622
5003000000.0 -0.3064533186194068 -1.0238931412475551
5006000000.0 -0.3222854855195353 -1.035187149318071
5009000000.0 -0.3215080964834327 -0.9726486812060079
5012000000.0 -0.3441138498823953 -1.006052542457655
5016000000.0 -0.32708661571587044 -1.0310763922722146
5019000000.0 -0.34602143043215083 -0.9792963052009849
5022000000.0 -0.3689619379994481 -0.974780266939183
5025000000.0 -0.39554167189352935 -1.036929192126821
5028000000.0 -0.39298723391155244 -0.9851580636542447
5031000000.0 -0.40268630980306264 -0.9583188694572425
5034000000.0 -0.4330565844801999 -0.9859622317969146
5038000000.0 -0.39132011493400354 -0.9293749288643038
5041000000.0 -0.3842403152834396 -0.9927034903586226
5044000000.0 -0.3791760457398605 -0.9444693407467367
5047000000.0 -0.40342813605037703 -0.9842626607753541
5050000000.0 -0.33178725565319866 -0.9586793784820409
5053000000.0 -0.46879702621930264 -0.9740929666354852
5056000000.0 -0.39517522402759886 -0.9962872523811668
5059000000.0 -0.42769960159790427 -0.9755894557357297
5062000000.0 -0.49597515656201896 -0.931279629943534
5066000000.0 -0.42277093580549785 -0.9279406177984346
5069000000.0 -0.46448920370446567 -0.9582871138436194
5072000000.0 -0.4416005518096169 -0.9149261894316383
5075000000.0 -0.46617859653506044 -0.9451022328475938
5078000000.0 -0.5166303202321239 -0.9148845969524197
5081000000.0 -0.4997895541894211 -0.8630986382044389
5084000000.0 -0.5129972899465227 -0.9330645080994382
5088000000.0 -0.4735809640661507 -0.9098547562640449
5091000000.0 -0.5434246594393874 -0.8769818210509426
5094000000.0 -0.5600643997344837 -0.8513809504779039
5097000000.0 -0.5038833363826734 -0.9177604992264479
5100000000.0 -0.5409506940237451 -0.8841625420942271
5103000000.0 -0.577484291434344 -0.9093221961815651
5106000000.0 -0.5866007384457734 -0.9161883408993516
5109000000.0 -0.5747215064005963 -0.9026296845449588
5112000000.0 -0.5928641140388602 -0.8498612282103943
5116000000.0 -0.5553298967263418 -0.8502776998927588
5119000000.0 -0.6307322899202503 -0.9000338107052237
5122000000.0 -0.5945680427040053 -0.8755079506256795
5125000000.0 -0.5387954854027031 -0.8561174236884757
5128000000.0 -0.5719238248024543 -0.8738979046854538
5131000000.0 -0.6164615576063138 -0.8036231697424433
5134000000.0 -0.6004691941203989 -0.8315626669240243
5138000000.0 -0.5642648801675002 -0.8471509505400233
5141000000.0 -0.6555398429789949 -0.8914942873048977
5144000000.0 -0.6007726233763386 -0.8050307283233277
5147000000.0 -0.6173285729289065 -0.8211774258152328
5150000000.0 -0.6439660925493315 -0.8335378415280175
5153000000.0 -0.6728997550692639 -0.816817982153641
5156000000.0 -0.6345694099096165 -0.86061181041717
5159000000.0 -0.7259688604649434 -0.8371275505309156
5162000000.0 -0.6810499754297713 -0.7728500463769337
5166000000.0 -0.6817282787330246 -0.7700027976347608
5169000000.0 -0.677699377890167 -0.7969250981173446
5172000000.0 -0.694868639784151 -0.7858458495930973
5175000000.0 -0.6787055322536433 -0.8241179635535936
5178000000.0 -0.7116293075988385 -0.7817464584850801
5181000000.0 -0.7172479134908002 -0.7701515076131126
5184000000.0 -0.7050568842123472 -0.7676131631953413
5188000000.0 -0.7448333909610725 -0.7530145133985032
