! Created with skrf 1.8.0 (http://scikit-rf.org).
# Hz S RI R 50.0 
!freq ReS11 ImS11
4000000000.0 0.6933343340366028 0.79259915501695
4003000000.0 0.7044478289268759 0.8578123027826364
4006000000.0 0.6991211185175599 0.7757061321481716
4009000000.0 0.6772757130835203 0.7736797114624185
4012000000.0 0.6042132032960921 0.8395849659116152
4016000000.0 0.7245287950364692 0.7642865956708058
4019000000.0 0.6690537780447754 0.7287834328915724
4022000000.0 0.6171787997830579 0.8102220328253782
4025000000.0 0.7471221263454697 0.7424801909586586
4028000000.0 0.7282647537355089 0.7525577823451979
4031000000.0 0.6753706097253638 0.7167113581974788
4034000000.0 0.7138035682914915 0.6987162056391246
4038000000.0 0.7525761424818407 0.7196498749284813
4041000000.0 0.7188666631421265 0.7382411783269905
4044000000.0 0.7877049152608276 0.7404125364651194
4047000000.0 0.7782021373425826 0.7485954609230131
4050000000.0 0.7824926608112843 0.7166101162588893
4053000000.0 0.7751955338436224 0.6420202762756333
4056000000.0 0.8068266196588768 0.7079278920876387
4059000000.0 0.7492862522252263 0.7088249309905368
4062000000.0 0.792997836562593 0.6518440482067203
4066000000.0 0.720011113790813 0.6148466425472592
4069000000.0 0.8539993652042939 0.6359279486894462
4072000000.0 0.7689408330709098 0.6910551605975508
4075000000.0 0.8047464208880344 0.6924662417103629
4078000000.0 0.8014310722488276 0.6847531920860357
4081000000.0 0.7912571976376904 0.6404189682792178
4084000000.0 0.8532379009398109 0.6309620940096745
4088000000.0 0.7819940340403221 0.6268699952329139
4091000000.0 0.8665789904313733 0.6781312604128729
4094000000.0 0.7939801816679547 0.6225449472567237
4097000000.0 0.8422992868464803 0.580413897312164
4100000000.0 0.8555101968785441 0.584967091002502
4103000000.0 0.8446238669143189 0.6608805145669536
4106000000.0 0.8629509166157966 0.6084446571817801
4109000000.0 0.884636453072793 0.5524628604074826
4112000000.0 0.8498326555395743 0.5758672766240138
4116000000.0 0.862389701818243 0.5881481870549932
4119000000.0 0.8890815952301796 0.5544284575724839
4122000000.0 0.9328511387086115 0.5601250689893804
4125000000.0 0.8997116161355053 0.5417678977200444
4128000000.0 0.8632897485888386 0.5059366689566669
4131000000.0 0.8776457650428431 0.5380981204090158
4134000000.0 0.8860372545820384 0.5418764281756271
4138000000.0 0.8629638320206743 0.49614278174997034
4141000000.0 0.8872680918069001 0.48399171968321686
4144000000.0 0.8880572645095041 0.5202941176725653
4147000000.0 0.8669887642351107 0.42737288525526845
4150000000.0 0.9558708445787183 0.49528583684638267
4153000000.0 0.8996978168301127 0.4500510981043889
4156000000.0 0.9373685759952339 0.46340838592188505
4159000000.0 0.9003269753708634 0.44243365804969154
4162000000.0 0.8933776297377332 0.4487668364863391
4166000000.0 0.9474748167317615 0.4268968386173474
4169000000.0 0.9540663217751719 0.3980997126554716
4172000000.0 0.9534185024969759 0.44615462227667696
4175000000.0 0.9472020220115654 0.4426055089479834
4178000000.0 0.9480063221521497 0.41540939883540806
4181000000.0 0.9302292731692738 0.4262262462332488
4184000000.0 0.9322566418061068 0.40540618558630365
4188000000.0 0.9562007128279331 0.3873360834374123
4191000000.0 0.9322620739306513 0.41657571830114454
4194000000.0 0.9338145684640136 0.34038829724265385
4197000000.0 0.9511231307885386 0.3682810839724086
4200000000.0 0.962954833372828 0.3732733867599487
4203000000.0 0.9540862957566747 0.36917657701248363
4206000000.0 0.9829539228860933 0.3378084252410812
4209000000.0 0.9711966115876787 0.3563726534485004
4212000000.0 0.9920759556970412 0.3011377672527995
4216000000.0 0.9766377912650827 0.3445528395523078
4219000000.0 0.9665918504461911 0.32061557065825386
4222000000.0 0.9929863958260623 0.29426361183124644
4225000000.0 0.9674494656670583 0.2869605635286019
4228000000.0 0.9898211679700188 0.30483068428598803
4231000000.0 0.9893331596150164 0.2721904829134301
4234000000.0 1.005673839665538 0.26375452944358535
4238000000.0 1.0040382126860925 0.24871598890278182
4241000000.0 0.9915744119372225 0.2342425872892328
4244000000.0 0.9838886486142067 0.2451545634873159
4247000000.0 0.992643151179077 0.2501970748414599
4250000000.0 0.9792133754032399 0.21579136032577645
4253000000.0 0.982793096749855 0.20754922391651964
4256000000.0 1.0126203190108116 0.20953530339789483
4259000000.0 0.9568196387586544 0.20280584468376525
4262000000.0 0.998836898143731 0.16406110416785888
4266000000.0 1.017504412389569 0.16725442378868216
4269000000.0 1.0191721545107784 0.19967698583521007
4272000000.0 0.99733263739464 0.17843330332081625
4275000000.0 1.0026438479411366 0.160200626856079
4278000000.0 1.0273330226792867 0.15074002599356506
4281000000.0 1.0004665311014256 0.15035504024825153
4284000000.0 1.0052453903465333 0.12788221017306475
4288000000.0 1.002009477460082 0.13699392623718074
4291000000.0 0.9805256380759884 0.1107013998681625
4294000000.0 1.002188435078029 0.08120969286140044
4297000000.0 1.0087901720662993 0.1251245626437129
4300000000.0 0.9905576720605278 0.09177145445640836
4303000000.0 1.009792686202567 0.05954474953335363
4306000000.0 1.0151415253752805 0.08718410955285114
4309000000.0 0.9905505874066123 0.08891633907197614
4312000000.0 1.0420783201082549 0.12798066944772005
4316000000.0 1.0308522854570437 0.053146831844255796
4319000000.0 1.0085697297748797 0.05608674608486709
4322000000.0 1.022841656015628 0.0052006338304173005
4325000000.0 1.0073030134780059 0.05420548694653325
4328000000.0 0.9956795424503435 0.021956563322823502
4331000000.0 1.031085331207015 -0.005289946789873323
4334000000.0 1.0248469196044707 0.00754461239959528
4338000000.0 1.0265677491075724 0.025283061573400947
4341000000.0 1.0286278504452675 -0.0029662076619881295
4344000000.0 1.04476819803562 -0.002159960692780405
4347000000.0 1.0036239114996715 -0.06508003460643644
4350000000.0 1.0054040275732206 -0.061883311788925546
4353000000.0 0.9969372399483287 -0.04481030930993957
4356000000.0 1.0102955942325131 -0.06447360981395395
4359000000.0 0.9734177256502259 -0.06241661303747549
4362000000.0 1.0124540241289057 -0.13746070119548026
4366000000.0 1.0322121740543406 -0.11268877221863037
4369000000.0 0.981543869439767 -0.10359653043492553
4372000000.0 0.999862891290408 -0.14030557127871476
4375000000.0 1.0019192624668378 -0.11383248665889456
4378000000.0 0.988868261837917 -0.11346008274780973
4381000000.0 0.993218806013346 -0.13200008302385607
4384000000.0 1.0872095043435601 -0.17424471532669816
4388000000.0 0.9856344357298046 -0.1295358915384871
4391000000.0 0.9967202472807157 -0.14662302461699375
4394000000.0 0.9685777022425766 -0.16003947350284348
4397000000.0 0.9762096552059101 -0.17692370656918555
4400000000.0 1.021571493269095 -0.19022582885158262
4403000000.0 0.9865146453983175 -0.18471798217138807
4406000000.0 0.9964095198487712 -0.23383681041770987
4409000000.0 1.0163818248295464 -0.21523546460008502
4412000000.0 0.9687160229743256 -0.27257394748945113
4416000000.0 0.9709423639136643 -0.24997795367061765
4419000000.0 0.9822230764459893 -0.25619694328491827
4422000000.0 0.9730502803051417 -0.23804383585798947
4425000000.0 0.9980872084441005 -0.23534958641267967
4428000000.0 0.9703342503562428 -0.26865379957364804
4431000000.0 1.0014624590924284 -0.2695734691130592
4434000000.0 0.966941253814749 -0.2944732757948448
4438000000.0 1.0030107767644838 -0.2963945970359332
4441000000.0 0.9776606527670226 -0.3060243546493687
4444000000.0 0.9360326482217363 -0.2895287911640988
4447000000.0 0.9497133244861858 -0.3362818858946668
4450000000.0 0.953541540976063 -0.30196659820211363
4453000000.0 0.9753503875160812 -0.3359727432742605
4456000000.0 0.921789593002952 -0.3468645587694936
4459000000.0 0.9062591626038492 -0.33813305360579793
4462000000.0 1.010659158437893 -0.3770043269686768
4466000000.0 0.9785093140913683 -0.39492009053504784
4469000000.0 0.9519900450413242 -0.3596128950172083
4472000000.0 0.9492089627996964 -0.4130962539507763
4475000000.0 0.9167351256887962 -0.3795409490331463
4478000000.0 0.9575105679499327 -0.4396699372192088
4481000000.0 0.9039689061599077 -0.4054668947811374
4484000000.0 0.9159372703960542 -0.4452008174408223
4488000000.0 0.8910835095929873 -0.43211672709920834
4491000000.0 0.933319942512221 -0.4413821311402279
4494000000.0 0.8985576190811402 -0.4426258270322615
4497000000.0 0.9069389507839516 -0.43527004284378923
4500000000.0 0.8795203336669217 -0.44623033405388135
4503000000.0 0.9212765210079781 -0.47324879506586515
4506000000.0 0.8840293880666414 -0.46168500739595975
4509000000.0 0.8760721345713145 -0.46365659894693834
4512000000.0 0.8572529115485519 -0.4974056470223752
4516000000.0 0.9189228578711677 -0.5237656516647367
4519000000.0 0.8600667418633583 -0.4830767470643093
4522000000.0 0.8664842806335293 -0.5164539741434311
4525000000.0 0.869370441102975 -0.5046805355321282
4528000000.0 0.8877033821690099 -0.5501396575890055
4531000000.0 0.8509230275461717 -0.5250928901462353
4534000000.0 0.8190535175397735 -0.547361384630743
4538000000.0 0.8504531128838357 -0.5375112923441765
4541000000.0 0.8174552709812566 -0.5830991535106352
4544000000.0 0.829611838535707 -0.5529181534534708
4547000000.0 0.8358478211357898 -0.5417861855520851
4550000000.0 0.8204146616280428 -0.5976876448175579
4553000000.0 0.8356375330421082 -0.5943161584434762
4556000000.0 0.7953221991733539 -0.5990154680997026
4559000000.0 0.8095466504076121 -0.6132664324079817
4562000000.0 0.8357378770783987 -0.6318408659532864
4566000000.0 0.7845749533576292 -0.6240032064311047
4569000000.0 0.7705742426461081 -0.6081151186189013
4572000000.0 0.7837768182256069 -0.6311772997899145
4575000000.0 0.7871487611690511 -0.6581269577925772
4578000000.0 0.7809004167153657 -0.6531354857248147
4581000000.0 0.7532845046907178 -0.6601637876302738
4584000000.0 0.7636519210748782 -0.6569093328096779
4588000000.0 0.7669101346475031 -0.6652383332316684
4591000000.0 0.7647558458342988 -0.6625630461543036
4594000000.0 0.7321171478870809 -0.6983659541274961
4597000000.0 0.7315405447772729 -0.7185609454860713
4600000000.0 0.7081580186713665 -0.7060850194729297
4603000000.0 0.7277187664788891 -0.7204586895272271
4606000000.0 0.7317325370024547 -0.7122360505971754
4609000000.0 0.7210793848405432 -0.7022260138305855
4612000000.0 0.7178303501927714 -0.7083092038986554
4616000000.0 0.7022512961315721 -0.7034740567187729
4619000000.0 0.7270199196063559 -0.7214474656495694
4622000000.0 0.6797578721059653 -0.7481979954216537
4625000000.0 0.6481176060800208 -0.7515305451732571
4628000000.0 0.6815098584279083 -0.731080045777924
4631000000.0 0.6695743793553341 -0.7661450882079834
4634000000.0 0.6627803110676971 -0.7584489557779667
4638000000.0 0.6785117211572383 -0.7825713722383308
4641000000.0 0.6537961244720167 -0.774074294109356
4644000000.0 0.6425164885654147 -0.7830860249888213
4647000000.0 0.6570020129934993 -0.7948028295708912
4650000000.0 0.6035079867938211 -0.7968392793722546
4653000000.0 0.6294045869423883 -0.7906026243995785
4656000000.0 0.6137574562086727 -0.8150457125730435
4659000000.0 0.606373398346441 -0.8114399118479041
4662000000.0 0.6006735097202154 -0.8239663387489766
4666000000.0 0.5888622480842112 -0.8238580503439097
4669000000.0 0.6019348214564024 -0.8314732874842874
4672000000.0 0.5864458268310463 -0.8482056507489655
4675000000.0 0.5588807525530297 -0.8512474659279426
4678000000.0 0.552569198715555 -0.8296068085233904
4681000000.0 0.5543094285777246 -0.8762874621788612
4684000000.0 0.5133670545909561 -0.8612756742517683
4688000000.0 0.5385706996093249 -0.8565906593958326
4691000000.0 0.5350837329942576 -0.8585852140769743
4694000000.0 0.5201642454978334 -0.8554442621744491
4697000000.0 0.5061499440285286 -0.8318757361393478
4700000000.0 0.5236751977802847 -0.869107371222382
4703000000.0 0.509163944365488 -0.8421190566254146
4706000000.0 0.49274985192365894 -0.9048919193626946
4709000000.0 0.4549311408295068 -0.8812659687207566
4712000000.0 0.47269273922222266 -0.8636423669790918
4716000000.0 0.5005768765251057 -0.8930845009379154
4719000000.0 0.46492844328319705 -0.9026629360458447
4722000000.0 0.4989260662295687 -0.912175347903414
4725000000.0 0.4746491906073569 -0.9039367806234039
4728000000.0 0.4445264429113158 -0.9113872592078915
4731000000.0 0.4428512841312845 -0.952673861339882
4734000000.0 0.46678495820649263 -0.9221774543703367
4738000000.0 0.447450690740837 -0.9464607652643081
4741000000.0 0.43083675619751977 -0.9387702522895846
4744000000.0 0.3881539799030179 -0.9666691878864367
4747000000.0 0.38702346869544685 -0.8900834479052554
4750000000.0 0.42203081447498714 -0.9427141373042336
4753000000.0 0.3886702075199926 -0.9563189296194397
4756000000.0 0.39699717575297344 -0.9478831312416889
4759000000.0 0.3889661308025052 -0.9727949893027634
4762000000.0 0.3156688420769891 -1.0061517222703356
4766000000.0 0.3131426958189047 -0.9806920789346235
4769000000.0 0.33009983709599955 -0.9705084467957691
4772000000.0 0.336297246638114 -0.9984428207704975
4775000000.0 0.30601767048802847 -1.0134652677358207
4778000000.0 0.3221092462071983 -0.9674738338879371
4781000000.0 0.350854128560102 -0.9534498316925504
4784000000.0 0.3334315941649382 -0.9368791790921608
4788000000.0 0.2978023092884522 -1.014394952048503
4791000000.0 0.25755883064940394 -0.9809183286383042
4794000000.0 0.30433450728031447 -1.0167436834692918
4797000000.0 0.24244660578374067 -0.9800826998441453
4800000000.0 0.2602660484706693 -0.9652010307372749
4803000000.0 0.21405503284545294 -1.0142168933408586
4806000000.0 0.2430549514627285 -1.012109654971174
4809000000.0 0.19088951540280047 -1.0086660509419285
4812000000.0 0.18310677950746743 -0.9904385052660614
4816000000.0 0.24118482077914843 -0.9882552905027842
4819000000.0 0.2299200335553508 -1.0471622492858121
4822000000.0 0.24254997172650997 -1.0372801654453296
4825000000.0 0.20678135095458117 -1.0314153039218625
4828000000.0 0.1794118181165775 -1.0064820093473466
4831000000.0 0.15264869709565504 -1.0392208849067641
4834000000.0 0.175241144617862 -1.0156962393050188
4838000000.0 0.16414791132638595 -1.055107497123944
4841000000.0 0.14319619042713838 -1.0048993845799772
4844000000.0 0.1696231194891968 -1.0255209168899353
4847000000.0 0.16677771349908266 -0.972765300666254
4850000000.0 0.12000886315861656 -1.0383501820007208
4853000000.0 0.11369432613809759 -1.0026750842186563
4856000000.0 0.08985196736496014 -0.9876942166925354
4859000000.0 0.10591899943645924 -1.0639982024553656
4862000000.0 0.1180921333375996 -1.0090246533039888
4866000000.0 0.060269534785728364 -1.0548497402404762
4869000000.0 0.05363763916822341 -1.0189602216845735
4872000000.0 0.048927923231978164 -1.0519288001647826
4875000000.0 0.11181711140668363 -1.0577235988765543
4878000000.0 0.03723511522006809 -1.0284280317061782
4881000000.0 0.0007071675499956006 -1.1146133037729544
4884000000.0 0.028040606936764835 -1.0436465329383182
4888000000.0 0.049115616893887305 -1.0167830197737735
4891000000.0 0.04805733612266315 -1.0365598420538151
4894000000.0 -0.003164549033770364 -1.0335442989161452
4897000000.0 0.02972824845766618 -1.0405165274967194
4900000000.0 0.00033422750970662704 -1.0784613772828269
4903000000.0 0.0018931273461818034 -1.061104073673835
4906000000.0 -0.03424314489281013 -1.0438462284936332
4909000000.0 -0.029424477818140282 -1.0348111506212332
4912000000.0 -0.059212362025146084 -1.0495824470842903
4916000000.0 -0.04244499663821822 -1.0443514253756814
4919000000.0 -0.04244947532428536 -1.0676454847501247
4922000000.0 -0.0429019554877194 -1.0496637988899367
4925000000.0 -0.1498046732568566 -1.0237042215359908
4928000000.0 -0.012070800395355907 -1.0293898988192782
4931000000.0 -0.04147673856088434 -1.054598115025343
4934000000.0 -0.09352520693133597 -0.9981842528754843
4938000000.0 -0.15303154070292813 -1.0106377390046721
4941000000.0 -0.10523757956319608 -1.0121293112285914
4944000000.0 -0.08046779960972258 -0.967077359575442
4947000000.0 -0.12517247204044485 -1.0202954186838664
4950000000.0 -0.16082827427286173 -1.0072352303502856
4953000000.0 -0.19508262474139015 -1.0725250974671523
4956000000.0 -0.17434481325137374 -1.007374889879234
4959000000.0 -0.17272210342239666 -0.9755406087717501
4962000000.0 -0.16982555016824744 -1.0351739193583556
4966000000.0 -0.17277403457243484 -1.014540916670993
4969000000.0 -0.18337515125011955 -1.0285519638089153
4972000000.0 -0.23551635827090653 -1.0080672012536247
4975000000.0 -0.20555365809427925 -1.0442957787642497
4978000000.0 -0.20996771062911196 -0.9985571795439857
4981000000.0 -0.24945521334666107 -1.01549797957474
4984000000.0 -0.23085662926632836 -1.0109606258182469
4988000000.0 -0.20570647883042192 -1.0338774068513152
4991000000.0 -0.1910588049114713 -1.0448600931101875
4994000000.0 -0.23550041594010057 -1.0057107623296764
4997000000.0 -0.28886350558319823 -1.0151368816329218
5000000000.0 -0.2777095823797443 -1.0320679575857865
5003000000.0 -0.29280410468549084 -1.026838141572078
5006000000.0 -0.3148989588301747 -1.0280228586315967
5009000000.0 -0.27729464914648083 -0.9686543539231616
5012000000.0 -0.3128798561032609 -0.9811598888480835
5016000000.0 -0.2644623142794557 -1.042596446728217
5019000000.0 -0.345203522864176 -0.9883950000032786
5022000000.0 -0.33337872244013256 -0.9951202843981135
5025000000.0 -0.3758851923796474 -1.0593871788208447
5028000000.0 -0.3825299132576204 -0.9819161456093823
5031000000.0 -0.37836545139140054 -0.9689356198928533
5034000000.0 -0.3982077588819223 -0.9857317500329503
5038000000.0 -0.39760465828280755 -0.9483387819230704
5041000000.0 -0.35485141657759656 -1.0154032443456424
5044000000.0 -0.30860443383527014 -0.9954090901704123
5047000000.0 -0.39607832961692774 -0.9666953898162661
5050000000.0 -0.3189568424348055 -1.0017085344670902
5053000000.0 -0.4437365748986415 -0.996253884025335
5056000000.0 -0.36957742584085473 -1.0036868970346662
5059000000.0 -0.3621704013037836 -0.9422819889935256
5062000000.0 -0.44629202741036955 -0.955215598007868
5066000000.0 -0.4183258425678926 -0.9537937741665838
5069000000.0 -0.4150348676376451 -0.9399873516766261
5072000000.0 -0.43877877302272383 -0.9270245191536308
5075000000.0 -0.43018120243383395 -0.9592414496791597
5078000000.0 -0.4793116074696832 -0.9106420378273727
5081000000.0 -0.4968541414937952 -0.8937183847150006
5084000000.0 -0.5128686500752054 -0.9901958350784688
5088000000.0 -0.4589534722931665 -0.9288743885344837
5091000000.0 -0.5343608880990409 -0.8881526004260016
5094000000.0 -0.49535571916232973 -0.9341709368387977
5097000000.0 -0.48661235168558314 -0.9431144087587637
5100000000.0 -0.49909692537447575 -0.8777253420345067
5103000000.0 -0.5484986278647486 -0.9381963219079198
5106000000.0 -0.56356312994033 -0.9877351067740407
5109000000.0 -0.4821126151856893 -0.9398145228287742
5112000000.0 -0.5006838988215452 -0.8461862905173094
5116000000.0 -0.5127134446231434 -0.8465020501426179
5119000000.0 -0.5683456150788962 -0.8859335365812291
5122000000.0 -0.5237195962681227 -0.8908859775922118
5125000000.0 -0.5855963127072195 -0.9087749381163237
5128000000.0 -0.5687325675939857 -0.8497746808087727
5131000000.0 -0.563706951834435 -0.86245664301303
5134000000.0 -0.5520412234079145 -0.875530088812529
5138000000.0 -0.5576680099303616 -0.873749565935787
5141000000.0 -0.533488282277722 -0.8513706078907826
5144000000.0 -0.6001735881702934 -0.8557045259753183
5147000000.0 -0.6379313116607425 -0.8703652492616649
5150000000.0 -0.6233997522070427 -0.8487774216651196
5153000000.0 -0.6278297857454718 -0.8429735343245096
5156000000.0 -0.6492303886717603 -0.8363535813800799
5159000000.0 -0.6688088791316804 -0.8268339229572155
5162000000.0 -0.6787156710086003 -0.7849800903250428
5166000000.0 -0.6582555696558396 -0.8162711225324264
5169000000.0 -0.6839204588804106 -0.7745482772457707
5172000000.0 -0.6371992206999739 -0.8196337170903225
5175000000.0 -0.6912547992470273 -0.8723325908120414
5178000000.0 -0.7117587459727259 -0.7806312756252166
5181000000.0 -0.7136077326850283 -0.7934022861149873
5184000000.0 -0.7101944940015431 -0.7755359547757525
5188000000.0 -0.7007658723211106 -0.811650144249617
