! Created with skrf 1.8.0 (http://scikit-rf.org).
# Hz S RI R 50.0 
!freq ReS11 ImS11
4000000000.0 0.6306900029182655 0.8225785222237301
4003000000.0 0.6580692251796624 0.8352779694070358
4006000000.0 0.646214527106351 0.8184026911885989
4009000000.0 0.653984860513707 0.8216593663955823
4012000000.0 0.6671597589702541 0.8756098137844054
4016000000.0 0.6950477138145195 0.7808690779402399
4019000000.0 0.6850056988352411 0.7867624823784496
4022000000.0 0.6309821212667517 0.825281162219767
4025000000.0 0.7117185789380759 0.7601860725936598
4028000000.0 0.7156806552284972 0.7648553436647731
4031000000.0 0.6921935228371184 0.7155394169966517
4034000000.0 0.7309891554937104 0.7512384681124923
4038000000.0 0.7466292372499332 0.7490583047129192
4041000000.0 0.6991780821400705 0.7416418459281129
4044000000.0 0.7650102216576234 0.829905249769874
4047000000.0 0.7726442960875094 0.7582886449586611
4050000000.0 0.7882299051927959 0.6755837332646476
4053000000.0 0.7723933406969569 0.6584201124224824
4056000000.0 0.7505519205045849 0.7284485487390053
4059000000.0 0.6938774224114749 0.6918509543812446
4062000000.0 0.7832720550678843 0.6634653807223263
4066000000.0 0.7381030419610479 0.6540742548165679
4069000000.0 0.8097661501603632 0.6981276585872508
4072000000.0 0.7103223531152505 0.719071843704941
4075000000.0 0.7980657668928086 0.7033734249944312
4078000000.0 0.8042804120664641 0.6463777181306171
4081000000.0 0.7485791427395958 0.7010216862276769
4084000000.0 0.8229528000384297 0.6408516804564093
4088000000.0 0.7643016518337198 0.6746444821570972
4091000000.0 0.8681813510346078 0.6807068605450202
4094000000.0 0.7937613962752719 0.6547877173842043
4097000000.0 0.841497225517147 0.6387061259122282
4100000000.0 0.8479813202180908 0.591317789708647
4103000000.0 0.8527049343977369 0.6716245102375686
4106000000.0 0.8518849028022399 0.6474378750364046
4109000000.0 0.8462944318086107 0.585878526871012
4112000000.0 0.8433099804974835 0.5971514330119161
4116000000.0 0.8281887464063783 0.6312540890391564
4119000000.0 0.8801959259187391 0.5166187226260176
4122000000.0 0.8939828781804776 0.5307942487292766
4125000000.0 0.9161816893226993 0.5782591467457607
4128000000.0 0.8324334278081024 0.5306864105473664
4131000000.0 0.8435829097868968 0.5539224030935985
4134000000.0 0.8688063333813815 0.5596254180021106
4138000000.0 0.8977788050050164 0.5297251177779678
4141000000.0 0.8752821034766625 0.5017307447377652
4144000000.0 0.8985606501077827 0.5485078620630544
4147000000.0 0.8781000588040708 0.5183042812046579
4150000000.0 0.9195167915504981 0.5257097015904801
4153000000.0 0.9026055319199277 0.4826256481249883
4156000000.0 0.9032989980994102 0.5257433803019086
4159000000.0 0.8850092500769744 0.5110834572271881
4162000000.0 0.9200336519746364 0.4680606931166722
4166000000.0 0.9150258789516446 0.44966115021748454
4169000000.0 0.9329308532241009 0.439728832276151
4172000000.0 0.9424974053658 0.45176977552678815
4175000000.0 0.9561181833595507 0.4250929732809297
4178000000.0 0.940569635025968 0.4682494980948235
4181000000.0 0.9480003558606971 0.42845800129171885
4184000000.0 0.9443155886428795 0.3953282637922176
4188000000.0 0.9141139945622703 0.3899384537363285
4191000000.0 0.9380617176884486 0.4278543677111582
4194000000.0 0.9427494367536201 0.39558097384751734
4197000000.0 0.9531928352793406 0.3822572735085165
4200000000.0 0.9231456196536107 0.4068185676102539
4203000000.0 0.9462565986609534 0.39348605297888073
4206000000.0 0.9579207038305971 0.3638407383497562
4209000000.0 0.95764817222478 0.34534518259831243
4212000000.0 0.976133217511863 0.32627245218946954
4216000000.0 0.9728834587516808 0.35717100496939264
4219000000.0 0.9776074640024338 0.33876420302626264
4222000000.0 0.9825963371602009 0.30654958464850296
4225000000.0 0.9508091675967194 0.306138229929353
4228000000.0 0.9944608549794844 0.3058100782112063
4231000000.0 0.9865355244889435 0.30138956414827683
4234000000.0 0.9954266028253332 0.28949950654141104
4238000000.0 0.9848922120429583 0.27756323685817175
4241000000.0 0.9840421702549753 0.2562609935483222
4244000000.0 0.9914725420484539 0.2529400489574106
4247000000.0 0.9862534081817795 0.27809918358867114
4250000000.0 0.9811021881441058 0.23327007642919345
4253000000.0 0.9664873039179311 0.21112247188280875
4256000000.0 1.0155877750013107 0.2295322358720846
4259000000.0 0.9664501649402172 0.2203574224920085
4262000000.0 0.9972598610895225 0.21227113820497165
4266000000.0 1.0219450311841158 0.18521728598708248
4269000000.0 1.002288143549586 0.23467641127793612
4272000000.0 1.00779877920024 0.17903593543754626
4275000000.0 1.003358273479165 0.170333290871023
4278000000.0 1.0128934633186575 0.1820855990439812
4281000000.0 1.0077823473576364 0.16534464129837922
4284000000.0 1.0283841633809145 0.12741206070803507
4288000000.0 0.9929779768627999 0.16743224075077331
4291000000.0 0.981912023497354 0.13818693479604444
4294000000.0 1.0104721786571722 0.1332771349563201
4297000000.0 1.010099950670676 0.164300640356417
4300000000.0 0.9903185627893429 0.12900925443413502
4303000000.0 0.9887561339200828 0.09809793901651055
4306000000.0 1.0181894898118857 0.11749844255890471
4309000000.0 0.999465141924036 0.0992876466354211
4312000000.0 1.0227726695807087 0.1354586587908268
4316000000.0 1.054738039562884 0.10463184431322035
4319000000.0 1.0190270218410555 0.07486890943637746
4322000000.0 0.9995048472258068 0.046644921498637124
4325000000.0 1.011571005489062 0.07022298245575433
4328000000.0 1.002091608903954 0.0447487413071032
4331000000.0 1.018973970881336 -0.026156821657499774
4334000000.0 1.0250263801337236 0.02598101104964673
4338000000.0 1.0190383149007074 0.026529092442795874
4341000000.0 1.0459054757094457 0.057630084873976
4344000000.0 1.0526110439449017 0.026334475144371927
4347000000.0 1.0328233915410907 -0.056076152742085925
4350000000.0 0.9748843849821679 -0.048053535359669566
4353000000.0 0.9954418758000596 0.000642946885226009
4356000000.0 0.9943725679990096 -0.08210750426288448
4359000000.0 0.9635633730792159 -0.05396979026169933
4362000000.0 1.0173466979293382 -0.10797680330947583
4366000000.0 1.0377487311454656 -0.07084090867576417
4369000000.0 0.9807168260923391 -0.07667238491902452
4372000000.0 0.9926338089522364 -0.14541916410888633
4375000000.0 1.0103705332448711 -0.0654579941588162
4378000000.0 0.9718305104480092 -0.08556921512609499
4381000000.0 0.9984477604147186 -0.10883351882704682
4384000000.0 1.078853708427598 -0.14071608596972304
4388000000.0 0.9895568260985219 -0.10818962985774305
4391000000.0 1.017904529909624 -0.13748260706506904
4394000000.0 0.9592885469407445 -0.14669221039985209
4397000000.0 0.9979253450416474 -0.1735331803524578
4400000000.0 1.0110486318719092 -0.18070474652792157
4403000000.0 1.0109574043872165 -0.16372888869337635
4406000000.0 0.9934661726141789 -0.20720105675206382
4409000000.0 1.0270518335551804 -0.20386116450766667
4412000000.0 0.9774175386571786 -0.25380463546798354
4416000000.0 0.974646698442611 -0.2212631828041283
4419000000.0 0.9748366982424918 -0.23260769259037453
4422000000.0 0.9792368481359015 -0.2020358965328429
4425000000.0 1.003649024776182 -0.21162398643340613
4428000000.0 0.9771527669512862 -0.2518985869206848
4431000000.0 1.0122760738292587 -0.2537620202004972
4434000000.0 0.9716758279269254 -0.265840591679694
4438000000.0 1.0019775274812976 -0.27015317079441875
4441000000.0 0.9914291418496932 -0.26256301441015106
4444000000.0 0.9563671412982244 -0.2730205482320634
4447000000.0 0.9507746861484495 -0.30966782450998837
4450000000.0 0.9503416108662944 -0.28953511777196345
4453000000.0 0.9860613807375539 -0.309712813623582
4456000000.0 0.9398575701407427 -0.32075260257985383
4459000000.0 0.9054133458169444 -0.3290852123156297
4462000000.0 1.0090449782078101 -0.36623348972722913
4466000000.0 0.989572880880717 -0.3651003477124277
4469000000.0 0.9714937080472338 -0.33324974279708514
4472000000.0 0.9669612742566415 -0.3886094169098509
4475000000.0 0.9295131317616198 -0.3395906159074238
4478000000.0 0.9754001811247415 -0.41383388475308436
4481000000.0 0.9181360368685832 -0.3807955726964787
4484000000.0 0.912610315748954 -0.4411305323529898
4488000000.0 0.9172960130071065 -0.41999716197330744
4491000000.0 0.9213741381113136 -0.4201896326259977
4494000000.0 0.921718047743059 -0.4088812441496808
4497000000.0 0.9024399036722734 -0.42015420805175135
4500000000.0 0.9185610975695864 -0.42501983447339164
4503000000.0 0.9309510308906459 -0.455355740634949
4506000000.0 0.905345311438746 -0.4350978574408963
4509000000.0 0.8911361810506164 -0.4694132341801712
4512000000.0 0.8857214876880459 -0.4698137588484108
4516000000.0 0.9228519285472128 -0.47616802925929835
4519000000.0 0.8780368225453612 -0.45580970595688847
4522000000.0 0.8646013883779677 -0.49303857867664014
4525000000.0 0.8982338171667843 -0.46784192250623496
4528000000.0 0.8880064450425034 -0.5079469411920102
4531000000.0 0.8733185403111531 -0.4794338835333294
4534000000.0 0.8549618495409734 -0.5260362857916129
4538000000.0 0.8557042807916868 -0.5394479868830971
4541000000.0 0.8348090300075574 -0.5685700454005226
4544000000.0 0.8480533371151815 -0.5316763711679637
4547000000.0 0.8496153663923528 -0.5551882652651103
4550000000.0 0.8295847918439414 -0.5743243260365823
4553000000.0 0.8267232363912027 -0.5620758627815803
4556000000.0 0.8099566219384107 -0.5698986044603698
4559000000.0 0.8299362100115807 -0.5939796640532404
4562000000.0 0.8212189845479001 -0.5796018626750337
4566000000.0 0.8306281341422987 -0.6220430383336777
4569000000.0 0.8137025532513779 -0.6061642263630531
4572000000.0 0.7991164794893698 -0.6027865773071144
4575000000.0 0.7941639111915826 -0.6307719682375366
4578000000.0 0.829875218873874 -0.6273514590722071
4581000000.0 0.7848605977733843 -0.6565874117168371
4584000000.0 0.7950999631277983 -0.653537255084629
4588000000.0 0.7750349690008316 -0.64561506302133
4591000000.0 0.7833060202627904 -0.6562004149319077
4594000000.0 0.7484262164599157 -0.690128832886687
4597000000.0 0.7648783494597595 -0.667010092004664
4600000000.0 0.719912713918577 -0.6912271253315355
4603000000.0 0.7561333486123933 -0.7059354277803336
4606000000.0 0.7575660678450061 -0.7007349025060753
4609000000.0 0.7352184948463437 -0.6851347252994999
4612000000.0 0.733867375769886 -0.708475784164645
4616000000.0 0.7134134820380276 -0.6910932262259931
4619000000.0 0.7222878573695041 -0.7116645393706681
4622000000.0 0.6983668014180413 -0.7091885188699227
4625000000.0 0.6736062656808963 -0.7195441042565511
4628000000.0 0.700492340744351 -0.7182245046324574
4631000000.0 0.6775219658107214 -0.73920377045029
4634000000.0 0.6736526166086939 -0.7471134839994333
4638000000.0 0.6742554584760367 -0.7571406701465949
4641000000.0 0.6900343387587619 -0.7590553593689144
4644000000.0 0.6676689779096763 -0.7573066800550764
4647000000.0 0.6624776685310485 -0.7862238880185999
4650000000.0 0.6464026829252266 -0.7863052944093116
4653000000.0 0.6656208098740489 -0.7820148375196284
4656000000.0 0.624261850135226 -0.8006533778598401
4659000000.0 0.6267886867487381 -0.7905732076453886
4662000000.0 0.6328467258994817 -0.7900082117956234
4666000000.0 0.6014342777440403 -0.8226604951852795
4669000000.0 0.6205673047864935 -0.801074180149302
4672000000.0 0.6154626464213677 -0.8463228149365178
4675000000.0 0.5871627717395949 -0.8506544515208357
4678000000.0 0.5851694597693406 -0.8177676605117155
4681000000.0 0.5647465142380714 -0.8585054297500218
4684000000.0 0.5367161108524154 -0.8426664076878141
4688000000.0 0.5471343605914851 -0.8644164121103766
4691000000.0 0.5773179472406749 -0.8482410402906579
4694000000.0 0.5699532540179065 -0.8464940107285144
4697000000.0 0.5068934643751808 -0.8391876978833126
4700000000.0 0.5413290505959671 -0.8559876778827269
4703000000.0 0.5456868980312317 -0.8198284807240226
4706000000.0 0.5072284811811112 -0.8781497492754907
4709000000.0 0.49431799027991224 -0.883048353683944
4712000000.0 0.5155725769079562 -0.8993611524786921
4716000000.0 0.4865607569669086 -0.9143459947958883
4719000000.0 0.5358113744639899 -0.9117669482087424
4722000000.0 0.5125723491562914 -0.882456971971985
4725000000.0 0.49031788263130494 -0.8571748386930006
4728000000.0 0.43624092375017126 -0.8864338671123488
4731000000.0 0.4597008486327918 -0.8828324791962661
4734000000.0 0.46527504133139413 -0.8857356718997159
4738000000.0 0.4814006458860425 -0.9243110819258996
4741000000.0 0.4261886038581806 -0.9253638732023794
4744000000.0 0.4049213964094456 -0.9452900163241647
4747000000.0 0.4281803114948556 -0.8821476858201697
4750000000.0 0.44379626374548575 -0.9323426554618409
4753000000.0 0.39605542094375035 -0.9549143878727077
4756000000.0 0.4051706512224232 -0.9711875000153047
4759000000.0 0.4254123540097383 -0.9434379169921665
4762000000.0 0.3736794949798166 -0.9823488084006812
4766000000.0 0.3765870241468063 -0.9111571530433084
4769000000.0 0.4055929261143525 -0.9858355058966933
4772000000.0 0.3523679309167401 -0.957418762954034
4775000000.0 0.36429613148217144 -1.0168804294296492
4778000000.0 0.3515117324058355 -0.9707153873192261
4781000000.0 0.34512242058087844 -0.9744053907833634
4784000000.0 0.3452961646092788 -0.9265783296980438
4788000000.0 0.3307993123511452 -0.9705385423553268
4791000000.0 0.3145198809949137 -0.944697215471121
4794000000.0 0.3465865588879522 -0.9944423687110995
4797000000.0 0.2824122242381226 -0.972358149084294
4800000000.0 0.27812570620148486 -0.9585997093654415
4803000000.0 0.24349761227650935 -0.9674984744821244
4806000000.0 0.27053445796488906 -0.9962775887418218
4809000000.0 0.2232796576579699 -0.9779464320535497
4812000000.0 0.23252944801762715 -0.9817930750721702
4816000000.0 0.25649474026159363 -0.9862044528474243
4819000000.0 0.24955883129915887 -0.9927338448096095
4822000000.0 0.2370780719271786 -1.0115677282467788
4825000000.0 0.2596234615884476 -1.0144929179764914
4828000000.0 0.20455854492497272 -0.9841710937920535
4831000000.0 0.17026354146382283 -1.0247850293190375
4834000000.0 0.21241094700292795 -1.0065210865142977
4838000000.0 0.16807309709943496 -1.040419795889234
4841000000.0 0.16803817816921526 -1.0317219316534758
4844000000.0 0.18466060834908737 -1.0330227468685038
4847000000.0 0.1766099185567107 -0.9796480428343719
4850000000.0 0.1479547827968638 -1.0347577240473766
4853000000.0 0.16703899173412162 -1.0023466465395248
4856000000.0 0.15722069911483633 -1.0070910988979471
4859000000.0 0.12026584267368837 -1.0439580445184977
4862000000.0 0.14104928734406416 -1.0072269861152436
4866000000.0 0.08427747347478921 -1.0393634447790938
4869000000.0 0.08077862353764913 -1.0146089425905793
4872000000.0 0.06592012091218505 -1.0537531842893852
4875000000.0 0.15215610301068583 -1.0694620580368501
4878000000.0 0.07126982958638967 -1.0204597203369759
4881000000.0 0.02534502678966532 -1.094728871235899
4884000000.0 0.05000286204080557 -1.0270218984780017
4888000000.0 0.06807954228350055 -1.0299535006916027
4891000000.0 0.06408962592359346 -1.0432086674806584
4894000000.0 0.01030440952072473 -1.0235067861296794
4897000000.0 0.0747100675855064 -1.0423393384576716
4900000000.0 0.03208214573066538 -1.0461519450436267
4903000000.0 0.04375953388815702 -1.0654097552604183
4906000000.0 -0.006675564627349719 -1.0404941799066647
4909000000.0 -0.016600116469386174 -1.0308586254278789
4912000000.0 0.036914615560587234 -1.066392287872931
4916000000.0 -0.0003257098228817354 -1.0334961561415874
4919000000.0 0.01544950296097549 -1.0703715489672354
4922000000.0 -0.013492479557782641 -1.0564339778270257
4925000000.0 -0.07828256996618152 -1.0185184762308066
4928000000.0 0.0074097279799724275 -1.019920238007906
4931000000.0 -0.02215942695895319 -1.034309747315965
4934000000.0 -0.05774785226703773 -0.9737089660513837
4938000000.0 -0.11787921255822055 -1.0475290660991252
4941000000.0 -0.07123145054928999 -1.0058340225699536
4944000000.0 -0.06362181764922772 -0.9842862865145781
4947000000.0 -0.0791507276191433 -1.0020342968613056
4950000000.0 -0.11530839365581196 -0.9987550308512697
4953000000.0 -0.16590524054937067 -1.0557814692071874
4956000000.0 -0.1362056373075518 -1.0073868110022484
4959000000.0 -0.17429232036798623 -1.0230955060051994
4962000000.0 -0.1300902393299592 -1.0313890154352736
4966000000.0 -0.12256289245404156 -1.0418904460187381
4969000000.0 -0.13112934886802768 -1.062504239937429
4972000000.0 -0.19581496952035574 -1.0443746982369906
4975000000.0 -0.14406598866369738 -0.9959923411623371
4978000000.0 -0.20183556108364953 -1.0162536742341688
4981000000.0 -0.21460660950647134 -1.0045285359450717
4984000000.0 -0.20105904479199746 -0.9924946377515013
4988000000.0 -0.18639346282609232 -0.9769997704523239
4991000000.0 -0.14806114029553902 -1.044331731993894
4994000000.0 -0.2297714128799465 -0.9902345453687851
4997000000.0 -0.25417122838924733 -1.0026343896496943
5000000000.0 -0.2650078352227656 -1.0646406994962432
5003000000.0 -0.22056168910499008 -1.0408215539798182
5006000000.0 -0.30653331340939916 -1.0741650418513922
5009000000.0 -0.2612250862721469 -1.026909870799057
5012000000.0 -0.2742528216996269 -0.9820578744361146
5016000000.0 -0.2520944440820321 -1.0385120533804515
5019000000.0 -0.29186656746591966 -0.9930564194622948
5022000000.0 -0.304816099999624 -0.9882413613847059
5025000000.0 -0.35591894005819763 -1.0468029995843076
5028000000.0 -0.3167713130763705 -1.01164246688458
5031000000.0 -0.3242572811310781 -0.9496894997919113
5034000000.0 -0.3676809576523816 -0.9746619084029544
5038000000.0 -0.3401238875301028 -0.949220220749319
5041000000.0 -0.33426605885195637 -1.009652256891318
5044000000.0 -0.32541723071969897 -0.9461965424540842
5047000000.0 -0.33926459589218366 -0.9737903810915735
5050000000.0 -0.30345497024864987 -0.9588253734362262
5053000000.0 -0.43035386716766055 -0.9996958794395003
5056000000.0 -0.2966016169761778 -0.9660844332225775
5059000000.0 -0.33103124750883556 -0.9974772586592365
5062000000.0 -0.416648957891404 -0.9398448168760982
5066000000.0 -0.36550609026129455 -0.9599425412825644
5069000000.0 -0.4359531000298381 -0.9659883744132772
5072000000.0 -0.42081197170838613 -0.9146887944003355
5075000000.0 -0.37445784388104375 -0.9482657321859085
5078000000.0 -0.42485318261122546 -0.9416647518836647
5081000000.0 -0.4329083937196065 -0.9146837247637282
5084000000.0 -0.4375380819899498 -0.9582486710755984
5088000000.0 -0.42058602049211335 -0.9618952138768875
5091000000.0 -0.5149706325868699 -0.936138901129689
5094000000.0 -0.44571809652366184 -0.8932830486084621
5097000000.0 -0.44073842005109964 -0.9534274731793968
5100000000.0 -0.4880098852654428 -0.931543855896437
5103000000.0 -0.5062998092062547 -0.9301681393684117
5106000000.0 -0.5057607211239996 -0.9763275458115801
5109000000.0 -0.43596300898278706 -0.9542086466025315
5112000000.0 -0.5008145810605317 -0.8848793911511419
5116000000.0 -0.4832391540214003 -0.8649860279044082
5119000000.0 -0.5501411392452761 -0.8849828345786221
5122000000.0 -0.5041029789197389 -0.8846115085515578
5125000000.0 -0.5113788693678736 -0.9076509232234676
5128000000.0 -0.5701229997838467 -0.8770635222929111
5131000000.0 -0.5368356164270552 -0.8640496274909699
5134000000.0 -0.5369509361790215 -0.8760618862950325
5138000000.0 -0.5474948076346771 -0.8600645282832369
5141000000.0 -0.5384475283596872 -0.9107818959578491
5144000000.0 -0.5313447732900478 -0.8655731207212601
5147000000.0 -0.5997220059945259 -0.879284220228319
5150000000.0 -0.5679313253714431 -0.8971916669411276
5153000000.0 -0.5725485839503182 -0.8365999948405592
5156000000.0 -0.6237263877527878 -0.8700290363254624
5159000000.0 -0.5910954286061751 -0.889688414702181
5162000000.0 -0.6303507955200534 -0.8007631826128814
5166000000.0 -0.650797501780934 -0.8387719548093006
5169000000.0 -0.6114165736783458 -0.8221972426412794
5172000000.0 -0.5816798301938373 -0.7890828655387921
5175000000.0 -0.6721538287680486 -0.8082120560502318
5178000000.0 -0.6706486142988888 -0.820395735783655
5181000000.0 -0.6913407118655104 -0.8332545275256357
5184000000.0 -0.6882548574846967 -0.8148997041141999
5188000000.0 -0.60421189748871 -0.828226463389643
