! Created with skrf 1.8.0 (http://scikit-rf.org).
# Hz S RI R 50.0 
!freq ReS11 ImS11
4000000000.0 0.7908378724274301 0.6063337260772941
4003000000.0 0.8185647717746211 0.6680547454702713
4006000000.0 0.8466135287802782 0.5993646728552097
4009000000.0 0.8578470286123047 0.6055607046141933
4012000000.0 0.8376458810771844 0.6516060341752274
4016000000.0 0.8582982530182907 0.5642434936869607
4019000000.0 0.8095874189724634 0.5720789955971417
4022000000.0 0.8606871033460216 0.6447258767052193
4025000000.0 0.9153423837714664 0.5165251805571521
4028000000.0 0.8657706387047375 0.5224022990904404
4031000000.0 0.8389833654463134 0.5394246411703836
4034000000.0 0.9041034094900156 0.5034574588474244
4038000000.0 0.902725725977418 0.4910921171609436
4041000000.0 0.8809111415227815 0.49403660742835487
4044000000.0 0.9307794801665226 0.5482142465000681
4047000000.0 0.9045462607093656 0.5600562897507412
4050000000.0 0.9178427773487347 0.4863103830352856
4053000000.0 0.9011943754052558 0.44630889359362164
4056000000.0 0.9096393777727558 0.4852021731530288
4059000000.0 0.9020631121619489 0.467106441277168
4062000000.0 0.946835376208908 0.43857893159172207
4066000000.0 0.919088853107461 0.4082640543401861
4069000000.0 0.968755420051544 0.40595760394214764
4072000000.0 0.9321499523697844 0.4466803926647112
4075000000.0 0.9421856035661337 0.45541382746063713
4078000000.0 0.9137558580969838 0.4227122754375868
4081000000.0 0.8956615126952759 0.409671950246587
4084000000.0 0.9725920426683882 0.41365501387833964
4088000000.0 0.9433936892079934 0.42743085229083144
4091000000.0 0.9758894844149913 0.39021109145267524
4094000000.0 0.9547427415904245 0.38262299007881784
4097000000.0 0.9790239270275152 0.3358896796344197
4100000000.0 0.9880888445720015 0.3809144861783667
4103000000.0 1.0079166222465876 0.35505394999470336
4106000000.0 0.993153695149554 0.33137929300622304
4109000000.0 1.0155331039090751 0.310818612105852
4112000000.0 0.9997178513195233 0.30760354529385275
4116000000.0 0.9918205214418091 0.30516507441410035
4119000000.0 1.0096297740305036 0.30611458252675827
4122000000.0 0.9748920378863469 0.2645435699262143
4125000000.0 0.9933319623335916 0.2652979100727793
4128000000.0 0.9674032779030449 0.2771656191398938
4131000000.0 0.9861608079019598 0.2359453474981934
4134000000.0 0.9861027627248384 0.256549037348455
4138000000.0 0.9708912208751501 0.22397463358124675
4141000000.0 0.9729405051295994 0.21239775525689664
4144000000.0 1.024792008808208 0.2527269557158475
4147000000.0 1.0185526567789873 0.19431151810440422
4150000000.0 1.0444456095400936 0.17896840300674327
4153000000.0 0.9997053224242106 0.1774917813708815
4156000000.0 1.0236021699764528 0.1608776806398614
4159000000.0 0.9837568488775099 0.13881468662210394
4162000000.0 0.9975562370537243 0.16155951987102823
4166000000.0 1.0567451435489366 0.13302506995596336
4169000000.0 0.9770045507828198 0.12418892750670613
4172000000.0 1.0354190555058223 0.11689910847037455
4175000000.0 1.0282016174730333 0.11325415151026497
4178000000.0 1.017696957287787 0.10847045254881826
4181000000.0 1.0195079041691262 0.07176868078009097
4184000000.0 0.9883963688465128 0.08281997283217218
4188000000.0 0.9929215514692165 0.06155884411393625
4191000000.0 0.9982085795528488 0.0879635057277986
4194000000.0 1.0018777439861482 0.04353898453194782
4197000000.0 1.0297864746735 0.04730307291170427
4200000000.0 1.0304686860325174 0.04598305226688698
4203000000.0 1.038584145081127 0.041480048803542835
4206000000.0 1.035054734508821 0.0351578852418315
4209000000.0 0.99552648237501 0.00048575893495428346
4212000000.0 1.0237054836369872 -0.047595787621228264
4216000000.0 1.034690493973883 0.017712895897144865
4219000000.0 1.0336981608023628 -0.01748009093298361
4222000000.0 1.0142309462159844 -0.029363676479611633
4225000000.0 1.0145764738148182 -0.05198401571421499
4228000000.0 1.0170100910348823 -0.06408237084317023
4231000000.0 1.0093910572887703 -0.08059702543256707
4234000000.0 1.0358147310893777 -0.0914286434839154
4238000000.0 1.00981721015488 -0.12161701197852375
4241000000.0 0.9947427603445687 -0.11680555539426074
4244000000.0 1.0004025425798933 -0.11389589821008372
4247000000.0 0.9887239687550435 -0.11757760350743894
4250000000.0 0.9845904746337759 -0.12236932202331668
4253000000.0 0.9691535585852582 -0.17107260973393149
4256000000.0 1.0389752688183413 -0.16204209867892766
4259000000.0 0.9659491001706582 -0.16787851140836324
4262000000.0 0.9874495724408388 -0.196730741395485
4266000000.0 1.0037091273895966 -0.2285149260228887
4269000000.0 0.9948715161728493 -0.19743104269773193
4272000000.0 1.0015138761956548 -0.19319487759334833
4275000000.0 1.0065886075192552 -0.21778381668682167
4278000000.0 0.9966053973472495 -0.21875919172729436
4281000000.0 1.0062227224214373 -0.22499468156694646
4284000000.0 1.0013384247945458 -0.2885438998797447
4288000000.0 0.9727006484982829 -0.22002940753960654
4291000000.0 0.9534223798204032 -0.26648602727691295
4294000000.0 0.9526861183307012 -0.2860169566363055
4297000000.0 0.9683607697036739 -0.27268577998656696
4300000000.0 0.9519736264590937 -0.2823398201197095
4303000000.0 0.9478048432053885 -0.3302215384924061
4306000000.0 0.9710650246447229 -0.28370307934408245
4309000000.0 0.9554626679156104 -0.3180116999252362
4312000000.0 0.9686404080753362 -0.29028618481379365
4316000000.0 0.9638035392770697 -0.34921412711980815
4319000000.0 0.9219047898220742 -0.3364079877750301
4322000000.0 0.9104508740663672 -0.3862066252262944
4325000000.0 0.9555872260354116 -0.3699209068560398
4328000000.0 0.926705008961127 -0.38989334031297623
4331000000.0 0.9092058913340864 -0.42888409510381265
4334000000.0 0.9301548269209493 -0.39019761304836487
4338000000.0 0.9306668003955125 -0.395333072811014
4341000000.0 0.9409977049240356 -0.41791574453095137
4344000000.0 0.9390274352339908 -0.4418934423213986
4347000000.0 0.9024381236626706 -0.4744769460619185
4350000000.0 0.8827198807979262 -0.4560576664087342
4353000000.0 0.8850703638587216 -0.4324160649673692
4356000000.0 0.8428440861776162 -0.49847848506942927
4359000000.0 0.8384218104601704 -0.47377274084920185
4362000000.0 0.8565589057710059 -0.549493649631834
4366000000.0 0.8889497532023294 -0.5172363007233796
4369000000.0 0.8216146582626404 -0.5095628170636417
4372000000.0 0.8300206065931801 -0.5497911388731834
4375000000.0 0.8582443125379722 -0.5115878877504982
4378000000.0 0.8327516713695802 -0.5363960188429318
4381000000.0 0.8291529575877854 -0.546883466022511
4384000000.0 0.8835688004033453 -0.6202307839471128
4388000000.0 0.8153613858016197 -0.5610974545563087
4391000000.0 0.8289235124989758 -0.6061602485663496
4394000000.0 0.8007253838599804 -0.6011389325130846
4397000000.0 0.8055128577681805 -0.6157955423106297
4400000000.0 0.8097540103089567 -0.6397982805088726
4403000000.0 0.7948931286801247 -0.6410924234470974
4406000000.0 0.7831384314858088 -0.6430058871876176
4409000000.0 0.7928879552237262 -0.6795308590633101
4412000000.0 0.7353762424866789 -0.6857005490007355
4416000000.0 0.7471886947617474 -0.6577955336948585
4419000000.0 0.7300141387802395 -0.6924681158277777
4422000000.0 0.7516386106703972 -0.6726369026658592
4425000000.0 0.7675594291808523 -0.681413763630802
4428000000.0 0.732185280478697 -0.7102018630687785
4431000000.0 0.7385938749087322 -0.7220853307499959
4434000000.0 0.7043973414055261 -0.7151176512074853
4438000000.0 0.7223608434003086 -0.7198476071617785
4441000000.0 0.7028532789221911 -0.7485230663061286
4444000000.0 0.6762238923464006 -0.7286859791557125
4447000000.0 0.6717409348381497 -0.7506490733968731
4450000000.0 0.6614642777438828 -0.7406845631484605
4453000000.0 0.676141020250606 -0.7819976065597709
4456000000.0 0.6439689195041269 -0.7575520135525867
4459000000.0 0.6145013367914625 -0.7613048496215141
4462000000.0 0.658193876256948 -0.8249060478223417
4466000000.0 0.6348563121506066 -0.8314428624467377
4469000000.0 0.6262301084883207 -0.8016757858172718
4472000000.0 0.5988342375823614 -0.8110279304813935
4475000000.0 0.5716773520128517 -0.796882936847524
4478000000.0 0.5918088230939154 -0.8276607452141861
4481000000.0 0.5547851226272694 -0.8069265202209813
4484000000.0 0.5466801916191706 -0.8576773309242013
4488000000.0 0.5601700774010734 -0.8654804472469764
4491000000.0 0.5695981717320322 -0.8443546907855715
4494000000.0 0.5209977541570309 -0.8592197382553812
4497000000.0 0.5331774515298716 -0.8743684624418442
4500000000.0 0.5032914212269483 -0.869680982442586
4503000000.0 0.5174125747877012 -0.8990120025107364
4506000000.0 0.49314301358158386 -0.8789192292351824
4509000000.0 0.4657887481858411 -0.8718533723155699
4512000000.0 0.46899388687266874 -0.89516414755623
4516000000.0 0.46280954348549275 -0.8955877597524532
4519000000.0 0.4448265491982387 -0.8744524106800976
4522000000.0 0.43286676179609285 -0.9185170061204577
4525000000.0 0.4564129306585618 -0.9284125366270667
4528000000.0 0.4105946562751619 -0.9288741650151786
4531000000.0 0.4086732501179243 -0.9460825170679764
4534000000.0 0.3538429801071463 -0.933205759916079
4538000000.0 0.40089995152548646 -0.9326092472453322
4541000000.0 0.34385322460844703 -0.9271732123284558
4544000000.0 0.3617654404093955 -0.9725966709366242
4547000000.0 0.3322000547555217 -0.9456244571660615
4550000000.0 0.31763520278134594 -0.9741700565207473
4553000000.0 0.31638718451621706 -0.9670801710135696
4556000000.0 0.31016006961905984 -0.9671107689344921
4559000000.0 0.3012543677609004 -0.979229428306069
4562000000.0 0.2850235669991312 -0.9912074318463294
4566000000.0 0.27577322597821663 -0.9838469141582453
4569000000.0 0.24471527686124617 -1.0023227295641797
4572000000.0 0.24244947352310983 -0.988050506600845
4575000000.0 0.22387657053294857 -0.999488622542176
4578000000.0 0.22213466036447377 -0.987008178581069
4581000000.0 0.1940818324717614 -0.9752586766605458
4584000000.0 0.18813584684982515 -0.9870992746598122
4588000000.0 0.1798722990313733 -1.0143926214326762
4591000000.0 0.14829102173946346 -1.0062378005925892
4594000000.0 0.13737569664677937 -0.9982603536178941
4597000000.0 0.11924209992937972 -1.0217421602647936
4600000000.0 0.11545600128080563 -1.0264215379751358
4603000000.0 0.08941322527183267 -0.9927005256799415
4606000000.0 0.09314675798011073 -1.052059557055639
4609000000.0 0.10484238627182241 -1.0183703576195071
4612000000.0 0.057378882007695566 -0.9947294282862087
4616000000.0 0.06197092953789644 -1.0106442744144262
4619000000.0 0.022782441487728004 -1.0192821453858145
4622000000.0 -0.01843401234346257 -1.02201620767955
4625000000.0 0.0010205152861390288 -1.0384363883257013
4628000000.0 0.0025554170629087433 -1.0964701894890443
4631000000.0 0.01919840405561462 -1.039634121083778
4634000000.0 -0.05955066740378622 -1.030530524764986
4638000000.0 -0.0408388080929592 -1.0437500278317184
4641000000.0 -0.07750142053018308 -1.0181811626391304
4644000000.0 -0.06776214104412713 -0.9850907387638681
4647000000.0 -0.07629346775815818 -0.9978024218742354
4650000000.0 -0.09981444671366099 -0.9955571163811763
4653000000.0 -0.10775512629631342 -0.9968701117986026
4656000000.0 -0.08166498298720964 -1.0224964344363643
4659000000.0 -0.1692881608251084 -1.035168589222704
4662000000.0 -0.16736504438977157 -1.020640300705774
4666000000.0 -0.23088086213724973 -1.020679894875588
4669000000.0 -0.1851229316086127 -1.0273107293749482
4672000000.0 -0.17255495675818877 -1.0705338404797682
4675000000.0 -0.24335039571474376 -1.0337744468769887
4678000000.0 -0.23730966076835563 -0.9571261106764362
4681000000.0 -0.22772576418047458 -1.0042120953726998
4684000000.0 -0.3120356086010397 -1.041463809986893
4688000000.0 -0.29805511647589955 -0.9367202983343127
4691000000.0 -0.32334984439481507 -1.0205899725203207
4694000000.0 -0.2704588615869029 -1.0014960478462396
4697000000.0 -0.322541841947698 -0.8924010115874603
4700000000.0 -0.33030481594733907 -0.9783463615734138
4703000000.0 -0.25498482284230034 -0.9279408203675732
4706000000.0 -0.4027234295550666 -0.9853121172177329
4709000000.0 -0.41544915629846346 -0.9311862635390494
4712000000.0 -0.38077667190855086 -0.9789407701420113
4716000000.0 -0.4237568743587662 -0.9884254702880808
4719000000.0 -0.3551323728646467 -0.983142814448104
4722000000.0 -0.4042656272884169 -0.9820495179294504
4725000000.0 -0.43038961222525185 -0.9045177499227928
4728000000.0 -0.48425627344961436 -0.9436978536400698
4731000000.0 -0.4928940574520398 -0.9682341157047194
4734000000.0 -0.45453355353541214 -0.8906855453005045
4738000000.0 -0.46022399230091343 -0.9913087516032154
4741000000.0 -0.5428553997874248 -0.9605433308461457
4744000000.0 -0.5678824412535589 -0.8892217905676398
4747000000.0 -0.4819187075355402 -0.874291950647904
4750000000.0 -0.5498768380958028 -0.9099022464580446
4753000000.0 -0.5432165790940443 -0.889001785207345
4756000000.0 -0.5717875347776804 -0.8912359600640776
4759000000.0 -0.6162168082461554 -0.93061388310361
4762000000.0 -0.6462813469518466 -0.8795510910424578
4766000000.0 -0.6134220421522498 -0.8402585366529536
4769000000.0 -0.6353582306519543 -0.806266201289067
4772000000.0 -0.6441420656312499 -0.7975433632192493
4775000000.0 -0.703348647327951 -0.8311250797345349
4778000000.0 -0.7362516810141844 -0.7603954709309618
4781000000.0 -0.6886819222788687 -0.8111402502351744
4784000000.0 -0.6772006569970238 -0.7891733066735819
4788000000.0 -0.7594567102083019 -0.7466056935816052
4791000000.0 -0.7201135152054904 -0.7684389522739667
4794000000.0 -0.7265001087570766 -0.7600815698601706
4797000000.0 -0.7571725135983942 -0.7038770563727941
4800000000.0 -0.7437684675276495 -0.685350954514446
4803000000.0 -0.7944307691654934 -0.6432623006943892
4806000000.0 -0.8142445263777225 -0.6803628775292121
4809000000.0 -0.8538680268760781 -0.6001353190250576
4812000000.0 -0.8259530979212459 -0.6157427409444174
4816000000.0 -0.7689490988892549 -0.6431475455630035
4819000000.0 -0.8562685131978018 -0.6581356578972475
4822000000.0 -0.8435078362523292 -0.6513083204275268
4825000000.0 -0.8708167948744416 -0.6197106638850395
4828000000.0 -0.8983350850992503 -0.5693878193482101
4831000000.0 -0.9061466479893138 -0.5802121904720602
4834000000.0 -0.8854333020361871 -0.5537335198854373
4838000000.0 -0.9334166777024936 -0.5128102069791829
4841000000.0 -0.9180320128164623 -0.4715257788481989
4844000000.0 -0.911555379086668 -0.5242063656063803
4847000000.0 -0.9117318504936944 -0.4977827447149521
4850000000.0 -0.9857117872043286 -0.456658477988154
4853000000.0 -0.9045808874652497 -0.4355102839375585
4856000000.0 -0.913222751866035 -0.4148576570207433
4859000000.0 -1.018150475378526 -0.3649793643635984
4862000000.0 -0.9503669520019916 -0.3999899657651881
4866000000.0 -1.0142778342180616 -0.3426353322757423
4869000000.0 -0.9654978610041455 -0.36610250596115546
4872000000.0 -0.9848106793313669 -0.32523100535590566
4875000000.0 -1.0229451875375493 -0.34445778888390216
4878000000.0 -0.9771468271753129 -0.2762360637407785
4881000000.0 -1.0310008657402236 -0.2624058925091018
4884000000.0 -1.0705314586617096 -0.24414557048998314
4888000000.0 -0.9899383927935422 -0.2587553381087511
4891000000.0 -1.0364033842310278 -0.20276874132553965
4894000000.0 -0.9718212690831094 -0.20474111532224323
4897000000.0 -1.0245751965529053 -0.16696680931010338
4900000000.0 -1.0533368742166178 -0.16197600093608258
4903000000.0 -1.0481353062364873 -0.09390740227740588
4906000000.0 -1.0369652014320245 -0.1054209876648949
4909000000.0 -1.0192322916105505 -0.09485319602416654
4912000000.0 -1.0049593799633258 -0.029721866947277766
4916000000.0 -1.0490106098410479 -0.005284629295033559
4919000000.0 -1.0283186742871857 0.01258996174372938
4922000000.0 -1.0377035040273193 -0.008685890037526414
4925000000.0 -1.0562526297096388 0.08212821812686033
4928000000.0 -1.0699545869674558 0.08248165422949845
4931000000.0 -1.0349161034850403 0.1344914736709983
4934000000.0 -1.0558126011749125 0.11455040072882552
4938000000.0 -1.0513120147680803 0.16718305571523273
4941000000.0 -0.9987324819420235 0.18550027471004382
4944000000.0 -1.0104337855492178 0.1940447687234223
4947000000.0 -1.0229555350440311 0.20873388358052564
4950000000.0 -1.0289433898017444 0.23485820420401085
4953000000.0 -0.9752116284149579 0.2567303594217985
4956000000.0 -1.010449571678868 0.3301417385697908
4959000000.0 -0.9556170881953272 0.31518895158311594
4962000000.0 -0.9616089560997733 0.37124630202102327
4966000000.0 -0.9506502513876351 0.36212488570184687
4969000000.0 -0.9203687191540669 0.39971273418789655
4972000000.0 -0.9077362251879079 0.3927782983866295
4975000000.0 -0.9401979520045569 0.4936710161177879
4978000000.0 -0.9209919129252107 0.48651316557107066
4981000000.0 -0.8866635076457047 0.4950097801988798
4984000000.0 -0.8616398680696205 0.5806812586771626
4988000000.0 -0.8867329559207955 0.5767147827113439
4991000000.0 -0.8450152022054149 0.6304025451689913
4994000000.0 -0.8160367134010518 0.5925349496288235
4997000000.0 -0.8036246520901476 0.6219375017429203
5000000000.0 -0.7602668049031038 0.6359717845320387
5003000000.0 -0.7498425604210706 0.6764612575850236
5006000000.0 -0.7218989512200861 0.6630572787778527
5009000000.0 -0.7179025527937739 0.7689761210307716
5012000000.0 -0.7143647983556745 0.7878275902806773
5016000000.0 -0.6977375474529055 0.7805732925804286
5019000000.0 -0.6895079508018015 0.7776448803776593
5022000000.0 -0.6298090393357763 0.7978047568307434
5025000000.0 -0.5963072291353746 0.7873370016070065
5028000000.0 -0.5977931861508893 0.8111070351882359
5031000000.0 -0.564382265633725 0.876685012705724
5034000000.0 -0.5581510991337177 0.8480666327292921
5038000000.0 -0.5115271294554802 0.8862568834683088
5041000000.0 -0.4752007638077167 0.9096458309698487
5044000000.0 -0.442370788831267 0.8862361954420225
5047000000.0 -0.3548829333673243 0.9556649534729289
5050000000.0 -0.36221849233467984 0.9713446787306623
5053000000.0 -0.31688025861528546 0.9192038773722158
5056000000.0 -0.26106117227042347 0.9530899844830898
5059000000.0 -0.2096025747657867 0.9776300629494887
5062000000.0 -0.24404397930260835 1.0057394808332245
5066000000.0 -0.1704993181167044 1.029935074672041
5069000000.0 -0.20059350217268695 1.017522259336372
5072000000.0 -0.20452408625639434 1.076232324460236
5075000000.0 -0.098490865422422 0.9758670352939267
5078000000.0 -0.08600376321986192 1.0335747121839942
5081000000.0 -0.01623302682041579 1.0422704118066957
5084000000.0 0.04036927315456992 0.9305129904639078
5088000000.0 0.08406718488105647 1.048782490935516
5091000000.0 0.10475678190113606 0.952608109942453
5094000000.0 0.1419111045246399 0.964288092053891
5097000000.0 0.1764967249713643 0.9365583904889705
5100000000.0 0.2006924992982908 0.9972211716068189
5103000000.0 0.23697418683310217 1.0034758131599455
5106000000.0 0.2688252508669736 0.9195063855294868
5109000000.0 0.30374928626429865 0.9415872616640849
5112000000.0 0.3650467239725347 0.9628583542329041
5116000000.0 0.36365302071100186 0.9731471358103758
5119000000.0 0.44895055649286536 0.8868833058467525
5122000000.0 0.4749987776959543 0.8629920070656794
5125000000.0 0.43491173927694043 0.8641681533123465
5128000000.0 0.508316524454 0.8989550135911755
5131000000.0 0.5419391308846568 0.8604921844963348
5134000000.0 0.5864304458314934 0.782810828331579
5138000000.0 0.5985700917006439 0.7965515739703756
5141000000.0 0.6641413190095247 0.8130290296781586
5144000000.0 0.6624077005144668 0.7026350589192587
5147000000.0 0.6620664121379038 0.7832333451842304
5150000000.0 0.7236167411427374 0.6879775321838024
5153000000.0 0.7519521288455271 0.7356607930772723
5156000000.0 0.728312020498672 0.657808251777361
5159000000.0 0.7962376436145896 0.6312127667262307
5162000000.0 0.7741807471136793 0.5979706380709068
5166000000.0 0.8667936290469979 0.5938624559643335
5169000000.0 0.8374348968004682 0.5154953997482271
5172000000.0 0.8595350362497531 0.5411072342583929
5175000000.0 0.8856576918932371 0.5245267895377054
5178000000.0 0.8811564277295856 0.4743955635178314
5181000000.0 0.9069426711318905 0.45550885258726775
5184000000.0 0.9172084561420093 0.3965790436533936
5188000000.0 0.9107442014246716 0.3709370033897897
