! Created with skrf 1.8.0 (http://scikit-rf.org).
# Hz S RI R 50.0 
!freq ReS11 ImS11
4000000000.0 0.6233443691740848 0.8356069173684191
4003000000.0 0.7005870657618201 0.842831956056899
4006000000.0 0.66485220355697 0.7693341738107596
4009000000.0 0.66638607680682 0.7845787406436661
4012000000.0 0.6258804822153624 0.8124525322431884
4016000000.0 0.7120823904355589 0.8096987000797431
4019000000.0 0.6663908354476118 0.7770176871309112
4022000000.0 0.6505604704516869 0.8145570652663203
4025000000.0 0.7327342946871704 0.7669353717664346
4028000000.0 0.712781085279634 0.7554719815502366
4031000000.0 0.6697619119895926 0.7485331541090763
4034000000.0 0.7313602241080533 0.7190785116086321
4038000000.0 0.7284259988086808 0.7345042060652422
4041000000.0 0.7346529376548447 0.7252163845725237
4044000000.0 0.7955306990728843 0.7708770256043359
4047000000.0 0.7634495208141131 0.7596269296429193
4050000000.0 0.7823384490250417 0.7034120660977762
4053000000.0 0.7604014766929239 0.6606919718581603
4056000000.0 0.7754497188284212 0.6806115803748249
4059000000.0 0.7467300711249665 0.7002548472838104
4062000000.0 0.7589804421092031 0.698930917250743
4066000000.0 0.7168641308201948 0.651983193158439
4069000000.0 0.8242581913716488 0.6959530431327725
4072000000.0 0.7331511755400573 0.7186704177411944
4075000000.0 0.7918263681791319 0.7114778978019365
4078000000.0 0.8130781326457018 0.6556893247345013
4081000000.0 0.817782111442429 0.7194396190511231
4084000000.0 0.7995443047325621 0.6074180586106368
4088000000.0 0.7774872341504787 0.6622215668963012
4091000000.0 0.8587114037403358 0.6574270337843915
4094000000.0 0.8021623226832731 0.6243987942803562
4097000000.0 0.8296391950306518 0.6101969946887655
4100000000.0 0.8140009033215942 0.6243897912486744
4103000000.0 0.8621559609448302 0.6312297614483307
4106000000.0 0.8569816845981637 0.5989065886389974
4109000000.0 0.8376774258803203 0.6340422760635225
4112000000.0 0.8333751041580597 0.571015981280073
4116000000.0 0.8492511423158718 0.6197865561378778
4119000000.0 0.8671940618570604 0.5690180378978547
4122000000.0 0.8726625395036476 0.5216181303711589
4125000000.0 0.8855969544826028 0.5338709739302605
4128000000.0 0.8391744287364443 0.5211628206311053
4131000000.0 0.8455426561689513 0.5392950125396067
4134000000.0 0.8610892751045869 0.5711207027257402
4138000000.0 0.8510213068052479 0.49765044724975066
4141000000.0 0.8844324924394927 0.5267139115990693
4144000000.0 0.8941361424318149 0.5182642168121647
4147000000.0 0.9201234283049923 0.5065270661989039
4150000000.0 0.9333698101082157 0.5233851658299935
4153000000.0 0.9334765532232648 0.46405700877993195
4156000000.0 0.9219219652196389 0.5280817119068077
4159000000.0 0.8813781816362432 0.4805030438029582
4162000000.0 0.9050038537306715 0.48145463809507516
4166000000.0 0.9457248091173491 0.4497496482903628
4169000000.0 0.9099718017593142 0.4328565364294291
4172000000.0 0.9590775254981861 0.4666084124792564
4175000000.0 0.9109247401191154 0.4182734839629691
4178000000.0 0.9361571767365116 0.42517505540601397
4181000000.0 0.9404222633510126 0.39141795065014684
4184000000.0 0.9177271574161939 0.40234371082050496
4188000000.0 0.9711241305043481 0.3825246208153691
4191000000.0 0.9072294788773981 0.41656853027589075
4194000000.0 0.9283132374892789 0.39727721938247385
4197000000.0 0.948700253287414 0.38013177211761146
4200000000.0 0.9554012151942946 0.36373575309478545
4203000000.0 0.9767256228061912 0.386666902216793
4206000000.0 0.968115310421675 0.355832203110608
4209000000.0 0.9498491063838429 0.35170552370481917
4212000000.0 0.9755026510019434 0.3083127355006521
4216000000.0 0.9676053160013263 0.35237190737497065
4219000000.0 0.9788545222877962 0.33762268299327214
4222000000.0 0.9937706196377885 0.32534404034267955
4225000000.0 0.9436573562987274 0.30459132536872924
4228000000.0 0.9792113056910796 0.3273226736169338
4231000000.0 0.9877751980837213 0.28624707372191704
4234000000.0 0.9909862425058333 0.31167039153039094
4238000000.0 1.0048013368420654 0.25470460724868604
4241000000.0 0.9796850527292236 0.26086388991475895
4244000000.0 0.9819921519421583 0.2703352301615103
4247000000.0 0.9923314014144212 0.25672785204988524
4250000000.0 0.9824525444676453 0.23362113523973416
4253000000.0 0.9709770779868556 0.2096697235209331
4256000000.0 1.0169432936152385 0.22834888935605968
4259000000.0 0.9544100392139618 0.20817767154481373
4262000000.0 1.004014835048095 0.19813835880173594
4266000000.0 1.0246329475524332 0.2006416402189743
4269000000.0 0.989498675146159 0.23223993200371015
4272000000.0 1.0087685014793863 0.1829976432392929
4275000000.0 1.0036753710971504 0.17472109407923003
4278000000.0 1.008496704594863 0.15913549686347905
4281000000.0 1.0125148243547961 0.186526159632738
4284000000.0 1.0051021304908865 0.13442084497636989
4288000000.0 0.9965337577114058 0.19080602722295764
4291000000.0 0.9964967712277787 0.11112888439491823
4294000000.0 0.9896538626063655 0.1316030692773767
4297000000.0 1.0013469460556634 0.1509984058932049
4300000000.0 0.9835986676989459 0.13367580591049605
4303000000.0 0.989822852882318 0.12067965219561703
4306000000.0 1.0228022518368167 0.12562979845958133
4309000000.0 1.002031805440461 0.07218363033892315
4312000000.0 1.0407534058447165 0.12678734193768793
4316000000.0 1.0165395338880396 0.09262555169763372
4319000000.0 1.0044605760203955 0.045723547473128776
4322000000.0 0.9870230775845905 0.041194362833098616
4325000000.0 1.0039449453572733 0.036397395375904903
4328000000.0 1.014497547628284 0.024969557219334373
4331000000.0 1.0129262639967398 0.0037542179015278565
4334000000.0 1.008429679632084 0.0282422067149396
4338000000.0 1.0117289965205802 0.05233319941199467
4341000000.0 1.0321674758205246 0.0218660762962212
4344000000.0 1.0191453393586174 -0.0048218943424658545
4347000000.0 1.0267471704309705 -0.036318217208150955
4350000000.0 0.9477143272754736 -0.02908646654792854
4353000000.0 0.9944084613391273 -0.0173225423478989
4356000000.0 0.9978894747172153 -0.058941767385090715
4359000000.0 0.9720974934627816 -0.02987385413026275
4362000000.0 1.0344801485212498 -0.09784530381353522
4366000000.0 1.0221402106590802 -0.10246174946834226
4369000000.0 0.9882916780398753 -0.07316289252185872
4372000000.0 0.9937966485245855 -0.13208244017058068
4375000000.0 0.9974128851237338 -0.08733393880135615
4378000000.0 0.981939104572219 -0.10044078527639189
4381000000.0 1.0119643915981678 -0.11548944684472248
4384000000.0 1.0740560413263394 -0.14035428398321548
4388000000.0 0.9802936079990607 -0.10497802171201266
4391000000.0 1.017825085319777 -0.1515264882243753
4394000000.0 0.9716028074602423 -0.1480491270791589
4397000000.0 0.9876315750383418 -0.16285789357203984
4400000000.0 1.0227932267231146 -0.1795297032651521
4403000000.0 0.9945654972487521 -0.1725285836141745
4406000000.0 1.0025423944637133 -0.19313548057254926
4409000000.0 1.023477002440664 -0.20554682301547272
4412000000.0 0.9658839890288539 -0.25317243986196714
4416000000.0 0.9668477707102989 -0.22008810624023545
4419000000.0 0.987090930716412 -0.250314674869525
4422000000.0 0.9882821713452956 -0.22370073076108926
4425000000.0 1.0162496232780793 -0.22804730340062418
4428000000.0 0.9782452440407917 -0.2523142320446392
4431000000.0 1.0199022981861516 -0.24832036315188272
4434000000.0 0.9721848781197183 -0.2766325638357983
4438000000.0 0.9937389570120212 -0.2667400572762125
4441000000.0 0.9825671770744595 -0.2720148037086706
4444000000.0 0.9572244543108677 -0.26896437717466404
4447000000.0 0.960466281349966 -0.3149504753036355
4450000000.0 0.9597730063428643 -0.28518774248184064
4453000000.0 0.9794509758537128 -0.32080148821859944
4456000000.0 0.9184275503316002 -0.31017603379111036
4459000000.0 0.9073823149196807 -0.328128405772656
4462000000.0 1.0079467032494378 -0.36047755436086937
4466000000.0 0.9795673513052935 -0.3641733806473605
4469000000.0 0.9476345160263098 -0.32549987045222895
4472000000.0 0.9562158164569832 -0.3937965994542777
4475000000.0 0.9235425180298891 -0.36872948477480627
4478000000.0 0.9683433835287621 -0.41029071165054465
4481000000.0 0.8975567941407607 -0.3811883056781052
4484000000.0 0.9067245307518854 -0.42550202396971426
4488000000.0 0.9108960028249379 -0.4135995652042575
4491000000.0 0.922299851657699 -0.4184218387399145
4494000000.0 0.8998761847988019 -0.4139128452867886
4497000000.0 0.9038768165339031 -0.40098272387489375
4500000000.0 0.9122008565521644 -0.43706676100532577
4503000000.0 0.940561922162304 -0.4539824873056616
4506000000.0 0.8897011240741279 -0.4513056733189191
4509000000.0 0.8674096438064209 -0.44147026679455603
4512000000.0 0.8681245954043048 -0.4724025469821037
4516000000.0 0.9063647708722526 -0.48491871974819695
4519000000.0 0.8584554420431182 -0.45654406555307675
4522000000.0 0.8780305298042939 -0.4952221853857299
4525000000.0 0.8617190596784998 -0.4762395347958107
4528000000.0 0.9059030018281542 -0.5166494748114883
4531000000.0 0.8502326236875325 -0.5106588613600018
4534000000.0 0.8543097966865933 -0.5059138171464954
4538000000.0 0.8593720376600096 -0.523782531388105
4541000000.0 0.8274315530948695 -0.5660394634082968
4544000000.0 0.8527127174225895 -0.5482287068810262
4547000000.0 0.8523694569707025 -0.5166892995479364
4550000000.0 0.8255721203425068 -0.5915225020129704
4553000000.0 0.826210446602951 -0.5785425109409245
4556000000.0 0.8107113467676292 -0.5770355924344599
4559000000.0 0.8325941913406928 -0.5879536265837335
4562000000.0 0.8333107202520567 -0.5997803085629944
4566000000.0 0.8102560833218446 -0.6195974991486126
4569000000.0 0.7904144738259318 -0.5918841377754009
4572000000.0 0.7928350109709477 -0.6191202509300514
4575000000.0 0.7883980584193131 -0.6494351354416656
4578000000.0 0.805617446510291 -0.6298962936907804
4581000000.0 0.7660940564973858 -0.6341405262951434
4584000000.0 0.7896234092540637 -0.6346094683003617
4588000000.0 0.7993530358631323 -0.6583247937457423
4591000000.0 0.7817377988945255 -0.6419822257133612
4594000000.0 0.7196389316654165 -0.6906832834020646
4597000000.0 0.7642898635835311 -0.6757684936100863
4600000000.0 0.7177963196736105 -0.6881755031220889
4603000000.0 0.7594015663768127 -0.6985024194505267
4606000000.0 0.7506526716175842 -0.6870819569876736
4609000000.0 0.7404053201445349 -0.6922582645470511
4612000000.0 0.7287840573399241 -0.6947023648580845
4616000000.0 0.7295836839649994 -0.7118417458801402
4619000000.0 0.7178113252524662 -0.719911920219142
4622000000.0 0.7200815647499638 -0.7299705764672475
4625000000.0 0.6722517949960369 -0.703363306540007
4628000000.0 0.7113212016762731 -0.6962832070661799
4631000000.0 0.6746783715797631 -0.7569006826702167
4634000000.0 0.6831657801028473 -0.7594660946976494
4638000000.0 0.666909748113059 -0.7583378685369381
4641000000.0 0.6818860718654975 -0.7471944315214388
4644000000.0 0.668331089676261 -0.766974070721486
4647000000.0 0.6711803691499284 -0.7733173282032525
4650000000.0 0.6276658603596986 -0.7834369468562425
4653000000.0 0.6616848479262958 -0.81193206345434
4656000000.0 0.6168678219512824 -0.8090345000297299
4659000000.0 0.6181590359868481 -0.7914169057560049
4662000000.0 0.6167472203309166 -0.8114716139912443
4666000000.0 0.6213793243231795 -0.8015226987818468
4669000000.0 0.6170688525273873 -0.8196690784655913
4672000000.0 0.6044427866600708 -0.8290609384196965
4675000000.0 0.599901442745814 -0.8259012824083963
4678000000.0 0.5671208239194758 -0.8191464907996269
4681000000.0 0.5662302223212345 -0.8697006406048872
4684000000.0 0.5559263361226905 -0.8558927341340186
4688000000.0 0.555303012102319 -0.8356424592205899
4691000000.0 0.5667897488541863 -0.8404622888746855
4694000000.0 0.5466258663045065 -0.8511714544812516
4697000000.0 0.5137997427713346 -0.8324206128038127
4700000000.0 0.5384376206331439 -0.8592381703711669
4703000000.0 0.5355571944133531 -0.8350676029411102
4706000000.0 0.4882061783733045 -0.8707594628072277
4709000000.0 0.5038330551838891 -0.86268569601716
4712000000.0 0.5118368315110068 -0.8713849837088673
4716000000.0 0.4907935215381881 -0.8758083772930194
4719000000.0 0.5114088377230476 -0.9038861624178303
4722000000.0 0.5072091359872348 -0.8893297081611404
4725000000.0 0.4801685733927702 -0.8805691499540049
4728000000.0 0.4594076627929718 -0.8896958826172108
4731000000.0 0.47456977181192894 -0.9192635779632341
4734000000.0 0.47799030134165627 -0.8884619087769363
4738000000.0 0.4875995547076639 -0.9288825336095982
4741000000.0 0.41399792338027336 -0.9245041001033973
4744000000.0 0.40278617817790807 -0.9323817148461678
4747000000.0 0.4219512399104097 -0.8956848679561131
4750000000.0 0.3992823878335151 -0.9514329402357262
4753000000.0 0.4101371159990723 -0.9623843196025254
4756000000.0 0.41714119225866564 -0.9411844368489521
4759000000.0 0.40714026942228865 -0.9753977597809869
4762000000.0 0.3585080155770894 -0.9734691552571483
4766000000.0 0.35126453952006303 -0.9437096612045803
4769000000.0 0.39404335663344187 -0.9513725748940033
4772000000.0 0.3560228691821507 -0.9800621091015743
4775000000.0 0.33487741553843386 -1.0272184462256595
4778000000.0 0.3442567661635141 -0.9642665644023413
4781000000.0 0.3327566967272214 -0.9505169626127881
4784000000.0 0.3298106713629156 -0.956823123370606
4788000000.0 0.3111795907271742 -1.0032782842008994
4791000000.0 0.30491081347647353 -0.9565969436161831
4794000000.0 0.34273159888758126 -0.997061770673958
4797000000.0 0.2703069626549676 -0.9846320731499115
4800000000.0 0.2671477313159366 -0.9623200439927457
4803000000.0 0.24448765830028224 -0.9793736262644064
4806000000.0 0.26203301505765064 -0.9777750762251483
4809000000.0 0.20769444629491796 -1.0057790799514699
4812000000.0 0.217516911818836 -0.9673971408581927
4816000000.0 0.23726244040218825 -0.9590145672798391
4819000000.0 0.25902147198424175 -1.0125641768200937
4822000000.0 0.258379644268858 -1.03048529600157
4825000000.0 0.25086797444433195 -1.0086000023562895
4828000000.0 0.1920052404432235 -0.9828614878222101
4831000000.0 0.16113286753981892 -1.0147472255797476
4834000000.0 0.19874795642535814 -0.9967699782608861
4838000000.0 0.17476812624889249 -1.0248922643569676
4841000000.0 0.16715335270777865 -0.9985644293005121
4844000000.0 0.21395920187204717 -1.0113550809543284
4847000000.0 0.1824391634614478 -0.9837946150038313
4850000000.0 0.14286869840668107 -1.0266858790703353
4853000000.0 0.13721451009494298 -0.9892434918712407
4856000000.0 0.14025199045978246 -0.9998761798972172
4859000000.0 0.10154462917654349 -1.0568454981702207
4862000000.0 0.13880804346590436 -0.9989063948614679
4866000000.0 0.09559864010194702 -1.0373379682050448
4869000000.0 0.0915838338164424 -1.0227421056354107
4872000000.0 0.0820716300233104 -1.0538222286773054
4875000000.0 0.12811110841140178 -1.0630164838052574
4878000000.0 0.04950213113239359 -1.0525243224945269
4881000000.0 0.02747097155388112 -1.088212313431555
4884000000.0 0.06032293471308559 -1.031286251795952
4888000000.0 0.06605560458022484 -1.011447884252632
4891000000.0 0.04917190424212596 -1.0407690975073252
4894000000.0 0.03563731870253921 -1.0301459193460998
4897000000.0 0.0580985780829414 -1.027262777735617
4900000000.0 0.030918133855673453 -1.030229869175546
4903000000.0 0.01695693330866535 -1.0305937037108979
4906000000.0 -0.019905807579403516 -1.0748698612436964
4909000000.0 -0.03784986094108042 -1.0239299429168618
4912000000.0 -0.058827943888227555 -1.055956415578296
4916000000.0 -0.006512332696936268 -1.0706371097699026
4919000000.0 -0.007056643981085353 -1.0338704364155407
4922000000.0 0.011388648667332246 -1.0761094699118896
4925000000.0 -0.08048834335761051 -1.0461385047685483
4928000000.0 0.01646530859037043 -1.0192872290410848
4931000000.0 -0.04060800527856913 -1.0704218869874322
4934000000.0 -0.04419321322396429 -0.9927125552077255
4938000000.0 -0.12662754772044638 -1.0213931929500553
4941000000.0 -0.08903546656911922 -1.0061528745881112
4944000000.0 -0.05864046141254825 -0.9819955989728382
4947000000.0 -0.10084178734982666 -1.0121760670326754
4950000000.0 -0.12953831555309825 -1.0066628820916592
4953000000.0 -0.1785044467824719 -1.0796951152504626
4956000000.0 -0.18090147265366224 -1.0195267365361345
4959000000.0 -0.17476451865747686 -1.0103107690439836
4962000000.0 -0.2103274061408957 -1.0599927576498875
4966000000.0 -0.11741740829110431 -1.0365461176184734
4969000000.0 -0.1505544822861467 -1.0772346958450272
4972000000.0 -0.18104383101118235 -0.9926945373429212
4975000000.0 -0.16114801896290007 -1.0187632769634458
4978000000.0 -0.21111520513083715 -1.038732168901884
4981000000.0 -0.18963962585485486 -1.0002323446225967
4984000000.0 -0.19386956745760645 -0.9956958663034372
4988000000.0 -0.20084469307773933 -1.0284014274893953
4991000000.0 -0.18544767384953137 -1.022071297292684
4994000000.0 -0.22375953630504603 -0.9936174313402228
4997000000.0 -0.2781435606335166 -1.0262816621528394
5000000000.0 -0.2226476393763282 -1.062659644123323
5003000000.0 -0.2206958094938083 -1.0001087030466909
5006000000.0 -0.2867493701986933 -1.0675037145943935
5009000000.0 -0.28792510181328435 -1.0010560673266986
5012000000.0 -0.2828118047629203 -0.9965349694189602
5016000000.0 -0.26266422597738043 -1.065117273779795
5019000000.0 -0.3045532603690737 -0.9707890855793349
5022000000.0 -0.30755898083776445 -1.0182953501506564
5025000000.0 -0.35518724412645114 -1.0330250930622609
5028000000.0 -0.3324150591147442 -0.9810832827228742
5031000000.0 -0.2993361994865368 -0.94290718368942
5034000000.0 -0.3823201270954567 -1.0130777412501935
5038000000.0 -0.34056046185498345 -0.9570682595368911
5041000000.0 -0.3475557240409848 -0.9887932637731031
5044000000.0 -0.31203886777591816 -0.9899602584764718
5047000000.0 -0.35881131097167235 -0.9921180733258487
5050000000.0 -0.31259379010362554 -1.0149137569554152
5053000000.0 -0.39054374889436827 -1.0279615339013708
5056000000.0 -0.3584026348888808 -0.9942834683971273
5059000000.0 -0.33397110569739835 -0.992608196786129
5062000000.0 -0.4746585935124551 -0.985566805766031
5066000000.0 -0.4011620317156328 -0.9646256328561706
5069000000.0 -0.4434960117143256 -0.9763378733036064
5072000000.0 -0.4133702016579599 -0.913784720458545
5075000000.0 -0.39372205721472386 -0.957755650495437
5078000000.0 -0.42022717987226005 -0.9236652459746997
5081000000.0 -0.42602128491818886 -0.9233945159090714
5084000000.0 -0.4567689196028424 -0.9484607139293628
5088000000.0 -0.44245594527548393 -0.9437395634924735
5091000000.0 -0.47499888138877105 -0.8702219076560154
5094000000.0 -0.4737643571683375 -0.8952029171842849
5097000000.0 -0.45884462001938575 -0.9224714190771823
5100000000.0 -0.48506131801688973 -0.9565565990924171
5103000000.0 -0.4798441421837152 -0.8809684152573084
5106000000.0 -0.5217142560373271 -0.9449688918199348
5109000000.0 -0.4576185904052197 -0.9454274422910094
5112000000.0 -0.4895580561948509 -0.8665353322329292
5116000000.0 -0.47481242064237655 -0.8871774767525176
5119000000.0 -0.5404022905600913 -0.9247657108200091
5122000000.0 -0.5504122978191561 -0.9247101610273281
5125000000.0 -0.4987243504225649 -0.8933100060311572
5128000000.0 -0.5322084920473329 -0.9129364630729975
5131000000.0 -0.5568399281436746 -0.8709554409709036
5134000000.0 -0.5907707547322827 -0.8822344687528121
5138000000.0 -0.5273450851243893 -0.8989124505754305
5141000000.0 -0.5373174469712461 -0.9238791637158124
5144000000.0 -0.5339181635279839 -0.8873672171284013
5147000000.0 -0.5952970612767537 -0.8886138348208947
5150000000.0 -0.5845483664904486 -0.887400057809549
5153000000.0 -0.6375501324901562 -0.8527270911864336
5156000000.0 -0.6264821189259955 -0.8535647080311073
5159000000.0 -0.6336114609768998 -0.8613478664851855
5162000000.0 -0.6516163504070702 -0.8270827980912293
5166000000.0 -0.6529133295367133 -0.8674228565888106
5169000000.0 -0.6512480035289149 -0.8472203345591313
5172000000.0 -0.598614611084131 -0.7754668489262286
5175000000.0 -0.637492869454753 -0.8669228493029095
5178000000.0 -0.6670373131178544 -0.8155915857317239
5181000000.0 -0.6510343042731263 -0.8178223751009577
5184000000.0 -0.6782619279009312 -0.7945836455175075
5188000000.0 -0.6395520244928325 -0.7914168579871316
