! Created with skrf 1.8.0 (http://scikit-rf.org).
# Hz S RI R 50.0 
!freq ReS11 ImS11
4000000000.0 0.6470948041075875 0.7613582157531624
4003000000.0 0.7097454859217781 0.8213633915868438
4006000000.0 0.6872086051618562 0.7440984738982905
4009000000.0 0.6561308405865797 0.7727208526037112
4012000000.0 0.6437589382683011 0.8093776713695049
4016000000.0 0.7020577015513314 0.7757670953071278
4019000000.0 0.7285444708127631 0.7593159638545511
4022000000.0 0.665331659761406 0.7584361511613091
4025000000.0 0.7737397963217939 0.7026264203809062
4028000000.0 0.7602435601245415 0.7120239056220934
4031000000.0 0.6736117604019711 0.7167934660976008
4034000000.0 0.6848086177936487 0.6940397312427877
4038000000.0 0.7713318263514589 0.7209192315113261
4041000000.0 0.7124807443188266 0.7215357474175056
4044000000.0 0.8126579281027827 0.7430412081416201
4047000000.0 0.7689811203545263 0.7587022377552813
4050000000.0 0.7416568845221478 0.6639787327596727
4053000000.0 0.7923895298943636 0.6288448012986383
4056000000.0 0.7749239331634089 0.6529620861814085
4059000000.0 0.7399222642605431 0.6370617403384526
4062000000.0 0.8079783859129939 0.5917387670447412
4066000000.0 0.7463988015849881 0.5809573716167911
4069000000.0 0.8522189720435167 0.6361051172448678
4072000000.0 0.7578570513970428 0.6490824697638287
4075000000.0 0.7891013840691251 0.6553720123758338
4078000000.0 0.8475893724905393 0.6084241702200012
4081000000.0 0.8371469390705536 0.6977992920689621
4084000000.0 0.8680898083005272 0.6037300881035548
4088000000.0 0.8356100561111156 0.6536992067375371
4091000000.0 0.919498125194001 0.6198468634309708
4094000000.0 0.8342837143358162 0.5869208963306733
4097000000.0 0.8346744567371037 0.5905177037475253
4100000000.0 0.8453269259666351 0.5615247443535605
4103000000.0 0.8060573465498235 0.6126030398984383
4106000000.0 0.8681688112038994 0.5179360831188262
4109000000.0 0.8945113663024982 0.5538694790943994
4112000000.0 0.8622144957350131 0.5535237179016526
4116000000.0 0.8841858919155846 0.5764117509611842
4119000000.0 0.8791713415776998 0.5346159192111815
4122000000.0 0.8780623941020714 0.5173351331636016
4125000000.0 0.9096663185975883 0.5081940684762218
4128000000.0 0.8545057649339711 0.5118196037113112
4131000000.0 0.8884649978406872 0.4777075075148789
4134000000.0 0.8689445589229701 0.5135497927727303
4138000000.0 0.8620565610177859 0.47784284300971075
4141000000.0 0.8886556009799869 0.4623990354498154
4144000000.0 0.8796152169394819 0.5195687796935078
4147000000.0 0.9162172980629376 0.46132181040101555
4150000000.0 0.9538291438839065 0.4288941633717637
4153000000.0 0.90005268398224 0.45775123798792106
4156000000.0 0.9217394459015178 0.46465693636489425
4159000000.0 0.897251182153372 0.4256365679802156
4162000000.0 0.916790264494934 0.4292596339627017
4166000000.0 0.9185679532499778 0.4346515051027766
4169000000.0 0.9095842842342001 0.3770516251018623
4172000000.0 0.9320789639534153 0.4058678218664273
4175000000.0 0.951633376571206 0.4314233879165987
4178000000.0 0.9696942428014471 0.4062379041838191
4181000000.0 0.943212035992248 0.3695076327606689
4184000000.0 0.9319289189050214 0.3844676200443847
4188000000.0 0.9275322868831668 0.37224605769933405
4191000000.0 0.9392414974605773 0.3738342008852857
4194000000.0 0.9451177248427947 0.35798137347289705
4197000000.0 0.9845922103945653 0.34815416305293684
4200000000.0 0.964944254286412 0.35029888543185705
4203000000.0 0.9579926198268809 0.3359102485744724
4206000000.0 0.9815283397022609 0.33015828810341935
4209000000.0 0.9582433233777923 0.32228686480483754
4212000000.0 0.9755649895956408 0.2755314148965432
4216000000.0 0.9833604652105432 0.3220190119773873
4219000000.0 0.9922718192828518 0.3094828158444496
4222000000.0 0.9973345210334126 0.27062413741100755
4225000000.0 0.9666854041759112 0.2765173122368203
4228000000.0 0.9686026402340377 0.2848308945691147
4231000000.0 0.986972664921688 0.24784113612049652
4234000000.0 1.0066425964714583 0.23590483172735072
4238000000.0 1.006096231441553 0.22505942222237738
4241000000.0 0.9877587359805262 0.21560299991833054
4244000000.0 0.9924672365465843 0.24040712387281826
4247000000.0 0.9820410716610888 0.21685770396794923
4250000000.0 0.9762454119208861 0.19432716734428468
4253000000.0 0.9674721377956967 0.1863226609203455
4256000000.0 1.020176759086705 0.1912725619702878
4259000000.0 0.9492576916079438 0.17195193697326613
4262000000.0 0.9899895730395722 0.16549083635450726
4266000000.0 1.0067820509990912 0.12815952498490518
4269000000.0 0.9998923944210631 0.16454939575808844
4272000000.0 0.9858924660366382 0.1540165095441429
4275000000.0 1.004711483706335 0.12772858272634124
4278000000.0 1.0247782708362683 0.1285530085482549
4281000000.0 1.015761747631212 0.13928260415402866
4284000000.0 1.018836063773643 0.09282575136788637
4288000000.0 1.011263877472034 0.1319999007043681
4291000000.0 0.9727125222984346 0.11415512279527844
4294000000.0 1.0029749631287883 0.09549684729781692
4297000000.0 0.9781045502757543 0.10161847543976661
4300000000.0 0.9934503792220732 0.08682706868702467
4303000000.0 1.0066995615541021 0.029409173371165664
4306000000.0 0.9965367840394979 0.0957842095744568
4309000000.0 0.9921949471203138 0.06466728158630096
4312000000.0 1.0263763201259695 0.07769793057000407
4316000000.0 1.032733341746483 0.07136027224497817
4319000000.0 0.985636029964868 0.02915765909228922
4322000000.0 1.0100848165477057 -0.007601184931619445
4325000000.0 1.0131041650167931 -0.008217144366161444
4328000000.0 0.9972587620952184 0.005189417137081487
4331000000.0 1.0338550292546784 -0.02219331216744118
4334000000.0 1.0130736980239896 -0.026174154882828843
4338000000.0 1.0095664534104287 -0.0017495653648064713
4341000000.0 1.047330817075979 -0.022865881733129312
4344000000.0 1.0198399304818442 -0.05261722667197179
4347000000.0 1.0098705396089835 -0.08883098479271676
4350000000.0 0.9557479034667439 -0.06463001918984466
4353000000.0 0.9685253560092324 -0.07551759136242762
4356000000.0 1.0042041451777541 -0.11330550260527242
4359000000.0 0.9460187872543949 -0.0898780506616309
4362000000.0 1.0195833464886552 -0.1712497807146707
4366000000.0 1.0165924796975934 -0.1288674537038125
4369000000.0 0.9738787689241923 -0.1332283257916706
4372000000.0 0.9970312743545355 -0.15084424139515373
4375000000.0 0.988827002199659 -0.10549534386778527
4378000000.0 0.9729590963850315 -0.1337686526906245
4381000000.0 0.9864840016568817 -0.14166644590803446
4384000000.0 1.0518228830610528 -0.19097176364877153
4388000000.0 0.9802095640034801 -0.1593902590757027
4391000000.0 0.9909061426046972 -0.19447024514768688
4394000000.0 0.9620547312008829 -0.18159686697697722
4397000000.0 0.9814262977374197 -0.20332714764171805
4400000000.0 1.0042288223738973 -0.2181752136215314
4403000000.0 0.9927706778937121 -0.2164434242741123
4406000000.0 0.9891407577704291 -0.23214498572542447
4409000000.0 1.0006686784164516 -0.25457997433717594
4412000000.0 0.9585846115223774 -0.28873199880124223
4416000000.0 0.9537400684151125 -0.27354619882675235
4419000000.0 0.9584967076780996 -0.28413296579548913
4422000000.0 0.9692159522675763 -0.24848298899173854
4425000000.0 0.9910217540764191 -0.26283584539932575
4428000000.0 0.962214114468788 -0.2963685503713046
4431000000.0 0.9862028436508199 -0.29411208043602427
4434000000.0 0.9534304603023711 -0.3037838980884958
4438000000.0 0.9793511844516458 -0.3251176929841182
4441000000.0 0.9729336369491779 -0.32207137989202417
4444000000.0 0.9330397473264904 -0.3173892628250459
4447000000.0 0.9341980448188083 -0.3470633501244679
4450000000.0 0.9391253858307007 -0.3306510955635884
4453000000.0 0.9536583620038799 -0.3598853593982824
4456000000.0 0.9098037605773527 -0.3550360755391912
4459000000.0 0.896329533457275 -0.36467646891493055
4462000000.0 0.9763651223131866 -0.40272760559228277
4466000000.0 0.9657150860726401 -0.3979645589657619
4469000000.0 0.9491910395810765 -0.3964302550648372
4472000000.0 0.925065921512486 -0.42707961389627735
4475000000.0 0.8947458282509558 -0.4192522525053066
4478000000.0 0.9583602801449325 -0.4517015717188917
4481000000.0 0.8836217957925213 -0.4022472301867075
4484000000.0 0.8795089595382293 -0.47863388930962747
4488000000.0 0.8901535612547963 -0.4511891443402002
4491000000.0 0.9047676077284695 -0.4816287392973088
4494000000.0 0.9124739353848556 -0.44821993616446965
4497000000.0 0.8889485876919974 -0.46066558592793383
4500000000.0 0.9064125287634062 -0.4572668312896687
4503000000.0 0.8909393268247976 -0.49519028452764324
4506000000.0 0.8619137217675441 -0.4842777671062755
4509000000.0 0.847699626753156 -0.47621104485762067
4512000000.0 0.8374647814233387 -0.5068864288474199
4516000000.0 0.8721832457983223 -0.5436952613346825
4519000000.0 0.84106088297741 -0.5041739580074913
4522000000.0 0.8577971599217187 -0.534256443155448
4525000000.0 0.8680548779452535 -0.5097726161539693
4528000000.0 0.8592877881120267 -0.5611935578078467
4531000000.0 0.841642722139968 -0.528564224257534
4534000000.0 0.8349900445657202 -0.5636058719066254
4538000000.0 0.8211678154389874 -0.5568408332427199
4541000000.0 0.7899702090539601 -0.6073199733854168
4544000000.0 0.8002466601339746 -0.5595849275100983
4547000000.0 0.8221058942843309 -0.5870710457983956
4550000000.0 0.7984491102495064 -0.6100148001766205
4553000000.0 0.814410081244274 -0.622473601531493
4556000000.0 0.7717869695629664 -0.596967100026472
4559000000.0 0.7820974115789251 -0.6314713678337982
4562000000.0 0.8068042902146983 -0.6312962939955894
4566000000.0 0.776268565048456 -0.6479184409935668
4569000000.0 0.7725639195105669 -0.6386365624864079
4572000000.0 0.7601293479092882 -0.644806271756505
4575000000.0 0.7490672502700535 -0.670616830990689
4578000000.0 0.7811199041442969 -0.6657314991092371
4581000000.0 0.7295522897496158 -0.681818797450478
4584000000.0 0.7180851489477733 -0.6768407305026912
4588000000.0 0.757536846528537 -0.6980305546352289
4591000000.0 0.7327880471287684 -0.6836754455751362
4594000000.0 0.6995455535902728 -0.7110729094896608
4597000000.0 0.7241064239470971 -0.7132178549900108
4600000000.0 0.6972438705701133 -0.7105289496867025
4603000000.0 0.6881116172044601 -0.7288137023222451
4606000000.0 0.7163793737334561 -0.7246197849437327
4609000000.0 0.7176827926596959 -0.72646404700291
4612000000.0 0.708106968635534 -0.7467346243766884
4616000000.0 0.6712677141992454 -0.7440305493910301
4619000000.0 0.6577893463887408 -0.7381149610112383
4622000000.0 0.6481141960716569 -0.7631404349351804
4625000000.0 0.6232516961529414 -0.7503288407845743
4628000000.0 0.6649620141461167 -0.7685225080226118
4631000000.0 0.6310398547113456 -0.7694484300573043
4634000000.0 0.638563121420871 -0.7823793524361833
4638000000.0 0.6376134482312545 -0.7807714795786597
4641000000.0 0.652229679443475 -0.8038736140432018
4644000000.0 0.6048109884791413 -0.7950814740911933
4647000000.0 0.6236378800103531 -0.7900342382197564
4650000000.0 0.6034965789478351 -0.81060045933304
4653000000.0 0.6106042482494823 -0.8243474269152388
4656000000.0 0.5896782382380864 -0.8222695723003206
4659000000.0 0.5917589622815153 -0.8086908162305675
4662000000.0 0.5706720106569705 -0.8281816422951077
4666000000.0 0.5480474390333314 -0.8456930204506137
4669000000.0 0.5573526609960309 -0.8486801802620192
4672000000.0 0.535543653047889 -0.8813482493481142
4675000000.0 0.5200185844592767 -0.8674691048738941
4678000000.0 0.5417730658051312 -0.8492707459625249
4681000000.0 0.5258833283548374 -0.8846545664966885
4684000000.0 0.5031572073913493 -0.9021474280546067
4688000000.0 0.5032894395892542 -0.8795734653367747
4691000000.0 0.5274522902770364 -0.8712342292194053
4694000000.0 0.501057383529941 -0.8630193560521993
4697000000.0 0.4473890249291318 -0.8856354515862754
4700000000.0 0.48133302159728786 -0.8834925472392814
4703000000.0 0.4949036954231233 -0.8460908911463259
4706000000.0 0.45480606517544897 -0.8958258736589563
4709000000.0 0.4379367586912735 -0.8975742736662908
4712000000.0 0.4543851044000007 -0.9028773328376751
4716000000.0 0.4530309083794948 -0.9231781162166088
4719000000.0 0.45864933694567195 -0.8945638613464975
4722000000.0 0.4611701560336119 -0.916959176799591
4725000000.0 0.44430741764249787 -0.9129741641509138
4728000000.0 0.4303626125740704 -0.9032851670762709
4731000000.0 0.42901307049823656 -0.9197685107383582
4734000000.0 0.4172091970525755 -0.9170928851922373
4738000000.0 0.4279714360277548 -0.9605142908170653
4741000000.0 0.41544877732640784 -0.9576737440797747
4744000000.0 0.3573203045194361 -0.9395330211328193
4747000000.0 0.3815411634744484 -0.9302210758399079
4750000000.0 0.37113529329718437 -0.9498936023965762
4753000000.0 0.39167207243878877 -0.943190686843143
4756000000.0 0.36083642486998607 -0.9423145102268744
4759000000.0 0.34296785332970564 -0.9745814668691333
4762000000.0 0.30468175022975613 -0.9752595664632815
4766000000.0 0.29889239342573604 -0.9496546648684374
4769000000.0 0.3123630106615398 -0.9579713921319443
4772000000.0 0.31221449759523945 -0.9621623528454428
4775000000.0 0.28709340454821497 -1.0305532757634452
4778000000.0 0.29253873699023103 -0.9788981006154635
4781000000.0 0.30458957718817437 -0.9552986479990091
4784000000.0 0.32933475703911863 -0.9799572538058591
4788000000.0 0.26054860504213617 -0.9887734345138328
4791000000.0 0.2607630556248747 -0.9740726180374161
4794000000.0 0.3091055689820754 -1.003841506967034
4797000000.0 0.23262339149025688 -0.9711566529967356
4800000000.0 0.20971422387856878 -0.9670609093533067
4803000000.0 0.1755848845715592 -1.0158419612596485
4806000000.0 0.2073257953803378 -0.9974605927294531
4809000000.0 0.1571430437759259 -1.0049222942149088
4812000000.0 0.15600586340499686 -1.001554824103778
4816000000.0 0.1914341946742933 -0.9730999749014879
4819000000.0 0.19507106710632327 -1.0112820561543796
4822000000.0 0.20287482186983213 -1.0385234389429085
4825000000.0 0.18055077682842974 -1.0355592365050525
4828000000.0 0.1545537306990352 -1.0120900174656389
4831000000.0 0.09618701180253715 -1.032040100803479
4834000000.0 0.1541300720644643 -1.0163810552842
4838000000.0 0.13441641075684074 -1.004362967758771
4841000000.0 0.10486851939481198 -0.9848601760278145
4844000000.0 0.1469423879681996 -1.016636023302213
4847000000.0 0.12260226373482014 -0.9986777399490647
4850000000.0 0.0852090366299566 -1.0462622578288219
4853000000.0 0.10001803703677453 -0.9902925591188834
4856000000.0 0.05618214117451199 -1.0132239647768935
4859000000.0 0.059410208599359686 -1.0659027507066812
4862000000.0 0.06726007309039311 -0.9890468695052134
4866000000.0 0.03683386903215839 -1.0408423768280253
4869000000.0 0.023193464476246834 -1.0199531872323206
4872000000.0 0.0014501758394017145 -1.060474688641289
4875000000.0 0.09478833441409712 -1.0743334093862058
4878000000.0 0.022033314842598545 -1.0290412249308318
4881000000.0 -0.017221114388749875 -1.0933160141058091
4884000000.0 -0.00215679642379105 -1.030525458466244
4888000000.0 0.01105251669449615 -1.0194243490035495
4891000000.0 0.016873521797058078 -1.048319803818761
4894000000.0 -0.06320468136922053 -1.02210998129286
4897000000.0 -0.005801361286747162 -1.0206395772465107
4900000000.0 -0.0077059391047254 -1.0441062861022778
4903000000.0 -0.04061662707463865 -1.060738542314114
4906000000.0 -0.08271407274577083 -1.0379033112689755
4909000000.0 -0.09881999263425895 -1.0448014133425736
4912000000.0 -0.12549891719161999 -1.0658251820441063
4916000000.0 -0.07529138717296086 -1.070278279741925
4919000000.0 -0.07073398259404871 -1.041879773980959
4922000000.0 -0.10243109081981805 -1.0522492660858318
4925000000.0 -0.14799739762632882 -1.021199136239006
4928000000.0 -0.08518228941383589 -0.987493941177371
4931000000.0 -0.12240000995635265 -1.0542416978557734
4934000000.0 -0.1266324266308178 -0.9941277563062529
4938000000.0 -0.16241999827229897 -0.9980077420643235
4941000000.0 -0.10203514508480215 -0.9813917357020763
4944000000.0 -0.14700993721510044 -0.9543121678676187
4947000000.0 -0.15556523370261047 -0.9874368846228442
4950000000.0 -0.1504489624960632 -1.0104594923725232
4953000000.0 -0.20841001963562322 -1.0342373042995239
4956000000.0 -0.18352160943375967 -1.0201888206993668
4959000000.0 -0.20419014344086908 -0.9571994965464635
4962000000.0 -0.20520478781386278 -1.042587385711667
4966000000.0 -0.19575665126516434 -1.0176778993715718
4969000000.0 -0.21493445502975833 -1.0754550695539093
4972000000.0 -0.27898539201750705 -1.0161989453331246
4975000000.0 -0.21833826212334964 -0.9936680640735712
4978000000.0 -0.27190063770533573 -1.0041483420449235
4981000000.0 -0.2752409589276046 -1.0120214932216713
4984000000.0 -0.2538894942933232 -0.9960780206033366
4988000000.0 -0.2600638817536636 -0.9623958006082871
4991000000.0 -0.24997336938157183 -1.0380059275818418
4994000000.0 -0.2733949779547168 -0.9804459114573467
4997000000.0 -0.33280871333826884 -0.9840960896025405
5000000000.0 -0.30281138937623475 -1.0197531603644907
5003000000.0 -0.30395146599683404 -0.993067823306053
5006000000.0 -0.35165903840855994 -1.026166825084128
5009000000.0 -0.34237524938230646 -0.9774752432872458
5012000000.0 -0.3475356569395393 -0.9814172950210904
5016000000.0 -0.308076293858698 -1.019990912085034
5019000000.0 -0.34611842835324036 -0.9582736328075685
5022000000.0 -0.35280578963377074 -0.9725125707663349
5025000000.0 -0.4227196834050662 -1.0444215286790568
5028000000.0 -0.3702045532387088 -0.9607441536908896
5031000000.0 -0.39245849100533614 -0.9772551143715252
5034000000.0 -0.43805919754081957 -0.9736137404708864
5038000000.0 -0.4027964255429023 -0.8983871991036296
5041000000.0 -0.4006934588196782 -0.9638172854253281
5044000000.0 -0.40659699270852323 -0.9604484251931401
5047000000.0 -0.4026112383180133 -0.9437026657280169
5050000000.0 -0.3471356198167964 -0.9818158744000052
5053000000.0 -0.45480584179915506 -0.9764533524662753
5056000000.0 -0.3998638561881489 -0.971465545300066
5059000000.0 -0.3940185895537112 -0.937060522350564
5062000000.0 -0.4844916770505089 -0.9366672895103048
5066000000.0 -0.4275867394272751 -0.9608731627310052
5069000000.0 -0.4553655988300118 -0.9151739163023204
5072000000.0 -0.45133287406806655 -0.9136967438932337
5075000000.0 -0.44351077416311857 -0.9136925938348184
5078000000.0 -0.5159100066397979 -0.9154483801814655
5081000000.0 -0.49045111799376345 -0.8715748534627424
5084000000.0 -0.5310006159033592 -0.894987151181633
5088000000.0 -0.4675269815415657 -0.8667020610521821
5091000000.0 -0.56001360866646 -0.8934034759450309
5094000000.0 -0.5034151046980672 -0.8912830719037083
5097000000.0 -0.5078291313790723 -0.8631827624970556
5100000000.0 -0.5108609393978281 -0.8937718559694868
5103000000.0 -0.5636968730798608 -0.8912118625917035
5106000000.0 -0.5226172293836886 -0.9633660584514478
5109000000.0 -0.5415333935612047 -0.8767198409377774
5112000000.0 -0.5855935023903954 -0.8741218152100738
5116000000.0 -0.5662376918032725 -0.8139907111923153
5119000000.0 -0.6024298663253351 -0.8403439296905728
5122000000.0 -0.5449030546396036 -0.8159494519368569
5125000000.0 -0.5673098632494322 -0.8812485434615358
5128000000.0 -0.6090072490109703 -0.8380476636895609
5131000000.0 -0.6022574033191982 -0.8195442496997605
5134000000.0 -0.6599229945593454 -0.8175325989182226
5138000000.0 -0.608142885382666 -0.8524568458018166
5141000000.0 -0.5772085520956922 -0.8457747850334016
5144000000.0 -0.678160761223835 -0.8692668028073905
5147000000.0 -0.6322964669805569 -0.8304640240235109
5150000000.0 -0.6106799235783865 -0.8586364762618037
5153000000.0 -0.6487083363610333 -0.8240372099722741
5156000000.0 -0.6497671818437132 -0.8338838421911806
5159000000.0 -0.6554509377286167 -0.866850323657594
5162000000.0 -0.692981521608223 -0.7850642003936203
5166000000.0 -0.6864127737692048 -0.7513291373107256
5169000000.0 -0.696504055295984 -0.8039418866841199
5172000000.0 -0.6806559290721775 -0.7926320755842068
5175000000.0 -0.7091126270756727 -0.8296464635570626
5178000000.0 -0.7542342313902952 -0.7164644714347231
5181000000.0 -0.7009587966519238 -0.7873545919146387
5184000000.0 -0.7220238183041695 -0.7429714933630684
5188000000.0 -0.7161472193494771 -0.738380738301646
