! Created with skrf 1.8.0 (http://scikit-rf.org).
# Hz S RI R 50.0 
!freq ReS11 ImS11
4000000000.0 0.6777156783542138 0.7851446915869638
4003000000.0 0.7815660873520986 0.7793710403784824
4006000000.0 0.7240761979649522 0.732332448497462
4009000000.0 0.6980482426021801 0.7256416660789099
4012000000.0 0.7170076226979157 0.7842119838646017
4016000000.0 0.7718222632654803 0.7333702442931052
4019000000.0 0.7530964317396505 0.6773469306613555
4022000000.0 0.7295001196782953 0.7541438732032864
4025000000.0 0.7830056925148885 0.6621698522957028
4028000000.0 0.7642720308511091 0.6992153912771117
4031000000.0 0.7698769566782672 0.6520520046532127
4034000000.0 0.7750457090608961 0.6439353224132542
4038000000.0 0.809227601281703 0.6687874924987888
4041000000.0 0.7285587166335977 0.6928813848962875
4044000000.0 0.8171303937493014 0.6766580531457783
4047000000.0 0.8111466732257602 0.6963048458502326
4050000000.0 0.8115523015578625 0.6257562555171594
4053000000.0 0.8000802559592304 0.6331145134865945
4056000000.0 0.8452582877861099 0.647261928353292
4059000000.0 0.7840716919924141 0.6370138608008187
4062000000.0 0.8228527950584383 0.5888382769192155
4066000000.0 0.7785046891398968 0.5544509460338677
4069000000.0 0.8680020577419669 0.6066735157749162
4072000000.0 0.8240072126753895 0.6382009860038413
4075000000.0 0.8404717553404248 0.6243516102173754
4078000000.0 0.8731079540670661 0.5870042565384579
4081000000.0 0.8233589953460445 0.6398284220174492
4084000000.0 0.8835761352361278 0.5600184310208312
4088000000.0 0.8413838654884951 0.6112739197181151
4091000000.0 0.9204144994543885 0.5685785654132103
4094000000.0 0.8902101845960402 0.580287351550547
4097000000.0 0.8887291657439076 0.5309239403661847
4100000000.0 0.8949048510249117 0.53734820603431
4103000000.0 0.8778984520400803 0.5572138796339576
4106000000.0 0.9040171148558082 0.5143999013622824
4109000000.0 0.9015673676998297 0.4951002112371807
4112000000.0 0.8652855041015306 0.5087975089494137
4116000000.0 0.9124619684375851 0.5039245926339272
4119000000.0 0.924859260293454 0.49526072999277027
4122000000.0 0.9043311825771184 0.4445161803680129
4125000000.0 0.9125953696934302 0.47311203167069577
4128000000.0 0.9169634088046759 0.48595985494950544
4131000000.0 0.9150757503200424 0.40934442146813266
4134000000.0 0.8952657271909632 0.45263314464322224
4138000000.0 0.9009065407966701 0.41846076057592213
4141000000.0 0.9096516833161027 0.4174823597722779
4144000000.0 0.9276777701165364 0.42742588837313783
4147000000.0 0.9302578365622761 0.40149582370679354
4150000000.0 0.9264174030904316 0.4389665170264388
4153000000.0 0.9369361000929533 0.3999954977021576
4156000000.0 0.9676831876569811 0.4270703969434688
4159000000.0 0.9456040342775609 0.38088936210399266
4162000000.0 0.941960056757668 0.3928511057455849
4166000000.0 0.9689482754407421 0.3538796459277027
4169000000.0 0.952008690380611 0.3484458763281012
4172000000.0 0.9664531445727483 0.33836318734757137
4175000000.0 0.9686477169519233 0.32029144811033944
4178000000.0 0.9813814010011068 0.3576541514997045
4181000000.0 0.9676588478442412 0.32479143501591434
4184000000.0 0.9751203338960698 0.3119627052108192
4188000000.0 0.9577684624004545 0.2974668504522935
4191000000.0 0.9363551505797167 0.33382413847285924
4194000000.0 0.9922525657743521 0.2927945091158164
4197000000.0 0.9955067656318421 0.3016565667784927
4200000000.0 0.9772101962007647 0.28523357326756316
4203000000.0 0.9973996287377993 0.2929808113289757
4206000000.0 0.9922817260489939 0.26966953557051404
4209000000.0 0.989423569096092 0.2607843131479303
4212000000.0 0.9989505195154911 0.2102324942957583
4216000000.0 0.9846944829163643 0.24238440099492936
4219000000.0 1.0070340212332387 0.24573291468505323
4222000000.0 0.9970734790054947 0.20308645294322608
4225000000.0 1.0055981792629405 0.21207674935517787
4228000000.0 1.0191293643951274 0.218979084457277
4231000000.0 1.0019580487980404 0.17565879066793982
4234000000.0 1.0027136452945997 0.19020606482576202
4238000000.0 1.010769061189776 0.16192066612204556
4241000000.0 0.9980287735433133 0.14987004852122182
4244000000.0 0.9961766527290767 0.1611260277933842
4247000000.0 0.9806411651386192 0.16266043704964261
4250000000.0 0.9887568041360022 0.1269926539924861
4253000000.0 0.9848094310434559 0.11927509520981777
4256000000.0 1.0461198067664574 0.1105055966955712
4259000000.0 0.9781721161219146 0.09277496077631481
4262000000.0 1.0054369933658793 0.0569744063475153
4266000000.0 1.020966727940858 0.047360349529723955
4269000000.0 1.0080678661104905 0.09500001882065334
4272000000.0 1.023191087636613 0.10260781801914484
4275000000.0 1.014988758216441 0.07813752507731431
4278000000.0 1.0356770133446263 0.05237542829385897
4281000000.0 1.036595555548901 0.056560590286377124
4284000000.0 1.0160802111643907 0.0005791141864995991
4288000000.0 1.0373268597031637 0.04715438703898276
4291000000.0 0.9873459174774586 0.019123704576388234
4294000000.0 0.9861807616395485 0.020659447920420695
4297000000.0 0.9755164453367218 0.010929436393361164
4300000000.0 1.0218710988238298 0.011514581884618048
4303000000.0 1.0201282131578946 -0.03945654695513063
4306000000.0 1.0090628678626015 0.004702187375143219
4309000000.0 1.0058836195258265 -0.048170253844335396
4312000000.0 1.0294080278618596 -0.009340586015092266
4316000000.0 1.0136424571774023 -0.04065388836937836
4319000000.0 0.9823106952418923 -0.031211621082648716
4322000000.0 1.0048586389863057 -0.06929612695498814
4325000000.0 1.031133680852605 -0.06600709239893332
4328000000.0 1.0010584079780676 -0.06077095461075729
4331000000.0 1.0120658275349828 -0.12768226756516218
4334000000.0 1.0137616403694703 -0.11243442255195603
4338000000.0 0.9952559563660407 -0.09143507039914513
4341000000.0 1.0226229899311137 -0.08306599753474153
4344000000.0 1.0242726960044792 -0.11811877510009489
4347000000.0 0.9997974408965306 -0.1566952829991795
4350000000.0 0.9709960431491647 -0.14607045629175952
4353000000.0 0.9728628780641504 -0.13468322764071405
4356000000.0 0.9814642452470845 -0.18324059997843595
4359000000.0 0.9386894485337333 -0.17671120075940347
4362000000.0 0.9920166003211499 -0.2350732756746841
4366000000.0 1.0159115105684609 -0.19662380488462067
4369000000.0 0.9492624365341304 -0.20462033123785442
4372000000.0 0.9703083399513843 -0.25431764171055476
4375000000.0 0.9944194171736174 -0.20184879591368057
4378000000.0 0.9733931622203615 -0.21549707825443867
4381000000.0 0.9738696284311008 -0.23037165968757
4384000000.0 1.0159772887098968 -0.2838144807965031
4388000000.0 0.967875365139544 -0.23788963644113537
4391000000.0 0.9863850603288946 -0.25696817772315733
4394000000.0 0.933802277288311 -0.27327996371276253
4397000000.0 0.9627926276740086 -0.2852854985776002
4400000000.0 0.9962226098000238 -0.3009256545213803
4403000000.0 0.9836888768845052 -0.3009809354693336
4406000000.0 0.9575314617887125 -0.32403821779571385
4409000000.0 0.988081214092771 -0.34227307201244084
4412000000.0 0.9241697157757516 -0.3828368006588841
4416000000.0 0.9305447932412556 -0.34714949891116786
4419000000.0 0.9237933692572081 -0.3661526744185827
4422000000.0 0.936987453250747 -0.3370638053775261
4425000000.0 0.9644470484069441 -0.3452355242853241
4428000000.0 0.9423233379019968 -0.38687586238749766
4431000000.0 0.953168098791574 -0.3819486019892467
4434000000.0 0.9292911555562109 -0.3865663511700741
4438000000.0 0.942684975612121 -0.40345003776862176
4441000000.0 0.9360965383107256 -0.4235044502590792
4444000000.0 0.9109871212163692 -0.39847628159074067
4447000000.0 0.9014531780922371 -0.4293994658277236
4450000000.0 0.9073945987958693 -0.4239960734700795
4453000000.0 0.9297382843125608 -0.4564313306218277
4456000000.0 0.8723219235667656 -0.4470644034313861
4459000000.0 0.8604555228854556 -0.4403689325723079
4462000000.0 0.9367111393040877 -0.4883894395222418
4466000000.0 0.9219613567451013 -0.49586968109611906
4469000000.0 0.8943667373605253 -0.45607680778007403
4472000000.0 0.8875637369793429 -0.5132221957301735
4475000000.0 0.8618148640951611 -0.47268934481025227
4478000000.0 0.9065308379742308 -0.532326140415606
4481000000.0 0.8443388618999257 -0.5090032892965515
4484000000.0 0.841028895842781 -0.5570690312177237
4488000000.0 0.8509276648783539 -0.5374803542882736
4491000000.0 0.8707392211978876 -0.5287445342271161
4494000000.0 0.8527797960745893 -0.5320622643560866
4497000000.0 0.8449332904684232 -0.5466868414530781
4500000000.0 0.8632358223567258 -0.5595154877107404
4503000000.0 0.8619579399054449 -0.582372736886126
4506000000.0 0.8068167855110295 -0.5777146775067302
4509000000.0 0.8153562383067197 -0.5700429478061443
4512000000.0 0.7916637519034426 -0.5909562220043412
4516000000.0 0.8285020162467797 -0.6199719979911315
4519000000.0 0.787237627207332 -0.5941617790264091
4522000000.0 0.8025543890675537 -0.6182946627162996
4525000000.0 0.8163494154111626 -0.5924883617697254
4528000000.0 0.8142199366143235 -0.663358448048373
4531000000.0 0.7978950677028157 -0.6188257431051638
4534000000.0 0.7557826857409249 -0.636897627962048
4538000000.0 0.7765868662951962 -0.6327379425192987
4541000000.0 0.7553116247064374 -0.6554237264698425
4544000000.0 0.7603442186637814 -0.6612101961002944
4547000000.0 0.7544856290846664 -0.6621877824629328
4550000000.0 0.7453230924436336 -0.6910415888713588
4553000000.0 0.7311068692346423 -0.6728148546393815
4556000000.0 0.7204682722645339 -0.7013690704997675
4559000000.0 0.7293377380742014 -0.7024166330034334
4562000000.0 0.7298716502509719 -0.7155028680442173
4566000000.0 0.7111021932410095 -0.7357710538527678
4569000000.0 0.6894442239520467 -0.7342394939745058
4572000000.0 0.7003233928012392 -0.7456632389881244
4575000000.0 0.6940497454858621 -0.7418777392158546
4578000000.0 0.7242248454962696 -0.745116620921509
4581000000.0 0.6844013932316547 -0.7635987166405005
4584000000.0 0.6766095749762978 -0.7474214091854295
4588000000.0 0.6884234221756405 -0.77880352528885
4591000000.0 0.6665002727458361 -0.7610359818802613
4594000000.0 0.658276951150264 -0.7776228088564927
4597000000.0 0.6496931003840885 -0.7809433744693223
4600000000.0 0.6234670212540095 -0.7824828656011721
4603000000.0 0.6116592473217766 -0.8084765856670755
4606000000.0 0.6357427829974851 -0.792929332319961
4609000000.0 0.6052254680058506 -0.8154759690080406
4612000000.0 0.6135411431179891 -0.8276337390347439
4616000000.0 0.5777642959399087 -0.7998850289973782
4619000000.0 0.5755790947537526 -0.8088278076312897
4622000000.0 0.5932811304749309 -0.8250663261160334
4625000000.0 0.5436165438309127 -0.8349819450199636
4628000000.0 0.5697850532786373 -0.837854703021498
4631000000.0 0.5596895361362055 -0.8648743130699793
4634000000.0 0.5494715563672555 -0.8591543447236545
4638000000.0 0.5517502789506897 -0.8653616417843454
4641000000.0 0.5319222696119826 -0.8437320963300033
4644000000.0 0.5255563294511645 -0.8576268604466306
4647000000.0 0.5443930364456434 -0.8567247897237976
4650000000.0 0.49969128115947836 -0.8833864437009471
4653000000.0 0.5302476315310236 -0.8627528982795417
4656000000.0 0.4928172155195876 -0.9014732499393101
4659000000.0 0.4662834551317742 -0.8946951261976246
4662000000.0 0.467637710128523 -0.913852319418544
4666000000.0 0.4555838052259246 -0.8840641917495481
4669000000.0 0.4939012051863125 -0.9189525300822959
4672000000.0 0.4596724355119307 -0.9353628246056435
4675000000.0 0.46077210385342543 -0.9100936490164881
4678000000.0 0.43489889606454485 -0.9057784840757879
4681000000.0 0.4196865042364758 -0.9308771518712659
4684000000.0 0.4023828513585815 -0.9299586612597552
4688000000.0 0.3744768844896274 -0.9379436932749485
4691000000.0 0.416037256301542 -0.9324845049848498
4694000000.0 0.417191892311521 -0.9035969088667097
4697000000.0 0.3603128317610047 -0.9021215887873564
4700000000.0 0.38213791792000884 -0.9327718225483892
4703000000.0 0.3971123575524905 -0.8830558837849851
4706000000.0 0.35732607587830956 -0.9450002991752959
4709000000.0 0.35329414134156434 -0.9640441263210761
4712000000.0 0.33081238154622633 -0.9601052943409307
4716000000.0 0.3121961783955754 -0.9515711416784203
4719000000.0 0.34233888912866706 -0.9687376818422263
4722000000.0 0.32213674284813104 -0.9683183059268219
4725000000.0 0.3168071861562764 -0.9587963913554066
4728000000.0 0.30441636803173927 -0.9794260927058165
4731000000.0 0.32394190039209536 -0.9969875912598485
4734000000.0 0.298238149998846 -0.9548620952502095
4738000000.0 0.29485430642826155 -1.0345697673965362
4741000000.0 0.2506189111898241 -1.031359450088851
4744000000.0 0.25083406950514786 -0.9634594197721119
4747000000.0 0.2660389533871722 -0.9382940870144251
4750000000.0 0.25010424503161793 -1.0104625977727677
4753000000.0 0.25971428135184915 -0.9888217392031919
4756000000.0 0.21442814553765563 -1.0043429888680808
4759000000.0 0.2400583865758303 -1.0207071441782776
4762000000.0 0.15254660744016227 -1.0476446529110806
4766000000.0 0.20168330600592532 -0.9792162769294868
4769000000.0 0.18674597188183312 -1.0004409513447772
4772000000.0 0.15935162855827867 -0.9955619653062738
4775000000.0 0.14864134465582599 -1.0678449715153702
4778000000.0 0.15055009681702128 -1.0166764177092318
4781000000.0 0.17590327126082977 -1.01508486617684
4784000000.0 0.17028889691255356 -0.99294573930381
4788000000.0 0.10447766783399479 -1.033652069994054
4791000000.0 0.12892593956689632 -1.0029731427637965
4794000000.0 0.1504456503596056 -1.0312112537878375
4797000000.0 0.10319175777645442 -0.9755630247803323
4800000000.0 0.08327742932263327 -1.021167653144376
4803000000.0 0.06532047191025761 -0.9877440610179491
4806000000.0 0.04120327258576706 -1.0394688161788816
4809000000.0 0.010836332518528058 -1.006069849682474
4812000000.0 0.01622211022674011 -1.0116453491579582
4816000000.0 0.06657766991557035 -1.0113705401813982
4819000000.0 0.06298559782438021 -1.0512526898468537
4822000000.0 0.055782947160371424 -1.0588673300844185
4825000000.0 0.06400515272435306 -1.0570404249724383
4828000000.0 0.01684306626589635 -1.0355001229975667
4831000000.0 -0.04157321500180085 -1.0425933144428285
4834000000.0 0.030589950887650125 -1.0424178812898
4838000000.0 -0.04093520462557669 -1.0560871615314655
4841000000.0 -0.04060653341376906 -1.010102218986165
4844000000.0 -0.007357201736910152 -1.0596560391056744
4847000000.0 -0.01271263946101965 -1.0108835175055586
4850000000.0 -0.05424367964463696 -1.0544927691831554
4853000000.0 -0.06166795063322131 -1.0189652507082378
4856000000.0 -0.07455733139717269 -0.9977648694010582
4859000000.0 -0.09341468903133665 -1.0640079358516665
4862000000.0 -0.07252407869560686 -0.996460299542879
4866000000.0 -0.1432948410411705 -1.0336158322469458
4869000000.0 -0.11154674111225966 -1.0317582336786806
4872000000.0 -0.14978960959157808 -1.0560921647829156
4875000000.0 -0.08358035500459228 -1.0681852483248648
4878000000.0 -0.13981543333118646 -1.0256422005463341
4881000000.0 -0.18511457199963766 -1.0656053979397235
4884000000.0 -0.1304823887297132 -1.0454129364989766
4888000000.0 -0.11860967977169633 -1.024446296000869
4891000000.0 -0.1262624437274335 -1.039266963617599
4894000000.0 -0.19563772034133156 -1.0295319716894171
4897000000.0 -0.1482409143679342 -1.0411808202039035
4900000000.0 -0.22291013677851235 -1.007422184438638
4903000000.0 -0.1974288946751812 -1.0258159762585781
4906000000.0 -0.24754272998599847 -1.0193290167329705
4909000000.0 -0.22525822120346178 -1.006877295390373
4912000000.0 -0.2640227079932125 -1.0589839662429017
4916000000.0 -0.24774601426253107 -1.0253414827529892
4919000000.0 -0.245005193982328 -1.0578559289751457
4922000000.0 -0.19294310923467636 -1.0184890973903573
4925000000.0 -0.2842958452415888 -0.9831802323254925
4928000000.0 -0.1852598109801878 -1.005967315858008
4931000000.0 -0.24098942084298947 -1.0386632730338408
4934000000.0 -0.287307552825936 -0.9673763760666272
4938000000.0 -0.3285487346795051 -0.9509666273241901
4941000000.0 -0.31214719709696515 -0.9438479858245697
4944000000.0 -0.26115390094537594 -0.9301688941986801
4947000000.0 -0.3076873141581644 -0.9583302795795265
4950000000.0 -0.3441164759779348 -0.9491987353538023
4953000000.0 -0.39180615384723827 -0.9835078164468729
4956000000.0 -0.3284695195755154 -0.9948018218202082
4959000000.0 -0.3792951151365853 -0.9258427661542896
4962000000.0 -0.39151583773109133 -0.9703735663906659
4966000000.0 -0.3296148332683483 -0.9766667221112211
4969000000.0 -0.37040685698738607 -0.9971055184234453
4972000000.0 -0.416490852025974 -0.963197895221386
4975000000.0 -0.35178103395574156 -0.9590048627406665
4978000000.0 -0.4489681855632317 -0.968355189990497
4981000000.0 -0.43623996288997624 -0.9419741751682366
4984000000.0 -0.3982846534855671 -0.9386585881394236
4988000000.0 -0.39798287778464464 -0.9402449259130312
4991000000.0 -0.3994872361474083 -0.9687292748946745
4994000000.0 -0.4172361079409096 -0.9279097616561651
4997000000.0 -0.4986124837965699 -0.9298054652877201
5000000000.0 -0.46516424364126563 -0.9710310653720566
5003000000.0 -0.49218912886897254 -0.9541136908971805
5006000000.0 -0.5073089153016023 -0.9346474763486325
5009000000.0 -0.5109346295570135 -0.9175038925153687
5012000000.0 -0.5191306513341603 -0.895209253254786
5016000000.0 -0.49975525087657197 -0.9710658716446832
5019000000.0 -0.5257312288716511 -0.8855777001403218
5022000000.0 -0.5195362798235411 -0.9051342551007184
5025000000.0 -0.5690041094589666 -0.9225471548266511
5028000000.0 -0.5680639593161996 -0.8937560088994665
5031000000.0 -0.5675309263227315 -0.8897421036402305
5034000000.0 -0.5817589143432152 -0.8893799959632541
5038000000.0 -0.5674293941824462 -0.8505788705281797
5041000000.0 -0.5240183103057738 -0.8649959239557271
5044000000.0 -0.5573448943310498 -0.8567941628528929
5047000000.0 -0.5721902274294306 -0.8470539144036083
5050000000.0 -0.519595660489795 -0.9025417768134607
5053000000.0 -0.615402350823722 -0.8883346595914805
5056000000.0 -0.5694732430105061 -0.8748996815738648
5059000000.0 -0.573418365062691 -0.9058733342575233
5062000000.0 -0.6847698990382153 -0.8627176979719688
5066000000.0 -0.5866207816509443 -0.8675592471823588
5069000000.0 -0.6376836133367643 -0.8466030538626778
5072000000.0 -0.581977937113995 -0.8009023475199919
5075000000.0 -0.6190359251763689 -0.8194959207941486
5078000000.0 -0.6505231060392394 -0.7684259541173819
5081000000.0 -0.6310886512090375 -0.7689532753980458
5084000000.0 -0.6786460421197336 -0.8131125849342675
5088000000.0 -0.6627013192131134 -0.7792451874197204
5091000000.0 -0.7040571541666525 -0.6878692354595579
5094000000.0 -0.70737102384332 -0.7840673953824896
5097000000.0 -0.6756852537980877 -0.7916949305237329
5100000000.0 -0.7070258523363893 -0.7466807962103612
5103000000.0 -0.761251401010931 -0.728423559425721
5106000000.0 -0.6847379913565761 -0.766027267008371
5109000000.0 -0.7257738470842511 -0.790821101076006
5112000000.0 -0.7160788769860016 -0.7130096250621127
5116000000.0 -0.7377511113311679 -0.7261247566939534
5119000000.0 -0.7866197312833142 -0.725853181465419
5122000000.0 -0.7165718695877408 -0.7259171618306526
5125000000.0 -0.709254371418627 -0.7407689347687073
5128000000.0 -0.7054056327708196 -0.682309821538571
5131000000.0 -0.7491771545089919 -0.6984843902416957
5134000000.0 -0.7457325424080743 -0.6878078523079888
5138000000.0 -0.7645322598176776 -0.715576972372315
5141000000.0 -0.7488020416697783 -0.7494487301418826
5144000000.0 -0.767053312009441 -0.696684152158302
5147000000.0 -0.8170632476422625 -0.6623234427849479
5150000000.0 -0.8290739895569024 -0.6404317196035263
5153000000.0 -0.815059797060135 -0.6735743408252468
5156000000.0 -0.8163309569131832 -0.6592449968535617
5159000000.0 -0.8409774672183075 -0.6511816596157086
5162000000.0 -0.8373050703340603 -0.6575821569605852
5166000000.0 -0.8411284200922623 -0.6474608643567535
5169000000.0 -0.8758801001475675 -0.6231473667414288
5172000000.0 -0.8469183592446824 -0.5877225256701745
5175000000.0 -0.8919367267052133 -0.6531929872023187
5178000000.0 -0.8749114547514718 -0.6139527258682451
5181000000.0 -0.8717957554555518 -0.6344043949592422
5184000000.0 -0.8927654587469719 -0.5820968525364051
5188000000.0 -0.8691869766265932 -0.5689314839482433
