! Created with skrf 1.8.0 (http://scikit-rf.org).
# Hz S RI R 50.0 
!freq ReS11 ImS11
4000000000.0 0.6284126577124803 0.7411141208519252
4003000000.0 0.7106475316958468 0.8503872261812409
4006000000.0 0.6586623139601772 0.756515122814011
4009000000.0 0.6393675844732354 0.8000177586659661
4012000000.0 0.6462380383496574 0.82401268325862
4016000000.0 0.6930481310512856 0.747256785378045
4019000000.0 0.671714602324569 0.7311109861221683
4022000000.0 0.6438907444038795 0.8734009444800998
4025000000.0 0.7468781785345868 0.714991900035891
4028000000.0 0.7346701688020214 0.7493762360924776
4031000000.0 0.6621063445603018 0.737034604801943
4034000000.0 0.7035953174003101 0.7682899933540766
4038000000.0 0.7283890067944276 0.708010043483378
4041000000.0 0.7404869483339218 0.7310802526985023
4044000000.0 0.7661182169632751 0.7558355413234953
4047000000.0 0.7675987853270098 0.7877331570724863
4050000000.0 0.7920868608817693 0.6899058412873367
4053000000.0 0.7376792808094967 0.7104616852785965
4056000000.0 0.7511093580954865 0.6899788924457768
4059000000.0 0.7599836529925218 0.6875355924713904
4062000000.0 0.7887214838855066 0.6378563488487499
4066000000.0 0.7459780395414115 0.6521096160948668
4069000000.0 0.8366562042732283 0.6619840245768782
4072000000.0 0.7425854333767338 0.686300592993192
4075000000.0 0.8264331221251267 0.6892304819628183
4078000000.0 0.815188165718574 0.6629239861654185
4081000000.0 0.8157412970091388 0.7075977638538321
4084000000.0 0.8144656007592402 0.6305641831470763
4088000000.0 0.7914178633343041 0.6678600662086916
4091000000.0 0.8672943735134526 0.6524497045996647
4094000000.0 0.8100224786375575 0.6354080718832943
4097000000.0 0.83084632991601 0.5951490445439
4100000000.0 0.8467079866306463 0.5726390367978653
4103000000.0 0.8104484790372757 0.5975945882779083
4106000000.0 0.8449658868262846 0.5605141689442759
4109000000.0 0.8745472274644006 0.5661306119484204
4112000000.0 0.8405582871486685 0.5705398693997454
4116000000.0 0.8475784815306904 0.5654837871191143
4119000000.0 0.8516408809838771 0.5345594790235475
4122000000.0 0.8723484129102028 0.46535457711248285
4125000000.0 0.903055906928303 0.5496347756070892
4128000000.0 0.8280231541010022 0.5437549221673221
4131000000.0 0.8442448419342283 0.5037752203209979
4134000000.0 0.8741888209517377 0.545841468777234
4138000000.0 0.883398349693673 0.4943288228260229
4141000000.0 0.8800660675499448 0.4837557153968379
4144000000.0 0.858939401431522 0.564194043274479
4147000000.0 0.903284553989214 0.4825319045685644
4150000000.0 0.9324289547880487 0.5097709693483954
4153000000.0 0.9130730734102676 0.4586879202296238
4156000000.0 0.9044109812170129 0.4866088804636186
4159000000.0 0.9098465306424646 0.4506413373669243
4162000000.0 0.8960598482663267 0.480194504983009
4166000000.0 0.9275320635326423 0.45267210364918264
4169000000.0 0.9263836176009311 0.40450014231954035
4172000000.0 0.9292828109223886 0.4544662124235805
4175000000.0 0.9096979139872712 0.4352055939418132
4178000000.0 0.9572038608328071 0.41887551723735994
4181000000.0 0.9328303831594811 0.4029769462132319
4184000000.0 0.9119458736180931 0.40919227051623225
4188000000.0 0.9696033855462833 0.37447561328648227
4191000000.0 0.9224028226261123 0.4082145115264471
4194000000.0 0.9110873629555586 0.37632079836449317
4197000000.0 0.9451234885606455 0.35453514210453013
4200000000.0 0.9514308903969166 0.3585479110684783
4203000000.0 0.9561016515139584 0.3736177178903479
4206000000.0 0.9753981564200586 0.3472723622230172
4209000000.0 0.9535664918845549 0.34385367718136356
4212000000.0 0.9585927221672488 0.2939909442565427
4216000000.0 0.9760632413933262 0.3335557794446727
4219000000.0 0.9768067895017887 0.3260859722422921
4222000000.0 0.9810412978442762 0.28518985715635653
4225000000.0 0.9653867488853509 0.3057964769851741
4228000000.0 0.9792985406103987 0.2963255862985692
4231000000.0 0.980548656931289 0.281231468059606
4234000000.0 0.9928353013375263 0.27327595244481784
4238000000.0 0.986049359048663 0.2472264249086202
4241000000.0 0.9727808524546246 0.24532316024973727
4244000000.0 0.9924580469256882 0.2389106170477125
4247000000.0 0.9731393185969025 0.25208524792872994
4250000000.0 0.9788050163053701 0.22912159223357553
4253000000.0 0.9804393614529909 0.19501341484095397
4256000000.0 1.0059008415278199 0.22034886382551383
4259000000.0 0.9761434405665198 0.18322718106870176
4262000000.0 1.0041428341632226 0.17450522494594992
4266000000.0 1.0270551956158291 0.16230077917004465
4269000000.0 0.9896564320372666 0.1821974295393933
4272000000.0 0.9909458311481975 0.17712040275826446
4275000000.0 0.9896763398076307 0.15499129196206896
4278000000.0 1.0200034587060427 0.1750412569712284
4281000000.0 1.0191467472356142 0.16865129112116983
4284000000.0 1.0072512985201283 0.10107777118223388
4288000000.0 1.000596386154307 0.14438438630169362
4291000000.0 1.0050703477414422 0.1143703927633113
4294000000.0 1.0056349503940996 0.13418549205196234
4297000000.0 0.9896040241207529 0.09129862970796095
4300000000.0 0.9813113283326849 0.09439056344680538
4303000000.0 1.0077844931758884 0.07714380868651251
4306000000.0 0.9891426474050681 0.10183584938253953
4309000000.0 1.001262065582359 0.06546026051609898
4312000000.0 1.0119015388592525 0.09930718781263123
4316000000.0 1.020577448125679 0.062050916902273115
4319000000.0 0.9742097579894728 0.07539673502291099
4322000000.0 0.9971491199934461 0.012415792141967558
4325000000.0 1.00015750556995 0.05390423286833036
4328000000.0 1.0043637822208453 0.03566592300358602
4331000000.0 1.0126929894494032 -0.008414576704640256
4334000000.0 1.0079622093554959 0.006695177151705256
4338000000.0 1.007842224473881 0.014002931524498871
4341000000.0 1.040260523327855 0.03243759779888941
4344000000.0 1.0222303258851744 0.019441303235457508
4347000000.0 1.0107425561204622 -0.0453478149733296
4350000000.0 0.9723077279965171 -0.039698590594214794
4353000000.0 0.9795137458217298 -0.02560887792620764
4356000000.0 0.9833300808610375 -0.08180556074478028
4359000000.0 0.9856100498781102 -0.06917532355872569
4362000000.0 1.0100286490910393 -0.1163104287975529
4366000000.0 1.0312381198286622 -0.10166519921334806
4369000000.0 0.9854762884870376 -0.09126910449401639
4372000000.0 0.9876686200020344 -0.12190800280184678
4375000000.0 0.9934837081155425 -0.09176743437418775
4378000000.0 0.9704752245901528 -0.12730376800421792
4381000000.0 0.9915788549035409 -0.12847412133805725
4384000000.0 1.067393780241698 -0.16397926669423252
4388000000.0 0.9538625205239594 -0.13052005632452124
4391000000.0 1.0104136549482807 -0.15093894966701554
4394000000.0 0.9847270231419587 -0.1496541025938682
4397000000.0 0.9825718252553588 -0.19330389703618764
4400000000.0 1.013913426807699 -0.18459313156476867
4403000000.0 0.9992473237482365 -0.18852813094602758
4406000000.0 0.9870722712713953 -0.22720449042891044
4409000000.0 1.0061379645249242 -0.21393842274681676
4412000000.0 0.964213939151751 -0.26303601939372573
4416000000.0 0.9595630978742613 -0.22966134763580465
4419000000.0 0.9925446942253111 -0.2542452098477461
4422000000.0 0.9805272694498988 -0.22891096239153377
4425000000.0 0.9923041683663255 -0.2282059851744897
4428000000.0 0.9770789973116563 -0.2646367837000107
4431000000.0 0.9956626199800884 -0.25094998274647334
4434000000.0 0.9503008879535132 -0.28816460336139044
4438000000.0 0.9982787218639655 -0.29008661345276654
4441000000.0 0.9762622635577518 -0.30512799267167656
4444000000.0 0.9393723734591182 -0.2907747110932587
4447000000.0 0.9631747665956101 -0.3211268698607307
4450000000.0 0.9333102541213094 -0.3064952835626212
4453000000.0 0.9850175827886979 -0.3266753896541467
4456000000.0 0.9346888102862224 -0.3216248558089463
4459000000.0 0.8967230950920217 -0.3418401870331944
4462000000.0 0.9829368087123442 -0.3743631222087228
4466000000.0 0.9696495170518254 -0.3826399927971771
4469000000.0 0.9443874573406004 -0.35586462641327077
4472000000.0 0.9463647141987547 -0.41216995925848243
4475000000.0 0.9199757929819868 -0.3802829336947938
4478000000.0 0.9620979706662329 -0.4292395850766225
4481000000.0 0.9084637164820492 -0.3871574337651232
4484000000.0 0.8903982901957275 -0.4555643006717681
4488000000.0 0.8909289901635036 -0.43215403167581007
4491000000.0 0.9134732055761943 -0.45440089510606335
4494000000.0 0.9034941205461255 -0.4371753718726532
4497000000.0 0.9060920878784458 -0.4216541087595809
4500000000.0 0.9006681082958641 -0.4468364898545317
4503000000.0 0.9342434018829491 -0.47591977377036926
4506000000.0 0.8896457854614215 -0.46657514207997225
4509000000.0 0.8689506536952867 -0.4762537047879376
4512000000.0 0.8622668104740597 -0.47489723709127685
4516000000.0 0.8958664780029956 -0.4939183925054781
4519000000.0 0.8562516997423799 -0.47361885793610364
4522000000.0 0.866186597339172 -0.5356806557914608
4525000000.0 0.8741606142680267 -0.48896250894579796
4528000000.0 0.8854073325869234 -0.5484139100423683
4531000000.0 0.870404425792839 -0.5195939777010706
4534000000.0 0.8273696264679296 -0.5323853726552201
4538000000.0 0.8378060703455519 -0.5414049794840642
4541000000.0 0.8168950420800014 -0.5738961948907345
4544000000.0 0.8154002925524335 -0.5545145752603354
4547000000.0 0.8173807654490742 -0.5488250249256725
4550000000.0 0.8166308926415433 -0.5890070941027141
4553000000.0 0.8255151201773359 -0.5955697439717391
4556000000.0 0.7866560014409847 -0.5812682531130416
4559000000.0 0.7980767581599806 -0.6127977623868612
4562000000.0 0.8190239345464292 -0.590943059104067
4566000000.0 0.7997345535266669 -0.6300543062650252
4569000000.0 0.7908297689792713 -0.5954663408737306
4572000000.0 0.7880981399484798 -0.6198019009632533
4575000000.0 0.7762751386112787 -0.652278203580701
4578000000.0 0.805933570491536 -0.6424403173990174
4581000000.0 0.7592245723887022 -0.648838102801206
4584000000.0 0.7688561880570686 -0.6342609045798684
4588000000.0 0.7729527509988064 -0.6647273664775531
4591000000.0 0.7850560190237822 -0.64334270962277
4594000000.0 0.729556199938821 -0.671299373157145
4597000000.0 0.7392370272734019 -0.6925324397663826
4600000000.0 0.7068320204170823 -0.6913832782280335
4603000000.0 0.7236666237549257 -0.6964006574672913
4606000000.0 0.7414117661904361 -0.6953773616515802
4609000000.0 0.7317923660913895 -0.7087374049693396
4612000000.0 0.7031529284840146 -0.7100905077490745
4616000000.0 0.6977811484226069 -0.7356052078121426
4619000000.0 0.7112743756608186 -0.7157952064394429
4622000000.0 0.6917978703668772 -0.7280840902629168
4625000000.0 0.6609422380101463 -0.7160881503639375
4628000000.0 0.6942487721479268 -0.7336022852469112
4631000000.0 0.6653967635747711 -0.7430699199895454
4634000000.0 0.6654929361945312 -0.7530473336060042
4638000000.0 0.6730365595261236 -0.7613417681367738
4641000000.0 0.6669316946838169 -0.7786542159216875
4644000000.0 0.6532087733817526 -0.766505273518805
4647000000.0 0.6352530885507195 -0.7840675228477447
4650000000.0 0.610589433407316 -0.7850745016307069
4653000000.0 0.6372952111618885 -0.8047248220076463
4656000000.0 0.6073665617964326 -0.8035034619764552
4659000000.0 0.6042751030042607 -0.8251235824435813
4662000000.0 0.5954102874550141 -0.8107311893045757
4666000000.0 0.6063246054926185 -0.821832939209439
4669000000.0 0.5903747697730777 -0.8080946274864593
4672000000.0 0.5792593023513689 -0.8466612197076774
4675000000.0 0.5730048965229324 -0.8479809573619168
4678000000.0 0.561578093132661 -0.8050595205992384
4681000000.0 0.5450544114674069 -0.8569210987804714
4684000000.0 0.514845254820179 -0.860886977739486
4688000000.0 0.5155944128680527 -0.8380903895640822
4691000000.0 0.5772084690845564 -0.8549813032930047
4694000000.0 0.5102314520147134 -0.8361321033595313
4697000000.0 0.4867502866603299 -0.8455658300294744
4700000000.0 0.5203418769193124 -0.8888581295656988
4703000000.0 0.5148910553871627 -0.8448180309328197
4706000000.0 0.4990785775882408 -0.8770741811718376
4709000000.0 0.5023988719999701 -0.8896830944228321
4712000000.0 0.4992423475601695 -0.8922111786150985
4716000000.0 0.4846404788375869 -0.9165747145733141
4719000000.0 0.48318560722833426 -0.8970666163717698
4722000000.0 0.4871313969314025 -0.9103694069829003
4725000000.0 0.4769453760151607 -0.9024530346007291
4728000000.0 0.41370026203267507 -0.8925301017628633
4731000000.0 0.48131965434234425 -0.9325198942567701
4734000000.0 0.4564701582088003 -0.9015779766240817
4738000000.0 0.4596013416351335 -0.9663329139489042
4741000000.0 0.43707261819663434 -0.9415243597081948
4744000000.0 0.3987680747606308 -0.9424554748294227
4747000000.0 0.36802828232891943 -0.8985256933924864
4750000000.0 0.4021909453834452 -0.9444445185468392
4753000000.0 0.3905033783348917 -0.9130058478957801
4756000000.0 0.39883914279169563 -0.9578685621854539
4759000000.0 0.40241670208280533 -0.9770553629834936
4762000000.0 0.3470391557104729 -0.9497915489654427
4766000000.0 0.3534516468177537 -0.9624748898620268
4769000000.0 0.32939168598081325 -0.980145528465867
4772000000.0 0.31143385601223467 -0.964874415109865
4775000000.0 0.31971398092399395 -1.009192932481551
4778000000.0 0.30043894003070204 -0.987408238083367
4781000000.0 0.32330983808000374 -0.9872883548742035
4784000000.0 0.3236409978522974 -0.9668576486962487
4788000000.0 0.2849185525526366 -0.9866289260312129
4791000000.0 0.31213036463553306 -0.979613046877088
4794000000.0 0.32078875504250276 -0.9912117410266927
4797000000.0 0.2858821185012742 -0.9765455720469757
4800000000.0 0.23862730621921 -0.9620518030861882
4803000000.0 0.21905094527978666 -1.0094186616770802
4806000000.0 0.26025394462938145 -1.0015211831861328
4809000000.0 0.1929235875010153 -0.9816108977029644
4812000000.0 0.1913144557218763 -0.9714022371756894
4816000000.0 0.2546381434718291 -0.9726271943538449
4819000000.0 0.21985782875009646 -0.9952359008644427
4822000000.0 0.2180301054976145 -1.0155003182229505
4825000000.0 0.21313786638019877 -0.997922706238513
4828000000.0 0.1778718047521948 -1.0198706423638488
4831000000.0 0.15412511627094808 -1.0380076767981943
4834000000.0 0.17349689239363852 -1.0188469423931872
4838000000.0 0.13292169233541504 -1.0299205980202775
4841000000.0 0.13209664736784715 -0.9960539187224126
4844000000.0 0.17349202435434055 -1.0110728482787708
4847000000.0 0.1688197506853401 -0.9837188790477445
4850000000.0 0.09501762577607634 -1.0427103829400521
4853000000.0 0.12117486365874101 -0.9928452210038228
4856000000.0 0.09876133025472433 -1.0074023423287701
4859000000.0 0.10180953829477846 -1.061662596036598
4862000000.0 0.12255353958263027 -1.0212572408095995
4866000000.0 0.07134758699960488 -1.0406386118687145
4869000000.0 0.06164841791390463 -1.0160485924782032
4872000000.0 0.047834439545004916 -1.0508593702401436
4875000000.0 0.12010863216300122 -1.0639533622284005
4878000000.0 0.05423090144796007 -1.0317355860092032
4881000000.0 0.010810203532883813 -1.0943587533784986
4884000000.0 0.054611059451527846 -1.0325762778106087
4888000000.0 0.044243661561873086 -1.0223692547351502
4891000000.0 0.03633833373939272 -1.0296819404241404
4894000000.0 -0.0024155884467221365 -1.013562758042845
4897000000.0 0.04806754775502654 -1.0037575220341306
4900000000.0 0.012995067274846148 -1.0647175264782678
4903000000.0 0.005591837320173581 -1.052326639630492
4906000000.0 -0.005812386042401477 -1.0298711280733448
4909000000.0 -0.03207246418901844 -1.0079924582198794
4912000000.0 -0.05644350090911779 -1.0563640236299603
4916000000.0 -0.019519671767449447 -1.0716784882581236
4919000000.0 -0.035666707303677256 -1.0584915200243996
4922000000.0 -0.008191504303445951 -1.0433156467470956
4925000000.0 -0.12065225050885692 -1.0138596109859104
4928000000.0 -0.01181462538950584 -1.0223114639572874
4931000000.0 -0.05290477594474778 -1.031172648881979
4934000000.0 -0.10750049045109507 -0.993239771865699
4938000000.0 -0.13768275809842795 -0.9880426234879947
4941000000.0 -0.09016338277498372 -1.0339122982269073
4944000000.0 -0.0941643738784127 -0.9808227832237526
4947000000.0 -0.11042673685059962 -1.0056980732127476
4950000000.0 -0.1023259222149739 -1.000079279482246
4953000000.0 -0.2207710569498187 -1.0262486480100148
4956000000.0 -0.17864147413643644 -1.0267425965289319
4959000000.0 -0.2088589871880888 -0.9854566305218859
4962000000.0 -0.1746777545760209 -1.0500738186807228
4966000000.0 -0.17355185218481473 -1.0253072820521667
4969000000.0 -0.16262296370924284 -1.0106106989812378
4972000000.0 -0.20913571919666904 -1.0139695436335843
4975000000.0 -0.15050336568556613 -1.0021609381390761
4978000000.0 -0.2337505344254942 -1.002174033541546
4981000000.0 -0.2250227956863757 -0.9935882812013838
4984000000.0 -0.22270347055768844 -0.988647899771967
4988000000.0 -0.20711613303516374 -1.0272353410114357
4991000000.0 -0.18653593796574963 -1.0289400436385763
4994000000.0 -0.24049761478244996 -1.0228545413576977
4997000000.0 -0.2751689649904796 -0.9807029146193921
5000000000.0 -0.2548248397934069 -1.0681097282460152
5003000000.0 -0.24358083551444776 -1.0290352791043196
5006000000.0 -0.3045685709555678 -1.060161584734954
5009000000.0 -0.2842926338475743 -0.9957834318746427
5012000000.0 -0.3088631686168308 -0.9834334226737351
5016000000.0 -0.2706213447558315 -1.0210305350574358
5019000000.0 -0.32654728303799074 -0.9813998245234459
5022000000.0 -0.32691340696712745 -0.9600869775683314
5025000000.0 -0.32960077418822814 -1.03392145056581
5028000000.0 -0.33853239494421117 -0.9802381535094205
5031000000.0 -0.37268989851862344 -0.9532889080512917
5034000000.0 -0.39116699985244896 -0.9812975892345057
5038000000.0 -0.36862032285667334 -0.9405456729175126
5041000000.0 -0.3544903719692277 -0.9865451699559599
5044000000.0 -0.34624192356412953 -0.9516256881039425
5047000000.0 -0.35120606960835504 -0.9653594472427608
5050000000.0 -0.33002220478918687 -0.9586812347206497
5053000000.0 -0.41607434462909987 -0.97642919852606
5056000000.0 -0.37839347159514247 -0.9604132147116475
5059000000.0 -0.3631525504885183 -0.9832867262692279
5062000000.0 -0.46010158490924713 -0.9335963906081208
5066000000.0 -0.3862327821888799 -0.965359288822834
5069000000.0 -0.43940505655845363 -0.9470853403082572
5072000000.0 -0.45128073431802673 -0.9406129546194175
5075000000.0 -0.41497081329655305 -0.9109676086105181
5078000000.0 -0.5038280782655193 -0.9428879923844806
5081000000.0 -0.49232435083226406 -0.8494358316778469
5084000000.0 -0.45666188585326295 -0.9374830612567293
5088000000.0 -0.45349055085828793 -0.8674651068012427
5091000000.0 -0.5551401499731907 -0.905498084665233
5094000000.0 -0.5024840974490485 -0.9101789696699888
5097000000.0 -0.4779553518959412 -0.8888814419468414
5100000000.0 -0.5066546472384901 -0.8655555056597332
5103000000.0 -0.5438359683758943 -0.894883148735567
5106000000.0 -0.5051960156279246 -0.965680289941333
5109000000.0 -0.5203949352615931 -0.9209216340071242
5112000000.0 -0.5492888380199566 -0.9075485020966891
5116000000.0 -0.48115378976249107 -0.8666513981407424
5119000000.0 -0.5351240668669824 -0.8735291335327864
5122000000.0 -0.5514202650010795 -0.8809661117689831
5125000000.0 -0.5151157541859246 -0.8333396861505139
5128000000.0 -0.5713481244971501 -0.8705642090416954
5131000000.0 -0.52877440357412 -0.8639898516525472
5134000000.0 -0.5439635452376992 -0.8628037140765099
5138000000.0 -0.560448848416294 -0.8485628657002633
5141000000.0 -0.5298596783119145 -0.9324252493281742
5144000000.0 -0.5853350304781529 -0.8285464063824424
5147000000.0 -0.5866113027067528 -0.8436795935180748
5150000000.0 -0.6057958105502742 -0.8312763430418787
5153000000.0 -0.6336526127268343 -0.8425783818140584
5156000000.0 -0.6573761259257234 -0.8832053171516338
5159000000.0 -0.6076479438447296 -0.8646406100197005
5162000000.0 -0.68485549073595 -0.8103409619592171
5166000000.0 -0.66295658985157 -0.7881716116206231
5169000000.0 -0.6625352093640587 -0.83344075583923
5172000000.0 -0.6530761079193537 -0.8132409720660877
5175000000.0 -0.6295764946014689 -0.8320120435878355
5178000000.0 -0.7012233263240635 -0.7742765853224798
5181000000.0 -0.6840702266202195 -0.8036107032419024
5184000000.0 -0.706762496579561 -0.750473350911189
5188000000.0 -0.6972407202680229 -0.7864750573146081
