! Created with skrf 1.8.0 (http://scikit-rf.org).
# Hz S RI R 50.0 
!freq ReS11 ImS11
4000000000.0 0.6178733131763108 0.8162336766107365
4003000000.0 0.6563067450252189 0.8676404721674006
4006000000.0 0.6865635141390256 0.7725000887633915
4009000000.0 0.6913129553408173 0.8124539314723692
4012000000.0 0.6683380223524777 0.8228599810348963
4016000000.0 0.7241934384471969 0.7144611910465826
4019000000.0 0.6702743575008843 0.7716477810346316
4022000000.0 0.6431347849133706 0.8176671100943029
4025000000.0 0.7620849257439063 0.7289655194554593
4028000000.0 0.7339701834704546 0.7052402954261405
4031000000.0 0.7051581756066937 0.713065252399782
4034000000.0 0.6972278461478353 0.744795424427874
4038000000.0 0.7438554927237196 0.7592023622117233
4041000000.0 0.6886204319080689 0.7513675592934691
4044000000.0 0.7881609515018029 0.7595499680643635
4047000000.0 0.7209129704483728 0.7450672175096136
4050000000.0 0.7702770376357315 0.7227442052418381
4053000000.0 0.7956406515204066 0.6317077270106166
4056000000.0 0.7662926441897381 0.7163118864331279
4059000000.0 0.7438989431169425 0.6749414931656412
4062000000.0 0.8002914542445472 0.6642951508773571
4066000000.0 0.7456923197273875 0.6101067915332143
4069000000.0 0.82131324175989 0.6833999875881006
4072000000.0 0.7436707374761289 0.6792902533778269
4075000000.0 0.8046189274234399 0.7330275526382461
4078000000.0 0.8258373666884032 0.628114844616734
4081000000.0 0.7756135372847479 0.7132039112988693
4084000000.0 0.8230093411493001 0.6301853495073477
4088000000.0 0.830843515009999 0.6817741614239157
4091000000.0 0.9032087069472885 0.6435591150282864
4094000000.0 0.8282100952336408 0.5870813579865103
4097000000.0 0.8375564804797294 0.5855928971511566
4100000000.0 0.8441974188159412 0.5661531630427439
4103000000.0 0.869315957756724 0.6109938696612647
4106000000.0 0.8761175732654277 0.5999363309040081
4109000000.0 0.8916072203065308 0.5591832502302929
4112000000.0 0.8438340881096624 0.586969176746438
4116000000.0 0.8577226092478091 0.5807847272336952
4119000000.0 0.8965396138850132 0.5590232630290651
4122000000.0 0.9162221420436009 0.5532129885813799
4125000000.0 0.890842165295055 0.5107147282672719
4128000000.0 0.8369131704817029 0.5661056213960007
4131000000.0 0.8842493299613248 0.5082719158325858
4134000000.0 0.8321109523024843 0.5366559236572073
4138000000.0 0.8769667751522983 0.49481253161760846
4141000000.0 0.8792649700151475 0.5133516288751605
4144000000.0 0.912050261289602 0.5197459632490538
4147000000.0 0.8969533052309698 0.5043057642113402
4150000000.0 0.9156856556179728 0.5264298431631287
4153000000.0 0.9161952281446228 0.4655883284840905
4156000000.0 0.9336173127585796 0.5071228051039073
4159000000.0 0.8988777256665672 0.46777319106562326
4162000000.0 0.9141701203381594 0.453059183519785
4166000000.0 0.9097882233891692 0.43172216093590077
4169000000.0 0.9112182632613434 0.43294325281403656
4172000000.0 0.9008056309202889 0.4552088456072794
4175000000.0 0.9319789483017207 0.4695380281837463
4178000000.0 0.9582163568278169 0.41568036813233433
4181000000.0 0.9484996307540039 0.40325729578394376
4184000000.0 0.942800708968104 0.38591037680253865
4188000000.0 0.9400217051236597 0.39372726984616957
4191000000.0 0.9085867082582675 0.40359029905585503
4194000000.0 0.9433279548071801 0.34627608031773405
4197000000.0 0.9474788302345587 0.361090535775953
4200000000.0 0.9680355494090285 0.3916942092240535
4203000000.0 0.9716756643580686 0.38597652213561806
4206000000.0 0.968579784671434 0.35115962273598583
4209000000.0 0.9441721318538937 0.34066871670401483
4212000000.0 0.9774323631655342 0.3187293820623296
4216000000.0 0.961664207621082 0.33242527372915204
4219000000.0 0.9712514135223931 0.3324399039323047
4222000000.0 0.9969708358583536 0.308474517262378
4225000000.0 0.9715375606546497 0.3035561139695535
4228000000.0 0.9869044196568217 0.3045356993421635
4231000000.0 0.9954857883560178 0.2830493384002196
4234000000.0 0.9820717092498013 0.2698819179310452
4238000000.0 0.9796672651157575 0.24815715769738636
4241000000.0 0.9880206937105762 0.23356056317098078
4244000000.0 0.9934551936287837 0.2557864648737059
4247000000.0 0.9616323694170402 0.24813974716504011
4250000000.0 0.9873950661651794 0.22853643072697122
4253000000.0 0.9786273492339717 0.2230346375636481
4256000000.0 1.0208805315311382 0.2261710154866332
4259000000.0 0.9704019449580298 0.17160189855125815
4262000000.0 1.001149592303641 0.17521749863909844
4266000000.0 1.0244601441796681 0.1500453762690025
4269000000.0 0.9934012032210674 0.1917534951062572
4272000000.0 0.9927783205249004 0.1662836779285512
4275000000.0 0.9906103988207675 0.17588023131715436
4278000000.0 1.0178608709541856 0.16874322960381777
4281000000.0 1.0058464208922582 0.1595050931023333
4284000000.0 1.012239619606071 0.10751869574082445
4288000000.0 1.0134221823508172 0.14674371539880193
4291000000.0 0.9826311394083144 0.10780040609574111
4294000000.0 1.0050232918437803 0.10622668222832803
4297000000.0 0.9943800157279546 0.1296357121319029
4300000000.0 1.000240771661796 0.12001211690211108
4303000000.0 1.0093681035948836 0.07969860132995689
4306000000.0 1.0040262451578534 0.09696333013081687
4309000000.0 1.0164754582056936 0.06822354816608632
4312000000.0 1.0296134750386674 0.10697564329467471
4316000000.0 1.0342618917994768 0.07125483297470699
4319000000.0 0.9935553478109211 0.08683198561418444
4322000000.0 1.022443321609191 0.01733331345971291
4325000000.0 1.0254846194481002 0.02311179716193061
4328000000.0 1.0061116531170304 0.01072689489845055
4331000000.0 1.003744448749008 -0.03457488077192855
4334000000.0 1.018927040692733 -0.0050703807992858035
4338000000.0 1.001664176389825 0.014317093980835374
4341000000.0 1.029256857075812 0.025843478786013813
4344000000.0 1.0228052529435556 -0.021346342261241352
4347000000.0 1.0003609344069475 -0.06951612759892786
4350000000.0 0.9816513718226972 -0.05240331175525263
4353000000.0 0.9912125512748198 -0.013934021201081254
4356000000.0 1.0046910018799864 -0.08057739676500934
4359000000.0 0.9721146063192447 -0.06638547816289793
4362000000.0 1.0113120123884738 -0.11606077728579842
4366000000.0 1.0286441794161478 -0.07033963251428622
4369000000.0 0.9761549849563853 -0.10980413729550574
4372000000.0 0.9794347147973355 -0.15710219903705436
4375000000.0 1.0133548427060823 -0.1001897605213749
4378000000.0 0.9793288137305145 -0.1060931161355834
4381000000.0 0.9954713742353212 -0.10665091815360436
4384000000.0 1.0654765197576286 -0.16354492976638263
4388000000.0 0.9931170446404622 -0.1403168020990327
4391000000.0 1.0185611923809696 -0.14926565424861493
4394000000.0 0.9760267996884171 -0.157092585040766
4397000000.0 1.0001756426799604 -0.17305717837183027
4400000000.0 1.0110019784595656 -0.1895997175545001
4403000000.0 1.0049884188218536 -0.18249423099877682
4406000000.0 0.9986939161017807 -0.21804365767193132
4409000000.0 1.0156825245528476 -0.2178178658562303
4412000000.0 0.9662987203557578 -0.2746967935161051
4416000000.0 0.9794819425210941 -0.24395708397390153
4419000000.0 0.9688029403456625 -0.24869873984919613
4422000000.0 0.9748996594214714 -0.2302241759937111
4425000000.0 0.9971130012936303 -0.23453387337180107
4428000000.0 0.9691078142394621 -0.2663238907852125
4431000000.0 0.9889261149050685 -0.2712418115689228
4434000000.0 0.9551411087446963 -0.28343878264556566
4438000000.0 0.9896804947727436 -0.2883348017577576
4441000000.0 0.9877629200401545 -0.2876827456951499
4444000000.0 0.9407557573398728 -0.28853102823101084
4447000000.0 0.9531638850589185 -0.3242786824758803
4450000000.0 0.9523045497242975 -0.29836397460976377
4453000000.0 0.9740713557906169 -0.3217710054753654
4456000000.0 0.9208381169757883 -0.3334565330920134
4459000000.0 0.9103358073194936 -0.34605541136944407
4462000000.0 1.0142313243570376 -0.38247753293221276
4466000000.0 0.9824998649909287 -0.3860462647490034
4469000000.0 0.9601282140428465 -0.36036257843893105
4472000000.0 0.9448559504208146 -0.405883065487148
4475000000.0 0.9056851648780057 -0.3631881332756972
4478000000.0 0.9731029228117953 -0.4196371600832657
4481000000.0 0.8892962603552825 -0.3895736203487519
4484000000.0 0.8912398598728462 -0.4387443973573314
4488000000.0 0.9083253827361998 -0.41802790330296535
4491000000.0 0.9079895207836989 -0.4389984168737962
4494000000.0 0.9161863722186044 -0.4321721884459318
4497000000.0 0.8884987276221854 -0.4407428642779404
4500000000.0 0.9128288127118394 -0.4643079615273614
4503000000.0 0.9235073693303115 -0.45952325039422126
4506000000.0 0.8696321236570186 -0.4803834958449027
4509000000.0 0.8609291025525732 -0.4479462803582449
4512000000.0 0.8602817003006756 -0.4924803500437134
4516000000.0 0.9101808626280767 -0.4819466750900999
4519000000.0 0.8522899266486414 -0.4588411337637453
4522000000.0 0.8582552441247777 -0.5117517416788926
4525000000.0 0.8841508364971169 -0.4979499521873667
4528000000.0 0.8775036459590897 -0.5196587890513537
4531000000.0 0.8526382034674366 -0.5233360357426662
4534000000.0 0.840280339685256 -0.5441035970374307
4538000000.0 0.841607047939313 -0.5580098447466887
4541000000.0 0.8047218517255285 -0.5639150264594668
4544000000.0 0.8305714851794952 -0.5519504899635802
4547000000.0 0.8531766398344772 -0.5310555363967546
4550000000.0 0.8192240278540222 -0.5902254165802615
4553000000.0 0.8405491017520164 -0.5836350019546181
4556000000.0 0.7962840451620117 -0.5885475387218051
4559000000.0 0.7963207117249036 -0.5982472928213811
4562000000.0 0.8119629174249314 -0.604395568037218
4566000000.0 0.8207550757964357 -0.6281821017524007
4569000000.0 0.7935755341471824 -0.6207450885909409
4572000000.0 0.7873296514962023 -0.6111738827670157
4575000000.0 0.7872073079721151 -0.6500299647125825
4578000000.0 0.809636806986592 -0.646896456082385
4581000000.0 0.7601088462168477 -0.6559417097946761
4584000000.0 0.7470590371743479 -0.6459290129502873
4588000000.0 0.7972900664548233 -0.6587325235700049
4591000000.0 0.7767686315259477 -0.6534246124542666
4594000000.0 0.7374494307349445 -0.6905857499194873
4597000000.0 0.7439105819085465 -0.6927982379803762
4600000000.0 0.7253243503851852 -0.7039486920925776
4603000000.0 0.7382167305836361 -0.7078828138526221
4606000000.0 0.7419498011774726 -0.6983420301483622
4609000000.0 0.7115309215423407 -0.7238620096019969
4612000000.0 0.7367095015390849 -0.7161524259730858
4616000000.0 0.7014159965579627 -0.7145563764099421
4619000000.0 0.702812438328871 -0.711889066994815
4622000000.0 0.6848236743421642 -0.7335162357349823
4625000000.0 0.6422349738528097 -0.7348315720957266
4628000000.0 0.6871219590868405 -0.7207541564824191
4631000000.0 0.6454740774235088 -0.7589266810390314
4634000000.0 0.6648313496303985 -0.755346153257639
4638000000.0 0.6599659853715282 -0.7639838469480386
4641000000.0 0.6524268547846841 -0.7738096687219606
4644000000.0 0.6434161028160351 -0.7556621902931935
4647000000.0 0.6500808745049758 -0.7793032499229621
4650000000.0 0.6343893353316462 -0.7925788012108906
4653000000.0 0.641830675218676 -0.7869837228058789
4656000000.0 0.612488560767765 -0.7782223835659705
4659000000.0 0.6205090450138692 -0.7876251625861117
4662000000.0 0.6182505738712286 -0.8194124327614805
4666000000.0 0.5985273818321347 -0.8233115215528034
4669000000.0 0.6136034247228617 -0.8353607473070994
4672000000.0 0.5662658537894842 -0.8591895625469809
4675000000.0 0.5664503127470444 -0.8405121380290047
4678000000.0 0.5671996375328411 -0.8264780826074364
4681000000.0 0.5479692455210329 -0.887168509882665
4684000000.0 0.5420911233495429 -0.8692762635717723
4688000000.0 0.5287943170215472 -0.859822321526589
4691000000.0 0.5669940122214463 -0.8467637542222759
4694000000.0 0.5570472872133033 -0.8426165106038375
4697000000.0 0.49101761387808734 -0.843380524553937
4700000000.0 0.5248236958946304 -0.8473705696213234
4703000000.0 0.5230145474525252 -0.8265653111216835
4706000000.0 0.5021946303550009 -0.8828722533999134
4709000000.0 0.4755041167088182 -0.8746804418188894
4712000000.0 0.5053220791161268 -0.8953335761646418
4716000000.0 0.4899169788581039 -0.9238973633825434
4719000000.0 0.5227644285169883 -0.8923084508123995
4722000000.0 0.4902865348684713 -0.9015324154146329
4725000000.0 0.4776233902925615 -0.8875588995898703
4728000000.0 0.4077382862519312 -0.9068313750736237
4731000000.0 0.47463913891811044 -0.9302423753683777
4734000000.0 0.46927530715864696 -0.9225458965582739
4738000000.0 0.4519050645668966 -0.965106163396133
4741000000.0 0.4208395507665288 -0.9821452579452374
4744000000.0 0.38071061846363463 -0.9383940778301029
4747000000.0 0.3968600482971648 -0.8964965494735669
4750000000.0 0.3642006441641862 -0.9166901467035472
4753000000.0 0.40517392990090284 -0.9079438068406371
4756000000.0 0.38448886461602316 -0.963629984032023
4759000000.0 0.38252203620065933 -0.9478767462053896
4762000000.0 0.33913271121094424 -0.9882729086341911
4766000000.0 0.34705265420212605 -0.9387500261045697
4769000000.0 0.3540026937313623 -0.9800600322574021
4772000000.0 0.3394063462687899 -0.9885151433657028
4775000000.0 0.3213506550025939 -1.0025006282937248
4778000000.0 0.31500706549620217 -0.956035693081463
4781000000.0 0.3270784417727626 -0.9515511510659496
4784000000.0 0.344494001077352 -0.9601662544768682
4788000000.0 0.28152975647345135 -0.9991958847709563
4791000000.0 0.27166060923171537 -0.9607266064239198
4794000000.0 0.2996718988211292 -1.0085780215706768
4797000000.0 0.2609457627358257 -0.968503455998225
4800000000.0 0.25825980370380763 -0.9736434342654499
4803000000.0 0.2241779532705027 -0.9804362414298151
4806000000.0 0.265409159025347 -1.0080486830049513
4809000000.0 0.21099375497068296 -0.9631605755281084
4812000000.0 0.19980389892143358 -0.9976975995943045
4816000000.0 0.24017354518974535 -0.984765223834351
4819000000.0 0.23672517905002533 -1.0330659554599084
4822000000.0 0.22913732859470096 -1.024677067586615
4825000000.0 0.2442225522093624 -1.0108373619579543
4828000000.0 0.1854748823137505 -1.0042669903712813
4831000000.0 0.1395746307405029 -1.0427630403059558
4834000000.0 0.19915062585130977 -1.0224405723607728
4838000000.0 0.15027330018406232 -1.0255658647280341
4841000000.0 0.1612443627578695 -1.0120889149644738
4844000000.0 0.19779322304792227 -1.0255156458897738
4847000000.0 0.1588202730322972 -0.9793424275095151
4850000000.0 0.13839182837764433 -1.0343258467443541
4853000000.0 0.1409547204850913 -0.9918174014516341
4856000000.0 0.12311440216547875 -0.9970129666234425
4859000000.0 0.10699213132893547 -1.0432924101393004
4862000000.0 0.11868821308492844 -0.9938604755364498
4866000000.0 0.05661843714353519 -1.0359333881054598
4869000000.0 0.07174186936213232 -1.0171418773054302
4872000000.0 0.05925201339719448 -1.0441270974621297
4875000000.0 0.10859961790023354 -1.0553368824903038
4878000000.0 0.0584909849234979 -1.0441095814903487
4881000000.0 0.024584153919087776 -1.0943157721957475
4884000000.0 0.05412632128718387 -1.0705838329991393
4888000000.0 0.08291755652664734 -1.0469204258570008
4891000000.0 0.0548161841157708 -1.0447386376315468
4894000000.0 -0.0009591597729652623 -1.0219081481236216
4897000000.0 0.027781838622744894 -1.0212906459079814
4900000000.0 -0.00711766734979968 -1.0414488162234992
4903000000.0 -0.009709360869878864 -1.0434616254550713
4906000000.0 -0.0033957410966884427 -1.07072676099991
4909000000.0 -0.032710050549625176 -1.0423772070827246
4912000000.0 -0.04395740819122368 -1.0668279982526478
4916000000.0 -0.0074478167949818055 -1.0354006017531372
4919000000.0 -0.03855263656346927 -1.065920584145958
4922000000.0 -0.029449977575731506 -1.0716501196300312
4925000000.0 -0.09850793932064311 -1.0105654924486849
4928000000.0 -0.02012360999062604 -1.0453960926773
4931000000.0 -0.06646819498796146 -1.079535825479967
4934000000.0 -0.074370176302599 -0.9657129593573808
4938000000.0 -0.12980361539654534 -1.0006844578405225
4941000000.0 -0.09352949772022039 -1.0265134668917384
4944000000.0 -0.08926550278457138 -0.9699325186246164
4947000000.0 -0.1257162100794791 -1.0103905896875465
4950000000.0 -0.12898648380017802 -0.9956969924361986
4953000000.0 -0.18552541027150427 -1.0306538651586252
4956000000.0 -0.19464600063505427 -1.0415631780399548
4959000000.0 -0.19528012697460315 -1.008239851483556
4962000000.0 -0.16206985740386595 -1.0233416655602474
4966000000.0 -0.17970325895939843 -1.0245329916327814
4969000000.0 -0.1667309248599353 -1.087089857849673
4972000000.0 -0.18866137038550565 -1.023444909152762
4975000000.0 -0.17281558589332693 -1.0160178796065364
4978000000.0 -0.219671896372034 -0.9897726765343818
4981000000.0 -0.23847890972210858 -1.0239244845221165
4984000000.0 -0.23550164354302752 -1.0273006257574453
4988000000.0 -0.19799204162306455 -0.9943836349308742
4991000000.0 -0.1831244655565364 -1.0628578622392162
4994000000.0 -0.23970718700194416 -0.9922804498108867
4997000000.0 -0.2769314347058469 -0.9803609695503033
5000000000.0 -0.27510339021028507 -0.9813357887912832
5003000000.0 -0.25819286024204097 -1.0514451591033533
5006000000.0 -0.3036375907039298 -1.0493748194101933
5009000000.0 -0.2672140555289376 -1.0145702330099642
5012000000.0 -0.3229626689491543 -1.0091530749036128
5016000000.0 -0.2710738160355753 -1.038582289552961
5019000000.0 -0.2977771966963195 -0.9745025896008703
5022000000.0 -0.3058199702849643 -0.9900824694568744
5025000000.0 -0.3658111582372075 -1.03879795089509
5028000000.0 -0.331797116177862 -0.9610971151028218
5031000000.0 -0.33311841645805995 -0.9746000577658548
5034000000.0 -0.3791993461750155 -0.9946539420763774
5038000000.0 -0.39937929730163113 -0.9490341267099409
5041000000.0 -0.33309633360157365 -0.963521973270255
5044000000.0 -0.3267313273600344 -0.9729074442152069
5047000000.0 -0.3633734250564569 -0.9703356960552129
5050000000.0 -0.31321004782345785 -0.955608127715948
5053000000.0 -0.4549312536107838 -0.9700701065192305
5056000000.0 -0.3586441959246006 -0.9918235476845352
5059000000.0 -0.37478140112258246 -0.9869139252551024
5062000000.0 -0.4363498677257789 -0.9424132595727377
5066000000.0 -0.3856331854018551 -0.9608713304731309
5069000000.0 -0.46049925700116356 -0.9536416302388274
5072000000.0 -0.4198271396692095 -0.9223360718763598
5075000000.0 -0.39886644690552187 -0.943773979434879
5078000000.0 -0.477587968403061 -0.9004283498320358
5081000000.0 -0.4788523176946459 -0.9006330257513983
5084000000.0 -0.4729124013129956 -0.9610949881843449
5088000000.0 -0.42885535980899847 -0.9278025899519546
5091000000.0 -0.5065788044816335 -0.8940207410616599
5094000000.0 -0.5448211368970965 -0.9566844951124666
5097000000.0 -0.45850946643293355 -0.9646311627325959
5100000000.0 -0.45353143770251064 -0.9212084670667492
5103000000.0 -0.5539211371443552 -0.9078039387841151
5106000000.0 -0.5327035867876408 -0.9603362408247822
5109000000.0 -0.5158258482291752 -0.9157785964169387
5112000000.0 -0.5297918489859453 -0.9065435268764197
5116000000.0 -0.4984246469455703 -0.8259284516485397
5119000000.0 -0.5924604631128619 -0.9400686107751064
5122000000.0 -0.5396523634915389 -0.8473435122501227
5125000000.0 -0.5386737008665219 -0.9165747989324081
5128000000.0 -0.563505782607188 -0.8705331937412248
5131000000.0 -0.5935699886117415 -0.8912134292011974
5134000000.0 -0.5385076577827181 -0.9088835808027089
5138000000.0 -0.5871240894034309 -0.8883185355394921
5141000000.0 -0.5721356743210269 -0.908473453218793
5144000000.0 -0.5740394068880427 -0.8613316395482475
5147000000.0 -0.6251797600334429 -0.892262513069241
5150000000.0 -0.618899446642988 -0.8609644669607887
5153000000.0 -0.6503115775284574 -0.8784593338255502
5156000000.0 -0.6363579359528151 -0.8673427796714995
5159000000.0 -0.6366305181811572 -0.8696795937201329
5162000000.0 -0.641496078500337 -0.8129053742063693
5166000000.0 -0.6686867893926839 -0.8159626830105948
5169000000.0 -0.6612270438404253 -0.8310258305364098
5172000000.0 -0.6251536984496707 -0.801289002047209
5175000000.0 -0.6690353688808517 -0.8525915647160889
5178000000.0 -0.6960517749395463 -0.8231236354372552
5181000000.0 -0.6753872002059158 -0.796638694102549
5184000000.0 -0.6803134654438743 -0.7622932736575263
5188000000.0 -0.6968261984424604 -0.7942847549778047
