! Created with skrf 1.8.0 (http://scikit-rf.org).
# Hz S RI R 50.0 
!freq ReS11 ImS11
4000000000.0 -0.29079783464330894 0.9347033233495343
4003000000.0 -0.2777700127339521 1.0151250381983699
4006000000.0 -0.17087684780384912 0.9809743111918194
4009000000.0 -0.25295916529291446 1.003797396536464
4012000000.0 -0.21747001892174855 1.0503319644703317
4016000000.0 -0.15625866127871896 1.028604766362427
4019000000.0 -0.1312656643159046 1.0187793401015506
4022000000.0 -0.2214856515417847 1.0230270225970939
4025000000.0 -0.08331813252964856 1.0831203176952158
4028000000.0 -0.12247821415718312 1.060397178871614
4031000000.0 -0.15314977658784384 0.9622650669391019
4034000000.0 -0.12237065824038845 1.036414210008643
4038000000.0 -0.06701018988199234 1.0577359215240163
4041000000.0 -0.07660344012548183 1.0436546015929513
4044000000.0 -0.10804136265073153 1.0977109399886582
4047000000.0 -0.14037469504606825 1.0522783932978146
4050000000.0 -0.04391516940467819 1.0704219541242854
4053000000.0 -0.016573040305976464 1.009464271501941
4056000000.0 -0.04614154052722726 1.0691616790290634
4059000000.0 -0.06928781354172756 1.0177855117269272
4062000000.0 0.07805090551059107 1.017367672464821
4066000000.0 0.0075357969349621814 0.9198029429613271
4069000000.0 -0.0022825924029444625 1.0889410597777656
4072000000.0 -0.04209757384157481 1.0728273099893235
4075000000.0 -0.03184919570460693 1.0536348518714491
4078000000.0 0.03973947688026819 1.0516948083881605
4081000000.0 -0.048828628308829856 1.0895582312409953
4084000000.0 0.10263474170959058 1.0498328235166123
4088000000.0 0.057547940433601154 0.9944471715443445
4091000000.0 0.1317789975211624 1.1540095203934855
4094000000.0 0.08642738841972615 1.0424903053972403
4097000000.0 0.11665578795329692 1.021590387187037
4100000000.0 0.14750675046406397 1.0430677232759828
4103000000.0 0.14078267352392598 1.0454521897181235
4106000000.0 0.16066007128747326 1.05003338457009
4109000000.0 0.2279113851946657 1.0024495944378247
4112000000.0 0.1900889621648131 1.080652751056569
4116000000.0 0.1121567895166455 1.0008443121685577
4119000000.0 0.24372150887544558 1.0144817663135266
4122000000.0 0.29379123943134133 1.0646508550176512
4125000000.0 0.2778938551312164 1.0745723764507227
4128000000.0 0.19186348804432626 0.9869676830437497
4131000000.0 0.18538714306067855 1.0078577290580015
4134000000.0 0.20855268051785764 0.9710507800610966
4138000000.0 0.2884816011761202 1.0092524877323674
4141000000.0 0.3056326757163145 0.9707305310478624
4144000000.0 0.23730922855204029 0.9820857500918592
4147000000.0 0.3581180869261674 0.9822552996418961
4150000000.0 0.27885777819167534 1.0245329868346293
4153000000.0 0.34597579437439197 1.0359000889229932
4156000000.0 0.3344704879279977 1.0195032212552841
4159000000.0 0.32515714734561435 0.987338639655102
4162000000.0 0.33469960064094006 0.9533782511686122
4166000000.0 0.36034652900006225 0.9362172519784391
4169000000.0 0.39219084096357526 0.9396256257969281
4172000000.0 0.36191958501557225 0.9365767759808508
4175000000.0 0.3577500869815438 0.9410352599761487
4178000000.0 0.385280831776674 0.9693349826024908
4181000000.0 0.3881922923572777 0.9865219111202465
4184000000.0 0.40788558857751045 0.9566361331374857
4188000000.0 0.4735542839213227 0.9509063867142664
4191000000.0 0.3746222058026163 0.9565927388164388
4194000000.0 0.4469017905794451 0.8966683241159207
4197000000.0 0.44275080007016343 0.9408856421477605
4200000000.0 0.4987824878721639 0.9047207507156251
4203000000.0 0.45812829388854265 0.9303807409677416
4206000000.0 0.4889045565488661 0.9390837254558493
4209000000.0 0.4753790417235507 0.9355469548109421
4212000000.0 0.4804024309057844 0.8855273894911743
4216000000.0 0.48900771738201476 0.8640089289596435
4219000000.0 0.5368661919209965 0.8917410059621905
4222000000.0 0.544707662908648 0.900395573978725
4225000000.0 0.5181725515901023 0.8738515966829151
4228000000.0 0.5411203101610205 0.9101121486101068
4231000000.0 0.5337117791119773 0.853123695258932
4234000000.0 0.5411942743246916 0.9082388888626276
4238000000.0 0.5775274524380329 0.8571853485806058
4241000000.0 0.5691315383447961 0.8559903360481094
4244000000.0 0.5573190554976236 0.8781514747109063
4247000000.0 0.5862897819197528 0.8504208513221806
4250000000.0 0.601853731232035 0.853363546873662
4253000000.0 0.6098128306640231 0.832880883068188
4256000000.0 0.5928496144262583 0.8082069691948992
4259000000.0 0.6070761488251544 0.8301744847626804
4262000000.0 0.6180202695366103 0.8087867184575083
4266000000.0 0.6382855421175906 0.793160546643249
4269000000.0 0.6634305548507702 0.845154167674899
4272000000.0 0.6762491023579595 0.7733806428787591
4275000000.0 0.6848162941135265 0.7913821435564008
4278000000.0 0.635611232987977 0.7532331771500359
4281000000.0 0.6657053518201842 0.767801009685981
4284000000.0 0.6883015349307753 0.7778950445400613
4288000000.0 0.6745402793947847 0.7515861592406777
4291000000.0 0.6919570279259696 0.7661702564891002
4294000000.0 0.6927369933639743 0.7466704122399892
4297000000.0 0.7152174337359345 0.7332336804372114
4300000000.0 0.7313292642946614 0.7136421820682638
4303000000.0 0.7071741396580105 0.7269853051210647
4306000000.0 0.722350297929186 0.7529259016079346
4309000000.0 0.7288632189304863 0.7252592756791788
4312000000.0 0.7629936231862033 0.7261066033484628
4316000000.0 0.7336540832360426 0.7117256896993973
4319000000.0 0.725380165892259 0.6780732100597167
4322000000.0 0.7623886758494794 0.667934478205756
4325000000.0 0.7510977037960274 0.6606796494722365
4328000000.0 0.8217029759072008 0.6494467139342984
4331000000.0 0.7887825709597744 0.6361213258216741
4334000000.0 0.8028591045733718 0.677924545370735
4338000000.0 0.7614386636417726 0.663001651928223
4341000000.0 0.8083599701961566 0.6658034744745419
4344000000.0 0.8206283618086834 0.6308853647361075
4347000000.0 0.8223589901663021 0.5972357069995334
4350000000.0 0.8263367342873553 0.5761506660502185
4353000000.0 0.7902071294155979 0.6059284288079568
4356000000.0 0.8612987290966791 0.5923072095783333
4359000000.0 0.7965927177169367 0.5830709065595782
4362000000.0 0.870247687585403 0.5593322331094152
4366000000.0 0.8413250343664918 0.5564164100104307
4369000000.0 0.8340666260017123 0.5546083102246612
4372000000.0 0.8572520020792953 0.5244436057259291
4375000000.0 0.8557352609544508 0.5608786512925441
4378000000.0 0.8486049625540305 0.4967123067629634
4381000000.0 0.8778582172062479 0.5543220992413532
4384000000.0 0.8992772689054069 0.5113762904919001
4388000000.0 0.876736299868673 0.5117857253176785
4391000000.0 0.8866380758673789 0.49769305057447255
4394000000.0 0.8608646437115564 0.47141659461822993
4397000000.0 0.8682508959976418 0.4705167043197679
4400000000.0 0.9333957914142987 0.4843350713858684
4403000000.0 0.8983750676198442 0.4510705259098139
4406000000.0 0.9428075732008272 0.4248217169281794
4409000000.0 0.9437856422528528 0.45992895661448513
4412000000.0 0.9234226081633325 0.38790241850821433
4416000000.0 0.9094055052614725 0.38925696626475736
4419000000.0 0.9358771348694571 0.41959583333117584
4422000000.0 0.9155844994222262 0.4026593656122705
4425000000.0 0.9474420381311065 0.4199525218257498
4428000000.0 0.9176473579575548 0.371072595140738
4431000000.0 0.9650263048511605 0.3685182763904834
4434000000.0 0.957721307972458 0.36367431919520016
4438000000.0 0.9702522739687478 0.3774190568115748
4441000000.0 0.9564534787207886 0.3576777804153249
4444000000.0 0.9319412345493854 0.3391680811657233
4447000000.0 0.9535202774466928 0.31444273155537106
4450000000.0 0.9526847160203838 0.3322600523193351
4453000000.0 0.9749020953847164 0.2951229984813199
4456000000.0 0.9440824447309115 0.29071881827741686
4459000000.0 0.9226301582690679 0.25901714655103425
4462000000.0 1.0361409024985653 0.3053162936873086
4466000000.0 1.0089968194996506 0.30249900930328033
4469000000.0 0.9751275975684021 0.2875220292986112
4472000000.0 1.0044558030734922 0.23623770670259375
4475000000.0 0.9589262392871324 0.23060571402938998
4478000000.0 1.0477902470212777 0.24427597185393315
4481000000.0 0.9630469280833159 0.21409853426919512
4484000000.0 0.9758330512680926 0.16164079959335056
4488000000.0 0.9644406384597837 0.18489536280500402
4491000000.0 0.9973866532499316 0.17884671973164268
4494000000.0 0.9777688348239689 0.18596651283148774
4497000000.0 0.9907838596391292 0.1818645521330331
4500000000.0 0.9868170386337445 0.1824204925583671
4503000000.0 1.0170274001122166 0.1832901044498483
4506000000.0 0.9785469716615387 0.15840748990898118
4509000000.0 0.978912554022163 0.13085437579692896
4512000000.0 0.9894433350459514 0.1294927061145622
4516000000.0 1.0043321127906686 0.14964617632702873
4519000000.0 0.9739416503887186 0.13031883139812453
4522000000.0 0.9946226746190556 0.09057436944125918
4525000000.0 0.982715694565071 0.13817152179099143
4528000000.0 1.0329058293601625 0.08782028414570481
4531000000.0 1.0012342186419283 0.10857892503970626
4534000000.0 0.9853020530663561 0.08023375877185851
4538000000.0 0.983461970611889 0.0364421036381902
4541000000.0 1.0022661952612104 0.010290566279061563
4544000000.0 0.9785055576863408 0.036367739465345175
4547000000.0 0.9949028149630982 0.054411525978513925
4550000000.0 1.020537778639514 -0.01717584195482886
4553000000.0 1.0171971644729183 0.02757184491752658
4556000000.0 0.972279130648485 -0.02561063775076318
4559000000.0 1.0135598140889641 -0.030920842257127018
4562000000.0 1.0233344407935814 -0.02622210732214833
4566000000.0 0.9956103514995964 -0.056781132661820624
4569000000.0 0.9696238866204789 -0.04076937119105753
4572000000.0 0.99714109146432 -0.04579301646379853
4575000000.0 0.9984760200524145 -0.07408594535574861
4578000000.0 1.0291292021880003 -0.04776162392205945
4581000000.0 1.006964318291479 -0.11536690151029487
4584000000.0 0.9711931272710685 -0.08915559714588478
4588000000.0 1.0105658884746334 -0.08147260458343136
4591000000.0 0.9908473146913158 -0.09011512886336927
4594000000.0 0.993707262402113 -0.14234245313706337
4597000000.0 1.0238860738492512 -0.13314333375461898
4600000000.0 0.9566613356566386 -0.18864295090457092
4603000000.0 1.0143849532055937 -0.1757136826404588
4606000000.0 0.978442495444447 -0.15230839236310748
4609000000.0 0.9958133451020816 -0.19339645004392597
4612000000.0 1.0257922102798425 -0.18666248376461728
4616000000.0 0.9788048986827316 -0.1879480381760547
4619000000.0 1.0033686564351285 -0.1792813993668702
4622000000.0 0.9855532401397783 -0.18566217928992987
4625000000.0 0.9214963374440003 -0.20114336120577908
4628000000.0 0.9314760239397553 -0.2016070246944946
4631000000.0 0.9382882600555398 -0.2594925595510886
4634000000.0 0.965372470901693 -0.24165819493834748
4638000000.0 0.9796163939401467 -0.2621315902236009
4641000000.0 0.9805566878019735 -0.2643315337219908
4644000000.0 0.977470587886428 -0.2776786611475851
4647000000.0 0.9721871669232199 -0.28596348168096064
4650000000.0 0.9497738960221278 -0.3404261706116876
4653000000.0 0.9982378243224879 -0.3049401852494128
4656000000.0 0.9332186290397646 -0.3469967306177246
4659000000.0 0.9426066729219568 -0.334386950488742
4662000000.0 0.9389643861680341 -0.3246042952769649
4666000000.0 0.9464658360838226 -0.33476250152897297
4669000000.0 0.9513783006113945 -0.3260565051881339
4672000000.0 0.9303225153704049 -0.398111329971631
4675000000.0 0.9080852335717706 -0.4021028265002662
4678000000.0 0.9152614305627245 -0.3787995377164831
4681000000.0 0.9271304892517134 -0.42927993783560536
4684000000.0 0.8922955613782738 -0.3960555494920003
4688000000.0 0.8928542453412598 -0.39748170367684776
4691000000.0 0.8953017399483079 -0.39036166555907803
4694000000.0 0.9272251408616516 -0.44234880155931605
4697000000.0 0.8973045589694939 -0.4436607914803547
4700000000.0 0.9137364759654071 -0.4355095167291395
4703000000.0 0.9004089700269269 -0.48037921912048814
4706000000.0 0.9016053965851512 -0.4631328045746554
4709000000.0 0.8582782182172062 -0.47263722261848806
4712000000.0 0.8700682175773395 -0.49338745850668364
4716000000.0 0.8782390348960041 -0.47921610497613565
4719000000.0 0.8770947181547257 -0.5021861026382511
4722000000.0 0.8857170620108346 -0.4867884312895737
4725000000.0 0.8647829970116521 -0.5155425294119612
4728000000.0 0.8648156797065902 -0.5311089235041584
4731000000.0 0.8765147560830844 -0.5139136291290831
4734000000.0 0.8418360251134449 -0.5451359629903014
4738000000.0 0.8474789087561008 -0.5526078287116167
4741000000.0 0.8359626626659064 -0.5497842987663023
4744000000.0 0.8175540627407284 -0.5838877162213331
4747000000.0 0.8272137283033991 -0.5564219238925462
4750000000.0 0.8074252932400672 -0.5974558776300614
4753000000.0 0.8195565194604993 -0.6350543787510552
4756000000.0 0.825778617821639 -0.5934688134855626
4759000000.0 0.8122082392075582 -0.6258879436124172
4762000000.0 0.7884936610498472 -0.6248486418604834
4766000000.0 0.7782907141748097 -0.6162554056636178
4769000000.0 0.8103681831400028 -0.6433179553085704
4772000000.0 0.7937888633410696 -0.62676839013496
4775000000.0 0.7752712483250203 -0.6528797332440774
4778000000.0 0.7904522157577927 -0.6209145595430376
4781000000.0 0.782754504197407 -0.6421600685682326
4784000000.0 0.783264515955847 -0.619873812145036
4788000000.0 0.7780346162501224 -0.6694855130634647
4791000000.0 0.7365254137377869 -0.6804342652863837
4794000000.0 0.7411558458242098 -0.6657467250222122
4797000000.0 0.7357223308828555 -0.7092338610231426
4800000000.0 0.7152018225760205 -0.6944464217769788
4803000000.0 0.7090275374080462 -0.7038766054594936
4806000000.0 0.7169104070821942 -0.7387990414758605
4809000000.0 0.6809425295036775 -0.7048937242114698
4812000000.0 0.6848801318014088 -0.7638994129730562
4816000000.0 0.6985694810437351 -0.7344656734864614
4819000000.0 0.7030624682553661 -0.7427056131197827
4822000000.0 0.6912515925869323 -0.7554392331239612
4825000000.0 0.6859665778419171 -0.7606556890192363
4828000000.0 0.6816868911084887 -0.7411474890308657
4831000000.0 0.6442958430643845 -0.8061593020937659
4834000000.0 0.641160052893964 -0.7863780253374822
4838000000.0 0.6641680680905405 -0.8057514150382444
4841000000.0 0.6260932805361638 -0.794836364138981
4844000000.0 0.666348799224344 -0.7823802636357065
4847000000.0 0.6255689415418432 -0.7753017317494538
4850000000.0 0.6282823381320577 -0.8242300241149858
4853000000.0 0.5879183274102605 -0.7983439282061249
4856000000.0 0.5897713211471522 -0.8180427078653808
4859000000.0 0.606902773891377 -0.8444343845939033
4862000000.0 0.6013638189086817 -0.8052484675631391
4866000000.0 0.5707565325531598 -0.8361252259808375
4869000000.0 0.565297662678926 -0.8486731225520022
4872000000.0 0.5509435770909866 -0.8903087531138699
4875000000.0 0.6154871089758688 -0.8811952516729837
4878000000.0 0.5391853975550273 -0.8616019599433272
4881000000.0 0.5348179109071105 -0.9027618097926436
4884000000.0 0.5674796466456467 -0.8746107958567382
4888000000.0 0.5567510192935333 -0.8535901585121424
4891000000.0 0.5620341058631149 -0.8908427239590809
4894000000.0 0.4956952626723043 -0.8951935498698989
4897000000.0 0.5151415507868967 -0.8721349541589516
4900000000.0 0.49043692914094245 -0.9162888721402119
4903000000.0 0.49098786614026735 -0.9003628814094874
4906000000.0 0.48492201650901745 -0.9370425266438455
4909000000.0 0.461878568603105 -0.9079024376792512
4912000000.0 0.4675587999068157 -0.920661738839061
4916000000.0 0.4546906122918209 -0.9131215119924561
4919000000.0 0.4850762168476677 -0.904404667175547
4922000000.0 0.4704316633166995 -0.9035615189638432
4925000000.0 0.4213978028876295 -0.9396772029743139
4928000000.0 0.48429231005860734 -0.8814600461457394
4931000000.0 0.45004391456330184 -0.9389615332203518
4934000000.0 0.4192248677007456 -0.8787220298263624
4938000000.0 0.3731667909428007 -0.9515260773340243
4941000000.0 0.39448138022746104 -0.9199759346282108
4944000000.0 0.3909164211367919 -0.8811539472895122
4947000000.0 0.3590444968070282 -0.9079253862743898
4950000000.0 0.345191403336355 -0.955334219978357
4953000000.0 0.33218945746522055 -0.9880472464962525
4956000000.0 0.3382510749666361 -0.9738353588528235
4959000000.0 0.3050041653948802 -0.9499034354452224
4962000000.0 0.3089253502075983 -0.9852754980326481
4966000000.0 0.34507723397817847 -0.9949144720517359
4969000000.0 0.37576025941349545 -0.9918428270042592
4972000000.0 0.31744459797839186 -1.0038978365160025
4975000000.0 0.3299873694920529 -0.9527566395304076
4978000000.0 0.30754374852530886 -0.983832028664645
4981000000.0 0.24320377611837296 -0.979064417102168
4984000000.0 0.26396470135684363 -0.9767039962564424
4988000000.0 0.28574638493590593 -0.9664571344916685
4991000000.0 0.32915079111735923 -0.9985509322533189
4994000000.0 0.2665254257855929 -0.9834322842522293
4997000000.0 0.22017143218711224 -0.9905190850656322
5000000000.0 0.26734036446559556 -1.0127972360966426
5003000000.0 0.25597828132392697 -1.0275916714574194
5006000000.0 0.20887986575042142 -1.0532933465165104
5009000000.0 0.21734462474277927 -1.0134805084176608
5012000000.0 0.1808403323387841 -0.9948578298915431
5016000000.0 0.2096561875312481 -1.0320831055176338
5019000000.0 0.1527290261593593 -1.0229808211660858
5022000000.0 0.1943271816689202 -1.0212947914846384
5025000000.0 0.1789899121562233 -1.0884515140159354
5028000000.0 0.14053634954219657 -1.0247275898176635
5031000000.0 0.15005894524635424 -1.0195714324304817
5034000000.0 0.11034771249719447 -1.0672583732055718
5038000000.0 0.10157555836768233 -0.9825187397548942
5041000000.0 0.1685409727775378 -1.0082013255477587
5044000000.0 0.1532211267731094 -1.006760595028266
5047000000.0 0.12224578759091685 -1.0153485724991644
5050000000.0 0.18555339734137957 -0.9698165760462569
5053000000.0 0.08925038540605035 -1.0882333733102105
5056000000.0 0.16346990718344184 -1.0299364048807607
5059000000.0 0.1730611889072024 -1.0308416539429786
5062000000.0 0.03869166529515286 -1.043237222071051
5066000000.0 0.10777763815757184 -0.9934637217566675
5069000000.0 0.032057577032188714 -1.0667331336801458
5072000000.0 0.03488526968847462 -0.9818352656804978
5075000000.0 0.055962213664889654 -1.0492507946787133
5078000000.0 -0.02220986880754014 -1.0101589406429605
5081000000.0 0.001130056025279963 -1.0011185843908226
5084000000.0 0.005453312993214221 -1.0774847434291543
5088000000.0 0.035569694967632036 -1.0301877009107383
5091000000.0 -0.0884912131926992 -1.0160498202923856
5094000000.0 -0.02158390472376559 -1.0258029907201083
5097000000.0 0.021448457836942138 -1.065708749465193
5100000000.0 -0.030586412460086698 -1.0272697990339974
5103000000.0 -0.07792791840190222 -1.0206137225798622
5106000000.0 0.010966003911620725 -1.1121845634502734
5109000000.0 -0.006479453908092535 -1.0298872742005585
5112000000.0 -0.0742857667543236 -1.0227506637961226
5116000000.0 -0.05174197524851412 -0.9679292155673684
5119000000.0 -0.050847367711296956 -1.0066689050227744
5122000000.0 -0.06313504622923241 -1.0171323787567093
5125000000.0 -0.1030546800624362 -1.0254028568703735
5128000000.0 -0.14561549620814218 -1.0525084085916883
5131000000.0 -0.09618099509203601 -0.9916041546581423
5134000000.0 -0.13422348481580867 -1.059044690654556
5138000000.0 -0.12990816417152123 -1.035202909479541
5141000000.0 -0.05020620487191767 -1.021840798711059
5144000000.0 -0.09009273332436057 -1.0455901538421073
5147000000.0 -0.09181247649339172 -1.0338440750432454
5150000000.0 -0.14511133041878627 -1.0431943334001572
5153000000.0 -0.1977021454348551 -0.9936118677142645
5156000000.0 -0.18339514125004114 -1.0439290514805402
5159000000.0 -0.17156753633747554 -1.0563633997694313
5162000000.0 -0.21835998971934714 -1.028960489810408
5166000000.0 -0.27421807379541857 -1.0271130220874551
5169000000.0 -0.21595576619408188 -1.0784933930731395
5172000000.0 -0.2375508838142774 -0.9975209086566298
5175000000.0 -0.2098488495200892 -1.0423674936221976
5178000000.0 -0.278800216469866 -0.9544835650638274
5181000000.0 -0.2742164428802639 -1.0558256387448293
5184000000.0 -0.2543117533868645 -1.0274600555372655
5188000000.0 -0.2229538379441096 -0.9923908457866656
5191000000.0 -0.2627863366873256 -1.0099186044543995
