! Created with skrf 1.8.0 (http://scikit-rf.org).
# Hz S RI R 50.0 
!freq ReS11 ImS11
4000000000.0 0.675896433075521 0.788438304157526
4003000000.0 0.6894931895580738 0.8355504298504316
4006000000.0 0.7106557285530287 0.764652971163701
4009000000.0 0.6805236127032196 0.8111333574200805
4012000000.0 0.6327523598306376 0.8103464062120037
4016000000.0 0.7155730119565169 0.7615240139438544
4019000000.0 0.705852383674852 0.7503474741837743
4022000000.0 0.6459249553559104 0.8407952077494728
4025000000.0 0.7552955932608512 0.7112784159589777
4028000000.0 0.7025195015686809 0.7467952285971708
4031000000.0 0.6821221194829714 0.6843829868801043
4034000000.0 0.7320788708545662 0.7082185076068073
4038000000.0 0.7182092222546368 0.709510615911659
4041000000.0 0.7209928548023816 0.7104364595304253
4044000000.0 0.7795774800115488 0.7641161576690527
4047000000.0 0.7501186932644253 0.7035933932355338
4050000000.0 0.7656299167709447 0.6945800186666461
4053000000.0 0.7541097119746301 0.6658107376951297
4056000000.0 0.7557344573044713 0.6592531106590067
4059000000.0 0.7379810985457701 0.6712470925267762
4062000000.0 0.799697613101433 0.6619220780128672
4066000000.0 0.7453800545155107 0.6303348785399754
4069000000.0 0.8327689733592547 0.6887658542818976
4072000000.0 0.7628301466798483 0.6827104983163459
4075000000.0 0.799913877648747 0.7094906076505358
4078000000.0 0.8296957638744807 0.6631678645456034
4081000000.0 0.7651578537655027 0.7045673347660029
4084000000.0 0.8364294819653024 0.6172612621499389
4088000000.0 0.812987038788772 0.6519399844712269
4091000000.0 0.8845663490822344 0.6550894249786494
4094000000.0 0.8152918709873013 0.6217498353589338
4097000000.0 0.8354245110168561 0.6028433555979777
4100000000.0 0.8342307821007563 0.5769504586665171
4103000000.0 0.8664616201699271 0.6150876315396956
4106000000.0 0.856202009206482 0.5842467336390085
4109000000.0 0.8707842405154127 0.5477153064985851
4112000000.0 0.8634735568035758 0.5596325097145309
4116000000.0 0.8190256656633726 0.5540788596156578
4119000000.0 0.8513603272418535 0.5640414589164299
4122000000.0 0.8527465201679985 0.5086095673429628
4125000000.0 0.9238399937023841 0.5432547031219286
4128000000.0 0.8359424738875391 0.5537128706622896
4131000000.0 0.9090954995787733 0.5189292767997623
4134000000.0 0.874710747977692 0.5264557953557251
4138000000.0 0.8634208875463276 0.4877674117619319
4141000000.0 0.8545549815281928 0.46694516477798975
4144000000.0 0.9048366586806611 0.508424053725093
4147000000.0 0.9031157378034307 0.4469057999753648
4150000000.0 0.9223868201783657 0.5012780950673905
4153000000.0 0.919000393099674 0.4588086902977714
4156000000.0 0.9166119653733129 0.47897347425158554
4159000000.0 0.903976517711149 0.45603804118089614
4162000000.0 0.8978081575817356 0.4389489814289872
4166000000.0 0.9296712411574111 0.40931259341065684
4169000000.0 0.9123580004192341 0.39727411285780434
4172000000.0 0.959014382761434 0.4130426200921085
4175000000.0 0.9210258823787156 0.4017058735217815
4178000000.0 0.9492411052412751 0.41160387752581906
4181000000.0 0.9262184932414215 0.373408513247534
4184000000.0 0.9427993552325296 0.384103025775864
4188000000.0 0.9390736292362647 0.35454486728449097
4191000000.0 0.888949422781903 0.4226490641841186
4194000000.0 0.9248661001594278 0.3561092900327927
4197000000.0 0.9597109947980068 0.36752064905766807
4200000000.0 0.9460908692852497 0.35437497789590044
4203000000.0 0.9606081880908159 0.3486839663022454
4206000000.0 0.9936645724434501 0.32097054385077756
4209000000.0 0.9403668045651501 0.329626948005113
4212000000.0 0.963061100429476 0.2847583019444093
4216000000.0 0.975343207559386 0.31743218210248797
4219000000.0 0.9883619687588879 0.32757845811971
4222000000.0 0.9725497021393688 0.2997688079517839
4225000000.0 0.9675496599469069 0.280190268510227
4228000000.0 0.9986802439912223 0.2878992262724973
4231000000.0 0.9811129012580012 0.26649828443578805
4234000000.0 1.013149221804234 0.25916029257150874
4238000000.0 0.9962011910097026 0.23996641497240087
4241000000.0 0.9759409333892957 0.21603083378181664
4244000000.0 0.9779292916450849 0.23378820796308603
4247000000.0 0.9809281029167595 0.2139205161311803
4250000000.0 0.9569270445119122 0.22274237627375643
4253000000.0 0.9713728275677744 0.19249008810013124
4256000000.0 1.00885741235804 0.18410214608708908
4259000000.0 0.9634034397759534 0.17147748080731431
4262000000.0 0.9922039958897422 0.16069939264447045
4266000000.0 1.0154129575404558 0.1565375367927942
4269000000.0 0.9893756476782074 0.17326446503230378
4272000000.0 0.9957491439697856 0.15026391985576731
4275000000.0 1.0023321978686401 0.17066946167607217
4278000000.0 1.0194004783231125 0.15251862545444272
4281000000.0 1.0019092487594878 0.13750405125956133
4284000000.0 1.018891697501002 0.084347326541128
4288000000.0 1.0178337664539538 0.16048189189542286
4291000000.0 1.0025725736128253 0.10672143252825843
4294000000.0 0.9922909774030435 0.0991502128606601
4297000000.0 0.9595918822508573 0.09698947916489271
4300000000.0 0.989863631549549 0.11002490958143796
4303000000.0 1.0035519732849887 0.058606195359245564
4306000000.0 0.9958127223859684 0.07935062332810994
4309000000.0 0.9939623827963948 0.06093622235363304
4312000000.0 1.0177054720292233 0.07988407924517349
4316000000.0 1.0539026638222955 0.06406740004516663
4319000000.0 0.9612806860661152 0.015322912375266798
4322000000.0 0.9937400560262545 -0.005612317172792328
4325000000.0 0.9975379429476642 0.03157529328811613
4328000000.0 0.9844698387210781 0.014834766229435331
4331000000.0 1.0073078819152528 -0.0038044368031416725
4334000000.0 1.0066671551516773 -0.013506490989829908
4338000000.0 1.0159168257414772 0.001088958716485705
4341000000.0 1.0587112671914995 -0.012003052714286117
4344000000.0 1.0196714909064375 -0.03740131423063381
4347000000.0 1.0269464991245378 -0.07810899294355211
4350000000.0 0.9662875223293848 -0.06331581275070135
4353000000.0 0.9792592249587659 -0.03922707004882278
4356000000.0 0.991052310091305 -0.09993634586795659
4359000000.0 0.9367396802201381 -0.08385137250579157
4362000000.0 1.0086232131484123 -0.15129128259314994
4366000000.0 1.017661443077175 -0.08987519224845111
4369000000.0 0.9709046247197322 -0.10849335757344042
4372000000.0 0.983252929244723 -0.15200770170074235
4375000000.0 0.9847552206417634 -0.1010338446137264
4378000000.0 0.9751537669144306 -0.13894187541896122
4381000000.0 0.9703182965272144 -0.11764991346922887
4384000000.0 1.0538255442424196 -0.15019290138390906
4388000000.0 0.982831913732964 -0.14367165693470257
4391000000.0 1.0058649680206693 -0.14949225373935043
4394000000.0 0.9780520007410152 -0.18328349085546164
4397000000.0 0.9868860593690176 -0.20109141436170108
4400000000.0 1.004964053632874 -0.20343892710918327
4403000000.0 0.9884637293505981 -0.19869545178528
4406000000.0 0.9798824780402586 -0.22797595267003293
4409000000.0 1.0154375787789847 -0.23356513294200676
4412000000.0 0.9652715759512192 -0.28793348727923695
4416000000.0 0.9527938480405664 -0.2592557828588453
4419000000.0 0.9760410855792403 -0.2738720561225714
4422000000.0 0.9634638303347203 -0.24662003756384207
4425000000.0 0.9861702335170958 -0.252218266812915
4428000000.0 0.9640536762086477 -0.27939862491824796
4431000000.0 0.9989964113709031 -0.28312004281336717
4434000000.0 0.9428068761752916 -0.3043210246897285
4438000000.0 0.9722531640828915 -0.29179971667135624
4441000000.0 0.9802659666664246 -0.31699791509976694
4444000000.0 0.9353893156066804 -0.3094120243846753
4447000000.0 0.9346787758133613 -0.33775737955361435
4450000000.0 0.926943138026954 -0.31349957317088595
4453000000.0 0.9580831127999186 -0.3498404923208118
4456000000.0 0.9155408782321117 -0.36223348527374355
4459000000.0 0.886522224487313 -0.35912243303279323
4462000000.0 0.9990238966981648 -0.3941825870736364
4466000000.0 0.9703370674147235 -0.39093477784602987
4469000000.0 0.9437948840028348 -0.37015065479010545
4472000000.0 0.9391874586625324 -0.4299464814176663
4475000000.0 0.9111272389596149 -0.3889233443992869
4478000000.0 0.9680589666831285 -0.4403217377288208
4481000000.0 0.8833197451418952 -0.4244289245932058
4484000000.0 0.8977164707242764 -0.46390023783749135
4488000000.0 0.9010926844816717 -0.4396904724363245
4491000000.0 0.9043473161961844 -0.4425506350810599
4494000000.0 0.9009086430003597 -0.430962351524318
4497000000.0 0.8906163736778199 -0.44156069370077966
4500000000.0 0.8831140060557907 -0.4637321082305531
4503000000.0 0.8959926941141985 -0.46923864330537934
4506000000.0 0.8645513149451187 -0.47320295562945974
4509000000.0 0.8501013187184825 -0.4872208235295207
4512000000.0 0.8471412470953534 -0.4852573502096521
4516000000.0 0.9046204672571204 -0.5114340673574653
4519000000.0 0.842116238811924 -0.489044650008725
4522000000.0 0.8605710054616804 -0.5400438127668926
4525000000.0 0.8664421208842077 -0.5000684898498222
4528000000.0 0.8602135328563802 -0.5543444905071285
4531000000.0 0.8729115424895274 -0.5233592764526545
4534000000.0 0.8198180161409699 -0.5548824392164822
4538000000.0 0.8270238121840232 -0.5504818333495965
4541000000.0 0.803545308560841 -0.595845762339225
4544000000.0 0.8187409918512447 -0.5511569636092604
4547000000.0 0.8288628209109133 -0.5579109925516998
4550000000.0 0.8151702811170676 -0.6110796664980694
4553000000.0 0.8070229537791618 -0.5857924677100208
4556000000.0 0.7873235205129929 -0.6037736761265429
4559000000.0 0.7960819557814175 -0.6191956090419366
4562000000.0 0.8107191418441564 -0.6325512478064186
4566000000.0 0.7928308005310278 -0.6318183609325481
4569000000.0 0.7718910001633694 -0.63223851877524
4572000000.0 0.7776645066290463 -0.6307338500660226
4575000000.0 0.7817950654759891 -0.6636924378961001
4578000000.0 0.7846845418510098 -0.6526371728587318
4581000000.0 0.7582033195967878 -0.690178350661247
4584000000.0 0.7529955693729337 -0.6662258705578521
4588000000.0 0.7602974026380473 -0.6973433609385876
4591000000.0 0.764061461322387 -0.691069609223293
4594000000.0 0.7338362787582731 -0.6863841183284227
4597000000.0 0.736701731254555 -0.6935351773894805
4600000000.0 0.7037069255867676 -0.7006234828274399
4603000000.0 0.7183922461838619 -0.7381324402173651
4606000000.0 0.7331525476777189 -0.7122696032534974
4609000000.0 0.7089867979468832 -0.724491877527091
4612000000.0 0.6955953094781218 -0.740097966500288
4616000000.0 0.6851856168635249 -0.7289830490363907
4619000000.0 0.6820150619884375 -0.7321046388398728
4622000000.0 0.6683029368820642 -0.7506710464195174
4625000000.0 0.6373899070764883 -0.7449357623041921
4628000000.0 0.6915435652519426 -0.7499952234393809
4631000000.0 0.6412842466473987 -0.7596480561181711
4634000000.0 0.6536882389253116 -0.7547179025929686
4638000000.0 0.6546771526733627 -0.7810384832578217
4641000000.0 0.6369617303625177 -0.7689548888607678
4644000000.0 0.6178297014307099 -0.776862683242794
4647000000.0 0.6217361649513999 -0.7879559208668713
4650000000.0 0.610816418057485 -0.8118850299619882
4653000000.0 0.6348014778329635 -0.8106982995387784
4656000000.0 0.6125540979596553 -0.8218063355327754
4659000000.0 0.5875089386400152 -0.816964487950498
4662000000.0 0.5723890502179143 -0.8450993368911174
4666000000.0 0.5770880399281694 -0.8459637151439335
4669000000.0 0.5838743164209631 -0.81652875089519
4672000000.0 0.5489224969107888 -0.8570140425172248
4675000000.0 0.5330853390001974 -0.8591419334863378
4678000000.0 0.5364016698804406 -0.844454185597364
4681000000.0 0.5220922138704898 -0.8756120489863268
4684000000.0 0.5074188904199428 -0.8853145543504423
4688000000.0 0.5014244615695305 -0.8614582016500449
4691000000.0 0.5439307762296717 -0.8679929608262849
4694000000.0 0.5296269153016635 -0.833908975101548
4697000000.0 0.449562032240537 -0.8519597716131637
4700000000.0 0.5143425398116995 -0.8814931248870264
4703000000.0 0.5188549478648039 -0.8196989450892196
4706000000.0 0.4562792901332724 -0.8932024788650076
4709000000.0 0.4547740900774297 -0.8943713948882258
4712000000.0 0.4927904211036062 -0.8834497153827059
4716000000.0 0.4751495727553536 -0.9273811715516338
4719000000.0 0.47643845604278046 -0.895206908424594
4722000000.0 0.487836888580397 -0.906166082681561
4725000000.0 0.4195525997531788 -0.9038568424521413
4728000000.0 0.3956464855476317 -0.8893951750061369
4731000000.0 0.4699826477995961 -0.9539240621130964
4734000000.0 0.4453286318266474 -0.8916402111148851
4738000000.0 0.44528363175336316 -0.9822292481002135
4741000000.0 0.41016177373253426 -0.9635932775366826
4744000000.0 0.3778154159869422 -0.9564701997152839
4747000000.0 0.3774259724932706 -0.8950785667555146
4750000000.0 0.36695595737258346 -0.9478164100890276
4753000000.0 0.39913980471312605 -0.9584532764904874
4756000000.0 0.3742055793542126 -0.9641360551831746
4759000000.0 0.3498600997136479 -0.9525962694137502
4762000000.0 0.31312312111084056 -0.9942051051343009
4766000000.0 0.33590531361048126 -0.9315034736481581
4769000000.0 0.3145057222114746 -0.9726199508775594
4772000000.0 0.3144022538928299 -0.977364583829572
4775000000.0 0.3067384062962272 -1.0225055293841805
4778000000.0 0.29038473847045554 -0.9809881331465066
4781000000.0 0.30455528035256496 -0.9932324941105064
4784000000.0 0.2876349712610453 -0.9692298098596207
4788000000.0 0.26595855702609644 -1.0182171735263335
4791000000.0 0.25237894938953 -0.978933905738676
4794000000.0 0.29161312889786295 -1.0147153515650151
4797000000.0 0.23350479555136297 -0.9656984997246011
4800000000.0 0.23401518970059523 -0.9654590825256371
4803000000.0 0.1703211065334801 -0.9834880676231954
4806000000.0 0.23350371025392597 -1.0164742722019064
4809000000.0 0.16592082012388118 -0.9916852817001441
4812000000.0 0.17828029630693837 -0.996968552856635
4816000000.0 0.23240347637138672 -0.9790323158987642
4819000000.0 0.20551122006489186 -1.0272961548641482
4822000000.0 0.20609706032811823 -1.036102316555453
4825000000.0 0.20373458294483351 -1.024754606252042
4828000000.0 0.16929667831919243 -0.9839052415242467
4831000000.0 0.11086875108128975 -1.03959052664478
4834000000.0 0.15469826062146239 -1.0193848716485825
4838000000.0 0.12871572874519657 -1.0008125882147254
4841000000.0 0.11415851947820294 -1.0110564805861775
4844000000.0 0.1576920017649329 -1.0176399756725039
4847000000.0 0.1219696829330693 -0.9803178376937396
4850000000.0 0.10504713629010125 -1.0368805956176548
4853000000.0 0.08544987043997157 -0.9823000215045168
4856000000.0 0.08422920574441778 -1.0149150146756787
4859000000.0 0.0629092621359318 -1.0485244312932718
4862000000.0 0.08738295690271468 -1.0002018883891277
4866000000.0 0.043458142926553395 -1.0389175428495807
4869000000.0 0.031035255367602797 -1.0279698438378042
4872000000.0 0.03234539196793868 -1.0405992739988024
4875000000.0 0.12358157899820216 -1.0608042200689116
4878000000.0 0.02387133815034478 -1.032963145324255
4881000000.0 -0.03444257885254532 -1.0686865289882996
4884000000.0 0.03525067489651535 -1.0336700714307228
4888000000.0 0.05878389082033991 -1.0139062434522266
4891000000.0 0.03716374774748417 -1.025507104565531
4894000000.0 -0.010705079710378502 -1.028694546356142
4897000000.0 -0.008372206303334028 -1.0038695668997142
4900000000.0 -0.025874563459532367 -1.0422485726865083
4903000000.0 -0.00807147890860796 -1.0235131135285767
4906000000.0 -0.02716520233895376 -1.0594032535876958
4909000000.0 -0.04722734251020593 -1.0066683540632462
4912000000.0 -0.0628056469764864 -1.0614117695345242
4916000000.0 -0.05999877735290283 -1.0358204517271103
4919000000.0 -0.06256028863020754 -1.0524717720978334
4922000000.0 -0.03499284799238127 -1.0330583534485407
4925000000.0 -0.12151447353206976 -1.0354929960709032
4928000000.0 -0.028148959111040442 -1.0087210807706513
4931000000.0 -0.09872473260511459 -1.0322911538286972
4934000000.0 -0.10743488457190468 -0.9992621388240484
4938000000.0 -0.13805696569547093 -1.008129532893056
4941000000.0 -0.12745874749254837 -0.9954579065274443
4944000000.0 -0.13465481836223195 -0.9513437723249596
4947000000.0 -0.14267184552806655 -0.9781651500207831
4950000000.0 -0.1775472323331564 -0.9959699237995625
4953000000.0 -0.20911321040761482 -1.0578354294213637
4956000000.0 -0.18861645506059427 -1.0035708270786463
4959000000.0 -0.22426955334712603 -0.9485742563664584
4962000000.0 -0.20938554495100384 -1.0425656263346361
4966000000.0 -0.1682625812894082 -1.025277934918474
4969000000.0 -0.16392445104657333 -1.0413148030245662
4972000000.0 -0.2429277939424442 -1.007066522483467
4975000000.0 -0.20407482665995633 -0.9873981747289997
4978000000.0 -0.247754841285393 -0.9792373833617705
4981000000.0 -0.2634985420799306 -1.0205754237074505
4984000000.0 -0.25853177141730854 -0.9829267186064601
4988000000.0 -0.24137376185210724 -0.9673036994554414
4991000000.0 -0.21264648941597375 -1.0153321041623868
4994000000.0 -0.25331465412117343 -0.9561623910055522
4997000000.0 -0.2939256717658912 -0.9683131949929101
5000000000.0 -0.2708480687968996 -1.0259470929756602
5003000000.0 -0.29480795663576626 -1.0340618993528976
5006000000.0 -0.311171980672066 -1.0351309725722082
5009000000.0 -0.29701558265204275 -1.0011690743969681
5012000000.0 -0.3234732470228259 -0.9897388080902396
5016000000.0 -0.3155970462484882 -1.0476873266131086
5019000000.0 -0.35164764705233487 -0.9666688328289099
5022000000.0 -0.34658375769755256 -0.9442962797279577
5025000000.0 -0.386296982808168 -1.0301799320881342
5028000000.0 -0.37153025951920615 -0.9790785191067142
5031000000.0 -0.3685900145216052 -0.9525196474599101
5034000000.0 -0.4190627434413341 -1.005842100730292
5038000000.0 -0.41687253642755295 -0.9294026453860706
5041000000.0 -0.3327190016060727 -0.9625598698983971
5044000000.0 -0.3650036968259356 -0.9355986661450985
5047000000.0 -0.405383259368392 -0.9759046527529328
5050000000.0 -0.3137033453319539 -0.9627978578900465
5053000000.0 -0.4315367260590459 -0.9254793223197051
5056000000.0 -0.3991947352205536 -0.9753530979970613
5059000000.0 -0.37234232441968335 -0.9744134721357723
5062000000.0 -0.4668866375944226 -0.9233424487596487
5066000000.0 -0.45798481886826836 -0.9985145106895281
5069000000.0 -0.45619943774788596 -0.9315400784588285
5072000000.0 -0.4231716095977309 -0.8596933944143021
5075000000.0 -0.4361287703648049 -0.8895700884465227
5078000000.0 -0.5280288769828114 -0.8631299310217395
5081000000.0 -0.4839406410857418 -0.8762722018454078
5084000000.0 -0.530898894995248 -0.9137568034185095
5088000000.0 -0.4838811683888089 -0.9092284388401777
5091000000.0 -0.5555251328685902 -0.8798243178148482
5094000000.0 -0.49465263126266895 -0.9040869891490827
5097000000.0 -0.5039863100075546 -0.9366256877637964
5100000000.0 -0.5606454463443485 -0.873166613166456
5103000000.0 -0.5855930173756524 -0.8699470488108879
5106000000.0 -0.5711639604704253 -0.8977918223547694
5109000000.0 -0.5484984723101544 -0.886193620893172
5112000000.0 -0.5912211395195873 -0.8807814197949699
5116000000.0 -0.538844872465958 -0.8319219335240844
5119000000.0 -0.6188818866208903 -0.8872844680438097
5122000000.0 -0.5501774870300565 -0.8107524980144647
5125000000.0 -0.5251426332972373 -0.8329923219871569
5128000000.0 -0.6436519102281614 -0.8135270135550596
5131000000.0 -0.5677897459734453 -0.8385163198308416
5134000000.0 -0.57730126072345 -0.8723051734266898
5138000000.0 -0.600704196995443 -0.8585818444031517
5141000000.0 -0.5582924193757128 -0.8450305896991053
5144000000.0 -0.5969148277384965 -0.8194080820515058
5147000000.0 -0.630722241081607 -0.8519568195201859
5150000000.0 -0.635511952625847 -0.8181152738759354
5153000000.0 -0.6775409298562138 -0.8192569342959998
5156000000.0 -0.6347267589100393 -0.8050609296014009
5159000000.0 -0.6559053901101443 -0.8302134551221144
5162000000.0 -0.6987760390884097 -0.779788986261033
5166000000.0 -0.692732318996346 -0.7809869766733271
5169000000.0 -0.6900647343920926 -0.7954800505592572
5172000000.0 -0.639814002430168 -0.773991050764102
5175000000.0 -0.6796541650039184 -0.8163155549054604
5178000000.0 -0.6928185596000944 -0.7623210894681001
5181000000.0 -0.7153518534757832 -0.7890695750487343
5184000000.0 -0.6885290610382293 -0.7635772315464364
5188000000.0 -0.7153868302751673 -0.7734803281910883
