! Created with skrf 1.8.0 (http://scikit-rf.org).
# Hz S RI R 50.0 
!freq ReS11 ImS11
4000000000.0 0.5805726896087815 0.8187496385832791
4003000000.0 0.6792519045825826 0.8667674335738674
4006000000.0 0.6551452439482606 0.7754441947580858
4009000000.0 0.6863064129934932 0.8120535609981582
4012000000.0 0.6594152687201272 0.8520612715002488
4016000000.0 0.7107854021754366 0.7851317375402915
4019000000.0 0.6814629666494985 0.7505567432727729
4022000000.0 0.6162816432743206 0.8482799755128833
4025000000.0 0.7379827661825976 0.7637136041714695
4028000000.0 0.728005176244384 0.7701908388247802
4031000000.0 0.6614413759582175 0.7148008132483844
4034000000.0 0.6974775985037801 0.7598796936922106
4038000000.0 0.7202452155916053 0.7190905292963466
4041000000.0 0.7270215717072397 0.7304429743926413
4044000000.0 0.7712980761000533 0.7788124558219075
4047000000.0 0.7312740560532075 0.7709093568576983
4050000000.0 0.7958381902908886 0.708511178120462
4053000000.0 0.7589567654462978 0.671954084741597
4056000000.0 0.7505277473851113 0.6766865362064652
4059000000.0 0.7608363795754473 0.7509706569892525
4062000000.0 0.788964529017898 0.6831426186137115
4066000000.0 0.6938375101373295 0.6580525906667514
4069000000.0 0.8226370131407441 0.7191246992818598
4072000000.0 0.74316242246585 0.7164962251814386
4075000000.0 0.8118194348443679 0.7192671483376929
4078000000.0 0.8416885327330275 0.6747846088065362
4081000000.0 0.7184017159981294 0.6578412862593251
4084000000.0 0.8236395266119568 0.6649173727202287
4088000000.0 0.7735560674491829 0.700321652345584
4091000000.0 0.8717365483378858 0.6996640657963387
4094000000.0 0.826110579432525 0.6439546114807904
4097000000.0 0.8227741203693273 0.6221725448752793
4100000000.0 0.8274777420311729 0.604691965147232
4103000000.0 0.8511244015034474 0.6350809627077727
4106000000.0 0.8710265397384604 0.616865366267801
4109000000.0 0.8716861670039289 0.5972617962102791
4112000000.0 0.8703955327217587 0.5913212346573999
4116000000.0 0.7985026311425185 0.5735282317743738
4119000000.0 0.8533854569794769 0.5583176913266709
4122000000.0 0.8800203268031361 0.5422443937601584
4125000000.0 0.9010138445950417 0.5803171503710656
4128000000.0 0.8260582126753645 0.5544649068283349
4131000000.0 0.875777870413517 0.5297472013786163
4134000000.0 0.8604744053597119 0.5784553077762675
4138000000.0 0.8408051478947711 0.4955965158537647
4141000000.0 0.8875196638536496 0.5024674128291852
4144000000.0 0.8793746086312472 0.5631281103274595
4147000000.0 0.891470702428377 0.5194278866977025
4150000000.0 0.9215135272432349 0.518687199008486
4153000000.0 0.9092995495607216 0.5178087132343733
4156000000.0 0.9011619064177572 0.5340182766594338
4159000000.0 0.9062513670564816 0.49478935188912115
4162000000.0 0.9021862827876352 0.4830968249831249
4166000000.0 0.9606493899031434 0.4320493189227179
4169000000.0 0.9359511688239781 0.4263353742763838
4172000000.0 0.9336901632338203 0.4754438602469743
4175000000.0 0.9104880415137129 0.45129509037054544
4178000000.0 0.9244330729831008 0.4550218912664138
4181000000.0 0.9204963739383714 0.4511263027813651
4184000000.0 0.9356683718380429 0.4351657387665861
4188000000.0 0.9419710158447601 0.4186584247061438
4191000000.0 0.9270710851785973 0.4173161325509723
4194000000.0 0.9137791454319106 0.3986409587029308
4197000000.0 0.9718735418488933 0.40174110801406576
4200000000.0 0.9403626649869932 0.39067092818541427
4203000000.0 0.945756523219174 0.3749514978419882
4206000000.0 0.9598356799111599 0.37564898232278093
4209000000.0 0.9420197329127424 0.36830226688439377
4212000000.0 0.9529674257040303 0.3280574603781561
4216000000.0 0.9621470476086432 0.3533665791482801
4219000000.0 0.9649764674465192 0.3551024995222797
4222000000.0 0.9768215581200861 0.32783139513334564
4225000000.0 0.9653892566302527 0.31953932731958656
4228000000.0 1.0069773625137892 0.30594110669261465
4231000000.0 0.9560984440432998 0.28633676805969394
4234000000.0 0.9863680112506447 0.27881514649992706
4238000000.0 0.9838151530189371 0.26247376699468505
4241000000.0 0.98465571553636 0.2786507816041029
4244000000.0 0.9985221207411414 0.26258432486138256
4247000000.0 0.9887744820587865 0.2685831036310752
4250000000.0 0.9825087890862096 0.24546591290347142
4253000000.0 0.9856217390907485 0.21952477196054504
4256000000.0 1.032172685793036 0.25205415211787646
4259000000.0 0.9705338461348887 0.20175696733384832
4262000000.0 1.0054639957561222 0.20587896332424646
4266000000.0 1.0306212912373445 0.1977578850781776
4269000000.0 0.9842429605086934 0.21085056160116103
4272000000.0 0.9904295361178498 0.18695350282166828
4275000000.0 1.0137990451331618 0.17686403497458608
4278000000.0 1.0096545819068568 0.17674398061648577
4281000000.0 0.9783240450006676 0.18385811135306185
4284000000.0 1.0244347413010115 0.12791761796937512
4288000000.0 1.0093446645188733 0.1862340884368039
4291000000.0 0.9930427985008116 0.15384582123794976
4294000000.0 1.02804997695823 0.13682982636570623
4297000000.0 1.0158903610232846 0.14711714392186714
4300000000.0 1.0065242590612855 0.12353557496384368
4303000000.0 0.9990500362704058 0.09715092871248522
4306000000.0 1.0062856462806726 0.12248053039656087
4309000000.0 0.99316099986168 0.11333789115369934
4312000000.0 1.0205842210611085 0.12452029274149332
4316000000.0 1.0289048382484882 0.09812483589875938
4319000000.0 0.9961905580159349 0.05435515618341939
4322000000.0 0.9914357476738646 0.03942016666490601
4325000000.0 1.0272732754923122 0.051012172427175415
4328000000.0 0.9986744515038194 0.04063311407440813
4331000000.0 1.003547130996806 0.015874135753742913
4334000000.0 1.037477510855198 0.018206669327676644
4338000000.0 1.0141290022037852 0.035960675892172375
4341000000.0 1.018040655381986 0.04644305113058894
4344000000.0 1.0332399363181874 0.0194582338007577
4347000000.0 1.0176347886313821 -0.049563296670650986
4350000000.0 0.9721823371192426 -0.008153019109574583
4353000000.0 1.0179853527285936 0.003963620247607991
4356000000.0 1.0176277799006699 -0.04126294847753739
4359000000.0 0.971318290117652 -0.036092555322137565
4362000000.0 1.016024787929809 -0.10816856311637313
4366000000.0 1.0573333011784498 -0.08713467262383999
4369000000.0 0.98400799648986 -0.0850791951940767
4372000000.0 0.9820907235061971 -0.1409931834599778
4375000000.0 1.0042374659569453 -0.06995214949587374
4378000000.0 0.9837566938315205 -0.09607845622244947
4381000000.0 0.9827500837096355 -0.0901844386279142
4384000000.0 1.0821925374155899 -0.10923156116051766
4388000000.0 0.9817422089785484 -0.097978841238558
4391000000.0 1.0106931029684372 -0.11003314659960978
4394000000.0 0.9774097409698573 -0.15004020223988868
4397000000.0 0.9874094947665812 -0.15505400092926497
4400000000.0 1.0128171082974393 -0.16735471764096216
4403000000.0 1.0073033199246828 -0.17112835767738405
4406000000.0 1.0040530021403213 -0.19246962994322264
4409000000.0 1.0295313020187886 -0.18614986679187906
4412000000.0 0.9815127697522787 -0.2482727626934724
4416000000.0 0.9724098596773334 -0.21786450625462211
4419000000.0 0.9860771443772439 -0.23423213535616894
4422000000.0 0.9904637261315163 -0.2055218296017033
4425000000.0 0.9954492745088874 -0.20490203949884742
4428000000.0 0.9757350818705723 -0.2586248167331128
4431000000.0 0.9932521243967174 -0.24447851021666106
4434000000.0 0.9709677026676233 -0.26184315233114275
4438000000.0 1.0076150453229815 -0.26922187421330546
4441000000.0 0.9917624883814189 -0.27627995527357
4444000000.0 0.9587672589513803 -0.2699929155742425
4447000000.0 0.9615907234040924 -0.29969006179544844
4450000000.0 0.9608611307841511 -0.2805699731906536
4453000000.0 1.0017336447863368 -0.311474350863818
4456000000.0 0.9525326585553074 -0.3129953485442638
4459000000.0 0.9059190392212251 -0.3255046720349467
4462000000.0 0.9988578187051225 -0.35066881320757226
4466000000.0 1.0010969868422914 -0.35533734938663725
4469000000.0 0.9746617111113817 -0.33266393223192725
4472000000.0 0.9856420353634856 -0.39278590240252087
4475000000.0 0.9231030617172159 -0.34978718273112497
4478000000.0 0.9709507923595269 -0.4042607545696355
4481000000.0 0.920134960561281 -0.38407760701693267
4484000000.0 0.9202893657255138 -0.42518821551190833
4488000000.0 0.9052896878393253 -0.4073048949531134
4491000000.0 0.9333868569166774 -0.4191609793565641
4494000000.0 0.909336821032814 -0.4098082493680742
4497000000.0 0.9215714388267062 -0.40403252815345797
4500000000.0 0.9261645344848675 -0.42727612127604886
4503000000.0 0.95455367388279 -0.45238338628641694
4506000000.0 0.9113164278931989 -0.4521257935839029
4509000000.0 0.8864430169449986 -0.45638540658348603
4512000000.0 0.8868944983103109 -0.4643660922548487
4516000000.0 0.9214479835479605 -0.47384304092074864
4519000000.0 0.8892952975849768 -0.46856455902101324
4522000000.0 0.8837318335095508 -0.48866048636823733
4525000000.0 0.8906637095972447 -0.4861089845957638
4528000000.0 0.8927789382029212 -0.5299437067472623
4531000000.0 0.8749950153395689 -0.49176461037334385
4534000000.0 0.8498676849579578 -0.5072593851785574
4538000000.0 0.8688964268568635 -0.5197199356995936
4541000000.0 0.8417731192768592 -0.5491468165421975
4544000000.0 0.856070059231238 -0.5303787754807474
4547000000.0 0.8684636582438757 -0.5356737758135148
4550000000.0 0.8297556581033223 -0.5764119967506919
4553000000.0 0.8633504370593363 -0.5615609516232007
4556000000.0 0.8123519854911274 -0.5632044136252186
4559000000.0 0.8301543105860172 -0.5961339801670371
4562000000.0 0.8278471632289013 -0.5726697662905178
4566000000.0 0.814622066910331 -0.6080409669871465
4569000000.0 0.7869785369833248 -0.5847143923363041
4572000000.0 0.7936193959044696 -0.6028850393504556
4575000000.0 0.7998537861692077 -0.628244681930895
4578000000.0 0.8408101580997669 -0.6128454445212989
4581000000.0 0.7879145805629697 -0.6560110448558257
4584000000.0 0.7825424141302855 -0.6326884563457443
4588000000.0 0.7850629681539097 -0.6420873950403728
4591000000.0 0.7855533479877028 -0.6437506803295214
4594000000.0 0.7621477939377166 -0.6716264627356021
4597000000.0 0.7789798154762757 -0.6687937634867609
4600000000.0 0.7274222782582653 -0.6989887471412191
4603000000.0 0.7543530937786521 -0.699871213968197
4606000000.0 0.7706290354181285 -0.6827315656044819
4609000000.0 0.7368401270424427 -0.6991412014344838
4612000000.0 0.7343004415844212 -0.7009134873015056
4616000000.0 0.7133559976541937 -0.6956826074026956
4619000000.0 0.7250968648289857 -0.7137607689132626
4622000000.0 0.704932329165508 -0.7285267037731
4625000000.0 0.6766079601396947 -0.7188662181367759
4628000000.0 0.7133182462673093 -0.7069227322239469
4631000000.0 0.6944249247813556 -0.7458688614869762
4634000000.0 0.678103616411415 -0.7337986446948908
4638000000.0 0.6933368174383615 -0.744671237725228
4641000000.0 0.6846387347366291 -0.7433716911444812
4644000000.0 0.6711138909679706 -0.7615566241676371
4647000000.0 0.6629086086337233 -0.7653690287922582
4650000000.0 0.6313108696534838 -0.7928271623144514
4653000000.0 0.677766836853562 -0.7708334555088342
4656000000.0 0.6296980777442529 -0.7904513117518555
4659000000.0 0.6274251616443351 -0.806958964780938
4662000000.0 0.6020326891254003 -0.8038862880320914
4666000000.0 0.6216150478609663 -0.8316377612100807
4669000000.0 0.6275320443368473 -0.8024113107471401
4672000000.0 0.5986101905322767 -0.8415984572692683
4675000000.0 0.5823644341909184 -0.8360101139897449
4678000000.0 0.582347418543097 -0.8138201388258565
4681000000.0 0.5734063742103999 -0.8386136028667999
4684000000.0 0.5590500623494878 -0.844981416535328
4688000000.0 0.558231168141944 -0.8377887661818354
4691000000.0 0.5814005238341489 -0.8254821630563842
4694000000.0 0.5819602538997735 -0.8446977922469612
4697000000.0 0.5027410804679343 -0.8381951534923
4700000000.0 0.5519010972936051 -0.856469403526315
4703000000.0 0.5469045239605858 -0.8213321874535329
4706000000.0 0.5172700541632048 -0.863714240715673
4709000000.0 0.49994930286254496 -0.8775840059952459
4712000000.0 0.5285492724101146 -0.9036190749555147
4716000000.0 0.49775652390483105 -0.8954910776782612
4719000000.0 0.534553000442805 -0.87922769173448
4722000000.0 0.5096939137953227 -0.9030259223649222
4725000000.0 0.4519981816491957 -0.9075864545364479
4728000000.0 0.4787233574328916 -0.8944190556034393
4731000000.0 0.5064855080654067 -0.9151675086287516
4734000000.0 0.47618723199294977 -0.9128343805312906
4738000000.0 0.47744772535675706 -0.9365729845004982
4741000000.0 0.43301155359975835 -0.9361893577405674
4744000000.0 0.42606648261986757 -0.9528418890868114
4747000000.0 0.41965774148928875 -0.8995514753859954
4750000000.0 0.40998044370847 -0.9338586551158963
4753000000.0 0.428025098829032 -0.9406072655546879
4756000000.0 0.3908197483173447 -0.9605496767523076
4759000000.0 0.4278002368227889 -0.9588166435041846
4762000000.0 0.33956138849629003 -0.9771767476754659
4766000000.0 0.36347431380025724 -0.9441061141653191
4769000000.0 0.37159292739547417 -0.9696066246178333
4772000000.0 0.35267147224098333 -0.9472731258684578
4775000000.0 0.32582923355515137 -1.0049157908634982
4778000000.0 0.3710621513999504 -0.969511908099255
4781000000.0 0.37877705162974257 -0.9935649657858558
4784000000.0 0.34897265206134764 -0.9562680510702947
4788000000.0 0.2964429891053574 -1.0032060473689233
4791000000.0 0.31638253469373506 -0.9790444810888211
4794000000.0 0.34523925361460583 -0.9635885179863786
4797000000.0 0.27864556732931434 -0.9523643479184573
4800000000.0 0.27162970647348467 -0.973115887005843
4803000000.0 0.2665513818948664 -0.9724212987739409
4806000000.0 0.2690721568275524 -0.9962424801201804
4809000000.0 0.22302744445888 -0.9721909589801073
4812000000.0 0.2300004464675853 -0.9994275818220959
4816000000.0 0.2649556906175595 -0.9636928227487136
4819000000.0 0.26478240910075723 -1.0212017907225213
4822000000.0 0.2551059684355194 -1.0099689738202897
4825000000.0 0.26495259222797024 -1.021553082003662
4828000000.0 0.22809347708773822 -1.0065596750562245
4831000000.0 0.1668902801282624 -1.0234270415791151
4834000000.0 0.21804791859187206 -0.993361728284029
4838000000.0 0.15587418400268266 -1.0467223172491056
4841000000.0 0.17277251579745623 -0.9942372349971199
4844000000.0 0.19989618374001866 -1.0406072272966644
4847000000.0 0.17291159053945226 -0.9663695208013361
4850000000.0 0.15118208955364223 -1.0548251429218325
4853000000.0 0.14972938408205694 -0.9792416363720282
4856000000.0 0.15727851966613093 -0.9876166865202879
4859000000.0 0.1345148943916655 -1.0776927369898295
4862000000.0 0.1530785088291401 -1.008431770098566
4866000000.0 0.10184846358244898 -1.0200148233553328
4869000000.0 0.10079045064467625 -1.0364376543849627
4872000000.0 0.08557679448601897 -1.0483786833222812
4875000000.0 0.16049963000341363 -1.0454220683146704
4878000000.0 0.07389886072510399 -1.0327749777931312
4881000000.0 0.0429549318819985 -1.098705582018352
4884000000.0 0.07901573732582945 -1.0474800327880225
4888000000.0 0.08618203917001759 -1.034714208674361
4891000000.0 0.09207585840254684 -1.038507848409
4894000000.0 0.013985003952080292 -1.0376787557905165
4897000000.0 0.052091710872859305 -1.0211084643854342
4900000000.0 0.03484397583669164 -1.033975239012298
4903000000.0 0.021291732478356373 -1.0551054693896016
4906000000.0 0.012513481991668473 -1.0410091522132385
4909000000.0 0.0063827119842738145 -1.036371983849585
4912000000.0 -0.04172052006462304 -1.0618754707842053
4916000000.0 0.00988517314938498 -1.0606265852856103
4919000000.0 0.005244956620548358 -1.0838331234065026
4922000000.0 0.0274919917761728 -1.0686531158496406
4925000000.0 -0.03610961060873552 -0.995768707866664
4928000000.0 0.018546037891382205 -1.0375014893770282
4931000000.0 -0.028826480927895123 -1.0209573493643285
4934000000.0 -0.05672785870247936 -1.0046512787073543
4938000000.0 -0.10181528075569028 -1.0298037335549894
4941000000.0 -0.08124628552546805 -1.016590219316093
4944000000.0 -0.07586716238267319 -0.97000830587108
4947000000.0 -0.10291109731708983 -1.010797132337832
4950000000.0 -0.10825326902628164 -1.0071021125809672
4953000000.0 -0.13624001780586206 -1.0551598087411596
4956000000.0 -0.1665928261212547 -1.003139769724435
4959000000.0 -0.17620322022880516 -0.9711757306525741
4962000000.0 -0.14206249538642798 -1.0433606209726638
4966000000.0 -0.13312890887827578 -1.0670043679501067
4969000000.0 -0.13748646338249515 -1.056197207947156
4972000000.0 -0.15844100806600867 -1.0306078173799826
4975000000.0 -0.12921908207586377 -1.0170983155610338
4978000000.0 -0.20146752762185438 -1.0138741949156682
4981000000.0 -0.1924539707919267 -1.0437824974952798
4984000000.0 -0.2126325641852088 -1.0114380869899695
4988000000.0 -0.17330152834835538 -1.0131565363443513
4991000000.0 -0.1642718717341085 -1.0397825405125147
4994000000.0 -0.20733906411414194 -1.024778625993869
4997000000.0 -0.28677749753113385 -1.0195867693921965
5000000000.0 -0.21648455398834238 -1.0447472039913606
5003000000.0 -0.21466574261533378 -1.0353405408438572
5006000000.0 -0.2502138607347756 -1.0426140164747402
5009000000.0 -0.23486447442571637 -1.0104201889567446
5012000000.0 -0.30748801385467855 -0.9902515846749631
5016000000.0 -0.21058883148594248 -1.0649900057496031
5019000000.0 -0.30197228847702773 -1.0029680029925974
5022000000.0 -0.2955016651913548 -0.9848131058822966
5025000000.0 -0.3078108441382185 -1.069757866879906
5028000000.0 -0.3340871384728916 -0.9810686409966878
5031000000.0 -0.2981026558424432 -0.9731846688485343
5034000000.0 -0.3345372186281569 -1.0089242817204092
5038000000.0 -0.33633465424479436 -0.93776183881463
5041000000.0 -0.31281596410753043 -1.0051067094783797
5044000000.0 -0.29359890079087414 -0.9418855508073009
5047000000.0 -0.361970130572876 -1.017957649782089
5050000000.0 -0.25157927883796893 -0.9820449066123766
5053000000.0 -0.39216905242425837 -1.0059247662761803
5056000000.0 -0.332862935527778 -0.9807639186481762
5059000000.0 -0.32659634705139623 -0.9908998367269483
5062000000.0 -0.42939649435248917 -0.9734694331586784
5066000000.0 -0.3553969882564654 -0.9666047667750086
5069000000.0 -0.39117445498020187 -0.9583351311123264
5072000000.0 -0.3997466346851968 -0.9188385195350031
5075000000.0 -0.4084341608469003 -0.9772531309062729
5078000000.0 -0.4674963731702711 -0.9365313506620738
5081000000.0 -0.42712345162520454 -0.8759691941091517
5084000000.0 -0.4316620392815963 -0.9977580744346055
5088000000.0 -0.3985333151286307 -0.9587345827976463
5091000000.0 -0.47827346842520085 -0.92401643790078
5094000000.0 -0.484723624411928 -0.9490911780133834
5097000000.0 -0.4451655113433939 -0.9471739877899157
5100000000.0 -0.4587927741838272 -0.9352118060642743
5103000000.0 -0.5000975093507604 -0.9394528218942358
5106000000.0 -0.5071345216504872 -0.9562703908425214
5109000000.0 -0.46420377051200723 -0.8770196168867999
5112000000.0 -0.4830956967411953 -0.8724623760580288
5116000000.0 -0.4987239703989768 -0.8749482491213627
5119000000.0 -0.4995389242004993 -0.8861551625552717
5122000000.0 -0.48009992822872494 -0.8884651149774254
5125000000.0 -0.4939143565923663 -0.8916800699252145
5128000000.0 -0.5072269707740662 -0.9109151838104299
5131000000.0 -0.5071140622351166 -0.8519125289606151
5134000000.0 -0.5546627638884353 -0.8618309643078353
5138000000.0 -0.5076365213943654 -0.8652022191852693
5141000000.0 -0.5158796859684663 -0.901965542376995
5144000000.0 -0.541726950242447 -0.8813015720302141
5147000000.0 -0.5651453883269991 -0.9138283926798866
5150000000.0 -0.5786355797549493 -0.8832383345359137
5153000000.0 -0.5513006740387116 -0.8535783071052736
5156000000.0 -0.5879636661024807 -0.8653775715465124
5159000000.0 -0.6108641150450737 -0.8898729589866227
5162000000.0 -0.6316442999496448 -0.8174919629607302
5166000000.0 -0.6402679498359032 -0.8623061438137091
5169000000.0 -0.6253759729637269 -0.836953843937548
5172000000.0 -0.5998688817245008 -0.8111332976049538
5175000000.0 -0.6571417973438395 -0.8859857573696908
5178000000.0 -0.6734608055068867 -0.8448726473004925
5181000000.0 -0.6843327788312425 -0.8531442536277432
5184000000.0 -0.660597015630534 -0.8066937799557786
5188000000.0 -0.6504484394195673 -0.806706703635644
