! Created with skrf 1.8.0 (http://scikit-rf.org).
# Hz S RI R 50.0 
!freq ReS11 ImS11
4000000000.0 0.6446150058605598 0.8141798367870428
4003000000.0 0.7095702298509012 0.8505914593749575
4006000000.0 0.6590833303277442 0.7669681741199423
4009000000.0 0.6219634514211345 0.8279818306231963
4012000000.0 0.6068482095286206 0.8572170830504061
4016000000.0 0.6809276464389283 0.7533186713258004
4019000000.0 0.6715221765961632 0.7529440227785615
4022000000.0 0.6221786098296747 0.8440965402776989
4025000000.0 0.7303097100530723 0.8065344461071045
4028000000.0 0.728581945324534 0.7698125477726179
4031000000.0 0.6817159598578088 0.7071549892143001
4034000000.0 0.6848849081247617 0.7441503876028432
4038000000.0 0.7369825539793017 0.7159151871509758
4041000000.0 0.7251154114057001 0.75336910987394
4044000000.0 0.7548947366357855 0.768464441056978
4047000000.0 0.6970884582963517 0.8154818056804151
4050000000.0 0.76588723796322 0.7116939993033551
4053000000.0 0.7227829199487614 0.6810690358688043
4056000000.0 0.7174177761213713 0.7002244560930952
4059000000.0 0.7533988239945165 0.7163165766463384
4062000000.0 0.7605271831152535 0.709628368459901
4066000000.0 0.7265808747167117 0.6478862289966195
4069000000.0 0.7961789271155449 0.6772977398313789
4072000000.0 0.7881975444192042 0.6956030534100415
4075000000.0 0.7718523655154962 0.7362095056439799
4078000000.0 0.8367284663338606 0.6900544416922528
4081000000.0 0.750552435298314 0.7122597077304177
4084000000.0 0.8303138779243829 0.6438325911450646
4088000000.0 0.764354416531618 0.7097253083538169
4091000000.0 0.8558802834135018 0.662007030448168
4094000000.0 0.8362912465822975 0.63747145882785
4097000000.0 0.8063611360129213 0.5983771683057397
4100000000.0 0.8327852897436799 0.6151516583498466
4103000000.0 0.8142389738622753 0.6533632032266361
4106000000.0 0.8743486609875952 0.5915762219809468
4109000000.0 0.8530627733839888 0.5818658570905144
4112000000.0 0.8516718678954465 0.5696557283817079
4116000000.0 0.8488349378517782 0.633820492087862
4119000000.0 0.8678255282809008 0.5656909967940098
4122000000.0 0.8735728324869251 0.5341067786779592
4125000000.0 0.8882610608193113 0.575968594169304
4128000000.0 0.819799595402635 0.5458435596718599
4131000000.0 0.8427241715387586 0.5116196576416132
4134000000.0 0.8393377585952378 0.5701161510244559
4138000000.0 0.8613620459580889 0.5166311238251908
4141000000.0 0.8416591741037095 0.49271678385782913
4144000000.0 0.8667066964971758 0.5351949462226915
4147000000.0 0.8919242024120891 0.5160113340579175
4150000000.0 0.8954040432967066 0.5246922833937293
4153000000.0 0.8733269747431631 0.4773091786035397
4156000000.0 0.894681926771947 0.5329698038639723
4159000000.0 0.856076601340614 0.4855621044697878
4162000000.0 0.8878115802309101 0.49816139454330466
4166000000.0 0.9306792333406999 0.4628966553755747
4169000000.0 0.932851553967094 0.41267899652922746
4172000000.0 0.9302568896209324 0.4690151772465783
4175000000.0 0.9108598936338995 0.4433181985418542
4178000000.0 0.9208794848680967 0.441940579007283
4181000000.0 0.9166494473224958 0.4377654626464129
4184000000.0 0.9408797889631761 0.4197291131966145
4188000000.0 0.9298817688176286 0.4028798537472047
4191000000.0 0.9052170044036418 0.440938925790679
4194000000.0 0.906006582110402 0.3945493136379048
4197000000.0 0.966743903476518 0.3840402986924584
4200000000.0 0.940401216655919 0.40549696467639595
4203000000.0 0.9693156858615399 0.40412426081541464
4206000000.0 0.9476694804446197 0.38198238805214974
4209000000.0 0.9308698170338678 0.3692510880599558
4212000000.0 0.9662206283936549 0.3281710088627612
4216000000.0 0.936508897705115 0.3564396098604172
4219000000.0 0.9690661426775362 0.35819972638545317
4222000000.0 0.980032284108526 0.31221507677928245
4225000000.0 0.962472440207395 0.3131606284047229
4228000000.0 0.9738346232522541 0.3134844518161112
4231000000.0 0.9762882799011863 0.2896722297413667
4234000000.0 0.9889792935132377 0.29512341474833004
4238000000.0 0.981137530326153 0.28365430149888804
4241000000.0 0.972100461931084 0.2674433427144646
4244000000.0 0.9814977164350411 0.2785330336673697
4247000000.0 0.9877061392311828 0.27200913105337743
4250000000.0 0.9768531910405418 0.24727166579710658
4253000000.0 0.9547375304757175 0.21468194109286914
4256000000.0 1.0183007002268165 0.23722665223668843
4259000000.0 0.9646662327750474 0.21930433422453485
4262000000.0 0.9962942762058224 0.23095321404094013
4266000000.0 1.0123629152666345 0.19183562864214032
4269000000.0 1.0054640721551824 0.22371984628550448
4272000000.0 0.9833881963254126 0.1957188089332908
4275000000.0 0.9860703046047599 0.1786875713107412
4278000000.0 1.0306272012583797 0.17308241693281523
4281000000.0 0.9904249082374814 0.1903261017626396
4284000000.0 1.0166717166694794 0.1338380400251456
4288000000.0 1.0008649152454134 0.18206099715101118
4291000000.0 0.9555480048185564 0.1482322363126512
4294000000.0 1.0192535239146143 0.12909553002676027
4297000000.0 0.9968385633184218 0.14710084967561998
4300000000.0 0.9858339529285893 0.12412970130718073
4303000000.0 0.9606980465729942 0.09250799824489432
4306000000.0 1.0106202107317614 0.12463838334927355
4309000000.0 0.9854984423560059 0.11904847557970895
4312000000.0 1.014638499508876 0.11093283158737066
4316000000.0 1.007875943329629 0.10053062944418255
4319000000.0 1.01051081776483 0.0773090625485643
4322000000.0 0.9911153988956277 0.04893423309442617
4325000000.0 1.0104434473071497 0.054234335709740636
4328000000.0 0.9790800927111372 0.037293694286970366
4331000000.0 1.0080453857631955 0.01045286752173924
4334000000.0 0.9995913864089586 0.019610934874077196
4338000000.0 1.0157958169778782 0.04004452972664778
4341000000.0 1.0134728169900893 0.04563358024087122
4344000000.0 1.0219693859131085 0.01508344235152495
4347000000.0 1.0090232528032164 -0.018159107292551657
4350000000.0 0.9770444175807991 -0.046271335670250394
4353000000.0 0.9831844001891015 -0.010530890752808025
4356000000.0 0.9927933119532143 -0.054656592049362504
4359000000.0 0.9614486691917703 -0.025085587018482403
4362000000.0 0.9985513093945144 -0.10416128186922832
4366000000.0 1.0142499249368864 -0.05798350549990794
4369000000.0 0.9509414648279426 -0.061612021851849164
4372000000.0 0.9798130253793427 -0.13078930687386642
4375000000.0 1.002445772082467 -0.05954175924703203
4378000000.0 0.98403108553973 -0.07545930198682194
4381000000.0 0.98135327119216 -0.08143845120154755
4384000000.0 1.0664559278760033 -0.1293207179002573
4388000000.0 0.9834670650809202 -0.09009765635356462
4391000000.0 1.0038199847767426 -0.1350223279146286
4394000000.0 0.9675961958600157 -0.13914081473527798
4397000000.0 0.9835711985594262 -0.1511667183788847
4400000000.0 1.028663346555677 -0.15415283825356202
4403000000.0 0.9964484036293284 -0.16636068104982
4406000000.0 0.9906840956684876 -0.1888787147655093
4409000000.0 1.0154488455390525 -0.18671010723818784
4412000000.0 0.9757213856644968 -0.23850846290334768
4416000000.0 0.9800541655834885 -0.2124310909796506
4419000000.0 0.9723566731433334 -0.23305258113435257
4422000000.0 0.9704140203440168 -0.21016545970422468
4425000000.0 1.0077672334288676 -0.20260188815882013
4428000000.0 0.9825370316359295 -0.2442227038999413
4431000000.0 1.004773363759053 -0.23867927992864627
4434000000.0 0.9649904344845116 -0.26116123992614587
4438000000.0 1.0018311637457942 -0.2649643112769135
4441000000.0 1.003083986542583 -0.258538057648061
4444000000.0 0.9440855853057724 -0.26947141414706466
4447000000.0 0.9559516652140224 -0.29115771330929213
4450000000.0 0.9559647760081137 -0.28443350773508347
4453000000.0 0.9904125528203407 -0.29718322800673186
4456000000.0 0.9332622874339557 -0.31065106719434676
4459000000.0 0.9211182560172673 -0.3113667750894543
4462000000.0 1.0118643961343086 -0.3484423633714854
4466000000.0 0.9896071085531396 -0.36043863901502404
4469000000.0 0.9637425248797235 -0.3172238562477187
4472000000.0 0.9647421280727705 -0.3772723442917937
4475000000.0 0.9096765998311426 -0.35600564484294694
4478000000.0 0.9735961619113429 -0.3856925106833281
4481000000.0 0.8999012510864094 -0.37091795855254184
4484000000.0 0.9078979517948966 -0.423261239970133
4488000000.0 0.9035765236340125 -0.4110985681286178
4491000000.0 0.9203659682628553 -0.41287753047275955
4494000000.0 0.9059944409620676 -0.4008094121930003
4497000000.0 0.9019459021681415 -0.3956342113732018
4500000000.0 0.9148379470294143 -0.41106306027039624
4503000000.0 0.9424591862636122 -0.43837618757150115
4506000000.0 0.8995778113870276 -0.4429521417685702
4509000000.0 0.8899067507522012 -0.4452790777881629
4512000000.0 0.8757119422371098 -0.468693826708663
4516000000.0 0.9121599819158337 -0.45735170778520234
4519000000.0 0.8826403964704078 -0.4370528643168231
4522000000.0 0.8828230034675775 -0.4983292962931451
4525000000.0 0.8848513158472648 -0.4566545556812554
4528000000.0 0.8797208230872884 -0.5043310590707134
4531000000.0 0.8828911660212189 -0.501172503453035
4534000000.0 0.8503570288722793 -0.49512886271879786
4538000000.0 0.8422578717303391 -0.5081888699068215
4541000000.0 0.8301768723597229 -0.5590715539877079
4544000000.0 0.8396717640972888 -0.5332618815056857
4547000000.0 0.8418267115325645 -0.5146591967953553
4550000000.0 0.8389844844973136 -0.5774175729472578
4553000000.0 0.858649338093501 -0.5528589099698051
4556000000.0 0.8092013259573858 -0.5635180168996264
4559000000.0 0.8210657712512441 -0.581376050458523
4562000000.0 0.8290524000397397 -0.5752181849295529
4566000000.0 0.8123470625407754 -0.607877502297413
4569000000.0 0.784782687857401 -0.5984958942225982
4572000000.0 0.8166095269761374 -0.5963481494519352
4575000000.0 0.7828064949960292 -0.6346854769880186
4578000000.0 0.8275149290225541 -0.6140564445709624
4581000000.0 0.787447478583772 -0.6378614195984575
4584000000.0 0.7880768087063352 -0.6269558988937208
4588000000.0 0.8006478548907157 -0.6314122870951023
4591000000.0 0.7825891737256473 -0.6233240636426739
4594000000.0 0.7526341201500217 -0.6566992439641967
4597000000.0 0.7591495933957952 -0.6596935319557133
4600000000.0 0.7340558463735073 -0.674334883092358
4603000000.0 0.7382612415575357 -0.669538857657943
4606000000.0 0.7462868848576323 -0.669735080174362
4609000000.0 0.7634272387000248 -0.6919826141647787
4612000000.0 0.735535082792628 -0.695556120523463
4616000000.0 0.7051910301179372 -0.698078624919362
4619000000.0 0.7337145909313987 -0.6937734605154683
4622000000.0 0.7029235204912538 -0.7081742064015047
4625000000.0 0.6807289936026586 -0.7012791777890416
4628000000.0 0.7084867486400748 -0.7052656884689233
4631000000.0 0.6899541753904681 -0.7402392832655861
4634000000.0 0.6962119688707116 -0.7464089147825567
4638000000.0 0.7039024961632443 -0.7313568108183911
4641000000.0 0.6836298094282693 -0.75005975807481
4644000000.0 0.6712518383271611 -0.7526088702391751
4647000000.0 0.6886128279167066 -0.7552507315459507
4650000000.0 0.6517437969568685 -0.7634889470347247
4653000000.0 0.6722327383113523 -0.7751824070424125
4656000000.0 0.6364436639454938 -0.7606249252506596
4659000000.0 0.6337403316569299 -0.7862550612250111
4662000000.0 0.6391303483481451 -0.7867032667121904
4666000000.0 0.6013504099042278 -0.7882294218489045
4669000000.0 0.6237798033549764 -0.7811715267242543
4672000000.0 0.6113906949378635 -0.8199180623674287
4675000000.0 0.586481584338078 -0.8141525526173097
4678000000.0 0.5873591211051694 -0.8213475264109769
4681000000.0 0.5832424649694719 -0.8604494803013637
4684000000.0 0.5534184747295523 -0.8256944419014589
4688000000.0 0.5495121973390674 -0.8296888737383197
4691000000.0 0.581520914575579 -0.8425946312536805
4694000000.0 0.556540279130673 -0.8476244827647703
4697000000.0 0.502999302211629 -0.8523842810332207
4700000000.0 0.5554520154891033 -0.8457678752484374
4703000000.0 0.5363947923683732 -0.815322362684135
4706000000.0 0.5313808536534039 -0.8587081541483654
4709000000.0 0.5143936965030759 -0.863502449440493
4712000000.0 0.5188714598502226 -0.8464331133921931
4716000000.0 0.5127448747663848 -0.9034409316838381
4719000000.0 0.5050516991168827 -0.8721628309300044
4722000000.0 0.5345364806912827 -0.8880389468088081
4725000000.0 0.49741143002325416 -0.8738255715708447
4728000000.0 0.4572337966603166 -0.8712431212937324
4731000000.0 0.4861419542369009 -0.9100839258229538
4734000000.0 0.48357062057486533 -0.870855795184902
4738000000.0 0.4780547223573295 -0.9097772505133404
4741000000.0 0.44293231551063594 -0.9246657657639019
4744000000.0 0.43083563384507617 -0.9076651013491657
4747000000.0 0.4552760389853455 -0.9101333252036014
4750000000.0 0.41498059929307174 -0.9083029069884327
4753000000.0 0.4191822188465932 -0.9354393291988243
4756000000.0 0.38055034467284043 -0.9072000316265012
4759000000.0 0.40684305958736405 -0.9312696981789038
4762000000.0 0.34924854531786587 -0.9573675861954344
4766000000.0 0.3633839436131577 -0.9412228785853799
4769000000.0 0.4032218077001491 -0.9532425798799694
4772000000.0 0.3707980939760734 -0.9622081238072216
4775000000.0 0.3555612136065152 -1.0054544384031685
4778000000.0 0.34035905570157876 -0.9733403910733566
4781000000.0 0.366325510158989 -0.9626916388520264
4784000000.0 0.37756120677200966 -0.9353924994367971
4788000000.0 0.33197346725950805 -1.0030152972138133
4791000000.0 0.30643891126603745 -0.9418709326189129
4794000000.0 0.3342601645133173 -0.9801427358027759
4797000000.0 0.28893654352594256 -0.9460517909311482
4800000000.0 0.2746633868264994 -0.9578106181871844
4803000000.0 0.22027594514259635 -0.9706747622444307
4806000000.0 0.2916856333284344 -0.9903898452649904
4809000000.0 0.21769625083682018 -0.9743536651008969
4812000000.0 0.22427917607521103 -0.994697921222317
4816000000.0 0.27932072748953707 -0.9639942252892066
4819000000.0 0.2708989876407837 -1.011892371936033
4822000000.0 0.27841353410113795 -1.010275181231524
4825000000.0 0.254730956253889 -1.0137566805011666
4828000000.0 0.24154882236836095 -0.9936637096117141
4831000000.0 0.1781343670828366 -1.0152791233009053
4834000000.0 0.23137679012923368 -0.9971249565817861
4838000000.0 0.17752446201436473 -1.027942546589539
4841000000.0 0.17661610014731524 -0.999432624016862
4844000000.0 0.2032995371326713 -1.0046537151489265
4847000000.0 0.1863912595334895 -0.9674010313241035
4850000000.0 0.1412183429386321 -1.0271197731167434
4853000000.0 0.16335417251386772 -0.9896418970210437
4856000000.0 0.14691373820753412 -0.9940876385386751
4859000000.0 0.1320361654773991 -1.0643400277729738
4862000000.0 0.17525907353541634 -0.9893370294411189
4866000000.0 0.09363237009754119 -1.027824754316464
4869000000.0 0.0892756642457989 -1.0360904205429524
4872000000.0 0.0883214260755585 -1.050652534093897
4875000000.0 0.17650634843645052 -1.032350120240628
4878000000.0 0.08598730711012287 -1.0367729908138492
4881000000.0 0.04532851759085082 -1.095853223400033
4884000000.0 0.0898046849733605 -1.026338779015668
4888000000.0 0.10554396859906978 -0.9900811045711545
4891000000.0 0.08049175197506608 -1.0495479038604678
4894000000.0 0.03246910425918625 -1.0057859619639948
4897000000.0 0.07707632881988863 -1.0383541412500181
4900000000.0 0.052944328158069744 -1.0672717884772964
4903000000.0 0.032083771948989065 -1.0403310671307033
4906000000.0 -9.65752960979567e-05 -1.0473326758605301
4909000000.0 -0.005246916976185886 -1.0323188343014442
4912000000.0 -0.006668963912439256 -1.0496846530001394
4916000000.0 0.017780692145934557 -1.0275201958044224
4919000000.0 0.040033503770788695 -1.0571855950492322
4922000000.0 -0.006610686873644189 -1.0341845127214893
4925000000.0 -0.05902968839768394 -1.0108760873448255
4928000000.0 -0.019991880687626404 -1.0118812258727703
4931000000.0 -0.016482652393982902 -1.0657771265331675
4934000000.0 -0.043288268112632144 -0.9851498712129292
4938000000.0 -0.10457147839651133 -1.021754063837382
4941000000.0 -0.07012004222147918 -0.9821026615236912
4944000000.0 -0.037205236690619425 -0.9746874307044247
4947000000.0 -0.08419440372800921 -0.9674919914043408
4950000000.0 -0.11047961889202208 -1.0011056366665552
4953000000.0 -0.14226390129638955 -1.025452330571458
4956000000.0 -0.15646533128475387 -1.0173254596685084
4959000000.0 -0.14720720687949498 -0.9652686868297106
4962000000.0 -0.14149886415316423 -1.0724138384578215
4966000000.0 -0.12119163018832779 -1.038128441745933
4969000000.0 -0.11875121714093911 -1.0640209550998267
4972000000.0 -0.16976718711966335 -1.0340270166064451
4975000000.0 -0.11992657109189267 -1.0106898669337383
4978000000.0 -0.18737477262300062 -1.0269377621256675
4981000000.0 -0.19537460566252676 -1.0027804595041685
4984000000.0 -0.15884807496434508 -1.0019812931746181
4988000000.0 -0.1673034816572923 -0.9844979295173697
4991000000.0 -0.15457328396784076 -1.0450580241251117
4994000000.0 -0.19299226184850593 -1.011910032211795
4997000000.0 -0.2675579055870669 -1.0074697643251347
5000000000.0 -0.23687306610571335 -1.030699361716334
5003000000.0 -0.2221353255595505 -1.0182844986933433
5006000000.0 -0.23909502601481522 -1.0275944136022612
5009000000.0 -0.23286987831971065 -1.0108296256090434
5012000000.0 -0.26642704377267096 -1.0268931774282062
5016000000.0 -0.2347507750073985 -1.0505678019751885
5019000000.0 -0.287187675329022 -0.9666744069422977
5022000000.0 -0.25530384025812347 -0.9841315296916315
5025000000.0 -0.3079937331495974 -1.0623717915274695
5028000000.0 -0.28796824801915266 -1.0001446840904917
5031000000.0 -0.3253937501530154 -0.9915249392662305
5034000000.0 -0.3498777947944036 -0.988535641868278
5038000000.0 -0.3382284396860876 -0.9323770309240687
5041000000.0 -0.307456897320149 -0.9978178532512406
5044000000.0 -0.2855593463036813 -0.9764162367722885
5047000000.0 -0.3339104454523049 -0.9996204627009805
5050000000.0 -0.2584141893471924 -0.9759602263749052
5053000000.0 -0.38489152836637375 -1.0303086510050763
5056000000.0 -0.30654820559312557 -0.9863164975234029
5059000000.0 -0.3137252980471787 -1.012024472276242
5062000000.0 -0.4217364623415526 -0.9882835287326288
5066000000.0 -0.3598367754970936 -0.953565541491787
5069000000.0 -0.4029842846297075 -0.968056940994486
5072000000.0 -0.40433897297283466 -0.9211155382707248
5075000000.0 -0.3624735234449634 -0.9667775121881017
5078000000.0 -0.43619573436413056 -0.9098840233800165
5081000000.0 -0.4444831600644597 -0.9285604336377956
5084000000.0 -0.4319600423823402 -0.9769102725397156
5088000000.0 -0.4010214856624326 -0.9450573337881458
5091000000.0 -0.4946248369794702 -0.9381670454563642
5094000000.0 -0.4566235152078873 -0.9312729951730391
5097000000.0 -0.40976986928391823 -0.9342583850369826
5100000000.0 -0.44320819926048227 -0.9104358419646347
5103000000.0 -0.48710386992861 -0.8983855972416731
5106000000.0 -0.4633542201680613 -0.9333532540609006
5109000000.0 -0.46252895349465656 -0.9043862766004296
5112000000.0 -0.5553210263004521 -0.8679442375011208
5116000000.0 -0.4711136826462546 -0.8964824612948963
5119000000.0 -0.4958267483616474 -0.8819559156015127
5122000000.0 -0.504500492491885 -0.9076952677477088
5125000000.0 -0.529232374174462 -0.883863189103311
5128000000.0 -0.5512414525441125 -0.9304159206970677
5131000000.0 -0.5264071560227547 -0.863950474732884
5134000000.0 -0.5409748707108124 -0.8378123072760234
5138000000.0 -0.5705888179739218 -0.8875302772493743
5141000000.0 -0.5020639349707772 -0.8705474978392918
5144000000.0 -0.507544042110751 -0.9224796004158338
5147000000.0 -0.5745603697358892 -0.9105058134934484
5150000000.0 -0.5452498458501696 -0.8773566653127187
5153000000.0 -0.5735293581294225 -0.8404789946580713
5156000000.0 -0.5676864632115926 -0.8856170702192263
5159000000.0 -0.5991704578264687 -0.9157357900233085
5162000000.0 -0.6180941524538617 -0.8359171707105848
5166000000.0 -0.6597094707844485 -0.8662657315897863
5169000000.0 -0.6186178523637706 -0.8410639309172577
5172000000.0 -0.5971662049072922 -0.7882506509068555
5175000000.0 -0.6395700606654977 -0.8468341714443652
5178000000.0 -0.6691785222024127 -0.8336833429384924
5181000000.0 -0.6499602174307396 -0.892889962672723
5184000000.0 -0.6429913661570953 -0.7670874993219363
5188000000.0 -0.6577525615112882 -0.7896805247329842
5191000000.0 -0.6690564120173695 -0.7811770797356942
