! Created with skrf 1.8.0 (http://scikit-rf.org).
# Hz S RI R 50.0 
!freq ReS11 ImS11
4000000000.0 0.6590169768776952 0.7540391829629147
4003000000.0 0.6871788264180752 0.8261620335218395
4006000000.0 0.7074584662363403 0.7139477981976339
4009000000.0 0.688177031542083 0.7428773080799921
4012000000.0 0.671097792976111 0.7941179793032975
4016000000.0 0.7205785212446328 0.7575595816794998
4019000000.0 0.7277154650118196 0.7134124244729269
4022000000.0 0.688801587267983 0.7794580624593024
4025000000.0 0.7711589376016991 0.7161160217699343
4028000000.0 0.7308306532407192 0.7022792837143566
4031000000.0 0.7179494480071233 0.6973707611842089
4034000000.0 0.7342767620282032 0.6854701443983504
4038000000.0 0.7613016265976489 0.6820808092612284
4041000000.0 0.7602679721346484 0.6842915582497613
4044000000.0 0.7936736594762076 0.7257484353635205
4047000000.0 0.7721130941426588 0.7300609366401785
4050000000.0 0.8037059756065111 0.7035108282576618
4053000000.0 0.793167007060015 0.6410929822059499
4056000000.0 0.7913622957038299 0.6557838197293092
4059000000.0 0.8006836148056186 0.6618731148839245
4062000000.0 0.7991508506734337 0.6261367915462914
4066000000.0 0.7169757981371168 0.6110673452813798
4069000000.0 0.8456674527343689 0.5965799102754953
4072000000.0 0.80948966069445 0.6141633006979965
4075000000.0 0.8521116815754806 0.6784024243042459
4078000000.0 0.8564356937862941 0.6057115607121257
4081000000.0 0.7777558320786475 0.6740723236761246
4084000000.0 0.8392767301632976 0.6036397097899966
4088000000.0 0.8206273787568553 0.6123624134310469
4091000000.0 0.9134926805453624 0.6645009864590732
4094000000.0 0.835841474706351 0.5501304622330137
4097000000.0 0.8638886008722025 0.5473608421087028
4100000000.0 0.8680463811246678 0.5348212978591136
4103000000.0 0.8629092996844077 0.5428058028082976
4106000000.0 0.8748790683872507 0.539229001875394
4109000000.0 0.9192707307912353 0.520711244300528
4112000000.0 0.9075254156802812 0.4852850228853591
4116000000.0 0.8848729116077243 0.5369043149328259
4119000000.0 0.8975326199733725 0.49794874428971814
4122000000.0 0.8879149385509575 0.4724594286673912
4125000000.0 0.9142274396060138 0.4767385060194493
4128000000.0 0.8811626807584422 0.505484816307262
4131000000.0 0.8687237283078388 0.4617799351557397
4134000000.0 0.8889610312514301 0.4617124114991229
4138000000.0 0.8813519888101367 0.4569159058856492
4141000000.0 0.9106393315519149 0.431575257493359
4144000000.0 0.9120213621116008 0.47535634444237
4147000000.0 0.9311787994415512 0.4236935668792888
4150000000.0 0.9390769636848166 0.427600044563791
4153000000.0 0.9334141286888887 0.40969862725789497
4156000000.0 0.9585199358533272 0.4621210061175086
4159000000.0 0.9018829467002605 0.4115209523249493
4162000000.0 0.9139315574598101 0.4284105631110574
4166000000.0 0.9468818934251331 0.419161273413309
4169000000.0 0.9306919679108675 0.392613453484006
4172000000.0 0.9625972885712142 0.39690410124993186
4175000000.0 0.9263285107457943 0.39519225537645447
4178000000.0 0.9787247905265073 0.38237600742212563
4181000000.0 0.9613742783142232 0.3586001451820824
4184000000.0 0.9373250448571364 0.37103753041032544
4188000000.0 0.9557852990827285 0.3491298399527927
4191000000.0 0.9273847521508092 0.367426573502121
4194000000.0 0.9272475406619154 0.34429734259067035
4197000000.0 0.9966424337811931 0.3395005376425128
4200000000.0 0.9682000786645739 0.33483562204990425
4203000000.0 0.98393321716982 0.31440995346259326
4206000000.0 0.9935322918510596 0.30347871276318333
4209000000.0 0.9553076368507765 0.2867612667457827
4212000000.0 0.997307114964238 0.2707834831312289
4216000000.0 0.9872449382102131 0.2838806626757873
4219000000.0 0.9880925500652851 0.26760474934585066
4222000000.0 0.9907305142085965 0.24269318155647246
4225000000.0 0.980123007234029 0.25994612888180335
4228000000.0 1.0012126787157596 0.2565045881609561
4231000000.0 0.990100086897635 0.22901118085768724
4234000000.0 1.0060770375066064 0.22241004427003724
4238000000.0 0.9889365217922284 0.1861745579255281
4241000000.0 0.9899076755950862 0.18613642628250515
4244000000.0 0.95674020056901 0.2035723054942356
4247000000.0 1.0067511793150776 0.1877272439692328
4250000000.0 0.9925085071154123 0.17498464031127597
4253000000.0 0.9907785473976891 0.16198433983602328
4256000000.0 1.0285608023202273 0.17436166519399077
4259000000.0 0.9648446149060034 0.13234246752148682
4262000000.0 0.9819309211785934 0.11513082030526284
4266000000.0 1.0175040705134413 0.10325857051023091
4269000000.0 1.0191261262431164 0.14688532573005741
4272000000.0 1.0041059777313412 0.12304676400069742
4275000000.0 1.0264175939077798 0.11560819803651812
4278000000.0 1.035640085841166 0.09628960304612438
4281000000.0 1.0003407589385032 0.10146541957719322
4284000000.0 0.9999347077798474 0.06308185185450624
4288000000.0 0.9980730205599694 0.09477217836684967
4291000000.0 0.9984826974878176 0.05984323840113252
4294000000.0 1.0029354988989967 0.05381861149184845
4297000000.0 0.9939547818092453 0.05773277457946853
4300000000.0 0.9880586284336708 0.08108967109634066
4303000000.0 1.0115506180399105 0.022020975082075872
4306000000.0 1.0078830904280602 0.042900935304505367
4309000000.0 0.9979918847615942 0.02647046532695692
4312000000.0 1.034329069187247 0.05247860115662349
4316000000.0 1.0075641205296049 0.00845326276166923
4319000000.0 1.0153801326328427 0.017193566112942774
4322000000.0 0.9784641519869245 -0.03183294675806815
4325000000.0 1.004410812241492 -0.03185139844022461
4328000000.0 1.0116717774654898 -0.054761378210136324
4331000000.0 1.003767243544992 -0.08429667801768811
4334000000.0 1.0265117692400054 -0.06712608991614795
4338000000.0 1.000727789616079 -0.044937560114584704
4341000000.0 1.042228423383385 -0.024281311401528893
4344000000.0 1.0311642927205555 -0.06691766782786544
4347000000.0 1.0093167212054117 -0.09836279494451121
4350000000.0 0.9487869145404874 -0.09814876339250658
4353000000.0 0.971114778521587 -0.06840902973173335
4356000000.0 1.011555864138924 -0.13116428450364243
4359000000.0 0.9641738249246219 -0.11599841734250976
4362000000.0 0.9742141661777335 -0.16997560303294137
4366000000.0 1.0145372221294127 -0.15706625082531014
4369000000.0 0.9572894414671143 -0.157802651683006
4372000000.0 0.9721491119436754 -0.2080609797959928
4375000000.0 0.9827057016648768 -0.16963004615470276
4378000000.0 0.9624755550999564 -0.1832702161053205
4381000000.0 0.9771831723450402 -0.17027118245316136
4384000000.0 1.0408461463486853 -0.2237912181086962
4388000000.0 0.9607735185423014 -0.1980847003733717
4391000000.0 0.9907166635495008 -0.21324209981247866
4394000000.0 0.9602004557753189 -0.22280709423441808
4397000000.0 0.974968481742793 -0.2538803692316717
4400000000.0 1.00033505795866 -0.25860627684561094
4403000000.0 0.9812391008159601 -0.2547143035558623
4406000000.0 0.97142093085749 -0.2958048761338843
4409000000.0 0.9980493984559964 -0.29214555462407465
4412000000.0 0.9531512354853202 -0.33467554161145135
4416000000.0 0.938519179820545 -0.29189731457300455
4419000000.0 0.9563471726308779 -0.3085205125865032
4422000000.0 0.9689212493680621 -0.29396215810326637
4425000000.0 0.9828279830657539 -0.30191175096316547
4428000000.0 0.9409988759141005 -0.33140859831037217
4431000000.0 0.9732411955540285 -0.3269385472480799
4434000000.0 0.9264982668278208 -0.34170290129376957
4438000000.0 0.9657265380527196 -0.3547452185285671
4441000000.0 0.9666096162980131 -0.354188642999831
4444000000.0 0.9264514180452976 -0.3599346095848942
4447000000.0 0.9397038388412896 -0.3869798666646055
4450000000.0 0.927226210708564 -0.36307791631487246
4453000000.0 0.9546728034821176 -0.3911449710400372
4456000000.0 0.9063801788564457 -0.4048725926291975
4459000000.0 0.8636182270784514 -0.39702181041408124
4462000000.0 0.9527662814405304 -0.45090460615567474
4466000000.0 0.9367634556822962 -0.4506451419555867
4469000000.0 0.9313259996555954 -0.42400480448521166
4472000000.0 0.9096249619238833 -0.4712619962349229
4475000000.0 0.8853217865873914 -0.44279528621105346
4478000000.0 0.9095296623775821 -0.4896422540265295
4481000000.0 0.8570415069254923 -0.45437947446145305
4484000000.0 0.871262930973032 -0.5205308201939055
4488000000.0 0.8835685265207482 -0.4843543672966726
4491000000.0 0.8801636572968762 -0.5062018017823207
4494000000.0 0.8746754954824169 -0.48748843807612263
4497000000.0 0.8694026045323302 -0.4790230198896259
4500000000.0 0.8831631602185306 -0.49617966253297857
4503000000.0 0.8752293041680155 -0.5267960124896061
4506000000.0 0.8552545934752058 -0.5288779828985255
4509000000.0 0.8282655956555416 -0.5276238836017638
4512000000.0 0.8430551517092566 -0.5560320389624864
4516000000.0 0.8580878488313863 -0.5674152342586836
4519000000.0 0.8471939715414367 -0.5340307466104285
4522000000.0 0.8180734275751993 -0.5722362548854086
4525000000.0 0.8546200197562421 -0.5493076371016704
4528000000.0 0.8411984703956583 -0.5825629005329852
4531000000.0 0.8295727061259824 -0.5831443189073997
4534000000.0 0.8081342670628625 -0.5648554908034926
4538000000.0 0.80268971524509 -0.6110600516134224
4541000000.0 0.7658635660054309 -0.6280198605980469
4544000000.0 0.7801368340038006 -0.6040534196730551
4547000000.0 0.7882022896432959 -0.595749057361622
4550000000.0 0.7758718116507743 -0.6473275956661454
4553000000.0 0.7656318255565522 -0.6476665772698584
4556000000.0 0.7574420156403869 -0.6494975888639845
4559000000.0 0.7626824663608843 -0.6626032408591731
4562000000.0 0.7736426907417959 -0.6730810730846892
4566000000.0 0.7706858351146153 -0.6841922529804305
4569000000.0 0.7343705702306642 -0.6621099316541126
4572000000.0 0.7142772839773036 -0.6730055990981941
4575000000.0 0.7138368414076519 -0.695748972417406
4578000000.0 0.74424074402848 -0.6960651304412223
4581000000.0 0.7137320969831361 -0.700293746087992
4584000000.0 0.7012454959671652 -0.6963640271148718
4588000000.0 0.7376675728734335 -0.7291672010028778
4591000000.0 0.7055488987980014 -0.7221764886630944
4594000000.0 0.6688495472192183 -0.7381278522555715
4597000000.0 0.6973551768114243 -0.7365337253981543
4600000000.0 0.6678027086229524 -0.7478254975399511
4603000000.0 0.6920784135681458 -0.750071227581869
4606000000.0 0.6725239970873597 -0.7591555285818365
4609000000.0 0.6742019708702823 -0.7688497143631589
4612000000.0 0.6442755545242091 -0.7701188807528342
4616000000.0 0.6259198033276474 -0.7547013425929134
4619000000.0 0.6417271605091258 -0.7668380251735435
4622000000.0 0.6274049906848234 -0.7890156385687094
4625000000.0 0.6169117808843487 -0.7863037532625489
4628000000.0 0.6278879148272066 -0.7842985726650168
4631000000.0 0.6052729995162254 -0.7990096983701283
4634000000.0 0.5901629912685064 -0.8102112791005436
4638000000.0 0.5969127764618377 -0.8020601346462746
4641000000.0 0.587846284030545 -0.8230845506196639
4644000000.0 0.5720400131055527 -0.8266961550465867
4647000000.0 0.593309768918687 -0.8304629321320315
4650000000.0 0.5391974452397649 -0.8400051449325713
4653000000.0 0.5615734130542076 -0.8524033269122159
4656000000.0 0.5493201813693739 -0.8529286784932983
4659000000.0 0.5366824591378299 -0.8591024066394766
4662000000.0 0.5327558434876248 -0.8697533180548381
4666000000.0 0.51289104706818 -0.8713679292709283
4669000000.0 0.5411407440010505 -0.8682004224223595
4672000000.0 0.5001463689754514 -0.8981372914943974
4675000000.0 0.49286714013369287 -0.8822223687699713
4678000000.0 0.4932782490614361 -0.8771255082106342
4681000000.0 0.454514954116922 -0.9034470566312771
4684000000.0 0.46907619042740273 -0.9226511121947321
4688000000.0 0.429299878446547 -0.9093677989875093
4691000000.0 0.49485615797959204 -0.8801398624820935
4694000000.0 0.4591820883422235 -0.8924464001205308
4697000000.0 0.43558688873581264 -0.877717262902515
4700000000.0 0.4587905018894328 -0.9104177405522285
4703000000.0 0.43503649717676685 -0.8665753192813672
4706000000.0 0.39639714137857346 -0.9419927153183911
4709000000.0 0.4017133891124064 -0.9288877416136562
4712000000.0 0.41126101080905264 -0.9287998342087611
4716000000.0 0.4122396110366147 -0.941610841915755
4719000000.0 0.42306781322424913 -0.9042681313130583
4722000000.0 0.4069831794284921 -0.8882113191368033
4725000000.0 0.3755015598610776 -0.9186458576975183
4728000000.0 0.38095832229207993 -0.9452027233595492
4731000000.0 0.38080463217527133 -0.9625488553768553
4734000000.0 0.37070095530584907 -0.9116798284301944
4738000000.0 0.385341885868523 -0.9927164402512197
4741000000.0 0.3619616701810312 -0.9782842438823356
4744000000.0 0.29811504079638745 -0.949445187633582
4747000000.0 0.3372609828873259 -0.9276178357430844
4750000000.0 0.31054183379252026 -0.9810168981485545
4753000000.0 0.3155771757997491 -0.9813359904628044
4756000000.0 0.30339889061050196 -0.9635465172021658
4759000000.0 0.30579287932585153 -0.9756114349632479
4762000000.0 0.2519152363520086 -0.9801161851413586
4766000000.0 0.257898890820405 -1.015778208369588
4769000000.0 0.26048895301745606 -0.9924994486246538
4772000000.0 0.2664223262210001 -0.980266878241885
4775000000.0 0.2586741549005231 -1.0524910482694887
4778000000.0 0.22225232360817937 -1.0181037293746162
4781000000.0 0.2366601994536451 -0.9525955202277443
4784000000.0 0.23895777694245537 -0.9732455992850914
4788000000.0 0.19808774534248924 -1.0089554846781246
4791000000.0 0.194233112442341 -0.9917250536849916
4794000000.0 0.22298122908595522 -1.0250746499883907
4797000000.0 0.1707102178894801 -0.9780590673494357
4800000000.0 0.15660936553057803 -0.9503871165002493
4803000000.0 0.11378552268790014 -0.9869036081264537
4806000000.0 0.12622672702367785 -1.0508881788410025
4809000000.0 0.11985811846777308 -1.0222861980346951
4812000000.0 0.09400399426324013 -1.0001216865767948
4816000000.0 0.1695953798043754 -0.9664917565615567
4819000000.0 0.14826598258819162 -1.0318108338327805
4822000000.0 0.13265118102363532 -1.0526050325438965
4825000000.0 0.13131256037241268 -1.0302793120698919
4828000000.0 0.0856777375134822 -1.0117240548627744
4831000000.0 0.061704426436748755 -1.0315897059621857
4834000000.0 0.10306012723365554 -1.0109220030809192
4838000000.0 0.04401435071685254 -1.0292512468430994
4841000000.0 0.033857315439070265 -1.0016012800414527
4844000000.0 0.07835663743782838 -1.0258186954205013
4847000000.0 0.0840693970366058 -1.0059174204623997
4850000000.0 0.027153329676658115 -1.0500931468250327
4853000000.0 0.03763447061211076 -0.9824201632440792
4856000000.0 0.018178412493187093 -1.031276542346581
4859000000.0 -0.005283291058299881 -1.0688874591142326
4862000000.0 0.02748367115893113 -0.9972989516319725
4866000000.0 -0.04094869318864346 -1.0328306046118982
4869000000.0 -0.010512204470033804 -1.0353349468039752
4872000000.0 -0.07492602744542497 -1.0530968065289656
4875000000.0 0.017665317765591538 -1.0580370901267038
4878000000.0 -0.030350358355624912 -1.0254940767138008
4881000000.0 -0.0899329645523673 -1.084737538581975
4884000000.0 -0.04685906861511162 -1.0246509221196938
4888000000.0 -0.03324072571356951 -1.017872643083617
4891000000.0 -0.046186708195114695 -1.0222885170271465
4894000000.0 -0.1065329237861008 -1.0128912981000657
4897000000.0 -0.0500910650161336 -1.0210073937782367
4900000000.0 -0.09051846471927207 -1.0350088654191907
4903000000.0 -0.10223791693610898 -1.0367073622919667
4906000000.0 -0.12371271401967833 -1.0456924917083257
4909000000.0 -0.14298942151403718 -1.0127915717721656
4912000000.0 -0.14621043460105848 -1.0827571327702157
4916000000.0 -0.11984171784335618 -1.0648804733280455
4919000000.0 -0.14498122968063232 -1.0587264297972703
4922000000.0 -0.12924832919303708 -1.0131076123207412
4925000000.0 -0.1832349688765735 -1.0041747027651287
4928000000.0 -0.12201887412312347 -1.012377526349079
4931000000.0 -0.15717355542024009 -1.0514722002400725
4934000000.0 -0.17918897615387808 -0.9293094562074896
4938000000.0 -0.1939732852484662 -0.99263419179518
4941000000.0 -0.1920254372293948 -0.97232288123837
4944000000.0 -0.19947187667215546 -0.9126453848043021
4947000000.0 -0.2674597930293423 -0.9700631692697493
4950000000.0 -0.22928567842657827 -0.9645764119491751
4953000000.0 -0.3085813498246068 -1.0274264437757354
4956000000.0 -0.27188321325082987 -0.995735694179211
4959000000.0 -0.29244069948825924 -0.9689077869638374
4962000000.0 -0.2844103503943869 -1.021339070932879
4966000000.0 -0.2361564231757345 -1.021917128274813
4969000000.0 -0.271673667387957 -1.0285413435867672
4972000000.0 -0.28050287317101064 -1.005469164374694
4975000000.0 -0.25800781211214074 -0.9754824572520838
4978000000.0 -0.3500382114278202 -1.010819815091454
4981000000.0 -0.327807667398469 -0.9823173264614377
4984000000.0 -0.312234761421163 -0.9692250747153316
4988000000.0 -0.2878016148188752 -0.98703980717047
4991000000.0 -0.2907936672253249 -1.0416259962369863
4994000000.0 -0.3398928923225045 -0.9532720837102125
4997000000.0 -0.3985959381394452 -0.978833857909225
5000000000.0 -0.3785449148712341 -0.9828565762274921
5003000000.0 -0.38473078990285475 -0.9962457450745902
5006000000.0 -0.37302036781790604 -0.9836298018342218
5009000000.0 -0.3906487940808159 -0.9488305632816116
5012000000.0 -0.40960892161238 -0.9343566391548177
5016000000.0 -0.3755735526868114 -1.0085165732950536
5019000000.0 -0.4216569906420038 -0.9205457114702321
5022000000.0 -0.4207412281236437 -0.9477555271454856
5025000000.0 -0.47445779514286895 -1.0197418582772186
5028000000.0 -0.47897322857369773 -0.9085649646494314
5031000000.0 -0.4633056506374601 -0.9025804738334011
5034000000.0 -0.4863015606094139 -0.9306940353736548
5038000000.0 -0.4705015266044519 -0.9207143832555678
5041000000.0 -0.4292762158964941 -0.9617690828774647
5044000000.0 -0.48350464369730206 -0.9155365512581121
5047000000.0 -0.4644615727939129 -0.9350196742671683
5050000000.0 -0.4240049201987537 -0.944705465359805
5053000000.0 -0.5187797451063876 -0.9039715131618855
5056000000.0 -0.4797021233635209 -0.9241379606854243
5059000000.0 -0.4929273139719445 -0.9093630332239276
5062000000.0 -0.5651743136829112 -0.8996295142197868
5066000000.0 -0.5162909345711615 -0.8687675266615991
5069000000.0 -0.5339010614955854 -0.9076811279184819
5072000000.0 -0.49827899617192095 -0.8849729505305741
5075000000.0 -0.5219520237755938 -0.8649346833153795
5078000000.0 -0.5628018854425401 -0.8785570450148001
5081000000.0 -0.5517712004890686 -0.8356313173148339
5084000000.0 -0.5810483581996837 -0.8719870718130092
5088000000.0 -0.5652686014096705 -0.8588884300359918
5091000000.0 -0.6074141313926888 -0.8432208397577474
5094000000.0 -0.5953810524521859 -0.8480359779064292
5097000000.0 -0.5756558425705244 -0.8643604598425318
5100000000.0 -0.6125247048711475 -0.8435030713292168
5103000000.0 -0.6987616037643791 -0.7993902234817098
5106000000.0 -0.5908026448741606 -0.8297299997059672
5109000000.0 -0.5697013457024761 -0.8176310395675928
5112000000.0 -0.6391747134745237 -0.7658935144691512
5116000000.0 -0.5934626771226968 -0.7561190457550174
5119000000.0 -0.675150803174942 -0.8191382088096764
5122000000.0 -0.6444297522047862 -0.7617386710762304
5125000000.0 -0.6368302985448464 -0.7798155385865608
5128000000.0 -0.6425236358632729 -0.7988635304795342
5131000000.0 -0.6747959637545559 -0.7447451455508837
5134000000.0 -0.6446654626952751 -0.8021508703294968
5138000000.0 -0.6648145404075584 -0.7921732994937779
5141000000.0 -0.6530997240322933 -0.7927242222940358
5144000000.0 -0.6744581995622312 -0.7590516691427653
5147000000.0 -0.7358038911882128 -0.7463765868477245
5150000000.0 -0.7241978320741161 -0.8078520516809287
5153000000.0 -0.7286595220203389 -0.754188356396308
5156000000.0 -0.7083162087066525 -0.7839238621894616
5159000000.0 -0.7281093674632353 -0.7726445466550601
5162000000.0 -0.7362708366782295 -0.7645649557752766
5166000000.0 -0.7603018336236592 -0.7311336251755697
5169000000.0 -0.7331933150536929 -0.7199782189548064
5172000000.0 -0.7039991222129678 -0.7058532702552681
5175000000.0 -0.791838358069151 -0.7240124967250493
5178000000.0 -0.7927364611353855 -0.7140175307972064
5181000000.0 -0.8052395404902181 -0.709257125777492
5184000000.0 -0.7636716789721657 -0.6952948870064328
5188000000.0 -0.8017014896932866 -0.6788539133322028
