! Created with skrf 1.8.0 (http://scikit-rf.org).
# Hz S RI R 50.0 
!freq ReS11 ImS11
4000000000.0 0.5966256086896099 0.825489899594992
4003000000.0 0.6889966463391703 0.8165061650357185
4006000000.0 0.749153595963597 0.781244568359338
4009000000.0 0.6841710928230575 0.7762430719198439
4012000000.0 0.6410887129400813 0.8438718078842871
4016000000.0 0.6916443978130952 0.7597319609642088
4019000000.0 0.6871787571316506 0.7594105475097013
4022000000.0 0.6708284984399452 0.8526246166781649
4025000000.0 0.748171213891792 0.739605911020588
4028000000.0 0.6849849528221885 0.7958469668825714
4031000000.0 0.7117976393514341 0.740869824865941
4034000000.0 0.7066311891464132 0.7322971523334063
4038000000.0 0.7381984017708365 0.7456102249817721
4041000000.0 0.7185914042200553 0.7299079377396449
4044000000.0 0.7818850140906944 0.7314475445968559
4047000000.0 0.7691547770536751 0.7985227944066197
4050000000.0 0.7561371504244537 0.7251054371128464
4053000000.0 0.7703806043731057 0.6389411831371676
4056000000.0 0.7289141479888593 0.6874113545521876
4059000000.0 0.7426108876857274 0.6640686897837196
4062000000.0 0.8136506077452944 0.6408251875995652
4066000000.0 0.757618681696343 0.5994494259763938
4069000000.0 0.8179232840894413 0.6446960197255895
4072000000.0 0.759262177065549 0.6832801835283373
4075000000.0 0.8226184920537191 0.7126274819905751
4078000000.0 0.8251397323069117 0.6737261209061615
4081000000.0 0.7437738831998011 0.7079190898148331
4084000000.0 0.8716906770707867 0.61097105417185
4088000000.0 0.7887685839764316 0.6810640668037082
4091000000.0 0.8617521880272728 0.6537748525937774
4094000000.0 0.831740243783824 0.6489732404657481
4097000000.0 0.8531312343416553 0.6238035853403041
4100000000.0 0.844648073550826 0.5817610057022815
4103000000.0 0.8501852591814771 0.615197864394464
4106000000.0 0.8479450570928782 0.6061925643284608
4109000000.0 0.8633731543931789 0.5882013186787431
4112000000.0 0.8560164196452169 0.55480928969592
4116000000.0 0.8795120272578127 0.5960730962010707
4119000000.0 0.8612436354180352 0.5523635572144969
4122000000.0 0.9181630931918429 0.5418406094986625
4125000000.0 0.8931897370439237 0.5341825733995664
4128000000.0 0.8405138271463507 0.5286258848050686
4131000000.0 0.8613288517983874 0.53273791461967
4134000000.0 0.8596100203171315 0.49827456378830426
4138000000.0 0.8903846930048134 0.48410764400890954
4141000000.0 0.8865049372888427 0.49375061954625454
4144000000.0 0.8853302263434757 0.5552291718558859
4147000000.0 0.9044159754667593 0.4863119904708197
4150000000.0 0.952549953417123 0.4764558772045457
4153000000.0 0.9067707748699585 0.49634636202801863
4156000000.0 0.9126633123032521 0.5225057480418925
4159000000.0 0.9127342696360541 0.46488673343239145
4162000000.0 0.9100988093549887 0.44948879678170683
4166000000.0 0.9341900345476815 0.4454015629028849
4169000000.0 0.9180087300135517 0.4200017346649324
4172000000.0 0.9165410344289786 0.46376184619248056
4175000000.0 0.9324931503818569 0.415678930785734
4178000000.0 0.940656548201593 0.437989314599762
4181000000.0 0.9293824149159007 0.3972117094700115
4184000000.0 0.9447347397873783 0.412964176912676
4188000000.0 0.9424337335303365 0.39106105470799457
4191000000.0 0.9405453044963229 0.42585227693845357
4194000000.0 0.9228297064960365 0.37928565062232633
4197000000.0 0.943646264205316 0.37322654522704873
4200000000.0 0.9651590780325361 0.39853303729678247
4203000000.0 0.9408850982601673 0.37197675814085296
4206000000.0 0.986098847759172 0.3847101608345132
4209000000.0 0.9559498613492513 0.3668382289502207
4212000000.0 0.9852604481514218 0.30856982670739996
4216000000.0 0.9807488707850878 0.3383438709527729
4219000000.0 0.969027091066164 0.34254223536769846
4222000000.0 0.9804403187838393 0.3127850513301948
4225000000.0 0.9743251974136653 0.2999708049587321
4228000000.0 0.9844487395355226 0.30316599571639413
4231000000.0 0.9991751445781926 0.28893811237721867
4234000000.0 0.986551322147917 0.27636861865076534
4238000000.0 0.9800007401301158 0.2696949492858556
4241000000.0 0.9855156109145555 0.2418043831852637
4244000000.0 0.9855875451723107 0.25986657850778017
4247000000.0 0.9826259331346131 0.24484839182020612
4250000000.0 0.9822606485269623 0.23304803299738025
4253000000.0 0.9742538672313821 0.19342786296654085
4256000000.0 1.0044776830268725 0.2291488511673586
4259000000.0 0.9707515453448408 0.19953274538633223
4262000000.0 1.0024266182195534 0.18187682202458247
4266000000.0 1.0168013056994778 0.19330683908305984
4269000000.0 1.0073806886166068 0.20124999003462682
4272000000.0 1.0169865123456878 0.18059916426608208
4275000000.0 1.0097770086203472 0.1861843765071512
4278000000.0 1.0341881140472862 0.17290482212978797
4281000000.0 0.9929189995730443 0.1662492601164267
4284000000.0 1.0072733957975888 0.12138236420842669
4288000000.0 1.0029911320897815 0.16029327108409638
4291000000.0 0.9807354007213079 0.12248049725065303
4294000000.0 1.0102905734473824 0.12168192102373833
4297000000.0 0.9895895961467622 0.13485729420183773
4300000000.0 0.9957116193672717 0.11195414369797405
4303000000.0 0.9850461178239249 0.08574836125087455
4306000000.0 1.0095193887988598 0.08799381077261184
4309000000.0 1.0089972135419265 0.09577751932292818
4312000000.0 1.0162556200127182 0.09821676611006658
4316000000.0 1.034221447039042 0.06478133326313175
4319000000.0 0.9854985812086656 0.06910280293552214
4322000000.0 0.9744660561621875 0.03392324465874695
4325000000.0 1.0059319465177765 0.03972037638143318
4328000000.0 1.0088802344557901 0.009876308891207691
4331000000.0 1.0035400109606487 0.021626851912467077
4334000000.0 1.0482917528971762 -0.0024597487201180462
4338000000.0 1.0294748502193167 0.02714910090376728
4341000000.0 1.0630710640220318 0.020173779806072017
4344000000.0 1.0354925642997423 0.009917552536989088
4347000000.0 1.029735246235916 -0.056832432898772836
4350000000.0 0.9765557926316042 -0.03852544623501755
4353000000.0 0.9966226110427798 -0.01701016176581388
4356000000.0 1.0012255636765186 -0.07861314456073143
4359000000.0 0.9702770288482199 -0.054701778191142525
4362000000.0 1.0172099544068498 -0.12253086803053884
4366000000.0 1.0481538152678056 -0.08788382016985075
4369000000.0 0.9789916177397091 -0.09615577642568122
4372000000.0 0.9769726611432414 -0.12423111289356262
4375000000.0 0.9970322122077107 -0.08145257202125428
4378000000.0 0.9741478768154607 -0.11716390071435016
4381000000.0 0.9884784817029382 -0.10868330466683816
4384000000.0 1.078401497122297 -0.1560957668427382
4388000000.0 0.9920919782542991 -0.12066185483864096
4391000000.0 0.9957956702450916 -0.15025587232434584
4394000000.0 0.9790222645628617 -0.14659213009663152
4397000000.0 0.9748368660909084 -0.17372499494337476
4400000000.0 1.0160902863908865 -0.18697003389832512
4403000000.0 1.0029374589030646 -0.18625111226512836
4406000000.0 0.9878677310170376 -0.2020750761992229
4409000000.0 1.0304993090337728 -0.2026370883333054
4412000000.0 0.9703486032082809 -0.2613507367111834
4416000000.0 0.97464401108561 -0.23568663908485094
4419000000.0 0.9677590067804576 -0.2537868522752328
4422000000.0 0.9707839416280186 -0.20845686493573712
4425000000.0 1.0007610138424918 -0.2322206791770473
4428000000.0 0.9787497462145031 -0.27204508818564704
4431000000.0 0.999439145475244 -0.26307173204818707
4434000000.0 0.9726463857251679 -0.2670717046240886
4438000000.0 1.0000082843512512 -0.27203928478773926
4441000000.0 0.9864217084759301 -0.290328513871447
4444000000.0 0.9414932611039617 -0.28821360598669843
4447000000.0 0.9468000034185565 -0.3107220941891649
4450000000.0 0.9617928597388339 -0.2973100670905709
4453000000.0 0.9705581930121772 -0.3164736202576561
4456000000.0 0.9281067063770122 -0.3215495533612623
4459000000.0 0.9134662300031007 -0.3405833969072761
4462000000.0 0.9890874077161078 -0.368753294141858
4466000000.0 0.9921542698653761 -0.37346388121909035
4469000000.0 0.9639126433091137 -0.3511908837746987
4472000000.0 0.9555587981422576 -0.4019872778486284
4475000000.0 0.9162111080754392 -0.3540997766824559
4478000000.0 0.9622360244280493 -0.4059530299213687
4481000000.0 0.8884598696885658 -0.39707034448927025
4484000000.0 0.9054368895544802 -0.44674325865107256
4488000000.0 0.8957749467627983 -0.42055452818160705
4491000000.0 0.9247221953162404 -0.4346946307492278
4494000000.0 0.9101560350346009 -0.4231179744471148
4497000000.0 0.9039469589302873 -0.41895036131365104
4500000000.0 0.9126305052908446 -0.44172727036329595
4503000000.0 0.9429957861179334 -0.45999024725696785
4506000000.0 0.8837033664938705 -0.449304520836566
4509000000.0 0.8755552666918685 -0.4617099776678447
4512000000.0 0.8726448009535486 -0.478579288788459
4516000000.0 0.9102135635312256 -0.48629044598354104
4519000000.0 0.8668917219835448 -0.48079357905901626
4522000000.0 0.8683115838625588 -0.4975551056378365
4525000000.0 0.8864924597670183 -0.4811810362282297
4528000000.0 0.8960884913656024 -0.5225209241927452
4531000000.0 0.8826952740574274 -0.4923025946526274
4534000000.0 0.8535242012320376 -0.534588101961488
4538000000.0 0.8442304657158493 -0.5341520628051212
4541000000.0 0.8237202631245768 -0.5858818225660573
4544000000.0 0.8242824788985128 -0.5433244533312627
4547000000.0 0.844859883578368 -0.5408497155213674
4550000000.0 0.837814747869019 -0.578548630888934
4553000000.0 0.8436644949408365 -0.5889297236755363
4556000000.0 0.805414656121533 -0.5846905495862607
4559000000.0 0.7969855293626744 -0.6114828614046592
4562000000.0 0.8287487494378454 -0.6016278844697595
4566000000.0 0.824410472956858 -0.6142225568613982
4569000000.0 0.7742269869099044 -0.605839398457356
4572000000.0 0.7902474875713135 -0.6127740547607126
4575000000.0 0.7861946291297066 -0.6538000070286613
4578000000.0 0.8190022502537264 -0.6327824844326458
4581000000.0 0.7829216270224377 -0.6681032881719143
4584000000.0 0.7689444468692919 -0.6505236482111225
4588000000.0 0.7829771468280103 -0.6578890379965576
4591000000.0 0.7797654336296175 -0.6378807219302173
4594000000.0 0.7508300797775981 -0.6756674182587147
4597000000.0 0.7515440971693115 -0.6861529765812366
4600000000.0 0.7158591205185197 -0.6971495414568167
4603000000.0 0.7450070860362855 -0.7025482649539017
4606000000.0 0.7381293385670742 -0.7076033815478717
4609000000.0 0.7332543200757669 -0.7010219018789035
4612000000.0 0.7290948811575169 -0.7238306362165402
4616000000.0 0.7132328049395462 -0.7008151892247293
4619000000.0 0.6975727533737318 -0.7249975672948676
4622000000.0 0.6960670873870003 -0.7141205073007751
4625000000.0 0.6566394680270876 -0.7574276959641377
4628000000.0 0.6876672043326016 -0.7278549916444806
4631000000.0 0.6741437631772056 -0.7524193826517892
4634000000.0 0.6792672543853027 -0.7661404037291645
4638000000.0 0.670178541585281 -0.7655607665596247
4641000000.0 0.6662621987888361 -0.7534260648693212
4644000000.0 0.6553834646630462 -0.7771041198430843
4647000000.0 0.667265182437371 -0.7786836092516389
4650000000.0 0.6317640963073372 -0.7867450478837413
4653000000.0 0.6464302681593631 -0.8100474821769947
4656000000.0 0.6210556556442488 -0.8090752712322324
4659000000.0 0.6011765619426709 -0.8012209648622068
4662000000.0 0.6172292557190401 -0.8273710088621116
4666000000.0 0.5952110901481654 -0.8132324288396312
4669000000.0 0.6033303045363083 -0.8230160004887134
4672000000.0 0.5879012288237454 -0.8343674751192719
4675000000.0 0.5751295064851261 -0.8490315312293749
4678000000.0 0.5626488571896994 -0.8287049432161262
4681000000.0 0.5372992663713634 -0.8586980710736148
4684000000.0 0.5519779176610482 -0.8861937204569305
4688000000.0 0.5404920492744261 -0.8635866017127202
4691000000.0 0.5728223589046266 -0.8324639456542562
4694000000.0 0.5496486585165926 -0.8382243677848316
4697000000.0 0.4874217398730629 -0.8397875661982448
4700000000.0 0.5415256657596973 -0.8602898314341039
4703000000.0 0.5408157615531907 -0.8373360684443072
4706000000.0 0.4983337055106817 -0.8809274185962103
4709000000.0 0.5029166396337341 -0.8765050775539702
4712000000.0 0.4961820324329441 -0.8881719000150742
4716000000.0 0.48239079627631476 -0.9275890689582804
4719000000.0 0.5258936682614769 -0.9029736853031206
4722000000.0 0.5088142509056536 -0.8913146306750521
4725000000.0 0.4421832454220769 -0.8955374991693044
4728000000.0 0.4329763832816924 -0.8851646674947296
4731000000.0 0.48483272093614577 -0.9136631003897635
4734000000.0 0.46314412397359833 -0.9235973543938272
4738000000.0 0.47097245501052837 -0.9296593989949294
4741000000.0 0.44006412977751747 -0.9305942473803774
4744000000.0 0.419380634454621 -0.9359868628495591
4747000000.0 0.4466520708133881 -0.912275255560396
4750000000.0 0.4138556911746164 -0.9350084557696012
4753000000.0 0.43130832479476344 -0.920832751395858
4756000000.0 0.36570692524026654 -0.9388136633125008
4759000000.0 0.39460164242307094 -0.9731004626318489
4762000000.0 0.3639633768200814 -0.9363623745083322
4766000000.0 0.33772701617309525 -0.9477311761439076
4769000000.0 0.36418782859509663 -0.9744919133168838
4772000000.0 0.36836629796209075 -0.9896992626388658
4775000000.0 0.34141638889940873 -0.975855431052536
4778000000.0 0.34401069418418473 -0.9701764480376295
4781000000.0 0.3297893736376549 -0.9437161358292261
4784000000.0 0.3551434586108618 -0.9224528903869572
4788000000.0 0.29546681339012104 -0.9871984868258967
4791000000.0 0.2971641131505163 -0.9887468816232071
4794000000.0 0.3296742826348163 -1.0035216751287117
4797000000.0 0.27026348129621247 -0.9596893001615413
4800000000.0 0.2597665193612432 -0.9713157152641569
4803000000.0 0.2289361564293365 -0.9792599398861586
4806000000.0 0.24421098464440996 -1.002052012142357
4809000000.0 0.2135815607256827 -0.9997470060271051
4812000000.0 0.1786912811568809 -0.9768637398879416
4816000000.0 0.26116791360384545 -0.9804857846652706
4819000000.0 0.2477450197087977 -1.0219527118322356
4822000000.0 0.24336706376345868 -1.0331632042786523
4825000000.0 0.23591373437725016 -1.0207484591197826
4828000000.0 0.1718304397409186 -0.9827139458504718
4831000000.0 0.16876849593734233 -1.0465706183542527
4834000000.0 0.19726893423956177 -0.9961026749121495
4838000000.0 0.15914785945756144 -1.013946859673739
4841000000.0 0.14417692070086063 -0.9878709422958613
4844000000.0 0.2030719107915598 -1.0117313223520135
4847000000.0 0.16714248095104633 -0.9974070653885503
4850000000.0 0.13143857885004057 -1.0227316554538521
4853000000.0 0.15694276658015388 -0.985521459729751
4856000000.0 0.11594259456300099 -1.003601493615072
4859000000.0 0.08316615593948962 -1.0785880186475363
4862000000.0 0.13504622834954744 -0.9820116160487854
4866000000.0 0.09055541500663725 -1.038226826798204
4869000000.0 0.07850563673153296 -1.0362156009120114
4872000000.0 0.06819634064605852 -1.0654214714339183
4875000000.0 0.13546292275985178 -1.0480231915357963
4878000000.0 0.06883298484262487 -1.0234873619014055
4881000000.0 0.013890633000798984 -1.0975884116550179
4884000000.0 0.05973737162324362 -1.0437433193381447
4888000000.0 0.08257555429032072 -0.9922255043456168
4891000000.0 0.067129148633706 -1.0295885305507442
4894000000.0 0.017157373030939962 -1.0333817725200771
4897000000.0 0.05693391678518523 -1.0367821305499274
4900000000.0 -0.0015845909261463023 -1.0274399835520804
4903000000.0 0.01398229418053287 -1.0635858241485947
4906000000.0 -0.008162813243888872 -1.0569673772387436
4909000000.0 -0.0004472651749224295 -1.0463812963181869
4912000000.0 -0.0011682276685285944 -1.0703682120943008
4916000000.0 0.0071371298453279455 -1.0895332526480903
4919000000.0 -0.013216011285238846 -1.0706300003006441
4922000000.0 -0.001979069884649187 -1.0242702669355266
4925000000.0 -0.08269873443146461 -1.0230236540337536
4928000000.0 -0.046528882956383424 -1.0208124014838167
4931000000.0 -0.057084081757239655 -1.0564528237056572
4934000000.0 -0.05657090360946383 -0.9741764232547683
4938000000.0 -0.1434584366508363 -1.0082240880865716
4941000000.0 -0.07815456313530748 -1.0056581234357505
4944000000.0 -0.10344785211452642 -0.9751640799037584
4947000000.0 -0.12487637260081358 -1.0087593310919525
4950000000.0 -0.13036840673637817 -1.0069417356087906
4953000000.0 -0.17014372966682062 -1.04564988609788
4956000000.0 -0.1828745392193764 -1.0061996770017347
4959000000.0 -0.1699097744092342 -1.0066990761256402
4962000000.0 -0.17710663599733503 -1.0321517623606462
4966000000.0 -0.1524068121260438 -1.0870690000816718
4969000000.0 -0.1513183929301623 -1.0673754503777062
4972000000.0 -0.19468724119092903 -1.0245232049156323
4975000000.0 -0.18226500312583668 -1.006779849526419
4978000000.0 -0.21643502264714098 -1.0002988040404706
4981000000.0 -0.24304585155832828 -1.0439891667515515
4984000000.0 -0.20672120141099634 -1.0154459833893066
4988000000.0 -0.19415519539888432 -1.003734962576802
4991000000.0 -0.1828464271204832 -1.057060921924838
4994000000.0 -0.23165748243890227 -1.0106758243487652
4997000000.0 -0.281821773439453 -0.9856259697089382
5000000000.0 -0.25607674220841703 -1.0415584910412796
5003000000.0 -0.2644156177829206 -1.0283151523099667
5006000000.0 -0.3112852309698303 -1.0652356965784404
5009000000.0 -0.26515513891067 -0.9892023257079016
5012000000.0 -0.3080796228554275 -0.9815331538010168
5016000000.0 -0.2574411129226893 -1.0417468658633564
5019000000.0 -0.29884724938622564 -0.972396332803684
5022000000.0 -0.3205065142661768 -1.0152704295881378
5025000000.0 -0.34099532106053526 -1.0810264802490572
5028000000.0 -0.34247462285112884 -1.0002192549990003
5031000000.0 -0.35254026971061736 -0.9798542941748266
5034000000.0 -0.3810228447759618 -0.9728027021417704
5038000000.0 -0.3314790472868485 -0.9387801998518384
5041000000.0 -0.32306659228819234 -0.9930628092549455
5044000000.0 -0.31829752963907 -0.9411430954563701
5047000000.0 -0.3799477364841413 -0.9845950472138699
5050000000.0 -0.3017869922755446 -0.9987895696070008
5053000000.0 -0.4073010362485415 -1.0091678382065266
5056000000.0 -0.34740908315544505 -0.9463319365096545
5059000000.0 -0.4012278462755669 -1.0041487915150071
5062000000.0 -0.43214297203929775 -0.9779445979835475
5066000000.0 -0.39747991731230015 -0.9571981833407566
5069000000.0 -0.41419703046758094 -0.9870839797184351
5072000000.0 -0.4043792523970214 -0.9317593805672684
5075000000.0 -0.40672541992467504 -0.9781556175267687
5078000000.0 -0.5276708874887721 -0.9346538242008098
5081000000.0 -0.4920717119060481 -0.9096326951848918
5084000000.0 -0.47997404801002774 -0.961187982129619
5088000000.0 -0.4237382191311261 -0.9471411488142638
5091000000.0 -0.5189039748580915 -0.8806683745591548
5094000000.0 -0.5041052532093075 -0.917993926435467
5097000000.0 -0.44431816945104985 -0.9542590986348969
5100000000.0 -0.5095847875090824 -0.9271445627165341
5103000000.0 -0.545153897653207 -0.9158184882770136
5106000000.0 -0.5357458672008988 -0.9611689786507776
5109000000.0 -0.48323749209234423 -0.9046083782287149
5112000000.0 -0.549513429647482 -0.8546905064122192
5116000000.0 -0.4807885211551482 -0.8660910524443932
5119000000.0 -0.5758319889648322 -0.8807668542712874
5122000000.0 -0.5581541397782617 -0.8719220462630823
5125000000.0 -0.5340027948179494 -0.8906746863248252
5128000000.0 -0.547257552910186 -0.8752851943021431
5131000000.0 -0.5154103189180106 -0.8907946713552762
5134000000.0 -0.563432904057274 -0.8644952212523115
5138000000.0 -0.5482434657008417 -0.8880718595184951
5141000000.0 -0.5522352796614256 -0.891367718036643
5144000000.0 -0.576326464373996 -0.8796636306204125
5147000000.0 -0.6490991285781569 -0.8074133960244788
5150000000.0 -0.5542640512911168 -0.8830502506392566
5153000000.0 -0.5795648144658077 -0.846875621803349
5156000000.0 -0.6047323860021465 -0.8710633164162052
5159000000.0 -0.6180928658986183 -0.8785532464915798
5162000000.0 -0.6519714073454788 -0.804101056900506
5166000000.0 -0.6536892170026937 -0.822469809552845
5169000000.0 -0.6726001195775837 -0.8339633719733962
5172000000.0 -0.6449696646283792 -0.817768037347194
5175000000.0 -0.6723138506440357 -0.84543333360889
5178000000.0 -0.6698554471067826 -0.8057709028068589
5181000000.0 -0.6804724115548918 -0.8362211139448974
5184000000.0 -0.6901698666773775 -0.8116659281883815
5188000000.0 -0.7043735588332641 -0.7860279649712671
