! Created with skrf 1.8.0 (http://scikit-rf.org).
# Hz S RI R 50.0 
!freq ReS11 ImS11
4000000000.0 0.6651964283578141 0.7693552932547068
4003000000.0 0.6861387545795353 0.8262611303960752
4006000000.0 0.7058669224366942 0.7357814993845302
4009000000.0 0.7109195074125796 0.7761005094925081
4012000000.0 0.6576580633313369 0.813485647911561
4016000000.0 0.7347201127437468 0.757546495214932
4019000000.0 0.7358146061114967 0.7292860012328224
4022000000.0 0.6689435726790064 0.7715511274411991
4025000000.0 0.7549661327651884 0.7583340385424847
4028000000.0 0.7247449477696688 0.7052406488972274
4031000000.0 0.6886697416220159 0.6937785050593311
4034000000.0 0.7189773268834289 0.6879846428750221
4038000000.0 0.7555869591560437 0.7007755042278107
4041000000.0 0.7431018221413623 0.6966465236866678
4044000000.0 0.7972344100918031 0.7307654505298996
4047000000.0 0.7971437237302665 0.7304355593772007
4050000000.0 0.8003149773873595 0.6785577040514588
4053000000.0 0.7455210321223495 0.6585396920883542
4056000000.0 0.7769523540363418 0.6754570434457198
4059000000.0 0.7689034488684502 0.6463757074025227
4062000000.0 0.8149845654200262 0.675739954183558
4066000000.0 0.7625876404236831 0.5946764928295809
4069000000.0 0.8834463316466434 0.6256496425300865
4072000000.0 0.7678489052981828 0.6539608960367129
4075000000.0 0.8122324002424465 0.6648976782821097
4078000000.0 0.8536376787206013 0.6075852238375455
4081000000.0 0.769259407061503 0.6661889614900849
4084000000.0 0.8791868659147047 0.5982645946384302
4088000000.0 0.8029840316789474 0.6205051497649926
4091000000.0 0.8367768837102201 0.6131686369320615
4094000000.0 0.8343875862264335 0.5809561822579573
4097000000.0 0.8440638483573109 0.5897986964262378
4100000000.0 0.8504279210730514 0.5633530760527106
4103000000.0 0.8353772153438195 0.5801009567860038
4106000000.0 0.8545558414364149 0.5816853425820314
4109000000.0 0.8672767040985621 0.5545420768652753
4112000000.0 0.8828792264107617 0.5730776602488552
4116000000.0 0.877311994923729 0.5305087149936292
4119000000.0 0.8861631721548584 0.5110530358821401
4122000000.0 0.8614982795769921 0.5051817284641034
4125000000.0 0.9383386779781544 0.4944315034801435
4128000000.0 0.8506357719827269 0.5010587720328674
4131000000.0 0.8743766320228437 0.5100858437650931
4134000000.0 0.8953746059221118 0.5139510111021833
4138000000.0 0.8862445238022185 0.4774351020045467
4141000000.0 0.8763009511251741 0.47222297591844276
4144000000.0 0.8714211118330984 0.46728126063272096
4147000000.0 0.9186308912211014 0.4362872502566723
4150000000.0 0.9341014964567322 0.4774023185134139
4153000000.0 0.9173405930995888 0.4378663916926584
4156000000.0 0.9228400397516785 0.4731855805023004
4159000000.0 0.891810448802028 0.45674187317913767
4162000000.0 0.9165236339586746 0.40244566215571664
4166000000.0 0.9295530998497594 0.3943262892194873
4169000000.0 0.9209404896074869 0.39207014331945456
4172000000.0 0.9454725666548904 0.44000923632880923
4175000000.0 0.9506218030051323 0.4107716617015969
4178000000.0 0.9607540999210632 0.3996221328450392
4181000000.0 0.9677613363412816 0.3915875645451967
4184000000.0 0.9225560012575041 0.37453903792394544
4188000000.0 0.9507987710825381 0.3502245157845235
4191000000.0 0.9347003071603036 0.3716884190669189
4194000000.0 0.9340424631033238 0.323443949197609
4197000000.0 0.980088301853612 0.3601703649625591
4200000000.0 0.9285364069097939 0.3409497060914921
4203000000.0 0.9828989817249904 0.3261869833448392
4206000000.0 0.9745654061563456 0.3088416311981536
4209000000.0 0.9617917717246891 0.30761127872430577
4212000000.0 0.9670074915782829 0.2945379150200923
4216000000.0 0.9915379733425473 0.30965323817689155
4219000000.0 0.9931453612192481 0.3119723924403537
4222000000.0 0.9819435968029668 0.2618209503992362
4225000000.0 0.9726670035967577 0.2622208922550707
4228000000.0 0.9829411773380172 0.2657338656861512
4231000000.0 0.9908544331558323 0.24203902189618698
4234000000.0 0.994562989555136 0.25293289553350423
4238000000.0 0.9972547720027101 0.22315957983231557
4241000000.0 0.9718834776497756 0.222483831124754
4244000000.0 0.9906630329929547 0.22064599856952244
4247000000.0 0.9875184562873545 0.22479669518092443
4250000000.0 0.9940317580641018 0.17672850777290694
4253000000.0 0.9691179632390092 0.18874545523230568
4256000000.0 1.0305654000084221 0.1769777295424163
4259000000.0 0.9783051684459695 0.15936286500580757
4262000000.0 1.0065945944892871 0.1422786789155284
4266000000.0 1.0211569135250422 0.13104852015205243
4269000000.0 1.0130596082329577 0.15432287541328285
4272000000.0 1.012819381651525 0.13506439895561992
4275000000.0 1.018665311752519 0.14947075037471105
4278000000.0 1.0297453893146236 0.12053239009509217
4281000000.0 1.0130455998850663 0.13141863468834536
4284000000.0 1.010064659411602 0.06667718787866295
4288000000.0 1.0169654237225372 0.12307164928669037
4291000000.0 0.9753228375533955 0.09631339260088352
4294000000.0 0.9835623246898806 0.08354458855244172
4297000000.0 0.9783038771108413 0.10645760073817266
4300000000.0 0.9916998077156904 0.041998775820835076
4303000000.0 1.0046476834078029 0.0465480209535271
4306000000.0 0.9935928417611548 0.07260684315481411
4309000000.0 0.9947642689265752 0.03817218800953592
4312000000.0 1.008329106824481 0.08475050580057614
4316000000.0 1.0340746468934792 0.03885361305435292
4319000000.0 0.9949706352478888 0.02703526023816874
4322000000.0 0.9884696471001582 0.015747628894179508
4325000000.0 1.0405164473251405 -0.004917692595883802
4328000000.0 0.9817629572256524 -0.030787682023992152
4331000000.0 1.00872012836638 -0.04876072478528011
4334000000.0 1.0061112049921654 -0.03576964585502303
4338000000.0 1.0056345944039013 -0.00978186516117123
4341000000.0 1.0426261190603774 -0.0169670771461623
4344000000.0 1.0250120896873205 -0.044108714186307185
4347000000.0 0.9937412386185756 -0.08861203155686095
4350000000.0 0.9440381580814163 -0.08672542658623135
4353000000.0 0.9770346178622218 -0.07717302619725241
4356000000.0 0.9889570917913877 -0.11880387240266044
4359000000.0 0.9517911753479422 -0.10104760611431031
4362000000.0 1.0099589697461169 -0.17480564710395927
4366000000.0 1.0161997960216662 -0.13224135033362672
4369000000.0 0.962902829386922 -0.13127641570828408
4372000000.0 0.9823595116527484 -0.1772692162359955
4375000000.0 0.9791430639297769 -0.1337503260552472
4378000000.0 0.9754855285276156 -0.14045029729405342
4381000000.0 0.9779865410392108 -0.1550568862890607
4384000000.0 1.0684614692761403 -0.20021499266505177
4388000000.0 0.9879768167454386 -0.1613619433535272
4391000000.0 1.0051938145124912 -0.185556097737276
4394000000.0 0.9443002840132771 -0.206448890796565
4397000000.0 0.9749243058705153 -0.20410686350978174
4400000000.0 1.007610941052977 -0.24039055477946272
4403000000.0 0.9898564395471375 -0.22025786260134522
4406000000.0 0.968932048026551 -0.2565567708894781
4409000000.0 0.9953464206781772 -0.26074084274473097
4412000000.0 0.9557750717327428 -0.30718531538817967
4416000000.0 0.9501751668667218 -0.26721249424716137
4419000000.0 0.9686112512550253 -0.2852254449838049
4422000000.0 0.9663779898428324 -0.2551933159416145
4425000000.0 0.9964253950389796 -0.27960747117093043
4428000000.0 0.9660377336875158 -0.3086830281391444
4431000000.0 0.9673694232906214 -0.3053382506508898
4434000000.0 0.9389307438959167 -0.3153263044756998
4438000000.0 0.9759311584429624 -0.3379083409643865
4441000000.0 0.973531426902424 -0.3302369236698782
4444000000.0 0.9217700139378537 -0.32527627492664335
4447000000.0 0.9386403671215815 -0.3597185294986446
4450000000.0 0.9354888202385447 -0.3348486314719944
4453000000.0 0.955539907156964 -0.3622332408591271
4456000000.0 0.9123475365084429 -0.36833320587661256
4459000000.0 0.8817017926150543 -0.3746161576120192
4462000000.0 0.99606362012193 -0.4019972093563784
4466000000.0 0.9623567831222778 -0.4224063438194594
4469000000.0 0.9278589459288508 -0.385926884295722
4472000000.0 0.9405039442685177 -0.43263781573373455
4475000000.0 0.8962523101819905 -0.4188005498238401
4478000000.0 0.9386984425195799 -0.4695621710395107
4481000000.0 0.8753565173508964 -0.43711678871008813
4484000000.0 0.8920869048425113 -0.506837059642726
4488000000.0 0.8783126342292824 -0.4675070616469131
4491000000.0 0.8918945103558423 -0.4708836435217834
4494000000.0 0.8879945078179581 -0.4878249187234917
4497000000.0 0.8779713704278094 -0.47554650565799833
4500000000.0 0.8950224362187609 -0.49448100681014395
4503000000.0 0.9100626013926729 -0.5141258906035704
4506000000.0 0.8471372864713576 -0.5061903437049771
4509000000.0 0.8388163225585998 -0.5024584384234134
4512000000.0 0.8316403512749274 -0.5155096638206456
4516000000.0 0.8790114299920022 -0.5317894241046263
4519000000.0 0.8266695568795733 -0.4970647476070471
4522000000.0 0.8551482624639062 -0.5464185000506788
4525000000.0 0.8608008294589629 -0.5112072381506483
4528000000.0 0.8455883582351258 -0.5735337062796133
4531000000.0 0.841384754144168 -0.5513570584295593
4534000000.0 0.8042304086629398 -0.552874346536787
4538000000.0 0.8158031683345683 -0.5689610535489495
4541000000.0 0.7821438779267291 -0.6132830000905343
4544000000.0 0.81395888954317 -0.5809729806104181
4547000000.0 0.8139218244085548 -0.5657015369614109
4550000000.0 0.7912025799788536 -0.6105155240737169
4553000000.0 0.787822041857871 -0.633986078662734
4556000000.0 0.7515277348768892 -0.6237811051530344
4559000000.0 0.7897456255635125 -0.6205576668618735
4562000000.0 0.7940172534896293 -0.6160292135911517
4566000000.0 0.7816226479535913 -0.6618783283164655
4569000000.0 0.7661234360291341 -0.6474217781750817
4572000000.0 0.7521852749729292 -0.6514180396761606
4575000000.0 0.7284593069256446 -0.6876178963973063
4578000000.0 0.769291089315423 -0.6681253639073532
4581000000.0 0.7300927541287157 -0.691383625112703
4584000000.0 0.7350380545509756 -0.6810578659361447
4588000000.0 0.7356984019077711 -0.6922816694220448
4591000000.0 0.7116286639988327 -0.6984580618429466
4594000000.0 0.7120791289154401 -0.7264795830487119
4597000000.0 0.7274083432111766 -0.7204971136299773
4600000000.0 0.6835183850819568 -0.7196499463180093
4603000000.0 0.6922346690725926 -0.7300147126239989
4606000000.0 0.7034347512724146 -0.7380334777890146
4609000000.0 0.6819113326186641 -0.7397618426933711
4612000000.0 0.6636124893522627 -0.7594599513862266
4616000000.0 0.6597999920265885 -0.7469878076455931
4619000000.0 0.6690753347333627 -0.7555880061472569
4622000000.0 0.6512063708167697 -0.7746072120257961
4625000000.0 0.6172413038228601 -0.7692397643022187
4628000000.0 0.6506170927950262 -0.7769122691313909
4631000000.0 0.6188385825156957 -0.788510076856356
4634000000.0 0.6306193419639315 -0.780640607744248
4638000000.0 0.6035855313687365 -0.7813144134532941
4641000000.0 0.611596310308733 -0.7982474745476565
4644000000.0 0.600740877295513 -0.7953606560325083
4647000000.0 0.6093804725534158 -0.8027960138733529
4650000000.0 0.5836078733738312 -0.8189335518439093
4653000000.0 0.6021559750323354 -0.8319351378779155
4656000000.0 0.5829755365490793 -0.8392605569105485
4659000000.0 0.5786660679705418 -0.8372598671625731
4662000000.0 0.5465833999394436 -0.8380550916163043
4666000000.0 0.540228203581825 -0.8554335283560751
4669000000.0 0.5546922134735556 -0.8416164821979436
4672000000.0 0.5298569147414872 -0.8901776243886433
4675000000.0 0.5152432333156614 -0.8747314552948309
4678000000.0 0.5275237180862036 -0.8468696122412851
4681000000.0 0.4969933944173019 -0.8705590591308957
4684000000.0 0.48711128333062 -0.8941810477778548
4688000000.0 0.5092652354004104 -0.8842554928153222
4691000000.0 0.5086801401520961 -0.8705024017154552
4694000000.0 0.5140958774699663 -0.8648919665021026
4697000000.0 0.4468401382673126 -0.865194525804377
4700000000.0 0.48328826052115126 -0.8722152669591876
4703000000.0 0.4786652318113037 -0.8781114626471644
4706000000.0 0.44857820422277916 -0.9188674291057158
4709000000.0 0.4716890202665095 -0.902121014820661
4712000000.0 0.4381192642958083 -0.9010083157640385
4716000000.0 0.43001241858760253 -0.9210724317958106
4719000000.0 0.4554312499854603 -0.8994850058157918
4722000000.0 0.4524016797702679 -0.9249134844594575
4725000000.0 0.42748121064362343 -0.9177325315588308
4728000000.0 0.3841289118837633 -0.9253377448203057
4731000000.0 0.4321403660572607 -0.9213649721489563
4734000000.0 0.41234938939383775 -0.9306144163196306
4738000000.0 0.39322076293756225 -0.9804795249849663
4741000000.0 0.3441281226865307 -0.9695800451778023
4744000000.0 0.331278237397942 -0.9543096007934266
4747000000.0 0.347119271922415 -0.9247548289524267
4750000000.0 0.3310421837449643 -0.9689798192514955
4753000000.0 0.34144952844114723 -0.9346208554405456
4756000000.0 0.34020302351822346 -0.9577047287796239
4759000000.0 0.35295477542210013 -0.9535973270479895
4762000000.0 0.2819592673817713 -0.984833480077301
4766000000.0 0.31125621475133036 -0.9578977115852226
4769000000.0 0.293282449574764 -0.9863739569846687
4772000000.0 0.301331764315294 -0.960892395792204
4775000000.0 0.26659948795699845 -1.0047837123603542
4778000000.0 0.2791125218598989 -1.0074108420232388
4781000000.0 0.28563594421180866 -0.9408528141169785
4784000000.0 0.2853685575785852 -0.9900077138347173
4788000000.0 0.24570686620383037 -1.035043853602047
4791000000.0 0.2365358668933536 -0.9568555268087887
4794000000.0 0.2733309836101646 -1.019607106768601
4797000000.0 0.21789987484255907 -0.9707560042411548
4800000000.0 0.20015527646722778 -0.9630871406415189
4803000000.0 0.15612318728402563 -0.9966655456506972
4806000000.0 0.18617563930606457 -1.0402342147090293
4809000000.0 0.1418782466982217 -1.0070550652346326
4812000000.0 0.14242419327278866 -1.0010167279989792
4816000000.0 0.20176087444777438 -1.0004929297331695
4819000000.0 0.1674667210606829 -1.0239389787894764
4822000000.0 0.18325696732457683 -1.0565320836884848
4825000000.0 0.18393803428340122 -1.0228904601799946
4828000000.0 0.13875980842143018 -1.0071409944834482
4831000000.0 0.07648252102527565 -1.0223843450220427
4834000000.0 0.1605029146019685 -1.017459037639905
4838000000.0 0.10791760487263694 -1.0224911278052706
4841000000.0 0.08031196329980246 -1.003157825848882
4844000000.0 0.14095563134161718 -1.0287392635273673
4847000000.0 0.10457395661848477 -0.9995340061807738
4850000000.0 0.06400856724851761 -1.057870453464158
4853000000.0 0.07052795384000587 -0.9964679317878362
4856000000.0 0.05296146561361881 -1.0036797277572174
4859000000.0 0.031081162537931334 -1.0661323638489915
4862000000.0 0.05010791581906136 -0.999279566040926
4866000000.0 0.01779511850803602 -1.0393407485534458
4869000000.0 -0.020518801847228662 -1.0351083945281803
4872000000.0 -0.027741490314127877 -1.0551471683354436
4875000000.0 0.05816162974064426 -1.0419529584073033
4878000000.0 -0.007249557222509653 -1.0437996654531452
4881000000.0 -0.06800088035400967 -1.0834864834215445
4884000000.0 0.015238026119496416 -1.029902623876328
4888000000.0 -0.0030464741859348027 -1.0335535464173835
4891000000.0 -0.028095964559924073 -1.0335244096817748
4894000000.0 -0.06017436445542216 -1.0104252566824854
4897000000.0 -0.031512386542052614 -1.0180500282110254
4900000000.0 -0.05746021949497167 -1.0515367209961517
4903000000.0 -0.053148545762695225 -1.0348952491682155
4906000000.0 -0.08864330100139992 -1.0613399471543405
4909000000.0 -0.07879300431581884 -1.030019684480798
4912000000.0 -0.085321107627746 -1.0264149664055002
4916000000.0 -0.09648605589723602 -1.0122186417303431
4919000000.0 -0.07194606084128001 -1.0327424924160442
4922000000.0 -0.10030429128913976 -1.0000378812989872
4925000000.0 -0.15480108707843798 -1.0113384197555817
4928000000.0 -0.08021877148044408 -1.0069496847930495
4931000000.0 -0.12278406890172418 -1.0300050940466654
4934000000.0 -0.17503375721537845 -0.9809703664466022
4938000000.0 -0.18549283681011003 -1.0024054783030847
4941000000.0 -0.16228957431765528 -0.9816187709411741
4944000000.0 -0.17806820641375506 -0.9566158854644065
4947000000.0 -0.19860920336710128 -1.0170296402249814
4950000000.0 -0.20482212375232517 -1.0040350888483034
4953000000.0 -0.22778360379316748 -1.0294935948687742
4956000000.0 -0.24892059310997033 -1.00546156144509
4959000000.0 -0.24002712615488045 -0.9749708196198612
4962000000.0 -0.24569875267424982 -0.9940519617479716
4966000000.0 -0.19608654454169006 -1.0407259888036466
4969000000.0 -0.2252539981196166 -1.0365332475891735
4972000000.0 -0.298813856743379 -1.0037566843091443
4975000000.0 -0.24106200720011853 -0.9592284018214315
4978000000.0 -0.29941543827958883 -0.9943592814068236
4981000000.0 -0.2858773204621654 -0.9849054196739387
4984000000.0 -0.2893726408004431 -0.9654691527039252
4988000000.0 -0.29982073789147173 -0.9839217765217155
4991000000.0 -0.2455582574041013 -1.000942474973053
4994000000.0 -0.2844020166379718 -0.9616366162072434
4997000000.0 -0.3259840450203379 -0.9876252175940419
5000000000.0 -0.3424529719979629 -1.0407003643583015
5003000000.0 -0.31625029765011553 -1.0164958955851513
5006000000.0 -0.39706895400273245 -1.0102833394181405
5009000000.0 -0.3428338234324595 -0.9907021802743011
5012000000.0 -0.38541578153528894 -0.9688080425424481
5016000000.0 -0.34518060610943685 -0.9787382200808359
5019000000.0 -0.3644112228026438 -0.9402147222540809
5022000000.0 -0.37971689120793595 -0.9710195869023797
5025000000.0 -0.4012335391471374 -1.022335740249227
5028000000.0 -0.44036322090383595 -0.9674632098979978
5031000000.0 -0.4126997655934118 -0.9417722855171892
5034000000.0 -0.4424097107633196 -0.967116423607528
5038000000.0 -0.40118895201229365 -0.8868300496105024
5041000000.0 -0.39454792107921866 -0.954540196384232
5044000000.0 -0.3818437393507875 -0.9338195643404056
5047000000.0 -0.43048485986772117 -0.9462477831002188
5050000000.0 -0.3671981080841977 -0.9319116693536169
5053000000.0 -0.47393520562439206 -0.9363343245285043
5056000000.0 -0.41151235759525806 -0.928637194929943
5059000000.0 -0.4544356180447617 -0.9498102107907774
5062000000.0 -0.49586210379219575 -0.9046949094047296
5066000000.0 -0.45820333809654035 -0.9371002207137082
5069000000.0 -0.45776283900710424 -0.9200035142177206
5072000000.0 -0.4633766084812434 -0.8804459494188233
5075000000.0 -0.4764754247922107 -0.9000725891893231
5078000000.0 -0.5379480565982222 -0.8708704726040075
5081000000.0 -0.5120913019971763 -0.8469659306360647
5084000000.0 -0.5318817695490756 -0.9144878321420351
5088000000.0 -0.5254201292017855 -0.8927859093508188
5091000000.0 -0.5581189464142073 -0.8278242285948829
5094000000.0 -0.5881919031766533 -0.8594929742280158
5097000000.0 -0.5350806842498754 -0.9416627418281966
5100000000.0 -0.527849464230918 -0.8578478066357437
5103000000.0 -0.5903359375623665 -0.8688453618027213
5106000000.0 -0.6000001747779484 -0.8498539483160975
5109000000.0 -0.511370235038829 -0.9012102411885146
5112000000.0 -0.5937338110752226 -0.8220512642580491
5116000000.0 -0.634062040357743 -0.8434393208716002
5119000000.0 -0.552523477544814 -0.866541826187547
5122000000.0 -0.6112139724699953 -0.8375682859374156
5125000000.0 -0.5628370105093322 -0.8488437858265475
5128000000.0 -0.6339788386297613 -0.7999635676631247
5131000000.0 -0.6174194635846247 -0.8319701796731178
5134000000.0 -0.6400252854176232 -0.780508979747893
5138000000.0 -0.6580632857605224 -0.8502689900743235
5141000000.0 -0.6136975448661186 -0.8364212698874094
5144000000.0 -0.632746755197269 -0.7794911656679392
5147000000.0 -0.6570146623496199 -0.7871399489829832
5150000000.0 -0.6560431069245087 -0.7913262465912734
5153000000.0 -0.6825537820856431 -0.7873035130203895
5156000000.0 -0.662621205726588 -0.8092357832299512
5159000000.0 -0.6867295127055205 -0.8163726949995377
5162000000.0 -0.7224589147565451 -0.7498237901838929
5166000000.0 -0.7142953264806684 -0.7945682078567882
5169000000.0 -0.7220547705788002 -0.7861429664714982
5172000000.0 -0.7123834749363386 -0.7687716064561418
5175000000.0 -0.7257037125657784 -0.7536698193489454
5178000000.0 -0.7676255792014586 -0.729409473464877
5181000000.0 -0.7405540696455678 -0.7805961087748421
5184000000.0 -0.7398789155901613 -0.7409817655249628
5188000000.0 -0.7399758241341304 -0.7440602354745985
