! Created with skrf 1.8.0 (http://scikit-rf.org).
# Hz S RI R 50.0 
!freq ReS11 ImS11
4000000000.0 0.6348643303714099 0.7403626694361858
4003000000.0 0.6778399828279297 0.8100008965234261
4006000000.0 0.7069044777207435 0.723774029574557
4009000000.0 0.6884775588905718 0.7778573228800669
4012000000.0 0.6598887547930016 0.8055573637388107
4016000000.0 0.7501627626398248 0.7261611736817606
4019000000.0 0.6909906571280533 0.7540573420847737
4022000000.0 0.6955134733476761 0.7789741996981843
4025000000.0 0.7857210966613755 0.7043380516768243
4028000000.0 0.7635486709090586 0.7158871389426318
4031000000.0 0.6767542595261364 0.7132039911359584
4034000000.0 0.7492735808468647 0.700465224174573
4038000000.0 0.7590298228991864 0.6995410489154603
4041000000.0 0.765115718883412 0.7058533476853918
4044000000.0 0.7914967306564524 0.7204599248265704
4047000000.0 0.7414069068605526 0.739572127585873
4050000000.0 0.7699036834474067 0.6621588289093833
4053000000.0 0.7675392085057158 0.6855615997854261
4056000000.0 0.7515240720339895 0.6708751360300298
4059000000.0 0.7444024156014587 0.6624541073964649
4062000000.0 0.8093241437857586 0.5971594521277386
4066000000.0 0.7529705739883423 0.6087715222809246
4069000000.0 0.8596439982356703 0.6561121367661056
4072000000.0 0.7770496897319318 0.6705751558753215
4075000000.0 0.8062130957567613 0.6723879422396162
4078000000.0 0.8076263228431024 0.65921414327724
4081000000.0 0.813768474060073 0.6811658558943717
4084000000.0 0.8175548694118406 0.6139824940592853
4088000000.0 0.7553803691438926 0.5956383103197749
4091000000.0 0.8527881788848862 0.6364402264814812
4094000000.0 0.8521158851726656 0.6001448458019392
4097000000.0 0.8280214036934225 0.5955694421284201
4100000000.0 0.8429040421359177 0.5672405164389744
4103000000.0 0.8348354042989885 0.6157054421192121
4106000000.0 0.8772316518341011 0.5655423604627987
4109000000.0 0.8879097554573805 0.5402772639721112
4112000000.0 0.8822278708166311 0.5688914787729535
4116000000.0 0.8327028634730821 0.5586069893791709
4119000000.0 0.9076661938173699 0.5393774987580882
4122000000.0 0.8965395929813114 0.5470970936984314
4125000000.0 0.9075943323755854 0.49489705697243863
4128000000.0 0.8772140268974373 0.5274166907641263
4131000000.0 0.8759465996937001 0.5255750746875485
4134000000.0 0.8873450763501823 0.5231397591561742
4138000000.0 0.8613937040285382 0.4641353483420913
4141000000.0 0.8814467638792987 0.4610882038434536
4144000000.0 0.9115093029465661 0.47361789208224353
4147000000.0 0.8737239090332538 0.4649681196043503
4150000000.0 0.9170277464500091 0.48012818346803204
4153000000.0 0.9136268635790559 0.4604801580664404
4156000000.0 0.9548762015866539 0.46775859512281237
4159000000.0 0.9114700869148813 0.4418903467561533
4162000000.0 0.9066060300857786 0.41809491020531087
4166000000.0 0.9409058449551515 0.4140619425749038
4169000000.0 0.9284062930333035 0.38321106112050995
4172000000.0 0.9564289175153644 0.41269319710566227
4175000000.0 0.9348676537422235 0.42017051345542317
4178000000.0 0.954560760707073 0.40571446868533234
4181000000.0 0.9531703094569421 0.36591126551981734
4184000000.0 0.9460882776187589 0.37504801305988894
4188000000.0 0.9324672907634382 0.3341190781502019
4191000000.0 0.9529959552368459 0.3948499690616299
4194000000.0 0.9202973602345265 0.3299871555249998
4197000000.0 0.9696686819919731 0.34117166125350634
4200000000.0 0.9396377145319978 0.34649814379493804
4203000000.0 0.9675635257204117 0.33628437148333346
4206000000.0 0.9987541010631904 0.3264916118044264
4209000000.0 0.9574738475359332 0.3100755142582627
4212000000.0 0.9797393205647468 0.27974334404558543
4216000000.0 0.9936024974250746 0.3125540498313048
4219000000.0 0.9658696833839385 0.300898466288412
4222000000.0 0.9747659883578803 0.2762869768853223
4225000000.0 0.9701196136129366 0.2732125098311453
4228000000.0 0.9836216970636691 0.25988689010096877
4231000000.0 0.9916703863261391 0.25051614154571966
4234000000.0 0.9840595022908284 0.25728319545504924
4238000000.0 0.9998420810996036 0.22549408417589553
4241000000.0 0.9845783376483142 0.21744247055641275
4244000000.0 0.9712573234467486 0.2263063438771044
4247000000.0 0.9839575626815742 0.21549719067896755
4250000000.0 0.9809164501030878 0.19870628564668708
4253000000.0 0.9686563381265856 0.18434561330674637
4256000000.0 1.0306062617251575 0.1720411314683905
4259000000.0 0.9774310064589937 0.1395216406260805
4262000000.0 1.001617693020003 0.14528931390916158
4266000000.0 1.0162024337042683 0.14120217851446598
4269000000.0 0.9915947133135224 0.1653479676690652
4272000000.0 1.0175633574614975 0.14580940404439546
4275000000.0 1.0057125315949582 0.1269866049373872
4278000000.0 1.0225625522682291 0.1415873028905155
4281000000.0 1.0193516862702856 0.13798207809722185
4284000000.0 1.0249762936428948 0.089246967131028
4288000000.0 1.0137593302317327 0.12507836692579474
4291000000.0 0.9836391947258462 0.08447653921929292
4294000000.0 1.001723033448123 0.10434241783024435
4297000000.0 0.9959404072549556 0.0767769447580393
4300000000.0 0.9816900392632559 0.0670064200409567
4303000000.0 1.0062739329948096 0.04123044872369293
4306000000.0 1.026932851454289 0.0608485027666843
4309000000.0 0.9958753857508621 0.055670428119382984
4312000000.0 1.0099294697027046 0.07477162445526722
4316000000.0 1.00311259693308 0.053281792800627406
4319000000.0 0.9882468989098117 0.01476480808743054
4322000000.0 1.0027195700786955 -0.035586604970675534
4325000000.0 1.0173549588829183 0.00746063931256187
4328000000.0 0.981547154767953 -0.008065817215476723
4331000000.0 1.0283928881646738 -0.053243922339735295
4334000000.0 1.0300726729625818 -0.045497173446465575
4338000000.0 1.0026419734832812 -0.024935288348973073
4341000000.0 1.0371445328615156 -0.02076225123751335
4344000000.0 1.0365858971592137 -0.03176835395739354
4347000000.0 1.0252050397559995 -0.10325102972778
4350000000.0 0.9625957740417336 -0.07982845326419583
4353000000.0 0.9776421670312652 -0.06148659012085868
4356000000.0 0.9924543994796017 -0.10182387502330704
4359000000.0 0.9516258243255262 -0.09166806085807057
4362000000.0 1.004430453191535 -0.13702111214266155
4366000000.0 1.0072865581995742 -0.14362355300137866
4369000000.0 0.9835854693773798 -0.14285855047877574
4372000000.0 0.986686556202937 -0.17652721065082472
4375000000.0 0.9824137172137881 -0.12361567367895186
4378000000.0 0.9797909713879084 -0.13845784069528716
4381000000.0 0.9800028473784039 -0.15669101818771797
4384000000.0 1.0529889789571576 -0.18975744822468504
4388000000.0 0.9850798280902631 -0.17828123644634508
4391000000.0 0.9896630383049247 -0.17957446160822418
4394000000.0 0.9560781235004795 -0.19770374348955466
4397000000.0 0.9819464790859662 -0.21611266982772942
4400000000.0 1.0255017425581798 -0.230928639603407
4403000000.0 1.0036078561312167 -0.21585823398562215
4406000000.0 0.9706122261408732 -0.2583161196694904
4409000000.0 1.0036501664936104 -0.2564813399597934
4412000000.0 0.9529141844672736 -0.2971146966630155
4416000000.0 0.9652118349450054 -0.27419068018476866
4419000000.0 0.95785567933011 -0.28886880797273096
4422000000.0 0.9683489094884232 -0.2564489669440347
4425000000.0 0.9988620954989497 -0.27885346374659076
4428000000.0 0.9640192567949118 -0.3019719365787752
4431000000.0 0.9934331069060225 -0.306865216908561
4434000000.0 0.947392719474166 -0.3161113573805353
4438000000.0 0.9754778416189211 -0.3223608472774197
4441000000.0 0.960640737157678 -0.32870995483228127
4444000000.0 0.9391731439579432 -0.31928159566002856
4447000000.0 0.9298620095163326 -0.34691872796508877
4450000000.0 0.9320884236798747 -0.32883432476508295
4453000000.0 0.9517956709206962 -0.3857213641142082
4456000000.0 0.9078448820951033 -0.36576272685600475
4459000000.0 0.8824814700793067 -0.37741141064961337
4462000000.0 0.9786732563484248 -0.4018154663988516
4466000000.0 0.9580778621827277 -0.42053518467383566
4469000000.0 0.9338091158659744 -0.39197193764329596
4472000000.0 0.9215430682239889 -0.44394560564766017
4475000000.0 0.9021598401615454 -0.41385220449075977
4478000000.0 0.9535787075568484 -0.45838882482299337
4481000000.0 0.8634335358513334 -0.450218107389822
4484000000.0 0.8670968684331204 -0.48775023317815214
4488000000.0 0.8824335324196209 -0.4595061330323897
4491000000.0 0.8811748301020287 -0.4630232665138949
4494000000.0 0.9093409516256569 -0.4585808904259233
4497000000.0 0.8927977714902386 -0.4749032726121751
4500000000.0 0.8737736792200936 -0.467896072610689
4503000000.0 0.911071521439639 -0.5111110752847743
4506000000.0 0.8669278229904971 -0.4795197532998973
4509000000.0 0.8425931528354771 -0.515045710003005
4512000000.0 0.8412010936710186 -0.5162839902575426
4516000000.0 0.880851527215915 -0.5328691508310718
4519000000.0 0.8619194414581143 -0.5037489836267434
4522000000.0 0.834389952884723 -0.5640345116657891
4525000000.0 0.8497387936842711 -0.5220334104341272
4528000000.0 0.8424074573388609 -0.5533946175246447
4531000000.0 0.8421326586830034 -0.5582590350172073
4534000000.0 0.830416325728661 -0.5578200868783276
4538000000.0 0.8213791001389714 -0.5807135375986906
4541000000.0 0.7855302395474928 -0.6034296401017164
4544000000.0 0.7891698487247754 -0.5811632415071222
4547000000.0 0.8093579813831959 -0.5803627841043555
4550000000.0 0.7862867311211756 -0.6253369873445196
4553000000.0 0.8045268309564744 -0.6212150048333416
4556000000.0 0.7766249362495152 -0.618599500849746
4559000000.0 0.7741737046039789 -0.6298885258811129
4562000000.0 0.7948418898976837 -0.632970688171399
4566000000.0 0.771620842795891 -0.6461683107306462
4569000000.0 0.7381489674147682 -0.6272409904603589
4572000000.0 0.7532209515153812 -0.647213371881075
4575000000.0 0.749812717379108 -0.6811436148307192
4578000000.0 0.7633066795652794 -0.6764049616575568
4581000000.0 0.7521632580509128 -0.6989192783910041
4584000000.0 0.7236912065993676 -0.6880710105159938
4588000000.0 0.7500723003476159 -0.6992844779267593
4591000000.0 0.733834559597973 -0.6836165766222706
4594000000.0 0.6981386215984058 -0.7055942919216157
4597000000.0 0.7215231952588095 -0.7290459315954158
4600000000.0 0.676491893109737 -0.7418977848577204
4603000000.0 0.7033545803474647 -0.7310458139282557
4606000000.0 0.6942108974942133 -0.7389187943027621
4609000000.0 0.6971869003232762 -0.732078211832383
4612000000.0 0.6759629460812112 -0.7552862753973938
4616000000.0 0.6664940009726446 -0.7470504580630181
4619000000.0 0.6612355509801355 -0.7429080541401801
4622000000.0 0.6512024046546601 -0.7538585874062348
4625000000.0 0.6196792406118647 -0.7628824170652645
4628000000.0 0.6462809125804535 -0.7789059200906957
4631000000.0 0.6421853473499983 -0.7853532127321892
4634000000.0 0.6377550927571632 -0.7867626692601364
4638000000.0 0.6199210547030428 -0.8014705548960992
4641000000.0 0.621715283155248 -0.7797342779973135
4644000000.0 0.6139884347698782 -0.7890430903911859
4647000000.0 0.6106676883968769 -0.8067618722000713
4650000000.0 0.5853479418134269 -0.8045462845404967
4653000000.0 0.5975985930348322 -0.8221456932963613
4656000000.0 0.5721395156967568 -0.8220284122315991
4659000000.0 0.5666739830432932 -0.8388805401015955
4662000000.0 0.5734324551344141 -0.8538131639200319
4666000000.0 0.5586693778142616 -0.8665296628300945
4669000000.0 0.5756377546908318 -0.8483949170857458
4672000000.0 0.547999717240603 -0.8804918663280926
4675000000.0 0.5266097822259159 -0.87745670818612
4678000000.0 0.5108464797725779 -0.8470047260113053
4681000000.0 0.5075773057753021 -0.876556255143575
4684000000.0 0.5048933260642671 -0.8866293122921982
4688000000.0 0.47845397249848554 -0.8677573435717874
4691000000.0 0.5173398690345731 -0.8770801491928957
4694000000.0 0.4922678292311733 -0.8731864142171673
4697000000.0 0.42259083781891604 -0.8511039928655961
4700000000.0 0.4891566268933041 -0.8850547360454257
4703000000.0 0.46607849797908907 -0.8579360562102352
4706000000.0 0.4415645531464899 -0.9222822683049016
4709000000.0 0.435329682401407 -0.8986123320855873
4712000000.0 0.44944152125150744 -0.9292244341185452
4716000000.0 0.41942368480595443 -0.9243231627234814
4719000000.0 0.46082395851501945 -0.9025655999926648
4722000000.0 0.44518304057940694 -0.9062458332169412
4725000000.0 0.39843992057056554 -0.922663146153154
4728000000.0 0.40330506698694907 -0.9151168824462321
4731000000.0 0.44264613827668553 -0.9615859032801124
4734000000.0 0.4057366551611714 -0.9360173795892336
4738000000.0 0.41587300035899794 -0.9682667041456703
4741000000.0 0.3619964616619007 -0.9673701855392146
4744000000.0 0.3597860901766088 -0.9670185480724086
4747000000.0 0.366104502736577 -0.8973750811533241
4750000000.0 0.3630229251415492 -0.9428916271343176
4753000000.0 0.35659671051851416 -0.9720728551780389
4756000000.0 0.3142813599009009 -0.9346437957826415
4759000000.0 0.3400345478130187 -0.9938725810931196
4762000000.0 0.29456492111099447 -0.9843931786005887
4766000000.0 0.29402821089385744 -0.9648274926982889
4769000000.0 0.2966164128791744 -0.9819111012068932
4772000000.0 0.30684174350498616 -0.9690195045982773
4775000000.0 0.28543978326792996 -1.033499095977688
4778000000.0 0.2739451067561199 -0.9748429830847886
4781000000.0 0.30161017942851726 -0.9810368391233872
4784000000.0 0.25718236336623973 -0.9711766108932037
4788000000.0 0.23562536709908427 -1.0009842519040715
4791000000.0 0.2400185885766109 -0.9747018551375414
4794000000.0 0.2542232888808659 -1.015543985509967
4797000000.0 0.22475985979434046 -0.9532057420159471
4800000000.0 0.18525242340722664 -0.9569833477809817
4803000000.0 0.15878379665958323 -1.0050740318955744
4806000000.0 0.21376342675633422 -1.0160097305304356
4809000000.0 0.14447262179284592 -0.9897559692139309
4812000000.0 0.1232604167077129 -1.0123430342896842
4816000000.0 0.18809404865440707 -0.9988835295488898
4819000000.0 0.17186497758789349 -1.0151299866355923
4822000000.0 0.14829820897110857 -1.0268214812011838
4825000000.0 0.16853191208551396 -1.0297489850199573
4828000000.0 0.13617120497134158 -1.014786991794768
4831000000.0 0.07646935575440819 -1.0516050202897216
4834000000.0 0.1357046216764159 -1.000115773013083
4838000000.0 0.11134085180085784 -1.0142026414486451
4841000000.0 0.11066782164424319 -0.9965502310535593
4844000000.0 0.11593837640730296 -1.0158689918211434
4847000000.0 0.11914038405808298 -0.968795759691317
4850000000.0 0.06387644602996684 -1.0357659098773053
4853000000.0 0.04597116232704173 -1.0044362469817474
4856000000.0 0.05781593119301417 -1.0205633796438986
4859000000.0 0.03159758850036945 -1.0681074943441131
4862000000.0 0.08041888983406861 -1.0013933797000445
4866000000.0 0.013393977419176379 -1.0320001636301248
4869000000.0 0.011863441865468862 -1.0219838202010312
4872000000.0 -0.005764910454571974 -1.0571306140177819
4875000000.0 0.058176442086574714 -1.0582229263158167
4878000000.0 0.003574760805405395 -1.0335984079184435
4881000000.0 -0.03353015052150076 -1.0670744498496259
4884000000.0 0.010369245976381022 -1.0284998095302356
4888000000.0 0.02284330700024788 -1.027346289682046
4891000000.0 -0.03276013466389453 -1.0513653571862824
4894000000.0 -0.05197138145602913 -1.0379351339326803
4897000000.0 -0.021677152719849626 -1.0094822414618214
4900000000.0 -0.05300428750027435 -1.0270770086236172
4903000000.0 -0.06731901207478175 -1.0593872190741622
4906000000.0 -0.10983913680776985 -1.041069023006749
4909000000.0 -0.12340706426788631 -1.0190489746428186
4912000000.0 -0.11060934391402501 -1.0528900880652177
4916000000.0 -0.09429065764573447 -1.0464132600285672
4919000000.0 -0.07554775760545325 -1.0651312822614996
4922000000.0 -0.0963583052595477 -1.0239233930549754
4925000000.0 -0.1549671030274486 -1.0170004596614692
4928000000.0 -0.06874202764362487 -1.015001577131159
4931000000.0 -0.12669430144021487 -1.0538789347412265
4934000000.0 -0.11875844284035302 -1.0007163921737412
4938000000.0 -0.20030466805709335 -0.9984623054259432
4941000000.0 -0.1365001365824085 -1.0086677195717928
4944000000.0 -0.1489043264327061 -0.9466875840469087
4947000000.0 -0.18124394532014934 -0.9916067370978063
4950000000.0 -0.1876854530931485 -1.0081914592134638
4953000000.0 -0.2254351980584966 -1.0328655270327032
4956000000.0 -0.1940587785054858 -0.9812644322466342
4959000000.0 -0.25784417456530795 -0.9960921484830895
4962000000.0 -0.2371621239923565 -1.0166109077893286
4966000000.0 -0.2025792276872077 -1.0256122925520708
4969000000.0 -0.22666805922470434 -1.006408572551443
4972000000.0 -0.2662664393398214 -0.9831220685739454
4975000000.0 -0.21344756049066735 -1.0052428190132539
4978000000.0 -0.28341799830799086 -0.9828477649626264
4981000000.0 -0.27962895386531517 -0.996423287743097
4984000000.0 -0.25989906798427853 -0.9660262285797168
4988000000.0 -0.2655035312999038 -1.0071333726937794
4991000000.0 -0.2520626494805694 -1.016738982376605
4994000000.0 -0.2836336777730253 -0.9891473849288167
4997000000.0 -0.3555442667691842 -0.959567189966884
5000000000.0 -0.34962530003156567 -1.0001955264044422
5003000000.0 -0.3241794456105577 -1.0376592350091252
5006000000.0 -0.349407903840223 -0.9946637143188803
5009000000.0 -0.32339594176546205 -0.9912300220048357
5012000000.0 -0.3888975824063104 -0.9580390022235594
5016000000.0 -0.3438180975968583 -0.9992991213633071
5019000000.0 -0.3749754533455003 -0.9450290071893306
5022000000.0 -0.3886517394706037 -0.9430157687584835
5025000000.0 -0.4060267469587063 -1.0320667353516635
5028000000.0 -0.41187245496428926 -0.9204694442577043
5031000000.0 -0.3994588816589928 -0.9472749759255824
5034000000.0 -0.47002909029527895 -0.9651735817906704
5038000000.0 -0.3888135399177465 -0.9301191032233467
5041000000.0 -0.39266514061151236 -0.9476150877401138
5044000000.0 -0.3989782549073315 -0.9437889714107061
5047000000.0 -0.4505395383958188 -0.9500087122197508
5050000000.0 -0.3785431703565122 -0.9556130234951714
5053000000.0 -0.4944139598072613 -0.9786432598603394
5056000000.0 -0.445673378973108 -0.9531616098049054
5059000000.0 -0.443550630624822 -0.936884025718005
5062000000.0 -0.5051857947952769 -0.9378316565648441
5066000000.0 -0.48076827057347093 -0.9150549064414772
5069000000.0 -0.49059183294955233 -0.9539397434647509
5072000000.0 -0.45451657295403036 -0.8767764713129775
5075000000.0 -0.4665656372321445 -0.8974461633063564
5078000000.0 -0.5670636580008392 -0.847707911268734
5081000000.0 -0.5369834777648836 -0.8574739346775792
5084000000.0 -0.5565755565484036 -0.9465955875440895
5088000000.0 -0.5227534908889128 -0.8692712294311351
5091000000.0 -0.5625246029536808 -0.905344368739216
5094000000.0 -0.5502815716215681 -0.8786590588196238
5097000000.0 -0.5453426167914688 -0.9001306777599802
5100000000.0 -0.5692581341626559 -0.8449469512411486
5103000000.0 -0.5866349683725082 -0.8595345554866628
5106000000.0 -0.5887125998558762 -0.8982288788158588
5109000000.0 -0.571289784405005 -0.8424349718099895
5112000000.0 -0.572382484888603 -0.8700296728411354
5116000000.0 -0.5732859823168255 -0.8483485335182255
5119000000.0 -0.6237546279618073 -0.8482478160901801
5122000000.0 -0.6227314928643599 -0.8428030200683772
5125000000.0 -0.5605243717467161 -0.8442308868366758
5128000000.0 -0.6684013985841988 -0.8143968473542988
5131000000.0 -0.5909470765406096 -0.7723766934231714
5134000000.0 -0.6170817118806949 -0.8425448427264851
5138000000.0 -0.6285298341462524 -0.8700428782500421
5141000000.0 -0.5969857295002363 -0.8197190432245383
5144000000.0 -0.6143218428952245 -0.8152004405402019
5147000000.0 -0.6450530997172793 -0.871693450474733
5150000000.0 -0.6525750084986619 -0.819239797503527
5153000000.0 -0.7060906884340716 -0.7618580976179462
5156000000.0 -0.690239781990438 -0.822582724876484
5159000000.0 -0.7047328162472535 -0.8112079627566053
5162000000.0 -0.7092546505610963 -0.7547554524599084
5166000000.0 -0.6920015604025483 -0.7831881583546251
5169000000.0 -0.6933669947327785 -0.8324681978618871
5172000000.0 -0.6829023026600016 -0.7242187060356878
5175000000.0 -0.7109999835788552 -0.8107686154560702
5178000000.0 -0.727196625965431 -0.7288767508651428
5181000000.0 -0.7646965695611888 -0.778256467688597
5184000000.0 -0.7251049623017554 -0.7215993264449225
5188000000.0 -0.746308517256913 -0.7256688575287621
