! Created with skrf 1.8.0 (http://scikit-rf.org).
# Hz S RI R 50.0 
!freq ReS11 ImS11
4000000000.0 0.6423479465159986 0.7452635187364551
4003000000.0 0.7424174185856064 0.7859461901424263
4006000000.0 0.73389992833286 0.7559567030284625
4009000000.0 0.7145985774719431 0.7326323072478759
4012000000.0 0.6844534513752943 0.7831808028941207
4016000000.0 0.8184281676115076 0.6964430822086092
4019000000.0 0.7459052055066189 0.6960524894444495
4022000000.0 0.6971568287837339 0.8087306723036305
4025000000.0 0.7731138053098953 0.6671731208408616
4028000000.0 0.7569232283555654 0.7061588153262539
4031000000.0 0.7147890289584554 0.6922670585908605
4034000000.0 0.7367698067702467 0.6619488877466814
4038000000.0 0.8046209362657926 0.7066875268419525
4041000000.0 0.7823682756757608 0.6361754603169159
4044000000.0 0.8139969160621331 0.6815862745824051
4047000000.0 0.7673126565385179 0.7006609388175294
4050000000.0 0.8273199916578095 0.6356087137742783
4053000000.0 0.7777570663122387 0.6000661171921617
4056000000.0 0.7831278196865828 0.6441047955902769
4059000000.0 0.7855878226806252 0.6242253995032008
4062000000.0 0.8268249825332858 0.6142023023480736
4066000000.0 0.7861294050280805 0.5858084367036325
4069000000.0 0.8561786365419605 0.6041520953964828
4072000000.0 0.8301747824418795 0.6031285741345471
4075000000.0 0.8427300853027836 0.6710296476448201
4078000000.0 0.8352802091589357 0.5858589772710109
4081000000.0 0.8080766907995185 0.653753520972254
4084000000.0 0.8814576906363434 0.5809778259735281
4088000000.0 0.8071521159575098 0.5906733074635433
4091000000.0 0.8930575977378155 0.6150186925344496
4094000000.0 0.8405004441757203 0.5763314033012324
4097000000.0 0.8713014442408972 0.5572752877577507
4100000000.0 0.8783927572981415 0.5357051128730803
4103000000.0 0.8630680415362868 0.5370241216787586
4106000000.0 0.9084070939452674 0.49579931941540367
4109000000.0 0.8777367190969412 0.5398682227616407
4112000000.0 0.8790162730581388 0.49905223820588657
4116000000.0 0.8607756416982475 0.5030591937572672
4119000000.0 0.9032441151990557 0.44636436433837967
4122000000.0 0.9057214811337269 0.44624889937349277
4125000000.0 0.9083873362427888 0.4730460604221773
4128000000.0 0.8765115711024574 0.5161952851423317
4131000000.0 0.9010705861821626 0.4397629002409025
4134000000.0 0.9050344372507032 0.45120322535044344
4138000000.0 0.9343556321446935 0.4110915343361365
4141000000.0 0.9007422733112146 0.4174566129450604
4144000000.0 0.9153185384163021 0.4377341924162382
4147000000.0 0.9310222585050056 0.43828753775069346
4150000000.0 0.9374601042198001 0.4338760361006902
4153000000.0 0.9387471957018348 0.42910483224544604
4156000000.0 0.9501358942628848 0.4354797152414971
4159000000.0 0.9283597952983913 0.4107919753138756
4162000000.0 0.9360163526073864 0.4110490656093049
4166000000.0 0.9517329595952846 0.3609449697905992
4169000000.0 0.9282470098937604 0.3474321959256318
4172000000.0 0.9674737544003293 0.3676143586998339
4175000000.0 0.9685647094020735 0.35035447062968156
4178000000.0 0.9596821561736725 0.3638395988939346
4181000000.0 0.979434757606314 0.3369358657642062
4184000000.0 0.9456893813796727 0.3203219404384284
4188000000.0 0.9502989334812955 0.3109301888186421
4191000000.0 0.9448534193520551 0.3406173166213136
4194000000.0 0.9741911674896198 0.3012610272411076
4197000000.0 0.978569836281184 0.30122871416261127
4200000000.0 0.9812600817557324 0.30406270891983767
4203000000.0 0.982820100505274 0.29477064625617366
4206000000.0 0.9958069804070446 0.2831516375713316
4209000000.0 0.9658835114238691 0.2611769357488784
4212000000.0 0.9932859885518451 0.22950671048376398
4216000000.0 0.9930216873263784 0.26825983103662826
4219000000.0 1.0076008699267016 0.22698089494088006
4222000000.0 1.0037686166390118 0.22816247524462874
4225000000.0 0.9793493853467201 0.2283480927813051
4228000000.0 1.0069000472719787 0.20473914455586792
4231000000.0 0.9957907912325684 0.21127789572944738
4234000000.0 1.0144038716039558 0.1955890728525264
4238000000.0 1.0073355560209407 0.18113668081567894
4241000000.0 0.9927465732724281 0.16061485892400135
4244000000.0 0.9985979378309142 0.17971837064268242
4247000000.0 0.9902795147481328 0.1791419322184249
4250000000.0 0.9835437799361493 0.1278119775190661
4253000000.0 0.9902713730102857 0.13640034800970463
4256000000.0 1.0320575787645265 0.13315950809825966
4259000000.0 0.9619519319664027 0.08940455679781678
4262000000.0 1.0032595417228671 0.08334107685146408
4266000000.0 1.032482411084986 0.08052492130984365
4269000000.0 1.0026807281608399 0.11004897426137733
4272000000.0 1.0061303321457624 0.08444253248708239
4275000000.0 1.0198735608831653 0.08210425589242712
4278000000.0 1.0248868730119929 0.0674360082695441
4281000000.0 1.0119857093293503 0.08229766329202436
4284000000.0 1.0201084630283588 0.025071806133544983
4288000000.0 1.0025456685734573 0.06913603797679152
4291000000.0 0.9830000476427478 0.04401034238752281
4294000000.0 1.0129611662885787 0.03445452773952258
4297000000.0 0.9938450944037627 0.049646162624555804
4300000000.0 1.0003854254815496 0.016710996936850166
4303000000.0 0.9856189485614547 -0.016407914047363636
4306000000.0 0.9795226312797171 0.01776797282919465
4309000000.0 1.0208672556057365 0.005203559289811588
4312000000.0 1.0260384861070542 0.02103891694228051
4316000000.0 1.0218593014345334 -0.015427650855044897
4319000000.0 1.005532171166513 -0.025067201599503597
4322000000.0 0.9906662213315475 -0.08714606479627651
4325000000.0 0.9868405025032929 -0.02577229424339636
4328000000.0 0.9968842740866785 -0.0748074423455643
4331000000.0 1.0167490650381634 -0.10212345050729903
4334000000.0 1.0103129139848188 -0.08136916401338518
4338000000.0 1.0000185665936052 -0.05647325703738723
4341000000.0 1.0104891086727648 -0.07763413867435337
4344000000.0 1.0450233815945045 -0.096964486694465
4347000000.0 1.014096139932225 -0.1416647601220189
4350000000.0 0.9543121992848592 -0.1353782518881813
4353000000.0 0.9888757963093011 -0.12358834484633405
4356000000.0 0.979152130341045 -0.19676781850120603
4359000000.0 0.960156266837039 -0.1538431828013848
4362000000.0 0.9931954802660734 -0.21620974811231525
4366000000.0 1.0206271583036695 -0.17968858872767104
4369000000.0 0.9515225675014432 -0.18364004836787254
4372000000.0 0.9521373218764337 -0.2266142567873744
4375000000.0 0.9811437849244169 -0.1944250059629357
4378000000.0 0.9593234843005681 -0.20967189497203514
4381000000.0 0.9757279372455836 -0.19816334806013497
4384000000.0 1.0350006583717584 -0.2515301567381674
4388000000.0 0.9703889138202323 -0.22636828082128344
4391000000.0 0.9733002358820373 -0.24787645530729566
4394000000.0 0.9597244532269692 -0.24919962926121558
4397000000.0 0.9666102106473473 -0.27026970486768875
4400000000.0 0.9894828711300061 -0.2791594638751674
4403000000.0 0.971292619858619 -0.27883651183130925
4406000000.0 0.9614817725081151 -0.3102532907950166
4409000000.0 0.9779116067628724 -0.3151836689296877
4412000000.0 0.9301885811670365 -0.35088034942812846
4416000000.0 0.95367647168354 -0.3250022100434271
4419000000.0 0.9539951321432344 -0.35495891566172666
4422000000.0 0.9440909077444333 -0.3214678815006265
4425000000.0 0.9629918047492421 -0.318172032503746
4428000000.0 0.9431950871422343 -0.3706802078326212
4431000000.0 0.9583064561113555 -0.36536598313878527
4434000000.0 0.9295366319263312 -0.37905894017119945
4438000000.0 0.9492129126529516 -0.397393018902942
4441000000.0 0.9555074610472598 -0.39588345969325967
4444000000.0 0.9105361920876733 -0.3870053619866033
4447000000.0 0.9215248311199797 -0.4187129222316204
4450000000.0 0.9125962649727052 -0.4090407486286761
4453000000.0 0.9295070315949004 -0.42978437544444126
4456000000.0 0.8718260156562126 -0.4284667314074174
4459000000.0 0.8770822393422126 -0.4379675394151963
4462000000.0 0.9503648005943381 -0.47684780132706317
4466000000.0 0.9445277674665348 -0.4753238857290526
4469000000.0 0.921098400171892 -0.437610000676761
4472000000.0 0.8893925280089603 -0.4922623666660409
4475000000.0 0.8706498908588917 -0.484932615691002
4478000000.0 0.9065380161219159 -0.5301931677682636
4481000000.0 0.8237632803876567 -0.4921072643625857
4484000000.0 0.8443328382991171 -0.541671965400602
4488000000.0 0.8462375630324368 -0.5293043310798788
4491000000.0 0.8776159033191733 -0.5244258534712767
4494000000.0 0.8530489257677388 -0.5118153762676048
4497000000.0 0.8453277914503738 -0.5250862785598144
4500000000.0 0.8399915357943046 -0.5508246532137548
4503000000.0 0.8663282522507327 -0.5404975316346983
4506000000.0 0.8201969504085596 -0.5589758124619231
4509000000.0 0.8175948225400367 -0.5359743735563725
4512000000.0 0.8056550245594923 -0.5698040215095228
4516000000.0 0.8332091660054293 -0.5772668544716792
4519000000.0 0.8093421333784413 -0.576089039307445
4522000000.0 0.8111945446394504 -0.5969346401115616
4525000000.0 0.8210074011946378 -0.5731719828141385
4528000000.0 0.8138120187498576 -0.6291272214031577
4531000000.0 0.8099865103928174 -0.6054191958355674
4534000000.0 0.771483662911499 -0.6208742477534176
4538000000.0 0.7840625635416851 -0.6215915220180706
4541000000.0 0.7390662697618122 -0.6541962168557554
4544000000.0 0.7543364906386871 -0.63320656566882
4547000000.0 0.758805363919048 -0.624334758032044
4550000000.0 0.7551817631202016 -0.674831067392464
4553000000.0 0.7526516849174225 -0.6767121349124228
4556000000.0 0.7219824332432403 -0.6964986332204193
4559000000.0 0.7300929905647838 -0.6899344186630969
4562000000.0 0.7365412135350857 -0.6866953601940186
4566000000.0 0.7399669788378929 -0.7072802341738307
4569000000.0 0.7083337525564909 -0.6805393071602064
4572000000.0 0.7057663301852208 -0.7136703873759283
4575000000.0 0.7085971863381231 -0.7501061254319373
4578000000.0 0.720943150818947 -0.7363760522052261
4581000000.0 0.6876072532017009 -0.7224698490718483
4584000000.0 0.6852319469065487 -0.7271970180417847
4588000000.0 0.6825522017258596 -0.7609828790440077
4591000000.0 0.6671265264231744 -0.7476985009492896
4594000000.0 0.6623297606399844 -0.7542907706910107
4597000000.0 0.6544803405567294 -0.7741799725560781
4600000000.0 0.6315437920564968 -0.7747027726718098
4603000000.0 0.6460155448283984 -0.7900848041805135
4606000000.0 0.6409267138866899 -0.782530577201071
4609000000.0 0.6444889327403188 -0.7876132382866307
4612000000.0 0.6136287431043951 -0.785522316077877
4616000000.0 0.5970660197608015 -0.7915159553990672
4619000000.0 0.6239536291648511 -0.7911910476071787
4622000000.0 0.5903661071139986 -0.8225250062732808
4625000000.0 0.5713765853251537 -0.8136312245060012
4628000000.0 0.5935116443796247 -0.8181058807162938
4631000000.0 0.5832271728392144 -0.8190040361837173
4634000000.0 0.5580984819377933 -0.8410774613425375
4638000000.0 0.5746869399016226 -0.8319728944037799
4641000000.0 0.5560616603008656 -0.8438872240126123
4644000000.0 0.5438947855444091 -0.8588351929953326
4647000000.0 0.5540271024127125 -0.8561914299838438
4650000000.0 0.5221061618525372 -0.8511028096694127
4653000000.0 0.5438011562531142 -0.8742580941358875
4656000000.0 0.5234949543883258 -0.8816804857663609
4659000000.0 0.49042774752270735 -0.880360251370591
4662000000.0 0.5036929646034167 -0.8973900159438466
4666000000.0 0.47535090701185145 -0.8920353777430347
4669000000.0 0.4938527021140166 -0.8983186071480638
4672000000.0 0.47772183587650613 -0.9301559330984738
4675000000.0 0.46847543889959914 -0.8999406624229255
4678000000.0 0.4340751819202366 -0.8754527560639909
4681000000.0 0.4210653200237683 -0.9081791245396433
4684000000.0 0.4273752080132857 -0.9308331160531683
4688000000.0 0.42736713367018797 -0.8983431169858278
4691000000.0 0.43046918350889496 -0.9296488645532
4694000000.0 0.44063783375436855 -0.9143834547148169
4697000000.0 0.35725912278914684 -0.8983428406950302
4700000000.0 0.4002387446656681 -0.9279841042053985
4703000000.0 0.4176075154868547 -0.8830796303101294
4706000000.0 0.38660858801246895 -0.957147546156384
4709000000.0 0.36142630903874473 -0.9418853303005928
4712000000.0 0.3712993718531007 -0.9319265118731829
4716000000.0 0.36188110394711037 -0.9500369849155827
4719000000.0 0.3917235345093457 -0.9478563862312377
4722000000.0 0.3403864126992588 -0.9515601389538413
4725000000.0 0.33545812279515946 -0.9527421530814373
4728000000.0 0.31527526561476565 -0.9631043880284187
4731000000.0 0.3341001792436305 -0.9855997394717226
4734000000.0 0.3314390132469307 -0.9431537313668212
4738000000.0 0.3089870174692314 -0.9980421666924622
4741000000.0 0.2824211169391874 -0.9799205965606369
4744000000.0 0.28030810523215943 -1.0013219015504506
4747000000.0 0.30418560989489474 -0.9199081798819908
4750000000.0 0.25351581488494185 -0.9768279338276106
4753000000.0 0.2800709475127089 -0.9777013671784459
4756000000.0 0.239120683940517 -1.0189439799333613
4759000000.0 0.2553700710423137 -0.9873303420899958
4762000000.0 0.22245649727311645 -1.0157667685248404
4766000000.0 0.20279347161625144 -1.0015169509189235
4769000000.0 0.22684193766792698 -1.0292762105017934
4772000000.0 0.18612015189438164 -0.98075534581678
4775000000.0 0.20295647727412452 -1.0623204824268189
4778000000.0 0.15541821367890857 -1.0094387272562344
4781000000.0 0.2245614408674897 -0.9895807959300285
4784000000.0 0.22164710671475504 -0.9828483027653993
4788000000.0 0.18326693490510762 -1.0037949885379764
4791000000.0 0.14527942326279186 -0.9828269255769634
4794000000.0 0.14628039892041425 -1.032818692890368
4797000000.0 0.10826947975103604 -0.9981751740072341
4800000000.0 0.09988974033004205 -0.9779045267127786
4803000000.0 0.08818506037127968 -0.9950560197910272
4806000000.0 0.09914138751417308 -1.03073341646297
4809000000.0 0.047831945115508756 -1.0225846838773711
4812000000.0 0.04344230770381452 -1.0073686884972095
4816000000.0 0.11711106103241836 -0.9789717135270082
4819000000.0 0.11010418499989102 -1.0475786186744176
4822000000.0 0.078841503565831 -1.0701344114543232
4825000000.0 0.08114748474169692 -1.0478940034422366
4828000000.0 0.05907353018191454 -1.0133263427504078
4831000000.0 -0.01047362790256974 -1.0420175222236905
4834000000.0 0.044448527057099466 -1.0303393523452218
4838000000.0 -0.010939654755903708 -1.0296496163412767
4841000000.0 -0.00689271594707494 -1.0003766830804017
4844000000.0 0.016859398211291204 -1.0258409242196267
4847000000.0 0.002368625303958344 -0.9741437802208568
4850000000.0 -0.018921084004157596 -1.02869686001877
4853000000.0 -0.016124613526564663 -0.9984354524029913
4856000000.0 -0.05418627072683402 -0.9878046510059743
4859000000.0 -0.06359650166699601 -1.0663831969728985
4862000000.0 -0.043631277256589676 -1.0067877046381954
4866000000.0 -0.0629780269432774 -1.0134477430396214
4869000000.0 -0.09133250906657721 -1.03125507491209
4872000000.0 -0.12415640424547492 -1.0526059799245504
4875000000.0 -0.06864687685770615 -1.0820545939474084
4878000000.0 -0.09057753986731282 -1.0156143273474192
4881000000.0 -0.16884669387902101 -1.0851044711477589
4884000000.0 -0.12536124375148974 -1.0246568044734834
4888000000.0 -0.0904228782604486 -1.022199729620483
4891000000.0 -0.1103520039286087 -1.0409813909416072
4894000000.0 -0.14494514931990138 -1.008824435472276
4897000000.0 -0.14432742872397508 -1.0204121620554845
4900000000.0 -0.17183226258305634 -1.020599609165029
4903000000.0 -0.16772839988004776 -1.0452185789498445
4906000000.0 -0.1944688946886745 -1.0499011984978008
4909000000.0 -0.1967905514230979 -1.026108411354355
4912000000.0 -0.23063748581059473 -1.0527308822895158
4916000000.0 -0.1834950927217293 -1.0348799567054061
4919000000.0 -0.19402824713366162 -1.0668815730487349
4922000000.0 -0.20708958424164645 -0.9933826853574313
4925000000.0 -0.26508517361232853 -1.0055922815743945
4928000000.0 -0.2084027373557829 -0.9999001871096481
4931000000.0 -0.22451582386228375 -0.9954082872514347
4934000000.0 -0.2077846092617207 -1.008908861705598
4938000000.0 -0.292765612339766 -0.9790929402989346
4941000000.0 -0.2611097934155091 -0.9600479177337825
4944000000.0 -0.25954993767607826 -0.9273820543504581
4947000000.0 -0.301641074144807 -0.9825197369451317
4950000000.0 -0.3039634096269451 -0.9528989299842864
4953000000.0 -0.3849838012081389 -1.00855346644755
4956000000.0 -0.34336789358773145 -0.9964314404104022
4959000000.0 -0.3389953617063399 -0.9419758178181638
4962000000.0 -0.3629906399631295 -0.9874451419262332
4966000000.0 -0.30532136422130635 -1.0324845317468418
4969000000.0 -0.3760682715577215 -1.0231501947997068
4972000000.0 -0.40249504208087994 -0.9910840423440316
4975000000.0 -0.3420898621463886 -0.9746674005140261
4978000000.0 -0.3623583627556649 -0.9476525673635202
4981000000.0 -0.4026318140488977 -0.9530419013751532
4984000000.0 -0.380430396934358 -0.9552186671177554
4988000000.0 -0.35491011236103404 -0.9430883483137954
4991000000.0 -0.3225445676144523 -0.9466349126632968
4994000000.0 -0.38110429491037257 -0.9661356612911604
4997000000.0 -0.44718946592343595 -0.9297958739864406
5000000000.0 -0.42662066452921 -0.9731416391634349
5003000000.0 -0.41914023266828687 -0.9560615438552476
5006000000.0 -0.46627832621328735 -0.981187355329231
5009000000.0 -0.47900015615632885 -0.9319764527350075
5012000000.0 -0.46595858331183665 -0.9079194405974127
5016000000.0 -0.452128017426857 -0.9511007950673117
5019000000.0 -0.48146907125994454 -0.8719180239422694
5022000000.0 -0.48333869958223574 -0.9415304306733809
5025000000.0 -0.542107941869715 -0.9474038460670237
5028000000.0 -0.4971249614253035 -0.9036460970046544
5031000000.0 -0.5318824053645882 -0.8658426052357145
5034000000.0 -0.5761526704776404 -0.8819635921720458
5038000000.0 -0.5193461378919122 -0.8582662252319939
5041000000.0 -0.4869973982973941 -0.9143694030236388
5044000000.0 -0.48626007563345397 -0.8769316263910155
5047000000.0 -0.5402785855037822 -0.8896384413618924
5050000000.0 -0.49713119145081663 -0.9281605842254723
5053000000.0 -0.5658428402731323 -0.9319953328999584
5056000000.0 -0.5462654816987347 -0.9024177802085982
5059000000.0 -0.49996180864789536 -0.8626333941411465
5062000000.0 -0.5913531638908094 -0.8727168935791345
5066000000.0 -0.5983451956023653 -0.8526898516216517
5069000000.0 -0.5831019411852928 -0.8788341776423617
5072000000.0 -0.5905175663503964 -0.800983823339052
5075000000.0 -0.6097295027768178 -0.8265849053545617
5078000000.0 -0.6445327389733673 -0.7880069585152106
5081000000.0 -0.5811337309459358 -0.7841245601454488
5084000000.0 -0.647762224739781 -0.8200938109699247
5088000000.0 -0.6202525014190303 -0.8407100403672507
5091000000.0 -0.6419398867147155 -0.7967744065668314
5094000000.0 -0.6981755385062615 -0.8086995649885975
5097000000.0 -0.589133984230053 -0.8268503925685524
5100000000.0 -0.7033780518567467 -0.811197354314337
5103000000.0 -0.7504900128914745 -0.7488763511866159
5106000000.0 -0.6838453352186004 -0.830730556859414
5109000000.0 -0.6399173049703093 -0.7869772544796879
5112000000.0 -0.6792884876729046 -0.7282666804688149
5116000000.0 -0.7000838666372832 -0.752775703406265
5119000000.0 -0.7355335912494297 -0.7956826272374793
5122000000.0 -0.6860193747516385 -0.746241596574412
5125000000.0 -0.6515071478651973 -0.7669689613248306
5128000000.0 -0.6887244069804301 -0.7375315405134721
5131000000.0 -0.7127860686796283 -0.705622386223495
5134000000.0 -0.7794322069867675 -0.7135363981006334
5138000000.0 -0.7520147533933619 -0.7204932399704483
5141000000.0 -0.7220794850396863 -0.7844719546973826
5144000000.0 -0.7088596840208475 -0.6831583973653653
5147000000.0 -0.8069262760730789 -0.7031387075818101
5150000000.0 -0.7036346460796629 -0.6910536557423562
5153000000.0 -0.8175256850038461 -0.7122764684201143
5156000000.0 -0.7969999987865716 -0.7131516725193496
5159000000.0 -0.8082817708772325 -0.6994878497153179
5162000000.0 -0.7900373520309711 -0.6592203508160425
5166000000.0 -0.810098494919513 -0.6505807726676652
5169000000.0 -0.7882103185428375 -0.6455160242309017
5172000000.0 -0.8199481737484564 -0.6173766836624791
5175000000.0 -0.8196276507575843 -0.6905777279586525
5178000000.0 -0.8371965967244535 -0.6559903947210257
5181000000.0 -0.8473436959510815 -0.6357020611873
5184000000.0 -0.8563709511747726 -0.5976831169985277
5188000000.0 -0.8312564222580916 -0.6095960112854125
