! Created with skrf 1.8.0 (http://scikit-rf.org).
# Hz S RI R 50.0 
!freq ReS11 ImS11
4000000000.0 0.6552612431643371 0.7712233549646812
4003000000.0 0.7122669882138268 0.826710790367704
4006000000.0 0.688982859438697 0.7250615998998285
4009000000.0 0.6592551014700769 0.7668551556037028
4012000000.0 0.6510716274858005 0.7763339960002262
4016000000.0 0.7313049172595046 0.7485365032279963
4019000000.0 0.671558329911315 0.7411679866248996
4022000000.0 0.6610821019765355 0.7604477841033364
4025000000.0 0.7441218869181151 0.7089986780712888
4028000000.0 0.7305854409901752 0.6765397136884281
4031000000.0 0.7176931124839699 0.7115822569323448
4034000000.0 0.7216737327412277 0.7193671207866744
4038000000.0 0.7725632875087803 0.7513015106566066
4041000000.0 0.733181659852012 0.7145954855539091
4044000000.0 0.7561581281100174 0.7540338903287713
4047000000.0 0.7467294317274249 0.7325666415435719
4050000000.0 0.7596517839459995 0.6657575003308944
4053000000.0 0.7918393241884385 0.6430762727471349
4056000000.0 0.7808927910431543 0.6531059215032619
4059000000.0 0.7485792966913913 0.6714701429662959
4062000000.0 0.8307548780488756 0.6456338661081551
4066000000.0 0.7295614493127855 0.6343790658549859
4069000000.0 0.8720919382697393 0.6539111469255328
4072000000.0 0.7848134476499175 0.6935502743332551
4075000000.0 0.8016616771876025 0.6823394051075826
4078000000.0 0.8191002676359428 0.626120005647655
4081000000.0 0.8032523159949766 0.6784949538387457
4084000000.0 0.8290910738495727 0.6095332019606785
4088000000.0 0.8050350740541824 0.6012329121685273
4091000000.0 0.8610057859483309 0.6383750161899164
4094000000.0 0.8210822852959639 0.6367617577415577
4097000000.0 0.8392197962011408 0.6010160435750196
4100000000.0 0.8639792472200797 0.5814964516638395
4103000000.0 0.8448984799994854 0.6017299226731725
4106000000.0 0.846239941421507 0.5632488447642531
4109000000.0 0.8559669028030674 0.5372561079518641
4112000000.0 0.8879778197289323 0.5699480024109753
4116000000.0 0.8674926955994636 0.5680516999131711
4119000000.0 0.8707892215808245 0.5073875632882917
4122000000.0 0.8941841304724193 0.5063467860914665
4125000000.0 0.890302052707701 0.48536880262863075
4128000000.0 0.851774467167077 0.5204195818141227
4131000000.0 0.8751394483080813 0.4902768291866584
4134000000.0 0.8556398787527126 0.5266327382709485
4138000000.0 0.8948783449114566 0.4694452603453015
4141000000.0 0.8852646593558969 0.4576153715825303
4144000000.0 0.8957797336514228 0.5098335131168721
4147000000.0 0.8954743954771153 0.4221795175398317
4150000000.0 0.8987246492477525 0.46316374857589043
4153000000.0 0.8940388755892552 0.4180303448383751
4156000000.0 0.9132749685810961 0.47035775780164224
4159000000.0 0.8670503588352898 0.4542362943980222
4162000000.0 0.9157119467573209 0.4252113762291634
4166000000.0 0.9627854599329926 0.3892412135815998
4169000000.0 0.9464752976972787 0.37499825111439844
4172000000.0 0.9631312494027209 0.41478737421875506
4175000000.0 0.9340519994975386 0.39304282458709255
4178000000.0 0.9586270568567821 0.40097941390506564
4181000000.0 0.9434516392209704 0.3640661428705323
4184000000.0 0.9342519035300446 0.38479926637725753
4188000000.0 0.949096968313377 0.36676680641135806
4191000000.0 0.9311923113465306 0.4029944169492364
4194000000.0 0.9550054081860457 0.35433375552833213
4197000000.0 0.9661391983958325 0.34779997746603747
4200000000.0 0.9407603586605704 0.3373789131987923
4203000000.0 0.9677007015763787 0.3429263645028672
4206000000.0 0.9815347656572763 0.34012501469340156
4209000000.0 0.938946993587553 0.3027884800089055
4212000000.0 0.9832342127478103 0.27300518130927165
4216000000.0 0.9742301093564614 0.2995548062884575
4219000000.0 0.9838326374060214 0.30920356322191733
4222000000.0 0.9832073797746019 0.2692244152847064
4225000000.0 0.9921444402595769 0.2704445915229615
4228000000.0 0.9821322355495254 0.2641983937111799
4231000000.0 0.975722808488805 0.2470573976732212
4234000000.0 1.0041921948327117 0.24162646128038123
4238000000.0 0.9758671316412554 0.21070922501830783
4241000000.0 0.9858378998186361 0.1918864689610293
4244000000.0 0.9851803020884988 0.22151297704316641
4247000000.0 0.9918208839299991 0.2170163941994644
4250000000.0 0.9834433000627991 0.1926934351952821
4253000000.0 0.973998763748845 0.17326675984203366
4256000000.0 1.034327192359058 0.1867080049534962
4259000000.0 0.9705138437075472 0.166434677628682
4262000000.0 0.997585430763817 0.15455968958451413
4266000000.0 1.0331976416598105 0.12978895864124895
4269000000.0 1.004355118911684 0.16025619011913397
4272000000.0 0.9879060583471534 0.1537424742562344
4275000000.0 1.0177349960469768 0.1353265850204428
4278000000.0 1.0125361897649163 0.11040485885320114
4281000000.0 1.0209184638343214 0.11388724189356612
4284000000.0 1.009331625101976 0.0741594123170431
4288000000.0 1.0062320601031745 0.11328763116640639
4291000000.0 0.9923371382130728 0.09457122597427244
4294000000.0 0.9995590312640046 0.07031161182348473
4297000000.0 0.9958822914597981 0.09110020742054335
4300000000.0 0.9837378218214974 0.06322116992013421
4303000000.0 0.9875512435163124 0.055395349675704766
4306000000.0 1.005856279079714 0.06455084656656548
4309000000.0 1.0110687532736062 0.0432635122122703
4312000000.0 1.0072764511188672 0.045195221889467244
4316000000.0 1.0322327461032157 0.03709726603406728
4319000000.0 0.9878742958167457 -0.0005874958078968401
4322000000.0 0.9966505446866365 -0.03089954891495461
4325000000.0 1.0204519325769945 0.015826562682676973
4328000000.0 0.9854734403693389 -0.006647516240807269
4331000000.0 1.0396821724974687 -0.06198816076562563
4334000000.0 1.0258703277497117 -0.0516600529256831
4338000000.0 1.007737520805554 -0.02992686253122255
4341000000.0 1.0234704662715925 -0.021407696149676886
4344000000.0 1.0293412271670848 -0.061595943755301225
4347000000.0 1.004261260076723 -0.07649296321948564
4350000000.0 0.9776688200641461 -0.07394067874352292
4353000000.0 0.9866483212838089 -0.059400761453175965
4356000000.0 0.9927638772535523 -0.1303615341532082
4359000000.0 0.9575616417084437 -0.08649080057835802
4362000000.0 1.004470538304719 -0.17252586781633542
4366000000.0 1.0102139722249586 -0.1330890902227964
4369000000.0 0.9578148719329679 -0.13515532399216865
4372000000.0 0.9660457375170324 -0.17557722671333753
4375000000.0 1.0005601707725709 -0.1399132696884887
4378000000.0 0.9532082604861564 -0.1535978235991764
4381000000.0 0.9740192642108558 -0.1630346451660552
4384000000.0 1.0418749661658246 -0.1867885491414084
4388000000.0 0.9720549812065764 -0.1824662891338603
4391000000.0 0.9926664991021898 -0.1890522264893191
4394000000.0 0.964174248095872 -0.19484510708119418
4397000000.0 0.9892017771080364 -0.21305897656073067
4400000000.0 0.9890985767802019 -0.22706324065576305
4403000000.0 0.9869364520398489 -0.22506764307203084
4406000000.0 0.9792194638282706 -0.26278738758333164
4409000000.0 1.009836421550089 -0.2609979797879103
4412000000.0 0.9519859164932348 -0.29826544641334324
4416000000.0 0.951405633056938 -0.2718569917140026
4419000000.0 0.9762192846696627 -0.2951721066217348
4422000000.0 0.9570036722072419 -0.2587679245914383
4425000000.0 1.001435406559131 -0.2734493956333496
4428000000.0 0.962939436366018 -0.30164234632526177
4431000000.0 0.9767320526038095 -0.3135087339791883
4434000000.0 0.9354104315339908 -0.30996107288311553
4438000000.0 0.9671786925404466 -0.3309530183441419
4441000000.0 0.9643591591536389 -0.32987652553002506
4444000000.0 0.9389704089968751 -0.3259571307208522
4447000000.0 0.9357603703184885 -0.35455989243474906
4450000000.0 0.9277915528925679 -0.34340328413072385
4453000000.0 0.958597552955147 -0.37253151076509383
4456000000.0 0.9285716168043459 -0.37605472182004707
4459000000.0 0.8782891093402907 -0.38069393051697636
4462000000.0 0.9796606058233688 -0.42449413485145815
4466000000.0 0.9461982943033367 -0.41161459747212015
4469000000.0 0.9246073751044565 -0.3866389925446264
4472000000.0 0.9334049475592655 -0.4392772360396073
4475000000.0 0.8893419185310412 -0.4039776859449413
4478000000.0 0.9361076846475075 -0.45880223401308384
4481000000.0 0.8812709131598513 -0.4354130809046671
4484000000.0 0.8870874059747267 -0.4867762043583813
4488000000.0 0.8837497011929284 -0.46164581567792196
4491000000.0 0.8905467260087422 -0.4601704699520492
4494000000.0 0.8849753987281085 -0.4627428148062781
4497000000.0 0.8862360954290271 -0.46867548061336733
4500000000.0 0.8737795737416545 -0.4707768149920937
4503000000.0 0.9157705720428346 -0.4838475720424931
4506000000.0 0.8803594138511759 -0.5114030337327226
4509000000.0 0.8586067737261174 -0.48964094544653003
4512000000.0 0.8296515609845407 -0.5222183168525614
4516000000.0 0.8735598943014176 -0.5384624666645117
4519000000.0 0.8405425055774133 -0.5037758431120397
4522000000.0 0.8438232036902769 -0.5469015831526269
4525000000.0 0.8471938572875894 -0.4971705175219836
4528000000.0 0.8483035118170517 -0.5789664656205008
4531000000.0 0.8406993232533175 -0.5468456650008212
4534000000.0 0.7950238121257939 -0.5632872765271771
4538000000.0 0.8075325966048457 -0.5554840125927041
4541000000.0 0.7868618035938854 -0.6108722392374979
4544000000.0 0.7873908816786841 -0.5797569615110607
4547000000.0 0.8041531944018326 -0.5754793950447994
4550000000.0 0.7892463708634478 -0.6177368371695867
4553000000.0 0.8009345305999225 -0.6248088730760084
4556000000.0 0.7636380413849997 -0.605681165571678
4559000000.0 0.7798880873150509 -0.6360646564749621
4562000000.0 0.7881951079952194 -0.6453657673779887
4566000000.0 0.7742196871862121 -0.6297065750803239
4569000000.0 0.7594800530827432 -0.6430318683250824
4572000000.0 0.7652223755865721 -0.6682219824944451
4575000000.0 0.7453315423121607 -0.6715468974667197
4578000000.0 0.7802925188127672 -0.6695115178187495
4581000000.0 0.754243325315748 -0.683749698548192
4584000000.0 0.7365862504371754 -0.6873412765626239
4588000000.0 0.7495832670434635 -0.7050208041920379
4591000000.0 0.7304871267323176 -0.6964436450157847
4594000000.0 0.7105690835061816 -0.7228360202172713
4597000000.0 0.7255821016995048 -0.7106257409682979
4600000000.0 0.681357709183649 -0.7500505364583534
4603000000.0 0.7063192768332356 -0.7410769940538454
4606000000.0 0.687720921623337 -0.7450733878323795
4609000000.0 0.6877788218047787 -0.7452632024603154
4612000000.0 0.6872182214513634 -0.7437586342217326
4616000000.0 0.6560892757109391 -0.7622462859603527
4619000000.0 0.6673052826014451 -0.7508014077933065
4622000000.0 0.6562138645425954 -0.7520765274822673
4625000000.0 0.6204090448396493 -0.7551225361376125
4628000000.0 0.6571489698847411 -0.7757926519568861
4631000000.0 0.6237881082604742 -0.7838297436048197
4634000000.0 0.623662193889181 -0.7822205906768043
4638000000.0 0.6367894751595966 -0.7867430793828376
4641000000.0 0.595263530654751 -0.7903212281974391
4644000000.0 0.6049378925924546 -0.8016040661708865
4647000000.0 0.6183083117440403 -0.802471982838646
4650000000.0 0.5887378267302591 -0.8147052343915308
4653000000.0 0.5925399530689518 -0.8241860556010293
4656000000.0 0.5834170663686493 -0.827194519429179
4659000000.0 0.546218069884949 -0.8201256013379405
4662000000.0 0.5636290066310736 -0.8608951142293912
4666000000.0 0.5666837155820583 -0.8459258736446511
4669000000.0 0.5662957369427655 -0.8461068568560757
4672000000.0 0.5124586592053648 -0.883091767843539
4675000000.0 0.5189625064892862 -0.8684996088048828
4678000000.0 0.5124855650429527 -0.822618912484055
4681000000.0 0.49474017090702804 -0.9020968834847305
4684000000.0 0.4952151419995531 -0.8775388916002381
4688000000.0 0.46698971045778026 -0.8890944029867991
4691000000.0 0.5173542967232613 -0.8655859547060882
4694000000.0 0.48636239565712003 -0.8721882057631332
4697000000.0 0.4364057621303976 -0.8641842311598034
4700000000.0 0.48986706813849934 -0.889299633949437
4703000000.0 0.47044455298271215 -0.8532363060019379
4706000000.0 0.42810533117690586 -0.9154469040891328
4709000000.0 0.41481726591294693 -0.9327431669156884
4712000000.0 0.45501946251401615 -0.8982079051239205
4716000000.0 0.44611629726950724 -0.9187149974905151
4719000000.0 0.48618624105951735 -0.9095776877016817
4722000000.0 0.4474474164477577 -0.8950769337684592
4725000000.0 0.3976635112254012 -0.9348608195813503
4728000000.0 0.4006108974986623 -0.8990398925317651
4731000000.0 0.4489518818281119 -0.9687749075106507
4734000000.0 0.40417079346042584 -0.9360104005434131
4738000000.0 0.4176292965246474 -0.9536194502604682
4741000000.0 0.3961574705383533 -0.9696284214516697
4744000000.0 0.3270331799031001 -0.9634108222500963
4747000000.0 0.3711198207524839 -0.915992307828247
4750000000.0 0.3505576649206494 -0.9300400271947015
4753000000.0 0.3510372929731679 -0.9643262935198866
4756000000.0 0.3234298157146927 -0.9847504951306101
4759000000.0 0.32325024865982055 -0.9820448438818901
4762000000.0 0.2939641806284459 -0.9835816840429691
4766000000.0 0.29166205381837257 -0.9554208482927845
4769000000.0 0.29664811854779444 -0.9876526599995449
4772000000.0 0.2829753824538652 -1.0020057457562856
4775000000.0 0.28258044819834255 -1.0070052664651494
4778000000.0 0.25599086949752564 -0.9816192696348339
4781000000.0 0.2700014904234846 -0.9737330658657319
4784000000.0 0.28194383479680496 -0.9705037565387894
4788000000.0 0.2434596837015068 -0.9930193136101801
4791000000.0 0.22526766854603428 -0.9693740970730337
4794000000.0 0.2750671534576233 -1.014364182905517
4797000000.0 0.21889403385734416 -0.9852711737525631
4800000000.0 0.21045969456547498 -0.9743839384476658
4803000000.0 0.16281988586229917 -0.9963969545052789
4806000000.0 0.193020314688258 -1.0228788246425615
4809000000.0 0.1506493331599153 -1.0138129214717335
4812000000.0 0.12141771804651309 -0.9810406789029027
4816000000.0 0.19463299016221222 -0.9615980266101494
4819000000.0 0.18520569828266792 -1.0166309833390863
4822000000.0 0.16410784885637938 -1.0491071839800459
4825000000.0 0.1472510131471827 -1.0336405321953692
4828000000.0 0.1295215081951316 -1.0145388125650228
4831000000.0 0.09238890690593156 -1.0487225743262618
4834000000.0 0.12379231807658195 -1.0369064982629688
4838000000.0 0.08808743421735755 -1.0300751746743235
4841000000.0 0.0860202792407049 -0.9955822963709823
4844000000.0 0.10886972570763322 -0.9977582206569428
4847000000.0 0.11605935459382298 -0.98023607248012
4850000000.0 0.07442323648076962 -1.0299536465779484
4853000000.0 0.0774362426580895 -1.0012466928489392
4856000000.0 0.04810870294100402 -1.008958909184801
4859000000.0 0.04908228403139667 -1.060924613599794
4862000000.0 0.06150860186988683 -0.9944966018944316
4866000000.0 0.015403563135813793 -1.0373133047245682
4869000000.0 0.007438152359405571 -1.0257948005305988
4872000000.0 -0.011179004204931628 -1.0468953407639663
4875000000.0 0.05733026673468879 -1.0688104355314263
4878000000.0 0.0076234427143805975 -1.0202635479896969
4881000000.0 -0.069847594099982 -1.0654127020609543
4884000000.0 0.005662369097982574 -1.0211731812847522
4888000000.0 -0.003230171441777778 -1.0367070068295596
4891000000.0 -0.012392602307923946 -1.0524809168931837
4894000000.0 -0.04136893691439775 -0.9946075489493978
4897000000.0 -0.026354316548061193 -1.006364422535462
4900000000.0 -0.05918353094072257 -1.0587825412564793
4903000000.0 -0.06048504523778176 -1.0592975749041584
4906000000.0 -0.07526615117232562 -1.0321219495808525
4909000000.0 -0.10419087034544436 -1.0519750786826907
4912000000.0 -0.12835222634612997 -1.0699481350192477
4916000000.0 -0.08766989644612436 -1.0722158765477787
4919000000.0 -0.11433166859784473 -1.0484177553233156
4922000000.0 -0.07605733911134088 -1.0611140533669097
4925000000.0 -0.16741356223741824 -1.0075668929495087
4928000000.0 -0.0734978581787155 -1.0179637279220848
4931000000.0 -0.09250674647337485 -1.060103078739218
4934000000.0 -0.131165954273483 -0.9774055883464939
4938000000.0 -0.18663846530929895 -1.02043044665899
4941000000.0 -0.14083972382547982 -1.0118124574769967
4944000000.0 -0.15435764534073573 -0.9345327103717107
4947000000.0 -0.18074583919944873 -0.9950655410606909
4950000000.0 -0.23600642342456035 -0.9939549816901029
4953000000.0 -0.24697881444503877 -1.0489076234782604
4956000000.0 -0.22317784498556958 -0.9968887666378877
4959000000.0 -0.2386461859265133 -0.9566367194296183
4962000000.0 -0.2165761282967468 -1.0143996306549956
4966000000.0 -0.22561737795176673 -1.0037317105067491
4969000000.0 -0.24162063255900856 -1.0227946373852848
4972000000.0 -0.2736921109991918 -0.9875277549815857
4975000000.0 -0.2496886959835686 -1.0245500407756247
4978000000.0 -0.29148646234165704 -0.9853052912313935
4981000000.0 -0.31015469925040995 -0.978029461840992
4984000000.0 -0.24827544158023265 -0.9530250860203547
4988000000.0 -0.2874191079326916 -0.9762101479024625
4991000000.0 -0.2524454100203904 -1.0295918844481369
4994000000.0 -0.2734664476902985 -0.9870124575843
4997000000.0 -0.36927565233668297 -0.9811459163875006
5000000000.0 -0.3097939449833591 -1.0027940902639827
5003000000.0 -0.3409639781385497 -1.0143509892054041
5006000000.0 -0.3543264693641083 -1.029705996916787
5009000000.0 -0.30439738605365274 -0.9893706190964345
5012000000.0 -0.3800375350452279 -0.9467685377982962
5016000000.0 -0.3372084978180017 -0.9941539313142649
5019000000.0 -0.3532454432956632 -0.9584845747358897
5022000000.0 -0.3967549947348864 -0.9651616901246565
5025000000.0 -0.40497337352025414 -1.0267245890615033
5028000000.0 -0.44717609216480925 -0.9818993655454262
5031000000.0 -0.4305673341867394 -0.9247365090065057
5034000000.0 -0.450467005143214 -0.9544119218549987
5038000000.0 -0.4299539755913748 -0.9078887668129383
5041000000.0 -0.4175842861882918 -0.962846313441536
5044000000.0 -0.4022640135849429 -0.9112220335964202
5047000000.0 -0.42820449443309677 -0.94212055683755
5050000000.0 -0.3708872655105303 -0.9610975684258469
5053000000.0 -0.4413872196241322 -0.9607742230841978
5056000000.0 -0.40320845438877617 -0.9389990410856504
5059000000.0 -0.4132074190848544 -0.9350360004716362
5062000000.0 -0.5103798093429391 -0.8858373234374619
5066000000.0 -0.4214493041882309 -0.9225397668613426
5069000000.0 -0.5120376518542786 -0.9272868141944858
5072000000.0 -0.4872624401774496 -0.9145443750079549
5075000000.0 -0.46291829231697645 -0.8941383826453915
5078000000.0 -0.5142903209864034 -0.8610559630741841
5081000000.0 -0.5193003704988892 -0.8728026521992277
5084000000.0 -0.5644914462033774 -0.903529906641394
5088000000.0 -0.5418860325969799 -0.8781024830984647
5091000000.0 -0.5620144601513877 -0.8729629804289472
5094000000.0 -0.5845588810556512 -0.9086905124246553
5097000000.0 -0.5330306996450341 -0.871960041627093
5100000000.0 -0.5491087053906705 -0.8500400879063751
5103000000.0 -0.6218622412981922 -0.8194666217448162
5106000000.0 -0.6036446600339931 -0.850106764408346
5109000000.0 -0.5311573629551078 -0.8585514786159072
5112000000.0 -0.6098076274572283 -0.8505859927111263
5116000000.0 -0.5842355459263855 -0.8087221096159097
5119000000.0 -0.6636867018483315 -0.8330050338279202
5122000000.0 -0.6493670727541508 -0.8306829113933223
5125000000.0 -0.5951800037588504 -0.8158593929098675
5128000000.0 -0.6565137957348279 -0.8024435434914372
5131000000.0 -0.6153616890040505 -0.7939964678286734
5134000000.0 -0.5918667824069629 -0.7960659834615585
5138000000.0 -0.6041054809181986 -0.8184789939072291
5141000000.0 -0.6179972718775277 -0.8281743144929621
5144000000.0 -0.6713572987260007 -0.8271525691621026
5147000000.0 -0.6268818497027434 -0.8246087390242951
5150000000.0 -0.6711296428121393 -0.7852385242485199
5153000000.0 -0.6645027950651485 -0.8013894347561594
5156000000.0 -0.6619204293917692 -0.7925700885916689
5159000000.0 -0.6952565794354669 -0.8454818663105659
5162000000.0 -0.7103657539930478 -0.7474700860444378
5166000000.0 -0.7115927236246679 -0.7501669087947194
5169000000.0 -0.7197563733114137 -0.7701512656654963
5172000000.0 -0.7070430802309275 -0.7743405226745431
5175000000.0 -0.7421759340781483 -0.7681949856859418
5178000000.0 -0.7279666386916561 -0.7375143444556439
5181000000.0 -0.742049071588502 -0.7503618255703095
5184000000.0 -0.7074077430698295 -0.6969961933028145
5188000000.0 -0.7634875261782209 -0.7713751466327798
