! Created with skrf 1.8.0 (http://scikit-rf.org).
# Hz S RI R 50.0 
!freq ReS11 ImS11
4000000000.0 0.5948704088977249 0.8041255002676684
4003000000.0 0.6766464771106883 0.8173954731995104
4006000000.0 0.7145867106327869 0.7424634397251254
4009000000.0 0.6800649686616448 0.7920698163378945
4012000000.0 0.6957806265507807 0.8063096056726708
4016000000.0 0.7150551938636883 0.7576596187233153
4019000000.0 0.6695028838128168 0.7480285052318736
4022000000.0 0.6427738980112498 0.7997657707336212
4025000000.0 0.7553649778692638 0.7103917527220648
4028000000.0 0.7303385861670768 0.7308246178251292
4031000000.0 0.705593027248069 0.6654929197477463
4034000000.0 0.7377488355835886 0.6806138184593207
4038000000.0 0.769950361721109 0.7285912014128877
4041000000.0 0.7542172392728139 0.7049766191917558
4044000000.0 0.7501178751550115 0.7272678050638961
4047000000.0 0.766844004752299 0.753495389123565
4050000000.0 0.8382749565284995 0.706496610807756
4053000000.0 0.7688021358523389 0.6358496261571953
4056000000.0 0.7612476167170144 0.6893446366513625
4059000000.0 0.7400223265700376 0.6787276279269194
4062000000.0 0.7993033178546478 0.6569832091669507
4066000000.0 0.7485695373105961 0.5710203288134068
4069000000.0 0.7958155578622146 0.6384350580095612
4072000000.0 0.7643712598312493 0.6423281775746861
4075000000.0 0.7935423725972682 0.712745505446535
4078000000.0 0.8352875764098493 0.6197728432929918
4081000000.0 0.8234211668372028 0.6775366489761772
4084000000.0 0.8242744563977114 0.5732223996755781
4088000000.0 0.7751825907381453 0.6501582416191864
4091000000.0 0.8581725340477302 0.6634246532495296
4094000000.0 0.8112619297433475 0.6441862503259224
4097000000.0 0.8320414081611464 0.5790619087957734
4100000000.0 0.8558587355150102 0.6033229055316054
4103000000.0 0.8649271150828466 0.6026190387792227
4106000000.0 0.8838508509748737 0.5745570881152389
4109000000.0 0.8457625740442536 0.5396914185700359
4112000000.0 0.8361154571783247 0.5645150384521065
4116000000.0 0.8580486615174953 0.5471892343733467
4119000000.0 0.866995519296367 0.5134360192554425
4122000000.0 0.8592786609829797 0.5417916922037391
4125000000.0 0.9042136800862227 0.5074358042196057
4128000000.0 0.8311959786016224 0.5348159783395409
4131000000.0 0.8707427032039102 0.49237270592286675
4134000000.0 0.8799434510876551 0.5088427557272949
4138000000.0 0.87882284527079 0.5086254332566664
4141000000.0 0.8956745951421904 0.5174530584094896
4144000000.0 0.902894003597836 0.51793835898965
4147000000.0 0.9054557803266167 0.464751842184746
4150000000.0 0.9541569306971427 0.48062966039303984
4153000000.0 0.9263944648743133 0.43889798946117153
4156000000.0 0.9191554146122309 0.47862620433187353
4159000000.0 0.8828457190647572 0.42093604504053556
4162000000.0 0.9053079428765214 0.43756040161339826
4166000000.0 0.9299679728873307 0.43954353246619904
4169000000.0 0.897746056387353 0.413262576151205
4172000000.0 0.9350871515227391 0.3944851538643656
4175000000.0 0.9510759172413177 0.4220506617138355
4178000000.0 0.9359007052772707 0.42856977676343444
4181000000.0 0.9559621663191453 0.3798599635192551
4184000000.0 0.9539411964728092 0.3829704759450649
4188000000.0 0.9430475881643099 0.37873010150848774
4191000000.0 0.930990985148315 0.4043862473273689
4194000000.0 0.9330900168139813 0.3603813244174908
4197000000.0 0.9750073909493584 0.3684004916939629
4200000000.0 0.9430951089246395 0.35078829843607995
4203000000.0 0.9743256904702479 0.36039788311781784
4206000000.0 0.9603778846493167 0.35370127762978393
4209000000.0 0.959881336233156 0.32694365405241127
4212000000.0 0.9882014893869894 0.28192513955792975
4216000000.0 0.9763373270053388 0.31783197467435215
4219000000.0 0.9930474015133466 0.2970679799719804
4222000000.0 0.9838898678281838 0.28486178183164435
4225000000.0 0.9768164867305758 0.2841227061884267
4228000000.0 0.9880054913789778 0.2734458320900315
4231000000.0 1.0007067247876051 0.26053780930170617
4234000000.0 1.00422237664291 0.24159109947833207
4238000000.0 0.9715198906252672 0.23507371771685567
4241000000.0 0.9846792276355723 0.2230267792681529
4244000000.0 0.9862358480094569 0.22858102385885443
4247000000.0 0.981858839152337 0.23541093230219906
4250000000.0 0.9860714454991106 0.21376502374714568
4253000000.0 0.9820153186333784 0.1883360851252101
4256000000.0 1.0125487520903858 0.19712655591857986
4259000000.0 0.9608609445627572 0.18624890284927617
4262000000.0 1.0032153077141361 0.14885985261961723
4266000000.0 1.0142222104725942 0.15824790194282667
4269000000.0 1.0022254985219723 0.17805743281866312
4272000000.0 0.9996272936150896 0.15884672850310821
4275000000.0 1.028157065106649 0.1509138164430477
4278000000.0 1.0200266794439816 0.12530744277072037
4281000000.0 1.0044618600426336 0.1392633262245665
4284000000.0 1.0423312737759889 0.08231367340482876
4288000000.0 1.0082887541793848 0.14720444962487994
4291000000.0 1.0045379881434036 0.08754981377021505
4294000000.0 1.0047744463016302 0.08436640672376407
4297000000.0 0.9880805195668687 0.1007855654826071
4300000000.0 0.9756533866418411 0.07822607393877215
4303000000.0 0.994896163866265 0.05298563400240826
4306000000.0 0.9825270749302799 0.07902948766955167
4309000000.0 1.0089983215436642 0.07298598940154775
4312000000.0 1.0160824039831546 0.07590466550787014
4316000000.0 1.0188592924120425 0.036895522051512156
4319000000.0 0.983744761197976 0.0539215369792969
4322000000.0 0.9747983452278207 -0.01112605702336475
4325000000.0 1.022241158118526 -0.006376577630780977
4328000000.0 0.9966053895094797 -0.01469993936860936
4331000000.0 1.0049418731704267 -0.03553346229062933
4334000000.0 1.0133442064625782 0.004049652319501662
4338000000.0 1.0148930019866182 0.016425417043072085
4341000000.0 1.0434273050933425 0.001704941650970182
4344000000.0 1.0305697377839012 -0.024922011500399785
4347000000.0 1.0112682629932082 -0.040129907132642695
4350000000.0 0.9669739651901792 -0.07694844394819458
4353000000.0 0.990571793450534 -0.0709371082674131
4356000000.0 0.9955288190724093 -0.0992953009744418
4359000000.0 0.9613155703829447 -0.07464759906197865
4362000000.0 1.000860542919008 -0.15238087542939965
4366000000.0 1.0296054448433503 -0.10505150013798338
4369000000.0 0.9606063299445514 -0.1385452740482223
4372000000.0 0.9843757303895637 -0.15596688949650991
4375000000.0 0.9859317852551364 -0.1040025175702059
4378000000.0 0.9680199348531503 -0.13539532937721382
4381000000.0 0.9823605555999617 -0.13961502197583767
4384000000.0 1.0525619978242946 -0.18754641958867946
4388000000.0 0.9697820491465132 -0.15225354660300344
4391000000.0 0.9840133469946317 -0.16010086399157492
4394000000.0 0.9586529795658916 -0.18803655657692803
4397000000.0 0.9960795709217738 -0.19667802682594124
4400000000.0 1.0198650511318539 -0.22059344173099976
4403000000.0 0.9917126851663202 -0.21570638812618764
4406000000.0 0.984147647715185 -0.24107231694540227
4409000000.0 1.0052151582262652 -0.2326760715253255
4412000000.0 0.9559507803341861 -0.27939380652576434
4416000000.0 0.958579939747886 -0.25238137606326766
4419000000.0 0.9579050969387352 -0.2699936954107274
4422000000.0 0.9731533660394749 -0.23697643236491772
4425000000.0 0.9841949460196237 -0.2570674389836368
4428000000.0 0.9639366208896032 -0.2946476651825272
4431000000.0 0.9800658155431299 -0.2869239411618476
4434000000.0 0.9461790073888571 -0.29706204794927693
4438000000.0 0.9869320440225564 -0.31787410917699765
4441000000.0 0.9638688259883859 -0.3093541823973674
4444000000.0 0.9366724274768996 -0.2980344997580451
4447000000.0 0.9371223948826518 -0.34168615586992057
4450000000.0 0.9495094269687143 -0.33243005757513344
4453000000.0 0.9678373796579566 -0.34876016328660353
4456000000.0 0.9000569194129561 -0.3528555967676926
4459000000.0 0.8921109492728541 -0.36759319151712444
4462000000.0 0.9870033828654339 -0.3918836347220236
4466000000.0 0.9770803396854231 -0.41431837403653937
4469000000.0 0.940553129443102 -0.3867533398705316
4472000000.0 0.9274051804265575 -0.42131725057402825
4475000000.0 0.9002647202119813 -0.4019347132550045
4478000000.0 0.9446007319685378 -0.45508817645966126
4481000000.0 0.89502230090111 -0.4319532472436219
4484000000.0 0.8938391979327258 -0.4604302998275187
4488000000.0 0.8998730675750027 -0.44069746574570456
4491000000.0 0.8981163581746751 -0.45601710594987116
4494000000.0 0.8933922912898956 -0.44826285878420863
4497000000.0 0.9057255496342518 -0.45034856060672496
4500000000.0 0.8870934075765167 -0.464627027355107
4503000000.0 0.8963234585533237 -0.48242887747084134
4506000000.0 0.8706715007210135 -0.4776858708812985
4509000000.0 0.857552971473506 -0.47977481825486057
4512000000.0 0.8502908147493137 -0.5258024564750428
4516000000.0 0.8901124183609365 -0.5158458204909407
4519000000.0 0.8549886162374312 -0.49905886853528725
4522000000.0 0.851792116263913 -0.539404381352274
4525000000.0 0.8862074786944223 -0.49793659366568965
4528000000.0 0.8673344500936149 -0.5539290450520606
4531000000.0 0.8433113469484508 -0.5288398175823567
4534000000.0 0.8399015408896124 -0.545363578948705
4538000000.0 0.8275253911047149 -0.5607051013921619
4541000000.0 0.8090803366996903 -0.5945190419295532
4544000000.0 0.8184953895701408 -0.5657170527390624
4547000000.0 0.8130546337657742 -0.5555475308798221
4550000000.0 0.8176080464303503 -0.5972694354968902
4553000000.0 0.8042326006850717 -0.6007007099013179
4556000000.0 0.7668177480882086 -0.5953259761704259
4559000000.0 0.7924566480872249 -0.6236272820061628
4562000000.0 0.8109079815970486 -0.5920862101195623
4566000000.0 0.7863194556169895 -0.6418601612629438
4569000000.0 0.7656838593136905 -0.6273121870008627
4572000000.0 0.7720977319358323 -0.6403026674633134
4575000000.0 0.7531167807191577 -0.6738706916974206
4578000000.0 0.7747268764135451 -0.673410943635399
4581000000.0 0.7456929801754694 -0.673692015475292
4584000000.0 0.7333025274248918 -0.675583291557648
4588000000.0 0.7670518212272576 -0.6740326583482525
4591000000.0 0.7311850358621009 -0.6725681839607687
4594000000.0 0.7210134882282239 -0.692611128236393
4597000000.0 0.7332489642369677 -0.6928204770637474
4600000000.0 0.7069068337414591 -0.7149349540323212
4603000000.0 0.7072381111601994 -0.7199603337991484
4606000000.0 0.7123498748783935 -0.7102872315519827
4609000000.0 0.7023808428604527 -0.7160047933557236
4612000000.0 0.6889094675454992 -0.7380278440822573
4616000000.0 0.6798063781787027 -0.7271434462706697
4619000000.0 0.6725064693687306 -0.7447819731337855
4622000000.0 0.691702375785043 -0.7351497179249935
4625000000.0 0.634873193221352 -0.7695116747307326
4628000000.0 0.6728914270904107 -0.7477050263095791
4631000000.0 0.6382501627379296 -0.7587173258866899
4634000000.0 0.6378566204324342 -0.7756568022922475
4638000000.0 0.6443336748556399 -0.7686596237688165
4641000000.0 0.6449552987823708 -0.777531276013039
4644000000.0 0.6211568193808097 -0.7961710129013041
4647000000.0 0.6166303069564418 -0.7904312690650064
4650000000.0 0.6097912636381735 -0.7946191741020794
4653000000.0 0.619675694136773 -0.8227203053696319
4656000000.0 0.6022655450996723 -0.8173995508497243
4659000000.0 0.5881997363626049 -0.8222728840844648
4662000000.0 0.5871798489868894 -0.8262761493589753
4666000000.0 0.5512535655496852 -0.8361289614648936
4669000000.0 0.5796987472014687 -0.8205354651832154
4672000000.0 0.555338816386709 -0.8588008069823087
4675000000.0 0.5269209537475461 -0.8403067608634632
4678000000.0 0.5417610761408327 -0.8254140249003115
4681000000.0 0.5389890493992042 -0.8673974604438417
4684000000.0 0.508130502714143 -0.8803620025834888
4688000000.0 0.499410848674672 -0.8565397533558873
4691000000.0 0.5398719563682508 -0.8747070832519974
4694000000.0 0.5328852501679787 -0.8689494936059969
4697000000.0 0.4765681366611314 -0.8534319840021305
4700000000.0 0.5310133856031227 -0.8796143572937987
4703000000.0 0.4870082285088829 -0.8304702761904006
4706000000.0 0.46766943770802716 -0.909822482543385
4709000000.0 0.4697760415423653 -0.881716806390224
4712000000.0 0.4738385370776801 -0.9045382080030434
4716000000.0 0.4627201539545856 -0.9049215047074468
4719000000.0 0.48218157833355735 -0.9076268597732519
4722000000.0 0.4669398170208433 -0.91305848566876
4725000000.0 0.45173077554663654 -0.9019009171761154
4728000000.0 0.42769346251716056 -0.9261107179411161
4731000000.0 0.41116285319090873 -0.9267597446352931
4734000000.0 0.4453116499131058 -0.9170765665370798
4738000000.0 0.4311419424611309 -0.9657568620505458
4741000000.0 0.3890096918721837 -0.9754351811840334
4744000000.0 0.3790720983495124 -0.9456019514968638
4747000000.0 0.38918589404123566 -0.917644776876027
4750000000.0 0.36861627152100346 -1.0057634290274449
4753000000.0 0.37122516459642196 -0.9541276816505347
4756000000.0 0.35426562736272 -0.9658334759668024
4759000000.0 0.37633369690898694 -0.9536651356562149
4762000000.0 0.33953311137109277 -0.9848091114360219
4766000000.0 0.32011183330381743 -0.9477566919766838
4769000000.0 0.3204770111669931 -0.9779223484321845
4772000000.0 0.3306810837259135 -0.9596215219399798
4775000000.0 0.29457153089669985 -1.026897869901716
4778000000.0 0.324117205802974 -0.9910531280627727
4781000000.0 0.2874822163614972 -0.9555664128726746
4784000000.0 0.31140032089931985 -0.9898604897097906
4788000000.0 0.27084036240114806 -0.9740460067658565
4791000000.0 0.270230283439768 -0.9811996456208775
4794000000.0 0.26767929016013114 -1.0062576337444868
4797000000.0 0.23876802142227796 -0.966980077302101
4800000000.0 0.22795915868909994 -0.9783587769164739
4803000000.0 0.1943546153615814 -1.0102097082123154
4806000000.0 0.2269975308501142 -0.9970409492288264
4809000000.0 0.17975431092618369 -1.0045517406082518
4812000000.0 0.16206808165676914 -1.0010172698815123
4816000000.0 0.2027699414753925 -0.9704333352865526
4819000000.0 0.23003883143640635 -1.0229446948205703
4822000000.0 0.21235324667402228 -1.0338507948506848
4825000000.0 0.20233954250858607 -1.0275389059444526
4828000000.0 0.16376835707800452 -0.9999056014161948
4831000000.0 0.08256982920266642 -1.0131450041662773
4834000000.0 0.15800308644581298 -1.0077407099697757
4838000000.0 0.11317285767461407 -1.0414040944782441
4841000000.0 0.11160872103543659 -0.9863314448361277
4844000000.0 0.16255118466993582 -1.0434694289722004
4847000000.0 0.12079755072790178 -0.9882725021990215
4850000000.0 0.08331161465296687 -1.043530999394384
4853000000.0 0.10547724755859722 -0.9943288654935138
4856000000.0 0.07597105191692674 -1.0165207600140493
4859000000.0 0.06076721048639371 -1.0493838404273648
4862000000.0 0.08015262872572852 -0.9930909148469801
4866000000.0 0.045834079152060864 -1.055526761760684
4869000000.0 0.04452670895771692 -1.0140750475656892
4872000000.0 0.021267152102516885 -1.0499356216678093
4875000000.0 0.08677220330150119 -1.066658099479402
4878000000.0 0.0400601932766412 -1.0261332900095828
4881000000.0 -0.001505038955983737 -1.0828307207697438
4884000000.0 0.03442406330096118 -1.0180849806695123
4888000000.0 0.03895849268783597 -1.0390720492109542
4891000000.0 0.026203291762520366 -1.0381966034007548
4894000000.0 -0.03292541364390233 -1.0176860219958643
4897000000.0 -0.007160926105513835 -1.0172626564406304
4900000000.0 -0.020951894703195674 -1.0380028899674316
4903000000.0 -0.002985978082711227 -1.0445950151840693
4906000000.0 -0.05356700604937234 -1.0618103008778466
4909000000.0 -0.06919509960557474 -1.0437769631287224
4912000000.0 -0.08054682924697729 -1.0675346177791474
4916000000.0 -0.06492591362474909 -1.0674257720342384
4919000000.0 -0.06628379321255903 -1.0297207253298866
4922000000.0 -0.07334317362184398 -1.0338006479296244
4925000000.0 -0.12047631789714264 -1.0111235636785543
4928000000.0 -0.05043260823989547 -1.0123629151859732
4931000000.0 -0.07797380336484493 -1.0638328000629467
4934000000.0 -0.07683769770737765 -0.9807638952666193
4938000000.0 -0.19364146447993552 -1.0302609910693723
4941000000.0 -0.12337861620718614 -0.9946776695611844
4944000000.0 -0.14123618958456166 -0.9639015710071701
4947000000.0 -0.16259498666578256 -1.0161905236179465
4950000000.0 -0.16798351610228845 -0.9949147279921584
4953000000.0 -0.2035200668306273 -1.033777170855791
4956000000.0 -0.18245284559252756 -1.0150999129552079
4959000000.0 -0.21932472715744342 -0.9615217129102276
4962000000.0 -0.22734203455492005 -1.0441647679229518
4966000000.0 -0.19266764707590295 -1.066752099234232
4969000000.0 -0.2261843374437535 -1.040534379739871
4972000000.0 -0.25305789109771504 -0.989191990868414
4975000000.0 -0.23614628621162367 -1.001700527626984
4978000000.0 -0.2616804947559149 -1.0040001762216706
4981000000.0 -0.2722089987656401 -0.9876353938376435
4984000000.0 -0.2554298170112054 -0.993269949104622
4988000000.0 -0.26217149080064156 -1.0074258573084693
4991000000.0 -0.21847956464258966 -0.995812863520507
4994000000.0 -0.25511846076785666 -1.0037402703095024
4997000000.0 -0.3190940772562246 -0.9954704334524103
5000000000.0 -0.3020113965317818 -1.004589368702422
5003000000.0 -0.3070471918616871 -1.00114962852102
5006000000.0 -0.3347500101646068 -1.0206169097248885
5009000000.0 -0.2885546466827489 -0.9536419901954559
5012000000.0 -0.368100147362936 -0.9773255467382118
5016000000.0 -0.30227515898148755 -1.006367155448975
5019000000.0 -0.37891134766001866 -0.9666552988911443
5022000000.0 -0.32219780825666744 -0.9949715264314394
5025000000.0 -0.3601141848447637 -1.0269124679491046
5028000000.0 -0.3898459339308754 -0.9681173946330011
5031000000.0 -0.3840569630237223 -0.963160758681285
5034000000.0 -0.427052329717583 -0.9699295038836153
5038000000.0 -0.3870035277321896 -0.9085740543201193
5041000000.0 -0.37003837293786546 -0.9879478637891653
5044000000.0 -0.3642083175012012 -0.9200096874131499
5047000000.0 -0.42170645172709403 -0.9672935537463304
5050000000.0 -0.34945233933349984 -0.9751196642556408
5053000000.0 -0.4710010640027946 -0.974392862132941
5056000000.0 -0.41830941470059535 -0.9558173412017552
5059000000.0 -0.4019291689100872 -0.9554652932985904
5062000000.0 -0.48824592170268943 -0.9319476564292617
5066000000.0 -0.41422905072045235 -0.9414861765646587
5069000000.0 -0.435468550588921 -0.947590685285086
5072000000.0 -0.4494780781679507 -0.9195085161383436
5075000000.0 -0.45837796944894904 -0.9156086398184355
5078000000.0 -0.5047091608285075 -0.8906701074251158
5081000000.0 -0.48008627380157237 -0.8945338011065992
5084000000.0 -0.5116779863530855 -0.9325082596656917
5088000000.0 -0.49174582058912164 -0.9133897950043046
5091000000.0 -0.5350167770284968 -0.9018091433502871
5094000000.0 -0.5317382323998155 -0.8617402212625401
5097000000.0 -0.49535890197555077 -0.9151416260963929
5100000000.0 -0.5277346406549687 -0.867723142346489
5103000000.0 -0.5616726068495573 -0.8534461615627303
5106000000.0 -0.5539549948661926 -0.8874389520444863
5109000000.0 -0.509640317568807 -0.8884298274787272
5112000000.0 -0.5311658123079688 -0.8210199351018477
5116000000.0 -0.5537999814130924 -0.8702023735391891
5119000000.0 -0.5797988893460829 -0.8849541972140047
5122000000.0 -0.5877691934407274 -0.8515945586319276
5125000000.0 -0.5461513253964537 -0.8421344050942762
5128000000.0 -0.5779880332053542 -0.8008020650289587
5131000000.0 -0.581081389288608 -0.8181821113047172
5134000000.0 -0.5778758111739127 -0.8600759822286508
5138000000.0 -0.6006761513157041 -0.8503688987059442
5141000000.0 -0.5706069205510611 -0.8466792207937182
5144000000.0 -0.6369118480597424 -0.8543417288805936
5147000000.0 -0.6871147602144727 -0.7980324800490308
5150000000.0 -0.6349852558510587 -0.8259935641325652
5153000000.0 -0.6717484109287599 -0.8093530179569939
5156000000.0 -0.6719519898042473 -0.8342333155905881
5159000000.0 -0.6972617285464364 -0.8558536847460045
5162000000.0 -0.6724872919262723 -0.7913995343735529
5166000000.0 -0.6470626195793084 -0.762462634428958
5169000000.0 -0.7055351392161795 -0.8204100666847961
5172000000.0 -0.6623752459588623 -0.8072367450081461
5175000000.0 -0.7072885583347499 -0.8388517310807855
5178000000.0 -0.69680769448264 -0.7710099584805211
5181000000.0 -0.6816876875757201 -0.7946552128076173
5184000000.0 -0.7454537449294434 -0.7461142583215862
5188000000.0 -0.7342680573558368 -0.7597163263681025
