! Created with skrf 1.8.0 (http://scikit-rf.org).
# Hz S RI R 50.0 
!freq ReS11 ImS11
4000000000.0 0.6001399488709143 0.7978735793940797
4003000000.0 0.6479161787986807 0.841722600658375
4006000000.0 0.6707630193338113 0.8326321795412444
4009000000.0 0.6966933110538661 0.828392256422547
4012000000.0 0.631956453904332 0.8866517062546683
4016000000.0 0.717090105911406 0.8089245412891708
4019000000.0 0.6590251884105107 0.7946053699835036
4022000000.0 0.6418244124054562 0.8311613371497659
4025000000.0 0.7607372225792354 0.7585120443955617
4028000000.0 0.7177772575233142 0.7861747819591736
4031000000.0 0.6811948200995894 0.7730640924022357
4034000000.0 0.7016664685900262 0.6998845676197087
4038000000.0 0.7386395936199109 0.7414380389116646
4041000000.0 0.7072091270522313 0.75829065856024
4044000000.0 0.7323797519073818 0.7896111648069692
4047000000.0 0.7307834938172304 0.8120731285325372
4050000000.0 0.7647154550419732 0.7084863492769231
4053000000.0 0.7136678331270808 0.6754914662038021
4056000000.0 0.7428699757222004 0.7179414898192965
4059000000.0 0.7419685052731665 0.6729859611030977
4062000000.0 0.7541312057788767 0.6696276144323103
4066000000.0 0.7227905267644972 0.6350046868028645
4069000000.0 0.837109440112969 0.7058058550008357
4072000000.0 0.7435382792570853 0.7310104418492258
4075000000.0 0.7864661200886284 0.7363990420221345
4078000000.0 0.8052566177957672 0.6650393971050493
4081000000.0 0.7646019861874297 0.7142987006885494
4084000000.0 0.8172475026566335 0.617943219280503
4088000000.0 0.7966000702680754 0.6398772840644464
4091000000.0 0.8682203519685049 0.6767529315871348
4094000000.0 0.7846858913510374 0.6393215209706103
4097000000.0 0.8211001725253813 0.6121037852089299
4100000000.0 0.8514113394856474 0.6070706744539136
4103000000.0 0.8435734422848415 0.6080278211776022
4106000000.0 0.8742784073926461 0.6115245306879638
4109000000.0 0.8613223167704138 0.5794444931657994
4112000000.0 0.8549389715080324 0.5629083497643774
4116000000.0 0.8511059655185362 0.6166033360569637
4119000000.0 0.8256946412146566 0.5557835056399915
4122000000.0 0.8839924187471607 0.5441976294741848
4125000000.0 0.9051502955889907 0.5709950034886997
4128000000.0 0.8606388286121124 0.5322506047196969
4131000000.0 0.8334338191530725 0.5560749423424738
4134000000.0 0.8654181413205567 0.5310827481245787
4138000000.0 0.8571976197764661 0.5159704997651033
4141000000.0 0.8797964620659819 0.49783644070489086
4144000000.0 0.9011823245027362 0.5165283145292405
4147000000.0 0.8898235608697345 0.48800974760315113
4150000000.0 0.9305246504624294 0.5298165089496203
4153000000.0 0.8964597187243708 0.4588237761412154
4156000000.0 0.9164779885684857 0.5291077085601986
4159000000.0 0.883503716084092 0.47423772510434364
4162000000.0 0.8799237025448647 0.5076674170734575
4166000000.0 0.9050343205811342 0.4360841509405382
4169000000.0 0.94386398978266 0.4179946268328356
4172000000.0 0.911832730515054 0.4737283682285011
4175000000.0 0.9247484961557494 0.4546270360384394
4178000000.0 0.9283528955615622 0.45659852644640053
4181000000.0 0.9241158192668704 0.39135646375454725
4184000000.0 0.9463691787011766 0.4225112540330795
4188000000.0 0.9433469811419364 0.40325885745219336
4191000000.0 0.9186751645133683 0.42085051219615005
4194000000.0 0.9238489838175252 0.40712838044667565
4197000000.0 0.9394529637455712 0.38490225025440067
4200000000.0 0.948164496702254 0.377503151921494
4203000000.0 0.9504376471728961 0.38078813637397635
4206000000.0 0.9809927011039268 0.37996435060493766
4209000000.0 0.947939926601545 0.3613535766767156
4212000000.0 0.9391753442073209 0.3160935535118642
4216000000.0 0.9584394009394033 0.33858239044161037
4219000000.0 0.9617165782097808 0.33699817543993016
4222000000.0 0.9715678521100344 0.32339877827232405
4225000000.0 0.9507800476230133 0.3220985494848311
4228000000.0 0.9681108655804487 0.32676770082808404
4231000000.0 0.9649303269673898 0.3005331483800544
4234000000.0 0.9718926336915656 0.28571961908090415
4238000000.0 0.9762154278356038 0.25661621108462196
4241000000.0 0.9854091342460929 0.2604236523375391
4244000000.0 0.9697593273319605 0.279318105102465
4247000000.0 0.9696545679107262 0.2669465712986793
4250000000.0 0.9663686017386581 0.2409700788315733
4253000000.0 0.9699997556113815 0.21719096439826574
4256000000.0 0.9994771981799955 0.22972017498598746
4259000000.0 0.9652431980164072 0.2130168016880795
4262000000.0 0.9823882237589514 0.21011419387940414
4266000000.0 0.9973298132269136 0.18899693269673823
4269000000.0 0.9952540501406043 0.20513119195148435
4272000000.0 0.988417922124166 0.18997352378254273
4275000000.0 1.0004915854796637 0.19530499607558532
4278000000.0 1.010720201485011 0.17356333233998106
4281000000.0 1.0152582797079053 0.1645041120666733
4284000000.0 1.0136499938250105 0.11477677399006006
4288000000.0 1.0072062382038187 0.18877640580271485
4291000000.0 1.0042119293501366 0.13932645025708945
4294000000.0 0.9784488943799431 0.11767273930731385
4297000000.0 0.9976455090979345 0.14092355179732252
4300000000.0 0.9919721767942544 0.11588957908599432
4303000000.0 0.9767714675156931 0.07645096684445683
4306000000.0 1.018277180845915 0.13183499456186212
4309000000.0 1.0044501442249214 0.09144646956989332
4312000000.0 1.0226428858490564 0.12539785581648047
4316000000.0 1.024936984654309 0.11209517911058074
4319000000.0 1.000150451221049 0.09433069615383681
4322000000.0 0.9853630919113243 0.05016680823475038
4325000000.0 1.038972577471349 0.0697048820899497
4328000000.0 1.0010246071572313 0.051475048260904724
4331000000.0 1.0129661237571284 0.018096985602313653
4334000000.0 1.0343678901222895 0.042847414638922554
4338000000.0 1.019628903613289 0.0552039239595397
4341000000.0 0.9978933528464294 0.037991383753421426
4344000000.0 1.0489289089729188 0.012957311884322281
4347000000.0 1.04049474942363 -0.04271493010515044
4350000000.0 0.9677005855166203 -0.036571045738322594
4353000000.0 0.9856146117511533 -0.003947578666086915
4356000000.0 1.0090963779571378 -0.05383170345850377
4359000000.0 0.9584905759602104 -0.04809549556088499
4362000000.0 0.9990177798710063 -0.10250864206096823
4366000000.0 1.0352561439290497 -0.08026857750306138
4369000000.0 0.9719145424184384 -0.05926985154655298
4372000000.0 0.9870929216984463 -0.12988052131283506
4375000000.0 1.0045330620294055 -0.06955836801934188
4378000000.0 0.975002904064199 -0.07966371065950556
4381000000.0 0.9877301578717841 -0.09998598423211985
4384000000.0 1.0705573002927964 -0.13484133163566855
4388000000.0 0.9846562849622881 -0.10033626156346113
4391000000.0 0.9960334122419632 -0.10704712539334003
4394000000.0 0.9593577058822638 -0.14549835773106626
4397000000.0 0.9855376297536036 -0.16449065602721585
4400000000.0 1.0169445513915347 -0.16030037131848351
4403000000.0 1.0234460776447307 -0.1603280355233888
4406000000.0 0.9961632013384966 -0.196087953469517
4409000000.0 1.0227022463437399 -0.20045087280851726
4412000000.0 0.9782854464821037 -0.2469911013196925
4416000000.0 0.9739241764125353 -0.21944166487952987
4419000000.0 0.9807311888671233 -0.22751860288935905
4422000000.0 0.9796141610710338 -0.20519106637444628
4425000000.0 1.0052697667052901 -0.2060836453076981
4428000000.0 0.9856389635210506 -0.24605466737918383
4431000000.0 0.9975326527705113 -0.22806065895554645
4434000000.0 0.956722827526228 -0.2530689407694913
4438000000.0 0.9956877018403747 -0.2635416458664296
4441000000.0 0.9732401091792473 -0.2591694407644133
4444000000.0 0.9415007760413165 -0.2678194392884169
4447000000.0 0.95403062306636 -0.2997922857479755
4450000000.0 0.9494700237004989 -0.2824222385706435
4453000000.0 0.9794397203507644 -0.3051718104864403
4456000000.0 0.9262082535579559 -0.32557219465015863
4459000000.0 0.9077630910169596 -0.31290838986149205
4462000000.0 1.0119748925273337 -0.3490903557979181
4466000000.0 0.9754427827429742 -0.3455241729735416
4469000000.0 0.9557068911050457 -0.33983204845030823
4472000000.0 0.9475425567961079 -0.3796049970998159
4475000000.0 0.9010495579984406 -0.3526258119678851
4478000000.0 0.9660137327870193 -0.40754637436419316
4481000000.0 0.8970126961332846 -0.3773016000709839
4484000000.0 0.908416266208919 -0.44304361029738304
4488000000.0 0.9196231531995623 -0.40213987268505447
4491000000.0 0.9198988694246472 -0.4218531941072663
4494000000.0 0.9092524327087654 -0.41180342613281434
4497000000.0 0.9038454551205028 -0.4010901501521466
4500000000.0 0.9330775095738963 -0.4193340254617651
4503000000.0 0.9467798013354347 -0.44926185153458553
4506000000.0 0.9081681888996618 -0.4316564233056302
4509000000.0 0.8857696469125074 -0.43453876232158417
4512000000.0 0.8740036640674835 -0.4698774790860658
4516000000.0 0.9074736577898557 -0.4850076493839577
4519000000.0 0.8714106802617636 -0.47034698157564575
4522000000.0 0.8796276554533917 -0.4884940468475973
4525000000.0 0.8796041670206984 -0.4507726291615412
4528000000.0 0.9012236449960049 -0.5209961965139128
4531000000.0 0.8798392834988242 -0.49348171222248105
4534000000.0 0.852780364979525 -0.5064068216193629
4538000000.0 0.859982159596814 -0.5221252119759233
4541000000.0 0.8250880569541255 -0.5647367500168486
4544000000.0 0.833620378094456 -0.512814368905132
4547000000.0 0.8431530939690757 -0.5194089578040113
4550000000.0 0.8396584116697574 -0.5607410453357784
4553000000.0 0.838190120435711 -0.5613164205811841
4556000000.0 0.7997128735615295 -0.5508064447654457
4559000000.0 0.8293498864557187 -0.5777803313465057
4562000000.0 0.8052647367684254 -0.5772394047363522
4566000000.0 0.8065947361712174 -0.5931067573021964
4569000000.0 0.786552734002216 -0.5862300347378535
4572000000.0 0.815969638122331 -0.5851707648761948
4575000000.0 0.7858580412435554 -0.6302460585844832
4578000000.0 0.8214651164408988 -0.6130863971928574
4581000000.0 0.7804540572441095 -0.6334192967138508
4584000000.0 0.7796168897679956 -0.6441283240872432
4588000000.0 0.798909700367204 -0.6332776135326956
4591000000.0 0.7855482018186979 -0.6388626049348926
4594000000.0 0.7464286521594371 -0.6614580201458841
4597000000.0 0.7692509547648616 -0.6712619968597118
4600000000.0 0.7207468166143618 -0.6836103324035453
4603000000.0 0.7437367864160204 -0.6877650976640556
4606000000.0 0.7435827480350764 -0.6810680100697651
4609000000.0 0.7410713060517466 -0.6802668983152034
4612000000.0 0.7338306355140419 -0.6998479530471433
4616000000.0 0.7052309726186499 -0.6892625657264041
4619000000.0 0.7238528300940565 -0.6974759389279223
4622000000.0 0.7272109052341966 -0.7170777194438929
4625000000.0 0.6509949437237605 -0.7123090544985677
4628000000.0 0.7058077697826577 -0.7196542638778984
4631000000.0 0.6838924510167077 -0.7415020847422868
4634000000.0 0.6907834836565193 -0.7538699664346135
4638000000.0 0.6901978300282994 -0.7374326767941453
4641000000.0 0.6856500477187059 -0.7534075638549314
4644000000.0 0.670518539170051 -0.7547628840254814
4647000000.0 0.6708048162522092 -0.7683503644530221
4650000000.0 0.6335477744961997 -0.7694701462787497
4653000000.0 0.6719367073542992 -0.7798949618091804
4656000000.0 0.6195751383455579 -0.7815968354839027
4659000000.0 0.6359624683662205 -0.7864199748821593
4662000000.0 0.6262627553143254 -0.8012733772250358
4666000000.0 0.6241979895152014 -0.8055229777508586
4669000000.0 0.6342651320595822 -0.7968811337054017
4672000000.0 0.5928765156139638 -0.8214166102062589
4675000000.0 0.5699234670253674 -0.8414222197315
4678000000.0 0.5797577369410565 -0.8064342125817793
4681000000.0 0.5760051618071975 -0.8414250973397056
4684000000.0 0.5698825992529472 -0.8442413772656236
4688000000.0 0.5496634576279478 -0.8292352479981181
4691000000.0 0.5707880804681492 -0.8405951069741302
4694000000.0 0.5555154794548218 -0.8101030853802544
4697000000.0 0.5228914477817614 -0.8319510030267945
4700000000.0 0.5395186251836369 -0.8188927124664738
4703000000.0 0.5520696701418216 -0.8068227325611361
4706000000.0 0.5129247996986477 -0.867978162030284
4709000000.0 0.5240932740747604 -0.8786318685265653
4712000000.0 0.5034298278771765 -0.8645973639463036
4716000000.0 0.4830162157142973 -0.8978557718579385
4719000000.0 0.5273691222810263 -0.8777644577768546
4722000000.0 0.49646894687303844 -0.875253744050557
4725000000.0 0.4678164773565061 -0.8876252898323332
4728000000.0 0.4645935644303181 -0.8751118352239418
4731000000.0 0.4988584407012122 -0.8967760754209333
4734000000.0 0.4909410431414041 -0.8909487237335207
4738000000.0 0.49595082625886505 -0.9101817861546382
4741000000.0 0.4688330921545441 -0.9529548317557572
4744000000.0 0.40309597482367066 -0.9175838395181201
4747000000.0 0.42456852560025454 -0.9049658961810234
4750000000.0 0.4319406712721856 -0.9272096345350261
4753000000.0 0.42915580775510886 -0.9324928878036974
4756000000.0 0.4060555256909612 -0.9247838170536204
4759000000.0 0.43386577217108024 -0.945996582195904
4762000000.0 0.3827286284041219 -0.9714172370886859
4766000000.0 0.38665331359556054 -0.929743480227629
4769000000.0 0.35826733428143864 -0.9578322234475988
4772000000.0 0.3573605655022374 -0.9616728453508679
4775000000.0 0.37424401403635077 -0.9861908749342363
4778000000.0 0.35264784182164133 -0.9667195762128983
4781000000.0 0.3459467093906341 -0.9392902661421896
4784000000.0 0.35947610546594855 -0.9424046996311205
4788000000.0 0.3116770237962644 -0.9659380707758602
4791000000.0 0.3165944821377891 -0.9505793832003923
4794000000.0 0.3615656309081291 -0.9810110707641659
4797000000.0 0.28078126334098535 -0.9692121699378414
4800000000.0 0.27659495732530354 -0.9431490738167954
4803000000.0 0.23578516321267914 -0.9685405664496134
4806000000.0 0.27710510696225477 -0.9781612091295371
4809000000.0 0.22445644369740445 -0.9790730128316653
4812000000.0 0.21502827775562067 -0.9754567161752241
4816000000.0 0.2628247260195608 -0.9614132471691041
4819000000.0 0.2723991136834126 -1.003347632783449
4822000000.0 0.25758571591699736 -1.0064365289886512
4825000000.0 0.24523735471014269 -1.0139895623947837
4828000000.0 0.22866185046923718 -1.0074542549103067
4831000000.0 0.18343767449383724 -1.0243096372827023
4834000000.0 0.21080154077726992 -0.9998254754429161
4838000000.0 0.1797432340407969 -1.0089677889694173
4841000000.0 0.1656616019240421 -0.9814019660302341
4844000000.0 0.2169026169515717 -0.9910522876076729
4847000000.0 0.20764746728719774 -0.9557674030266565
4850000000.0 0.13944764872344134 -1.0454398346152425
4853000000.0 0.14722725802038333 -0.9886463831381542
4856000000.0 0.14686959121111498 -1.0171924033994868
4859000000.0 0.13488705902109546 -1.036495936213636
4862000000.0 0.16719479224287065 -0.9951024281988229
4866000000.0 0.11130343444860055 -1.0350146319086464
4869000000.0 0.09775873111437608 -1.00030205531595
4872000000.0 0.08614728741046106 -1.0445684942342213
4875000000.0 0.13667704838988515 -1.0479815070413008
4878000000.0 0.07372060953485579 -1.0404284742296257
4881000000.0 0.05635253118833361 -1.0618872072750933
4884000000.0 0.06741760204930808 -1.0354243839872126
4888000000.0 0.09211584454354713 -1.025667128214495
4891000000.0 0.07684213842177058 -1.029769455554488
4894000000.0 0.017039283365349815 -1.0246357179252843
4897000000.0 0.05130589613233085 -1.0433229307593406
4900000000.0 0.060170542314580466 -1.0553886575071936
4903000000.0 0.021976311621216237 -1.043205741942019
4906000000.0 0.008369428018474375 -1.0624730635536428
4909000000.0 -0.012304863625714903 -1.0246101222047301
4912000000.0 -0.005670957405053988 -1.0727679559177254
4916000000.0 -0.006522917054396615 -1.0045282933858477
4919000000.0 0.025537244141917364 -1.057912823929799
4922000000.0 0.0018568111685458022 -1.0389905164745936
4925000000.0 -0.03755398036789183 -1.010289677948582
4928000000.0 0.018270775547130177 -1.0322910933567069
4931000000.0 -0.009492798936810307 -1.029680611123307
4934000000.0 -0.04504941441081495 -0.9971706977651181
4938000000.0 -0.11635831882659749 -1.0028841574321183
4941000000.0 -0.06425586894035927 -1.0008123834820275
4944000000.0 -0.05593318971177422 -1.0197107938753145
4947000000.0 -0.08290751307366082 -1.0279899489025173
4950000000.0 -0.09063887563463598 -0.9883055691415863
4953000000.0 -0.11844911533833141 -1.052367650520198
4956000000.0 -0.12171524049665247 -1.009569886010815
4959000000.0 -0.17282463470391893 -0.9798432262035768
4962000000.0 -0.14618863937086116 -1.0507006155048328
4966000000.0 -0.1302681495681608 -1.0135701140953117
4969000000.0 -0.1329656619417776 -1.0817432734695187
4972000000.0 -0.17021995987730312 -1.006021689887597
4975000000.0 -0.1302530713436055 -0.999071676580143
4978000000.0 -0.18861629383956913 -1.0048276834203684
4981000000.0 -0.19446966848410432 -1.0227894009443592
4984000000.0 -0.18693411347224256 -0.9836833999665758
4988000000.0 -0.17767176358555908 -0.9985184195532668
4991000000.0 -0.156620049950829 -1.0715473398936461
4994000000.0 -0.20221042811292966 -1.0172110680953461
4997000000.0 -0.2613723967925881 -0.9763686789716083
5000000000.0 -0.22731058907097174 -1.0196330153949609
5003000000.0 -0.2207108089897461 -1.013474806417482
5006000000.0 -0.24482107853495852 -1.033143169325719
5009000000.0 -0.25815462299052405 -1.0138499537869712
5012000000.0 -0.2710460739791451 -1.0063983410075577
5016000000.0 -0.2561834678961535 -1.0254073741351444
5019000000.0 -0.2782768266944686 -0.9735871934109672
5022000000.0 -0.2958758176205334 -0.988712447829567
5025000000.0 -0.30927483173988995 -1.0561042929003213
5028000000.0 -0.3171310830600569 -0.9993877539900389
5031000000.0 -0.3041752320810631 -0.9932759530985865
5034000000.0 -0.3531038700224389 -0.9914331561561529
5038000000.0 -0.33236259378494537 -0.944518971176455
5041000000.0 -0.3199658293283987 -0.9977118147395952
5044000000.0 -0.29811079578008015 -0.9736303713878008
5047000000.0 -0.31428672401716234 -0.9833769341496866
5050000000.0 -0.29452008224908444 -0.9589511280078102
5053000000.0 -0.38650655714480364 -1.0040480739626372
5056000000.0 -0.3364100249419334 -0.9777536090930663
5059000000.0 -0.32180048357025953 -0.9984230511407651
5062000000.0 -0.428087918262404 -0.981607649027556
5066000000.0 -0.36855260415599955 -0.9505139390869031
5069000000.0 -0.4124432292430845 -0.9760671976065801
5072000000.0 -0.3685912745016834 -0.9367404287234522
5075000000.0 -0.3785052906291372 -0.9720098998729325
5078000000.0 -0.4389257551905998 -0.9115732484453025
5081000000.0 -0.4382720757778122 -0.8885207182788065
5084000000.0 -0.4795128324858069 -0.9651171405324408
5088000000.0 -0.3894559315339438 -0.9291409984318666
5091000000.0 -0.48970735613169775 -0.9512272699263382
5094000000.0 -0.46898362095324536 -0.9461565027619007
5097000000.0 -0.4509836394180795 -0.9349366268747641
5100000000.0 -0.49529648054854186 -0.8797875339443818
5103000000.0 -0.47999120487695723 -0.8894262594253769
5106000000.0 -0.5057646528299785 -0.9889866756031307
5109000000.0 -0.4457157598200263 -0.9347935278096122
5112000000.0 -0.504779784902434 -0.890909407764982
5116000000.0 -0.49917464983113097 -0.8571239679754588
5119000000.0 -0.5256589817892954 -0.8792601229061623
5122000000.0 -0.47517251598372595 -0.8695274820351777
5125000000.0 -0.5263075707942617 -0.9275154732119425
5128000000.0 -0.5393446270557679 -0.846305519481316
5131000000.0 -0.5328658470001044 -0.894074931437764
5134000000.0 -0.5438108590788711 -0.8626199919196221
5138000000.0 -0.5094459824518123 -0.8835047141967699
5141000000.0 -0.5286196929505365 -0.9046542023763298
5144000000.0 -0.4937162630886658 -0.918770443628547
5147000000.0 -0.5859513962241768 -0.8324831549189204
5150000000.0 -0.5430709908273416 -0.9077146050334474
5153000000.0 -0.5900623281670323 -0.8625803512977746
5156000000.0 -0.603054813679275 -0.8350239943016643
5159000000.0 -0.5921724499822025 -0.8986397140635203
5162000000.0 -0.6302345345007915 -0.8030875073371491
5166000000.0 -0.6396844616035418 -0.8305109752829141
5169000000.0 -0.6479675893443565 -0.8485871351113986
5172000000.0 -0.6150703612933217 -0.7935435923860579
5175000000.0 -0.6352882387858233 -0.8402939757691933
5178000000.0 -0.6399357436914028 -0.8162963435295091
5181000000.0 -0.6430170707406733 -0.8172551488125216
5184000000.0 -0.6708506109827855 -0.8112080910487383
5188000000.0 -0.6582757804938713 -0.854664481718704
