! Created with skrf 1.8.0 (http://scikit-rf.org).
# Hz S RI R 50.0 
!freq ReS11 ImS11
4000000000.0 0.6160789851986624 0.7684149523498667
4003000000.0 0.7204326096620522 0.8885829706224359
4006000000.0 0.6925328588221702 0.757214259428753
4009000000.0 0.7054235175403184 0.8031661841175741
4012000000.0 0.6411349036454967 0.8164194946958139
4016000000.0 0.6912695341656923 0.7347128426682998
4019000000.0 0.7168202173663591 0.7603714676762355
4022000000.0 0.6491160739539003 0.7816002312717408
4025000000.0 0.7465062794356322 0.7096009690029266
4028000000.0 0.7231336694280444 0.7744106038928749
4031000000.0 0.6542907483829646 0.7347774688502368
4034000000.0 0.6875798170606678 0.7404670846088685
4038000000.0 0.7723154636057629 0.7379436550352985
4041000000.0 0.7204836727902394 0.7565292289431182
4044000000.0 0.7748822361673039 0.7826583162839061
4047000000.0 0.729184970431016 0.7657433775491972
4050000000.0 0.7824198207801645 0.7218055763443526
4053000000.0 0.7349590451526813 0.6787493047875777
4056000000.0 0.757187781195387 0.6964891391361913
4059000000.0 0.7434240641756633 0.6701221645592892
4062000000.0 0.7878721099785253 0.6514319234352655
4066000000.0 0.7152468973400681 0.6069790717780351
4069000000.0 0.8192288499816504 0.6908986732669165
4072000000.0 0.7664583208660201 0.6698132002643347
4075000000.0 0.7967157246411104 0.7504385525550616
4078000000.0 0.831980830811046 0.6888118671192476
4081000000.0 0.7674253297000618 0.6931054152924288
4084000000.0 0.8394415654987927 0.6383375304832815
4088000000.0 0.8028523762933802 0.6277953078546074
4091000000.0 0.8775333288349173 0.6745037007013648
4094000000.0 0.8249989453733183 0.5649154725107561
4097000000.0 0.8314788612927969 0.6129708545274952
4100000000.0 0.8256784374181736 0.5938642697107506
4103000000.0 0.8471226366726432 0.6152678698934784
4106000000.0 0.9028633898091629 0.5953094949077918
4109000000.0 0.8929377969566132 0.5761362303300421
4112000000.0 0.8380320982403835 0.5681875341296923
4116000000.0 0.8296190667098764 0.5854077773574483
4119000000.0 0.9023566955598359 0.5523139410199189
4122000000.0 0.9131999679950882 0.5579909037665526
4125000000.0 0.8849541250720183 0.5523643016097801
4128000000.0 0.8380767022192712 0.5694345379440723
4131000000.0 0.8485839411533277 0.524173859324098
4134000000.0 0.8726601481051276 0.5375418528169638
4138000000.0 0.8802506807621562 0.5127150715041322
4141000000.0 0.8782092692646881 0.5069634721734559
4144000000.0 0.9055663766555413 0.5095149585699081
4147000000.0 0.8733419806828936 0.4412869945100912
4150000000.0 0.8910884045802179 0.5089961632544446
4153000000.0 0.9266337071690349 0.46427636439502373
4156000000.0 0.9648646468627211 0.4981636665968475
4159000000.0 0.8835337901661842 0.48254617999191346
4162000000.0 0.8947328573809059 0.45256876601375995
4166000000.0 0.9185285609407983 0.4517558156930742
4169000000.0 0.9278644354704422 0.4550384604623704
4172000000.0 0.9300658661685168 0.4502449849616041
4175000000.0 0.9423223760600824 0.43647166160206746
4178000000.0 0.9270937532121782 0.4033579733575764
4181000000.0 0.9657509541046181 0.41460698966407417
4184000000.0 0.9169423115491245 0.40758511381309054
4188000000.0 0.9445430559219992 0.37271887646660185
4191000000.0 0.9335786348962273 0.41954799594710906
4194000000.0 0.9276090031868747 0.3577190305679314
4197000000.0 0.9570595235819938 0.367299512955467
4200000000.0 0.9448428224245424 0.3789101699002696
4203000000.0 0.9698227401354934 0.37106268712038626
4206000000.0 0.9635867554232157 0.344914098250696
4209000000.0 0.9403647379002708 0.34673387402853467
4212000000.0 0.9631681895132879 0.3269283575234757
4216000000.0 0.971527474102271 0.33155079079544875
4219000000.0 0.9800030558547785 0.3265258402657215
4222000000.0 0.9778917400919365 0.3063145030474241
4225000000.0 0.9549417671740965 0.30396485895229663
4228000000.0 0.9846222670726568 0.2981073998380369
4231000000.0 0.9962133234332263 0.2841927325488349
4234000000.0 0.9979229379094743 0.28645074386146613
4238000000.0 0.9848117606718327 0.25894704314106876
4241000000.0 0.9935687060823601 0.2516467643046377
4244000000.0 0.9860611867639683 0.25201372921504916
4247000000.0 0.9798335056107944 0.2613129222685833
4250000000.0 0.9677394081848594 0.22214853388167705
4253000000.0 0.9669257484937621 0.20683045848893516
4256000000.0 1.0176856436324213 0.2145469059735891
4259000000.0 0.9677377004016974 0.20162448825920168
4262000000.0 0.9912183724138874 0.1767857125309885
4266000000.0 1.0292454912086006 0.18180236188574012
4269000000.0 0.9904164365566669 0.19885206229179278
4272000000.0 0.9970150743270209 0.17259221614993636
4275000000.0 0.9996506051684331 0.17716914931798244
4278000000.0 1.023058429080858 0.16712946261919798
4281000000.0 1.0071790158528664 0.1655921558509832
4284000000.0 1.0246421628449367 0.0930167361551435
4288000000.0 1.006877458427921 0.16509651546675186
4291000000.0 0.9719957254837897 0.13016044955839512
4294000000.0 1.0160620428061158 0.10188466775595763
4297000000.0 0.9863157523464062 0.13429053061249008
4300000000.0 0.9954899363269647 0.10790619707263541
4303000000.0 0.9884046555124296 0.0845951943078591
4306000000.0 1.0192422627481155 0.09467373604893195
4309000000.0 0.9981111207092634 0.08376336252267598
4312000000.0 1.0296484213282413 0.11335099338121801
4316000000.0 1.035746295373691 0.09135475659366386
4319000000.0 0.9934832488873355 0.06130577666122729
4322000000.0 0.9998085841306931 0.004804626114416857
4325000000.0 1.008435410694015 0.05731545058405206
4328000000.0 0.999380997408667 0.01321704696099707
4331000000.0 1.0035449071190163 -0.007075539309717091
4334000000.0 1.0273505673969836 -0.004704024956160915
4338000000.0 1.018421942236725 0.03772101842310514
4341000000.0 1.0467171147998973 0.021122913211635924
4344000000.0 1.0376126241216128 -0.005858197373905083
4347000000.0 1.0448983804900176 -0.07419188551115208
4350000000.0 0.971552875859297 -0.05030291165524782
4353000000.0 0.9956796825101939 -0.028969968717654615
4356000000.0 1.0165072650316205 -0.06458124327700586
4359000000.0 0.9742301026846726 -0.0675816158591271
4362000000.0 1.0284533874682666 -0.13350442302909976
4366000000.0 1.0293489185865003 -0.08830150458397217
4369000000.0 0.9718994813797628 -0.09489490433371103
4372000000.0 0.9887837151204506 -0.125397535520008
4375000000.0 0.9970130511218691 -0.1006303450603102
4378000000.0 0.9912528911305213 -0.11999692641147273
4381000000.0 0.9890391952888207 -0.10761908978954128
4384000000.0 1.0807344921039785 -0.12707348408945163
4388000000.0 0.979279511174488 -0.11787447886122682
4391000000.0 0.9966781529111877 -0.13417058274816052
4394000000.0 0.9761769930106757 -0.16917034498080347
4397000000.0 0.9890703998808621 -0.15860452406710043
4400000000.0 1.023326972609709 -0.19296659211912506
4403000000.0 0.9994099260301875 -0.1927811483244643
4406000000.0 0.9949577956110999 -0.20982839428621122
4409000000.0 1.029301395596734 -0.21616230066910952
4412000000.0 0.9713606762480662 -0.2577825003754826
4416000000.0 0.964985689840119 -0.23284889743752726
4419000000.0 0.9696330589653761 -0.2521146573392217
4422000000.0 0.9888739065505117 -0.21828528208787198
4425000000.0 1.0093551348926606 -0.22073667189059268
4428000000.0 0.9896706707408996 -0.2497670622084546
4431000000.0 0.9972211376087481 -0.2661545131480688
4434000000.0 0.9549972822603539 -0.27471177426685606
4438000000.0 0.9948954630452758 -0.28687811071865205
4441000000.0 0.9876123457929014 -0.28934311646641864
4444000000.0 0.9473015288706033 -0.2946368214294175
4447000000.0 0.9528012599700739 -0.3111692533692081
4450000000.0 0.9478887324536616 -0.29669144499793115
4453000000.0 0.9801506028573831 -0.33865523068158243
4456000000.0 0.9155057557529306 -0.33507481984788856
4459000000.0 0.9017684022390298 -0.3385292006483672
4462000000.0 1.0080275125332359 -0.3816841588267965
4466000000.0 0.9797989001363225 -0.3775224370767999
4469000000.0 0.935292712595175 -0.3464856478723307
4472000000.0 0.9503536403641496 -0.3964442398790428
4475000000.0 0.9050445286808773 -0.37070511499009673
4478000000.0 0.9729971816528282 -0.4349321424849272
4481000000.0 0.9015959864874672 -0.3874752334341558
4484000000.0 0.9070625112503399 -0.44884371160171077
4488000000.0 0.899427843345244 -0.41741827934180986
4491000000.0 0.9191858220621494 -0.4419597966460792
4494000000.0 0.9018247889642337 -0.42762597769507327
4497000000.0 0.9135850718849958 -0.4016012235194181
4500000000.0 0.8902012327080508 -0.45608155010811186
4503000000.0 0.9267866182046727 -0.45852157227171575
4506000000.0 0.8815821599145217 -0.4733371345890942
4509000000.0 0.8634571527401249 -0.4642766998665757
4512000000.0 0.8520907564211064 -0.47590164828594816
4516000000.0 0.9075302757358458 -0.490643885136335
4519000000.0 0.8540733396519744 -0.4609601774882246
4522000000.0 0.8696536339345828 -0.5069933806030874
4525000000.0 0.8881875210941137 -0.4696625180666004
4528000000.0 0.8822582164981976 -0.5191481190771784
4531000000.0 0.8777157687216032 -0.49421735962922486
4534000000.0 0.8481348428421527 -0.5205621539054957
4538000000.0 0.8465594613528471 -0.5284212622628889
4541000000.0 0.8103040998924098 -0.5684963913371731
4544000000.0 0.8402758327123689 -0.5488026473980152
4547000000.0 0.8341813312036103 -0.5260072082528613
4550000000.0 0.8275336255810359 -0.6001267673757181
4553000000.0 0.8223366152644973 -0.5884722615052037
4556000000.0 0.7962829285086845 -0.5816981183104616
4559000000.0 0.8097925501623578 -0.6055630853523224
4562000000.0 0.8280208179558537 -0.5864949336489668
4566000000.0 0.814564323822579 -0.6142089987484951
4569000000.0 0.7917473050964132 -0.6106770760231857
4572000000.0 0.793123342432756 -0.6331629051704284
4575000000.0 0.7747412525185122 -0.6407234716537752
4578000000.0 0.8145552295918725 -0.6453663366716027
4581000000.0 0.7831269435803522 -0.6706238125739108
4584000000.0 0.753862834401743 -0.634425275718441
4588000000.0 0.7858529118136971 -0.6660131444737304
4591000000.0 0.7779417325595043 -0.6459163712316526
4594000000.0 0.7353988398155757 -0.6838575683174407
4597000000.0 0.7517517348392269 -0.69862502327737
4600000000.0 0.732934441150737 -0.7104913725216554
4603000000.0 0.7309271124778275 -0.7186090298985514
4606000000.0 0.7368196579808279 -0.6921855346983415
4609000000.0 0.7293789851988428 -0.707213856733598
4612000000.0 0.7161479781269794 -0.7393311784632514
4616000000.0 0.6920366608265134 -0.7135185691229593
4619000000.0 0.7132324856349206 -0.7227082746879605
4622000000.0 0.703143076198649 -0.7228410936570093
4625000000.0 0.652400989051149 -0.7298057016680465
4628000000.0 0.6876204680451617 -0.7376489964953026
4631000000.0 0.6589560036295958 -0.7467508338542965
4634000000.0 0.6752731463666283 -0.746830078927921
4638000000.0 0.671939190754009 -0.7683570890665388
4641000000.0 0.6738147396787091 -0.756386838350311
4644000000.0 0.6598922878549993 -0.7608906167965556
4647000000.0 0.675339631966336 -0.7950735320241004
4650000000.0 0.6052720856550355 -0.7748772684168304
4653000000.0 0.6634873814661418 -0.7979171665581061
4656000000.0 0.6281827053812721 -0.7924812872010192
4659000000.0 0.6107870497397004 -0.8194893974650381
4662000000.0 0.6043803790848262 -0.8040895296638534
4666000000.0 0.5845042582835969 -0.8271660730781504
4669000000.0 0.5953341894288982 -0.8220638775193695
4672000000.0 0.5741500843957392 -0.8352640123142521
4675000000.0 0.5605417239327826 -0.8314410594448874
4678000000.0 0.5635452798288101 -0.8202067708368244
4681000000.0 0.5674230377443856 -0.8807808902120525
4684000000.0 0.555139969507545 -0.8632393046709347
4688000000.0 0.5193517463960198 -0.8664360287342489
4691000000.0 0.5569344939526766 -0.8481360738220367
4694000000.0 0.5390882953540019 -0.8569598781860368
4697000000.0 0.5090998582565085 -0.8613773134653593
4700000000.0 0.5251842127440131 -0.8796095682738516
4703000000.0 0.5183545002502659 -0.8542582466581672
4706000000.0 0.5087073230043448 -0.8738726662981927
4709000000.0 0.5013902065802786 -0.8712395592673103
4712000000.0 0.4812159450399675 -0.8685812527422464
4716000000.0 0.49856724032877586 -0.889244108246189
4719000000.0 0.48032205353099566 -0.8927810905384832
4722000000.0 0.5000156880347729 -0.8767866806087419
4725000000.0 0.4757152296140428 -0.8933132784287635
4728000000.0 0.4463439997671591 -0.9303468620572215
4731000000.0 0.4639619871932672 -0.9273391165818845
4734000000.0 0.45824524925288745 -0.9156453544608756
4738000000.0 0.47023517525610353 -0.9361409967959405
4741000000.0 0.42557496441972975 -0.9553273709361979
4744000000.0 0.41331764396833237 -0.9168001641001076
4747000000.0 0.43570032632595246 -0.8826598156108127
4750000000.0 0.3876318899691324 -0.9609510126187595
4753000000.0 0.37959092346561185 -0.9510924960405049
4756000000.0 0.3828993185064017 -0.9246271082662474
4759000000.0 0.38222898213568574 -0.9661603504019873
4762000000.0 0.35545085513491176 -0.9673636664586767
4766000000.0 0.3670723724294716 -0.9488716243584482
4769000000.0 0.3555104408432841 -0.9584957600613487
4772000000.0 0.34792402263996225 -0.9819830497379646
4775000000.0 0.3005726134745555 -1.0041247397576547
4778000000.0 0.3077724980399189 -1.0048707304449822
4781000000.0 0.36825822747717785 -0.954448198131181
4784000000.0 0.31903636057562657 -0.9362886143978574
4788000000.0 0.2907690922014981 -1.0019272938525423
4791000000.0 0.2913432154545594 -0.9594902464532186
4794000000.0 0.3181823835821108 -0.998048698568448
4797000000.0 0.25510044388871905 -0.9705298749790726
4800000000.0 0.26527561014409723 -0.9823467721705743
4803000000.0 0.21410227997795095 -0.9774607628496339
4806000000.0 0.22314369868275377 -1.0006170981769198
4809000000.0 0.19734487786434143 -0.9661315709120223
4812000000.0 0.1968099262091798 -1.0136473276167213
4816000000.0 0.2624258430336087 -0.9697853685885611
4819000000.0 0.2502078611466624 -1.0041078058988415
4822000000.0 0.24662568389561057 -1.0351787373667078
4825000000.0 0.2253948364511197 -1.0225831370932266
4828000000.0 0.20317428568674956 -1.0159984599844267
4831000000.0 0.14627757069803599 -1.0372417593354903
4834000000.0 0.20554081442758798 -1.0197672084197837
4838000000.0 0.15444258482150242 -1.0446257064947497
4841000000.0 0.1517969382386976 -1.0074528911378353
4844000000.0 0.18501234576206 -1.000472305978243
4847000000.0 0.17090686639863661 -0.9930224611264142
4850000000.0 0.11082932029013491 -1.0458716400476216
4853000000.0 0.12317694682524868 -1.0033861917210336
4856000000.0 0.10796526645186441 -1.0211427514721159
4859000000.0 0.10136170069658881 -1.0583767242396207
4862000000.0 0.1438152054025505 -1.00202478621249
4866000000.0 0.08036942331357941 -1.0331470503545868
4869000000.0 0.057584462198793734 -1.027893801643254
4872000000.0 0.03995738729567918 -1.0497116725562796
4875000000.0 0.11932650889199956 -1.0763086747690154
4878000000.0 0.04596141869977117 -1.031634075320723
4881000000.0 0.02800732099821767 -1.0968354094918675
4884000000.0 0.0640260303670808 -1.044396244225669
4888000000.0 0.08275238243483017 -1.0138779529836395
4891000000.0 0.0522248119459873 -1.0412306327803318
4894000000.0 0.001131424014250898 -1.0137518387237796
4897000000.0 0.044159329488830244 -0.9981168984630078
4900000000.0 0.018270397357440783 -1.0658289911943835
4903000000.0 -0.014508574392805923 -1.0554100454681443
4906000000.0 0.01570072520878666 -1.0691190842517078
4909000000.0 -0.03702731665997768 -1.0543831201225538
4912000000.0 -0.041593943699284514 -1.04680217029748
4916000000.0 -0.011706668653632499 -1.068334354026241
4919000000.0 -0.03416511278814231 -1.0579325637569987
4922000000.0 -0.0118826014215421 -1.0565796724830476
4925000000.0 -0.1320563997885261 -1.021334551971112
4928000000.0 -0.03075687211024164 -1.0331550233832656
4931000000.0 -0.04377446378968321 -1.0355233908330332
4934000000.0 -0.08259199290203321 -0.9928216880008778
4938000000.0 -0.13710317358124852 -1.0157093555475984
4941000000.0 -0.11303167891965653 -1.0473167558111904
4944000000.0 -0.0997555113399432 -0.9520425334848053
4947000000.0 -0.1299678271088659 -0.9955082341277633
4950000000.0 -0.09625992956882364 -1.005983559676835
4953000000.0 -0.16144499502070797 -1.0412001623470983
4956000000.0 -0.1774174811371897 -1.0199091835194334
4959000000.0 -0.18172154097957247 -0.9771012173687657
4962000000.0 -0.16248510129297075 -1.0392437632457252
4966000000.0 -0.1278979707565634 -1.0748285552623142
4969000000.0 -0.19613008142539257 -1.0609486470841705
4972000000.0 -0.21884947506566158 -1.0161251612975732
4975000000.0 -0.1607288968632574 -1.0254824584187405
4978000000.0 -0.21422194635278913 -1.0103270441766157
4981000000.0 -0.2459966380990725 -1.0165096765733383
4984000000.0 -0.22420141801281815 -0.9987687526106357
4988000000.0 -0.20901883716986935 -0.998152981300858
4991000000.0 -0.17946865041318538 -1.0178901755814267
4994000000.0 -0.2305250360161371 -1.0253522636815817
4997000000.0 -0.25849319254277403 -1.0108081277816414
5000000000.0 -0.22919230646042021 -1.0252511109659765
5003000000.0 -0.26726705259557376 -0.9993545740053691
5006000000.0 -0.2835264853937993 -1.070531099473401
5009000000.0 -0.2760299453123982 -0.989052301315671
5012000000.0 -0.3040565982019496 -0.9923442805160614
5016000000.0 -0.25776717566225865 -1.0322111466578623
5019000000.0 -0.3073070414651309 -1.0034098405442717
5022000000.0 -0.32524036748061624 -0.9718315780318472
5025000000.0 -0.3318198004034529 -1.042471628033721
5028000000.0 -0.3264523688179888 -0.9998295588941399
5031000000.0 -0.3244349282618949 -0.9699165209867738
5034000000.0 -0.3714610110985679 -0.9828224355237489
5038000000.0 -0.3382883013898369 -0.9565413836647598
5041000000.0 -0.3286861035154697 -0.9828257634388101
5044000000.0 -0.31956319725657223 -0.9441253130083304
5047000000.0 -0.37468677877690265 -0.9722312053888503
5050000000.0 -0.30353781800044144 -0.967543320775754
5053000000.0 -0.388793935759041 -0.9895538458676809
5056000000.0 -0.37313739022711534 -0.9713922617271253
5059000000.0 -0.3668459024445064 -0.9449509941816633
5062000000.0 -0.43939039037289485 -0.9599487020756521
5066000000.0 -0.37024047220287626 -0.967598661722427
5069000000.0 -0.4523706274286302 -0.9783279569242004
5072000000.0 -0.38904582369903273 -0.9291043055305785
5075000000.0 -0.4318177996330076 -0.9841096507914007
5078000000.0 -0.4853779552229341 -0.9264397984952035
5081000000.0 -0.4648660318631059 -0.8775820734001697
5084000000.0 -0.45060730631103507 -0.946709289235411
5088000000.0 -0.4496208871418892 -0.9693406660366861
5091000000.0 -0.5441826348663579 -0.919590776331433
5094000000.0 -0.519400752421082 -0.9319362792675555
5097000000.0 -0.46684659176429666 -0.9333592532473634
5100000000.0 -0.4868088759157195 -0.8991661294203243
5103000000.0 -0.5113849918336344 -0.9000681360816097
5106000000.0 -0.5535612381713335 -0.9729689107292347
5109000000.0 -0.4913287054217529 -0.9354684585086463
5112000000.0 -0.5313997433094655 -0.9016990155614071
5116000000.0 -0.5169356752375681 -0.8889787670535749
5119000000.0 -0.5445931563559714 -0.9003436444727777
5122000000.0 -0.5145356947292197 -0.8842731776526267
5125000000.0 -0.5291907035877094 -0.892508173477109
5128000000.0 -0.5752530949980569 -0.8593161760823822
5131000000.0 -0.5627983325272055 -0.8043714084094956
5134000000.0 -0.5638071551543625 -0.8808834100990319
5138000000.0 -0.5858239508948772 -0.8725792142500856
5141000000.0 -0.5291074369245853 -0.9040146827416811
5144000000.0 -0.5342946045503819 -0.9079315971250685
5147000000.0 -0.6062336489277653 -0.8763530040992412
5150000000.0 -0.6041377201463255 -0.8533693589697939
5153000000.0 -0.6167795941295957 -0.8539423804485463
5156000000.0 -0.6208785086229726 -0.8601756430138161
5159000000.0 -0.6067556163342378 -0.8904860928876347
5162000000.0 -0.6514798285014238 -0.8128230050841072
5166000000.0 -0.6701616221249687 -0.8303412283747643
5169000000.0 -0.6692805130994335 -0.8449785981967737
5172000000.0 -0.6350275134582565 -0.8196141143261133
5175000000.0 -0.648087160926713 -0.8453725979596536
5178000000.0 -0.6668885160314204 -0.8196029337119412
5181000000.0 -0.6651000079652526 -0.8652356268610808
5184000000.0 -0.650410874810058 -0.7785355417943989
5188000000.0 -0.6931738609539542 -0.7843090528779254
