! Created with skrf 1.8.0 (http://scikit-rf.org).
# Hz S RI R 50.0 
!freq ReS11 ImS11
4000000000.0 0.6382991261527896 0.8190818350386597
4003000000.0 0.7034753534203942 0.893515795452212
4006000000.0 0.695441993640418 0.7685611095551819
4009000000.0 0.6557406389186811 0.8105065443707347
4012000000.0 0.6168863285695498 0.8205329320871196
4016000000.0 0.6954050041017324 0.781904255331384
4019000000.0 0.7083003858117791 0.7994254448795997
4022000000.0 0.6465547036885915 0.8518373379768583
4025000000.0 0.7126792632124207 0.7678469452219748
4028000000.0 0.72365644609778 0.7412821787871351
4031000000.0 0.668698079072385 0.7468033035976483
4034000000.0 0.6860539838357421 0.6892266134037996
4038000000.0 0.7256713745849435 0.736056912561743
4041000000.0 0.7196087284216958 0.7625621648325135
4044000000.0 0.797884107999436 0.816379862752661
4047000000.0 0.7209463111443817 0.7519350083434277
4050000000.0 0.7945891739734463 0.707412955751138
4053000000.0 0.7503936156144765 0.709397706772485
4056000000.0 0.7600585511340846 0.717125783168008
4059000000.0 0.7462585212808907 0.7265610315694566
4062000000.0 0.7647504330246077 0.6612217764811139
4066000000.0 0.6932192833381283 0.651350238801141
4069000000.0 0.7970367293894316 0.7111264104205113
4072000000.0 0.7649864992543698 0.7353725248504817
4075000000.0 0.7769046621914341 0.7352718895660264
4078000000.0 0.830837491978853 0.6895625493407078
4081000000.0 0.7932244195771774 0.7170734903540977
4084000000.0 0.8347319753849731 0.6567248570117821
4088000000.0 0.782447893248688 0.6559441894076118
4091000000.0 0.8501608249177709 0.6584587179552424
4094000000.0 0.8195109372640412 0.6357184206895005
4097000000.0 0.8290290535310192 0.6413429464773195
4100000000.0 0.8239951667142669 0.6162096407900257
4103000000.0 0.8594906648094724 0.6590560543285542
4106000000.0 0.8529091061709559 0.6093027211042868
4109000000.0 0.8474199283160984 0.6054857807584837
4112000000.0 0.8653601099950992 0.5988469567053376
4116000000.0 0.8633213797746571 0.5954258606945344
4119000000.0 0.8984254925936467 0.5713615541353563
4122000000.0 0.8650987844947581 0.5350374181919929
4125000000.0 0.8693491631113945 0.5742441156269529
4128000000.0 0.8359433959621029 0.5596310878582491
4131000000.0 0.883473994155398 0.5592374787643618
4134000000.0 0.898076615468742 0.5638674118410448
4138000000.0 0.8547451675145423 0.4947413299536841
4141000000.0 0.8618644717204881 0.500463603129692
4144000000.0 0.8776509294179492 0.5319899364070297
4147000000.0 0.9114310895919796 0.4791598142211135
4150000000.0 0.9354892442741508 0.550452452691027
4153000000.0 0.9205826463028282 0.47014334547340775
4156000000.0 0.933352631212286 0.5127833599415847
4159000000.0 0.9213536351232614 0.5193127689575039
4162000000.0 0.9237585739417726 0.4788480661073946
4166000000.0 0.9358757556801756 0.46914583096675755
4169000000.0 0.8999438529737045 0.4345028698720327
4172000000.0 0.9148539282505047 0.4724672809916444
4175000000.0 0.9242232549251083 0.4402622522392618
4178000000.0 0.9624432320966209 0.4520697093803193
4181000000.0 0.9495386110628696 0.40553367526522344
4184000000.0 0.9482023658990335 0.43369126547954034
4188000000.0 0.9444581382211188 0.43358225338587264
4191000000.0 0.9218298048707696 0.4331623828900016
4194000000.0 0.9391326721181927 0.3920362499008321
4197000000.0 0.9482430976992725 0.4220133231375905
4200000000.0 0.9576931351663753 0.3793305239731021
4203000000.0 0.9555063682764897 0.39903563021238186
4206000000.0 0.9870128316823163 0.3783168814751013
4209000000.0 0.962481860077487 0.3650135127118707
4212000000.0 0.9682891581312972 0.32573946395777287
4216000000.0 0.96126731864118 0.35572381711361806
4219000000.0 0.987751805236701 0.35176861886443767
4222000000.0 0.973630047067999 0.32215128831538115
4225000000.0 0.9648148616810805 0.30768095805394524
4228000000.0 0.9667471801382104 0.3215200956237362
4231000000.0 0.9817018235140522 0.29687233433903326
4234000000.0 0.9869514793693659 0.29760467895662496
4238000000.0 0.9907760827184185 0.28221181903791404
4241000000.0 0.9734628065402244 0.2859055686658304
4244000000.0 0.9750413369780974 0.28926603382812593
4247000000.0 0.9583771235510151 0.28974507927087517
4250000000.0 0.9728929830254267 0.25346097774543186
4253000000.0 0.9669473909781983 0.23416334039345538
4256000000.0 1.01776361307808 0.22763327085020973
4259000000.0 0.9653714759685306 0.2066930370788785
4262000000.0 0.9961834133124077 0.19615771041960092
4266000000.0 1.0284044101371315 0.1947491534331417
4269000000.0 1.0246187635807114 0.21080546927184998
4272000000.0 1.0030230494755226 0.1943577376498995
4275000000.0 1.0227108362596875 0.19750049300547506
4278000000.0 1.0245225956055077 0.19340889489341606
4281000000.0 1.0166480248617682 0.18533107775020724
4284000000.0 1.0043061639919284 0.11950143281671474
4288000000.0 1.0076455318707482 0.18047516277799255
4291000000.0 0.9688797669084754 0.14030828860433814
4294000000.0 0.9937548052045666 0.15330232422313195
4297000000.0 1.0033017351202844 0.12989805002574623
4300000000.0 1.031871111221077 0.1066418828416209
4303000000.0 0.9835414781921011 0.09317748744023034
4306000000.0 1.0263322823974743 0.14349769085968522
4309000000.0 1.0229686322702425 0.1135615156308367
4312000000.0 1.041652497344724 0.1267032682197971
4316000000.0 1.0146347046444455 0.08779646573334142
4319000000.0 1.0177876452156407 0.08297911731699052
4322000000.0 0.9723673233774225 0.07161996493469204
4325000000.0 1.0074426513705383 0.06104618452135109
4328000000.0 1.0137073602755398 0.04828542123220379
4331000000.0 1.0154302942427391 0.007731637586182588
4334000000.0 1.013067584033415 0.025451943717039904
4338000000.0 1.012720833098493 0.025254295023294168
4341000000.0 1.036277009875035 0.03429719466349501
4344000000.0 1.0281716595499675 0.007659264278785133
4347000000.0 1.0137711535137068 -0.03224281440681012
4350000000.0 0.9735133267279987 -0.019626987768949028
4353000000.0 0.9868621295218369 -0.018738212385710384
4356000000.0 0.9993402322876201 -0.05181562848005716
4359000000.0 0.9709548960251115 -0.04878142081321106
4362000000.0 1.0572720103690063 -0.1056340572160102
4366000000.0 1.0382785848056117 -0.05803848251839261
4369000000.0 0.9642343371516227 -0.06292819805493347
4372000000.0 1.0060178507862887 -0.10114760915489923
4375000000.0 1.0115743812223505 -0.06568385693586132
4378000000.0 0.9811277715656725 -0.09644688579694419
4381000000.0 0.9903253402697934 -0.09060774394501907
4384000000.0 1.0643471139267913 -0.1132220739411761
4388000000.0 0.98912981809024 -0.09542372149300828
4391000000.0 1.014379760119816 -0.12053459408934826
4394000000.0 0.9892356825948426 -0.13873212665147439
4397000000.0 1.005393570386713 -0.15954315433650235
4400000000.0 1.0383024963977336 -0.15755304592507982
4403000000.0 1.000858329208938 -0.16383551711218602
4406000000.0 0.997965778150924 -0.19843949752704215
4409000000.0 1.010306730588069 -0.18103737267794895
4412000000.0 0.9879844071740559 -0.2388900705427208
4416000000.0 0.9860749896477528 -0.20894533286726913
4419000000.0 0.978024893401335 -0.2145303358803124
4422000000.0 0.9874991015292252 -0.2047716628252555
4425000000.0 1.0105246835130672 -0.2044125302426604
4428000000.0 0.9721588056033097 -0.24198888396037688
4431000000.0 1.0100005439343593 -0.22789920194860297
4434000000.0 0.966314316882537 -0.25904457570348005
4438000000.0 1.0089102176327653 -0.2546714558183375
4441000000.0 0.9926191979643062 -0.26445292255394864
4444000000.0 0.953518879182077 -0.26339508039543735
4447000000.0 0.9680941145853188 -0.2958251952366718
4450000000.0 0.9527821764054423 -0.2634272385656415
4453000000.0 1.000803944706257 -0.2923872713870902
4456000000.0 0.9306939675840805 -0.3113202466192817
4459000000.0 0.9043109720099272 -0.33054265100685043
4462000000.0 1.002371191076541 -0.3392731117313412
4466000000.0 0.9746107681757952 -0.3639299129980549
4469000000.0 0.9640867437259644 -0.3319578108009016
4472000000.0 0.9634415830229744 -0.37504806952176456
4475000000.0 0.9162396268948984 -0.3449097161907794
4478000000.0 0.9717494976554373 -0.4082197543289824
4481000000.0 0.9161075891205142 -0.37467732076457144
4484000000.0 0.9120407632327465 -0.4484074572199822
4488000000.0 0.9129819163176014 -0.40285313626777436
4491000000.0 0.9306630997315418 -0.3991933425487139
4494000000.0 0.913738226718796 -0.4005096518765538
4497000000.0 0.9195939746267028 -0.40687585096051143
4500000000.0 0.925159062992732 -0.421424449052717
4503000000.0 0.9373767090295015 -0.4288118626202197
4506000000.0 0.9215853772909361 -0.44754273880744305
4509000000.0 0.8910767072312828 -0.44700700892703726
4512000000.0 0.8937995672957992 -0.4419028598461584
4516000000.0 0.9060495814857175 -0.46806147000282355
4519000000.0 0.8940794248838796 -0.44652696951394566
4522000000.0 0.8902650484195662 -0.48336369506003773
4525000000.0 0.8952527496257228 -0.45107551424286796
4528000000.0 0.8964734153241323 -0.5052379886941494
4531000000.0 0.8707458216906787 -0.4845038555981994
4534000000.0 0.8637754218781177 -0.5035874656764542
4538000000.0 0.857758606604679 -0.5072173415211939
4541000000.0 0.838970387222662 -0.5590642629029637
4544000000.0 0.8490632486848289 -0.5225453309582581
4547000000.0 0.8568885172571803 -0.5126166716570193
4550000000.0 0.8527567553859507 -0.584644944390342
4553000000.0 0.8395181828708591 -0.5654852779591785
4556000000.0 0.8127915084997406 -0.5720342745306486
4559000000.0 0.834205282767706 -0.5962552309923275
4562000000.0 0.8475887563562741 -0.5842472410782857
4566000000.0 0.8318210242225457 -0.5997541664608259
4569000000.0 0.8190847490693276 -0.583764963612488
4572000000.0 0.8159402442573033 -0.5864494331469622
4575000000.0 0.8005538034852591 -0.6215469898322372
4578000000.0 0.8380216944121262 -0.6297674875495974
4581000000.0 0.7814267707230129 -0.6431864181372514
4584000000.0 0.7814818326116265 -0.6353679241991522
4588000000.0 0.806345522736647 -0.6504389650442498
4591000000.0 0.8049039610742026 -0.6417750916670715
4594000000.0 0.7526119891712367 -0.6773883265799675
4597000000.0 0.7700728388312821 -0.6829577381129561
4600000000.0 0.7235104660912546 -0.6721856826656355
4603000000.0 0.7609814283022431 -0.6882313987968316
4606000000.0 0.7643811519846124 -0.6719570670206132
4609000000.0 0.7442197614803998 -0.6780657804412354
4612000000.0 0.7433579692883049 -0.7090689023302893
4616000000.0 0.7148664011524444 -0.7011432473361149
4619000000.0 0.739066757186182 -0.7076822020978201
4622000000.0 0.7285492449759625 -0.7064677613345005
4625000000.0 0.6890748194518068 -0.7234888242979087
4628000000.0 0.7205005026790088 -0.7052204741064544
4631000000.0 0.6879233754252565 -0.7368817008969343
4634000000.0 0.6852998613203952 -0.740544046425543
4638000000.0 0.6948753399942891 -0.7648456193832259
4641000000.0 0.6970053020438325 -0.742932201440801
4644000000.0 0.6707167820941276 -0.7559818904799729
4647000000.0 0.6843582777517594 -0.7690429591136547
4650000000.0 0.6375020357966272 -0.7576568197456844
4653000000.0 0.6709873555395476 -0.7579174233629958
4656000000.0 0.6491295177057383 -0.7810960236677968
4659000000.0 0.6389025794943151 -0.7986555355146385
4662000000.0 0.6476595193374464 -0.7882190330650947
4666000000.0 0.6221989666015117 -0.793958961270163
4669000000.0 0.6187185886273883 -0.8089152412435691
4672000000.0 0.6011941572750622 -0.8390359937456279
4675000000.0 0.5968709691310778 -0.8196176752806655
4678000000.0 0.5999162063940205 -0.8061283409178731
4681000000.0 0.5781321069138752 -0.8413089138529568
4684000000.0 0.574567519286461 -0.8518540795923569
4688000000.0 0.5639148521923486 -0.8572616848972431
4691000000.0 0.585343166159367 -0.8461702199741767
4694000000.0 0.570216039583473 -0.8314049251972273
4697000000.0 0.5244332037560507 -0.8320259031741921
4700000000.0 0.556182954874879 -0.8592397489303056
4703000000.0 0.557891259246277 -0.8084089081939356
4706000000.0 0.5261957569124405 -0.8525803894109025
4709000000.0 0.5266938524350717 -0.8590199260443521
4712000000.0 0.5205398974043707 -0.8632222387980091
4716000000.0 0.5165394837041507 -0.890558550860179
4719000000.0 0.5278752295258213 -0.8686015629931965
4722000000.0 0.5425761978297476 -0.8766377619838734
4725000000.0 0.48399170315324425 -0.8896018277691564
4728000000.0 0.4566005557655921 -0.898903702253443
4731000000.0 0.49123720698539336 -0.9270356412419076
4734000000.0 0.482040067700278 -0.890812038407368
4738000000.0 0.5189889068096737 -0.9280857059576989
4741000000.0 0.46539009824748073 -0.9342555508632191
4744000000.0 0.4197615652656916 -0.9491596173105822
4747000000.0 0.433976110174836 -0.9116773992892419
4750000000.0 0.4343416117054127 -0.9304227223960027
4753000000.0 0.4279925563491208 -0.9545651447969958
4756000000.0 0.4066260342455416 -0.9514101529049173
4759000000.0 0.40523895824455297 -0.9470711537035789
4762000000.0 0.38624492847753833 -0.9567607357813878
4766000000.0 0.3792543309860974 -0.943426541272979
4769000000.0 0.38247727995409214 -0.9681188140697795
4772000000.0 0.37810821708299985 -0.9399740722764514
4775000000.0 0.36896544791031144 -1.0009921542891198
4778000000.0 0.36313851522753016 -0.9602065473343687
4781000000.0 0.3668448804128643 -0.9607727210606964
4784000000.0 0.3779752567158037 -0.9295985150303386
4788000000.0 0.3325674431137566 -0.9775272017813483
4791000000.0 0.31238434132537063 -0.9624719033616552
4794000000.0 0.34263781025544604 -0.9875099232297635
4797000000.0 0.27211714077463844 -0.9836920428880781
4800000000.0 0.2987964619667295 -0.9535505470976109
4803000000.0 0.24712896367322734 -0.9900514019873412
4806000000.0 0.30566508619960703 -0.9779631807101539
4809000000.0 0.23392613614283533 -0.9642173000794213
4812000000.0 0.2138773593949101 -0.9877578911179545
4816000000.0 0.2833605843106462 -0.9827455115179791
4819000000.0 0.27159691664272184 -1.0374615204476274
4822000000.0 0.2520761497782755 -1.0361984052547937
4825000000.0 0.2583819751008685 -1.0096032337328336
4828000000.0 0.2214158524690043 -0.9822191309593501
4831000000.0 0.17951010466915607 -1.0582962347311797
4834000000.0 0.21977183434043418 -1.006079831455499
4838000000.0 0.1918756957079028 -0.9958821595371322
4841000000.0 0.17414371793603306 -0.9992391380505207
4844000000.0 0.21949524651443453 -1.0112163514377062
4847000000.0 0.20150203360073443 -0.972368321468513
4850000000.0 0.15819140435178558 -1.0407764279374088
4853000000.0 0.15084563361438114 -0.9857567093540518
4856000000.0 0.1453961415849817 -0.992637076372355
4859000000.0 0.14494892198978404 -1.0487989789460848
4862000000.0 0.1675906549624374 -0.9972081401087151
4866000000.0 0.10485287754845268 -1.018977101640859
4869000000.0 0.0912993885085895 -1.0130533144555303
4872000000.0 0.06892491150743335 -1.0608459684284977
4875000000.0 0.1675681299894829 -1.064854521053286
4878000000.0 0.10404538869311844 -1.0256972875158206
4881000000.0 0.055470193652215255 -1.1152755826864023
4884000000.0 0.09392527591737809 -1.0221903364313392
4888000000.0 0.11181206359712373 -1.0206576754888548
4891000000.0 0.07102922071676446 -1.0606207844242495
4894000000.0 0.028778321502466005 -1.0480376062692052
4897000000.0 0.05889619091623611 -0.9839716426289037
4900000000.0 0.039285524557114815 -1.03158920476029
4903000000.0 0.05763365745070619 -1.0498133911369174
4906000000.0 0.036703579990436296 -1.047447955981162
4909000000.0 -0.004138105031476488 -1.0495646143984736
4912000000.0 -0.001013436853346296 -1.05970695222067
4916000000.0 0.0236059374524364 -1.0672076404901758
4919000000.0 0.03866191984441718 -1.0730730080211766
4922000000.0 -0.001448914509041277 -1.045304875809956
4925000000.0 -0.032850326825483195 -1.0296295951606267
4928000000.0 0.03319860333957442 -1.0122758988675276
4931000000.0 -0.011888224333265862 -1.0891566858080435
4934000000.0 -0.05250292810512154 -0.9646104378336742
4938000000.0 -0.11343761320367558 -1.0253051491803773
4941000000.0 -0.06241077858472639 -1.003248031313532
4944000000.0 -0.07287322954586634 -0.970853740260345
4947000000.0 -0.0805120370856004 -1.0286274438802239
4950000000.0 -0.08420467701325098 -1.0309809273796817
4953000000.0 -0.17279683263437462 -1.0664860817169715
4956000000.0 -0.1367226136920332 -1.0459838247710274
4959000000.0 -0.12320917561251268 -1.0373714854068519
4962000000.0 -0.14790607960033772 -1.0700062749213721
4966000000.0 -0.13064452214738403 -1.0529149336299992
4969000000.0 -0.14895999748995092 -1.0895662825655392
4972000000.0 -0.17464864065502098 -0.9814181297572887
4975000000.0 -0.17165145110963761 -1.022876582872912
4978000000.0 -0.18807517103551707 -1.027882389383453
4981000000.0 -0.19719010919676253 -1.034948776626247
4984000000.0 -0.18351564474891788 -0.9869750283688509
4988000000.0 -0.18485840114188562 -1.0286716215607548
4991000000.0 -0.16782523473795802 -1.0743273255490784
4994000000.0 -0.18550000810064593 -1.0422168590641026
4997000000.0 -0.24566830268023554 -1.0097084912691843
5000000000.0 -0.19705670883094417 -1.064940562483267
5003000000.0 -0.21520650552592568 -1.027796187434762
5006000000.0 -0.2748621249121559 -1.067775870542234
5009000000.0 -0.2380320045891269 -1.0128971581851567
5012000000.0 -0.28016657904142633 -0.998383735286082
5016000000.0 -0.2222393303419654 -1.0557085732252611
5019000000.0 -0.2703110194271355 -0.9972837915334611
5022000000.0 -0.27410403859261534 -1.0091975525163026
5025000000.0 -0.30580030176869627 -1.0717635998612203
5028000000.0 -0.3291852735849943 -1.0110555695710843
5031000000.0 -0.2822188079011443 -1.0169549871540158
5034000000.0 -0.3409715274920506 -1.0257373897264868
5038000000.0 -0.33883527629178156 -0.9519502782273064
5041000000.0 -0.28576673942965475 -1.0015442877172775
5044000000.0 -0.28447901583523794 -0.9894487047214987
5047000000.0 -0.32078392806864403 -0.9853544497757779
5050000000.0 -0.25609005826833864 -0.9912291423570547
5053000000.0 -0.3967343177093019 -1.0320619162024178
5056000000.0 -0.3228442737442132 -0.9882881780744672
5059000000.0 -0.31547941958722686 -0.983744800268984
5062000000.0 -0.397799660831597 -0.9805892457014838
5066000000.0 -0.3217670203936226 -0.9874596257250698
5069000000.0 -0.42792495368534933 -0.9352410710213704
5072000000.0 -0.42106307229846696 -0.9157898206725412
5075000000.0 -0.39760962877734585 -0.9457378502278673
5078000000.0 -0.434070195927809 -0.9255786338522618
5081000000.0 -0.40796577718651705 -0.9310588116090025
5084000000.0 -0.4538272930079055 -1.0050370183901034
5088000000.0 -0.41748128062398604 -0.967725023083637
5091000000.0 -0.47898576686419897 -0.9363674778570255
5094000000.0 -0.47537724697784384 -0.9580623466725094
5097000000.0 -0.4370366130955812 -0.9188477160777704
5100000000.0 -0.46704493489672844 -0.9322130584494485
5103000000.0 -0.4854628265610288 -0.9176548340245082
5106000000.0 -0.4635893150422145 -0.945678431786213
5109000000.0 -0.4435831814228315 -0.8951354936736124
5112000000.0 -0.49768687020339225 -0.8744325737228544
5116000000.0 -0.44252418237970553 -0.8666119945788577
5119000000.0 -0.5379540786820393 -0.8983671827940436
5122000000.0 -0.49817729363881563 -0.8952038338078723
5125000000.0 -0.477882940432357 -0.8634999155720235
5128000000.0 -0.5589807105252378 -0.839660321456571
5131000000.0 -0.5277350499259591 -0.8826596729589368
5134000000.0 -0.5507998983962208 -0.866914232670901
5138000000.0 -0.5337939224371764 -0.873395139676105
5141000000.0 -0.5199388461958943 -0.921674728522649
5144000000.0 -0.5336621808984744 -0.9136071185415062
5147000000.0 -0.5946265906902904 -0.8756436805689494
5150000000.0 -0.5712364738970783 -0.9192609857482873
5153000000.0 -0.5760458315604944 -0.8536380441317354
5156000000.0 -0.5613581166973807 -0.8575140795165339
5159000000.0 -0.5885130422159465 -0.8834722432415976
5162000000.0 -0.6435490987131147 -0.8201123144327332
5166000000.0 -0.676038393461489 -0.8406613150882009
5169000000.0 -0.6264381273956724 -0.8723838796973968
5172000000.0 -0.6032606671123856 -0.822262735061439
5175000000.0 -0.6312415701666702 -0.8676286164515629
5178000000.0 -0.6588263483628882 -0.8076511301454253
5181000000.0 -0.6763117084898318 -0.8679819677061796
5184000000.0 -0.6608407906093311 -0.8001507715540965
5188000000.0 -0.6670585245118446 -0.8017395754099709
