! Created with skrf 1.8.0 (http://scikit-rf.org).
# Hz S RI R 50.0 
!freq ReS11 ImS11
4000000000.0 0.6528920273918462 0.81995475644086
4003000000.0 0.677884151950392 0.8610119905413456
4006000000.0 0.7086878981171787 0.7762986090415688
4009000000.0 0.6614976066727551 0.8593014910982102
4012000000.0 0.6296841349140958 0.8534490513794374
4016000000.0 0.6891819180696405 0.7782641189797197
4019000000.0 0.6893085205683642 0.765169102540419
4022000000.0 0.6792442343398085 0.8580411476872379
4025000000.0 0.7639207933051039 0.7373584646069027
4028000000.0 0.735548776608294 0.7580260552280997
4031000000.0 0.6943333709547989 0.8008487239123572
4034000000.0 0.7322118118282434 0.7143287191465956
4038000000.0 0.7852792116184324 0.7484252650961157
4041000000.0 0.7428703133090021 0.7890617459911915
4044000000.0 0.7268011201303621 0.820738317831001
4047000000.0 0.7318203736428109 0.7590840198432829
4050000000.0 0.8083953796436673 0.7339775260614398
4053000000.0 0.7641840652210686 0.6949944128493464
4056000000.0 0.7582859449538364 0.7014737405386132
4059000000.0 0.7745755064896721 0.7113234602426006
4062000000.0 0.8028787775978593 0.674595045029635
4066000000.0 0.7603556136398202 0.6485068145034166
4069000000.0 0.8395403060102058 0.7120303577975483
4072000000.0 0.7675433378569355 0.7207405703084238
4075000000.0 0.8033593719905298 0.7063086792117976
4078000000.0 0.8185968215330055 0.6628640805674381
4081000000.0 0.7851003698933461 0.7387100938011293
4084000000.0 0.8421376559064635 0.6606778237461226
4088000000.0 0.8028068853516566 0.6741551545843766
4091000000.0 0.8722360160999661 0.6688968833164834
4094000000.0 0.8439258774536563 0.656454581025148
4097000000.0 0.8407909097349981 0.6228846483306474
4100000000.0 0.8810590407171838 0.6449899883016015
4103000000.0 0.8350207890209844 0.6574605418211361
4106000000.0 0.8784843069293841 0.6327785162791937
4109000000.0 0.8731050623345848 0.6225696391033237
4112000000.0 0.8521349939283767 0.610584633530771
4116000000.0 0.8403021788582388 0.606423663416431
4119000000.0 0.8759735783266892 0.5969804086648387
4122000000.0 0.8951031082882106 0.5697420133734996
4125000000.0 0.8895682927766178 0.5774366381847593
4128000000.0 0.8558623350969043 0.550418583988714
4131000000.0 0.8925589799572158 0.5553258922172704
4134000000.0 0.8929581016020839 0.5749406655571756
4138000000.0 0.855408465179679 0.5198207794608467
4141000000.0 0.9088137211832739 0.5271058790439092
4144000000.0 0.9302010770852409 0.5383464964394318
4147000000.0 0.8860822344808253 0.5022767208374874
4150000000.0 0.9185498602429155 0.5098169587039412
4153000000.0 0.8943594961122047 0.4950693493095193
4156000000.0 0.9214269749344057 0.5288148223767082
4159000000.0 0.8754013143969461 0.49531985072753276
4162000000.0 0.9309174766544794 0.4778258230058807
4166000000.0 0.9401588444898632 0.5004034701236376
4169000000.0 0.9192363675888415 0.44478403973913805
4172000000.0 0.9473041833986858 0.45542451335755657
4175000000.0 0.9320980378394441 0.4507330296441508
4178000000.0 0.9507382948107518 0.4698745166219268
4181000000.0 0.9908043091976921 0.4296052849608143
4184000000.0 0.9429642417314306 0.4264022343245312
4188000000.0 0.9501038741427155 0.4049624207056143
4191000000.0 0.9467705125153987 0.4438881530663316
4194000000.0 0.9556340912580294 0.3922710852626562
4197000000.0 0.964091620892134 0.3891794027694812
4200000000.0 0.9612480530860825 0.4081199115449049
4203000000.0 0.9773461025607169 0.4024491673112707
4206000000.0 0.9776193063820642 0.36497886350050907
4209000000.0 0.9571180598651103 0.3748519584297328
4212000000.0 0.9682947730779937 0.3386129128866867
4216000000.0 0.9728425729178902 0.3645919608780656
4219000000.0 0.9995214780221336 0.3481892393738748
4222000000.0 0.989986817460573 0.34447717507297043
4225000000.0 0.9669559179358171 0.33309841833249787
4228000000.0 0.9886395826363712 0.32679395541549805
4231000000.0 0.9914711173944051 0.30823175128427394
4234000000.0 1.002217357305842 0.295454214768986
4238000000.0 0.9909229071065505 0.2714058496101933
4241000000.0 0.9957401098516792 0.27970859853704894
4244000000.0 0.9868606363774455 0.26676298461072695
4247000000.0 0.9924568417469759 0.2809852745732135
4250000000.0 0.9720126791253376 0.250377871930125
4253000000.0 0.9899265798653349 0.22797288931575294
4256000000.0 1.0182774736875422 0.25177859000549757
4259000000.0 0.9613340998454496 0.21462685241995808
4262000000.0 0.9881264612210261 0.21345117443398473
4266000000.0 1.0291285797771685 0.20038387047603667
4269000000.0 1.019882897335758 0.21105625564734562
4272000000.0 0.9952075893247968 0.21444710359711078
4275000000.0 1.0108323383753628 0.18626171983283552
4278000000.0 1.0429136481831935 0.19194713705851885
4281000000.0 1.032628682714728 0.19558100087596236
4284000000.0 1.0154464454445948 0.12035808341735746
4288000000.0 1.017192692576549 0.1780674630904668
4291000000.0 0.9943270255453794 0.1378143296092758
4294000000.0 1.005290638899707 0.1681449881905771
4297000000.0 0.986186904631061 0.15872936978395719
4300000000.0 1.0016148699711613 0.13454737356786492
4303000000.0 1.006797710566802 0.07344187408437171
4306000000.0 1.0216015873547608 0.1102457668404426
4309000000.0 1.0037163863590701 0.09927039040379886
4312000000.0 1.0320740133644248 0.11103268747408784
4316000000.0 1.042634558233781 0.10109017184173864
4319000000.0 1.0238412734407385 0.05706014718395018
4322000000.0 1.000841979103571 0.03848214213127531
4325000000.0 1.0250971809950764 0.03883300176402295
4328000000.0 1.0289346525813614 0.0414577548661698
4331000000.0 1.0538443162193587 0.005296506547137286
4334000000.0 1.0265250053891144 0.025100039691449805
4338000000.0 1.0227085295014278 0.049176937454834715
4341000000.0 1.06701672369274 0.04120886005634336
4344000000.0 1.0518785990179538 -0.013840864409422199
4347000000.0 1.0236574692014309 0.0025996114537781556
4350000000.0 0.9983929489917769 -0.017275269216765476
4353000000.0 1.001159935082143 -0.004762144678097352
4356000000.0 1.024031302492374 -0.03977013376936209
4359000000.0 0.9938771036105366 -0.052314301858024895
4362000000.0 1.0254329077380975 -0.07676560188875223
4366000000.0 1.0410194854076353 -0.056059398833691265
4369000000.0 0.998278160838707 -0.08551170363697583
4372000000.0 0.9950025856415252 -0.11963854432454563
4375000000.0 1.0325058652712606 -0.05650070863581613
4378000000.0 0.9978137656682814 -0.09913615971751605
4381000000.0 1.0209508239868494 -0.09387924971907836
4384000000.0 1.083422054373605 -0.1377677801261617
4388000000.0 1.005442518838438 -0.10757499956701633
4391000000.0 1.014056603742599 -0.1436835719830379
4394000000.0 0.9911804206741579 -0.13738273280800603
4397000000.0 1.0077916628182242 -0.14912563197247952
4400000000.0 1.0418530440296017 -0.17557488317274805
4403000000.0 1.024249359364246 -0.16675280086813365
4406000000.0 1.0030661957791724 -0.20134901635501734
4409000000.0 1.0343951667111333 -0.19685955772744926
4412000000.0 0.9839630413668742 -0.2557759341654914
4416000000.0 0.9810712698916491 -0.21626258764405612
4419000000.0 0.9980111279759819 -0.23862168821717697
4422000000.0 0.9942581682471161 -0.19303176375908357
4425000000.0 1.014465864146601 -0.21042625836684942
4428000000.0 0.9775344549442184 -0.25091138615143244
4431000000.0 1.0136665360495531 -0.24898232349564672
4434000000.0 0.9846122607202086 -0.2407598634879186
4438000000.0 1.0019439002752704 -0.2690189174661556
4441000000.0 0.985956557107103 -0.27586025381795565
4444000000.0 0.9540565279608011 -0.2638177927283993
4447000000.0 0.9613606772265891 -0.2899495492316805
4450000000.0 0.9596065703660455 -0.2792548503316048
4453000000.0 0.9997351483071869 -0.3288553586433688
4456000000.0 0.9370358189766506 -0.30722290237285066
4459000000.0 0.9113493431776676 -0.326630477515196
4462000000.0 1.0142997141517103 -0.34982594431331065
4466000000.0 0.9868811078174908 -0.34808276631347135
4469000000.0 0.971055471734542 -0.330477191220203
4472000000.0 0.9621757386226512 -0.3914835840663564
4475000000.0 0.9259973838259928 -0.3587177873225652
4478000000.0 0.9698424216354099 -0.42359982757428616
4481000000.0 0.9104196481913693 -0.3869760064161945
4484000000.0 0.9159945042818567 -0.42637895058580233
4488000000.0 0.9063834544947901 -0.40877743127973826
4491000000.0 0.9492737063235 -0.401589928286687
4494000000.0 0.9155403888133051 -0.4051135027685979
4497000000.0 0.9237891014024655 -0.4103927899645298
4500000000.0 0.9388359334993477 -0.4158069883001606
4503000000.0 0.9362425696403516 -0.4428900832784801
4506000000.0 0.92220382080228 -0.4536473331585778
4509000000.0 0.8884617276934896 -0.44894852111210537
4512000000.0 0.8912775791080386 -0.4617593533800365
4516000000.0 0.9339129395173476 -0.4685419151964723
4519000000.0 0.885618587949043 -0.46042465608221134
4522000000.0 0.8968215617393367 -0.4932757219799231
4525000000.0 0.899482696743354 -0.4657217619789883
4528000000.0 0.9094005933971299 -0.5083804494323086
4531000000.0 0.8881847149590132 -0.4916053918660246
4534000000.0 0.8661598198653085 -0.5202692180993591
4538000000.0 0.8667678013374309 -0.5279652473335188
4541000000.0 0.8427419641512007 -0.5694904228802355
4544000000.0 0.8511344285071405 -0.5386976140448747
4547000000.0 0.8654117679406648 -0.516902196279516
4550000000.0 0.8496135792674195 -0.5650906969942623
4553000000.0 0.8447710022427242 -0.5785432459556876
4556000000.0 0.8111429075006193 -0.5737529511747455
4559000000.0 0.8135276857348865 -0.5910879531534396
4562000000.0 0.8595472454269744 -0.588799711489969
4566000000.0 0.821306635600539 -0.6195788415615375
4569000000.0 0.8144235215605965 -0.607339972831165
4572000000.0 0.8255611809116624 -0.6085045707061271
4575000000.0 0.7938027723111658 -0.624449041790765
4578000000.0 0.8241299276653038 -0.6417048956945625
4581000000.0 0.7837371354924854 -0.6530654058177764
4584000000.0 0.7852673565995676 -0.6517136816283695
4588000000.0 0.8228557111855194 -0.6590207937830769
4591000000.0 0.7801321597418893 -0.6253236157098515
4594000000.0 0.7551352371235807 -0.6532594276634592
4597000000.0 0.7755225432444559 -0.6788137496712697
4600000000.0 0.7370573134301862 -0.6835285182959827
4603000000.0 0.7679434323714186 -0.693830471694674
4606000000.0 0.7565388021615992 -0.6967234106127077
4609000000.0 0.7519800725136835 -0.6994787091482122
4612000000.0 0.7612970625764376 -0.7082441103016557
4616000000.0 0.7229779823361744 -0.7072393553422462
4619000000.0 0.7332710045729306 -0.7005055022339965
4622000000.0 0.7246211701101595 -0.7161457843498747
4625000000.0 0.688629578849218 -0.7262108681387444
4628000000.0 0.7058551770930395 -0.7232622361022655
4631000000.0 0.6855171693786826 -0.7546251564989112
4634000000.0 0.7054860178964975 -0.7387434121753257
4638000000.0 0.7040123328035726 -0.7524503696917191
4641000000.0 0.6944215807408853 -0.746583205953975
4644000000.0 0.686080113332037 -0.7763567679264572
4647000000.0 0.6855569797142136 -0.7683269280286441
4650000000.0 0.6500709582279507 -0.7751849260928917
4653000000.0 0.6884906762240439 -0.7801589632695394
4656000000.0 0.6405134066881921 -0.7958250918278813
4659000000.0 0.6345998653440401 -0.7813935001464984
4662000000.0 0.6326518615608964 -0.8169930750906756
4666000000.0 0.6271998766102391 -0.8182162256888018
4669000000.0 0.6324963884246826 -0.8168958723035308
4672000000.0 0.6262045944637837 -0.8307181353777865
4675000000.0 0.5967465265742048 -0.818423279806966
4678000000.0 0.5913459292617905 -0.7904513712679069
4681000000.0 0.5786112450472304 -0.8500593993299193
4684000000.0 0.5663201966431807 -0.8455525923168064
4688000000.0 0.5734074524309731 -0.8680521291235529
4691000000.0 0.5854280460155795 -0.8384569147901659
4694000000.0 0.5928681379092795 -0.8678147644006164
4697000000.0 0.531928113411296 -0.8138281529683498
4700000000.0 0.5773817832819633 -0.8485775755405607
4703000000.0 0.5383930517949547 -0.8263732031542308
4706000000.0 0.5434698699850067 -0.874892866760548
4709000000.0 0.5027420001012162 -0.8747518239750548
4712000000.0 0.5443518048049317 -0.8912034478105797
4716000000.0 0.5041137810030748 -0.8888829473223638
4719000000.0 0.518668288206963 -0.8941279686045661
4722000000.0 0.5197811053481293 -0.890163498554966
4725000000.0 0.4844323128496313 -0.9145246345045716
4728000000.0 0.4712498790968619 -0.8801291318423716
4731000000.0 0.5098358988092832 -0.909762380504231
4734000000.0 0.48767014157566935 -0.8811191133490492
4738000000.0 0.4885269411777985 -0.9379208186273645
4741000000.0 0.42237493679480975 -0.9584822375036318
4744000000.0 0.4486435026492278 -0.9531187831721064
4747000000.0 0.45000794488873086 -0.8988609667666813
4750000000.0 0.4193639349011111 -0.9542345418732802
4753000000.0 0.41833937041333324 -0.9426068718488735
4756000000.0 0.4319288264938146 -0.9572447137963511
4759000000.0 0.38683371581555315 -0.9477804847873657
4762000000.0 0.3962813337789365 -0.9669226955106562
4766000000.0 0.3724903360891345 -0.9598217278807666
4769000000.0 0.3738724378765865 -0.9283670163517365
4772000000.0 0.38367577330460884 -0.9810979949099926
4775000000.0 0.3535109585415416 -1.0365484127316213
4778000000.0 0.3495730194927189 -0.9777141165620017
4781000000.0 0.38893822519758536 -0.976961881329039
4784000000.0 0.38726835946810495 -0.9416964621715874
4788000000.0 0.32447634520255925 -0.9900451906104064
4791000000.0 0.32693326861926564 -0.9610937962924663
4794000000.0 0.34054849803116627 -1.0097324170578792
4797000000.0 0.3067758764290101 -1.0045981422456258
4800000000.0 0.3148393081761078 -0.9687064446867557
4803000000.0 0.2780580552820072 -1.0006618883572447
4806000000.0 0.2918112103720131 -1.008648176627898
4809000000.0 0.2280954814220166 -1.0122215683613438
4812000000.0 0.23082613089777668 -0.9819394028539945
4816000000.0 0.28199286517015926 -0.9761697168518728
4819000000.0 0.2813651855234837 -1.0383967582475175
4822000000.0 0.27063637675651936 -1.0444244159900737
4825000000.0 0.25951046485150786 -1.0287133987144013
4828000000.0 0.22727212608486214 -1.0024253853602403
4831000000.0 0.17094561506039604 -1.041703489895487
4834000000.0 0.23685561776563924 -1.017846080783018
4838000000.0 0.1613512611854824 -1.0381477182071719
4841000000.0 0.19002604303970866 -1.0213280126060846
4844000000.0 0.2081909712536355 -1.0280736334934937
4847000000.0 0.1898967960725464 -1.0061320019695292
4850000000.0 0.1606761493362544 -1.0583162157585286
4853000000.0 0.15063938235199492 -1.0062793707954123
4856000000.0 0.1535872756575051 -1.0236368166056347
4859000000.0 0.15124326974706664 -1.0621203805589152
4862000000.0 0.1454398273969344 -1.020126806954312
4866000000.0 0.09757347164413907 -1.0391758971970104
4869000000.0 0.10082860674255371 -1.0241947250240366
4872000000.0 0.05891441435131931 -1.0631487720142374
4875000000.0 0.15041639244747124 -1.07625534519089
4878000000.0 0.08002106315939336 -1.0519481033919433
4881000000.0 0.07866513598471804 -1.1160383004827308
4884000000.0 0.09062402565484799 -1.0464348894305577
4888000000.0 0.1192613181769765 -1.041994880227933
4891000000.0 0.06148595367316724 -1.062363713643291
4894000000.0 0.0057835181086531365 -1.051000492912824
4897000000.0 0.08826074505634898 -1.0510243581483765
4900000000.0 0.04197862571508442 -1.0747122550844532
4903000000.0 0.06620499928583068 -1.0490138894400476
4906000000.0 0.021143519568326816 -1.0750355372623313
4909000000.0 -0.025623791348092256 -1.0339806267050429
4912000000.0 -0.011169992929315503 -1.0786734768922197
4916000000.0 0.010001312321613907 -1.0637044233344
4919000000.0 0.018398261850975227 -1.0969360884461468
4922000000.0 0.02241940709986029 -1.0812796841551673
4925000000.0 -0.07270444635747042 -1.0140286506273468
4928000000.0 -0.0011765927281114086 -1.0489281257628884
4931000000.0 -0.02112435390129702 -1.0647247372829058
4934000000.0 -0.0555125912955297 -1.0010081457970859
4938000000.0 -0.12540294999297652 -1.0497944877398202
4941000000.0 -0.0696799450953076 -1.0285761880213216
4944000000.0 -0.049239472836635684 -0.9835965288889614
4947000000.0 -0.07526336925641805 -1.004490539386733
4950000000.0 -0.11834036489199994 -1.0325831223043578
4953000000.0 -0.16566002758235382 -1.073280719383864
4956000000.0 -0.1040247878594936 -1.0192229711558216
4959000000.0 -0.13966551762199605 -0.9972074257241398
4962000000.0 -0.1626599126487083 -1.098052156381532
4966000000.0 -0.14056255008543622 -1.0782674890119792
4969000000.0 -0.1329093576235329 -1.074826575724752
4972000000.0 -0.19980121419599853 -1.066159946191563
4975000000.0 -0.11201363793193139 -1.0367895407141456
4978000000.0 -0.1669275075403896 -1.025094822325865
4981000000.0 -0.22777817305651457 -1.0310608754380188
4984000000.0 -0.19924820427580117 -1.0035145605316729
4988000000.0 -0.18128546838166532 -1.0254594262998724
4991000000.0 -0.16089795049569433 -1.055050236039372
4994000000.0 -0.1793112063718479 -1.0315781434305389
4997000000.0 -0.2678327809946749 -1.0374086660594162
5000000000.0 -0.23161892548479296 -1.047413517400456
5003000000.0 -0.23574320372961316 -1.063770399235226
5006000000.0 -0.24859110106742224 -1.0323201879447303
5009000000.0 -0.2602128627571856 -1.0406778653379851
5012000000.0 -0.30106581616583844 -1.0124466838757071
5016000000.0 -0.23468779459165806 -1.0596690024609638
5019000000.0 -0.3036814265941764 -0.9888253745391076
5022000000.0 -0.2882973042603937 -1.0162692550779164
5025000000.0 -0.3242836384699092 -1.0579380197512995
5028000000.0 -0.30910144344781054 -1.025575340313473
5031000000.0 -0.3383650648906871 -0.9942076069296301
5034000000.0 -0.366971255546483 -0.9893453648574502
5038000000.0 -0.32842252503458447 -0.9522396606785402
5041000000.0 -0.3193479847059023 -0.9947356954753869
5044000000.0 -0.29683749647194557 -0.9942795661394542
5047000000.0 -0.3329402093518173 -0.9955088888323519
5050000000.0 -0.2786956285762805 -1.0025775208420995
5053000000.0 -0.4071627163029633 -1.0123353885916975
5056000000.0 -0.3387456639500216 -1.0137320395420126
5059000000.0 -0.34898022913010646 -1.0003272141171116
5062000000.0 -0.414762846827771 -0.9525714644836136
5066000000.0 -0.3471618325575644 -0.9829098294792469
5069000000.0 -0.4260617859785665 -0.9846215917178597
5072000000.0 -0.3792380613069414 -0.9424688778635819
5075000000.0 -0.4014746179522941 -1.0054811462253188
5078000000.0 -0.47822050666255694 -0.9831083888961594
5081000000.0 -0.44148348791359443 -0.9159972697753888
5084000000.0 -0.43420857293703263 -0.9879647528078439
5088000000.0 -0.3606975966704314 -0.9717170257105363
5091000000.0 -0.4621336797259254 -0.929269143116837
5094000000.0 -0.47992684956110593 -0.9673764314833276
5097000000.0 -0.4488358279710869 -0.9912954126303597
5100000000.0 -0.47208007668380897 -0.9480698112949523
5103000000.0 -0.49586913682037603 -0.9586463161673956
5106000000.0 -0.5014783341925577 -0.9653711908809837
5109000000.0 -0.4558354769778928 -0.9413132514480125
5112000000.0 -0.46152330191553353 -0.9468015871466153
5116000000.0 -0.46868139985407065 -0.8556305657954384
5119000000.0 -0.5184847667984324 -0.9125668837007688
5122000000.0 -0.5065482194555637 -0.8722945715127635
5125000000.0 -0.5192314221731749 -0.9111783675972117
5128000000.0 -0.57455577519577 -0.9227805161244602
5131000000.0 -0.49633577628746417 -0.8989672301111656
5134000000.0 -0.5981517200828597 -0.8906995837836805
5138000000.0 -0.5804467502362194 -0.8864455133317165
5141000000.0 -0.548710569337189 -0.9061894550776453
5144000000.0 -0.5516560703082946 -0.9082117749642522
5147000000.0 -0.5606530797890532 -0.9052170275403707
5150000000.0 -0.607619252415453 -0.8659107499227253
5153000000.0 -0.6254704825412265 -0.8790220494614529
5156000000.0 -0.595543473065756 -0.9078465319693931
5159000000.0 -0.5925868207631767 -0.9127021902080652
5162000000.0 -0.6087931997523734 -0.8472510785051512
5166000000.0 -0.6392825475336876 -0.8632474176870748
5169000000.0 -0.6337752885673968 -0.8621642686380756
5172000000.0 -0.6289925943048337 -0.844934957771826
5175000000.0 -0.6430560275701507 -0.8650679811351567
5178000000.0 -0.6689784304295947 -0.8242937612139389
5181000000.0 -0.6656619698488031 -0.8602842075157042
5184000000.0 -0.6336473771002692 -0.8151608139462644
5188000000.0 -0.6244026197191425 -0.8428391145493747
5191000000.0 -0.690615192674609 -0.858018058142515
