! Created with skrf 1.8.0 (http://scikit-rf.org).
# Hz S RI R 50.0 
!freq ReS11 ImS11
4000000000.0 0.6111157913082446 0.8298945235650166
4003000000.0 0.6477709244903131 0.842188252933396
4006000000.0 0.6420343033060122 0.8024730036315313
4009000000.0 0.6269621456874277 0.8324344633937211
4012000000.0 0.6441080487444919 0.8253318309523495
4016000000.0 0.6585825692187677 0.7834347987052224
4019000000.0 0.664247862476997 0.7831311942459562
4022000000.0 0.6355452082036325 0.820867372867649
4025000000.0 0.7719520370130151 0.727883452183344
4028000000.0 0.7288560756353558 0.7470595912439522
4031000000.0 0.665135471014793 0.7055736391288158
4034000000.0 0.7184031850325223 0.7643018494252658
4038000000.0 0.7342853521575478 0.7190655638363775
4041000000.0 0.7417919208834723 0.7167183007792123
4044000000.0 0.8241099969802179 0.7721617974035491
4047000000.0 0.7668572941987734 0.7615452091381785
4050000000.0 0.7568192421099112 0.673867269945576
4053000000.0 0.7781479536515844 0.6551012570606249
4056000000.0 0.7751238506663606 0.6798471627781125
4059000000.0 0.7594024005196244 0.6809080125324709
4062000000.0 0.7745133563248968 0.6446430847322855
4066000000.0 0.7800576538096693 0.6332368700542309
4069000000.0 0.8187392953342424 0.6437243271654765
4072000000.0 0.7488106034045187 0.7019173913226562
4075000000.0 0.798861748364269 0.6706678537370072
4078000000.0 0.8021196518780052 0.6563247375750673
4081000000.0 0.794482714285177 0.6569861201011133
4084000000.0 0.8381643477955176 0.6301096343285331
4088000000.0 0.7522444953769467 0.6366056617311231
4091000000.0 0.8368936034889606 0.6304577386697363
4094000000.0 0.8394902030012336 0.592216748856586
4097000000.0 0.8310530283171313 0.6356568393916353
4100000000.0 0.7971790076545037 0.6012199372344933
4103000000.0 0.8378743768702175 0.6395416248491725
4106000000.0 0.8374002238424173 0.5910717688679386
4109000000.0 0.8638682416893422 0.5926069810790897
4112000000.0 0.8308942882186625 0.5708359831516499
4116000000.0 0.8537592180719837 0.5744633566433901
4119000000.0 0.8485497911578127 0.5530501416112944
4122000000.0 0.8688960296747031 0.5115825619693388
4125000000.0 0.882477960245168 0.5424069517646135
4128000000.0 0.8198483110924406 0.515327064155883
4131000000.0 0.8524376531309356 0.5342699043513873
4134000000.0 0.8914107356782999 0.5595460866774014
4138000000.0 0.8627421673481677 0.5032162020986977
4141000000.0 0.8949163631422652 0.49207585464663084
4144000000.0 0.9118969672468482 0.5098924486613077
4147000000.0 0.8907326876739025 0.48658366687108595
4150000000.0 0.8873377478099188 0.4681493936952846
4153000000.0 0.889390608601462 0.48159221007121966
4156000000.0 0.912860697345504 0.4827743095569629
4159000000.0 0.8900435428751481 0.496580771318817
4162000000.0 0.9177533295855402 0.43344757255395494
4166000000.0 0.945045978141956 0.4438729856332002
4169000000.0 0.9271505588687526 0.4142625405227416
4172000000.0 0.9133011615722346 0.44758342409351254
4175000000.0 0.9325310089949015 0.4495228678042375
4178000000.0 0.9309611956956184 0.4540896022106622
4181000000.0 0.952756942480232 0.3985660935736839
4184000000.0 0.9506009930507676 0.3904827407138359
4188000000.0 0.9349747812556464 0.4013182038789921
4191000000.0 0.9071976026512701 0.39965033230212826
4194000000.0 0.9167187520714251 0.3539408621422835
4197000000.0 0.9749127847481288 0.3684882968580267
4200000000.0 0.9622283337183808 0.38551729528437706
4203000000.0 0.9502379140040782 0.3836748223390848
4206000000.0 0.9651194470434711 0.35910927282213495
4209000000.0 0.9421370505029693 0.3467084450154407
4212000000.0 0.973368813599913 0.31926880045257955
4216000000.0 0.9669853780022472 0.3501553326795486
4219000000.0 0.985403817209879 0.3363229912715927
4222000000.0 0.9870805170298189 0.30453231986199875
4225000000.0 0.9594238533504096 0.3084479559148141
4228000000.0 0.9828982175401737 0.2974021515787666
4231000000.0 0.9724907090254822 0.29388489946403584
4234000000.0 0.9780997391075613 0.27904941956777646
4238000000.0 0.9851682714657053 0.2630518439303794
4241000000.0 0.9709950125844162 0.2519283966820523
4244000000.0 0.9622597769003534 0.25471617164087074
4247000000.0 0.9840223030380438 0.23966991121472714
4250000000.0 0.9674252306859699 0.23177082763808982
4253000000.0 0.9866267247294231 0.216391595256265
4256000000.0 0.9987397634048036 0.21395444155729426
4259000000.0 0.961533743911081 0.19796120308359513
4262000000.0 0.9838757873389796 0.18249652174892575
4266000000.0 1.0013641314153185 0.14971735180085066
4269000000.0 1.002429276953849 0.20719660366532147
4272000000.0 0.9804947192766488 0.19003419709564812
4275000000.0 0.996475697369041 0.18403194241463222
4278000000.0 1.011590209242634 0.17876171953639414
4281000000.0 1.0158860386745507 0.17154690557572638
4284000000.0 1.0216776890927894 0.11206090414000913
4288000000.0 1.011401751726647 0.1716112328051585
4291000000.0 0.9807623873968545 0.11772033754732315
4294000000.0 0.9983852664924397 0.09203046842997699
4297000000.0 0.9983021307124532 0.14461685549527303
4300000000.0 1.0021228611914417 0.08709615640497387
4303000000.0 0.9782715608159399 0.08736277288401713
4306000000.0 1.0092430322966706 0.10810823355067828
4309000000.0 1.024999777896589 0.07509007978859668
4312000000.0 1.024858122012877 0.10929480966769292
4316000000.0 1.0285302884662235 0.10638437421415149
4319000000.0 0.9861160118463447 0.06125794045975809
4322000000.0 0.9860880667356702 0.024615485606654622
4325000000.0 1.018613628337226 0.040295440319060336
4328000000.0 0.9974575240803458 0.039930242640196525
4331000000.0 1.029387875501136 0.010388817525984584
4334000000.0 1.0273000028877943 0.017747070245939994
4338000000.0 1.014951986581516 0.04821558611228681
4341000000.0 1.0246118155523871 0.030013574802404852
4344000000.0 1.0299229000459453 -0.010847827714475955
4347000000.0 1.036090829608571 -0.04847422043161244
4350000000.0 0.9748984613223289 -0.04811452158722153
4353000000.0 0.9912999449824984 -0.009423766855952115
4356000000.0 0.9825798211376904 -0.06228222372830344
4359000000.0 0.9549438335565081 -0.05127088956378119
4362000000.0 1.0114580668785937 -0.11017781473609306
4366000000.0 1.0118314617154607 -0.05759079558959279
4369000000.0 0.9794627193570999 -0.10689861053114678
4372000000.0 0.9832249785964196 -0.14642597294571963
4375000000.0 1.0030030334061653 -0.07251103255524761
4378000000.0 0.9863280808305096 -0.11408262128975248
4381000000.0 0.962416772608145 -0.11589452184057412
4384000000.0 1.0529846047770366 -0.15225750961651924
4388000000.0 0.9859511877987154 -0.12837431412272565
4391000000.0 1.0065439613119302 -0.141359673724899
4394000000.0 0.9515497798835568 -0.15377787442365182
4397000000.0 0.988580679037538 -0.17385104878860005
4400000000.0 1.0211541931033923 -0.17760724508981446
4403000000.0 1.0016039156869514 -0.18508323962576184
4406000000.0 0.984562781128323 -0.22436800622386663
4409000000.0 1.0208862027664867 -0.22613627822789648
4412000000.0 0.9696822534471744 -0.2588949822502812
4416000000.0 0.9593825258697521 -0.24501110374710172
4419000000.0 0.9861424398216788 -0.23847421227177878
4422000000.0 0.977657210787392 -0.21953840645942538
4425000000.0 1.0022626792748175 -0.23079670843515968
4428000000.0 0.9635450232715429 -0.26166777693757554
4431000000.0 1.007435511117062 -0.2575999269256739
4434000000.0 0.9513872444586138 -0.2689270563536637
4438000000.0 0.9884927198927853 -0.2890424376347467
4441000000.0 0.9842556357994547 -0.2833015950741615
4444000000.0 0.9403989941614006 -0.2887280104762895
4447000000.0 0.9467300005493751 -0.3076796857703092
4450000000.0 0.9508569171423084 -0.30075280266917925
4453000000.0 0.9714398911115858 -0.3246080098596651
4456000000.0 0.922366409190814 -0.3257628827207595
4459000000.0 0.9145412750589208 -0.3431723323252991
4462000000.0 0.9999710920022769 -0.3670397182149432
4466000000.0 0.9760315145287771 -0.3857150469428827
4469000000.0 0.9509469384837582 -0.35422350647574097
4472000000.0 0.9410539430841689 -0.40026412441143605
4475000000.0 0.9114756717750488 -0.36948762410280656
4478000000.0 0.9748337521941175 -0.42681258640291864
4481000000.0 0.8791042291901622 -0.40061800054140767
4484000000.0 0.9044751005578151 -0.4380629946509478
4488000000.0 0.9139185417066461 -0.4120338820935025
4491000000.0 0.9155182271437828 -0.4267711656656076
4494000000.0 0.9115816702223664 -0.418508404002823
4497000000.0 0.9002308526364551 -0.4075057766885222
4500000000.0 0.9202256482417583 -0.4284829605062287
4503000000.0 0.9367879026257908 -0.453972869191775
4506000000.0 0.8960522184900717 -0.45548574799675334
4509000000.0 0.8721222723770299 -0.4563161071211823
4512000000.0 0.8644892715574023 -0.4650932581605641
4516000000.0 0.912612252589586 -0.49322495064874117
4519000000.0 0.8756087979810758 -0.4690507616713073
4522000000.0 0.8665206399272514 -0.5006719248370851
4525000000.0 0.8979025879576514 -0.4716403162657017
4528000000.0 0.8815176174127046 -0.5164790387497671
4531000000.0 0.8760193756647968 -0.4942657673846982
4534000000.0 0.8510238231630378 -0.5170151873692923
4538000000.0 0.8479720087347118 -0.5338398721620011
4541000000.0 0.8375848945249794 -0.5781713556874972
4544000000.0 0.8387973297224103 -0.5429362665084679
4547000000.0 0.8504306529849925 -0.5390986592026086
4550000000.0 0.825788515703066 -0.5871449663801148
4553000000.0 0.8324008025209035 -0.5817069311368497
4556000000.0 0.7846055181275733 -0.5840045720370338
4559000000.0 0.8025736179883942 -0.6009868194194539
4562000000.0 0.8434620696765751 -0.5805154267500658
4566000000.0 0.8130522440887773 -0.6118661894098949
4569000000.0 0.7765413629277953 -0.6020793682537309
4572000000.0 0.7879853340040326 -0.6030065796524572
4575000000.0 0.7853005732175558 -0.6505270705258832
4578000000.0 0.8230283793470416 -0.639945811031334
4581000000.0 0.7910589328009388 -0.6420265918006607
4584000000.0 0.7758896109332734 -0.6354943603363655
4588000000.0 0.7772589939777242 -0.6537623141574358
4591000000.0 0.7702070855867348 -0.6399973977211028
4594000000.0 0.721603934621732 -0.6739782768732978
4597000000.0 0.7600156310324602 -0.6867734432728174
4600000000.0 0.7040632522782168 -0.6970988033932604
4603000000.0 0.7485834467119653 -0.7024045447048489
4606000000.0 0.7377403007251433 -0.6949970933618761
4609000000.0 0.7173033708426929 -0.7117142222975046
4612000000.0 0.7338344234241143 -0.7343579529166803
4616000000.0 0.6990448773817446 -0.6978435973348532
4619000000.0 0.7055480925445357 -0.7124746438227719
4622000000.0 0.7064417348277973 -0.7131362620187661
4625000000.0 0.6568447808757981 -0.7216021997881635
4628000000.0 0.694288704852886 -0.7086367960816966
4631000000.0 0.6755795339099817 -0.7471710849568256
4634000000.0 0.6687638150234639 -0.7511737409089312
4638000000.0 0.6812865446766112 -0.7611765433115373
4641000000.0 0.6463639927885568 -0.7732691894060525
4644000000.0 0.6430683858348826 -0.7642490994464811
4647000000.0 0.6714565081430165 -0.7738540138478115
4650000000.0 0.619810286597745 -0.7810654558815584
4653000000.0 0.6635163804882613 -0.7840844802808514
4656000000.0 0.6205566167235081 -0.7967052523871114
4659000000.0 0.6074635249737725 -0.7874337962296964
4662000000.0 0.6148484967102599 -0.8124343236240464
4666000000.0 0.6037355593499629 -0.8227547508562468
4669000000.0 0.6063811694807659 -0.8038366210573514
4672000000.0 0.5714587561440356 -0.8188195111257581
4675000000.0 0.5767670637609014 -0.835670448045745
4678000000.0 0.5515243905271543 -0.8152485742554396
4681000000.0 0.5543683795784298 -0.841333964084943
4684000000.0 0.5582222195197308 -0.8639732930448785
4688000000.0 0.5153696090191903 -0.8337972484782525
4691000000.0 0.561379811256342 -0.8598853477189696
4694000000.0 0.543086582567696 -0.8232312570297076
4697000000.0 0.4891860324432246 -0.8427341082051312
4700000000.0 0.5266305667620063 -0.8547809655067884
4703000000.0 0.5169964872956252 -0.8217631024164296
4706000000.0 0.4932187267494859 -0.8959967504701588
4709000000.0 0.46210499507210956 -0.8879964871250223
4712000000.0 0.4941405171942471 -0.8693438663293065
4716000000.0 0.4685697078008899 -0.8980166100995599
4719000000.0 0.4950656401245799 -0.8832662636004033
4722000000.0 0.47720424489706736 -0.8734428669013821
4725000000.0 0.4576991613241338 -0.9149632172504107
4728000000.0 0.4595813593566677 -0.9091422477530275
4731000000.0 0.4616927209500326 -0.9186077574649414
4734000000.0 0.46658852631303804 -0.8989708785003891
4738000000.0 0.4702399471368855 -0.929948809232982
4741000000.0 0.42555308663081404 -0.9452814100383699
4744000000.0 0.3931323441780911 -0.9119828625605834
4747000000.0 0.41869168771703447 -0.8976443916522928
4750000000.0 0.4099674057963316 -0.9800627371446305
4753000000.0 0.40881578249783584 -0.9422905882690946
4756000000.0 0.3737345773770614 -0.9323747487583345
4759000000.0 0.3927068246152631 -0.9396124996418239
4762000000.0 0.35018373728374774 -0.975322666572885
4766000000.0 0.3542958376322367 -0.9502569375199615
4769000000.0 0.3605123887921676 -0.9689100435312362
4772000000.0 0.3429148656573573 -0.9758637065217194
4775000000.0 0.32761031271871355 -1.0049481355179124
4778000000.0 0.3400200991082027 -0.9605809879137336
4781000000.0 0.34039787320947507 -0.9513249508325954
4784000000.0 0.31877940151333245 -0.9526169928313805
4788000000.0 0.31990858956241247 -0.986047219159244
4791000000.0 0.30495029712613997 -0.9556364603538144
4794000000.0 0.3112510720774591 -0.9844046467325784
4797000000.0 0.29815069406016625 -0.9811479542813436
4800000000.0 0.2719975714195765 -0.9589801600450154
4803000000.0 0.229812350494015 -0.9774753189958907
4806000000.0 0.25277354738007274 -0.978449920521149
4809000000.0 0.20084286423799236 -0.9919559878071637
4812000000.0 0.2036603192082556 -0.9860293191403093
4816000000.0 0.2456660342966676 -0.9871853105033455
4819000000.0 0.2589649627551063 -1.0161511388463185
4822000000.0 0.23749384115225275 -1.0399244717083629
4825000000.0 0.2488758066539161 -1.0088917428778579
4828000000.0 0.20274991267310122 -0.9782431670084432
4831000000.0 0.15323720826702472 -1.0366759708712128
4834000000.0 0.1966741933350804 -1.0203368575224498
4838000000.0 0.1601138765429484 -1.041134848007223
4841000000.0 0.1493865859627839 -0.9958225344469461
4844000000.0 0.1750045375198716 -1.0076733685404395
4847000000.0 0.15374328245235777 -0.9771868953743046
4850000000.0 0.11964655756805889 -1.0218422142682813
4853000000.0 0.12976651115112728 -0.9784489976943804
4856000000.0 0.11521161636236975 -0.9882905974459929
4859000000.0 0.10415730644980856 -1.0753798579113494
4862000000.0 0.15762498781557677 -0.9865194724696261
4866000000.0 0.09645839665131051 -1.0547492684343356
4869000000.0 0.08409683131477007 -1.0262112400252066
4872000000.0 0.051142335227703006 -1.0500817708830175
4875000000.0 0.1413388016492087 -1.063619350557359
4878000000.0 0.07720467179180758 -1.019042696766245
4881000000.0 0.016184154650777556 -1.0819614139076936
4884000000.0 0.06875301205959611 -1.0130256027428977
4888000000.0 0.06923364710697706 -1.0294227446506543
4891000000.0 0.05159252549970049 -1.0519370132547239
4894000000.0 -0.005231296951624463 -1.0232741931989908
4897000000.0 0.050232271344104455 -1.0074855074151936
4900000000.0 0.016635863050116807 -1.0373837786695776
4903000000.0 0.032783695199537305 -1.0559061643048266
4906000000.0 -0.016238690941504638 -1.0618525872773719
4909000000.0 -0.0347429140269218 -1.0255533795317084
4912000000.0 -0.04883046161597897 -1.0790537859280618
4916000000.0 -0.03113793074420127 -1.022941369860979
4919000000.0 -0.004833492075820428 -1.0250652032811427
4922000000.0 -0.0490077480408766 -1.0515665123801567
4925000000.0 -0.0701443874382725 -1.006380714314079
4928000000.0 -0.015167591526873456 -0.9892439988151468
4931000000.0 -0.05768157210364562 -1.0648595626643715
4934000000.0 -0.0660659099475213 -0.9603128045854695
4938000000.0 -0.10068195628107869 -1.0159178101105797
4941000000.0 -0.1047892224124891 -1.01945868473965
4944000000.0 -0.08771444974677628 -0.9789077348549091
4947000000.0 -0.10711322697723824 -0.9799359814793358
4950000000.0 -0.11530839365581196 -0.9987550308512697
4953000000.0 -0.16015907871319024 -1.0295147425591438
4956000000.0 -0.1714735322551298 -1.0125898726823783
4959000000.0 -0.1672858104968333 -1.0117055926590488
4962000000.0 -0.1502680766805838 -1.0545183413047394
4966000000.0 -0.158263132675509 -1.0416589186661926
4969000000.0 -0.1665070370279384 -1.0762009858296737
4972000000.0 -0.19416282261708231 -1.0003041867551197
4975000000.0 -0.15190310589393188 -0.992214863619917
4978000000.0 -0.1902364884422001 -1.0281382405714194
4981000000.0 -0.21184377440462934 -1.0164667916663641
4984000000.0 -0.20701715924255834 -0.9721244393576142
4988000000.0 -0.18316200933033244 -1.030871874917942
4991000000.0 -0.18729233156073832 -1.0393231633594329
4994000000.0 -0.229468144620376 -1.00073024446637
4997000000.0 -0.3068216252804327 -0.9771193763837565
5000000000.0 -0.2531912487553777 -1.032402254049802
5003000000.0 -0.24018811436920057 -1.0544299557902084
5006000000.0 -0.2820157734302381 -1.0701084027816374
5009000000.0 -0.2604423279050734 -0.9980508240292593
5012000000.0 -0.3101337540596267 -0.9905282728157625
5016000000.0 -0.25879786419559975 -1.0271040367201354
5019000000.0 -0.29088534226627727 -0.9752357669135066
5022000000.0 -0.33260889930581017 -1.011661694768636
5025000000.0 -0.36093782189806184 -1.0480967656274722
5028000000.0 -0.35476521835346664 -0.9961045693948225
5031000000.0 -0.35802282794029516 -0.9712688622214302
5034000000.0 -0.3915377217392685 -0.9789111071249434
5038000000.0 -0.3617369548974366 -0.9394755056493653
5041000000.0 -0.3143501195313132 -0.98019852891308
5044000000.0 -0.2898069414078609 -0.980327342723666
5047000000.0 -0.3548828620302387 -0.9838970308038358
5050000000.0 -0.2826125536069549 -1.0085168628805692
5053000000.0 -0.4258253335364426 -1.0075715602369666
5056000000.0 -0.32509827284548953 -0.9685539667275116
5059000000.0 -0.3363163976196292 -0.9882895502242558
5062000000.0 -0.4363639908791056 -0.9643492462861845
5066000000.0 -0.3641347830542141 -0.9317736715782965
5069000000.0 -0.4266972979019793 -0.9640732929669037
5072000000.0 -0.43151647950680583 -0.9205403156312151
5075000000.0 -0.41833906291195044 -0.9440359171605497
5078000000.0 -0.47873669101335686 -0.8827862419838046
5081000000.0 -0.4663965712497217 -0.9143553887167567
5084000000.0 -0.4260085360379321 -0.9105024679602869
5088000000.0 -0.42294296648515495 -0.9360803123247272
5091000000.0 -0.505705122716706 -0.8678660741913835
5094000000.0 -0.49712409296653365 -0.9396341480271112
5097000000.0 -0.4316283802139076 -0.9217106639119821
5100000000.0 -0.5140570541910032 -0.9132571343730157
5103000000.0 -0.4944360069264654 -0.8904157732620955
5106000000.0 -0.492461551563898 -0.9659666399937239
5109000000.0 -0.4658892142122584 -0.9266044559655533
5112000000.0 -0.57658633165628 -0.8583314312274604
5116000000.0 -0.5097983422150448 -0.8338758418709598
5119000000.0 -0.5492663701556112 -0.9111153982764462
5122000000.0 -0.511448484517268 -0.881031977377859
5125000000.0 -0.491287237839873 -0.8686967445054224
5128000000.0 -0.5285825165097534 -0.8926542776511919
5131000000.0 -0.49915188377846953 -0.8529145322086039
5134000000.0 -0.5932222630197016 -0.8641454230618463
5138000000.0 -0.5677395067107345 -0.8240396349563301
5141000000.0 -0.5233935836747711 -0.9197828977147202
5144000000.0 -0.6360530419623889 -0.9018550471499027
5147000000.0 -0.6009929485221663 -0.8798989068354816
5150000000.0 -0.5908779811142879 -0.877825823989481
5153000000.0 -0.6073422734625182 -0.8768857211801202
5156000000.0 -0.6464309369143145 -0.8240402548823096
5159000000.0 -0.6414045848762935 -0.9209217207288745
5162000000.0 -0.6429790037698687 -0.7977861555628936
5166000000.0 -0.6336932451308627 -0.8483781553582905
5169000000.0 -0.6275067734014976 -0.8441767570211867
5172000000.0 -0.6072784766836267 -0.8191625927304437
5175000000.0 -0.6426795193979018 -0.8533174511221399
5178000000.0 -0.6555919852680927 -0.7991247259575975
5181000000.0 -0.6779205683327121 -0.8613310804135714
5184000000.0 -0.6675658292147747 -0.7570785771914222
5188000000.0 -0.6935797921242778 -0.792381669887575
