! Created with skrf 1.8.0 (http://scikit-rf.org).
# Hz S RI R 50.0 
!freq ReS11 ImS11
4000000000.0 0.6449072888083115 0.7374049067808277
4003000000.0 0.6529081802771445 0.8092891089140851
4006000000.0 0.6951587243095336 0.791207020000557
4009000000.0 0.6893311475416337 0.7781956625400263
4012000000.0 0.6881722795151146 0.8049618816388465
4016000000.0 0.7311162078707142 0.7812940634580094
4019000000.0 0.7194306763306686 0.7517119784092161
4022000000.0 0.6760948654618211 0.8060797393432949
4025000000.0 0.7689762844823798 0.7015557267547206
4028000000.0 0.7457861702953842 0.7358987588263133
4031000000.0 0.6726349667814226 0.6824971804765131
4034000000.0 0.7289453491361797 0.7342118550816926
4038000000.0 0.7842850199912168 0.7415833378186704
4041000000.0 0.7702979562302719 0.7400947382760689
4044000000.0 0.7974594350238771 0.7475260437318744
4047000000.0 0.7469843160044388 0.700031332846498
4050000000.0 0.8052490651612743 0.7126041817737117
4053000000.0 0.7834752539728478 0.638198854221506
4056000000.0 0.7804917235357607 0.6622448448266821
4059000000.0 0.769883737698537 0.669627866144022
4062000000.0 0.7906801869899203 0.6390437466637351
4066000000.0 0.7392748804629072 0.6103890076925881
4069000000.0 0.8623899293927504 0.6126916386450331
4072000000.0 0.7792534930896164 0.6773014606126118
4075000000.0 0.8287504663880637 0.674842792801631
4078000000.0 0.8532591753274089 0.6185226617043129
4081000000.0 0.8057881615832589 0.7059690769480997
4084000000.0 0.8668670080936722 0.6138849364376242
4088000000.0 0.8060562117816186 0.6402337468066377
4091000000.0 0.8639810793418063 0.6386353331068981
4094000000.0 0.8638155582014817 0.6137957249634222
4097000000.0 0.8578809756809449 0.6243253557368393
4100000000.0 0.8433486462911765 0.564415115276389
4103000000.0 0.8691820263205097 0.5965081251497855
4106000000.0 0.8481225856318233 0.554202097276257
4109000000.0 0.9187011661993514 0.5345412543760861
4112000000.0 0.8946892755997629 0.5617140523698225
4116000000.0 0.8660543792111701 0.5617174410003044
4119000000.0 0.8876147999606888 0.5127874247072174
4122000000.0 0.8954777869909503 0.5063282605037026
4125000000.0 0.9346885134809667 0.5234744374374034
4128000000.0 0.8705679583164889 0.5192684299884207
4131000000.0 0.8762482427905495 0.48945527568847436
4134000000.0 0.8889714484798367 0.5150666862544983
4138000000.0 0.875495976880347 0.43675034581345856
4141000000.0 0.9029839027221267 0.46732554738315557
4144000000.0 0.9086437582123508 0.49634811941694285
4147000000.0 0.9346092490122122 0.41705343964406744
4150000000.0 0.956837817525491 0.4876392046943406
4153000000.0 0.9454126507494043 0.4405140044140543
4156000000.0 0.9298845879839888 0.48493550800743734
4159000000.0 0.9086543718343516 0.4418041820533644
4162000000.0 0.8979408788823244 0.4220596630325135
4166000000.0 0.952966172052639 0.42221450938129934
4169000000.0 0.9081734829299352 0.4043220726632766
4172000000.0 0.9549883482648659 0.4368917937215275
4175000000.0 0.935279931296474 0.4151624679862848
4178000000.0 0.9636484708989692 0.4229613943606001
4181000000.0 0.9537113392746788 0.37101822335495216
4184000000.0 0.9359804586648404 0.3704151615755838
4188000000.0 0.9860201943305738 0.34688236997414656
4191000000.0 0.9363442273960494 0.398827075628751
4194000000.0 0.9548643046800841 0.3512701557506507
4197000000.0 0.9655626488280129 0.3431680294840502
4200000000.0 0.9688473404423397 0.35209626367774494
4203000000.0 0.949955619679126 0.3610641803154535
4206000000.0 0.9909725566092397 0.31538962135809817
4209000000.0 0.9530772919765529 0.30050987350267305
4212000000.0 0.9998307902714508 0.273615303361892
4216000000.0 0.9710926398538565 0.3214255046095455
4219000000.0 1.0018621185760117 0.2924152069676609
4222000000.0 0.9877076955439761 0.2735959032402619
4225000000.0 0.9578296909341486 0.2681884687306749
4228000000.0 0.997874144893919 0.26715901077347104
4231000000.0 0.9960547863330019 0.23604771669023128
4234000000.0 1.0019182079152207 0.25149797476557806
4238000000.0 0.9866613217360254 0.21961276039308356
4241000000.0 0.990244042999961 0.212038261375264
4244000000.0 0.9842638625803692 0.21702228219381847
4247000000.0 0.9786160329929492 0.21036403473437998
4250000000.0 0.98919138158886 0.1917148660269698
4253000000.0 0.9714178001237304 0.17971207742485457
4256000000.0 1.023553281925062 0.18224749461766254
4259000000.0 0.9749182134241638 0.16050711899763234
4262000000.0 1.012672429980665 0.15784566375580236
4266000000.0 1.0166942830358374 0.15458614093811796
4269000000.0 0.9948161339130591 0.14565101275353035
4272000000.0 1.0035032568400926 0.14335209206561197
4275000000.0 1.006845058576589 0.1283818168810877
4278000000.0 1.0333666637755385 0.15136499186124475
4281000000.0 1.0205356488296788 0.1304511154478597
4284000000.0 1.0265947455996187 0.08314032920795464
4288000000.0 1.000303366689178 0.1348245814580011
4291000000.0 0.9770231440846509 0.09726511182200585
4294000000.0 1.028481322631547 0.07264998621808279
4297000000.0 1.0145839716018494 0.07174236605559427
4300000000.0 0.9773578210033842 0.07918736308737018
4303000000.0 0.994852807356336 0.0435565813363112
4306000000.0 1.0226377061725505 0.09452581776603383
4309000000.0 1.015854218607663 0.05206860305870541
4312000000.0 1.0257198763934552 0.06389943539924031
4316000000.0 1.0270893430843329 0.020318088888271135
4319000000.0 1.007903925268443 0.021189611234225664
4322000000.0 0.9988290654477996 -0.02228420093623762
4325000000.0 1.0097274714984177 0.009806848902307971
4328000000.0 1.002647110124807 -0.005336146289065105
4331000000.0 0.9973145725358348 -0.07077569838028727
4334000000.0 1.0281301947825854 -0.02186692473344949
4338000000.0 1.0120157557857248 -0.016350861140901438
4341000000.0 1.0398718432861929 -0.02970781059287271
4344000000.0 1.0269441129335355 -0.02930602698388564
4347000000.0 1.0023441623124196 -0.09239648755883331
4350000000.0 0.9687412835307776 -0.08707603749169297
4353000000.0 1.0020691681714315 -0.07060077643203669
4356000000.0 1.019134667019583 -0.10862514327392474
4359000000.0 0.9543460277244552 -0.09478929981678995
4362000000.0 1.0040306593691706 -0.14944649067503518
4366000000.0 1.034045500177583 -0.11694049860213362
4369000000.0 0.9763771488575081 -0.13759764037431574
4372000000.0 0.9800879262552356 -0.16794152811155103
4375000000.0 0.991435149055242 -0.128295809153438
4378000000.0 0.9713782629815236 -0.1595039801872435
4381000000.0 0.9787178043255385 -0.13204682633173553
4384000000.0 1.051440657792741 -0.18633394113710516
4388000000.0 0.9788549877866672 -0.1627902797866831
4391000000.0 1.0044242099199052 -0.18843875125104403
4394000000.0 0.9615365760581764 -0.2066409990635986
4397000000.0 0.9794922775146733 -0.2042117372223836
4400000000.0 1.020831315839141 -0.22106463806190135
4403000000.0 1.000265504486667 -0.22962586872118948
4406000000.0 0.9826615483435962 -0.2507986911593118
4409000000.0 1.0095060406741172 -0.25183131477738446
4412000000.0 0.9492824344895925 -0.30605893833323006
4416000000.0 0.9735812596506361 -0.2777886746060445
4419000000.0 0.961329642814715 -0.29275643005913476
4422000000.0 0.9604693762397325 -0.2751393759728587
4425000000.0 0.9983303560505951 -0.2672560099228929
4428000000.0 0.9643344403587886 -0.29375661877447
4431000000.0 0.9803496178203768 -0.2977058491553972
4434000000.0 0.9456922709709381 -0.32086820932783333
4438000000.0 0.9750126552761909 -0.3318885811270802
4441000000.0 0.9554912159561746 -0.32741902617081914
4444000000.0 0.9377683716217893 -0.3237252024612989
4447000000.0 0.9497697248009916 -0.3531123937127046
4450000000.0 0.9433855092559159 -0.3572933425871673
4453000000.0 0.9675983944865703 -0.37005077858033786
4456000000.0 0.9089923062198588 -0.37110122687133174
4459000000.0 0.9022643888809772 -0.38222220122031153
4462000000.0 0.9670906264958452 -0.4021092665188147
4466000000.0 0.9643985615506756 -0.4211090429643465
4469000000.0 0.9559751364156266 -0.37642410604102944
4472000000.0 0.9373800142439156 -0.43447303375460117
4475000000.0 0.9029296536482019 -0.4114859827484202
4478000000.0 0.9394330807389534 -0.4600925424616237
4481000000.0 0.8930324258114645 -0.4316893354507929
4484000000.0 0.8734904352855677 -0.4795254620700694
4488000000.0 0.8802420353605588 -0.46557498518190443
4491000000.0 0.9002660360687221 -0.4601964358560278
4494000000.0 0.8915428158407203 -0.45550118775845666
4497000000.0 0.8957416881682354 -0.4725755780119005
4500000000.0 0.8829666562498812 -0.4782272139722774
4503000000.0 0.9081613616546542 -0.509091795747929
4506000000.0 0.8935623613116683 -0.5020782978908415
4509000000.0 0.8671702007386914 -0.48641283419105297
4512000000.0 0.8477817884771071 -0.5270638685890062
4516000000.0 0.879512730349831 -0.5333242801284859
4519000000.0 0.857973056530591 -0.5060019160227922
4522000000.0 0.8498699647755887 -0.5333245664130986
4525000000.0 0.8710340849236631 -0.5196101697393285
4528000000.0 0.8500720184992119 -0.5668359703005725
4531000000.0 0.8554250304874189 -0.5460319736311985
4534000000.0 0.8211001677026796 -0.5509469069649942
4538000000.0 0.8209597388882894 -0.6010352609223139
4541000000.0 0.7712410614684105 -0.611794707899993
4544000000.0 0.8092332919964651 -0.574422913538397
4547000000.0 0.7928189604743218 -0.5793536082648139
4550000000.0 0.8055383043400217 -0.6124529750909814
4553000000.0 0.8018830666705399 -0.6418151318313944
4556000000.0 0.7822509639333557 -0.6083316789979188
4559000000.0 0.7973062605942256 -0.6467276645747675
4562000000.0 0.8129816248574013 -0.6526464470940745
4566000000.0 0.7893962544363557 -0.6461821862816355
4569000000.0 0.7473001904775737 -0.6338820726612513
4572000000.0 0.7730713702245846 -0.6556029123709937
4575000000.0 0.7516843597911183 -0.6725231347610576
4578000000.0 0.7769495780700455 -0.6846375458971943
4581000000.0 0.7360486304250865 -0.6904035788672889
4584000000.0 0.734958852738134 -0.6910985504514253
4588000000.0 0.7695890187265628 -0.6776524695278807
4591000000.0 0.7409236153197942 -0.6875483369777263
4594000000.0 0.7153070845122674 -0.703140558369599
4597000000.0 0.7068368475802047 -0.734843094815915
4600000000.0 0.6835141443367566 -0.7271530061938888
4603000000.0 0.6961393973899462 -0.7211340223024387
4606000000.0 0.7015993560531629 -0.7343350275768349
4609000000.0 0.7013694045458291 -0.7317824885706263
4612000000.0 0.6859294257178864 -0.7431839217886299
4616000000.0 0.6767596676235761 -0.7447762924042908
4619000000.0 0.6712055077171349 -0.7526308319119228
4622000000.0 0.6732253774630395 -0.7477503372297128
4625000000.0 0.620883737610496 -0.777199075862101
4628000000.0 0.6561856949864359 -0.765028899690025
4631000000.0 0.6193894716697435 -0.783608742530335
4634000000.0 0.6439034567676883 -0.7869558232232003
4638000000.0 0.6374075062284366 -0.7944439400990236
4641000000.0 0.6486596551769974 -0.802657373396061
4644000000.0 0.617476928213332 -0.8018175308741397
4647000000.0 0.614809802589638 -0.8075391168074535
4650000000.0 0.5747667060197401 -0.820354730650372
4653000000.0 0.6163947487103023 -0.8308729049662011
4656000000.0 0.5789671851028326 -0.8441737532995921
4659000000.0 0.5833926527841529 -0.8398586195274842
4662000000.0 0.5668102125092419 -0.8407235158908484
4666000000.0 0.5426301098620953 -0.8521946071155339
4669000000.0 0.5428000773427037 -0.825195106847413
4672000000.0 0.5353977042199893 -0.8921611027391607
4675000000.0 0.5522962795642514 -0.869523193093045
4678000000.0 0.5101514212588512 -0.857105198336966
4681000000.0 0.49374990677489766 -0.8716567914138603
4684000000.0 0.49986887448606315 -0.9050489894696134
4688000000.0 0.47087279551447847 -0.8728374597237896
4691000000.0 0.5218534380816491 -0.8789325506741852
4694000000.0 0.4926916209687785 -0.8393528461664137
4697000000.0 0.4568885684164135 -0.8639381171138949
4700000000.0 0.48921801025816525 -0.9046371549745058
4703000000.0 0.4778607915835489 -0.8542468232120208
4706000000.0 0.45457779150261796 -0.9239880787471783
4709000000.0 0.44624001419680726 -0.9270299112174044
4712000000.0 0.44364120781355565 -0.9090608709468403
4716000000.0 0.41238051182733065 -0.9299865802495437
4719000000.0 0.4494764941773022 -0.9000957116756719
4722000000.0 0.47574668780608365 -0.9116434468152255
4725000000.0 0.41247905972441423 -0.888948652542045
4728000000.0 0.3967881733310078 -0.9252783180456032
4731000000.0 0.4523660360384415 -0.9689979911245385
4734000000.0 0.4192412380412933 -0.9198813797194205
4738000000.0 0.43190408456863205 -0.9929205520187737
4741000000.0 0.3499969344598941 -0.9816003958899884
4744000000.0 0.34103791189279437 -0.9711724017497346
4747000000.0 0.37724122677204996 -0.9048341138557372
4750000000.0 0.364021066561776 -0.9830097636180712
4753000000.0 0.35885671440813044 -0.9561375343239426
4756000000.0 0.3305946107033696 -0.9637313469107338
4759000000.0 0.354529991815939 -0.9712312129339007
4762000000.0 0.2858006123585458 -0.9874176822938686
4766000000.0 0.2874906094914475 -0.962053032982228
4769000000.0 0.30463484117098044 -0.9836228207095995
4772000000.0 0.3142824051391374 -0.9970121177458732
4775000000.0 0.25541008044123475 -1.0580822419180942
4778000000.0 0.2670396057400418 -0.9860917843971592
4781000000.0 0.2908268874707452 -0.9677703031732285
4784000000.0 0.2523425502722204 -0.9838623308693774
4788000000.0 0.23407502274226458 -0.9910397078052815
4791000000.0 0.2523588123478386 -0.9980233409169349
4794000000.0 0.25417560272985457 -1.012626950565006
4797000000.0 0.22867666243168233 -0.9902241110002304
4800000000.0 0.19408392629958168 -0.9921454681530479
4803000000.0 0.1497278367002041 -1.0013084467366231
4806000000.0 0.20486743734967133 -1.038807587020059
4809000000.0 0.1689838020235425 -1.0362248816214812
4812000000.0 0.12281850446378319 -1.0132565631093187
4816000000.0 0.1840514232961507 -0.9935523903527619
4819000000.0 0.20476815291286649 -1.050025117314951
4822000000.0 0.1718317001919931 -1.0446596131420447
4825000000.0 0.1717866085845187 -1.045913250383936
4828000000.0 0.13766078243587812 -1.010995325576073
4831000000.0 0.09746294737514777 -1.062159640389985
4834000000.0 0.15707498470467612 -0.9940857851043285
4838000000.0 0.07686271800015991 -1.0502302994360624
4841000000.0 0.10683788357766734 -1.0036179066591115
4844000000.0 0.12367683165797515 -1.0204635476608614
4847000000.0 0.11424598183436248 -0.99752032892823
4850000000.0 0.08086684596274153 -1.0556189870996069
4853000000.0 0.07492675376180351 -0.9909294889059126
4856000000.0 0.06797713947436229 -1.0093109490617689
4859000000.0 0.04134438177099191 -1.059587738062676
4862000000.0 0.07400916131319556 -1.0070160957120649
4866000000.0 0.0037748506800853003 -1.0394822127083247
4869000000.0 0.02848768499446536 -1.0266692269248303
4872000000.0 -0.0005606624098147533 -1.064846152051264
4875000000.0 0.06771397159012373 -1.0473802361815316
4878000000.0 0.010522460880931773 -1.0210829156213983
4881000000.0 -0.021016036326608173 -1.0905994348249552
4884000000.0 0.003467740522320576 -1.0359642693661812
4888000000.0 0.004230867255830072 -1.0180124052018096
4891000000.0 -0.011818384184962477 -1.0551290478150166
4894000000.0 -0.0370840805055225 -1.0351261356890618
4897000000.0 -0.002398680791122914 -1.0357140879237996
4900000000.0 -0.04446736624235076 -1.066749833741449
4903000000.0 -0.04510793121284969 -1.0487082907112697
4906000000.0 -0.08106366808639333 -1.0633481669569909
4909000000.0 -0.06722511714888399 -1.0486172342362405
4912000000.0 -0.11011655549943238 -1.0494567007440312
4916000000.0 -0.10724223453873671 -1.0295148149131959
4919000000.0 -0.0993308158599316 -1.0528036546708606
4922000000.0 -0.09330199504673503 -1.0473115154942112
4925000000.0 -0.1807551076172287 -1.0301675372301602
4928000000.0 -0.062308278630815186 -1.0284530285791011
4931000000.0 -0.1323768691576288 -1.0609611720494483
4934000000.0 -0.1572327618053177 -0.9871335886139158
4938000000.0 -0.16272544574018077 -1.0047704614899404
4941000000.0 -0.1806333036119146 -1.010954463732801
4944000000.0 -0.14591479488763867 -0.9641431856081288
4947000000.0 -0.18665775499534124 -0.9855200037329925
4950000000.0 -0.21569346534445494 -0.9744382262775283
4953000000.0 -0.2477250587307679 -1.0142601735728602
4956000000.0 -0.24157834020520091 -0.9962896556631525
4959000000.0 -0.2644049977334285 -0.9611928409884178
4962000000.0 -0.2638373369300242 -1.0091320791439347
4966000000.0 -0.21936513136161806 -1.0079214640712508
4969000000.0 -0.20275437829849485 -1.040854676920231
4972000000.0 -0.25611356403702223 -1.0134848179364047
4975000000.0 -0.2248341072034429 -0.9994509551191061
4978000000.0 -0.2898263011865454 -1.0174042686557785
4981000000.0 -0.2776881793803795 -1.0121873758835105
4984000000.0 -0.27260290247031504 -1.008355883473376
4988000000.0 -0.27149556862733215 -0.9852990107413232
4991000000.0 -0.2600871246702278 -1.0242553700955144
4994000000.0 -0.2803822436156391 -0.9602635006285373
4997000000.0 -0.34080948833376606 -1.000302246318133
5000000000.0 -0.3059012679972396 -1.0202148259078683
5003000000.0 -0.34122675868887403 -1.0119059320487171
5006000000.0 -0.3446956079295713 -1.0389513544335367
5009000000.0 -0.33269514855266613 -0.9824548108472032
5012000000.0 -0.39646233769876177 -0.9837648352537707
5016000000.0 -0.3543992037326528 -1.013500685235723
5019000000.0 -0.34893723265032617 -0.936961543134766
5022000000.0 -0.3617004719988911 -1.003791049919943
5025000000.0 -0.41059181181737464 -1.0078916450265483
5028000000.0 -0.38207382551091096 -0.9750046992260744
5031000000.0 -0.4254331151522115 -0.9344469681259865
5034000000.0 -0.43481317426788324 -0.9962331731766054
5038000000.0 -0.42493350225095805 -0.9261499371351689
5041000000.0 -0.3814503674789167 -0.9589848719008661
5044000000.0 -0.3628038050974747 -0.9636248804436495
5047000000.0 -0.4279038273879268 -0.920215862155123
5050000000.0 -0.35402191902922364 -0.9579354188111706
5053000000.0 -0.4690676197106658 -0.9538351138385042
5056000000.0 -0.400152669786757 -0.9630584460246083
5059000000.0 -0.40430049664205 -0.9356426039365394
5062000000.0 -0.5096080812971077 -0.9306283886735809
5066000000.0 -0.45040350605793433 -0.9260300564270592
5069000000.0 -0.5118514612526966 -0.9065080945172462
5072000000.0 -0.4774742396811581 -0.8967776566127748
5075000000.0 -0.44409516217156175 -0.9054743330679893
5078000000.0 -0.5247704522832053 -0.9110931643457973
5081000000.0 -0.496199622044099 -0.8741822482676468
5084000000.0 -0.5465759128918823 -0.9155077357481967
5088000000.0 -0.4904761315128813 -0.8880703373762837
5091000000.0 -0.5651139471051179 -0.9102910554977013
5094000000.0 -0.551896262542022 -0.9098021413159224
5097000000.0 -0.4930786317743021 -0.8684363536002517
5100000000.0 -0.5551261510788577 -0.8769134443837693
5103000000.0 -0.6099006767384908 -0.845135228729914
5106000000.0 -0.5557367142160248 -0.9101549465587928
5109000000.0 -0.5530346743147416 -0.89868113339141
5112000000.0 -0.5782931899851662 -0.8410976302465254
5116000000.0 -0.567061178179974 -0.8429475854676229
5119000000.0 -0.617448646189038 -0.861458832518428
5122000000.0 -0.5993275624390972 -0.8591427310848145
5125000000.0 -0.6025261724368632 -0.8614670303349135
5128000000.0 -0.6379155138949213 -0.8023257040552407
5131000000.0 -0.6486438339448052 -0.8010429832506905
5134000000.0 -0.6206295072568246 -0.8246255600934301
5138000000.0 -0.6031420083198951 -0.8218594683594413
5141000000.0 -0.6279584752367271 -0.8284614137625155
5144000000.0 -0.6367290458524886 -0.8185931043687512
5147000000.0 -0.7091381985822173 -0.8259544295419842
5150000000.0 -0.6643209176152601 -0.8345661198045634
5153000000.0 -0.7068061486363004 -0.8383278087565345
5156000000.0 -0.6462879949647683 -0.8387914134944553
5159000000.0 -0.7240338451220917 -0.7900885739455261
5162000000.0 -0.6756564312433885 -0.7631409067433476
5166000000.0 -0.6845713296473273 -0.7592932845141513
5169000000.0 -0.70333867663712 -0.784218506750159
5172000000.0 -0.6924426126081424 -0.765103911266479
5175000000.0 -0.7647306155117012 -0.7742708014277611
5178000000.0 -0.7309599816592913 -0.742568261624938
5181000000.0 -0.7564505875127516 -0.7518455582585049
5184000000.0 -0.7219770638737985 -0.7349760264475061
5188000000.0 -0.7317229548000538 -0.7374036431038485
