! Created with skrf 1.8.0 (http://scikit-rf.org).
# Hz S RI R 50.0 
!freq ReS11 ImS11
4000000000.0 0.6624593214872851 0.8173364518711408
4003000000.0 0.6824283032689072 0.8768939365473128
4006000000.0 0.6628016927444662 0.760531717775864
4009000000.0 0.6663336414943068 0.7905659753583895
4012000000.0 0.6699788034124725 0.8358323527998137
4016000000.0 0.6922419316983325 0.7679911861152198
4019000000.0 0.699608274572785 0.7668978457621727
4022000000.0 0.6359791205610039 0.8433795136522909
4025000000.0 0.717810005609218 0.775735318799471
4028000000.0 0.7118679058865106 0.7941612847938906
4031000000.0 0.689499793479309 0.7880562447230187
4034000000.0 0.7058556977704035 0.7530678059330657
4038000000.0 0.7550385403085359 0.7525515854567073
4041000000.0 0.6972490585296928 0.7663376766155355
4044000000.0 0.7580677517421172 0.7531904401673876
4047000000.0 0.7572957850914179 0.7580270006481783
4050000000.0 0.8141011621044844 0.7129852158349802
4053000000.0 0.7752965082972535 0.6748940242874004
4056000000.0 0.7454921980023184 0.7259871729757715
4059000000.0 0.7276813234930357 0.7028517446127349
4062000000.0 0.7761880162652617 0.6879806069572916
4066000000.0 0.7139161512839958 0.6036528031063214
4069000000.0 0.8001771901358332 0.6479849511825833
4072000000.0 0.7438835894081831 0.7121971020836362
4075000000.0 0.7390255011390456 0.7544214384749828
4078000000.0 0.7919263419077591 0.668208599706638
4081000000.0 0.771938584099915 0.7200765184162151
4084000000.0 0.8290404857302084 0.6143589740161355
4088000000.0 0.8162382760048484 0.7025018841577717
4091000000.0 0.8622601306517782 0.6890327607858424
4094000000.0 0.8215075784780819 0.6436205189934046
4097000000.0 0.8091766901437778 0.6341865957863293
4100000000.0 0.8273379301589195 0.648303239058087
4103000000.0 0.8540476144727527 0.6259804230793571
4106000000.0 0.8608274687239071 0.5863212409652165
4109000000.0 0.8572229195101109 0.550768615799885
4112000000.0 0.8552408880325177 0.6060553900529504
4116000000.0 0.8259959289127253 0.6283774806161841
4119000000.0 0.8607318670559133 0.5662166481477382
4122000000.0 0.886540642030203 0.5849222929077385
4125000000.0 0.9047767150982097 0.5538459099791297
4128000000.0 0.8241601663286368 0.5518905983621405
4131000000.0 0.8533567170917461 0.5377374327607831
4134000000.0 0.8627678343537689 0.5385482230630584
4138000000.0 0.8598904480108971 0.507168472354123
4141000000.0 0.9162830438379718 0.5021941340334563
4144000000.0 0.8723460613435499 0.5379887377077164
4147000000.0 0.8873563809325608 0.4858236535669093
4150000000.0 0.8993242301823149 0.5288715457018487
4153000000.0 0.9022167826798361 0.5179334255423447
4156000000.0 0.9080819538445808 0.5084849835446822
4159000000.0 0.894026496934043 0.5052005373835637
4162000000.0 0.8875491868014309 0.47712255725605146
4166000000.0 0.918877023662297 0.44536085599498154
4169000000.0 0.9218101174626676 0.4236589932686191
4172000000.0 0.9164450531780746 0.45952194313343747
4175000000.0 0.9206732634463707 0.4567691962468849
4178000000.0 0.9466511201526294 0.45203498117855234
4181000000.0 0.9619967138802652 0.43037362308215443
4184000000.0 0.9391833715808907 0.42541155302004036
4188000000.0 0.9778647975145243 0.38972626162244217
4191000000.0 0.9239232351287021 0.4328745512538404
4194000000.0 0.9161725501038822 0.3863693868207567
4197000000.0 0.9616818491703091 0.4040399554667385
4200000000.0 0.9461712479886599 0.4126389224448007
4203000000.0 0.9560251443086264 0.39804924293080124
4206000000.0 0.95995064937793 0.3770628743316177
4209000000.0 0.9456635070713649 0.3931727274352255
4212000000.0 0.9650611456741799 0.3290631730520661
4216000000.0 0.9698574602785968 0.3650826766356195
4219000000.0 0.9748029901076241 0.35084220919527853
4222000000.0 0.9814367556734545 0.312379208241293
4225000000.0 0.9575004025258433 0.3216846752676955
4228000000.0 0.9641029579546039 0.31098415565435455
4231000000.0 0.9827525145462993 0.305501248239058
4234000000.0 1.0060130160892655 0.29906447672621284
4238000000.0 1.0077402935151811 0.2671259913747802
4241000000.0 0.9762475717197083 0.26592488234243805
4244000000.0 0.9841033573845128 0.2568975420927788
4247000000.0 0.9728926635045251 0.2736352385342146
4250000000.0 0.9897055708514269 0.2566405451818088
4253000000.0 0.9517820963592933 0.2444371830503596
4256000000.0 1.01727115815867 0.22994786333435385
4259000000.0 0.9862729922594398 0.21819312713918762
4262000000.0 0.9964399275753242 0.20004229301845597
4266000000.0 1.027412624017224 0.18836008983198232
4269000000.0 0.9930481031752862 0.2144215134579727
4272000000.0 0.9873531900944825 0.20711592523850786
4275000000.0 1.0225756660954144 0.17522157646128622
4278000000.0 1.0313989383094657 0.19400401145954987
4281000000.0 1.019007221026717 0.21962839609704227
4284000000.0 1.0402850509030697 0.13871313427307427
4288000000.0 1.0152508582110282 0.18005227096859433
4291000000.0 0.9776573731579031 0.16476486276147623
4294000000.0 0.9844574554360813 0.13049207968808263
4297000000.0 0.9960720664222855 0.14279042925421093
4300000000.0 1.0229308731356443 0.12974073046848766
4303000000.0 1.0279379099535841 0.1116337361781141
4306000000.0 1.0232064201313218 0.14356347968409072
4309000000.0 1.0193716944201574 0.09839051210425027
4312000000.0 1.0369483682352805 0.15713482591745043
4316000000.0 1.0217243312584214 0.0963993423020831
4319000000.0 1.0118732489237188 0.078280076718815
4322000000.0 0.9993891450917434 0.029669699622637033
4325000000.0 1.006687275919549 0.08279415767142119
4328000000.0 1.0058845049973228 0.04195122290149732
4331000000.0 0.995727527504667 0.008229714199041449
4334000000.0 1.0215856984233918 0.04716238328121067
4338000000.0 0.9934788370941643 0.027492543153861196
4341000000.0 1.012385682240985 0.054754042464262354
4344000000.0 1.032627573474229 0.01864463495824567
4347000000.0 1.0438539472954143 -0.027252567309589554
4350000000.0 0.9716097876745091 -0.03947315414780367
4353000000.0 0.9852592596780461 0.008445979664690184
4356000000.0 1.0103514839011545 -0.04039335236700817
4359000000.0 0.9638504181295122 -0.017734923541656844
4362000000.0 1.0108417776826684 -0.10666051497951241
4366000000.0 1.0391480441616974 -0.0695526395684123
4369000000.0 0.9707779566894589 -0.07550157959027903
4372000000.0 0.9927804347533546 -0.1151065682712153
4375000000.0 1.0065082341789942 -0.08869272514706918
4378000000.0 0.9935416841491471 -0.10199935080047548
4381000000.0 0.985761344621132 -0.07997274130332241
4384000000.0 1.0666454226784414 -0.15558679148804133
4388000000.0 0.9974630141006464 -0.11942089979148542
4391000000.0 1.0072013191590783 -0.1255283126283866
4394000000.0 0.9742183764508733 -0.13054673878466927
4397000000.0 0.9904812960396376 -0.15639895631561818
4400000000.0 1.0166980723694052 -0.1619101922543585
4403000000.0 0.9943634661069815 -0.1710708603092272
4406000000.0 0.9857266849395381 -0.20890048133923583
4409000000.0 1.0233706227502137 -0.19966354559566432
4412000000.0 0.9840282761832535 -0.2514388804003755
4416000000.0 0.9717522982433664 -0.2039382738506909
4419000000.0 0.9961564470612818 -0.23226761857709408
4422000000.0 0.981386731757933 -0.1857698664289002
4425000000.0 1.010002376398446 -0.20165685893890933
4428000000.0 0.9874869505398189 -0.2436087331495945
4431000000.0 0.9972726712743578 -0.2430035694136012
4434000000.0 0.9580710152026651 -0.24835859146157377
4438000000.0 1.0033917278167994 -0.2763822534598974
4441000000.0 0.9882051945245351 -0.25288328245199665
4444000000.0 0.9553489998672295 -0.2597182664014929
4447000000.0 0.960712959490492 -0.2914420145880573
4450000000.0 0.9501621386399712 -0.28196274439077057
4453000000.0 0.9810523883958199 -0.3059368325666745
4456000000.0 0.9386477539682727 -0.3124112589802477
4459000000.0 0.9156611839511015 -0.3196472008453466
4462000000.0 1.0049568304967835 -0.3566205056960923
4466000000.0 0.9936173033739151 -0.34961985525627703
4469000000.0 0.9592481561605924 -0.33033909042546095
4472000000.0 0.9650098483618272 -0.3715195349777932
4475000000.0 0.9107606266176494 -0.34320112527617896
4478000000.0 0.9844240558589595 -0.41509963074937684
4481000000.0 0.896495287317074 -0.3751876822975966
4484000000.0 0.8948184868350448 -0.43763285398285046
4488000000.0 0.9241665474961098 -0.3948618658425482
4491000000.0 0.9467191428299981 -0.4212197226894411
4494000000.0 0.9234466351964293 -0.4074243884376972
4497000000.0 0.9124246418986761 -0.41572045062679175
4500000000.0 0.915025513184385 -0.4119903930512859
4503000000.0 0.9318724799568954 -0.4374980263885406
4506000000.0 0.9165476100216636 -0.45225489506151517
4509000000.0 0.8993073267170237 -0.456747234633773
4512000000.0 0.8826100199725778 -0.4718014833954768
4516000000.0 0.9287124562571991 -0.48587539560309484
4519000000.0 0.8797092619522705 -0.43999959371516034
4522000000.0 0.8837012762032059 -0.49743374821576
4525000000.0 0.8991252042560063 -0.47217016231251263
4528000000.0 0.8976284453628267 -0.5247013434599693
4531000000.0 0.89986684354499 -0.46965874343114056
4534000000.0 0.8649982436250383 -0.5015796996281746
4538000000.0 0.8684950636288455 -0.5194032666673413
4541000000.0 0.8267366101056657 -0.5580081226454388
4544000000.0 0.8457699273776302 -0.533193479821704
4547000000.0 0.8584990560305747 -0.5326643612172501
4550000000.0 0.8257835152080293 -0.5656424853490392
4553000000.0 0.8428967790792314 -0.5550698699830151
4556000000.0 0.8138398548166932 -0.5578016419754064
4559000000.0 0.8169582570134754 -0.5877949364907984
4562000000.0 0.8305695467518934 -0.5836252938467554
4566000000.0 0.823710435363286 -0.6011931225795659
4569000000.0 0.7881508165695684 -0.5874133493390323
4572000000.0 0.8054504756921286 -0.5902889190635332
4575000000.0 0.7996745624381587 -0.6262272869208395
4578000000.0 0.822475410762618 -0.623304952026419
4581000000.0 0.7881808623500257 -0.6377905211703423
4584000000.0 0.7727260019281236 -0.634336204316798
4588000000.0 0.7980356700093187 -0.6402287912526379
4591000000.0 0.7670899358240864 -0.628609077099196
4594000000.0 0.7635951843070784 -0.6467762554101879
4597000000.0 0.7686954038304046 -0.6709662970337705
4600000000.0 0.7313496906973096 -0.6765329850929741
4603000000.0 0.7387845746255598 -0.6878293527657878
4606000000.0 0.7599312869043192 -0.693422511450055
4609000000.0 0.7382946512189441 -0.6949391719408134
4612000000.0 0.7533566889728958 -0.6942062219202897
4616000000.0 0.7205732251310935 -0.7002304812837782
4619000000.0 0.7325580306580709 -0.7074947776304737
4622000000.0 0.7163951394462773 -0.7174821277375975
4625000000.0 0.6739257704262774 -0.7190377590837191
4628000000.0 0.7213347935940975 -0.7078810107159488
4631000000.0 0.6800468610630765 -0.7312779537170876
4634000000.0 0.6844857276365779 -0.7441634436089508
4638000000.0 0.6951183282086768 -0.7407050101747176
4641000000.0 0.6725883029244248 -0.7310816715056953
4644000000.0 0.6786092535656871 -0.7451127528393048
4647000000.0 0.6551540295026982 -0.7566129820017594
4650000000.0 0.64315992103029 -0.7838814062480561
4653000000.0 0.6783295576950633 -0.7802790066688244
4656000000.0 0.6520904285718743 -0.7965672876766854
4659000000.0 0.6265635387997408 -0.7789442023453585
4662000000.0 0.6279422554283982 -0.7882722149889666
4666000000.0 0.6333416851019705 -0.7933625589762425
4669000000.0 0.634392110800456 -0.7956815852195059
4672000000.0 0.597781054084924 -0.8315485528728239
4675000000.0 0.5787254726816389 -0.8039279817511126
4678000000.0 0.5770336263724262 -0.7891592754701645
4681000000.0 0.5628968270413008 -0.8472323336826042
4684000000.0 0.5520919206279854 -0.8516038270351056
4688000000.0 0.5520003731746944 -0.8269077567135666
4691000000.0 0.5997112755609999 -0.8506780164633441
4694000000.0 0.584760902517711 -0.8284649615331465
4697000000.0 0.517374451669175 -0.835443604954089
4700000000.0 0.577632150893221 -0.8527780166857155
4703000000.0 0.5505367070734745 -0.8140279212694888
4706000000.0 0.5214785058568518 -0.8654211308705541
4709000000.0 0.5240617215223518 -0.8719318686935755
4712000000.0 0.5279288623367806 -0.8737560785520154
4716000000.0 0.5226337265456624 -0.8739116034170205
4719000000.0 0.5185436387615261 -0.8796140232684309
4722000000.0 0.5309195042423638 -0.8568244777044576
4725000000.0 0.49150931316081475 -0.8948790904662021
4728000000.0 0.4632973286514184 -0.9146029283228303
4731000000.0 0.5044574331481513 -0.8917383557111827
4734000000.0 0.48052761838187713 -0.8718340420527338
4738000000.0 0.4973515542232494 -0.9212095040909927
4741000000.0 0.4570776278555063 -0.9482281511448944
4744000000.0 0.4436893598734275 -0.9184333990125436
4747000000.0 0.4386768060673596 -0.9027149073857097
4750000000.0 0.4129395100559478 -0.9406823773346829
4753000000.0 0.43621199977673103 -0.9389389401776285
4756000000.0 0.3801339296370519 -0.9370479254773827
4759000000.0 0.4199752093992384 -0.971680543457422
4762000000.0 0.3486849069813466 -0.9825669693800599
4766000000.0 0.38628776945844223 -0.9671934802228771
4769000000.0 0.38112442550211045 -0.963314223520492
4772000000.0 0.37486068553142543 -0.9561892104534859
4775000000.0 0.36330483981021067 -1.0020796520721242
4778000000.0 0.35960600641898843 -0.9584608385551366
4781000000.0 0.3531503185045188 -0.9628317577474976
4784000000.0 0.38314116467125103 -0.9312568789435197
4788000000.0 0.3065268721921479 -1.0240827010281863
4791000000.0 0.2898203599370306 -0.9723614814616922
4794000000.0 0.3441401900527483 -0.9851200874789601
4797000000.0 0.2870157069735909 -0.961992759475561
4800000000.0 0.28302931048359137 -0.9659305394893953
4803000000.0 0.2248960875416044 -0.9661663566532839
4806000000.0 0.2764660823615414 -0.978144975213268
4809000000.0 0.2342323006556602 -0.9954312276182488
4812000000.0 0.2161178976473254 -0.9849497025969234
4816000000.0 0.27506922007538476 -0.959436710789239
4819000000.0 0.27650090008602596 -1.000112845452701
4822000000.0 0.27562086455166435 -1.0154423769528376
4825000000.0 0.2568434567281495 -1.0332093403787372
4828000000.0 0.21520213275699313 -0.9923844641740428
4831000000.0 0.19402592375157895 -1.042333501355033
4834000000.0 0.23826870094659336 -1.0125121633060117
4838000000.0 0.17822531174580294 -1.0250283521505623
4841000000.0 0.18189184754896337 -0.9959560801836683
4844000000.0 0.22609381014251945 -1.0043756063237144
4847000000.0 0.21882817837314877 -0.9722418706197908
4850000000.0 0.15604053344060395 -1.0247909485151439
4853000000.0 0.14893119211329883 -0.9817286184644254
4856000000.0 0.1339474005970423 -0.9998866317657976
4859000000.0 0.142449396749872 -1.0495056115752237
4862000000.0 0.1414344175593978 -1.0004339788822223
4866000000.0 0.1147586672155968 -1.0223077888599128
4869000000.0 0.10076208030975438 -1.0201492991075847
4872000000.0 0.09239393304001504 -1.037465118917998
4875000000.0 0.15805928057874963 -1.0517153908496581
4878000000.0 0.07981904953512092 -1.0488963955111403
4881000000.0 0.03142559348229744 -1.096702896621776
4884000000.0 0.06252581950949263 -1.03489341157096
4888000000.0 0.06072481089218165 -1.017023164639074
4891000000.0 0.10356449229865976 -1.059069099438546
4894000000.0 0.050441937780368686 -1.0138523258954302
4897000000.0 0.05978566211045591 -1.000301540801321
4900000000.0 0.034829274379907356 -1.020776481187591
4903000000.0 0.044558434675450495 -1.0557583680603628
4906000000.0 0.03761113282502483 -1.0595757449106578
4909000000.0 0.012302775380026717 -1.026946506073204
4912000000.0 0.013333552764293703 -1.0734693760111604
4916000000.0 0.00714013617229068 -1.0686307291292612
4919000000.0 0.010855008434528239 -1.0769274210032114
4922000000.0 0.021402227002855725 -1.055559751020281
4925000000.0 -0.06698677660324419 -1.0392008023852006
4928000000.0 0.021278659722546986 -1.0779854882203277
4931000000.0 0.012360978989165744 -1.0683699593226554
4934000000.0 -0.05939455941192805 -1.0021369032153393
4938000000.0 -0.08187178564911297 -0.9921072662374848
4941000000.0 -0.04966147023091792 -1.004110758097036
4944000000.0 -0.06945803606214257 -0.9382874524431339
4947000000.0 -0.10778332315152578 -1.0249684607924652
4950000000.0 -0.10009502103390187 -1.009158887475522
4953000000.0 -0.1648554748287102 -1.0609140975427347
4956000000.0 -0.14244632414251834 -1.0106986608041557
4959000000.0 -0.16593850761055587 -1.0392458294409888
4962000000.0 -0.13173319464388103 -1.062083609995737
4966000000.0 -0.12969687101223143 -1.05847558916107
4969000000.0 -0.15202977979498544 -1.0429171646989988
4972000000.0 -0.16609827103213473 -1.0086255466143845
4975000000.0 -0.11883105706982691 -1.0382859541525546
4978000000.0 -0.197279567546716 -1.0171454620384588
4981000000.0 -0.21831495167456963 -1.0228479220840587
4984000000.0 -0.14341786506777346 -1.0004371759696555
4988000000.0 -0.15996882899326426 -1.0300090338767585
4991000000.0 -0.15030733004585567 -1.0522677455927725
4994000000.0 -0.19878736152506882 -1.0037850043734302
4997000000.0 -0.25783413973528085 -1.038518111045756
5000000000.0 -0.2035454044060347 -1.0432446302208633
5003000000.0 -0.22748835751564128 -1.020578087576981
5006000000.0 -0.25409498792507257 -1.0355148743471116
5009000000.0 -0.25638170150426287 -0.9944196074529857
5012000000.0 -0.2720522313842375 -0.9997215559349526
5016000000.0 -0.22868148284728068 -1.0447731117394365
5019000000.0 -0.2848169319926914 -0.981848421331025
5022000000.0 -0.27730427134271995 -1.0230181261593165
5025000000.0 -0.3146992964136954 -1.0553316561516024
5028000000.0 -0.3176781497139989 -0.9893923746238704
5031000000.0 -0.32304732912097367 -1.0137241268268882
5034000000.0 -0.3458820154162441 -1.0311604435512742
5038000000.0 -0.32308207499448716 -0.9694965999894467
5041000000.0 -0.315988932387264 -1.015862015450368
5044000000.0 -0.31776350422955946 -0.9981011308981232
5047000000.0 -0.32739538584498634 -1.0079230876383578
5050000000.0 -0.2795749969219805 -0.9895376252219663
5053000000.0 -0.41901754862689466 -1.0332190369353158
5056000000.0 -0.32415879256891345 -1.0130939769507732
5059000000.0 -0.3412683305361473 -1.0144275267091283
5062000000.0 -0.4073667320814056 -0.9531070745125125
5066000000.0 -0.3628451673631653 -0.9827944358889025
5069000000.0 -0.3950979270841718 -1.0046543333848486
5072000000.0 -0.3567219607415085 -0.9414876823259111
5075000000.0 -0.3720842574378712 -0.9633893419920765
5078000000.0 -0.4485038708502384 -0.9639969707638116
5081000000.0 -0.43430072528474156 -0.9065641080685537
5084000000.0 -0.46716853893072696 -0.9664729113444277
5088000000.0 -0.4301096559188492 -0.9592181819383583
5091000000.0 -0.45588307640646536 -0.9483770847579325
5094000000.0 -0.4755190372002371 -0.9545547082975855
5097000000.0 -0.4247266837738267 -0.973534596947139
5100000000.0 -0.4787344590398532 -0.9180155087901837
5103000000.0 -0.4746412350814208 -0.9035400247169073
5106000000.0 -0.4713895918240775 -0.9616286667293887
5109000000.0 -0.4649585499586483 -0.9759649573623184
5112000000.0 -0.4942036167761015 -0.89753777494473
5116000000.0 -0.4531305307778329 -0.8573432920152526
5119000000.0 -0.5083164687868797 -0.9345691407033156
5122000000.0 -0.4896228365286602 -0.9094083498855849
5125000000.0 -0.4830750310461453 -0.9046107835808782
5128000000.0 -0.5301924735401717 -0.9157525361075385
5131000000.0 -0.5021299891739649 -0.892661324347399
5134000000.0 -0.5818481135779138 -0.8890425599148264
5138000000.0 -0.5503967009063583 -0.8696226633746484
5141000000.0 -0.5485180647017174 -0.9069651759871635
5144000000.0 -0.5753896363936438 -0.910993043395295
5147000000.0 -0.5999635032703624 -0.903664880893992
5150000000.0 -0.5895859979937705 -0.8935359719057073
5153000000.0 -0.5683008675157291 -0.8645630723208942
5156000000.0 -0.6292991732889682 -0.8979774105820746
5159000000.0 -0.5954929134707063 -0.8684835194984927
5162000000.0 -0.6130454942665754 -0.8462712509221458
5166000000.0 -0.6551156548593888 -0.8612398586665811
5169000000.0 -0.6393071177674313 -0.8724885527700145
5172000000.0 -0.6024061661056398 -0.8463231404994258
5175000000.0 -0.6507154175883788 -0.868045490788808
5178000000.0 -0.63366994025208 -0.8192723381338349
5181000000.0 -0.6705972365777838 -0.8384857187888721
5184000000.0 -0.654540170633101 -0.8396029518378435
5188000000.0 -0.6341085266838234 -0.8295352670814176
5191000000.0 -0.6813049034099268 -0.7931868716003961
