! Created with skrf 1.8.0 (http://scikit-rf.org).
# Hz S RI R 50.0 
!freq ReS11 ImS11
4000000000.0 0.9037510791879371 0.4126297599837006
4003000000.0 0.9793454590287681 0.44194905985433186
4006000000.0 0.9257548725543278 0.40684589056677933
4009000000.0 0.9910232759975826 0.3896047348642415
4012000000.0 0.9634700678141102 0.4429522975431167
4016000000.0 0.9938348043630504 0.3920093073594348
4019000000.0 0.9658590316366213 0.39053562087339355
4022000000.0 1.002692637880079 0.3847300310202463
4025000000.0 0.9941251590858665 0.3446996414009048
4028000000.0 0.9428991041205566 0.33450702414841565
4031000000.0 0.9331180388287731 0.3213608033930402
4034000000.0 0.9387645886368976 0.276137488174482
4038000000.0 1.0008469593958322 0.28302144560838843
4041000000.0 0.9780396382669907 0.2992927569728959
4044000000.0 1.002823209116974 0.2890275454854543
4047000000.0 1.0013566040360384 0.32350315314353306
4050000000.0 0.9700024625709084 0.2578716337954049
4053000000.0 0.9989508360619386 0.25043139753175436
4056000000.0 0.9850448265534523 0.24752201709915508
4059000000.0 0.9458164143859467 0.20539683636151923
4062000000.0 0.9935421554495696 0.23125472243613532
4066000000.0 0.9685899322284626 0.1930508508793085
4069000000.0 1.0377691358110905 0.1440773000994663
4072000000.0 0.9889818597834882 0.1692736439731679
4075000000.0 1.030482696459872 0.18667485885883728
4078000000.0 1.0058099548433477 0.16259875673737545
4081000000.0 1.0178591713116292 0.12409655800940733
4084000000.0 1.038626464807194 0.09107535604734929
4088000000.0 0.9976369802271857 0.12521066700824707
4091000000.0 1.0297325201904701 0.1237406797797716
4094000000.0 0.9922851786749419 0.0900177854918795
4097000000.0 1.0018626806178066 0.07795363148454876
4100000000.0 0.9967892103878924 0.07497159397815667
4103000000.0 1.0250607204594318 0.07895639827230305
4106000000.0 1.0393378149145605 0.05012971884274542
4109000000.0 1.0578242230338886 0.019149312447737432
4112000000.0 1.008823455578294 0.04469512867669034
4116000000.0 1.01229557493899 0.020090249737812038
4119000000.0 1.0302011573211307 -0.016895535254839222
4122000000.0 0.9972082022248806 -0.060926668832327446
4125000000.0 0.9944466904559319 -0.025662109148458234
4128000000.0 0.9809102852644009 -0.028334620576785763
4131000000.0 1.0152062087889744 -0.06839372291937995
4134000000.0 1.0036590843093613 -0.06466433781042163
4138000000.0 0.9968138153511854 -0.09786441156663711
4141000000.0 0.9851623786841605 -0.07434405080037176
4144000000.0 1.0005351085567662 -0.09945696363922513
4147000000.0 1.0298024801472387 -0.11252363133087023
4150000000.0 1.0221384139571867 -0.13033877502593966
4153000000.0 0.9835229261085647 -0.13278417089899328
4156000000.0 1.0173843534093714 -0.1349095843532087
4159000000.0 0.9822141535442139 -0.18486298225161202
4162000000.0 1.0036719678748427 -0.1705572774464713
4166000000.0 1.0116619026436027 -0.20051167348358884
4169000000.0 0.9707622248527504 -0.2201939298396644
4172000000.0 0.9967755198107654 -0.23573596364407573
4175000000.0 1.026062504399202 -0.2420242664134592
4178000000.0 0.9882681365041613 -0.2201294188434637
4181000000.0 0.9569368679284564 -0.27130262894766743
4184000000.0 0.9466735255243017 -0.25446980130916774
4188000000.0 0.941146257747179 -0.2891705898440303
4191000000.0 0.9716706055696386 -0.2725370202492523
4194000000.0 0.969371346464859 -0.31695939739057305
4197000000.0 0.9723971022739882 -0.3099153304084524
4200000000.0 0.9866733276649775 -0.30607563183550646
4203000000.0 0.9999086548667583 -0.3659067179670426
4206000000.0 0.9529750805333911 -0.34600060263105287
4209000000.0 0.926402928990045 -0.3788366674526819
4212000000.0 0.9208649088195207 -0.42102333069086084
4216000000.0 0.9641768659737013 -0.3881183314966181
4219000000.0 0.9428338537310462 -0.405542030529821
4222000000.0 0.9000096810743861 -0.41354680880848005
4225000000.0 0.9020097615702589 -0.44363180607856917
4228000000.0 0.8926488626580551 -0.46286763189359437
4231000000.0 0.909345979346109 -0.4876446922419842
4234000000.0 0.8834725411227269 -0.5031665904300311
4238000000.0 0.8752643871497957 -0.5091000938485797
4241000000.0 0.842573746879671 -0.5093603488540942
4244000000.0 0.8515268194735789 -0.5158728453177244
4247000000.0 0.8462709285942493 -0.5110549892022123
4250000000.0 0.8210128375538182 -0.5269134436049849
4253000000.0 0.7975734652647062 -0.5685458043862943
4256000000.0 0.8910987622701221 -0.5975973087823282
4259000000.0 0.7748234119425677 -0.5768684765787238
4262000000.0 0.78455709453061 -0.6176525922907026
4266000000.0 0.7927904921205016 -0.6562629736942406
4269000000.0 0.772176199356437 -0.5983969466450435
4272000000.0 0.7837472370809093 -0.6055461269489744
4275000000.0 0.789721282097656 -0.6333956723050409
4278000000.0 0.7872108817591154 -0.6753918256986534
4281000000.0 0.7853060992526028 -0.6440867260814979
4284000000.0 0.7317654442924354 -0.708348271669279
4288000000.0 0.7356025539803723 -0.6618885806715874
4291000000.0 0.6963411503497282 -0.6878036700916793
4294000000.0 0.701121111812011 -0.7298674063876605
4297000000.0 0.7338451784485234 -0.7008840369244126
4300000000.0 0.6563584282643389 -0.6898294725444034
4303000000.0 0.6595728569178358 -0.7284147452510713
4306000000.0 0.6893202720344918 -0.7212917288146433
4309000000.0 0.6576697212733091 -0.7697495144952113
4312000000.0 0.698233866996992 -0.7747875816659066
4316000000.0 0.6295104226602288 -0.7617617225008758
4319000000.0 0.6195752872453237 -0.7843598751119143
4322000000.0 0.5972939775066961 -0.8223404047660697
4325000000.0 0.5666758878059525 -0.8291682488220389
4328000000.0 0.5727366803832227 -0.8094665554586656
4331000000.0 0.5533094656643821 -0.8440269224742679
4334000000.0 0.5470396098759381 -0.8528694077995661
4338000000.0 0.5328695854562282 -0.8481539124073751
4341000000.0 0.5330488299340155 -0.8741999559877068
4344000000.0 0.5192256465651425 -0.8907882494931953
4347000000.0 0.48065062496496336 -0.902248362882177
4350000000.0 0.437685045394524 -0.8822425421244573
4353000000.0 0.45355168791658773 -0.8938393523062265
4356000000.0 0.4104316920761478 -0.9050610449883174
4359000000.0 0.40374440161428854 -0.9048499363401943
4362000000.0 0.37447694940495596 -0.9360895218745667
4366000000.0 0.39861848524918697 -0.9609244509917801
4369000000.0 0.3456188239276006 -0.9276066413273079
4372000000.0 0.32238923733131886 -0.9527002253415684
4375000000.0 0.33988898273112234 -0.9591549676370951
4378000000.0 0.3125215207661717 -0.9643390724942114
4381000000.0 0.27037487052802855 -0.9815621248921642
4384000000.0 0.2789829196489988 -1.0018487196973167
4388000000.0 0.25107625425349017 -0.975558064476957
4391000000.0 0.23018662215991495 -0.9891955931992298
4394000000.0 0.2162688089599783 -0.9993682993822932
4397000000.0 0.19939051245440703 -1.0019131069247953
4400000000.0 0.17852238252676267 -0.9931078241406666
4403000000.0 0.15007915667405478 -1.003845003188796
4406000000.0 0.13829015439300696 -1.0111590189995139
4409000000.0 0.10138374653778405 -1.015390605028139
4412000000.0 0.10081563925589677 -0.9787697712890269
4416000000.0 0.08032445478659053 -1.0046649317070662
4419000000.0 0.07302834727307049 -1.0188207803061828
4422000000.0 0.03838564375468659 -1.0272364143909314
4425000000.0 0.020445926558758293 -1.0186590163993463
4428000000.0 -0.006358559796673213 -1.0291324263198236
4431000000.0 -0.03168188778609471 -0.9777094257078656
4434000000.0 -0.07504446144964166 -1.0237861553304115
4438000000.0 -0.06340546486924797 -0.9983357531771984
4441000000.0 -0.12178989466506901 -1.0220227731594935
4444000000.0 -0.10346764292771277 -1.024019328167401
4447000000.0 -0.110426172615461 -0.9971463461425351
4450000000.0 -0.18979910272910616 -1.0102811418759492
4453000000.0 -0.17853243253487228 -0.9903618878135717
4456000000.0 -0.21552298561260574 -1.0193447884999622
4459000000.0 -0.22526595658756915 -1.0697940262484944
4462000000.0 -0.27098903651946055 -0.9865927999746918
4466000000.0 -0.2687714389574506 -1.0301964383799105
4469000000.0 -0.3095765426444027 -0.953847222949826
4472000000.0 -0.32981156627498165 -0.9706441701411569
4475000000.0 -0.3322601365023443 -0.9834065261067897
4478000000.0 -0.34438950493610954 -0.9223300394038516
4481000000.0 -0.37088749649163655 -0.9447062216885226
4484000000.0 -0.41938098241185834 -0.9401372290213678
4488000000.0 -0.45663613750487264 -0.9452015853642988
4491000000.0 -0.45669419542453915 -0.9254248463107101
4494000000.0 -0.4711567282252638 -0.9005507022497741
4497000000.0 -0.5376800034741558 -0.923415840667575
4500000000.0 -0.5361578850082922 -0.852042990819561
4503000000.0 -0.55916595769285 -0.8612072209368586
4506000000.0 -0.5867802197684804 -0.8674755164138477
4509000000.0 -0.604282199680038 -0.8246082000189712
4512000000.0 -0.6368255817719197 -0.8376297787711579
4516000000.0 -0.6593879296243996 -0.8076673023951898
4519000000.0 -0.6801882226255717 -0.7788131502215624
4522000000.0 -0.654346983709009 -0.7782616478772565
4525000000.0 -0.7593539701175243 -0.7721996488384002
4528000000.0 -0.6992640404572708 -0.7412866654205433
4531000000.0 -0.7791301430281958 -0.7103138219986204
4534000000.0 -0.7951108621489035 -0.690030308040987
4538000000.0 -0.8024102779421836 -0.6754221667410253
4541000000.0 -0.7802483503843917 -0.6459293069319696
4544000000.0 -0.8548704128955926 -0.603564591608529
4547000000.0 -0.8441331422485332 -0.5666437752676146
4550000000.0 -0.8684361388015067 -0.6071231615445618
4553000000.0 -0.8634867752641677 -0.5252964096410004
4556000000.0 -0.9232855148587278 -0.5590491909792495
4559000000.0 -0.8930873978583634 -0.5249156497365286
4562000000.0 -0.883210123926401 -0.4535951123738099
4566000000.0 -0.8927674896536448 -0.44909061339622974
4569000000.0 -1.0230222413148824 -0.46357689867068924
4572000000.0 -0.9706392659916032 -0.38827724307846095
4575000000.0 -0.9438322401054404 -0.38987669933958224
4578000000.0 -0.9647826485982847 -0.3218406316847108
4581000000.0 -0.9568440398443668 -0.3136064920384158
4584000000.0 -1.0263801071451717 -0.2772414704196397
4588000000.0 -0.9753616296723538 -0.23272501480318677
4591000000.0 -1.0297828484468292 -0.19690824226958203
4594000000.0 -1.0240698526117489 -0.20514073044150075
4597000000.0 -1.0485541734199069 -0.15821388866689853
4600000000.0 -1.0673177826001259 -0.17352295443704985
4603000000.0 -0.9937603342317479 -0.10306105510212311
4606000000.0 -1.1123903416814949 -0.10436771755632145
4609000000.0 -1.0510606283335313 -0.06951817620088598
4612000000.0 -1.0064117502409065 0.027288985186037378
4616000000.0 -1.050304400366372 0.04352611383609376
4619000000.0 -1.062067406285602 0.09594448218273251
4622000000.0 -1.0447275042286193 0.17954454112466864
4625000000.0 -1.0921036621013522 0.1658377695554013
4628000000.0 -1.1360272623023673 0.22791206275373269
4631000000.0 -1.0615970659761 0.20754840072969138
4634000000.0 -1.0052267187035624 0.25686030958462214
4638000000.0 -1.0414711766358384 0.2534228740321798
4641000000.0 -0.9809773103191357 0.34466428783486186
4644000000.0 -0.9900866825515179 0.31518015800979543
4647000000.0 -0.9412702969090749 0.3452805839565555
4650000000.0 -0.9171756873961588 0.38554839251972417
4653000000.0 -0.8737028861042576 0.43963735683087
4656000000.0 -0.9782780325522382 0.4437500868642498
4659000000.0 -0.8920901711475466 0.49731065530922614
4662000000.0 -0.8808117828346027 0.5330989197724442
4666000000.0 -0.9115116113739283 0.6096322011392171
4669000000.0 -0.8950237459420041 0.6379369008633605
4672000000.0 -0.8565937704835523 0.6361675816018515
4675000000.0 -0.8020211366739629 0.6609064798924703
4678000000.0 -0.792549090646923 0.6533320929427759
4681000000.0 -0.7571286401225852 0.6949507548244327
4684000000.0 -0.6914461896723137 0.7192817330678224
4688000000.0 -0.7709350683754381 0.7643316948164083
4691000000.0 -0.7260255878039759 0.739219229924305
4694000000.0 -0.6760610328718974 0.8039415596556967
4697000000.0 -0.6220075408138628 0.8177934956517099
4700000000.0 -0.653777011932263 0.8244417271691247
4703000000.0 -0.6027489353425983 0.8268023997113758
4706000000.0 -0.5394315396779696 0.8140769290381826
4709000000.0 -0.5655519295519653 0.8435087391920381
4712000000.0 -0.4704819396878461 0.8835563298245512
4716000000.0 -0.4470249438938708 0.9347390230116106
4719000000.0 -0.403734952621877 0.923385308613919
4722000000.0 -0.4059527043481422 0.9641220782544648
4725000000.0 -0.35701927930013944 0.9732863440063164
4728000000.0 -0.35047806866098447 0.9999229894009347
4731000000.0 -0.31914311629663566 0.9462073115749305
4734000000.0 -0.28802436148221733 0.9955394721651459
4738000000.0 -0.24032511205130308 0.9735753585447702
4741000000.0 -0.17710353691550534 0.9989926105511393
4744000000.0 -0.18347934692233425 0.9996098468217659
4747000000.0 -0.14459440752633523 1.0663369620004197
4750000000.0 -0.09813164245291295 0.9883643315913764
4753000000.0 -0.04027821149291211 1.054965620369413
4756000000.0 -0.030443547441770857 1.0129088788114424
4759000000.0 -0.012572086759133072 1.0272793143106669
4762000000.0 0.005146184832708511 0.9991591704674644
4766000000.0 0.07466538993770552 0.9823863909869445
4769000000.0 0.08544860135714108 1.072887170273708
4772000000.0 0.1626585242034678 1.0217564456377313
4775000000.0 0.13948527755786708 0.9900835240486362
4778000000.0 0.1373007646164083 1.0041681103332045
4781000000.0 0.23143374898996005 1.0357651540421697
4784000000.0 0.23681695477100942 1.0097896522017336
4788000000.0 0.24619615555065838 0.9813968007824625
4791000000.0 0.346104912107013 0.9887566301500397
4794000000.0 0.3510769832001859 0.8758627815395164
4797000000.0 0.3613141821784814 0.9931539574766021
4800000000.0 0.46799077905581465 0.9327437472684136
4803000000.0 0.40652149719224817 0.9417915068876546
4806000000.0 0.46383066918798993 0.9123210767484772
4809000000.0 0.4484012651077121 0.8832349328673965
4812000000.0 0.5080799765548877 0.902757083492532
4816000000.0 0.5745871849702401 0.8581940391579741
4819000000.0 0.5824985203447678 0.8099677630618628
4822000000.0 0.5911196553069482 0.8000435370856345
4825000000.0 0.6109646044358088 0.7797439577209728
4828000000.0 0.6194337032721949 0.7762446061110981
4831000000.0 0.6135344011143427 0.7914071995812809
4834000000.0 0.7025195213005324 0.719552254087793
4838000000.0 0.7080957118090988 0.7236824038016162
4841000000.0 0.7465116038166257 0.7078266822480697
4844000000.0 0.762479181780843 0.6754576042954624
4847000000.0 0.7976111702746967 0.6679552068391887
4850000000.0 0.7516080273760568 0.6431052600012797
4853000000.0 0.8181207769177126 0.6474964609486349
4856000000.0 0.800610163796909 0.6175289255539974
4859000000.0 0.813020348064596 0.5672972626872108
4862000000.0 0.8693463597248925 0.5625171482083341
4866000000.0 0.8506242011229228 0.5536967833231071
4869000000.0 0.8644451454884018 0.5262626656711723
4872000000.0 0.8384826140988723 0.5013106885165721
4875000000.0 0.9102907832917678 0.4381825194168897
4878000000.0 0.9175100118017087 0.4454595578441424
4881000000.0 0.8712286834101768 0.42510059617923496
4884000000.0 0.9371175901196148 0.4162535054834027
4888000000.0 0.9789283394223552 0.3787340249677022
4891000000.0 0.9375570574058562 0.34029386934142497
4894000000.0 0.9438833502115604 0.33271430945549874
4897000000.0 0.9613582222991649 0.2999348128857514
4900000000.0 0.9608261408942791 0.27276152465268544
4903000000.0 0.9813371116065084 0.2573009575981648
4906000000.0 0.9597748873756324 0.2573720060849265
4909000000.0 0.980592789759013 0.2197063411591613
4912000000.0 0.9686122261666217 0.17009274414717812
4916000000.0 0.9846488568924747 0.1631119079777105
4919000000.0 0.9749034370399472 0.11735099696944082
4922000000.0 1.0026297427597624 0.12226635551722374
4925000000.0 0.9887220135861187 0.1151220685774405
4928000000.0 1.0101796652565358 0.07579052449088032
4931000000.0 1.0228528833532862 0.060183982756866344
4934000000.0 0.9947711628966799 0.048237602112010745
4938000000.0 1.005579646185969 0.024023890461991312
4941000000.0 1.0015571395251335 -0.021025480419503563
4944000000.0 1.0139748810063143 -0.010667084545867657
4947000000.0 1.0270644322972156 -0.033882046669381494
4950000000.0 1.025699374162383 -0.07624583828077294
4953000000.0 1.005052135610463 -0.11121958722559022
4956000000.0 1.0278115614546413 -0.11280518845342982
4959000000.0 0.9999096934348781 -0.13305711940102505
4962000000.0 0.9801485784782252 -0.1541171952553119
4966000000.0 0.9848205281377775 -0.17597273491522492
4969000000.0 0.9852924739937776 -0.18464765577463815
4972000000.0 0.9971451282098927 -0.22333448149061022
4975000000.0 0.9940776564993131 -0.24446368135959803
4978000000.0 0.9606182142334146 -0.23916675906097046
4981000000.0 0.9303746523461952 -0.2692712126593089
4984000000.0 0.9762372696554376 -0.27096654022391403
4988000000.0 0.9673107704225683 -0.31102667431658654
4991000000.0 0.976987361462945 -0.31905443589463467
4994000000.0 0.9535242402133205 -0.318841774492986
4997000000.0 0.9474991496542498 -0.36133578753028833
5000000000.0 0.9521615269224367 -0.37070054095054933
5003000000.0 0.9476320356403654 -0.4023917527504245
5006000000.0 0.9320216010171897 -0.430684360231032
5009000000.0 0.9285070661664605 -0.4206612433255665
5012000000.0 0.896241633187308 -0.4668521026566797
5016000000.0 0.9165005417159291 -0.455938278171559
5019000000.0 0.8908240738261672 -0.4693932941491582
5022000000.0 0.8755243014943459 -0.47081200294754394
5025000000.0 0.9180225370854569 -0.5221145882177116
5028000000.0 0.8711612393201086 -0.5567127203166131
5031000000.0 0.8318880210694256 -0.5212559407362835
5034000000.0 0.8500147351661052 -0.588831538243265
5038000000.0 0.830777825546656 -0.5864271863201397
5041000000.0 0.8531033879776035 -0.5377294766401729
5044000000.0 0.8110180635211072 -0.5706227447318393
5047000000.0 0.865369883899066 -0.6006402774801525
5050000000.0 0.846115953176871 -0.5248288028181967
5053000000.0 0.8205500958484633 -0.6693901971364049
5056000000.0 0.8367038870115674 -0.6130203344872107
5059000000.0 0.8309443624968069 -0.6298356747545255
5062000000.0 0.7679087522992237 -0.7003291281601528
5066000000.0 0.7819470382516517 -0.6490136167911388
5069000000.0 0.7542792761163074 -0.7253656782113935
5072000000.0 0.7043198394985498 -0.6914950171539684
5075000000.0 0.7394687837982022 -0.7275590027517027
5078000000.0 0.7139393324985102 -0.7893011736173112
5081000000.0 0.6812588597005415 -0.6923488800484274
5084000000.0 0.7351660519522585 -0.7881448114855625
5088000000.0 0.7162910171231516 -0.751337799067898
5091000000.0 0.6518440870416282 -0.812416100344765
5094000000.0 0.6906300410516513 -0.8027850254619497
5097000000.0 0.70468809090287 -0.8027694411004958
5100000000.0 0.6703013200179304 -0.7703894558596857
5103000000.0 0.6157057192253145 -0.8146722592529713
5106000000.0 0.6926242507779343 -0.860799168226442
5109000000.0 0.6265659166237082 -0.7938798263690946
5112000000.0 0.5786800790151615 -0.79675854980538
5116000000.0 0.5792858318760026 -0.7372529008917033
5119000000.0 0.6094598135811664 -0.8165133905597632
5122000000.0 0.5846985249703461 -0.8447843537960116
5125000000.0 0.573965125687717 -0.8912531661999328
5128000000.0 0.5371038761417016 -0.926663290681319
5131000000.0 0.4935667991903446 -0.8861026235468964
5134000000.0 0.51942093197053 -0.9005845847367678
5138000000.0 0.5099885335443951 -0.9165127289702165
5141000000.0 0.5615674959271049 -0.8885799532652332
5144000000.0 0.5052118212303761 -0.9556272984882951
5147000000.0 0.5248694226652112 -0.9133086391840333
5150000000.0 0.4672394049655935 -0.8764941292864421
5153000000.0 0.44843740641711655 -0.9162047824314801
5156000000.0 0.4703182592275223 -0.9796673124516343
5159000000.0 0.4457432889549417 -0.9344206630842267
5162000000.0 0.4312644654783065 -0.8776414473052404
5166000000.0 0.35094570107117673 -1.0784128038271694
5169000000.0 0.40644426139654144 -0.9917918178950937
5172000000.0 0.3791266443702821 -0.925969761808342
5175000000.0 0.37647941520360984 -0.9897201275542366
5178000000.0 0.34139182431256904 -0.9622217699095404
5181000000.0 0.4173942865958461 -0.9931014703012923
5184000000.0 0.33534930472285296 -0.9970490537327008
5188000000.0 0.3477691561220473 -0.9044815625144249
