! Created with skrf 1.8.0 (http://scikit-rf.org).
# Hz S RI R 50.0 
!freq ReS11 ImS11
4000000000.0 0.6684719734263382 0.7748036957876048
4003000000.0 0.6738973691973076 0.816474009485281
4006000000.0 0.693575777914528 0.7087103810239828
4009000000.0 0.709230012354452 0.7472640238346199
4012000000.0 0.6406172686488836 0.8515739454457686
4016000000.0 0.7630810533468184 0.7540051655936308
4019000000.0 0.7072060455663072 0.786678125236724
4022000000.0 0.672911472029753 0.7776692048304701
4025000000.0 0.7763162464349994 0.6890531122528493
4028000000.0 0.725042052447426 0.735298459769653
4031000000.0 0.6876557548415886 0.6595929778357201
4034000000.0 0.7415100609526255 0.7291947801609548
4038000000.0 0.7746353738439666 0.7422618240843317
4041000000.0 0.7791795254127087 0.6896711883408303
4044000000.0 0.7667625628059371 0.7473009217912546
4047000000.0 0.7435179576864794 0.7369463333577406
4050000000.0 0.8236468735013946 0.7190069970180755
4053000000.0 0.8018036369996497 0.6449633029038497
4056000000.0 0.7581408122783342 0.6888423980492112
4059000000.0 0.7631702544463376 0.6520814852319605
4062000000.0 0.8101773003146643 0.66348552939326
4066000000.0 0.7364736560272973 0.5915949346813233
4069000000.0 0.8342375466931026 0.6360333750278337
4072000000.0 0.8104760934163511 0.6787111805935573
4075000000.0 0.8652175113431945 0.6416398769645075
4078000000.0 0.8576726889541112 0.6348993322708608
4081000000.0 0.8674618648513945 0.6644844831698907
4084000000.0 0.8407518255472259 0.579148154870567
4088000000.0 0.8325934333028796 0.6424771315004854
4091000000.0 0.894022183186047 0.6497969465315236
4094000000.0 0.8376689700316333 0.5886015012688187
4097000000.0 0.8428325777405279 0.5234531710853012
4100000000.0 0.85434030604198 0.5909183670424409
4103000000.0 0.8602161803348214 0.5612800103440163
4106000000.0 0.8607015678307566 0.5771249144935677
4109000000.0 0.8736683037001547 0.5483392648539762
4112000000.0 0.8885586236180174 0.5674944678176261
4116000000.0 0.9049263230662983 0.5271628378933523
4119000000.0 0.9275929242297029 0.5018420143035356
4122000000.0 0.8855668139622977 0.503794144410726
4125000000.0 0.9124916601685733 0.5194258715814939
4128000000.0 0.8858535399980548 0.49174873468052416
4131000000.0 0.8889852776297937 0.4962607528039251
4134000000.0 0.8741204975094501 0.48948099547483837
4138000000.0 0.8948235202614974 0.4762297405585321
4141000000.0 0.9212095437004677 0.45811448380092845
4144000000.0 0.9113770296883548 0.5012621485788489
4147000000.0 0.9524819657433741 0.44145665663389616
4150000000.0 0.9544644416273532 0.45610802263804345
4153000000.0 0.927876851046008 0.43745542784926794
4156000000.0 0.9554045401955709 0.44445904639858536
4159000000.0 0.9013894241593996 0.4147934481114431
4162000000.0 0.9316264368866742 0.44346688711032256
4166000000.0 0.9477525416909329 0.3967171683437082
4169000000.0 0.9492284792665363 0.3828163137735493
4172000000.0 0.9327054452935932 0.4408647095958877
4175000000.0 0.9647350164455867 0.39733770390896544
4178000000.0 0.9648783737584792 0.381332235462725
4181000000.0 0.9527007415538404 0.36879881650669444
4184000000.0 0.9776040738306104 0.37498938143159094
4188000000.0 0.9554169482154165 0.3420901123292339
4191000000.0 0.9523382984894405 0.3663474530194561
4194000000.0 0.9399823980109987 0.3243457069344903
4197000000.0 0.9829903586555616 0.32650482748224036
4200000000.0 0.9726387211095406 0.34017781177686546
4203000000.0 0.9854987949745619 0.3347869941097499
4206000000.0 0.9874525627041026 0.30895454272065054
4209000000.0 0.9563411000200388 0.29326677143319596
4212000000.0 0.9958278874939495 0.26026548241656355
4216000000.0 0.9889642416803165 0.3059007268991138
4219000000.0 0.9838328560925101 0.2974799774122978
4222000000.0 1.0009444074406453 0.2572782764907427
4225000000.0 0.9812904107224205 0.25430738908999784
4228000000.0 0.9971141367275975 0.26221659310817547
4231000000.0 0.9914858944256021 0.25405884768674925
4234000000.0 1.012945805796347 0.23921533113614835
4238000000.0 1.005419007214808 0.19986187336065456
4241000000.0 0.9865853987373432 0.199669399718022
4244000000.0 0.9929911442718107 0.21343381894411395
4247000000.0 0.9912270355117448 0.19878579173175037
4250000000.0 0.9648468391570699 0.17684476140522964
4253000000.0 0.9815153169508217 0.16553793871888905
4256000000.0 1.0188470411813046 0.1812699133628628
4259000000.0 0.9831392336738486 0.1658538140514442
4262000000.0 1.0100096541390846 0.1572065448058567
4266000000.0 1.009078829192269 0.12217358179412277
4269000000.0 0.995026649069139 0.16111990963177636
4272000000.0 1.0009434377319693 0.13910969233547732
4275000000.0 1.0169536988609744 0.11413821780496478
4278000000.0 1.0219970426263711 0.11399681043510618
4281000000.0 1.0239391766208181 0.11966442271859092
4284000000.0 1.0357670593116794 0.05750338998641766
4288000000.0 1.0077499424589575 0.11595051554268618
4291000000.0 0.9927359072460714 0.07947345073700703
4294000000.0 0.9996087137534071 0.06111619268347297
4297000000.0 0.9890751428260035 0.09189476144681831
4300000000.0 0.9811754793930461 0.06233692658345893
4303000000.0 1.0024773142954375 0.045011862389115045
4306000000.0 1.021353870392009 0.07114647597597004
4309000000.0 1.033982288562202 0.02152278044693179
4312000000.0 1.042226390092203 0.04006951687452143
4316000000.0 1.0112364551244757 0.0473126871611325
4319000000.0 0.9974235685303534 0.02415214854314074
4322000000.0 0.9933385270889686 -0.04675193519284856
4325000000.0 1.030023988200496 -0.0020423302237418117
4328000000.0 1.010259315271191 -0.024842255848219696
4331000000.0 1.0264497510273591 -0.04436150935457693
4334000000.0 1.0356300838246189 -0.04860416801998914
4338000000.0 0.9985862458571739 -0.02481457135064251
4341000000.0 1.008140937860878 -0.013921531985663219
4344000000.0 1.0155837329535824 -0.06320321209092779
4347000000.0 1.030845822757888 -0.09039032082290858
4350000000.0 0.9766225561851712 -0.08849956243488118
4353000000.0 0.9907569644255174 -0.07195680607274423
4356000000.0 0.9997292552610063 -0.1295452418841856
4359000000.0 0.9593941569686145 -0.09827289839295887
4362000000.0 0.999482800139516 -0.16647665834915598
4366000000.0 1.0310413178098412 -0.15011763117149013
4369000000.0 0.973838597038259 -0.14351553687153157
4372000000.0 0.9813804140705302 -0.1860838182733447
4375000000.0 1.000114590502427 -0.13784804765902578
4378000000.0 0.973667489241976 -0.16496067478739349
4381000000.0 0.9891291984198767 -0.17767592272900776
4384000000.0 1.0543184269321246 -0.2114342025030368
4388000000.0 0.9715030767125876 -0.18876852293208324
4391000000.0 0.9947853926298955 -0.20259844953142628
4394000000.0 0.958672840004976 -0.19974246616021804
4397000000.0 0.9775221493396793 -0.2192683987417008
4400000000.0 1.01444601233788 -0.23893965727171532
4403000000.0 0.9727057938827597 -0.22687167572129716
4406000000.0 0.9631647964828941 -0.25558342902595993
4409000000.0 1.0121131003447503 -0.2586571620773708
4412000000.0 0.9468745691326098 -0.3258315958874035
4416000000.0 0.958622036679567 -0.264536355683734
4419000000.0 0.9627571982871936 -0.30189866558591133
4422000000.0 0.9695543921151022 -0.273572006753747
4425000000.0 0.9909259410877826 -0.27831209771363735
4428000000.0 0.9588095919710917 -0.31557093529290453
4431000000.0 0.9911841958361984 -0.3136852255291005
4434000000.0 0.9405095424779828 -0.33375275833539875
4438000000.0 0.9928053437878137 -0.3370104034500415
4441000000.0 0.9886151952504849 -0.35235445147312566
4444000000.0 0.9275890695481637 -0.33908819207879815
4447000000.0 0.9276140777309441 -0.37833571740282035
4450000000.0 0.9469928500281871 -0.3482572575535236
4453000000.0 0.9684468203893379 -0.3771698074020718
4456000000.0 0.9132814764562395 -0.38689014356935997
4459000000.0 0.894972402605779 -0.392506713072846
4462000000.0 0.9718174155044992 -0.4217967267773398
4466000000.0 0.9577699968422679 -0.4395845802898801
4469000000.0 0.9087274586294808 -0.40546978714790055
4472000000.0 0.9348436680752248 -0.4551853651596002
4475000000.0 0.883783335974559 -0.42151049490716175
4478000000.0 0.9654731123309921 -0.47535331274289827
4481000000.0 0.8786359794102003 -0.45334617130659405
4484000000.0 0.8737307993287049 -0.49724764505093666
4488000000.0 0.8867400812279962 -0.4664315658115829
4491000000.0 0.9028369175605035 -0.48557872742134056
4494000000.0 0.8664662590124936 -0.4863672017253302
4497000000.0 0.8868588710709131 -0.46631973448980407
4500000000.0 0.8808931541269656 -0.4803672966415272
4503000000.0 0.8973977994553639 -0.5022825053583235
4506000000.0 0.862430063560768 -0.5070960675884291
4509000000.0 0.8307767442918177 -0.5173079585786777
4512000000.0 0.8388119487747207 -0.5317257302862824
4516000000.0 0.8628087511321834 -0.5490548009592914
4519000000.0 0.8413493209441517 -0.5210889282542428
4522000000.0 0.8350773344278672 -0.5567717906911365
4525000000.0 0.8507207097418505 -0.5511056371868271
4528000000.0 0.857794652190788 -0.5912483332941546
4531000000.0 0.8432635386520878 -0.570175855752085
4534000000.0 0.8332006298857545 -0.5881982599908269
4538000000.0 0.8118606287191623 -0.5795248325842269
4541000000.0 0.7855409331201145 -0.6064051475102075
4544000000.0 0.8153259919913671 -0.5778295185961239
4547000000.0 0.8215224589634146 -0.5778065612476291
4550000000.0 0.7835782255517598 -0.6335757100886884
4553000000.0 0.8071381736822998 -0.6454987615574379
4556000000.0 0.7560239796861896 -0.6287647331741775
4559000000.0 0.7810977687359422 -0.6467674068456588
4562000000.0 0.7866103321888067 -0.6431173137397274
4566000000.0 0.7737684873062896 -0.6651418979785038
4569000000.0 0.7652679487702638 -0.662938700294248
4572000000.0 0.7549830287859486 -0.6799069542659247
4575000000.0 0.7427836229133307 -0.7034031123036808
4578000000.0 0.7697221588477694 -0.6792498965876176
4581000000.0 0.73652479092263 -0.6847522709800163
4584000000.0 0.723105083271182 -0.6948461416817278
4588000000.0 0.73845803843869 -0.7082620159905597
4591000000.0 0.7258407418507493 -0.6979272075093687
4594000000.0 0.7066491811270024 -0.7365068157314099
4597000000.0 0.6994608505138862 -0.7387456038334845
4600000000.0 0.6790411492754881 -0.733859288404644
4603000000.0 0.6827088712297691 -0.7332863398767864
4606000000.0 0.7034784985104808 -0.7347916177431972
4609000000.0 0.6793348685690751 -0.7671519795174073
4612000000.0 0.675433559637932 -0.7637157318798266
4616000000.0 0.6607124264671376 -0.7662936830213583
4619000000.0 0.6713741573026583 -0.7745810781227447
4622000000.0 0.6542335899682733 -0.7742254584407913
4625000000.0 0.61878432316787 -0.7709648702193072
4628000000.0 0.6491458791176848 -0.7682134344742845
4631000000.0 0.6284816333311716 -0.7978360291246795
4634000000.0 0.6101059565921998 -0.8030257749035725
4638000000.0 0.6177301969807627 -0.8057414797921912
4641000000.0 0.6147503283648226 -0.8191222812706113
4644000000.0 0.605691291738321 -0.81186819249803
4647000000.0 0.6051708757139473 -0.8138232519464054
4650000000.0 0.5798614430107999 -0.8239024272369596
4653000000.0 0.5892889520591589 -0.8385841793714494
4656000000.0 0.5674043994307432 -0.8361406242138125
4659000000.0 0.547942272855492 -0.8277212319021641
4662000000.0 0.552391484626082 -0.8579091490077893
4666000000.0 0.5383515041099186 -0.8659354099659992
4669000000.0 0.5616479928733418 -0.8723356327487269
4672000000.0 0.5252313449569015 -0.8808680687974771
4675000000.0 0.5296571788866815 -0.8934655886914823
4678000000.0 0.5133929055541483 -0.863796182523661
4681000000.0 0.5014188790555589 -0.8888649835507028
4684000000.0 0.4863153902444425 -0.9019562463932878
4688000000.0 0.4796269904685123 -0.8969295723356883
4691000000.0 0.5099877176256576 -0.9025358859819528
4694000000.0 0.4789746911623124 -0.8794824914317398
4697000000.0 0.43929607696445067 -0.8549409823875094
4700000000.0 0.4667760088607782 -0.906537984182948
4703000000.0 0.47347613917141174 -0.8588456375841014
4706000000.0 0.47001184999249357 -0.9284965345214184
4709000000.0 0.43113702169768686 -0.911897078019966
4712000000.0 0.4516205339860969 -0.9312372522421847
4716000000.0 0.39284799471889387 -0.9430025414714001
4719000000.0 0.4533016850292567 -0.9406065743893011
4722000000.0 0.4186991880283389 -0.9360036260595372
4725000000.0 0.4063182678265218 -0.9097931522355109
4728000000.0 0.3787630121134547 -0.9415484500894924
4731000000.0 0.4315756463429072 -0.986349141514399
4734000000.0 0.39181419909124443 -0.9150185198070698
4738000000.0 0.4020552354339073 -0.9890413923808484
4741000000.0 0.37446461042084206 -0.9826349275894984
4744000000.0 0.3558691479424667 -0.955022054789722
4747000000.0 0.35078732850000555 -0.9251828153129669
4750000000.0 0.32813084291237943 -0.9837145934061121
4753000000.0 0.34657423979924834 -0.9910513014762369
4756000000.0 0.33947601466300675 -0.9355407408506904
4759000000.0 0.30695152751978244 -0.9825345411386914
4762000000.0 0.2615251710419029 -0.9866649578166956
4766000000.0 0.2855162123642505 -0.9741872304629267
4769000000.0 0.30646252887944003 -0.9766858884467645
4772000000.0 0.26842332661241636 -1.0003507194723005
4775000000.0 0.2364053505663577 -1.0398569665158321
4778000000.0 0.230937576934753 -1.0016740974573473
4781000000.0 0.25344456849321706 -0.9852856666558889
4784000000.0 0.2657579793444209 -0.9741108198687162
4788000000.0 0.20964395915995293 -1.024727649799167
4791000000.0 0.22868247619110735 -0.9853721107963137
4794000000.0 0.22621484166943057 -1.0348521117523237
4797000000.0 0.21477581475953594 -0.9924182322629927
4800000000.0 0.17494898191378522 -1.010241800343926
4803000000.0 0.14585153207727872 -1.0005594341828319
4806000000.0 0.16817925624082394 -1.0287421808220722
4809000000.0 0.10178879184651803 -1.036557759387466
4812000000.0 0.12218556131852315 -1.007197054704166
4816000000.0 0.17435472707425567 -1.0097055153267935
4819000000.0 0.1522149615768073 -1.0394222800124073
4822000000.0 0.16191302736282345 -1.0519034139076406
4825000000.0 0.15695531237373636 -1.0524860935445541
4828000000.0 0.11726375403199232 -1.027931976597786
4831000000.0 0.07650589814799405 -1.0328010817001212
4834000000.0 0.1156278547257908 -1.0512895937252595
4838000000.0 0.058063749144084915 -1.0537720666517476
4841000000.0 0.07825624788702783 -0.9982566703346617
4844000000.0 0.1172957517348758 -1.0405174706432405
4847000000.0 0.08368871885118305 -0.9921338787916112
4850000000.0 0.04981101599161225 -1.049635149477681
4853000000.0 0.05441734974986049 -1.0108382127787698
4856000000.0 0.04086260003111335 -1.0128256036412797
4859000000.0 0.01806668701188824 -1.0776478678095898
4862000000.0 0.05924863745203131 -0.998974991224263
4866000000.0 0.014987365371476519 -1.043170331426358
4869000000.0 -0.008980434379589276 -1.0218230994523667
4872000000.0 -0.028150053451837402 -1.0648361925511616
4875000000.0 0.02620539875025489 -1.0778915020095932
4878000000.0 -0.03290471276453985 -1.0501844417505726
4881000000.0 -0.06588271750437047 -1.1032596459531743
4884000000.0 -0.0019238090615830601 -1.0523918125993845
4888000000.0 -0.009804994023012485 -1.0303731135907839
4891000000.0 0.0038146572849138624 -1.0467683564643595
4894000000.0 -0.08342759255532062 -1.0224618557318073
4897000000.0 -0.0327648332973694 -1.0313046844169766
4900000000.0 -0.045024291007976974 -1.0512414632932414
4903000000.0 -0.07721286167673214 -1.0551655878147563
4906000000.0 -0.09332403544182383 -1.0391418589796095
4909000000.0 -0.1106253734950246 -1.040615673836053
4912000000.0 -0.10293968269836011 -1.039510717831684
4916000000.0 -0.10021325950299795 -1.072105274047966
4919000000.0 -0.11419151695007453 -1.0558388677643906
4922000000.0 -0.12517025336398588 -1.0393675956232518
4925000000.0 -0.16957875010210405 -0.9921827863221785
4928000000.0 -0.08931657466605576 -1.0301656903772185
4931000000.0 -0.13538523009359849 -1.045680482939645
4934000000.0 -0.15355748129429697 -0.9872804784465594
4938000000.0 -0.19248612816990102 -1.0058541378085954
4941000000.0 -0.17532708089699467 -0.959274125289411
4944000000.0 -0.1605947875715418 -0.9753352869646486
4947000000.0 -0.21716048944775082 -0.9805730203121785
4950000000.0 -0.21510987319943875 -1.0220132656607281
4953000000.0 -0.28323509311735007 -1.0411359903152912
4956000000.0 -0.2644387781567392 -0.9834373786308636
4959000000.0 -0.2483465959896323 -0.9419751722562301
4962000000.0 -0.2766191474359506 -1.0077124911486863
4966000000.0 -0.2439348706834784 -1.0438673749419343
4969000000.0 -0.26869693264596006 -1.067597693597705
4972000000.0 -0.2759301341776421 -0.9991194795770745
4975000000.0 -0.25167206856852864 -0.9803204189308233
4978000000.0 -0.2884406101781558 -0.990733850439022
4981000000.0 -0.3403292140351468 -0.9833151707645185
4984000000.0 -0.2905731333907917 -0.9698459083359354
4988000000.0 -0.3021972599479403 -0.970754077554592
4991000000.0 -0.28604222490660985 -1.0278756228817414
4994000000.0 -0.3326887292171956 -1.008751480266991
4997000000.0 -0.35348237334629945 -0.9798856000698529
5000000000.0 -0.3281279698948085 -1.0099807860796495
5003000000.0 -0.33000955120392755 -1.023044118657569
5006000000.0 -0.3901797164890013 -1.037144280284076
5009000000.0 -0.38554178176552 -0.9886062669038252
5012000000.0 -0.3684092440098689 -0.9600261349690022
5016000000.0 -0.36069925034254174 -1.000549032979179
5019000000.0 -0.40857476425670514 -0.9411858404541583
5022000000.0 -0.41522454254354135 -0.9578133577461778
5025000000.0 -0.45478893727145425 -1.0105718639269952
5028000000.0 -0.43697410676931203 -0.9420236308442105
5031000000.0 -0.45158705250949094 -0.9210517558018728
5034000000.0 -0.4675984478938173 -0.977455097579617
5038000000.0 -0.4573206277120915 -0.9192441028441818
5041000000.0 -0.44774306362013605 -0.9416654125748446
5044000000.0 -0.40532070981963264 -0.9212291263546991
5047000000.0 -0.4439242746463871 -0.9260869872806944
5050000000.0 -0.3947244000007064 -0.9388527534424458
5053000000.0 -0.4955838183489345 -0.9723650890639799
5056000000.0 -0.45189473227793153 -0.9641604569689219
5059000000.0 -0.4620151807516503 -0.9432809405009065
5062000000.0 -0.5416889281788916 -0.9431744950727838
5066000000.0 -0.48139586396871203 -0.9141820098612401
5069000000.0 -0.5099894668280271 -0.930676370280043
5072000000.0 -0.49664428927882287 -0.8933621000914054
5075000000.0 -0.48491961002988093 -0.8880732555586544
5078000000.0 -0.574334954919413 -0.875964183133618
5081000000.0 -0.5351394669886146 -0.858721683720942
5084000000.0 -0.5794048905007441 -0.9031599763614921
5088000000.0 -0.5224565002733641 -0.872832161781415
5091000000.0 -0.5830182883095532 -0.8447358776207037
5094000000.0 -0.5798403590257755 -0.8944070701752148
5097000000.0 -0.5506676696711892 -0.846129855166516
5100000000.0 -0.5725429484000019 -0.8234752563186295
5103000000.0 -0.6213092118008828 -0.8330350129278011
5106000000.0 -0.6775775607662331 -0.8863096909074015
5109000000.0 -0.5708897386094216 -0.8400879497759538
5112000000.0 -0.6241895361291553 -0.7823683242188546
5116000000.0 -0.561007103312569 -0.8451104955244726
5119000000.0 -0.6322629728403321 -0.8605986981321956
5122000000.0 -0.6577011763648001 -0.8219324486478625
5125000000.0 -0.5899759870184944 -0.8500366287770168
5128000000.0 -0.6949091920040678 -0.792821167637747
5131000000.0 -0.6651706852422955 -0.8009341221375833
5134000000.0 -0.6418003043356604 -0.8239232385929671
5138000000.0 -0.66446609864396 -0.837049270889545
5141000000.0 -0.6329498551913526 -0.8228938978492184
5144000000.0 -0.6185454150461408 -0.8196212126743969
5147000000.0 -0.6320274646955726 -0.8001521303762372
5150000000.0 -0.6737210105449972 -0.7842176988436843
5153000000.0 -0.6997003879362911 -0.8013837761956355
5156000000.0 -0.6852507004491329 -0.8162157348960963
5159000000.0 -0.7237217747585594 -0.7819823039234881
5162000000.0 -0.753799768470685 -0.7503187870930056
5166000000.0 -0.719988964475392 -0.7569726195031877
5169000000.0 -0.7139584513182453 -0.7495114302805579
5172000000.0 -0.6875179777049016 -0.7419755867112311
5175000000.0 -0.7559412937971428 -0.7517275522893127
5178000000.0 -0.7552688880493619 -0.7349300824407323
5181000000.0 -0.7594995971530816 -0.7550786002306644
5184000000.0 -0.744791942809583 -0.720084762662977
5188000000.0 -0.7531980520459498 -0.716675339874664
