! Created with skrf 1.8.0 (http://scikit-rf.org).
# Hz S RI R 50.0 
!freq ReS11 ImS11
4000000000.0 0.6636007947628012 0.8198918597849252
4003000000.0 0.6734706483500835 0.8145326576628376
4006000000.0 0.676119514656273 0.7829450474829929
4009000000.0 0.6690758968839394 0.7794808645092453
4012000000.0 0.6301537537626267 0.8249084011550202
4016000000.0 0.7388005378130889 0.7579121980884183
4019000000.0 0.654355957025766 0.775253069145349
4022000000.0 0.6531398552430958 0.7922248463321244
4025000000.0 0.7595211278969646 0.7304891559394735
4028000000.0 0.7417570166155864 0.7355102731974452
4031000000.0 0.6741551674148842 0.7023679229324343
4034000000.0 0.7584135678385217 0.7108371717316713
4038000000.0 0.7557315523415044 0.7189749503132354
4041000000.0 0.7378842067291843 0.7006818375575019
4044000000.0 0.7814006413578477 0.7463153212682258
4047000000.0 0.7276702220428273 0.7414983652025744
4050000000.0 0.8241097863678642 0.7176090320597688
4053000000.0 0.7632178069599341 0.6415097037677615
4056000000.0 0.7382942481216266 0.7016437388130283
4059000000.0 0.7173989247630157 0.6998155851239125
4062000000.0 0.7734739559314576 0.6507466082759406
4066000000.0 0.7320173569785731 0.6426355331725324
4069000000.0 0.8089147818849656 0.6662594249852204
4072000000.0 0.7881991551596873 0.6646611438780612
4075000000.0 0.7878987679560787 0.68428530612391
4078000000.0 0.838494360473718 0.6390586961923763
4081000000.0 0.7865048258389674 0.6814124103463081
4084000000.0 0.8638311398450793 0.5900490733649444
4088000000.0 0.7788804491217295 0.6249558781811956
4091000000.0 0.8786791991639913 0.6311870560754262
4094000000.0 0.7952955022509567 0.6340301383271647
4097000000.0 0.8223421195454136 0.5978094980120354
4100000000.0 0.8545770782120272 0.5832786407402031
4103000000.0 0.8422281410034846 0.6048078098881615
4106000000.0 0.8940592623665385 0.5582604580032926
4109000000.0 0.8758735813276397 0.5220316449424607
4112000000.0 0.8611371453504173 0.5770934919208488
4116000000.0 0.8779460683220794 0.5740599535407399
4119000000.0 0.9047221774385233 0.5316693771444264
4122000000.0 0.8611359560871251 0.48826559500013467
4125000000.0 0.900637365379472 0.5190989545524345
4128000000.0 0.821247774383094 0.5400722640503056
4131000000.0 0.8535480065596329 0.5341081600886994
4134000000.0 0.8735028588268621 0.5355216741092788
4138000000.0 0.8482474817126298 0.4620314145934831
4141000000.0 0.9124167531492059 0.509373041217744
4144000000.0 0.8939965831950312 0.5287505205588767
4147000000.0 0.8953444054211632 0.44593086209558414
4150000000.0 0.9178473030873628 0.4935016776830516
4153000000.0 0.8952940750862421 0.4581917965805081
4156000000.0 0.9181448773577794 0.47333428094469265
4159000000.0 0.8926707755675698 0.4713149300314458
4162000000.0 0.9081924185779524 0.44102648034695846
4166000000.0 0.9388261437395378 0.4213107065502435
4169000000.0 0.916610441939015 0.4084811154430106
4172000000.0 0.9361794870979766 0.4616592030654089
4175000000.0 0.9277078338211683 0.4105604213200377
4178000000.0 0.9277643591816906 0.4064279512932588
4181000000.0 0.9640695279171196 0.377910816974235
4184000000.0 0.9429882301529254 0.3873106660612096
4188000000.0 0.941553243814772 0.367142227206142
4191000000.0 0.9112797769345905 0.423066197980378
4194000000.0 0.93631903116514 0.3562973680648014
4197000000.0 0.9639456146974203 0.3777387829203049
4200000000.0 0.9483487441443836 0.3800601806443973
4203000000.0 0.9580696000103853 0.3608991942890717
4206000000.0 0.9702458884417204 0.3482066666877855
4209000000.0 0.9459896443779681 0.3441714662870327
4212000000.0 0.9828639296668379 0.2847019527266419
4216000000.0 0.9619932048910405 0.34002111195496004
4219000000.0 0.9825969981487452 0.32417429488418925
4222000000.0 0.9810898293099686 0.2848218555257785
4225000000.0 0.9653618562706938 0.2849399233664137
4228000000.0 0.976302975714356 0.29387454987614303
4231000000.0 0.985145700534182 0.29948749143229514
4234000000.0 0.9860165148706765 0.2484725674462656
4238000000.0 0.9889183285986489 0.24234413433896482
4241000000.0 1.0003525159521311 0.2422749250000807
4244000000.0 0.9780558619345785 0.2440019592560308
4247000000.0 0.9864470989114862 0.2482537291272603
4250000000.0 0.9866165964019615 0.22809431109351674
4253000000.0 0.9734325572769318 0.20678234244123272
4256000000.0 1.01171039380709 0.20344770652500177
4259000000.0 0.9685033755157892 0.2132725682421602
4262000000.0 0.9905663718485251 0.16456393457865923
4266000000.0 1.0247397921458967 0.15224338065618714
4269000000.0 0.996728275338663 0.1776389375653524
4272000000.0 0.9823276520566289 0.17911072361371666
4275000000.0 0.9869594478576045 0.17640810592217654
4278000000.0 1.020171253297757 0.1377562304266042
4281000000.0 1.0177279623950108 0.1557335657409586
4284000000.0 1.0278847401711104 0.10642256618175822
4288000000.0 1.012714246691128 0.1469871328137624
4291000000.0 0.9734412153032163 0.09977152600134025
4294000000.0 1.0019952548608573 0.0881006035272401
4297000000.0 0.9909147942176431 0.1243482078022841
4300000000.0 1.0085325427254248 0.09146829258944567
4303000000.0 0.9868904514918689 0.06476734383750905
4306000000.0 1.005394991359571 0.08796193507399788
4309000000.0 1.0036261680074636 0.07768228169718923
4312000000.0 1.0077824737706427 0.11178118939727585
4316000000.0 1.0164930037627076 0.06674450801361183
4319000000.0 1.005017285581978 0.043788313458836284
4322000000.0 0.9809672521536085 0.01993568264497396
4325000000.0 1.0113822865630362 0.029097449023195873
4328000000.0 0.9860697411516955 0.011750491080165126
4331000000.0 1.0032983049916229 -0.02505324216414455
4334000000.0 1.002568887561616 -0.035629128210851985
4338000000.0 1.0327646997230366 0.006432906715920048
4341000000.0 1.0522035414810313 0.0019506254920818034
4344000000.0 0.9960889462419533 -0.011927050542161477
4347000000.0 1.0132093924482781 -0.04090217491834339
4350000000.0 0.9567053458039239 -0.05536747619830948
4353000000.0 0.9801927717446239 -0.044465690788498824
4356000000.0 0.9933117303189909 -0.10929273938206911
4359000000.0 0.944380447081756 -0.05880858694094733
4362000000.0 0.9999341255791194 -0.11135299813348559
4366000000.0 1.0153075567167533 -0.10442858381097646
4369000000.0 0.9630106700774049 -0.1170371907345277
4372000000.0 0.9854852146469582 -0.15804908992269465
4375000000.0 0.9899667951444862 -0.09475334760362664
4378000000.0 0.98178251648801 -0.14280978115232157
4381000000.0 0.9808824288540889 -0.12327908155004486
4384000000.0 1.0661307316150785 -0.16637033743810725
4388000000.0 0.9792563976395563 -0.1328541052196971
4391000000.0 0.9914595575201361 -0.15163433456845338
4394000000.0 0.9729549133233364 -0.16270315285870512
4397000000.0 0.9821209586722417 -0.17971477202325775
4400000000.0 1.0090959148424679 -0.197962624662448
4403000000.0 0.9981955786523177 -0.19139543010646218
4406000000.0 0.9831938389886814 -0.22847932144130087
4409000000.0 1.0056556381124424 -0.22754639810842395
4412000000.0 0.954740757009115 -0.2670373186668033
4416000000.0 0.9663275547328527 -0.24901218334450054
4419000000.0 0.9618857486109882 -0.272659573877033
4422000000.0 0.9829777635185888 -0.22766388305454158
4425000000.0 0.9978832136515207 -0.2535032486310231
4428000000.0 0.9742038957876281 -0.28664873196488455
4431000000.0 0.9836048897502303 -0.2877103250827439
4434000000.0 0.9530029299376719 -0.28999772621725217
4438000000.0 0.9828690659048462 -0.29082930094787796
4441000000.0 0.9766751259558788 -0.29640356573644916
4444000000.0 0.9307382867550591 -0.31314321119176547
4447000000.0 0.9420208822009408 -0.3279946928227298
4450000000.0 0.9308207128317114 -0.3127980599643726
4453000000.0 0.9714216281673719 -0.33899933663490955
4456000000.0 0.9125576105901694 -0.32983343935866116
4459000000.0 0.8933318479931021 -0.3529824447034735
4462000000.0 0.9981541761086066 -0.39044274314293914
4466000000.0 0.9688875187948249 -0.40309785905423845
4469000000.0 0.9385596407958532 -0.3540276594997314
4472000000.0 0.951289335093277 -0.4144291365778877
4475000000.0 0.9210124040631793 -0.37632524393332445
4478000000.0 0.9556767371594731 -0.4546119016067458
4481000000.0 0.8701548573750215 -0.4021361626866943
4484000000.0 0.9101678160633295 -0.4623381883941826
4488000000.0 0.9015679888310921 -0.43919327555912424
4491000000.0 0.9002441806698845 -0.45180668768796994
4494000000.0 0.9019645116025002 -0.43037467463537404
4497000000.0 0.8929653573184528 -0.4330815005488429
4500000000.0 0.904679990776021 -0.45986470056149514
4503000000.0 0.9177316339158341 -0.46339904609537313
4506000000.0 0.8799126194738891 -0.48003751619495005
4509000000.0 0.8612135388829822 -0.486098495406473
4512000000.0 0.8593006532770558 -0.49274134271119896
4516000000.0 0.8943663299296528 -0.5082109835399309
4519000000.0 0.8535156699087554 -0.47338604652282246
4522000000.0 0.8431618968598849 -0.5141300604836523
4525000000.0 0.8776795562730626 -0.48083440783763043
4528000000.0 0.8903217138547408 -0.5290892746652348
4531000000.0 0.8696631649944297 -0.524985549123129
4534000000.0 0.8440469751760625 -0.5324576619551141
4538000000.0 0.8284073382829251 -0.5699186824735514
4541000000.0 0.8109669453473747 -0.5864672255369588
4544000000.0 0.8167766445099005 -0.5638871090466132
4547000000.0 0.8290645852549786 -0.5501968698176742
4550000000.0 0.810283946302365 -0.5891427695161536
4553000000.0 0.8174001749714801 -0.5935348397777365
4556000000.0 0.782680072586845 -0.5851419722375846
4559000000.0 0.7961028604399297 -0.6025716140507036
4562000000.0 0.8254064506483596 -0.6051367900261444
4566000000.0 0.8028372567606865 -0.6071465015002433
4569000000.0 0.7614525215328486 -0.6261901769551732
4572000000.0 0.7845225749422325 -0.6075373863863299
4575000000.0 0.7713045175571187 -0.658443780097519
4578000000.0 0.8211498760297138 -0.652413129720115
4581000000.0 0.7720912624053126 -0.6615843016810492
4584000000.0 0.7473177591838925 -0.6686072521958047
4588000000.0 0.7656044950216854 -0.6714924151285122
4591000000.0 0.7709446192807086 -0.6615203434673383
4594000000.0 0.7326753768424787 -0.6866951196345213
4597000000.0 0.7479246594251316 -0.6810676890991093
4600000000.0 0.6939624382438893 -0.69443419426326
4603000000.0 0.7223208176017761 -0.722502962480923
4606000000.0 0.7318431163980302 -0.6929901634287214
4609000000.0 0.7214038378579831 -0.7047483266822914
4612000000.0 0.7259051100702822 -0.7349700714850133
4616000000.0 0.6927362512223683 -0.712371343215428
4619000000.0 0.696456974025756 -0.7260816971192604
4622000000.0 0.6854007194101249 -0.732277269071699
4625000000.0 0.6620143477775102 -0.7350331205300343
4628000000.0 0.6658873772257511 -0.7285157694477595
4631000000.0 0.6445370380620148 -0.7538110294392405
4634000000.0 0.6725952981275374 -0.7642719822466337
4638000000.0 0.6644601744877392 -0.7706143211774356
4641000000.0 0.6347391926808809 -0.7762310139062851
4644000000.0 0.650119622193201 -0.7730674666479348
4647000000.0 0.6363375513465456 -0.785376343378874
4650000000.0 0.6009645888141871 -0.7870336265260289
4653000000.0 0.6346870898770922 -0.8009254117206073
4656000000.0 0.6055871070393974 -0.7844312701192948
4659000000.0 0.5874666288316721 -0.821820901287836
4662000000.0 0.5978718599978146 -0.8234215524052372
4666000000.0 0.57313264403197 -0.8417859521524237
4669000000.0 0.5854891801843526 -0.8345693335908787
4672000000.0 0.5706699363147049 -0.8547628579583533
4675000000.0 0.5693966869304259 -0.8442795360929618
4678000000.0 0.5333828604304361 -0.8254296954481587
4681000000.0 0.5298206707692719 -0.862065056605073
4684000000.0 0.49456233360297125 -0.8833344141552584
4688000000.0 0.5188127616749532 -0.8615427605330361
4691000000.0 0.5449320329222004 -0.8621147205809458
4694000000.0 0.5098175501052133 -0.8834070192830226
4697000000.0 0.46364156686837144 -0.8362581302356551
4700000000.0 0.49282214684937153 -0.8671863387977707
4703000000.0 0.5025939752639468 -0.8353620752640247
4706000000.0 0.4782326284079153 -0.8990542434263651
4709000000.0 0.4614755046509933 -0.8857726528720675
4712000000.0 0.4801420294974651 -0.8824758805226278
4716000000.0 0.4720642151821559 -0.9130726891345238
4719000000.0 0.5016734222404708 -0.8799790656832087
4722000000.0 0.49371582025939575 -0.8862763956465576
4725000000.0 0.44208825307939925 -0.8916784195814288
4728000000.0 0.4357837762371879 -0.9116772032532994
4731000000.0 0.4844152032252733 -0.9386066173719421
4734000000.0 0.42327467560195353 -0.8947292850458283
4738000000.0 0.4454933946768645 -0.9422616501756225
4741000000.0 0.39112716169790396 -0.9373333426732134
4744000000.0 0.3579761584490868 -0.9450277636403708
4747000000.0 0.42994418021487313 -0.893217797935015
4750000000.0 0.37534000069679907 -0.9584833820329937
4753000000.0 0.3907131293658055 -0.9610204988621365
4756000000.0 0.3833479350153593 -0.9543275139067362
4759000000.0 0.3730675032722136 -0.9588914058299369
4762000000.0 0.35140751717753527 -0.9693108988657423
4766000000.0 0.3213680336593545 -0.9480998887847426
4769000000.0 0.3526182426039917 -0.9512724436685828
4772000000.0 0.35016186221737683 -0.9580997152327309
4775000000.0 0.32317197780230134 -1.000479904968807
4778000000.0 0.2941893120949119 -0.9877350053485355
4781000000.0 0.31970341562821997 -0.9404382257575945
4784000000.0 0.3307110070715482 -0.9767579099114833
4788000000.0 0.29859654632484484 -1.0011638904525295
4791000000.0 0.28477981119620555 -0.9798477802752718
4794000000.0 0.282955422137138 -1.010089605336616
4797000000.0 0.23764174511899458 -0.9535649322061545
4800000000.0 0.22625113514241618 -0.9851127668515274
4803000000.0 0.2010541069231537 -0.9823721724448988
4806000000.0 0.23845891636676653 -0.997326904488244
4809000000.0 0.21406897402360928 -0.9842949853218056
4812000000.0 0.17384978908482027 -1.012187676765051
4816000000.0 0.23518757115666955 -0.9740394258718226
4819000000.0 0.2389549795916912 -1.0143786474254433
4822000000.0 0.2285682431561856 -1.0359448790391075
4825000000.0 0.23146790963171282 -1.0149926922403014
4828000000.0 0.18655351426799446 -0.9875772132813144
4831000000.0 0.11676517118764473 -1.0523226565322894
4834000000.0 0.19133626543330085 -1.018417725126251
4838000000.0 0.12161662423708754 -1.0072424885837852
4841000000.0 0.14003133327055936 -1.0018283431511779
4844000000.0 0.13764180266558834 -1.0242513268437128
4847000000.0 0.13773910840361253 -0.9856729212375204
4850000000.0 0.10564132282014141 -1.0463965730377984
4853000000.0 0.11951810506418134 -0.9913771206993616
4856000000.0 0.08062511413673289 -0.9988180669809229
4859000000.0 0.09551979683221469 -1.0544215153174683
4862000000.0 0.10802127460808478 -0.9884719712556335
4866000000.0 0.06582656150962757 -1.0327647334167454
4869000000.0 0.08078488914685977 -1.0187148807480526
4872000000.0 0.019037690451004674 -1.0518075152277846
4875000000.0 0.11222457913229891 -1.0573549475746302
4878000000.0 0.055619465406201905 -1.0317534118526113
4881000000.0 0.017514731808189188 -1.1001562248032297
4884000000.0 0.053637176912770944 -0.9998580379186748
4888000000.0 0.07426320884719514 -1.0239954138563836
4891000000.0 0.03106911230705155 -1.0511926924857407
4894000000.0 -4.2085510095957526e-05 -1.030075656095426
4897000000.0 0.02642912517523888 -0.993076651587668
4900000000.0 -0.01349412760301489 -1.021337761935855
4903000000.0 -0.0014093219363056388 -1.0580293874494444
4906000000.0 -0.030269682395099494 -1.0182737265765642
4909000000.0 -0.030420983329094223 -1.0115681480177479
4912000000.0 -0.07004616475725457 -1.042857670977765
4916000000.0 -0.034647763494630314 -1.0490804612447198
4919000000.0 -0.03387448385149966 -1.0761772413559685
4922000000.0 -0.04912397242397598 -1.0525397065347235
4925000000.0 -0.10725994390515195 -1.0374677590667045
4928000000.0 -0.06843182052956696 -1.0084328144601846
4931000000.0 -0.0818371162512705 -1.037159034270079
4934000000.0 -0.09964089212061893 -0.984585252659903
4938000000.0 -0.1519062374973198 -1.0087524757481094
4941000000.0 -0.12073329244335403 -1.000109491442389
4944000000.0 -0.1068594947375947 -0.9506854159227169
4947000000.0 -0.1335678501318149 -0.9668190005687689
4950000000.0 -0.14381144025776904 -0.981406441878243
4953000000.0 -0.21980885376608073 -1.043249274504484
4956000000.0 -0.1914433556089844 -1.0185828331877163
4959000000.0 -0.20441613053935057 -0.9619848490762277
4962000000.0 -0.21735041142883624 -1.018635966666621
4966000000.0 -0.181491804397173 -1.0414401351160867
4969000000.0 -0.1763004488182746 -1.0259570699180185
4972000000.0 -0.23150770699727655 -1.0240934881812889
4975000000.0 -0.20092877622809255 -0.9793908376542857
4978000000.0 -0.25354622654697484 -1.024803308318442
4981000000.0 -0.22347757177916885 -1.0125643601179852
4984000000.0 -0.21684709364571866 -0.9879889262017102
4988000000.0 -0.1909883700784285 -0.9916525236308618
4991000000.0 -0.2157550324842405 -1.0372064062797846
4994000000.0 -0.2227938419463203 -0.9951501651079482
4997000000.0 -0.30774936465025277 -0.9810887906776333
5000000000.0 -0.2599891137345953 -1.0271885142467738
5003000000.0 -0.254462693884588 -1.041454869008122
5006000000.0 -0.30039185505023047 -1.0549435314238982
5009000000.0 -0.25388879868786274 -0.9780412355021705
5012000000.0 -0.31327128624897466 -0.9799740540620479
5016000000.0 -0.28876154577830654 -1.0167760564445447
5019000000.0 -0.31770220265950155 -0.9743623617034112
5022000000.0 -0.3261065228130733 -0.9938816365939995
5025000000.0 -0.3649474988590901 -1.0345283511409202
5028000000.0 -0.35145281752480195 -0.9563695726618349
5031000000.0 -0.36851725361905674 -0.9677291031132537
5034000000.0 -0.404487534510925 -0.9783501092690474
5038000000.0 -0.3560979325506939 -0.9243050208072208
5041000000.0 -0.3899808734052653 -0.9522551954307726
5044000000.0 -0.35127079048184473 -0.9517119486032112
5047000000.0 -0.39934723943858424 -0.9416913947356412
5050000000.0 -0.3161522014570075 -0.9648190610223539
5053000000.0 -0.4255075985606692 -0.950130449123479
5056000000.0 -0.3947153708522083 -0.95767660024314
5059000000.0 -0.40048265433521685 -0.9450275518209593
5062000000.0 -0.45858178004301386 -0.9341619961270915
5066000000.0 -0.4066829535572638 -0.9748859047583305
5069000000.0 -0.44575102057341276 -0.9318824811820831
5072000000.0 -0.40835106398992904 -0.9186041335479163
5075000000.0 -0.4431309240460525 -0.95393012014764
5078000000.0 -0.4727684773181325 -0.8771995411996052
5081000000.0 -0.46675985774137846 -0.865276498872592
5084000000.0 -0.5034433071505106 -0.9343003368895393
5088000000.0 -0.4931230004565058 -0.9320543938740253
5091000000.0 -0.5023903567064232 -0.9126566327141648
5094000000.0 -0.4684983156535862 -0.8545387530757015
5097000000.0 -0.4809600526468173 -0.9178432763201898
5100000000.0 -0.506461943054268 -0.9108547181330279
5103000000.0 -0.51528146756023 -0.8796507224321893
5106000000.0 -0.5685047254400841 -0.8966983137932318
5109000000.0 -0.5165296097490981 -0.9023771267734855
5112000000.0 -0.5596659926905917 -0.8589308855153628
5116000000.0 -0.532747040154185 -0.8051661160584905
5119000000.0 -0.574643568095006 -0.8729450712938851
5122000000.0 -0.5532192003275034 -0.8352669113250428
5125000000.0 -0.5414168818061603 -0.8884653622013269
5128000000.0 -0.5863987967643846 -0.8172575148960362
5131000000.0 -0.592568841808679 -0.8241691383222878
5134000000.0 -0.5925817544524344 -0.8506867817723482
5138000000.0 -0.5404707677247644 -0.8386455057748989
5141000000.0 -0.569796038162736 -0.8866358403718064
5144000000.0 -0.598541165582375 -0.8377831917740001
5147000000.0 -0.6513339614517641 -0.8472281901497886
5150000000.0 -0.5595967014527219 -0.830657179741338
5153000000.0 -0.6596023966229181 -0.8357068872852403
5156000000.0 -0.6179786424419578 -0.8451254362604547
5159000000.0 -0.6754559426118704 -0.8674643386816099
5162000000.0 -0.6816495191124594 -0.7885973678633844
5166000000.0 -0.6763861547565856 -0.8027689789731485
5169000000.0 -0.686956246323963 -0.8274955115814396
5172000000.0 -0.6499226548650089 -0.7645549087788156
5175000000.0 -0.6890531400759925 -0.8482285393312963
5178000000.0 -0.6754369546601429 -0.769878035585983
5181000000.0 -0.6754491539542151 -0.814721487906943
5184000000.0 -0.7122254820984728 -0.7513510179542296
5188000000.0 -0.6778911905382549 -0.7847989825395807
