! Created with skrf 1.8.0 (http://scikit-rf.org).
# Hz S RI R 50.0 
!freq ReS11 ImS11
4000000000.0 0.652593597695423 0.7771240534869486
4003000000.0 0.6790294554389884 0.8127668081253447
4006000000.0 0.6973175140034316 0.7657756266876372
4009000000.0 0.6817719361649568 0.8007423085739476
4012000000.0 0.6505391404120662 0.8063009285768628
4016000000.0 0.7238058391567624 0.7362126380637715
4019000000.0 0.6959509075921662 0.7528293561289636
4022000000.0 0.6659989570035567 0.835360734941058
4025000000.0 0.7735817514677523 0.6935952009796693
4028000000.0 0.737567784379823 0.7587493637476661
4031000000.0 0.6395655855465908 0.6816682147036055
4034000000.0 0.7270092561058898 0.7394272033715816
4038000000.0 0.7801286499771283 0.706343584134143
4041000000.0 0.7338114315625898 0.7311801432843164
4044000000.0 0.7614692063721082 0.7286999788050427
4047000000.0 0.7608749611302895 0.7423721146105534
4050000000.0 0.7913248645496216 0.6925214188347228
4053000000.0 0.7453130617796498 0.6563627347405923
4056000000.0 0.8005386384975547 0.696083604225318
4059000000.0 0.7117426243515792 0.704989570885701
4062000000.0 0.7898282373344663 0.6559782877127862
4066000000.0 0.7388523332555696 0.6071934040136976
4069000000.0 0.8471769428994413 0.6582599222053925
4072000000.0 0.7785182370456253 0.6878098579190803
4075000000.0 0.80509627216396 0.6733470925206089
4078000000.0 0.8513237384433007 0.6499407545896849
4081000000.0 0.8232448542110268 0.6926362186182671
4084000000.0 0.8219517479370213 0.6151750896820516
4088000000.0 0.7770491558630315 0.6629295681415338
4091000000.0 0.873164884853589 0.6686723581466738
4094000000.0 0.8065101548404413 0.6046844812003087
4097000000.0 0.8390701205185668 0.6112991198058992
4100000000.0 0.8601894213809869 0.5959178777010878
4103000000.0 0.8674564066653667 0.6252637863957962
4106000000.0 0.8564014792020649 0.6190797677599469
4109000000.0 0.8838392103995776 0.5899227931020639
4112000000.0 0.8733433202134928 0.565730595307472
4116000000.0 0.8595053513447736 0.6065369510960464
4119000000.0 0.9094568137280689 0.5210557505616473
4122000000.0 0.8951232597042641 0.5290207814103149
4125000000.0 0.9209566663995381 0.5252959185836295
4128000000.0 0.8596453605744435 0.5125486780849897
4131000000.0 0.8667696774394543 0.5096607791861039
4134000000.0 0.8640975600472457 0.5307714021679423
4138000000.0 0.8885484207260448 0.46987003798061694
4141000000.0 0.8943169783149887 0.5053245845758768
4144000000.0 0.8994106619632898 0.5153137614003398
4147000000.0 0.9462486243691594 0.44946569147371523
4150000000.0 0.913513297559212 0.4803593756282328
4153000000.0 0.8830956099613967 0.4735377996077632
4156000000.0 0.9360149101536845 0.46887091178441664
4159000000.0 0.9511444615644971 0.4673015360239507
4162000000.0 0.9386127514842277 0.42786366565007294
4166000000.0 0.9641524567156543 0.43428503958170195
4169000000.0 0.9251670876084267 0.41136901252764224
4172000000.0 0.9616435828959339 0.4454549663903922
4175000000.0 0.9379840716122518 0.4204347735564488
4178000000.0 0.9638051798456287 0.3926596925817726
4181000000.0 0.9543857421993127 0.3941697555474881
4184000000.0 0.9462497445677687 0.3891933010608137
4188000000.0 0.9410599223109715 0.3681879157061748
4191000000.0 0.9331618258371184 0.391469875691769
4194000000.0 0.9298732487550804 0.3424940769241388
4197000000.0 0.9647258889397627 0.36208231044385814
4200000000.0 0.9612399816703827 0.37256833217066265
4203000000.0 0.9631648347387688 0.3657181807146421
4206000000.0 0.9920306950352278 0.3322536170376024
4209000000.0 0.9739765700689867 0.3352839279148601
4212000000.0 0.9851071302355258 0.2789629118907505
4216000000.0 0.9866833431817669 0.3201073874833998
4219000000.0 0.9812189330303199 0.30891716940695957
4222000000.0 0.9898917827353724 0.27810424323413047
4225000000.0 0.9788717778370737 0.3006620693754509
4228000000.0 0.9819968376592623 0.2688910564799776
4231000000.0 0.9934539987371964 0.26548297843744906
4234000000.0 0.9893785703484848 0.2648888739725932
4238000000.0 0.989189654197019 0.24813625372145967
4241000000.0 0.9781800345023663 0.22854133620960576
4244000000.0 0.9849168666237301 0.23727053767833234
4247000000.0 0.984365644557725 0.2254768961531997
4250000000.0 0.984516830698118 0.1952447008108127
4253000000.0 0.9715570484733778 0.1855242957712233
4256000000.0 1.0171091766224203 0.18705844697438395
4259000000.0 0.9716259878373569 0.17747660166291881
4262000000.0 0.9949537143752911 0.1744713920278773
4266000000.0 1.0354565757627179 0.16485595836240358
4269000000.0 1.00116027823276 0.18607737583517067
4272000000.0 1.0011201049869056 0.16022130640004437
4275000000.0 1.0201107816615045 0.17012066058313285
4278000000.0 1.0290334578950204 0.14702327127327494
4281000000.0 0.9920213314124358 0.15000566115480857
4284000000.0 0.9985062836818809 0.07923016154235715
4288000000.0 1.0157232674283065 0.12479440980946699
4291000000.0 0.9957977998717411 0.1158264389023446
4294000000.0 1.0120670177018654 0.09601886058832283
4297000000.0 1.0153374536166664 0.09055776865462929
4300000000.0 1.007496078426408 0.08313025968841609
4303000000.0 1.0094207512839244 0.04644046268136305
4306000000.0 1.022049347459257 0.10311623129487352
4309000000.0 1.0195500363452963 0.07307734540431356
4312000000.0 1.0370587430576512 0.0961920798196606
4316000000.0 1.0152039967751185 0.043071444236803105
4319000000.0 0.9978431523024228 0.057359765674975485
4322000000.0 0.9937626090130682 0.007105838289956229
4325000000.0 1.0062663192314458 0.013003976819243299
4328000000.0 1.0231364521519597 7.52811559564387e-05
4331000000.0 1.0265658240971884 -0.027661488223833255
4334000000.0 1.015289674573201 -0.015879988024592742
4338000000.0 1.0018330019472015 0.005931952143509542
4341000000.0 1.0292901980635785 -0.007251391037670765
4344000000.0 1.0367070552827053 -0.03310047702133083
4347000000.0 1.0216991080506477 -0.07299484433549545
4350000000.0 0.9941894812286056 -0.05707072850221431
4353000000.0 0.9955963320501262 -0.03056928197827552
4356000000.0 1.0007488689807915 -0.09528306305001984
4359000000.0 0.9579113189444156 -0.08734242027254545
4362000000.0 1.0058847915955627 -0.15849383828394922
4366000000.0 1.0116178520332315 -0.08985067596423553
4369000000.0 0.9549542934152785 -0.10778297894311281
4372000000.0 0.9931678248256568 -0.1680302636639364
4375000000.0 0.980730909321696 -0.09368108223977553
4378000000.0 0.9871224254931785 -0.11796900296782324
4381000000.0 0.9818992229642922 -0.12356933237425609
4384000000.0 1.0515303142132355 -0.1776130929756103
4388000000.0 0.9829029859446146 -0.15840124006995154
4391000000.0 1.0032432774867617 -0.16778894172443143
4394000000.0 0.9731476022609082 -0.18337912578113152
4397000000.0 0.9853933390859169 -0.19678781401963813
4400000000.0 1.0175555786787411 -0.2057993730618817
4403000000.0 0.9913702377906646 -0.21730308606110657
4406000000.0 0.9883546240094877 -0.22605303758223316
4409000000.0 1.0094050551731195 -0.243583346798673
4412000000.0 0.9778891131916767 -0.27836482394727213
4416000000.0 0.9747414878882221 -0.253736226459183
4419000000.0 0.9744183228728942 -0.2645376351277258
4422000000.0 0.976129915936665 -0.23619431316913694
4425000000.0 0.9987776115237952 -0.24198232043457885
4428000000.0 0.9714676480816347 -0.26912094329470676
4431000000.0 0.9845492622589898 -0.2705192304261352
4434000000.0 0.9651920663350456 -0.276908707965066
4438000000.0 0.9903668343015515 -0.30850499414292154
4441000000.0 0.9753893183781035 -0.3086478874646366
4444000000.0 0.9374824122903558 -0.3081192197191308
4447000000.0 0.9418833702403508 -0.3452572073409715
4450000000.0 0.9393489363522368 -0.31824613951891095
4453000000.0 0.9660873995811359 -0.34881879371832375
4456000000.0 0.9117173072795745 -0.3323482833808428
4459000000.0 0.892485483532379 -0.3602272372818128
4462000000.0 0.9949727330293356 -0.37428889944403215
4466000000.0 0.9780298811535106 -0.4024400704930553
4469000000.0 0.9550489449604227 -0.3635420453751942
4472000000.0 0.9432404042130165 -0.4264036460935189
4475000000.0 0.904417433961283 -0.3959615961151334
4478000000.0 0.9555302888479855 -0.453387964799536
4481000000.0 0.898985807654503 -0.41935814293225265
4484000000.0 0.8958613126518078 -0.4679261324365557
4488000000.0 0.8963623751503564 -0.4506682973830027
4491000000.0 0.895774652801931 -0.43788530203480325
4494000000.0 0.9011939541476843 -0.4411422050333962
4497000000.0 0.9019041627869373 -0.4408674912376085
4500000000.0 0.9054010648148583 -0.44182160123369213
4503000000.0 0.9209833090789616 -0.4814488723369203
4506000000.0 0.890250579561167 -0.4744936607063331
4509000000.0 0.8857963807683364 -0.468007817975683
4512000000.0 0.8550171152575441 -0.49122473858494686
4516000000.0 0.8864037854439709 -0.49710318912026763
4519000000.0 0.8468463494252024 -0.4924660483265535
4522000000.0 0.8512429756743991 -0.5424718256734344
4525000000.0 0.8811437648626004 -0.5016216742925923
4528000000.0 0.8835599053890566 -0.5448535738011286
4531000000.0 0.8743689547647292 -0.5367988515437366
4534000000.0 0.8390797895474364 -0.5698360158440616
4538000000.0 0.8323510051263514 -0.5590736118217621
4541000000.0 0.8124592671293661 -0.5906993315993266
4544000000.0 0.810473443593571 -0.5706840877576754
4547000000.0 0.839851437827715 -0.5590645981290139
4550000000.0 0.8106668180621721 -0.6005087079514358
4553000000.0 0.8112671728533121 -0.5901910548685062
4556000000.0 0.7934438347501516 -0.6054662582944709
4559000000.0 0.7935884287521253 -0.6081233219308921
4562000000.0 0.7869908590629158 -0.6331105376817587
4566000000.0 0.8051371218811301 -0.6398908362249554
4569000000.0 0.7748039916863492 -0.6318368559740379
4572000000.0 0.772265827467669 -0.6328794157513241
4575000000.0 0.760109720532288 -0.6727237274956837
4578000000.0 0.8007775462235458 -0.6461572864474903
4581000000.0 0.7773428954963869 -0.675605343974216
4584000000.0 0.74159709391012 -0.6653139216038859
4588000000.0 0.7764406627877726 -0.6763211241200436
4591000000.0 0.7710217244610671 -0.674566849001365
4594000000.0 0.728919794311551 -0.7030494938214726
4597000000.0 0.7429875502866083 -0.7184239577151035
4600000000.0 0.6958033403088139 -0.7148466388119674
4603000000.0 0.7103713802614459 -0.7032894761145072
4606000000.0 0.7219378706036448 -0.7241278281799413
4609000000.0 0.7256326601581415 -0.7130974101033704
4612000000.0 0.7077772652888984 -0.7268673176115268
4616000000.0 0.6846971435447422 -0.7433504611171238
4619000000.0 0.692764425739181 -0.7409984407610478
4622000000.0 0.6896284918429009 -0.7471130252040117
4625000000.0 0.6507193630310151 -0.7567221145982702
4628000000.0 0.6802683555924541 -0.7475601039685594
4631000000.0 0.6422590842789817 -0.7756546125680437
4634000000.0 0.6514177812156982 -0.7740819993770346
4638000000.0 0.6607017468846491 -0.7849229666699953
4641000000.0 0.6422587103038333 -0.7762120000897254
4644000000.0 0.6499253853416306 -0.8114637916860092
4647000000.0 0.6345270821615075 -0.8040772244737022
4650000000.0 0.6024125108213312 -0.807046542621216
4653000000.0 0.6229468240374673 -0.8016060334350054
4656000000.0 0.6126958571076377 -0.816261274843608
4659000000.0 0.6017921206651097 -0.8343284132235724
4662000000.0 0.6021409028762037 -0.8265374117807758
4666000000.0 0.5852108422877916 -0.8576884015292213
4669000000.0 0.594478777241074 -0.8211953668097908
4672000000.0 0.5487935501152585 -0.8689508955769814
4675000000.0 0.5508487769061112 -0.8487859023920084
4678000000.0 0.5391987152770117 -0.8334881667060157
4681000000.0 0.509506560606382 -0.8833085370106538
4684000000.0 0.5189632705488016 -0.8900501716368463
4688000000.0 0.5022354819857113 -0.8568292577147236
4691000000.0 0.5587052923368059 -0.8759189984299389
4694000000.0 0.5145351241961772 -0.8513590449728445
4697000000.0 0.47091871147482606 -0.8571170631958178
4700000000.0 0.4924352557712305 -0.8920810506925407
4703000000.0 0.4736728923419276 -0.8564836730117964
4706000000.0 0.5057196867080556 -0.8952528913093449
4709000000.0 0.46407427703580895 -0.8738247710571997
4712000000.0 0.4673602696049952 -0.9006309127925919
4716000000.0 0.43978128110714704 -0.9008816112486882
4719000000.0 0.4892515866521455 -0.914500598870639
4722000000.0 0.4685817703084638 -0.8932055372603072
4725000000.0 0.4522317776954836 -0.911402374856725
4728000000.0 0.4357615487643928 -0.9107884485127733
4731000000.0 0.47014226726350566 -0.9237506357749501
4734000000.0 0.4393169668312786 -0.9067269556995168
4738000000.0 0.4298455559917143 -0.9406564889933159
4741000000.0 0.3948920306328447 -0.9644038991984355
4744000000.0 0.39335907998586334 -0.9423307634722655
4747000000.0 0.38926568561949837 -0.9179503066840954
4750000000.0 0.366838995387803 -0.964658265267589
4753000000.0 0.3739956314795602 -0.9883805686097555
4756000000.0 0.3725924964351665 -0.9724552504970132
4759000000.0 0.36542304182726426 -0.9554120096846487
4762000000.0 0.32619511859488104 -0.9737820362352615
4766000000.0 0.3237882224353321 -0.9825558313662357
4769000000.0 0.34785803475053223 -0.997906967675691
4772000000.0 0.3323017413950358 -0.9886825924689421
4775000000.0 0.3244560649594425 -1.0127102410632538
4778000000.0 0.29067605641439487 -1.031756708944092
4781000000.0 0.3037162106765444 -0.9656444513374185
4784000000.0 0.3159702016658208 -0.9820682669215158
4788000000.0 0.27576209209881186 -1.0102244606892172
4791000000.0 0.2854170521328164 -0.9805721342628345
4794000000.0 0.2989352823992048 -1.0323636109988061
4797000000.0 0.24814325694199824 -0.9891381965031166
4800000000.0 0.23148472667186062 -0.9675589107114535
4803000000.0 0.22588963882570698 -0.9826271350746592
4806000000.0 0.2324271335402371 -1.027466248742181
4809000000.0 0.18087562716352537 -1.0199407154644795
4812000000.0 0.16781894777330075 -0.9856716489364432
4816000000.0 0.1814351394449885 -0.9746798795948823
4819000000.0 0.21499708447939295 -1.018493637923535
4822000000.0 0.21150015234915143 -1.0238345120823598
4825000000.0 0.20110026967620498 -1.0178279725242643
4828000000.0 0.16404317300942908 -1.0200451605725158
4831000000.0 0.11824538325686858 -1.0479874034914292
4834000000.0 0.15943228333175494 -1.028929509346945
4838000000.0 0.13518854342882952 -1.0415673755133175
4841000000.0 0.1107848136081803 -1.0180035483657717
4844000000.0 0.16355051382403302 -1.013539497567559
4847000000.0 0.13156960703921528 -0.9889743689615154
4850000000.0 0.10338379103945065 -1.0459456723437826
4853000000.0 0.09932508831350706 -1.0050216417342774
4856000000.0 0.0821184651930852 -1.0200769505286724
4859000000.0 0.08156422605155492 -1.0728758513649557
4862000000.0 0.11555507036217978 -0.9954609050602327
4866000000.0 0.02427168533569453 -0.9999322240176453
4869000000.0 0.04594354232239907 -1.0284056567407163
4872000000.0 0.025580527349482025 -1.0606337908487151
4875000000.0 0.11124137422133326 -1.0762985629182997
4878000000.0 0.04151235008934498 -1.0346840886521493
4881000000.0 -0.01613824950982708 -1.09713035937884
4884000000.0 0.013513053221081766 -1.0386721850324512
4888000000.0 0.025719837318042102 -1.0319187304943493
4891000000.0 0.01777230835876153 -1.0498167130308371
4894000000.0 -0.02038514074915566 -1.0107959289662485
4897000000.0 0.021321685014462327 -1.0262369119222066
4900000000.0 -0.008316328494675042 -1.0664859727989737
4903000000.0 -0.029824407879410243 -1.0639872997432263
4906000000.0 -0.05852902081329503 -1.05266237297994
4909000000.0 -0.04162394710755562 -1.021034507594701
4912000000.0 -0.09284181554469152 -1.080916660337227
4916000000.0 -0.028064779133340705 -1.0423087721982993
4919000000.0 -0.07255319784246635 -1.071466638691723
4922000000.0 -0.06426156509459799 -1.0581504296683957
4925000000.0 -0.11236210020599263 -1.0274365462954935
4928000000.0 -0.03595133023934664 -1.0164863717739105
4931000000.0 -0.07928893566009866 -1.0589513070452519
4934000000.0 -0.08941904633581745 -0.9967282921351092
4938000000.0 -0.16899650419237905 -1.0147652550189898
4941000000.0 -0.13293316248949982 -0.9876871381307712
4944000000.0 -0.12179304968581475 -0.9926353500988248
4947000000.0 -0.15156528613352485 -1.0035887653980613
4950000000.0 -0.14610068092661277 -0.9969234942342899
4953000000.0 -0.2270159936916844 -1.0495201537518308
4956000000.0 -0.20679663054784186 -1.0001508099646041
4959000000.0 -0.20478859566830163 -0.9926334594674129
4962000000.0 -0.1957905477683796 -1.0407779575507348
4966000000.0 -0.18887322286559938 -1.0487157900434647
4969000000.0 -0.17535013030785218 -1.071677820937423
4972000000.0 -0.22592414055768098 -1.050846460064531
4975000000.0 -0.1915471835183349 -1.0307366669341955
4978000000.0 -0.24915734654566707 -1.0372854553295305
4981000000.0 -0.25549729089085826 -1.012583527139381
4984000000.0 -0.22258429721979897 -0.9676154172891143
4988000000.0 -0.24633433455489567 -0.9939386002551118
4991000000.0 -0.22349421236049 -1.0576554758573626
4994000000.0 -0.23612152133046127 -0.9973163885107366
4997000000.0 -0.30808947284511207 -0.9818592118145737
5000000000.0 -0.27512034637868266 -1.0797947056691606
5003000000.0 -0.30109982329026536 -1.0398086331491274
5006000000.0 -0.33299353942959575 -1.0417625274364923
5009000000.0 -0.3058756123359818 -1.0084965824714922
5012000000.0 -0.34652605353651506 -0.9720692410923821
5016000000.0 -0.2986044649472563 -1.0190247806678692
5019000000.0 -0.3124241106733857 -0.9819129823941708
5022000000.0 -0.3462669507739421 -1.0036017179777843
5025000000.0 -0.3724986005269518 -1.0264079434891333
5028000000.0 -0.3950610947535341 -0.9848534902540247
5031000000.0 -0.37311273780240906 -0.9667954227264198
5034000000.0 -0.4251418259727364 -0.9819229899880961
5038000000.0 -0.400362711603793 -0.9387776431804233
5041000000.0 -0.36713018444425016 -0.9750100414748119
5044000000.0 -0.38560088376926893 -0.9324078486917918
5047000000.0 -0.3916274836781262 -1.0052210485521766
5050000000.0 -0.3151128512808553 -0.9705849981899681
5053000000.0 -0.4338795863170729 -0.9767701368094635
5056000000.0 -0.41029852697569935 -0.9458654205081001
5059000000.0 -0.3672337270032296 -0.9749011656499896
5062000000.0 -0.46496538063600945 -0.9141268731456116
5066000000.0 -0.4058856197801989 -0.9134071502928163
5069000000.0 -0.5084965739286744 -0.9495763545242853
5072000000.0 -0.44374079300175095 -0.9047892694158621
5075000000.0 -0.4181014065503622 -0.946075700405125
5078000000.0 -0.5248513146307465 -0.9252390441651914
5081000000.0 -0.4824458748448586 -0.9145047560331018
5084000000.0 -0.5394341066182496 -0.9492345819050219
5088000000.0 -0.48450683115786564 -0.9104129108802399
5091000000.0 -0.5576875348127899 -0.923229779607232
5094000000.0 -0.5595048436656167 -0.9001794909816264
5097000000.0 -0.4628264668794031 -0.8777191856111801
5100000000.0 -0.5341514484763948 -0.8614561751454243
5103000000.0 -0.5529681339336222 -0.8374881342720094
5106000000.0 -0.562178556667622 -0.9291948749126648
5109000000.0 -0.5015673846305552 -0.9212829317505267
5112000000.0 -0.6045491548627328 -0.8519676815072168
5116000000.0 -0.5444512835459019 -0.8525632569666541
5119000000.0 -0.5824811449736315 -0.9197900042352944
5122000000.0 -0.6128144056122832 -0.8205833451170621
5125000000.0 -0.592391971934538 -0.886835666069684
5128000000.0 -0.5852085540137502 -0.8223199799811265
5131000000.0 -0.5753850525948645 -0.7828222434369688
5134000000.0 -0.6216054585502226 -0.8789339776928077
5138000000.0 -0.5590131361737867 -0.8486470299371438
5141000000.0 -0.5683207942089203 -0.8747098412107781
5144000000.0 -0.6178554726184374 -0.8312376368666051
5147000000.0 -0.6309038946130191 -0.878297857451243
5150000000.0 -0.6221957641704722 -0.8322433647347998
5153000000.0 -0.672396132033392 -0.8394045204151921
5156000000.0 -0.651284739704217 -0.7852130810082856
5159000000.0 -0.6954378087150154 -0.8499868939950891
5162000000.0 -0.6425836756424439 -0.7891856815191769
5166000000.0 -0.6992528543938511 -0.794800061081322
5169000000.0 -0.6638970753861185 -0.8256590654554865
5172000000.0 -0.6500846204362216 -0.7669140069680479
5175000000.0 -0.7194299165049268 -0.7909925094105156
5178000000.0 -0.6907108578229344 -0.7779781463089875
5181000000.0 -0.7198118614521098 -0.7988844982277995
5184000000.0 -0.7048867379929596 -0.7596213788695546
5188000000.0 -0.6810562700096691 -0.791660892496298
