! Created with skrf 1.8.0 (http://scikit-rf.org).
# Hz S RI R 50.0 
!freq ReS11 ImS11
4000000000.0 0.9350193188219207 0.38455895375790233
4003000000.0 1.0216795866692827 0.40372234477918845
4006000000.0 0.9691196365802304 0.31681333541523515
4009000000.0 0.9748902057076441 0.3518012079638404
4012000000.0 0.9555752405795601 0.3321653337718916
4016000000.0 1.0226717882521414 0.2998802313022268
4019000000.0 0.9515027161999576 0.2982294837588152
4022000000.0 1.0077303523372472 0.3820253001222663
4025000000.0 1.030360492370027 0.248972684674674
4028000000.0 1.0123699736333696 0.26988592258415245
4031000000.0 0.9642963070257076 0.26101490667599236
4034000000.0 0.9550429710616755 0.23857020929686806
4038000000.0 0.9924931391309048 0.23512034356138783
4041000000.0 1.0105549716307118 0.19561513945202877
4044000000.0 1.0187773533084297 0.2048928832051911
4047000000.0 1.018621521575297 0.19674424656346043
4050000000.0 0.998967939635859 0.1647190915594837
4053000000.0 0.975197695325186 0.1631071015915268
4056000000.0 1.0262703658442662 0.1574877275151533
4059000000.0 0.9882075028432629 0.13990977399721283
4062000000.0 1.0279875963078913 0.15371655996099554
4066000000.0 0.9759089442035624 0.1270087051137061
4069000000.0 1.0450406407287238 0.049480838044009046
4072000000.0 0.9867462719585333 0.07098083802873195
4075000000.0 1.0182307541006586 0.09907683473750445
4078000000.0 1.0054528944410122 0.05747520938407913
4081000000.0 0.9961042973511149 0.060586213501172714
4084000000.0 1.0254742775021077 0.03285120903000455
4088000000.0 1.009415600466347 0.03349572744926155
4091000000.0 1.0445442465539918 0.017201654638885122
4094000000.0 1.008738829854253 0.02759737453637462
4097000000.0 1.0166482464254607 -0.01820990714292603
4100000000.0 1.007937379280446 -0.021004437397808884
4103000000.0 1.0227808312287572 0.0023231185250073283
4106000000.0 1.0482079073394746 -0.05802413582434052
4109000000.0 1.0227494950031442 -0.062323420691646036
4112000000.0 1.0181510214314637 -0.06268274106953825
4116000000.0 1.029094101273487 -0.10773665220785839
4119000000.0 1.0196626042023542 -0.10186426631910012
4122000000.0 0.9905747959498968 -0.14281908751874275
4125000000.0 0.9935708863621945 -0.13072097741242197
4128000000.0 0.9974834765106226 -0.13409171761032312
4131000000.0 0.9831226644261082 -0.18745477148389184
4134000000.0 0.9849167807031097 -0.1671841680864859
4138000000.0 0.986348518825434 -0.21480503835652143
4141000000.0 0.9857867444135803 -0.18391973976000495
4144000000.0 1.0075432565406297 -0.19790835522765987
4147000000.0 1.0015193017078372 -0.24167383214443217
4150000000.0 1.0016391699774836 -0.27717345047622743
4153000000.0 0.975102602403242 -0.25581870532552964
4156000000.0 0.9884318227245485 -0.2486036622035504
4159000000.0 0.9480391003005766 -0.2962074335400987
4162000000.0 0.976200494693203 -0.30775122496964397
4166000000.0 0.9910567308378195 -0.3146807967881239
4169000000.0 0.9510193209310137 -0.33505462583836954
4172000000.0 0.956742855844562 -0.3252163239399316
4175000000.0 0.9795262126397893 -0.3585455025772784
4178000000.0 0.9535978216210231 -0.36533542068979136
4181000000.0 0.9094525085391467 -0.4007678995495671
4184000000.0 0.9121846520254411 -0.3620224641402311
4188000000.0 0.9092339993129099 -0.4205865254683574
4191000000.0 0.9284483778541733 -0.41058490115667456
4194000000.0 0.9143319163153669 -0.4454362370109725
4197000000.0 0.923585398912284 -0.4600297614156368
4200000000.0 0.9397265634377587 -0.42936484905096894
4203000000.0 0.9219355403781967 -0.4869699727169628
4206000000.0 0.9023149143485203 -0.47772840747610923
4209000000.0 0.8465666289241258 -0.5200540056390611
4212000000.0 0.8487792293588351 -0.550574031536289
4216000000.0 0.8977382653607852 -0.528381811315344
4219000000.0 0.8780646327262256 -0.5432176792355136
4222000000.0 0.8438396081782384 -0.5531893916522711
4225000000.0 0.8305744155536412 -0.5762459671292736
4228000000.0 0.8310028980035444 -0.5994512939930581
4231000000.0 0.8045229166027031 -0.63108713026782
4234000000.0 0.8077757947626981 -0.6454240432824248
4238000000.0 0.7856168373502752 -0.6490061854882617
4241000000.0 0.7405572544087895 -0.64525670992358
4244000000.0 0.74756904321245 -0.6461512151336801
4247000000.0 0.7325413537306437 -0.6597929382868211
4250000000.0 0.7262242384366326 -0.6516789001099254
4253000000.0 0.7133131392519522 -0.6915324214273334
4256000000.0 0.7549857809675034 -0.7486772230327838
4259000000.0 0.6789029221167987 -0.7036029931917401
4262000000.0 0.6683171720438329 -0.7616136522019805
4266000000.0 0.6564706437464359 -0.769698635187581
4269000000.0 0.6545645342233546 -0.7162775379422681
4272000000.0 0.6705735235112995 -0.7445065040730978
4275000000.0 0.6501752054094018 -0.7753284847798732
4278000000.0 0.6390943839144567 -0.8143828384766459
4281000000.0 0.6286557398727431 -0.8030237421128069
4284000000.0 0.5841971104767314 -0.8287027734300468
4288000000.0 0.6056151584983802 -0.8001079552641626
4291000000.0 0.5607387171008877 -0.8117333174108146
4294000000.0 0.5470922813642475 -0.8373873380160815
4297000000.0 0.5714188701231754 -0.8317464458749007
4300000000.0 0.5247426758793444 -0.8399873437862541
4303000000.0 0.47796845496594537 -0.8964593864773052
4306000000.0 0.5061657516082421 -0.8827732326494591
4309000000.0 0.4835045519927212 -0.8799263911739499
4312000000.0 0.48815444930586704 -0.8993865226607421
4316000000.0 0.44538190861556914 -0.888255912536588
4319000000.0 0.441970047879439 -0.8978135741839162
4322000000.0 0.37459431523594805 -0.9328578250703686
4325000000.0 0.3799686469826051 -0.9438737158861914
4328000000.0 0.36972906913800974 -0.9153073322256475
4331000000.0 0.32259017937414414 -0.9514230342183108
4334000000.0 0.31321394692870097 -0.9669384436931645
4338000000.0 0.3316086966849537 -0.9614052523367002
4341000000.0 0.29265826905222425 -0.9655560804181565
4344000000.0 0.2801780876312373 -0.9809415913682901
4347000000.0 0.23951172331499443 -0.9945914581292762
4350000000.0 0.21628607145381 -0.9760179111463103
4353000000.0 0.21995689716983374 -0.989181244614517
4356000000.0 0.17123013600159082 -0.9903247321570545
4359000000.0 0.1519020685728979 -0.9884017111858797
4362000000.0 0.14481355470800245 -1.0141059026103125
4366000000.0 0.11606418656318349 -1.0168490771350782
4369000000.0 0.08113449685394618 -0.9935348015842786
4372000000.0 0.048926654957614786 -1.0145928421972654
4375000000.0 0.05247282931903045 -0.9947893972734633
4378000000.0 0.017253326615269474 -1.0104061372269273
4381000000.0 -0.008026383605062956 -1.0167163475106247
4384000000.0 -0.03944147446812682 -1.0232836592497114
4388000000.0 -0.0538507826774383 -1.026061218587736
4391000000.0 -0.07258539374432288 -1.0063892745906853
4394000000.0 -0.09013653027990282 -1.0143213733091743
4397000000.0 -0.13556359040169963 -1.0236696685151416
4400000000.0 -0.14174840072099298 -0.9858987732618442
4403000000.0 -0.17722911882168996 -0.9943379748058992
4406000000.0 -0.20719598833510952 -0.9834056508808434
4409000000.0 -0.21607112192287453 -0.982977455153893
4412000000.0 -0.21881702976605685 -0.9979367654092064
4416000000.0 -0.24913657964379848 -0.9899457663884959
4419000000.0 -0.28115758293548276 -0.9894659477081744
4422000000.0 -0.3207309111913554 -0.9849186382010624
4425000000.0 -0.34816152736863915 -0.9379723177806978
4428000000.0 -0.3825682252250129 -0.9511174236004134
4431000000.0 -0.3621683277285997 -0.9359813820889333
4434000000.0 -0.4023719291390402 -0.9517003617600521
4438000000.0 -0.42985172630835194 -0.8779135907117723
4441000000.0 -0.450920511209368 -0.9062914507073723
4444000000.0 -0.4940320835768404 -0.8920552092515253
4447000000.0 -0.492145786116578 -0.9263056645826103
4450000000.0 -0.592843179840412 -0.872549082945411
4453000000.0 -0.5373306874574404 -0.8617853196450499
4456000000.0 -0.5956473585761379 -0.868425428361386
4459000000.0 -0.657560756948693 -0.8997295390060317
4462000000.0 -0.5874412597559786 -0.8246550498150153
4466000000.0 -0.6502666611416968 -0.8170673954094434
4469000000.0 -0.7149801107572944 -0.7806074827877922
4472000000.0 -0.720468587778292 -0.7142302858962583
4475000000.0 -0.7764608417027178 -0.7882731362999353
4478000000.0 -0.7140635369919677 -0.6985780094432325
4481000000.0 -0.7786647226128711 -0.7104658923695203
4484000000.0 -0.8212325370054105 -0.6922999470972023
4488000000.0 -0.8178392425054113 -0.6885992531320567
4491000000.0 -0.795814826880284 -0.6661224045322671
4494000000.0 -0.8793025977112188 -0.5966700228289861
4497000000.0 -0.8747086118699521 -0.6021644800205965
4500000000.0 -0.8719995662227336 -0.5049406601989673
4503000000.0 -0.8874790925099991 -0.512354393956423
4506000000.0 -0.931633763258815 -0.5017860715371606
4509000000.0 -0.900527637528302 -0.4291095597736778
4512000000.0 -0.9110827710397332 -0.4522307161145044
4516000000.0 -0.9817354298410129 -0.3592158495397848
4519000000.0 -1.024648060816937 -0.3232077601850862
4522000000.0 -0.9882046111243497 -0.3882317379888475
4525000000.0 -1.0528884387498412 -0.2719942437402384
4528000000.0 -0.9762908684403762 -0.27812083265903836
4531000000.0 -1.0064482826460739 -0.2127657776931397
4534000000.0 -1.0556581560953462 -0.18842542079703395
4538000000.0 -1.0139079094514818 -0.15171942562647533
4541000000.0 -1.0170007528425749 -0.1578084828217067
4544000000.0 -1.0361271503515068 -0.0867886171313898
4547000000.0 -1.0533143567970413 -0.021295686244647227
4550000000.0 -1.0730797732007995 -0.06288635058953101
4553000000.0 -1.0134793182335564 0.020850996054198004
4556000000.0 -1.0919714423404296 0.02780276985642499
4559000000.0 -1.067135165475206 0.036616286770748414
4562000000.0 -1.0373753749212264 0.08191437568983269
4566000000.0 -1.012228100306179 0.13847552644035965
4569000000.0 -1.0883900919171272 0.19970393886477286
4572000000.0 -1.0307238613266576 0.21679773009219683
4575000000.0 -0.9740122910595239 0.18956841662678542
4578000000.0 -0.9745609944217295 0.23930378753904585
4581000000.0 -0.9907315100671202 0.2737852509685759
4584000000.0 -1.0134908589426581 0.35300647803986185
4588000000.0 -0.9392500616568394 0.38167585496649514
4591000000.0 -0.9673522429635695 0.4442153329619681
4594000000.0 -0.9697185276691316 0.4245908018956178
4597000000.0 -0.9196944291862208 0.4819456696340652
4600000000.0 -0.9399729701504251 0.4785266691670187
4603000000.0 -0.8690360551474184 0.509100754817345
4606000000.0 -0.9367921318465 0.5542344713479502
4609000000.0 -0.8338800900485698 0.5685928832921677
4612000000.0 -0.8436657596235745 0.6359780493123419
4616000000.0 -0.7547474032039743 0.6508030564429544
4619000000.0 -0.7677081518808632 0.6923878416327301
4622000000.0 -0.7434302831171778 0.7592238190910087
4625000000.0 -0.7385713446611577 0.7475709306206662
4628000000.0 -0.7744264819999016 0.8283062314571277
4631000000.0 -0.7276675362148126 0.7701645269432271
4634000000.0 -0.678214110962204 0.8037145885807809
4638000000.0 -0.6576489816093372 0.821889172416991
4641000000.0 -0.586479296711919 0.8344324873670014
4644000000.0 -0.6216659391527584 0.8393901569239333
4647000000.0 -0.5756259342085688 0.8308226855498339
4650000000.0 -0.5232598491627664 0.8998943026222619
4653000000.0 -0.45026759190947807 0.8689466170292794
4656000000.0 -0.46962082395520904 0.9564906377688367
4659000000.0 -0.45153299406495884 0.9313476844675779
4662000000.0 -0.3808647978799373 0.9402718130845368
4666000000.0 -0.3756778718881025 1.0001295938863246
4669000000.0 -0.32064500178070465 1.0101473610608358
4672000000.0 -0.29246063346672746 1.0398175767661164
4675000000.0 -0.21814580375577736 0.9548662810429707
4678000000.0 -0.2741926025201802 0.9762223296392946
4681000000.0 -0.12329498170877301 0.9877125822845944
4684000000.0 -0.16332595415165613 0.9558309723060738
4688000000.0 -0.19766535169071198 0.9795704944113388
4691000000.0 -0.13859742212413542 0.9952131542828189
4694000000.0 -0.04786953567254423 1.0240003802325532
4697000000.0 -0.0446389861668442 1.036574615891433
4700000000.0 -0.03476547023138782 1.0650525012188565
4703000000.0 0.05214919088689546 1.0330655292335698
4706000000.0 -0.03515845117867139 0.9775762131829232
4709000000.0 0.023785207054965063 1.0185861335304514
4712000000.0 0.14378588782423674 0.9752990449967283
4716000000.0 0.1282593073817236 1.0105673765483847
4719000000.0 0.22727973580224609 1.008928849500809
4722000000.0 0.23636635141988818 1.035015263498552
4725000000.0 0.24934481535862282 0.98871107966532
4728000000.0 0.2703012080359084 0.9903988310033096
4731000000.0 0.25340730681856755 0.9680808891104253
4734000000.0 0.2978464294855975 0.9763823717822374
4738000000.0 0.3293014824302282 0.9402439860927421
4741000000.0 0.34445318844718537 0.9267458256896903
4744000000.0 0.41521041424854604 0.9198770056251471
4747000000.0 0.4412114499646641 0.9519951384461623
4750000000.0 0.4563910617935628 0.8391993640573774
4753000000.0 0.5320431329760846 0.9033857864151456
4756000000.0 0.5230015092289569 0.8510859086089297
4759000000.0 0.5409503639133832 0.861956846629439
4762000000.0 0.5039705333662444 0.8625068955258849
4766000000.0 0.5835149348647861 0.825238122661302
4769000000.0 0.623770233743943 0.8572076883333821
4772000000.0 0.6437456744236196 0.7861256721524659
4775000000.0 0.6167126809142218 0.7658221788132401
4778000000.0 0.6194767707865287 0.7947745244058032
4781000000.0 0.6937173393882712 0.7663140216923435
4784000000.0 0.6573932402762703 0.788271613289803
4788000000.0 0.6775853666239327 0.7313857521015432
4791000000.0 0.7607120963249254 0.692364690180025
4794000000.0 0.7492555343863176 0.6235914531567088
4797000000.0 0.8267112738591329 0.6907326628548709
4800000000.0 0.8269102312314326 0.6270014919984779
4803000000.0 0.7790963999204364 0.648946076152616
4806000000.0 0.8075572348818023 0.5933022066213403
4809000000.0 0.7953543880508703 0.6068707335258627
4812000000.0 0.8426036187892465 0.5821017803402866
4816000000.0 0.8972830218538699 0.5068259725261766
4819000000.0 0.8846774156226422 0.485174636599775
4822000000.0 0.8996263198660804 0.48531386299014534
4825000000.0 0.8768821112402125 0.4408823555149612
4828000000.0 0.8989239417225219 0.44348207789253175
4831000000.0 0.9002293206471047 0.45330889796445295
4834000000.0 0.907183637057974 0.3702770733114077
4838000000.0 0.932890666445683 0.3820080672360953
4841000000.0 0.9589812507683404 0.37258053775620925
4844000000.0 0.9511538735832339 0.3200676630957281
4847000000.0 0.9992940856092317 0.3037079197831136
4850000000.0 0.9345536833095154 0.28613817113431883
4853000000.0 0.9760556845493378 0.27103160376684265
4856000000.0 0.986405416248582 0.22946163111587747
4859000000.0 0.9855684746338578 0.22515445051879468
4862000000.0 0.9993973022975894 0.21815602883430157
4866000000.0 0.9944935443865615 0.20407527758182198
4869000000.0 1.0093423794317375 0.18966663582455012
4872000000.0 0.9911696837269287 0.14980494898273758
4875000000.0 1.023422265722679 0.10766254466263986
4878000000.0 1.0103403439809202 0.09337055131437562
4881000000.0 0.9750393911566811 0.10893293094747983
4884000000.0 1.007414626158044 0.0820144723585006
4888000000.0 1.018122549537558 0.05948176078286449
4891000000.0 1.0152008472466485 0.02404842331685757
4894000000.0 1.0109463617141072 0.014969441671812765
4897000000.0 0.9933219650219719 0.007881180366733416
4900000000.0 0.9956854528012417 -0.06187984725461046
4903000000.0 1.0058195167241926 -0.05797216206345544
4906000000.0 1.0213740847234432 -0.07049234248953118
4909000000.0 0.9966880881495029 -0.09630622836404112
4912000000.0 0.9798715764645394 -0.1341219036541062
4916000000.0 1.0056427227477736 -0.13086314587547498
4919000000.0 0.9905217782457929 -0.1540450385881862
4922000000.0 1.0018212722111202 -0.16546176318338363
4925000000.0 0.9862874442552053 -0.16203465698639907
4928000000.0 1.0129788373689217 -0.21193915946024505
4931000000.0 0.9942256735336685 -0.2227178564558912
4934000000.0 0.9646249735231563 -0.21622086674973365
4938000000.0 0.9801902180331268 -0.24831368551184307
4941000000.0 0.9738745916055184 -0.2790418557827712
4944000000.0 0.9583726420179025 -0.27942787719988105
4947000000.0 0.9736787253087318 -0.30932712577843186
4950000000.0 0.941168638557123 -0.32403235632731925
4953000000.0 0.9376887667066686 -0.35489321809186564
4956000000.0 0.9773468769057927 -0.3798362980787033
4959000000.0 0.9410290396456652 -0.39096264464778147
4962000000.0 0.9232333937768611 -0.404764348348818
4966000000.0 0.906671844915248 -0.40141688875331116
4969000000.0 0.939686183838108 -0.4107651949469787
4972000000.0 0.9385357988563825 -0.4409706967444339
4975000000.0 0.9134136028925497 -0.47193277741245004
4978000000.0 0.888082568334821 -0.45988536014846343
4981000000.0 0.9092767914820629 -0.490726653827291
4984000000.0 0.8920898371866811 -0.49842406373811576
4988000000.0 0.8710655003013372 -0.5160396689175034
4991000000.0 0.8959240355560465 -0.5092898081973494
4994000000.0 0.8573670494802068 -0.5137453566411787
4997000000.0 0.8608282591775354 -0.5482429701657457
5000000000.0 0.8558721234238046 -0.567291396789219
5003000000.0 0.8520313365406591 -0.5744789007774341
5006000000.0 0.8604622799080253 -0.592165284711726
5009000000.0 0.807967369108538 -0.5992960348378313
5012000000.0 0.8054957221044592 -0.615541724871215
5016000000.0 0.837316093861008 -0.6153414496410232
5019000000.0 0.7721488617746012 -0.620550331267698
5022000000.0 0.7922744260705211 -0.645897173748843
5025000000.0 0.8243651321160483 -0.7051201433101959
5028000000.0 0.7494191405302274 -0.7132523971592175
5031000000.0 0.7532283029192595 -0.6751792957390679
5034000000.0 0.7517236343471276 -0.7429265521010383
5038000000.0 0.675944222370239 -0.7119876469825439
5041000000.0 0.7652952324452112 -0.6717638570608553
5044000000.0 0.7017576837030868 -0.701011503159957
5047000000.0 0.7435797618859712 -0.7380131049041267
5050000000.0 0.7678808757965346 -0.6844938026051393
5053000000.0 0.6923325617779286 -0.7852156829516161
5056000000.0 0.7135619834793777 -0.7448300256315752
5059000000.0 0.7333989792038753 -0.740556822838932
5062000000.0 0.6642552678564031 -0.8080769331032402
5066000000.0 0.6623825994633702 -0.7344357583038654
5069000000.0 0.641484162732198 -0.8017982257869182
5072000000.0 0.619998101095581 -0.7808924471777969
5075000000.0 0.6230083951786969 -0.8074033113830941
5078000000.0 0.5820489183582971 -0.8794002593251786
5081000000.0 0.5635364472743385 -0.7902979505238262
5084000000.0 0.5866621370928259 -0.8854617642250977
5088000000.0 0.5797149887460654 -0.8348306042210238
5091000000.0 0.5448566128273667 -0.8747403602828712
5094000000.0 0.6143869178067086 -0.8699695213218573
5097000000.0 0.5691655270152854 -0.8856921373695679
5100000000.0 0.5356108343570332 -0.8437455206202685
5103000000.0 0.5210237969194723 -0.8557395676719696
5106000000.0 0.5973324811244484 -0.9274375382751427
5109000000.0 0.5248063349613029 -0.8980784706959257
5112000000.0 0.4810355220343736 -0.8862903478443873
5116000000.0 0.472772162964341 -0.844375100697367
5119000000.0 0.5033842920509086 -0.8856295141272812
5122000000.0 0.48161810959225165 -0.9337362189040879
5125000000.0 0.4395503553283821 -0.9410282405587463
5128000000.0 0.4394475893871683 -0.9452770439631124
5131000000.0 0.4319744988146464 -0.9151582141514863
5134000000.0 0.39749099374851254 -0.9527939542748685
5138000000.0 0.38524141601320616 -0.9646522674900343
5141000000.0 0.40728940276450687 -0.9364785951955674
5144000000.0 0.44225159254171054 -1.0079553560577474
5147000000.0 0.37579463058416235 -0.9631285532841468
5150000000.0 0.3838122491598404 -0.9573681444044327
5153000000.0 0.33435423263467934 -0.9305423151881108
5156000000.0 0.36255062709509683 -1.007539181910497
5159000000.0 0.33831900219619887 -1.007316382387623
5162000000.0 0.29768269986218565 -0.965868826027925
5166000000.0 0.25653165232296926 -1.0713035232435908
5169000000.0 0.28695797400395573 -0.9928760721615407
5172000000.0 0.2532918751974612 -0.9601265680187506
5175000000.0 0.3180051787980802 -1.0142756226563374
5178000000.0 0.22070919196383593 -1.0170464739726743
5181000000.0 0.31768993894523817 -1.0425314905508938
5184000000.0 0.21523528705957362 -0.9884119578162885
5188000000.0 0.2572472650717015 -0.9775478795035925
