! Created with skrf 1.8.0 (http://scikit-rf.org).
# Hz S RI R 50.0 
!freq ReS11 ImS11
4000000000.0 0.6510104138959951 0.7834320684265534
4003000000.0 0.719175684725888 0.8526850381579899
4006000000.0 0.7007894481152006 0.7293997257706265
4009000000.0 0.7491678772404765 0.7813028033225844
4012000000.0 0.6972820542110799 0.8173486193904003
4016000000.0 0.7550384393407411 0.7252730623941475
4019000000.0 0.7250442495199458 0.7579492498624986
4022000000.0 0.7134701476150894 0.7917528522590859
4025000000.0 0.7826136112773221 0.690776734725073
4028000000.0 0.7852302349724404 0.7358985877333513
4031000000.0 0.7243795532327393 0.671401081839213
4034000000.0 0.7446522086042877 0.6874440168680316
4038000000.0 0.758568584742576 0.71044474550067
4041000000.0 0.7541600355225473 0.676154675374732
4044000000.0 0.8557569974286594 0.7290583178380372
4047000000.0 0.7755204634975343 0.7400288935979775
4050000000.0 0.7820467476104606 0.6570891579938961
4053000000.0 0.8220402881964506 0.6442989777731587
4056000000.0 0.8063372694933038 0.6744936844907473
4059000000.0 0.7833179439917146 0.6876072942621039
4062000000.0 0.8317416080433775 0.6462142742790851
4066000000.0 0.8100079508459346 0.6087856267340022
4069000000.0 0.9008367808813268 0.6056182146160355
4072000000.0 0.8130628498144297 0.6466510119804993
4075000000.0 0.8657954800008282 0.6506259894968842
4078000000.0 0.8426547906859592 0.6255831718373231
4081000000.0 0.8300765633467135 0.6852326758882344
4084000000.0 0.8856697166100965 0.6091519959953065
4088000000.0 0.8163227210999771 0.6392188120684456
4091000000.0 0.8891935097411399 0.6150233240856242
4094000000.0 0.8485788984504908 0.6015831938269309
4097000000.0 0.8656778426739882 0.5834856433819402
4100000000.0 0.8993464356194575 0.5734063214753964
4103000000.0 0.8822196438006651 0.5968586591521214
4106000000.0 0.8687225567141863 0.5392772559487679
4109000000.0 0.889080597444456 0.5106596396504843
4112000000.0 0.8842430053358858 0.5197219191412781
4116000000.0 0.8954927925199727 0.5445791681184322
4119000000.0 0.9075055788159876 0.5131723623198889
4122000000.0 0.9182144006695386 0.5190715456942573
4125000000.0 0.931103122886067 0.5084770860014691
4128000000.0 0.9014888937598156 0.48138748195592773
4131000000.0 0.907413667969152 0.4960898985518051
4134000000.0 0.8854707555721034 0.491039261482506
4138000000.0 0.8992347217702228 0.4421875225494098
4141000000.0 0.9283703238914324 0.4779854241268081
4144000000.0 0.9305089440069649 0.49093724490259166
4147000000.0 0.9194130724070614 0.4307773599829335
4150000000.0 0.953660009840581 0.4422993625204807
4153000000.0 0.9265119974637996 0.45153599811647493
4156000000.0 0.9320340458198897 0.45103720027568395
4159000000.0 0.9344928553220304 0.40283114251419466
4162000000.0 0.9153685203063919 0.401122634290457
4166000000.0 0.9696599109115362 0.3914250568616887
4169000000.0 0.9501467241140203 0.3785295132644779
4172000000.0 0.9459373417780443 0.3924519176628744
4175000000.0 0.9528284774792638 0.39341250647593934
4178000000.0 0.9642588602041114 0.37803009445417113
4181000000.0 0.9855520872138723 0.3534091757325116
4184000000.0 0.9694733576737082 0.36047403614517787
4188000000.0 0.9622930404580694 0.33703914806394586
4191000000.0 0.9490311485921774 0.356125280152153
4194000000.0 0.954703200565422 0.31434898718559257
4197000000.0 0.9814641982594926 0.3278975248695945
4200000000.0 0.9863993577527765 0.321492953195623
4203000000.0 0.9702137555194481 0.336230901566575
4206000000.0 1.0007592745446912 0.3075906268858503
4209000000.0 0.980501185270817 0.2943594751605925
4212000000.0 0.9901592115012409 0.24891860479655925
4216000000.0 0.9955960309456164 0.27656158100969724
4219000000.0 1.0042221613799023 0.26994703745796755
4222000000.0 0.9834300591352125 0.2676332726536154
4225000000.0 0.9901523242307122 0.25883881484005467
4228000000.0 1.009010337135448 0.24812249831423158
4231000000.0 0.9881556443779536 0.24686264587837453
4234000000.0 1.0046240120943732 0.22408211755985735
4238000000.0 1.00068111598077 0.1895420307839931
4241000000.0 1.0037211531719623 0.20912198159963874
4244000000.0 1.0033158354914742 0.1976805008541126
4247000000.0 1.0172914233873311 0.20563558483115435
4250000000.0 0.98438760320064 0.16117839411088786
4253000000.0 0.9794168185295602 0.1628041350518193
4256000000.0 1.0245267926547026 0.1562962346029399
4259000000.0 0.9815244905817602 0.14016787853068388
4262000000.0 1.017445739750253 0.12001340294989502
4266000000.0 1.0276153899956857 0.1127460507122389
4269000000.0 1.0096664865256542 0.1389148756537465
4272000000.0 1.0164624398030282 0.1359302414976457
4275000000.0 1.0336828302076282 0.11538103320450394
4278000000.0 1.0484608879453885 0.0844901806750521
4281000000.0 1.0307333464872155 0.09504886179657225
4284000000.0 1.0288444919770412 0.05875901310700901
4288000000.0 1.007896211178032 0.098491804754749
4291000000.0 0.9996478061776072 0.08359306269097834
4294000000.0 1.0117273852424762 0.05092567481954598
4297000000.0 1.0109003357531896 0.07590168282298144
4300000000.0 0.9990649680202561 0.06749276746643554
4303000000.0 1.0343991767372975 0.0191852140604601
4306000000.0 1.0342631446011934 0.04472545948269718
4309000000.0 1.023210121054423 0.009930154702021562
4312000000.0 1.0081772800461677 0.024800054607343552
4316000000.0 1.0390411889835425 0.026637435917879426
4319000000.0 1.027048669539848 -0.02511153034427442
4322000000.0 0.9933385270889686 -0.04675193519284856
4325000000.0 1.0234642853198483 -0.035938132123126396
4328000000.0 1.0021440399758144 -0.04651062601111825
4331000000.0 1.0469556731902903 -0.0668660254255729
4334000000.0 1.0294007101931821 -0.06764249079243453
4338000000.0 1.0157783168907124 -0.040872681533068625
4341000000.0 1.0267832845988545 -0.06603078695920106
4344000000.0 1.0430560330944723 -0.05935295172622418
4347000000.0 1.0248222243471823 -0.09183154116141963
4350000000.0 0.9832478779086228 -0.09549643651296195
4353000000.0 0.9970485809328444 -0.07553454826735422
4356000000.0 0.9919888838093951 -0.1555612437014567
4359000000.0 0.9397711605085228 -0.11861422560568927
4362000000.0 1.016752393915564 -0.17701562097044152
4366000000.0 1.0333833310428064 -0.16874761265329466
4369000000.0 0.9760391504717539 -0.14956010503584657
4372000000.0 0.9861869945773212 -0.18182915870146166
4375000000.0 1.012847486329618 -0.16009480623875505
4378000000.0 0.9709017667877029 -0.16870953675567094
4381000000.0 0.986550160981412 -0.15942578475316221
4384000000.0 1.0571428953391275 -0.22862116906670932
4388000000.0 0.988319170434621 -0.21118474560014477
4391000000.0 1.006972634303184 -0.21699520052975235
4394000000.0 0.9656825573471044 -0.22923556185823304
4397000000.0 0.980446311164209 -0.23391036260908582
4400000000.0 1.0111151137632497 -0.24521618881855564
4403000000.0 0.9739866889121118 -0.2514228935866272
4406000000.0 0.9936181618787068 -0.28887246369368924
4409000000.0 1.0031783090840587 -0.2954883464526601
4412000000.0 0.9371788262925165 -0.33806324029858664
4416000000.0 0.9583171979896798 -0.2911306384639471
4419000000.0 0.9651360726532551 -0.30651573665733145
4422000000.0 0.9545047343363 -0.2937615697578114
4425000000.0 1.0038390241011212 -0.29999414826105864
4428000000.0 0.9588083373520419 -0.33683658866631366
4431000000.0 0.9746498774205272 -0.3345567742170361
4434000000.0 0.9476152209331832 -0.34529316342265814
4438000000.0 0.9613994562051464 -0.33974557279544376
4441000000.0 0.9680954315385344 -0.36434193486563615
4444000000.0 0.9237742248184408 -0.3574138150488126
4447000000.0 0.9321630190828895 -0.3991001382328538
4450000000.0 0.9180373365594222 -0.3715955810157776
4453000000.0 0.9524652723631647 -0.40370176929991264
4456000000.0 0.8969850014949108 -0.4050719612608389
4459000000.0 0.8793910095766182 -0.40050170143471564
4462000000.0 0.9767038440192388 -0.45212547496856625
4466000000.0 0.9613315460175103 -0.44897641449233094
4469000000.0 0.9231516432452123 -0.43098772402178176
4472000000.0 0.9034602157554905 -0.4660801446398343
4475000000.0 0.8915439490883231 -0.4437828745850435
4478000000.0 0.9321713252741641 -0.49505811555026313
4481000000.0 0.8741437878555727 -0.4710123308225784
4484000000.0 0.8718329981227806 -0.5224051156884394
4488000000.0 0.8631969328718818 -0.5027830864765014
4491000000.0 0.8870865001526094 -0.4955850591770084
4494000000.0 0.8773526737976693 -0.4980761448338604
4497000000.0 0.88099596283524 -0.4888478594145656
4500000000.0 0.8889438851717315 -0.5066848307877739
4503000000.0 0.8915702574540956 -0.5291301323439009
4506000000.0 0.8589402364902983 -0.5366643968027368
4509000000.0 0.8416798659067373 -0.5067948819986775
4512000000.0 0.8341743382644972 -0.5482146966840391
4516000000.0 0.8804782744204467 -0.552614774876505
4519000000.0 0.8411307224995453 -0.5407245257502794
4522000000.0 0.8346676142970049 -0.5709020442999201
4525000000.0 0.8411222959547027 -0.5648036295149507
4528000000.0 0.8640225060710491 -0.5999991421221377
4531000000.0 0.8279838362415104 -0.5826914783784248
4534000000.0 0.7989293450181489 -0.5984592248945309
4538000000.0 0.8042824639448576 -0.6189461227389632
4541000000.0 0.7636790361994755 -0.6325597279839377
4544000000.0 0.794284049950885 -0.611904766172664
4547000000.0 0.8024406503063716 -0.6237833497355008
4550000000.0 0.7748228354500526 -0.6643804083842544
4553000000.0 0.7865028430116345 -0.6591611878668769
4556000000.0 0.7677395798078606 -0.6593395860569333
4559000000.0 0.7851146225495899 -0.6604984679665775
4562000000.0 0.7678245068193785 -0.6610009130546268
4566000000.0 0.7656513607383275 -0.7047706826546241
4569000000.0 0.7209709703804003 -0.6733375222856963
4572000000.0 0.7505845202521465 -0.6725423382232002
4575000000.0 0.7267931640407919 -0.7101550346356622
4578000000.0 0.7600558351937852 -0.7140385262110432
4581000000.0 0.725293715243135 -0.7098712285608296
4584000000.0 0.7024994517885137 -0.7136678077578187
4588000000.0 0.7193431856319996 -0.7397871847656128
4591000000.0 0.7032325731279561 -0.729240701366908
4594000000.0 0.6622385129057864 -0.7410497631877241
4597000000.0 0.6952514438293442 -0.7511184085645253
4600000000.0 0.6672937824501141 -0.7554383216332661
4603000000.0 0.6662602634736842 -0.7627464722012075
4606000000.0 0.6845546966317801 -0.7892092255736367
4609000000.0 0.6692888322487442 -0.7581603094190176
4612000000.0 0.6795765764221996 -0.7746544603654184
4616000000.0 0.6356587117349084 -0.7759280607651086
4619000000.0 0.6537020230020698 -0.779458810832531
4622000000.0 0.6284915634976456 -0.793031047380239
4625000000.0 0.5999783027185435 -0.7848936180479222
4628000000.0 0.6433746837175303 -0.7858925147246522
4631000000.0 0.6025269089107266 -0.8126129578501095
4634000000.0 0.607678310952764 -0.812473709579084
4638000000.0 0.6105857123999222 -0.8242044706555894
4641000000.0 0.6040308771992499 -0.8239233104507481
4644000000.0 0.5995048091988195 -0.8372976797120653
4647000000.0 0.6017083703192778 -0.8467051310649366
4650000000.0 0.5582218423437649 -0.8403952966584479
4653000000.0 0.5813711990854319 -0.8497229180044523
4656000000.0 0.5614388343987957 -0.8606297562639109
4659000000.0 0.5664087526151467 -0.8579813797384875
4662000000.0 0.5581983577295255 -0.8769387222620392
4666000000.0 0.5159498683621989 -0.8698448137318171
4669000000.0 0.5394945914585151 -0.8788501746813278
4672000000.0 0.5248476120056623 -0.9026812336214882
4675000000.0 0.5017664964839014 -0.8965746792750666
4678000000.0 0.4809805391175082 -0.8765347989209067
4681000000.0 0.47618755664538637 -0.9176131308822026
4684000000.0 0.48284041350958384 -0.9229072986600209
4688000000.0 0.4432675643835866 -0.8857301133256439
4691000000.0 0.4952358565328878 -0.9020125656399185
4694000000.0 0.4711963284733175 -0.8761161348833306
4697000000.0 0.4242105962482044 -0.8942410211753844
4700000000.0 0.43463806118982096 -0.9152281664801742
4703000000.0 0.44345529235197817 -0.8807606308481901
4706000000.0 0.4016917018457745 -0.943246789220878
4709000000.0 0.4044472510690641 -0.9266025901887125
4712000000.0 0.4058295316533584 -0.9340612338684523
4716000000.0 0.391751685050689 -0.9853483695570682
4719000000.0 0.42963235365387026 -0.9490221950054724
4722000000.0 0.4152892431236763 -0.936039581214893
4725000000.0 0.3900209368717346 -0.9558007541252616
4728000000.0 0.36421598092162155 -0.9452221487055465
4731000000.0 0.34274415568289995 -0.965862362443612
4734000000.0 0.3513135173118783 -0.9265863775921626
4738000000.0 0.3656885665473739 -0.9965928640969047
4741000000.0 0.38145057543325117 -1.0078551981992883
4744000000.0 0.30898812831159106 -0.9777366908890444
4747000000.0 0.34703665866803407 -0.9442163735861152
4750000000.0 0.3167619049957742 -0.9713920809418178
4753000000.0 0.3150338661921104 -0.9696970134149046
4756000000.0 0.28867737121036685 -0.9970194049673065
4759000000.0 0.3140846692713541 -0.9883867821857963
4762000000.0 0.2642088738062257 -1.020737559799318
4766000000.0 0.2812324448103497 -0.9906174211764748
4769000000.0 0.29831715276942 -1.0166583541511827
4772000000.0 0.2584931193805653 -1.0067882380706084
4775000000.0 0.25137382742631764 -1.0364081157869782
4778000000.0 0.2163744801345022 -1.012316645340674
4781000000.0 0.259976767361027 -1.0005923994448664
4784000000.0 0.2511820796770507 -0.9860582747069012
4788000000.0 0.17749278896379797 -1.015313748039505
4791000000.0 0.19094769124174715 -0.9995982111070277
4794000000.0 0.24692675603562783 -1.0481373274966859
4797000000.0 0.16862235424754568 -1.0123303883784152
4800000000.0 0.14713896816304878 -1.0048801657901643
4803000000.0 0.10957600105426307 -1.0085732139964472
4806000000.0 0.17311444408419796 -1.0343987722025476
4809000000.0 0.11756701109393611 -1.0323316588800098
4812000000.0 0.10140544157075047 -1.0151938114508707
4816000000.0 0.1397361910798029 -1.0099128033671774
4819000000.0 0.12429440996037643 -1.0342001649531078
4822000000.0 0.1307508717821697 -1.0679524424770397
4825000000.0 0.1390673933777521 -1.0620206816198445
4828000000.0 0.06615218465094612 -1.0395221777514903
4831000000.0 0.04856805562136296 -1.0457497264208846
4834000000.0 0.10763166117404063 -1.0420010844970702
4838000000.0 0.05929359398133807 -1.046788484598199
4841000000.0 0.0295614374788694 -1.0182707789298253
4844000000.0 0.08036177589370073 -1.0612419755801252
4847000000.0 0.06409512754776517 -0.999705945376739
4850000000.0 0.013295370034010615 -1.050682874926743
4853000000.0 0.026782529110107568 -1.0031454951417114
4856000000.0 0.023133660372635853 -1.0311165218257172
4859000000.0 0.018419014325549536 -1.0731367343454736
4862000000.0 0.02943509696204812 -1.022333094167574
4866000000.0 -0.03036926122737741 -1.0562089552532308
4869000000.0 -0.030136884236079495 -1.0338323477240396
4872000000.0 -0.03681443596637643 -1.0628091230550136
4875000000.0 0.026027428091489203 -1.0780579681917817
4878000000.0 -0.0570261485468825 -1.0607602348757288
4881000000.0 -0.09233028020185599 -1.1017014761726815
4884000000.0 -0.04795122917485688 -1.0480981899129378
4888000000.0 -0.030886009330358982 -1.0452133266416594
4891000000.0 -0.047504316036557276 -1.048481173836732
4894000000.0 -0.1083721113877941 -1.0160043102301985
4897000000.0 -0.06635950913151392 -1.0312135665930064
4900000000.0 -0.10400974223881108 -1.037969175794474
4903000000.0 -0.11345856555763822 -1.0394737485870347
4906000000.0 -0.15254690830458334 -1.0419973144721995
4909000000.0 -0.1481603586644981 -1.0335936315741754
4912000000.0 -0.14366399605347824 -1.0350098965411487
4916000000.0 -0.1105360181994045 -1.0608266553007122
4919000000.0 -0.11909365677384044 -1.0460720135504338
4922000000.0 -0.11200771792784792 -1.0560869969392717
4925000000.0 -0.18922616793933725 -1.0321899569961963
4928000000.0 -0.11922494619563374 -1.006707748914194
4931000000.0 -0.15537339710468906 -1.0619421420637056
4934000000.0 -0.19693474762478874 -0.9828551434138254
4938000000.0 -0.22860013280835528 -0.9773227870178208
4941000000.0 -0.19438718087219353 -0.9847019807707346
4944000000.0 -0.18812941744445735 -0.9495096223674127
4947000000.0 -0.2288446146197258 -1.0099759555135581
4950000000.0 -0.27913580235192265 -0.9855403336412906
4953000000.0 -0.2761492857039675 -1.0181428533847359
4956000000.0 -0.28441115269451445 -1.0160046105430514
4959000000.0 -0.2879499653577713 -0.9767645531676474
4962000000.0 -0.3107532923129319 -1.0111629791822854
4966000000.0 -0.2802863686927376 -1.0451999239305712
4969000000.0 -0.2783461408535347 -1.0549190365894037
4972000000.0 -0.2967746042169216 -1.0124688258327295
4975000000.0 -0.2578356275683712 -0.982447806220887
4978000000.0 -0.3397509133372061 -1.0028473138168268
4981000000.0 -0.36235981448035737 -0.9844882710853238
4984000000.0 -0.33452716954986594 -0.970752404325162
4988000000.0 -0.33665120046277225 -0.9869629653773655
4991000000.0 -0.34948884984933576 -1.0195343664701664
4994000000.0 -0.35041022560497603 -0.9702398939015731
4997000000.0 -0.4185089933756582 -0.9733062282571495
5000000000.0 -0.37768265838997606 -0.9908550896248345
5003000000.0 -0.3695300697681492 -1.0095558472971669
5006000000.0 -0.4277424023881391 -1.0039149056541785
5009000000.0 -0.37531181443054284 -0.9646740990161474
5012000000.0 -0.441038637121087 -0.9678847928121281
5016000000.0 -0.3739223562045035 -0.9978786889572537
5019000000.0 -0.44422768470957075 -0.9471245571117055
5022000000.0 -0.4412137583195179 -0.9353413095468561
5025000000.0 -0.4858215202365584 -1.0105345354840602
5028000000.0 -0.4480752484015731 -0.9642343237088502
5031000000.0 -0.4544758836704633 -0.9100537684013813
5034000000.0 -0.49022028573081744 -0.9689855864208821
5038000000.0 -0.46731994960289713 -0.9122320861856845
5041000000.0 -0.4511052545031299 -0.9148772767937944
5044000000.0 -0.45199710201402876 -0.9252965829584029
5047000000.0 -0.4949903861719355 -0.9047764215502389
5050000000.0 -0.4660344082791299 -0.9571322617454343
5053000000.0 -0.5148376582494907 -0.9276993339530852
5056000000.0 -0.44521032684113415 -0.9295617382694135
5059000000.0 -0.4950263765925596 -0.960663081096152
5062000000.0 -0.5549818804601574 -0.885558947658257
5066000000.0 -0.4621904212901039 -0.9279679556358484
5069000000.0 -0.5327215454851819 -0.9214137903788312
5072000000.0 -0.5505575020032879 -0.8938373495494725
5075000000.0 -0.4933986990847503 -0.8708374538581207
5078000000.0 -0.5976789045985902 -0.887625408846566
5081000000.0 -0.5722468418923596 -0.8680816761331617
5084000000.0 -0.6115015201042869 -0.8872445788025962
5088000000.0 -0.5826670647768467 -0.8892085617786074
5091000000.0 -0.6199653095462874 -0.8599725032411722
5094000000.0 -0.6125554730726757 -0.8866515588145757
5097000000.0 -0.5846015071490507 -0.8393728646905028
5100000000.0 -0.5992906440583903 -0.8749082878427742
5103000000.0 -0.6614836236123094 -0.847015817541458
5106000000.0 -0.5978675388831958 -0.8728484803882977
5109000000.0 -0.579474440139256 -0.8332806007815187
5112000000.0 -0.6288796999277225 -0.8101884749775907
5116000000.0 -0.59455633495244 -0.7916068785287304
5119000000.0 -0.6853748382422177 -0.8661449557987808
5122000000.0 -0.6425484163820778 -0.8450094344177463
5125000000.0 -0.7076847436977598 -0.8195689540325323
5128000000.0 -0.7042757647350429 -0.8270583933631013
5131000000.0 -0.6775710319411171 -0.80498321798468
5134000000.0 -0.6615876733175766 -0.8194536920217761
5138000000.0 -0.677654158678993 -0.8027988928628811
5141000000.0 -0.7045633355826593 -0.8313292705420066
5144000000.0 -0.6877492983585053 -0.7826610769124563
5147000000.0 -0.6958597971307956 -0.8186902822208262
5150000000.0 -0.6623351428594376 -0.773656196301697
5153000000.0 -0.7326877776641618 -0.7513580097477743
5156000000.0 -0.7350669678628204 -0.743273901352277
5159000000.0 -0.7527578684328421 -0.7980439131319438
5162000000.0 -0.7505645533714742 -0.6795599886563872
5166000000.0 -0.8030356899742145 -0.7484089640178896
5169000000.0 -0.757285052075943 -0.763691928998777
5172000000.0 -0.7417882223022518 -0.7293559900641795
5175000000.0 -0.7682339800600888 -0.7623999526357504
5178000000.0 -0.7933236628677132 -0.7269688204044107
5181000000.0 -0.805355511609814 -0.7287923197013056
5184000000.0 -0.7918392105427577 -0.6791662585232424
5188000000.0 -0.819415923243463 -0.7078284280436559
