! Created with skrf 1.8.0 (http://scikit-rf.org).
# Hz S RI R 50.0 
!freq ReS11 ImS11
4000000000.0 0.6123404144788182 0.7444425097347505
4003000000.0 0.6655798393502044 0.8239685606615297
4006000000.0 0.7139447987976087 0.7427549244680344
4009000000.0 0.6853731925290213 0.7998095818163682
4012000000.0 0.6207201153275965 0.851140361667529
4016000000.0 0.7114675497582736 0.7398592186540076
4019000000.0 0.7222200011094322 0.7263550404425508
4022000000.0 0.6223185889602806 0.7729136405141719
4025000000.0 0.7567089730967319 0.7683177970130644
4028000000.0 0.7310623609837524 0.7599509769006223
4031000000.0 0.6644885654836395 0.694305178811434
4034000000.0 0.7529203651578165 0.7192626857766947
4038000000.0 0.7609156928292292 0.7213549586449797
4041000000.0 0.7556404430800514 0.714725482598418
4044000000.0 0.7840797803033553 0.7380414691771597
4047000000.0 0.7842264939880819 0.7513055964221603
4050000000.0 0.8099129041095791 0.6772994598018132
4053000000.0 0.7715347521443361 0.6436143550641162
4056000000.0 0.8083614522708932 0.7118289664543317
4059000000.0 0.7542951812019586 0.6833155446719796
4062000000.0 0.7771071218861262 0.6000654820214011
4066000000.0 0.735900314702312 0.6107226334605079
4069000000.0 0.8136277901820719 0.6577054161989502
4072000000.0 0.721692578847215 0.673296944894727
4075000000.0 0.8124233598565648 0.6695075074084502
4078000000.0 0.8346507268235157 0.6555908546776129
4081000000.0 0.773657315583146 0.7127786946730222
4084000000.0 0.8169403253092451 0.5988944656174164
4088000000.0 0.78185798079714 0.6481099851945682
4091000000.0 0.8811862762873685 0.633483220825025
4094000000.0 0.8095545413182917 0.5995740757294392
4097000000.0 0.8415845015023736 0.6331726174169536
4100000000.0 0.825471622164955 0.5854461937254021
4103000000.0 0.8260801147820711 0.6139095019531415
4106000000.0 0.8452272384937487 0.5649511880428023
4109000000.0 0.8686206811003965 0.5623184394923286
4112000000.0 0.8441673737559618 0.5625972738106049
4116000000.0 0.8710668140490765 0.5952494912433852
4119000000.0 0.8842550322100706 0.5428876636369557
4122000000.0 0.8912389954759558 0.50095115358784
4125000000.0 0.927376730874991 0.5382235037700118
4128000000.0 0.8091573168607523 0.545830592196321
4131000000.0 0.8612470677343623 0.51137260006758
4134000000.0 0.8767551967771839 0.5073638217838631
4138000000.0 0.8567995851225079 0.44373249976645474
4141000000.0 0.8830721410382727 0.5028436294657149
4144000000.0 0.8987395130037751 0.510677242310406
4147000000.0 0.9107227182049967 0.4805153507206121
4150000000.0 0.9260128604472483 0.48289757965104
4153000000.0 0.9095456422196132 0.4696150380927401
4156000000.0 0.9108733338721038 0.4688268105813719
4159000000.0 0.8900748396351494 0.4502771853444824
4162000000.0 0.8931143703702582 0.4386670253077468
4166000000.0 0.9407168907289267 0.3980832317353977
4169000000.0 0.9075262792891007 0.4014516943033215
4172000000.0 0.9263029601758652 0.4223440628108514
4175000000.0 0.9466232135210763 0.432205840199323
4178000000.0 0.9338190329847588 0.4165920283096838
4181000000.0 0.9543261252043262 0.4199525942915866
4184000000.0 0.9356110559919376 0.3944417689175848
4188000000.0 0.9302881221666972 0.3862160717256148
4191000000.0 0.9400131903898684 0.38405211446510495
4194000000.0 0.949669949226805 0.3546395998304497
4197000000.0 0.9632625714187374 0.3564536176844601
4200000000.0 0.9466975167742353 0.3646699339692697
4203000000.0 0.9448971316661819 0.36370126926980073
4206000000.0 0.9595966276734227 0.3328564660897499
4209000000.0 0.9516082911536697 0.31988940001685356
4212000000.0 0.961932290011522 0.28156531845802735
4216000000.0 0.9648274680734921 0.3248732334078725
4219000000.0 0.9845202823770443 0.30989877951224054
4222000000.0 0.9917494036435692 0.2816845268143748
4225000000.0 0.9775390906887569 0.29720823664608265
4228000000.0 0.9734358187994026 0.28886108956706713
4231000000.0 0.9795787627765233 0.2767937076081629
4234000000.0 0.9925965236813442 0.26987357245570953
4238000000.0 0.988771669357857 0.24699324229971584
4241000000.0 0.9759271496994133 0.2475174788630654
4244000000.0 0.991771196207888 0.26944502366653766
4247000000.0 0.9879522832151989 0.23718906708744636
4250000000.0 0.9862355293594962 0.2063802007078206
4253000000.0 0.9642680841737472 0.2160974076822843
4256000000.0 1.0176922520786764 0.20643012651696285
4259000000.0 0.9694029067972101 0.17219155360950208
4262000000.0 0.9936132143907976 0.15926605267905516
4266000000.0 1.0182657143639249 0.15186169639017172
4269000000.0 0.9949440477892952 0.17549742220320688
4272000000.0 0.9933589259359162 0.16722149824745036
4275000000.0 1.0024605440560725 0.13362906963559998
4278000000.0 1.0242356853705137 0.16534648056371865
4281000000.0 1.0044126834715175 0.15045778008475624
4284000000.0 1.0082901481579478 0.10779283311829449
4288000000.0 1.0029714614094474 0.16034845481797846
4291000000.0 0.987293152584459 0.08057145266280176
4294000000.0 0.9899196855690896 0.098203466988954
4297000000.0 0.9980098033075042 0.11784607213670566
4300000000.0 0.9980348450672047 0.06994085419145385
4303000000.0 0.9901580843604126 0.07159071985693298
4306000000.0 1.0111427508093263 0.11541642189256432
4309000000.0 1.0271568245149925 0.09041049322408869
4312000000.0 0.9895659929532781 0.09750484330474346
4316000000.0 1.0335396705989313 0.031283121026246655
4319000000.0 0.9786757342587199 0.03714400492663657
4322000000.0 1.0141625929496665 0.01307205074893597
4325000000.0 1.021329749174715 0.007764453027768153
4328000000.0 0.9957704489551019 0.008087682090189743
4331000000.0 1.0081937135891275 -0.03413470283230363
4334000000.0 1.0074406851321132 -0.019460064343277933
4338000000.0 1.0276254405931646 0.011329472897161727
4341000000.0 1.0317936795228546 -0.013548183144774253
4344000000.0 1.027579115046406 -0.028909024389278296
4347000000.0 1.0228712265836926 -0.050393695615951445
4350000000.0 0.9948146140181982 -0.03656334476719783
4353000000.0 0.956643277940699 -0.042878943699673114
4356000000.0 1.001734922165555 -0.08536234857848224
4359000000.0 0.9599672620779629 -0.08279484065665667
4362000000.0 1.0073031564576556 -0.14308661421951888
4366000000.0 1.0180082981430987 -0.0870373345977791
4369000000.0 0.9734557828078477 -0.11070117079770045
4372000000.0 0.9811132282729644 -0.16065694487959217
4375000000.0 1.0053357042314295 -0.10469221653810507
4378000000.0 0.9686683235938409 -0.12876767438576642
4381000000.0 0.9844519888054752 -0.13890013818848068
4384000000.0 1.0458104653653477 -0.1636210721451552
4388000000.0 0.9824344665912867 -0.14144190628676462
4391000000.0 1.001511597333255 -0.17897399490486562
4394000000.0 0.9670629841646864 -0.1895459183623976
4397000000.0 0.9851971350428923 -0.18096194537851357
4400000000.0 1.0086704585614492 -0.20674276886607654
4403000000.0 1.0007798134843828 -0.20663063381286845
4406000000.0 0.9853512553110388 -0.2346228325549069
4409000000.0 1.0119157451691325 -0.22536787790219712
4412000000.0 0.9720362286618168 -0.2732180079725771
4416000000.0 0.970510002630903 -0.2563467146743757
4419000000.0 0.9667519335184159 -0.2722488056101127
4422000000.0 0.9678270943839005 -0.24644236919659554
4425000000.0 0.9907364911653856 -0.24122464910508362
4428000000.0 0.9722349007843722 -0.26973575284596973
4431000000.0 0.9831490621730015 -0.2855716692295633
4434000000.0 0.9411955561658967 -0.29353600628428655
4438000000.0 0.9844669710930296 -0.28134670772851605
4441000000.0 0.9757164311479496 -0.29927693077573664
4444000000.0 0.9403959234510737 -0.30424925080995785
4447000000.0 0.9529349795984385 -0.3358441567058791
4450000000.0 0.9383338286634603 -0.32873311161768787
4453000000.0 0.9681981295855127 -0.34018836367416094
4456000000.0 0.918016571783439 -0.36037304171679463
4459000000.0 0.9092450456211281 -0.35502773556963235
4462000000.0 0.9848112010287988 -0.39092166217200547
4466000000.0 0.9788921011124996 -0.3930796829086418
4469000000.0 0.9403278534438743 -0.3616320122861461
4472000000.0 0.9409880716538251 -0.4237888325536425
4475000000.0 0.9058907844043491 -0.38854910979106627
4478000000.0 0.9380016405086082 -0.43422336163498143
4481000000.0 0.8837797605017981 -0.4234172805853931
4484000000.0 0.8989721331100213 -0.4623138364351582
4488000000.0 0.885902826243558 -0.44179082693053406
4491000000.0 0.9017323616338587 -0.4512680924362389
4494000000.0 0.8947654078436857 -0.43386900832016756
4497000000.0 0.8927263209960985 -0.45313631421242134
4500000000.0 0.9017228110477709 -0.44904341732833875
4503000000.0 0.9070349392154964 -0.465821904929039
4506000000.0 0.8731295398307166 -0.46853295544201773
4509000000.0 0.8440175878276981 -0.49942950151649235
4512000000.0 0.8588302723863398 -0.49435610047897727
4516000000.0 0.8958934992846214 -0.505052475953335
4519000000.0 0.8442510340938825 -0.49482099084598585
4522000000.0 0.8608073823425888 -0.5343460946978993
4525000000.0 0.8721879055256108 -0.5097373141850583
4528000000.0 0.8712214557180891 -0.5515632475708623
4531000000.0 0.8591022845175045 -0.5183754646057226
4534000000.0 0.8351215184643134 -0.5325154267758954
4538000000.0 0.8285762579829408 -0.5514184768167946
4541000000.0 0.8198954847612459 -0.5921561278449389
4544000000.0 0.8245781021433607 -0.5700950297853868
4547000000.0 0.8373999359847676 -0.5622526412725739
4550000000.0 0.8156005277907381 -0.6051783532575123
4553000000.0 0.8191425556287495 -0.6043723272154933
4556000000.0 0.7821026944920426 -0.5992434688280397
4559000000.0 0.7793722195796001 -0.6071833014474195
4562000000.0 0.806826624492782 -0.6154862609655777
4566000000.0 0.8066001006199963 -0.6327856212951555
4569000000.0 0.7645392544054742 -0.6348729486405333
4572000000.0 0.7726905821696385 -0.636179466253543
4575000000.0 0.7742972804173582 -0.6609418937685879
4578000000.0 0.8042143592685416 -0.6436784572378975
4581000000.0 0.7570850472703313 -0.6730194988301792
4584000000.0 0.7644229733629353 -0.6508192604461636
4588000000.0 0.7693782015952517 -0.6755038575962191
4591000000.0 0.7390817895259718 -0.678336731741643
4594000000.0 0.7063093902951361 -0.6810142419480834
4597000000.0 0.7219344283396498 -0.7018705265472379
4600000000.0 0.6987403453704413 -0.7096562501393674
4603000000.0 0.7254944783370064 -0.7081987534651559
4606000000.0 0.7173247130646112 -0.7286999118554782
4609000000.0 0.7048294614335757 -0.7014333311714644
4612000000.0 0.7109122398332217 -0.7404063550715416
4616000000.0 0.685351676134633 -0.7131630345947233
4619000000.0 0.685236874924275 -0.7330010190492937
4622000000.0 0.6719518014087598 -0.7437604573316384
4625000000.0 0.6256329227796785 -0.7495642048224606
4628000000.0 0.6900707229681736 -0.7457534232489414
4631000000.0 0.6545351311743994 -0.7678062601784812
4634000000.0 0.629899479244835 -0.7758525173633852
4638000000.0 0.6565494492249812 -0.7683190948705149
4641000000.0 0.6316438286431154 -0.76619630452063
4644000000.0 0.62477645211193 -0.7808133684779318
4647000000.0 0.6281959174604826 -0.7797851599207858
4650000000.0 0.6175094507467754 -0.7778179426774634
4653000000.0 0.6369970256731482 -0.8140625151453171
4656000000.0 0.5993440223415953 -0.8154158982443807
4659000000.0 0.5835223123315472 -0.8418164274556444
4662000000.0 0.5888717302825541 -0.8175575174001112
4666000000.0 0.585451066007147 -0.8341709803845724
4669000000.0 0.5686043043412503 -0.8153459127296431
4672000000.0 0.5502798709024431 -0.8491011178873435
4675000000.0 0.5572933154723057 -0.8698633133162639
4678000000.0 0.5397669143994426 -0.8291165055773785
4681000000.0 0.5312515947884195 -0.8602959601087337
4684000000.0 0.5256929209298835 -0.8893789844319009
4688000000.0 0.5120752173640409 -0.8710820112675713
4691000000.0 0.5716232279734847 -0.8760317037301393
4694000000.0 0.5086250069539642 -0.8551241592704304
4697000000.0 0.47319578561681797 -0.8527640328777959
4700000000.0 0.4704715301726641 -0.851319318648651
4703000000.0 0.517725427443706 -0.8368374186051923
4706000000.0 0.4503896641577033 -0.8967318076652934
4709000000.0 0.4529121753051969 -0.8596465897990287
4712000000.0 0.48386394056943427 -0.8779805298733931
4716000000.0 0.4818737629067492 -0.8858407611818313
4719000000.0 0.46596895145764816 -0.9156235697693691
4722000000.0 0.48448187771116613 -0.9110432271563917
4725000000.0 0.4193412484679532 -0.8859049831498481
4728000000.0 0.4387437167993868 -0.8738243971355397
4731000000.0 0.4708518218775565 -0.949085955117448
4734000000.0 0.4290756011086726 -0.8970930741801798
4738000000.0 0.43306400351680974 -0.9720646613046825
4741000000.0 0.4102870236234334 -0.967798363160616
4744000000.0 0.3857949838318518 -0.9412423495538477
4747000000.0 0.3981327711164391 -0.9095772562774309
4750000000.0 0.40308040297168535 -0.9489017540159137
4753000000.0 0.3895349888616343 -0.9423616155865866
4756000000.0 0.3723967453506024 -0.9511527330957223
4759000000.0 0.36993482710977854 -0.9318438537794584
4762000000.0 0.32209254362007206 -0.976822798553368
4766000000.0 0.3200410487980727 -0.9448446178106827
4769000000.0 0.35720109380029275 -0.9619503389270762
4772000000.0 0.33081070581125904 -0.9903880714259322
4775000000.0 0.3097086767803908 -1.0184263628226764
4778000000.0 0.2990635155215556 -0.9825262171983614
4781000000.0 0.3064659518071875 -0.9261752715317386
4784000000.0 0.3089766873481962 -0.9855965525294256
4788000000.0 0.2675621068885991 -0.9652152707358053
4791000000.0 0.2763027007309764 -0.9857096321286357
4794000000.0 0.28325269407541454 -1.0072951994876427
4797000000.0 0.2470817058408557 -0.9706810395480826
4800000000.0 0.24823423356729024 -0.9793854080735638
4803000000.0 0.2076170607769371 -0.9798891831811904
4806000000.0 0.23007049009602434 -0.9952826529451198
4809000000.0 0.18785171736138676 -0.9933316382134997
4812000000.0 0.17663604755491707 -0.9848979314883404
4816000000.0 0.2144970200465291 -0.9843321494992341
4819000000.0 0.21150887954063904 -1.033210429810031
4822000000.0 0.21381321994950842 -1.0149121442741023
4825000000.0 0.20731594909894763 -1.0272679211148323
4828000000.0 0.17857709182079448 -0.9934891748382161
4831000000.0 0.1260545836534149 -1.0301357321043598
4834000000.0 0.17802993541509016 -1.0124775485231887
4838000000.0 0.13350104354716194 -1.0392750281135967
4841000000.0 0.1246968039544227 -0.9893729182826695
4844000000.0 0.1630257141742877 -1.0004962358981744
4847000000.0 0.13149317984437545 -0.9792838205247847
4850000000.0 0.09261322596188762 -1.0485072175392853
4853000000.0 0.11419469371972876 -0.9947569273942938
4856000000.0 0.07684727916152356 -0.9833837547526251
4859000000.0 0.09130820490512676 -1.061260731345354
4862000000.0 0.0950708776977359 -0.9950346409061664
4866000000.0 0.04502807334028826 -1.0362449420358637
4869000000.0 0.04918504104590157 -1.0310315403171977
4872000000.0 0.02946829635045377 -1.0414922868354082
4875000000.0 0.08017811414420634 -1.0479538014946077
4878000000.0 0.038619472673401545 -1.0183420182487695
4881000000.0 -0.007905355282617262 -1.0916788070734533
4884000000.0 0.01424490690128154 -0.9958124368021704
4888000000.0 0.03850838558725537 -1.0206245166475734
4891000000.0 0.05076864460847129 -1.0475908527629583
4894000000.0 -0.028766003480743943 -1.0100429930906418
4897000000.0 0.02695526377689244 -1.0251890216463115
4900000000.0 -0.030705337879372595 -1.0655270413365003
4903000000.0 -0.038690278869952945 -1.053731758725663
4906000000.0 -0.056804065564612816 -1.069072232691
4909000000.0 -0.063587376563049 -1.0466762569654415
4912000000.0 -0.0797543003570001 -1.068401863298205
4916000000.0 -0.04087864030930704 -1.0687913922675456
4919000000.0 -0.048214073753621745 -1.0581797177993175
4922000000.0 -0.04534619625643653 -1.0454303705589394
4925000000.0 -0.08768540569799677 -1.0167007351423125
4928000000.0 -0.03793174280533569 -1.0075144198392258
4931000000.0 -0.08414276689956852 -1.0708735267650888
4934000000.0 -0.09443283993730621 -0.9774286358310359
4938000000.0 -0.15014403123677983 -1.0164524069744625
4941000000.0 -0.12133092252113016 -0.9832258080830495
4944000000.0 -0.11522625839150202 -0.9741243001526494
4947000000.0 -0.14675144597888137 -0.986211332856601
4950000000.0 -0.15797236964576522 -0.9814274177105183
4953000000.0 -0.19061697995762422 -1.05271280303664
4956000000.0 -0.18903685816385257 -1.008938410524133
4959000000.0 -0.23132799680132024 -0.9780252938324233
4962000000.0 -0.2195431547258558 -1.0479111786910864
4966000000.0 -0.1632761092580769 -1.0483360776076411
4969000000.0 -0.20364910603765868 -1.0890293235742994
4972000000.0 -0.21143553743802354 -0.9936499212510623
4975000000.0 -0.17690528183954382 -1.0365823286260052
4978000000.0 -0.2583674403350624 -1.0198659159171104
4981000000.0 -0.265083555367597 -0.992612249677246
4984000000.0 -0.22326815297952854 -1.0131196924505042
4988000000.0 -0.23157634624612777 -1.0013668715831994
4991000000.0 -0.2052944889577042 -1.0298552390131892
4994000000.0 -0.2729431347682673 -0.9826036997357955
4997000000.0 -0.2885450388070437 -0.9990691474140371
5000000000.0 -0.2781487728042221 -1.0217338225272172
5003000000.0 -0.25867770259470163 -1.0276540492403645
5006000000.0 -0.3546684651865193 -1.0459557500456182
5009000000.0 -0.290442661115879 -0.9886367332695919
5012000000.0 -0.329753491782885 -0.984640604687395
5016000000.0 -0.287220893990013 -1.0190012840566487
5019000000.0 -0.3424088988237247 -0.9736851055831586
5022000000.0 -0.3056152059187218 -0.9917170653357725
5025000000.0 -0.38755849019060723 -1.0450649620367265
5028000000.0 -0.39333560321411487 -0.9667737905989944
5031000000.0 -0.3718250994960919 -0.9659075301752983
5034000000.0 -0.40883299310692056 -0.9951318296187557
5038000000.0 -0.4130717082676373 -0.9263986936509119
5041000000.0 -0.3596243592458369 -0.9711749845645369
5044000000.0 -0.34396742848740713 -0.9498106823200282
5047000000.0 -0.41649889277294266 -0.9361204179125208
5050000000.0 -0.32429103407946713 -0.9753623967360487
5053000000.0 -0.4291719795972173 -0.9708044696779035
5056000000.0 -0.38780892805854483 -0.9530851165075311
5059000000.0 -0.37891899025059456 -0.9661425163534513
5062000000.0 -0.49406198828455117 -0.9463992705114879
5066000000.0 -0.4391648105511956 -0.9306477811977225
5069000000.0 -0.45492122188116957 -0.9296488661858032
5072000000.0 -0.44754811039098297 -0.9387920887161909
5075000000.0 -0.4675595259852978 -0.9265209711639173
5078000000.0 -0.5398372350361129 -0.8992675326340247
5081000000.0 -0.4830928262985214 -0.8996454049858095
5084000000.0 -0.5374985916910769 -0.9165301757647211
5088000000.0 -0.46332788001294023 -0.8919699707243651
5091000000.0 -0.5535789403511442 -0.9095033790738887
5094000000.0 -0.5539880004419174 -0.902293115502178
5097000000.0 -0.4597683844652506 -0.882716453886923
5100000000.0 -0.5251153002869063 -0.941368936103688
5103000000.0 -0.5227940541188061 -0.8382342342271963
5106000000.0 -0.5345926731688851 -0.8997296760781839
5109000000.0 -0.50034373480623 -0.8673410352178514
5112000000.0 -0.5855558153789561 -0.8482130532567547
5116000000.0 -0.4827082314480004 -0.7996503025252882
5119000000.0 -0.5900765068435457 -0.8967220390983215
5122000000.0 -0.5956740422405016 -0.8744138980585516
5125000000.0 -0.5158910056492423 -0.821670057267815
5128000000.0 -0.559507230713853 -0.8455840825570602
5131000000.0 -0.5662700420634885 -0.8577285578705748
5134000000.0 -0.601066481447271 -0.840987643282754
5138000000.0 -0.6080803718892459 -0.8312891510343386
5141000000.0 -0.595832723913067 -0.8654449539215883
5144000000.0 -0.5967191056771288 -0.8196008063516669
5147000000.0 -0.5968835539699807 -0.8244039865645317
5150000000.0 -0.6462117967249463 -0.8492940543040404
5153000000.0 -0.6476514872703358 -0.839998380648839
5156000000.0 -0.6209981665110784 -0.8310692146057862
5159000000.0 -0.6549613300644487 -0.8686010547051236
5162000000.0 -0.6767307935521418 -0.753530111470353
5166000000.0 -0.6823833508448437 -0.795323609421692
5169000000.0 -0.6632185874364126 -0.8251029242651212
5172000000.0 -0.6850331479099652 -0.776273325028337
5175000000.0 -0.6637986674966688 -0.8183582281161671
5178000000.0 -0.6782456868969744 -0.7733831743511802
5181000000.0 -0.6882685472953276 -0.8263874370046744
5184000000.0 -0.7039142691444369 -0.7592609468223178
5188000000.0 -0.706734989941191 -0.7798245858365642
