! Created with skrf 1.8.0 (http://scikit-rf.org).
# Hz S RI R 50.0 
!freq ReS11 ImS11
4000000000.0 0.6242042710662313 0.8405104396539338
4003000000.0 0.6684664646712201 0.8649670304108253
4006000000.0 0.6579254643600052 0.7703723170714901
4009000000.0 0.6966056888865143 0.7860584823803175
4012000000.0 0.6854134803361143 0.8635285239128309
4016000000.0 0.7160837885297601 0.7501131788907021
4019000000.0 0.6912484777110404 0.7574113584382556
4022000000.0 0.6638095177705144 0.8647424169300516
4025000000.0 0.7750401600395928 0.7303814374926323
4028000000.0 0.7317047492340255 0.7248649028371603
4031000000.0 0.6675998724744349 0.7037162453134234
4034000000.0 0.7435814262638937 0.7542465822647106
4038000000.0 0.7811131787237573 0.7181738659381522
4041000000.0 0.7231661700938954 0.7824546132663368
4044000000.0 0.7511528421412568 0.7609329521716682
4047000000.0 0.7488843127454519 0.7758444048462716
4050000000.0 0.8333626452762374 0.7165803816118611
4053000000.0 0.7930943881140775 0.6597870619027697
4056000000.0 0.7626339165118944 0.7169500431224828
4059000000.0 0.7592730822710837 0.7065646141625588
4062000000.0 0.8018694498981599 0.6571805681314207
4066000000.0 0.7366558618184773 0.6608289913228859
4069000000.0 0.8558961868020999 0.6911163935389029
4072000000.0 0.7634712729170586 0.6846235314788991
4075000000.0 0.7541361634323714 0.7421114690631703
4078000000.0 0.7801745501104775 0.6500262397077823
4081000000.0 0.8181706705619242 0.7008927531890332
4084000000.0 0.8080027025649003 0.6128310712963645
4088000000.0 0.779586284314116 0.6517961795784855
4091000000.0 0.9015894846474125 0.6410388974306598
4094000000.0 0.7820682501311471 0.6366161902730801
4097000000.0 0.7806094691742342 0.635145449041203
4100000000.0 0.8605004473340047 0.6068916059409026
4103000000.0 0.8771020422111191 0.612646004088792
4106000000.0 0.8515369703641731 0.5972513623130259
4109000000.0 0.908415056662575 0.5888913564242408
4112000000.0 0.829430072752684 0.5923041418313508
4116000000.0 0.8263717771602644 0.5672430250265696
4119000000.0 0.8987099838536549 0.568089238969324
4122000000.0 0.8843564384843888 0.5315934816884129
4125000000.0 0.9107519016379249 0.5359799464138888
4128000000.0 0.8661125123928374 0.5506421867839993
4131000000.0 0.9133483342602707 0.5256198350751463
4134000000.0 0.89180403634328 0.5482102353524362
4138000000.0 0.8915706184421694 0.5024843803012922
4141000000.0 0.9118815320724147 0.5204057591819534
4144000000.0 0.8962222278441757 0.5151533404024811
4147000000.0 0.9142649610082543 0.5036032158723978
4150000000.0 0.9224373391846481 0.519218224195674
4153000000.0 0.8735191037747938 0.4991036186145157
4156000000.0 0.9350494819286825 0.494495518990804
4159000000.0 0.9011005421627605 0.4849645586287577
4162000000.0 0.9090639872784321 0.45322215439680047
4166000000.0 0.9680024837416699 0.4606323691539027
4169000000.0 0.9353784559805146 0.4080828690941376
4172000000.0 0.9470908963001755 0.4778976215657376
4175000000.0 0.9396996234266782 0.4437304262565483
4178000000.0 0.9290153487060558 0.42313091348399
4181000000.0 0.9397443233825178 0.4164202084453801
4184000000.0 0.9291188140669234 0.40312618141230977
4188000000.0 0.9376720560272458 0.37882326318403614
4191000000.0 0.9235007884660243 0.4079960427531583
4194000000.0 0.9548754630253493 0.37866233831869844
4197000000.0 0.9599645038341196 0.37696703575865415
4200000000.0 0.9460152074434347 0.3941023273598213
4203000000.0 0.9800095983313865 0.3820604619237733
4206000000.0 0.968897511351115 0.3502761769453698
4209000000.0 0.9588674302848735 0.363357461793093
4212000000.0 0.9622998031146804 0.31782164992832784
4216000000.0 0.9731982378351898 0.35405376621935153
4219000000.0 0.9752041271646333 0.3470657115863992
4222000000.0 0.9775070574108811 0.29798894578842244
4225000000.0 0.9653125586509055 0.2937953687870344
4228000000.0 0.9753700116190565 0.319453997698231
4231000000.0 0.9801263768884627 0.29202631307372673
4234000000.0 1.0017746097217441 0.27138132157617856
4238000000.0 0.9851295054518163 0.26478197071932696
4241000000.0 0.9740553118322599 0.24839062120141947
4244000000.0 0.9823685752768782 0.2690628103696972
4247000000.0 0.971974679956976 0.2665025518827124
4250000000.0 0.9752127888126734 0.24003425429266317
4253000000.0 0.9675119839644251 0.223654283342069
4256000000.0 0.9992715202927678 0.2292669389732963
4259000000.0 0.9578250466800997 0.1928380006033014
4262000000.0 0.9869137812984488 0.18811062847588125
4266000000.0 1.0186568239340361 0.161168990247944
4269000000.0 1.0004820686738518 0.1967784274409484
4272000000.0 1.0014598174041631 0.1767845952570658
4275000000.0 1.0110951497492588 0.18970475769377815
4278000000.0 1.0167573414481892 0.18164511968948527
4281000000.0 1.0013061331625441 0.16328110363593495
4284000000.0 1.0263956468716318 0.12231657612462096
4288000000.0 1.0152797172310721 0.1711832085229052
4291000000.0 0.9924836780023049 0.14453478678013748
4294000000.0 1.016335020921006 0.12649590690103774
4297000000.0 0.9889939217812446 0.13147147908533807
4300000000.0 1.0093994803025765 0.11637569140069462
4303000000.0 0.9953194684504518 0.08488522732983932
4306000000.0 1.0135033971741807 0.09263572994663086
4309000000.0 0.9912750606021424 0.09606133936077522
4312000000.0 1.0300144056366518 0.10808981061953898
4316000000.0 1.0265632213224065 0.07861724321241857
4319000000.0 0.9996203164201336 0.07544573021479091
4322000000.0 0.9886105084824468 0.05603101888940522
4325000000.0 1.0169542114921195 0.029457925384363245
4328000000.0 1.002185809067212 0.012310655407865662
4331000000.0 1.0098553334003604 -0.00526653513778616
4334000000.0 1.030508266194791 0.021923267857759554
4338000000.0 0.9910349530587101 0.033185719807811445
4341000000.0 1.0394475907116933 0.03158089815672438
4344000000.0 1.038938300358885 0.009682696241161581
4347000000.0 1.010179521095408 -0.050605474164706704
4350000000.0 0.9918910018356728 -0.03791367419505376
4353000000.0 0.987444014036224 -0.01317077891109461
4356000000.0 0.9899784816520854 -0.07778607307211556
4359000000.0 0.9618461115195827 -0.053415630897755195
4362000000.0 1.0154650261809064 -0.10720250680443058
4366000000.0 1.039988333189112 -0.07677250101244694
4369000000.0 0.9965964229269381 -0.10387038950478163
4372000000.0 1.0067173016240387 -0.12617851666056884
4375000000.0 1.001505677775468 -0.08908079954694892
4378000000.0 0.986957238174483 -0.08764495923778778
4381000000.0 0.9796089735336473 -0.08474060890129613
4384000000.0 1.0611071658957325 -0.1360134937173268
4388000000.0 0.9925005517792138 -0.10145582509402581
4391000000.0 1.0108821134417718 -0.14416490369552692
4394000000.0 0.971998606219457 -0.148990475513047
4397000000.0 0.9984373140032679 -0.1478316002924641
4400000000.0 1.0115399233109403 -0.1777821841982074
4403000000.0 1.0099368540053695 -0.1744375631056322
4406000000.0 1.0000920645991478 -0.2094581516432772
4409000000.0 1.0249101720230793 -0.21936661449013817
4412000000.0 0.9764203084324454 -0.2530127735251001
4416000000.0 0.9788349868592461 -0.2242820330478525
4419000000.0 0.9824185833723034 -0.2478702089612407
4422000000.0 0.9754804375116073 -0.21886540748079597
4425000000.0 1.0057746026884562 -0.2168226410921067
4428000000.0 0.9611329753051999 -0.2706382575391473
4431000000.0 0.9941659331947139 -0.2564608650142985
4434000000.0 0.969243056873521 -0.27502303072344486
4438000000.0 0.9973654089641752 -0.27777100685278383
4441000000.0 0.9882378408054113 -0.29786699492765134
4444000000.0 0.9498561801814707 -0.278890324501808
4447000000.0 0.9477730797242473 -0.3137320153839394
4450000000.0 0.9532333135316376 -0.29112745862605405
4453000000.0 0.9845571123197718 -0.3214252895625532
4456000000.0 0.9378362063217068 -0.32206475986696725
4459000000.0 0.9092484872602471 -0.33505529693970354
4462000000.0 1.0135235059325984 -0.3711958331656174
4466000000.0 0.984574881503752 -0.3725189656065238
4469000000.0 0.93969184523669 -0.35504640030945156
4472000000.0 0.9448000573356121 -0.3950749482197308
4475000000.0 0.9172056686307037 -0.3569349903445147
4478000000.0 0.9642976230976923 -0.41486128127333344
4481000000.0 0.890008530152474 -0.39975848745791587
4484000000.0 0.911830140149033 -0.45279234806349045
4488000000.0 0.9038001190145795 -0.4189866280231964
4491000000.0 0.921868162352644 -0.4169356431812905
4494000000.0 0.9095521090666365 -0.4186241267015536
4497000000.0 0.8891074398633714 -0.40955188552264965
4500000000.0 0.9221888906657145 -0.4529847573735308
4503000000.0 0.9233542961115302 -0.4662100484558628
4506000000.0 0.9020877831559777 -0.4641570985834879
4509000000.0 0.8743049585025673 -0.4525321174564785
4512000000.0 0.8559495183576556 -0.480982495879438
4516000000.0 0.8938571933356877 -0.5006657913054934
4519000000.0 0.8521249254462415 -0.47047392729321963
4522000000.0 0.8794868151224291 -0.5126866619152277
4525000000.0 0.8726233136772661 -0.466373930330112
4528000000.0 0.8910076958374495 -0.5294542912421139
4531000000.0 0.8769511490765682 -0.5159526218310566
4534000000.0 0.8406153368701884 -0.5157010071472201
4538000000.0 0.8406398686001464 -0.5351851837884231
4541000000.0 0.808960927844587 -0.5522957481246663
4544000000.0 0.8396757469799294 -0.5252201970331943
4547000000.0 0.8551428275830972 -0.5433051224304044
4550000000.0 0.8459573688771655 -0.5813624333946489
4553000000.0 0.8329376436362297 -0.6012649147216426
4556000000.0 0.7966291124946914 -0.5807336164579314
4559000000.0 0.8284320721211448 -0.5914800131301801
4562000000.0 0.8267559460406502 -0.5962158077690012
4566000000.0 0.8231208263056511 -0.6209920974948735
4569000000.0 0.7902523708010242 -0.6073460109946931
4572000000.0 0.8054791896626918 -0.6012296554678865
4575000000.0 0.7938012616130361 -0.6449893059644688
4578000000.0 0.8238987501484927 -0.6361792379861333
4581000000.0 0.7665085570898331 -0.6481850165365362
4584000000.0 0.7663620451625535 -0.6398462643724778
4588000000.0 0.7948054424182038 -0.6610906201556834
4591000000.0 0.7690110727583879 -0.6393412599872697
4594000000.0 0.7572836258114113 -0.6981171563251473
4597000000.0 0.7427062785907994 -0.680465576929118
4600000000.0 0.7317519932632187 -0.6930515002819346
4603000000.0 0.7494456207837445 -0.6764422876565355
4606000000.0 0.7201979628556711 -0.6876090411530859
4609000000.0 0.7482931306382384 -0.701646443197875
4612000000.0 0.7437742295044165 -0.7101575822679301
4616000000.0 0.6975778883168726 -0.7094389469045821
4619000000.0 0.7067725077780941 -0.7201202930266009
4622000000.0 0.7285615844581217 -0.7280049335031239
4625000000.0 0.670541741325793 -0.7336605852884062
4628000000.0 0.6874017243360917 -0.7218586120377251
4631000000.0 0.6754487537466194 -0.7519115719119376
4634000000.0 0.6737007473770593 -0.7470861551708138
4638000000.0 0.6699443482523002 -0.7463537897924736
4641000000.0 0.6555282489532943 -0.7740137256880554
4644000000.0 0.6611950308344289 -0.7656491770838153
4647000000.0 0.6510832817554079 -0.7751232524294771
4650000000.0 0.6226719610600259 -0.7945200217937284
4653000000.0 0.6678898632380846 -0.7987389455024884
4656000000.0 0.6342855171197963 -0.7974754817422409
4659000000.0 0.6305611486844561 -0.7948821386109696
4662000000.0 0.6087699237134029 -0.828213167263838
4666000000.0 0.6133145906412181 -0.8027927866580116
4669000000.0 0.6326600318406068 -0.8001927442868186
4672000000.0 0.5935770632451444 -0.8327446835869254
4675000000.0 0.5875354172994809 -0.8357993022823157
4678000000.0 0.5565272486418746 -0.8148600086210531
4681000000.0 0.559466906183619 -0.8516836471393576
4684000000.0 0.5293514518886886 -0.8487632764771741
4688000000.0 0.5339971348424065 -0.8567197147037459
4691000000.0 0.5592866925357196 -0.8560492131177602
4694000000.0 0.5467280915740058 -0.8558596616133811
4697000000.0 0.511147776358809 -0.8292045333044189
4700000000.0 0.5431569314726331 -0.8502254556598563
4703000000.0 0.5299390500130039 -0.825782470666401
4706000000.0 0.5067483229967693 -0.8929174099193411
4709000000.0 0.48837617361677 -0.8911836107572166
4712000000.0 0.5149901390609779 -0.8791813586592859
4716000000.0 0.4937521156758681 -0.9051988896924743
4719000000.0 0.5052927752029377 -0.8869892748591615
4722000000.0 0.494814578471412 -0.8796304403428001
4725000000.0 0.4723830606290036 -0.8720117773922644
4728000000.0 0.44885906611930415 -0.8633726571988389
4731000000.0 0.47336138936420813 -0.908710212674372
4734000000.0 0.4595286373499663 -0.8945178398858403
4738000000.0 0.4597279063917409 -0.9480427406435726
4741000000.0 0.42612737162085856 -0.9333823565802484
4744000000.0 0.4345451504390393 -0.9476002645624191
4747000000.0 0.4201819123833631 -0.9355433637331383
4750000000.0 0.41062569163615814 -0.9503071353376756
4753000000.0 0.43165573599530915 -0.9330240834667793
4756000000.0 0.39196352011165053 -0.933203622224744
4759000000.0 0.381827434212509 -0.9651989061470053
4762000000.0 0.34510545912196977 -0.9647549432071733
4766000000.0 0.3496291353445784 -0.9777798630946912
4769000000.0 0.3863428441660147 -0.9964473441662961
4772000000.0 0.3444931257720071 -0.9741768203377695
4775000000.0 0.3556000322773632 -1.0025911106548677
4778000000.0 0.33181055422601063 -0.9856667735070187
4781000000.0 0.3484726931007771 -0.9490955458203851
4784000000.0 0.34043881791403696 -0.9620547733182162
4788000000.0 0.2992721355427126 -0.989786443720436
4791000000.0 0.280894350086177 -0.9688712323487813
4794000000.0 0.334276050678213 -0.9963553664465405
4797000000.0 0.3007741825226795 -0.9767925276445942
4800000000.0 0.26222690167024193 -0.968315700934985
4803000000.0 0.19700074755953503 -0.9681261839177921
4806000000.0 0.2436142121082508 -1.0002041742604326
4809000000.0 0.2089817980950699 -0.9947239120509018
4812000000.0 0.21887700771834048 -0.9847112605888435
4816000000.0 0.2493355709360042 -0.9837070249277795
4819000000.0 0.23190932322162658 -1.0321181338291556
4822000000.0 0.2297632360244548 -1.0416467051635996
4825000000.0 0.23909780204678793 -1.0092923885550975
4828000000.0 0.18997207837464924 -0.9993915408456951
4831000000.0 0.15460200837200133 -1.045857673234927
4834000000.0 0.21831202421008583 -1.0204711802759268
4838000000.0 0.1626110288278658 -1.0227073226965708
4841000000.0 0.15256634237369915 -1.0065115631962906
4844000000.0 0.1851672743242352 -1.0236830571283362
4847000000.0 0.16578490929535256 -0.9933222700499516
4850000000.0 0.13493674069049671 -1.0109484854710198
4853000000.0 0.11291452480460912 -1.004250747037022
4856000000.0 0.14139878004855366 -1.0186609395418444
4859000000.0 0.0815323350140354 -1.0491976331656052
4862000000.0 0.1525696521678303 -0.9804204262066355
4866000000.0 0.0836552991558431 -1.0270895706037062
4869000000.0 0.08086252342682032 -1.0351094319270802
4872000000.0 0.04500527128932137 -1.083647323311261
4875000000.0 0.11761186188259609 -1.0789461258201574
4878000000.0 0.0635560764855175 -1.0564306420048224
4881000000.0 0.021058364963003964 -1.081057046255433
4884000000.0 0.08604281275602377 -1.030421585609241
4888000000.0 0.07751047158855771 -1.0294168880390226
4891000000.0 0.07504339838719865 -1.0568220764920453
4894000000.0 0.010496329919324901 -1.0314253739736494
4897000000.0 0.06866071784541815 -1.0181082402699013
4900000000.0 0.013915906529623868 -1.0434497999734116
4903000000.0 0.0179367428985932 -1.0622287281808032
4906000000.0 -0.001039041381625843 -1.056054108031676
4909000000.0 0.0033327665156066034 -1.02633490074284
4912000000.0 -0.048238530066377835 -1.0799634583816602
4916000000.0 -0.019715667200479244 -1.0738755425201523
4919000000.0 -0.011754645245398265 -1.0761788893682693
4922000000.0 -0.014049716485037764 -1.0657343982029943
4925000000.0 -0.1027614385751853 -1.009842603927015
4928000000.0 -0.007410468482628774 -1.0112318394485211
4931000000.0 -0.02738579378907617 -1.0624050590989786
4934000000.0 -0.07164576252486442 -0.9797007068169437
4938000000.0 -0.1043450409795766 -1.0262990828339091
4941000000.0 -0.07528520056241438 -0.9878345441930176
4944000000.0 -0.08646422179062868 -0.9753698503151338
4947000000.0 -0.1193901204300431 -1.0203062411716026
4950000000.0 -0.10962298175952943 -0.9893741540547579
4953000000.0 -0.14326838794263752 -1.0386563382406249
4956000000.0 -0.16569218966352078 -1.0326183259128459
4959000000.0 -0.1833611972728104 -0.990300159318714
4962000000.0 -0.1331352205859412 -1.0590782006714217
4966000000.0 -0.13922881139261184 -1.046082039766584
4969000000.0 -0.15591932435040112 -1.1236896071813818
4972000000.0 -0.24049474434894255 -1.004602315030649
4975000000.0 -0.1844307372455237 -1.0118916539665328
4978000000.0 -0.20638285540124685 -1.0006650641203532
4981000000.0 -0.21948451681233364 -1.0474583951412328
4984000000.0 -0.1975135603781176 -1.0016679805108706
4988000000.0 -0.20271624532549093 -0.996328786364578
4991000000.0 -0.16908469384149982 -1.0325119248628838
4994000000.0 -0.22129685910936692 -1.0015082222032674
4997000000.0 -0.28130104302497416 -1.010739529723619
5000000000.0 -0.25257706668717284 -1.0442314060046323
5003000000.0 -0.2770556298577797 -1.0354209414078845
5006000000.0 -0.2576478759058056 -1.0509907738070985
5009000000.0 -0.27959935530278 -1.0029609139474447
5012000000.0 -0.3133705215536447 -0.9842174183199686
5016000000.0 -0.2676972175233226 -1.0288735028155196
5019000000.0 -0.30819133520957986 -1.002319341789915
5022000000.0 -0.3105936569608281 -1.0095372051087044
5025000000.0 -0.34189902424018465 -1.0567073567884258
5028000000.0 -0.3545580293092919 -0.9890317008386171
5031000000.0 -0.3602779525447648 -0.9903495263564123
5034000000.0 -0.3984150235757924 -1.0177174116166179
5038000000.0 -0.3582723293919745 -0.9669918238788502
5041000000.0 -0.2971817867480453 -0.9852457106813796
5044000000.0 -0.3069638361690348 -0.986980752702541
5047000000.0 -0.3640565868541014 -0.981705615774645
5050000000.0 -0.3081835446297243 -0.9867823375726097
5053000000.0 -0.39828582406185886 -1.0046852816687912
5056000000.0 -0.35439752859807705 -0.9928597253885376
5059000000.0 -0.3681973226034953 -0.999378091570215
5062000000.0 -0.45185967815798056 -0.9707562309889455
5066000000.0 -0.3772649603242938 -0.9439298148434556
5069000000.0 -0.41635808692307585 -0.9796715056413877
5072000000.0 -0.42385610511156735 -0.9425519545014143
5075000000.0 -0.40930678124037745 -0.9516485675571638
5078000000.0 -0.47453783724200677 -0.9284861880046134
5081000000.0 -0.4582234083861863 -0.9110266671536674
5084000000.0 -0.45689060887593835 -0.9655539476500503
5088000000.0 -0.47523445967150135 -0.9190819447426153
5091000000.0 -0.5202850884039854 -0.9147966549429916
5094000000.0 -0.4880468042197121 -0.9235339596413062
5097000000.0 -0.4786926139944907 -0.9462570998942348
5100000000.0 -0.47168232137063343 -0.9246790211355617
5103000000.0 -0.52788557250396 -0.9085135231911489
5106000000.0 -0.49521121721420597 -0.9322918032563279
5109000000.0 -0.45516383523126247 -0.9277465313603037
5112000000.0 -0.48367973071379033 -0.8601896818929959
5116000000.0 -0.47513061181395744 -0.8414748904458982
5119000000.0 -0.5384867442092379 -0.9131297233798898
5122000000.0 -0.5620766876532854 -0.8910690474779788
5125000000.0 -0.5504768129512874 -0.9207228000027529
5128000000.0 -0.5582205582420275 -0.8708222211012033
5131000000.0 -0.5547436840057816 -0.8591474537624603
5134000000.0 -0.6048150654399153 -0.9024745866019414
5138000000.0 -0.553514900753086 -0.8817333538924451
5141000000.0 -0.563323300295034 -0.9358865179056928
5144000000.0 -0.5567895559935286 -0.8720668997279616
5147000000.0 -0.5892922469161717 -0.8713010232425461
5150000000.0 -0.57383850515072 -0.8905194555220408
5153000000.0 -0.5910220067674721 -0.8634342765039345
5156000000.0 -0.5996265076193965 -0.86141013849637
5159000000.0 -0.6215255600096782 -0.8536876485551428
5162000000.0 -0.6227589166259849 -0.8388657822671869
5166000000.0 -0.6895211780661801 -0.8231248343927635
5169000000.0 -0.6479032332674376 -0.8331329096521204
5172000000.0 -0.6037456839896307 -0.8348970433141268
5175000000.0 -0.6346366565311584 -0.8553545233811432
5178000000.0 -0.6799573337831364 -0.7894451301895038
5181000000.0 -0.6531262411428568 -0.8268233666750254
5184000000.0 -0.668444040996397 -0.7702483474928749
5188000000.0 -0.6469573897081367 -0.7857174562468426
5191000000.0 -0.686674055616934 -0.7594849054882693
