! Created with skrf 1.8.0 (http://scikit-rf.org).
# Hz S RI R 50.0 
!freq ReS11 ImS11
4000000000.0 0.6222389131952287 0.8330205297112045
4003000000.0 0.6762965660770084 0.8732049160309733
4006000000.0 0.6648358661236493 0.7810134909547869
4009000000.0 0.7041427492963744 0.7813743158002521
4012000000.0 0.70450044574661 0.7876746978088898
4016000000.0 0.7287957618193744 0.7768110108093012
4019000000.0 0.6948236989258099 0.7706726528313701
4022000000.0 0.6631865125066829 0.7859906109920792
4025000000.0 0.7769812660973878 0.750084034568251
4028000000.0 0.7705995721886629 0.7428025300608299
4031000000.0 0.6777180637503765 0.7349446298308575
4034000000.0 0.7452703336725366 0.7330119778617082
4038000000.0 0.7808054250862275 0.7550687777954451
4041000000.0 0.7731357652805804 0.731279690529302
4044000000.0 0.837623006111037 0.7123399894200123
4047000000.0 0.7382311703956385 0.7585058627565496
4050000000.0 0.7988774371451366 0.7154384487025733
4053000000.0 0.7421776215621498 0.6793689604083579
4056000000.0 0.7846328899978419 0.6775840013957694
4059000000.0 0.7239064249837664 0.681525676074076
4062000000.0 0.7837997623264734 0.6793465519316602
4066000000.0 0.750745243403806 0.6438430048592131
4069000000.0 0.8402404605774726 0.6999900793645769
4072000000.0 0.7533799610166607 0.7141054493185897
4075000000.0 0.797111208544602 0.7089112175284928
4078000000.0 0.8798034082960627 0.6123964109744334
4081000000.0 0.800843061947779 0.7107999836657524
4084000000.0 0.8541180859930996 0.6131851949981177
4088000000.0 0.8156001146904855 0.6475891499633314
4091000000.0 0.8772783226023744 0.637359386932487
4094000000.0 0.8232316991563783 0.6297403024123772
4097000000.0 0.8263286945022624 0.633654096071874
4100000000.0 0.8298037667215518 0.6015352615744292
4103000000.0 0.9000712530963695 0.652297769286456
4106000000.0 0.8652844935379747 0.5884894427694098
4109000000.0 0.8430753495996937 0.5692078027557652
4112000000.0 0.8553193703402953 0.5859662938316359
4116000000.0 0.867248226939406 0.5952448077796656
4119000000.0 0.8843277122177813 0.5704193191767837
4122000000.0 0.9007291094423382 0.506127255200547
4125000000.0 0.9380328586268085 0.5304863108641169
4128000000.0 0.8786643456364828 0.5244409370829685
4131000000.0 0.8740534373733606 0.5181530317435359
4134000000.0 0.9177652728360819 0.5201349675534187
4138000000.0 0.8958487810153433 0.489321437604137
4141000000.0 0.9065232430428058 0.4720524668746373
4144000000.0 0.9090700513275422 0.4949891561297021
4147000000.0 0.9326587671529787 0.46699033501045956
4150000000.0 0.9413482093912193 0.5025253854407761
4153000000.0 0.9171523183038504 0.4623352557758147
4156000000.0 0.9502597361653287 0.48359841256228453
4159000000.0 0.917689651859309 0.47314272359629356
4162000000.0 0.907431342755993 0.462885837527235
4166000000.0 0.9548122911690871 0.44745036629099044
4169000000.0 0.9595871531112287 0.40826630929927343
4172000000.0 0.9585535734877593 0.4532494981706398
4175000000.0 0.9727614624217006 0.4333405162892218
4178000000.0 0.9771389438090599 0.42084591919973635
4181000000.0 0.9251801251891896 0.3854900835949423
4184000000.0 0.9767258067170734 0.37894701915268963
4188000000.0 0.9660842218788195 0.3591882997522341
4191000000.0 0.9180777745914561 0.4112709728710205
4194000000.0 0.9293001674824034 0.38743369270508055
4197000000.0 0.9829169143128328 0.3831825357330569
4200000000.0 0.9521207204393458 0.3686664008539261
4203000000.0 0.9880451958481489 0.37412474778902816
4206000000.0 0.9794579838970539 0.3459799707827031
4209000000.0 0.9593550777449737 0.3500571136223382
4212000000.0 0.9701619299210451 0.3026838394028841
4216000000.0 0.9881291695760474 0.33827503440841217
4219000000.0 0.975979827969105 0.3149027476964542
4222000000.0 0.9816467136210114 0.2841468948839018
4225000000.0 0.9713487156372556 0.3041815234613441
4228000000.0 1.0038786527692571 0.28631145793096524
4231000000.0 0.9847419119789379 0.2746865717993034
4234000000.0 0.9966235584945096 0.26506407376666413
4238000000.0 1.0049444538113848 0.2483342835660419
4241000000.0 0.9926099385805691 0.23344153637335385
4244000000.0 1.0031165848744374 0.24410201535081683
4247000000.0 1.0051099158390067 0.23246570166394226
4250000000.0 0.9819831837230226 0.20658292859562166
4253000000.0 0.9747885929684212 0.19827823701842495
4256000000.0 1.016133224226339 0.2040278893183971
4259000000.0 0.9741063702879894 0.18044825021678354
4262000000.0 1.03122206351488 0.17134089279454304
4266000000.0 1.0184963431285659 0.1705459822863396
4269000000.0 1.0121415255287904 0.18687617283567357
4272000000.0 1.0075368920476429 0.17222586914908578
4275000000.0 1.002310573450632 0.16295297345285753
4278000000.0 1.032491292167013 0.17291983076475986
4281000000.0 0.9986567314997927 0.15840048334040635
4284000000.0 1.034250621993249 0.10530111097824627
4288000000.0 1.0069740500172721 0.14393721267254858
4291000000.0 0.9790051692993555 0.106977865765444
4294000000.0 1.017096618160596 0.07768061471555317
4297000000.0 1.0294669046500626 0.113416888733078
4300000000.0 0.981215273783691 0.11183381454411548
4303000000.0 1.0031432619422667 0.07071166810690512
4306000000.0 1.028123886732626 0.12251263114215258
4309000000.0 1.0146648721947793 0.07261650139201671
4312000000.0 1.0175277371439249 0.10193513335107066
4316000000.0 1.047203030067454 0.04693335551167392
4319000000.0 1.0106512268960688 0.0378186846438114
4322000000.0 1.013335851345504 0.026374671343106934
4325000000.0 1.0161171668204416 0.05262619128756578
4328000000.0 1.0241417875609544 0.02443102334143614
4331000000.0 1.0153870903828803 -0.031524048717206585
4334000000.0 1.040316365604335 -0.034473020432059354
4338000000.0 1.0030274400264307 0.0030823483125080736
4341000000.0 1.060750011280182 -0.009892820304961539
4344000000.0 1.0483284781798203 -0.02770709139382274
4347000000.0 1.0117650082117875 -0.04284459638077863
4350000000.0 0.9642389910538811 -0.04925830122593375
4353000000.0 0.998099140944275 -0.042384730278279575
4356000000.0 1.0155725881149564 -0.08244079324678283
4359000000.0 0.9797844957227974 -0.06973209599062852
4362000000.0 1.015226661554741 -0.14462724692452145
4366000000.0 1.036643946044819 -0.10160921358431534
4369000000.0 0.9848833963289088 -0.1073461448951111
4372000000.0 1.002544712927048 -0.14988956243439777
4375000000.0 1.0154521615217618 -0.10629876184389936
4378000000.0 0.9748659327599614 -0.11299179359984844
4381000000.0 1.0047329958012199 -0.13650464772419502
4384000000.0 1.066184833629981 -0.17438489428724918
4388000000.0 0.9753024409303793 -0.14604678314537878
4391000000.0 1.0250796584286697 -0.1453005230605125
4394000000.0 0.9788642324175088 -0.17681848859669314
4397000000.0 0.9919672311915932 -0.18075358634839783
4400000000.0 1.0312041811100927 -0.1910883909161562
4403000000.0 1.0201693114500974 -0.2002564541859318
4406000000.0 0.9936676032810458 -0.21647299870495645
4409000000.0 1.0274646243522987 -0.22756612285268168
4412000000.0 0.9612039498815745 -0.28206283296939644
4416000000.0 0.9648685397022572 -0.24036162031823338
4419000000.0 0.9828427911397488 -0.2672859600260381
4422000000.0 0.9875699051545996 -0.23889469259157917
4425000000.0 1.014322134024554 -0.24042107222358194
4428000000.0 0.976849334748827 -0.2633448764669911
4431000000.0 1.0047852015497905 -0.26280741788822237
4434000000.0 0.9721318306950244 -0.2904898620669397
4438000000.0 0.9835525884099128 -0.29606099649996737
4441000000.0 0.9777039233793958 -0.297109412286404
4444000000.0 0.9502624508220252 -0.30754094426937684
4447000000.0 0.9489117075627226 -0.33387219608233143
4450000000.0 0.9604560611546457 -0.32442553576343225
4453000000.0 0.9811323444490383 -0.3497284983848978
4456000000.0 0.9325901573582921 -0.35475084545688196
4459000000.0 0.9113287996792048 -0.3660215373784102
4462000000.0 0.9996094794137649 -0.3899563982327387
4466000000.0 0.9739312956565297 -0.3883509084649841
4469000000.0 0.9443650369841917 -0.36994268759422105
4472000000.0 0.9244071366094089 -0.4087908698396212
4475000000.0 0.9180115187026993 -0.40595461705941993
4478000000.0 0.966547614465626 -0.44623914407979426
4481000000.0 0.8979970391281498 -0.4192938948854357
4484000000.0 0.8984872928926146 -0.46543530354853846
4488000000.0 0.8925833131459117 -0.4224494114955877
4491000000.0 0.903508067447119 -0.448965060427776
4494000000.0 0.9124735228671264 -0.42661876129414833
4497000000.0 0.9072223116918112 -0.4238345876867106
4500000000.0 0.9125935342667173 -0.4459987667520667
4503000000.0 0.9158725467969533 -0.4717415193732434
4506000000.0 0.8764364049669726 -0.46797428795662016
4509000000.0 0.8819493859886216 -0.47746849327297625
4512000000.0 0.8657684710841318 -0.5055235375317156
4516000000.0 0.8965177021610442 -0.5044980023905532
4519000000.0 0.8620040264670511 -0.49924711513335107
4522000000.0 0.8661232038736815 -0.5205278313951117
4525000000.0 0.8774225858086835 -0.49222046902055083
4528000000.0 0.8992154928033829 -0.5462686587327846
4531000000.0 0.8582505827936351 -0.5439953540862059
4534000000.0 0.8386839317400898 -0.5592464217698683
4538000000.0 0.8572132084102828 -0.5455037486968497
4541000000.0 0.8173393548115724 -0.5989836570077229
4544000000.0 0.8401943993307657 -0.560369460343128
4547000000.0 0.8249477512913374 -0.5506544286907682
4550000000.0 0.8233555943888395 -0.5959062267048241
4553000000.0 0.8120188391575969 -0.5997677510676411
4556000000.0 0.7851193903493001 -0.608909287395361
4559000000.0 0.808705155654878 -0.6272150992379864
4562000000.0 0.8144941904199152 -0.6137750357624027
4566000000.0 0.7976738233731933 -0.6488618687160985
4569000000.0 0.7739146045270178 -0.6349582565896295
4572000000.0 0.7891559387309875 -0.6471446503037678
4575000000.0 0.775702818430321 -0.6600214680109173
4578000000.0 0.8229941655502786 -0.6581256922743697
4581000000.0 0.7709321944597823 -0.6879585716296976
4584000000.0 0.7466636780008017 -0.6675393839131408
4588000000.0 0.7797644048286283 -0.6824009187171356
4591000000.0 0.7584761335448917 -0.6842651652805029
4594000000.0 0.7333004112300987 -0.7092281362705806
4597000000.0 0.7549166985590221 -0.7105093045328301
4600000000.0 0.717521791021435 -0.701993414662417
4603000000.0 0.7525123514975727 -0.7128536371781968
4606000000.0 0.7495961296379738 -0.7306855920644286
4609000000.0 0.718436020256795 -0.720641184659578
4612000000.0 0.7111660508999774 -0.7342473955585505
4616000000.0 0.6730485131943718 -0.7224593396155236
4619000000.0 0.708620895279703 -0.7455798872129551
4622000000.0 0.6878152364396747 -0.7455490141737234
4625000000.0 0.6641717760433217 -0.7387934964693941
4628000000.0 0.6866448762255997 -0.7496835265551749
4631000000.0 0.6621435630022539 -0.7697933402998498
4634000000.0 0.6449265400536505 -0.775988903895031
4638000000.0 0.6699881042302949 -0.781247225434019
4641000000.0 0.66336124292002 -0.7744432391918258
4644000000.0 0.6289732779487563 -0.7908315672943912
4647000000.0 0.6459216639262295 -0.786037745294068
4650000000.0 0.6135514105604994 -0.8116851285731113
4653000000.0 0.6402424585115841 -0.8091332621879876
4656000000.0 0.6154389975051386 -0.8365147422637882
4659000000.0 0.6107866812242018 -0.8051075268096141
4662000000.0 0.6224575212615259 -0.8225188992957412
4666000000.0 0.5856830095012248 -0.8251884151438689
4669000000.0 0.6004725881554123 -0.8145152858896418
4672000000.0 0.5799723360790136 -0.8660814437174489
4675000000.0 0.5642031003559822 -0.8428669515323713
4678000000.0 0.5648086003264094 -0.8390762611758321
4681000000.0 0.5432303137253772 -0.8737522993292433
4684000000.0 0.5153478074003306 -0.8836647390794916
4688000000.0 0.537864142626522 -0.833743638876923
4691000000.0 0.5598846334722917 -0.8810855192231124
4694000000.0 0.5076033407161503 -0.864649405293701
4697000000.0 0.4854998883323962 -0.8610280469170932
4700000000.0 0.5124232578193237 -0.8511120466128383
4703000000.0 0.5066220994281809 -0.8394830852254607
4706000000.0 0.49951731897592005 -0.9370989420325567
4709000000.0 0.482081940688096 -0.8998296935107419
4712000000.0 0.5020063253362759 -0.9125605802756188
4716000000.0 0.4859527849058032 -0.9165538555631063
4719000000.0 0.4887715221246064 -0.900369282141307
4722000000.0 0.4479454776978352 -0.9104733494344279
4725000000.0 0.4529217960776729 -0.9085710201252983
4728000000.0 0.442748259469695 -0.9175642010129266
4731000000.0 0.4648290553449726 -0.9643064388481233
4734000000.0 0.4413520438292875 -0.9135566901052828
4738000000.0 0.440102432909884 -0.9632536751823241
4741000000.0 0.4039938370705323 -0.9505492913203222
4744000000.0 0.3974590224105281 -0.9487405529370587
4747000000.0 0.39650784864986627 -0.9103496112617108
4750000000.0 0.3932320628784707 -0.9543710883378229
4753000000.0 0.39312302061342397 -0.9276011744024728
4756000000.0 0.3898490326730431 -0.9793047129810848
4759000000.0 0.38302176019135725 -0.9739531284410738
4762000000.0 0.3390848899617326 -0.9741452886377008
4766000000.0 0.33001039196424137 -0.9784033960452083
4769000000.0 0.3680930966434164 -0.9776338363054143
4772000000.0 0.34192637260422004 -0.9841292793306647
4775000000.0 0.30868879035582575 -1.0291619286847986
4778000000.0 0.2765819190064923 -1.0025550746679548
4781000000.0 0.3190816282720363 -0.977439713236455
4784000000.0 0.2884194906156656 -0.9970503599974546
4788000000.0 0.2751097971916787 -1.010982411321406
4791000000.0 0.27740321247615046 -0.974856302184964
4794000000.0 0.303657307815246 -1.0242128203451066
4797000000.0 0.25780834680778186 -0.9821222959454406
4800000000.0 0.23942715912585463 -0.990763246811794
4803000000.0 0.2082584247685982 -0.9817152620803249
4806000000.0 0.22185301010720465 -1.0198768846637418
4809000000.0 0.1879354910824431 -1.0086049615945771
4812000000.0 0.15291922245266043 -1.01492206337879
4816000000.0 0.23131416319984105 -1.0156245137500253
4819000000.0 0.23761171482395319 -1.0255912266688298
4822000000.0 0.21736685867229097 -1.0479366928525005
4825000000.0 0.21307829977582302 -1.0284067444167198
4828000000.0 0.16098642796854468 -1.0091065188002344
4831000000.0 0.12710888933179143 -1.0530639345332515
4834000000.0 0.17747961383086003 -1.0359888312173795
4838000000.0 0.1459733227203303 -1.0281636608574967
4841000000.0 0.10980875813603118 -1.0243681462132392
4844000000.0 0.1692253469118315 -1.0365167971461038
4847000000.0 0.14042252866844002 -0.9995908578012342
4850000000.0 0.11334253009212086 -1.0322970013294988
4853000000.0 0.10764995067564147 -1.0151482968879624
4856000000.0 0.09129412422045592 -1.0264940620855472
4859000000.0 0.06960909299462985 -1.0713801303720878
4862000000.0 0.11059496833541113 -1.0095999127502275
4866000000.0 0.04963410532683546 -1.0565136956907593
4869000000.0 0.051852194172349 -1.0289380451471235
4872000000.0 0.01625360035921835 -1.0888970988037312
4875000000.0 0.07470566006212294 -1.0864710544918728
4878000000.0 0.038363034659286754 -1.058676861990731
4881000000.0 -0.0031154755465615594 -1.0967856811470107
4884000000.0 0.04104182824233678 -1.052227653552379
4888000000.0 0.06901274587155903 -1.008539382059349
4891000000.0 0.04310489016960693 -1.0626350018311146
4894000000.0 -0.00946325455365761 -1.0334583282835565
4897000000.0 0.036445723276434465 -1.01145024564655
4900000000.0 -0.021431731694576836 -1.0902690220129365
4903000000.0 0.01953447905871936 -1.059031815380254
4906000000.0 -0.04674795915709439 -1.0541229323041144
4909000000.0 -0.0221753673057686 -1.0310685984663246
4912000000.0 -0.06389770469670114 -1.1020463278603159
4916000000.0 -0.03002111450089428 -1.0668828999432638
4919000000.0 -0.04644305774959777 -1.0940622334472176
4922000000.0 -0.04280653439367299 -1.0583343962562701
4925000000.0 -0.09176141745468586 -1.030777214761357
4928000000.0 -0.03479183054865957 -1.036916355619214
4931000000.0 -0.09138975754671423 -1.0425496250843054
4934000000.0 -0.10193286843700038 -1.004397727532847
4938000000.0 -0.16943583841830823 -1.000476614759834
4941000000.0 -0.09772069212376185 -1.0211024430619575
4944000000.0 -0.08270695190838478 -0.9775994406084747
4947000000.0 -0.15695884430108584 -0.9858884927542737
4950000000.0 -0.1785849484271217 -1.007770340440633
4953000000.0 -0.18998961877221626 -1.0830407547977456
4956000000.0 -0.20645762985212807 -1.073166938630437
4959000000.0 -0.23270117759938339 -1.0116901998153447
4962000000.0 -0.2157562037079858 -1.0545066705331576
4966000000.0 -0.16720420343368037 -1.0270557761244896
4969000000.0 -0.20797011689268147 -1.0697572302263125
4972000000.0 -0.2279712804842521 -1.033738600592901
4975000000.0 -0.18265321111696722 -1.0545137545616317
4978000000.0 -0.24961627775551204 -1.0357691921882142
4981000000.0 -0.23305052967280696 -1.0196566560633227
4984000000.0 -0.2275351967513596 -1.0083818101058881
4988000000.0 -0.23544331608322033 -1.0161463457245783
4991000000.0 -0.21172699474387885 -1.0713884369916722
4994000000.0 -0.23292905247418594 -1.0194872644484703
4997000000.0 -0.31809653495636886 -0.9859507276480247
5000000000.0 -0.2847345502319024 -1.0495342725981989
5003000000.0 -0.2769084094390238 -1.053665181103711
5006000000.0 -0.3070633562375553 -1.0499801179939878
5009000000.0 -0.26906928260317575 -1.014776817278397
5012000000.0 -0.31619928222934207 -1.002609743624096
5016000000.0 -0.2900322651101706 -1.0167692177587109
5019000000.0 -0.33103857675777393 -0.9629310146072294
5022000000.0 -0.3277511498210599 -0.9950824981220616
5025000000.0 -0.3756563144086043 -1.0551342195553528
5028000000.0 -0.4168510261992211 -0.9895158440375325
5031000000.0 -0.3598208005401127 -0.9831113185910413
5034000000.0 -0.4215404536443731 -0.9902705304179042
5038000000.0 -0.37636820748968436 -0.9086017823915673
5041000000.0 -0.35632878996933814 -1.0368503687516952
5044000000.0 -0.3665152030770654 -0.9652699316685193
5047000000.0 -0.39431142756161436 -0.9947910667713743
5050000000.0 -0.31560091240884625 -0.9802767766085199
5053000000.0 -0.4211001861909571 -0.9845636746767956
5056000000.0 -0.3967495076111016 -0.9954690892635389
5059000000.0 -0.4140371833111452 -0.9736423654237408
5062000000.0 -0.4806807381931224 -0.9491397908528985
5066000000.0 -0.43585602414856184 -0.9568085261950825
5069000000.0 -0.45841139636141415 -0.9374299872664519
5072000000.0 -0.47025400640152615 -0.9374190073847806
5075000000.0 -0.4384509583522652 -0.9649708670285697
5078000000.0 -0.5118372523446899 -0.9623555928466265
5081000000.0 -0.4764574654960529 -0.899978478511776
5084000000.0 -0.528680745743495 -0.9248936013733733
5088000000.0 -0.42016456080463627 -0.9168223494986163
5091000000.0 -0.5352196280319839 -0.8982716689447618
5094000000.0 -0.5158053668693877 -0.9125631338193979
5097000000.0 -0.49762175887504057 -0.9798074253815667
5100000000.0 -0.5093761249932443 -0.948157798173331
5103000000.0 -0.5589889305014343 -0.9167527788566873
5106000000.0 -0.5408429518341241 -0.9700082052615575
5109000000.0 -0.5243025035930292 -0.9257645863420005
5112000000.0 -0.5815919205205733 -0.9129810018726716
5116000000.0 -0.5094726132495923 -0.887387488530476
5119000000.0 -0.5819706570259824 -0.9048350674286028
5122000000.0 -0.5731248736966824 -0.9046886167653116
5125000000.0 -0.517362742507183 -0.9160432219940978
5128000000.0 -0.5940853094367136 -0.8869494766893029
5131000000.0 -0.6006867256930074 -0.8353767840312771
5134000000.0 -0.5757531164386344 -0.8657694311880282
5138000000.0 -0.5906066416137234 -0.863601787889187
5141000000.0 -0.600501290129787 -0.8804432658136057
5144000000.0 -0.5982957193957298 -0.8528312839157025
5147000000.0 -0.6074729711036025 -0.8245762859838294
5150000000.0 -0.6568741199737772 -0.9180197078856959
5153000000.0 -0.6466030288909606 -0.8432037182542524
5156000000.0 -0.6251181513163777 -0.815177558559835
5159000000.0 -0.6768830320546863 -0.8586942545870692
5162000000.0 -0.692147991017341 -0.8014210055159122
5166000000.0 -0.6693644599052664 -0.8073084188112248
5169000000.0 -0.6527977642552049 -0.8532917162281565
5172000000.0 -0.6827090615729662 -0.7735417735339891
5175000000.0 -0.6802653014870885 -0.8444250336471301
5178000000.0 -0.7021227624687962 -0.7975711441417248
5181000000.0 -0.7034879032468636 -0.8183148136299485
5184000000.0 -0.6893985577734222 -0.8028837845840062
5188000000.0 -0.6915218034304521 -0.7744206681557632
