! Created with skrf 1.8.0 (http://scikit-rf.org).
# Hz S RI R 50.0 
!freq ReS11 ImS11
4000000000.0 0.62858119201304 0.7693916774876031
4003000000.0 0.7025797771325709 0.835890764114204
4006000000.0 0.6507082187300517 0.7851189825092014
4009000000.0 0.6392380459064446 0.8138199972637362
4012000000.0 0.6155713617314089 0.8349047616047564
4016000000.0 0.6626000736598932 0.7467919928765514
4019000000.0 0.6838183322561358 0.8048621384960447
4022000000.0 0.6520891829972809 0.799794682317336
4025000000.0 0.7710836164175802 0.7286376446596046
4028000000.0 0.6747188415105806 0.7643764607235557
4031000000.0 0.6555962492180673 0.7142686559156229
4034000000.0 0.7310813891641295 0.6928381001375609
4038000000.0 0.7754866048143432 0.7251985981607126
4041000000.0 0.7383734011667435 0.7338884455354201
4044000000.0 0.8000760396356187 0.7616415029280668
4047000000.0 0.748351084032774 0.7881922711498242
4050000000.0 0.8152184535513256 0.6833929847847288
4053000000.0 0.7648953382304747 0.6801852826115833
4056000000.0 0.763217037625729 0.7148761198639341
4059000000.0 0.7558625994050594 0.7016160931352047
4062000000.0 0.8208087641767974 0.6852327631789865
4066000000.0 0.7348442194734182 0.6442363007593189
4069000000.0 0.8482498268585719 0.6599676704019146
4072000000.0 0.7214786315902587 0.6831547824880098
4075000000.0 0.8014931341024621 0.7172215644840649
4078000000.0 0.8328692608883984 0.6686585294450275
4081000000.0 0.7814990845716604 0.6696346377865511
4084000000.0 0.8280572733312737 0.6051355820894393
4088000000.0 0.823135496904355 0.6746774460510523
4091000000.0 0.8737159970869222 0.6872832844002417
4094000000.0 0.800255128867979 0.6412385466722019
4097000000.0 0.8326992620496191 0.6490732629074607
4100000000.0 0.8291376130804627 0.5971555629397531
4103000000.0 0.8492343752198259 0.6294669182830466
4106000000.0 0.8601176866008774 0.5867148796501018
4109000000.0 0.8567139584457133 0.5663200625031983
4112000000.0 0.8657679697990583 0.5830812793626727
4116000000.0 0.8668977477054619 0.5337055544412661
4119000000.0 0.8783426367306199 0.5537603759381676
4122000000.0 0.9091589607656488 0.5581446050963653
4125000000.0 0.9110483854135143 0.5449402300951007
4128000000.0 0.8325413946969008 0.5614610114434867
4131000000.0 0.8861764109841243 0.5157606169853313
4134000000.0 0.8909748749769164 0.5229315406764896
4138000000.0 0.8780088849783645 0.47656372667509433
4141000000.0 0.9076860941687047 0.4794565409970829
4144000000.0 0.8767003372504408 0.5315623933132112
4147000000.0 0.898927591673362 0.48431772611907636
4150000000.0 0.9262032207992128 0.4850279239481365
4153000000.0 0.9190082600741831 0.47460072133914766
4156000000.0 0.9253634017133432 0.48651551196397347
4159000000.0 0.8883815198117855 0.490896921774251
4162000000.0 0.9238471986310208 0.4360641430626824
4166000000.0 0.9484232531863783 0.44993807514766937
4169000000.0 0.9323445345991455 0.4096356534866229
4172000000.0 0.9050391659158761 0.45240895044690904
4175000000.0 0.9227051496133103 0.4371775615177395
4178000000.0 0.9500918764728828 0.4634590392549415
4181000000.0 0.9704688329186553 0.3857602685745567
4184000000.0 0.9304965395688535 0.39832985855889774
4188000000.0 0.9303811185979818 0.3865804259780581
4191000000.0 0.9168844408098953 0.41159884586912315
4194000000.0 0.933443994377914 0.3704577619330943
4197000000.0 0.9725960618778916 0.3741695011992712
4200000000.0 0.9648536896866247 0.3883826993714521
4203000000.0 0.9494261313305064 0.3675095707566005
4206000000.0 0.9665372816957479 0.3551573613445301
4209000000.0 0.9549235431449787 0.34928887381895396
4212000000.0 0.977257712653103 0.30954233080724813
4216000000.0 0.9668333568983308 0.33711331164656794
4219000000.0 0.9803314697323923 0.3376169832253242
4222000000.0 0.9711062916427315 0.2927162822823914
4225000000.0 0.9635241689535212 0.3200207064812536
4228000000.0 0.9845509219377826 0.29711092091625824
4231000000.0 0.9761979207000485 0.2892667331004772
4234000000.0 0.9957112060937708 0.290653366116388
4238000000.0 0.988942115882086 0.24162265516867956
4241000000.0 0.9863557863670784 0.2521177772693344
4244000000.0 0.9829198312104577 0.26720403804026477
4247000000.0 0.9871395900545664 0.2548833587961948
4250000000.0 0.982461084387773 0.22092344226934912
4253000000.0 0.9710571537521044 0.2103584046227192
4256000000.0 1.0125737685922045 0.22022001481904996
4259000000.0 0.9758536775142665 0.1951797032446467
4262000000.0 0.9801935196953571 0.17497098728169133
4266000000.0 1.0321843725269804 0.17977258118077732
4269000000.0 0.9937371352902116 0.20068847755600658
4272000000.0 0.9907964039299114 0.1918580446944263
4275000000.0 1.013237010542829 0.16915167262233993
4278000000.0 1.0201580177661573 0.1481431149038445
4281000000.0 0.9954847503951724 0.1717429131578096
4284000000.0 1.0288642925721705 0.1228039154251124
4288000000.0 1.0282749020459367 0.16951415816993193
4291000000.0 0.9918437979214328 0.09496953676064564
4294000000.0 1.0011702780090634 0.0974644631687931
4297000000.0 0.9844797257642529 0.1382967593951137
4300000000.0 0.9979249220232136 0.11659366840571533
4303000000.0 0.9960690791975282 0.0856534681856012
4306000000.0 1.0078233659694178 0.10619177073110578
4309000000.0 0.9995588645207545 0.09829787912116146
4312000000.0 1.0237918021146608 0.11701091620478493
4316000000.0 0.9986727838954105 0.08496289995771474
4319000000.0 0.9900816001893827 0.07150530650689634
4322000000.0 1.0086438688487018 0.033416532254008494
4325000000.0 1.016701940552182 0.028773569802556728
4328000000.0 1.0330502295143662 0.006569432568297298
4331000000.0 1.0175970387130806 -0.023106019561604157
4334000000.0 1.0165454080959029 0.016830433905561548
4338000000.0 1.0252459589457645 0.026160895991136204
4341000000.0 1.0279894666700853 0.022473846526961577
4344000000.0 1.0353548113794748 -0.0034787498267377925
4347000000.0 1.0480033948854488 -0.039577367559697235
4350000000.0 0.9548993887465956 -0.04524536280447869
4353000000.0 0.9898854463795415 -0.005152268137313676
4356000000.0 1.0103851571830578 -0.06471487040587294
4359000000.0 0.9803311237457347 -0.060553741538347625
4362000000.0 1.0165859096672996 -0.1275705893712719
4366000000.0 1.0156022583934254 -0.07192625467281011
4369000000.0 0.9781924907749868 -0.08562855510671159
4372000000.0 1.0072043066722594 -0.13087963659862678
4375000000.0 0.9925003547526787 -0.10225754413171256
4378000000.0 0.9895048331659912 -0.08958648686685856
4381000000.0 1.0078676618283136 -0.11761681926084194
4384000000.0 1.0836630434226597 -0.1480697406097067
4388000000.0 0.9857931822195332 -0.1326189153973841
4391000000.0 1.0118254471373407 -0.14467059001630828
4394000000.0 0.9677692806452134 -0.16629592894047657
4397000000.0 1.0044927984269936 -0.17624376229303074
4400000000.0 1.0124039656883357 -0.180551675997661
4403000000.0 1.001033565520498 -0.17616772312180984
4406000000.0 0.9997637074751565 -0.21415249550551338
4409000000.0 1.013197921424802 -0.21234209926254655
4412000000.0 0.9665628957498562 -0.26436563805663127
4416000000.0 0.9643647700292297 -0.22504958706143458
4419000000.0 0.9871234200410653 -0.24039836583490626
4422000000.0 0.9858114536508129 -0.22180391966874308
4425000000.0 1.0068156196190015 -0.22545440429921915
4428000000.0 0.9765408216531638 -0.2669899756260573
4431000000.0 1.0000006600139986 -0.27750306194765934
4434000000.0 0.9651935979199986 -0.27587854765078457
4438000000.0 0.9843200921476476 -0.27787204992527165
4441000000.0 0.9994225402195769 -0.29829879235872925
4444000000.0 0.9571601169572812 -0.28377095783160006
4447000000.0 0.960104083453301 -0.31370588455170384
4450000000.0 0.9686444264849717 -0.28244846616682595
4453000000.0 0.9783559026529067 -0.32770042039629765
4456000000.0 0.9394300886786532 -0.3441623925846574
4459000000.0 0.8885212022540245 -0.32999698145972334
4462000000.0 0.9919867361434396 -0.373662202735429
4466000000.0 0.9799929095930879 -0.38890365659260534
4469000000.0 0.9474106743773799 -0.3502589520493361
4472000000.0 0.9575661721867875 -0.4027092027978416
4475000000.0 0.9268539559382206 -0.3656494091059088
4478000000.0 0.9755113208984917 -0.42098396533133764
4481000000.0 0.9029282301364465 -0.40333157014780757
4484000000.0 0.8992745143075926 -0.44862993287545916
4488000000.0 0.8936560573839184 -0.4228476822063696
4491000000.0 0.925789107460777 -0.4361354333419118
4494000000.0 0.8915476521455327 -0.41687877429450965
4497000000.0 0.9106786657325847 -0.44280409754846345
4500000000.0 0.9114392382415479 -0.44111005851526686
4503000000.0 0.9221541649991567 -0.4586667385829843
4506000000.0 0.8863758678045104 -0.47561236850291094
4509000000.0 0.8701351304191967 -0.4588647692668587
4512000000.0 0.8775984664865318 -0.47224436093420463
4516000000.0 0.9005930765778107 -0.49488670791999934
4519000000.0 0.8655932220535903 -0.4691991559674977
4522000000.0 0.8612081964880638 -0.5163653009952388
4525000000.0 0.9024610933166897 -0.4905592052382072
4528000000.0 0.8771027584195694 -0.528472401054836
4531000000.0 0.8766788609761741 -0.5021942797257829
4534000000.0 0.850540260224511 -0.518359531777932
4538000000.0 0.8563091218882044 -0.5439582766587248
4541000000.0 0.804483682603147 -0.5740406570561362
4544000000.0 0.826752588673022 -0.5448572847616218
4547000000.0 0.8371702670682815 -0.5320279073620189
4550000000.0 0.8358955753558663 -0.6042533277754087
4553000000.0 0.8341350078975125 -0.5867627464662465
4556000000.0 0.7955764565365255 -0.5935337568290195
4559000000.0 0.8176850526143237 -0.6133317791864026
4562000000.0 0.8199507290651369 -0.6042033918885787
4566000000.0 0.8196020324210975 -0.6269328598224766
4569000000.0 0.7815813830293271 -0.6206766903332048
4572000000.0 0.7902632357344225 -0.6268737431786973
4575000000.0 0.778549635850408 -0.6443450309522951
4578000000.0 0.8147070031764374 -0.633405045404864
4581000000.0 0.7672748426753694 -0.6525181650278868
4584000000.0 0.769769753195604 -0.6394505863485136
4588000000.0 0.7799047132500878 -0.675471170591483
4591000000.0 0.7627608065701496 -0.6535393918925566
4594000000.0 0.7558687674884518 -0.6879088271695482
4597000000.0 0.7477838785091762 -0.6975879470080725
4600000000.0 0.7112322481250125 -0.6813330624794505
4603000000.0 0.7422412331677414 -0.7013869017610762
4606000000.0 0.7421425275170557 -0.7033610661158128
4609000000.0 0.7202407816690967 -0.7047088433157906
4612000000.0 0.7362567386941274 -0.7210501184474066
4616000000.0 0.694754563060568 -0.7141848946670123
4619000000.0 0.7175418501485284 -0.7297333016366461
4622000000.0 0.7408102665398721 -0.7419003226915795
4625000000.0 0.6615994569986141 -0.7109319322018055
4628000000.0 0.6954456741797711 -0.7221471789978284
4631000000.0 0.6556742229956176 -0.757067763481455
4634000000.0 0.6816790606143357 -0.7584161317130159
4638000000.0 0.6795666181959296 -0.7548689145312392
4641000000.0 0.6653109899774796 -0.7616319823807758
4644000000.0 0.6462393142265008 -0.7737826693844179
4647000000.0 0.6497175054867596 -0.7891472603866952
4650000000.0 0.6223185685248777 -0.7973364179881501
4653000000.0 0.6580384711692406 -0.7953380188909556
4656000000.0 0.6312969372620061 -0.7997294393226089
4659000000.0 0.6055624575101695 -0.8093812438672355
4662000000.0 0.6338511321575113 -0.8235938298827301
4666000000.0 0.5898862926070593 -0.7952608632888901
4669000000.0 0.5950759533876866 -0.8012933394846501
4672000000.0 0.5803223293631274 -0.8579953194645213
4675000000.0 0.5748519668595347 -0.8434368771284153
4678000000.0 0.5517151889975951 -0.8171818045407822
4681000000.0 0.5697064435503614 -0.8650748308120239
4684000000.0 0.5527922980799592 -0.8476909353798183
4688000000.0 0.5271230838667956 -0.8555824575915372
4691000000.0 0.5517446534047722 -0.8462405565069948
4694000000.0 0.5349939184778442 -0.836420053645266
4697000000.0 0.4926421396343776 -0.8547473363746942
4700000000.0 0.5346311770679293 -0.8775089305827233
4703000000.0 0.5367528408209803 -0.8462119248325564
4706000000.0 0.4806943198099633 -0.8923859965775051
4709000000.0 0.48709190397106017 -0.894124877568793
4712000000.0 0.513340471906629 -0.8915968376093782
4716000000.0 0.47440695905640773 -0.905462808240838
4719000000.0 0.5051083855198711 -0.8911234428005907
4722000000.0 0.48281705407350295 -0.9187373459429702
4725000000.0 0.4651699503519636 -0.8999597633317595
4728000000.0 0.47056831881207495 -0.9077764709834832
4731000000.0 0.4850863613787445 -0.9391367104727155
4734000000.0 0.4507332988659273 -0.8881364584735132
4738000000.0 0.4539825331966112 -0.9283104559126413
4741000000.0 0.41923369094332025 -0.9460719256845532
4744000000.0 0.41161127225124117 -0.9481186881336505
4747000000.0 0.40103541341041177 -0.8842110947935786
4750000000.0 0.3759177004151291 -0.9761471075710695
4753000000.0 0.4011076211278541 -0.9602215853699505
4756000000.0 0.37573042573043364 -0.9461954566850601
4759000000.0 0.39982999249588824 -0.9624455278457792
4762000000.0 0.3499825809483216 -0.9602570182656257
4766000000.0 0.3631054107171866 -0.9390524032003355
4769000000.0 0.36154926419297095 -0.968228374510825
4772000000.0 0.3740158626574591 -0.9736324192978588
4775000000.0 0.3080070431206059 -1.0173609835379762
4778000000.0 0.31696855175549643 -0.9726811760276507
4781000000.0 0.354881315061753 -0.949200731875572
4784000000.0 0.34429789209253614 -0.9697862514687053
4788000000.0 0.28940363938701835 -0.9852374040114023
4791000000.0 0.2907348661681529 -0.9682413049282551
4794000000.0 0.34074477158906713 -0.9764505096793383
4797000000.0 0.26439558274411157 -0.9537408052708275
4800000000.0 0.2624952136736901 -0.9550334673935803
4803000000.0 0.23860710792602813 -0.9733543873338644
4806000000.0 0.24503591642543143 -1.017657272143976
4809000000.0 0.20020515977096984 -0.9803015398383502
4812000000.0 0.19680871821874862 -1.0023178444318848
4816000000.0 0.24021488703110505 -0.9809636634598329
4819000000.0 0.22745732697741233 -1.0184996496187153
4822000000.0 0.2523049103910618 -1.0274809042068636
4825000000.0 0.21763095301561303 -1.0245974543654477
4828000000.0 0.1875769596039884 -0.9997978066534051
4831000000.0 0.1635067439501473 -1.0323709639837908
4834000000.0 0.1934383005650237 -1.0099640462264867
4838000000.0 0.1268893468870275 -1.0420781961755095
4841000000.0 0.11834253591584186 -1.0077503386063595
4844000000.0 0.17009883730488376 -1.0073224462196542
4847000000.0 0.16784142631635224 -0.9754178217233083
4850000000.0 0.13235129550024288 -1.0213587363431667
4853000000.0 0.12928406275578974 -0.9909666768087979
4856000000.0 0.11755872694399623 -1.0057737599848104
4859000000.0 0.10825454173101387 -1.0647917141093837
4862000000.0 0.13049242129188485 -1.0115927319585019
4866000000.0 0.08194776734427159 -1.0364973834621594
4869000000.0 0.05114745075169508 -1.0442293069780966
4872000000.0 0.039194231541197215 -1.0350802176481613
4875000000.0 0.1182698839370881 -1.07515727484264
4878000000.0 0.059762215401184066 -1.0487329527068374
4881000000.0 0.04788752770266499 -1.1165567114265722
4884000000.0 0.0766147559371593 -1.032531999610468
4888000000.0 0.0894172018161759 -1.041065632975432
4891000000.0 0.034913202268570274 -1.0484212818439906
4894000000.0 0.003489182564562241 -1.0398620227837487
4897000000.0 0.03667822010649849 -1.02425936586624
4900000000.0 -0.003846548128033908 -1.0666752438512337
4903000000.0 0.008633566225498157 -1.0363955439339476
4906000000.0 -0.011187628916338302 -1.071770966147696
4909000000.0 -0.05205439351975175 -1.0374485434472374
4912000000.0 -0.030293404052521802 -1.0919299760968857
4916000000.0 -0.009193915157190882 -1.0609594858193232
4919000000.0 -0.03942532665085989 -1.045027129244565
4922000000.0 -0.018149942569265484 -1.0098733682445376
4925000000.0 -0.09491004122807042 -1.0091100644774134
4928000000.0 -0.012106795293593584 -1.0133943756261727
4931000000.0 -0.05331202840539502 -1.0805112359691644
4934000000.0 -0.1041094907763047 -1.01210151547132
4938000000.0 -0.1218234816921382 -1.0408384479706225
4941000000.0 -0.08158929623723772 -1.0054474024502238
4944000000.0 -0.06465379522322073 -0.9947563508499058
4947000000.0 -0.12945626364034563 -0.9787038760286733
4950000000.0 -0.1605466931456258 -0.9887672505688017
4953000000.0 -0.2004702704613247 -1.072605091427889
4956000000.0 -0.1544514683909653 -1.0419415862924661
4959000000.0 -0.20066349020290622 -0.9977104766249539
4962000000.0 -0.1639654860529368 -1.038218119668991
4966000000.0 -0.14838963712788106 -1.0388320835258564
4969000000.0 -0.17971084301756368 -1.0418102820459878
4972000000.0 -0.2165916210018957 -1.0418884565991189
4975000000.0 -0.17401579932697556 -1.0007812225025619
4978000000.0 -0.21586673721799327 -1.0108176994473226
4981000000.0 -0.207732375218417 -1.0164013088910038
4984000000.0 -0.2145178746674015 -0.9956774659560002
4988000000.0 -0.20519929937980225 -1.0067276392819748
4991000000.0 -0.16239953348341318 -1.0480056894959309
4994000000.0 -0.19637510140294684 -0.994990491457966
4997000000.0 -0.3237697601788822 -0.9711598783269182
5000000000.0 -0.2290823154507367 -1.0225135095724112
5003000000.0 -0.25359952962363913 -1.0281467903876842
5006000000.0 -0.2812951328389637 -1.0805327861867677
5009000000.0 -0.24781623680189976 -1.0077933081207087
5012000000.0 -0.31550551853780423 -1.006024111740771
5016000000.0 -0.283944405322248 -1.0365061920818759
5019000000.0 -0.320897044833943 -0.9790101259405306
5022000000.0 -0.31696126350551956 -0.9873906528113079
5025000000.0 -0.3346900983467492 -1.0267860429879025
5028000000.0 -0.3487856370224526 -0.9787876463011205
5031000000.0 -0.35729526080109086 -0.9758917711546352
5034000000.0 -0.3941905406574746 -0.9931499431290185
5038000000.0 -0.36335827988952407 -0.9258742227205905
5041000000.0 -0.3012694703611911 -1.002983758392309
5044000000.0 -0.32652518776811 -0.9568076466126293
5047000000.0 -0.32992252139205297 -0.975980040555466
5050000000.0 -0.2857644271873008 -0.9789326101365701
5053000000.0 -0.4327315327902961 -0.968103796776379
5056000000.0 -0.3485868262708337 -1.0086767782083683
5059000000.0 -0.3366457033083428 -0.983790584230262
5062000000.0 -0.45995734123449417 -0.971096216457817
5066000000.0 -0.3629979834799597 -0.9686023805574124
5069000000.0 -0.45345406013113865 -0.952480520052119
5072000000.0 -0.4369177565045823 -0.9301374309159556
5075000000.0 -0.40130761661083236 -0.9377905787451615
5078000000.0 -0.49490789922376416 -0.9228528120577222
5081000000.0 -0.4342144212811287 -0.9161093116534821
5084000000.0 -0.48120275168451976 -0.9556333951347691
5088000000.0 -0.4579339322571474 -0.9147060968488561
5091000000.0 -0.5179345690227306 -0.9132692586611317
5094000000.0 -0.47727736202696686 -0.9073610711567731
5097000000.0 -0.4421038964143068 -0.9568013011605738
5100000000.0 -0.509700400035192 -0.8900522392626123
5103000000.0 -0.5501286189691731 -0.9075549479075823
5106000000.0 -0.5433344582232154 -0.9616699588185267
5109000000.0 -0.49770372602061763 -0.9047784012067517
5112000000.0 -0.5269798565060501 -0.851460256901043
5116000000.0 -0.5018785422323692 -0.8341848191207812
5119000000.0 -0.5236255451479443 -0.9001613935760677
5122000000.0 -0.5460666107285411 -0.8370278340089239
5125000000.0 -0.5048364559651594 -0.8993539432139682
5128000000.0 -0.5407883039038144 -0.864309817825957
5131000000.0 -0.5808064551303365 -0.8753807560473644
5134000000.0 -0.6018217752079664 -0.8231560298480174
5138000000.0 -0.5939615788828108 -0.9210937819078443
5141000000.0 -0.5121435616800523 -0.885267812007156
5144000000.0 -0.5721753439960493 -0.8514174653941905
5147000000.0 -0.5987520269407702 -0.812696564779494
5150000000.0 -0.6034628676164716 -0.875465211211502
5153000000.0 -0.6291591146281399 -0.8224977258940346
5156000000.0 -0.6447526208177746 -0.8760070647623948
5159000000.0 -0.6391493729526961 -0.8782749049262759
5162000000.0 -0.6285008656468305 -0.7981823319945109
5166000000.0 -0.6915210127229683 -0.8221459293577462
5169000000.0 -0.647045818056996 -0.8060913914135139
5172000000.0 -0.6258231904402747 -0.828400735497092
5175000000.0 -0.6761116860032742 -0.8693906015097401
5178000000.0 -0.6982831760715666 -0.7913207604077938
5181000000.0 -0.67254054419063 -0.8048761361805027
5184000000.0 -0.6850547392495966 -0.7905209891163469
5188000000.0 -0.7268601073884662 -0.7786319816419626
