! Created with skrf 1.8.0 (http://scikit-rf.org).
# Hz S RI R 50.0 
!freq ReS11 ImS11
4000000000.0 0.6005387890660734 0.8040102213267668
4003000000.0 0.6705762523483947 0.8376571241634078
4006000000.0 0.7062236793010063 0.8000484423625116
4009000000.0 0.6877993633602851 0.8031445036377372
4012000000.0 0.6512121562552302 0.817469394768434
4016000000.0 0.7557286161819287 0.7915304495528228
4019000000.0 0.6806001431972528 0.7734586167158598
4022000000.0 0.6746351668105728 0.8163369780270252
4025000000.0 0.7776446673034151 0.7161649877626498
4028000000.0 0.7371379387463937 0.7051710457502476
4031000000.0 0.7014534710749765 0.7137884737204011
4034000000.0 0.7190717695789721 0.7203861153995169
4038000000.0 0.7507781057823395 0.7094789413492669
4041000000.0 0.7709610334906476 0.71160754949524
4044000000.0 0.7946379760311393 0.7481544195578672
4047000000.0 0.7481395159569874 0.7899969553865956
4050000000.0 0.7852530409852464 0.7237749194908322
4053000000.0 0.7381444707542361 0.6644779977977313
4056000000.0 0.7725864752175007 0.7081546211228789
4059000000.0 0.7650119049635384 0.7088394034961008
4062000000.0 0.7996981803816517 0.6652846972294304
4066000000.0 0.7286509024909953 0.6193707148993642
4069000000.0 0.8375312303681001 0.6810092968569776
4072000000.0 0.7550356498993209 0.7065367132212501
4075000000.0 0.783519270667473 0.7200995621917614
4078000000.0 0.8018546316159088 0.6351486816748978
4081000000.0 0.7959507679775801 0.7154402810588286
4084000000.0 0.8476410557588835 0.6273567580783908
4088000000.0 0.7722578637282843 0.6513804167722488
4091000000.0 0.9121171069730913 0.6363842444232328
4094000000.0 0.8442722424692249 0.656028872873814
4097000000.0 0.8317052214309475 0.5999579826461217
4100000000.0 0.8380079949580713 0.5922514267198689
4103000000.0 0.8740362269930975 0.643379251524284
4106000000.0 0.8754039470311866 0.585153377286653
4109000000.0 0.875059739647031 0.582135430591759
4112000000.0 0.8570893149369911 0.5720062004600237
4116000000.0 0.8482218422850439 0.584065474583102
4119000000.0 0.8665042821337772 0.5249823829817233
4122000000.0 0.8867280893213579 0.5279409834101984
4125000000.0 0.9218896724296615 0.524391019823297
4128000000.0 0.8250009061829972 0.5190088797650072
4131000000.0 0.8692036439573776 0.5035674719465596
4134000000.0 0.8847886371816901 0.52518972981992
4138000000.0 0.89413225753079 0.4933699227631528
4141000000.0 0.8984438692427171 0.4945647121197123
4144000000.0 0.925016249870731 0.5303565937893995
4147000000.0 0.9244251426642242 0.46628328337401664
4150000000.0 0.9277485703943321 0.4892431506783745
4153000000.0 0.9360697593220088 0.47511949351243365
4156000000.0 0.9398239811234479 0.4614103020478577
4159000000.0 0.894063302181906 0.4672445467174207
4162000000.0 0.9134883478902045 0.4498270932591618
4166000000.0 0.9098879376132816 0.4157059375639238
4169000000.0 0.9297381855744343 0.4295454255450025
4172000000.0 0.9272075272980644 0.43650393539857074
4175000000.0 0.9390069890552789 0.4160537265392558
4178000000.0 0.9592409023384755 0.41514834979308246
4181000000.0 0.9473996793987085 0.39281208303905
4184000000.0 0.9425961145217095 0.3936446060905003
4188000000.0 0.9680690296800201 0.3717607852420718
4191000000.0 0.9291818631504128 0.414674266806842
4194000000.0 0.9364487700262782 0.35999534220531393
4197000000.0 0.939914205242134 0.37129493816067033
4200000000.0 0.9528014347331384 0.37920317071225684
4203000000.0 0.9643335160189411 0.3589401683194363
4206000000.0 0.99243315476353 0.34126745440949696
4209000000.0 0.9605079146712043 0.3401855736903881
4212000000.0 0.9830573982424927 0.2966689395265115
4216000000.0 0.9763884470274433 0.3300918940481677
4219000000.0 0.975828084850156 0.33164756689455366
4222000000.0 0.9862687623353577 0.2956473862528596
4225000000.0 0.9842986068311435 0.2817241955007529
4228000000.0 0.9817213208774351 0.2897128372993871
4231000000.0 0.9892870720707735 0.26336317191543496
4234000000.0 1.0036396244656844 0.2706059671825382
4238000000.0 1.0093387856475604 0.23460197232761312
4241000000.0 0.9894468013597579 0.22904207436109153
4244000000.0 0.9933222972826985 0.24223074220218271
4247000000.0 0.9922987467489953 0.24443949747886723
4250000000.0 0.9855962372218254 0.21906045856083828
4253000000.0 0.9705541672914537 0.22178888176273948
4256000000.0 1.024207943626698 0.2101746917968455
4259000000.0 0.9662940658384176 0.188083862711333
4262000000.0 0.9803542778256849 0.17083917930239603
4266000000.0 1.013372756617356 0.1829952200102805
4269000000.0 1.0088023798693664 0.17532974236502333
4272000000.0 1.0098873808044138 0.16783223787143814
4275000000.0 1.0200704266206124 0.15475609378776642
4278000000.0 1.0208826209596324 0.1608703494252971
4281000000.0 0.9983915097998661 0.14187691618739023
4284000000.0 1.0252316392676168 0.11524706659346509
4288000000.0 1.0092704830076369 0.15140759908820778
4291000000.0 0.9778101953694027 0.11695107493511016
4294000000.0 1.0077944271753903 0.0880480728585437
4297000000.0 1.0058048055657265 0.10459130716731178
4300000000.0 0.9943352141104593 0.09104204825033643
4303000000.0 1.0265904024171817 0.07991402383057032
4306000000.0 1.0068107844134102 0.09759260452789989
4309000000.0 1.0193563193589914 0.09074996349192767
4312000000.0 1.0312006230090929 0.0900356332054919
4316000000.0 1.0151708338787793 0.098518919919716
4319000000.0 1.0090684066283893 0.02766333890582398
4322000000.0 0.9907714388842807 0.002834733918157556
4325000000.0 1.0431179013953158 0.04515528855901334
4328000000.0 1.005016521081277 0.0037108444470415336
4331000000.0 1.0285295367472815 -0.009369352267520378
4334000000.0 1.017634699765164 0.009100231147444071
4338000000.0 1.0003925286130493 0.016041731535356055
4341000000.0 1.0439508421284687 0.02223140647641708
4344000000.0 1.0351740715085114 -0.031023784015007272
4347000000.0 1.0267585786797937 -0.060766146054132344
4350000000.0 0.9586414787319952 -0.06073280253639636
4353000000.0 0.9902523347505281 -0.0360593366204308
4356000000.0 0.9968150118904737 -0.08314994395382089
4359000000.0 0.97073981720521 -0.07250832960160983
4362000000.0 1.022161092531917 -0.15177990113539222
4366000000.0 1.0305829081312212 -0.10676789083874119
4369000000.0 0.9639628047188716 -0.11468712356213268
4372000000.0 0.9937561756867415 -0.14087865980751907
4375000000.0 0.9948322501165954 -0.1099800052615081
4378000000.0 0.9806516582696372 -0.12266420672787207
4381000000.0 1.00386010865162 -0.12943263454663412
4384000000.0 1.0588523017135476 -0.14968013241705208
4388000000.0 0.9915297662826615 -0.12985768826302382
4391000000.0 0.9809869322695755 -0.1503870663877807
4394000000.0 0.9687719923750115 -0.18159667428313092
4397000000.0 0.9914749620647776 -0.18395700686363542
4400000000.0 1.0292228720004735 -0.2087606507439441
4403000000.0 0.9913521699791474 -0.19043824117225813
4406000000.0 1.0065242192834811 -0.23837984269069076
4409000000.0 1.0152303257290023 -0.21949748103430586
4412000000.0 0.9673563713867158 -0.2677015795022153
4416000000.0 0.9713276151928427 -0.2499049486415722
4419000000.0 0.9657263656369638 -0.27547167020683416
4422000000.0 0.9768004750338393 -0.2313464530861029
4425000000.0 1.0017687915034972 -0.24526505320765857
4428000000.0 0.95150802635647 -0.27031173281368137
4431000000.0 1.0071726149591518 -0.2780388409908934
4434000000.0 0.9724553320161734 -0.29021106752760084
4438000000.0 0.9906774500211055 -0.29214951317387916
4441000000.0 0.9762378249771533 -0.2963053446996092
4444000000.0 0.9542507660694388 -0.2955685634088076
4447000000.0 0.9439150917163601 -0.32544606212168314
4450000000.0 0.9464272264228886 -0.3258062797924812
4453000000.0 0.9727507047580943 -0.3388349955332311
4456000000.0 0.9380195834996068 -0.35346551881129035
4459000000.0 0.8974476140376852 -0.3488467516668349
4462000000.0 0.9949313980079773 -0.382665031713909
4466000000.0 0.9707824156077587 -0.4043465002262464
4469000000.0 0.94541190790214 -0.3726342927905998
4472000000.0 0.945907883977602 -0.41345330521764284
4475000000.0 0.8960613269849709 -0.3827972750900117
4478000000.0 0.9491430877057873 -0.44456558535970814
4481000000.0 0.8918465055632551 -0.4125781608243109
4484000000.0 0.9005775670957203 -0.46279161588778184
4488000000.0 0.9039318392873716 -0.4463220020336188
4491000000.0 0.9225048746892439 -0.44018846254897087
4494000000.0 0.901274656251845 -0.4342124415321513
4497000000.0 0.9031664489569977 -0.42583701589923395
4500000000.0 0.9159243292451209 -0.4508414964338411
4503000000.0 0.9199984654576749 -0.4694921322180689
4506000000.0 0.8828358652212795 -0.48580489271954636
4509000000.0 0.8731920745809141 -0.46396948075542144
4512000000.0 0.8569805278255694 -0.5129426997212008
4516000000.0 0.9049449526250918 -0.5093093928835815
4519000000.0 0.8495144492711748 -0.47851747924139154
4522000000.0 0.865072142578825 -0.5264696339690844
4525000000.0 0.8808279511599275 -0.5028418270417675
4528000000.0 0.8818677946434006 -0.5497828983151886
4531000000.0 0.8654268482579187 -0.5236449648680724
4534000000.0 0.825974865398887 -0.5364004622994297
4538000000.0 0.8464161182402752 -0.5599402756149908
4541000000.0 0.8101063199677677 -0.5903976549580879
4544000000.0 0.8287178631443437 -0.5679327078084192
4547000000.0 0.836844485842878 -0.5486632323374301
4550000000.0 0.8134265709388906 -0.6045342568669237
4553000000.0 0.8242240758059121 -0.6084812963326286
4556000000.0 0.7725605702762139 -0.6072415736471297
4559000000.0 0.7965291186929752 -0.6070943866584035
4562000000.0 0.8129531834491479 -0.6106189586691975
4566000000.0 0.8023361553492032 -0.6180105767852482
4569000000.0 0.772746154761574 -0.6260736840842873
4572000000.0 0.781952108916335 -0.6186741500520675
4575000000.0 0.7555710906638133 -0.667885499704108
4578000000.0 0.7924489208087828 -0.6607171608387467
4581000000.0 0.7658298374458576 -0.6690847142937314
4584000000.0 0.7635965127612908 -0.6512627864293848
4588000000.0 0.7849275130364759 -0.679679762079018
4591000000.0 0.761720046289776 -0.65604809699816
4594000000.0 0.7343697233928205 -0.7020671840568469
4597000000.0 0.7519231401577258 -0.7002486609557983
4600000000.0 0.7120337127598777 -0.704762099121918
4603000000.0 0.7208843695496464 -0.7180281485772357
4606000000.0 0.7171329401298602 -0.7146569249860126
4609000000.0 0.7216497902166052 -0.7109978597088964
4612000000.0 0.710637994355191 -0.7238557557813114
4616000000.0 0.6994568798439971 -0.7260787771987772
4619000000.0 0.6902252687880139 -0.7264951283111507
4622000000.0 0.6988495898923948 -0.7361702389329827
4625000000.0 0.6422084748470244 -0.7422691772804513
4628000000.0 0.6797736895200442 -0.7330473927733338
4631000000.0 0.6549309162411368 -0.7697848039563575
4634000000.0 0.6446601389695621 -0.7657935702891515
4638000000.0 0.6481703682486007 -0.7615233508991737
4641000000.0 0.6595791890095583 -0.7800482014926304
4644000000.0 0.6505246562892955 -0.7837451729580343
4647000000.0 0.6483266880808377 -0.7854813251570156
4650000000.0 0.6294693633190149 -0.787328380045914
4653000000.0 0.6401401512480133 -0.7895131382196338
4656000000.0 0.6065781356499489 -0.8100384957458058
4659000000.0 0.5987422229394669 -0.8241841889528652
4662000000.0 0.6102883288829078 -0.8228805402891458
4666000000.0 0.5627002301274261 -0.845633899725596
4669000000.0 0.6016803781677329 -0.8286502695648559
4672000000.0 0.5785200543552014 -0.8573138748914076
4675000000.0 0.5491991603359747 -0.8291106999934537
4678000000.0 0.541971431261174 -0.8402947512672809
4681000000.0 0.528684373817643 -0.8790700506664784
4684000000.0 0.5292159591757353 -0.8932083637295458
4688000000.0 0.5204615623280962 -0.8800245667531785
4691000000.0 0.5252178090292777 -0.8538474350843526
4694000000.0 0.5279644460698897 -0.8469699658117895
4697000000.0 0.4662136222211187 -0.8397704076327448
4700000000.0 0.506861697939036 -0.8716707294075363
4703000000.0 0.5008009394963123 -0.8520722308607152
4706000000.0 0.5005066186827456 -0.9191079153580157
4709000000.0 0.4761773072764474 -0.8914917822723867
4712000000.0 0.49348307362445387 -0.8947340706895994
4716000000.0 0.47385179947017425 -0.9267036466733292
4719000000.0 0.4801249873626267 -0.8945704481179433
4722000000.0 0.460798537551968 -0.8789147345716257
4725000000.0 0.45815931951030375 -0.9107967943687051
4728000000.0 0.4232250106229713 -0.9262979814058696
4731000000.0 0.4713887596995869 -0.94416931825971
4734000000.0 0.4383077984202325 -0.8931509700323024
4738000000.0 0.4238993250560413 -0.9940543453991413
4741000000.0 0.3824781504619733 -0.955189438851679
4744000000.0 0.40391290164420834 -0.9669181833633566
4747000000.0 0.4369346124078884 -0.8714106190925751
4750000000.0 0.39963767644782666 -0.967130698322788
4753000000.0 0.38742724163731324 -0.9692971074321446
4756000000.0 0.3605957509979977 -0.9365873475943738
4759000000.0 0.3754353801033583 -0.9676534974486314
4762000000.0 0.31262777203093073 -0.9747781258552852
4766000000.0 0.34255145359676625 -0.9634280668451556
4769000000.0 0.3543988790938776 -0.9615034042144673
4772000000.0 0.3275528615008184 -0.9741700037504689
4775000000.0 0.31691388226336736 -1.0120255773846158
4778000000.0 0.3096060779988167 -0.9730736575182454
4781000000.0 0.34903915941538133 -0.9503365623591014
4784000000.0 0.32054103110366966 -0.981019452097094
4788000000.0 0.26927223239183995 -1.0065616334026508
4791000000.0 0.2632071310409168 -0.9675019388555218
4794000000.0 0.3214032599283573 -1.0095680297387668
4797000000.0 0.24444204050109863 -0.9510579801376607
4800000000.0 0.24170320057631958 -0.9814717882207094
4803000000.0 0.17794357906005062 -0.9865579023477826
4806000000.0 0.2353383120263006 -1.0165168594484666
4809000000.0 0.18870614907265676 -1.0029390731902628
4812000000.0 0.18682715118652357 -0.9944736593283241
4816000000.0 0.21717941838474336 -0.9821424924504534
4819000000.0 0.2612639768419547 -1.0367262395327785
4822000000.0 0.21393484103553667 -1.0458713060425595
4825000000.0 0.23028112090811786 -1.0394483202218134
4828000000.0 0.15596494766621752 -1.0123170752494461
4831000000.0 0.12964189305186322 -1.0323504216133272
4834000000.0 0.1672849192110914 -1.0238235844803474
4838000000.0 0.14613542764504955 -1.0352173904750908
4841000000.0 0.12306270657362456 -1.008915144132252
4844000000.0 0.16717475885355226 -1.0197681295915286
4847000000.0 0.1514038422608143 -0.9864761641258994
4850000000.0 0.1297036712630494 -1.0574545899016552
4853000000.0 0.10113624310254195 -0.9874942485051206
4856000000.0 0.09850273703188028 -1.010327863979497
4859000000.0 0.09313319721003176 -1.0549686608890116
4862000000.0 0.09118463063364221 -0.9991422484980125
4866000000.0 0.059617230311223554 -1.042557538450621
4869000000.0 0.05171634594424118 -1.029002243573693
4872000000.0 0.039200774550751986 -1.0639284779423785
4875000000.0 0.11395115356890502 -1.079127297999524
4878000000.0 0.039216379272275205 -1.0253455008029932
4881000000.0 0.01684446817007596 -1.0935085082994902
4884000000.0 0.06235231350438172 -1.0152386295302447
4888000000.0 0.03250261173333884 -1.040411658025817
4891000000.0 0.044434048197404034 -1.042989743919192
4894000000.0 -0.01344670970376604 -1.0305307780175188
4897000000.0 0.029366026918293285 -1.0092368370376714
4900000000.0 0.00019371837581798335 -1.054342021916929
4903000000.0 -0.026583052185184843 -1.0464391114653901
4906000000.0 -0.05562403482211034 -1.0562096452084708
4909000000.0 -0.04397885587910479 -1.0423528550656955
4912000000.0 -0.08772944693797237 -1.0630035860910536
4916000000.0 -0.049576158792704446 -1.039638838416924
4919000000.0 -0.032172563080501995 -1.0759792681424156
4922000000.0 -0.05867067611620641 -1.0717345874851296
4925000000.0 -0.08865255159997232 -1.0099279255683022
4928000000.0 -0.029748316110172424 -1.0208576019753663
4931000000.0 -0.06187692711885924 -1.025818563999711
4934000000.0 -0.08141045697725556 -1.0222409403866017
4938000000.0 -0.14367703050250308 -1.0022668526549412
4941000000.0 -0.1355918593447416 -1.0050436302311812
4944000000.0 -0.08280703175497264 -0.9596667883721259
4947000000.0 -0.155380103376608 -1.0213152741011566
4950000000.0 -0.1541686684994838 -1.0017295427383912
4953000000.0 -0.18360084484693917 -1.0738455444066268
4956000000.0 -0.1922512219543075 -1.0411904741902815
4959000000.0 -0.1889316510457201 -1.005523874699039
4962000000.0 -0.17645219113336078 -1.035150484818231
4966000000.0 -0.1705901748754161 -1.087851381041405
4969000000.0 -0.20042050306536735 -1.0799244498902856
4972000000.0 -0.20276603805053858 -1.0069295769720685
4975000000.0 -0.18461816703052533 -1.004973575015735
4978000000.0 -0.23372909202940595 -0.99447397710111
4981000000.0 -0.24121891612985122 -1.0280238536399053
4984000000.0 -0.2252114676224977 -0.9750408950280495
4988000000.0 -0.24233820865989758 -1.0071938223487114
4991000000.0 -0.21107377255085163 -1.0189434372351418
4994000000.0 -0.2456193910639471 -0.977288699256132
4997000000.0 -0.29614203347070395 -0.9808733903598862
5000000000.0 -0.25937347317301396 -1.0632301104044117
5003000000.0 -0.2874542101358151 -1.035579809299183
5006000000.0 -0.3173188371835407 -1.0316888385468201
5009000000.0 -0.2984165699000839 -0.9916996787854618
5012000000.0 -0.31797414658214235 -1.0309668379570478
5016000000.0 -0.2807511579675162 -1.0192021374617268
5019000000.0 -0.3461303879743781 -1.0083306532990326
5022000000.0 -0.3221999405668724 -1.0107059011262791
5025000000.0 -0.35365754483736395 -1.0498701324697166
5028000000.0 -0.39184485839235605 -0.9799499441998538
5031000000.0 -0.36083441165849106 -0.9736293447574419
5034000000.0 -0.39812793370539235 -1.0067905288786272
5038000000.0 -0.36441394641905367 -0.932139744521965
5041000000.0 -0.34634419508952663 -0.9766273640760029
5044000000.0 -0.39641503838118286 -0.9437858390223067
5047000000.0 -0.3799627701944764 -0.9783714030014673
5050000000.0 -0.33803665161118557 -1.0046008510995394
5053000000.0 -0.43641800712121726 -0.9952251121166782
5056000000.0 -0.38138687880807876 -0.9799763927589464
5059000000.0 -0.38519431236604834 -0.9812264999517725
5062000000.0 -0.47136823818227536 -0.9260836060514879
5066000000.0 -0.3905158477167252 -0.9842466419863254
5069000000.0 -0.4192562228092328 -0.9537579380132982
5072000000.0 -0.4228937474520835 -0.9100036233357838
5075000000.0 -0.42700523354708153 -0.9404891607095158
5078000000.0 -0.5143157991009217 -0.9231435817785554
5081000000.0 -0.49681858076983904 -0.885100603293408
5084000000.0 -0.48973770374657255 -0.9660733178530303
5088000000.0 -0.4568530858402877 -0.9319645844611575
5091000000.0 -0.552078028962167 -0.8925998775528428
5094000000.0 -0.5677442861896119 -0.9024429415701961
5097000000.0 -0.47930559890818236 -0.8676894740057246
5100000000.0 -0.5030504893812443 -0.925320640624186
5103000000.0 -0.524794236595293 -0.8692968019518924
5106000000.0 -0.5999788550856405 -0.9494501451086572
5109000000.0 -0.5171449274561254 -0.87580688842765
5112000000.0 -0.5729818437547413 -0.8874039529964557
5116000000.0 -0.4926006011870151 -0.8617394437890407
5119000000.0 -0.5493973528089771 -0.909712390469307
5122000000.0 -0.5585074449533904 -0.87301721732792
5125000000.0 -0.5487957358315101 -0.8552135752417349
5128000000.0 -0.5773883509892467 -0.8806880891905662
5131000000.0 -0.5782911343175422 -0.854410035857832
5134000000.0 -0.5739598037684532 -0.8696164408939211
5138000000.0 -0.5821310858551884 -0.8491895926553961
5141000000.0 -0.5602681465858188 -0.886006287769705
5144000000.0 -0.5928809206635242 -0.8608800471315804
5147000000.0 -0.6227770191582294 -0.8110340707266844
5150000000.0 -0.6325960361595113 -0.8679911543013286
5153000000.0 -0.6732287573099731 -0.8165268188351344
5156000000.0 -0.610160212191214 -0.8524250588127265
5159000000.0 -0.6938059189844289 -0.8733247836665036
5162000000.0 -0.6691646419891243 -0.8043254974386164
5166000000.0 -0.6829571607875734 -0.8260159759093632
5169000000.0 -0.6559388917535128 -0.8250774012988112
5172000000.0 -0.6572456770593635 -0.7797656706759242
5175000000.0 -0.6882756377009268 -0.8568833707135965
5178000000.0 -0.7089560261946437 -0.8048121036587368
5181000000.0 -0.7021435573729431 -0.8190767415991836
5184000000.0 -0.6820293577195932 -0.7796576935456964
5188000000.0 -0.7293526718425309 -0.7454151334804644
