! Created with skrf 1.8.0 (http://scikit-rf.org).
# Hz S RI R 50.0 
!freq ReS11 ImS11
4000000000.0 0.6585164605993459 0.7766871323430034
4003000000.0 0.7586087277055075 0.7616970722562443
4006000000.0 0.7284747439869993 0.7274162346844292
4009000000.0 0.6884191209801586 0.7640837121204839
4012000000.0 0.6763432472394532 0.7931352152857472
4016000000.0 0.6981396294016913 0.7327468097509073
4019000000.0 0.7436230832970676 0.7152499417454276
4022000000.0 0.661447830837931 0.7725664440269888
4025000000.0 0.7938201884029503 0.6786461193224151
4028000000.0 0.7569865256369697 0.7294497188644051
4031000000.0 0.7182276709385992 0.6854372098546598
4034000000.0 0.7385141626087566 0.6750990899854257
4038000000.0 0.7543400943056069 0.6830862149272676
4041000000.0 0.7462523549318586 0.6723710090102752
4044000000.0 0.8412372574312031 0.7318209804126902
4047000000.0 0.8152666116574101 0.6995240290064502
4050000000.0 0.8225741524377103 0.6523529923817404
4053000000.0 0.8282663990542339 0.6197081288760771
4056000000.0 0.800034508253191 0.661911145605678
4059000000.0 0.7909068861104285 0.6172437414157124
4062000000.0 0.8058092234733554 0.6128823670454013
4066000000.0 0.7577144333826098 0.5710404104168223
4069000000.0 0.8270116139670618 0.6058668977106192
4072000000.0 0.7668464029822181 0.6475080097846695
4075000000.0 0.80808302789927 0.5984375838661924
4078000000.0 0.8670418443859988 0.5741409412354022
4081000000.0 0.8403212173216833 0.6294495157819209
4084000000.0 0.8647122871497839 0.5496444577058779
4088000000.0 0.8236970995295191 0.5752253695753157
4091000000.0 0.9174415565709179 0.6194142221126631
4094000000.0 0.845817488707673 0.5420815865150732
4097000000.0 0.8721927616909525 0.5391348504572424
4100000000.0 0.8480036932221569 0.5494777225400906
4103000000.0 0.8531448894614673 0.5618390408578324
4106000000.0 0.9155151279033903 0.5632875779815295
4109000000.0 0.9285186629065949 0.5051929805607871
4112000000.0 0.8899858720902318 0.4967994405942983
4116000000.0 0.888673713357815 0.523252316874405
4119000000.0 0.8822270802475222 0.5119831266365529
4122000000.0 0.8850299326389511 0.4437206872803393
4125000000.0 0.8866925203024629 0.47508706560567254
4128000000.0 0.866686973309705 0.5246808735907732
4131000000.0 0.9077998428600207 0.47699600422138266
4134000000.0 0.8900395497537592 0.48069341493074946
4138000000.0 0.8929813062671736 0.4427317433353211
4141000000.0 0.9325905462288855 0.441542615626761
4144000000.0 0.9294738756629773 0.47679422089960294
4147000000.0 0.9284489455413706 0.4238324773667484
4150000000.0 0.969318589148104 0.4283445184436206
4153000000.0 0.9109353852537088 0.398546069511315
4156000000.0 0.9448273087576691 0.43511098536636095
4159000000.0 0.9046053416242221 0.43237516102539825
4162000000.0 0.9179126975834127 0.3958587869456477
4166000000.0 0.9777561950901847 0.3772001691187148
4169000000.0 0.9624582098720672 0.3592045564940992
4172000000.0 0.9551763939742456 0.394424447872653
4175000000.0 0.9622171125388943 0.4034864010689376
4178000000.0 0.9548339455622579 0.3865029191257511
4181000000.0 0.9632838382272546 0.34361180558405136
4184000000.0 0.9533421982877217 0.3413728627981633
4188000000.0 0.9546633249287269 0.33072764770090735
4191000000.0 0.9492867265914431 0.3602091268829983
4194000000.0 0.9439306677834909 0.30002024196611043
4197000000.0 0.968842229875027 0.290959256377236
4200000000.0 0.9634682432314101 0.3279953342910076
4203000000.0 0.9956400801671281 0.30559450216428574
4206000000.0 1.0046517624284776 0.29831183424230895
4209000000.0 0.9683147841102993 0.26856903961598716
4212000000.0 0.9986831527289345 0.2322848418730426
4216000000.0 0.9678556771996233 0.2703887364466015
4219000000.0 1.0056996378475624 0.25615160127838066
4222000000.0 0.9805325187358125 0.23211695704837132
4225000000.0 0.9681586606998318 0.2308069200512308
4228000000.0 0.9949898681604246 0.21193217236342984
4231000000.0 0.9923591666632529 0.2265671802594354
4234000000.0 0.9918629137142555 0.19814183255175272
4238000000.0 0.9975954341522344 0.17537824107013558
4241000000.0 0.9853330510698166 0.18893548300798158
4244000000.0 0.9910997785191437 0.19350160538652716
4247000000.0 0.9890972620386198 0.17584263686908386
4250000000.0 0.9775788049882488 0.1595675872572785
4253000000.0 0.9642543903247036 0.14224583012608205
4256000000.0 1.0400229219143906 0.1369648385835413
4259000000.0 0.9752776199521401 0.13084670171470358
4262000000.0 0.9966909766079926 0.11434063824345789
4266000000.0 1.0295594738213596 0.0963793898345647
4269000000.0 1.0047660837325059 0.11843884447841377
4272000000.0 1.0176894021315956 0.09485996675378311
4275000000.0 0.9994889162647336 0.10097721761445538
4278000000.0 1.0406161049054288 0.0795419242764514
4281000000.0 1.0119651189945205 0.05900568926749518
4284000000.0 1.0239517760587455 0.03524962665933998
4288000000.0 1.006237947149755 0.07931834507712884
4291000000.0 0.9914909356704609 0.042493251816989444
4294000000.0 1.013447230419057 0.028414628446333468
4297000000.0 0.98190688507097 0.04964029850008954
4300000000.0 0.9816472619755545 0.017088174265649604
4303000000.0 0.9956729992497205 -0.008091143030362666
4306000000.0 1.0404335464273435 0.034248334993102744
4309000000.0 0.9650481566420183 0.014322073674499447
4312000000.0 1.039090590909152 0.024014495308864806
4316000000.0 0.990535647509827 -0.016670778487824015
4319000000.0 0.9846158639897272 -0.010944457325333501
4322000000.0 0.9751389778382851 -0.07213126950023901
4325000000.0 1.0001356156719294 -0.04145284945815114
4328000000.0 0.9874305359163871 -0.05941731421252323
4331000000.0 1.0124907071996414 -0.09422057895780131
4334000000.0 1.0229454648156335 -0.0757654872252022
4338000000.0 1.0062303213875232 -0.05336612754068053
4341000000.0 1.037654688643731 -0.0690674881343259
4344000000.0 1.0264946786700824 -0.0939587563591873
4347000000.0 1.0143993151319113 -0.14658356734015535
4350000000.0 0.9622628025066585 -0.13016401305331332
4353000000.0 0.9895722279476105 -0.11374738073160809
4356000000.0 0.9720781168344514 -0.14662787416610706
4359000000.0 0.9655214621530416 -0.14989236734833677
4362000000.0 0.9971466810567879 -0.20772757744035045
4366000000.0 1.0145248941519998 -0.17276247568001057
4369000000.0 0.9571495957274551 -0.1849214820439759
4372000000.0 0.975971152256581 -0.2132201097149456
4375000000.0 0.9846900092115931 -0.18297694063944075
4378000000.0 0.9814203965233118 -0.18755025721974225
4381000000.0 0.9691393867368283 -0.20166316071053483
4384000000.0 1.041489495315578 -0.23941006220198782
4388000000.0 0.9752393638429468 -0.2253870745847508
4391000000.0 0.9812742543929758 -0.24205623430922468
4394000000.0 0.9555664552598347 -0.23854072576541424
4397000000.0 0.9829220831545737 -0.2562569170389737
4400000000.0 1.0030914347006612 -0.2661608799017727
4403000000.0 0.9780447650068889 -0.2740772703585699
4406000000.0 0.9715361194246777 -0.2996619561949025
4409000000.0 0.9976042167592689 -0.308023288465711
4412000000.0 0.940379708740836 -0.348769616969532
4416000000.0 0.9413149555684441 -0.3114893188541304
4419000000.0 0.9462640373176914 -0.3391585864080525
4422000000.0 0.9458688669666215 -0.3026689637565328
4425000000.0 0.9744608126602551 -0.3014889131412212
4428000000.0 0.9384769388193234 -0.3452103659904146
4431000000.0 0.9679526588350207 -0.357188995608831
4434000000.0 0.9216793212363688 -0.3636155507842398
4438000000.0 0.9577794517483242 -0.3750554292009869
4441000000.0 0.9472171348457532 -0.3706925878361875
4444000000.0 0.9197695571915208 -0.381017757241893
4447000000.0 0.9225149795590462 -0.4062344409940754
4450000000.0 0.9287359179572277 -0.3859812492282265
4453000000.0 0.9383373843647862 -0.41423578205380585
4456000000.0 0.8910982394527247 -0.4144137179595808
4459000000.0 0.8617465991696036 -0.4127249321039488
4462000000.0 0.9826756494479616 -0.45683549044548866
4466000000.0 0.9200633911794001 -0.4844492165799634
4469000000.0 0.9004372130760782 -0.4443434840962308
4472000000.0 0.9036147707386412 -0.49066930348264176
4475000000.0 0.8746696754242476 -0.4464818317726025
4478000000.0 0.9080515376669447 -0.5062987050101789
4481000000.0 0.8556191327985218 -0.4858811574567878
4484000000.0 0.8501148660513271 -0.5293802886348108
4488000000.0 0.8514292718711933 -0.5180916722980875
4491000000.0 0.8802478042157101 -0.5175343387133999
4494000000.0 0.8657969502218725 -0.5133749507861947
4497000000.0 0.8659526407061273 -0.5017051594338456
4500000000.0 0.8500403380231065 -0.5214415820769304
4503000000.0 0.8753561557995044 -0.5487155521083102
4506000000.0 0.8225371508733463 -0.5388577023570702
4509000000.0 0.816248743625354 -0.557143926460648
4512000000.0 0.8218304186637131 -0.558503346960276
4516000000.0 0.846373470907485 -0.5727866309984827
4519000000.0 0.8121127899052686 -0.5854818645041886
4522000000.0 0.8123428633614016 -0.594333101988432
4525000000.0 0.8305750794012492 -0.5401826151587965
4528000000.0 0.8294644548584549 -0.6296174655016398
4531000000.0 0.8168741467241823 -0.5926683114045711
4534000000.0 0.7814936711655144 -0.6225352228934408
4538000000.0 0.7951240239437369 -0.619151671664258
4541000000.0 0.7567397113299088 -0.6295264664480481
4544000000.0 0.7797528525585158 -0.630646378577037
4547000000.0 0.7780648645547087 -0.6307009602407321
4550000000.0 0.7524786685548666 -0.6642317793496003
4553000000.0 0.7616665114465968 -0.6763293963966496
4556000000.0 0.731551283266417 -0.64531002222924
4559000000.0 0.7361557733466705 -0.6898147458664683
4562000000.0 0.7621604668137154 -0.6789377019916122
4566000000.0 0.7361674701612939 -0.6890570222055314
4569000000.0 0.7132626494599441 -0.6828863837195225
4572000000.0 0.7162861134651092 -0.6997210133948942
4575000000.0 0.7143241244262379 -0.7328917812287853
4578000000.0 0.7537338350949836 -0.7182477552188273
4581000000.0 0.7008384238262987 -0.7282394858852572
4584000000.0 0.6876346286615791 -0.7279758401667217
4588000000.0 0.7028722418973218 -0.7477135395458991
4591000000.0 0.7187728325281442 -0.7165318193961506
4594000000.0 0.6581861414291158 -0.7614594247762058
4597000000.0 0.6621834193554008 -0.7763006038365172
4600000000.0 0.6433455594377109 -0.769582037777417
4603000000.0 0.6574973813283855 -0.7673424017968286
4606000000.0 0.6603234292334452 -0.7785398531624491
4609000000.0 0.6413130930921574 -0.7783798824581979
4612000000.0 0.633635262752755 -0.7878079008033779
4616000000.0 0.6210773844675004 -0.7758679481622254
4619000000.0 0.6182460605498213 -0.8014542168456434
4622000000.0 0.6093266264628593 -0.7891351183783463
4625000000.0 0.5785568745272995 -0.8039493776362144
4628000000.0 0.6126076171439644 -0.8029979514340552
4631000000.0 0.582005007492014 -0.810388881398878
4634000000.0 0.5702828601898535 -0.8391594208191463
4638000000.0 0.5774550265117634 -0.8234629574237419
4641000000.0 0.5749267838655675 -0.8340507326607413
4644000000.0 0.5513979883961584 -0.8491491830011545
4647000000.0 0.5675159322183075 -0.8506386900794696
4650000000.0 0.5451698416030724 -0.8387332080512492
4653000000.0 0.5697639426079693 -0.8612876360478665
4656000000.0 0.5195913223306594 -0.869834436447837
4659000000.0 0.5122434554065076 -0.8621743690271615
4662000000.0 0.50586692146826 -0.8711745204765275
4666000000.0 0.49021335348798395 -0.875444172918364
4669000000.0 0.5074176237166916 -0.8881929395540814
4672000000.0 0.4707817084552343 -0.9101346877501099
4675000000.0 0.46798645411127354 -0.9170847018014548
4678000000.0 0.46816106154393466 -0.8740285141495685
4681000000.0 0.4455512314963919 -0.9233617902253949
4684000000.0 0.4433357729944956 -0.9386184204483365
4688000000.0 0.41675830246728574 -0.8975794140897864
4691000000.0 0.4487125310944228 -0.9084420332333896
4694000000.0 0.4246476543520675 -0.8904261746246798
4697000000.0 0.4207612918741277 -0.8777112664956404
4700000000.0 0.3924506247877929 -0.9128170520931618
4703000000.0 0.43379396672750176 -0.8985013338585921
4706000000.0 0.3945031472309856 -0.9531428210649868
4709000000.0 0.38360664364669256 -0.9447984198385507
4712000000.0 0.3712716708958829 -0.9282233234094224
4716000000.0 0.38381044785511537 -0.9696915122440428
4719000000.0 0.39969298305656575 -0.9287565298164483
4722000000.0 0.3781906651630563 -0.9378333685529441
4725000000.0 0.35899588174946984 -0.949035461738726
4728000000.0 0.3336158510799794 -0.9654233735476001
4731000000.0 0.3174266343790291 -0.981740319273912
4734000000.0 0.33685370792604724 -0.960198798620317
4738000000.0 0.3670291864504062 -0.9797737355817834
4741000000.0 0.29678762185336194 -1.001286999530008
4744000000.0 0.29285394386067365 -0.9800626289110059
4747000000.0 0.3063393874292869 -0.949372296622082
4750000000.0 0.3032576806555624 -1.0014359311130763
4753000000.0 0.2798705990229853 -0.9468983091086842
4756000000.0 0.2615400409941138 -0.9746564691632364
4759000000.0 0.2824607649659204 -0.9825040910591585
4762000000.0 0.21898631876554076 -1.0140261577735974
4766000000.0 0.2129931694469433 -1.0153831906227884
4769000000.0 0.24658214330938438 -1.0060739058868857
4772000000.0 0.23799225928246648 -0.9882221509841341
4775000000.0 0.21021519217660056 -1.0138457321296015
4778000000.0 0.19890871893991344 -1.0059589064961016
4781000000.0 0.21144605776351205 -0.9924752152837555
4784000000.0 0.20831044073811275 -1.0042704818332755
4788000000.0 0.14597405001445413 -1.0187532317399317
4791000000.0 0.16254692533625562 -1.0066762537138858
4794000000.0 0.19958782834540267 -1.0527952808815952
4797000000.0 0.14183263648943914 -0.9768506829030436
4800000000.0 0.13831873784933896 -1.002888546550353
4803000000.0 0.07811705712835161 -0.9908233065804204
4806000000.0 0.12429659647900854 -1.0369329357351824
4809000000.0 0.10414567959821386 -1.0351493561840022
4812000000.0 0.041598856819314745 -0.9987738665535701
4816000000.0 0.120443878226453 -0.9771258654552486
4819000000.0 0.10157130407703183 -1.0461619982762038
4822000000.0 0.11304291219564627 -1.0450678047926882
4825000000.0 0.08952697923775016 -1.0395684146584208
4828000000.0 0.06777564294074505 -1.0089702077920335
4831000000.0 0.020365479733226693 -1.0527539367533032
4834000000.0 0.06042062747307614 -1.0220176758728077
4838000000.0 0.027572171888047503 -1.0456274443019564
4841000000.0 0.02357541359230221 -0.9979829566223276
4844000000.0 0.042777600807077 -1.0475087730002168
4847000000.0 0.03274717089949472 -1.0007127065186836
4850000000.0 -0.012557441792130239 -1.045912656089973
4853000000.0 -0.00938458083876953 -0.9887430700862392
4856000000.0 -0.011038994594084375 -1.006054489907044
4859000000.0 -0.02448527921111033 -1.0637549664080823
4862000000.0 -0.00501125150944632 -1.0076933665133267
4866000000.0 -0.052980319279356654 -1.027081207338698
4869000000.0 -0.045543363892814145 -1.0362702427190909
4872000000.0 -0.09392072136989565 -1.03450742349693
4875000000.0 -0.003452990147574206 -1.0608032472054663
4878000000.0 -0.05895970698272535 -1.0366725704868216
4881000000.0 -0.133375440286638 -1.0607768308007277
4884000000.0 -0.07014877541612957 -1.0335340251074525
4888000000.0 -0.06583671192397425 -1.0175385326811353
4891000000.0 -0.08435384644384038 -1.0479268808327284
4894000000.0 -0.14418251469631405 -1.0053385592352517
4897000000.0 -0.10316790212399687 -1.033433446439817
4900000000.0 -0.14153632570195168 -1.0567158914075545
4903000000.0 -0.12909387893732469 -1.0315019629655717
4906000000.0 -0.16811293046352732 -1.062140409667113
4909000000.0 -0.22753426262872958 -1.000706306130792
4912000000.0 -0.19153135858799536 -1.037566778167548
4916000000.0 -0.1777452723657321 -1.0291060920770203
4919000000.0 -0.17188584936110501 -1.0292844346196093
4922000000.0 -0.16458370522159083 -1.0152641234822242
4925000000.0 -0.22304561250202978 -0.9826988379918458
4928000000.0 -0.1710647320814916 -0.9799313802569479
4931000000.0 -0.19460966021909815 -1.027188220138888
4934000000.0 -0.20030993934247526 -0.9471365159383252
4938000000.0 -0.2747354557952058 -0.9847442512961091
4941000000.0 -0.27995340738558755 -1.0065599436611583
4944000000.0 -0.26061286684350926 -0.9202740120990593
4947000000.0 -0.2620882438303497 -0.9962261081420264
4950000000.0 -0.3047099410956011 -0.9984568459710169
4953000000.0 -0.32754345920351985 -0.998187833485959
4956000000.0 -0.31722660320595103 -0.9787737847942204
4959000000.0 -0.33283001388170286 -0.9502934984066262
4962000000.0 -0.3335509858815545 -0.9942529352460939
4966000000.0 -0.30730914705525103 -0.9779191997962439
4969000000.0 -0.3161268109847211 -1.015311962581546
4972000000.0 -0.334843663926335 -1.0059911305190046
4975000000.0 -0.3219308521634754 -0.9843664221950494
4978000000.0 -0.3244829267415732 -0.9790677569945865
4981000000.0 -0.38643319227250106 -0.9696210311454332
4984000000.0 -0.3559303106662113 -0.9629246361654795
4988000000.0 -0.33424920154452803 -0.9598447685897591
4991000000.0 -0.3400702625175041 -1.0038324503204676
4994000000.0 -0.3591391285451391 -0.9705829283962231
4997000000.0 -0.41712230109281917 -0.933111360309798
5000000000.0 -0.39605080667750514 -0.9818763914452622
5003000000.0 -0.416656942999534 -0.9732952002504894
5006000000.0 -0.45393076004889754 -0.9744253863169681
5009000000.0 -0.43392581531255847 -0.9578771109425502
5012000000.0 -0.4539069570419976 -0.9541071803055601
5016000000.0 -0.41424323811652514 -0.9907648217009541
5019000000.0 -0.4570471340361585 -0.932487691667584
5022000000.0 -0.4709158201541185 -0.9132268512215258
5025000000.0 -0.4744345267404814 -0.9804503904619299
5028000000.0 -0.5286329490675737 -0.9120680573195994
5031000000.0 -0.5043446660871933 -0.935958077457267
5034000000.0 -0.5010835299815969 -0.9102322244496261
5038000000.0 -0.5261887420369541 -0.8851938815561475
5041000000.0 -0.4725917814032129 -0.9265508630634681
5044000000.0 -0.4596167944305708 -0.8672829138884952
5047000000.0 -0.5285045989478114 -0.9133097799835491
5050000000.0 -0.49226252616201016 -0.9277688390443604
5053000000.0 -0.5640896490458808 -0.9296157529463949
5056000000.0 -0.5168258579956494 -0.8820968309034958
5059000000.0 -0.47755775500471126 -0.9154013411200531
5062000000.0 -0.5884030922115169 -0.8659530214993749
5066000000.0 -0.5398230110919687 -0.9126764261044733
5069000000.0 -0.5891651401110554 -0.8821986383143149
5072000000.0 -0.5781802266604744 -0.8771550304186813
5075000000.0 -0.5874182234960892 -0.8669954993890954
5078000000.0 -0.6298294119084002 -0.839721025813047
5081000000.0 -0.5629735774583137 -0.8125448835284715
5084000000.0 -0.6342466064088017 -0.8468104144119477
5088000000.0 -0.6031978498046804 -0.8404249229769181
5091000000.0 -0.6450352212193882 -0.8287440637306638
5094000000.0 -0.6551552153766991 -0.7657813228158915
5097000000.0 -0.5757671896517704 -0.8072560007282756
5100000000.0 -0.6134245903023207 -0.8208202722185213
5103000000.0 -0.66181256660393 -0.7959598792515236
5106000000.0 -0.6562453042969962 -0.852430532219822
5109000000.0 -0.6284654639551112 -0.8231538656998235
5112000000.0 -0.6758015648246212 -0.8084722534526514
5116000000.0 -0.6554810630057187 -0.75099817630001
5119000000.0 -0.7141635976965262 -0.7950978119111631
5122000000.0 -0.6889732387880492 -0.7406762848487818
5125000000.0 -0.663264300157584 -0.7736865126675487
5128000000.0 -0.7118669668049252 -0.7721780546587202
5131000000.0 -0.6600404674707918 -0.7472576888562071
5134000000.0 -0.705810801952731 -0.7516561284838513
5138000000.0 -0.7108395469186433 -0.7905551462799697
5141000000.0 -0.6999523172592532 -0.8171590626324017
5144000000.0 -0.7042568264687316 -0.7705229699494186
5147000000.0 -0.7260584468508962 -0.7624606305152484
5150000000.0 -0.7680539052534057 -0.8027207949936764
5153000000.0 -0.7374417737325383 -0.724906969676913
5156000000.0 -0.7490813567493847 -0.6778539627102658
5159000000.0 -0.7780811917238923 -0.7189364087495372
5162000000.0 -0.7542970311846088 -0.666378313913551
5166000000.0 -0.7687998892221959 -0.7367765893214889
5169000000.0 -0.7727754260899853 -0.6913842420070022
5172000000.0 -0.7605625177145676 -0.6843859902205404
5175000000.0 -0.8339618248287411 -0.6575261730146067
5178000000.0 -0.7953401505912086 -0.67339451913428
5181000000.0 -0.8268415956290107 -0.6872973276980738
5184000000.0 -0.8139618072573062 -0.631219859208764
5188000000.0 -0.8483316027891014 -0.6555838518571228
