! Created with skrf 1.8.0 (http://scikit-rf.org).
# Hz S RI R 50.0 
!freq ReS11 ImS11
4000000000.0 0.9975502310142453 -0.15634753556919306
4003000000.0 0.9839645029043342 -0.2138808635414003
4006000000.0 1.013641767880245 -0.2219045873390113
4009000000.0 0.9805306222421153 -0.23757086286946844
4012000000.0 1.0120085806589036 -0.2624981720635212
4016000000.0 0.9904973902880341 -0.2438762488498975
4019000000.0 0.9700899335269073 -0.23952881984919014
4022000000.0 0.9915354870845016 -0.32962802437072347
4025000000.0 0.9825128887711675 -0.2773839989800849
4028000000.0 0.945744850501152 -0.3338361418585327
4031000000.0 0.9550094310875209 -0.33870696551950125
4034000000.0 0.9094009803046414 -0.3821657584272291
4038000000.0 0.9089035677297495 -0.3743579977483981
4041000000.0 0.9096239106531906 -0.4125302948126728
4044000000.0 0.9142732367304849 -0.4460582247827523
4047000000.0 0.9260792218087037 -0.5071150390741161
4050000000.0 0.8828006685871217 -0.4348588624916224
4053000000.0 0.910734274610256 -0.4613439459052145
4056000000.0 0.8839468694269471 -0.48308024573662933
4059000000.0 0.8373302003680727 -0.5374069220011006
4062000000.0 0.8720539128336642 -0.5066356508351297
4066000000.0 0.8807695157753626 -0.5483615257473888
4069000000.0 0.8264639920427336 -0.5788133463225997
4072000000.0 0.8036038524478395 -0.6124917389544333
4075000000.0 0.7798510784479786 -0.6241775699567803
4078000000.0 0.7984299476729821 -0.6382877636957306
4081000000.0 0.6876504479289415 -0.6789565673794022
4084000000.0 0.7525554472530109 -0.668168397746943
4088000000.0 0.7254698459852338 -0.697324196840349
4091000000.0 0.7067479698292712 -0.6607585363107973
4094000000.0 0.6813184162781102 -0.7193948712142417
4097000000.0 0.6615251637131421 -0.7468238642581662
4100000000.0 0.6494382648761611 -0.7305431230755075
4103000000.0 0.6467343461169883 -0.7750989693935169
4106000000.0 0.6226674623004411 -0.8134934273721282
4109000000.0 0.6397505169506399 -0.7927137378798894
4112000000.0 0.576499994029722 -0.8326100973083275
4116000000.0 0.5415401146349614 -0.853746959579801
4119000000.0 0.5681367976371302 -0.8465187076393406
4122000000.0 0.47129948586810355 -0.8585237730802027
4125000000.0 0.4904713405319779 -0.8407121436636238
4128000000.0 0.46384745872335154 -0.8726090563095863
4131000000.0 0.42764866603457974 -0.9044968723222858
4134000000.0 0.4137262765951212 -0.9073135683228335
4138000000.0 0.3872825862399276 -0.9365117024075336
4141000000.0 0.3969476006417979 -0.9315340984651828
4144000000.0 0.36313813716582033 -0.9492058626079585
4147000000.0 0.33497056019818283 -0.9998817536403377
4150000000.0 0.24389328150256562 -0.9700035700697685
4153000000.0 0.27676678549063627 -0.964440166592285
4156000000.0 0.23138312683731424 -0.9968121602572962
4159000000.0 0.16505347678300084 -0.985956449084626
4162000000.0 0.17090767218726263 -0.9946193870167451
4166000000.0 0.15689785415276647 -1.0190918043871466
4169000000.0 0.10291043967520977 -0.9830275826518671
4172000000.0 0.07425446723483212 -0.998821048252742
4175000000.0 0.05219870446141217 -1.0481787086331695
4178000000.0 0.02392681159314411 -1.0211716294478128
4181000000.0 -0.034290213293941246 -0.9931237645872247
4184000000.0 -0.04305938453512939 -0.9670286498828999
4188000000.0 -0.08112024203312024 -0.9964888590298117
4191000000.0 -0.1211184688117388 -1.019460420084334
4194000000.0 -0.15504758068756352 -1.032277948575861
4197000000.0 -0.18006850031787028 -1.006029048549389
4200000000.0 -0.1994898598588829 -1.0136030490317558
4203000000.0 -0.2455622382699688 -1.013586654615756
4206000000.0 -0.27678551838173626 -0.9705088521426539
4209000000.0 -0.33146744062734224 -0.9630069631632705
4212000000.0 -0.38125991109210344 -0.9677851608288458
4216000000.0 -0.3827308767908094 -0.9651611547287484
4219000000.0 -0.38578305728724105 -0.9435473835590538
4222000000.0 -0.39398936950442026 -0.9185013418360002
4225000000.0 -0.5133938618152798 -0.8978729272144628
4228000000.0 -0.5493999605718978 -0.8881941089907386
4231000000.0 -0.545015535836485 -0.8451376964671303
4234000000.0 -0.5497204799405727 -0.8697038576935443
4238000000.0 -0.6054953275298786 -0.8427432916919523
4241000000.0 -0.6168377805558791 -0.8064414429819018
4244000000.0 -0.629193576897333 -0.7686201751620781
4247000000.0 -0.6986175775467722 -0.8070169149165938
4250000000.0 -0.6985033529800022 -0.7805359463383282
4253000000.0 -0.7373955635874272 -0.7293750084708173
4256000000.0 -0.7399608361280621 -0.6403176241583777
4259000000.0 -0.7962446994294359 -0.6512834644380152
4262000000.0 -0.8294328283296306 -0.6356796769075801
4266000000.0 -0.8175850378000135 -0.6096271300117903
4269000000.0 -0.868445008321593 -0.5643963717905687
4272000000.0 -0.8397318120408459 -0.484131962127686
4275000000.0 -0.9217090248554978 -0.5129366313359016
4278000000.0 -0.8703040312556549 -0.4555763918090309
4281000000.0 -0.9313368452403069 -0.40356618480692
4284000000.0 -0.9512250838183451 -0.44055925615949953
4288000000.0 -0.9856186806683597 -0.3370849170041542
4291000000.0 -1.037335332673102 -0.37755090711419587
4294000000.0 -1.00939382226988 -0.33046231204719295
4297000000.0 -1.0180051516559627 -0.23411966271881418
4300000000.0 -1.0718819906419943 -0.22400887851856469
4303000000.0 -1.040540055582579 -0.2450523161386144
4306000000.0 -1.0651670516562337 -0.10877319523963419
4309000000.0 -1.0478481238007546 -0.07442555053980589
4312000000.0 -1.0331332068549652 -0.027647393063299323
4316000000.0 -1.0030124027804281 -0.014411207447952198
4319000000.0 -1.065263839593014 -0.01816564303924592
4322000000.0 -1.047615758252604 0.07308036587950408
4325000000.0 -1.0104195783923158 0.06178308683592222
4328000000.0 -1.031889181856177 0.16582739642485722
4331000000.0 -1.020069106305835 0.16487592666111675
4334000000.0 -1.0542661790753278 0.16248732387383744
4338000000.0 -0.9894582205378438 0.22793107756841663
4341000000.0 -0.9747792421632194 0.24706933736215805
4344000000.0 -0.986074075023517 0.2846650815751026
4347000000.0 -1.0041483000143212 0.24455703814125684
4350000000.0 -0.9741428028366563 0.4124092622423244
4353000000.0 -0.9528869453024957 0.41997017971687955
4356000000.0 -1.0057162966362911 0.37615714075379303
4359000000.0 -0.9893868029355511 0.5103691670676289
4362000000.0 -0.926083430403082 0.3839178803773169
4366000000.0 -0.8778855808414106 0.5261860696565871
4369000000.0 -0.9221100994908001 0.5880681521651209
4372000000.0 -0.8403770591810094 0.5613606364906253
4375000000.0 -0.7861969607194914 0.6135092885710887
4378000000.0 -0.9605826666834834 0.7128134677880268
4381000000.0 -0.8860593261475482 0.67493314067149
4384000000.0 -0.7263103303016684 0.6271422304750385
4388000000.0 -0.7790085613122154 0.704963928203405
4391000000.0 -0.6930151732574392 0.7380415140712971
4394000000.0 -0.7448310602207993 0.7497440264415092
4397000000.0 -0.7224878583038243 0.7792070059587268
4400000000.0 -0.6939852739666834 0.78873253364574
4403000000.0 -0.7371433739453724 0.7574671675111234
4406000000.0 -0.6177907340955495 0.8515167829788428
4409000000.0 -0.5549538811297745 0.8149642618005981
4412000000.0 -0.6285481075729068 0.8330696635511705
4416000000.0 -0.5792720084136009 0.8451706674625411
4419000000.0 -0.5684444096765926 0.8431887646024834
4422000000.0 -0.502227771064566 0.9211350116892163
4425000000.0 -0.47184658130657176 0.9308263626215972
4428000000.0 -0.4386020193026676 0.9439661057589689
4431000000.0 -0.4189678690785195 0.9041172229716418
4434000000.0 -0.43609737080398403 1.0072466749155686
4438000000.0 -0.33553210583836074 0.9290343940790915
4441000000.0 -0.3308479789579744 0.9488191927916965
4444000000.0 -0.34469268081324017 1.0111343075096662
4447000000.0 -0.33481549156716905 0.9804788303784437
4450000000.0 -0.23247792322524558 1.004474582630028
4453000000.0 -0.22544235044184424 0.9625836288961147
4456000000.0 -0.20692060546700902 1.0032756203237663
4459000000.0 -0.19010378502929498 1.0770113729308872
4462000000.0 -0.12252295547353742 1.0558910777054908
4466000000.0 -0.1643639455731759 1.0437352257007033
4469000000.0 -0.09138385894824963 1.040625577957462
4472000000.0 -0.05091022958780961 1.0129268683052022
4475000000.0 -0.001203047237376631 1.0536864814427989
4478000000.0 -0.017505457561644178 1.0382776287621835
4481000000.0 -0.02489354156177992 1.0478215537649795
4484000000.0 0.033559820487157055 1.0180316514333678
4488000000.0 0.07159948426189322 1.041497858759728
4491000000.0 0.0750936598763921 1.0536329142157543
4494000000.0 0.08735026727610662 1.0338943549252702
4497000000.0 0.12393248592276235 1.041951401526612
4500000000.0 0.12381573507971938 1.0008033492364425
4503000000.0 0.16740317572800656 1.0398581070359398
4506000000.0 0.18755023198581758 1.0202518203260214
4509000000.0 0.24597139543476898 0.9981699071639211
4512000000.0 0.21347708920633052 0.9769210468165306
4516000000.0 0.24380675144447547 0.99435735892071
4519000000.0 0.26374050454081666 0.9749536879955655
4522000000.0 0.31092266313292904 0.9784134767554481
4525000000.0 0.3269369341934419 0.9802988018825841
4528000000.0 0.3560166151753823 0.9928676804732713
4531000000.0 0.37765713969898806 0.9368653320315307
4534000000.0 0.37892656539712755 0.9247309951399142
4538000000.0 0.3863711310472555 0.9256095012731769
4541000000.0 0.4280420484593007 0.9223710987726985
4544000000.0 0.43889503796583185 0.9117077806364918
4547000000.0 0.4330405857058477 0.9175181269022941
4550000000.0 0.5123535347668178 0.8878145536588438
4553000000.0 0.520365905526935 0.8906650257261818
4556000000.0 0.520587125077766 0.8452066407521067
4559000000.0 0.5572645451347501 0.8868008588276346
4562000000.0 0.5657424870984454 0.8659877026454362
4566000000.0 0.5699357997021335 0.8466541950005915
4569000000.0 0.5556951141873713 0.8205528374866351
4572000000.0 0.5844849939426219 0.8082801699173194
4575000000.0 0.6309194886427565 0.800263775953064
4578000000.0 0.6283180195061706 0.8373756637231751
4581000000.0 0.6877633101268171 0.7913464291560075
4584000000.0 0.6623765374564168 0.7482992534623552
4588000000.0 0.6751728691903633 0.7887897126009826
4591000000.0 0.6620576231541346 0.7439428865901583
4594000000.0 0.7051297985123851 0.730415089613291
4597000000.0 0.7478244618010375 0.7417879151989696
4600000000.0 0.7183820173070747 0.6528395813735043
4603000000.0 0.7684149000012435 0.7254775910314121
4606000000.0 0.7328296966489721 0.6937773025732198
4609000000.0 0.79813272921095 0.6563224993358501
4612000000.0 0.8243286713561971 0.7067019985065458
4616000000.0 0.7809767174821161 0.638028792488434
4619000000.0 0.8095666211501852 0.6725026491479066
4622000000.0 0.7721632478340321 0.6164902273758498
4625000000.0 0.7577792947877575 0.5605596059853684
4628000000.0 0.7639616549962794 0.595374889380851
4631000000.0 0.8247556740655237 0.5229907637910919
4634000000.0 0.8449980053855422 0.5729741468634064
4638000000.0 0.8552254727604381 0.5475657111363028
4641000000.0 0.892333281159304 0.5474378734632291
4644000000.0 0.8746881025085855 0.5140339975940383
4647000000.0 0.8763480231107129 0.4994402573470462
4650000000.0 0.9363542801439485 0.45555281432644834
4653000000.0 0.9240983418863862 0.46821132066165827
4656000000.0 0.9338492270647569 0.41904919652096956
4659000000.0 0.9144761720953102 0.4349982230439262
4662000000.0 0.8960521719415807 0.43014164243014386
4666000000.0 0.9086472861591451 0.4217235982480784
4669000000.0 0.93126353635881 0.40819077346171495
4672000000.0 0.9398817482915179 0.3390489812751485
4675000000.0 0.919591151754261 0.314075272935593
4678000000.0 0.9454729091276226 0.3446386694572723
4681000000.0 0.9971661044147944 0.29082911889349117
4684000000.0 0.9118243693982945 0.28202985535427016
4688000000.0 0.9621991967726946 0.3034586173559627
4691000000.0 0.9084550959584179 0.2721439646130295
4694000000.0 1.0053485683670325 0.25249819685252484
4697000000.0 1.007234910510397 0.2674224532861582
4700000000.0 1.0036731799042304 0.2535766867868231
4703000000.0 1.052785113011237 0.19510344323868434
4706000000.0 0.976811018801812 0.23009454174189936
4709000000.0 0.9885705564303852 0.17616436981711422
4712000000.0 0.9888501171673698 0.14624630921690565
4716000000.0 0.9978959689990716 0.17289016200158647
4719000000.0 1.0281177896138407 0.10747395743086106
4722000000.0 1.03639663846092 0.12761854522673213
4725000000.0 0.9923627664318064 0.08893290844124851
4728000000.0 0.9863836804749435 0.0716671734888599
4731000000.0 0.9853816987905055 0.07870838336396715
4734000000.0 1.0107491842603946 0.07197052744085035
4738000000.0 0.9915342305432882 0.033575510322848015
4741000000.0 0.9875850570998039 0.04322031802899962
4744000000.0 1.0241585354461331 -0.0073068155942763585
4747000000.0 1.0445048394326482 -0.00975209063761556
4750000000.0 0.9934015792072344 -0.02698749987098169
4753000000.0 1.0551810888093018 -0.07071997006989564
4756000000.0 0.9968871508697142 -0.06961322601883232
4759000000.0 1.004233724767533 -0.0856290184073955
4762000000.0 0.9771218522727604 -0.062482376337852176
4766000000.0 0.9822883366484487 -0.089842816909452
4769000000.0 1.0345048162144255 -0.09165274533966869
4772000000.0 1.0176539140184655 -0.1192428169545217
4775000000.0 0.9937746519131402 -0.13230349759950505
4778000000.0 0.9788107410478604 -0.11399616855147485
4781000000.0 1.0028179291168304 -0.15532281931088965
4784000000.0 1.0090393725432616 -0.134854723170116
4788000000.0 0.9857608449671976 -0.14431386113920125
4791000000.0 0.9972522292401539 -0.2084859324786052
4794000000.0 0.9829794535582497 -0.23012695473501016
4797000000.0 0.9992944770527292 -0.24339393466536258
4800000000.0 0.9813676694017559 -0.26172622559199316
4803000000.0 0.9481525159054249 -0.24987523543861606
4806000000.0 0.9866322349972224 -0.27313611620097955
4809000000.0 0.9639642752516633 -0.25055751951746585
4812000000.0 0.9737976154623289 -0.3072539745281411
4816000000.0 0.9659924000851039 -0.3101025773428437
4819000000.0 0.9843238745935983 -0.3225749740668141
4822000000.0 0.9744406475153714 -0.339233641576119
4825000000.0 0.9596690417737146 -0.34938617267095906
4828000000.0 0.9437844774424016 -0.36912423029402053
4831000000.0 0.9236866296854246 -0.3782924658509287
4834000000.0 0.9316223429443381 -0.394904501115364
4838000000.0 0.9561976770441514 -0.41397441869469376
4841000000.0 0.9162524439897052 -0.43408962619020797
4844000000.0 0.9383422928770608 -0.41254537369284083
4847000000.0 0.9102861073110318 -0.41864649315056224
4850000000.0 0.9076046453976527 -0.46872563398179895
4853000000.0 0.9097332115390744 -0.449109962646326
4856000000.0 0.9076805417732443 -0.4630789693686447
4859000000.0 0.9016471536463645 -0.4955159964139524
4862000000.0 0.8778976380041795 -0.4762214618497955
4866000000.0 0.8812470289505073 -0.5185864584431078
4869000000.0 0.8869586024556338 -0.5320543730516979
4872000000.0 0.87434021441127 -0.5489494355824186
4875000000.0 0.8991872885637756 -0.5408020066119523
4878000000.0 0.8638061791923427 -0.5671745143168223
4881000000.0 0.8411390523470126 -0.5709131926403624
4884000000.0 0.8598435643590405 -0.5592321463956296
4888000000.0 0.8526474679975545 -0.5615136067475882
4891000000.0 0.8383857792089636 -0.5867785164552893
4894000000.0 0.8109733065357062 -0.6146765564061218
4897000000.0 0.8185278010940639 -0.5902873209913854
4900000000.0 0.8069526416310818 -0.6310281450099674
4903000000.0 0.823863648214794 -0.605859232981384
4906000000.0 0.810063319843618 -0.6603785869030707
4909000000.0 0.7723233388760028 -0.6517138007306079
4912000000.0 0.797433343744603 -0.6660158258240574
4916000000.0 0.794062499052733 -0.6497633711744526
4919000000.0 0.7923242776016144 -0.6770618481662387
4922000000.0 0.7949351529380451 -0.673610348655802
4925000000.0 0.7427388778290324 -0.6890615594785224
4928000000.0 0.7330036016067596 -0.6766313607923836
4931000000.0 0.7672601294061545 -0.7115828841991649
4934000000.0 0.7234324434120027 -0.6949778621484154
4938000000.0 0.7054035657820473 -0.7387340968688472
4941000000.0 0.6896345154422386 -0.7188898693997909
4944000000.0 0.6957219224305159 -0.7201831898853464
4947000000.0 0.6855364276346662 -0.7174142104554515
4950000000.0 0.6708054263284019 -0.7592226623302762
4953000000.0 0.6521553124194784 -0.8116363333600123
4956000000.0 0.6718216910464903 -0.7842900154797176
4959000000.0 0.5773288637148037 -0.7932482182173857
4962000000.0 0.6470845999112279 -0.7814826061035837
4966000000.0 0.6569917014925534 -0.8160497936287076
4969000000.0 0.66303873461641 -0.8163306013473105
4972000000.0 0.6077314216703529 -0.8455564311738434
4975000000.0 0.6284811755467525 -0.7882652826944899
4978000000.0 0.5933759663357414 -0.8315588063759202
4981000000.0 0.56289082766411 -0.8099798850787867
4984000000.0 0.5971185703104342 -0.8227684002642133
4988000000.0 0.583353104776585 -0.8248409658522076
4991000000.0 0.6526771727553398 -0.871607459035163
4994000000.0 0.5744494771539151 -0.852946416543521
4997000000.0 0.5296925452335485 -0.8746355607360302
5000000000.0 0.5622324247599921 -0.8666664845472127
5003000000.0 0.5503679753178916 -0.8982550749620882
5006000000.0 0.5097857030978169 -0.9210526798764835
5009000000.0 0.5352818582448929 -0.8944442115425661
5012000000.0 0.4970314704974593 -0.9005602576542051
5016000000.0 0.5308562274481363 -0.9062526847811393
5019000000.0 0.47502099408032106 -0.907646479535189
5022000000.0 0.49186775127732846 -0.907200391536136
5025000000.0 0.48564788383144597 -0.9699266038375667
5028000000.0 0.4358851958231499 -0.9561923223146225
5031000000.0 0.4144866652069862 -0.9383586938989011
5034000000.0 0.4209369203283935 -0.9801987479785161
5038000000.0 0.3948240642688974 -0.9192631775196194
5041000000.0 0.46241366321463817 -0.9374258856891969
5044000000.0 0.4213934947021853 -0.9059979379018327
5047000000.0 0.4569047949218831 -0.9303530259904326
5050000000.0 0.46022476850582333 -0.8755230387156068
5053000000.0 0.3960780056510952 -0.9765085100166959
5056000000.0 0.4007135917270103 -0.9439854264775926
5059000000.0 0.4381328173068486 -0.9428343811466647
5062000000.0 0.3292034551663424 -0.9933394190491396
5066000000.0 0.38722065360663815 -0.9111873572554046
5069000000.0 0.3461648364014181 -1.0067770218627186
5072000000.0 0.289630249579868 -0.9286718869543489
5075000000.0 0.34329626464111207 -0.9708122502787251
5078000000.0 0.2411043457748827 -1.0313181469691193
5081000000.0 0.2992354901441241 -0.9692875300887401
5084000000.0 0.2924737135125597 -1.0315202958312721
5088000000.0 0.29315767936597165 -0.9963656548641018
5091000000.0 0.19110150834576353 -1.0226701607677977
5094000000.0 0.279575556625908 -1.0198465718518341
5097000000.0 0.29879219294294734 -1.049461251666016
5100000000.0 0.22703648172798754 -0.9819116032159755
5103000000.0 0.21049833957461167 -0.999961017574723
5106000000.0 0.24035689584348413 -1.0341090854308141
5109000000.0 0.20757448202783765 -1.008782126976772
5112000000.0 0.1919611188710439 -0.9752412565403796
5116000000.0 0.19096256149973 -0.9428850467582637
5119000000.0 0.23300551233204952 -1.003818592496327
5122000000.0 0.19025442504767168 -0.978961091285727
5125000000.0 0.16195178237103483 -1.0177312942284376
5128000000.0 0.1274137737364134 -1.0509897389978602
5131000000.0 0.12191270207579537 -0.9789996797856843
5134000000.0 0.12144284555509008 -1.019889106681326
5138000000.0 0.0962194153935044 -1.0490163835174289
5141000000.0 0.16292825009249473 -1.0324437694111317
5144000000.0 0.09800380586939143 -1.0305702192989905
5147000000.0 0.14241329730903773 -1.0226803234541315
5150000000.0 0.08532652767340647 -0.9989305613387437
5153000000.0 0.10168671565101464 -1.0207916100046686
5156000000.0 0.06120007125247958 -1.0744790993533524
5159000000.0 0.057587796226320764 -1.0615775986458673
5162000000.0 0.047935346079474146 -0.972891922567787
5166000000.0 -0.04474167816695006 -1.0498995212063313
5169000000.0 0.06282847763931733 -1.0625884619359014
5172000000.0 -0.015389781799882388 -0.963979600712028
5175000000.0 0.018873423819101308 -1.0669947519051315
5178000000.0 -0.06021216047450904 -1.0146037870828029
5181000000.0 0.009108325802996083 -1.0605958941159066
5184000000.0 -0.05629132232698264 -1.0270335692600883
5188000000.0 0.004412093496963513 -1.030654289579208
5191000000.0 -0.08477027133713538 -1.0660887676520632
