! Created with skrf 1.8.0 (http://scikit-rf.org).
# Hz S RI R 50.0 
!freq ReS11 ImS11
4000000000.0 0.9321378715359653 0.35973953588038105
4003000000.0 1.009678616129785 0.3808969761152906
4006000000.0 1.023158630717655 0.3531865307198796
4009000000.0 0.9648312533586045 0.32350847294700635
4012000000.0 0.9927707145379617 0.39549824868659056
4016000000.0 0.9724373789958155 0.30057839953258164
4019000000.0 0.9856338574751882 0.31882252874045114
4022000000.0 1.0128442734397285 0.32179244686817154
4025000000.0 0.9716771004739324 0.29026242737269825
4028000000.0 1.0060745910153712 0.2599286935642502
4031000000.0 0.9723992406156556 0.2800422368505082
4034000000.0 0.9882726571079941 0.2254656614606531
4038000000.0 0.9910101793917471 0.2662288665739468
4041000000.0 0.9918090504020072 0.2096449630955061
4044000000.0 1.0282805305324618 0.2393185179960453
4047000000.0 1.0258540421347686 0.21049575719499167
4050000000.0 1.014298484432074 0.1810505225551761
4053000000.0 1.0009465401556215 0.16716399714196273
4056000000.0 1.0040614275529791 0.20624255273596084
4059000000.0 0.9947055346249356 0.1734196095720954
4062000000.0 1.0422104486324775 0.14419126040453772
4066000000.0 0.9835518098731033 0.1192593598763787
4069000000.0 1.0497614209894612 0.09685802968763324
4072000000.0 1.0134318742530268 0.08160828267113995
4075000000.0 1.0215269632310344 0.12306557956882697
4078000000.0 0.9886304866839765 0.08957937926384413
4081000000.0 1.0125673203407095 0.08329343402587619
4084000000.0 1.0379970748379728 0.03814046877271632
4088000000.0 1.024500318942118 0.047527840843345215
4091000000.0 1.0509416431992364 0.06033820438561249
4094000000.0 0.9793112162931964 0.020811149441029353
4097000000.0 1.020950377985337 0.000257389037271627
4100000000.0 1.0118570543747076 -0.03066567219184624
4103000000.0 1.030356972547162 -0.003849641598375697
4106000000.0 1.042112046689625 -0.05427490938394325
4109000000.0 1.0122212302703009 -0.02840598880990408
4112000000.0 0.9913516392025907 -0.07448490338076558
4116000000.0 1.0336793733349767 -0.09881714016922627
4119000000.0 1.00539537461067 -0.07565224209737054
4122000000.0 0.9893594043436189 -0.12204128812926193
4125000000.0 1.0205426868724448 -0.12602359437767302
4128000000.0 0.9971574197686026 -0.13490090009434993
4131000000.0 1.0103888840153528 -0.17318280557347426
4134000000.0 1.0146623761639137 -0.15118635414949547
4138000000.0 0.9677149221058523 -0.1715705949251925
4141000000.0 1.0117052977268777 -0.17607844646554396
4144000000.0 1.0009559280694125 -0.20191944063101605
4147000000.0 1.003082739369372 -0.21016663337581093
4150000000.0 1.0053878958793292 -0.27041979698595076
4153000000.0 0.9960417877414228 -0.21923948083070105
4156000000.0 1.001673122770368 -0.2512781693765094
4159000000.0 0.9546781176237644 -0.2574759964802664
4162000000.0 0.9681069049175275 -0.2698473430963161
4166000000.0 1.0060406199617196 -0.3149610989123161
4169000000.0 0.9485426883439262 -0.3120669291658305
4172000000.0 0.9521357287720588 -0.33100694615987086
4175000000.0 0.9886203675300305 -0.32994047790918396
4178000000.0 0.9678349630938222 -0.3289889327248872
4181000000.0 0.9067318981615047 -0.38444074779703713
4184000000.0 0.9154257304449709 -0.3579481595059829
4188000000.0 0.9027738939135628 -0.38188723801015834
4191000000.0 0.9255489101956225 -0.38730315488774125
4194000000.0 0.9354353138399847 -0.42349962451033385
4197000000.0 0.9436389272467457 -0.4213731449820277
4200000000.0 0.9432752342829931 -0.42437554925017273
4203000000.0 0.9352569625281514 -0.4601338718137376
4206000000.0 0.9190689892618654 -0.4662922374449786
4209000000.0 0.8767566934742096 -0.48256696719843134
4212000000.0 0.8651800294116149 -0.5212775275953465
4216000000.0 0.9078890290141695 -0.4955605109659776
4219000000.0 0.8711440658135896 -0.5307168658790276
4222000000.0 0.8528042314253135 -0.5205248055835021
4225000000.0 0.8396809215986873 -0.5503762527341629
4228000000.0 0.8320614570334834 -0.5743200766844742
4231000000.0 0.8349911556214119 -0.5995596152091701
4234000000.0 0.8174433209075195 -0.6262009354254321
4238000000.0 0.7883090475284925 -0.6193699788773407
4241000000.0 0.7586005432073826 -0.6210987618900319
4244000000.0 0.7683912385593048 -0.6239190243810961
4247000000.0 0.7675091944236285 -0.6295611564353487
4250000000.0 0.7428854026125153 -0.650901746348037
4253000000.0 0.7306773606688051 -0.6640667981390849
4256000000.0 0.7769714599091095 -0.7310121142783985
4259000000.0 0.6987476676429331 -0.6832404454023059
4262000000.0 0.69302050303091 -0.7318734437884881
4266000000.0 0.6890075603681861 -0.7564564979153096
4269000000.0 0.6857987373776967 -0.7107683596505782
4272000000.0 0.6682374881055013 -0.7422830948772259
4275000000.0 0.6853669978864365 -0.7567648657273234
4278000000.0 0.6858979077235571 -0.8072025482041826
4281000000.0 0.6444258516858618 -0.772701091628544
4284000000.0 0.5979220394398662 -0.8171735517490504
4288000000.0 0.6226930704271982 -0.7664155667390924
4291000000.0 0.5817668549481501 -0.7952477167629597
4294000000.0 0.5648853436685528 -0.8364957097084043
4297000000.0 0.5863211647956181 -0.8134984812953688
4300000000.0 0.5382245240037722 -0.8147862145425921
4303000000.0 0.5315680419785123 -0.8403307668939245
4306000000.0 0.5327311188846 -0.8688519141311233
4309000000.0 0.5257922135453812 -0.8722702114353582
4312000000.0 0.5101764049738889 -0.8950332611946534
4316000000.0 0.4768403473094956 -0.8909415789013242
4319000000.0 0.46237206897871325 -0.8966312659514437
4322000000.0 0.4028638002867685 -0.9121654968118392
4325000000.0 0.40038440919143564 -0.9347187265409783
4328000000.0 0.3992621390260992 -0.9126728378021551
4331000000.0 0.36983699166510053 -0.9372278394413572
4334000000.0 0.3487954122483225 -0.9429527473998499
4338000000.0 0.3602817099807319 -0.9396455642469154
4341000000.0 0.33943790853448774 -0.9728297383809138
4344000000.0 0.33732300716454416 -0.9820025784249046
4347000000.0 0.2680463576166763 -0.9920817158109076
4350000000.0 0.2565169519086711 -0.9675939195676342
4353000000.0 0.24383378505255365 -0.9784672858433586
4356000000.0 0.19911617772199433 -0.9844562203054844
4359000000.0 0.18598351851106887 -0.9846166525792447
4362000000.0 0.17208144573445164 -1.002278433533426
4366000000.0 0.14553519777760018 -1.0103852939946756
4369000000.0 0.13569530264956087 -0.9949477407229974
4372000000.0 0.11544137851381453 -0.9988183815200835
4375000000.0 0.10925383666106152 -0.9899388234548175
4378000000.0 0.061383267451069354 -1.0154207812114049
4381000000.0 0.048266594576969454 -1.014094241197195
4384000000.0 0.020640360050867 -1.0283751616061423
4388000000.0 -0.006978289394820494 -1.0119377720624974
4391000000.0 -0.01871151500117757 -1.0140993031766683
4394000000.0 -0.06872032514502063 -1.0277572412641889
4397000000.0 -0.07550954433498244 -1.0312666556561203
4400000000.0 -0.09478731687198716 -1.0199699493411785
4403000000.0 -0.1192828080041139 -1.0053568494581784
4406000000.0 -0.14781275481492714 -1.0146328794986554
4409000000.0 -0.1862268262736918 -0.993608399167548
4412000000.0 -0.16261489129051995 -1.0009976009947077
4416000000.0 -0.19181433686594546 -0.997373825773382
4419000000.0 -0.2191327419925201 -1.0157089624296731
4422000000.0 -0.2540659615273733 -0.9945115550460928
4425000000.0 -0.27709963155525674 -0.972165418783662
4428000000.0 -0.3227921287378728 -0.9688536349327421
4431000000.0 -0.32258573513207717 -0.9068198180503221
4434000000.0 -0.3666587404520799 -0.9722787425958939
4438000000.0 -0.37718163811879896 -0.8942944822539469
4441000000.0 -0.4333417618027135 -0.9132924271290781
4444000000.0 -0.42061133274781076 -0.9616212214542097
4447000000.0 -0.45077139192240645 -0.9148550485257949
4450000000.0 -0.49551570312682136 -0.9036062816285718
4453000000.0 -0.4667915403892213 -0.8588138641359822
4456000000.0 -0.5276931350428163 -0.9425861352275248
4459000000.0 -0.5661491372399576 -0.9102026976033366
4462000000.0 -0.5345192436223765 -0.8235571456912905
4466000000.0 -0.594019729581635 -0.8293727319953363
4469000000.0 -0.6461694917300128 -0.8231416493647681
4472000000.0 -0.6468595980111711 -0.7733409505773798
4475000000.0 -0.749964277358598 -0.8103520479980221
4478000000.0 -0.6774802794293386 -0.7289546983833718
4481000000.0 -0.7357523666179306 -0.7762788892896605
4484000000.0 -0.7298481135652788 -0.7566045001856162
4488000000.0 -0.7761247987728892 -0.6991943272535599
4491000000.0 -0.7554661333276849 -0.6943888058030149
4494000000.0 -0.8139715399110508 -0.7009070838251992
4497000000.0 -0.8193204802475347 -0.6460087321201999
4500000000.0 -0.8323312953634732 -0.581000462074976
4503000000.0 -0.8475841158497415 -0.5906117295582898
4506000000.0 -0.9195900131617687 -0.5560412733079052
4509000000.0 -0.8973092535440388 -0.47881192688201857
4512000000.0 -0.8522802417544689 -0.524642416266035
4516000000.0 -0.9281611656860037 -0.39504743877103554
4519000000.0 -0.9347193989050864 -0.4251515621693268
4522000000.0 -0.9405390183405633 -0.4524877702135777
4525000000.0 -1.021361058271467 -0.3675953603113681
4528000000.0 -0.9763223828375915 -0.3738329603342919
4531000000.0 -0.9808513505861909 -0.2842254830898664
4534000000.0 -1.0453286413304173 -0.2665671359868669
4538000000.0 -1.0277231828482134 -0.2706293630615294
4541000000.0 -1.0053234977717662 -0.24919263287916696
4544000000.0 -1.0383264482685888 -0.18005550870006115
4547000000.0 -1.0447055814031931 -0.1252197097441718
4550000000.0 -1.0797141981552478 -0.1414246314325622
4553000000.0 -1.0297157904581005 -0.05548497139587176
4556000000.0 -1.089320606176003 -0.0882311526316481
4559000000.0 -1.0694267483853124 -0.0573939577994932
4562000000.0 -1.040737104619758 0.02025597597826022
4566000000.0 -1.044917123866596 0.030513719722561238
4569000000.0 -1.1040145130889902 0.08711363506635078
4572000000.0 -1.0341894130715141 0.12479073611644331
4575000000.0 -0.9900383313955099 0.09145149884463837
4578000000.0 -0.9961811061657666 0.18000461186857433
4581000000.0 -0.997023704288937 0.1924334170632842
4584000000.0 -1.0062732496453655 0.2721170034253587
4588000000.0 -0.9931452404992541 0.29582344177410835
4591000000.0 -0.9897520646228548 0.36126987658086296
4594000000.0 -1.0179739049738465 0.33616582904706543
4597000000.0 -0.9757295738533043 0.4046228599556039
4600000000.0 -0.988150621932312 0.40638470278800015
4603000000.0 -0.9285191650949814 0.434154833077589
4606000000.0 -1.0009993608573569 0.472407065864701
4609000000.0 -0.8976349078718853 0.5088007424709086
4612000000.0 -0.8822240538957868 0.5221012420563796
4616000000.0 -0.8395377522797538 0.5751880776042025
4619000000.0 -0.8810044113003224 0.6345224350259514
4622000000.0 -0.8058073956419187 0.6599461304084467
4625000000.0 -0.8382066994639827 0.661096991520803
4628000000.0 -0.7833057446648213 0.7672893718953204
4631000000.0 -0.7682041238117123 0.764650003536208
4634000000.0 -0.7522254120407182 0.7523543084033675
4638000000.0 -0.7117304725164278 0.7609098859663627
4641000000.0 -0.6924445401864321 0.7800205421475728
4644000000.0 -0.6230763574353329 0.7753693947697428
4647000000.0 -0.666633417853329 0.7861079859065965
4650000000.0 -0.5817331080521931 0.8485616593871357
4653000000.0 -0.5449818355333662 0.8739006804097812
4656000000.0 -0.5370159001685451 0.9080499663320076
4659000000.0 -0.5159874870821697 0.8665644260229148
4662000000.0 -0.47842688425051894 0.8513746842684657
4666000000.0 -0.4339432159857031 0.9876092699505077
4669000000.0 -0.4635678487357399 0.9407991689596945
4672000000.0 -0.36550313836121245 1.0143081976883987
4675000000.0 -0.3569989435896597 0.9488740781487013
4678000000.0 -0.3485901407133118 0.9509126447587205
4681000000.0 -0.26117704340740866 0.9785981693586127
4684000000.0 -0.274777704453555 0.9671258536740168
4688000000.0 -0.2144838093401253 1.0208205789814526
4691000000.0 -0.23210428155570825 0.962896853936102
4694000000.0 -0.15827221451169063 1.0116950131609546
4697000000.0 -0.130741732445125 1.039592985049451
4700000000.0 -0.1528632572242916 1.0198140117397578
4703000000.0 -0.0645364887358757 1.050487320207959
4706000000.0 -0.11809787675917166 0.9594815653139667
4709000000.0 -0.014769469275946051 1.020601014303896
4712000000.0 0.03298898266718095 1.0425216896465224
4716000000.0 0.013317529255307076 1.024808516948184
4719000000.0 0.11591931482250192 1.0501394138370546
4722000000.0 0.147766190317582 1.0626921056314034
4725000000.0 0.16874250432461113 0.9991888749050881
4728000000.0 0.20568536544194058 1.0108360592265309
4731000000.0 0.20823633373313694 0.9800202642572986
4734000000.0 0.24589048492163065 0.9927426708533426
4738000000.0 0.25412199283353015 0.9468406303531718
4741000000.0 0.27565414190615795 0.9534937669423569
4744000000.0 0.3472463249704861 0.9522563443614639
4747000000.0 0.37690584460918947 0.9938550345548556
4750000000.0 0.38668823516312567 0.8989184921717882
4753000000.0 0.4635234087203722 0.9436750666884305
4756000000.0 0.47395021977351937 0.8951337549898628
4759000000.0 0.47058930715330183 0.904173934482228
4762000000.0 0.4557985841516916 0.8946064711055993
4766000000.0 0.5159276297914819 0.842415456060442
4769000000.0 0.5573164845362883 0.89704434800256
4772000000.0 0.6114945395732871 0.8408883168231719
4775000000.0 0.58754123648325 0.8282371698113934
4778000000.0 0.563500858936945 0.8479952600611923
4781000000.0 0.6293053175178589 0.8235290912392486
4784000000.0 0.6408749234488558 0.8032103448540252
4788000000.0 0.6421598091400389 0.7769670790407127
4791000000.0 0.7006262363616145 0.7413239898134009
4794000000.0 0.7007446018350022 0.679059106690062
4797000000.0 0.7743192417651996 0.7309519887813605
4800000000.0 0.7991830318979046 0.6687545150502702
4803000000.0 0.743760754574026 0.6918332202032542
4806000000.0 0.7692222948678287 0.6388737570312645
4809000000.0 0.7665449607545849 0.6285134697585355
4812000000.0 0.7983653043523806 0.6355130795683794
4816000000.0 0.8639892379065696 0.5574858070452288
4819000000.0 0.8715260432569591 0.5388133549536716
4822000000.0 0.8607068990016326 0.5371131053882414
4825000000.0 0.8670677449545061 0.490745464961302
4828000000.0 0.8757489664618225 0.4976477482214577
4831000000.0 0.8699882007905879 0.5019602085104312
4834000000.0 0.9070524494772271 0.40477954619403966
4838000000.0 0.9021709083444868 0.4234004547958634
4841000000.0 0.939736566577227 0.40786075075586664
4844000000.0 0.9357400588142604 0.37516043082647266
4847000000.0 0.9863946308787607 0.36265444559304116
4850000000.0 0.9313168022530898 0.33646671270667416
4853000000.0 0.9761847525004197 0.3128810278763402
4856000000.0 0.9815860360043704 0.28183214739546647
4859000000.0 0.9455397378581901 0.2517047102885124
4862000000.0 0.9622967217243782 0.26699982745983397
4866000000.0 0.9869089918146968 0.24169069699225149
4869000000.0 0.986165276882057 0.2286485918849185
4872000000.0 0.9736164180987212 0.18136593336826268
4875000000.0 1.007836268929859 0.15523106620955768
4878000000.0 1.0010514117142888 0.1602119453026516
4881000000.0 0.9749571211981929 0.12991165587784406
4884000000.0 1.0170527758264543 0.11687324596784143
4888000000.0 1.0373271383588718 0.09545744263671979
4891000000.0 1.0171900033162162 0.07636745647603838
4894000000.0 1.0159418223872736 0.04718518028649751
4897000000.0 1.0053915687239832 0.020798092656249108
4900000000.0 0.9981152590813486 -0.026793870543411535
4903000000.0 1.005029384379236 -0.00616862409180268
4906000000.0 1.0222324569232064 -0.02788021457605187
4909000000.0 1.0133220321674279 -0.05310965480678725
4912000000.0 1.00317722128533 -0.09329886269285054
4916000000.0 0.9995188105465024 -0.08870318176140407
4919000000.0 0.9927181195466107 -0.10205209587904368
4922000000.0 1.008949997992033 -0.11351879261886913
4925000000.0 0.9759846437808183 -0.14723260001195737
4928000000.0 0.999049144473771 -0.17684123203260232
4931000000.0 1.0097127432916841 -0.18749647596359312
4934000000.0 0.975520746940341 -0.18627156139069226
4938000000.0 0.9710041748312209 -0.22163612110919345
4941000000.0 0.9744891582332598 -0.2468739439916598
4944000000.0 0.9738548365458723 -0.25390045838622394
4947000000.0 0.9735055932310567 -0.24963053064529062
4950000000.0 0.9692858670821624 -0.2869309434920694
4953000000.0 0.9548106761088029 -0.34225273808727874
4956000000.0 0.985097092968743 -0.33934679033864085
4959000000.0 0.9295578147586895 -0.3510235642539062
4962000000.0 0.9453808572894136 -0.35966606174493343
4966000000.0 0.9420347817595701 -0.37031147454267466
4969000000.0 0.9391359983210477 -0.3694455736714565
4972000000.0 0.9313853735862078 -0.44016107539380434
4975000000.0 0.9052410948630789 -0.42694032845214336
4978000000.0 0.9061597727913965 -0.4371032910671445
4981000000.0 0.8628761990489768 -0.44571404412866095
4984000000.0 0.9007689561977231 -0.48515011973158273
4988000000.0 0.881947871787018 -0.4846835400911007
4991000000.0 0.9225923698222824 -0.4797550157855466
4994000000.0 0.8811642344752517 -0.4908677403037002
4997000000.0 0.8638867468661138 -0.5384825460360093
5000000000.0 0.8709134641092598 -0.5344224895526182
5003000000.0 0.8636839640961891 -0.567238259456396
5006000000.0 0.885952812185111 -0.590928166010071
5009000000.0 0.837117695668717 -0.5817787934969375
5012000000.0 0.7965743440100375 -0.5985591297100714
5016000000.0 0.8336684239355234 -0.5939124812166825
5019000000.0 0.7941366091538441 -0.605619160306057
5022000000.0 0.797162554602835 -0.6174727648842664
5025000000.0 0.825236311786187 -0.694905910710376
5028000000.0 0.7791266592711789 -0.6904943569099979
5031000000.0 0.752853438775267 -0.6728735524695085
5034000000.0 0.7866461620724778 -0.734602695344317
5038000000.0 0.7222603660992337 -0.6880352171664885
5041000000.0 0.7808138077649698 -0.6937332804306857
5044000000.0 0.736132905261726 -0.6800788229663772
5047000000.0 0.7345896055730399 -0.721193419582386
5050000000.0 0.7842705958945175 -0.6692748548588383
5053000000.0 0.7272291451612669 -0.789219539396893
5056000000.0 0.7470748624844126 -0.717132064262141
5059000000.0 0.7560108004032828 -0.7239207131952813
5062000000.0 0.6674790265294014 -0.7556829659251632
5066000000.0 0.6729640115828989 -0.7322510806729703
5069000000.0 0.6435495232483268 -0.7781109643512565
5072000000.0 0.6140068335877595 -0.769289576330838
5075000000.0 0.6548517181108907 -0.8398308825932104
5078000000.0 0.5956801577413398 -0.878900681636912
5081000000.0 0.57944018760721 -0.7870565060460973
5084000000.0 0.62484763946759 -0.8505334734539844
5088000000.0 0.5797588654891965 -0.8338545459387645
5091000000.0 0.5746224947026235 -0.8938547101974614
5094000000.0 0.6050176334241735 -0.8671376593330514
5097000000.0 0.6396658244862664 -0.8958247757892146
5100000000.0 0.5313423577716719 -0.8644688210120227
5103000000.0 0.5584126709233815 -0.8845670515741432
5106000000.0 0.617255446717591 -0.9111488545633011
5109000000.0 0.5281440137575228 -0.8722400799646304
5112000000.0 0.5016104930553515 -0.9133124553318606
5116000000.0 0.47756274089650264 -0.8267059729486075
5119000000.0 0.5307126043975378 -0.8958438781104383
5122000000.0 0.5293541975121862 -0.8964768643354759
5125000000.0 0.4663592459774396 -0.9190699161108103
5128000000.0 0.4408403094277919 -0.952924996646275
5131000000.0 0.4024341206746216 -0.9069152817029421
5134000000.0 0.4209676171968345 -0.9198557058816403
5138000000.0 0.38904769953706564 -0.9853056678262843
5141000000.0 0.4830281500498987 -0.9145623899271262
5144000000.0 0.44030146959648553 -1.0002970776231261
5147000000.0 0.3887754787174056 -0.9677956972645404
5150000000.0 0.41331805364029894 -0.9141519589683553
5153000000.0 0.33114598216149915 -0.9702949728041173
5156000000.0 0.36666470674751395 -0.9945846926194606
5159000000.0 0.350354972364208 -0.9916269444966648
5162000000.0 0.29904460140982886 -0.954998245117255
5166000000.0 0.27331584823853705 -1.0518942326507645
5169000000.0 0.29878728334956045 -1.0245403305744225
5172000000.0 0.24758554935371005 -0.9762360552742639
5175000000.0 0.31533820570493176 -1.0096170835463198
5178000000.0 0.2072137414638106 -0.9845453254022306
5181000000.0 0.31076125566697993 -1.0053219608513357
5184000000.0 0.20900794955920543 -1.0044043300505183
5188000000.0 0.2663996369938404 -0.9808128302654503
5191000000.0 0.20562269123607135 -1.0402416491898852
