! Created with skrf 1.8.0 (http://scikit-rf.org).
# Hz S RI R 50.0 
!freq ReS11 ImS11
4000000000.0 0.6054957857921799 0.7536994092902625
4003000000.0 0.6888882520440335 0.8168771349505237
4006000000.0 0.66873966145005 0.7195924942438383
4009000000.0 0.7154310033120356 0.7691839430380436
4012000000.0 0.6562870433807068 0.8043319171758958
4016000000.0 0.7113996302740786 0.7505740501247762
4019000000.0 0.7065495318256438 0.7486079391048207
4022000000.0 0.6586878329928731 0.846480182477123
4025000000.0 0.7550176625687421 0.7467107769965555
4028000000.0 0.7551503120720585 0.7408992629174707
4031000000.0 0.6963605071084454 0.7203315946789511
4034000000.0 0.6753764163737613 0.722059293909445
4038000000.0 0.7500561841746306 0.6908082711693126
4041000000.0 0.7431018221413623 0.6966465236866678
4044000000.0 0.7739140588730644 0.7877334935276397
4047000000.0 0.770694803077203 0.7678596421502435
4050000000.0 0.7903713396794554 0.7106277684612385
4053000000.0 0.7577133838810723 0.6292539792472687
4056000000.0 0.7910800469970654 0.676612353179212
4059000000.0 0.7648308536023849 0.6934710513385998
4062000000.0 0.7955341920304082 0.6823520080145811
4066000000.0 0.7248381432954905 0.6362876893017954
4069000000.0 0.8238700992889021 0.6813472994863856
4072000000.0 0.7542326881730632 0.6728453928514104
4075000000.0 0.8245455621211154 0.6890205342223945
4078000000.0 0.8549537605586437 0.6141795101754526
4081000000.0 0.7801774136044983 0.650880023074106
4084000000.0 0.8552883580646804 0.6107892482447368
4088000000.0 0.7844927585241217 0.66850431156485
4091000000.0 0.9111386945996904 0.6591927764079764
4094000000.0 0.8206242719208402 0.5992447029763677
4097000000.0 0.8609810695912008 0.5857171928211962
4100000000.0 0.8187456061167517 0.5897654063388704
4103000000.0 0.8262301006719821 0.6271826512191312
4106000000.0 0.8560331764159688 0.5486753995897611
4109000000.0 0.9081741836344241 0.5322947670743123
4112000000.0 0.8737180786780485 0.5666905074541897
4116000000.0 0.885468143149388 0.5763698944833402
4119000000.0 0.8756463371637492 0.5239289758726564
4122000000.0 0.898157037656408 0.5202470676224797
4125000000.0 0.9343878998938896 0.5088904592229784
4128000000.0 0.8273853735437552 0.516692807764332
4131000000.0 0.8385391160797414 0.4898526276332795
4134000000.0 0.8683941725259984 0.5314409612950394
4138000000.0 0.8435765837509177 0.44829458795723937
4141000000.0 0.8905832429744267 0.477327295930697
4144000000.0 0.9146719162993112 0.525216719146687
4147000000.0 0.9329870831103069 0.45208588294289836
4150000000.0 0.9351276533817935 0.43671467519173307
4153000000.0 0.8968720233320774 0.43732554908692156
4156000000.0 0.9140053830276795 0.4575676936573764
4159000000.0 0.8892964459951866 0.4593145844063224
4162000000.0 0.8833555284358474 0.4526412434879904
4166000000.0 0.9417751573132431 0.41436327590485067
4169000000.0 0.920746960107103 0.39223988801874965
4172000000.0 0.9120041572630526 0.4313025937965374
4175000000.0 0.9361491872114948 0.40043255727417487
4178000000.0 0.9456192011779613 0.4095663642891447
4181000000.0 0.9468122885367825 0.37952524387268827
4184000000.0 0.9676726250438702 0.3906799555316544
4188000000.0 0.92201943606972 0.3591660086073333
4191000000.0 0.9337951386477132 0.39633547311592937
4194000000.0 0.9287205523077117 0.37150861280685754
4197000000.0 0.9609665450395705 0.35506495207781846
4200000000.0 0.9424388899046356 0.36796375535654635
4203000000.0 0.968877198609711 0.3578763760501088
4206000000.0 0.9856944716548689 0.3384697707131871
4209000000.0 0.9500117503157575 0.34216226957280044
4212000000.0 0.9695918944171338 0.2984773146281188
4216000000.0 0.9721435836256146 0.3231019230580016
4219000000.0 0.9742333497819353 0.32374574554921287
4222000000.0 0.9727784240281487 0.28384345226470753
4225000000.0 0.95586105281865 0.2825869067746699
4228000000.0 0.9847514976272576 0.27171713048495993
4231000000.0 0.9900686621274286 0.2670038109134345
4234000000.0 1.0123749985270276 0.24346575083487404
4238000000.0 0.9738010872870707 0.24663695166235036
4241000000.0 0.9790725325245375 0.23300297540654513
4244000000.0 0.9887244481892392 0.23874412883919777
4247000000.0 0.9945501807108773 0.23034761097660628
4250000000.0 0.9777883248813957 0.2004899285964798
4253000000.0 0.9566379424524116 0.20668733821318763
4256000000.0 1.0226099082626774 0.20222090215415817
4259000000.0 0.9661900871326219 0.18460839729736236
4262000000.0 1.0034133579042837 0.1538516430783554
4266000000.0 1.0278439484516126 0.16165732910368558
4269000000.0 0.9915887549797058 0.19435798798825507
4272000000.0 0.9984314804234762 0.1552459982731129
4275000000.0 1.0102868199804855 0.14930222183908676
4278000000.0 1.0318550700931628 0.14306676864006806
4281000000.0 1.0071966584493828 0.14710011258832112
4284000000.0 1.015835864329345 0.09900904454058879
4288000000.0 1.0123789386328987 0.14966136369528174
4291000000.0 0.9845395840692476 0.09959196157095414
4294000000.0 0.9983770491075263 0.08942618504743029
4297000000.0 1.0113655663670156 0.09307962494695803
4300000000.0 0.9778794730672726 0.11737823615687798
4303000000.0 1.0184882135069933 0.06527596413256871
4306000000.0 1.0171684198296727 0.0867048623713739
4309000000.0 0.9917125743967828 0.04795798138566533
4312000000.0 1.024555777264025 0.09233191908942243
4316000000.0 1.0164346247814626 0.05397547122592837
4319000000.0 0.9999271403191073 0.03604233709089737
4322000000.0 0.9860509169829594 0.011963244501215886
4325000000.0 1.0181268424713545 0.022113185920940734
4328000000.0 0.968183494682208 0.005535245124628524
4331000000.0 1.0108527103872187 -0.02947022344500494
4334000000.0 1.0257266882639908 -0.01103911461303056
4338000000.0 1.00961623404232 -0.03220401204680888
4341000000.0 1.0444989173989436 0.0197990201339594
4344000000.0 1.0256292817636024 -0.050521288293932126
4347000000.0 1.027298939451666 -0.062259249995650995
4350000000.0 0.9632699693085841 -0.06938608593340773
4353000000.0 0.9759331881991526 -0.03909845114621456
4356000000.0 0.9871576990234003 -0.09162726837787108
4359000000.0 0.966616782374982 -0.09294541251742679
4362000000.0 1.0017430915731198 -0.14440256531866447
4366000000.0 1.0359044668425552 -0.09811892848930322
4369000000.0 0.9789668942895042 -0.1206325052037428
4372000000.0 0.9898710312894827 -0.15512413873236755
4375000000.0 0.9820581093457892 -0.11676823868947991
4378000000.0 0.9714081397238599 -0.13871463418794158
4381000000.0 0.9886348637013174 -0.1251932820293182
4384000000.0 1.058287101516582 -0.16426958701413805
4388000000.0 0.9793932073622962 -0.15116479625591758
4391000000.0 1.0052600530530107 -0.1657403787140188
4394000000.0 0.958414732756022 -0.17242763033642813
4397000000.0 0.9759120115187812 -0.17726004908552037
4400000000.0 1.017638620669217 -0.2092532737251509
4403000000.0 0.9929102378108215 -0.2059735010262338
4406000000.0 0.9827125530100688 -0.2519153040315686
4409000000.0 1.0062046198853658 -0.23908252573460761
4412000000.0 0.9523778721810681 -0.2833565329460467
4416000000.0 0.9628263140166398 -0.2582877286324031
4419000000.0 0.9658877990171743 -0.26822698161196085
4422000000.0 0.9726429166552817 -0.24087374423029456
4425000000.0 0.9920370173205935 -0.2465231912344869
4428000000.0 0.9535317064380704 -0.2806847410612897
4431000000.0 0.9762321731402825 -0.27100416805767885
4434000000.0 0.9503097538703835 -0.294460799263594
4438000000.0 0.993868267529376 -0.3189724428737547
4441000000.0 0.9727847355699133 -0.30136085621711994
4444000000.0 0.9322860613736708 -0.3201027751480645
4447000000.0 0.9361382485193775 -0.3373972940173213
4450000000.0 0.9383831202539076 -0.31476350210873744
4453000000.0 0.9702686220495589 -0.35630942968197493
4456000000.0 0.9111617435382989 -0.3548738726978337
4459000000.0 0.8856903209211227 -0.36967338360131147
4462000000.0 0.970333443429316 -0.4075572268596929
4466000000.0 0.9673429800711173 -0.392346717825506
4469000000.0 0.931099921498258 -0.3721909008008333
4472000000.0 0.9385830533347259 -0.4337531061984257
4475000000.0 0.9172679561974103 -0.38956090640841945
4478000000.0 0.9415652016330913 -0.44477183968996825
4481000000.0 0.8926397777966206 -0.42150891946330005
4484000000.0 0.8775487954884813 -0.48029479854833135
4488000000.0 0.8864037162692567 -0.43330161575057713
4491000000.0 0.914820008466891 -0.45651971186067863
4494000000.0 0.9040968894425697 -0.44199792853646125
4497000000.0 0.8884509951586923 -0.453796046048502
4500000000.0 0.9006903583543706 -0.43731143645280607
4503000000.0 0.903040959513892 -0.4972722782247656
4506000000.0 0.8733012487897174 -0.5052656675098811
4509000000.0 0.8543432234219879 -0.4899859129975074
4512000000.0 0.847871863501015 -0.5004696107468377
4516000000.0 0.8892503773272764 -0.5082995824985558
4519000000.0 0.8649230969274587 -0.4904654400308047
4522000000.0 0.8516157402922067 -0.5268664301503363
4525000000.0 0.8770476794257567 -0.49891326372250766
4528000000.0 0.8770440613364652 -0.5566266632345866
4531000000.0 0.8607405258246918 -0.5396817020876316
4534000000.0 0.8264285893913453 -0.5368922628113413
4538000000.0 0.8314844781514699 -0.5588415074095927
4541000000.0 0.7930036461808948 -0.6068412959227192
4544000000.0 0.7938904014732855 -0.5534223001879872
4547000000.0 0.8274605648584284 -0.5649874225328197
4550000000.0 0.8135055326071929 -0.6080973170636057
4553000000.0 0.8171321528662208 -0.6038188450723951
4556000000.0 0.7889060036595164 -0.601304281929185
4559000000.0 0.7809737244236438 -0.6272294410238379
4562000000.0 0.8140903509302018 -0.6351138025288912
4566000000.0 0.8091178215752812 -0.6482486802871894
4569000000.0 0.7714330527505115 -0.6276425313917455
4572000000.0 0.7747648463239759 -0.6338529629386531
4575000000.0 0.7640644421341518 -0.6784114846271486
4578000000.0 0.8033769055498057 -0.6635704192032003
4581000000.0 0.7619006971438015 -0.6685849751113504
4584000000.0 0.7298941873911637 -0.6617073733282084
4588000000.0 0.76632279743188 -0.6807231458253321
4591000000.0 0.7548731177755849 -0.6658745677580711
4594000000.0 0.7079938950074639 -0.7034913752650389
4597000000.0 0.7265808389943473 -0.7058203660853303
4600000000.0 0.6908886348257186 -0.7198707591280838
4603000000.0 0.7239657348767442 -0.7095593069372091
4606000000.0 0.7237885731958776 -0.7137160063687309
4609000000.0 0.6950740144479834 -0.7131518768063768
4612000000.0 0.6892655476219556 -0.7344440136840996
4616000000.0 0.6667477320577861 -0.7392015338031909
4619000000.0 0.6788135591438916 -0.7311847072736924
4622000000.0 0.6696354390762976 -0.7499280122661147
4625000000.0 0.6239057858156153 -0.7331179954161688
4628000000.0 0.6661571749408852 -0.7549899947018217
4631000000.0 0.6351162911559918 -0.77217845770788
4634000000.0 0.6529955060636629 -0.780879441016545
4638000000.0 0.6450917508897948 -0.7865615394126844
4641000000.0 0.6240023908951103 -0.7844897235398711
4644000000.0 0.624260610699541 -0.7803008650545066
4647000000.0 0.6524015978867271 -0.7863254497597271
4650000000.0 0.6012201984988759 -0.8101262072719718
4653000000.0 0.6265907952608917 -0.8102346096523683
4656000000.0 0.5994581826765302 -0.8276103977259832
4659000000.0 0.5844395003505979 -0.8059951028698638
4662000000.0 0.5813670128753313 -0.8245490022312408
4666000000.0 0.5672616208293734 -0.8440832861971137
4669000000.0 0.5921124566517764 -0.8408382033793107
4672000000.0 0.5627348775280056 -0.8565466949819434
4675000000.0 0.545316840241846 -0.8496629684400496
4678000000.0 0.5295636713143622 -0.8300472292323278
4681000000.0 0.5208092537961841 -0.873470713429452
4684000000.0 0.49265065375002115 -0.8692867652630282
4688000000.0 0.511627978738301 -0.8473215549504768
4691000000.0 0.5504453514671801 -0.8771642489015532
4694000000.0 0.5124114493351388 -0.8578057661298859
4697000000.0 0.4846499819495494 -0.8349467830105624
4700000000.0 0.5131502561369495 -0.8797157120916557
4703000000.0 0.5124591151178266 -0.8380590333383555
4706000000.0 0.46619971650112596 -0.8941961765576917
4709000000.0 0.46488765193980097 -0.8890626519692155
4712000000.0 0.4722595463046455 -0.8849142726534704
4716000000.0 0.45775110312259226 -0.9436381080886254
4719000000.0 0.46744640968221857 -0.8910522761812122
4722000000.0 0.4438689862496219 -0.9246242297390996
4725000000.0 0.4463913809341553 -0.8987976135443946
4728000000.0 0.4108005350532856 -0.9172836855159898
4731000000.0 0.4331615010940906 -0.9432510120537334
4734000000.0 0.4224980884330588 -0.902370101602851
4738000000.0 0.4405980544140846 -0.9399407106328391
4741000000.0 0.394544829099774 -0.95027815718447
4744000000.0 0.377231977854106 -0.9774114850654805
4747000000.0 0.3906498152678908 -0.8897181871880494
4750000000.0 0.3796022220945425 -0.9465654625710148
4753000000.0 0.36727867546147774 -0.9418213949732719
4756000000.0 0.343800376161075 -0.9712119892819611
4759000000.0 0.3508108249377772 -0.9734084664350415
4762000000.0 0.30371716837539775 -0.9910156771898643
4766000000.0 0.3433254914284971 -0.9569127169080349
4769000000.0 0.3345319372447685 -0.9744923052349886
4772000000.0 0.3246310668662904 -0.9645199188355694
4775000000.0 0.3063636995692094 -1.0204303096556493
4778000000.0 0.2819242648828814 -0.9764482864016119
4781000000.0 0.32047008974995767 -0.95946476694812
4784000000.0 0.2942369169501651 -0.971600188336598
4788000000.0 0.25536725217469863 -0.9777090189255324
4791000000.0 0.26464594567279814 -0.9669956588395096
4794000000.0 0.28520251182673406 -1.013679247749616
4797000000.0 0.25829474059224883 -0.9718741466537061
4800000000.0 0.21987663589862527 -0.973844686593988
4803000000.0 0.20159630309137255 -0.9991881451703437
4806000000.0 0.23958853637790214 -1.0074424080411968
4809000000.0 0.16384389107354633 -0.9907012715927829
4812000000.0 0.1571944176762456 -0.988353699274598
4816000000.0 0.21081296904058205 -0.9599971487324592
4819000000.0 0.21804869107913052 -0.9994660315560859
4822000000.0 0.2058900829942444 -1.0430970260676111
4825000000.0 0.18376600811424135 -1.0306538713791917
4828000000.0 0.16645396749562 -0.9987349765624182
4831000000.0 0.13628652063079033 -1.0392770238542353
4834000000.0 0.1533371214246594 -1.0217631218933307
4838000000.0 0.10870237509070245 -1.0181289518480143
4841000000.0 0.09798304264929758 -0.9949892781863175
4844000000.0 0.15677060252908293 -0.9939807735258429
4847000000.0 0.12498082382767968 -0.9778903333085991
4850000000.0 0.09890717658026339 -1.0614826425668225
4853000000.0 0.10250361317913852 -0.9788379984857887
4856000000.0 0.07276584635401667 -0.9885943532326454
4859000000.0 0.06863288723831384 -1.054845408129494
4862000000.0 0.10417542257966014 -0.9887605615188898
4866000000.0 0.048996010918325464 -1.060478847710654
4869000000.0 0.03357274215041315 -1.016717687239841
4872000000.0 0.030096298582598907 -1.0625269425012467
4875000000.0 0.09509311450729183 -1.0697639530023613
4878000000.0 0.011776465849469595 -1.041487711974025
4881000000.0 -0.021801310467923343 -1.0941001717512409
4884000000.0 0.04050689903238516 -1.0059762324914276
4888000000.0 0.06151041682970297 -1.0127768823632548
4891000000.0 0.01963004309108881 -1.0537400587186876
4894000000.0 -0.02801749534929536 -1.0235843383757692
4897000000.0 0.013033543378195761 -1.0205511606729805
4900000000.0 -0.01347214322994282 -1.0330219294029779
4903000000.0 -0.05044952671953013 -1.0245991163493942
4906000000.0 -0.0694101678919498 -1.0343893934435042
4909000000.0 -0.06721239186309658 -1.0569730577011966
4912000000.0 -0.07192680475193619 -1.0379639898336839
4916000000.0 -0.07372789070416091 -1.0333562845536322
4919000000.0 -0.07657217489195879 -1.0645759413722737
4922000000.0 -0.025815046410820566 -1.0352435989340907
4925000000.0 -0.13294379947800708 -1.026008912972965
4928000000.0 -0.04476390942196558 -1.0128411194972353
4931000000.0 -0.07911400316384927 -1.044804731063299
4934000000.0 -0.09530495783246239 -0.9877144511122616
4938000000.0 -0.15139285611495246 -1.0420993063545216
4941000000.0 -0.1407985231818598 -1.0054713095677426
4944000000.0 -0.11332108419967468 -0.9561676880620704
4947000000.0 -0.16606752624854845 -0.9934729480057066
4950000000.0 -0.13851721178539605 -0.995445131229478
4953000000.0 -0.18719167200077091 -1.0450416398731526
4956000000.0 -0.1633727333666422 -1.0240500178288183
4959000000.0 -0.212459616562004 -0.9820706951733138
4962000000.0 -0.2277196693316064 -1.0217263628597688
4966000000.0 -0.19578569017176228 -1.0468049570547366
4969000000.0 -0.1860699953724182 -1.0304203648545496
4972000000.0 -0.2220127081291027 -1.0100572421510783
4975000000.0 -0.17884866285924886 -0.994344285157143
4978000000.0 -0.23399908457552498 -1.0149175668085808
4981000000.0 -0.26550513821154564 -1.0203076671960372
4984000000.0 -0.22602140066143436 -0.9806611964482136
4988000000.0 -0.2577506461757384 -0.9952808406194731
4991000000.0 -0.20937465561965424 -1.0516848633541942
4994000000.0 -0.2752701026946963 -0.9900181172504939
4997000000.0 -0.3269873392225408 -0.9880555734806432
5000000000.0 -0.26680317932375297 -1.0347604090008287
5003000000.0 -0.2880432117067589 -1.0333219510802982
5006000000.0 -0.30551556612662756 -1.0207419890353466
5009000000.0 -0.3187932160098458 -0.9963176590815245
5012000000.0 -0.3325064199306345 -0.988095322717409
5016000000.0 -0.285061085243906 -1.020290812814044
5019000000.0 -0.3463550637432682 -0.9722538845570108
5022000000.0 -0.3641250579436701 -1.002773450718343
5025000000.0 -0.33995044724324514 -1.02703583928898
5028000000.0 -0.3759687307727727 -0.9577342319170328
5031000000.0 -0.36704862805973393 -0.9492990690876711
5034000000.0 -0.4142335135301799 -0.95824147322407
5038000000.0 -0.36730060942443177 -0.9306381728357316
5041000000.0 -0.3577545293377532 -0.9498146420709938
5044000000.0 -0.3744630302706179 -0.9529919587543888
5047000000.0 -0.38088266162759815 -0.9472521933416117
5050000000.0 -0.30963886357564385 -0.9669548540708601
5053000000.0 -0.44020131907524895 -0.9872300089725821
5056000000.0 -0.3850783078809865 -0.9733450790058475
5059000000.0 -0.3685433538478587 -0.9669553083139576
5062000000.0 -0.46735624590182123 -0.9452373820200204
5066000000.0 -0.4484876934236012 -0.9250390587854462
5069000000.0 -0.4253975619924979 -0.9386428467635447
5072000000.0 -0.46590439932722516 -0.9038017655883108
5075000000.0 -0.4463088842658838 -0.9169554802310653
5078000000.0 -0.5306945140677879 -0.9284279268184357
5081000000.0 -0.47114597310490197 -0.8974571425995291
5084000000.0 -0.5165435966420182 -0.9038707305678366
5088000000.0 -0.48283137892937245 -0.9470235488323255
5091000000.0 -0.5568118664009656 -0.8747407048632245
5094000000.0 -0.5123247397870287 -0.903124958284914
5097000000.0 -0.49028995199615955 -0.8839907220792831
5100000000.0 -0.5176055060049292 -0.8937385864318487
5103000000.0 -0.528493747145563 -0.8804794001470903
5106000000.0 -0.518736547311577 -0.885238741396325
5109000000.0 -0.5145629757274482 -0.9194235478349668
5112000000.0 -0.6132221079433168 -0.8996220620423172
5116000000.0 -0.5186097750467645 -0.8152344851063513
5119000000.0 -0.5819335766769883 -0.8705491370883047
5122000000.0 -0.6211513314509333 -0.8869168877784503
5125000000.0 -0.5383346997853085 -0.8506634143858726
5128000000.0 -0.6105485727048234 -0.8478305181051493
5131000000.0 -0.5907003352047402 -0.8144003870108585
5134000000.0 -0.5984953000608465 -0.8135408840639068
5138000000.0 -0.5946572144761999 -0.8762715426397155
5141000000.0 -0.5966880549564066 -0.8700000757412465
5144000000.0 -0.6098658525561811 -0.8442897300771254
5147000000.0 -0.6699921383693623 -0.8366091676259264
5150000000.0 -0.6615268477396921 -0.8491473542063019
5153000000.0 -0.6355394426583472 -0.8485776445693872
5156000000.0 -0.6335417660953035 -0.8209230262246618
5159000000.0 -0.6849576983433272 -0.8230069393788024
5162000000.0 -0.6901543949799052 -0.7642458487566296
5166000000.0 -0.665250433023761 -0.7819206930456241
5169000000.0 -0.6727217901312202 -0.8343100562947376
5172000000.0 -0.6609380247675319 -0.7780723657779497
5175000000.0 -0.7084983597956391 -0.8152200556922121
5178000000.0 -0.73203306745463 -0.7752402993820444
5181000000.0 -0.7416521712931559 -0.8026055781746781
5184000000.0 -0.7153147294956228 -0.7532678742693846
5188000000.0 -0.7163891948976271 -0.7951477890760348
