! Created with skrf 1.8.0 (http://scikit-rf.org).
# Hz S RI R 50.0 
!freq ReS11 ImS11
4000000000.0 0.6218280422556003 0.7671007095802023
4003000000.0 0.7077871156125721 0.8461123380945706
4006000000.0 0.7064270561150091 0.7316766958123563
4009000000.0 0.6817458460780975 0.7948113955557317
4012000000.0 0.6507953809929378 0.8156589469135136
4016000000.0 0.753718543277018 0.7613548760548832
4019000000.0 0.6904847029480807 0.780367247453944
4022000000.0 0.6522533813927666 0.7928721467874581
4025000000.0 0.7511282266924207 0.7229047096575336
4028000000.0 0.7383209313733353 0.6953722003492662
4031000000.0 0.7113194874755033 0.7284532636896485
4034000000.0 0.7436082285575436 0.7053803662788622
4038000000.0 0.7566924304187597 0.6904402609016926
4041000000.0 0.7718618227763906 0.6957389386147176
4044000000.0 0.8412631610361974 0.7411015843672926
4047000000.0 0.7845964579969619 0.7563991447742443
4050000000.0 0.8071207069575469 0.6692988196826816
4053000000.0 0.8141367348767711 0.6128344580148493
4056000000.0 0.7880037760236083 0.6680166541508612
4059000000.0 0.7649439469679571 0.6523893180260332
4062000000.0 0.8113816824836557 0.6682281672258321
4066000000.0 0.7754895977532488 0.5851881734791297
4069000000.0 0.8787076323849085 0.6315543741175397
4072000000.0 0.7816361086042156 0.6764866307502848
4075000000.0 0.8005376944928243 0.6495408661974831
4078000000.0 0.8368124328271146 0.5985791252802646
4081000000.0 0.8000511427812009 0.6445518252072919
4084000000.0 0.8648438022118148 0.6002177767050014
4088000000.0 0.7903402956303357 0.6325171785987338
4091000000.0 0.9172286896398001 0.5818472571166826
4094000000.0 0.8692148291930064 0.578690324810602
4097000000.0 0.8228739600049987 0.5700571580582914
4100000000.0 0.8886161431161756 0.5552782635187263
4103000000.0 0.8795601380686551 0.5846744396212511
4106000000.0 0.9032778883675773 0.5762666746914311
4109000000.0 0.8914694804196877 0.5654847869194004
4112000000.0 0.8574031750798117 0.557570093465501
4116000000.0 0.8538077354322573 0.550259130575569
4119000000.0 0.9206916779244039 0.49113951145997037
4122000000.0 0.8911868370522761 0.4950568964311354
4125000000.0 0.9440558696635464 0.5089524924931887
4128000000.0 0.8824062238284898 0.5341143999432987
4131000000.0 0.9206333612528113 0.48172115394993875
4134000000.0 0.9132507410328162 0.5061013126574442
4138000000.0 0.8985052042681205 0.453306711662319
4141000000.0 0.9018868378565204 0.4393541804930968
4144000000.0 0.931750426690253 0.4691868992262603
4147000000.0 0.9298867965598455 0.46078516804471764
4150000000.0 0.9309151587383352 0.46924951382612695
4153000000.0 0.9373248711689476 0.4247393563429632
4156000000.0 0.9479924291312265 0.45584585526295696
4159000000.0 0.8880941764672416 0.41865726098468664
4162000000.0 0.9401490996894739 0.40521095809125307
4166000000.0 0.9790747704848433 0.3978015247973463
4169000000.0 0.9369374317518983 0.3665521702870427
4172000000.0 0.9360755058249175 0.4128848854243253
4175000000.0 0.9464276355121524 0.41399413183132366
4178000000.0 0.9520758678771988 0.3820647049972231
4181000000.0 0.9555745843015069 0.3594863697459517
4184000000.0 0.9396834714295053 0.38013965695742785
4188000000.0 0.9679883776137022 0.33058561764838834
4191000000.0 0.953790486997208 0.40766125110598844
4194000000.0 0.9638512633965814 0.34466286055111905
4197000000.0 0.969266818818661 0.3111619938609563
4200000000.0 0.9613971771092629 0.326313581244948
4203000000.0 0.9836639114860461 0.33510403006109946
4206000000.0 0.980815519526379 0.3094570061015863
4209000000.0 0.974893311712458 0.32504918349358697
4212000000.0 0.9855114521225006 0.27627996032028634
4216000000.0 0.9893458195229712 0.29012563141723685
4219000000.0 0.9973965263316418 0.2829280439200069
4222000000.0 0.9847381278555765 0.25218228550084076
4225000000.0 0.9745947358653191 0.27295548406112247
4228000000.0 0.9812087815373887 0.25315814989983676
4231000000.0 1.0049270755705324 0.24806375709184908
4234000000.0 0.9976492322406418 0.23496710612972982
4238000000.0 1.0031227975657273 0.2108587454967539
4241000000.0 0.9973156050367484 0.21174236754977832
4244000000.0 0.9824522009658851 0.20380564644129118
4247000000.0 0.9977165106264099 0.22100186694577217
4250000000.0 0.9902008906218971 0.18741630794543962
4253000000.0 0.9927456945054114 0.15873894799843347
4256000000.0 1.0427962402464002 0.17164420447203033
4259000000.0 0.9623911379636002 0.16799189028607056
4262000000.0 1.0035089909747632 0.13622133364983138
4266000000.0 1.0283945326459445 0.13957533231321617
4269000000.0 1.0154716533213324 0.14377769259383114
4272000000.0 0.9958510802377131 0.1297037078928035
4275000000.0 1.0153088071843317 0.12999784825181304
4278000000.0 1.0335476842169613 0.13123635247490034
4281000000.0 1.0258828848388997 0.12515798411748585
4284000000.0 1.0490979130045925 0.04679895477656787
4288000000.0 1.0060931503194808 0.1325596017543601
4291000000.0 0.971171208839313 0.07956098607465202
4294000000.0 1.019828570173101 0.07271125264651428
4297000000.0 1.0010777115399276 0.08830954482955224
4300000000.0 0.9928141759709883 0.07045560187555444
4303000000.0 0.9887063652374674 0.02542091042006127
4306000000.0 0.996132720021124 0.06001978172632094
4309000000.0 1.0073873684795605 0.030374689836992888
4312000000.0 1.034831000376784 0.0608758795184251
4316000000.0 1.010326314099681 0.044784823078505495
4319000000.0 0.9869262482134019 0.03152167611631053
4322000000.0 1.0119797509887745 -0.030315893041632763
4325000000.0 1.0311050697331725 0.01736349800386229
4328000000.0 0.998961758870387 -0.007221352414069848
4331000000.0 1.0414432931106938 -0.06864328130813294
4334000000.0 1.0117908920575909 -0.04134889323384376
4338000000.0 1.0218392705592108 -0.0023690611469320694
4341000000.0 1.0413333841921446 -0.01338647296221368
4344000000.0 1.0323980210556414 -0.05167972576834892
4347000000.0 1.0417668815103756 -0.11579164010015133
4350000000.0 0.9798163864923563 -0.08600165679759741
4353000000.0 0.9946511543019694 -0.07778624079912833
4356000000.0 1.0066295614123166 -0.11266021327493993
4359000000.0 0.951247018221579 -0.10875121381207581
4362000000.0 1.00878054999021 -0.16928646111407325
4366000000.0 1.0341020687096185 -0.1211134117332228
4369000000.0 0.97894201207311 -0.1316652782972796
4372000000.0 0.9679072299010707 -0.18626505667520413
4375000000.0 0.9891803716455303 -0.14232204359538406
4378000000.0 0.990249035843172 -0.1722355220558886
4381000000.0 0.994472763065801 -0.15280980755451648
4384000000.0 1.0680411735659323 -0.20181114427188304
4388000000.0 0.9774985264161726 -0.18961129203793645
4391000000.0 0.9875156716319287 -0.204058813393109
4394000000.0 0.9636539566477498 -0.20912946061288593
4397000000.0 0.9813693558843055 -0.23215071581085767
4400000000.0 1.0029020788560523 -0.22877952534258994
4403000000.0 0.9945553741678749 -0.23341975330351228
4406000000.0 0.974522660718098 -0.26306384460708865
4409000000.0 1.0142438686938815 -0.27806291355354773
4412000000.0 0.9639695771806249 -0.298458693294464
4416000000.0 0.9603902204010324 -0.2823225400547344
4419000000.0 0.9683935492599154 -0.2983376161170946
4422000000.0 0.9675639396177826 -0.2786467984156602
4425000000.0 0.9905619734893657 -0.2792444992453813
4428000000.0 0.9662322415319317 -0.30745771449138687
4431000000.0 0.9868128722876748 -0.31343485779848207
4434000000.0 0.9448241925157065 -0.3329102947177224
4438000000.0 0.9784626598659238 -0.3342826549337852
4441000000.0 0.9737112148958615 -0.34909061103358097
4444000000.0 0.9289818680447615 -0.3520216130920075
4447000000.0 0.9396536345904132 -0.3809532708672837
4450000000.0 0.9398821119626694 -0.3526029675221911
4453000000.0 0.969319778519416 -0.37013860019808087
4456000000.0 0.9086597791815653 -0.3809141512657238
4459000000.0 0.8970649849311823 -0.3804679657882243
4462000000.0 0.9710603605021821 -0.4203450197692771
4466000000.0 0.9552266436076347 -0.4187642894495366
4469000000.0 0.9285385891881559 -0.40786466654414566
4472000000.0 0.9156222261420135 -0.4391417916622505
4475000000.0 0.8966135766321388 -0.411776177994573
4478000000.0 0.93522956160689 -0.48140849062518243
4481000000.0 0.8731416816522163 -0.4434199782536224
4484000000.0 0.8753976463738486 -0.48991399754905596
4488000000.0 0.8797182353976843 -0.469737701280734
4491000000.0 0.8882817307589945 -0.46713202767947926
4494000000.0 0.8865274048576355 -0.484059447039826
4497000000.0 0.886784083729727 -0.46882005425925877
4500000000.0 0.8929037846118624 -0.49016659786801203
4503000000.0 0.902389261348886 -0.5063858988879996
4506000000.0 0.8610761392107757 -0.5231965991112685
4509000000.0 0.8545764753401872 -0.5194366938146981
4512000000.0 0.8432132628764021 -0.5279665385303776
4516000000.0 0.8729860870781314 -0.5432959585910629
4519000000.0 0.8577545017897061 -0.5137083286378556
4522000000.0 0.852259999097799 -0.5496856686933418
4525000000.0 0.859275229041222 -0.5334277797890316
4528000000.0 0.859025475234636 -0.5889077696645
4531000000.0 0.8475319450275565 -0.5786977552476387
4534000000.0 0.8308381763963688 -0.5647409134533788
4538000000.0 0.8241454352116051 -0.5788786787235917
4541000000.0 0.7830264177323325 -0.6132694637462176
4544000000.0 0.8043654131514366 -0.598463061483561
4547000000.0 0.8033387581792938 -0.5710966855260158
4550000000.0 0.8075793663139901 -0.6296826712039024
4553000000.0 0.7838539647848861 -0.646488043919156
4556000000.0 0.783232660404326 -0.6299261718426856
4559000000.0 0.784190722460608 -0.6510392014905102
4562000000.0 0.8074731641794799 -0.6447980638838622
4566000000.0 0.7721236720045268 -0.6615473497671531
4569000000.0 0.7477062160524478 -0.650021607805563
4572000000.0 0.7526818449351592 -0.6580781775317335
4575000000.0 0.7287415613429336 -0.7036499184638165
4578000000.0 0.777105093077771 -0.6887978831677449
4581000000.0 0.735089885403851 -0.7017424717970481
4584000000.0 0.7276693805466737 -0.7015927992038583
4588000000.0 0.7526950723633343 -0.7058372072852345
4591000000.0 0.7395014404774188 -0.6937291929418407
4594000000.0 0.6965716335694084 -0.7398525893892848
4597000000.0 0.7129465228805718 -0.7268776097011617
4600000000.0 0.6731250267630917 -0.7518451871623295
4603000000.0 0.6985698508884924 -0.7390808118333159
4606000000.0 0.7058827136393124 -0.7543107214010467
4609000000.0 0.6669315765587146 -0.7389974914482884
4612000000.0 0.6958304556236301 -0.777459784943052
4616000000.0 0.676411635080705 -0.758842686744313
4619000000.0 0.6744995905921779 -0.7362609538268088
4622000000.0 0.6465443137924844 -0.7751999383911967
4625000000.0 0.6206455832176162 -0.7819997535359852
4628000000.0 0.6404542110276208 -0.7778299074818779
4631000000.0 0.6172762249607406 -0.7898247080147575
4634000000.0 0.63790238452432 -0.788623098313536
4638000000.0 0.612211968690368 -0.7965059328151991
4641000000.0 0.6116214655634609 -0.7920799119808288
4644000000.0 0.6026791058649628 -0.8191534535098672
4647000000.0 0.5991031355880504 -0.8139077711617108
4650000000.0 0.5847764840753523 -0.8235977518266383
4653000000.0 0.5857246421332201 -0.8291322140321551
4656000000.0 0.5875978328318123 -0.8321532103048694
4659000000.0 0.5580125965455669 -0.8561768071661572
4662000000.0 0.5725604169138936 -0.8579059885554925
4666000000.0 0.5404943869656464 -0.8506087621370194
4669000000.0 0.543640201266502 -0.8506938587624892
4672000000.0 0.5518973964358344 -0.8742355790818347
4675000000.0 0.5058541428517808 -0.8856059225735062
4678000000.0 0.5083096810657355 -0.8496845537675832
4681000000.0 0.5083638816542659 -0.8773406261240524
4684000000.0 0.4868134842932278 -0.8891503597791072
4688000000.0 0.46601366700274616 -0.8784263278895067
4691000000.0 0.5173779498874733 -0.9098082115622979
4694000000.0 0.4969513468029044 -0.8930013130736925
4697000000.0 0.45356539680992974 -0.8680692556674336
4700000000.0 0.48667466203852916 -0.8784700898742537
4703000000.0 0.4622667303161261 -0.8569151008006795
4706000000.0 0.4412323958320655 -0.9145407238106303
4709000000.0 0.3903503040654157 -0.9159113774447284
4712000000.0 0.4422064274060793 -0.9331910308749016
4716000000.0 0.4161980975620385 -0.9525410125594198
4719000000.0 0.45672106561937764 -0.9197596210463362
4722000000.0 0.439960073589287 -0.924793119054172
4725000000.0 0.4022893200613957 -0.9437166568546482
4728000000.0 0.364252636978567 -0.9386887036712592
4731000000.0 0.4207468273536805 -0.9605746432490985
4734000000.0 0.38361360329744454 -0.9307303068113808
4738000000.0 0.3945957400527377 -0.983726635099798
4741000000.0 0.37618325042281314 -0.9758313165511392
4744000000.0 0.36776831198782706 -0.9617116735126986
4747000000.0 0.34359289904652146 -0.9087908485305614
4750000000.0 0.32370655731979175 -0.973070866319084
4753000000.0 0.32565572216667216 -0.9869835082029413
4756000000.0 0.3146825206101573 -0.9757356971471307
4759000000.0 0.32357954964320407 -0.9905144756859027
4762000000.0 0.2863289603631869 -0.9805994189691333
4766000000.0 0.3041925661984465 -0.9850961918307263
4769000000.0 0.27553918358837615 -0.9828284159702821
4772000000.0 0.27036079068853075 -0.9958452444759017
4775000000.0 0.27440468136720164 -1.0275045978505895
4778000000.0 0.30747144511978985 -1.0009147780577914
4781000000.0 0.2856182880476201 -0.9870824708978387
4784000000.0 0.2967249655170998 -0.9826042267086218
4788000000.0 0.22632929576179034 -1.0206236861756395
4791000000.0 0.22783185200050332 -0.9856714490994499
4794000000.0 0.26969834242372137 -1.01364615461233
4797000000.0 0.20024402797282892 -0.9788749294745963
4800000000.0 0.19807948587285423 -0.97335469354126
4803000000.0 0.15610365149737124 -0.9955310749442907
4806000000.0 0.18332820930862692 -1.020802703179036
4809000000.0 0.13436347462144113 -1.0167477363226243
4812000000.0 0.11368094480038314 -1.008837237694773
4816000000.0 0.1745449839906005 -0.9973676492640275
4819000000.0 0.17700581565656917 -1.0286048011857336
4822000000.0 0.1759201393980529 -1.0407459412711162
4825000000.0 0.16811068849737743 -1.0588138134924994
4828000000.0 0.13141397300375848 -1.0245053956452077
4831000000.0 0.07187680771052483 -1.0387545645301486
4834000000.0 0.13341665786196333 -1.012511777980595
4838000000.0 0.09234295403435877 -1.0531246095667368
4841000000.0 0.06255043130026416 -1.016850759106458
4844000000.0 0.12279337773066619 -1.0273621999466203
4847000000.0 0.09515959650746118 -0.986661577350219
4850000000.0 0.0422422039676779 -1.054520594109006
4853000000.0 0.06212534085237842 -1.023566715744629
4856000000.0 0.05835043667480001 -1.0109655599217446
4859000000.0 0.04814607228452322 -1.0603209197303376
4862000000.0 0.053252715960041816 -1.002995213515473
4866000000.0 0.008110844243057077 -1.0614534940060445
4869000000.0 0.0027933128598086436 -1.0365012410984353
4872000000.0 -0.03947471386404334 -1.0605513457007985
4875000000.0 0.04966046640076098 -1.0715239900437261
4878000000.0 -0.0046426648680140264 -1.040650082773961
4881000000.0 -0.06788696054992714 -1.0957953732341208
4884000000.0 -0.013856996109145647 -1.038307637137191
4888000000.0 -0.009569747431741916 -1.0138189720028685
4891000000.0 -0.019065725196842007 -1.063465471479601
4894000000.0 -0.07758398968878119 -1.0268907557367322
4897000000.0 -0.03354573552929825 -1.025186651209925
4900000000.0 -0.07928416010092558 -1.0208567487798328
4903000000.0 -0.05292932702993302 -1.051204168157871
4906000000.0 -0.08479215374718319 -1.0371596707465678
4909000000.0 -0.09924767057318204 -1.0375865582251722
4912000000.0 -0.14483855922049288 -1.0515390293268192
4916000000.0 -0.10782412858251772 -1.0588852190234601
4919000000.0 -0.07848129191145921 -1.0609532736216702
4922000000.0 -0.09087428307265033 -1.06225943007788
4925000000.0 -0.17346960711266973 -1.0127867557327124
4928000000.0 -0.10481293783450209 -1.0097409539870614
4931000000.0 -0.1440387670911389 -1.0642082299700868
4934000000.0 -0.12876216842264987 -1.0224345017922272
4938000000.0 -0.17464351210581663 -0.9956294702047657
4941000000.0 -0.18658116667024155 -1.0084513324427435
4944000000.0 -0.15778173569192652 -0.9849758568737008
4947000000.0 -0.20793660401950328 -0.9854198413368499
4950000000.0 -0.20938559435981435 -0.9690293738405381
4953000000.0 -0.25550887999185246 -1.074526939812071
4956000000.0 -0.2514968999509102 -1.0279063754208935
4959000000.0 -0.2598193418471282 -0.9727566993853243
4962000000.0 -0.25572416725356883 -1.0400277570203162
4966000000.0 -0.20953162965187772 -1.032658894223409
4969000000.0 -0.2219919397860538 -1.0479151020107227
4972000000.0 -0.2720707817396455 -0.9767826106446604
4975000000.0 -0.23466647272404742 -0.98651855531967
4978000000.0 -0.3018854910923357 -0.9813766186679741
4981000000.0 -0.33591350306392087 -0.9977306187310101
4984000000.0 -0.29557764058814384 -0.9718952236787274
4988000000.0 -0.28791047113234375 -0.9770841335004905
4991000000.0 -0.2993912019177161 -1.0266766391852984
4994000000.0 -0.31187097222811355 -0.9746049373991551
4997000000.0 -0.368581662476444 -1.009778569108156
5000000000.0 -0.34325447402103204 -1.0299104081288188
5003000000.0 -0.3476621588533437 -1.0308241974659627
5006000000.0 -0.3888646105300234 -1.036626146157527
5009000000.0 -0.3602063195552645 -0.9721061876398421
5012000000.0 -0.38425140363611104 -0.9961108233990805
5016000000.0 -0.3380218196036187 -1.0133275867550975
5019000000.0 -0.3953654144418348 -0.9718506710578014
5022000000.0 -0.3991725318112367 -0.9583247684509231
5025000000.0 -0.43387123092613605 -1.0024113529922
5028000000.0 -0.43875763847764604 -0.9637846407226383
5031000000.0 -0.4343518460000131 -0.9683764075273004
5034000000.0 -0.4576696754190541 -0.966570766698412
5038000000.0 -0.40935716033626446 -0.9232277366667423
5041000000.0 -0.418112693462955 -0.9721285520273854
5044000000.0 -0.41971255310032285 -0.9148206605591657
5047000000.0 -0.46811881476988787 -0.9580361006050752
5050000000.0 -0.38398308079685717 -0.9491542553959724
5053000000.0 -0.5253737788950551 -0.9559099502784423
5056000000.0 -0.4442230319526872 -0.9527420814314618
5059000000.0 -0.44255246436955037 -0.9480168059204238
5062000000.0 -0.539768661451563 -0.9059075952573765
5066000000.0 -0.43263437266560145 -0.9360196221197328
5069000000.0 -0.5374853772944208 -0.9385362714396802
5072000000.0 -0.48791782083074553 -0.8771933816163753
5075000000.0 -0.5000252202344518 -0.8993016726861736
5078000000.0 -0.5637749555345131 -0.907752802230424
5081000000.0 -0.5223933500092535 -0.8757888239560033
5084000000.0 -0.5872369770381372 -0.9368708298722488
5088000000.0 -0.5490301776879454 -0.898773551395232
5091000000.0 -0.6134398194273543 -0.8904268334854613
5094000000.0 -0.5536515161974943 -0.8733849792816838
5097000000.0 -0.5821630735081131 -0.8910182260702395
5100000000.0 -0.5590973997629803 -0.8894138779315289
5103000000.0 -0.5873154818886351 -0.8328954797342528
5106000000.0 -0.5733229215188835 -0.8960523215945873
5109000000.0 -0.5779379573524499 -0.8872495036936388
5112000000.0 -0.6579068243610657 -0.8209179133508726
5116000000.0 -0.5941639208437656 -0.8084188590546529
5119000000.0 -0.6892291072157329 -0.8239344455812774
5122000000.0 -0.6540121217130571 -0.829006373540222
5125000000.0 -0.6169617041796136 -0.832471211518996
5128000000.0 -0.6264861041055022 -0.8170445293075037
5131000000.0 -0.650163318059094 -0.8249863242477906
5134000000.0 -0.6374884584697661 -0.8311344094426255
5138000000.0 -0.6385236831385892 -0.8252048195459551
5141000000.0 -0.589388994463925 -0.8574227643932901
5144000000.0 -0.6189523488275204 -0.8790140174596336
5147000000.0 -0.7171602516583778 -0.7784453547634714
5150000000.0 -0.6857681699987503 -0.8129061127535934
5153000000.0 -0.7472630166346472 -0.8312441469098496
5156000000.0 -0.7181967874468467 -0.8156276870150447
5159000000.0 -0.6980251423829297 -0.8130724509348244
5162000000.0 -0.7368217725789481 -0.7616419028624664
5166000000.0 -0.7171285713980823 -0.7913885581859266
5169000000.0 -0.7301683751343327 -0.8023740206872261
5172000000.0 -0.7048195712852057 -0.8013248505322382
5175000000.0 -0.7015778114471274 -0.76594483669685
5178000000.0 -0.7274574010867327 -0.7248049008141565
5181000000.0 -0.7581417381879024 -0.7279112943848375
5184000000.0 -0.743331284079043 -0.7069818666203969
5188000000.0 -0.7729707612828729 -0.7068756250449997
