! Created with skrf 1.8.0 (http://scikit-rf.org).
# Hz S RI R 50.0 
!freq ReS11 ImS11
4000000000.0 0.6381430104181094 0.792324949089503
4003000000.0 0.6531496850322109 0.8778385594689627
4006000000.0 0.6755272638816295 0.7559838556183549
4009000000.0 0.6542515315957709 0.827077341898984
4012000000.0 0.655739017636601 0.8374794492247801
4016000000.0 0.6890302270195559 0.8214442163568161
4019000000.0 0.6733212292257282 0.7301668910397778
4022000000.0 0.6245271120205437 0.8538581842152709
4025000000.0 0.7346343994329173 0.7442567938553893
4028000000.0 0.7269880011486086 0.7687960872561341
4031000000.0 0.663604635779282 0.7486314525573865
4034000000.0 0.6943544311011269 0.7140563587275056
4038000000.0 0.7751397865018756 0.7413246563994831
4041000000.0 0.721401417150648 0.7446150915569182
4044000000.0 0.7851375941487404 0.7538200028523591
4047000000.0 0.7344982839381852 0.7668503266668684
4050000000.0 0.7558895454478362 0.7018209738261286
4053000000.0 0.7541261904429617 0.6716942803333903
4056000000.0 0.7207532336311229 0.6979654209162883
4059000000.0 0.7178820948517326 0.6855776675226224
4062000000.0 0.8064336373259917 0.6686404780267392
4066000000.0 0.7117533491357326 0.651826256747539
4069000000.0 0.8347111702387358 0.7496441907560119
4072000000.0 0.7370683038807039 0.6994654793550488
4075000000.0 0.8105286986298423 0.7269218225929448
4078000000.0 0.8326723953045628 0.6601321874206431
4081000000.0 0.7544217620258423 0.6886499645462624
4084000000.0 0.8037316185345856 0.6695593843845458
4088000000.0 0.754145753099113 0.6803319524449462
4091000000.0 0.8692615929290274 0.6893444145834318
4094000000.0 0.821708785835892 0.634530444326238
4097000000.0 0.8088522283683935 0.6110550945401094
4100000000.0 0.7960533769108756 0.5972585195371247
4103000000.0 0.8479252189214617 0.6211328650575425
4106000000.0 0.8424229335774192 0.6243578703143248
4109000000.0 0.8428299799350711 0.6035449700238844
4112000000.0 0.8555513976578906 0.5892104494027219
4116000000.0 0.8171840870043632 0.6148976150441305
4119000000.0 0.8844891162401288 0.5438863061108454
4122000000.0 0.897053385174388 0.5199542976516065
4125000000.0 0.9024799029652197 0.5385382460574581
4128000000.0 0.8519635440849435 0.5527994655202602
4131000000.0 0.8452519086452358 0.5249766430327228
4134000000.0 0.8521266170737876 0.5441142285628467
4138000000.0 0.8522096281017759 0.5425575443497497
4141000000.0 0.8860998305146754 0.5068490728447449
4144000000.0 0.8702253967756746 0.5345270233516566
4147000000.0 0.8783880886487089 0.49363225534098315
4150000000.0 0.9095608819806017 0.5270301579517012
4153000000.0 0.8953786462478712 0.4917672021579875
4156000000.0 0.9205104724055366 0.48856158608817024
4159000000.0 0.9065402852859819 0.48973088890168665
4162000000.0 0.9156401528270222 0.45678256315891586
4166000000.0 0.9355042452002036 0.45657094749762794
4169000000.0 0.9238349749250323 0.43125932832511804
4172000000.0 0.915097379588161 0.46173645420734416
4175000000.0 0.9225604157996707 0.44599838923124285
4178000000.0 0.9070788647294787 0.45103548181356745
4181000000.0 0.9483857741317898 0.4171226389230719
4184000000.0 0.9191784932962999 0.40462822701200957
4188000000.0 0.9112957449692838 0.4104874173034797
4191000000.0 0.9108953296690118 0.4397691995658531
4194000000.0 0.9103102968482545 0.39909604074293603
4197000000.0 0.9610809412823504 0.38659884185396015
4200000000.0 0.9434056634274974 0.41421857042551713
4203000000.0 0.9465484265710742 0.3940314113345498
4206000000.0 0.9637581544022831 0.3837727850547788
4209000000.0 0.9442960311245097 0.3729211989810938
4212000000.0 0.9649352724878193 0.32078706697907544
4216000000.0 0.9516237098573517 0.3542970364195908
4219000000.0 0.9638545080834304 0.34453237308292317
4222000000.0 0.9747345132709306 0.31277523006219704
4225000000.0 0.9522195831250364 0.3277514547203283
4228000000.0 0.9779055403732704 0.31237452827151424
4231000000.0 0.970786266368779 0.29688123856827847
4234000000.0 0.9833894369696092 0.2861296715507581
4238000000.0 0.9707557725980502 0.2726608465699276
4241000000.0 0.9701961936525367 0.26189596706207646
4244000000.0 0.9687023089597455 0.25566624194379733
4247000000.0 0.9709422676681122 0.26642274897014495
4250000000.0 0.9795589571595007 0.24335397888035193
4253000000.0 0.9570687484100711 0.2225272482579017
4256000000.0 1.0059423862873398 0.24178451429220704
4259000000.0 0.9720744764341497 0.21519354402063653
4262000000.0 1.0003037387965723 0.2085882762062848
4266000000.0 1.0050629048571735 0.1860495461331918
4269000000.0 0.984431608908847 0.2082410696100985
4272000000.0 0.9910224373148736 0.19333900671869053
4275000000.0 1.0005166393135199 0.1887789210644334
4278000000.0 1.0154382317116952 0.15451636966800986
4281000000.0 1.015399568821622 0.16729337505909125
4284000000.0 1.0048345503037583 0.13101902890774078
4288000000.0 1.0032631300873496 0.17177254735871095
4291000000.0 0.9945502195416893 0.14950513806934695
4294000000.0 0.9935472726347959 0.11395399514528944
4297000000.0 0.9984175147871649 0.13812057350163714
4300000000.0 0.9685100036279684 0.14189257911390007
4303000000.0 1.0065983936573093 0.10498007637300259
4306000000.0 1.0103085082190628 0.10873221808020272
4309000000.0 0.9841636877160366 0.10359878756819939
4312000000.0 1.0166485343697813 0.12394166672600959
4316000000.0 1.009523138295247 0.07732211436679574
4319000000.0 0.9997107797727592 0.09952960151447392
4322000000.0 0.9943222849079241 0.05926218395053216
4325000000.0 1.0132821908774754 0.05985674807072615
4328000000.0 0.9900847322679995 0.02064219242288022
4331000000.0 0.9903966074085371 0.01625047939200508
4334000000.0 1.037390941788388 0.02462203449864514
4338000000.0 0.9849259646013285 0.03567947819647731
4341000000.0 1.0445490704650808 0.029892700205182338
4344000000.0 1.030430019718925 0.005478511053200019
4347000000.0 1.0027810127024577 -0.02318329272973657
4350000000.0 0.9537768045581095 -0.02179788959293122
4353000000.0 0.9797106494061656 -0.017900048207451225
4356000000.0 0.9915849306344824 -0.053316000253848445
4359000000.0 0.9699438305943473 -0.03249882326770612
4362000000.0 1.0130764106790147 -0.09439668266004787
4366000000.0 1.0096860570670059 -0.07026788848935131
4369000000.0 0.9738693131977842 -0.06520029273820113
4372000000.0 1.007457775412937 -0.1154032108312103
4375000000.0 0.9985190514907105 -0.06478178955799932
4378000000.0 0.9638607114476118 -0.07894182399210005
4381000000.0 0.98417641550961 -0.09429089414364585
4384000000.0 1.051144802986634 -0.1334010288156847
4388000000.0 0.9872801351014672 -0.10906745765442837
4391000000.0 1.0063305603891397 -0.12851048013518276
4394000000.0 0.9619785928838739 -0.14030235635554078
4397000000.0 0.9888616234327199 -0.14475265960004677
4400000000.0 1.0216270376588872 -0.16762220517466103
4403000000.0 1.0063421566359279 -0.16569380097724745
4406000000.0 0.9954579841096616 -0.1942779727107315
4409000000.0 1.0176505238386235 -0.18220997126492677
4412000000.0 0.9687036218271471 -0.25082303534337747
4416000000.0 0.9603711204307646 -0.21200609431466363
4419000000.0 0.9821722522351213 -0.2407100804624554
4422000000.0 0.9755397763435716 -0.20974346666284047
4425000000.0 1.0120045496162793 -0.2002490092290084
4428000000.0 0.9859336197692841 -0.2501506570763025
4431000000.0 0.9998026386414001 -0.24273807844118808
4434000000.0 0.9594740761809741 -0.2564728656495176
4438000000.0 1.0037990520454096 -0.2625200273783505
4441000000.0 0.9905830966436044 -0.27508309495436867
4444000000.0 0.9574207712453424 -0.2737785858216175
4447000000.0 0.9542309616034544 -0.29619534452208335
4450000000.0 0.9653702658547303 -0.2728263767595527
4453000000.0 0.9717359185123206 -0.29911819894195585
4456000000.0 0.9336647906639428 -0.311398011486927
4459000000.0 0.9057750101655702 -0.31376007665425537
4462000000.0 1.0013709971274274 -0.33665624511994396
4466000000.0 0.9767075109900426 -0.35958023456855026
4469000000.0 0.9546117433074922 -0.3281440106766025
4472000000.0 0.9583915453519942 -0.39001374783425014
4475000000.0 0.9208250559468076 -0.35825792962682457
4478000000.0 0.9800432329930336 -0.39899079162884665
4481000000.0 0.9133991766370534 -0.3894161424525092
4484000000.0 0.9173366319152969 -0.4207015729826423
4488000000.0 0.8999509971594891 -0.3856661169986057
4491000000.0 0.9267059613180987 -0.4123436646525076
4494000000.0 0.9163104311655274 -0.40525429431238785
4497000000.0 0.913118569328196 -0.4032071787355913
4500000000.0 0.9230167647936709 -0.4288767235645415
4503000000.0 0.9300667497953439 -0.441875952781665
4506000000.0 0.891046175519481 -0.42072653929268783
4509000000.0 0.8841928276277524 -0.4332473075749219
4512000000.0 0.8786199234947593 -0.461037809326191
4516000000.0 0.9108357380355985 -0.4669978641078714
4519000000.0 0.888311775848675 -0.4523099576083851
4522000000.0 0.8586822281554918 -0.4862156520026302
4525000000.0 0.8966388318288907 -0.47382778065485864
4528000000.0 0.9029801154716537 -0.49442303980692615
4531000000.0 0.8635813105096791 -0.49256554197702485
4534000000.0 0.8637938245116674 -0.496402741522075
4538000000.0 0.838878188823112 -0.5101194407578847
4541000000.0 0.8209636378426242 -0.5438733673588472
4544000000.0 0.845565547113192 -0.5107955131060602
4547000000.0 0.8581241020528905 -0.5160705657709115
4550000000.0 0.8346963446862279 -0.5624898673042483
4553000000.0 0.8369375265823611 -0.5682589760144613
4556000000.0 0.816249684232432 -0.56926467644248
4559000000.0 0.8107161797952804 -0.5786712974120032
4562000000.0 0.8364954366422099 -0.5763796129350378
4566000000.0 0.8139069198948354 -0.5776042373637311
4569000000.0 0.7930471740242911 -0.5725655694717859
4572000000.0 0.7893950021139403 -0.6001151979019262
4575000000.0 0.8048725458373227 -0.6289663848337244
4578000000.0 0.8179262467956652 -0.6134616969606471
4581000000.0 0.7773729208099887 -0.641411531962942
4584000000.0 0.780812517212932 -0.6328933803833665
4588000000.0 0.7981930618282631 -0.6275536550532126
4591000000.0 0.7829033070432766 -0.6189864339497463
4594000000.0 0.747437518987088 -0.6463744761219735
4597000000.0 0.7607293017840973 -0.652551886401182
4600000000.0 0.7265894134108947 -0.6710624261753688
4603000000.0 0.731726399480459 -0.6924164855858824
4606000000.0 0.75855902295314 -0.6781223288794366
4609000000.0 0.7366513014611235 -0.6793601590058688
4612000000.0 0.7318823474688547 -0.6962857716053609
4616000000.0 0.719378563595364 -0.6844484942084182
4619000000.0 0.7120018154452613 -0.6799303903533058
4622000000.0 0.7024567931737337 -0.7082174972220545
4625000000.0 0.6748892893477382 -0.7236300703396138
4628000000.0 0.6921097886140459 -0.6943055704442087
4631000000.0 0.6734624090695343 -0.7236813102537246
4634000000.0 0.6754342361402397 -0.7441953087417081
4638000000.0 0.6856660993314356 -0.7478647102497036
4641000000.0 0.6864446024596838 -0.7505399959379386
4644000000.0 0.6526543684769922 -0.7471913012619418
4647000000.0 0.6703765899472757 -0.7580018389161596
4650000000.0 0.6436435449316489 -0.7686510365668096
4653000000.0 0.664766611986353 -0.7717394095128315
4656000000.0 0.6420581154215068 -0.7884580984493883
4659000000.0 0.6352460617844851 -0.784099172726354
4662000000.0 0.6374425887102478 -0.7973296285481422
4666000000.0 0.6188547743323615 -0.8047985511071727
4669000000.0 0.6362109278162478 -0.8043125952053483
4672000000.0 0.6040387578618686 -0.8267649489629865
4675000000.0 0.5798634215856308 -0.8131635022641727
4678000000.0 0.5612527040495283 -0.7978489990933463
4681000000.0 0.5666467501108627 -0.8465835656044779
4684000000.0 0.5559950507725266 -0.8466893264164573
4688000000.0 0.5293908518255828 -0.827341941668482
4691000000.0 0.5743986076365778 -0.8390532823759083
4694000000.0 0.5590075590319967 -0.8202214895735955
4697000000.0 0.5165691357945563 -0.8211516552104858
4700000000.0 0.5434319277218425 -0.8421369626167192
4703000000.0 0.5400188906144514 -0.7977549806681148
4706000000.0 0.5271980700395211 -0.8813660410756241
4709000000.0 0.5138695665904865 -0.888839233656311
4712000000.0 0.5117645008103988 -0.8773307942167071
4716000000.0 0.513803993485914 -0.897049889931602
4719000000.0 0.5341459303195042 -0.8749927108091738
4722000000.0 0.5028865328405016 -0.8840359666318023
4725000000.0 0.5068651665884617 -0.8774412034438278
4728000000.0 0.45804364070949555 -0.8708971389263305
4731000000.0 0.5032460969707746 -0.9012230260259717
4734000000.0 0.45804599159547016 -0.879382976668251
4738000000.0 0.49108227071416877 -0.9178749592323588
4741000000.0 0.44923081750241145 -0.9368834338210512
4744000000.0 0.3941348702739532 -0.9231581614701664
4747000000.0 0.43949319617373717 -0.8785653117711012
4750000000.0 0.4161628543143391 -0.9437787437844676
4753000000.0 0.41868274211168344 -0.9554801789474483
4756000000.0 0.41281023371104403 -0.951258459016415
4759000000.0 0.39132594993716363 -0.9450816901456403
4762000000.0 0.38005116548353735 -0.9468722340577438
4766000000.0 0.3439321747477071 -0.9155351213356433
4769000000.0 0.3827509194695376 -0.9497345775559608
4772000000.0 0.38425583839872424 -0.9710124676686244
4775000000.0 0.34664157428411047 -0.9764362402165885
4778000000.0 0.3632190720698325 -0.9631400625098682
4781000000.0 0.3438095126697852 -0.9439307606383194
4784000000.0 0.3434729872283918 -0.947016750386427
4788000000.0 0.3235669947612875 -0.9775083096228974
4791000000.0 0.28704329539245876 -0.9752445149015124
4794000000.0 0.35985136903103565 -1.0032713376540348
4797000000.0 0.2832483390202172 -0.9469968886683792
4800000000.0 0.26418852615407024 -0.9714293099701956
4803000000.0 0.23357460792092788 -0.9758782797324184
4806000000.0 0.28435289533737534 -0.9993462172725616
4809000000.0 0.22753783570995917 -0.9646081175665778
4812000000.0 0.22082843252363085 -0.9854140428126603
4816000000.0 0.26782209077535113 -0.9587653701583572
4819000000.0 0.2768045462802825 -1.006231509816001
4822000000.0 0.25030485522365054 -1.0259009750764854
4825000000.0 0.251553157700647 -1.012897932927749
4828000000.0 0.208126102590881 -0.9992069582784392
4831000000.0 0.16904967180057243 -1.0154884801578272
4834000000.0 0.20883026789283726 -0.9984323374422266
4838000000.0 0.17761015959308618 -1.0217731022583645
4841000000.0 0.1726713691567508 -1.0010944726750517
4844000000.0 0.21428123566101062 -1.0170426905630499
4847000000.0 0.20179508557817294 -0.9698398686033347
4850000000.0 0.14960737357479273 -1.0335475477412028
4853000000.0 0.14158583532575442 -0.9959541057656318
4856000000.0 0.1500150687703578 -1.0070929466575524
4859000000.0 0.1214627767654052 -1.0385844088097271
4862000000.0 0.1323218207198169 -0.9774947714729426
4866000000.0 0.09171350266332895 -1.03624820165512
4869000000.0 0.08232656270980371 -1.0229292203741474
4872000000.0 0.08597479663659385 -1.0587474007757594
4875000000.0 0.15419307752089648 -1.0759381984483878
4878000000.0 0.08240402426954802 -1.036721032269924
4881000000.0 0.04767968703284258 -1.1088588042305034
4884000000.0 0.08316905334754653 -1.0375720209338155
4888000000.0 0.10249026788146506 -1.0195194211597778
4891000000.0 0.0776738805369944 -1.0377851067199308
4894000000.0 0.01743276487519982 -1.0212654803730148
4897000000.0 0.03184610582705719 -1.007364697806265
4900000000.0 0.04923741384321053 -1.0452669455701245
4903000000.0 0.06468039380441437 -1.051816274901445
4906000000.0 0.021983063192845945 -1.0445783428055697
4909000000.0 -0.002379990960110479 -1.0090404362967105
4912000000.0 -0.021369645603025594 -1.038997471373229
4916000000.0 -0.00012309899399645663 -1.05501918606928
4919000000.0 0.0012685352171172073 -1.0255230189192006
4922000000.0 -0.014207453912878976 -1.0480541117933584
4925000000.0 -0.07243074548175199 -1.023971595359676
4928000000.0 0.018647715702965903 -1.0012603271752079
4931000000.0 -0.031175762777892024 -1.0596449355964561
4934000000.0 -0.03671402157833517 -0.9581660507347146
4938000000.0 -0.08666274700886016 -0.9933608448982973
4941000000.0 -0.07841112688068237 -0.9902514218986512
4944000000.0 -0.0553804992187131 -0.9483138800025257
4947000000.0 -0.09636640348303807 -0.9846843363920028
4950000000.0 -0.11725535778624903 -0.9988362924463717
4953000000.0 -0.14712208571374247 -1.0223530924794184
4956000000.0 -0.13152409711980678 -1.0371797481234273
4959000000.0 -0.15234006372114725 -0.9861955795503441
4962000000.0 -0.14181508846027072 -1.029154461237246
4966000000.0 -0.13489444728262323 -1.01638426016642
4969000000.0 -0.13768304077315036 -1.0527247551830967
4972000000.0 -0.1578698726481608 -1.0188398084733197
4975000000.0 -0.1375651138148367 -0.9912424150062096
4978000000.0 -0.17790719167714347 -1.0263001574507025
4981000000.0 -0.18722647928934624 -1.0115271226514277
4984000000.0 -0.1676313153121953 -0.9821588237871381
4988000000.0 -0.1776916644698568 -1.0050196876834785
4991000000.0 -0.15917307942993403 -1.0412849795808043
4994000000.0 -0.19538840216589393 -1.0007536500443022
4997000000.0 -0.2837868818478151 -0.9992097282671016
5000000000.0 -0.21394875685104048 -1.0382174485669686
5003000000.0 -0.24032994399453234 -1.0252839262372238
5006000000.0 -0.2680994218989755 -1.0415143999552152
5009000000.0 -0.21598694071617966 -1.0133451149789503
5012000000.0 -0.27658798887894975 -0.9856157516828057
5016000000.0 -0.24802638791628617 -1.0298381054208192
5019000000.0 -0.24976525702690833 -0.9983951997647782
5022000000.0 -0.28910595672672623 -0.9983868712953405
5025000000.0 -0.3335110648555137 -1.0552333892435322
5028000000.0 -0.33094337434600185 -0.983355538796574
5031000000.0 -0.29770122363557416 -0.9790976882171282
5034000000.0 -0.36565206437082076 -1.0274740402469964
5038000000.0 -0.3461415636300079 -0.940746766414396
5041000000.0 -0.28701124185004123 -1.0166763751386454
5044000000.0 -0.30825487897903314 -0.9543964239185815
5047000000.0 -0.3475511852692044 -0.9839924813284305
5050000000.0 -0.25186333116191506 -0.9744150805462048
5053000000.0 -0.4224554700796691 -1.0102833078092972
5056000000.0 -0.3117396342659934 -0.9720538887422143
5059000000.0 -0.3379318475750777 -0.9636039147208272
5062000000.0 -0.43854662122158705 -0.9843835467085409
5066000000.0 -0.37295178201658163 -0.9374130865522812
5069000000.0 -0.417623534286398 -0.9457866842827248
5072000000.0 -0.388658703741676 -0.90677504943504
5075000000.0 -0.37027344449141086 -0.9785491150668459
5078000000.0 -0.45478012119369554 -0.9451377032068247
5081000000.0 -0.4214621691746466 -0.8945599007784372
5084000000.0 -0.4549029455082939 -0.9212246321811286
5088000000.0 -0.38634711892650475 -0.9230370188448307
5091000000.0 -0.5164975762465402 -0.8837851623663184
5094000000.0 -0.42735663353223047 -0.9203449397354105
5097000000.0 -0.4531386854565743 -0.9499174569521467
5100000000.0 -0.42964269723706416 -0.9200729180681008
5103000000.0 -0.4688992360267864 -0.899501356543294
5106000000.0 -0.464831131935249 -0.9509822344282015
5109000000.0 -0.490719272587154 -0.93541966566886
5112000000.0 -0.5256807764960113 -0.944895478064129
5116000000.0 -0.4700244345114446 -0.8296530279611269
5119000000.0 -0.5326738410549331 -0.8675567287393275
5122000000.0 -0.4971171540087455 -0.8862117877116615
5125000000.0 -0.488779232880017 -0.8777380993552844
5128000000.0 -0.5461150268935738 -0.8684729569011806
5131000000.0 -0.5483584898349397 -0.8973272375767151
5134000000.0 -0.5500808277988174 -0.8514891031099846
5138000000.0 -0.5725001586650124 -0.8769487029218235
5141000000.0 -0.5470587231533215 -0.9117626515829746
5144000000.0 -0.5438603620578623 -0.8604196987816404
5147000000.0 -0.5624061532122556 -0.8948951264081193
5150000000.0 -0.5763954120757958 -0.9064530704846467
5153000000.0 -0.5841914083303551 -0.8960737527726712
5156000000.0 -0.586006490393684 -0.8575826501596491
5159000000.0 -0.6302971305780142 -0.9040014389520095
5162000000.0 -0.5975662899784743 -0.8159519343483422
5166000000.0 -0.6525190486898383 -0.8342647597327733
5169000000.0 -0.6509364487855087 -0.861658038912282
5172000000.0 -0.6116422252667588 -0.8504146201545832
5175000000.0 -0.6669229530424495 -0.872900038940323
5178000000.0 -0.6372778193627533 -0.7988934127571939
5181000000.0 -0.6516483220074601 -0.847782649476077
5184000000.0 -0.6333866916720077 -0.7874650206537119
5188000000.0 -0.6610732120203917 -0.8332692601553068
