! Created with skrf 1.8.0 (http://scikit-rf.org).
# Hz S RI R 50.0 
!freq ReS11 ImS11
4000000000.0 0.6487757472464953 0.7162290518778112
4003000000.0 0.6967152411742089 0.7968045275738544
4006000000.0 0.7647242972913139 0.6816573780092472
4009000000.0 0.6951096892834437 0.7118059977271355
4012000000.0 0.659246143351916 0.7804354574535668
4016000000.0 0.7823950669410702 0.724008965956334
4019000000.0 0.6941481445421087 0.7186743669751422
4022000000.0 0.6669067281421728 0.7370894511585065
4025000000.0 0.7875374637536976 0.653938016188207
4028000000.0 0.7198591681427191 0.688453383788385
4031000000.0 0.7120651068830238 0.6860573679709867
4034000000.0 0.7398421376640363 0.6564258546321008
4038000000.0 0.782437358275521 0.6683443595363091
4041000000.0 0.7575019971092521 0.6822318173620604
4044000000.0 0.8322308135682186 0.6886680871532648
4047000000.0 0.7861889590890906 0.7238643825801044
4050000000.0 0.8130357219109976 0.6891616440488458
4053000000.0 0.7772800834148141 0.6076703894755959
4056000000.0 0.8088399377289971 0.6329977436422348
4059000000.0 0.7808214284447921 0.6514106908878003
4062000000.0 0.8208720340292676 0.6331548507263098
4066000000.0 0.7791126658689518 0.5500409834183176
4069000000.0 0.867479585564614 0.6444561980924308
4072000000.0 0.8032678854681822 0.615974487677412
4075000000.0 0.8248554805821235 0.6575329968804524
4078000000.0 0.8456555296922256 0.6012019241074746
4081000000.0 0.8283128382821604 0.6462071276197328
4084000000.0 0.8625196433690726 0.5533722535650303
4088000000.0 0.8420328828986424 0.6119708221006345
4091000000.0 0.9005176014418816 0.6063672154964095
4094000000.0 0.8309299261497423 0.5822918538969414
4097000000.0 0.8382468036165768 0.5247884818033106
4100000000.0 0.8749477785203611 0.5386904292358157
4103000000.0 0.8347456125397352 0.583074211507739
4106000000.0 0.8983045402396542 0.5292222521663617
4109000000.0 0.8961807709188991 0.5195585265279861
4112000000.0 0.8823605241589465 0.5248327228719394
4116000000.0 0.8654064686487861 0.5562212506770774
4119000000.0 0.9053451989266507 0.4960310818319664
4122000000.0 0.8991090974181909 0.47067428006055345
4125000000.0 0.9441467265515114 0.49108126879262154
4128000000.0 0.8493459836008399 0.4834737197425386
4131000000.0 0.9154310408549937 0.46951242781763436
4134000000.0 0.8990703835135102 0.4720137325467335
4138000000.0 0.8963497834027283 0.46031743945464726
4141000000.0 0.9027310989182912 0.4490923846578798
4144000000.0 0.897120174224021 0.4659247880627558
4147000000.0 0.9315162188866299 0.45061987212355886
4150000000.0 0.955921750914093 0.4605590075648454
4153000000.0 0.9215538297780729 0.41442620493360294
4156000000.0 0.9440006024966172 0.43467842983684846
4159000000.0 0.909301257219812 0.4121913492173946
4162000000.0 0.9364515630840529 0.38092915131287064
4166000000.0 0.9823353185851442 0.41122935212426404
4169000000.0 0.9390913128656337 0.35450546900292546
4172000000.0 0.9692015317327239 0.38317182890712537
4175000000.0 0.9538520172483299 0.39285866167751166
4178000000.0 0.9731399157394875 0.36830418996468584
4181000000.0 0.9595149780051879 0.3603433781150812
4184000000.0 0.9539415942307811 0.3452975770335928
4188000000.0 0.9657267038898971 0.330456979922472
4191000000.0 0.9385511199454094 0.33757266355470267
4194000000.0 0.940627455898149 0.2962847631130866
4197000000.0 0.9578243057652014 0.3112707331248457
4200000000.0 0.9579156095486359 0.32264373723563056
4203000000.0 0.9832601990857623 0.31937641442407205
4206000000.0 0.9897027680979558 0.2749374787075058
4209000000.0 0.9658550128031959 0.27288841102963485
4212000000.0 0.9817151432521055 0.25085024115816057
4216000000.0 0.9798954424450343 0.27598987866603636
4219000000.0 0.9928009127354449 0.2755176336612536
4222000000.0 0.9855932318967799 0.24049583793857576
4225000000.0 0.973323111139605 0.2096299013042833
4228000000.0 0.9905657440328421 0.22923919565297537
4231000000.0 1.0082064222920604 0.2196246192470518
4234000000.0 0.9966431030552089 0.19558014490171982
4238000000.0 0.9975637329583896 0.1899791027908165
4241000000.0 0.9969050071216163 0.16792356273852616
4244000000.0 0.9866445134143398 0.18167401516985143
4247000000.0 1.009413201290545 0.16504482686977195
4250000000.0 0.9766568202225137 0.14353058936794943
4253000000.0 0.9694470749234925 0.14920527575653308
4256000000.0 1.0147778372974563 0.1410984045112228
4259000000.0 0.9725403865156299 0.11297722478212183
4262000000.0 1.025552280181333 0.11296823704817677
4266000000.0 1.0245000776316089 0.08960570629446349
4269000000.0 1.000654578197083 0.12052084406949551
4272000000.0 1.0095428825724748 0.10996729034803415
4275000000.0 0.9947571452682415 0.10060836275504623
4278000000.0 1.0659803120782865 0.10592171058189193
4281000000.0 1.015153252856537 0.09041975531660686
4284000000.0 1.0281608411132783 0.034177975954844564
4288000000.0 0.9924469514720089 0.08131926583275112
4291000000.0 0.9850546558757804 0.05724636012971661
4294000000.0 1.0042182491802645 0.03339859766098886
4297000000.0 1.0029973474173586 0.07386568168666573
4300000000.0 1.0009266703524866 0.029776728336995302
4303000000.0 0.9842286535717962 -0.007709779806443648
4306000000.0 1.0141376965505104 0.03458905357277299
4309000000.0 0.9994679085846417 -0.01745462409569369
4312000000.0 1.0188787159421064 0.03577097134310607
4316000000.0 1.0253806285520726 -0.004918273924124847
4319000000.0 0.9825928064027022 -0.008806143723158494
4322000000.0 0.9810808040236282 -0.07031190585267037
4325000000.0 0.9824307136012991 -0.03170657560566774
4328000000.0 1.0047378160358367 -0.08278530092189694
4331000000.0 1.0191506279474885 -0.10895935245616262
4334000000.0 1.0028243184626608 -0.0790128661715229
4338000000.0 1.0034230239896411 -0.06606507307438704
4341000000.0 1.01950046512415 -0.05132559609364139
4344000000.0 1.0231922796417234 -0.09355888341792606
4347000000.0 1.0284116493165705 -0.14701610237724444
4350000000.0 0.9592244598297465 -0.12529177379245257
4353000000.0 0.9808431866636689 -0.11015579084778943
4356000000.0 0.9789983726566566 -0.13580728046184146
4359000000.0 0.9545278624934505 -0.13930454422141833
4362000000.0 1.0003480343318618 -0.1955968646517198
4366000000.0 1.0186632447464743 -0.19731924080747135
4369000000.0 0.9640907396337722 -0.17850289377182646
4372000000.0 0.9709681152947689 -0.22418928334974278
4375000000.0 0.9837006158073862 -0.17451229241313437
4378000000.0 0.960315246893286 -0.19330889260862527
4381000000.0 0.9661669989350807 -0.19066873707402773
4384000000.0 1.0243948910721565 -0.23201561710542698
4388000000.0 0.9731142425695005 -0.2122161421025879
4391000000.0 0.9910704751126116 -0.23318401346036582
4394000000.0 0.9524986213927047 -0.2428590261933468
4397000000.0 0.9659784695213991 -0.25409295165945894
4400000000.0 0.997933842116324 -0.26443518320890824
4403000000.0 0.9723905880016471 -0.25869912764853636
4406000000.0 0.9646908763560267 -0.2872259703895046
4409000000.0 0.993069562135448 -0.29385783287058664
4412000000.0 0.944259688099478 -0.34334577323787335
4416000000.0 0.943615023335997 -0.3120531745690853
4419000000.0 0.9581950587264169 -0.32639039446694884
4422000000.0 0.9488017366937425 -0.2994770225026308
4425000000.0 0.9715575226963226 -0.3191559899748823
4428000000.0 0.9491726979852542 -0.3477053898025403
4431000000.0 0.9691481730689893 -0.35361151383890244
4434000000.0 0.9268011037821982 -0.3579481599918688
4438000000.0 0.954864793037121 -0.3676618281274535
4441000000.0 0.9487977644292598 -0.37373872834591415
4444000000.0 0.9102217970680002 -0.36356414475043397
4447000000.0 0.9120754267455833 -0.39982547940071966
4450000000.0 0.9217713809774517 -0.37504944682387353
4453000000.0 0.9476691518238188 -0.4172015938354265
4456000000.0 0.9008623618761461 -0.4304166523221119
4459000000.0 0.8750980396574812 -0.4339539835338183
4462000000.0 0.9414124061570295 -0.4573339554545388
4466000000.0 0.9535658586849779 -0.46862871611339074
4469000000.0 0.9233221150532357 -0.43525988801084237
4472000000.0 0.8983385739099169 -0.48141826640035934
4475000000.0 0.8718757791035547 -0.4450138063401151
4478000000.0 0.9269333356881035 -0.48714587187740255
4481000000.0 0.8638434273518462 -0.466863360254715
4484000000.0 0.8469385941226215 -0.5336553223769054
4488000000.0 0.8695029105904867 -0.496420216463678
4491000000.0 0.8703685993419928 -0.5178574455061971
4494000000.0 0.8713622351644803 -0.5171868496226346
4497000000.0 0.8572046592557905 -0.5035303591491278
4500000000.0 0.8568179477847415 -0.521116653349055
4503000000.0 0.8826825203053705 -0.540010859937641
4506000000.0 0.8606869199863596 -0.5649299906780089
4509000000.0 0.8281893444738058 -0.5401301778457567
4512000000.0 0.8112805164697804 -0.5517460369364879
4516000000.0 0.855116882422443 -0.5563176320618574
4519000000.0 0.807748896465411 -0.5446682987750847
4522000000.0 0.8189836144613165 -0.5865967059342447
4525000000.0 0.8241832315632185 -0.571576977333197
4528000000.0 0.8287288116298104 -0.6053854316732569
4531000000.0 0.7982712536840398 -0.5865310159569788
4534000000.0 0.7760040417231026 -0.6156147740724848
4538000000.0 0.7812836247055195 -0.6194686098831285
4541000000.0 0.7653888834977469 -0.6466803557477451
4544000000.0 0.7841263822667748 -0.6282136101792395
4547000000.0 0.7867113781620663 -0.6289030722537354
4550000000.0 0.7541907624285518 -0.6635739556294421
4553000000.0 0.7645017855043788 -0.658659157560681
4556000000.0 0.7404525790361485 -0.6545621123500107
4559000000.0 0.7404365714122371 -0.6743035485188733
4562000000.0 0.7688427837066518 -0.6761209266050836
4566000000.0 0.7515408936429446 -0.6915466395127552
4569000000.0 0.7259019107764121 -0.6798839345706318
4572000000.0 0.7228750108185981 -0.6857929052762659
4575000000.0 0.727377558368391 -0.7257394314042258
4578000000.0 0.7342563842663141 -0.7092787211886665
4581000000.0 0.7065651468803968 -0.7354869567324739
4584000000.0 0.7028413899985683 -0.7228281460110005
4588000000.0 0.6951374072440178 -0.7213383479143557
4591000000.0 0.6991325354398831 -0.7076027573723662
4594000000.0 0.6605676928769149 -0.744646098516169
4597000000.0 0.674790339234195 -0.771579363949788
4600000000.0 0.6436997537204762 -0.7735571087391867
4603000000.0 0.6604039890495026 -0.7694077774920207
4606000000.0 0.6808366728885897 -0.7773726020058247
4609000000.0 0.6506248874990103 -0.7523000611213669
4612000000.0 0.6344692238671369 -0.7906992942554175
4616000000.0 0.6186268334674077 -0.7756762574574828
4619000000.0 0.6167777880983598 -0.7792988109273344
4622000000.0 0.6189314711192244 -0.8074695897584914
4625000000.0 0.5871312989594356 -0.8136345175825985
4628000000.0 0.6145365350597924 -0.7854864484662444
4631000000.0 0.5925710016159447 -0.8159039758509197
4634000000.0 0.5840446403893094 -0.8342215197422717
4638000000.0 0.5885183493962726 -0.8336438275716458
4641000000.0 0.5802885314509557 -0.8280346743157933
4644000000.0 0.5751288570123503 -0.8368327683725811
4647000000.0 0.5686615819456294 -0.8488602331680253
4650000000.0 0.5276696528337436 -0.8367237111873628
4653000000.0 0.5464582232337634 -0.8635958426724885
4656000000.0 0.5434716030911668 -0.8700681767532819
4659000000.0 0.5118421067287016 -0.8610667180707962
4662000000.0 0.5033044444942889 -0.8840156377187528
4666000000.0 0.4874384904944785 -0.8700959264057193
4669000000.0 0.48748667400901347 -0.875053594653795
4672000000.0 0.49714667791245487 -0.9017474629920478
4675000000.0 0.4767274558089474 -0.9068145363561072
4678000000.0 0.4638452202702301 -0.876311841859827
4681000000.0 0.4553071817166483 -0.9131995988895225
4684000000.0 0.4616246092006188 -0.9348487967947042
4688000000.0 0.4401412253119061 -0.9081090681387285
4691000000.0 0.4652258259937122 -0.9278723373135365
4694000000.0 0.44369890650989974 -0.9055491173493937
4697000000.0 0.400716804108317 -0.8876866815303326
4700000000.0 0.40749617320491616 -0.9243264414466252
4703000000.0 0.4382688638464708 -0.8836009402203038
4706000000.0 0.37721732887833703 -0.930165270879087
4709000000.0 0.383631502351363 -0.9202301903827104
4712000000.0 0.3866082822624117 -0.9453247819547483
4716000000.0 0.37504792233829776 -0.9695730618744991
4719000000.0 0.41228989139472183 -0.9389860814989872
4722000000.0 0.3841405989542615 -0.9388816798127144
4725000000.0 0.35620574335477223 -0.9568059200509574
4728000000.0 0.35241104638762416 -0.930837620712976
4731000000.0 0.37989392875868966 -0.9848974347789954
4734000000.0 0.31891906123572983 -0.9174692256282658
4738000000.0 0.36358477203710265 -0.9888532170369785
4741000000.0 0.30485010485361336 -1.0003522340013455
4744000000.0 0.29095966980431576 -0.9903203829106415
4747000000.0 0.2997795458245963 -0.9223435999420121
4750000000.0 0.27328798479338023 -1.0133837175972755
4753000000.0 0.2939570529746406 -0.9950437682748826
4756000000.0 0.27674292507419007 -0.986858275201566
4759000000.0 0.26139134611762993 -1.0158620197163697
4762000000.0 0.25945395179990816 -1.0096789497569443
4766000000.0 0.25038573626881966 -0.9880498551810101
4769000000.0 0.2511534454569445 -1.0019746409325423
4772000000.0 0.2493925730162688 -0.9905432189944315
4775000000.0 0.21539971316034143 -1.041566243188815
4778000000.0 0.20093300766666772 -0.9948277495865242
4781000000.0 0.20602500276409746 -0.990193633575777
4784000000.0 0.2328107158364708 -0.9774983546217485
4788000000.0 0.1786171228020454 -1.033151942714923
4791000000.0 0.15740177558682678 -0.9949869727334663
4794000000.0 0.18995483544554348 -1.0399601076068599
4797000000.0 0.17038630091168838 -0.9711944009573047
4800000000.0 0.14787098303761964 -0.9996480530052096
4803000000.0 0.08088697675342209 -0.9943443124311417
4806000000.0 0.13096775229213448 -1.0185665395565715
4809000000.0 0.07786801259252286 -1.0080708978847706
4812000000.0 0.051217349277884586 -1.0013955557903458
4816000000.0 0.14348097559776662 -1.0035314548497554
4819000000.0 0.13104114796020022 -1.058054026322888
4822000000.0 0.10904100251028767 -1.039251660739151
4825000000.0 0.10765167595220534 -1.0580418058018013
4828000000.0 0.05769988194008986 -1.0058051935058687
4831000000.0 0.0013962559988648787 -1.0625402813947789
4834000000.0 0.08658840317273878 -1.040651885022402
4838000000.0 0.009971421233474456 -1.027412310617924
4841000000.0 0.03573199696681387 -1.0034608946654284
4844000000.0 0.053263605838053944 -1.0221153544940142
4847000000.0 0.047115727180508216 -0.9975965056600584
4850000000.0 -0.01463017539980481 -1.03110244641724
4853000000.0 0.02652681036997525 -0.9878131467409386
4856000000.0 -0.010787721958653962 -1.0105576289385216
4859000000.0 -0.012443301815006434 -1.0646015634968085
4862000000.0 0.020763187708090956 -1.0093829725557733
4866000000.0 -0.07796841696909773 -1.0452507353719829
4869000000.0 -0.07305280229424528 -1.011657317666658
4872000000.0 -0.07198774592489403 -1.0222729482013617
4875000000.0 -0.011319201345227195 -1.0636062004281057
4878000000.0 -0.08128077489920876 -1.0131937912769478
4881000000.0 -0.12156659467081338 -1.0910479018040529
4884000000.0 -0.060331283716037964 -1.042450687529122
4888000000.0 -0.07428981055068085 -1.0116123517528761
4891000000.0 -0.08201260954622369 -1.0518320415639626
4894000000.0 -0.14612982525817872 -1.01218545517414
4897000000.0 -0.08846902525365714 -1.0145002616200856
4900000000.0 -0.12067947310118234 -1.0426718820812992
4903000000.0 -0.11925858063191186 -1.0249789197050445
4906000000.0 -0.16383478299484833 -1.0453289437529902
4909000000.0 -0.1597976109387518 -1.0115088195872661
4912000000.0 -0.1772928097046792 -1.039973978270087
4916000000.0 -0.1567624923544203 -1.0372780023241088
4919000000.0 -0.15540461793461197 -1.0389402171095945
4922000000.0 -0.15962994004481154 -1.037364913125162
4925000000.0 -0.2223051184722137 -0.9757304295497516
4928000000.0 -0.1471153520728452 -0.9922787540377807
4931000000.0 -0.16250716254409797 -1.0401903479676544
4934000000.0 -0.20741075588215635 -0.9385950977178951
4938000000.0 -0.27290788935479876 -0.9883857330938262
4941000000.0 -0.21524793411152238 -0.943011925438842
4944000000.0 -0.17771642687827885 -0.9336124201947065
4947000000.0 -0.2412208528528549 -0.9784183684887575
4950000000.0 -0.2670353708204583 -0.9568355423833731
4953000000.0 -0.280288340461971 -1.0061977710008518
4956000000.0 -0.302081160216247 -0.9888619456278448
4959000000.0 -0.32492450253795757 -0.9603482648106687
4962000000.0 -0.3446095093092997 -1.0071244419604422
4966000000.0 -0.28613311087039844 -0.9910841772249982
4969000000.0 -0.29151927023007 -1.0309203334032124
4972000000.0 -0.37773737003217744 -0.9586424007329096
4975000000.0 -0.30500315927173605 -0.9867694205376816
4978000000.0 -0.33339905492975763 -0.9731965110197268
4981000000.0 -0.3517015605878123 -0.9686222904273925
4984000000.0 -0.35723660127157486 -0.9529229455372644
4988000000.0 -0.333249622734821 -0.9788371138525005
4991000000.0 -0.3282430750885598 -0.9738075671615738
4994000000.0 -0.365280779118922 -0.9516632599688931
4997000000.0 -0.43117170009868927 -0.9121724767680754
5000000000.0 -0.3879192997450728 -0.975279265611412
5003000000.0 -0.4068794372359272 -0.9642289264930688
5006000000.0 -0.4332328661781939 -0.9879267858271487
5009000000.0 -0.4166820357889367 -0.9387411246558333
5012000000.0 -0.4509683437693161 -0.9409070508631603
5016000000.0 -0.43853551715632527 -0.9696446938967211
5019000000.0 -0.4504294398112101 -0.9151057939789528
5022000000.0 -0.44415170960400085 -0.9601084667409716
5025000000.0 -0.5049183246366631 -0.9632888167216327
5028000000.0 -0.4996689845684068 -0.9200938638931907
5031000000.0 -0.46919364668438324 -0.9111784027009516
5034000000.0 -0.5406800107271243 -0.9382881545042363
5038000000.0 -0.4947230216836883 -0.8793673738078017
5041000000.0 -0.42551399718778293 -0.9249067143381321
5044000000.0 -0.4858964690649511 -0.894292645381915
5047000000.0 -0.48796767144738745 -0.8986675226737676
5050000000.0 -0.4554480198376635 -0.9193235828527733
5053000000.0 -0.5469196118570684 -0.9263832308516915
5056000000.0 -0.4948752907691063 -0.9195342513887679
5059000000.0 -0.5181397258939144 -0.9180946631098096
5062000000.0 -0.5919851625124425 -0.8905331404201526
5066000000.0 -0.5398957345474689 -0.899446950382897
5069000000.0 -0.5381195028967576 -0.8726043408623388
5072000000.0 -0.5890294653973194 -0.8291431767909103
5075000000.0 -0.5805748553961935 -0.8836006503967884
5078000000.0 -0.6118169221090499 -0.859359396818989
5081000000.0 -0.589489341821569 -0.841880730145237
5084000000.0 -0.6338445519853966 -0.8726026928021784
5088000000.0 -0.6377430832042557 -0.8534216574059879
5091000000.0 -0.6540418802016505 -0.8314498894513336
5094000000.0 -0.5843330274261701 -0.8003100058168902
5097000000.0 -0.586441745681412 -0.8272120844987783
5100000000.0 -0.6335785514319021 -0.8122536987139087
5103000000.0 -0.6720455671476534 -0.7540261585098599
5106000000.0 -0.6339714044556336 -0.8660560668483774
5109000000.0 -0.5925160042025562 -0.8002422819892715
5112000000.0 -0.6637878160139433 -0.7829485659139301
5116000000.0 -0.6596780634197957 -0.7502709957830137
5119000000.0 -0.7073356920888217 -0.817406455658608
5122000000.0 -0.6692712449991184 -0.7780337724451891
5125000000.0 -0.6487376166279377 -0.7980719274778048
5128000000.0 -0.6770740056772281 -0.7406804624967733
5131000000.0 -0.7022342583673785 -0.7828255138245158
5134000000.0 -0.7140294923893341 -0.7195472378531229
5138000000.0 -0.6739633835947602 -0.762958535292056
5141000000.0 -0.6694018669475956 -0.7860237350796615
5144000000.0 -0.698404316369843 -0.7859635907215686
5147000000.0 -0.7595605461855562 -0.7466712142570007
5150000000.0 -0.7128633152154381 -0.7475734012205131
5153000000.0 -0.7979556211181218 -0.7313825468292983
5156000000.0 -0.7165629764195273 -0.731479926078369
5159000000.0 -0.7050142555769716 -0.7448856051378068
5162000000.0 -0.7889282786549904 -0.7029241492413647
5166000000.0 -0.7791045238376897 -0.665015818853122
5169000000.0 -0.7875068066663075 -0.6743357220932169
5172000000.0 -0.744250757092445 -0.7064783165185468
5175000000.0 -0.7916385931795471 -0.712459788152133
5178000000.0 -0.8051843724306471 -0.6675220454853618
5181000000.0 -0.798437099580406 -0.6823470810443684
5184000000.0 -0.7940101340119986 -0.6479027324867872
