! Created with skrf 1.8.0 (http://scikit-rf.org).
# Hz S RI R 50.0 
!freq ReS11 ImS11
4000000000.0 0.6439627871388031 0.7952189604985629
4003000000.0 0.6846078075852635 0.817736891088782
4006000000.0 0.6664351457353074 0.7667103337334601
4009000000.0 0.6990983661739896 0.7912541071761887
4012000000.0 0.6979557518208325 0.8324021456179101
4016000000.0 0.7423150652355549 0.7809284168637298
4019000000.0 0.70310829018129 0.788732855815305
4022000000.0 0.6731334843947842 0.7695755618281961
4025000000.0 0.7515843517945849 0.759318551292087
4028000000.0 0.7121747681276468 0.7254266286782522
4031000000.0 0.6560749773622573 0.6959866858764776
4034000000.0 0.7191650087467834 0.7001332484238113
4038000000.0 0.7380840690003976 0.7172765037017993
4041000000.0 0.7520084379052641 0.7011589549469054
4044000000.0 0.7990548754880243 0.7694513590103539
4047000000.0 0.750023526981409 0.7738838279416883
4050000000.0 0.8243265450498302 0.6998875323103145
4053000000.0 0.7435247865744697 0.633772621504687
4056000000.0 0.7566490364543959 0.7012538551643202
4059000000.0 0.7567068536890499 0.7195552680177273
4062000000.0 0.8020693650677913 0.6613281252986998
4066000000.0 0.7185513448970933 0.6289028054103458
4069000000.0 0.846139150734593 0.6756261097271605
4072000000.0 0.7604954071095571 0.6651014293802082
4075000000.0 0.8199742414639074 0.6876022174169776
4078000000.0 0.8218210872031343 0.6661580309707239
4081000000.0 0.7744351433967279 0.6912452886480538
4084000000.0 0.8143885346397062 0.6509225081470047
4088000000.0 0.8034895522355234 0.6587293227858015
4091000000.0 0.8506844622490004 0.6691011981385591
4094000000.0 0.8345995292171632 0.6425115232036623
4097000000.0 0.8444190722134705 0.6349320924516908
4100000000.0 0.8746925659920168 0.5835365307854037
4103000000.0 0.866304208414044 0.6460252814425831
4106000000.0 0.8712768870064997 0.5863057219204673
4109000000.0 0.8907930538927042 0.5703593573229453
4112000000.0 0.8562239471117348 0.5536334941757721
4116000000.0 0.8822045450911984 0.6391295315614999
4119000000.0 0.8980941513123379 0.5789342622860812
4122000000.0 0.8451529381566274 0.5489968520284553
4125000000.0 0.9191410683911256 0.5342326149502441
4128000000.0 0.8675087276530701 0.5432404250369882
4131000000.0 0.8389617326515062 0.53857731175647
4134000000.0 0.8506067717175277 0.5452862221492043
4138000000.0 0.8653494485384623 0.5064564842875805
4141000000.0 0.8881818509236251 0.5291672781859266
4144000000.0 0.9004222516709731 0.529078953283856
4147000000.0 0.9337916566588279 0.4654436568421095
4150000000.0 0.9623680305902417 0.5069247293075101
4153000000.0 0.9176548892334084 0.4671066300097334
4156000000.0 0.9229290610913508 0.5230800511710041
4159000000.0 0.8823217209784469 0.48039211325583925
4162000000.0 0.9064209902283253 0.46130893691925723
4166000000.0 0.959123585915894 0.4539810959375541
4169000000.0 0.9251502858358278 0.39867450125130144
4172000000.0 0.9493906931494455 0.42272285106080193
4175000000.0 0.919915275120134 0.4493334093228441
4178000000.0 0.9545852171691143 0.4244121139651924
4181000000.0 0.9567594048231767 0.4012956463182944
4184000000.0 0.9212272620389135 0.4349524857376919
4188000000.0 0.9312027332781745 0.38979000239482897
4191000000.0 0.9031478879221464 0.42496352802359166
4194000000.0 0.92534840916375 0.3922738595657831
4197000000.0 0.9636689915176825 0.3868877681648563
4200000000.0 0.9620957059580828 0.3943011817360732
4203000000.0 0.9594029424570159 0.4082068808405085
4206000000.0 0.9682348535679071 0.3640353198291056
4209000000.0 0.9647278442453718 0.35819405210401595
4212000000.0 0.9685314499509322 0.3147666313303953
4216000000.0 0.9593297768191729 0.3471903429232723
4219000000.0 0.9698172170159847 0.336424110088831
4222000000.0 0.9823184892180132 0.31295579710110527
4225000000.0 0.9660253718109459 0.325582967442974
4228000000.0 0.9763929793728661 0.30408837325815585
4231000000.0 0.961429840202623 0.27562312873973827
4234000000.0 0.9925414215044308 0.2937812085966924
4238000000.0 0.9783473625221738 0.26215660462265133
4241000000.0 0.9754164614737695 0.2508136609198122
4244000000.0 0.9827207880706953 0.2678745561281398
4247000000.0 0.9814950244281662 0.26660467558493794
4250000000.0 0.9748901740552478 0.22418696086124612
4253000000.0 0.9645811224742309 0.233993962387457
4256000000.0 1.0313620491070563 0.22205252942662995
4259000000.0 0.9690490691185598 0.1841147221344032
4262000000.0 0.9870348928831905 0.20019273291075126
4266000000.0 0.9965438384012161 0.194197076547647
4269000000.0 0.9991244469607528 0.20698523363794355
4272000000.0 0.9922079376659674 0.1752394376883346
4275000000.0 1.009629090857695 0.16998767089648908
4278000000.0 1.015867124217133 0.16901498764999845
4281000000.0 1.0062127967973598 0.16080587166782823
4284000000.0 1.0211521324997477 0.10379519068487014
4288000000.0 1.007939362426824 0.16385796550699422
4291000000.0 0.9941919882261484 0.11352474486905557
4294000000.0 0.9923797585459336 0.11476038620448885
4297000000.0 0.9903028846425762 0.13530292256497467
4300000000.0 0.9864800838755967 0.10587790216446327
4303000000.0 1.0101897532196218 0.06444801908345339
4306000000.0 1.0204847527843732 0.12013084181945641
4309000000.0 1.041292488681979 0.10672705744260062
4312000000.0 1.0170509831340344 0.09424317378890829
4316000000.0 1.0171303579862507 0.10641133860844783
4319000000.0 0.9922721400988965 0.07251589105731963
4322000000.0 1.0064574066457699 0.022342359026809464
4325000000.0 1.0148441120356835 0.042775242543196854
4328000000.0 0.9888257412568383 0.021560476375619142
4331000000.0 1.0192427929753476 -0.005739068575175754
4334000000.0 1.0285960535732408 -0.004005562933662832
4338000000.0 0.9929142085042156 0.017783663279156633
4341000000.0 1.0390838206703177 0.010100236812935676
4344000000.0 1.0515959256053817 -0.0023919220778206574
4347000000.0 1.0608489339353935 -0.04061163602020601
4350000000.0 0.9917896758721206 -0.010887993467501605
4353000000.0 0.9852117001555616 -0.029450394782408226
4356000000.0 1.0026106457266113 -0.056811006798780136
4359000000.0 0.9865648563480359 -0.05330086078745726
4362000000.0 1.0075833318371352 -0.12309584220217071
4366000000.0 1.0450811450983843 -0.07085493971143596
4369000000.0 0.9899828124678051 -0.09184466362739527
4372000000.0 1.0065744348849452 -0.13593771879143463
4375000000.0 0.9962844269213413 -0.07880109300626165
4378000000.0 0.9743110169346086 -0.09491894502180208
4381000000.0 1.02046728977393 -0.12460781254113173
4384000000.0 1.0582772465221628 -0.14969818337302576
4388000000.0 0.9722086847779797 -0.13886295779163843
4391000000.0 1.0053139527546178 -0.15282309215926443
4394000000.0 0.9716047024807316 -0.1551276054630253
4397000000.0 0.9890839415137531 -0.16928806672396152
4400000000.0 1.0110425117786346 -0.18986769131828882
4403000000.0 1.0111743134777051 -0.17933839128330986
4406000000.0 0.9985437699319046 -0.20553903228620407
4409000000.0 1.0357040510006814 -0.21826852330434374
4412000000.0 0.9721467643150602 -0.2567804405342652
4416000000.0 0.9755786074321282 -0.2292355251870296
4419000000.0 0.9795132633889273 -0.2308140105824826
4422000000.0 0.981618216258876 -0.22703035330430862
4425000000.0 1.0104357846437324 -0.21242052078964235
4428000000.0 0.9825750839800731 -0.25131247629818243
4431000000.0 1.0156763083734004 -0.26305402968575536
4434000000.0 0.9719014064406903 -0.2738087387595317
4438000000.0 0.997079277750869 -0.29038425343597646
4441000000.0 0.9776602614046033 -0.28401235817394366
4444000000.0 0.9387597098800384 -0.2875272190008549
4447000000.0 0.9508475583222425 -0.3159178693618321
4450000000.0 0.9409577024756538 -0.29233460968189945
4453000000.0 0.9801506339812117 -0.3245749358231498
4456000000.0 0.9339905147411713 -0.33577642070387537
4459000000.0 0.9042621928498853 -0.3344576099781216
4462000000.0 1.0183823455232994 -0.3837868934783897
4466000000.0 0.9809277713059288 -0.36702231672726704
4469000000.0 0.9525360339657001 -0.339005569427837
4472000000.0 0.9517528907161072 -0.3976591720289097
4475000000.0 0.9206248165329786 -0.3595639701655675
4478000000.0 0.9716408312943157 -0.41488580369430295
4481000000.0 0.889785693310843 -0.38926751109502855
4484000000.0 0.8990768797690716 -0.4406165775304892
4488000000.0 0.9050413572019783 -0.4159937273603622
4491000000.0 0.9189339173939974 -0.44245285759419917
4494000000.0 0.9102971685842185 -0.4257346270498161
4497000000.0 0.9130031261107265 -0.40160612446309985
4500000000.0 0.8936563455090394 -0.4218697140670501
4503000000.0 0.9298182557600041 -0.47598925504270617
4506000000.0 0.8818339189425961 -0.45273585618082707
4509000000.0 0.8756310369590046 -0.4518628818748778
4512000000.0 0.8593364171605615 -0.479646595253433
4516000000.0 0.9293415387269789 -0.5032863722540033
4519000000.0 0.8698955849701969 -0.4578612399578855
4522000000.0 0.882005303599821 -0.4907085314782095
4525000000.0 0.8767295647380962 -0.4844241553262384
4528000000.0 0.900653268257894 -0.5298673450208644
4531000000.0 0.8895414475709885 -0.5124796490752915
4534000000.0 0.8603635347078276 -0.5364161348849851
4538000000.0 0.8583011584331186 -0.5543244407017264
4541000000.0 0.8172348095454188 -0.5705681103445556
4544000000.0 0.848604706960641 -0.5345768431515792
4547000000.0 0.845688182440673 -0.5291401628775014
4550000000.0 0.8322180997248092 -0.5877008323439995
4553000000.0 0.8236289692557717 -0.5737393749337898
4556000000.0 0.8053519363956074 -0.5923192587393127
4559000000.0 0.8257942616261066 -0.6006409151362209
4562000000.0 0.8407796881892777 -0.6078336215926391
4566000000.0 0.8000520779872293 -0.6128831134244404
4569000000.0 0.7931666619337338 -0.622249448585749
4572000000.0 0.8017196055621323 -0.616511356394314
4575000000.0 0.7785956130872056 -0.6500218031471393
4578000000.0 0.8190444999485997 -0.6460739395976693
4581000000.0 0.78095014691192 -0.6678734366808174
4584000000.0 0.7666389371529624 -0.6439567114233142
4588000000.0 0.786660394745286 -0.6499699149905703
4591000000.0 0.7789463755149959 -0.6573487078094715
4594000000.0 0.7482412414929673 -0.6719699275801924
4597000000.0 0.7555607811174117 -0.6889691804328357
4600000000.0 0.7244759313555499 -0.6857981900267798
4603000000.0 0.7417838511931011 -0.6920136426863458
4606000000.0 0.7257993139132809 -0.7109311581629186
4609000000.0 0.723647691858905 -0.7033310876465095
4612000000.0 0.7431202400721425 -0.7270489026085672
4616000000.0 0.7135047899344744 -0.7115658671615657
4619000000.0 0.713941822686195 -0.7204295938013974
4622000000.0 0.7247363129106237 -0.7330144796796298
4625000000.0 0.6591504510900249 -0.7282556720009109
4628000000.0 0.7029169148953197 -0.7244874715719687
4631000000.0 0.6662462531880962 -0.7437852896242821
4634000000.0 0.6746026504066713 -0.7414850087463155
4638000000.0 0.6743602399909945 -0.7463642636150497
4641000000.0 0.670123679911909 -0.7640280197829333
4644000000.0 0.6633761904059435 -0.768229946054549
4647000000.0 0.662257376860078 -0.7800609250384779
4650000000.0 0.6346172457281946 -0.7860228948107689
4653000000.0 0.6532143547020858 -0.7940430677410404
4656000000.0 0.6328390237717167 -0.7940988669350322
4659000000.0 0.6203573298528126 -0.7885057215904819
4662000000.0 0.6112586254660084 -0.8227626144089591
4666000000.0 0.5984614652785653 -0.8142876576690045
4669000000.0 0.6052202073403434 -0.8023793317005433
4672000000.0 0.5804714592347573 -0.8414030850463107
4675000000.0 0.5780364016802428 -0.8640341848089591
4678000000.0 0.5654819004332597 -0.8132412052944036
4681000000.0 0.5658873143282754 -0.8673260609893102
4684000000.0 0.5433229677650595 -0.8430548347281949
4688000000.0 0.5326469498705575 -0.8511059872059846
4691000000.0 0.5839428273151481 -0.8590321600955022
4694000000.0 0.5639740677587033 -0.8423874840069145
4697000000.0 0.48413322024274613 -0.8578051065732433
4700000000.0 0.5407275177350815 -0.8722775883177638
4703000000.0 0.5079966564497989 -0.8340448725466338
4706000000.0 0.49654468760961484 -0.9008487089603163
4709000000.0 0.4846585626651579 -0.8652323942481333
4712000000.0 0.5020869923984015 -0.8746746471839928
4716000000.0 0.4909170623964245 -0.8997884499230151
4719000000.0 0.5035369632917822 -0.8855297176869702
4722000000.0 0.49369275886903274 -0.883887889365272
4725000000.0 0.47038405207401746 -0.8806098048520217
4728000000.0 0.4583097940680172 -0.898149783879028
4731000000.0 0.487019089600553 -0.9088016642372765
4734000000.0 0.4756719410750972 -0.9111522399821581
4738000000.0 0.4641807090639736 -0.9354418773791491
4741000000.0 0.4613171227131754 -0.937974339656566
4744000000.0 0.4238342513436165 -0.9662674616860641
4747000000.0 0.43974122543951294 -0.8907722524908223
4750000000.0 0.42686612286871845 -0.9445818853194017
4753000000.0 0.3973718886531932 -0.9546820466457775
4756000000.0 0.38877702009180526 -0.9592964207951893
4759000000.0 0.3977639187912686 -0.968733783402563
4762000000.0 0.34657128247914115 -0.9608081838586839
4766000000.0 0.34832558596874924 -0.9659165172397441
4769000000.0 0.39670267721942415 -0.9689405207162037
4772000000.0 0.35770557227114863 -0.9923076251318691
4775000000.0 0.33938018065860326 -1.0009785530018398
4778000000.0 0.3346703827138371 -0.9667793094718918
4781000000.0 0.3248483510627055 -0.952183468721048
4784000000.0 0.3265734285295989 -0.9633107201830428
4788000000.0 0.3182837099401768 -0.9939510661407152
4791000000.0 0.28468343544979996 -0.963736194654799
4794000000.0 0.3174412205742182 -1.0121716502242708
4797000000.0 0.28811638495751146 -0.9614228278708811
4800000000.0 0.2675937906409236 -0.9615324981884819
4803000000.0 0.21524685361503557 -0.9777734934693552
4806000000.0 0.2764473993348313 -0.9936772039064732
4809000000.0 0.2222571252212139 -1.000893425806712
4812000000.0 0.17412181904113205 -0.9790086859111891
4816000000.0 0.2348867422942515 -0.9891698910811908
4819000000.0 0.23604474078430734 -1.0234710667757128
4822000000.0 0.22714991193111866 -1.0469082537905825
4825000000.0 0.24908376664008647 -1.0257751837356934
4828000000.0 0.21217718373541833 -1.0166870444665532
4831000000.0 0.16379282304776122 -1.0506540726091238
4834000000.0 0.21949985276749573 -0.9962961011553757
4838000000.0 0.17008614151796447 -1.0360650687556683
4841000000.0 0.12275876258377003 -1.014343061662831
4844000000.0 0.1842738996630488 -0.9929617251297044
4847000000.0 0.18001311350334806 -1.0113385499860574
4850000000.0 0.13345696954995973 -1.0488828759695947
4853000000.0 0.11710516914658468 -0.9961453199660455
4856000000.0 0.12154071048332231 -1.0028395794599336
4859000000.0 0.12515025441096694 -1.051642192767802
4862000000.0 0.11784169905874659 -0.9805656428554451
4866000000.0 0.0783136662192121 -1.025268615530345
4869000000.0 0.05040425986983517 -1.0113286858052912
4872000000.0 0.021155331670886374 -1.0724131826692598
4875000000.0 0.12785976805370144 -1.0706145383066046
4878000000.0 0.05834382207000961 -1.043338920636867
4881000000.0 0.048998742153481 -1.091454163250786
4884000000.0 0.04686217018838299 -1.0103850707546462
4888000000.0 0.05367512534719138 -1.0357576231135066
4891000000.0 0.05705734976922425 -1.0323756424023653
4894000000.0 0.024465494633027513 -1.0207541938664664
4897000000.0 0.054125694127889215 -1.0141881613691681
4900000000.0 0.021867414402236232 -1.0474020339574273
4903000000.0 0.032904383271860786 -1.0497976998157352
4906000000.0 -0.0047977671211275885 -1.0574938922122306
4909000000.0 -0.01422925645860345 -1.0299012383112847
4912000000.0 -0.03879932294467228 -1.0804290591065633
4916000000.0 -0.038970527048905586 -1.0517690900316616
4919000000.0 -0.005253444890236492 -1.0477962254107487
4922000000.0 -0.004988729214429513 -0.9946866400328779
4925000000.0 -0.08613616942315053 -1.0015312294530592
4928000000.0 -0.018337427861185016 -1.01603812076678
4931000000.0 -0.026490792909268368 -1.0457083598778492
4934000000.0 -0.07353263717753065 -0.9965873156730873
4938000000.0 -0.11606672229293306 -1.0199446012265945
4941000000.0 -0.09253006450281039 -1.0252808570576737
4944000000.0 -0.08915567416940368 -0.9872889742667199
4947000000.0 -0.11344119218077428 -0.9942631053458739
4950000000.0 -0.14002918418148813 -1.00606950388215
4953000000.0 -0.16090777913435866 -1.052309304652209
4956000000.0 -0.1685103925617774 -1.0286148038990919
4959000000.0 -0.17230431031809354 -1.0075860822546627
4962000000.0 -0.16852727788614477 -1.028984601208812
4966000000.0 -0.16757164400065377 -1.026078191967128
4969000000.0 -0.15904019667436292 -1.0908741845816876
4972000000.0 -0.21166353744950714 -1.007824984664284
4975000000.0 -0.13693236480448193 -1.0390893795502618
4978000000.0 -0.20715628147517656 -1.0188306549779382
4981000000.0 -0.21868589065787022 -1.0092035098974157
4984000000.0 -0.19194294227238493 -0.9857550506639434
4988000000.0 -0.19086006550857904 -1.0278847234606052
4991000000.0 -0.1963650499280496 -1.0572856831771758
4994000000.0 -0.21045280243064113 -1.0090615752154155
4997000000.0 -0.28212058188524036 -1.0207171402861488
5000000000.0 -0.2415203763540506 -1.0724949710909433
5003000000.0 -0.2490143320299023 -1.030548889574531
5006000000.0 -0.30037115016262994 -1.0750569680701487
5009000000.0 -0.25406021035549686 -0.9811771552142293
5012000000.0 -0.28655153102882797 -1.0156666085126083
5016000000.0 -0.2577987515448981 -1.041235790633631
5019000000.0 -0.2916072195109064 -1.0020506854237894
5022000000.0 -0.29680714729073565 -0.9906236227173251
5025000000.0 -0.3456539695651469 -1.0749000128807524
5028000000.0 -0.3635383519622719 -0.9957480889382393
5031000000.0 -0.34461420069450643 -0.968605824042522
5034000000.0 -0.39045016664226717 -1.0313826113696052
5038000000.0 -0.3392792519839124 -0.9194746285301743
5041000000.0 -0.35739774606560215 -0.9942998818714582
5044000000.0 -0.31281576160017466 -0.9727942227396301
5047000000.0 -0.3642291359691339 -0.9868775109536426
5050000000.0 -0.28119462204349444 -1.0045466684135573
5053000000.0 -0.39748656262255755 -1.00138865466955
5056000000.0 -0.35780775381677765 -1.005091661243184
5059000000.0 -0.3302298794699225 -0.9876141146104614
5062000000.0 -0.4680175911988065 -0.9736572430955543
5066000000.0 -0.3923258022122934 -0.9624164120407386
5069000000.0 -0.42573363112846263 -0.9744286858835595
5072000000.0 -0.4215437209875692 -0.9593749853317339
5075000000.0 -0.4186469289326835 -0.9502236923793044
5078000000.0 -0.43916721249782914 -0.9381618155656675
5081000000.0 -0.4611843110222253 -0.8733950331940105
5084000000.0 -0.481753060090634 -0.934397700776118
5088000000.0 -0.42773382305692864 -0.8938313179459358
5091000000.0 -0.5075636798728611 -0.913246597307839
5094000000.0 -0.4706284663368005 -0.9103806203620785
5097000000.0 -0.4246206627724888 -0.9073343196433195
5100000000.0 -0.4724573901937359 -0.8873466130311952
5103000000.0 -0.5111866742909836 -0.8733226523538536
5106000000.0 -0.5342208238967208 -0.9575608999339367
5109000000.0 -0.46522081772405005 -0.952609183446145
5112000000.0 -0.4986279051052352 -0.9207025207274997
5116000000.0 -0.4885825797706106 -0.8372544475730122
5119000000.0 -0.5595396238243125 -0.9010503754667869
5122000000.0 -0.504725122829603 -0.8896746750237794
5125000000.0 -0.5263154042050509 -0.8739232048857093
5128000000.0 -0.5533799031572487 -0.9000519855708564
5131000000.0 -0.5631918821434025 -0.8377700556677595
5134000000.0 -0.5879638173988054 -0.8262968150108027
5138000000.0 -0.5726540815549418 -0.8711525339201862
5141000000.0 -0.5384164985127229 -0.860708391642941
5144000000.0 -0.5924968750585089 -0.9059117186306513
5147000000.0 -0.5691653326925782 -0.8512238514458973
5150000000.0 -0.5693009912133457 -0.8719561329638298
5153000000.0 -0.6200116014442727 -0.8581730945665681
5156000000.0 -0.6536665191216363 -0.8355201289391814
5159000000.0 -0.6129756702217067 -0.8588008654171957
5162000000.0 -0.6524758842602262 -0.8624399275231457
5166000000.0 -0.6421080509163002 -0.8103439404056371
5169000000.0 -0.6639089779200738 -0.864632440903697
5172000000.0 -0.6899369709317044 -0.8118610893660891
5175000000.0 -0.6527239534014705 -0.8347735217340789
5178000000.0 -0.6799566258594743 -0.7758455955971932
5181000000.0 -0.6655619976029536 -0.7989339631447929
5184000000.0 -0.6703490317242004 -0.7757080594841305
5188000000.0 -0.7048964934220524 -0.800412700506046
