! Created with skrf 1.8.0 (http://scikit-rf.org).
# Hz S RI R 50.0 
!freq ReS11 ImS11
4000000000.0 1.0102318179124206 0.15979174715646993
4003000000.0 1.023426631001847 0.13698241607754622
4006000000.0 1.0242352117370315 0.10782188461965303
4009000000.0 1.0196909485142145 0.10825759798545334
4012000000.0 1.015254294276906 0.1691679172953073
4016000000.0 1.051474540271999 0.06914585107219046
4019000000.0 0.9936890074277043 0.13687704694904704
4022000000.0 1.0306258137944104 0.0932773273986848
4025000000.0 1.0381349660365145 0.03907228057266951
4028000000.0 1.0415003792292294 0.01890054115306375
4031000000.0 1.0091310887873772 0.03140272232677488
4034000000.0 0.9835746525147229 0.009815132855504921
4038000000.0 1.002558800687171 -0.022344604200707774
4041000000.0 1.0063944564602076 -0.03662571053723988
4044000000.0 1.042579511043 -0.06929035047694966
4047000000.0 1.0718696194710782 -0.04730447674833835
4050000000.0 1.0077146351906405 -0.06682313914124002
4053000000.0 1.0215165912764943 -0.11447578316147759
4056000000.0 1.016966652956086 -0.10151200037514951
4059000000.0 0.9915672296306712 -0.1557647390242195
4062000000.0 0.9976750197078823 -0.11402549116167678
4066000000.0 1.0100750360502 -0.1304889099068872
4069000000.0 1.0028862134869667 -0.20683056577738146
4072000000.0 0.9421075659589363 -0.2365654917635263
4075000000.0 1.0120207488330217 -0.2516526278797515
4078000000.0 1.0135152064950133 -0.22398833731850082
4081000000.0 0.9689293462043276 -0.26861195166362045
4084000000.0 1.0317051057459996 -0.2355900477444072
4088000000.0 0.9736898495014489 -0.2538947003535129
4091000000.0 0.9805031073515004 -0.2680800429426004
4094000000.0 0.9610660776447589 -0.30284459403986913
4097000000.0 0.9568538984425312 -0.31464820928162734
4100000000.0 0.9255299716086653 -0.3187539259003553
4103000000.0 0.9702118938821755 -0.34748049346300475
4106000000.0 0.9591351337931406 -0.39173129925028577
4109000000.0 0.9480813845753187 -0.3554152522953561
4112000000.0 0.9278351393826605 -0.3987727775273899
4116000000.0 0.9235912036527426 -0.41300990781175695
4119000000.0 0.9314303008472083 -0.43302949561677795
4122000000.0 0.8813488406196168 -0.4469436327340477
4125000000.0 0.8753387783093072 -0.43833709766361595
4128000000.0 0.8871844670210803 -0.46227379627056725
4131000000.0 0.8821455992650584 -0.519492951633146
4134000000.0 0.8802142620254988 -0.4906611088760032
4138000000.0 0.8729935879068282 -0.5326895881058967
4141000000.0 0.8489746958951804 -0.5286153195621032
4144000000.0 0.8600069257990931 -0.5322294796179571
4147000000.0 0.8723223194901626 -0.5808558275955181
4150000000.0 0.817481148351501 -0.6247828092045216
4153000000.0 0.8106009517445549 -0.5896851090717581
4156000000.0 0.8095691001749745 -0.6145613825173073
4159000000.0 0.7571022761940591 -0.6070597578500978
4162000000.0 0.7785016285638378 -0.6419364065474229
4166000000.0 0.7738947528640243 -0.6824690736261483
4169000000.0 0.7259227097423997 -0.6591798841392559
4172000000.0 0.7432564542171345 -0.6961905421068695
4175000000.0 0.7461010956545078 -0.7272412379959393
4178000000.0 0.7056683469067233 -0.7169526177488991
4181000000.0 0.6473075158611081 -0.7365763516964621
4184000000.0 0.6604514069427014 -0.723951684019764
4188000000.0 0.6292510594490671 -0.7579303243335866
4191000000.0 0.651941857054292 -0.7699419005753957
4194000000.0 0.631352600787385 -0.8160652330638927
4197000000.0 0.6251662231112443 -0.8067616190838913
4200000000.0 0.6401852591823001 -0.8167947592448451
4203000000.0 0.5943797097473748 -0.8722642026927941
4206000000.0 0.5630091054010159 -0.8387662856399982
4209000000.0 0.5270660248193859 -0.861696514090242
4212000000.0 0.490887264867692 -0.88857633744911
4216000000.0 0.5268096448614378 -0.9019460397594792
4219000000.0 0.4912858162960615 -0.8832879629897205
4222000000.0 0.45438221694634795 -0.8736880370124454
4225000000.0 0.4139237106598298 -0.9200218116188922
4228000000.0 0.4095066460319272 -0.9291103078667894
4231000000.0 0.36676276452200335 -0.9495371692769456
4234000000.0 0.35481932159916174 -0.960833801265399
4238000000.0 0.3368944563504116 -0.9497089234204561
4241000000.0 0.26991964983168826 -0.9494961314394681
4244000000.0 0.26958493025348496 -0.9584795489491712
4247000000.0 0.2545074258203569 -0.9587732047604898
4250000000.0 0.2176385241141925 -0.9737795981068222
4253000000.0 0.19065273769911079 -0.9771063358109476
4256000000.0 0.1939713744461427 -1.0566404446292434
4259000000.0 0.13037778464741057 -0.9721775450364071
4262000000.0 0.12518784175177888 -0.979027039698049
4266000000.0 0.06914103513347439 -0.9976377020820801
4269000000.0 0.07455166295439344 -1.0126275989677211
4272000000.0 0.04655920767641855 -0.9973471016971935
4275000000.0 0.06474301390980466 -1.015066230852963
4278000000.0 0.01814961287686659 -1.0249236160759803
4281000000.0 -0.027880348233045 -1.008822100628857
4284000000.0 -0.051267549062678025 -1.0122990254912918
4288000000.0 -0.08564579842834916 -1.0106484251297732
4291000000.0 -0.11893496976271217 -1.0122291949742466
4294000000.0 -0.13579474433401467 -1.028104458792295
4297000000.0 -0.1467676954443987 -0.9886144972400052
4300000000.0 -0.19786211871538412 -1.00432561486582
4303000000.0 -0.20781081870704815 -0.9905668370612584
4306000000.0 -0.2748925068062868 -0.9912021469050281
4309000000.0 -0.30300159602041016 -0.990661899555358
4312000000.0 -0.3486292433790844 -0.965913851241348
4316000000.0 -0.36101767764779064 -0.9117460068158534
4319000000.0 -0.37078436609231347 -0.9423134314288323
4322000000.0 -0.42767964200418107 -0.9391172885200909
4325000000.0 -0.438032743586556 -0.9175409437309878
4328000000.0 -0.47152734192532886 -0.9103378194621008
4331000000.0 -0.49775923243853365 -0.8749773796729027
4334000000.0 -0.5242820540978598 -0.8884474684963221
4338000000.0 -0.5583987107621364 -0.8587241878024361
4341000000.0 -0.5774500845509263 -0.8307556572457341
4344000000.0 -0.6165237873560628 -0.8316714906026019
4347000000.0 -0.6370178441300872 -0.8191359075966218
4350000000.0 -0.6978193804413554 -0.8003236438015535
4353000000.0 -0.6812216407043779 -0.7708511059093468
4356000000.0 -0.710848750462405 -0.7870535299476933
4359000000.0 -0.7754553250375146 -0.7486884492298352
4362000000.0 -0.7133822200340056 -0.724972677625233
4366000000.0 -0.7764235433826816 -0.6548573488939464
4369000000.0 -0.8116767806997346 -0.6325899245626309
4372000000.0 -0.8457530796473631 -0.6435506549498773
4375000000.0 -0.8352724138972281 -0.5324960331765172
4378000000.0 -0.8981721400052309 -0.5704795100062343
4381000000.0 -0.9007541184274568 -0.5253778162209447
4384000000.0 -0.8394325798980329 -0.48529925374850447
4388000000.0 -0.9193136114395111 -0.45916295876190716
4391000000.0 -0.945882902613367 -0.46140764070208606
4394000000.0 -0.9908021886047803 -0.4304801208486791
4397000000.0 -1.0084588921733206 -0.34922443445176377
4400000000.0 -0.9430583004927156 -0.37891006444542813
4403000000.0 -1.0421645081314899 -0.3082879802669795
4406000000.0 -1.0431978773532689 -0.28154582501871384
4409000000.0 -0.9369480036279965 -0.20948410344695048
4412000000.0 -0.9678295476373824 -0.28332639211498784
4416000000.0 -0.993398703315544 -0.20587615105532428
4419000000.0 -1.0183853012502935 -0.19607964212267076
4422000000.0 -1.0403523095492377 -0.06598833828297018
4425000000.0 -0.9845376187952468 -0.012174253037798705
4428000000.0 -1.0839227797793065 -0.02184829025185489
4431000000.0 -0.9970249693777924 0.027771638496118856
4434000000.0 -1.0740612504183575 0.038782291838821925
4438000000.0 -0.9943990735860033 0.04329134442089305
4441000000.0 -0.9779789178088174 0.096170620395445
4444000000.0 -1.0792415841090892 0.22447634017637355
4447000000.0 -1.0692896400081335 0.1964510085951343
4450000000.0 -1.065859548945248 0.24665150843854294
4453000000.0 -0.9811829202558909 0.2107918748823583
4456000000.0 -1.0291494264340124 0.2752079025595724
4459000000.0 -1.084363534682563 0.3288258603131078
4462000000.0 -0.9409123824040804 0.36787290928523797
4466000000.0 -1.009419577616685 0.3735915582854431
4469000000.0 -0.9483752810037749 0.431666776244319
4472000000.0 -0.880530857906164 0.42923621308679827
4475000000.0 -0.916052256564036 0.5570922923889149
4478000000.0 -0.8500646434200378 0.4817501532416223
4481000000.0 -0.9192854359795211 0.5372185177621484
4484000000.0 -0.8835626636144935 0.5808764203993788
4488000000.0 -0.8491823086303598 0.6236218329874615
4491000000.0 -0.8804509702496168 0.6064067683339379
4494000000.0 -0.8011155950901399 0.7052210326974215
4497000000.0 -0.7469118819884832 0.6935648891017159
4500000000.0 -0.7288978068366812 0.7115646120881023
4503000000.0 -0.7431954801732692 0.7503294679905479
4506000000.0 -0.7150084928898959 0.7350881374706935
4509000000.0 -0.6384264216333186 0.8132059314733685
4512000000.0 -0.6768262787440837 0.7879972632665905
4516000000.0 -0.6003777916237021 0.8550157125040113
4519000000.0 -0.5741527276572339 0.8623965449075557
4522000000.0 -0.5904738116212664 0.8385083946386473
4525000000.0 -0.5391192473644633 0.9203747215902047
4528000000.0 -0.5352699305738373 0.9250988173815153
4531000000.0 -0.4541492481581695 0.9370118630161814
4534000000.0 -0.46121758167891136 0.9298555322072004
4538000000.0 -0.40230085450472614 0.9561275727650926
4541000000.0 -0.43708919272645375 0.9905494786206538
4544000000.0 -0.34344938294503574 0.9516101319316841
4547000000.0 -0.33801530890979015 0.9763994303183692
4550000000.0 -0.3096528326053252 1.0047803289499928
4553000000.0 -0.2770400329540973 1.0281638097339536
4556000000.0 -0.26019185382105714 1.0382032092698668
4559000000.0 -0.2098280786404712 1.0207504076328193
4562000000.0 -0.19320989272888017 1.0170865109157827
4566000000.0 -0.1388876115509392 1.0402045494873708
4569000000.0 -0.1349460050401084 1.0210480523246142
4572000000.0 -0.10118269220435644 0.9941372378865125
4575000000.0 -0.08092632925815102 1.0150361585384287
4578000000.0 -0.06280778612956384 1.0375143569943142
4581000000.0 -0.007180777226346885 1.0244216089902518
4584000000.0 0.005814097047376496 1.0197446698088186
4588000000.0 0.03207230650447365 1.0444425740043148
4591000000.0 0.08298356161535039 1.0052843849633282
4594000000.0 0.09087405294006812 1.043977886374227
4597000000.0 0.1655545733740006 1.0392726696912231
4600000000.0 0.16542237173832025 0.957669072847645
4603000000.0 0.18233684153910745 1.0220135597050366
4606000000.0 0.15381835046586503 1.0394100324474553
4609000000.0 0.2579973862708387 1.0437604489246968
4612000000.0 0.25651928137061886 1.0203920767721264
4616000000.0 0.3038265327645143 0.9906295638970789
4619000000.0 0.28231898797353217 1.0294654574917415
4622000000.0 0.2819498280958504 0.9825678183803236
4625000000.0 0.33318202843783895 0.9276492369566736
4628000000.0 0.3419885018748796 0.9365801861617852
4631000000.0 0.4210553630741174 0.8739634499729415
4634000000.0 0.4023382910276372 0.9254681182042629
4638000000.0 0.43713569023932086 0.9108378707636743
4641000000.0 0.4749635950061659 0.9408972490587761
4644000000.0 0.5187405825685386 0.899798406816236
4647000000.0 0.5136925482210114 0.8895180155448158
4650000000.0 0.5535969507158738 0.8750690202020487
4653000000.0 0.5575437030060897 0.843586420838012
4656000000.0 0.5927967346844253 0.8384231101391264
4659000000.0 0.5400256692866795 0.7886141036120076
4662000000.0 0.5703565513839313 0.8152931812570302
4666000000.0 0.631346396307713 0.81278378968684
4669000000.0 0.6014284709366169 0.8032669003476133
4672000000.0 0.691950869409598 0.7465703011944562
4675000000.0 0.6720628103689221 0.6906239476001861
4678000000.0 0.6903300083811383 0.7506092587060851
4681000000.0 0.7537650795848085 0.6859704601370554
4684000000.0 0.6997546303674348 0.6489915892892327
4688000000.0 0.7146321543515466 0.694205446186097
4691000000.0 0.6924528717593668 0.6503286795171674
4694000000.0 0.7952478174086313 0.6295319515537021
4697000000.0 0.793147517044299 0.6859172773248936
4700000000.0 0.7877628559255351 0.6837434016957784
4703000000.0 0.8880773049862218 0.5898307502285485
4706000000.0 0.779134971993277 0.6118092411165893
4709000000.0 0.8278849696475395 0.5870928664734203
4712000000.0 0.8429057075967672 0.5255406531690443
4716000000.0 0.8335928698785489 0.5473908103841874
4719000000.0 0.8928347432484083 0.4952576910005722
4722000000.0 0.9357745638487343 0.5235365305148416
4725000000.0 0.9062702127595201 0.4423686895709149
4728000000.0 0.8945094533504916 0.44192453868106046
4731000000.0 0.8559381130166539 0.44657888893458014
4734000000.0 0.9016610358502821 0.4345053561713257
4738000000.0 0.8869287239141772 0.3970627246956123
4741000000.0 0.902312437706094 0.40604296689496305
4744000000.0 0.9302798108755389 0.36345830514978084
4747000000.0 0.9818937565126814 0.3904025831296454
4750000000.0 0.9333726686851742 0.29145159092445416
4753000000.0 0.9996615831599395 0.31081552676024565
4756000000.0 0.9356299185222885 0.26465893245559824
4759000000.0 0.9751885144841268 0.26641140747772735
4762000000.0 0.9279678475821784 0.2863451771708036
4766000000.0 0.9573394672212532 0.23951942765174028
4769000000.0 1.023845248091964 0.23995823468068808
4772000000.0 0.9991040085306109 0.18507796568778206
4775000000.0 0.9620226728640613 0.18471299040391798
4778000000.0 0.9812635944934358 0.23849182031083604
4781000000.0 1.015592671568649 0.17443355352538487
4784000000.0 0.9915060204833216 0.18870996187905242
4788000000.0 0.9952262205251311 0.1870211168379754
4791000000.0 1.0185124092208568 0.06725531367983423
4794000000.0 0.9650127284799874 0.07645858203985632
4797000000.0 1.0367939522857614 0.05781332092495024
4800000000.0 1.0115051630956144 0.04251003779101639
4803000000.0 1.0115181750573714 0.06912677153277398
4806000000.0 0.992613592985471 0.027968428740266088
4809000000.0 0.9970410250593451 0.014187763823524657
4812000000.0 1.0140578671314595 -0.007709249410204039
4816000000.0 1.0095662715595564 -0.056414377344288086
4819000000.0 1.0283079386546066 -0.03060934887349301
4822000000.0 1.0028332896384233 -0.0656421616188072
4825000000.0 0.9918449001536769 -0.08872784301188019
4828000000.0 0.9763737826766204 -0.07393231347849732
4831000000.0 1.0183238752424357 -0.0894452903992177
4834000000.0 0.9963096956386992 -0.15326741291077475
4838000000.0 1.0253063097577113 -0.1291113145455777
4841000000.0 1.0100473195099557 -0.17495269827839732
4844000000.0 1.0042773969168721 -0.1814308333266845
4847000000.0 0.999351079789371 -0.17765186844154326
4850000000.0 0.987738773028833 -0.1934977131480179
4853000000.0 0.9979059674347933 -0.19658082893459028
4856000000.0 1.000958731062074 -0.2363283244542755
4859000000.0 0.9785769662478202 -0.24039981496210838
4862000000.0 0.9769321782290685 -0.2308691420097575
4866000000.0 0.9906737028676993 -0.2798424718361656
4869000000.0 0.9484934813832382 -0.30190313144290204
4872000000.0 0.9461782855772989 -0.3124360860820564
4875000000.0 0.9866925449279151 -0.3414655005198516
4878000000.0 0.9503447846494324 -0.3629959678635311
4881000000.0 0.9443545036095427 -0.3542992854753143
4884000000.0 0.9542054542775811 -0.37046969390373974
4888000000.0 0.969378245386967 -0.3771192071341102
4891000000.0 0.9350315465466777 -0.37709903198409805
4894000000.0 0.9234300876729462 -0.42616891099860044
4897000000.0 0.9367644736611384 -0.4006956966944115
4900000000.0 0.896742032055705 -0.46134616240438775
4903000000.0 0.9191003480891964 -0.4469256600531795
4906000000.0 0.9148758200089144 -0.4619740830704947
4909000000.0 0.8881091640483825 -0.4899592540887461
4912000000.0 0.8984621077092058 -0.4916447189372735
4916000000.0 0.8992552606063682 -0.47794136334507686
4919000000.0 0.8633615740290312 -0.5064345532841541
4922000000.0 0.888059923580469 -0.5186269650244926
4925000000.0 0.854739605177334 -0.5491058978157799
4928000000.0 0.8660163847372342 -0.5268261748372567
4931000000.0 0.8794012821711534 -0.5449274616258901
4934000000.0 0.8425822989356783 -0.5578395613054374
4938000000.0 0.8114829068129951 -0.5748377926587851
4941000000.0 0.8190639204992967 -0.5679329509047814
4944000000.0 0.7915679406715166 -0.5910022883602231
4947000000.0 0.8170611945266023 -0.6015544799215603
4950000000.0 0.8037602702153975 -0.6230169293056479
4953000000.0 0.760270301671535 -0.6676407269573233
4956000000.0 0.7600000431293916 -0.6533289925969157
4959000000.0 0.7606343390722455 -0.6637045679420773
4962000000.0 0.7774607047502952 -0.6995789208135561
4966000000.0 0.7806461097265941 -0.6800518224459472
4969000000.0 0.7659327135020755 -0.680353984985548
4972000000.0 0.7447082621282523 -0.7520503439035896
4975000000.0 0.7372485627200632 -0.6941239844142856
4978000000.0 0.7099880625851488 -0.7177682208489576
4981000000.0 0.6897922626642781 -0.7246296248833507
4984000000.0 0.7060663608921449 -0.7143769788712211
4988000000.0 0.6924085126299796 -0.7369081272597193
4991000000.0 0.721298993906905 -0.7318183270681339
4994000000.0 0.7133820826939636 -0.7378094498031678
4997000000.0 0.6717683406861323 -0.7723751824219419
5000000000.0 0.6853333778503788 -0.7743536074125401
5003000000.0 0.6897379724637165 -0.7797505293142079
5006000000.0 0.6804908667978733 -0.8408374214604979
5009000000.0 0.6244066886284978 -0.7845986799700133
5012000000.0 0.5899964478034092 -0.8068390499509193
5016000000.0 0.67520255896847 -0.8120334639413767
5019000000.0 0.5748776883569664 -0.7899978267143264
5022000000.0 0.5725172373870263 -0.8477522806671021
5025000000.0 0.6442001736460935 -0.9023082017048369
5028000000.0 0.5586794712642194 -0.8626491262578879
5031000000.0 0.5424119258558461 -0.8393041658926805
5034000000.0 0.5362467981829486 -0.9256629795533164
5038000000.0 0.5124666122631633 -0.8496407804795131
5041000000.0 0.5591572749688882 -0.8543778611267423
5044000000.0 0.5516665693524153 -0.8604864835524333
5047000000.0 0.5752729004594486 -0.8886392014513808
5050000000.0 0.5868166284002475 -0.838666760151136
5053000000.0 0.5240121583621331 -0.944004810940525
5056000000.0 0.5526109206986389 -0.8606414289493503
5059000000.0 0.5607389794613415 -0.8891583974565115
5062000000.0 0.4646112802442305 -0.945925518206854
5066000000.0 0.48404049386474557 -0.8749019011290344
5069000000.0 0.44646746202118587 -0.936992037328073
5072000000.0 0.409587435780759 -0.9184352341570103
5075000000.0 0.4618975440991596 -0.9693787405182983
5078000000.0 0.38209805245972 -0.9861259855140179
5081000000.0 0.33697207707753 -0.9445595353959414
5084000000.0 0.4315970597298923 -0.9947381761629466
5088000000.0 0.39294405087664475 -0.9615739728762849
5091000000.0 0.3293398742910599 -1.0349641740182907
5094000000.0 0.39553923762542426 -0.9518127759283616
5097000000.0 0.40584301229251907 -1.0102910237181104
5100000000.0 0.3343327332104863 -0.9676775767393625
5103000000.0 0.36477187792151483 -0.9669314244545338
5106000000.0 0.36842856214917824 -1.0451302773131657
5109000000.0 0.3760222209811804 -0.9444234807554406
5112000000.0 0.34958228993948093 -0.9678307336696317
5116000000.0 0.27323394100506676 -0.9240593722661707
5119000000.0 0.3147444825880991 -1.0271153468896699
5122000000.0 0.2789801859506467 -0.959765998165137
5125000000.0 0.258643997300119 -1.014791727187367
5128000000.0 0.2521114937996627 -1.0099687090603626
5131000000.0 0.2710677305062624 -0.9916639023953749
5134000000.0 0.21981005955574784 -1.0281011887391336
5138000000.0 0.22044182617406563 -1.0184789893495383
5141000000.0 0.28117170971664873 -1.0130824812614077
5144000000.0 0.24275651342048385 -1.0419690745020336
5147000000.0 0.20600206194903103 -1.0622136686598584
5150000000.0 0.21072569349305775 -0.9754673050989721
5153000000.0 0.1882941099355478 -1.0076236635878617
5156000000.0 0.15489976977343822 -1.0266366359357515
5159000000.0 0.13305490897570033 -1.0597982494029505
5162000000.0 0.15573052896936426 -1.0262869819493237
5166000000.0 0.0789933695270463 -1.1070122785252388
5169000000.0 0.12163307973124599 -1.052082824946769
5172000000.0 0.1352557318538232 -0.9956602838983125
5175000000.0 0.10849511494224846 -1.087917357009029
5178000000.0 0.05851817408736895 -0.9961705720442325
5181000000.0 0.14400157615884504 -1.1260286343385115
5184000000.0 0.030669862827258507 -1.0145398691360743
5188000000.0 0.11678621420978583 -1.003292321820796
5191000000.0 0.058992550915225844 -1.088022956448549
