! Created with skrf 1.8.0 (http://scikit-rf.org).
# Hz S RI R 50.0 
!freq ReS11 ImS11
4000000000.0 0.5942575500603975 0.7749292615049539
4003000000.0 0.6448829216863877 0.8744273420347562
4006000000.0 0.6691572605819371 0.749101419608808
4009000000.0 0.641816250383483 0.8110049300202883
4012000000.0 0.6481185973424415 0.8133098136314889
4016000000.0 0.6659947121919728 0.7810100789868515
4019000000.0 0.7146792436902718 0.745402325663472
4022000000.0 0.6365552775709192 0.8406756717018066
4025000000.0 0.7466515903803379 0.7078285657528212
4028000000.0 0.7029747996327232 0.7293100984161787
4031000000.0 0.6657625719717872 0.7322225904131572
4034000000.0 0.7325615601107485 0.727450022344614
4038000000.0 0.7206229294095665 0.7167762878679274
4041000000.0 0.7404665955444207 0.7545994778672124
4044000000.0 0.7668991152744834 0.7745856055172095
4047000000.0 0.7763818974327683 0.7487611463494698
4050000000.0 0.7857153314285894 0.7008567110715331
4053000000.0 0.7535254194907353 0.6679351412089323
4056000000.0 0.7641902224934377 0.7089901322587002
4059000000.0 0.7199160263326512 0.7256185700048117
4062000000.0 0.8376557968163716 0.6816790133628148
4066000000.0 0.7119355869885702 0.6379725845123722
4069000000.0 0.8164945525301506 0.7122742742327843
4072000000.0 0.7560767646697086 0.706893359258983
4075000000.0 0.7803097829187319 0.7163245602837909
4078000000.0 0.8130080473271508 0.6762076223883186
4081000000.0 0.7865370927295096 0.6982096272019781
4084000000.0 0.8421622574854407 0.6333899039542641
4088000000.0 0.7904602226128297 0.689000497451118
4091000000.0 0.8593196172186526 0.6641330978999791
4094000000.0 0.8313105058641581 0.6480106980340732
4097000000.0 0.8257651192157633 0.6150372889197919
4100000000.0 0.8171226570394293 0.5898748387862986
4103000000.0 0.8363484539028314 0.6133888998954122
4106000000.0 0.8663316635166725 0.6018929027051546
4109000000.0 0.860117187878662 0.5770051443474169
4112000000.0 0.8282061985697331 0.6105106047836597
4116000000.0 0.8265424018258553 0.6144145433724497
4119000000.0 0.8644448165705201 0.5643293550755458
4122000000.0 0.886382435031514 0.5425416820541816
4125000000.0 0.8907351639895336 0.5396147457318028
4128000000.0 0.8652366638516348 0.532091357731238
4131000000.0 0.8568115515267669 0.5349381624141287
4134000000.0 0.8384329275532441 0.5425299683535896
4138000000.0 0.8485674284364004 0.4603229991195101
4141000000.0 0.8788266022500429 0.5112717300729527
4144000000.0 0.8810417831115401 0.5514837191642259
4147000000.0 0.9102603461401376 0.49348305099278617
4150000000.0 0.9096571738916791 0.5242657332882916
4153000000.0 0.9016067246132224 0.48591281092574257
4156000000.0 0.9118677196732055 0.502967157350437
4159000000.0 0.9156571559202591 0.4859807307808544
4162000000.0 0.8970558837775802 0.46193905073660957
4166000000.0 0.9457919602293197 0.4479495520206954
4169000000.0 0.9195681539196212 0.40935369243522346
4172000000.0 0.9228272301283723 0.4742690805138586
4175000000.0 0.9368745242074696 0.4580068512703029
4178000000.0 0.955585515724956 0.4321639809708685
4181000000.0 0.9136002339605618 0.41775221203710766
4184000000.0 0.92779658390773 0.41696454862809124
4188000000.0 0.9463308539360287 0.4171507790911009
4191000000.0 0.9209416598991828 0.43077364900647824
4194000000.0 0.9160498840852377 0.3821699819344663
4197000000.0 0.9576090416903777 0.3800047160923607
4200000000.0 0.9519350970603062 0.39984659923782273
4203000000.0 0.9623383590514507 0.3910985313056343
4206000000.0 0.9715833353748817 0.37010886269338045
4209000000.0 0.9150832784173839 0.36563043869575557
4212000000.0 0.971224576078658 0.33792074248260584
4216000000.0 0.9582224068713295 0.3449388100847503
4219000000.0 0.9906294296245948 0.34160405606189304
4222000000.0 0.9778576221770783 0.3065947406715169
4225000000.0 0.963747233817253 0.32043153419786996
4228000000.0 0.984858951479638 0.3224318747747952
4231000000.0 0.9873547272248235 0.31087922281621083
4234000000.0 0.9986073561886647 0.2938721694888077
4238000000.0 0.9872705310810047 0.2518838577041458
4241000000.0 0.9700060132432058 0.2679215237805073
4244000000.0 0.9838973766480407 0.28013709879399684
4247000000.0 0.9900381414816591 0.2740262494290042
4250000000.0 0.9638410756787221 0.23990506147593316
4253000000.0 0.9594638222151644 0.21900534515508907
4256000000.0 1.0356061058028891 0.2383337293227369
4259000000.0 0.9629497926717784 0.21242685165170935
4262000000.0 1.0217868815802358 0.1989490439155193
4266000000.0 1.0242745529537813 0.19857403864770956
4269000000.0 0.9961617526978407 0.21404857927733648
4272000000.0 0.9895136559087965 0.19378915216814424
4275000000.0 1.0039858749755017 0.18599244969088058
4278000000.0 1.0204051770223863 0.17170656228389725
4281000000.0 1.0003217529824722 0.1660189342768747
4284000000.0 1.0184764489563165 0.1412242205665382
4288000000.0 0.9995324513228943 0.17878884921327232
4291000000.0 1.0005297397650048 0.1352402465789248
4294000000.0 1.0016011957728543 0.12170273357292925
4297000000.0 0.9970627974182091 0.14121748873020773
4300000000.0 1.0122708571815806 0.13545534175764246
4303000000.0 1.0128968183200358 0.08912363406660327
4306000000.0 1.0381078080080686 0.13423580172297161
4309000000.0 1.0075721428946525 0.07317679223381175
4312000000.0 1.0210870179141145 0.12955710599394712
4316000000.0 1.0054961024416258 0.08808201507846065
4319000000.0 0.9993403067758612 0.08538018157086004
4322000000.0 1.0071801119003465 0.0463627877818253
4325000000.0 1.0149143555363904 0.053615823464493687
4328000000.0 0.9927420669340135 0.0276652228127139
4331000000.0 1.0435555400050536 0.03000124856069336
4334000000.0 1.0183669069822527 -0.0018131172857095423
4338000000.0 1.008599028577602 0.04723028726613655
4341000000.0 1.0357296119873225 0.039797356243764986
4344000000.0 1.0230650450729908 0.017940186023745502
4347000000.0 1.0065848625934906 -0.02716653833756108
4350000000.0 0.9844192228346755 -0.027556242919558438
4353000000.0 0.9867432020412907 -0.00011893553191294481
4356000000.0 0.9990324018301909 -0.052833621902757893
4359000000.0 0.9747693502316105 -0.050675438376885235
4362000000.0 1.0187786715785492 -0.09174916123084287
4366000000.0 1.0378186412858335 -0.08378801252192329
4369000000.0 0.9783252607873582 -0.08025147815938974
4372000000.0 0.9972115063463747 -0.12432466170826893
4375000000.0 0.9932549088901095 -0.08015471140532142
4378000000.0 0.9760660433769445 -0.09553266000187897
4381000000.0 0.9767485483672886 -0.0924876061626689
4384000000.0 1.073065339863327 -0.13109357695002577
4388000000.0 0.9819749763846692 -0.10442801137883738
4391000000.0 1.0113958496736144 -0.11964179985765619
4394000000.0 0.9744915339027503 -0.14595364763149654
4397000000.0 1.0002326541951723 -0.15650475530719915
4400000000.0 1.0195590338378284 -0.16596393917090624
4403000000.0 0.9987680124960836 -0.1812228248773923
4406000000.0 0.9861012263977297 -0.19201769347106226
4409000000.0 1.0316636966449422 -0.20014068047597292
4412000000.0 0.9826603030361324 -0.26329544995560944
4416000000.0 0.9731487701566932 -0.21922060357838413
4419000000.0 0.9838425031585343 -0.23872470195415915
4422000000.0 0.9823601470025072 -0.21138407030499978
4425000000.0 1.0111422227235198 -0.21086886399335275
4428000000.0 0.9858982286586366 -0.23949454548125848
4431000000.0 1.0015261715547008 -0.2423747713437827
4434000000.0 0.9612697003333943 -0.25396754661057475
4438000000.0 1.006638273587342 -0.27687819265668706
4441000000.0 0.9860105912905044 -0.26792580861604026
4444000000.0 0.9553695740301766 -0.2724511555185092
4447000000.0 0.9616359766660999 -0.2964868516677602
4450000000.0 0.9637126126078446 -0.28537641888043414
4453000000.0 0.9918610088349581 -0.32168629365799356
4456000000.0 0.9347941243263078 -0.3204081588417288
4459000000.0 0.9077166621312205 -0.3225164068116192
4462000000.0 1.0122059549636446 -0.3399527027622036
4466000000.0 0.9848687260536335 -0.3671740636533116
4469000000.0 0.9755757928386214 -0.3315329546722092
4472000000.0 0.9708391838361581 -0.37196458362457707
4475000000.0 0.9204735720660479 -0.3574398944549674
4478000000.0 0.980518651434405 -0.3999183698835437
4481000000.0 0.9058584433383526 -0.37680141619597296
4484000000.0 0.9026115035034126 -0.4420094360241218
4488000000.0 0.914219724742394 -0.3983890991183266
4491000000.0 0.9037693092953752 -0.4283210830357979
4494000000.0 0.9078969821231397 -0.40675224719238445
4497000000.0 0.9027357777734324 -0.4357368906331915
4500000000.0 0.9237733192523117 -0.4162500024037234
4503000000.0 0.9196552856995008 -0.4277999647206672
4506000000.0 0.8927894355215047 -0.45938756573493694
4509000000.0 0.8955510232640926 -0.4588672756682537
4512000000.0 0.8644364613562748 -0.46317337808201686
4516000000.0 0.9222763832119888 -0.47541738679838796
4519000000.0 0.8792589460638561 -0.4547982985937054
4522000000.0 0.8858450454063467 -0.4912493469207594
4525000000.0 0.8955209043055683 -0.4806273942081857
4528000000.0 0.89816599422866 -0.5104265964347293
4531000000.0 0.879856680193569 -0.49334887423286633
4534000000.0 0.8575773076902832 -0.49666142881938524
4538000000.0 0.848175033809001 -0.5318602997872018
4541000000.0 0.8286009466153678 -0.5520286710447732
4544000000.0 0.8500669597255732 -0.5327553208262932
4547000000.0 0.8509736692228028 -0.5164029055039909
4550000000.0 0.8582826603950755 -0.588371383969814
4553000000.0 0.834293622960746 -0.563646582824988
4556000000.0 0.8040375932813777 -0.5763885243289377
4559000000.0 0.8261391834198555 -0.5831532736024365
4562000000.0 0.841951322507783 -0.5860417073717994
4566000000.0 0.8145752006740123 -0.5922502714309703
4569000000.0 0.798668264148197 -0.598467804661029
4572000000.0 0.8021080956225026 -0.591889528407538
4575000000.0 0.7932611262160416 -0.635503331551027
4578000000.0 0.8316540964221593 -0.6372974236373419
4581000000.0 0.797128275346921 -0.6556463690172232
4584000000.0 0.765736516320134 -0.6373394467997592
4588000000.0 0.8118160070068243 -0.6525014138193148
4591000000.0 0.7729851047880607 -0.6540951911968541
4594000000.0 0.7600889523542932 -0.6695816411700903
4597000000.0 0.7771815554125299 -0.6510164139139276
4600000000.0 0.7296886202951294 -0.6819875403174739
4603000000.0 0.7490318550956445 -0.6871544222890795
4606000000.0 0.7511057576863391 -0.6830757312684188
4609000000.0 0.7352528305294105 -0.6816542049998159
4612000000.0 0.73290626827446 -0.7030346175373479
4616000000.0 0.7139121337150514 -0.6915534655700551
4619000000.0 0.73097501679094 -0.6994985048210035
4622000000.0 0.6916786948038007 -0.7263307322719542
4625000000.0 0.6604097161806122 -0.7015291954170826
4628000000.0 0.6925064501525902 -0.7172866813772505
4631000000.0 0.6639721734785906 -0.7394388548545149
4634000000.0 0.7037966033880082 -0.7428063779548771
4638000000.0 0.6865268257004365 -0.7525596758747827
4641000000.0 0.6891576769682484 -0.7445782490808918
4644000000.0 0.6648132402944028 -0.759591294700078
4647000000.0 0.6770765113713111 -0.7707548681401003
4650000000.0 0.634240004112544 -0.7747307003404328
4653000000.0 0.6523203440735718 -0.7794845879639454
4656000000.0 0.6418673135348723 -0.777901984762009
4659000000.0 0.6224187785213459 -0.8065949141570897
4662000000.0 0.6328345985967484 -0.8137484925078949
4666000000.0 0.596560305517459 -0.8020429683081624
4669000000.0 0.6358832248383528 -0.8078591055723178
4672000000.0 0.6161390902562851 -0.8443290154802912
4675000000.0 0.5957196242809406 -0.8343826167293701
4678000000.0 0.5775678119731521 -0.811458768738159
4681000000.0 0.5695868911168275 -0.8482043727458803
4684000000.0 0.5618802444742321 -0.8467660724987016
4688000000.0 0.5483370959466308 -0.8279930509251416
4691000000.0 0.5779483452015826 -0.8397590106001109
4694000000.0 0.5694131372361448 -0.8345700563275202
4697000000.0 0.5046363466662809 -0.8401747947924139
4700000000.0 0.5448571644972149 -0.8430758306568995
4703000000.0 0.5562043178205184 -0.8184837076482614
4706000000.0 0.5044539670430945 -0.8781127026550083
4709000000.0 0.49794109624800764 -0.8640165394749467
4712000000.0 0.5207454025769256 -0.8727548744306964
4716000000.0 0.5108082284559143 -0.8830499692054579
4719000000.0 0.5199138801661389 -0.8719459632383324
4722000000.0 0.49109581496185595 -0.8909141868520969
4725000000.0 0.48569322383840335 -0.8692893319526954
4728000000.0 0.473081607897727 -0.8925145070946592
4731000000.0 0.47665822112889167 -0.9134522305589152
4734000000.0 0.45964458397446584 -0.8974716332600785
4738000000.0 0.4556504986203987 -0.927574936798822
4741000000.0 0.42529405577392443 -0.9098313211527802
4744000000.0 0.41413131077676385 -0.965252761247807
4747000000.0 0.4387943425316375 -0.8944187865087162
4750000000.0 0.4454676395158213 -0.9320357144244499
4753000000.0 0.4302557104523892 -0.926780869706699
4756000000.0 0.42580472222042576 -0.9564592221064947
4759000000.0 0.41825678440437275 -0.9199008698448754
4762000000.0 0.3527249029081713 -0.957863802310944
4766000000.0 0.3808533972011812 -0.9591391284788154
4769000000.0 0.3616681808655217 -0.9590237617674334
4772000000.0 0.35589357346595424 -0.986545779976386
4775000000.0 0.33444082742747017 -0.9980904228470862
4778000000.0 0.3364652348030557 -0.9775056012784965
4781000000.0 0.38937766153882025 -0.9346753759015756
4784000000.0 0.349515268494895 -0.9676220500024705
4788000000.0 0.32541309372414307 -1.0023834242454028
4791000000.0 0.30725670918620607 -0.9747119400156622
4794000000.0 0.3371761134339708 -1.00488109557269
4797000000.0 0.29622010188530135 -0.9462724195884981
4800000000.0 0.28719144499273197 -0.9863959147256711
4803000000.0 0.2431799865224946 -0.9860581735960654
4806000000.0 0.2832235948186066 -0.9710129782992833
4809000000.0 0.21430237384940387 -1.0142154426020418
4812000000.0 0.21855033400339946 -0.9890960000476541
4816000000.0 0.2659870441457358 -0.9853708438311641
4819000000.0 0.26827214386716797 -1.001251897319685
4822000000.0 0.2512471899727187 -1.0297512914803226
4825000000.0 0.2823038898311235 -1.0220710748118762
4828000000.0 0.2100988523949066 -1.012344357171468
4831000000.0 0.18398338535083197 -1.036177342169625
4834000000.0 0.20941572177782 -1.0142458739568825
4838000000.0 0.16500993644904371 -1.0518389836852777
4841000000.0 0.16736415962949078 -0.9878680297255537
4844000000.0 0.19762333571918578 -0.9983638435569012
4847000000.0 0.1784478252446442 -0.9834811547909945
4850000000.0 0.17161978828105537 -1.0242293190545262
4853000000.0 0.17293066750002872 -0.999485311765254
4856000000.0 0.14070211717633924 -1.007833460647182
4859000000.0 0.13621843507465864 -1.0550591153922553
4862000000.0 0.14672284088716447 -1.018294079617745
4866000000.0 0.08358644168175475 -1.0347513893107918
4869000000.0 0.09205748126054653 -1.0413328507658635
4872000000.0 0.07534776922111358 -1.029103955891053
4875000000.0 0.1436536364587308 -1.0834966720863455
4878000000.0 0.07762088320225305 -1.0473494273825161
4881000000.0 0.0555669688197975 -1.0993365573176102
4884000000.0 0.09311107248878608 -1.039382017419471
4888000000.0 0.11496208588091472 -1.010733720486482
4891000000.0 0.07251762592165228 -1.058027357534461
4894000000.0 0.020333216156715454 -1.0073085291071227
4897000000.0 0.0827177626641859 -1.0085039629740473
4900000000.0 0.02178285448712477 -1.0438586824350757
4903000000.0 0.045045669698671124 -1.0255387616710463
4906000000.0 0.019132963300235558 -1.0582120749977184
4909000000.0 -0.01581331006762482 -1.0593619648469401
4912000000.0 -0.03344225846961768 -1.0648645029594352
4916000000.0 -0.000685405763502421 -1.0770153373358933
4919000000.0 0.052906490094551596 -1.0729292992752202
4922000000.0 -0.002815592766699862 -1.0527327620391298
4925000000.0 -0.058350607513479216 -1.0338660102298505
4928000000.0 0.012200019667477802 -1.0140367870415938
4931000000.0 -0.04422640576452992 -1.0509201191643898
4934000000.0 -0.05199459668179958 -1.0024894453895037
4938000000.0 -0.11145576915132664 -1.0289601676976519
4941000000.0 -0.06920758707406281 -1.0156913783479176
4944000000.0 -0.06443867803340123 -0.9711343385858988
4947000000.0 -0.10043116107052241 -1.0036644266933354
4950000000.0 -0.11461998296074964 -0.9871806227070625
4953000000.0 -0.14512843608545828 -1.0216540133271752
4956000000.0 -0.17022514366085345 -1.041744770281577
4959000000.0 -0.172524118893181 -0.9997647058559855
4962000000.0 -0.15557694273728465 -1.0518946644420266
4966000000.0 -0.14096980537816983 -1.0388272585101974
4969000000.0 -0.1362115729694417 -1.078290193257458
4972000000.0 -0.1882140770305671 -1.0338064474298312
4975000000.0 -0.11564351249850122 -0.9934215498240345
4978000000.0 -0.19951485732112367 -1.0135282795258014
4981000000.0 -0.20313393014964473 -1.0191259157673243
4984000000.0 -0.15924367744643367 -1.0076680022029365
4988000000.0 -0.2035935043370395 -1.0148291485757326
4991000000.0 -0.158560413479228 -1.042481646892072
4994000000.0 -0.22638721994248995 -1.0091316850872696
4997000000.0 -0.2811290532771742 -0.9987824721619655
5000000000.0 -0.2328513872306342 -1.0507212473271046
5003000000.0 -0.22412035555544457 -1.0231087962294128
5006000000.0 -0.2461728059430703 -1.042337642226642
5009000000.0 -0.2090160765111275 -1.002204968940203
5012000000.0 -0.28806301926359407 -1.0056297951904387
5016000000.0 -0.22741306034924702 -1.0537747841226692
5019000000.0 -0.30092905579946727 -0.9741663114499992
5022000000.0 -0.3015299241586128 -1.032887692851299
5025000000.0 -0.31726539448878605 -1.0628598415940391
5028000000.0 -0.33674613581338786 -0.9827404703893712
5031000000.0 -0.33994834394169726 -1.014624270214838
5034000000.0 -0.3475978366205783 -1.0270590693415471
5038000000.0 -0.3388321556689122 -0.9738734547970558
5041000000.0 -0.3251378694211797 -1.0122454420322193
5044000000.0 -0.2788851170475035 -0.9959190902419967
5047000000.0 -0.35382469594605165 -0.9746132033176066
5050000000.0 -0.2818490271591556 -0.9978777775897052
5053000000.0 -0.39918658441842836 -0.9751383457900447
5056000000.0 -0.33293584411777255 -0.9853734296707328
5059000000.0 -0.3362001610998488 -0.9641346486522507
5062000000.0 -0.4331645501528548 -0.9545588442817226
5066000000.0 -0.32432288584357605 -0.9557820062257856
5069000000.0 -0.4020262589758765 -0.9467691532447381
5072000000.0 -0.3838698100168425 -0.9327309586186634
5075000000.0 -0.3857669957575295 -0.9408617200748342
5078000000.0 -0.46404594268282856 -0.9225920827875644
5081000000.0 -0.47785431831469555 -0.9003602210795226
5084000000.0 -0.46388964110588815 -0.9767234302621228
5088000000.0 -0.4366514935233067 -0.9514977511641678
5091000000.0 -0.4683246279031857 -0.9420991742518929
5094000000.0 -0.48014652535497443 -0.9540601043984466
5097000000.0 -0.4523165466611685 -0.9698904535025668
5100000000.0 -0.47216544784983466 -0.9162836421156971
5103000000.0 -0.5183046426025611 -0.956797116896169
5106000000.0 -0.4959083515564387 -0.9238536251492426
5109000000.0 -0.46859954909561746 -0.9387945119865233
5112000000.0 -0.4896697381469205 -0.9317790360311566
5116000000.0 -0.5041811703347093 -0.8615870385440743
5119000000.0 -0.48884170534874055 -0.9310075011848125
5122000000.0 -0.4959719057630341 -0.8657099699643325
5125000000.0 -0.4781666149774355 -0.9132829439335973
5128000000.0 -0.48733527134872406 -0.894202958950088
5131000000.0 -0.5429389640259316 -0.8896721562111302
5134000000.0 -0.5095085813894356 -0.8488576987105109
5138000000.0 -0.538515815978232 -0.8837960526881684
5141000000.0 -0.505164805740614 -0.933725417660574
5144000000.0 -0.5703778210614754 -0.9263323798309279
5147000000.0 -0.6031726312014459 -0.9164719259787553
5150000000.0 -0.5832970083466753 -0.8790226634032978
5153000000.0 -0.5925965777189917 -0.864333152644555
5156000000.0 -0.6145044708196727 -0.8745918364670854
5159000000.0 -0.6281680423466025 -0.9064970862525206
5162000000.0 -0.6245047168892753 -0.8331328623032812
5166000000.0 -0.6413101404411226 -0.8509290604947918
5169000000.0 -0.6167406256423758 -0.8359350748019095
5172000000.0 -0.6248954265714005 -0.8598914258852896
5175000000.0 -0.6493445317048767 -0.8597331685183012
5178000000.0 -0.6540762485057288 -0.8140595752642363
5181000000.0 -0.6956601234187599 -0.8362772174688827
5184000000.0 -0.6424728849236492 -0.798746817993048
5188000000.0 -0.6680409704747301 -0.8203383012355351
