! Created with skrf 1.8.0 (http://scikit-rf.org).
# Hz S RI R 50.0 
!freq ReS11 ImS11
4000000000.0 0.645807768648764 0.801608765614817
4003000000.0 0.6505726637905891 0.8168389697405707
4006000000.0 0.6488113313970277 0.7338419280911033
4009000000.0 0.6546827286776129 0.7734978115997281
4012000000.0 0.6649375716870477 0.8358105082182531
4016000000.0 0.7119417390390533 0.7742764578601227
4019000000.0 0.7063452734356892 0.7765258428209487
4022000000.0 0.699014830054357 0.7786163327937625
4025000000.0 0.7681734104676718 0.7351279145324748
4028000000.0 0.707679707462611 0.7283147279827125
4031000000.0 0.7001971585762963 0.6948436128573827
4034000000.0 0.7120372138821146 0.7213607825632365
4038000000.0 0.7556163650641714 0.677478438557291
4041000000.0 0.7386437393582664 0.7179934219715806
4044000000.0 0.7885906975455224 0.7328811367720329
4047000000.0 0.7471089731098728 0.7754540751777208
4050000000.0 0.7501015099181128 0.6949501684768637
4053000000.0 0.788054674059517 0.6604859585869729
4056000000.0 0.7673996049835905 0.6795164798602014
4059000000.0 0.7731002209412797 0.668997070098321
4062000000.0 0.7971312509667615 0.6887247485351411
4066000000.0 0.7435449589418279 0.658812171302749
4069000000.0 0.844408304308164 0.6296859913922435
4072000000.0 0.7727378772748958 0.692756365690125
4075000000.0 0.8139595595986701 0.6717668197064486
4078000000.0 0.7966389766267582 0.6566267569308928
4081000000.0 0.7763747759694705 0.6861015126311879
4084000000.0 0.8371513947579815 0.6208377596407104
4088000000.0 0.8483717908309248 0.6539046979693972
4091000000.0 0.8542431356805289 0.6633704976894927
4094000000.0 0.8312836611048089 0.5876867840124179
4097000000.0 0.8256940276496801 0.6185380725654159
4100000000.0 0.8278825213552278 0.6068267146460116
4103000000.0 0.8623168574866393 0.6304449392580982
4106000000.0 0.8448347714509553 0.600916673134712
4109000000.0 0.8447104422217633 0.5788550038972904
4112000000.0 0.8528467726251914 0.5681078344932122
4116000000.0 0.87224775061932 0.5729992019826631
4119000000.0 0.8990678521830486 0.5256978101714602
4122000000.0 0.8994367230723436 0.5344510132277477
4125000000.0 0.9085414930311408 0.5286489195664084
4128000000.0 0.8673305660726486 0.5359442639565508
4131000000.0 0.8672361685157026 0.523888672002266
4134000000.0 0.8919841660190846 0.5275540172483674
4138000000.0 0.9080905581086198 0.47844089921776506
4141000000.0 0.8922924444838324 0.5007080231135762
4144000000.0 0.9203014793266957 0.5210085765672057
4147000000.0 0.9007116037198244 0.46880530915504365
4150000000.0 0.9225604095721107 0.48045180093178
4153000000.0 0.8995972142346857 0.49250605606782005
4156000000.0 0.9276032789533357 0.502173032044211
4159000000.0 0.9084368878823195 0.47527708564462184
4162000000.0 0.9073308804250599 0.461667672359083
4166000000.0 0.9377952310421367 0.4452891548117994
4169000000.0 0.9363430967674262 0.4107148615111357
4172000000.0 0.9384554345060375 0.4290698065354775
4175000000.0 0.9602505983288743 0.4296052503151631
4178000000.0 0.9821975654211691 0.43839149031601443
4181000000.0 0.9328303831594811 0.4029769462132319
4184000000.0 0.9329705142533629 0.4111830164974863
4188000000.0 0.9397157412258192 0.37482664288727385
4191000000.0 0.9286012186227343 0.41770856039532084
4194000000.0 0.9271667987001926 0.36551139518121756
4197000000.0 0.988204934335758 0.3934521961507083
4200000000.0 0.9672745457631984 0.37676598740725464
4203000000.0 0.952410061900294 0.359097257641544
4206000000.0 0.9763811459676949 0.3546911964178994
4209000000.0 0.9613995028830303 0.34753498325031434
4212000000.0 0.9575509757075016 0.30384583138702526
4216000000.0 0.9751783973385709 0.3450797649789697
4219000000.0 0.9867686978305192 0.31444764445069107
4222000000.0 0.9829950942517389 0.2845579715060273
4225000000.0 0.9793443803126098 0.2957220261268515
4228000000.0 0.9737689496299484 0.29612184033415045
4231000000.0 0.9712014698396312 0.2683044260286623
4234000000.0 0.9900538316524077 0.25897302575562636
4238000000.0 0.9912244873551317 0.24079594994340228
4241000000.0 0.9835184254882814 0.22732069592339532
4244000000.0 0.975418161801854 0.241750632547928
4247000000.0 0.9884011840365365 0.24944156596603612
4250000000.0 0.9855643039091848 0.21553504497946746
4253000000.0 0.9749974972543014 0.1959853975382826
4256000000.0 1.0150339458955877 0.22247730467915777
4259000000.0 0.9587267500303277 0.1842382862809324
4262000000.0 1.018408539796328 0.16623893718956093
4266000000.0 1.021205689189065 0.16470713043018703
4269000000.0 1.0132428366446158 0.19956581901598067
4272000000.0 0.9973816767801967 0.16575232699114362
4275000000.0 1.0070148653290023 0.17731157260967156
4278000000.0 1.0336076621289223 0.1682160233855572
4281000000.0 0.9948319860276439 0.1501594581248698
4284000000.0 1.027873743917843 0.12132617289070705
4288000000.0 1.0003762388398567 0.14673139369617916
4291000000.0 1.000705354961069 0.11176409063996208
4294000000.0 1.024085302193019 0.09906820133924503
4297000000.0 0.9988690452880268 0.13708862155304935
4300000000.0 1.0114636013692468 0.10161806820588606
4303000000.0 1.0204638419223984 0.05606759506761429
4306000000.0 1.0185525457925992 0.08139880805417457
4309000000.0 1.0180337538961002 0.08199777871457499
4312000000.0 1.027394958564277 0.12343315709804245
4316000000.0 1.021445229030299 0.04517439691961249
4319000000.0 1.0055642259692579 0.04771823503787383
4322000000.0 1.0029880066610628 0.004266587882350972
4325000000.0 1.0151820411071706 0.028867062753150804
4328000000.0 1.0065164349697053 0.023738925421994198
4331000000.0 1.0370382744173112 -0.03462027314428229
4334000000.0 1.0430618444336488 -0.003644954736051878
4338000000.0 1.0101063204352312 0.017032913048350903
4341000000.0 1.0355456100517322 0.03757463822061402
4344000000.0 1.0354404357037321 -0.01182758594928518
4347000000.0 1.032546821152104 -0.0575425479457078
4350000000.0 0.9689750251551007 -0.050263016011084655
4353000000.0 1.0031050402265518 -0.04044852600777253
4356000000.0 0.9863706569905644 -0.08785326473543432
4359000000.0 0.957764949767249 -0.06420023485778567
4362000000.0 1.0009695988425893 -0.12878163727096992
4366000000.0 1.0176914246682285 -0.08467728993260713
4369000000.0 0.9855126890889215 -0.11416394412321049
4372000000.0 0.9893149635726157 -0.14989234931797535
4375000000.0 1.0043194648382419 -0.10606809653003313
4378000000.0 0.9890800327808424 -0.12234726284553034
4381000000.0 0.9710467371800422 -0.11044460625762625
4384000000.0 1.052877262656701 -0.16121539887982594
4388000000.0 0.9732212293995179 -0.1561270612647994
4391000000.0 0.9902219472627269 -0.15075544623120635
4394000000.0 0.9732838792376679 -0.16475838798337103
4397000000.0 0.9805988167031181 -0.1962238491523124
4400000000.0 1.018909966226355 -0.1968291942594353
4403000000.0 1.0037706769679673 -0.19375929689049684
4406000000.0 0.9898225026838162 -0.22957614268850604
4409000000.0 1.0249149171553533 -0.22094249111535452
4412000000.0 0.9703772746437489 -0.27289533606326516
4416000000.0 0.9758218802273624 -0.23493958629051656
4419000000.0 0.9837434998958563 -0.2599477552136642
4422000000.0 0.9894153272989548 -0.23989026846815986
4425000000.0 0.9928942435755453 -0.2299276108621193
4428000000.0 0.9801139257681244 -0.2696142470687769
4431000000.0 0.9954535067018817 -0.2802658601061406
4434000000.0 0.9744474600434363 -0.27574729357853245
4438000000.0 0.9818536394649013 -0.294846582033329
4441000000.0 0.9873793544526668 -0.30422683127198125
4444000000.0 0.9485821908066621 -0.2998907081122651
4447000000.0 0.9438707598329329 -0.32225569203735377
4450000000.0 0.9446683963296824 -0.30549064392052644
4453000000.0 0.9839959883836865 -0.3418563408164622
4456000000.0 0.9167571158381539 -0.336754440716259
4459000000.0 0.9075512956785563 -0.3387467714390764
4462000000.0 1.00435230342002 -0.37963069676183875
4466000000.0 0.9632176401898725 -0.3872068660736371
4469000000.0 0.9464115616318509 -0.37261535591395034
4472000000.0 0.9454256816205395 -0.4131663949407243
4475000000.0 0.9196210163110785 -0.39340987726182586
4478000000.0 0.9748526166182749 -0.4327491428778232
4481000000.0 0.9003754542570529 -0.4167474965004774
4484000000.0 0.9016759969777184 -0.44564263125923176
4488000000.0 0.9035349234044424 -0.4187788647553315
4491000000.0 0.9128059039856224 -0.4461750747012382
4494000000.0 0.8995531452206954 -0.43599801739585825
4497000000.0 0.8975024148667978 -0.4169987869981961
4500000000.0 0.9129889395126287 -0.45069400272213145
4503000000.0 0.9447611406350125 -0.4610131183249831
4506000000.0 0.8788662014671047 -0.4733485781739503
4509000000.0 0.8735482719142744 -0.4831234122935826
4512000000.0 0.897154300961747 -0.4829216775358742
4516000000.0 0.9068809091808215 -0.5102922164956383
4519000000.0 0.8764988969569916 -0.48713180704753417
4522000000.0 0.8565218401355819 -0.505680089794325
4525000000.0 0.87576639154198 -0.48547342417548645
4528000000.0 0.8804870926311097 -0.5163169600888108
4531000000.0 0.8717957847980303 -0.5241677276491916
4534000000.0 0.830673676896766 -0.5384347031451505
4538000000.0 0.8518252830032329 -0.5622386368530388
4541000000.0 0.8169700016274161 -0.5944745629744135
4544000000.0 0.8183072507503824 -0.5460025614448342
4547000000.0 0.836489030389168 -0.5507960873381927
4550000000.0 0.8345608323223781 -0.6068814064237261
4553000000.0 0.8099298428133133 -0.5878877408022535
4556000000.0 0.7800325437429589 -0.5951215810514338
4559000000.0 0.8218994769555151 -0.6126529797378157
4562000000.0 0.8309621298632597 -0.6260454303726134
4566000000.0 0.8069924095062084 -0.6422298895992269
4569000000.0 0.7623365465230595 -0.6117314648256478
4572000000.0 0.7784140738194388 -0.6339835985155672
4575000000.0 0.7731024151018451 -0.6730710197701868
4578000000.0 0.8067943352858324 -0.6505874950548445
4581000000.0 0.7523617164029872 -0.6757693091957936
4584000000.0 0.7629420715224189 -0.6537435630830395
4588000000.0 0.7782914482101345 -0.6582078705761567
4591000000.0 0.7734058189319315 -0.6586602533915799
4594000000.0 0.7445966685735033 -0.704301757572186
4597000000.0 0.7640695457704614 -0.7012554693848597
4600000000.0 0.7111337672832322 -0.7072294733346457
4603000000.0 0.720139731557674 -0.7135500083660755
4606000000.0 0.7277280813248139 -0.7203453773136729
4609000000.0 0.7265613252539871 -0.7086051811852175
4612000000.0 0.7077115136365745 -0.7121472173803988
4616000000.0 0.7027557864859881 -0.7218016770852702
4619000000.0 0.7016757245486435 -0.7290650770044264
4622000000.0 0.6852100588162542 -0.7522937310470291
4625000000.0 0.6549980007282582 -0.7538362095430057
4628000000.0 0.6793370321399939 -0.722188603064735
4631000000.0 0.6537581316054708 -0.7684150506232481
4634000000.0 0.655382535161266 -0.7595263577298518
4638000000.0 0.6736048457117837 -0.7753435272662745
4641000000.0 0.6564598978603079 -0.7702087063637242
4644000000.0 0.628935620794174 -0.7659729697953848
4647000000.0 0.645353943613376 -0.7821473143188736
4650000000.0 0.6036622883724266 -0.7874294723087456
4653000000.0 0.6351862360566827 -0.8054613846805435
4656000000.0 0.6082743475730787 -0.8017744012348227
4659000000.0 0.589952398200374 -0.8174489575244396
4662000000.0 0.6208498716342459 -0.8294572944587479
4666000000.0 0.5775235901804413 -0.8373469813037053
4669000000.0 0.6089245626706616 -0.8295865076465463
4672000000.0 0.5500522663471562 -0.8516687321770422
4675000000.0 0.5720069166421797 -0.8584124728499829
4678000000.0 0.5513587251502401 -0.8322339492908336
4681000000.0 0.5391934792861697 -0.8731834938345538
4684000000.0 0.5285076657597909 -0.8663998356549026
4688000000.0 0.4990507228565509 -0.8572714108279066
4691000000.0 0.5400153508184939 -0.8642985745153386
4694000000.0 0.5511188685271866 -0.8539336562217028
4697000000.0 0.48346769952611024 -0.8631703460887776
4700000000.0 0.5126823516174749 -0.8687625272961665
4703000000.0 0.5093954526329931 -0.8273800268244236
4706000000.0 0.4759134769473153 -0.8575212952572667
4709000000.0 0.48168883021504144 -0.8675364536782572
4712000000.0 0.4912979105467442 -0.8878463735686755
4716000000.0 0.4492672336758923 -0.9165341867586347
4719000000.0 0.5140177267170963 -0.865329243673491
4722000000.0 0.4853460349336437 -0.8867153966063197
4725000000.0 0.4679042346693326 -0.8808444309032707
4728000000.0 0.44059734496362196 -0.913134326020159
4731000000.0 0.4740263366919642 -0.9699441391372945
4734000000.0 0.44906730159219277 -0.898319406508824
4738000000.0 0.4500875527332094 -0.9758330149040686
4741000000.0 0.4333853642724289 -0.962240206323574
4744000000.0 0.4048880379886103 -0.9425898622637672
4747000000.0 0.38963191328129015 -0.902317290239826
4750000000.0 0.3698829465704122 -0.9631843690844057
4753000000.0 0.4133631968360459 -0.948654765617799
4756000000.0 0.39520018301918514 -0.9561898219793243
4759000000.0 0.39640412778076234 -0.9466892846929963
4762000000.0 0.3392615346745348 -0.9740606052706736
4766000000.0 0.35818883974447535 -0.9685067135785904
4769000000.0 0.32063671680346545 -0.9709342195650114
4772000000.0 0.3531061071667911 -0.9769665227473076
4775000000.0 0.3010600294386979 -1.0133632835197859
4778000000.0 0.3126839195218182 -1.0195069386718227
4781000000.0 0.30927422003287514 -0.9536125903003914
4784000000.0 0.3363657681147937 -0.9783336863437654
4788000000.0 0.2950568146116261 -0.9911110205858884
4791000000.0 0.27029974590223094 -0.9498107373691703
4794000000.0 0.30003448697913393 -1.0163710509425299
4797000000.0 0.24426883389455636 -0.9851429257519847
4800000000.0 0.26881276427254813 -0.9769223826359295
4803000000.0 0.19849205403102094 -0.9876775485007743
4806000000.0 0.24771386806729964 -1.0012202508170205
4809000000.0 0.22095311420563135 -0.9998985754318236
4812000000.0 0.20096896365113337 -0.9705663849658592
4816000000.0 0.22799952411508584 -1.0011993561482357
4819000000.0 0.230941359858217 -1.0262009178747393
4822000000.0 0.22966955482561713 -1.0363272209363197
4825000000.0 0.20720715100284234 -0.9911428681745793
4828000000.0 0.1944750526222831 -0.9993360126385143
4831000000.0 0.14184736225919325 -1.0450185111714252
4834000000.0 0.19005343325485546 -1.0116937232307375
4838000000.0 0.12655330845839324 -1.0368749846592433
4841000000.0 0.1265028600656734 -1.014972847540594
4844000000.0 0.16885163949719378 -1.0060250236628285
4847000000.0 0.1575815688827794 -1.0000749446878268
4850000000.0 0.1131082445070345 -1.0345983770368465
4853000000.0 0.1275773501267078 -1.0007479914417237
4856000000.0 0.0994253983801413 -1.0008146187596016
4859000000.0 0.09816324124973905 -1.0755557514851022
4862000000.0 0.11557568615184505 -0.9826738577379598
4866000000.0 0.054964943556667784 -1.035976616865016
4869000000.0 0.039727276030607016 -1.0088108727886869
4872000000.0 0.044089310054018706 -1.0563294062837132
4875000000.0 0.10827508110512915 -1.0929334707254938
4878000000.0 0.03745376890526163 -1.0702800695049675
4881000000.0 -0.001791085996800999 -1.1095635561681594
4884000000.0 0.04348006491497075 -1.0442065375130805
4888000000.0 0.07698533907175904 -1.0217043565835524
4891000000.0 0.05782493368987908 -1.0376688391469746
4894000000.0 -0.006201133062668514 -1.0229862169943105
4897000000.0 0.033829532270640957 -1.02535750130201
4900000000.0 -0.01830439589096875 -1.0264417399663401
4903000000.0 0.00119205042163794 -1.060478841951856
4906000000.0 -0.026552491881443922 -1.0573923104233878
4909000000.0 -0.07014581719777016 -1.0453848228599574
4912000000.0 -0.09185846895542395 -1.0971701427671496
4916000000.0 -0.031240889755891198 -1.0758827336798753
4919000000.0 -0.02303519562314771 -1.0839041319844847
4922000000.0 -0.03683346537582993 -1.0283089387846711
4925000000.0 -0.11080432417528285 -1.043408186176476
4928000000.0 -0.06582034874684668 -1.016565552591958
4931000000.0 -0.06218652998547365 -1.0523496135020878
4934000000.0 -0.0925710264900506 -0.9873356349705432
4938000000.0 -0.14570349991451736 -1.004872939524722
4941000000.0 -0.11274178563106026 -1.0082569753459696
4944000000.0 -0.08339725560964223 -0.9616956021229892
4947000000.0 -0.11324464448999949 -0.9618668096000349
4950000000.0 -0.1614836907701822 -1.0015094833274225
4953000000.0 -0.19867324968333866 -1.0468273495815543
4956000000.0 -0.22947623024265978 -1.0442600166699803
4959000000.0 -0.20454219704252982 -0.9912228289278491
4962000000.0 -0.20684920759555456 -1.0236415289671563
4966000000.0 -0.15433007526208325 -1.0709242821325018
4969000000.0 -0.18323951717787829 -1.0606769723024077
4972000000.0 -0.20142626617248396 -1.0192629698571327
4975000000.0 -0.17908651044683374 -1.0167504215132177
4978000000.0 -0.24427849087841735 -1.0009052119418045
4981000000.0 -0.21709831282146966 -1.0051237109533857
4984000000.0 -0.21623372192466636 -0.955454327788561
4988000000.0 -0.22121904609852605 -0.9918862532895955
4991000000.0 -0.18512858732995313 -1.0255684765622959
4994000000.0 -0.25720377911187386 -0.9932046116177263
4997000000.0 -0.27593539392182387 -0.9798158960998516
5000000000.0 -0.2746405802155928 -1.0258725336019547
5003000000.0 -0.27937901374993274 -1.0098935512406428
5006000000.0 -0.30108694516468637 -1.0507924465725984
5009000000.0 -0.284639034550652 -0.9847586097164341
5012000000.0 -0.30650792790333165 -0.9905445727940494
5016000000.0 -0.2712675078638536 -1.0292055330209524
5019000000.0 -0.31275577868892224 -0.9728990469041723
5022000000.0 -0.3300249874032182 -0.9942144634196335
5025000000.0 -0.34468675886876826 -1.0272584710013428
5028000000.0 -0.3651972744893067 -0.986105587699448
5031000000.0 -0.35545878232855144 -1.0014993074487084
5034000000.0 -0.39597916385557796 -1.0000538768287026
5038000000.0 -0.37836345171452124 -0.9339367965138112
5041000000.0 -0.3592244434741372 -0.984679764607591
5044000000.0 -0.3342064822913473 -0.9567586892071408
5047000000.0 -0.3657421615315662 -0.9765077029522061
5050000000.0 -0.33403583287833427 -0.9494884389162699
5053000000.0 -0.4353955125477884 -0.9918852617282672
5056000000.0 -0.3631517723982848 -0.9894824254053085
5059000000.0 -0.36849673079128603 -0.9566912069757681
5062000000.0 -0.45887883273267294 -0.9384590876518437
5066000000.0 -0.3542195161553684 -0.968194587558427
5069000000.0 -0.45452924124061034 -0.9585170912765112
5072000000.0 -0.43357729170436066 -0.9426725864552916
5075000000.0 -0.4142354587110114 -0.9129753196069565
5078000000.0 -0.5097714123698454 -0.9021882400953525
5081000000.0 -0.4582651370846457 -0.8715494383139278
5084000000.0 -0.5102212754167843 -0.9183709374101157
5088000000.0 -0.4578947981736764 -0.9584069334776062
5091000000.0 -0.5082015623017129 -0.9026816358883571
5094000000.0 -0.5002431595911937 -0.918624867697074
5097000000.0 -0.48937326477771836 -0.9275363960468825
5100000000.0 -0.5013271905061921 -0.8658908083715192
5103000000.0 -0.5138568982625752 -0.9368481862364234
5106000000.0 -0.5495756142459746 -0.9279083362253111
5109000000.0 -0.5244737786853292 -0.8993139922971176
5112000000.0 -0.5606958499471589 -0.8828115767634193
5116000000.0 -0.5208220541685813 -0.8129630785111358
5119000000.0 -0.5954315478564856 -0.8949825954664832
5122000000.0 -0.5745826149853063 -0.8646789296989521
5125000000.0 -0.5257806582117788 -0.8952922752724876
5128000000.0 -0.6036881174601705 -0.8488776355600398
5131000000.0 -0.5507088788908603 -0.8456972708693898
5134000000.0 -0.5808172614389825 -0.8778310587425661
5138000000.0 -0.60741571418203 -0.8705532936043213
5141000000.0 -0.5623437923940218 -0.9150627361671209
5144000000.0 -0.6085363481635149 -0.8591276190157928
5147000000.0 -0.6305891740411316 -0.8631432795704714
5150000000.0 -0.6169966730277555 -0.8398849838914327
5153000000.0 -0.6766030323835055 -0.8684231065462704
5156000000.0 -0.6170056313424563 -0.897397130412348
5159000000.0 -0.6523403192334896 -0.8687398477791893
5162000000.0 -0.6547825958143927 -0.8354567578543853
5166000000.0 -0.6697121252719251 -0.8187584094488474
5169000000.0 -0.7167793988459452 -0.8363649068208648
5172000000.0 -0.6385837226202052 -0.8079585079212129
5175000000.0 -0.6995156415254784 -0.8344086680537794
5178000000.0 -0.7045556915798052 -0.7849767254328052
5181000000.0 -0.7138957325629925 -0.8319789587608297
5184000000.0 -0.6970073414326289 -0.7976442869710773
5188000000.0 -0.6900528063903805 -0.7724747274968329
