! Created with skrf 1.8.0 (http://scikit-rf.org).
# Hz S RI R 50.0 
!freq ReS11 ImS11
4000000000.0 0.6297521176908407 0.7835251696201533
4003000000.0 0.6347451187413713 0.8221004721155541
4006000000.0 0.6532071133665414 0.8253103360678423
4009000000.0 0.6757226794294858 0.8263284303438181
4012000000.0 0.6654572650256293 0.8547867018941006
4016000000.0 0.6921725970631875 0.8001499179482638
4019000000.0 0.6494787091870118 0.7509860733736996
4022000000.0 0.6064173808677515 0.8506777572008225
4025000000.0 0.7372484743951577 0.7524762889092576
4028000000.0 0.6674995451285538 0.7566968342902756
4031000000.0 0.6596516665501706 0.7149482048612315
4034000000.0 0.7028228379939448 0.7417565510904046
4038000000.0 0.727210139045296 0.7467243720908263
4041000000.0 0.7017320780818834 0.7287587757333148
4044000000.0 0.7696249917132271 0.7767586238070804
4047000000.0 0.7586048179199113 0.7544687297488337
4050000000.0 0.7646895494983271 0.7054475271768451
4053000000.0 0.7716703133950799 0.7039011128709882
4056000000.0 0.7515999756780872 0.7161204146619735
4059000000.0 0.7347165731091642 0.6929674382640547
4062000000.0 0.7616520145181053 0.7050960882204762
4066000000.0 0.6984298822521713 0.6452364003595813
4069000000.0 0.8021236906994799 0.6832019116973183
4072000000.0 0.7497186170697281 0.706077725838959
4075000000.0 0.7961797205206299 0.6751797053498256
4078000000.0 0.8363685088768884 0.6815646271853977
4081000000.0 0.765946127881061 0.6832033578061172
4084000000.0 0.8243205807367434 0.6646556489702826
4088000000.0 0.7725580294155778 0.6701712009872896
4091000000.0 0.8469693418693075 0.6827390066551093
4094000000.0 0.813986689283157 0.6423813390309745
4097000000.0 0.8238146334386474 0.6178361498329512
4100000000.0 0.8368431410937542 0.5932224210331829
4103000000.0 0.8481504902541106 0.6200601561142607
4106000000.0 0.8206457725791036 0.6208861848604633
4109000000.0 0.8733497436895339 0.557881723492524
4112000000.0 0.8123318301886162 0.5984988964454678
4116000000.0 0.8421812378989546 0.5791627640255302
4119000000.0 0.9041165690189473 0.5508260774999992
4122000000.0 0.8787270879048023 0.5683522614251375
4125000000.0 0.8848197305109505 0.5514046874655074
4128000000.0 0.8378850187669713 0.566644664779976
4131000000.0 0.8496179366704715 0.5253258466264887
4134000000.0 0.8475219602765911 0.5856868523936436
4138000000.0 0.8682076532759866 0.5023930851850877
4141000000.0 0.8828524761894908 0.5088286986741813
4144000000.0 0.8884788726833625 0.5322958458911091
4147000000.0 0.9006602926163442 0.4520775060655961
4150000000.0 0.9124671625385918 0.5283590677126531
4153000000.0 0.8941557757790276 0.47425168477424473
4156000000.0 0.8823385132670432 0.5046503396892422
4159000000.0 0.877841393257798 0.48301981086594975
4162000000.0 0.8804281674884009 0.4739260069496708
4166000000.0 0.9287549825071941 0.4650851502210924
4169000000.0 0.9100590450734051 0.431610634946781
4172000000.0 0.925371508898491 0.47548537510086547
4175000000.0 0.9256421451653384 0.4699372563282311
4178000000.0 0.927955394513114 0.4471573765508212
4181000000.0 0.9357904247064706 0.4386857987175672
4184000000.0 0.9201905300842088 0.4224053187047246
4188000000.0 0.9414220425435396 0.39312234513443656
4191000000.0 0.9114703768833275 0.4460905410884108
4194000000.0 0.9183272319867427 0.3890642387398685
4197000000.0 0.9425977508750815 0.3954281903822571
4200000000.0 0.9337868591950826 0.4190061624599837
4203000000.0 0.9622732411114379 0.4023783818099711
4206000000.0 0.961706941843698 0.37906824927592925
4209000000.0 0.9487936041009671 0.3520829484121774
4212000000.0 0.9691919451679102 0.3306168980971478
4216000000.0 0.9611693009021173 0.35386974460716897
4219000000.0 0.9666319287838877 0.33930821528600374
4222000000.0 0.9732450602930793 0.3213403671445009
4225000000.0 0.959085143140036 0.3186983226122396
4228000000.0 0.9814165111764892 0.3318456055548433
4231000000.0 0.9676680536868707 0.29996537786688987
4234000000.0 0.9882313106014705 0.2825274169494479
4238000000.0 0.9816146762993999 0.282328768250805
4241000000.0 0.9706244734370828 0.2586328791283046
4244000000.0 0.9790918758389768 0.26723454140787795
4247000000.0 0.9890522791515716 0.2704561309084432
4250000000.0 0.9638039265966849 0.24181585414268508
4253000000.0 0.9684828692513285 0.23148663784595336
4256000000.0 1.0164896821434746 0.23566693940539735
4259000000.0 0.9666304667194795 0.21323964481914762
4262000000.0 0.9891242509882763 0.19771538957874776
4266000000.0 1.010196401051484 0.1962869024745939
4269000000.0 0.9872651498134368 0.2101923377298359
4272000000.0 0.974953990248004 0.1992878177679931
4275000000.0 1.0082601527878081 0.1728133687424785
4278000000.0 1.0371347750973152 0.17698637751385288
4281000000.0 1.0068751827992588 0.1940641165854276
4284000000.0 1.0220527629469447 0.13023014149560191
4288000000.0 0.988337114179755 0.19284052657051812
4291000000.0 0.987275780542704 0.14954613994423827
4294000000.0 1.0020871489298053 0.13007590112118395
4297000000.0 1.0006405426893752 0.12200574091169693
4300000000.0 1.0129104727975538 0.11381058263992286
4303000000.0 1.011588730370966 0.08999018763558637
4306000000.0 1.030223208158458 0.1253343980330206
4309000000.0 1.0197635508761331 0.1018875117590899
4312000000.0 1.0046792729368217 0.12532382583199628
4316000000.0 1.0026222774045843 0.08423258052267114
4319000000.0 0.9743450504015807 0.06960921949163819
4322000000.0 0.9818395938223154 0.04511871524639928
4325000000.0 1.035142196459511 0.07849300661206195
4328000000.0 1.0071367899183339 0.037943240743316745
4331000000.0 0.9876659671721115 0.014138532052664965
4334000000.0 0.9936205238517762 0.021759921382442204
4338000000.0 0.9790006121811198 0.04193467337566438
4341000000.0 1.032717105323269 0.03660707246011044
4344000000.0 1.0365704737717583 0.02065918562857033
4347000000.0 1.0309934364460873 -0.0318257688309746
4350000000.0 0.9878637821201955 -0.028472215592476147
4353000000.0 0.9759439380357067 -0.005397554409054955
4356000000.0 1.0053300322280754 -0.05115476510350919
4359000000.0 0.9650200392802761 -0.04556945844703256
4362000000.0 1.001155457059578 -0.09877749745623711
4366000000.0 1.0226263391908161 -0.07437235573635093
4369000000.0 0.9636410155319137 -0.07111642379514446
4372000000.0 0.9854385885163888 -0.1104227330636418
4375000000.0 0.98834113114368 -0.06093336031233981
4378000000.0 0.9777158029816144 -0.09828027335168316
4381000000.0 0.9887705559427402 -0.10925058507096165
4384000000.0 1.0603043980142925 -0.12181140673590872
4388000000.0 0.979247252858059 -0.10875703919064313
4391000000.0 1.0157798786355612 -0.11484192815776313
4394000000.0 0.9680848382289268 -0.15303950342919065
4397000000.0 0.9946416852200337 -0.15722260736987828
4400000000.0 1.0361872867169535 -0.17027230197795817
4403000000.0 1.0060374785863093 -0.17609515490547373
4406000000.0 0.9757501097213542 -0.1953491987474774
4409000000.0 1.0098664474545715 -0.18574719083621205
4412000000.0 0.9726185147594836 -0.2419610742023896
4416000000.0 0.965475737353477 -0.2133111532407036
4419000000.0 0.9756089924683293 -0.21920280106887519
4422000000.0 0.9812967341525887 -0.20389442567112942
4425000000.0 1.0066640143625523 -0.1962293158360444
4428000000.0 0.9756550358818116 -0.2480655975755291
4431000000.0 1.0014105825413873 -0.24893762838139386
4434000000.0 0.9592213407831032 -0.2561663778496857
4438000000.0 0.9879523720079915 -0.2648289552984427
4441000000.0 1.0009220553448712 -0.26288032464886446
4444000000.0 0.946755008820082 -0.2686318900382339
4447000000.0 0.958138543942408 -0.299500822037983
4450000000.0 0.9565436628164365 -0.27158156305470327
4453000000.0 0.9885332970022024 -0.30793066812240194
4456000000.0 0.9279428727315907 -0.312715893562893
4459000000.0 0.9110897675223584 -0.323624022830758
4462000000.0 1.0063387989959973 -0.33694718913385036
4466000000.0 0.9864874222899837 -0.36293792954556237
4469000000.0 0.9495377750696966 -0.3403834210210261
4472000000.0 0.9501566821470059 -0.3749155341508039
4475000000.0 0.9303032347313159 -0.34347245153528955
4478000000.0 0.963495638848932 -0.39619970223839385
4481000000.0 0.8930290441977526 -0.37408951596412177
4484000000.0 0.908740698601973 -0.43281516140986687
4488000000.0 0.9087315028394168 -0.39689101506582836
4491000000.0 0.921687128922434 -0.4149742084425867
4494000000.0 0.9259202414879091 -0.40346939160652967
4497000000.0 0.9240554133116443 -0.39746916455149206
4500000000.0 0.9257397375208454 -0.40435095919532393
4503000000.0 0.9446235989157161 -0.43111335429924663
4506000000.0 0.9116242720999272 -0.4351257164871906
4509000000.0 0.8913008736378505 -0.43006289115691243
4512000000.0 0.8657500071666903 -0.45853333061879953
4516000000.0 0.8992336577996025 -0.47134453422222355
4519000000.0 0.8687850915382572 -0.45864959476274414
4522000000.0 0.8749067358202376 -0.5068931483859224
4525000000.0 0.9129588735102696 -0.4560756404232128
4528000000.0 0.8963589489914174 -0.5053059980058289
4531000000.0 0.8895590527621412 -0.4965719570119256
4534000000.0 0.8430254066470685 -0.5053821777660887
4538000000.0 0.8450192513418946 -0.52056610189084
4541000000.0 0.812751357768632 -0.5510246757191847
4544000000.0 0.8408025069978782 -0.5146075857011657
4547000000.0 0.8444374845918622 -0.5083777705989869
4550000000.0 0.8422298751344495 -0.5505484994988353
4553000000.0 0.8286826530222438 -0.5627736955416818
4556000000.0 0.8079668105593669 -0.5718164574588577
4559000000.0 0.8292231469098705 -0.5815030354899842
4562000000.0 0.8282631043142563 -0.583687400201079
4566000000.0 0.8323876182131296 -0.5934126182938562
4569000000.0 0.787983472018047 -0.5886267174341822
4572000000.0 0.7984313698226255 -0.6022105547510603
4575000000.0 0.7893799060732327 -0.6354263445760281
4578000000.0 0.8124851796617536 -0.6073836494535878
4581000000.0 0.7835280496102051 -0.6299012929316363
4584000000.0 0.7711282053029034 -0.6443976264993869
4588000000.0 0.7882704885826168 -0.6547394356532897
4591000000.0 0.7826112383859044 -0.6314705460441927
4594000000.0 0.7559782988989434 -0.6481438976956921
4597000000.0 0.7727520193301702 -0.6719525092376605
4600000000.0 0.7259887249172052 -0.6705938715760694
4603000000.0 0.7505936880302734 -0.6813212920058753
4606000000.0 0.7538830933449632 -0.6736620702531718
4609000000.0 0.7546547497300149 -0.6836141558558434
4612000000.0 0.7399854428133896 -0.7036818445121122
4616000000.0 0.6931323929828177 -0.6912815196739815
4619000000.0 0.7114718368974756 -0.6980156492174562
4622000000.0 0.7133917142005783 -0.7089769212386698
4625000000.0 0.6793099324607421 -0.701468017884866
4628000000.0 0.7207529558010803 -0.7021211679425136
4631000000.0 0.6859238767220188 -0.7420112285328958
4634000000.0 0.687822423464011 -0.7385013634958328
4638000000.0 0.6717379509154661 -0.73236565061985
4641000000.0 0.6855920829071519 -0.7396492077095933
4644000000.0 0.6603437882017522 -0.7490412306838976
4647000000.0 0.6758818360516193 -0.7470220846059619
4650000000.0 0.6360972409931167 -0.7710199498858538
4653000000.0 0.6735326680747994 -0.7789883187793368
4656000000.0 0.6404535607518445 -0.8012007796990168
4659000000.0 0.6284933585824183 -0.7776478578420208
4662000000.0 0.6335019838374888 -0.7909483399776928
4666000000.0 0.6034476826229324 -0.7916778022509826
4669000000.0 0.6091469150296422 -0.8040191739404321
4672000000.0 0.5745480282890143 -0.8265524415326597
4675000000.0 0.5879411731542878 -0.8196906399539685
4678000000.0 0.5824248980320348 -0.8124572895221843
4681000000.0 0.5851011816576681 -0.841761265347349
4684000000.0 0.5698981468818825 -0.835207366611149
4688000000.0 0.5579861614226778 -0.825015358406845
4691000000.0 0.5603962239334389 -0.8217409013990855
4694000000.0 0.5717630137600953 -0.8089486635241101
4697000000.0 0.5349252073589164 -0.8234926177243767
4700000000.0 0.547436695731746 -0.8435975882996158
4703000000.0 0.548316067065838 -0.8311294453207909
4706000000.0 0.5105914911981346 -0.8642996097726551
4709000000.0 0.5268568333335473 -0.8574813207268421
4712000000.0 0.5146112910530501 -0.8619656100955176
4716000000.0 0.5042695718650683 -0.8900920924448732
4719000000.0 0.5171599956016775 -0.8893468615353554
4722000000.0 0.5239555358327217 -0.8812363481127048
4725000000.0 0.47282843150884124 -0.8797471704562255
4728000000.0 0.45099836264456206 -0.8818523688809692
4731000000.0 0.4717730936512696 -0.91160173002008
4734000000.0 0.4700326552372911 -0.8776372926967659
4738000000.0 0.47998249585210384 -0.9184724905114101
4741000000.0 0.4426243137977 -0.9243224369215656
4744000000.0 0.4114708143533232 -0.9372522933061561
4747000000.0 0.4428365482352553 -0.8544624324285205
4750000000.0 0.4178388977776716 -0.9069081655952425
4753000000.0 0.41821195937797584 -0.912341394705956
4756000000.0 0.3920952306166824 -0.9591571311733247
4759000000.0 0.37562795079492306 -0.9594533694487801
4762000000.0 0.37572204890405414 -0.936095932704044
4766000000.0 0.37771204153445664 -0.9438754254390959
4769000000.0 0.3890304607604195 -0.9740418642646657
4772000000.0 0.3963619692313125 -0.9520536311106628
4775000000.0 0.3321251629287166 -0.9711617723030674
4778000000.0 0.34746627928321505 -0.9395947183957659
4781000000.0 0.33353679947568887 -0.959139081391464
4784000000.0 0.35709586482176964 -0.9248629184806977
4788000000.0 0.3210376601260656 -0.9842258920030176
4791000000.0 0.31706139555460283 -0.9636524200324496
4794000000.0 0.3477821364896283 -0.9976661535109363
4797000000.0 0.2885102450772116 -0.9721884905346717
4800000000.0 0.28063511066502767 -0.9600592665286485
4803000000.0 0.2612926378005882 -0.9819907097674905
4806000000.0 0.2787305256017152 -0.9937320407747348
4809000000.0 0.23480442025811424 -0.9924742374999899
4812000000.0 0.21123726587005007 -0.9627046451019368
4816000000.0 0.2770640489975808 -0.9517667028456986
4819000000.0 0.25497576159516344 -1.0122244285869086
4822000000.0 0.2919320345220426 -1.0115476579433262
4825000000.0 0.27075917304566316 -1.0104167198751925
4828000000.0 0.20090021138264946 -0.9988012159895506
4831000000.0 0.18182296110962257 -1.0174114944229848
4834000000.0 0.2327808875224297 -0.985750706898856
4838000000.0 0.19903766497758765 -1.0074234337448809
4841000000.0 0.1830908102170563 -0.9858222681739567
4844000000.0 0.20394189478354124 -0.9993293751951126
4847000000.0 0.20121072604747525 -0.9748956723090183
4850000000.0 0.15196837018401627 -1.0285982617398106
4853000000.0 0.17235823622604496 -0.978838119822123
4856000000.0 0.1419903422492627 -0.9933566865622997
4859000000.0 0.14447922767051335 -1.0481428622541675
4862000000.0 0.1564896032703666 -0.9897749711697611
4866000000.0 0.0745472739502629 -1.0336697116694016
4869000000.0 0.09987210284646299 -1.0132173656826642
4872000000.0 0.08075126744868481 -1.0439898577909132
4875000000.0 0.14106385852779074 -1.0388807386854155
4878000000.0 0.08408192090781061 -1.0367451754847652
4881000000.0 0.04810399369461777 -1.067681520799708
4884000000.0 0.08844932272426545 -1.0225801831222288
4888000000.0 0.09561270295003244 -1.0182385998651289
4891000000.0 0.08895211570058391 -1.017697474214653
4894000000.0 0.030656924073520244 -1.0451202714236496
4897000000.0 0.0360734777763994 -1.0128124532850984
4900000000.0 0.044494684455464624 -1.038893749794391
4903000000.0 0.05049461196229679 -1.0336175578723779
4906000000.0 0.003422871861147623 -1.0392658406139736
4909000000.0 -0.007341991371095903 -1.033913637405927
4912000000.0 -0.004391353628293668 -1.0702591860221309
4916000000.0 0.009792101301999062 -1.0513810867056237
4919000000.0 -0.004190544753131457 -1.0244961406312951
4922000000.0 0.021829922974095736 -1.0336415646710313
4925000000.0 -0.07415903248769316 -1.0347789708434147
4928000000.0 0.02738368004709882 -1.0360470724186783
4931000000.0 -0.029614352625752405 -1.05547070043196
4934000000.0 -0.05977484320703948 -0.9907279646556912
4938000000.0 -0.0769135877971701 -1.0161844594575442
4941000000.0 -0.0517628412579033 -1.0203835751013934
4944000000.0 -0.061882488601621516 -0.9716236994908716
4947000000.0 -0.07061661313641324 -1.0092625972126275
4950000000.0 -0.12774987820680417 -0.9971424436216564
4953000000.0 -0.15719020156062585 -1.0653155378266799
4956000000.0 -0.11018280434238747 -0.9962114016643622
4959000000.0 -0.1676981243006155 -0.995364800444524
4962000000.0 -0.14084192423250533 -1.0574385425509292
4966000000.0 -0.14067779431234972 -1.0433467383832253
4969000000.0 -0.13281764505027266 -1.0727562324719968
4972000000.0 -0.14656407079340186 -1.0202053130802897
4975000000.0 -0.12440662235764152 -0.9991408504884827
4978000000.0 -0.20089848281351042 -1.016700161755684
4981000000.0 -0.20270313239036106 -0.9966595555870982
4984000000.0 -0.15625294509984675 -0.9841811174360815
4988000000.0 -0.15884351952710202 -1.0148265079366314
4991000000.0 -0.1331051758534018 -1.0303451733076114
4994000000.0 -0.2108151377537406 -1.0223783514739884
4997000000.0 -0.23585657158506795 -0.9959104576115171
5000000000.0 -0.18762435937645217 -1.0174295989455096
5003000000.0 -0.21933861413999456 -1.0371643543288602
5006000000.0 -0.24716576468637694 -1.059204113251959
5009000000.0 -0.27190080843031195 -1.0175634275899559
5012000000.0 -0.2806809421955095 -1.0152651139965476
5016000000.0 -0.1968559151223951 -1.0367627283817908
5019000000.0 -0.28708535695072024 -1.0065035791630244
5022000000.0 -0.262134934188213 -1.0056023915524204
5025000000.0 -0.2923874691840988 -1.0562585148393593
5028000000.0 -0.3217984045113007 -0.9707896140775929
5031000000.0 -0.31989762587398907 -0.9488402440113378
5034000000.0 -0.3728769577078108 -0.9987204970381502
5038000000.0 -0.3234744583153226 -0.9387220890347581
5041000000.0 -0.30652354417553795 -0.9918243252952198
5044000000.0 -0.2931187620535761 -0.9513447103468545
5047000000.0 -0.32030973037331606 -0.9802203797014731
5050000000.0 -0.2621475222151428 -0.9496803990572393
5053000000.0 -0.3741465876068877 -1.0075490449150797
5056000000.0 -0.32655563203933047 -0.9782410343831747
5059000000.0 -0.2892162883781571 -1.0023558802961912
5062000000.0 -0.42819782648454785 -0.9410440821170847
5066000000.0 -0.34833327455488683 -0.9621578611937185
5069000000.0 -0.4048732134087547 -0.9800569195097272
5072000000.0 -0.3700936330778386 -0.9153561661584073
5075000000.0 -0.3943832760592252 -0.943476464489059
5078000000.0 -0.4423101967450553 -0.9318926338255438
5081000000.0 -0.41885508294739054 -0.8959664332258604
5084000000.0 -0.43371843477190597 -0.9809005496529257
5088000000.0 -0.44319080603311445 -0.9357729982062883
5091000000.0 -0.4763570995226854 -0.8972023956505424
5094000000.0 -0.47389438419344637 -0.941296040277955
5097000000.0 -0.4117931512071764 -0.9549265912775247
5100000000.0 -0.41265134232630357 -0.905681402399039
5103000000.0 -0.4797698315976773 -0.9317779047107869
5106000000.0 -0.4574677687774666 -0.976871859369671
5109000000.0 -0.4519087605090824 -0.9127398966698099
5112000000.0 -0.5357167801286649 -0.9089619922413914
5116000000.0 -0.4845013465222743 -0.8726228949719657
5119000000.0 -0.5019607373600056 -0.9162939489646769
5122000000.0 -0.5507673096153973 -0.8998126744179336
5125000000.0 -0.5371405449103084 -0.8660285426907446
5128000000.0 -0.5313583848431838 -0.8927279478763075
5131000000.0 -0.5372942783386181 -0.8551809447189868
5134000000.0 -0.5670487351807989 -0.8535066938251977
5138000000.0 -0.5666722526568033 -0.888084133397046
5141000000.0 -0.4830148741696682 -0.9060195910437367
5144000000.0 -0.5540837670149811 -0.908040501803731
5147000000.0 -0.5769263206679489 -0.8542947902553155
5150000000.0 -0.5180432685503076 -0.8906188327611395
5153000000.0 -0.6115715354064328 -0.9013098335638223
5156000000.0 -0.5829266257422682 -0.9049292525052772
5159000000.0 -0.6082519417554857 -0.8536019771849727
5162000000.0 -0.5965649632892172 -0.851954596143831
5166000000.0 -0.6439254522668949 -0.8144471862706544
5169000000.0 -0.6406775898082286 -0.8617706499943575
5172000000.0 -0.5982853460991365 -0.8072461380920024
5175000000.0 -0.6223780186691495 -0.8455897373395155
5178000000.0 -0.6671695642882622 -0.8405599552879955
5181000000.0 -0.6535595345389864 -0.8942209640455194
5184000000.0 -0.6432009030571879 -0.8341712523758444
5188000000.0 -0.6198026536349984 -0.7975153774026901
