! Created with skrf 1.8.0 (http://scikit-rf.org).
# Hz S RI R 50.0 
!freq ReS11 ImS11
4000000000.0 0.5957573342613021 0.8195794723743663
4003000000.0 0.6672686901314843 0.8587411396702985
4006000000.0 0.6496614757917939 0.7632498154484249
4009000000.0 0.6471937200259212 0.8166446510762342
4012000000.0 0.6509617566588276 0.8335874585541726
4016000000.0 0.7066661252075802 0.7831718186396004
4019000000.0 0.6590572655205456 0.76900223207702
4022000000.0 0.6071114934998459 0.8638811051214449
4025000000.0 0.722885457109172 0.7654293098196618
4028000000.0 0.6499432654434368 0.7154010023519537
4031000000.0 0.652824845074638 0.7319200037253876
4034000000.0 0.6698907833883025 0.7382193871507139
4038000000.0 0.7137910473946286 0.7370581961894633
4041000000.0 0.7349748881150064 0.733527789723898
4044000000.0 0.7707492041988466 0.7623527544936649
4047000000.0 0.7448451681709034 0.7791960379856517
4050000000.0 0.7465318056264066 0.6935341872668028
4053000000.0 0.7428132674818707 0.6829947300767116
4056000000.0 0.7385682198781521 0.7242951693767289
4059000000.0 0.7448540341102263 0.6711401229045832
4062000000.0 0.7709779974202514 0.696885216120168
4066000000.0 0.6843665909143284 0.6345993800250852
4069000000.0 0.828642809823467 0.6937239288083787
4072000000.0 0.7353427593774873 0.6862467025990813
4075000000.0 0.7970928133727795 0.7146211717635005
4078000000.0 0.8120028674367924 0.6649882757785561
4081000000.0 0.7631102257268481 0.7181802780391197
4084000000.0 0.8127953033807118 0.6749259624262669
4088000000.0 0.7812879805748596 0.6666376088699387
4091000000.0 0.8581814987065134 0.6801234246198744
4094000000.0 0.8104819251001628 0.6231637289113194
4097000000.0 0.7905551137898278 0.6224137649011197
4100000000.0 0.8025843259106825 0.6139648280449097
4103000000.0 0.8352255176010381 0.6328214225703419
4106000000.0 0.8387212191244419 0.6007606844748549
4109000000.0 0.8208971692883411 0.6438933446919219
4112000000.0 0.850240114243523 0.5746092976818349
4116000000.0 0.825321706741534 0.6013007378551966
4119000000.0 0.8749524076255975 0.5482071190070706
4122000000.0 0.8493796993048165 0.5860813045509391
4125000000.0 0.8824194080926626 0.5576160673619464
4128000000.0 0.7920299747629055 0.5750534766735105
4131000000.0 0.8380833314821036 0.5529213139967281
4134000000.0 0.8229704102191419 0.5528539498247467
4138000000.0 0.8161622367859882 0.5431972142024775
4141000000.0 0.8576468098689106 0.48108026177263474
4144000000.0 0.8904221517261642 0.523020741973377
4147000000.0 0.852250861012415 0.5005690524935902
4150000000.0 0.8846230880838483 0.5201899204627416
4153000000.0 0.87973589075679 0.5033446589357187
4156000000.0 0.8967799304332833 0.49759088099512694
4159000000.0 0.9000556834687394 0.4917418718183391
4162000000.0 0.900573662573114 0.4861395027365888
4166000000.0 0.9282626551928688 0.47558386235602335
4169000000.0 0.9184188618459067 0.4348631136229204
4172000000.0 0.9136752019617466 0.4549538858115915
4175000000.0 0.9225466288672012 0.4411405255054633
4178000000.0 0.9391604348572362 0.4266027886214272
4181000000.0 0.9332821510700404 0.4435733165693254
4184000000.0 0.9050571313542413 0.41826067966259955
4188000000.0 0.9459419865201348 0.40413085544103566
4191000000.0 0.9072147287587401 0.4349921217232367
4194000000.0 0.9271187907565521 0.3639536553430558
4197000000.0 0.9442569020039111 0.3841359406265677
4200000000.0 0.950095213665338 0.40360776946549504
4203000000.0 0.9320937279789259 0.4080891433374624
4206000000.0 0.949244694905183 0.36404049218324
4209000000.0 0.9453995759220253 0.3509093312869422
4212000000.0 0.9598913578758534 0.34863876297443763
4216000000.0 0.9424204379795904 0.363358809343263
4219000000.0 0.9568698600347318 0.3625404867752604
4222000000.0 0.9697831964440977 0.3263635860637418
4225000000.0 0.9538440061444309 0.31885379259588653
4228000000.0 0.9715477245100781 0.324772043181663
4231000000.0 0.9763445102583189 0.2962444786918634
4234000000.0 0.98457965970525 0.2921949293578694
4238000000.0 0.9911764046818301 0.2885718422159018
4241000000.0 0.9839914071511153 0.272102617986721
4244000000.0 0.9782118530634877 0.2766836148144655
4247000000.0 0.9792091050602578 0.26953662358885483
4250000000.0 0.9784302559735727 0.23159953733986932
4253000000.0 0.9686426505302472 0.23643114544512228
4256000000.0 1.0011851750802698 0.25937973500438655
4259000000.0 0.9689793628977297 0.22358583098224435
4262000000.0 0.9896875354639778 0.19041916754636587
4266000000.0 0.9954240928028737 0.18509975290186775
4269000000.0 0.9971991260741697 0.2417396973518505
4272000000.0 0.9775675559928161 0.21187162867021447
4275000000.0 1.0140388037477752 0.20705620313387085
4278000000.0 1.009337511233011 0.19196946217807226
4281000000.0 1.0131653663898461 0.17837027544251766
4284000000.0 1.009388580087153 0.15451456711738318
4288000000.0 1.0178898907090506 0.1884317154327292
4291000000.0 1.0002951074930055 0.16801244048862257
4294000000.0 0.9868224367482648 0.14471826656512132
4297000000.0 0.9888219107220565 0.1556502678175179
4300000000.0 0.9970502206088039 0.14950005735713243
4303000000.0 0.9955535884891258 0.11411696690198776
4306000000.0 1.012831468935929 0.13697837806959084
4309000000.0 0.9852027341018297 0.12942165681096307
4312000000.0 1.0202501557094221 0.13584092083167365
4316000000.0 1.029625002577629 0.09828955263890506
4319000000.0 0.9962450311374971 0.10375220594437538
4322000000.0 1.0054879944063029 0.031643402880500146
4325000000.0 0.9890132998033948 0.05986036378745073
4328000000.0 1.0155646972800214 0.015129152269159132
4331000000.0 1.012358272462442 0.024313590992714434
4334000000.0 1.0091001681443015 0.031021450333395928
4338000000.0 1.024454533689894 0.0540517236857747
4341000000.0 1.0314489020920672 0.05768656945799966
4344000000.0 1.0087088732024645 0.003873456732276931
4347000000.0 1.0166154945091892 -0.03520596893524433
4350000000.0 0.9661346146641474 -0.03816805292361089
4353000000.0 0.996449356933786 0.002730552023858468
4356000000.0 0.995661791702212 -0.04396179015556961
4359000000.0 0.9773063018087083 -0.03923623394819467
4362000000.0 1.0432034213561046 -0.10323881334208702
4366000000.0 1.0298554661182866 -0.04726105620288523
4369000000.0 0.9721091279367123 -0.05297179257508072
4372000000.0 0.9865774441492081 -0.10957460041957547
4375000000.0 0.9925657374463779 -0.05801207906035846
4378000000.0 0.9760830150996835 -0.08229273603240506
4381000000.0 0.9910732161220066 -0.0757298350797907
4384000000.0 1.0571329891354138 -0.13497269390641153
4388000000.0 1.0006463607825673 -0.10839222924454464
4391000000.0 1.0122619263803943 -0.10538287182893974
4394000000.0 0.9803031506936989 -0.1416044806847669
4397000000.0 0.9873982934825838 -0.14700532693956575
4400000000.0 1.02091896420069 -0.16231686824299213
4403000000.0 1.01733929296444 -0.16133560185611975
4406000000.0 0.9810632146025791 -0.1872267877902373
4409000000.0 1.0105558385580087 -0.19287022131610201
4412000000.0 0.9838032138402554 -0.2352960022903295
4416000000.0 0.9652648985787886 -0.22047688514617045
4419000000.0 0.9736237564404447 -0.22215039270507903
4422000000.0 0.9809025791487533 -0.19058956017175255
4425000000.0 1.0122756935491914 -0.20450354222796918
4428000000.0 0.985621303694652 -0.23893020988731556
4431000000.0 1.0068556173496397 -0.232820272539727
4434000000.0 0.9846500247150023 -0.24522384721670865
4438000000.0 1.0036457305431876 -0.25537424554331467
4441000000.0 0.9933517853253033 -0.25852133410682976
4444000000.0 0.9503950948877504 -0.2654728111489041
4447000000.0 0.9559253413121896 -0.2932799703114967
4450000000.0 0.9620817923446077 -0.26385306912228446
4453000000.0 0.9986713029820388 -0.285241651092355
4456000000.0 0.9294783655008466 -0.30796213681557527
4459000000.0 0.9245431353027895 -0.3189270510019867
4462000000.0 1.0161435658211644 -0.3328885458383862
4466000000.0 0.969911577240968 -0.356497677992532
4469000000.0 0.9644599998058291 -0.33891357654466836
4472000000.0 0.9524144053548949 -0.3579126302544925
4475000000.0 0.9141944332436562 -0.3427550320867646
4478000000.0 0.9665452296585293 -0.40120237494638966
4481000000.0 0.9130980083996814 -0.36518291197506836
4484000000.0 0.9202372557838097 -0.4333563537482268
4488000000.0 0.9031196664499772 -0.40300396039513686
4491000000.0 0.9316549900110296 -0.3996025082353552
4494000000.0 0.9342577973250027 -0.41050009035150914
4497000000.0 0.9040165401060369 -0.39257053439027684
4500000000.0 0.924348740045245 -0.4214700791557901
4503000000.0 0.9290701939695893 -0.41999264226242955
4506000000.0 0.9036357250740581 -0.4366793932048836
4509000000.0 0.8915807672076346 -0.43787568478957484
4512000000.0 0.8865023675386633 -0.4491107887724577
4516000000.0 0.9061730780449714 -0.4713624032006721
4519000000.0 0.8826459633929588 -0.43980843179855134
4522000000.0 0.8709882759221512 -0.4832465536701439
4525000000.0 0.898846333406498 -0.44291723875113
4528000000.0 0.8990141314014166 -0.5130193379648813
4531000000.0 0.8614427747092199 -0.4720701561958268
4534000000.0 0.8324471107713866 -0.4852535767478591
4538000000.0 0.8534253905716207 -0.517640977813239
4541000000.0 0.8261105582547408 -0.5430662621665511
4544000000.0 0.8524535012336307 -0.5269002321136395
4547000000.0 0.8451503863671919 -0.5286975471787816
4550000000.0 0.82077885591438 -0.5667013486908324
4553000000.0 0.8379828569796584 -0.5374599899798828
4556000000.0 0.8107441028640339 -0.5656524298475654
4559000000.0 0.8410199490832796 -0.571199793825236
4562000000.0 0.8429990758337282 -0.5634905313311408
4566000000.0 0.8131495215676909 -0.5910420744738278
4569000000.0 0.7729934282434427 -0.5919327810444457
4572000000.0 0.8066295156748683 -0.598386366807754
4575000000.0 0.7933566595446566 -0.6171056220465936
4578000000.0 0.8229785765991042 -0.6020868083888129
4581000000.0 0.787649225795408 -0.6227379903253782
4584000000.0 0.7727576646961877 -0.6059291226240148
4588000000.0 0.8109915083633694 -0.629554341870869
4591000000.0 0.782602267414257 -0.6184141792460436
4594000000.0 0.7619538883311808 -0.6538987675632454
4597000000.0 0.7725370343593712 -0.6578108860806681
4600000000.0 0.7332803307443625 -0.6847756893520658
4603000000.0 0.7500616786078715 -0.6732338711778524
4606000000.0 0.7551856939560072 -0.6712227134139795
4609000000.0 0.7381740345340122 -0.6733693427135133
4612000000.0 0.73650873431276 -0.6963387265776574
4616000000.0 0.7204862751678436 -0.6885853604833685
4619000000.0 0.7370841467076278 -0.6874809419537771
4622000000.0 0.7173195157071778 -0.7109643335264278
4625000000.0 0.6774768531995032 -0.7073543250559589
4628000000.0 0.7135222854919663 -0.7062380571771235
4631000000.0 0.6910038257211142 -0.7361382446479894
4634000000.0 0.6850657647905156 -0.7343507491530384
4638000000.0 0.6843694814882676 -0.745779085463214
4641000000.0 0.707566377714346 -0.7397147423505642
4644000000.0 0.6569304574150746 -0.7427532273660311
4647000000.0 0.6725585807411794 -0.7559775298830215
4650000000.0 0.64080034284367 -0.7671716945552628
4653000000.0 0.6606488454510452 -0.7851663971409987
4656000000.0 0.6356309397219297 -0.7723388354377501
4659000000.0 0.6374572497362153 -0.7843216153630163
4662000000.0 0.6419648891912676 -0.777396530879651
4666000000.0 0.6170473711527469 -0.7988661674137466
4669000000.0 0.6171628191510219 -0.7731523018444949
4672000000.0 0.6062174242003701 -0.8291631942927966
4675000000.0 0.5896497663383851 -0.8097706793418658
4678000000.0 0.5980366760659744 -0.8004585300803672
4681000000.0 0.5600968592225231 -0.819195867793457
4684000000.0 0.5591712977767357 -0.8292304889564316
4688000000.0 0.5658380034195657 -0.8261546127476048
4691000000.0 0.578693355125461 -0.8420268100515207
4694000000.0 0.5657802551767579 -0.8314829748396257
4697000000.0 0.5498889535541442 -0.8294333784959089
4700000000.0 0.5640044255684303 -0.8520308622398096
4703000000.0 0.5552385845427279 -0.811429153833918
4706000000.0 0.5436326445787483 -0.8622695900808542
4709000000.0 0.4866408528622796 -0.857634140954291
4712000000.0 0.5232276374153412 -0.8684676071336691
4716000000.0 0.5018094233888181 -0.8838488732654171
4719000000.0 0.5277806100745399 -0.8747392927647535
4722000000.0 0.5272501167491013 -0.8827832333322982
4725000000.0 0.49376147595248837 -0.9033199301835467
4728000000.0 0.4594756930531791 -0.8834842541973111
4731000000.0 0.503565099550352 -0.9213225819114177
4734000000.0 0.4750634102527801 -0.899433375430956
4738000000.0 0.49227486546779875 -0.9254168790041662
4741000000.0 0.48087167677230463 -0.9393291801627782
4744000000.0 0.4264437973013452 -0.9272079793262692
4747000000.0 0.45360492848978495 -0.8889996207097117
4750000000.0 0.4428114675109782 -0.923435948884848
4753000000.0 0.445899496014716 -0.9425042102992858
4756000000.0 0.4106255690065178 -0.9376116581436789
4759000000.0 0.4013426290095268 -0.9366766566146086
4762000000.0 0.3568096543582441 -0.9699562656610892
4766000000.0 0.3819817219024677 -0.9632343206914724
4769000000.0 0.37622588073216245 -0.9370089960976287
4772000000.0 0.3780438439430629 -0.9464053210821852
4775000000.0 0.3461758558121947 -0.9830255889787582
4778000000.0 0.3332617661949603 -0.9501607471809858
4781000000.0 0.3796751352967132 -0.9454137384589401
4784000000.0 0.3636479983434979 -0.9271767209419172
4788000000.0 0.335958566885478 -0.97264023927753
4791000000.0 0.3083666130146291 -0.9317490523266271
4794000000.0 0.35274853564531994 -0.9858831994359556
4797000000.0 0.30585025964067963 -0.9671801911321446
4800000000.0 0.29426498226830444 -0.9613847169599967
4803000000.0 0.25420358001501847 -0.9608364162740408
4806000000.0 0.2827194596463814 -0.9874344327329532
4809000000.0 0.2521539766099263 -1.0066525717088288
4812000000.0 0.2333955695846575 -0.9834605823675913
4816000000.0 0.2848169119626249 -0.9645410896925628
4819000000.0 0.2865580084156125 -1.0036583393433112
4822000000.0 0.2729073705482879 -1.0223960507368415
4825000000.0 0.2558444737956897 -0.9951330570353638
4828000000.0 0.2207374260269765 -0.9909178575682881
4831000000.0 0.17958529157343994 -1.0243697895705872
4834000000.0 0.24005721969183583 -1.000398069044034
4838000000.0 0.19142610507673224 -1.020452028343123
4841000000.0 0.17590572944202823 -0.9973185217893222
4844000000.0 0.21304270052016155 -1.0030287531192472
4847000000.0 0.19677821572216259 -0.984311366768726
4850000000.0 0.17181523957355066 -1.0459474937234428
4853000000.0 0.14672104194072946 -0.9844173322495837
4856000000.0 0.14460220075329466 -0.9911868598089729
4859000000.0 0.16533303115257328 -1.03515258194445
4862000000.0 0.1666684360872796 -0.9915557838998602
4866000000.0 0.11657946007681708 -1.0385187292938636
4869000000.0 0.09944789693455951 -1.0158585073913071
4872000000.0 0.0680703782153925 -1.0391825266335375
4875000000.0 0.1389106982275533 -1.0574549741000743
4878000000.0 0.08988647508821276 -1.0269331332990292
4881000000.0 0.04166168888900522 -1.0765929767481819
4884000000.0 0.07930276091172021 -1.0115600317057032
4888000000.0 0.09051915455372764 -1.0057128633084644
4891000000.0 0.08155908074038165 -1.034108528214856
4894000000.0 0.022465912728692083 -0.9983577070292694
4897000000.0 0.06752341081179404 -1.0157734783937242
4900000000.0 0.029183207605388423 -1.044241137269322
4903000000.0 0.03645589532295513 -1.021537864182119
4906000000.0 0.014506499416404793 -1.0360198743401947
4909000000.0 0.01907584702686845 -1.0344073875831579
4912000000.0 -0.012781963663426862 -1.0652721409057961
4916000000.0 -0.009381295316557521 -1.0667735440992119
4919000000.0 0.03542861267303583 -1.039135813524483
4922000000.0 0.023527860417605205 -1.013997601555448
4925000000.0 -0.03444293989260795 -0.9732145579194116
4928000000.0 0.030013173998005342 -1.029039792049962
4931000000.0 -0.0021786114475224327 -1.0477347233462377
4934000000.0 -0.0551210010435995 -0.9889203336543028
4938000000.0 -0.08444375765303018 -1.045215959543662
4941000000.0 -0.057288756639847546 -1.0165932422701536
4944000000.0 -0.021460951571662668 -0.9694872819701179
4947000000.0 -0.09291533157998172 -0.9746662115590641
4950000000.0 -0.09118750795905613 -1.0157648638927979
4953000000.0 -0.1263363955839986 -1.0132446542258156
4956000000.0 -0.11032962984748229 -1.0370432985509557
4959000000.0 -0.12908418735908464 -0.9902718811362813
4962000000.0 -0.14016917493602785 -1.0455705137057383
4966000000.0 -0.12095309492285705 -1.0278745510497365
4969000000.0 -0.10688699716680583 -1.0803854475623147
4972000000.0 -0.15612335377038736 -1.0206705509789689
4975000000.0 -0.12756805115275913 -1.020037219132862
4978000000.0 -0.17029548011830897 -1.0179355460329496
4981000000.0 -0.19078587892216728 -1.000742008671617
4984000000.0 -0.18690492708356835 -0.9964920873404136
4988000000.0 -0.17023004172518208 -1.0031389207555528
4991000000.0 -0.1565661158412469 -1.0472371013530104
4994000000.0 -0.1867841277084636 -1.0146133774515027
4997000000.0 -0.24754135330876842 -1.0196618464753047
5000000000.0 -0.20855856934806416 -1.036662439446603
5003000000.0 -0.21068219894865425 -1.0243207559403407
5006000000.0 -0.2419983018253362 -1.0545547463568585
5009000000.0 -0.21439510854516772 -1.0095989892529371
5012000000.0 -0.2702735519676754 -1.0044996553865686
5016000000.0 -0.21764728456193666 -1.0532259188650657
5019000000.0 -0.27935256349645704 -0.9724793381389449
5022000000.0 -0.2693604312457517 -1.0111156722973254
5025000000.0 -0.3346185333187914 -1.056346095459089
5028000000.0 -0.3079139364122352 -0.9904820944993775
5031000000.0 -0.2904217257087286 -0.9968922573243019
5034000000.0 -0.3522749289507645 -1.0259844060636218
5038000000.0 -0.3139830080219611 -0.9618769666587992
5041000000.0 -0.29080021237304776 -0.9832840631873973
5044000000.0 -0.27655938550593595 -0.9736173943213068
5047000000.0 -0.3506357224505529 -1.0004798241472646
5050000000.0 -0.30071676597644015 -0.9820637260688201
5053000000.0 -0.401327723823653 -1.0210500388882828
5056000000.0 -0.30479572562575585 -1.0183734170218042
5059000000.0 -0.3193708277953918 -0.987287765512591
5062000000.0 -0.40392659470319225 -0.953280421687648
5066000000.0 -0.33313110319673245 -0.9577746731323011
5069000000.0 -0.40710134373197226 -0.9675441220827351
5072000000.0 -0.40414912388322816 -0.9386409153834894
5075000000.0 -0.40781921553553957 -0.9628354700796504
5078000000.0 -0.438973335090273 -0.906425710283554
5081000000.0 -0.3820055475997581 -0.8953934394803612
5084000000.0 -0.46709176105004857 -0.9701952001657574
5088000000.0 -0.4104380574358903 -0.9512504375396813
5091000000.0 -0.45398419911978155 -0.910279920821442
5094000000.0 -0.4712660772129574 -0.9191694243371832
5097000000.0 -0.4445109012486934 -0.960081373747973
5100000000.0 -0.4644812620883915 -0.8981577729135691
5103000000.0 -0.4801188507499732 -0.8858133916382004
5106000000.0 -0.47379743773073885 -0.9707658529386956
5109000000.0 -0.45580393128112295 -0.9647784705066187
5112000000.0 -0.5080639677809119 -0.8798886388026259
5116000000.0 -0.4303072576599028 -0.839831228685022
5119000000.0 -0.526060229364033 -0.9617392698556624
5122000000.0 -0.5024353949945116 -0.8926211416855576
5125000000.0 -0.5225172573639653 -0.875502002443515
5128000000.0 -0.49727401736923915 -0.8599839133124452
5131000000.0 -0.543828361322316 -0.8642713204935121
5134000000.0 -0.5342045345578486 -0.8197567114693121
5138000000.0 -0.5000140592049059 -0.8881201887662733
5141000000.0 -0.5171699472903661 -0.8857307832731829
5144000000.0 -0.5616737513013885 -0.9201389320169798
5147000000.0 -0.5884305869629235 -0.9008864888913175
5150000000.0 -0.542957886066163 -0.910501045384429
5153000000.0 -0.6129632199170447 -0.8461282149793363
5156000000.0 -0.5879115759095673 -0.8613680625190567
5159000000.0 -0.5975820034552137 -0.880396468143131
5162000000.0 -0.6110453855966762 -0.7964821761807265
5166000000.0 -0.6288293692764583 -0.8454837433991301
5169000000.0 -0.6378075780835654 -0.8350143832860422
5172000000.0 -0.598482376523259 -0.8338676892020315
5175000000.0 -0.6369375457122108 -0.877620149365866
5178000000.0 -0.6119833601741644 -0.817871514459214
5181000000.0 -0.6165425684212916 -0.8180840606759228
5184000000.0 -0.6679686576535544 -0.8111217264121402
5188000000.0 -0.632429174656308 -0.8148654063118446
5191000000.0 -0.687337698860265 -0.7824508550798661
