! Created with skrf 1.8.0 (http://scikit-rf.org).
# Hz S RI R 50.0 
!freq ReS11 ImS11
4000000000.0 0.587179479277296 0.7842841754853407
4003000000.0 0.6672593507865813 0.815083044840087
4006000000.0 0.6575870951855624 0.7666408248980666
4009000000.0 0.6844877711592995 0.7795984449173881
4012000000.0 0.6394266789815236 0.8441603220545545
4016000000.0 0.7321515575984148 0.7519472957307918
4019000000.0 0.6983782883426897 0.7831472683461435
4022000000.0 0.6544264581356175 0.8785583269618641
4025000000.0 0.7762143471181756 0.7742358308782273
4028000000.0 0.7444387374994286 0.7480402997580922
4031000000.0 0.6968408232106929 0.7528652788231959
4034000000.0 0.7403862132059558 0.7430032219455829
4038000000.0 0.7429410176890627 0.7387610881077428
4041000000.0 0.7290003235876661 0.7326810174150964
4044000000.0 0.7754169248401107 0.7662305383504974
4047000000.0 0.770689087734191 0.8012599997009789
4050000000.0 0.7868230009050513 0.7277387619341876
4053000000.0 0.732792989235739 0.6806073473905276
4056000000.0 0.7728763093533834 0.6934782354418719
4059000000.0 0.7377280912472529 0.6832291039097085
4062000000.0 0.7718143532361335 0.6797387315725594
4066000000.0 0.7096927334175689 0.6319751512820697
4069000000.0 0.7963944647096621 0.6800140319081576
4072000000.0 0.7627547504614938 0.6876908040077998
4075000000.0 0.7644987481325776 0.7073578571903807
4078000000.0 0.8018447982482562 0.6298428668513166
4081000000.0 0.8176448030657406 0.7256479331542359
4084000000.0 0.8252491613181189 0.6110208337614211
4088000000.0 0.8311868634704969 0.6793720801609374
4091000000.0 0.8368399744846484 0.6556786752433679
4094000000.0 0.8086453837088953 0.648792340456237
4097000000.0 0.8386969695187818 0.6348423013625846
4100000000.0 0.8499061457648248 0.6033546793774212
4103000000.0 0.8406488169138664 0.64095922713556
4106000000.0 0.8510177254778372 0.627888669752482
4109000000.0 0.8618323205967762 0.5780553263812269
4112000000.0 0.8833939266160045 0.5651037154679255
4116000000.0 0.8372951934476199 0.5810092126007351
4119000000.0 0.8516989500402707 0.537680984211072
4122000000.0 0.8833776857029705 0.5290944594762548
4125000000.0 0.9090750088717876 0.5391630775995782
4128000000.0 0.8632009876731066 0.5595722108106302
4131000000.0 0.8317432005775091 0.5132569025190998
4134000000.0 0.8676451508353387 0.5119006977432682
4138000000.0 0.8702956564918571 0.48467360367651496
4141000000.0 0.9142623021133249 0.496392862903259
4144000000.0 0.8680918820131627 0.5343504332896039
4147000000.0 0.8948671022904098 0.492342885949228
4150000000.0 0.9081523493103475 0.4821329434461162
4153000000.0 0.9136459588063538 0.4732963383501575
4156000000.0 0.9293381107986471 0.49265275968476674
4159000000.0 0.8959129571086817 0.4971040602266608
4162000000.0 0.8899584869529362 0.45362195203197475
4166000000.0 0.953953893892914 0.4461636282812217
4169000000.0 0.9345272460324513 0.4158537167924671
4172000000.0 0.9119264937823046 0.4591882555643125
4175000000.0 0.9316917142175208 0.4499696935790524
4178000000.0 0.948582441127203 0.4162840909691916
4181000000.0 0.9224133169901623 0.4531220600335081
4184000000.0 0.9294449126126798 0.4189038145779787
4188000000.0 0.9133645434944528 0.38685377826811396
4191000000.0 0.9038027216329294 0.4173118888957987
4194000000.0 0.9384775504669391 0.3601910781375288
4197000000.0 0.9565709768118084 0.3642469908636295
4200000000.0 0.9322554630437445 0.38005321086665966
4203000000.0 0.9721836799307957 0.37046808877860293
4206000000.0 0.9810596845172961 0.3690525389121721
4209000000.0 0.9551129309636479 0.3498140819347488
4212000000.0 0.9644785905869935 0.3194432775472005
4216000000.0 0.9684009931105622 0.33877668427425595
4219000000.0 0.9850902913141143 0.3522102490097696
4222000000.0 0.9831939267058909 0.3264221221136325
4225000000.0 0.9592992190132676 0.30324561768712444
4228000000.0 0.9861217174007357 0.3028251828279187
4231000000.0 0.9916170829396348 0.2762116853250871
4234000000.0 1.003347399252809 0.2790954983527473
4238000000.0 1.0089569283521915 0.24914433083098061
4241000000.0 0.9896945395919197 0.24200309152435762
4244000000.0 0.9797916076777813 0.26970290743528835
4247000000.0 0.9927546915317296 0.2565556448598606
4250000000.0 0.9694468092582622 0.2120322786355266
4253000000.0 0.9640733389892806 0.21042178211970425
4256000000.0 1.0181689167798136 0.24301959570526632
4259000000.0 0.9653060091677477 0.22265073326644405
4262000000.0 1.0077887100822498 0.18311518173150607
4266000000.0 1.0324591820655282 0.1896098055908979
4269000000.0 1.0043914456098573 0.19405391099394462
4272000000.0 0.9917654275940052 0.16778489065096086
4275000000.0 1.0059803988784266 0.17030249188429059
4278000000.0 1.0363757160591922 0.18510225093366084
4281000000.0 1.0097662097919708 0.17090518634853963
4284000000.0 1.0186715501306667 0.12892022126007177
4288000000.0 0.9974879479269361 0.17401777395193124
4291000000.0 0.9997094445183626 0.10934637003428939
4294000000.0 0.9938485745369822 0.13056645705844294
4297000000.0 0.997397682241042 0.1251740296732209
4300000000.0 1.0061208516185431 0.12735972496767922
4303000000.0 0.9983984802912235 0.06278233251458788
4306000000.0 0.994884058832896 0.13251282746624912
4309000000.0 1.0028904912344336 0.09299360821194864
4312000000.0 1.0373983094829422 0.09156331473905516
4316000000.0 1.021572264852661 0.06753733020799495
4319000000.0 1.0052488093409369 0.05009268347840794
4322000000.0 0.9874329501677125 0.012301659830775427
4325000000.0 0.9992417835794107 0.05353187773780409
4328000000.0 1.0192034604374003 0.04050929230356577
4331000000.0 1.026995964734903 -0.00412535919897862
4334000000.0 1.0039901053241513 -0.0024403675227189087
4338000000.0 1.0075811093314107 0.020661012865474962
4341000000.0 1.040995248955237 0.03826341346023299
4344000000.0 1.0324725044605036 -0.016369166589032896
4347000000.0 1.027277633497934 -0.03113331651265369
4350000000.0 0.9959471674819387 -0.026953757879247225
4353000000.0 1.008613613464891 -0.012205618582597527
4356000000.0 0.9990139783222561 -0.047285640963575154
4359000000.0 0.9622996156403032 -0.06571134509501364
4362000000.0 1.0179193643843 -0.11514903540075
4366000000.0 1.0273817737725335 -0.09421996984880728
4369000000.0 0.9886436576202119 -0.09002673125914555
4372000000.0 0.9915402961924635 -0.13903848955646136
4375000000.0 0.9942244969345881 -0.07883837086857577
4378000000.0 0.9837649476881611 -0.10147149140461414
4381000000.0 0.9886082486232677 -0.1016995130510465
4384000000.0 1.0672879511738986 -0.15305129831033576
4388000000.0 0.9863475561435303 -0.1232788295889696
4391000000.0 1.0090836851184184 -0.15071487389455512
4394000000.0 0.9794350676771205 -0.15368633408013666
4397000000.0 0.9924720429770653 -0.16556997772031978
4400000000.0 1.0145605056965672 -0.1827587880788612
4403000000.0 0.9923614249487198 -0.1903860676880703
4406000000.0 0.9879793635984094 -0.2100733668864247
4409000000.0 1.0191526665799187 -0.2099535374712946
4412000000.0 0.9667393755379212 -0.24189407766184015
4416000000.0 0.9711811682284093 -0.2195103590737409
4419000000.0 0.978615522934578 -0.2412236165305054
4422000000.0 0.9897100724733363 -0.2105466022979688
4425000000.0 1.0075173634528714 -0.2268694740053127
4428000000.0 0.9685777111989368 -0.2686922800663934
4431000000.0 0.9911131009798373 -0.26166456400490606
4434000000.0 0.9666188074703017 -0.2741602280443953
4438000000.0 0.9897964674374911 -0.2711572533407228
4441000000.0 0.9902525630726158 -0.2913338475179138
4444000000.0 0.9525690617625959 -0.2809640800861884
4447000000.0 0.9469178531982974 -0.3125851056640019
4450000000.0 0.9619862222163773 -0.28568800871108263
4453000000.0 0.9853608220375277 -0.3138811619521129
4456000000.0 0.9251009326378402 -0.3328457141234621
4459000000.0 0.9082949284311062 -0.3291550130594483
4462000000.0 1.0014211165045543 -0.3756466307421259
4466000000.0 0.9742181798627595 -0.3706067190963731
4469000000.0 0.9486776794280337 -0.3400153260868974
4472000000.0 0.9584076428019848 -0.396425721166842
4475000000.0 0.9143460111026407 -0.37613819132948056
4478000000.0 0.9565039655469127 -0.4298099280094937
4481000000.0 0.901256898362212 -0.3952058650515969
4484000000.0 0.9108140230030153 -0.4351670113981103
4488000000.0 0.9154043282446572 -0.4119561050923864
4491000000.0 0.9143238932912936 -0.43493569042572366
4494000000.0 0.9087518385424297 -0.4243911552434918
4497000000.0 0.9102566459927475 -0.4213189424967446
4500000000.0 0.9229938501297565 -0.4198438111280729
4503000000.0 0.9451574290332241 -0.4684707967648199
4506000000.0 0.8898861661935975 -0.4629600014949847
4509000000.0 0.8754348450117451 -0.46036124741998974
4512000000.0 0.8747880923406736 -0.46590231308641084
4516000000.0 0.9033599731836621 -0.4920722843859586
4519000000.0 0.8734548390278719 -0.46910314903419137
4522000000.0 0.857535345187421 -0.4962427550909534
4525000000.0 0.9015674906029183 -0.4681189137277426
4528000000.0 0.9007102080673728 -0.5213035924098769
4531000000.0 0.8895869973748877 -0.5015642345932655
4534000000.0 0.855767293199908 -0.5099813416775921
4538000000.0 0.8490686672067354 -0.543538583108934
4541000000.0 0.8099358051545894 -0.5630054782977477
4544000000.0 0.8306902847759026 -0.5372536692767708
4547000000.0 0.8164784150196305 -0.5183870235555263
4550000000.0 0.8277389645552244 -0.6014846072966603
4553000000.0 0.8417117753964853 -0.5882403854968155
4556000000.0 0.7947544948687155 -0.5902121877253697
4559000000.0 0.8030357791617933 -0.608579931285955
4562000000.0 0.8426437462415026 -0.6020196754842447
4566000000.0 0.8146294219836514 -0.6094502702237907
4569000000.0 0.7754240550072421 -0.6105706926404022
4572000000.0 0.8187635881326328 -0.6047574444221353
4575000000.0 0.7931258367652101 -0.6471133317274649
4578000000.0 0.8177933587160371 -0.6247383376749489
4581000000.0 0.7770612947726316 -0.6509678410559091
4584000000.0 0.7702374721373729 -0.6547890572524363
4588000000.0 0.7892182685557099 -0.6625865977416602
4591000000.0 0.7680344180032886 -0.6499917888984069
4594000000.0 0.7572462885515441 -0.6856347825795679
4597000000.0 0.7698865714928584 -0.6930502310674941
4600000000.0 0.727582537701317 -0.6852324643391108
4603000000.0 0.7296763022172096 -0.6844085965268637
4606000000.0 0.7401968722764378 -0.6824662061150961
4609000000.0 0.7257779032619069 -0.6936264904483492
4612000000.0 0.7283080166251523 -0.7209607271960902
4616000000.0 0.7116500715820102 -0.7129991807892642
4619000000.0 0.7296631527715146 -0.6920259606575783
4622000000.0 0.6913972018732175 -0.7310663270637975
4625000000.0 0.6612892166342279 -0.7268831850423264
4628000000.0 0.7020888796024338 -0.7278630474847941
4631000000.0 0.677313583849291 -0.7411923420129223
4634000000.0 0.6891458196580813 -0.7516433695055991
4638000000.0 0.6651689190828113 -0.7588905035250227
4641000000.0 0.6871396573086557 -0.7644817112418185
4644000000.0 0.6561541918886424 -0.7946367575179443
4647000000.0 0.6602046994766794 -0.7727414825368752
4650000000.0 0.6216970524723141 -0.7882296706336545
4653000000.0 0.6412643047669347 -0.8009968916760045
4656000000.0 0.6290652580718326 -0.8051633076591749
4659000000.0 0.6002269475602715 -0.8000395562746443
4662000000.0 0.6196608616528936 -0.7895292662022473
4666000000.0 0.6043652733130287 -0.8102453389049257
4669000000.0 0.6320505948444048 -0.7918798323055305
4672000000.0 0.5953212092644861 -0.8534809666798531
4675000000.0 0.55824299395471 -0.8385587612171753
4678000000.0 0.5715884430062887 -0.8236700902953076
4681000000.0 0.5683788704150392 -0.8536725307262422
4684000000.0 0.5524506332471164 -0.8613277664164216
4688000000.0 0.5400469303644407 -0.8629139999598082
4691000000.0 0.5730073231276588 -0.8562756594442475
4694000000.0 0.5235362296815212 -0.852815180949029
4697000000.0 0.5014121153162818 -0.8487034095909856
4700000000.0 0.5475807028446251 -0.872623888734338
4703000000.0 0.529613213559489 -0.8319093803875766
4706000000.0 0.5085703021253856 -0.8629638396970709
4709000000.0 0.4964493775374294 -0.894051011089715
4712000000.0 0.5079298729488008 -0.8829350657236427
4716000000.0 0.4967665952866184 -0.892113785370044
4719000000.0 0.5102089174762625 -0.8828542867050096
4722000000.0 0.5265278735770023 -0.8570790612437562
4725000000.0 0.47837755144710326 -0.8758378239127814
4728000000.0 0.4708692301022176 -0.9156345917054602
4731000000.0 0.472374441613341 -0.9396447351184019
4734000000.0 0.4588521892128161 -0.8818723029344167
4738000000.0 0.4655618134146682 -0.9410625732427186
4741000000.0 0.42290676284733575 -0.9230679815314948
4744000000.0 0.41066708976275224 -0.933109215221329
4747000000.0 0.3791843679162309 -0.9028073435090341
4750000000.0 0.4066834064141407 -0.9344394123853992
4753000000.0 0.41567514272003486 -0.9237050532876779
4756000000.0 0.37447488154046255 -0.9582230000538186
4759000000.0 0.38820237484171327 -0.9746711912079016
4762000000.0 0.37447731459060923 -0.9495630177989748
4766000000.0 0.3628802317361597 -0.9239526911981187
4769000000.0 0.36748660733993854 -0.9711732633606441
4772000000.0 0.35866733951603735 -0.9590404053119989
4775000000.0 0.34167876852089574 -1.006825778725774
4778000000.0 0.3319023926037744 -0.9630004791119032
4781000000.0 0.32041244380922346 -0.9624555664456815
4784000000.0 0.3359575779323118 -0.9535089132275442
4788000000.0 0.29467771285473726 -0.982835929400907
4791000000.0 0.30238854170773405 -0.9868829795607911
4794000000.0 0.3315689162263337 -0.9964711900384398
4797000000.0 0.2482105270207035 -0.9660984507883509
4800000000.0 0.2502234065118672 -0.9816166056613969
4803000000.0 0.22955508713977607 -0.971934885961607
4806000000.0 0.2590341594636464 -0.9877626686154393
4809000000.0 0.21961972382970252 -0.9891041920623403
4812000000.0 0.17047942805735317 -0.9932926898623875
4816000000.0 0.2502344103068349 -0.9785222921469579
4819000000.0 0.2452266695575103 -1.02464296924241
4822000000.0 0.22532156955232172 -1.0242293324219194
4825000000.0 0.2276970322531624 -1.0163978928019164
4828000000.0 0.18716003521908375 -1.0125650864162998
4831000000.0 0.14805163914876096 -1.0254645809295688
4834000000.0 0.193370331234297 -1.0076986612570782
4838000000.0 0.15956273722205985 -1.0173486880453073
4841000000.0 0.1370135311379204 -1.0094116561444149
4844000000.0 0.19270760147845467 -1.0139427123848317
4847000000.0 0.16104395858038417 -0.9725493372300635
4850000000.0 0.14642961608339625 -1.0297697507394374
4853000000.0 0.15399958205951392 -0.9980310135938069
4856000000.0 0.12081765829928426 -1.0035708367983447
4859000000.0 0.129898658604692 -1.060756840009284
4862000000.0 0.14281443895182916 -0.9851905095125358
4866000000.0 0.0810734811488658 -1.0420376090258225
4869000000.0 0.08216332085676031 -1.0262895477465925
4872000000.0 0.06570120498894594 -1.0568758458075371
4875000000.0 0.16300985119158773 -1.0596697815263834
4878000000.0 0.07222078171927118 -1.0189425277982578
4881000000.0 0.013769389176156744 -1.0861635614678793
4884000000.0 0.0639021369338675 -1.0337613516004873
4888000000.0 0.08714643821030527 -1.0036052454324704
4891000000.0 0.055868772761558605 -1.0423557807518686
4894000000.0 0.009093739309802779 -1.0196476871111382
4897000000.0 0.049020682333476916 -1.0126941434620627
4900000000.0 0.02291050914847309 -1.0297667052277415
4903000000.0 0.031338053246614914 -1.0691286908756716
4906000000.0 -0.017623649344157735 -1.0475947425073515
4909000000.0 -0.008801685015815533 -1.0430582539960647
4912000000.0 -0.07718882498179666 -1.058952361684622
4916000000.0 -0.008113106356376493 -1.0585654055431706
4919000000.0 -0.009662697832824557 -1.0657211473027304
4922000000.0 -0.029757579981087023 -1.04356427019916
4925000000.0 -0.07229945428880784 -1.0344381530268696
4928000000.0 -0.028448673220828696 -1.0417889522411303
4931000000.0 -0.011833888246292529 -1.0561653579847243
4934000000.0 -0.0651712365677624 -0.974789919564875
4938000000.0 -0.13263925000099847 -1.0418871196575004
4941000000.0 -0.0961698932789082 -1.0119034323332088
4944000000.0 -0.07012680560620785 -0.9789263008863869
4947000000.0 -0.13504683980846394 -1.0180528172807106
4950000000.0 -0.13078021517652944 -1.013279946109288
4953000000.0 -0.18398717752081256 -1.0626860470984432
4956000000.0 -0.1822145066403938 -1.0320604208363342
4959000000.0 -0.18164299187662672 -1.002407644688455
4962000000.0 -0.15901645890376717 -1.0666540183098479
4966000000.0 -0.15440071335826872 -1.037277876143192
4969000000.0 -0.1492237336888727 -1.0311484362172374
4972000000.0 -0.16646694237677676 -1.0312293713709335
4975000000.0 -0.14772643637589014 -0.9906921997430402
4978000000.0 -0.20291070990023596 -1.0246906744761615
4981000000.0 -0.22920427586765355 -1.0169631404478623
4984000000.0 -0.2011097489406207 -0.9598517245010166
4988000000.0 -0.20347662981543668 -1.0196390763117997
4991000000.0 -0.16982169724467067 -1.0347725335216629
4994000000.0 -0.22204206782447472 -1.0134721403750477
4997000000.0 -0.25373744192887726 -1.0108129037279092
5000000000.0 -0.2474924572344132 -1.0608801898160582
5003000000.0 -0.25693674930040783 -1.0415366618799837
5006000000.0 -0.2852426330756834 -1.0533011322923171
5009000000.0 -0.2503138121368995 -1.0164835856925079
5012000000.0 -0.3198238550500561 -1.0068775015888618
5016000000.0 -0.26110494472893714 -1.0455806812825992
5019000000.0 -0.31207720739863576 -1.0099025492280436
5022000000.0 -0.3085548454407706 -0.99731587484498
5025000000.0 -0.3183936687668308 -1.0491877730695007
5028000000.0 -0.34895654551337707 -1.0015273389905297
5031000000.0 -0.3380395830470485 -0.9523366407823523
5034000000.0 -0.39821125918298206 -1.0056453084973245
5038000000.0 -0.3630343725872083 -0.9410922022815695
5041000000.0 -0.32717794406290934 -0.9614898151740646
5044000000.0 -0.33597367489261787 -0.963625310200212
5047000000.0 -0.3402275837846584 -0.984086111411174
5050000000.0 -0.28831929951776347 -0.9895851784727827
5053000000.0 -0.41994704775686187 -0.9950308230825387
5056000000.0 -0.33134467920688915 -0.9966475015594298
5059000000.0 -0.3643377677323915 -0.9745885693086814
5062000000.0 -0.4593018679479879 -0.9768370270822069
5066000000.0 -0.3732519263507901 -0.9758247475230704
5069000000.0 -0.38377077367075463 -0.9409768278589995
5072000000.0 -0.413000509341208 -0.9248527886803986
5075000000.0 -0.4263258525631072 -0.9816443448295475
5078000000.0 -0.4541437327124426 -0.9456316608057975
5081000000.0 -0.4335220011507959 -0.8670839688223327
5084000000.0 -0.4545982259163097 -0.9581434326316642
5088000000.0 -0.46304980818044894 -0.9155023777821989
5091000000.0 -0.4804336087346122 -0.900426268428296
5094000000.0 -0.4902342086957317 -0.901194946429171
5097000000.0 -0.4184899353296121 -0.9519963651922727
5100000000.0 -0.4763647664202692 -0.926614240468166
5103000000.0 -0.5235040708304604 -0.9339012649930175
5106000000.0 -0.4915088667964858 -0.9446254388570503
5109000000.0 -0.46282684532542007 -0.9221409889133398
5112000000.0 -0.5023673888754892 -0.9228642979031814
5116000000.0 -0.5114088340784123 -0.8371934318003558
5119000000.0 -0.537676425680819 -0.9025243628194428
5122000000.0 -0.5439273606765747 -0.8973220070982517
5125000000.0 -0.554958915196712 -0.8934587188173743
5128000000.0 -0.5818941535072787 -0.8411961724683219
5131000000.0 -0.5440129643758408 -0.8810542364221777
5134000000.0 -0.5417551860539805 -0.9028125234630794
5138000000.0 -0.6190274141212977 -0.8761766937826269
5141000000.0 -0.5696061554204237 -0.8852158449472778
5144000000.0 -0.5747026395237624 -0.8746364400964513
5147000000.0 -0.595002611046572 -0.8503337665951358
5150000000.0 -0.6098085170628009 -0.8761152193197013
5153000000.0 -0.6432778185992387 -0.8468300470761433
5156000000.0 -0.6253986629697823 -0.8843400822968426
5159000000.0 -0.6142322866115612 -0.8686082214386656
5162000000.0 -0.6349832925624164 -0.8333146871310003
5166000000.0 -0.6654989675769912 -0.832012763558184
5169000000.0 -0.6488511202750453 -0.8478884836450826
5172000000.0 -0.6269594729439568 -0.8385433270514849
5175000000.0 -0.6354719049935549 -0.8693505195663294
5178000000.0 -0.6618052702223847 -0.8086354896276454
5181000000.0 -0.6630868163459722 -0.8309898902194112
5184000000.0 -0.664796008423582 -0.7869309030696799
5188000000.0 -0.6539014161725887 -0.8059106227415676
