! Created with skrf 1.8.0 (http://scikit-rf.org).
# Hz S RI R 50.0 
!freq ReS11 ImS11
4000000000.0 0.6390163897866317 0.7747527328611885
4003000000.0 0.7067059327941111 0.8391991871523793
4006000000.0 0.7269782845776548 0.7397037605352925
4009000000.0 0.6729927749717525 0.7798883864550437
4012000000.0 0.6470625362465316 0.82386727675787
4016000000.0 0.6842681053245914 0.7668073437095033
4019000000.0 0.7033659891206794 0.7404758706345053
4022000000.0 0.6709789142479006 0.7779682324689723
4025000000.0 0.7479019912099615 0.7123935469692675
4028000000.0 0.776001221540047 0.7577145260214477
4031000000.0 0.6940760696102031 0.7262547325426391
4034000000.0 0.725017565182323 0.7083672770274028
4038000000.0 0.7627964280555345 0.6661354667571473
4041000000.0 0.7619621276223235 0.7013559080257356
4044000000.0 0.7929474604370588 0.7020131324006945
4047000000.0 0.7834684116803066 0.7585404691727421
4050000000.0 0.7949703213875439 0.6755329319772339
4053000000.0 0.7552431942852286 0.6646542662627319
4056000000.0 0.8078281924107558 0.6612103674328831
4059000000.0 0.7501998786226756 0.6225088266628744
4062000000.0 0.8030491108041472 0.6451625712258278
4066000000.0 0.7610257871973414 0.5658267777509144
4069000000.0 0.8556080373510729 0.6519956865569445
4072000000.0 0.787051113150066 0.6631912492942647
4075000000.0 0.7920470848076536 0.6603493457263618
4078000000.0 0.8476794796877138 0.6512871668504904
4081000000.0 0.7685884025116052 0.6845212751073778
4084000000.0 0.822956810980741 0.6013605285056816
4088000000.0 0.7789852524552866 0.6580400810356857
4091000000.0 0.8791290497554705 0.6330181697009878
4094000000.0 0.8484356479851881 0.6225191076364375
4097000000.0 0.8731555683831043 0.6058178299116772
4100000000.0 0.8566404694958014 0.5753438611689707
4103000000.0 0.857322118990246 0.5805521656680313
4106000000.0 0.841034238511593 0.5308252560896024
4109000000.0 0.8718081371798625 0.5448740781415793
4112000000.0 0.8425268904563892 0.5544557961585108
4116000000.0 0.8677157906911761 0.5587747461469528
4119000000.0 0.8749594765591636 0.5209606706661679
4122000000.0 0.8323308769830752 0.5405905347288826
4125000000.0 0.8999680490200095 0.5362088717586411
4128000000.0 0.8628759455155034 0.512245162164023
4131000000.0 0.8845904179736651 0.4981784679043503
4134000000.0 0.887206173681344 0.500338894881916
4138000000.0 0.8767795737987161 0.4837010975574206
4141000000.0 0.9015463101162456 0.4914660401973079
4144000000.0 0.901727848484874 0.5013224292348795
4147000000.0 0.9419456741774067 0.4693278981327907
4150000000.0 0.8899471702885599 0.47711843109515567
4153000000.0 0.8947353137314474 0.4398900238958906
4156000000.0 0.9404437138886887 0.44684258582872194
4159000000.0 0.9113825593946565 0.44124804857930716
4162000000.0 0.8970372253812788 0.4384593326090298
4166000000.0 0.9339412480627827 0.4120744873195753
4169000000.0 0.9420882167008492 0.38699496274750667
4172000000.0 0.9276705367847679 0.4198393499786098
4175000000.0 0.9374743628904644 0.3893619506251263
4178000000.0 0.9315839745194255 0.4053186895982285
4181000000.0 0.9511831573332805 0.4011159081871528
4184000000.0 0.9335900867108284 0.37028478034216566
4188000000.0 0.9319696437490412 0.35944910898978
4191000000.0 0.9331508884238561 0.38250033867912897
4194000000.0 0.9287109551535674 0.3490796572942205
4197000000.0 0.9573410982895447 0.33942368470335466
4200000000.0 0.9609341895335699 0.3491308278062689
4203000000.0 0.961289512826156 0.34225399485915553
4206000000.0 0.9767219151104839 0.3368894193563699
4209000000.0 0.9637690454392883 0.31658659686701046
4212000000.0 0.9637937197815525 0.2855859474385325
4216000000.0 0.9981094425401875 0.3158112915852839
4219000000.0 0.977646836085163 0.31013138081566194
4222000000.0 0.9721131077703336 0.26241523178608606
4225000000.0 0.9692184330072031 0.29330154156636434
4228000000.0 0.992347307277762 0.27610550216291174
4231000000.0 0.9731785833498319 0.23641208857181334
4234000000.0 1.0015778198089482 0.2411056034367151
4238000000.0 0.9964592945156042 0.23230159996132585
4241000000.0 0.9990739775769291 0.2037097747176302
4244000000.0 0.9947768502510017 0.22401259710461852
4247000000.0 0.9938366020760401 0.22225887516004594
4250000000.0 0.9841926152616385 0.20105133792574698
4253000000.0 0.9804037939273627 0.18620462931807413
4256000000.0 1.0194041279913937 0.1814189261833959
4259000000.0 0.9668206681780895 0.16606245473745526
4262000000.0 0.9949561604760697 0.1464812835089185
4266000000.0 1.0353966751007844 0.1487455898703669
4269000000.0 0.9937535190685978 0.16865580237622843
4272000000.0 0.9919361483727426 0.13627239595304572
4275000000.0 0.9978650375790217 0.15942809458601714
4278000000.0 1.0374333318411306 0.15371393807507305
4281000000.0 1.0273576657974328 0.13726145051634026
4284000000.0 1.032345837461208 0.06406356669222288
4288000000.0 0.9869795800604545 0.12004013989211806
4291000000.0 0.9889877929979709 0.10243995278180414
4294000000.0 0.997972916000816 0.07448114730152995
4297000000.0 0.9907116638154194 0.11956751798736205
4300000000.0 0.9885016367808874 0.07512280869419169
4303000000.0 0.9858991277991341 0.04252919232453985
4306000000.0 1.0016013994973574 0.09132821712096967
4309000000.0 0.9930331391432731 0.012981938505715357
4312000000.0 1.0287373874703811 0.08893048998774919
4316000000.0 1.008731551727147 0.0581145580811062
4319000000.0 0.9976339784555145 0.023067578356971374
4322000000.0 1.018357362913469 -0.012195018357508455
4325000000.0 1.02293382449998 -0.010709971093651169
4328000000.0 0.9967548480858391 -0.03150306084134291
4331000000.0 1.0050964533939244 -0.07370810721537202
4334000000.0 0.9982815523678491 -0.0296417333939865
4338000000.0 1.0039797101115289 -0.0035682405753940244
4341000000.0 1.0278351910226158 -0.011786163846307304
4344000000.0 1.023348281994015 -0.05446915669159075
4347000000.0 1.0067212277749118 -0.08093356194944239
4350000000.0 0.9635016949652063 -0.07301806818637953
4353000000.0 0.9869678681314511 -0.06583960243935931
4356000000.0 1.0138748520029623 -0.10702433630821416
4359000000.0 0.9606154934411366 -0.09828969870193867
4362000000.0 1.012796212106592 -0.15721673017858817
4366000000.0 1.0095111148345122 -0.09753169795777518
4369000000.0 0.9455563764791717 -0.12015842437265865
4372000000.0 0.9767219527435913 -0.16042653258461798
4375000000.0 0.9992841837633586 -0.12464256053047042
4378000000.0 0.9622506629208989 -0.14264077314052276
4381000000.0 0.9796559723836371 -0.14946802732670866
4384000000.0 1.0481345651812415 -0.19041592990575615
4388000000.0 0.9875955072067719 -0.14799025713454184
4391000000.0 0.9959338262332693 -0.19185167321937993
4394000000.0 0.9703280323177026 -0.19598813222671801
4397000000.0 0.9814850099070289 -0.20191914588634255
4400000000.0 1.0054140481849583 -0.21986604329624476
4403000000.0 0.978124462198764 -0.2179034381645428
4406000000.0 0.9845899848743309 -0.2431212221627002
4409000000.0 1.006815108504695 -0.25228757226695925
4412000000.0 0.9577594942704242 -0.29512537707813125
4416000000.0 0.9689882038007271 -0.27092687771712637
4419000000.0 0.9692621556434948 -0.2920689497409783
4422000000.0 0.965107648574101 -0.2576528422579073
4425000000.0 0.9930929834949278 -0.2652323363646933
4428000000.0 0.9618175269355529 -0.28432612794514833
4431000000.0 0.969239120359245 -0.2931192442576387
4434000000.0 0.9391564075158679 -0.31083244475344063
4438000000.0 0.9735716471201756 -0.3240981457083468
4441000000.0 0.9745481734047916 -0.3166241003132585
4444000000.0 0.9330585161256204 -0.324740591236739
4447000000.0 0.9350101042211832 -0.35305781454862295
4450000000.0 0.9273452764524569 -0.33531084297867875
4453000000.0 0.9726692613612733 -0.3610085555836403
4456000000.0 0.8966116358241193 -0.3674962705029444
4459000000.0 0.888581854674183 -0.37603722347104257
4462000000.0 0.9745456345507002 -0.4003265122662123
4466000000.0 0.9741717327865493 -0.40415950429247993
4469000000.0 0.9441736693766628 -0.3790734789297128
4472000000.0 0.9305379311508426 -0.43970724373339404
4475000000.0 0.893060573929165 -0.41711272791027554
4478000000.0 0.9499163750404325 -0.4641698043764485
4481000000.0 0.8740899239796828 -0.43077099300141547
4484000000.0 0.87658918974253 -0.4603265196311701
4488000000.0 0.8774375801716979 -0.46259905591255457
4491000000.0 0.9036733523494719 -0.4570380048088183
4494000000.0 0.8842242869299761 -0.46679463458063003
4497000000.0 0.8817167072646885 -0.4505031705623105
4500000000.0 0.9106436603832961 -0.48582912630587666
4503000000.0 0.8896190390758982 -0.47456528409229204
4506000000.0 0.855035572536256 -0.4968753866537629
4509000000.0 0.8488739516137993 -0.4947474854834837
4512000000.0 0.8352317579575437 -0.49758505670270603
4516000000.0 0.8772996407306568 -0.5195223671795781
4519000000.0 0.8421322230476852 -0.49477148488020195
4522000000.0 0.8402269089594585 -0.5518590665923716
4525000000.0 0.8610627635358261 -0.5155470874423282
4528000000.0 0.8646442235663832 -0.5626311373699538
4531000000.0 0.8310498426708622 -0.5431541564899285
4534000000.0 0.8122685852409934 -0.5435889131132143
4538000000.0 0.8247998512431649 -0.5722422895254178
4541000000.0 0.7970963727625252 -0.5912732040101212
4544000000.0 0.8093828157633329 -0.5716892603456234
4547000000.0 0.8132819388526077 -0.5654433729200361
4550000000.0 0.8031489093837043 -0.6126107188040193
4553000000.0 0.7933972156130218 -0.6427528992020323
4556000000.0 0.7740388947857044 -0.5994571622848748
4559000000.0 0.7814956639419794 -0.6303980833601035
4562000000.0 0.8002706713110002 -0.6435608774815074
4566000000.0 0.7869019490229181 -0.650924935278167
4569000000.0 0.7558191333151297 -0.6319169809040492
4572000000.0 0.7603926046057634 -0.6447660915846378
4575000000.0 0.7540707722981135 -0.6654751542660989
4578000000.0 0.7820605265064808 -0.6780741388531255
4581000000.0 0.7482741826468294 -0.6741080991945154
4584000000.0 0.72834245105633 -0.6517978540809289
4588000000.0 0.7517411748258113 -0.6942384028586538
4591000000.0 0.7334203099860046 -0.6814766082896099
4594000000.0 0.7181939461782141 -0.6984201429328016
4597000000.0 0.7306222067899713 -0.725101333900304
4600000000.0 0.6867748650734673 -0.7160956672861918
4603000000.0 0.6989557577897524 -0.7094871860179375
4606000000.0 0.7197386810172937 -0.7308510056026396
4609000000.0 0.6882135070266571 -0.721650125766681
4612000000.0 0.6944375653208421 -0.7495190408966175
4616000000.0 0.6687182136848735 -0.7471111006893287
4619000000.0 0.6758740306181883 -0.7528661060492967
4622000000.0 0.6577530498861642 -0.7649212615311369
4625000000.0 0.6393414186546544 -0.753401166721255
4628000000.0 0.6628508410990529 -0.7632752054926064
4631000000.0 0.6354682962715807 -0.7759352451221068
4634000000.0 0.6460955353316838 -0.7830543907017621
4638000000.0 0.643528548439482 -0.7741923645400385
4641000000.0 0.632834935090567 -0.7809780272627715
4644000000.0 0.5955408841788454 -0.7847685791544448
4647000000.0 0.6149647643004029 -0.8053750148663154
4650000000.0 0.5942064285380675 -0.7882643096339759
4653000000.0 0.6150866007334888 -0.8045033162964953
4656000000.0 0.5816473494803994 -0.8245150119749733
4659000000.0 0.5815560336048374 -0.8215164964207822
4662000000.0 0.5875882954946485 -0.8219218840504072
4666000000.0 0.5435346117164628 -0.8299565952790513
4669000000.0 0.5572951108928565 -0.8577165568348919
4672000000.0 0.541869433189265 -0.8591738119528048
4675000000.0 0.5255011592381369 -0.8486612856630148
4678000000.0 0.5259691937720554 -0.8421434873035007
4681000000.0 0.5122355807765075 -0.8873656993243187
4684000000.0 0.5098817112152523 -0.895367148558773
4688000000.0 0.5113113256081563 -0.8693194313538009
4691000000.0 0.5295916110011669 -0.8774539330980853
4694000000.0 0.4999457126972364 -0.8520147262694859
4697000000.0 0.47042697439520736 -0.8789601104653608
4700000000.0 0.4796357544832447 -0.8690544157982789
4703000000.0 0.47641546880348296 -0.8691838506023057
4706000000.0 0.46135775035605237 -0.9154304202333741
4709000000.0 0.43285456085460294 -0.9049692637659386
4712000000.0 0.43399816046514594 -0.9059484300301222
4716000000.0 0.44445360793389055 -0.9328608860976149
4719000000.0 0.45298327361454827 -0.9274961189974683
4722000000.0 0.43469658924382815 -0.9096429918445066
4725000000.0 0.41693228375657926 -0.9394843425552277
4728000000.0 0.43494402672931914 -0.9201535304401549
4731000000.0 0.4157569588162918 -0.9415987536754875
4734000000.0 0.4280283541801655 -0.904909503429243
4738000000.0 0.40317090030954195 -0.9488994362711068
4741000000.0 0.4330297884386958 -0.9835648740268248
4744000000.0 0.3551100837839067 -0.9632445843944012
4747000000.0 0.37960917355445056 -0.9073173461986083
4750000000.0 0.35649159550918597 -0.966476578680938
4753000000.0 0.3314854374338433 -0.9420677884409933
4756000000.0 0.3578779429760758 -0.9432655245441286
4759000000.0 0.32596031600380837 -0.9301898860917551
4762000000.0 0.3047231408645428 -0.989443152029505
4766000000.0 0.2980280360611406 -0.9805172123546302
4769000000.0 0.31608810623739414 -0.9658631063853423
4772000000.0 0.30169836958801116 -1.0125535449379524
4775000000.0 0.29060193194562295 -0.9978972677342903
4778000000.0 0.2702507049456138 -0.9730294105492506
4781000000.0 0.29216283445481495 -0.9707889424316312
4784000000.0 0.2942980703532283 -0.954269759993369
4788000000.0 0.2535430746063259 -0.9998980947487384
4791000000.0 0.24203709963095846 -0.9863981412380552
4794000000.0 0.2709400121702301 -1.0130709099483581
4797000000.0 0.22257736229729583 -0.9753495889820837
4800000000.0 0.1899903773427829 -0.9948032407652638
4803000000.0 0.17453409641956938 -0.995923262284075
4806000000.0 0.20442394607217163 -1.009345018818712
4809000000.0 0.17299250596044774 -0.9949384032446528
4812000000.0 0.14148910477279178 -0.9914915640288229
4816000000.0 0.20607225067476903 -0.985886720596366
4819000000.0 0.1905712233557266 -1.0030006969172733
4822000000.0 0.1942443955370459 -1.0399668845070045
4825000000.0 0.19538694408655177 -1.0500648068383198
4828000000.0 0.1452482423921336 -1.0114017360907468
4831000000.0 0.097992249103961 -1.0513302573119438
4834000000.0 0.1581500949199235 -1.0008757850886818
4838000000.0 0.0941057285403884 -1.0356791223996347
4841000000.0 0.09015968740440555 -1.0030553057817584
4844000000.0 0.12074274615449829 -1.0201381133767617
4847000000.0 0.11380384245266363 -0.9920557007063939
4850000000.0 0.08007933432896785 -1.0491834936607147
4853000000.0 0.07343613933774011 -0.9912037284132298
4856000000.0 0.0673971925168536 -0.9960470238681495
4859000000.0 0.03793843964335784 -1.06001811560495
4862000000.0 0.08754103853670925 -1.0069880792158223
4866000000.0 0.02898917650719416 -1.039601694001903
4869000000.0 0.021136125261747917 -1.0209313373489002
4872000000.0 0.014764578609040721 -1.054798236963567
4875000000.0 0.06887688018326263 -1.0690524544279136
4878000000.0 0.007671525409123126 -1.0320532493710044
4881000000.0 -0.03809527983660407 -1.0849979336140494
4884000000.0 -0.009089593595141846 -1.037194789508498
4888000000.0 0.005604836049643361 -1.0195958367084579
4891000000.0 0.0023280239369883535 -1.043604632662179
4894000000.0 -0.052362976086221466 -0.9930180702259296
4897000000.0 -0.02882197918851911 -1.0316261785957186
4900000000.0 -0.0517553427379778 -1.0472521410214053
4903000000.0 -0.05043359430342082 -1.067262918377771
4906000000.0 -0.07580879292617854 -1.060710753836151
4909000000.0 -0.0850023030182967 -1.0309463240078822
4912000000.0 -0.10736285999479035 -1.0531008365798171
4916000000.0 -0.08338099009687663 -1.0464491486243142
4919000000.0 -0.06410322167911128 -1.0672154364329667
4922000000.0 -0.05848106917374912 -1.0238071411422023
4925000000.0 -0.10890039529426729 -1.0060420966468153
4928000000.0 -0.053785145496027184 -1.0189717724526497
4931000000.0 -0.11376647780176156 -1.0312875214939266
4934000000.0 -0.12562965670969578 -0.9599992494783279
4938000000.0 -0.1710835305641386 -0.9924884877339336
4941000000.0 -0.14635540763449917 -0.9974396192101082
4944000000.0 -0.1386764840159667 -0.9389196332867698
4947000000.0 -0.15771978966925945 -0.9715082128822353
4950000000.0 -0.14755624048174515 -0.9853487740881414
4953000000.0 -0.2342751425426683 -1.011935524173902
4956000000.0 -0.24021163178885452 -0.9794437170392074
4959000000.0 -0.25076994133339137 -0.9745293833720697
4962000000.0 -0.23478543708408298 -1.038737121874684
4966000000.0 -0.2127039546042685 -1.065188104858532
4969000000.0 -0.22220829777454687 -1.0435396971554056
4972000000.0 -0.23572148850173083 -0.9826006065352805
4975000000.0 -0.21043030569966856 -0.9678094808115147
4978000000.0 -0.24656241306534726 -0.9869048258856367
4981000000.0 -0.2885125257749195 -1.009245846200749
4984000000.0 -0.2802568105060773 -0.9682104213556321
4988000000.0 -0.2754051875327215 -1.0069918231253787
4991000000.0 -0.2389065563408429 -1.020185525750533
4994000000.0 -0.2838432440908496 -0.9755852831363272
4997000000.0 -0.3550264280922912 -0.9732023092287287
5000000000.0 -0.29317487133691833 -1.0200876932052996
5003000000.0 -0.2942958558144803 -1.0000063049862364
5006000000.0 -0.3575239370754355 -1.0013668991792477
5009000000.0 -0.35024218549284647 -0.9730026755347868
5012000000.0 -0.37155677330397824 -0.9450820652708152
5016000000.0 -0.3359506356818161 -1.0163469400509229
5019000000.0 -0.3511728624570922 -0.9687231741113187
5022000000.0 -0.384912150693707 -0.9570106071221927
5025000000.0 -0.39881436146172916 -1.0296493812473368
5028000000.0 -0.3984268043435354 -0.9400575137661207
5031000000.0 -0.397839520147101 -0.9557880353579712
5034000000.0 -0.418554884055812 -0.9761555232368362
5038000000.0 -0.43609565087264124 -0.9189142716879657
5041000000.0 -0.372290220866878 -0.9720220402587035
5044000000.0 -0.3991790885427712 -0.9299847037408838
5047000000.0 -0.4218084710038686 -0.9506008131060314
5050000000.0 -0.3583521044680932 -0.9687821794466138
5053000000.0 -0.4702935901317734 -0.9935513193657597
5056000000.0 -0.3802305076266327 -0.9512163929904853
5059000000.0 -0.38894214246452946 -0.92690298961831
5062000000.0 -0.5052739617505607 -0.9166951794167266
5066000000.0 -0.4435962025418698 -0.9081246446356797
5069000000.0 -0.4966348006055792 -0.8940458293659092
5072000000.0 -0.4919668199472187 -0.9005610077515556
5075000000.0 -0.47488230502298245 -0.9186635635834641
5078000000.0 -0.5274526268315505 -0.8843747908404211
5081000000.0 -0.509864937411578 -0.8746018649712738
5084000000.0 -0.5336552681825717 -0.9335189485729005
5088000000.0 -0.4785001149884346 -0.8896228491471412
5091000000.0 -0.5701140182410798 -0.8923124786720418
5094000000.0 -0.5080971762274858 -0.878980688324306
5097000000.0 -0.5161534137809227 -0.9187969048594569
5100000000.0 -0.5612149172460612 -0.8971743896881766
5103000000.0 -0.5980345182035434 -0.853332380559711
5106000000.0 -0.5330123554525185 -0.9233614202751141
5109000000.0 -0.4926610303221536 -0.8974292263692236
5112000000.0 -0.5759787127458799 -0.8545618115079976
5116000000.0 -0.5734439818211845 -0.7892459428627352
5119000000.0 -0.636778462596849 -0.8437754980651728
5122000000.0 -0.588779271931436 -0.8739007697775445
5125000000.0 -0.5696069028084423 -0.826689325487747
5128000000.0 -0.5826478271939967 -0.8335545730709388
5131000000.0 -0.5998276761667481 -0.8421557794355831
5134000000.0 -0.6185406961975118 -0.8349676179830737
5138000000.0 -0.6219623141755042 -0.8173994250673722
5141000000.0 -0.6015913630525576 -0.8251553165273966
5144000000.0 -0.6041097404819232 -0.7743723856325183
5147000000.0 -0.6238683948875481 -0.8235789686051157
5150000000.0 -0.6430736126659707 -0.7865296962150837
5153000000.0 -0.6689490552064439 -0.7989286818942151
5156000000.0 -0.6766412138002275 -0.795186719718506
5159000000.0 -0.6717270794674886 -0.7958353661032092
5162000000.0 -0.6877473696787867 -0.7553413140985253
5166000000.0 -0.7073224610634397 -0.7986822843249064
5169000000.0 -0.7093010827262762 -0.7776590057636068
5172000000.0 -0.6676204231385965 -0.7832466272042984
5175000000.0 -0.7127178554354299 -0.8191016315228778
5178000000.0 -0.7094141312699478 -0.7583519388470745
5181000000.0 -0.7385316428185169 -0.756822555160825
5184000000.0 -0.7396177126045819 -0.7200761391105416
5188000000.0 -0.6875413327536752 -0.7297375124877062
