! Created with skrf 1.8.0 (http://scikit-rf.org).
# Hz S RI R 50.0 
!freq ReS11 ImS11
4000000000.0 -0.9465053865237987 0.3132469620337701
4003000000.0 -0.9946985460574439 0.3703630885172826
4006000000.0 -0.9356795649812706 0.4142959712437374
4009000000.0 -0.9290557814431105 0.4338673012208172
4012000000.0 -0.9354319392622679 0.484160341176205
4016000000.0 -0.9167659906390957 0.4889595639654653
4019000000.0 -0.8764631829545448 0.542615650542123
4022000000.0 -0.8774063355705058 0.44119841399361726
4025000000.0 -0.7999034412640138 0.6141426413390945
4028000000.0 -0.860472323447752 0.595412099610896
4031000000.0 -0.8294153399298705 0.5326668283827926
4034000000.0 -0.7982016381494658 0.6242911913977425
4038000000.0 -0.8339211254401355 0.693316671340901
4041000000.0 -0.7860221019570446 0.713681264550071
4044000000.0 -0.8445383328593888 0.7024569817242641
4047000000.0 -0.7817201804058277 0.6470882495463874
4050000000.0 -0.6892782529750606 0.7425106617628288
4053000000.0 -0.6471152285495813 0.7471226387750525
4056000000.0 -0.7394341810778677 0.7150158062969476
4059000000.0 -0.7417044569644435 0.7102127514085632
4062000000.0 -0.6677044094955358 0.8215619970012666
4066000000.0 -0.607060836162681 0.7590209397220121
4069000000.0 -0.7040515763389928 0.8439683699871355
4072000000.0 -0.6936254304632165 0.7769442173688301
4075000000.0 -0.6985490403830883 0.8345664771157666
4078000000.0 -0.6203865937276177 0.8642089144046257
4081000000.0 -0.7273092309068782 0.8121617262267011
4084000000.0 -0.5362882678586444 0.8722913442145357
4088000000.0 -0.6486918379747576 0.8569949497679396
4091000000.0 -0.5387103006987648 1.0024337869732167
4094000000.0 -0.5682056110190249 0.9330517549106304
4097000000.0 -0.49108175379862185 0.9005027851417422
4100000000.0 -0.46060108152060114 0.9411133194258376
4103000000.0 -0.5126114985133811 0.9295786197772133
4106000000.0 -0.46472031414737147 0.9465442855128057
4109000000.0 -0.3789357754008103 0.9589649820571833
4112000000.0 -0.45215581703437085 0.9784348364060163
4116000000.0 -0.48542473481412535 0.9372632099022675
4119000000.0 -0.313720134074088 0.9819092594134113
4122000000.0 -0.3919023550135873 1.0581357382338037
4125000000.0 -0.3385579578099643 1.0019119877156801
4128000000.0 -0.34131891421634697 0.9278941909265312
4131000000.0 -0.3422106648372467 0.9275584102700125
4134000000.0 -0.31217655743990713 0.9934557657636387
4138000000.0 -0.2689750614023879 0.966486379031414
4141000000.0 -0.22111061756653969 1.023247342558789
4144000000.0 -0.23900820934771078 1.0124413616990648
4147000000.0 -0.1771008334931522 0.9491381633701299
4150000000.0 -0.22881556783508536 1.037532637193905
4153000000.0 -0.21340066092896537 1.076117673118941
4156000000.0 -0.19921080482346237 1.0642372730754535
4159000000.0 -0.1319948306690964 1.0120555956123891
4162000000.0 -0.1467287145690897 1.0279368187063445
4166000000.0 -0.07698376211100016 1.0071178912713747
4169000000.0 -0.08172485705952401 1.111938635967924
4172000000.0 -0.1398561159906011 1.0227822654398129
4175000000.0 -0.14031223366019868 1.008383173855467
4178000000.0 -0.08275074128264895 1.086248946084237
4181000000.0 -0.10303372365855218 1.099316427974204
4184000000.0 0.011138896702292012 1.0803807221952435
4188000000.0 -0.04521629074873304 1.0339173804015862
4191000000.0 -0.06368191576732288 1.0086373583731458
4194000000.0 -0.006549255298732598 0.9601662700145875
4197000000.0 0.03022585666186514 1.0399715646548175
4200000000.0 0.08557274250355995 1.0080372342404345
4203000000.0 0.01675824215259747 0.9913085058746058
4206000000.0 0.07579316260548041 0.9990083631390827
4209000000.0 0.03989739642296303 1.0155430508213372
4212000000.0 0.10621563396765571 1.0258393152607304
4216000000.0 0.16890530450402208 0.9737190961700544
4219000000.0 0.13626930129040438 0.9965263299224839
4222000000.0 0.14149927874954416 1.0378532670364031
4225000000.0 0.11013976240608506 1.0244964495480902
4228000000.0 0.17066450472552153 1.049564106069557
4231000000.0 0.14965906766161274 0.9851462432334516
4234000000.0 0.1322478026324283 1.0419694298857491
4238000000.0 0.1769398302978369 1.0377556936414003
4241000000.0 0.21827139211629212 1.0479506806083547
4244000000.0 0.1950907268445489 1.002681674681956
4247000000.0 0.21412216667007414 1.0396233685580676
4250000000.0 0.26244204264477733 1.0619729925123056
4253000000.0 0.22706646180139253 0.9968560039402077
4256000000.0 0.273150238840779 0.948816147846379
4259000000.0 0.30149386462873806 0.9940127340622473
4262000000.0 0.3109617667351503 0.9789364668983728
4266000000.0 0.2930673102860847 0.9993682510206973
4269000000.0 0.3370376799024375 1.0324197576699177
4272000000.0 0.35551690507424427 0.9846498464140012
4275000000.0 0.3625033487658801 0.940899340436097
4278000000.0 0.3515802353334274 0.9506777942744776
4281000000.0 0.3912898425507246 0.9539390441500042
4284000000.0 0.403569876330821 0.9767116728690031
4288000000.0 0.4325919260872537 0.9719133086976737
4291000000.0 0.4281388212726522 0.9571733586628527
4294000000.0 0.4336030757299626 0.9285612555817054
4297000000.0 0.45367708860635136 0.9256619737605208
4300000000.0 0.5037636797574447 0.9328880014424301
4303000000.0 0.46901441732496374 0.9308100964627938
4306000000.0 0.47696076779446944 0.9175166660599968
4309000000.0 0.5018371277603944 0.8889037531145944
4312000000.0 0.52617622620014 0.8774045527576293
4316000000.0 0.5090037204267046 0.8869866295207496
4319000000.0 0.525988361843437 0.9301787092744608
4322000000.0 0.5317554751612933 0.8695409292428329
4325000000.0 0.5431653857414792 0.8725703901156551
4328000000.0 0.585598703707334 0.8955915132123047
4331000000.0 0.5661902661673597 0.828036292695895
4334000000.0 0.5667160110077571 0.8481880640229209
4338000000.0 0.5662643346663785 0.8703033502812499
4341000000.0 0.5814279115568605 0.8378383936146394
4344000000.0 0.5797410408827772 0.8199064793977586
4347000000.0 0.6187161290657717 0.7866122810469185
4350000000.0 0.595558672997519 0.7759420410139706
4353000000.0 0.6004327170887933 0.8082768337604326
4356000000.0 0.6390974871057832 0.8563105738511081
4359000000.0 0.6405255879099895 0.8111286405441784
4362000000.0 0.6928304161427017 0.7459736054800822
4366000000.0 0.6720739157652083 0.7930095456052397
4369000000.0 0.6649242876039237 0.7831257239753863
4372000000.0 0.7152223607755788 0.7521113738456527
4375000000.0 0.7027414172973461 0.7028434358008713
4378000000.0 0.6997567866723556 0.7315684124242956
4381000000.0 0.6959393851751725 0.7781305345985774
4384000000.0 0.7390204747194666 0.725747546523622
4388000000.0 0.6942901410380682 0.6989947802676602
4391000000.0 0.7351791580696978 0.7271985861181358
4394000000.0 0.7173998555776228 0.6854220810400374
4397000000.0 0.7665481548039905 0.670424833845253
4400000000.0 0.7657797285459691 0.6976362298301702
4403000000.0 0.7568602227910737 0.7072977939383381
4406000000.0 0.8217126421564698 0.6327990281979159
4409000000.0 0.7719321184526922 0.6792886995625369
4412000000.0 0.8047240681139705 0.620466211321254
4416000000.0 0.809505381188061 0.5869767732920885
4419000000.0 0.7884316807027661 0.624437408693461
4422000000.0 0.8193493489060506 0.6147222768747083
4425000000.0 0.8158320167410891 0.6472602838237846
4428000000.0 0.8138647243405691 0.5938697048043647
4431000000.0 0.8275044258228474 0.6006405179253164
4434000000.0 0.8566392076020743 0.5827041907290522
4438000000.0 0.8608832396469841 0.5926572891880211
4441000000.0 0.8482074514510853 0.5780625080252162
4444000000.0 0.8336010004560115 0.5518798739507752
4447000000.0 0.8625148402411169 0.5328857634821367
4450000000.0 0.8451798898612145 0.5481802998334948
4453000000.0 0.891254570317118 0.5450686074749348
4456000000.0 0.8578254310665605 0.4927155076681421
4459000000.0 0.8635461988155375 0.451705230114131
4462000000.0 0.9351221846333597 0.5162558352931833
4466000000.0 0.9130468577614534 0.4904291759759468
4469000000.0 0.8991057811136366 0.49358781965298987
4472000000.0 0.9454409938930208 0.4403833195832937
4475000000.0 0.9045273633302379 0.4413606473629006
4478000000.0 0.959129855089688 0.44803075218209343
4481000000.0 0.9162121098518752 0.4270934307579298
4484000000.0 0.9229855176485657 0.3870039875087522
4488000000.0 0.9085603081818069 0.3853555386248275
4491000000.0 0.9510172752271435 0.376328784795915
4494000000.0 0.9324690994171984 0.3834500772328636
4497000000.0 0.9282882271976975 0.3775634575532127
4500000000.0 0.9379968471917959 0.3803469357343847
4503000000.0 0.9601460402402955 0.38406332029881557
4506000000.0 0.9500094835518431 0.33558028942368545
4509000000.0 0.9316304099430135 0.31295612352937197
4512000000.0 0.9521293522748231 0.300870615116697
4516000000.0 0.9720265551495255 0.33237938277843937
4519000000.0 0.9423844777501027 0.3138347600235826
4522000000.0 0.9627725999579368 0.271388060211464
4525000000.0 0.9745234348493728 0.3177865367764667
4528000000.0 0.9872733155874376 0.270369289877664
4531000000.0 0.9746743942074214 0.2885765003724227
4534000000.0 0.9520025471999972 0.27323547500139744
4538000000.0 0.9723916067441225 0.21616288087811442
4541000000.0 0.9840501330291503 0.18083504556493246
4544000000.0 0.9581213794336634 0.2255741616052462
4547000000.0 0.9674565142792791 0.2250650169641233
4550000000.0 0.9768252093367957 0.16269856979860164
4553000000.0 0.997150291426462 0.19462302903101963
4556000000.0 0.9590525820636047 0.1392040203780002
4559000000.0 1.0004636967909195 0.13342257963374088
4562000000.0 1.010911774562451 0.1687832649196692
4566000000.0 1.0080012856328837 0.1447591317717497
4569000000.0 0.9623526370853476 0.11757488313132244
4572000000.0 0.997584220578132 0.12586894701387147
4575000000.0 0.9989776910673749 0.09831860346738024
4578000000.0 1.0201387556445847 0.12664631080333208
4581000000.0 1.0385524865760365 0.07990888907593108
4584000000.0 0.990686519591624 0.06460085537081486
4588000000.0 1.0313290248598759 0.09023814500726134
4591000000.0 0.9991236977469357 0.06617456456852569
4594000000.0 0.9993788946572421 0.0332609558611443
4597000000.0 1.0226688339211836 0.020244508037149108
4600000000.0 0.9655024266013947 -0.017242351656839294
4603000000.0 1.017245125164661 0.010023595901495192
4606000000.0 0.9844559656688012 0.013480912806122595
4609000000.0 1.0062075527497498 -0.039929944187148445
4612000000.0 1.0548406137838378 -0.025376261183148115
4616000000.0 0.9732484504511898 -0.03206762794209711
4619000000.0 1.0227145907062625 -0.0314790185322832
4622000000.0 0.9816746918557229 -0.03337293411287253
4625000000.0 0.9336575374429579 -0.07256834860350778
4628000000.0 0.9480146752137454 -0.06304818896173484
4631000000.0 0.9797327690281814 -0.13008052638681786
4634000000.0 0.9893542497712521 -0.0914048949013151
4638000000.0 0.9652977239138685 -0.10475675151223089
4641000000.0 1.0230777785533756 -0.10183015155055289
4644000000.0 1.0210377975045324 -0.11107034394604146
4647000000.0 0.9968661071098881 -0.12059501629894281
4650000000.0 0.9987118837504237 -0.172912475872381
4653000000.0 1.0284002634106293 -0.16368760820361153
4656000000.0 0.9605254567867505 -0.22312345439195994
4659000000.0 0.9702477522902706 -0.19021454835396723
4662000000.0 0.9731138813476108 -0.18964025764257608
4666000000.0 0.9890010570177491 -0.19602742507603652
4669000000.0 1.0036035855416305 -0.18375701013347812
4672000000.0 0.9571280062773431 -0.2508532744439524
4675000000.0 0.9312470331386042 -0.2626956220246846
4678000000.0 0.9721125586470822 -0.2506984169685376
4681000000.0 0.9657671611306314 -0.2842903483328374
4684000000.0 0.9226278532709099 -0.2637146483158439
4688000000.0 0.9448639258800833 -0.2580412524348158
4691000000.0 0.9269015299252484 -0.2643565217396976
4694000000.0 0.960210577618216 -0.3243421868408153
4697000000.0 0.9668819886581352 -0.3091280355201874
4700000000.0 0.9648144274615342 -0.30745503787234
4703000000.0 0.963393962993877 -0.3401487079143183
4706000000.0 0.9637290744153719 -0.3333789755762991
4709000000.0 0.9270383221227543 -0.36050832618627104
4712000000.0 0.9270806555407356 -0.3616521375899503
4716000000.0 0.9385857672406637 -0.3643753225946626
4719000000.0 0.9334782587806041 -0.3923488883885279
4722000000.0 0.965081144963065 -0.3837877757451093
4725000000.0 0.8951652568579728 -0.37317055466119264
4728000000.0 0.894389507019498 -0.40237084936422873
4731000000.0 0.9102205572974926 -0.41612406215129893
4734000000.0 0.9035048342704172 -0.4062854346540911
4738000000.0 0.8970321659611222 -0.4350404655175953
4741000000.0 0.8894157283893035 -0.4286512600197986
4744000000.0 0.9135486664898153 -0.4727505100041009
4747000000.0 0.890695294810675 -0.47322692111926146
4750000000.0 0.876833604881968 -0.47714770957371233
4753000000.0 0.8965571294619543 -0.5065068357909316
4756000000.0 0.880691603579117 -0.5134571663952945
4759000000.0 0.8583081768201481 -0.5294431221254202
4762000000.0 0.857006005770078 -0.513545214564699
4766000000.0 0.8639253704551639 -0.5309459263732987
4769000000.0 0.8799563741935589 -0.5383189646795727
4772000000.0 0.8498255414465352 -0.5518110223762939
4775000000.0 0.8521764104706806 -0.5807765201179952
4778000000.0 0.8700319412072723 -0.5087771333437243
4781000000.0 0.8645824212507964 -0.5563335333235755
4784000000.0 0.8434055399296086 -0.542307107318508
4788000000.0 0.8579060044159763 -0.5854873472454883
4791000000.0 0.8090322658635873 -0.5775423116205589
4794000000.0 0.8397185063699129 -0.5943071827462554
4797000000.0 0.8039570642735028 -0.6280392087293645
4800000000.0 0.786619609744464 -0.6298941532447214
4803000000.0 0.7809117679542388 -0.6097596333910356
4806000000.0 0.8050194147020051 -0.6491569664918013
4809000000.0 0.7577411579428949 -0.6532778851778698
4812000000.0 0.7414663528387992 -0.6653041779742958
4816000000.0 0.7743780121490152 -0.6564546038125868
4819000000.0 0.7865076041872165 -0.6688401384193705
4822000000.0 0.775902677681063 -0.6786371662727653
4825000000.0 0.7668148706303015 -0.6747284561996082
4828000000.0 0.7363759945662375 -0.667647968812364
4831000000.0 0.7289226827964297 -0.732186480491434
4834000000.0 0.7352970018949089 -0.6954742457286633
4838000000.0 0.7247233801575604 -0.7203222624729214
4841000000.0 0.6987192492392139 -0.7256752840096795
4844000000.0 0.7099140206187846 -0.6969724347082474
4847000000.0 0.7133463518148081 -0.7137565099219996
4850000000.0 0.7000652344095006 -0.7372761598463162
4853000000.0 0.6818278872558808 -0.7172211636717196
4856000000.0 0.6825014936498786 -0.74567764195972
4859000000.0 0.6890346190263762 -0.7852118303937363
4862000000.0 0.6458447864592585 -0.7417645997031448
4866000000.0 0.663337628158597 -0.7752599302296327
4869000000.0 0.6265443517553292 -0.773582853950019
4872000000.0 0.6554621386523044 -0.810562873259664
4875000000.0 0.6730185414815829 -0.7960295838323597
4878000000.0 0.6278200630795093 -0.8217872136270246
4881000000.0 0.6321238809345424 -0.8476857385581429
4884000000.0 0.6334427290758946 -0.8071193620013284
4888000000.0 0.6382934511867103 -0.7962996998470643
4891000000.0 0.6230811602263661 -0.8085892822539136
4894000000.0 0.5661610626986582 -0.8409643959185873
4897000000.0 0.583754718378795 -0.8171975151285156
4900000000.0 0.5559762506743005 -0.8475372166460765
4903000000.0 0.6095650207127613 -0.8553724507284071
4906000000.0 0.5827035539523951 -0.8711412986231282
4909000000.0 0.5567523755475196 -0.8842105542308974
4912000000.0 0.564073760997286 -0.8767479167489438
4916000000.0 0.5774927633408827 -0.8523330319477429
4919000000.0 0.5522236588263074 -0.8735674244464285
4922000000.0 0.5449015304159807 -0.8707105589293284
4925000000.0 0.4924473673410219 -0.8842870204259485
4928000000.0 0.5627154879164781 -0.8482165335991121
4931000000.0 0.5317076619013119 -0.8819001431802784
4934000000.0 0.48122060372099135 -0.8607132130527397
4938000000.0 0.4583249698312402 -0.9172871365691059
4941000000.0 0.4611202910697684 -0.8622408880758001
4944000000.0 0.45760524056417706 -0.8489055494563049
4947000000.0 0.4360006278834925 -0.8753804059933149
4950000000.0 0.4145806946327351 -0.9067237182358434
4953000000.0 0.41010353665587684 -0.9625820315886542
4956000000.0 0.40223955865492544 -0.9591535996764342
4959000000.0 0.37066940314578234 -0.92747056777745
4962000000.0 0.39447132700912724 -0.9717419328345145
4966000000.0 0.4152063465069438 -0.9462100478180523
4969000000.0 0.41779667457182224 -0.9496932625289407
4972000000.0 0.3528739663755741 -0.9835291481120579
4975000000.0 0.40330208414963875 -0.9409592951227665
4978000000.0 0.36541050612940607 -0.9672083431566894
4981000000.0 0.358963206076207 -0.9536907554440939
4984000000.0 0.3475162191111232 -0.9093641663531712
4988000000.0 0.354485777313694 -0.9378395916311522
4991000000.0 0.39177317954913243 -0.9850288742296704
4994000000.0 0.3695972844650955 -0.9449631670716746
4997000000.0 0.2764684269600265 -1.013036132135647
5000000000.0 0.35020441521708734 -0.993160552000449
5003000000.0 0.3526776908606244 -0.9803271543709945
5006000000.0 0.3355137128149716 -1.0335252545655667
5009000000.0 0.2667910588368683 -0.9673088371957304
5012000000.0 0.2640597501334511 -0.9899067412095195
5016000000.0 0.3170591689268685 -1.0066154129224698
5019000000.0 0.23468040600278994 -0.9904052574503406
5022000000.0 0.2634232609750586 -0.9888778770782962
5025000000.0 0.2469413971136703 -1.0749846315693288
5028000000.0 0.22994221736558484 -1.025425083123052
5031000000.0 0.19624622407088688 -0.9946494551450183
5034000000.0 0.19460900196816516 -1.0292682468772067
5038000000.0 0.14742625360304057 -0.9745647386411509
5041000000.0 0.23136913236958384 -0.9779480202397405
5044000000.0 0.22978832904260366 -0.9877481330818411
5047000000.0 0.21804439989418348 -1.003209462995739
5050000000.0 0.24511678198787615 -0.9699198446424893
5053000000.0 0.14897243994944545 -1.0694921850900887
5056000000.0 0.18376422016922397 -1.025213967032183
5059000000.0 0.1921210426930824 -1.0207602541871266
5062000000.0 0.12110329665936682 -1.0333546236832682
5066000000.0 0.17054760487740656 -0.9963256321973482
5069000000.0 0.11476019045600366 -1.0474582861017283
5072000000.0 0.08339439937307296 -1.0012897598692445
5075000000.0 0.09823163928389561 -1.03665135325834
5078000000.0 0.04307184456947094 -1.0439141555494575
5081000000.0 0.052670415728940746 -0.9721092493973092
5084000000.0 0.04216007267486122 -1.092426174851021
5088000000.0 0.04089329430560159 -0.9924984939970878
5091000000.0 0.05142688318175162 -1.0531835521599227
5094000000.0 0.0497067279772707 -1.0834496010794674
5097000000.0 0.10115928226308046 -1.0574395135021093
5100000000.0 0.03184022420079525 -1.0146340662324789
5103000000.0 0.02505067550835843 -1.040769518646619
5106000000.0 0.010227092094379574 -1.1027851523904626
5109000000.0 0.04791611345284301 -1.0399068456222573
5112000000.0 -0.019680917782263243 -0.98583873145592
5116000000.0 -0.02306384404465176 -0.9592258931451925
5119000000.0 0.02471757071758639 -1.0194769040866836
5122000000.0 -0.010202136926191645 -1.0180810299588146
5125000000.0 -0.020193389073908153 -1.0465514349414824
5128000000.0 -0.06920017253683597 -1.0149477047879178
5131000000.0 -0.0599239816540025 -1.0123238149032183
5134000000.0 -0.05466321798193314 -0.9985000567697524
5138000000.0 -0.0646661464588989 -1.0465915332176725
5141000000.0 0.02362635770897767 -1.0106434277046363
5144000000.0 -0.029867354247638388 -1.074958137573785
5147000000.0 -0.10699027527510921 -1.0466018598264148
5150000000.0 -0.05177948451691164 -1.040340877051259
5153000000.0 -0.12403047907711374 -1.0079360389051533
5156000000.0 -0.09598399928203705 -1.0833755951415527
5159000000.0 -0.09201655080685742 -1.0487408703400845
5162000000.0 -0.13681705556933643 -0.9982327652757044
5166000000.0 -0.203343236042884 -1.0763200651026557
5169000000.0 -0.15080053547665045 -1.041506995962888
5172000000.0 -0.17094952221660098 -1.0137971376166666
5175000000.0 -0.13128542370002713 -1.0642428498282845
5178000000.0 -0.1725994869959252 -1.0024293750350635
5181000000.0 -0.15171400052061892 -1.040002738630613
5184000000.0 -0.21959974958841955 -1.0076676538757379
5188000000.0 -0.14552016019713038 -0.9944815350286795
5191000000.0 -0.2248212340214116 -1.0459801542420195
5194000000.0 -0.20519121567032597 -1.0234991704955494
