! Created with skrf 1.8.0 (http://scikit-rf.org).
# Hz S RI R 50.0 
!freq ReS11 ImS11
4000000000.0 0.6921461087669104 0.7890160415900627
4003000000.0 0.7332512510109872 0.772343598851867
4006000000.0 0.7456505388578845 0.678315540410394
4009000000.0 0.727348735802682 0.7433337532124512
4012000000.0 0.7143652291157631 0.7744686213737157
4016000000.0 0.7665850264588082 0.7100079314490502
4019000000.0 0.7204089864375625 0.6958978646463623
4022000000.0 0.6939221398208286 0.7190826265403593
4025000000.0 0.7547578377015872 0.6484394771662408
4028000000.0 0.7993721180629936 0.6782968097400923
4031000000.0 0.7727868599182334 0.6881368033388449
4034000000.0 0.7992998047264527 0.6475885177027315
4038000000.0 0.8061855845271346 0.6474957900581824
4041000000.0 0.7911432606967463 0.6664775991459279
4044000000.0 0.8212162290819234 0.7094196221180705
4047000000.0 0.8417622026224084 0.7211548429047362
4050000000.0 0.8343120255160328 0.6452597977949884
4053000000.0 0.8064782928202828 0.6117167222403808
4056000000.0 0.8187761637140955 0.6438277661922996
4059000000.0 0.7848274533577291 0.6354752800548282
4062000000.0 0.8343163647658794 0.6015440620535482
4066000000.0 0.8132416977080912 0.5622847725831421
4069000000.0 0.9034507348086588 0.5750026918561081
4072000000.0 0.8347257957804272 0.6410421203364307
4075000000.0 0.9005968309417858 0.6105478072129424
4078000000.0 0.8634555395712828 0.5946000118004675
4081000000.0 0.8707371895562331 0.6180260324224526
4084000000.0 0.8901364057376543 0.5468393050944083
4088000000.0 0.837991348694998 0.5775671966838527
4091000000.0 0.9463888466603092 0.6184829508849639
4094000000.0 0.8776384903709986 0.5413527515841168
4097000000.0 0.8565893685698215 0.49790586132179065
4100000000.0 0.8968963660840105 0.5035035325113593
4103000000.0 0.8830382871337576 0.5406948555036817
4106000000.0 0.8859954607777857 0.516860320689812
4109000000.0 0.9229242813186946 0.4946417689816052
4112000000.0 0.9084058425498858 0.46876040142881187
4116000000.0 0.917558770501186 0.4828383348995562
4119000000.0 0.916034559273194 0.4809549563103581
4122000000.0 0.9144528764244784 0.4461102741516527
4125000000.0 0.9494235844025272 0.46128391367735183
4128000000.0 0.8679056311291944 0.4430921593900665
4131000000.0 0.9128311916883679 0.425359858988109
4134000000.0 0.9386081540347797 0.501259933000579
4138000000.0 0.9401567563424298 0.4054201033026273
4141000000.0 0.9249441994485251 0.4304234577792354
4144000000.0 0.9598243398239874 0.4475063900151613
4147000000.0 0.964561327471034 0.4048227682264571
4150000000.0 0.9711575900076208 0.4106159172355733
4153000000.0 0.9329089833168791 0.37878403460506427
4156000000.0 0.957225146580649 0.3826664112604685
4159000000.0 0.9477626810213635 0.3662923199520897
4162000000.0 0.934822986766469 0.37000552395124764
4166000000.0 0.9861903229896374 0.33518978266084365
4169000000.0 0.9708020106096021 0.3446227537580434
4172000000.0 0.9619697768930868 0.37491196754300465
4175000000.0 0.9834280629178652 0.32028969601926244
4178000000.0 0.9933760283030655 0.3108681143103067
4181000000.0 0.9781966861912028 0.30682384496096216
4184000000.0 0.9698131444433459 0.3221912583445659
4188000000.0 0.9516787672934408 0.29050173242053623
4191000000.0 0.9614548849337812 0.3211591531663088
4194000000.0 0.975804664248138 0.2787037139779436
4197000000.0 1.001485551145144 0.26926273357641556
4200000000.0 0.9707162085015681 0.2713987804639736
4203000000.0 1.0023823231398112 0.2877742480951653
4206000000.0 0.9916801168586418 0.2534781346963256
4209000000.0 0.9997032707691136 0.24153914203115784
4212000000.0 0.9882585266262113 0.19933546152381942
4216000000.0 0.9986619096069153 0.24121444807358744
4219000000.0 1.0077435068542555 0.21904751408625386
4222000000.0 1.0100649674853945 0.20769234632011152
4225000000.0 0.9944037367927712 0.20494783300193994
4228000000.0 1.006694541878287 0.19027323125464704
4231000000.0 1.0082056849729302 0.18617277318371311
4234000000.0 1.0094716354075792 0.16592698144084111
4238000000.0 1.0215736952009418 0.1500892436927355
4241000000.0 1.0014699857668787 0.15547039046933925
4244000000.0 0.9843516002348931 0.13931995314451345
4247000000.0 1.0068589440814446 0.14839016408488093
4250000000.0 0.9893591854858823 0.1341832481340942
4253000000.0 0.997107649093153 0.10212137753820272
4256000000.0 1.03399394185472 0.1099725394288455
4259000000.0 0.9796784726943402 0.08879630655020793
4262000000.0 1.0183763130219372 0.07782018509700883
4266000000.0 1.0171637706840657 0.062233750846192815
4269000000.0 1.0098596949531617 0.08184951920436392
4272000000.0 1.0151868263503627 0.08114840400474446
4275000000.0 1.026911772572805 0.04408568120481185
4278000000.0 1.0556573081059095 0.06662407893242606
4281000000.0 1.0403694820177423 0.04762403973624445
4284000000.0 1.025864718205719 0.007066332644071235
4288000000.0 1.017054412484704 0.06178852138588104
4291000000.0 0.9667990148905413 0.01132917020130271
4294000000.0 0.9993765689710035 0.007371620254161715
4297000000.0 1.0053739732614209 0.021266579992025428
4300000000.0 1.0290024660946997 0.0009663751414222127
4303000000.0 1.013861280897182 -0.03397485934789757
4306000000.0 1.0137177281948184 -0.035693078452714036
4309000000.0 1.017066463003814 -0.013567967839529557
4312000000.0 1.0288281885821957 -0.007684692788181735
4316000000.0 1.0423150473699325 -0.04492479420278635
4319000000.0 1.0175088314727587 -0.07743041165624767
4322000000.0 0.9729344640300942 -0.10271791155191627
4325000000.0 1.0110135369435878 -0.08150709860428759
4328000000.0 0.9886124888651016 -0.07490857025852704
4331000000.0 1.0133485636655886 -0.13072700239124324
4334000000.0 1.0106834993854106 -0.12205034370427839
4338000000.0 1.0290322514514219 -0.1151729379012769
4341000000.0 1.034616587234479 -0.10964499882620372
4344000000.0 1.0288208056612038 -0.14563138710441428
4347000000.0 0.9886743103429888 -0.19104745306404658
4350000000.0 0.977883020182174 -0.16232202698351472
4353000000.0 0.9915669618198446 -0.15090244624136848
4356000000.0 0.9674357191711278 -0.20250356697262167
4359000000.0 0.9494436580693338 -0.16198485072974256
4362000000.0 0.9889495704343751 -0.25356502960148325
4366000000.0 1.0090123736028762 -0.2086362427641652
4369000000.0 0.959246439646201 -0.22094911524520253
4372000000.0 0.9719827690861544 -0.25851776726893366
4375000000.0 0.9778224515180829 -0.21009597528508878
4378000000.0 0.9570631928707428 -0.22057115771490365
4381000000.0 0.9614126349396932 -0.2343637208159945
4384000000.0 1.0376413420882056 -0.27630038986367944
4388000000.0 0.9590105870063576 -0.25641176134951726
4391000000.0 0.9903263955314887 -0.2709020362208758
4394000000.0 0.9499612008665468 -0.2808225026767486
4397000000.0 0.9560345931877297 -0.2994975332729206
4400000000.0 0.9821470584476604 -0.3169958298820915
4403000000.0 0.9821258859294137 -0.31037166379027137
4406000000.0 0.9461940053532933 -0.3325664132717685
4409000000.0 0.9840099633602375 -0.3400316058310653
4412000000.0 0.9325825394479278 -0.39687863668918655
4416000000.0 0.9279616058561619 -0.35606103559473945
4419000000.0 0.9410767884253761 -0.38521571058033466
4422000000.0 0.9403510155594699 -0.3436948391476608
4425000000.0 0.9668097037777605 -0.36522429688680447
4428000000.0 0.9447835921320843 -0.38753192271981285
4431000000.0 0.9512895665387726 -0.3853008132418691
4434000000.0 0.9164171442123132 -0.40698671133169595
4438000000.0 0.9397533288050965 -0.42954547981554203
4441000000.0 0.9346300184481238 -0.43229611710166926
4444000000.0 0.888508653297394 -0.42411007773707204
4447000000.0 0.9129550639451537 -0.4530019320926538
4450000000.0 0.9037961862973273 -0.42991746083122395
4453000000.0 0.9195088479829111 -0.45841533022049225
4456000000.0 0.8721923680014293 -0.4459256237871201
4459000000.0 0.8670176669261656 -0.45701087987055367
4462000000.0 0.9199681338685177 -0.5200289571055279
4466000000.0 0.9139114336489212 -0.5233083760829724
4469000000.0 0.887038052309456 -0.47950849830607767
4472000000.0 0.8921373869641376 -0.5360511121910672
4475000000.0 0.8630593395020121 -0.493665145699544
4478000000.0 0.8791150694441527 -0.5498813000400189
4481000000.0 0.8316401770052634 -0.5242279440918167
4484000000.0 0.8330241991359799 -0.5829899872962558
4488000000.0 0.8293081646508963 -0.5565450507258959
4491000000.0 0.8729386579314282 -0.5610367947611532
4494000000.0 0.8273284694849536 -0.5455245758693315
4497000000.0 0.8368823210260357 -0.5504743482506754
4500000000.0 0.8339016476088801 -0.59060933825917
4503000000.0 0.8446319243560831 -0.5881397021831429
4506000000.0 0.7744861970401182 -0.5929212289695288
4509000000.0 0.7938197655060153 -0.5671905722320644
4512000000.0 0.7968428151078949 -0.586009941582981
4516000000.0 0.8178479064114158 -0.6191585470181356
4519000000.0 0.7846286404229513 -0.6029019318647912
4522000000.0 0.7864263285095212 -0.6373769295102781
4525000000.0 0.8168566148196525 -0.6110389445606567
4528000000.0 0.7924606438319344 -0.657191522655539
4531000000.0 0.7657001775970389 -0.6360987394278128
4534000000.0 0.7579237473761845 -0.6689393235858144
4538000000.0 0.7608067273533661 -0.6614281511069589
4541000000.0 0.711925430020248 -0.684300583155326
4544000000.0 0.7504350237220567 -0.6671572891640345
4547000000.0 0.7354871868771026 -0.6739024093908421
4550000000.0 0.7356005951502849 -0.7043495551829719
4553000000.0 0.727136791267873 -0.7082609675039844
4556000000.0 0.6975911948303268 -0.6987064654345864
4559000000.0 0.7345092157727713 -0.7197713125966916
4562000000.0 0.7146779660610327 -0.7246688338008085
4566000000.0 0.7114863647240248 -0.739119767420922
4569000000.0 0.6916449261256006 -0.7368013451340298
4572000000.0 0.6849391049187766 -0.7234004312344043
4575000000.0 0.6690787683774897 -0.7560765777487265
4578000000.0 0.6989097230920838 -0.7454051419940558
4581000000.0 0.6487955752863053 -0.766321712575789
4584000000.0 0.6479528078452857 -0.754194286705253
4588000000.0 0.674303753499057 -0.7611081938529757
4591000000.0 0.6508982619841439 -0.7708881241805837
4594000000.0 0.6285907496387808 -0.7926295164497353
4597000000.0 0.6250643810401133 -0.8103446046596811
4600000000.0 0.600018782822597 -0.7941953269754733
4603000000.0 0.610957148777127 -0.8122563902787524
4606000000.0 0.6204478950829126 -0.81496591913712
4609000000.0 0.6017776777407569 -0.8020894251444395
4612000000.0 0.5967652415989166 -0.8132033942744383
4616000000.0 0.5758135490346135 -0.8239228323624972
4619000000.0 0.5703676572527796 -0.8232643400900546
4622000000.0 0.5578997764440607 -0.8410728575666788
4625000000.0 0.5351200703696491 -0.8367542124641602
4628000000.0 0.5743904922931935 -0.8394302168588115
4631000000.0 0.5257837023046337 -0.8562898011472253
4634000000.0 0.5353889219870456 -0.8625226222650253
4638000000.0 0.5198528640507963 -0.8669548317828139
4641000000.0 0.527058054181566 -0.8543860315998223
4644000000.0 0.5228192157119149 -0.8669022160807781
4647000000.0 0.5109086608785774 -0.8796502719648325
4650000000.0 0.47658317509695636 -0.8873591895969449
4653000000.0 0.5047118081709379 -0.8933490021873041
4656000000.0 0.4762856865873622 -0.8897562362440059
4659000000.0 0.4638604953933439 -0.9134127124021597
4662000000.0 0.4539836127880398 -0.9184417376143333
4666000000.0 0.4414241135562984 -0.9086436142808253
4669000000.0 0.4405114367529734 -0.9229158274812559
4672000000.0 0.4396875432226483 -0.9535605357388376
4675000000.0 0.41848162567805547 -0.9358293042073469
4678000000.0 0.3899946358608156 -0.8993030899897233
4681000000.0 0.39541365480967594 -0.9961929418583335
4684000000.0 0.38407662953691285 -0.9570975679637065
4688000000.0 0.3679824191544586 -0.9477538265131604
4691000000.0 0.43646464170280697 -0.9295523981825522
4694000000.0 0.38828466867332534 -0.9040698114402297
4697000000.0 0.3508039049973058 -0.9126359515122395
4700000000.0 0.3748022493090214 -0.9413113898399526
4703000000.0 0.4116891310532719 -0.8920154342844138
4706000000.0 0.32262460908586543 -0.97473427103798
4709000000.0 0.31946605803244693 -0.9587081302185682
4712000000.0 0.33365993968719754 -0.9642634499167793
4716000000.0 0.32171575943258957 -0.9702357369988761
4719000000.0 0.3399737854662316 -0.9511511829078478
4722000000.0 0.3504221776750107 -0.9714429901429638
4725000000.0 0.3088492933211174 -0.9784717562758443
4728000000.0 0.28418877927940916 -0.9845812485916505
4731000000.0 0.2835195807870571 -0.9916553201331877
4734000000.0 0.3128324056932955 -0.967288861541848
4738000000.0 0.2875909455466229 -1.010740074984589
4741000000.0 0.20021278745096627 -1.0051836104933398
4744000000.0 0.23550264051055703 -1.0325268017013967
4747000000.0 0.2726154276793325 -0.9356639861430768
4750000000.0 0.24745493949360486 -0.9962495409542009
4753000000.0 0.22872047458757552 -0.9925274240382196
4756000000.0 0.1898085319143596 -1.008842488174153
4759000000.0 0.17761950557099077 -1.0116940460411663
4762000000.0 0.16430807612753195 -1.0187271943898988
4766000000.0 0.15260758723175794 -1.007219103934887
4769000000.0 0.167083493756434 -1.0343021327092383
4772000000.0 0.16069888228274254 -1.0083032324169812
4775000000.0 0.1426253859423644 -1.0502291267685429
4778000000.0 0.1268889323553324 -1.0295573173822705
4781000000.0 0.16889835653094604 -1.0231898592093451
4784000000.0 0.1347523220226074 -1.0043983791866127
4788000000.0 0.10039700701703605 -1.0242674154258162
4791000000.0 0.1297148446413725 -0.9969028481402867
4794000000.0 0.13218215735382655 -1.066792305351448
4797000000.0 0.0795819288726004 -1.0230989443460083
4800000000.0 0.0803613612282218 -0.9960617162088199
4803000000.0 0.031459991623719596 -1.0438490896187815
4806000000.0 0.054387124551034255 -1.0491463418524363
4809000000.0 0.003050957720054842 -1.0164014055011314
4812000000.0 0.004355568561439094 -1.0188947951003624
4816000000.0 0.08066202983090524 -0.9966279024304994
4819000000.0 0.05282148707158771 -1.0522641706916052
4822000000.0 0.04140086528572062 -1.0603487427564287
4825000000.0 0.014278938045487716 -1.0688596481560784
4828000000.0 -0.016242023955376772 -1.0274634160307259
4831000000.0 -0.053344408696240866 -1.0681222050260593
4834000000.0 -0.002641775401021146 -1.0322375660776977
4838000000.0 -0.04592972337952532 -1.0464366124072095
4841000000.0 -0.07350241519523094 -1.0277900132340863
4844000000.0 -0.026933479414549683 -1.046217465948089
4847000000.0 -0.02529735185324694 -0.9960597298497593
4850000000.0 -0.07752973832617133 -1.0617570173159656
4853000000.0 -0.07754235761533396 -1.002604168661354
4856000000.0 -0.07510849967893157 -1.0107961667456784
4859000000.0 -0.13185723338039115 -1.0680022589959486
4862000000.0 -0.0702842086844033 -1.0110919527548594
4866000000.0 -0.13735484116180216 -1.0300787341779525
4869000000.0 -0.13518211021588325 -1.019720614824957
4872000000.0 -0.1614656696824216 -1.042446529489724
4875000000.0 -0.10271125223559678 -1.0698525085387827
4878000000.0 -0.1678316758411367 -1.0141528650904121
4881000000.0 -0.20705354792306926 -1.072589757909019
4884000000.0 -0.14488116290974448 -1.0275137151481573
4888000000.0 -0.14043772507140773 -1.0210764552004683
4891000000.0 -0.13669258776302945 -1.0339174722987239
4894000000.0 -0.22728190990383926 -0.9763103286776091
4897000000.0 -0.2053831716507586 -1.012234483944578
4900000000.0 -0.19907092549934308 -1.0139613662713889
4903000000.0 -0.21587803096514943 -1.0480817102027091
4906000000.0 -0.226529585023179 -1.0411156485551445
4909000000.0 -0.24462205076616192 -0.9905383187191248
4912000000.0 -0.2878213471365904 -1.02626389171469
4916000000.0 -0.268983492986169 -1.040509187787259
4919000000.0 -0.2512426252171796 -1.0696027505912986
4922000000.0 -0.24187848201082193 -0.9980387991678606
4925000000.0 -0.3119511996919603 -0.9404254658757338
4928000000.0 -0.23898675566894906 -1.023654173110615
4931000000.0 -0.2992258055255809 -1.0310437812513602
4934000000.0 -0.33064446608144565 -0.9561576676222625
4938000000.0 -0.3458064589077396 -0.972504899054438
4941000000.0 -0.3111332808872646 -0.9555343931398674
4944000000.0 -0.30687974882190716 -0.9308612577777267
4947000000.0 -0.3427450043542041 -0.9847680327928956
4950000000.0 -0.3881839411561252 -0.919332745571655
4953000000.0 -0.4307568376729689 -1.0214440364289121
4956000000.0 -0.37502534837895524 -0.9499783492186339
4959000000.0 -0.4005766107807608 -0.9200800441049028
4962000000.0 -0.37074253491554254 -0.9761633788853181
4966000000.0 -0.3687922281999748 -0.9876781959547897
4969000000.0 -0.4043779745396383 -1.0132838242870157
4972000000.0 -0.4162729107657046 -0.9362595337379535
4975000000.0 -0.3926845449347761 -0.9147033160428002
4978000000.0 -0.4504947199757805 -0.9392103135761793
4981000000.0 -0.46563159819151356 -0.9275280919487049
4984000000.0 -0.4377984741210099 -0.942779499937698
4988000000.0 -0.4570943459288714 -0.9146600229945347
4991000000.0 -0.3967595365247227 -0.9524704101289773
4994000000.0 -0.46233877399692314 -0.9379218308510268
4997000000.0 -0.5047841280061813 -0.8653188370104213
5000000000.0 -0.4811329706602804 -0.9502317708961949
5003000000.0 -0.49874682136831966 -0.9430465609595814
5006000000.0 -0.5341984276401509 -0.941468302680637
5009000000.0 -0.5199710065247151 -0.9331262585571234
5012000000.0 -0.5110651964303226 -0.8956291422844049
5016000000.0 -0.512242196893546 -0.9462851531500452
5019000000.0 -0.5504084675946406 -0.9038146358347048
5022000000.0 -0.5249168592820157 -0.895003028943191
5025000000.0 -0.6046012089882298 -0.8958775072323869
5028000000.0 -0.5709994508166495 -0.8595421563782546
5031000000.0 -0.5795270018167442 -0.8496668770138104
5034000000.0 -0.6198876817503062 -0.8743165950906611
5038000000.0 -0.5765872519289512 -0.797792226474432
5041000000.0 -0.5623323764240472 -0.8796763627680685
5044000000.0 -0.5534684425564669 -0.8395840071861663
5047000000.0 -0.6156867973634146 -0.8377863410574773
5050000000.0 -0.5731383733431312 -0.8736200878371627
5053000000.0 -0.6674278756145967 -0.8372397263280713
5056000000.0 -0.5916731748784353 -0.8303492278049779
5059000000.0 -0.629186381126351 -0.8594908971474545
5062000000.0 -0.6627975787114206 -0.8003057106703543
5066000000.0 -0.6198266422009054 -0.8215248321633111
5069000000.0 -0.6677354866398527 -0.8218263125345291
5072000000.0 -0.6285339013468823 -0.7592407251986488
5075000000.0 -0.6672596240421526 -0.8191260361645336
5078000000.0 -0.7044901799501675 -0.7687580709583064
5081000000.0 -0.6829486941344849 -0.7521104285795106
5084000000.0 -0.747369719279176 -0.7489450573169247
5088000000.0 -0.664454651492414 -0.7549363973791026
5091000000.0 -0.7060992186953066 -0.7277794142535556
5094000000.0 -0.7337815804690562 -0.7318851355222902
5097000000.0 -0.648366863471733 -0.7565374294775664
5100000000.0 -0.7031912018918255 -0.7681119756221341
5103000000.0 -0.7745271691814722 -0.6921441360051671
5106000000.0 -0.7537436601184042 -0.7197212446739467
5109000000.0 -0.7578861567639771 -0.7496017064753359
5112000000.0 -0.7975266157984192 -0.7045112064209704
5116000000.0 -0.7481843534985958 -0.6921091344490311
5119000000.0 -0.8082982471742134 -0.6566642480799678
5122000000.0 -0.7671880490976102 -0.6804611620039023
5125000000.0 -0.7407255175897137 -0.6820876203911683
5128000000.0 -0.7645770265045712 -0.6555414148116916
5131000000.0 -0.8019515180856287 -0.6795956845534215
5134000000.0 -0.8125765524162559 -0.6316638994916869
5138000000.0 -0.7797644998692228 -0.6752188652376706
5141000000.0 -0.8171073009383021 -0.7114051992650037
5144000000.0 -0.7495886490893016 -0.6592206161450269
5147000000.0 -0.8359088978390725 -0.6767890448499286
5150000000.0 -0.8459865600443691 -0.6582150912155289
5153000000.0 -0.8461188133685469 -0.6227687823956833
5156000000.0 -0.8528739161956498 -0.63333011825699
5159000000.0 -0.8593169665147203 -0.6366842690033643
5162000000.0 -0.8622726773802156 -0.5895095995850385
5166000000.0 -0.8244217750035148 -0.5936187321865821
5169000000.0 -0.8836065057116378 -0.5933958389831523
5172000000.0 -0.87848521509187 -0.5787406444507567
5175000000.0 -0.8606752210758825 -0.5948881673655524
5178000000.0 -0.9034971207162192 -0.5861263765558313
5181000000.0 -0.8974657186218619 -0.5764168952393961
5184000000.0 -0.8854444828721081 -0.5393831754526794
5188000000.0 -0.9213913349206565 -0.535145407300658
