! Created with skrf 1.8.0 (http://scikit-rf.org).
# Hz S RI R 50.0 
!freq ReS11 ImS11
4000000000.0 0.612015330520853 0.7603159746844768
4003000000.0 0.6701615126225129 0.8255554665006791
4006000000.0 0.6866757656190926 0.8107591060906915
4009000000.0 0.7349806198626022 0.768753690758362
4012000000.0 0.6415237023038958 0.815410295503549
4016000000.0 0.7539614078082671 0.7345543829335042
4019000000.0 0.7025773722002755 0.7514573107105218
4022000000.0 0.6766939426557219 0.7793993573307858
4025000000.0 0.7433065038232269 0.7188496800995103
4028000000.0 0.7399943766908815 0.7520105805141579
4031000000.0 0.7243572149883147 0.7097364794050455
4034000000.0 0.7708754516997841 0.718975805554152
4038000000.0 0.808000322983009 0.7281099509823631
4041000000.0 0.7517322621271739 0.7336482964760762
4044000000.0 0.8157235179524176 0.7394579288396106
4047000000.0 0.7870431413934899 0.802821726200705
4050000000.0 0.8293048747825802 0.6857411375541017
4053000000.0 0.7526201693627937 0.668257588886781
4056000000.0 0.8254728065296572 0.6859862208245953
4059000000.0 0.7880433381341228 0.6839029607393126
4062000000.0 0.7979311815582509 0.6481104399574398
4066000000.0 0.7407646917669739 0.5815772001030143
4069000000.0 0.8364038926898683 0.659288504471126
4072000000.0 0.8068084032206041 0.6509157008352535
4075000000.0 0.8259267792401117 0.6271564408443893
4078000000.0 0.8296079337257588 0.6022659745077631
4081000000.0 0.8209556983093491 0.7136057639781809
4084000000.0 0.8380974557492823 0.6060227482648528
4088000000.0 0.8441771844633664 0.6391432962776039
4091000000.0 0.8607362427427642 0.6210208020758972
4094000000.0 0.8225081859745941 0.6335617775703747
4097000000.0 0.8788274329758864 0.598830380289195
4100000000.0 0.8490632950318961 0.5755802321785148
4103000000.0 0.8887267956383345 0.5997298846506416
4106000000.0 0.8564631120126323 0.5324735596429399
4109000000.0 0.8647110436172578 0.5302374422816649
4112000000.0 0.8901963062271174 0.5436166140699576
4116000000.0 0.8851283388318869 0.5521586831570071
4119000000.0 0.9000291375729802 0.5296606183940944
4122000000.0 0.8772549199319265 0.522538358676531
4125000000.0 0.9233659049826495 0.5335566811590673
4128000000.0 0.8673514586630539 0.4900818278749842
4131000000.0 0.9182490458599395 0.49705003678603177
4134000000.0 0.8718699996222701 0.5032280426462509
4138000000.0 0.8685010980044514 0.45335799146033723
4141000000.0 0.8950699018455135 0.49081447868354877
4144000000.0 0.926887960441039 0.49239252935800143
4147000000.0 0.9112336348072828 0.43421006123144595
4150000000.0 0.9409663333372051 0.44361225601580007
4153000000.0 0.9156118619774932 0.47963425314277197
4156000000.0 0.9778140651528449 0.490305876610333
4159000000.0 0.9141962864487372 0.4278363529326133
4162000000.0 0.9426389275823672 0.43667479231810935
4166000000.0 0.9561177337109996 0.4344979856006601
4169000000.0 0.9458756528031769 0.40793705530376945
4172000000.0 0.9377951191543318 0.4083400943437567
4175000000.0 0.9446332732626525 0.3959268548648223
4178000000.0 0.9648122436465415 0.4082841800822401
4181000000.0 0.9295708627578858 0.39350233925380884
4184000000.0 0.9541908525817658 0.37146997901462825
4188000000.0 0.9794942239607274 0.35828695382537734
4191000000.0 0.9483817621306779 0.40074935693336194
4194000000.0 0.9430372540359698 0.35631907778918703
4197000000.0 0.9809116705923234 0.3550420883343544
4200000000.0 0.9864037594408563 0.35067848419941317
4203000000.0 0.968566427708832 0.3458384475716122
4206000000.0 0.9768994141951017 0.31685443696422216
4209000000.0 0.965224451863517 0.30264946902144146
4212000000.0 0.9756031823110423 0.2855259340369417
4216000000.0 0.9905895053176536 0.3297591373986884
4219000000.0 0.9900656863052635 0.30950634310986636
4222000000.0 0.9968436069876219 0.27802659744672137
4225000000.0 0.9873966038650044 0.27497390777744835
4228000000.0 1.0090450380423703 0.24912615247744943
4231000000.0 0.9995747463846499 0.23989974753243015
4234000000.0 1.0023406669329216 0.2509988877847769
4238000000.0 1.0022247054370685 0.2338422068998479
4241000000.0 0.9911118757748381 0.2175730617258973
4244000000.0 0.9889868596463179 0.2112424197695158
4247000000.0 1.0026018540969783 0.21611932166115166
4250000000.0 0.9716469018033569 0.19330400859509533
4253000000.0 0.9791188113476481 0.1871258290648785
4256000000.0 1.020446815305522 0.17869427601403354
4259000000.0 0.973739170914698 0.15073589818037467
4262000000.0 0.9873412216344191 0.13856130860206875
4266000000.0 1.017303472178368 0.15001055922622697
4269000000.0 1.0007709702907601 0.16559624503563772
4272000000.0 1.0061216087697895 0.1653552873307072
4275000000.0 1.0038721072374808 0.13107890748991785
4278000000.0 1.0137977189921292 0.12112447305566179
4281000000.0 1.0011860176209961 0.13133397325515778
4284000000.0 1.0205759813648836 0.08046955910676748
4288000000.0 0.9949107164405121 0.12049287988473562
4291000000.0 1.0068291975520438 0.09473268516683643
4294000000.0 0.999869217775546 0.08541279357396699
4297000000.0 1.0053137131207583 0.09091757552115422
4300000000.0 0.9884866155966454 0.05051724278857065
4303000000.0 0.9940923954492964 0.060306798758442234
4306000000.0 1.0293950490380277 0.08641695957713105
4309000000.0 0.9932496842439856 0.06830877649851726
4312000000.0 1.0379415771063172 0.059128002639831756
4316000000.0 1.0324328039085848 0.026274432397608363
4319000000.0 0.994340340511937 0.03619849326767767
4322000000.0 1.0002143692184284 -0.019871597383308473
4325000000.0 1.032758927146862 0.0031863147024109584
4328000000.0 0.9945191366534133 0.009004339977833717
4331000000.0 1.0283305604162316 -0.04811243591238608
4334000000.0 1.0511967995260298 -0.03916303531248569
4338000000.0 1.0145119519305235 -0.01966375391699747
4341000000.0 1.0312899892782725 -0.025965757245328486
4344000000.0 1.0365925558402576 -0.04656280178810092
4347000000.0 1.0407217898433452 -0.09042326798821383
4350000000.0 0.9935290081942583 -0.08836064715572092
4353000000.0 0.993176166833343 -0.06542733255309302
4356000000.0 0.9851977225709244 -0.09530797319328702
4359000000.0 0.9571782007940335 -0.0601188157798883
4362000000.0 1.007358340867809 -0.16804853350479088
4366000000.0 1.0461330843276049 -0.11107248596606167
4369000000.0 0.9796496004201134 -0.1259107172236389
4372000000.0 0.9739222475050107 -0.15628199329237383
4375000000.0 0.9933047952750305 -0.12116406263399312
4378000000.0 0.9704272972414016 -0.1414155052787188
4381000000.0 0.9752180431420148 -0.1355294840483824
4384000000.0 1.0510861579964934 -0.18046200988376476
4388000000.0 0.9785941777606202 -0.15998675668204926
4391000000.0 1.0056180198210958 -0.18060869282387515
4394000000.0 0.9665957662357124 -0.20078189216627373
4397000000.0 0.9758224155725284 -0.20981250444501828
4400000000.0 1.0207460276617712 -0.21768744698392556
4403000000.0 0.9944660898796778 -0.21779677417153162
4406000000.0 0.9936479322520428 -0.23974371311475595
4409000000.0 1.0057591076684356 -0.25840742672151534
4412000000.0 0.9773945570342614 -0.2867856899718347
4416000000.0 0.9536491537634602 -0.2674348115687056
4419000000.0 0.9843982126917127 -0.28910245856066386
4422000000.0 0.9616504012080496 -0.269961742526025
4425000000.0 0.9853651276086857 -0.26938914163555266
4428000000.0 0.9767879578781727 -0.29861046294832994
4431000000.0 0.9909702634695889 -0.3072232722079499
4434000000.0 0.9514488663216188 -0.31241798463350023
4438000000.0 0.9827349363975963 -0.3097155776394761
4441000000.0 0.9756628734028034 -0.32772544770796275
4444000000.0 0.9273063082424591 -0.33361629275765303
4447000000.0 0.9184908226980777 -0.3549750138256761
4450000000.0 0.9303857783810178 -0.32494820592095064
4453000000.0 0.9652472620598873 -0.3548868134048866
4456000000.0 0.9107628644640232 -0.3728646199565237
4459000000.0 0.8975503081474336 -0.38716379247017635
4462000000.0 0.9845548466274758 -0.4057635257960577
4466000000.0 0.9714141056394516 -0.432334242583144
4469000000.0 0.9466184006314408 -0.39822420478404985
4472000000.0 0.9371237546892222 -0.4361063719900253
4475000000.0 0.8893240249725074 -0.4079623504743628
4478000000.0 0.9582282548173031 -0.47271820593315916
4481000000.0 0.8735711891175663 -0.4418984005333173
4484000000.0 0.8770280620275404 -0.4818166298277138
4488000000.0 0.8649859650389223 -0.45247846673054776
4491000000.0 0.9140769897724693 -0.47738587497043006
4494000000.0 0.868982152378852 -0.44787306094386903
4497000000.0 0.8896297018337702 -0.44515459861920054
4500000000.0 0.8925495294595245 -0.4709677946166394
4503000000.0 0.8977805440678743 -0.4945957376476563
4506000000.0 0.8566485445927186 -0.4979271624452054
4509000000.0 0.8534531057646946 -0.5012165016830398
4512000000.0 0.8442568418734062 -0.5051660489947801
4516000000.0 0.8835493408418358 -0.5265189384065277
4519000000.0 0.8523019600723482 -0.5074157384994205
4522000000.0 0.8501664355538361 -0.5547139457306616
4525000000.0 0.8546687599244684 -0.5325427591803562
4528000000.0 0.8674501795872944 -0.587629050271572
4531000000.0 0.8355580168691079 -0.5544806699848275
4534000000.0 0.8173936698125787 -0.5617212573283578
4538000000.0 0.8382254475552728 -0.566238518566685
4541000000.0 0.7808477459367272 -0.6057871520047016
4544000000.0 0.8039885697007418 -0.5834335960632412
4547000000.0 0.818944004496095 -0.5797859506231731
4550000000.0 0.8078284973090402 -0.6202427455579614
4553000000.0 0.7967123467606834 -0.6183815521927472
4556000000.0 0.7684732254624009 -0.6242889634035383
4559000000.0 0.7878630178518093 -0.6396918717390443
4562000000.0 0.8049499666676863 -0.6485813853557929
4566000000.0 0.7715788866915667 -0.6569736807902518
4569000000.0 0.7683662557650561 -0.6498779734725106
4572000000.0 0.7712103536233552 -0.641108344348019
4575000000.0 0.762164140514952 -0.6696674136276561
4578000000.0 0.7971047838666254 -0.66765625974419
4581000000.0 0.74787384332445 -0.6871286747029357
4584000000.0 0.7276104948929362 -0.6880363867581335
4588000000.0 0.773495851661397 -0.7064338052331771
4591000000.0 0.7473727248079578 -0.7019189967200025
4594000000.0 0.718399321629801 -0.7026493353251565
4597000000.0 0.7105669736948075 -0.7166460869552644
4600000000.0 0.6924101058052868 -0.7264640939022406
4603000000.0 0.7121385686324949 -0.7428331732791414
4606000000.0 0.7047337151163741 -0.754184652599942
4609000000.0 0.6943813461229085 -0.724390034625428
4612000000.0 0.6946403443241576 -0.7607950896900258
4616000000.0 0.6664363204070365 -0.7421876144080075
4619000000.0 0.6619846175192993 -0.7619199472199012
4622000000.0 0.6536605992373503 -0.7594968952769279
4625000000.0 0.6271584118834462 -0.7588567919312063
4628000000.0 0.6615885213352282 -0.7619803399773513
4631000000.0 0.6575504285927438 -0.7950662765211124
4634000000.0 0.6526968676855793 -0.7971622885868402
4638000000.0 0.6491814151027696 -0.7927889737263465
4641000000.0 0.6313715631694637 -0.8020129665199214
4644000000.0 0.6182176735315053 -0.813098896512655
4647000000.0 0.6290584123643359 -0.8158089140861968
4650000000.0 0.5944363228966161 -0.8037093024531451
4653000000.0 0.6148710512504312 -0.8346967053068626
4656000000.0 0.5946215223792375 -0.8304599401721944
4659000000.0 0.5716675152296824 -0.8385289574564119
4662000000.0 0.5566819937664242 -0.8349533632153212
4666000000.0 0.5443606611483863 -0.8569040616274672
4669000000.0 0.5678852125490865 -0.8425832553316572
4672000000.0 0.5480755381072234 -0.8842348369483594
4675000000.0 0.5230422903567068 -0.8630852771275999
4678000000.0 0.5278392243059007 -0.8418928034309682
4681000000.0 0.48527208400653693 -0.8759570105404757
4684000000.0 0.4843498106054184 -0.9143822918132315
4688000000.0 0.4777151746892928 -0.8647334892322089
4691000000.0 0.5161025224702305 -0.8869045292069382
4694000000.0 0.48668816121046876 -0.8621196057041811
4697000000.0 0.461066414835723 -0.8695661021739378
4700000000.0 0.4735354743036342 -0.889472333112153
4703000000.0 0.4612673366034483 -0.853452315218322
4706000000.0 0.43298804557339543 -0.901031295960983
4709000000.0 0.4463885102424541 -0.8870097487573952
4712000000.0 0.4510440680589346 -0.9224911922770497
4716000000.0 0.4458504923098078 -0.9148015760376236
4719000000.0 0.4659514821993658 -0.9161652734417232
4722000000.0 0.4508949050740183 -0.9607450082820477
4725000000.0 0.4309920313173238 -0.9240035676043635
4728000000.0 0.40263372356800586 -0.9400974281313024
4731000000.0 0.42672690132963537 -0.9581806042902814
4734000000.0 0.4214178218796602 -0.9277336739936862
4738000000.0 0.4012936756012969 -0.9871416402822408
4741000000.0 0.3759364830752036 -1.0126487532939041
4744000000.0 0.333978725995673 -0.9626879727183763
4747000000.0 0.37052054735950307 -0.9141548249586936
4750000000.0 0.3441844768957456 -0.9695597341261661
4753000000.0 0.35563139663337107 -0.9627145632347146
4756000000.0 0.3290950528350247 -0.9495313273274708
4759000000.0 0.34748881014717353 -0.9926922923048097
4762000000.0 0.2930222653805317 -1.015909746479384
4766000000.0 0.27477571781758414 -0.9702506981973384
4769000000.0 0.28852383707305856 -0.9906091764071422
4772000000.0 0.29922094707249935 -0.9709473841040622
4775000000.0 0.26834050418526956 -1.0228495376082771
4778000000.0 0.24489398394695927 -1.0070707611494354
4781000000.0 0.27523366687427825 -0.9998027384023849
4784000000.0 0.28556502826847074 -1.0044777687242945
4788000000.0 0.24254873460098733 -1.0015440529865467
4791000000.0 0.23895202757131576 -0.9684002040830489
4794000000.0 0.27485766166807174 -1.0171910532922088
4797000000.0 0.2082393045899595 -0.9687312161663632
4800000000.0 0.22449006473434543 -0.9641787607827776
4803000000.0 0.15391347087921955 -1.022416121052011
4806000000.0 0.2220859548136718 -1.021720089665363
4809000000.0 0.15806748386130198 -1.008953128997613
4812000000.0 0.14781636488792593 -1.0066484830632298
4816000000.0 0.18894706414699441 -0.9763835596496042
4819000000.0 0.19077090495457064 -1.0335268463261416
4822000000.0 0.19357070183746758 -1.0468075207865593
4825000000.0 0.18321667902385763 -1.033872149908788
4828000000.0 0.14102421831722636 -1.0131427660696928
4831000000.0 0.0872917736455204 -1.0342349051848407
4834000000.0 0.16050707217141644 -1.0136571929491374
4838000000.0 0.10870237509070245 -1.0181289518480143
4841000000.0 0.0778792010997203 -1.0222707575747756
4844000000.0 0.14294844256030564 -1.0271075893531847
4847000000.0 0.1185216847903606 -0.9951985908229914
4850000000.0 0.06373969198688119 -1.06175271417565
4853000000.0 0.0833212401131029 -1.0001932916715628
4856000000.0 0.04945920168529161 -1.034032565851205
4859000000.0 0.04562146554580345 -1.06368740054358
4862000000.0 0.0545506689500616 -1.0149154772904114
4866000000.0 0.021863365149757882 -1.0421802550908943
4869000000.0 0.018808222192877012 -1.033825077482272
4872000000.0 0.017680930679807704 -1.0667690644394356
4875000000.0 0.07898457325233418 -1.0597873877461204
4878000000.0 -0.005036792147270638 -1.040649166943711
4881000000.0 -0.058032083391065505 -1.0907956165209474
4884000000.0 0.006237463701877149 -1.0361636280338957
4888000000.0 0.016555187155512522 -1.0285905599114822
4891000000.0 -0.007848845238634772 -1.057134043562882
4894000000.0 -0.07855188626685858 -1.0057974026070933
4897000000.0 -0.016599905645067404 -1.0277993861991275
4900000000.0 -0.05051840655974761 -1.0573592505202698
4903000000.0 -0.03297590961202115 -1.0492510086217839
4906000000.0 -0.06225379065960285 -1.0492077707998027
4909000000.0 -0.10710523604886549 -1.0187095952492733
4912000000.0 -0.12086698367376521 -1.0645426429977467
4916000000.0 -0.08275426791077542 -1.0768078064910018
4919000000.0 -0.07584623498765743 -1.0553145753306215
4922000000.0 -0.11051283598613021 -1.039695661710761
4925000000.0 -0.14774506117638056 -1.0323067419792868
4928000000.0 -0.08047776649014 -1.0117865934471308
4931000000.0 -0.12069806301996107 -1.0596200372591777
4934000000.0 -0.14198483452833904 -0.9703254414799923
4938000000.0 -0.16496493602386125 -1.0004989923519403
4941000000.0 -0.1552133106185843 -1.020503430998461
4944000000.0 -0.1334612009784267 -0.9642042035598197
4947000000.0 -0.18277664418565756 -0.9927546554455553
4950000000.0 -0.18826008028325236 -1.0007319263876662
4953000000.0 -0.25837574007198805 -1.0505971491045178
4956000000.0 -0.2382651760637169 -1.02452783827691
4959000000.0 -0.2498897037760163 -0.9768115932399484
4962000000.0 -0.21881228534575672 -1.040287114911435
4966000000.0 -0.2218282300703061 -1.0322674681196873
4969000000.0 -0.2329184578938987 -1.0708000460511418
4972000000.0 -0.2781614534072524 -1.0234975053300264
4975000000.0 -0.238691143313103 -1.0136128065082337
4978000000.0 -0.2696543830404423 -1.0156375587518893
4981000000.0 -0.2743010093327265 -0.9998037302898277
4984000000.0 -0.25209476296947686 -0.9718673833940541
4988000000.0 -0.28500256878291 -0.9901590165976715
4991000000.0 -0.2619808203126857 -1.057025142701135
4994000000.0 -0.28773938133331944 -1.023006474143455
4997000000.0 -0.3480530606201144 -0.9803115409942663
5000000000.0 -0.3264460994825411 -1.0098622449539998
5003000000.0 -0.3266522174429867 -1.02168015899716
5006000000.0 -0.36131712042537123 -1.0269950678646609
5009000000.0 -0.36158314287795623 -0.9905265777719344
5012000000.0 -0.37851697511223953 -0.9946152185282873
5016000000.0 -0.35308975647775115 -1.000559244899203
5019000000.0 -0.3679331322228683 -0.9608576028495901
5022000000.0 -0.3918147945122993 -0.9774708636109333
5025000000.0 -0.4136388049916266 -1.0111841544833036
5028000000.0 -0.4027718939808117 -0.9743851993063035
5031000000.0 -0.40959909899744074 -0.9500790247834162
5034000000.0 -0.4652422592908646 -0.9741164433089242
5038000000.0 -0.43072950089812856 -0.9063610355473497
5041000000.0 -0.40777318979932375 -0.9812677884631095
5044000000.0 -0.3895020570122125 -0.9473818278454335
5047000000.0 -0.43087891381918825 -0.9723550835426485
5050000000.0 -0.3600290603719911 -0.9587069438210227
5053000000.0 -0.46868534826871666 -0.9858389219511214
5056000000.0 -0.44218612041252137 -0.9633476205168385
5059000000.0 -0.4260268746956514 -0.9720446154708774
5062000000.0 -0.4990060044317075 -0.9600839083893049
5066000000.0 -0.4817009239554296 -0.9540118243348552
5069000000.0 -0.5270895337075128 -0.9649038765219654
5072000000.0 -0.4737912284039585 -0.8867244787128734
5075000000.0 -0.4666331467861986 -0.9160985948665086
5078000000.0 -0.5412166284016129 -0.885194035006071
5081000000.0 -0.5478083588776866 -0.8796594701923731
5084000000.0 -0.4941804344210108 -0.925490734868279
5088000000.0 -0.5052207640132187 -0.9105266634263718
5091000000.0 -0.5852992973968951 -0.8509472740110107
5094000000.0 -0.5450634137937669 -0.8797189814651102
5097000000.0 -0.5398196338968418 -0.9471112824021062
5100000000.0 -0.549610988802154 -0.9051004201857688
5103000000.0 -0.6088985719697139 -0.8706846281952102
5106000000.0 -0.5648435870567154 -0.8721846548105467
5109000000.0 -0.5573350729470911 -0.8597982716976416
5112000000.0 -0.6119516809874851 -0.8302280878615802
5116000000.0 -0.5760034884750214 -0.8242053711632064
5119000000.0 -0.6073169279678478 -0.8441867408831918
5122000000.0 -0.6045811186399249 -0.819504525174396
5125000000.0 -0.560394100539786 -0.8502506676963237
5128000000.0 -0.5997081893951834 -0.8041126974467394
5131000000.0 -0.5875993281254872 -0.8703022535471815
5134000000.0 -0.6224305524036087 -0.8211788237896089
5138000000.0 -0.6030972744956249 -0.852717984428382
5141000000.0 -0.6303651284713543 -0.8698294913819096
5144000000.0 -0.6759199427701275 -0.8046094847632949
5147000000.0 -0.6703974405816374 -0.8151447600692618
5150000000.0 -0.6640891335109537 -0.8282525316275241
5153000000.0 -0.6294670044716633 -0.8480217324471567
5156000000.0 -0.6326700017841603 -0.8381384747861621
5159000000.0 -0.6899121806711916 -0.8291759547163579
5162000000.0 -0.6826633318575415 -0.7426239210479226
5166000000.0 -0.6823251104002188 -0.773993246502813
5169000000.0 -0.6984390991954735 -0.789796282976817
5172000000.0 -0.6903910066280468 -0.7885779800631152
5175000000.0 -0.7105254066479159 -0.7866635836169795
5178000000.0 -0.7546107393027 -0.7831118643217795
5181000000.0 -0.7462795543094486 -0.7902931374867583
5184000000.0 -0.7454279523866544 -0.758421248300308
5188000000.0 -0.7185646750037595 -0.7367908871514232
