! Created with skrf 1.8.0 (http://scikit-rf.org).
# Hz S RI R 50.0 
!freq ReS11 ImS11
4000000000.0 0.6219705460253951 0.7988247441203693
4003000000.0 0.640488357482465 0.8555911532368161
4006000000.0 0.7165513433050013 0.7776338982552405
4009000000.0 0.6557558418418694 0.7714879604836911
4012000000.0 0.6694549287393007 0.8340287404466057
4016000000.0 0.6911910457877384 0.7922925853706468
4019000000.0 0.6186443241174797 0.7695842294799068
4022000000.0 0.6264375535649982 0.825123889778758
4025000000.0 0.73788187768319 0.7856224300981498
4028000000.0 0.6894559158298605 0.7622304129999729
4031000000.0 0.7145114187307028 0.7064543458329222
4034000000.0 0.7060909689844976 0.7601382726852115
4038000000.0 0.7324955789918528 0.7609346272324002
4041000000.0 0.7024366641159558 0.7211623713028009
4044000000.0 0.7436274961452224 0.7967897031644875
4047000000.0 0.7324120629245049 0.7690485832270825
4050000000.0 0.7546017385132111 0.7160142615330054
4053000000.0 0.7073156719128285 0.6803378884518667
4056000000.0 0.7372400048757975 0.7048019741446832
4059000000.0 0.7189142971659366 0.6816914369444556
4062000000.0 0.7661114956380026 0.6760483456164363
4066000000.0 0.6997246088261444 0.6424801022780734
4069000000.0 0.8185518634315064 0.6727041608885965
4072000000.0 0.7548984444717804 0.7276952013773985
4075000000.0 0.8133565300803226 0.6985348030225009
4078000000.0 0.7973227810356869 0.6669089843301087
4081000000.0 0.7367719852365476 0.7499704897690094
4084000000.0 0.8490443010343907 0.6501452230060549
4088000000.0 0.7706190771241371 0.6891258085947105
4091000000.0 0.8745152548958219 0.6742509516681099
4094000000.0 0.7897439443453478 0.6522395825659327
4097000000.0 0.8489970330793097 0.6493497152469749
4100000000.0 0.8669000414988053 0.6291195695689313
4103000000.0 0.8100236673955443 0.64920964008145
4106000000.0 0.8427662225282284 0.6125037365782363
4109000000.0 0.812621146758501 0.5692257408419648
4112000000.0 0.8456733073335285 0.5996067861846612
4116000000.0 0.8621978394319441 0.5862608072903334
4119000000.0 0.8602067411107006 0.5557576780733593
4122000000.0 0.8518781293208288 0.5469018952889403
4125000000.0 0.9227201621688259 0.5295479845896869
4128000000.0 0.8408525893642435 0.5637441990240969
4131000000.0 0.8268517990580816 0.5215630802824273
4134000000.0 0.8509463191358627 0.5356207709489101
4138000000.0 0.8658638634222773 0.491797019323255
4141000000.0 0.8825102537159114 0.5090368515546512
4144000000.0 0.8567350724539635 0.541774674111716
4147000000.0 0.8800290863928915 0.4666576474247804
4150000000.0 0.9245487162254159 0.49387258316038724
4153000000.0 0.9254421330279052 0.4855210983432995
4156000000.0 0.8993448023942798 0.5142759942864914
4159000000.0 0.8739307105527816 0.4823154595446138
4162000000.0 0.889341533623266 0.48587739540790287
4166000000.0 0.9050414622398475 0.46470415291387257
4169000000.0 0.9130730301099808 0.4407291742350381
4172000000.0 0.9098168092004854 0.43772589298269643
4175000000.0 0.9496017090562161 0.4719214175617423
4178000000.0 0.9759636205990887 0.45066171315831083
4181000000.0 0.9342274915103259 0.4393875198168299
4184000000.0 0.9219204715080224 0.4223477661344179
4188000000.0 0.9307330814853327 0.40313117789818875
4191000000.0 0.9302550493740546 0.4377954418619648
4194000000.0 0.9408077636410974 0.38372291028510064
4197000000.0 0.9640291567917222 0.3946235786223197
4200000000.0 0.9536138806850707 0.4010438184675694
4203000000.0 0.9653730097458773 0.40631868855229814
4206000000.0 0.9873937932224618 0.36464011446581907
4209000000.0 0.9616882718241612 0.3677128492468536
4212000000.0 0.9634480448259641 0.33393054427827606
4216000000.0 0.9562434180447182 0.3454802129234487
4219000000.0 0.9645912440086386 0.3418317312834499
4222000000.0 0.9790717470290264 0.3163816000526842
4225000000.0 0.9666847545047865 0.3316392581149138
4228000000.0 0.9855441658649076 0.3136146426585804
4231000000.0 0.9896245162770225 0.31043064401113396
4234000000.0 0.9850665678564857 0.30219133572784146
4238000000.0 0.9904536012263155 0.2722633208482318
4241000000.0 0.9848752285327449 0.2849968137271184
4244000000.0 0.974736763553827 0.27060883492650956
4247000000.0 0.9907489221712927 0.26132621474700524
4250000000.0 0.9790047629116923 0.23332255067471802
4253000000.0 0.9782064864207165 0.2380464883754308
4256000000.0 1.0216571308953988 0.25890858883491014
4259000000.0 0.9693974615205411 0.2188862294008568
4262000000.0 0.9937262132502387 0.20060125403374782
4266000000.0 0.9932813651449811 0.19705568306128718
4269000000.0 0.9877186116963249 0.22092262187033715
4272000000.0 0.992027128814188 0.20186120617357134
4275000000.0 1.0052742069228773 0.20261030585238793
4278000000.0 1.0276155723935907 0.1966290309746908
4281000000.0 1.0182872127956575 0.18190348932428468
4284000000.0 1.004096087076026 0.135809798473761
4288000000.0 0.9918422300901659 0.1829186276338844
4291000000.0 0.9995295189864809 0.1296456791438071
4294000000.0 0.9952816570853283 0.15449818450287295
4297000000.0 0.9838402479101552 0.14908948649612236
4300000000.0 1.0113517758114015 0.11919159043196778
4303000000.0 0.9765247110170413 0.05443568845031925
4306000000.0 1.013691065569417 0.09455832391314736
4309000000.0 1.007524749581143 0.11165852524382595
4312000000.0 1.0435222318616402 0.13283427849933072
4316000000.0 1.0176869303328482 0.08767252634485383
4319000000.0 1.0196236067392743 0.08922289784948138
4322000000.0 0.9857323983394999 0.05341469905093989
4325000000.0 1.0205483203780876 0.060406304980132455
4328000000.0 1.002268040134959 0.024391932965372995
4331000000.0 1.0123374260130078 0.0014859366763572135
4334000000.0 1.0368225389417973 0.03300659901731259
4338000000.0 1.009234089137729 0.04625343262677238
4341000000.0 1.0120784319657974 0.02775580573216649
4344000000.0 1.0252868327293418 0.01629917779579218
4347000000.0 1.0297848725009937 -0.030061174785466882
4350000000.0 0.9778787834498724 -0.04710812056096973
4353000000.0 0.9934518953829865 -0.006376156644991998
4356000000.0 1.0107422092719305 -0.0638273756523041
4359000000.0 0.9796894890005706 -0.06813394949999245
4362000000.0 1.0176022494048236 -0.10345389858884524
4366000000.0 1.0462789255244007 -0.062401273925976525
4369000000.0 0.9639803929304963 -0.0761634188692779
4372000000.0 0.9962407376564419 -0.1083962773033943
4375000000.0 1.0054608784098658 -0.07741641079904688
4378000000.0 0.9860759850806988 -0.08314254706034288
4381000000.0 1.0039703390722496 -0.08981632899341375
4384000000.0 1.0617934630945745 -0.13078485899832093
4388000000.0 1.008137921870446 -0.10193659997840773
4391000000.0 1.0068879478781827 -0.12930333581211112
4394000000.0 0.962036423414405 -0.12524882251209973
4397000000.0 0.9962931558888073 -0.14613436506845215
4400000000.0 1.0217678838022621 -0.17206525490680902
4403000000.0 0.9980462499088042 -0.14808995836683086
4406000000.0 0.9975652636335642 -0.20080601808664744
4409000000.0 1.0327354945004026 -0.19343825595919945
4412000000.0 0.9894410401256845 -0.2479788137480809
4416000000.0 0.974913536899505 -0.2135995788537042
4419000000.0 0.9900448306906031 -0.22836702990461108
4422000000.0 0.9911964984021138 -0.1986336688850385
4425000000.0 1.0035379863833884 -0.21385497420254482
4428000000.0 0.982290987803082 -0.2275675876809279
4431000000.0 0.9991400608346597 -0.23409422928355417
4434000000.0 0.975336624430591 -0.24915558505475874
4438000000.0 0.9980524214725237 -0.26034028362412037
4441000000.0 0.9936423166894734 -0.2630450135543081
4444000000.0 0.9503814526921921 -0.273785120931593
4447000000.0 0.9553241606762537 -0.27730798846694393
4450000000.0 0.9580678788913354 -0.2601613879177943
4453000000.0 0.9850119608408169 -0.3031735794677546
4456000000.0 0.9323722042945953 -0.319847385890965
4459000000.0 0.9159210872991315 -0.3070671034309306
4462000000.0 1.0053588452924669 -0.35604775194096194
4466000000.0 1.005156447875801 -0.35124790517601434
4469000000.0 0.9717776908120993 -0.335126294629867
4472000000.0 0.9546332718307418 -0.3744026782341184
4475000000.0 0.9260081644503012 -0.3377738209687939
4478000000.0 0.9805382705638737 -0.3837659222107125
4481000000.0 0.9155793922309364 -0.37063299692679974
4484000000.0 0.9113124696595212 -0.4255993604970403
4488000000.0 0.9231800953595837 -0.4025021951854291
4491000000.0 0.9228734898005249 -0.41387166646408313
4494000000.0 0.9075338853871752 -0.41290630884434265
4497000000.0 0.9071165033977335 -0.3880122661641646
4500000000.0 0.9109068325649863 -0.4283327644097549
4503000000.0 0.9616815931349578 -0.4450468730664482
4506000000.0 0.901263586992449 -0.4455767774061854
4509000000.0 0.8891035831053307 -0.42836558497476174
4512000000.0 0.8786370795888987 -0.454107216657061
4516000000.0 0.9162833226205492 -0.46314559765978314
4519000000.0 0.8641017858570421 -0.45385228932196514
4522000000.0 0.8785193438439147 -0.5068266848366361
4525000000.0 0.8835042408506024 -0.46162956158085056
4528000000.0 0.8938975376393559 -0.5067690438231234
4531000000.0 0.8985778575554617 -0.48939911145313775
4534000000.0 0.8629724453356131 -0.5097025600368772
4538000000.0 0.8449260089772566 -0.5219513635954327
4541000000.0 0.8262862212184502 -0.5643800305506443
4544000000.0 0.8485409836102635 -0.5252619917645953
4547000000.0 0.8729969889120519 -0.5185936036445837
4550000000.0 0.8269198610781943 -0.5702570996602072
4553000000.0 0.8719422727823738 -0.5586064535243687
4556000000.0 0.7963240425662379 -0.5626536066121041
4559000000.0 0.8386330274499643 -0.5758543348039706
4562000000.0 0.8477886115395799 -0.5658576408810256
4566000000.0 0.836018003293947 -0.595998892660712
4569000000.0 0.8072368923025963 -0.5834041702135071
4572000000.0 0.8199500381102302 -0.5992416215859878
4575000000.0 0.8062961792882946 -0.6393992501361644
4578000000.0 0.8284801175997074 -0.6305764571696231
4581000000.0 0.7868828937178387 -0.6434651058727073
4584000000.0 0.7769663611152777 -0.638463045720697
4588000000.0 0.7962529887108193 -0.6604822333674598
4591000000.0 0.7930814289166631 -0.6327206290174565
4594000000.0 0.7467116741785703 -0.6699556586670421
4597000000.0 0.78079923120337 -0.6811404493406573
4600000000.0 0.7235974872275953 -0.685385157999579
4603000000.0 0.7741384742726524 -0.6807998124565768
4606000000.0 0.754590331173657 -0.6727378726211516
4609000000.0 0.7468809065074458 -0.6855709384312041
4612000000.0 0.748840829599599 -0.7039990919908491
4616000000.0 0.7083585943551285 -0.686925364713488
4619000000.0 0.731304446462714 -0.7070954555166397
4622000000.0 0.7247204821477304 -0.7178855706666776
4625000000.0 0.6732824118456634 -0.7108889454655037
4628000000.0 0.7056552582628389 -0.7094390167107207
4631000000.0 0.6712964802906816 -0.7422939974463447
4634000000.0 0.6833347792405315 -0.7321501333058853
4638000000.0 0.6954468918216997 -0.7419677023254964
4641000000.0 0.68343656929867 -0.7356778583383836
4644000000.0 0.6683542333528174 -0.75866961733301
4647000000.0 0.6701809776601844 -0.7619045057301191
4650000000.0 0.6485556234928391 -0.7782425858215881
4653000000.0 0.661276097526134 -0.796133131251962
4656000000.0 0.642802506149893 -0.7726699078323569
4659000000.0 0.6398632763157375 -0.8131195156868541
4662000000.0 0.6346681484986127 -0.794480317040238
4666000000.0 0.605148206674281 -0.7887748412144153
4669000000.0 0.6222461044942782 -0.8038238757668531
4672000000.0 0.6112516936101355 -0.829548403700875
4675000000.0 0.592477551033519 -0.8254921838179933
4678000000.0 0.5690835039214872 -0.7901893753076026
4681000000.0 0.5689691909189968 -0.8341356575006866
4684000000.0 0.5909040067900486 -0.8463863195653715
4688000000.0 0.5874567118950647 -0.8468319497639862
4691000000.0 0.5797312728234751 -0.8011281268829977
4694000000.0 0.5700801159985682 -0.8156985763875462
4697000000.0 0.5231456194355277 -0.8220746666906518
4700000000.0 0.5425582926318971 -0.8163998713761216
4703000000.0 0.5506461029506298 -0.813262525392997
4706000000.0 0.5318254033332757 -0.8735227806912454
4709000000.0 0.5344705094975319 -0.8716669163995507
4712000000.0 0.5303615127063374 -0.8782664344916536
4716000000.0 0.5243346945385399 -0.9089434851488942
4719000000.0 0.5290447546393423 -0.8664027306319595
4722000000.0 0.5193005315922632 -0.8863315872253679
4725000000.0 0.5109270645852526 -0.9001626349606752
4728000000.0 0.47885553567125805 -0.8820708867177831
4731000000.0 0.4831653373017239 -0.8979541836137892
4734000000.0 0.4631135157255174 -0.8972165604941666
4738000000.0 0.4879482713983021 -0.928911767882698
4741000000.0 0.44952830312256287 -0.9546500064180258
4744000000.0 0.4404510134760333 -0.9530294827141245
4747000000.0 0.41779976987226586 -0.8903404128827301
4750000000.0 0.4383486281333701 -0.9187902608105454
4753000000.0 0.4318870128471518 -0.9191012548017594
4756000000.0 0.39814891136999087 -0.9340602126256088
4759000000.0 0.39166613600051264 -0.9278920089470838
4762000000.0 0.36434708760222 -0.9738890785681905
4766000000.0 0.3913884619672285 -0.9304265243015354
4769000000.0 0.36464353180294995 -0.9867925238230418
4772000000.0 0.37570625219971465 -0.9655019396951922
4775000000.0 0.35542119499163477 -1.0057253957088044
4778000000.0 0.37759293371720065 -0.972033785105224
4781000000.0 0.3327672790137366 -0.9373753957051041
4784000000.0 0.37270285376166135 -0.9517414032440957
4788000000.0 0.34780376026613125 -0.9726858917698595
4791000000.0 0.32914278725041757 -0.9659795173815714
4794000000.0 0.37312280173744117 -1.013007195984692
4797000000.0 0.3030389516419073 -0.9696354082483601
4800000000.0 0.28122225820706265 -0.9539775503286587
4803000000.0 0.25433028076841196 -0.9824967892022307
4806000000.0 0.2959691203100523 -1.0023526980848518
4809000000.0 0.21684928706689233 -0.9997364332288151
4812000000.0 0.2443546395250179 -0.9772970502869371
4816000000.0 0.26595198704517836 -0.9671830945485855
4819000000.0 0.27485714211111767 -1.0247197725325732
4822000000.0 0.26030920951398745 -1.0425815902030993
4825000000.0 0.26245669909659236 -1.0155629975508436
4828000000.0 0.2272534680693587 -0.9992241480752416
4831000000.0 0.20205159333684491 -1.0388687205123603
4834000000.0 0.185481613039785 -1.0097170329865146
4838000000.0 0.17850573422155055 -1.0378017899217944
4841000000.0 0.16739221542472876 -1.0091418821321185
4844000000.0 0.23596609946928834 -1.006039451956053
4847000000.0 0.19768793063834583 -0.9814630248919936
4850000000.0 0.1503696737838311 -1.0243688187196385
4853000000.0 0.1558122080687403 -0.9864211864761134
4856000000.0 0.14495642684377885 -0.9969798509483784
4859000000.0 0.13338144187476275 -1.0346376393981758
4862000000.0 0.15057883476389372 -1.0054025048005757
4866000000.0 0.10459376641524548 -1.0528499651431746
4869000000.0 0.11344064990709929 -1.01192637887451
4872000000.0 0.09238667325921138 -1.0335074864649865
4875000000.0 0.13234545980063062 -1.0812687514713946
4878000000.0 0.09746618632761903 -1.0369495361041248
4881000000.0 0.047112019005485437 -1.1135208919271564
4884000000.0 0.11504047313602947 -1.020012819145458
4888000000.0 0.10500396529467004 -1.0198469406703985
4891000000.0 0.09927866627442489 -1.0518284817761407
4894000000.0 0.0421349529160773 -1.0277500548599914
4897000000.0 0.08270709441441192 -1.0042876822211164
4900000000.0 0.0470516649390602 -1.0276548157570955
4903000000.0 0.0388825772592212 -1.040121316829842
4906000000.0 -0.0074210630208709286 -1.0626272576798101
4909000000.0 0.02495548745896832 -1.0589750946898935
4912000000.0 -0.008772896467332453 -1.0662280937951978
4916000000.0 0.02559962665933021 -1.0754627823254592
4919000000.0 0.011900639495042574 -1.0352899807542482
4922000000.0 -0.013783097900808977 -1.022976027813156
4925000000.0 -0.07359682441655385 -1.0111240520760343
4928000000.0 0.03326064419784992 -0.9810706523745472
4931000000.0 -0.025498901860954618 -1.0339985861538599
4934000000.0 -0.05251343271499535 -1.0088843054150458
4938000000.0 -0.11138744119672568 -1.0373189278851698
4941000000.0 -0.09542820562658878 -1.0105030680467868
4944000000.0 -0.04066599085995665 -0.9916679166651932
4947000000.0 -0.08974432723327522 -1.0137445608217344
4950000000.0 -0.1089747501532372 -1.0211668729933898
4953000000.0 -0.16787344864585113 -1.0490043580852442
4956000000.0 -0.13022825110343117 -1.0410128151473097
4959000000.0 -0.15074564450395414 -0.9809668166609523
4962000000.0 -0.15767689707428426 -1.0125436859400812
4966000000.0 -0.13163234055168888 -1.0463721968850461
4969000000.0 -0.14376996301888922 -1.0770910926084563
4972000000.0 -0.17479401229405536 -1.035713106326111
4975000000.0 -0.13419467602824312 -1.0479499545820414
4978000000.0 -0.1518918753024256 -1.0080885600676683
4981000000.0 -0.21126896686260496 -1.0426483241145605
4984000000.0 -0.19005808775917396 -0.9967700609961571
4988000000.0 -0.15845545414944384 -1.0195636979972236
4991000000.0 -0.1603963412903217 -1.0238891190097725
4994000000.0 -0.16839682236854242 -1.0082318171391775
4997000000.0 -0.2370424835654527 -1.0152224051818761
5000000000.0 -0.22355840042823089 -1.0704465673145938
5003000000.0 -0.2290854315181698 -1.0431556614055355
5006000000.0 -0.26018449193614324 -1.0733036486646585
5009000000.0 -0.23233449608276233 -0.9853796045281616
5012000000.0 -0.3096040764417563 -1.010984560515549
5016000000.0 -0.22879437772550704 -1.0283923076827077
5019000000.0 -0.2965886564244812 -1.017490852097076
5022000000.0 -0.28432952466097616 -1.0273464928914673
5025000000.0 -0.3146992964136954 -1.0553316561516024
5028000000.0 -0.3199775031427934 -0.9889228628048519
5031000000.0 -0.32643300836687905 -1.0106192746483895
5034000000.0 -0.3805819730475972 -0.9818513180848369
5038000000.0 -0.31611784859396763 -0.9535663318922665
5041000000.0 -0.28740910780498663 -0.992056520688478
5044000000.0 -0.3264716356669368 -0.9776584143595238
5047000000.0 -0.33304264511666587 -1.005812327035807
5050000000.0 -0.24023467530961998 -1.0183714566379503
5053000000.0 -0.3958419567862582 -0.972555085638765
5056000000.0 -0.3478876873426193 -1.0043813962585824
5059000000.0 -0.33078423857179035 -0.9667836191150642
5062000000.0 -0.4149098094480367 -0.9700029451674952
5066000000.0 -0.3645403826462572 -0.9770282559254362
5069000000.0 -0.4258267644542072 -0.9785105984091705
5072000000.0 -0.3956546974332162 -0.9731820029304579
5075000000.0 -0.36280570251649946 -0.9678189328536413
5078000000.0 -0.4775004335937795 -0.9248927008388808
5081000000.0 -0.41425390093970244 -0.9391920478564352
5084000000.0 -0.4210511088901093 -0.9677950244260485
5088000000.0 -0.4372765736765061 -0.9472817821612847
5091000000.0 -0.4748606340269044 -0.9228439428463684
5094000000.0 -0.4360150195438855 -0.9841457518738411
5097000000.0 -0.41891800237626176 -0.9403497373051914
5100000000.0 -0.4533560162764243 -0.9576014677929406
5103000000.0 -0.4699888839873579 -0.9044072340550998
5106000000.0 -0.4842657681973657 -0.9737962337114503
5109000000.0 -0.4456087309900236 -0.9240184381111729
5112000000.0 -0.5066412059360326 -0.9261042936540138
5116000000.0 -0.4758869545230985 -0.8964116913171556
5119000000.0 -0.5069520337710197 -0.882488287311167
5122000000.0 -0.5304327051012137 -0.9417354780374969
5125000000.0 -0.4899655471213714 -0.8854679512928095
5128000000.0 -0.5475991547484175 -0.8343912029219946
5131000000.0 -0.5207550746313706 -0.8417009851461842
5134000000.0 -0.5397994014507251 -0.8755684239262778
5138000000.0 -0.5437996064920442 -0.9112228599712953
5141000000.0 -0.5281854627889826 -0.9048595690676131
5144000000.0 -0.5460483906697082 -0.9174793820177276
5147000000.0 -0.5865536130265668 -0.8664578505817506
5150000000.0 -0.5521679237947695 -0.8439680932499748
5153000000.0 -0.5772504018528628 -0.8840057090792632
5156000000.0 -0.5838480766549212 -0.8892204325510985
5159000000.0 -0.6097655864475116 -0.9172954476227464
5162000000.0 -0.6148084498112092 -0.7918995228323821
5166000000.0 -0.6416601848222611 -0.8256901851174945
5169000000.0 -0.6323516464249559 -0.8499812440523253
5172000000.0 -0.59870359232706 -0.851598105827535
5175000000.0 -0.6532492292170794 -0.8770760281088346
5178000000.0 -0.6559383716041223 -0.8040810684426068
5181000000.0 -0.6633293716958456 -0.850541083149233
5184000000.0 -0.6622876268914208 -0.7910761381031243
5188000000.0 -0.6721771396166004 -0.7765520900667316
