! Created with skrf 1.8.0 (http://scikit-rf.org).
# Hz S RI R 50.0 
!freq ReS11 ImS11
4000000000.0 0.6687396106924816 0.7671547956040539
4003000000.0 0.7475227931305003 0.8040723451287939
4006000000.0 0.7629586943135219 0.7354682196018826
4009000000.0 0.7167248089340011 0.7544866476886793
4012000000.0 0.7172947802823848 0.7682781290974312
4016000000.0 0.7944955610189606 0.7742539757300433
4019000000.0 0.7292775696201081 0.7307235475447678
4022000000.0 0.7103822114652047 0.8464125716420875
4025000000.0 0.7776134541654858 0.7285190132700534
4028000000.0 0.7460314193233636 0.6496603631128193
4031000000.0 0.7349801057835426 0.6700047212895642
4034000000.0 0.7599091037023686 0.6743213869174844
4038000000.0 0.8011510828726511 0.6721534624709814
4041000000.0 0.7275819322553588 0.7161939184700693
4044000000.0 0.8234037791850022 0.7029462511307074
4047000000.0 0.807919591126565 0.6930802434556483
4050000000.0 0.8152855020640948 0.648907485800136
4053000000.0 0.8048779428834367 0.6270051231150169
4056000000.0 0.7849813816267784 0.645098022497036
4059000000.0 0.7758851842677369 0.6323079914725955
4062000000.0 0.8233989366176077 0.6300130054767477
4066000000.0 0.7671596577716533 0.5743523763039411
4069000000.0 0.8752150008953025 0.5909925949144695
4072000000.0 0.8067489919773326 0.6608591964525865
4075000000.0 0.8071023933268135 0.6499766949820143
4078000000.0 0.8518123243686503 0.6312873170466229
4081000000.0 0.8297411504465927 0.668542062868625
4084000000.0 0.8926696188513933 0.5946598480351064
4088000000.0 0.8130421541194598 0.6250630002683543
4091000000.0 0.911029204449231 0.5911443568744525
4094000000.0 0.8620376505117928 0.5818127259066298
4097000000.0 0.8731336886177811 0.5456891974840208
4100000000.0 0.8713845242631686 0.5776509248649575
4103000000.0 0.8639899457030626 0.5423292082978508
4106000000.0 0.8801517055005212 0.5327898380038728
4109000000.0 0.9089112599064042 0.506215430572708
4112000000.0 0.911908291679919 0.5073577547421704
4116000000.0 0.9095540034835963 0.5185240066240447
4119000000.0 0.9119251789054348 0.48921772271737707
4122000000.0 0.9044265006293031 0.5103947032412569
4125000000.0 0.9381808840237109 0.48733410751057477
4128000000.0 0.8783941127783906 0.4949922757499723
4131000000.0 0.8941160454162753 0.46663008204557044
4134000000.0 0.9301725380839375 0.5042761290451403
4138000000.0 0.9423731072781985 0.42687101605411987
4141000000.0 0.9235898694736536 0.45659001141289657
4144000000.0 0.9197820984553503 0.46379452272927385
4147000000.0 0.9226157054140134 0.42735337115847155
4150000000.0 0.959103227830269 0.4582822270939155
4153000000.0 0.951789107204252 0.40747738827864244
4156000000.0 0.9649133697100674 0.41601648865928653
4159000000.0 0.9440124721700762 0.3822220149846102
4162000000.0 0.9331230461053959 0.3973761496031859
4166000000.0 0.9456470959938035 0.4057268261373397
4169000000.0 0.9575734699092292 0.3614368839423451
4172000000.0 0.9557806359268863 0.36605253701989465
4175000000.0 0.9768190059649229 0.3643042506911613
4178000000.0 0.9646353971746344 0.3561699226213605
4181000000.0 0.9795978029070638 0.3465246555958016
4184000000.0 0.9533736001963121 0.3257660636310698
4188000000.0 0.9744856006099576 0.3379516184993544
4191000000.0 0.9526806790046131 0.32562140917916343
4194000000.0 0.9726195027799867 0.3092338586478991
4197000000.0 0.9934308104608387 0.31022054269623484
4200000000.0 0.9817717327937006 0.32810597304567657
4203000000.0 0.9958782227344889 0.3048157288200183
4206000000.0 0.9851978927368908 0.29454099399366024
4209000000.0 0.9644851135349926 0.2721164720477806
4212000000.0 0.9698329740607203 0.2360779300994521
4216000000.0 0.9915522810479445 0.26574306233682005
4219000000.0 1.0007137487188147 0.27745686127158165
4222000000.0 1.0100838408397266 0.22481902505751516
4225000000.0 0.9908661640448171 0.2504414779495572
4228000000.0 1.0043023451929685 0.22129217934245313
4231000000.0 1.0032275898828784 0.2053486661398492
4234000000.0 1.0175989099619396 0.20296619191900805
4238000000.0 1.003033489421811 0.1869896487768081
4241000000.0 0.9918579344815557 0.17374650398238112
4244000000.0 0.9920481756584631 0.1934817223044903
4247000000.0 1.0102568906225162 0.172659955701285
4250000000.0 0.9978857094032569 0.15189579245652118
4253000000.0 0.9797169725393795 0.12976547408563172
4256000000.0 1.0235930135794806 0.1285063224008502
4259000000.0 0.9737611066104546 0.10749663729283185
4262000000.0 1.0058925812213693 0.11565283834593901
4266000000.0 1.032419655891406 0.09469012897452037
4269000000.0 1.0109756044458345 0.11464790578107723
4272000000.0 1.011965334037523 0.09607174801266857
4275000000.0 1.0194044647235043 0.09295156240172514
4278000000.0 1.035643310558954 0.0699198885280102
4281000000.0 1.0227719773527957 0.08867234579349263
4284000000.0 1.0258754479268575 0.03497286884962253
4288000000.0 1.0138860341277962 0.06700108240412478
4291000000.0 0.9918259770730208 0.041709239284860075
4294000000.0 1.0218374085074238 0.012031067707988771
4297000000.0 1.003964119224395 0.06483005368805185
4300000000.0 1.0160235508293207 0.02035306570383743
4303000000.0 1.0060158820413203 -0.013917792869745496
4306000000.0 1.032448257436858 0.024804962637750755
4309000000.0 0.9849052858150023 0.0317801675183718
4312000000.0 1.0449035637900264 0.012440633601312923
4316000000.0 1.0372452549622584 -0.01853033463184385
4319000000.0 0.9942958766026732 -0.031029858900509452
4322000000.0 0.9877543051361889 -0.07263632995914915
4325000000.0 1.0281736483343875 -0.0416673416679474
4328000000.0 1.0292091934690109 -0.0625355587223385
4331000000.0 1.0207508891768193 -0.0897613283368731
4334000000.0 1.0327588503794496 -0.09311430846126281
4338000000.0 0.9985136174602074 -0.07021515688714984
4341000000.0 1.0462849980015292 -0.057109079757765774
4344000000.0 1.0301766098244414 -0.07749302952632743
4347000000.0 1.005016628030096 -0.13889692493796746
4350000000.0 0.9700933018884954 -0.11648502486820769
4353000000.0 0.9936027834715944 -0.11069128130472738
4356000000.0 0.9802673229488913 -0.17533866526478636
4359000000.0 0.9545296856839088 -0.13344415359959907
4362000000.0 1.0000437463335008 -0.19850775266749243
4366000000.0 1.0220519399473653 -0.1772192441588419
4369000000.0 0.9743573727812205 -0.17705511361012718
4372000000.0 0.9698931694608517 -0.22327336239962123
4375000000.0 0.9904519009296202 -0.1862889421867354
4378000000.0 0.9702478830013987 -0.19843035952653418
4381000000.0 0.9793395630090469 -0.18960321126568147
4384000000.0 1.0674761964627564 -0.2582945023822279
4388000000.0 0.9715213101216561 -0.20689913171289
4391000000.0 0.9972572276564486 -0.2403960920115683
4394000000.0 0.9563862623899911 -0.2416970937511588
4397000000.0 0.9747532053555696 -0.2628660374963998
4400000000.0 1.014645305468053 -0.2857171791456955
4403000000.0 0.9785567245645425 -0.2965646335143193
4406000000.0 0.9678411683143017 -0.3010156555465546
4409000000.0 1.0113106445790432 -0.31734257113780007
4412000000.0 0.9418222133217619 -0.3486232011543381
4416000000.0 0.938009659264865 -0.3261907875628601
4419000000.0 0.958608732910549 -0.35231486907005116
4422000000.0 0.9564728390236663 -0.30890542551474043
4425000000.0 0.9872514982145594 -0.3176632487204506
4428000000.0 0.9507235389944725 -0.3567380776819685
4431000000.0 0.9668445371186201 -0.34582439536840914
4434000000.0 0.9471596281496465 -0.36462651455377937
4438000000.0 0.9630004950573621 -0.36730824757001224
4441000000.0 0.9685670736937975 -0.3947274479444518
4444000000.0 0.9290779887388019 -0.3817526074360653
4447000000.0 0.9153628380122618 -0.4151107108717648
4450000000.0 0.9136480716381479 -0.3889760901588741
4453000000.0 0.9384304140656904 -0.41796755523579976
4456000000.0 0.9016099824375271 -0.42465257719700233
4459000000.0 0.868873251167491 -0.41725200838618837
4462000000.0 0.9601275405594762 -0.47273652564638835
4466000000.0 0.9508229382916261 -0.4749221154899175
4469000000.0 0.9172490999329879 -0.4371136660476291
4472000000.0 0.9098817259167304 -0.486396169271591
4475000000.0 0.864420078039863 -0.4456645955694585
4478000000.0 0.9194776805350833 -0.5095940588310527
4481000000.0 0.8578180234357743 -0.4953463539070505
4484000000.0 0.8618928351270085 -0.5331036699609066
4488000000.0 0.8681855452901828 -0.5110851377944312
4491000000.0 0.8705488646945445 -0.5213532815205753
4494000000.0 0.8563673084450822 -0.5066760616567114
4497000000.0 0.8583535752683185 -0.5131859421118157
4500000000.0 0.8477154597056511 -0.5393707346491355
4503000000.0 0.8566498022396414 -0.5565450472449966
4506000000.0 0.8403027374523331 -0.5541810636228218
4509000000.0 0.835802066211838 -0.5403773308270144
4512000000.0 0.8133126894801879 -0.5615804505562965
4516000000.0 0.868768372108175 -0.5794548045405026
4519000000.0 0.8117193624988194 -0.577132961484368
4522000000.0 0.8353547274338213 -0.608404104763405
4525000000.0 0.8183523605562335 -0.5870355751895604
4528000000.0 0.8247517080981293 -0.6062801919818301
4531000000.0 0.8143969277291928 -0.6096688039132421
4534000000.0 0.7778602234727133 -0.5989005392087197
4538000000.0 0.793873479967582 -0.6075058607215245
4541000000.0 0.764770534862858 -0.6403505302058391
4544000000.0 0.7636728678105207 -0.6463844156723415
4547000000.0 0.7688741455466139 -0.6335553207432865
4550000000.0 0.7730241214179374 -0.6628948025505058
4553000000.0 0.7607021293375111 -0.6849875602755587
4556000000.0 0.7507382299269911 -0.6737393011996227
4559000000.0 0.7541453793206154 -0.7010155337215376
4562000000.0 0.7615904422946178 -0.6927240766697261
4566000000.0 0.7531464822698457 -0.695123049377798
4569000000.0 0.7148257547336376 -0.6872922695713533
4572000000.0 0.7237009664379954 -0.698476039139887
4575000000.0 0.7207735125858623 -0.7276531267006211
4578000000.0 0.7326460426052486 -0.7366043282086854
4581000000.0 0.6958331547388183 -0.7430430136229784
4584000000.0 0.6805755464402417 -0.7422032887187896
4588000000.0 0.708125404251448 -0.7439744017273398
4591000000.0 0.6840291030394815 -0.7402734840063392
4594000000.0 0.6701573170661459 -0.7627624098646874
4597000000.0 0.6787319934224239 -0.7640521216399677
4600000000.0 0.627381803191545 -0.7628634742187121
4603000000.0 0.6521611165347874 -0.7803479377458421
4606000000.0 0.6623341742610487 -0.796487262217744
4609000000.0 0.6395403133697429 -0.7908449869909707
4612000000.0 0.6436399536735677 -0.799178212564153
4616000000.0 0.6180388848775322 -0.7767516909467291
4619000000.0 0.6314953582815347 -0.7925212061984945
4622000000.0 0.6016077376102816 -0.8106178746157422
4625000000.0 0.5766172253006187 -0.7971059217740534
4628000000.0 0.5986234051607933 -0.8207391618498189
4631000000.0 0.592408053723517 -0.8361115154533102
4634000000.0 0.5774747941176216 -0.8358046653888335
4638000000.0 0.5825554115176604 -0.8353797320652954
4641000000.0 0.5779755917132171 -0.8302836058456107
4644000000.0 0.5564463037654874 -0.8298220870029176
4647000000.0 0.5697993272774499 -0.8542877441345609
4650000000.0 0.5251930165314671 -0.8695960977959748
4653000000.0 0.5577359749188613 -0.8610589446554372
4656000000.0 0.5473905307335254 -0.870777069030106
4659000000.0 0.4882160146879119 -0.8617886508094744
4662000000.0 0.5042026125258281 -0.9003196791528506
4666000000.0 0.5067155979081371 -0.9059702041706811
4669000000.0 0.5039679533004285 -0.8925998638594176
4672000000.0 0.48635277829208995 -0.9073906583550951
4675000000.0 0.48405344203288436 -0.9265111014008242
4678000000.0 0.4589225775219457 -0.8933664558243218
4681000000.0 0.44368001300019294 -0.9130023566441546
4684000000.0 0.45531367508941545 -0.9535523408817367
4688000000.0 0.39574134934998584 -0.9214698841606828
4691000000.0 0.44868717097410005 -0.9133707719519428
4694000000.0 0.4342015016204057 -0.9011278854133227
4697000000.0 0.3894444299539417 -0.9051015960979785
4700000000.0 0.44191601885138077 -0.9216835018568292
4703000000.0 0.43736045223753073 -0.8963805203846154
4706000000.0 0.375337013779251 -0.9385743617175367
4709000000.0 0.3629912766663014 -0.9354432409077788
4712000000.0 0.4045847668994722 -0.9490664391826089
4716000000.0 0.37938038579336497 -0.9545278417680245
4719000000.0 0.3956748483426471 -0.94835300755326
4722000000.0 0.38233770667919387 -0.9699161145770054
4725000000.0 0.31747247873604933 -0.9764415528344491
4728000000.0 0.3312526166773841 -0.9513243786478447
4731000000.0 0.36987509686064 -0.976084430252556
4734000000.0 0.3322090656167959 -0.9632367584625958
4738000000.0 0.36941302931368947 -0.9987814589771967
4741000000.0 0.2859841632676644 -0.998041690184213
4744000000.0 0.23507948287218688 -0.9913287106894275
4747000000.0 0.2963351614049474 -0.9635844810264764
4750000000.0 0.30811262488327146 -1.0063556010291372
4753000000.0 0.2690709122413288 -0.9881710783566527
4756000000.0 0.2537229049800398 -0.9961329585866057
4759000000.0 0.2593342124883614 -1.0015938512917215
4762000000.0 0.2230709421239013 -1.0344430544183254
4766000000.0 0.23900655307970667 -1.025528154576582
4769000000.0 0.22996443960435298 -1.0155766480464172
4772000000.0 0.24082537540206686 -1.0018753231161721
4775000000.0 0.18563253573078392 -1.0372750615943562
4778000000.0 0.18157710150786768 -0.9995229876006165
4781000000.0 0.20827453583378902 -0.9993652118721483
4784000000.0 0.20291315278045957 -1.0005697202806774
4788000000.0 0.16378264671868417 -1.013067624099956
4791000000.0 0.14772601697178867 -1.0089712335588765
4794000000.0 0.19698023040052542 -1.0363252452421012
4797000000.0 0.12426910564927712 -1.0070732704147163
4800000000.0 0.14737271212370223 -1.0094307553743591
4803000000.0 0.07941510428637386 -0.9993170436765266
4806000000.0 0.11661566642057358 -1.0302500197514466
4809000000.0 0.06242872831084144 -1.0365823567520152
4812000000.0 0.051745835582034314 -1.0004708220423764
4816000000.0 0.11656183327834374 -0.9728506298352648
4819000000.0 0.11079639701352528 -1.0627937211480716
4822000000.0 0.09191696868742497 -1.0566655263784526
4825000000.0 0.08867344739049696 -1.0586304932204198
4828000000.0 0.0627921685171292 -1.0203829349662525
4831000000.0 0.0028619876230717017 -1.0549655203975932
4834000000.0 0.06897015973457125 -1.047524341637221
4838000000.0 0.006971176173897323 -1.0430628059056035
4841000000.0 0.002768663454458531 -1.0127436897806144
4844000000.0 0.029920916773620423 -1.0550234351340768
4847000000.0 0.014664934377492875 -0.988299764728853
4850000000.0 -0.025961664183553473 -1.060297843082687
4853000000.0 -0.01534033549204887 -0.9898613664482048
4856000000.0 -0.020854744663869162 -1.034209005414063
4859000000.0 -0.039602194001106684 -1.058664155370162
4862000000.0 -0.016585728571753403 -1.000928978335106
4866000000.0 -0.068796849312763 -1.0345612250868206
4869000000.0 -0.05227099256986907 -1.0430739887400484
4872000000.0 -0.09395330432536819 -1.0528375527345237
4875000000.0 -0.021119356764771405 -1.0693589032219368
4878000000.0 -0.07127866826826226 -1.01080324814673
4881000000.0 -0.13151099236062122 -1.088460144345941
4884000000.0 -0.07961328428929636 -1.0401261801229502
4888000000.0 -0.09419817781269176 -1.0136812672284927
4891000000.0 -0.1062872335273321 -1.064377779779275
4894000000.0 -0.12949119515055735 -1.0253996332761568
4897000000.0 -0.09488018887026076 -1.0353484800010795
4900000000.0 -0.11844579325583816 -1.0315117934555544
4903000000.0 -0.15348524946810757 -1.0505029431554493
4906000000.0 -0.18434428673036013 -1.0641212747991395
4909000000.0 -0.18387882613588916 -1.0279848289787883
4912000000.0 -0.20087585336398261 -1.02966898937135
4916000000.0 -0.185028952798675 -1.0375122833387753
4919000000.0 -0.1516951861907171 -1.0369539960853105
4922000000.0 -0.18662853374287638 -1.0164146851851636
4925000000.0 -0.2510160113229418 -0.9995368246546976
4928000000.0 -0.17998948537264314 -1.0056199857035013
4931000000.0 -0.24329751638280667 -1.0187678105663955
4934000000.0 -0.21472158883728765 -0.9668780790621367
4938000000.0 -0.2579035175460645 -0.9705882861282047
4941000000.0 -0.2464075278226504 -0.9714655903731935
4944000000.0 -0.1849350112559238 -0.9586036314012716
4947000000.0 -0.24585479258166618 -0.9882136615333802
4950000000.0 -0.28364105853484817 -0.9638234032770009
4953000000.0 -0.35071818608077376 -1.026458389197162
4956000000.0 -0.30607658524161674 -0.9583117231366639
4959000000.0 -0.338505786306311 -0.9324614269866942
4962000000.0 -0.35812180152098405 -1.0070140832664154
4966000000.0 -0.3110465014142763 -1.0089763445691216
4969000000.0 -0.3138649602080986 -1.0341763491753233
4972000000.0 -0.3139215274663686 -1.0002478173932718
4975000000.0 -0.30362504807278257 -0.9772378928952076
4978000000.0 -0.3791579951377497 -0.9838956219985324
4981000000.0 -0.3795396103153168 -0.9849908665941675
4984000000.0 -0.3893011906420515 -0.9463688517206752
4988000000.0 -0.4129396536410043 -0.9602679891919296
4991000000.0 -0.35357778952411695 -0.9874858152777306
4994000000.0 -0.38797768040343894 -0.9634329184309524
4997000000.0 -0.44765488761127753 -0.9599412291268035
5000000000.0 -0.4124260278805628 -0.9906360788708759
5003000000.0 -0.43600548103693554 -0.9886930663634248
5006000000.0 -0.44477168871748485 -0.9964794527853738
5009000000.0 -0.4263477434702987 -0.9403502824275355
5012000000.0 -0.46001326930493397 -0.9206763500963917
5016000000.0 -0.42690967471257407 -0.9718842230640683
5019000000.0 -0.4894815057647611 -0.9245520121734779
5022000000.0 -0.4901094322946681 -0.9477574438354137
5025000000.0 -0.48782034181282136 -0.9904005834201484
5028000000.0 -0.511798671161812 -0.9000818464959286
5031000000.0 -0.4968198101460646 -0.9264331175442374
5034000000.0 -0.5577888890437962 -0.8998076599052904
5038000000.0 -0.5061763761943705 -0.8779629152958589
5041000000.0 -0.49699758713728737 -0.9282663600718252
5044000000.0 -0.46709871584794915 -0.9211800107742601
5047000000.0 -0.5387097006711457 -0.9257417003750349
5050000000.0 -0.4929288539262152 -0.9364445447005889
5053000000.0 -0.5913367009857716 -0.9102751056271661
5056000000.0 -0.5280551062750319 -0.892926892178862
5059000000.0 -0.5279122732249542 -0.9260320487885968
5062000000.0 -0.6337848126041278 -0.860831981182643
5066000000.0 -0.5496185539234472 -0.8819675203735484
5069000000.0 -0.5759775349783189 -0.8851023177540857
5072000000.0 -0.5466449667314577 -0.8673069091515375
5075000000.0 -0.5625957167196528 -0.8531783784414804
5078000000.0 -0.6095496117070609 -0.812312351467516
5081000000.0 -0.6004891137956724 -0.7971951087476228
5084000000.0 -0.6446468285896807 -0.8462059998687179
5088000000.0 -0.6207446073820562 -0.9015797265047323
5091000000.0 -0.6574627377065316 -0.823122795391835
5094000000.0 -0.65049099541458 -0.8144864613805644
5097000000.0 -0.644205378423318 -0.7951594961030777
5100000000.0 -0.6556607370558576 -0.7846054524893938
5103000000.0 -0.6460813209964335 -0.7831028486543907
5106000000.0 -0.6999729224191755 -0.8287152399963962
5109000000.0 -0.632271428563979 -0.8332802180137149
5112000000.0 -0.704464148206264 -0.7492033795002946
5116000000.0 -0.701937386358037 -0.750334367802805
5119000000.0 -0.7222111748257133 -0.7722675272433261
5122000000.0 -0.675700803144893 -0.7728372959434662
5125000000.0 -0.6991814491296778 -0.7663739782402254
5128000000.0 -0.7570098795505825 -0.7614166639339166
5131000000.0 -0.7590035908749706 -0.8031342693468959
5134000000.0 -0.701572233548595 -0.7611176904308297
5138000000.0 -0.7237771439471683 -0.7859735515755114
5141000000.0 -0.7144344644695035 -0.784214327669692
5144000000.0 -0.722835739469709 -0.7821628280664115
5147000000.0 -0.7576276786906622 -0.7376048700024249
5150000000.0 -0.7519647774708574 -0.7608617788926002
5153000000.0 -0.7867499102212676 -0.7548293491986419
5156000000.0 -0.74808987628488 -0.7547105968785953
5159000000.0 -0.7608330759633202 -0.7284082497025027
5162000000.0 -0.7996659255072325 -0.6765933580600176
5166000000.0 -0.7967494368092783 -0.665381391139998
5169000000.0 -0.7848228171592164 -0.7278623788321973
5172000000.0 -0.7917169137089499 -0.6513971618750469
5175000000.0 -0.7975696362831306 -0.7098992182861079
5178000000.0 -0.8499055754199123 -0.697416971027024
5181000000.0 -0.8311629550234515 -0.6569739696651513
5184000000.0 -0.7848091493068724 -0.6420449598265502
5188000000.0 -0.8343913702196767 -0.6278314128986736
