! Created with skrf 1.8.0 (http://scikit-rf.org).
# Hz S RI R 50.0 
!freq ReS11 ImS11
4000000000.0 0.6476787861738236 0.7876050511882919
4003000000.0 0.7235164771546064 0.7469957182786334
4006000000.0 0.7436051223439121 0.7514362859318814
4009000000.0 0.6982730379151784 0.77478571284911
4012000000.0 0.6907971990831191 0.8347474087053356
4016000000.0 0.7586952516533375 0.7478822140803374
4019000000.0 0.7402600556090972 0.7322007096881014
4022000000.0 0.6939654908702992 0.7904373898776668
4025000000.0 0.7676576039234007 0.7423807463838973
4028000000.0 0.7739092417376694 0.7457016478520992
4031000000.0 0.7335359253679644 0.7450028695034843
4034000000.0 0.7477127707523268 0.7311345988941891
4038000000.0 0.777546215470166 0.6857538884395681
4041000000.0 0.7721591379757667 0.7031338547979827
4044000000.0 0.8427102213554081 0.7581066150485162
4047000000.0 0.795861042802922 0.7432245154051568
4050000000.0 0.8299048476395231 0.6996492175269236
4053000000.0 0.7884744035964405 0.671221345102512
4056000000.0 0.8047646272414012 0.6997005592704237
4059000000.0 0.758769229055216 0.6938643837664704
4062000000.0 0.8121327562665845 0.6579492669801328
4066000000.0 0.7147072055403034 0.6149759976788174
4069000000.0 0.885613253661865 0.6533466561860208
4072000000.0 0.7962122274774743 0.6700571881031367
4075000000.0 0.8114211406418823 0.658289949106708
4078000000.0 0.8478920540321537 0.6360506793314427
4081000000.0 0.8641495825568904 0.677277610559646
4084000000.0 0.8634042623912241 0.5825520872690797
4088000000.0 0.8233580509814107 0.6113352243667651
4091000000.0 0.9110771357052597 0.6859249791013686
4094000000.0 0.8143114538906068 0.6054399228858826
4097000000.0 0.8731477857648584 0.6096980000251271
4100000000.0 0.8823493158206052 0.5470833536715902
4103000000.0 0.8892562380544236 0.5864419618057328
4106000000.0 0.9101015723401759 0.5734806888399178
4109000000.0 0.8921544518508329 0.5193838069028367
4112000000.0 0.8993640385260584 0.5576123547715819
4116000000.0 0.8606903758667145 0.5733804518558862
4119000000.0 0.9340055464679397 0.50644494652454
4122000000.0 0.9122652737643424 0.4918689840082975
4125000000.0 0.924267841011659 0.4994583090172861
4128000000.0 0.8949351988138011 0.5196903438377611
4131000000.0 0.9208894204947335 0.46018215649053384
4134000000.0 0.89163341739997 0.5048272093956395
4138000000.0 0.914065780965261 0.47360122846770086
4141000000.0 0.9255134595170281 0.492765349888861
4144000000.0 0.903720224267757 0.5051710281992285
4147000000.0 0.9212714640506754 0.4665650478491011
4150000000.0 1.0337572653224336 0.4802806703778633
4153000000.0 0.9524358768964202 0.43817045876207483
4156000000.0 0.9788169042168504 0.44069831922000524
4159000000.0 0.9347381331721527 0.44725593653310364
4162000000.0 0.939384680256236 0.4204303870588496
4166000000.0 0.9535938394130881 0.4040971703930959
4169000000.0 0.9678870615999848 0.37713149145974434
4172000000.0 0.9523551586347142 0.4313433964514289
4175000000.0 0.9779135973600611 0.4033489147786005
4178000000.0 0.985623368339408 0.40667567608491495
4181000000.0 0.9802813196768017 0.36844671636214665
4184000000.0 0.9535276798386509 0.37295436436890267
4188000000.0 0.9852000053587089 0.3544380059984832
4191000000.0 0.9632037703285259 0.3715512826775332
4194000000.0 0.9610090631396453 0.3542423602193264
4197000000.0 0.9745260501147156 0.3479239605808048
4200000000.0 0.967881428864906 0.3436055622576456
4203000000.0 0.9610385806589051 0.3538808100853865
4206000000.0 0.9893460044638328 0.32484583161360364
4209000000.0 0.9851579025787934 0.3120893882610774
4212000000.0 0.9878645004408915 0.2634357433158848
4216000000.0 0.9791203813409726 0.3142536210319808
4219000000.0 1.0024785670187286 0.28865025384846366
4222000000.0 0.9912470325836376 0.24842530852542338
4225000000.0 0.9864064711999561 0.2760046581934317
4228000000.0 1.0001598259883278 0.26100544905341183
4231000000.0 1.005570146094203 0.25323796353534045
4234000000.0 1.0124875561569397 0.2490840522607336
4238000000.0 1.0161592057205058 0.205654018118153
4241000000.0 0.989098484563671 0.19780489273127
4244000000.0 0.999560421857443 0.21057985385030797
4247000000.0 0.99346741446638 0.20734457120068506
4250000000.0 0.9723635565086601 0.18428973531083725
4253000000.0 0.9867787690852368 0.18124977280843863
4256000000.0 1.026498317632788 0.1791585949545083
4259000000.0 0.9701004033982121 0.13497373472950622
4262000000.0 1.025891882576854 0.1553974887223096
4266000000.0 1.0265676531856482 0.10975334075076745
4269000000.0 1.0392772360930889 0.14229628962072113
4272000000.0 1.0111119006703446 0.1304962026422733
4275000000.0 1.0155542132086472 0.12554463957316325
4278000000.0 1.0351320172270662 0.10775001332866427
4281000000.0 1.0234539539440435 0.13340321957279633
4284000000.0 1.05520440422965 0.061324903487704835
4288000000.0 1.0432410493670592 0.11886275239668465
4291000000.0 1.002614076171668 0.07323242811700255
4294000000.0 1.0028530032396787 0.09571852785101477
4297000000.0 1.0167580783567454 0.08426289463849833
4300000000.0 1.0035566065737613 0.04972368721728954
4303000000.0 1.0164272120031126 0.03189518350070866
4306000000.0 1.041588621142292 0.06417891719458588
4309000000.0 1.030833264461989 0.03340763693258031
4312000000.0 1.0524681450464142 0.06031068592101457
4316000000.0 1.0363766449303564 0.05521642068713488
4319000000.0 1.016765225009612 0.024027260447317345
4322000000.0 0.9996261408331443 -0.0500020213827607
4325000000.0 1.0344735693377487 -0.0004723187251465255
4328000000.0 1.0315131253257916 -0.01670180670812925
4331000000.0 1.0298334635348514 -0.06920233308978532
4334000000.0 1.0155593196962094 -0.05030588283325618
4338000000.0 1.0217527312701977 -0.03249595258779814
4341000000.0 1.031568517152234 -0.030603831168349013
4344000000.0 1.040025534476086 -0.04765401878587272
4347000000.0 1.0170710888391155 -0.10974278202249703
4350000000.0 0.983905569555179 -0.0901505104279733
4353000000.0 1.012229031562353 -0.0716966030863573
4356000000.0 0.9980525055379641 -0.10942100275223215
4359000000.0 0.9887123593544815 -0.10606971562385782
4362000000.0 1.0171902406567577 -0.16712792242834656
4366000000.0 1.0184507849075213 -0.14318497400547114
4369000000.0 0.9756355687811199 -0.13239864242478888
4372000000.0 0.9932710359646113 -0.19770331727904342
4375000000.0 0.9937148423132252 -0.13866879243770783
4378000000.0 0.9912539873915104 -0.16503225713357728
4381000000.0 0.9862121322646786 -0.16455990147559854
4384000000.0 1.078992086026985 -0.2113937584817402
4388000000.0 0.9830625658268287 -0.1653400556351783
4391000000.0 0.9967846570422993 -0.18597129211406038
4394000000.0 0.975630693635423 -0.2056379341336396
4397000000.0 0.9824934852219667 -0.2168132674491449
4400000000.0 1.0126740462517072 -0.25154551995435204
4403000000.0 1.0081075680442455 -0.2399952394741096
4406000000.0 0.9828882465737416 -0.2738120092976549
4409000000.0 1.0138069895778559 -0.2604537444727995
4412000000.0 0.9670051762160602 -0.31019399420598787
4416000000.0 0.9770684258788076 -0.28782252714986734
4419000000.0 0.9797708334382172 -0.29438997787942567
4422000000.0 0.9692931415657002 -0.2740107432060554
4425000000.0 1.0064878268392217 -0.28007613583097535
4428000000.0 0.965722801015985 -0.30734595433867495
4431000000.0 0.9972351685303709 -0.31329007630045624
4434000000.0 0.940081831030211 -0.3207034002274096
4438000000.0 0.9837662907567486 -0.3347729509396079
4441000000.0 0.967895387763601 -0.34747015103089557
4444000000.0 0.944104046228365 -0.3426526090836442
4447000000.0 0.9503376153731553 -0.3750014050714613
4450000000.0 0.9366149009625424 -0.3572059699478257
4453000000.0 0.9741546858465504 -0.3799329589200269
4456000000.0 0.9114943318058727 -0.3685972467277169
4459000000.0 0.8936392196891194 -0.3919047118049307
4462000000.0 0.974166051714084 -0.4401334880945832
4466000000.0 0.9568694528200595 -0.4368984979133843
4469000000.0 0.9437156335967802 -0.3995168634700926
4472000000.0 0.9466134545432333 -0.4451148917300058
4475000000.0 0.8990251261758655 -0.4199011543668453
4478000000.0 0.9479461339795447 -0.48011611167011925
4481000000.0 0.8847562518283384 -0.45591181122314217
4484000000.0 0.8836057223186691 -0.4947146678043024
4488000000.0 0.8828254387991198 -0.47466642582609814
4491000000.0 0.9028994453212761 -0.4817458197183048
4494000000.0 0.881845465760678 -0.4786207124038484
4497000000.0 0.8928792731149477 -0.47235280080860936
4500000000.0 0.8979262575687528 -0.4816602657369558
4503000000.0 0.9189818304657511 -0.5247444806737884
4506000000.0 0.8684291264589785 -0.5212616483838649
4509000000.0 0.8565686746934247 -0.518444065997361
4512000000.0 0.8352846436292061 -0.5312443673733481
4516000000.0 0.892794905399763 -0.5674139133804917
4519000000.0 0.8653678259976857 -0.5213811589999406
4522000000.0 0.8496051840953236 -0.5625908486162069
4525000000.0 0.8694208134121193 -0.5507570942477537
4528000000.0 0.867219474773971 -0.5736179341370082
4531000000.0 0.8488281642103624 -0.5563261959014184
4534000000.0 0.819209639503172 -0.5820716840882922
4538000000.0 0.8443397959742307 -0.5915967599817236
4541000000.0 0.7922887349233313 -0.6156144541733369
4544000000.0 0.8011318434046009 -0.5784616645213284
4547000000.0 0.8135075830978937 -0.6036918218260594
4550000000.0 0.809813829249465 -0.646099551440801
4553000000.0 0.8039743161585768 -0.6187811637519656
4556000000.0 0.7767163898944254 -0.6538188724248138
4559000000.0 0.7747781576427099 -0.6628258252694355
4562000000.0 0.790780846480386 -0.6670702154555523
4566000000.0 0.7784448325674327 -0.6781685149794139
4569000000.0 0.7576099312162103 -0.6587712192022801
4572000000.0 0.7712288046851472 -0.6632648171826845
4575000000.0 0.7473181364666295 -0.6918834385424446
4578000000.0 0.778912378267268 -0.6980253312428705
4581000000.0 0.7486945884867143 -0.7202963054070286
4584000000.0 0.7295093304183321 -0.699133831815755
4588000000.0 0.7674120767987075 -0.7106845423004903
4591000000.0 0.7436781846981068 -0.7001070895393637
4594000000.0 0.6992284347682397 -0.7441009686230239
4597000000.0 0.7038215588487498 -0.7383343595714197
4600000000.0 0.6830970432439187 -0.7232013091099836
4603000000.0 0.6947733606698663 -0.7571249222538263
4606000000.0 0.7055085422487882 -0.7570483755625158
4609000000.0 0.6943672919941123 -0.7595443087788417
4612000000.0 0.68763712352642 -0.7576407692396958
4616000000.0 0.6656863987261197 -0.7664871436890298
4619000000.0 0.6782497343167496 -0.7684432270488702
4622000000.0 0.6475587690742303 -0.7780318665589788
4625000000.0 0.6284655933816212 -0.7772263579418313
4628000000.0 0.6555092362526187 -0.7777878793660024
4631000000.0 0.6283393139096596 -0.8081817745796176
4634000000.0 0.6310168362916692 -0.7869243156452544
4638000000.0 0.6296834225926506 -0.807331884828687
4641000000.0 0.6062701158595606 -0.8063184072442989
4644000000.0 0.6073803316744346 -0.8155327837312193
4647000000.0 0.6016910057797602 -0.8209266372339402
4650000000.0 0.5973631381606622 -0.8310324196918011
4653000000.0 0.5979978648130837 -0.8333055019340285
4656000000.0 0.5716947045404156 -0.8687245551561884
4659000000.0 0.5475610035845239 -0.8579941350068077
4662000000.0 0.5789791936021875 -0.8678978996762411
4666000000.0 0.5400950226230018 -0.8486956652230573
4669000000.0 0.5547499914316172 -0.865057566441812
4672000000.0 0.5368042209299146 -0.8809418952951105
4675000000.0 0.5279932105309029 -0.8927173728252145
4678000000.0 0.5250044880610708 -0.8564295309375232
4681000000.0 0.5037470238335409 -0.9181418619260494
4684000000.0 0.47013168146959605 -0.9054993045241202
4688000000.0 0.475746704797462 -0.8819769240381955
4691000000.0 0.5096859457846101 -0.8900082070060589
4694000000.0 0.4846615002136142 -0.8885393086439264
4697000000.0 0.4276422163337752 -0.8707256161254371
4700000000.0 0.4877005130061479 -0.8825964152534271
4703000000.0 0.46646977547003504 -0.8752387672562518
4706000000.0 0.4437163223337758 -0.9360179027197721
4709000000.0 0.43162273685349206 -0.9220523206755151
4712000000.0 0.43341777851484753 -0.9365846791396293
4716000000.0 0.42851322509473655 -0.929268246933542
4719000000.0 0.4530721974465096 -0.9077476548549912
4722000000.0 0.4444069024333154 -0.9492406739411012
4725000000.0 0.4366213135890615 -0.9608142478371341
4728000000.0 0.4245596947388348 -0.951218569125621
4731000000.0 0.414857381557519 -0.9847115712423495
4734000000.0 0.3896849833394608 -0.9226170234768725
4738000000.0 0.44134594128659266 -1.0114828486079885
4741000000.0 0.3657236006647321 -0.960633366872512
4744000000.0 0.371311383973268 -0.976398521592558
4747000000.0 0.367798428638843 -0.9289809392457569
4750000000.0 0.3470437262176334 -0.9860710263493316
4753000000.0 0.34801780693098666 -0.9789671676197573
4756000000.0 0.3175359142905746 -0.9906326475139642
4759000000.0 0.3451804174440855 -1.0042682516897075
4762000000.0 0.2751394413650014 -1.0211078866589864
4766000000.0 0.3136102547884561 -0.9953790716167256
4769000000.0 0.27863934275513524 -0.9808347967791918
4772000000.0 0.31132192405413045 -1.0070107059503
4775000000.0 0.24934854372501222 -1.016086969820566
4778000000.0 0.2594387025884598 -1.0193987440625005
4781000000.0 0.2705378593392307 -0.9630447116219887
4784000000.0 0.29829248111310414 -0.9996278834115052
4788000000.0 0.22767847636102936 -1.0498218930003587
4791000000.0 0.22947499564701387 -0.9965693235306082
4794000000.0 0.2504969766949737 -1.0376136750667646
4797000000.0 0.20903879065776432 -0.9923818895374178
4800000000.0 0.18905936592352815 -0.977569918488209
4803000000.0 0.14759752692141828 -1.0477490577264617
4806000000.0 0.18014316155490168 -1.0410208862915766
4809000000.0 0.12298225240749888 -1.0148055389833697
4812000000.0 0.13444776518802265 -1.010463848955989
4816000000.0 0.15690267792481752 -0.9924357839785134
4819000000.0 0.18125676782645456 -1.0432878197837732
4822000000.0 0.15835258425037294 -1.0568945563170322
4825000000.0 0.16430683874881966 -1.0641288835877185
4828000000.0 0.1284893696019675 -1.048980740392893
4831000000.0 0.06468619605407298 -1.0499963093807863
4834000000.0 0.15536879732201556 -1.040608792590559
4838000000.0 0.05792712769138898 -1.036831928566412
4841000000.0 0.06949988394365805 -1.0235992332820838
4844000000.0 0.11924276540598847 -1.022782011795103
4847000000.0 0.08794971802227985 -1.0078740874883254
4850000000.0 0.05478320062219816 -1.0529544801693667
4853000000.0 0.05994820029393788 -1.013886986955682
4856000000.0 0.03138537223554643 -1.021967305132346
4859000000.0 0.031621134484268565 -1.085464876719302
4862000000.0 0.0411706771785018 -1.015755749522962
4866000000.0 0.016113461003550156 -1.0618253073696255
4869000000.0 0.005210561648859774 -1.0395593272618466
4872000000.0 -0.046038959563507766 -1.076205051060822
4875000000.0 0.03306597389300483 -1.0737093139367075
4878000000.0 4.773943877021264e-05 -1.0312152912191843
4881000000.0 -0.04426572324366903 -1.1239453714678218
4884000000.0 -0.0014891461129202255 -1.015205555174569
4888000000.0 -0.03931010973187567 -1.0403759733621314
4891000000.0 -0.00592388436299901 -1.0591335800619648
4894000000.0 -0.051592917267298734 -1.0344721734249145
4897000000.0 -0.03128505047965821 -1.003198358100266
4900000000.0 -0.06166798006868242 -1.0715101946580747
4903000000.0 -0.054327937509695785 -1.063396802469564
4906000000.0 -0.08535725026846226 -1.0807205203541688
4909000000.0 -0.10628974027461247 -1.060022051010565
4912000000.0 -0.10392720707969975 -1.0686522979801216
4916000000.0 -0.11518552538096907 -1.0594641873480979
4919000000.0 -0.11242383755599265 -1.0627994139051364
4922000000.0 -0.12292833551019927 -1.062033837345892
4925000000.0 -0.19221249971430027 -1.0165752591132216
4928000000.0 -0.09545850967107404 -1.0225600940179147
4931000000.0 -0.10471369749122851 -1.07497475882674
4934000000.0 -0.12866950624463674 -1.0027414281792866
4938000000.0 -0.20383248189172332 -1.0045759825808434
4941000000.0 -0.17690789657094314 -0.9908571461991874
4944000000.0 -0.14921633380667673 -1.0002950795215704
4947000000.0 -0.19200015917736266 -1.0064829434485931
4950000000.0 -0.2166630925803622 -1.025602143475411
4953000000.0 -0.2813245835487811 -1.074765230368956
4956000000.0 -0.251259511380024 -1.0140399767143573
4959000000.0 -0.26401675704215366 -0.9587369652824465
4962000000.0 -0.2512588433458489 -1.0875067164551948
4966000000.0 -0.21922452730063136 -1.068710796427749
4969000000.0 -0.23449742193625805 -1.0453023955031446
4972000000.0 -0.27672929264689505 -0.9943090379643146
4975000000.0 -0.2530166601351489 -1.013709218763626
4978000000.0 -0.27482128838915476 -1.0027048662023972
4981000000.0 -0.31323309871733396 -1.0164188740723856
4984000000.0 -0.3041835071463753 -0.9740466281869848
4988000000.0 -0.3068492268388026 -0.9759155215437305
4991000000.0 -0.26920208763943915 -1.058801258065159
4994000000.0 -0.3370384165736712 -1.0106835007505954
4997000000.0 -0.36482795934401263 -0.999141846282463
5000000000.0 -0.33451846566487875 -1.0411231232316356
5003000000.0 -0.3431289197062341 -0.9943738945113171
5006000000.0 -0.3772066016959331 -1.059821896837204
5009000000.0 -0.3856898038762241 -0.9822362066409697
5012000000.0 -0.3795227513901301 -0.973842861424187
5016000000.0 -0.3792468174410813 -1.0143200025733188
5019000000.0 -0.4113738244849462 -0.9630034812992354
5022000000.0 -0.41371916097324857 -0.9579067809882209
5025000000.0 -0.4356722165312847 -1.0311160910442387
5028000000.0 -0.45729165194285004 -0.9854284112253135
5031000000.0 -0.41930330474047106 -0.9709725831499102
5034000000.0 -0.4677804546195501 -0.9773691409175369
5038000000.0 -0.47342756148028253 -0.9233874372372437
5041000000.0 -0.3956442852899441 -0.9491485099390268
5044000000.0 -0.41870236279169704 -0.9492971432540193
5047000000.0 -0.44463904673747484 -0.9532722475342169
5050000000.0 -0.38075647810436386 -0.9642209972723286
5053000000.0 -0.4945624813753746 -0.9743725684388964
5056000000.0 -0.4460102818093036 -0.9696557799454806
5059000000.0 -0.45060681554842813 -0.9547052819585203
5062000000.0 -0.5156602930546517 -0.9406001770627677
5066000000.0 -0.47523124362353963 -0.9245714585025457
5069000000.0 -0.5060836173951639 -0.9550777973110706
5072000000.0 -0.5115604491458806 -0.8899893517001893
5075000000.0 -0.4375231674267964 -0.9257048334975073
5078000000.0 -0.5785078721072698 -0.9066174498297179
5081000000.0 -0.5660410380809154 -0.8115799771564834
5084000000.0 -0.5504152229489851 -0.8934345696218078
5088000000.0 -0.5090960480093479 -0.8846580343299559
5091000000.0 -0.6358958239130679 -0.8732773275357848
5094000000.0 -0.5907322833446588 -0.88167959255581
5097000000.0 -0.5485298529140207 -0.8938228163664896
5100000000.0 -0.5684589823811318 -0.8374796700208492
5103000000.0 -0.6089569750011368 -0.8789880712973307
5106000000.0 -0.5851715113440283 -0.9449355338604866
5109000000.0 -0.584731871147605 -0.8558767492379213
5112000000.0 -0.6356827343163521 -0.8410859675301754
5116000000.0 -0.5731982433312446 -0.8596938399527168
5119000000.0 -0.6265690492427192 -0.8279019200553484
5122000000.0 -0.6283715348281369 -0.8268339166117649
5125000000.0 -0.5857427876607337 -0.8641338961241479
5128000000.0 -0.6350290814968644 -0.8410179956629642
5131000000.0 -0.6645306470603239 -0.8351339297088084
5134000000.0 -0.6752901418782442 -0.80512760877959
5138000000.0 -0.65086731826436 -0.7903957356630581
5141000000.0 -0.6530357133005762 -0.8560729917632979
5144000000.0 -0.698777557736877 -0.8310953901739696
5147000000.0 -0.6906498084136672 -0.8610458911279709
5150000000.0 -0.642914710082463 -0.8090591242217114
5153000000.0 -0.7170061561351773 -0.8101862181051781
5156000000.0 -0.6706156997486402 -0.7848947011768487
5159000000.0 -0.749975740718705 -0.8186988569978426
5162000000.0 -0.7120125496959959 -0.7252643830002614
5166000000.0 -0.7437253286799328 -0.7891392638122714
5169000000.0 -0.771825501025303 -0.7512453637958625
5172000000.0 -0.6978921977933199 -0.764200631917198
5175000000.0 -0.7741751496043937 -0.8069835991752876
5178000000.0 -0.7567018579850389 -0.739740104010837
5181000000.0 -0.7743010432098555 -0.7618580195978675
5184000000.0 -0.7315543594035641 -0.6880456418708657
5188000000.0 -0.7595068564224045 -0.7609723680722503
5191000000.0 -0.7608027267904985 -0.6870348987917805
