! Created with skrf 1.8.0 (http://scikit-rf.org).
# Hz S RI R 50.0 
!freq ReS11 ImS11
4000000000.0 1.0099913574326402 0.18219551241320914
4003000000.0 1.0016712534492322 0.1771271871772129
4006000000.0 1.0234860151979723 0.14677218271496878
4009000000.0 1.032569535401525 0.11808516444830905
4012000000.0 1.0147535918456378 0.14199145688317558
4016000000.0 1.0163052218640114 0.07551504453251381
4019000000.0 0.9494373636543059 0.10797271929220173
4022000000.0 1.0490860733791532 0.07687112818937772
4025000000.0 1.0211261994469651 0.027924046540966224
4028000000.0 1.0214649612046651 0.021534694294354978
4031000000.0 1.0194105830839928 0.01558441339479466
4034000000.0 0.9758156729707443 -0.010845688753160998
4038000000.0 1.0042383359996123 -0.012408897100498278
4041000000.0 0.9968455145271176 -0.023565334413259864
4044000000.0 1.0199186485630778 -0.0014001051424987754
4047000000.0 1.03228249783392 -0.052074957057411275
4050000000.0 1.0030144148088602 -0.027624299886251674
4053000000.0 1.0037711569255696 -0.07757118267803366
4056000000.0 0.9835873971683505 -0.061666382750408255
4059000000.0 0.9659271769138875 -0.125969274437501
4062000000.0 1.0145080165052047 -0.10655151780135862
4066000000.0 0.9908978769230292 -0.12629594685157974
4069000000.0 0.9962269727250954 -0.203345942960273
4072000000.0 0.9589762411592674 -0.19955883152303702
4075000000.0 1.0220500844670521 -0.2005891702004907
4078000000.0 0.9774830565670226 -0.20353520253733454
4081000000.0 0.9790605581214216 -0.25755975812156695
4084000000.0 0.9666553491384541 -0.2666852632892533
4088000000.0 0.9655458479593565 -0.25537061548031514
4091000000.0 0.9717264339308055 -0.2509624656655855
4094000000.0 0.9546279830947776 -0.30234298164723705
4097000000.0 0.943960505326859 -0.2998018612878272
4100000000.0 0.9240394091749402 -0.30122507715260627
4103000000.0 0.9633554797024593 -0.3354130254793731
4106000000.0 0.9622637156432672 -0.3810642514120819
4109000000.0 0.9707448129739562 -0.36598597627354684
4112000000.0 0.9098085574387851 -0.3821980653428486
4116000000.0 0.9187968658910627 -0.43354073196094023
4119000000.0 0.9200693900721328 -0.4091912318781665
4122000000.0 0.8765591225648331 -0.4604765799595671
4125000000.0 0.8856264696897885 -0.45318328485423076
4128000000.0 0.8675590169925951 -0.4547212673453609
4131000000.0 0.8608009204836088 -0.5047236617550858
4134000000.0 0.852241801314089 -0.5033592137464068
4138000000.0 0.8459026151245437 -0.5169989093897395
4141000000.0 0.8608794645385929 -0.5126458816955319
4144000000.0 0.8515381506463852 -0.5345323559848283
4147000000.0 0.8487599950393708 -0.5693971011265412
4150000000.0 0.8107746622354653 -0.603687266284799
4153000000.0 0.8002658806326949 -0.5673149491659879
4156000000.0 0.808567132420581 -0.6038779050516194
4159000000.0 0.7583378874711451 -0.6181639327348317
4162000000.0 0.7691289071563099 -0.634596370119543
4166000000.0 0.7712861452558275 -0.6768384115192353
4169000000.0 0.7096429546443624 -0.6813127610599771
4172000000.0 0.7252777972121264 -0.6831524068747157
4175000000.0 0.740931957145245 -0.7096843450155044
4178000000.0 0.716673011213672 -0.7170110443028149
4181000000.0 0.6521090188650124 -0.7408629967846156
4184000000.0 0.6581464277803759 -0.6989222260383754
4188000000.0 0.6379397250515103 -0.7543967235393352
4191000000.0 0.6483191981772202 -0.7667061087536547
4194000000.0 0.6227456423764866 -0.8098465397338803
4197000000.0 0.611184288892503 -0.8029446918362835
4200000000.0 0.6372099906204056 -0.8036363202902108
4203000000.0 0.6055259638887587 -0.846827185131354
4206000000.0 0.573316375055622 -0.8196416156118269
4209000000.0 0.5160692117548699 -0.8547394621358118
4212000000.0 0.4839315468194732 -0.885881668426952
4216000000.0 0.5209216741368949 -0.8987437656229611
4219000000.0 0.4771241979933234 -0.8895661895945873
4222000000.0 0.45607022249807483 -0.8632877226128235
4225000000.0 0.4356576592564224 -0.9204462543493338
4228000000.0 0.3996176940183862 -0.9262232094555252
4231000000.0 0.381074554425639 -0.9235276495704898
4234000000.0 0.32446318158139176 -0.948697566644926
4238000000.0 0.33917699388272193 -0.9446778516996691
4241000000.0 0.2868819215374967 -0.923789469063597
4244000000.0 0.2862973242029039 -0.9398520887940646
4247000000.0 0.24453222422351437 -0.9636587595438368
4250000000.0 0.2635571352933518 -0.9500571657809752
4253000000.0 0.21709817842363935 -0.9708710113417609
4256000000.0 0.18527416896957305 -1.0372662511280466
4259000000.0 0.1489361709222995 -0.9804987260304172
4262000000.0 0.1300216980582734 -0.9920328035195789
4266000000.0 0.09262264699500733 -0.9925796768780534
4269000000.0 0.10273639751387632 -0.9892962934460133
4272000000.0 0.06698054373785711 -0.9849965270518091
4275000000.0 0.049930060774474566 -1.006879796830767
4278000000.0 0.006904951845535273 -1.0213693690645007
4281000000.0 -0.011179014730702708 -1.0104239551919756
4284000000.0 -0.057039062010412894 -1.0185924863337106
4288000000.0 -0.07844690554076975 -1.0113970682023867
4291000000.0 -0.1264983071659913 -1.0017334497559456
4294000000.0 -0.1305893178190785 -1.0121127858530996
4297000000.0 -0.16216652114052435 -1.0068686728854723
4300000000.0 -0.18767572624070533 -0.9912478310726531
4303000000.0 -0.1929246306334817 -0.9854728766451752
4306000000.0 -0.2973924377928525 -0.9815105025242531
4309000000.0 -0.288349908065676 -0.9545493737362591
4312000000.0 -0.3546967284150243 -0.9646963972822148
4316000000.0 -0.34951863507850145 -0.916268840164355
4319000000.0 -0.34335507178353236 -0.9497991947717808
4322000000.0 -0.42474370353645663 -0.9366962817211297
4325000000.0 -0.4281945724222037 -0.9200753640768183
4328000000.0 -0.45847351879610077 -0.8961130427957109
4331000000.0 -0.4825616092330855 -0.8667476210644371
4334000000.0 -0.5218692045761778 -0.8780220710110457
4338000000.0 -0.5509327900840418 -0.8240824826239659
4341000000.0 -0.5674121996833136 -0.8411044122412085
4344000000.0 -0.5800103307393515 -0.8077967665679006
4347000000.0 -0.6102746924363837 -0.8271802558953508
4350000000.0 -0.6659127777834581 -0.8099010724811258
4353000000.0 -0.691510371782295 -0.7571206878096015
4356000000.0 -0.6833038709725967 -0.7778060119092368
4359000000.0 -0.7561671331825357 -0.736925388456389
4362000000.0 -0.7030626933578084 -0.6985396264991162
4366000000.0 -0.7882724822989067 -0.64688913379669
4369000000.0 -0.8066246228154869 -0.6532841536125872
4372000000.0 -0.8132637138474008 -0.6424008917453728
4375000000.0 -0.8232686114013259 -0.5698234648818455
4378000000.0 -0.9088621525686842 -0.5771568129382747
4381000000.0 -0.8803894142981483 -0.5304501620969378
4384000000.0 -0.8285797463198108 -0.5000273075144896
4388000000.0 -0.9180094083432753 -0.4493324859174072
4391000000.0 -0.9118166681795823 -0.4546470634519638
4394000000.0 -0.9904327353976873 -0.44354196489370024
4397000000.0 -0.9464176774400663 -0.3846212184866308
4400000000.0 -0.9312828984494006 -0.3550417962654015
4403000000.0 -0.9572785956287632 -0.30793448047073124
4406000000.0 -0.9721965731990112 -0.26419410986620256
4409000000.0 -0.9428609602559437 -0.22946738005363204
4412000000.0 -0.9418253078596921 -0.28851204091979643
4416000000.0 -1.0315640895298146 -0.20763339456648586
4419000000.0 -0.9961064900673269 -0.22472280617270987
4422000000.0 -1.052819264915275 -0.09499879143636536
4425000000.0 -0.997571623774725 -0.030134103125996875
4428000000.0 -1.0318276115523315 -0.01447597530860889
4431000000.0 -0.9782257423937069 0.00993303592571404
4434000000.0 -1.0588247055662672 0.014518313923127801
4438000000.0 -0.9973555818767208 0.0548395336141001
4441000000.0 -1.0251236983291483 0.12143666445610612
4444000000.0 -1.0265627182543557 0.1574105797309868
4447000000.0 -1.0422235821790302 0.11525914519409552
4450000000.0 -1.0013046446426028 0.2767626921724077
4453000000.0 -0.9167378339959505 0.218042955656928
4456000000.0 -1.0480212464580712 0.26677048775361356
4459000000.0 -1.0516214997538778 0.31874222452029755
4462000000.0 -0.9279524805811075 0.37327523476438873
4466000000.0 -0.9552225446090251 0.3563818938301636
4469000000.0 -0.9438851676306128 0.4263394163401905
4472000000.0 -0.9091333158490685 0.43829990511570127
4475000000.0 -0.9449285776495168 0.5253577119994496
4478000000.0 -0.867947469274978 0.4742803291230996
4481000000.0 -0.941354503091526 0.5419465855608102
4484000000.0 -0.8595042899883418 0.5614163415288815
4488000000.0 -0.821485484376137 0.6075457331948779
4491000000.0 -0.8611194748275739 0.6244687001446079
4494000000.0 -0.8058560344586814 0.6453941418224529
4497000000.0 -0.7908187445738979 0.6813054958853648
4500000000.0 -0.7291869986141839 0.6843807990586823
4503000000.0 -0.7134411306477682 0.731757777223933
4506000000.0 -0.7322238643074404 0.7627929494799851
4509000000.0 -0.6577378971960408 0.8203533083826228
4512000000.0 -0.6624049489762233 0.7694186260976379
4516000000.0 -0.5986132552041836 0.8016619481689425
4519000000.0 -0.5717166429385948 0.8428571867300406
4522000000.0 -0.6046079915690012 0.8408347557785633
4525000000.0 -0.5227591090238608 0.9021457736795462
4528000000.0 -0.4982174451967974 0.8885264721296974
4531000000.0 -0.4487326414546102 0.905439846790612
4534000000.0 -0.460481649426135 0.9232938730668641
4538000000.0 -0.381691130985048 0.9293417968321941
4541000000.0 -0.38586423925096425 0.9415484234270499
4544000000.0 -0.36489573741036824 0.9468666501163862
4547000000.0 -0.33523458845374365 0.9687157006499139
4550000000.0 -0.3045238617559634 0.9610891328233682
4553000000.0 -0.28141473835241987 0.9833174765491403
4556000000.0 -0.22976730951755886 1.009679711565057
4559000000.0 -0.22520467819835588 1.009577487745551
4562000000.0 -0.21751993789044954 0.9962827995290242
4566000000.0 -0.14648236127686226 1.0079131700603472
4569000000.0 -0.13644279495107964 1.0111783019848979
4572000000.0 -0.1051864174115272 0.9855813993113745
4575000000.0 -0.09698022900377276 0.9853592229571324
4578000000.0 -0.03223655148296031 1.0106350707188003
4581000000.0 0.0019585717057206964 1.030829644366551
4584000000.0 0.025473041656840334 1.0120441909440914
4588000000.0 0.025585152603359487 0.9972836117047622
4591000000.0 0.05833330091735994 0.9925210711460063
4594000000.0 0.09097203979894576 1.0545714649548321
4597000000.0 0.13130649001241235 1.0317465471839553
4600000000.0 0.16566524214043266 0.9475447788055623
4603000000.0 0.17333901963706755 0.9934520855429528
4606000000.0 0.1756533675511636 0.9967198578750567
4609000000.0 0.24558976816425432 0.9815801128309459
4612000000.0 0.22568047562531102 1.005879988631915
4616000000.0 0.2807301741260655 0.9882049034854753
4619000000.0 0.25174698437998233 0.9879499167903167
4622000000.0 0.30641190184176414 0.9531593113373236
4625000000.0 0.3210777888837242 0.9170473767126937
4628000000.0 0.3247473684181234 0.9329796590330584
4631000000.0 0.4226255477909249 0.8890380072215499
4634000000.0 0.41491571747164946 0.9137941686448666
4638000000.0 0.4566588688375336 0.9169450149179368
4641000000.0 0.45540546147583705 0.9139222837005624
4644000000.0 0.5036539273213312 0.9098782356295606
4647000000.0 0.49050321325099877 0.9076656426065777
4650000000.0 0.5340443127878236 0.8227245508760869
4653000000.0 0.5376017815327689 0.8524921839462334
4656000000.0 0.5849413342654907 0.8053828203747344
4659000000.0 0.5462255374211848 0.8330926928761777
4662000000.0 0.5432818450962162 0.8185566201809917
4666000000.0 0.5787260588653006 0.8101761950420839
4669000000.0 0.6241936907719612 0.7770557450303565
4672000000.0 0.6602793633355847 0.7438959150764537
4675000000.0 0.6749255262442635 0.676366991501408
4678000000.0 0.6770424400193809 0.7388736496796449
4681000000.0 0.7322131607415382 0.6648861346002978
4684000000.0 0.6480066018983253 0.659307000372864
4688000000.0 0.6784262330527329 0.7327328509129322
4691000000.0 0.6906476538131782 0.6461931057003965
4694000000.0 0.8093406017692488 0.6287254373607918
4697000000.0 0.7893425448311184 0.6612000928698585
4700000000.0 0.7770537624631219 0.6655519839999418
4703000000.0 0.8888833679426855 0.6149196090207221
4706000000.0 0.7539239364624226 0.6325261696597665
4709000000.0 0.8154265994888363 0.5927232188527118
4712000000.0 0.8302716620532746 0.529861004171149
4716000000.0 0.8190016545018557 0.5396601955490892
4719000000.0 0.8675935919952936 0.4831684053450093
4722000000.0 0.8967119458742623 0.5077208660430121
4725000000.0 0.8887628906318695 0.45927541388129056
4728000000.0 0.8840281867273947 0.45026513748667957
4731000000.0 0.8557394726408145 0.453766917258911
4734000000.0 0.8884074361020305 0.4380995600092522
4738000000.0 0.8853211811579829 0.40539938812816284
4741000000.0 0.8885542661457665 0.3861761085995908
4744000000.0 0.9277474338020355 0.38284984367942687
4747000000.0 0.9708004969350414 0.3479201411828281
4750000000.0 0.9195215347107817 0.2998911191380174
4753000000.0 0.9702057035495101 0.29500622229325546
4756000000.0 0.926695648437766 0.2774265407012955
4759000000.0 0.9475109915944067 0.2686144809635427
4762000000.0 0.9325016624378064 0.30437494764728723
4766000000.0 0.9737586201147692 0.23856175058763524
4769000000.0 0.9928800781138375 0.2277013375362843
4772000000.0 0.9869020578508888 0.1856931969816606
4775000000.0 0.9704060035673301 0.1853683333146992
4778000000.0 0.9659524020740087 0.23947719639740284
4781000000.0 1.0115391878796474 0.18141625624980162
4784000000.0 0.9810473734446454 0.15572537941617606
4788000000.0 0.9865199317865639 0.18964476309775852
4791000000.0 1.0037391768755364 0.09540301900453173
4794000000.0 0.981010394606874 0.09549943615102652
4797000000.0 1.0353737524215547 0.08805451727368774
4800000000.0 1.009693585106202 0.030342002880954164
4803000000.0 0.9791867816571829 0.066378159759933
4806000000.0 0.9897072539671831 0.0478006608176081
4809000000.0 1.0020415757260954 0.024958534940990984
4812000000.0 1.0148240284063654 0.018792483300560686
4816000000.0 1.0097629159628392 -0.05530912720078002
4819000000.0 0.9821603330636564 -0.0465002830921053
4822000000.0 1.022517912472718 -0.04251341562424396
4825000000.0 0.9840055259399274 -0.07599187817822692
4828000000.0 0.9840599521025054 -0.10905360455066282
4831000000.0 1.0004167439155673 -0.10255281205389066
4834000000.0 0.9741332667897548 -0.13657920373839014
4838000000.0 1.0075799601304778 -0.14566825362184257
4841000000.0 1.0099439675572357 -0.15651977445003656
4844000000.0 0.9768482515153962 -0.16565434519864888
4847000000.0 0.9988420784639906 -0.17646223942473085
4850000000.0 0.9744638945220909 -0.2066909294395502
4853000000.0 0.9784834186358714 -0.21236652129516542
4856000000.0 0.9812995278113421 -0.24058545502436965
4859000000.0 0.9689907826850334 -0.22510022025576065
4862000000.0 0.9377504004230625 -0.24705309274602932
4866000000.0 0.9618718312404735 -0.2823787560493152
4869000000.0 0.9403328246346786 -0.2972604794451561
4872000000.0 0.9470283191228233 -0.3315934560315996
4875000000.0 0.9708139028272863 -0.32128731643503133
4878000000.0 0.9509910119532997 -0.3690006276938781
4881000000.0 0.9260216650772345 -0.34744911628086655
4884000000.0 0.9322609363334103 -0.3497658287833962
4888000000.0 0.9464092027501353 -0.3515100020076351
4891000000.0 0.933662674882369 -0.3749813036788107
4894000000.0 0.9242758975855165 -0.4103216654586393
4897000000.0 0.929017794950602 -0.40604075098581927
4900000000.0 0.8987312642932253 -0.44420661718083837
4903000000.0 0.9091117416459166 -0.437072344301274
4906000000.0 0.9018396906024462 -0.46709187146733017
4909000000.0 0.8891850775195432 -0.4684540469905028
4912000000.0 0.8801882219540509 -0.4934816575190909
4916000000.0 0.8877677063937217 -0.47867189061633936
4919000000.0 0.8884767494097372 -0.5187179796385077
4922000000.0 0.8752331264904935 -0.518789884232612
4925000000.0 0.8415641422712027 -0.5301874318636259
4928000000.0 0.8623464623499985 -0.5110960509408996
4931000000.0 0.8472081339358102 -0.5366993200114303
4934000000.0 0.8053887634738529 -0.5495738796742766
4938000000.0 0.8049732647850151 -0.5755532585262485
4941000000.0 0.7977923785324903 -0.5918566305735659
4944000000.0 0.7965316356705969 -0.5789856807674212
4947000000.0 0.7703966425328495 -0.5952226740125698
4950000000.0 0.7938402608797162 -0.6145531046102523
4953000000.0 0.7738378073855217 -0.6565769557378226
4956000000.0 0.774014002797482 -0.6483373272838768
4959000000.0 0.7430770924070896 -0.6435280003290272
4962000000.0 0.7518497945427383 -0.6580569240437316
4966000000.0 0.7580104179572777 -0.6687253025915736
4969000000.0 0.7747782578805918 -0.6808876628902869
4972000000.0 0.7187932674177094 -0.7041766357967264
4975000000.0 0.7305248241577136 -0.6887032380263888
4978000000.0 0.7298089478342057 -0.6925521037033514
4981000000.0 0.683166180582624 -0.701645332941708
4984000000.0 0.7132064610904634 -0.6874701819321963
4988000000.0 0.6861132632020019 -0.7014661958079552
4991000000.0 0.7199378176676574 -0.730241597646792
4994000000.0 0.6918321333779414 -0.7237629892718818
4997000000.0 0.6847962575229527 -0.760376060172995
5000000000.0 0.6644234092050134 -0.7559451596663713
5003000000.0 0.6596836613620003 -0.7873870134890701
5006000000.0 0.6681984709997164 -0.8098954051520125
5009000000.0 0.6483383754420737 -0.7743388122189891
5012000000.0 0.6152309573810633 -0.7920911918153399
5016000000.0 0.6455034333898905 -0.8189072782850452
5019000000.0 0.583473631382337 -0.798172854045351
5022000000.0 0.5864393460064272 -0.8313474471591222
5025000000.0 0.6243950609943446 -0.8826236757925175
5028000000.0 0.5662684974607202 -0.8564505370492052
5031000000.0 0.5299488976320874 -0.8568670326771173
5034000000.0 0.5600039969755528 -0.9170992261597903
5038000000.0 0.5161563730982164 -0.853659416656011
5041000000.0 0.557375026199223 -0.833983960711241
5044000000.0 0.5422193380691396 -0.8217683109248921
5047000000.0 0.5613637913378604 -0.8806241274898615
5050000000.0 0.5431255084295314 -0.8261136263552384
5053000000.0 0.549529359678117 -0.9236363232287721
5056000000.0 0.5198210018175191 -0.8617971690601802
5059000000.0 0.5175888554398477 -0.8621084221721352
5062000000.0 0.46150349403451935 -0.9280586746574806
5066000000.0 0.44795755656454417 -0.8270048570423065
5069000000.0 0.45253219929276356 -0.9290487872845533
5072000000.0 0.40435279497184473 -0.8773639368635586
5075000000.0 0.426746288460747 -0.9328286114118349
5078000000.0 0.3780324031424333 -0.9754479818387702
5081000000.0 0.371138669879011 -0.8884525970733376
5084000000.0 0.42112061454271366 -0.9726947907338279
5088000000.0 0.40926482515461676 -0.9329789148535546
5091000000.0 0.32443998535658025 -0.9927891495823629
5094000000.0 0.40534073494926454 -0.9672982102848969
5097000000.0 0.4093788842075152 -0.9602958569602698
5100000000.0 0.3608848876040544 -0.9277543658287416
5103000000.0 0.36542755407770094 -0.9494802849796226
5106000000.0 0.36334419404211876 -1.0195753743632343
5109000000.0 0.35232553732230026 -0.9536913649725078
5112000000.0 0.31131621975495366 -0.9606248405033146
5116000000.0 0.2772915306609487 -0.9048604371058258
5119000000.0 0.3456926608183398 -0.949620223110142
5122000000.0 0.3350808410211071 -0.9464970493899034
5125000000.0 0.2501984418436184 -1.0041156996037182
5128000000.0 0.2436006328510482 -0.9636631070961574
5131000000.0 0.20597733254885564 -0.9737698236140396
5134000000.0 0.20188062541233198 -0.9997598617075412
5138000000.0 0.22196454207558566 -0.9812034545186851
5141000000.0 0.28947224343716527 -0.9304516938839755
5144000000.0 0.22439518796620556 -1.0706947146231405
5147000000.0 0.24302945824477162 -1.0171133699420705
5150000000.0 0.1849300803348331 -1.007976953044268
5153000000.0 0.16050049419328685 -0.9698804264247582
5156000000.0 0.2154278599814769 -1.0118849564368038
5159000000.0 0.1897830913113679 -1.0328417837297101
5162000000.0 0.09733148950594445 -0.9712197632341646
5166000000.0 0.07869381704450623 -1.0579151710921941
5169000000.0 0.14659794753316488 -1.059311359608135
5172000000.0 0.11794354763543238 -0.9727531686405637
5175000000.0 0.12358845772537082 -1.0725016680573776
5178000000.0 0.06754159271586865 -0.9938305489373934
5181000000.0 0.11427080084552077 -1.0606806301852416
5184000000.0 0.03608269469078536 -1.0156732033267124
5188000000.0 0.09991055324216407 -0.971807215730191
