! Created with skrf 1.8.0 (http://scikit-rf.org).
# Hz S RI R 50.0 
!freq ReS11 ImS11
4000000000.0 0.17514161712720444 0.9807696281723615
4003000000.0 0.23105598061830887 1.1031611862635078
4006000000.0 0.2737779760979485 1.0405866096591811
4009000000.0 0.2591755608285608 1.0422985645017393
4012000000.0 0.15949328844818478 1.048624502842941
4016000000.0 0.3196906946856722 0.9893501417371384
4019000000.0 0.2434836087581893 1.0344649792108198
4022000000.0 0.20749230207256267 1.0418520560451325
4025000000.0 0.34852766570715776 1.016767016504532
4028000000.0 0.30203071452275354 1.0323345188846738
4031000000.0 0.3044885917171529 0.9505585368320605
4034000000.0 0.3429845401509242 0.9589440946500664
4038000000.0 0.34354487331854827 1.0088460055874062
4041000000.0 0.35231658108250136 0.9843931919434791
4044000000.0 0.36877244996273784 1.037575237268198
4047000000.0 0.30653263928194474 1.0090800383424063
4050000000.0 0.43300332448135215 0.9898205261242056
4053000000.0 0.42026136394011554 0.9625616363692424
4056000000.0 0.3943730579549547 0.9864184339778007
4059000000.0 0.34948231331350765 0.9905729530294192
4062000000.0 0.44485384575070214 0.9557590509121561
4066000000.0 0.38536085153198363 0.8903463990934782
4069000000.0 0.43287946477760136 0.9886140501456636
4072000000.0 0.37711253868869155 0.9683003109916357
4075000000.0 0.35092021256168554 0.990828161772549
4078000000.0 0.42770300043265325 0.944954635524722
4081000000.0 0.3685495881978257 1.0497214578805587
4084000000.0 0.48341493781559064 0.9290154239653472
4088000000.0 0.3820475772018043 0.9513275951507102
4091000000.0 0.5303234795973301 1.0516834694894404
4094000000.0 0.47827615237888227 0.991381581788627
4097000000.0 0.45162159957031156 0.9109696834352818
4100000000.0 0.5027945088605769 0.9303419729999776
4103000000.0 0.4869004791991441 0.9620863924813292
4106000000.0 0.5137469071336201 0.9487599605602941
4109000000.0 0.5577238901263952 0.8965629819324623
4112000000.0 0.5372775334137552 0.9452881929676569
4116000000.0 0.4443552195802591 0.9327003216083243
4119000000.0 0.5558058402935424 0.9018156285279433
4122000000.0 0.5523792741633412 0.8946723301671136
4125000000.0 0.6229120521961039 0.9025688985812375
4128000000.0 0.5169021444082175 0.8729347827827896
4131000000.0 0.5328551973700462 0.8570047154817622
4134000000.0 0.518461769921432 0.8255208596225785
4138000000.0 0.5743509368116426 0.8261318616036006
4141000000.0 0.5638075577397883 0.8260621762954508
4144000000.0 0.592909122979102 0.8699999982480597
4147000000.0 0.6486342057632722 0.828061668662966
4150000000.0 0.6014666555578151 0.8661084424404171
4153000000.0 0.6107269084142447 0.8379148037000882
4156000000.0 0.6464956695200514 0.8384440509425302
4159000000.0 0.6249232529747688 0.853869288122056
4162000000.0 0.6195072452138388 0.8568946686860621
4166000000.0 0.6701509647054631 0.7901401811802067
4169000000.0 0.6755494752983917 0.7944688238837837
4172000000.0 0.63675203863714 0.8305793593534367
4175000000.0 0.6270885389866911 0.7839092006323376
4178000000.0 0.69796689731339 0.8299805957463555
4181000000.0 0.6982984662729421 0.8161747311032009
4184000000.0 0.6815188562753294 0.7765950896967524
4188000000.0 0.6773252321997432 0.7735687366311799
4191000000.0 0.6709630516166235 0.7941144064880865
4194000000.0 0.6721931602705116 0.7283667518375881
4197000000.0 0.6966735441280353 0.7530970478137582
4200000000.0 0.7196471460372134 0.7298937366759927
4203000000.0 0.650226768978746 0.716332171751904
4206000000.0 0.737771793726161 0.7303184410009489
4209000000.0 0.7110327565429475 0.7338664552324052
4212000000.0 0.7736026127830475 0.7310200341902308
4216000000.0 0.7459460335266456 0.710920015974432
4219000000.0 0.721514239463505 0.7223746234399548
4222000000.0 0.7589086221641737 0.7106470393575655
4225000000.0 0.755441055237746 0.6999726467326122
4228000000.0 0.7557023996883199 0.7095456126662254
4231000000.0 0.7630580398858738 0.696820117104119
4234000000.0 0.7702999465257709 0.6926073747433743
4238000000.0 0.7859792207403832 0.6626564244548492
4241000000.0 0.798310922231845 0.675558662847912
4244000000.0 0.772204304196854 0.6776582927957409
4247000000.0 0.7910476161786166 0.6884124376452315
4250000000.0 0.811502314325037 0.656059131288943
4253000000.0 0.7955625268172173 0.6561152776593195
4256000000.0 0.8068634224718407 0.638672320487295
4259000000.0 0.800112423470258 0.6229176020158348
4262000000.0 0.8243631482887794 0.61495046145365
4266000000.0 0.8148311299415575 0.6219461006468693
4269000000.0 0.837472670041876 0.6452550197456173
4272000000.0 0.8318434288826807 0.5719205625819039
4275000000.0 0.8508004447311366 0.5705571247390984
4278000000.0 0.8442887627187113 0.5935652264996772
4281000000.0 0.8573589711034986 0.598882013119976
4284000000.0 0.8859290287888051 0.5760336709113777
4288000000.0 0.8427992015259582 0.6078664726981493
4291000000.0 0.8544471855086676 0.560541876130757
4294000000.0 0.8479775606662555 0.5354159856347754
4297000000.0 0.8605309625611043 0.51304583812021
4300000000.0 0.8699607013339403 0.538117880077206
4303000000.0 0.8869528520608484 0.5183673656534061
4306000000.0 0.8755124980028564 0.5531477085039493
4309000000.0 0.8659251460653163 0.5060390473547397
4312000000.0 0.8982136411665975 0.5410855359380949
4316000000.0 0.908178925417411 0.5111413177259472
4319000000.0 0.8789912596283694 0.49518903236312733
4322000000.0 0.9084135808369643 0.4469612191337656
4325000000.0 0.8691955111403343 0.4857332683819221
4328000000.0 0.9045527409261461 0.5092372336020002
4331000000.0 0.9368989106493562 0.46335125218973927
4334000000.0 0.9063563271596699 0.46719389749303175
4338000000.0 0.9077003610878833 0.458171381405933
4341000000.0 0.9415813753392093 0.4521130377630741
4344000000.0 0.937947464319092 0.4386380770300995
4347000000.0 0.9491262262110168 0.4091603227897447
4350000000.0 0.8886888679690584 0.4046596473499035
4353000000.0 0.9199091718576153 0.3970291381473118
4356000000.0 0.9544014166274197 0.3799723156896232
4359000000.0 0.932327314963843 0.39325654789492603
4362000000.0 0.9660822845204382 0.33566051111301265
4366000000.0 0.944503450082486 0.3601505851208371
4369000000.0 0.9119730410219322 0.3524345092711134
4372000000.0 0.9480732154870433 0.31743281465482587
4375000000.0 0.9447238297176803 0.33148584847220774
4378000000.0 0.937074662576324 0.3319834323641665
4381000000.0 0.9613321011223281 0.34895964411984837
4384000000.0 1.0340487668065002 0.324366824753043
4388000000.0 0.9524854052516235 0.3003499739523224
4391000000.0 0.9762275699783436 0.32418221822602866
4394000000.0 0.9388116553355278 0.27962738241793184
4397000000.0 0.9522094944219148 0.2776890002785982
4400000000.0 1.0091342424440581 0.3140509321563122
4403000000.0 0.9828869266840135 0.2775290074423865
4406000000.0 0.9883089900230939 0.22671600309769244
4409000000.0 1.0096700913826853 0.23152522353257937
4412000000.0 0.9933885353841739 0.19451495653402728
4416000000.0 0.9799642777701654 0.21177794560556176
4419000000.0 0.9827711979507612 0.21138784559775242
4422000000.0 0.9683546631117697 0.2170308461028423
4425000000.0 1.0134582617177945 0.2332692764790798
4428000000.0 0.994250257059196 0.1734979235578642
4431000000.0 1.0454432790746508 0.18774764662403756
4434000000.0 0.9902331818487415 0.18539091332123153
4438000000.0 1.0247733284871277 0.17933445892729716
4441000000.0 1.0270773639913238 0.16412108446211215
4444000000.0 0.9773602184735712 0.1466608241232543
4447000000.0 1.00616307177854 0.1317952092964989
4450000000.0 0.9877642799880809 0.1441589201364133
4453000000.0 1.0371613975369702 0.12761705241780197
4456000000.0 0.986024870976408 0.10400621590757655
4459000000.0 0.9612323667690408 0.05984786220352256
4462000000.0 1.0722219154129127 0.0916022933648317
4466000000.0 1.0455170903088344 0.07594256833303012
4469000000.0 1.0066792698661153 0.08492986055331742
4472000000.0 1.0441898051120542 0.04841792149655133
4475000000.0 0.9837313233986934 0.06865020568267596
4478000000.0 1.0630854512505672 0.03544631363365755
4481000000.0 0.9852126094601581 0.023644207319013538
4484000000.0 1.0010704287675145 -0.017748440659728193
4488000000.0 0.9892978941123427 0.016237702055615144
4491000000.0 1.0184548176959671 0.001226669592918006
4494000000.0 0.9980451860893793 0.006650824821802237
4497000000.0 1.0202395712415675 0.01511706940404274
4500000000.0 1.0311260371177111 0.00453763998410079
4503000000.0 1.0440600275454965 -0.005319340969077539
4506000000.0 0.9972678883889132 -0.02875199525693368
4509000000.0 0.975367608088253 -0.049287615705431664
4512000000.0 1.001097259330443 -0.06874547683337284
4516000000.0 1.0291195649832576 -0.05102820053994817
4519000000.0 0.9982917229214039 -0.051313749340010935
4522000000.0 0.9992927604558179 -0.09316737678412679
4525000000.0 0.9828155350416656 -0.04340272355505356
4528000000.0 1.0508221553016257 -0.09866822588871063
4531000000.0 1.0061155413539795 -0.08474090131059826
4534000000.0 0.9908722150763738 -0.11551482429949649
4538000000.0 0.9857928448788633 -0.11289795049803944
4541000000.0 0.9814454806796241 -0.15924234974481075
4544000000.0 0.9750423847956782 -0.12589841785573072
4547000000.0 0.9963308680686936 -0.11498004860138114
4550000000.0 0.9873185960018231 -0.18482946010209605
4553000000.0 1.0038725654869698 -0.17737332271251238
4556000000.0 0.9539692139781191 -0.18551184246416233
4559000000.0 0.9996811057786114 -0.20999941347602374
4562000000.0 1.0009204261783948 -0.20025967008143183
4566000000.0 1.0009769416634284 -0.19583008619252934
4569000000.0 0.9601372618026424 -0.21441214569852568
4572000000.0 0.9791399395348996 -0.20951492474265315
4575000000.0 0.9773916964976836 -0.2593617217615726
4578000000.0 0.9912879664796996 -0.20502856156494048
4581000000.0 0.9967600349949539 -0.2712986063528693
4584000000.0 0.9609638140550604 -0.2537018255581727
4588000000.0 0.9981042473467643 -0.25894701995884983
4591000000.0 0.9830256698113965 -0.26457108534180307
4594000000.0 0.9559386318249465 -0.30045641732237804
4597000000.0 0.9781844238078563 -0.2982055476069025
4600000000.0 0.9353760791613281 -0.32183132601233644
4603000000.0 0.9578201953594858 -0.3015656497799428
4606000000.0 0.952593441561608 -0.3072910143325778
4609000000.0 0.9518299930428206 -0.34035702644029786
4612000000.0 0.9814084450307105 -0.32418958126236885
4616000000.0 0.9543663448384581 -0.3431712494971365
4619000000.0 0.9680715338733346 -0.3333698358155995
4622000000.0 0.9378780244176188 -0.3383976837776056
4625000000.0 0.879232653691633 -0.35768695936314643
4628000000.0 0.9149686691290714 -0.34227749601459034
4631000000.0 0.8960271249947236 -0.40465695537672197
4634000000.0 0.9225335183692693 -0.3906310551164215
4638000000.0 0.9322076316511965 -0.4028200333551404
4641000000.0 0.9349697603264374 -0.38386593828949866
4644000000.0 0.9101838285023709 -0.41566470822279344
4647000000.0 0.9278709881399343 -0.44307464184832157
4650000000.0 0.9042041746957276 -0.4477462374166476
4653000000.0 0.921930463396575 -0.4481809350775756
4656000000.0 0.8816185064908773 -0.48069438494746786
4659000000.0 0.8805619934677891 -0.4457188745082977
4662000000.0 0.8874100997155513 -0.48136642781924843
4666000000.0 0.882763775876371 -0.46540121643168775
4669000000.0 0.886957936223665 -0.47731016091728484
4672000000.0 0.8591936117949999 -0.5210914861643907
4675000000.0 0.8532160960949109 -0.5222499773295048
4678000000.0 0.8589301455112395 -0.4977451678651771
4681000000.0 0.8432536785681587 -0.5461806481820047
4684000000.0 0.8381819356877974 -0.5440651394822231
4688000000.0 0.8301094290083533 -0.5306644592752182
4691000000.0 0.8260164181232528 -0.5323463016962813
4694000000.0 0.8392901089606797 -0.5833764699941173
4697000000.0 0.82531517293848 -0.5446207804145455
4700000000.0 0.8376609019431903 -0.5566830757185084
4703000000.0 0.8246603365623815 -0.5876429403533383
4706000000.0 0.8202314725039048 -0.5790690593102089
4709000000.0 0.8108182606155013 -0.591266092896392
4712000000.0 0.801705898152214 -0.6084628553406256
4716000000.0 0.8164281862008411 -0.5898832380986037
4719000000.0 0.8182116706254251 -0.622686452692364
4722000000.0 0.7983747675896042 -0.6035746369047215
4725000000.0 0.7825256848691311 -0.6497904769477096
4728000000.0 0.765048222487448 -0.6240987253401031
4731000000.0 0.799948869294272 -0.6378779269796548
4734000000.0 0.7869218971117918 -0.6340876879910623
4738000000.0 0.7901808850430927 -0.6581708883149189
4741000000.0 0.7594865961790405 -0.6562534077965583
4744000000.0 0.7429474790067655 -0.7003575511208361
4747000000.0 0.7422669951709828 -0.6719486888342606
4750000000.0 0.730740711390764 -0.6743851366561923
4753000000.0 0.736722307636952 -0.7052470281984621
4756000000.0 0.7200722197974765 -0.6873707422874891
4759000000.0 0.7058733077845306 -0.7048739804723946
4762000000.0 0.7293320772822998 -0.7276592259854648
4766000000.0 0.719754375841656 -0.7215776144359494
4769000000.0 0.7367657680677808 -0.7438651629447709
4772000000.0 0.7252054947949022 -0.7455319437593461
4775000000.0 0.7008680757603782 -0.7903183638762407
4778000000.0 0.702017782981425 -0.7214430803818576
4781000000.0 0.6923662399793653 -0.7366460270577928
4784000000.0 0.7100146182556135 -0.740223848987163
4788000000.0 0.6578966321488711 -0.7828676960777206
4791000000.0 0.652791573163225 -0.777499417758216
4794000000.0 0.6756935217576938 -0.7869384114217646
4797000000.0 0.6205150715309512 -0.800838303670698
4800000000.0 0.612547886460234 -0.8047469271216183
4803000000.0 0.6175094351037504 -0.7893936031099444
4806000000.0 0.6346407089765569 -0.812262245714664
4809000000.0 0.6037667103406466 -0.8064455385370766
4812000000.0 0.5861194304793926 -0.8120009776293144
4816000000.0 0.6021936359290788 -0.7873994884095249
4819000000.0 0.6149990379526376 -0.8256649908142447
4822000000.0 0.6365151948010936 -0.8402703734345092
4825000000.0 0.6141203702458291 -0.8397784174916432
4828000000.0 0.5764805211757382 -0.8327431894398113
4831000000.0 0.5626348899060589 -0.893536199664585
4834000000.0 0.5502244453643139 -0.8473510167355042
4838000000.0 0.5707062989297075 -0.8675850353953413
4841000000.0 0.5505882231985012 -0.866819740927376
4844000000.0 0.551115361677869 -0.8595130938436232
4847000000.0 0.5323849052098842 -0.8515577621412741
4850000000.0 0.5127135083950496 -0.8825811204966885
4853000000.0 0.5294185840822601 -0.8841007018341058
4856000000.0 0.4985554901095929 -0.8727041427425709
4859000000.0 0.5050749434807936 -0.9144164745912707
4862000000.0 0.5044016263034187 -0.8590897347976232
4866000000.0 0.48661033103981083 -0.9096391876783873
4869000000.0 0.46739379558065636 -0.9091829291264037
4872000000.0 0.4683537977284961 -0.9483750494145005
4875000000.0 0.5165919131767787 -0.9297097237233686
4878000000.0 0.45512722291705293 -0.926337062758806
4881000000.0 0.43893976201167295 -0.9681371013311313
4884000000.0 0.4703285130243442 -0.9096774851914017
4888000000.0 0.4711986224441736 -0.9079498377009386
4891000000.0 0.45486476003457676 -0.9338627310710492
4894000000.0 0.40232809627104027 -0.9524996679242862
4897000000.0 0.4291514976258293 -0.9113019652495321
4900000000.0 0.40357697070888837 -0.9450492236932023
4903000000.0 0.4066221815529279 -0.9393178144882235
4906000000.0 0.383186091921918 -0.9831615604512731
4909000000.0 0.35356347120473236 -0.962728688033646
4912000000.0 0.4011270263828834 -1.0040787032948784
4916000000.0 0.3942076127535919 -0.9699728260047946
4919000000.0 0.39311485197432433 -0.9911339097197643
4922000000.0 0.3756887525599053 -0.9672378596482827
4925000000.0 0.29823323723755635 -0.9457153848342617
4928000000.0 0.3717609895225431 -0.9511405252760865
4931000000.0 0.3702149715394646 -0.9883410556055612
4934000000.0 0.2980481800697744 -0.945485451225106
4938000000.0 0.2756402499418487 -0.9767002669862771
4941000000.0 0.3188159869832429 -0.9487499072274966
4944000000.0 0.3244629466929191 -0.9244090130433813
4947000000.0 0.28215982518922933 -0.9536822863934501
4950000000.0 0.2334161381773653 -0.9635823522096312
4953000000.0 0.22553371772664582 -1.0511743833156237
4956000000.0 0.2285612793896284 -1.018949596347173
4959000000.0 0.23384819983528807 -0.9762975928926694
4962000000.0 0.24155310598905155 -1.0388420909735776
4966000000.0 0.24841527908695882 -1.022077569940024
4969000000.0 0.2523502586285472 -1.0365631273524185
4972000000.0 0.1918217728018951 -1.0376650297180456
4975000000.0 0.22642827039065683 -0.9700108261173447
4978000000.0 0.20171493918759908 -1.0181379697166169
4981000000.0 0.15029897594916863 -0.9884994956128492
4984000000.0 0.1958977811975283 -0.9868061361318047
4988000000.0 0.1767284304732254 -0.994628469539615
4991000000.0 0.2375347069029123 -1.0165558997311577
4994000000.0 0.18814997320168206 -1.0166419228550247
4997000000.0 0.1396058772559658 -1.0385520955067857
5000000000.0 0.18045729814598593 -1.0512740530043148
5003000000.0 0.16906370993466685 -1.0857283320470634
5006000000.0 0.1217056497786107 -1.062734115992587
5009000000.0 0.13921414394244924 -1.047305844737454
5012000000.0 0.10435824550685278 -1.024856915888816
5016000000.0 0.14601194188125094 -1.0611942938280228
5019000000.0 0.08077104148445147 -0.9998919188926623
5022000000.0 0.09125082893246816 -1.0194904248806833
5025000000.0 0.08463605167408356 -1.098944824090061
5028000000.0 0.025605687265317756 -1.0637391741951543
5031000000.0 0.05026455868041388 -1.0287616934196238
5034000000.0 -0.0006834770873405116 -1.0863165803422965
5038000000.0 0.03471470039213051 -1.0103299646962172
5041000000.0 0.10073158231390045 -1.0488637322824963
5044000000.0 0.04458506736794404 -1.0048338809147963
5047000000.0 0.04643287510185884 -1.0624817693403363
5050000000.0 0.0904086058329776 -1.0111497197040922
5053000000.0 0.011139370874830495 -1.0790384337200616
5056000000.0 0.06423547393367879 -1.0396276261090434
5059000000.0 0.037155958559269814 -1.0491708452254587
5062000000.0 -0.05367823513388245 -1.0235643874202054
5066000000.0 0.011405196220775321 -1.0044565155051117
5069000000.0 -0.05224465291051203 -1.0817516983033242
5072000000.0 -0.05023937116522072 -0.9899589375706981
5075000000.0 -0.02674081748542373 -1.0584143131754638
5078000000.0 -0.09675832356221903 -1.0440714595781129
5081000000.0 -0.09639414659070387 -0.9942258822225202
5084000000.0 -0.08992110295517572 -1.0672751111592087
5088000000.0 -0.08434930497226659 -1.0260862162210638
5091000000.0 -0.13892964411577396 -1.037021364122114
5094000000.0 -0.11671304225003275 -1.0368751569638022
5097000000.0 -0.05515089630065914 -1.0888930882302195
5100000000.0 -0.08781766227582016 -1.0242306913769625
5103000000.0 -0.11336113888458307 -1.0085875498606778
5106000000.0 -0.12222562327312232 -1.0960443568125608
5109000000.0 -0.14452250093790472 -1.035480871776215
5112000000.0 -0.1604939708504514 -1.0227541408368428
5116000000.0 -0.10164316803940744 -0.9652047319019623
5119000000.0 -0.11440097769257214 -1.0161336324214822
5122000000.0 -0.14470356199885742 -0.9641441693262021
5125000000.0 -0.21838282610591314 -0.9879448588597975
5128000000.0 -0.18498107699844027 -0.9810822685939244
5131000000.0 -0.20829432537149878 -1.004462397854052
5134000000.0 -0.173234610645287 -1.0216016868800952
5138000000.0 -0.2305137448011691 -1.022402174382142
5141000000.0 -0.1616142048207872 -1.038245163279037
5144000000.0 -0.18945953736110366 -1.001609217132994
5147000000.0 -0.2714816529280389 -1.0507947237250541
5150000000.0 -0.1785913185256086 -0.9899867982003027
5153000000.0 -0.261627416801532 -1.026795415110457
5156000000.0 -0.300848512346455 -0.9947749571477928
5159000000.0 -0.29122755963059493 -1.0250159609959724
5162000000.0 -0.26752769491926964 -0.9739812500079748
5166000000.0 -0.32036089790342825 -1.02712046965004
5169000000.0 -0.30213815748063966 -1.0411574689631347
5172000000.0 -0.2784670239469158 -0.980702906138735
5175000000.0 -0.3117337162160128 -1.040207921590439
5178000000.0 -0.31190041934190754 -0.9756475701748124
5181000000.0 -0.3028609994078412 -1.0391219271064878
5184000000.0 -0.36615522287161867 -0.9530191893810912
5188000000.0 -0.32658401793177544 -0.9623684771511735
5191000000.0 -0.3571823648435357 -0.986154160437431
5194000000.0 -0.3390998079868075 -1.0072413332207357
