! Created with skrf 1.8.0 (http://scikit-rf.org).
# Hz S RI R 50.0 
!freq ReS11 ImS11
4000000000.0 0.5898138665571162 0.8294361370122174
4003000000.0 0.6671545092754624 0.859117420596946
4006000000.0 0.6828257049367841 0.7917582632958805
4009000000.0 0.6562996600396664 0.7957463071725129
4012000000.0 0.6246572264592979 0.872476039070908
4016000000.0 0.7066772504790372 0.7465296307674099
4019000000.0 0.6836431473704248 0.7800398227034031
4022000000.0 0.6257701790257406 0.7962119667433863
4025000000.0 0.7646420076875191 0.7616847481535532
4028000000.0 0.7156303912077089 0.7505679187579928
4031000000.0 0.6546128152791781 0.7404950592012299
4034000000.0 0.7312227127275664 0.7493555199350447
4038000000.0 0.7209798015027837 0.7577968368401938
4041000000.0 0.7119260470317246 0.7492419208481278
4044000000.0 0.7624633969731655 0.7756584376978924
4047000000.0 0.7329798200864386 0.8092080966305325
4050000000.0 0.7484424038406303 0.7063110653042943
4053000000.0 0.75851411922103 0.6616406565983399
4056000000.0 0.7658811844317354 0.6964501420727387
4059000000.0 0.7309290729231033 0.6697829698501025
4062000000.0 0.7957333490200896 0.6831480375874288
4066000000.0 0.7298512738585752 0.6327920538947475
4069000000.0 0.8483473920740652 0.6982895948724962
4072000000.0 0.7900043853147518 0.6927998447212182
4075000000.0 0.7647194126748598 0.7166989322511101
4078000000.0 0.8017004655913074 0.6910768928728309
4081000000.0 0.7545020993034691 0.7294250916659831
4084000000.0 0.8100124049792982 0.6120670889218847
4088000000.0 0.7715543661449223 0.6858622443512357
4091000000.0 0.8293569287233095 0.6700628414521692
4094000000.0 0.7702784322391433 0.6503977296286557
4097000000.0 0.8090425901799768 0.6037104358292005
4100000000.0 0.829614493542645 0.6326927531602757
4103000000.0 0.861832661303042 0.6976791625955834
4106000000.0 0.8615431104946797 0.6010470377754605
4109000000.0 0.8609610942167025 0.5861548776354548
4112000000.0 0.853945733589462 0.6076634321029473
4116000000.0 0.8628644298458803 0.6208263437811415
4119000000.0 0.8724945005281475 0.5774039100663313
4122000000.0 0.8827039414447275 0.5261329195627076
4125000000.0 0.8980150926289727 0.567321174173409
4128000000.0 0.8356208324827488 0.5555049863581278
4131000000.0 0.8431552300409705 0.5423616414926287
4134000000.0 0.8853656673453646 0.5519978943798196
4138000000.0 0.8957211326258969 0.5226088221200151
4141000000.0 0.8924174467238459 0.504147429308018
4144000000.0 0.8584261027068594 0.5242452774806123
4147000000.0 0.9162775925569604 0.5027603871252899
4150000000.0 0.962315249365482 0.54275885104093
4153000000.0 0.8972853184400341 0.5082713374824515
4156000000.0 0.8887142145612461 0.4906352719408297
4159000000.0 0.8695332461002492 0.4946248108372519
4162000000.0 0.8947406035760397 0.4736055478978075
4166000000.0 0.9460778027193542 0.4403221180282849
4169000000.0 0.9462942987471374 0.4311943533319216
4172000000.0 0.9297884540774984 0.45665662936697976
4175000000.0 0.8969743591526492 0.45136032411954735
4178000000.0 0.9613825351469216 0.43857719458135236
4181000000.0 0.9526194040989489 0.41425300478689786
4184000000.0 0.9620367942753268 0.42109747328927843
4188000000.0 0.9466810367910026 0.4271064014812338
4191000000.0 0.908949473586067 0.427077639890083
4194000000.0 0.9235776059206654 0.381181438822065
4197000000.0 0.9596571441217712 0.38079003497940817
4200000000.0 0.972434420056099 0.39517466278474966
4203000000.0 0.9558268032323546 0.40027007370851064
4206000000.0 0.9652640565020509 0.3655363022845107
4209000000.0 0.9502047247617087 0.36593884245650904
4212000000.0 0.9740054125348752 0.3363874127421388
4216000000.0 0.9572366881694764 0.35563280488243726
4219000000.0 0.9803033772618245 0.3450808947511981
4222000000.0 0.9833805993425706 0.3161139656257916
4225000000.0 0.9771358221814477 0.3215987994069881
4228000000.0 0.9836568501285059 0.32285907462577523
4231000000.0 0.9879032379839155 0.3011644790128467
4234000000.0 0.9861454300309872 0.313086404828868
4238000000.0 0.9843606091119005 0.28286955777812905
4241000000.0 0.9829940206208594 0.27644261201796144
4244000000.0 0.9830512518460809 0.27159720077623023
4247000000.0 0.9754013339112368 0.2651072581215938
4250000000.0 0.9556723285012205 0.2367766512738238
4253000000.0 0.9657703836322953 0.21694765436374447
4256000000.0 1.0122432962400125 0.24382714830617697
4259000000.0 0.9753947789906776 0.21989035123414388
4262000000.0 0.9724150620143976 0.20301902484729648
4266000000.0 1.0118530642992485 0.1886759998198057
4269000000.0 1.0099906155976135 0.20572565798843093
4272000000.0 0.9792890755350562 0.18910940220009997
4275000000.0 1.0040666304602186 0.1939233530065162
4278000000.0 1.015526559654441 0.179751635843597
4281000000.0 0.9953275660380726 0.1840791851881181
4284000000.0 1.0199354584636244 0.11372259440038715
4288000000.0 0.9984873159124151 0.1852674858058949
4291000000.0 0.97475533973489 0.1513488321303718
4294000000.0 0.9894229233361618 0.10697712660557034
4297000000.0 0.9762414424923466 0.15291358874765748
4300000000.0 0.9987240488328399 0.11225378008714129
4303000000.0 1.0202020387668183 0.11847199024079118
4306000000.0 1.0144483330750897 0.10875765877459856
4309000000.0 1.0151409593086627 0.10598125855917974
4312000000.0 1.0030104130608353 0.10796487749470168
4316000000.0 1.0218111100210723 0.08945625884554971
4319000000.0 1.0102621394913867 0.09468629113854789
4322000000.0 0.9801627584352536 0.02643438341827424
4325000000.0 1.0203245329954325 0.02805771563603919
4328000000.0 0.9967573652769547 0.06755243780526958
4331000000.0 1.0263711666323445 0.007357801501841954
4334000000.0 1.0236753223366954 0.030401930897286322
4338000000.0 0.9990772659185877 0.03992635075907404
4341000000.0 1.0376111536932227 0.010548003525752025
4344000000.0 1.0270273259437241 -0.00895009686810283
4347000000.0 1.0320281223433532 -0.025981589756714052
4350000000.0 0.9695522892327673 -0.02783676148644576
4353000000.0 0.9997089226350246 -0.009184867711809458
4356000000.0 1.0099875050963452 -0.03753085567417716
4359000000.0 0.9835772431224433 -0.062145623331807495
4362000000.0 1.0207288551732316 -0.11260188134868308
4366000000.0 1.016031203706845 -0.07340875666666848
4369000000.0 0.9922088054049503 -0.0608152163115325
4372000000.0 0.9904777478028717 -0.12315585853777059
4375000000.0 1.0035957409353415 -0.08989130387706702
4378000000.0 0.9848929075464398 -0.09092661216420593
4381000000.0 1.0043387928300798 -0.09134022555591027
4384000000.0 1.070078977050085 -0.13094970120363478
4388000000.0 0.9955789579544807 -0.10489011464926935
4391000000.0 0.9927217988823078 -0.11601748548334417
4394000000.0 0.9766385899992316 -0.14151871896409624
4397000000.0 0.994825918065944 -0.14837086309648806
4400000000.0 1.0267116906886533 -0.16068482958250135
4403000000.0 1.0139615322287683 -0.17346024341766997
4406000000.0 1.0079589887369835 -0.19463572743933222
4409000000.0 1.0236708854649477 -0.20957696757524005
4412000000.0 0.9724314901885096 -0.2483789471431688
4416000000.0 0.9675059630105285 -0.22481225241602715
4419000000.0 0.9866945166036872 -0.23165875583826007
4422000000.0 0.9835230505035708 -0.18977432914752188
4425000000.0 1.014064873980375 -0.19680317333224331
4428000000.0 0.9722200923605804 -0.23677022908946183
4431000000.0 1.0155315432494219 -0.24979732780432645
4434000000.0 0.9642224922438132 -0.2751569344836633
4438000000.0 0.9942339568350211 -0.2695396966363017
4441000000.0 0.9862382458507721 -0.2619258472017857
4444000000.0 0.9453354955855535 -0.263840723749516
4447000000.0 0.9580537639632121 -0.29658854453043015
4450000000.0 0.964513111092798 -0.27380130608934095
4453000000.0 0.9810215620494048 -0.3138586450285483
4456000000.0 0.9403579533773737 -0.30698159148034687
4459000000.0 0.8940328215276985 -0.33555331389250354
4462000000.0 1.0076121095549948 -0.3528450860755944
4466000000.0 0.9871793802754891 -0.3555989217594543
4469000000.0 0.9578993777415511 -0.3326105216116605
4472000000.0 0.951197275405487 -0.3760000528483623
4475000000.0 0.9286856753341541 -0.34173606564093806
4478000000.0 0.977312142748073 -0.40508575121849233
4481000000.0 0.9147934731024424 -0.38543383113100116
4484000000.0 0.9148971526252312 -0.4374872070176915
4488000000.0 0.9200450386893376 -0.410928180688885
4491000000.0 0.9268700503207241 -0.4154781254477212
4494000000.0 0.9075426109498892 -0.41878974632595034
4497000000.0 0.9012981801950664 -0.39585198314810016
4500000000.0 0.922540146748466 -0.4197931759000341
4503000000.0 0.9324817025688732 -0.44274177517724
4506000000.0 0.9025945357230758 -0.45357139343747194
4509000000.0 0.8951125921579157 -0.45295626716266124
4512000000.0 0.8776856286330607 -0.4681641687889623
4516000000.0 0.9089386491305785 -0.4779452740434114
4519000000.0 0.8716141072844396 -0.4600817007802553
4522000000.0 0.8893139618912178 -0.5008903769771991
4525000000.0 0.9078263340720358 -0.4499303837986136
4528000000.0 0.9031626364267888 -0.49277085994237013
4531000000.0 0.8913596705720622 -0.4930995963921997
4534000000.0 0.8466771837510523 -0.48679004389546965
4538000000.0 0.8754725181843626 -0.502477811195193
4541000000.0 0.8243255906911601 -0.5528621209494929
4544000000.0 0.8520059882922761 -0.5322041934635254
4547000000.0 0.8571990328207919 -0.5278734970238219
4550000000.0 0.8565598903643765 -0.5783111561160117
4553000000.0 0.8278389987718298 -0.5762810926547488
4556000000.0 0.8114255409926312 -0.5576841685848024
4559000000.0 0.8290717736766793 -0.6012025438020177
4562000000.0 0.839433622938536 -0.5967116003777171
4566000000.0 0.8245231417268593 -0.5966004756132575
4569000000.0 0.8180503434231952 -0.5920106948401238
4572000000.0 0.80838270708104 -0.5974738814624628
4575000000.0 0.8065919121904812 -0.6219538902712483
4578000000.0 0.8367047333757529 -0.6154812840860292
4581000000.0 0.7732928931338471 -0.6411668814209153
4584000000.0 0.765736516320134 -0.6373394467997592
4588000000.0 0.8040803819605536 -0.6487543010444476
4591000000.0 0.7819507994689681 -0.6295597659216712
4594000000.0 0.7519983042892048 -0.6649682525981813
4597000000.0 0.7709922343753239 -0.6630763911653534
4600000000.0 0.7366713880983903 -0.6784532439648542
4603000000.0 0.7572390700123862 -0.6986096949930038
4606000000.0 0.7596386708265132 -0.6846661685821379
4609000000.0 0.7540434157462605 -0.6952792178061559
4612000000.0 0.745785948031552 -0.6984306707490503
4616000000.0 0.7166233116201415 -0.6840650462400889
4619000000.0 0.7264729011492506 -0.7140405772121334
4622000000.0 0.7039899205221031 -0.7145413193444746
4625000000.0 0.6744584485704815 -0.7029589418547901
4628000000.0 0.6923189815079408 -0.7149282014542917
4631000000.0 0.6807071969387728 -0.7281683329986227
4634000000.0 0.694609724286158 -0.7403882318041817
4638000000.0 0.7147818550860379 -0.7346450847975546
4641000000.0 0.6890958065042169 -0.7547870946480979
4644000000.0 0.6711823439356005 -0.7444480570204284
4647000000.0 0.6794631138753048 -0.7702393344166713
4650000000.0 0.6477659493278332 -0.7789737362919364
4653000000.0 0.6799834866891978 -0.7632684163370085
4656000000.0 0.6316307151285769 -0.7703060384723026
4659000000.0 0.6389699126137623 -0.8015773198005552
4662000000.0 0.6370128823691953 -0.7916238666326981
4666000000.0 0.6076465705495929 -0.7836666511291734
4669000000.0 0.6242227524990291 -0.7704437838266969
4672000000.0 0.5996307175500358 -0.8467475392432087
4675000000.0 0.5909239133588888 -0.8186693604527069
4678000000.0 0.5707588307661011 -0.7980566951785075
4681000000.0 0.5862342825234623 -0.8687784828886953
4684000000.0 0.5676213230729188 -0.85024382719877
4688000000.0 0.5813255504100592 -0.8328554579033862
4691000000.0 0.5875583347181537 -0.8410232365976147
4694000000.0 0.5644168956283371 -0.8273545019694502
4697000000.0 0.5229305857096673 -0.8212105746917076
4700000000.0 0.5682495124092339 -0.8447349464677734
4703000000.0 0.5408530732427849 -0.8358662361437028
4706000000.0 0.5083162738504603 -0.8817441899111482
4709000000.0 0.5190411803665057 -0.8770524471664577
4712000000.0 0.509176449892165 -0.8856957464896892
4716000000.0 0.49737479103235005 -0.9064742873846037
4719000000.0 0.50505669681199 -0.9040495409837357
4722000000.0 0.5035479390823276 -0.879903296817188
4725000000.0 0.4743842134394235 -0.9007569924993961
4728000000.0 0.4787626346953324 -0.8873716866908148
4731000000.0 0.4678559821835146 -0.8806571187634626
4734000000.0 0.49272732781448425 -0.9017913356956612
4738000000.0 0.4791817427992804 -0.9316909871703232
4741000000.0 0.426434387919574 -0.9580820312018132
4744000000.0 0.4027091577907033 -0.9155115324478214
4747000000.0 0.4567648503807059 -0.8871195187117392
4750000000.0 0.45146026982163734 -0.9191547367564313
4753000000.0 0.4222633907195924 -0.9319119795105189
4756000000.0 0.3881929999880053 -0.9353912572924274
4759000000.0 0.4132404070923566 -0.9458241675902443
4762000000.0 0.39569820582572895 -0.9790903431893143
4766000000.0 0.3893130277361382 -0.9332825336592232
4769000000.0 0.4042463606901793 -0.9525635823455306
4772000000.0 0.36732732620811515 -0.9433786322359117
4775000000.0 0.3747782668971841 -0.9920970380944765
4778000000.0 0.3576342878400334 -0.96642032008477
4781000000.0 0.3377224650433435 -0.9597543465110876
4784000000.0 0.38699659538924547 -0.9779623309188409
4788000000.0 0.32624652831436113 -1.0002818613824804
4791000000.0 0.3185360205121239 -0.9640752148176229
4794000000.0 0.35110836765272846 -0.9844254432113364
4797000000.0 0.29217483516475723 -0.9682931970316025
4800000000.0 0.2907626071966553 -0.9934074072782288
4803000000.0 0.2537907220084341 -0.9668589288084188
4806000000.0 0.2937397724134021 -0.9922637576397568
4809000000.0 0.22607710687827012 -1.0293123358813745
4812000000.0 0.2272818448249913 -0.9935673016825568
4816000000.0 0.27723128037077915 -0.9684368287209701
4819000000.0 0.25732231977600883 -1.0247658506800457
4822000000.0 0.2801255176492214 -1.039847120645189
4825000000.0 0.26577873236757643 -1.0172706807460412
4828000000.0 0.22504357385269297 -0.9844411643972023
4831000000.0 0.1826702183009307 -1.0413524928626763
4834000000.0 0.22756930100881806 -1.0093818675317638
4838000000.0 0.18197470474434765 -1.0155882042210518
4841000000.0 0.16544933270273704 -0.9974360478372709
4844000000.0 0.21092142364850125 -1.0267891099998605
4847000000.0 0.19151903178821847 -0.9949717372580349
4850000000.0 0.14132877583301295 -1.042716221262632
4853000000.0 0.1510253260211942 -0.9809872432857305
4856000000.0 0.1547033200921757 -1.002045529202244
4859000000.0 0.12990254318889324 -1.0620281220354797
4862000000.0 0.1606369867228841 -0.999771363661233
4866000000.0 0.08796817984020522 -1.0411984021063663
4869000000.0 0.09093316842556412 -1.0140397408723054
4872000000.0 0.09404767576157844 -1.0473668561013707
4875000000.0 0.15960605108114262 -1.0513674828002126
4878000000.0 0.10290337734802338 -1.043093191992531
4881000000.0 0.07998916565944454 -1.090946501994178
4884000000.0 0.10563035912836635 -1.0236681328374466
4888000000.0 0.10053803454912634 -1.0070455248087307
4891000000.0 0.06691616440511738 -1.0428216360292135
4894000000.0 0.028054823834796752 -1.0166143511328727
4897000000.0 0.057184483274668484 -1.0172240709206886
4900000000.0 0.05554571629326173 -1.0333819011474001
4903000000.0 0.07280250830393983 -1.0480665645576228
4906000000.0 0.013040477622852684 -1.0580536019580082
4909000000.0 -0.029408753276322676 -1.0563635541494691
4912000000.0 -0.03431144325390062 -1.0747947915794778
4916000000.0 0.022092127319153398 -1.0637058639784378
4919000000.0 0.019996965550151756 -1.0850750387240007
4922000000.0 -0.006538169998418247 -1.0320191578321272
4925000000.0 -0.06662821335057346 -1.0005772619114408
4928000000.0 0.03059100806781794 -1.027367859146975
4931000000.0 -0.0016137858678045153 -1.040460170770304
4934000000.0 -0.04432159836202702 -0.9863954425274758
4938000000.0 -0.10667702517182111 -1.0191635109011463
4941000000.0 -0.06957880316633878 -1.0317288374288587
4944000000.0 -0.05374337980737312 -0.9784524204803506
4947000000.0 -0.0648631963968195 -1.0012871001834984
4950000000.0 -0.09976046697556647 -0.982737060836436
4953000000.0 -0.14056959711426903 -1.0705255754561844
4956000000.0 -0.09133275455099968 -1.041598999811419
4959000000.0 -0.16940393902952158 -1.0002870610592027
4962000000.0 -0.13789092975858688 -1.0398021542841862
4966000000.0 -0.12700578179603467 -1.0685736739008402
4969000000.0 -0.13381246738256924 -1.0528390586390064
4972000000.0 -0.18427744141305855 -1.0506739781165446
4975000000.0 -0.1299544612942938 -1.0181678641518677
4978000000.0 -0.17807889666735527 -1.0169393366247779
4981000000.0 -0.20153432841440252 -1.029469469250399
4984000000.0 -0.19166430082543998 -1.0044790704313238
4988000000.0 -0.18417836196002124 -1.023293779491883
4991000000.0 -0.17177291592841448 -1.0462129637550313
4994000000.0 -0.1904013785786976 -1.0172585566544956
4997000000.0 -0.2352952558179912 -1.0046196794029076
5000000000.0 -0.21269445832205658 -1.0391642319480159
5003000000.0 -0.24635873827533383 -1.0495488657392134
5006000000.0 -0.28275302357852683 -1.0346701235338718
5009000000.0 -0.25789144943889 -0.9951639555630952
5012000000.0 -0.2796346167335892 -1.0091852670392203
5016000000.0 -0.25981891218854586 -1.0165556529775404
5019000000.0 -0.30317611393810084 -1.0078316849268705
5022000000.0 -0.28642755147342913 -1.0039269972229936
5025000000.0 -0.30938943335369123 -1.0835941874471209
5028000000.0 -0.3291620595308843 -0.9906573119818705
5031000000.0 -0.2824836098448821 -0.9668880053074637
5034000000.0 -0.3499431078413431 -1.0182567756648586
5038000000.0 -0.32191673683756916 -0.9546261035941044
5041000000.0 -0.2880808826110645 -1.000124926719094
5044000000.0 -0.30076506730726615 -0.9734985762146885
5047000000.0 -0.31944806637452566 -0.9946224568830103
5050000000.0 -0.28852726182493127 -1.0130668895950456
5053000000.0 -0.3835831287909415 -1.024813194374137
5056000000.0 -0.3371267589242519 -0.9820323645999263
5059000000.0 -0.32474397685396644 -0.9946114000754179
5062000000.0 -0.4409706904378573 -0.9615635829687821
5066000000.0 -0.3602748220734402 -0.9810061999528019
5069000000.0 -0.41534630301660713 -0.9889872482305878
5072000000.0 -0.3670718587278791 -0.9527430390447598
5075000000.0 -0.37824144065840315 -0.981179926140191
5078000000.0 -0.44434924243052515 -0.972279144001698
5081000000.0 -0.44533635634072827 -0.8808613786769895
5084000000.0 -0.45021233199989097 -0.9591480920962332
5088000000.0 -0.42074900603221915 -0.9316348387585152
5091000000.0 -0.5149966199377292 -0.9476512736769702
5094000000.0 -0.45101456135745305 -0.9168405964264886
5097000000.0 -0.41429455453741837 -0.9210951537494942
5100000000.0 -0.5084505077047791 -0.9169892803002874
5103000000.0 -0.4855999584802222 -0.8704916614141213
5106000000.0 -0.511526053514525 -0.9449449212096557
5109000000.0 -0.4360296670207321 -0.9191765647745052
5112000000.0 -0.4855493882204658 -0.8752197021890467
5116000000.0 -0.49144785865027135 -0.873324158452611
5119000000.0 -0.5706921438951921 -0.8742383950626087
5122000000.0 -0.48640217978626515 -0.9017976256149645
5125000000.0 -0.48010578100887596 -0.9244836752550526
5128000000.0 -0.5453761478846807 -0.8555963797396025
5131000000.0 -0.5472051465324271 -0.900108428015478
5134000000.0 -0.5391639121820473 -0.9023002877616322
5138000000.0 -0.5280212069572368 -0.8925213423850459
5141000000.0 -0.5161593623059866 -0.9190933101270184
5144000000.0 -0.5182301034477942 -0.8995642738230248
5147000000.0 -0.6023095946027615 -0.9008702818106151
5150000000.0 -0.5588771231603755 -0.8753874712488822
5153000000.0 -0.6277465119538279 -0.8679552755318785
5156000000.0 -0.6159332032251772 -0.893484066146111
5159000000.0 -0.5691604326489014 -0.9177305490230944
5162000000.0 -0.6406340041161355 -0.8284452174156679
5166000000.0 -0.6529379025658543 -0.8332788332986787
5169000000.0 -0.6210495294788418 -0.8733616289606736
5172000000.0 -0.603217358892567 -0.8526975739799432
5175000000.0 -0.6066541525473695 -0.872812603232091
5178000000.0 -0.65617198159891 -0.8266787076700696
5181000000.0 -0.661522702582592 -0.8495172187155017
5184000000.0 -0.6587892951673749 -0.7983497838038677
5188000000.0 -0.6319097844050614 -0.8287255367942765
