! Created with skrf 1.8.0 (http://scikit-rf.org).
# Hz S RI R 50.0 
!freq ReS11 ImS11
4000000000.0 0.7437210340593239 0.6922097706839117
4003000000.0 0.7779867429504801 0.7079415889264877
4006000000.0 0.7681893678344767 0.6723879889132928
4009000000.0 0.766128072717134 0.6881232792064742
4012000000.0 0.7564930779697043 0.7284407679479457
4016000000.0 0.7682653778651795 0.6602407147442839
4019000000.0 0.8598076122224858 0.6427522574329353
4022000000.0 0.7975586941219439 0.6474250149093111
4025000000.0 0.8138136624289537 0.5982545349250791
4028000000.0 0.8637694909167803 0.6225349422732063
4031000000.0 0.761716698754222 0.6111076885218968
4034000000.0 0.8156769723106796 0.5919883923778876
4038000000.0 0.8275462592777871 0.6153589776453687
4041000000.0 0.8184308848824781 0.5959676119445786
4044000000.0 0.8634159963959056 0.6105052242945734
4047000000.0 0.8907582123360674 0.6555458501985248
4050000000.0 0.8641754590145878 0.5819069508844699
4053000000.0 0.8446683333385275 0.554907153380555
4056000000.0 0.8688037980007506 0.5646873091429443
4059000000.0 0.8293826092453093 0.5684188889091377
4062000000.0 0.8660081532750409 0.575193788803519
4066000000.0 0.8408802548653656 0.5092905733630375
4069000000.0 0.9006498488932996 0.5362069219956612
4072000000.0 0.8914476622749057 0.5630090674683643
4075000000.0 0.893093925224813 0.5413012926765921
4078000000.0 0.9248125506442041 0.4713247138546268
4081000000.0 0.8825978466679456 0.5571978534250988
4084000000.0 0.9419413230806941 0.48508514891139703
4088000000.0 0.9234779111668149 0.503772732740993
4091000000.0 0.9618627870528403 0.4995477612683518
4094000000.0 0.9177902235174731 0.47418900970999756
4097000000.0 0.9190873286454398 0.4878885904776776
4100000000.0 0.9062049792250623 0.4391784330174728
4103000000.0 0.9309473542668363 0.4675131412513614
4106000000.0 0.9251194421532576 0.43595279501289985
4109000000.0 0.9313578668799267 0.390444276328014
4112000000.0 0.9435878407260367 0.39409940623507794
4116000000.0 0.9381684583713578 0.4289679840693402
4119000000.0 0.9486813763538603 0.3935107753233277
4122000000.0 0.9605155385102834 0.3343993377728357
4125000000.0 0.9725202790911869 0.3869993021593227
4128000000.0 0.9314286068049676 0.3843421758327741
4131000000.0 0.9498619893295894 0.3647832736554726
4134000000.0 0.9372122353261347 0.3769240683142474
4138000000.0 0.9343485866874934 0.28522047363648234
4141000000.0 0.9651675945127695 0.34971174486942813
4144000000.0 0.9926733454739887 0.38139730318691684
4147000000.0 0.9978645894122256 0.3214625881178435
4150000000.0 0.9837439920404205 0.3477100658927446
4153000000.0 0.9689405890404412 0.3134667000425855
4156000000.0 1.0114371390047225 0.2924684952552682
4159000000.0 0.9689743426005804 0.2949113250360032
4162000000.0 0.9831082779747173 0.2847381612548041
4166000000.0 1.0169929948128182 0.2827464707171271
4169000000.0 0.9757424095045437 0.26315506771730324
4172000000.0 0.9768456785370742 0.25733046854365066
4175000000.0 1.0060218445500957 0.25461337058206684
4178000000.0 0.9940766724371711 0.24686899341365487
4181000000.0 1.0369082337144153 0.18892632985693836
4184000000.0 0.989142067770427 0.23855587084879776
4188000000.0 0.9820904183114119 0.18630882011076982
4191000000.0 0.9778208355958427 0.21882116362955345
4194000000.0 0.9813522540389861 0.18692045181967526
4197000000.0 1.0016069954136622 0.2014978479239144
4200000000.0 1.0085972625256676 0.20222266916236908
4203000000.0 1.024188696617182 0.19436826264564017
4206000000.0 1.0199072655268284 0.15257608349825846
4209000000.0 1.005362778152856 0.14067959910956973
4212000000.0 1.0111045890447807 0.10470172620754281
4216000000.0 1.0300267840659494 0.16417709647727563
4219000000.0 1.0404056984413748 0.13300845901471367
4222000000.0 1.0105717524148958 0.09250231306669154
4225000000.0 1.0077489206485264 0.1062619710647312
4228000000.0 1.0245593553447363 0.09118719253788135
4231000000.0 1.0126886489348133 0.07529133121672194
4234000000.0 1.022210772843312 0.0608229299497543
4238000000.0 1.0238740889914708 0.058042977972904
4241000000.0 1.009292844628661 0.024202042410016056
4244000000.0 0.997632049516934 0.04366994119102452
4247000000.0 1.020374760982024 0.043509063786630775
4250000000.0 0.998409714968272 0.023793861982524867
4253000000.0 0.9904014153491167 0.005014431263409919
4256000000.0 1.0391232747103138 0.0026802922400579465
4259000000.0 0.9893448940244409 -0.01639899882254306
4262000000.0 1.0095029388778767 -0.01972026999926152
4266000000.0 1.0269171866874884 -0.05693079783814997
4269000000.0 1.0124760877753136 -0.013049202014279823
4272000000.0 1.018855616192765 -0.041033707840977145
4275000000.0 1.0018502743151032 -0.04384960347843679
4278000000.0 1.0359825745465465 -0.049518779898494174
4281000000.0 1.0119029042750178 -0.055946293099740446
4284000000.0 1.0266713967892032 -0.11242335120771317
4288000000.0 0.9901544912129087 -0.05996526588206984
4291000000.0 0.9783749117902942 -0.10785652280670946
4294000000.0 1.0180371760721418 -0.11758954927335605
4297000000.0 0.9963536053822979 -0.07663193750853567
4300000000.0 0.981426931032847 -0.09938943763881004
4303000000.0 0.9777886508043463 -0.13838857574250685
4306000000.0 0.996284128665659 -0.13227547869420797
4309000000.0 1.0029780905079193 -0.1367760320054128
4312000000.0 1.025407680687562 -0.11017606580441311
4316000000.0 1.0095775473180577 -0.15703586254243368
4319000000.0 0.9671395163848541 -0.15515942631710816
4322000000.0 0.971984731134672 -0.20809250084725678
4325000000.0 0.9957462152825117 -0.19202942898203473
4328000000.0 0.9607636722225246 -0.2032259960077843
4331000000.0 0.9851690617262827 -0.24084394592300823
4334000000.0 0.9849296227687055 -0.220825162383646
4338000000.0 0.9718604631751082 -0.22831713626644967
4341000000.0 1.0040019362519241 -0.226227128997663
4344000000.0 0.9946871765079501 -0.2599423433425181
4347000000.0 0.9802383065028352 -0.27318906024151646
4350000000.0 0.922119753172612 -0.2666298665765166
4353000000.0 0.9428928414142228 -0.24440794661563303
4356000000.0 0.9408124310442874 -0.3030488890844847
4359000000.0 0.924989925537742 -0.28074460694705605
4362000000.0 0.9597096578243189 -0.3725921730981613
4366000000.0 0.9735741015563397 -0.3296107022516762
4369000000.0 0.9143726233113906 -0.3240140717807537
4372000000.0 0.9407628578419522 -0.36506153077173803
4375000000.0 0.9549475292077685 -0.34525010507315423
4378000000.0 0.9158273824524168 -0.35775829557469097
4381000000.0 0.9234763775428998 -0.364403777926551
4384000000.0 0.9970252064745938 -0.41849059140258793
4388000000.0 0.9252894707164874 -0.3941826529235035
4391000000.0 0.9302151643584304 -0.39393011055827465
4394000000.0 0.8945940404716294 -0.40649310804992056
4397000000.0 0.9151636884897947 -0.4222948785597994
4400000000.0 0.9142653059186456 -0.4275315745069205
4403000000.0 0.9164173355268973 -0.43223535176025285
4406000000.0 0.9049799364057408 -0.4615257386084642
4409000000.0 0.9196770784148645 -0.4604042175667439
4412000000.0 0.8646004854020305 -0.49527937209719697
4416000000.0 0.8754888933361158 -0.47955239264156463
4419000000.0 0.8885318259543555 -0.4966136317958359
4422000000.0 0.8854451279766946 -0.48254684834290135
4425000000.0 0.8968881407940219 -0.48792062032081185
4428000000.0 0.8796842736142774 -0.5254520797802842
4431000000.0 0.8791089963932808 -0.5158765042591892
4434000000.0 0.8481003020346042 -0.5341771261269354
4438000000.0 0.8840111555903152 -0.5359846997105513
4441000000.0 0.8680363492181025 -0.5538902990059189
4444000000.0 0.8421603214137314 -0.5409412296049402
4447000000.0 0.8323586649885037 -0.5581782749367378
4450000000.0 0.8316600739600131 -0.5553565508626193
4453000000.0 0.8430783948905417 -0.5823758886719009
4456000000.0 0.8073881288827491 -0.5807664824089195
4459000000.0 0.7797914430170689 -0.5855753960381287
4462000000.0 0.847823654575437 -0.6143569343680475
4466000000.0 0.8329629021927115 -0.6182589373079252
4469000000.0 0.8108014244480696 -0.6074674018236377
4472000000.0 0.8003903101713871 -0.6438682740399312
4475000000.0 0.7896823053326691 -0.6201410204472686
4478000000.0 0.7964202867486747 -0.6625380154906654
4481000000.0 0.7539737993946 -0.6493371232708599
4484000000.0 0.7430997784315727 -0.6804401988311943
4488000000.0 0.7457100454895556 -0.6581390947335095
4491000000.0 0.7387255428078805 -0.6811228176956564
4494000000.0 0.7359623481742655 -0.6666799324179089
4497000000.0 0.7612449338893883 -0.6716983654198876
4500000000.0 0.7329822591867292 -0.6913349707699639
4503000000.0 0.7423591391209323 -0.706722815711438
4506000000.0 0.7089725718748765 -0.720138719095175
4509000000.0 0.6919997996381423 -0.7136455701183537
4512000000.0 0.691380137076169 -0.7188969293022982
4516000000.0 0.7014933730138043 -0.7542450719588137
4519000000.0 0.6727851824994764 -0.7192451721399351
4522000000.0 0.6873292327496711 -0.7476839474433842
4525000000.0 0.6907976318621201 -0.7310430372203315
4528000000.0 0.6769391307326924 -0.7922696345028488
4531000000.0 0.6603376907036034 -0.7651242853548501
4534000000.0 0.62589547042319 -0.7695384531236416
4538000000.0 0.638151808771237 -0.7622878984643278
4541000000.0 0.6215163269636366 -0.8032176534423975
4544000000.0 0.6358447395218043 -0.7768491137775672
4547000000.0 0.6341304506608151 -0.7760880416485212
4550000000.0 0.6291081496572757 -0.8276359117003236
4553000000.0 0.6022188495650043 -0.8197187556065436
4556000000.0 0.5802111284682229 -0.7999189212725707
4559000000.0 0.5870350142531927 -0.8127267548254791
4562000000.0 0.5914507174949344 -0.8159506304716754
4566000000.0 0.5785088839953296 -0.8444025253688034
4569000000.0 0.557153212146822 -0.8575002717972671
4572000000.0 0.5490908823042434 -0.8533621610120468
4575000000.0 0.5395425725235308 -0.873979666296915
4578000000.0 0.5630840194508318 -0.8736126983926661
4581000000.0 0.5270223166266291 -0.8642665703377641
4584000000.0 0.5127081504898425 -0.8801229305549524
4588000000.0 0.5128288823009663 -0.854633089934434
4591000000.0 0.510041400612825 -0.8907765110774389
4594000000.0 0.4898700761833371 -0.8902526063797318
4597000000.0 0.4740684096197158 -0.9078301419195306
4600000000.0 0.4612924722799101 -0.9128886058003869
4603000000.0 0.4566912905656526 -0.9036563246393384
4606000000.0 0.4681333485416802 -0.9178745075886502
4609000000.0 0.4531538666044198 -0.9007284759004366
4612000000.0 0.4321481259183352 -0.9065365570120985
4616000000.0 0.41992758490019894 -0.9059361976363642
4619000000.0 0.40653698140576805 -0.9214334811159105
4622000000.0 0.39481459947689895 -0.9412898417531034
4625000000.0 0.35135522772062333 -0.9283422569840897
4628000000.0 0.41457700300830214 -0.9655639330979773
4631000000.0 0.3807546461084506 -0.9483148300888556
4634000000.0 0.3543540393584848 -0.9466513101885234
4638000000.0 0.37811096598027816 -0.9413208289189036
4641000000.0 0.3512547006682968 -0.9605869654398119
4644000000.0 0.32420975301231636 -0.962451000947909
4647000000.0 0.3432749689276484 -0.9610035051623792
4650000000.0 0.286641606658809 -0.9639233086578907
4653000000.0 0.3187675672513389 -0.9693419424914275
4656000000.0 0.3082590181373971 -0.9957159290897903
4659000000.0 0.27067711402123174 -0.9688060987134857
4662000000.0 0.2685986808983958 -0.9840772851959586
4666000000.0 0.23591813665976397 -1.0106886497417864
4669000000.0 0.2656322353251517 -1.012228114390302
4672000000.0 0.23242308869571254 -1.0179534096302068
4675000000.0 0.223840030685175 -1.0198903009007623
4678000000.0 0.2194034465590052 -0.9603095369938193
4681000000.0 0.18793228264942363 -1.0074428576315144
4684000000.0 0.1314438563297788 -1.0280161648421442
4688000000.0 0.17128446948992598 -0.9884781739705133
4691000000.0 0.1865426985392063 -1.039035803433681
4694000000.0 0.20435243731494568 -0.9798878210260957
4697000000.0 0.13444530404545257 -0.9662109526466076
4700000000.0 0.16304245965859843 -1.021321270923466
4703000000.0 0.2031258357099039 -0.9415374777538974
4706000000.0 0.11259561357824602 -1.0130058305521066
4709000000.0 0.11031667734861536 -1.0076444604168215
4712000000.0 0.12037382337083577 -1.010528235732449
4716000000.0 0.0872713276513919 -1.03122109434394
4719000000.0 0.15024605345851486 -0.9931090040552701
4722000000.0 0.1263104348154849 -1.0079779041864456
4725000000.0 0.08104097819116282 -0.989135840708621
4728000000.0 0.04350705618546963 -1.0174807083268338
4731000000.0 0.04655671355396185 -1.0495393114375164
4734000000.0 0.06716349727303159 -0.9866883058906142
4738000000.0 0.07567600869390068 -1.050275321682138
4741000000.0 0.016545314616348922 -1.0593292022253256
4744000000.0 -0.03622621165897333 -1.0761197715801223
4747000000.0 0.0009681258794412284 -0.9927779034571732
4750000000.0 -0.00786745365121616 -1.0130668226153265
4753000000.0 -0.01648048658776985 -1.0275975548499459
4756000000.0 -0.05837242997427233 -1.027463751809671
4759000000.0 -0.05917060243504013 -1.0714914212812348
4762000000.0 -0.15185765012761532 -1.0434237913157096
4766000000.0 -0.07042327815122629 -1.0429652564229925
4769000000.0 -0.10753458704447777 -1.0401266450500077
4772000000.0 -0.07925502598431139 -1.0256166639789472
4775000000.0 -0.12300372599952203 -1.0585228492216086
4778000000.0 -0.12298680989614796 -1.0659370626960294
4781000000.0 -0.1114348259005235 -1.0358346882547558
4784000000.0 -0.12536926953382205 -1.0124962169092184
4788000000.0 -0.19970382830182937 -1.0314876923440792
4791000000.0 -0.15599774281466455 -1.02746695684175
4794000000.0 -0.12210589992620885 -1.0390984503698701
4797000000.0 -0.1721909676367711 -0.9785693044510205
4800000000.0 -0.19752093860329548 -0.9702919370452026
4803000000.0 -0.2453521096408971 -0.9860862987512806
4806000000.0 -0.22854598331933196 -1.0283784597923973
4809000000.0 -0.2666768892906893 -0.9709390589770813
4812000000.0 -0.25693988721783345 -0.9789391542674142
4816000000.0 -0.21010780426765918 -0.9961965598795781
4819000000.0 -0.2561810088037256 -1.024703405471552
4822000000.0 -0.2493939282708456 -1.0329978901720525
4825000000.0 -0.2530164157527651 -1.0593761320534707
4828000000.0 -0.27834698103868927 -0.9713608680704519
4831000000.0 -0.32999600777370014 -0.997694028733904
4834000000.0 -0.2949447278239552 -0.9874511724558406
4838000000.0 -0.3283576014503919 -0.9807900906130854
4841000000.0 -0.34513745487557035 -0.9653212540367478
4844000000.0 -0.29722299624432674 -0.9968745197528898
4847000000.0 -0.2963135459022249 -0.9250147744830055
4850000000.0 -0.3843278443552679 -0.9758315930023758
4853000000.0 -0.3275985771064831 -0.9384132024260647
4856000000.0 -0.36539403620559235 -0.9194160521510367
4859000000.0 -0.41001647436364874 -0.9791941232888927
4862000000.0 -0.3549992339381808 -0.9424072643702023
4866000000.0 -0.41907336662627837 -0.9497883768152325
4869000000.0 -0.42313129042510395 -0.9619871323048158
4872000000.0 -0.4784875755952498 -0.953576779450438
4875000000.0 -0.42348023035341353 -0.988545371292927
4878000000.0 -0.42289033620109395 -0.9485179260210712
4881000000.0 -0.5229448905664021 -0.9767275523322473
4884000000.0 -0.4393589179063408 -0.9247871299749891
4888000000.0 -0.44569148545790993 -0.9112582889558722
4891000000.0 -0.48779742310549346 -0.9341677001982632
4894000000.0 -0.48568799022493103 -0.9223764423360546
4897000000.0 -0.4691906471323118 -0.9281789195836369
4900000000.0 -0.5167951417408764 -0.9438873052962077
4903000000.0 -0.5542136884204181 -0.926794594535896
4906000000.0 -0.543091770960597 -0.8879804728027889
4909000000.0 -0.5478259765499403 -0.8961626858520763
4912000000.0 -0.585021455870976 -0.8553069562007606
4916000000.0 -0.5909928097833358 -0.8851602395478801
4919000000.0 -0.5565708656932535 -0.896989107113917
4922000000.0 -0.6040315482424872 -0.8599004797729611
4925000000.0 -0.6535950822549548 -0.8247178643768253
4928000000.0 -0.5531577421289539 -0.8537043594918408
4931000000.0 -0.5999087935517681 -0.8619601910639829
4934000000.0 -0.6248696675800728 -0.8394315706250131
4938000000.0 -0.6395277902246403 -0.7910414201459538
4941000000.0 -0.622062231012862 -0.7968669774422465
4944000000.0 -0.627113646544218 -0.7926013582308262
4947000000.0 -0.6543471230235322 -0.7982354646043872
4950000000.0 -0.6647262854679047 -0.8249410023858836
4953000000.0 -0.7547836372057456 -0.7568979502444834
4956000000.0 -0.6535809929415397 -0.7604025524146554
4959000000.0 -0.6724013788643803 -0.7314731885061345
4962000000.0 -0.7328282981254041 -0.7844310897960105
4966000000.0 -0.7350341685831848 -0.7886123124079166
4969000000.0 -0.7041764265789829 -0.7656246146914938
4972000000.0 -0.7534569132926819 -0.7252504089134129
4975000000.0 -0.7287583736631417 -0.7491497291594845
4978000000.0 -0.758274998280064 -0.7108231670497084
4981000000.0 -0.7639092866172378 -0.7218286866960903
4984000000.0 -0.749562718044816 -0.6820233464288725
4988000000.0 -0.7875169230965839 -0.7210200386177575
4991000000.0 -0.7627253222371317 -0.7275974023532212
4994000000.0 -0.783492719764048 -0.6623716652313161
4997000000.0 -0.8061400731649437 -0.6287721040371124
5000000000.0 -0.8286643606435985 -0.6757810089132639
5003000000.0 -0.8314171814161402 -0.6370231885612053
5006000000.0 -0.852084923710171 -0.6381072696852618
5009000000.0 -0.8349683131292809 -0.6316612441156635
5012000000.0 -0.8870539380024645 -0.6379390960900779
5016000000.0 -0.8296734899828273 -0.6692486653935613
5019000000.0 -0.848135092687707 -0.6014777362887697
5022000000.0 -0.8635362675263191 -0.5968193758796789
5025000000.0 -0.9056777158366152 -0.5994456892719918
5028000000.0 -0.8905934161673265 -0.5544542810513012
5031000000.0 -0.9027370741354006 -0.5312563666280837
5034000000.0 -0.9367925056638776 -0.5544932493698874
5038000000.0 -0.8778874639483099 -0.514540378494676
5041000000.0 -0.9109863700622296 -0.5467560077639593
5044000000.0 -0.8484200703677257 -0.5466507908340148
5047000000.0 -0.9140888618186047 -0.48139701339198826
5050000000.0 -0.9211962164954034 -0.5144776839746643
5053000000.0 -0.9108857930118814 -0.4699828456526986
5056000000.0 -0.8856099593949447 -0.4848472426306938
5059000000.0 -0.9470077850126992 -0.4841201207668647
5062000000.0 -0.9676667560315653 -0.43048162313325555
5066000000.0 -0.9847291144142685 -0.46455039399640896
5069000000.0 -0.9683332657732343 -0.4492505947865236
5072000000.0 -0.9231558118458523 -0.45636354539451457
5075000000.0 -0.8793440613164307 -0.4315112485103428
5078000000.0 -0.9847813929981244 -0.41787070655593594
5081000000.0 -0.9539611966110604 -0.37489428619094234
5084000000.0 -0.9637068355411706 -0.3646708730541512
5088000000.0 -0.9845176340949763 -0.3853212694644464
5091000000.0 -0.9258575726215972 -0.26150968685445525
5094000000.0 -0.9693920989703024 -0.28693515791659174
5097000000.0 -0.9514415016321994 -0.3403343260256874
5100000000.0 -1.0261401038426796 -0.29835472453533873
5103000000.0 -1.0261368908865691 -0.2073704048657004
5106000000.0 -1.0172749739099927 -0.23005893723701534
5109000000.0 -0.9960804831930147 -0.22886426861222475
5112000000.0 -1.0176238062326732 -0.1940032835588813
5116000000.0 -1.0309237252281784 -0.20337580714640488
5119000000.0 -1.0944072407571699 -0.15223220465896103
5122000000.0 -1.0220918531915102 -0.12346104252161882
5125000000.0 -1.0120770544427682 -0.2160017406761504
5128000000.0 -1.047342212850687 -0.1201320092410399
5131000000.0 -1.015433200323695 -0.12458327615637131
5134000000.0 -1.0009985638067016 -0.12504349846611096
5138000000.0 -1.0138961659261008 -0.14710402282542615
5141000000.0 -1.054198265095332 -0.10901336139199075
5144000000.0 -0.9649061684657902 -0.08162497576937003
5147000000.0 -1.0652339340734631 -0.07549838199984495
5150000000.0 -1.0860513693759815 -0.0003072045139582355
5153000000.0 -1.0714593264998586 -0.07701232313132925
5156000000.0 -1.0070072692966359 -0.03778863667523828
5159000000.0 -1.0566022713619794 0.01200229464630763
5162000000.0 -1.0495571751547577 0.03899326444417294
5166000000.0 -0.9947402370221374 -0.037896818127637844
5169000000.0 -1.0410271514675042 0.06101816779936333
5172000000.0 -1.0795378945889693 0.042562478275235266
5175000000.0 -1.080284710115944 0.053562283607033606
5178000000.0 -1.0797677766140679 0.12383956224320981
5181000000.0 -1.0494106041787066 0.1275993412812807
5184000000.0 -1.0295651493092581 0.10000732018527843
