! Created with skrf 1.8.0 (http://scikit-rf.org).
# Hz S RI R 50.0 
!freq ReS11 ImS11
4000000000.0 0.6043689816667175 0.775326745368873
4003000000.0 0.6789766265923751 0.8504753203981129
4006000000.0 0.6589165372344178 0.8070701142549038
4009000000.0 0.6797705011555931 0.8306546122088334
4012000000.0 0.6164228688030614 0.8234344601858642
4016000000.0 0.7056691983328516 0.7692260464189942
4019000000.0 0.7024788643996986 0.7709023147697818
4022000000.0 0.6502762456519395 0.8502941042485671
4025000000.0 0.7592322231540952 0.7565027442023585
4028000000.0 0.7171462408002232 0.7131698658758177
4031000000.0 0.6571164044345157 0.7342552949902729
4034000000.0 0.7321656904666464 0.734710095221774
4038000000.0 0.7592064110825228 0.719399562511041
4041000000.0 0.6872947426200315 0.7130568784169148
4044000000.0 0.7557260433163859 0.7377078019753438
4047000000.0 0.7718651579215675 0.7654478017345078
4050000000.0 0.776042985930847 0.7010168466830383
4053000000.0 0.757436725275346 0.6715390106548731
4056000000.0 0.7823905331441592 0.7048643345801183
4059000000.0 0.7828952275490784 0.688468894025591
4062000000.0 0.7855531802277362 0.6933081127537617
4066000000.0 0.7103852904225469 0.6360960071662974
4069000000.0 0.8195473455800171 0.6945356201881014
4072000000.0 0.74316242246585 0.7164962251814386
4075000000.0 0.7722761887223772 0.7445995582619522
4078000000.0 0.8059567150369719 0.6314452521156123
4081000000.0 0.764740088122896 0.736061916856432
4084000000.0 0.8155922787371382 0.6650670634724416
4088000000.0 0.8107053017883026 0.6881016274777649
4091000000.0 0.8726035334733815 0.7074205291295652
4094000000.0 0.8063554914017568 0.6237451828992664
4097000000.0 0.8453593559859192 0.6359000329608357
4100000000.0 0.865737226915005 0.6049500266166872
4103000000.0 0.8583107289385536 0.6053191916600202
4106000000.0 0.8656132840741458 0.5697637463481686
4109000000.0 0.8550849017309159 0.5764096188570098
4112000000.0 0.8505153429323069 0.6179211202616468
4116000000.0 0.8580927699117631 0.5889928241605403
4119000000.0 0.8642906748483382 0.5664842970797515
4122000000.0 0.8824716101387207 0.556597781427875
4125000000.0 0.9152138988455607 0.5437506099811651
4128000000.0 0.8257853340511073 0.5254991096349296
4131000000.0 0.8441581133215982 0.5815207284079733
4134000000.0 0.8909896558152203 0.5269953942425829
4138000000.0 0.8541995501425264 0.48629126213823287
4141000000.0 0.8919528952082986 0.5244828021864202
4144000000.0 0.8742853032141633 0.5387527582023992
4147000000.0 0.8852621403157231 0.46980880223715
4150000000.0 0.9223001380623413 0.4937836622277357
4153000000.0 0.8930255933972172 0.5075202084976476
4156000000.0 0.9103783682123778 0.5468223297144529
4159000000.0 0.8918698846374464 0.46486227266260943
4162000000.0 0.9186276144613346 0.473604391876996
4166000000.0 0.9402735942285534 0.4507101948272867
4169000000.0 0.9282603623302874 0.43796523758542893
4172000000.0 0.9505841734551911 0.4521792974834837
4175000000.0 0.9311092431247607 0.4483220227095805
4178000000.0 0.9195282425510822 0.4459039663227795
4181000000.0 0.9599320303443797 0.3943399502195575
4184000000.0 0.962157177389294 0.4208159966211122
4188000000.0 0.9539378269207084 0.39325118596589914
4191000000.0 0.9245628144836158 0.40554135413665565
4194000000.0 0.9358894911507258 0.3807219219779683
4197000000.0 0.9470988101490235 0.3860082895295653
4200000000.0 0.9343897814133648 0.38914860278662755
4203000000.0 0.9511116730874298 0.35909396165319407
4206000000.0 0.9780072497769841 0.35520869788292503
4209000000.0 0.9383544928810965 0.37325206398056027
4212000000.0 0.9726586232156534 0.31941198759474465
4216000000.0 0.9580107084073859 0.35101650465920736
4219000000.0 0.9906921812009286 0.35722126188686254
4222000000.0 0.9829917929160936 0.3153578113001461
4225000000.0 0.9688569213160585 0.2955756338735315
4228000000.0 0.9966960391168205 0.3076721204952314
4231000000.0 0.9780223816855484 0.2910815040153125
4234000000.0 0.9873123411432663 0.29338779680398663
4238000000.0 0.9724783086990062 0.27845403837731786
4241000000.0 0.9821180637811275 0.2519636442394347
4244000000.0 0.9873442404910318 0.26995973891146696
4247000000.0 0.9739788768894947 0.270184391241143
4250000000.0 0.9685195233923534 0.23900878154762256
4253000000.0 0.9644759618926728 0.22941130840966412
4256000000.0 1.0065489036783601 0.24124992932230716
4259000000.0 0.9489614703752013 0.21081589242888302
4262000000.0 0.9907630462580794 0.17419414741471592
4266000000.0 1.0322724073713856 0.17351791126336658
4269000000.0 1.0018305226342434 0.20858744590969727
4272000000.0 0.9833836048937586 0.20304577385642547
4275000000.0 0.9935103454933023 0.18662368286241982
4278000000.0 1.0192482135031147 0.17124017484423687
4281000000.0 1.0368324898643193 0.17097697641036774
4284000000.0 1.0041757565464846 0.14364516201303926
4288000000.0 0.9897973645809823 0.1623724063997107
4291000000.0 0.9774821056262238 0.12903291089379026
4294000000.0 0.9967552086121068 0.11470312788466668
4297000000.0 0.9853265661121664 0.1431040485379606
4300000000.0 0.9944228002449125 0.13440883077729243
4303000000.0 0.9627572474766587 0.08263223963426074
4306000000.0 1.0110257949165495 0.13098259945036472
4309000000.0 1.0086418001196045 0.08438650423418441
4312000000.0 1.0223598995202265 0.12186248434230637
4316000000.0 1.0110034409602062 0.07096328935834494
4319000000.0 0.9959234226043694 0.06723833245543738
4322000000.0 0.99357655198963 0.05489127023804062
4325000000.0 1.0375978883235983 0.0534367513629556
4328000000.0 0.9871123572499226 0.05692885272978028
4331000000.0 1.0194947543484574 -0.0047802460213967335
4334000000.0 1.0211679891260281 0.023966018218112922
4338000000.0 1.0101447767074085 0.038825918940791584
4341000000.0 1.0261918602276379 0.023592145544507365
4344000000.0 1.045179133932206 0.0009421154118476327
4347000000.0 1.0159292600787397 -0.041754839802948335
4350000000.0 0.9721392064426853 -0.03618371135133423
4353000000.0 0.9936615564299298 -0.017445914576023097
4356000000.0 0.9903077195458473 -0.059006822915478443
4359000000.0 0.9776787301647722 -0.03430469558639959
4362000000.0 1.010690494227121 -0.1259696461524727
4366000000.0 1.0269742585031205 -0.045598116347774
4369000000.0 0.9638883172397076 -0.08916833586216973
4372000000.0 1.01844085487666 -0.1525875345277895
4375000000.0 1.0175977966275624 -0.08920118765940063
4378000000.0 0.9856368631123705 -0.08920690234375679
4381000000.0 0.9976191970036372 -0.10927712606522241
4384000000.0 1.0672152791129472 -0.1407009261641954
4388000000.0 0.9707037989868718 -0.1273969983144862
4391000000.0 1.0141308206708062 -0.14129059482477294
4394000000.0 0.9718173159937725 -0.1381381597349019
4397000000.0 0.9814868869672255 -0.16088174394401708
4400000000.0 1.0265057117329945 -0.16973170626334427
4403000000.0 1.0161360174503922 -0.17577375440004409
4406000000.0 0.9924563549696176 -0.21348131309227986
4409000000.0 1.0190374110273543 -0.20083666303623826
4412000000.0 0.9768342844216492 -0.25658756671879757
4416000000.0 0.9717626199905747 -0.21383814409476676
4419000000.0 0.9841797418599834 -0.2432785034903313
4422000000.0 0.9766064244132822 -0.21392531564252198
4425000000.0 1.0159647218577417 -0.21688647731628766
4428000000.0 0.9694980889694816 -0.24287977810396072
4431000000.0 1.0116503234961074 -0.25085442109342737
4434000000.0 0.9722951723052911 -0.2602420598305165
4438000000.0 1.0034879796870257 -0.2791264908865382
4441000000.0 0.9988096230029289 -0.26929357185564945
4444000000.0 0.9578108880403924 -0.2737027946472591
4447000000.0 0.9527367477114398 -0.32099456736202314
4450000000.0 0.9492827066501635 -0.29259433986060285
4453000000.0 0.9745025900872334 -0.3218006840347547
4456000000.0 0.9258792225702827 -0.3073205129655433
4459000000.0 0.9092254820203847 -0.3348114620176331
4462000000.0 1.0227114265475232 -0.3451778704397054
4466000000.0 0.9750033237254934 -0.3636145091605644
4469000000.0 0.9529809081744738 -0.34453631819842373
4472000000.0 0.9634225435603232 -0.38706981979742067
4475000000.0 0.9272917685735936 -0.3444576539283055
4478000000.0 0.9717499157519307 -0.406248886257619
4481000000.0 0.9078188980223331 -0.3767288224452866
4484000000.0 0.9048776243816901 -0.43592718692116417
4488000000.0 0.9182025470155126 -0.4076056556641244
4491000000.0 0.927452826088772 -0.4143699539655573
4494000000.0 0.9138353519659339 -0.40951912624185977
4497000000.0 0.9125230029713707 -0.4072730049153213
4500000000.0 0.9041758986969866 -0.43350615688217664
4503000000.0 0.9443166933467624 -0.45411492569210593
4506000000.0 0.8791763332008602 -0.43833541280462185
4509000000.0 0.8877335006853457 -0.46068199694618606
4512000000.0 0.8924540149060731 -0.47012949673426907
4516000000.0 0.9212271402836084 -0.47436679332860626
4519000000.0 0.8789744351454671 -0.4722273761120442
4522000000.0 0.8895420083358079 -0.504220268907087
4525000000.0 0.8897614718352527 -0.4637952050408512
4528000000.0 0.876470260390873 -0.5226154699983259
4531000000.0 0.8881238899700116 -0.49206946544828356
4534000000.0 0.8465315130344002 -0.5238389642076057
4538000000.0 0.8655656973581813 -0.5224959608582466
4541000000.0 0.8267966135995802 -0.5520755926588652
4544000000.0 0.8483752815776915 -0.5370269711937553
4547000000.0 0.8348716607215855 -0.5276187312180329
4550000000.0 0.833266795863199 -0.5916168171626717
4553000000.0 0.8318305183521482 -0.5774734508440055
4556000000.0 0.8014587391021177 -0.5581498459455849
4559000000.0 0.8331178385855302 -0.5886791333913557
4562000000.0 0.8345133587230849 -0.590993948676321
4566000000.0 0.8299868396137695 -0.6106515692795718
4569000000.0 0.7915674639225543 -0.5956182404414161
4572000000.0 0.7955043454822143 -0.6133686506004581
4575000000.0 0.7930592679886612 -0.6369375306527107
4578000000.0 0.8181322598529901 -0.6162093066858318
4581000000.0 0.7923357876684034 -0.6232266647258995
4584000000.0 0.7689286810714479 -0.6228616908844982
4588000000.0 0.7955404828533315 -0.6485979057030361
4591000000.0 0.7915361484027608 -0.6364188526024965
4594000000.0 0.762362914280697 -0.6531347852109693
4597000000.0 0.764389251714245 -0.6855787227643527
4600000000.0 0.7261346077468784 -0.6768900203906552
4603000000.0 0.7432339467670054 -0.7076473531631556
4606000000.0 0.7472007100663294 -0.6910557045636031
4609000000.0 0.7293119912693038 -0.6868063311690593
4612000000.0 0.7368367771690515 -0.7127640386852743
4616000000.0 0.7043543343008274 -0.6958924839833738
4619000000.0 0.7236658123783976 -0.7000339955433411
4622000000.0 0.7138909343725117 -0.7194697816534084
4625000000.0 0.6729390897029586 -0.7104119448702033
4628000000.0 0.6872959946943797 -0.7054117051461904
4631000000.0 0.6734746822031967 -0.736630737687418
4634000000.0 0.7019442724707918 -0.7526045144669077
4638000000.0 0.672513752821184 -0.7441809050251706
4641000000.0 0.6730207457133984 -0.750479510101102
4644000000.0 0.6639644128081793 -0.7500536325003176
4647000000.0 0.6685858167751045 -0.7631506824318066
4650000000.0 0.6413255866140681 -0.7762379292647242
4653000000.0 0.653524743831527 -0.7877644376225158
4656000000.0 0.6430523743596281 -0.8033193189271517
4659000000.0 0.6225857764117736 -0.7887194654283366
4662000000.0 0.6241077768047639 -0.7916949898670547
4666000000.0 0.6003568381558221 -0.7950633346338244
4669000000.0 0.6103702930799528 -0.8095541374570279
4672000000.0 0.5977901651566323 -0.8309409233878156
4675000000.0 0.5636112385605441 -0.8302683969978463
4678000000.0 0.5794052741393225 -0.8079278899051731
4681000000.0 0.5709533487956726 -0.8595629618064343
4684000000.0 0.5749881085108459 -0.8564469577368147
4688000000.0 0.536434375288859 -0.8363321879479103
4691000000.0 0.5687955658148334 -0.8575745836714128
4694000000.0 0.5473516349361001 -0.853311291679099
4697000000.0 0.48186446708991404 -0.8314608332627909
4700000000.0 0.5345950396285426 -0.843854935151612
4703000000.0 0.5278898622465698 -0.8163016161974337
4706000000.0 0.5332731017164595 -0.8667834773792703
4709000000.0 0.49932994212946297 -0.8759069397169603
4712000000.0 0.5115255398332875 -0.8716778128827529
4716000000.0 0.47394046040679827 -0.9143367320431801
4719000000.0 0.5231007003546183 -0.8770785427545758
4722000000.0 0.49611709575066576 -0.8872852090334411
4725000000.0 0.47739064235555095 -0.8673230863001561
4728000000.0 0.4512095086183573 -0.8995010329127302
4731000000.0 0.47402213745444577 -0.9288220222214647
4734000000.0 0.49769214777107323 -0.8745603712615115
4738000000.0 0.47725454058983297 -0.9532725982146247
4741000000.0 0.4805650843509588 -0.9722772478661369
4744000000.0 0.4341120584729116 -0.9467015774823423
4747000000.0 0.43998725578799724 -0.8991613026764482
4750000000.0 0.42755557094297436 -0.9353009393520393
4753000000.0 0.43559235028153853 -0.9424271451745894
4756000000.0 0.4132513787375771 -0.929103016731796
4759000000.0 0.38903448855913253 -0.9422460481595363
4762000000.0 0.37527461334528645 -0.9913451427677459
4766000000.0 0.36016008245813314 -0.9287369921013952
4769000000.0 0.36171234500163146 -0.9601344387227101
4772000000.0 0.3481878552801796 -0.9347407710883479
4775000000.0 0.3632367148675441 -0.9787042678054814
4778000000.0 0.3450809874481084 -0.9632370316465092
4781000000.0 0.34402038535853996 -0.9555819868903375
4784000000.0 0.33680032867530574 -0.9619315587161695
4788000000.0 0.29968429977367794 -0.9751440580170603
4791000000.0 0.3120340794537639 -0.9692237539519574
4794000000.0 0.339901526142647 -0.9914240947635948
4797000000.0 0.2907554140094692 -0.9740161931019612
4800000000.0 0.2552068941933191 -0.9765117262561236
4803000000.0 0.2645807162876158 -1.0013645228925885
4806000000.0 0.25139789056942485 -0.9820763926969791
4809000000.0 0.19963694425208492 -0.9866606378514927
4812000000.0 0.22583217194800922 -1.0032715920780342
4816000000.0 0.2686084769097422 -0.9716995815180616
4819000000.0 0.276803620085823 -0.9964478026356167
4822000000.0 0.23197368609906893 -1.0291940686674583
4825000000.0 0.25220456520707124 -1.005881761147687
4828000000.0 0.20293581516476022 -0.9895162799326452
4831000000.0 0.1561046731437532 -1.0322606923195283
4834000000.0 0.23021568093611738 -1.0159887690735356
4838000000.0 0.19301852841356287 -1.0337688893202142
4841000000.0 0.15786505299568526 -0.9991876755273837
4844000000.0 0.19353856052616747 -1.007098679597692
4847000000.0 0.1821939045497583 -0.9950736033000946
4850000000.0 0.14167752258895844 -1.0350075679188135
4853000000.0 0.14519386878302906 -0.9912012271511508
4856000000.0 0.12790595886828737 -0.9933623661644168
4859000000.0 0.1315473582559345 -1.0586025586645342
4862000000.0 0.15504653798262263 -0.9953332218311938
4866000000.0 0.11013958785908412 -1.0479933713448015
4869000000.0 0.07953267632531678 -1.016005902686595
4872000000.0 0.046567460673018236 -1.031324531760697
4875000000.0 0.13779726861554006 -1.0710201513406905
4878000000.0 0.05043778029221599 -1.0324608638703305
4881000000.0 0.03594273296876706 -1.1058392016010217
4884000000.0 0.09384199118139712 -1.0319268788888913
4888000000.0 0.11034372015581315 -1.0138106579138304
4891000000.0 0.058017153186852036 -1.0451210459840923
4894000000.0 0.04734241284866635 -1.0482114197894017
4897000000.0 0.03834261672145704 -1.0284063387597024
4900000000.0 0.01679374352053272 -1.0427129225991059
4903000000.0 0.03918359646450176 -1.0531865579705546
4906000000.0 -0.007287847571257118 -1.0472716428735702
4909000000.0 -0.005828916363929938 -1.0470804875910602
4912000000.0 -0.004684929175348636 -1.0703460566366927
4916000000.0 -0.011321743095285608 -1.0566984174883591
4919000000.0 -0.015234183274737911 -1.0584660641207453
4922000000.0 -0.007705014565904611 -1.0445203909131764
4925000000.0 -0.06959370051111115 -1.0430636679964134
4928000000.0 -0.008804732303136192 -1.019315427797597
4931000000.0 -0.020580520544766404 -1.0277979859637179
4934000000.0 -0.05534356709820827 -0.9916251064633322
4938000000.0 -0.07178993752131856 -1.0044016120426962
4941000000.0 -0.05931667733597941 -1.0084611551849987
4944000000.0 -0.07030226508834772 -0.9666891932030552
4947000000.0 -0.04913826308408875 -0.9907716168771672
4950000000.0 -0.14773109608375956 -1.04615838976287
4953000000.0 -0.1739672393045703 -1.0294719048620453
4956000000.0 -0.13781963952987958 -1.015222547723812
4959000000.0 -0.17489874088474153 -0.9774844295148096
4962000000.0 -0.11864893972583865 -1.0419892979532084
4966000000.0 -0.13772279734541 -1.039582989298571
4969000000.0 -0.14225021592031228 -1.0681651651858695
4972000000.0 -0.18414178281737412 -1.0178765618504706
4975000000.0 -0.1364040604201834 -0.9976609013862288
4978000000.0 -0.1680335422721984 -1.0410839940593553
4981000000.0 -0.23445671570456386 -1.0313585908771106
4984000000.0 -0.20301247321350033 -1.0071284438450312
4988000000.0 -0.20284281343320976 -1.0060275915906804
4991000000.0 -0.16726576104072538 -1.067392000073078
4994000000.0 -0.22262740447573426 -1.0354411280267786
4997000000.0 -0.2652374049383655 -1.008582507663917
5000000000.0 -0.24710975549258446 -1.007299133751257
5003000000.0 -0.2508104657032753 -1.045760039751257
5006000000.0 -0.2913302959363261 -1.0612150042029647
5009000000.0 -0.25536889526115236 -1.014504542829691
5012000000.0 -0.28496757957654 -0.9948302766226003
5016000000.0 -0.24760174870657276 -1.0774457840891503
5019000000.0 -0.30604339792339585 -1.00853226382741
5022000000.0 -0.2782257406988108 -1.0277711116740533
5025000000.0 -0.311128231459382 -1.0509243274759665
5028000000.0 -0.35517393476598313 -0.9921957059659394
5031000000.0 -0.3243378124780013 -0.9898809912426166
5034000000.0 -0.36716336914062064 -1.0157388328812447
5038000000.0 -0.34862028822430613 -0.956847851333136
5041000000.0 -0.280956864173315 -1.0003228377673996
5044000000.0 -0.31979402838423154 -0.9557552960678467
5047000000.0 -0.3500049920963993 -0.9994533575598136
5050000000.0 -0.2716333430225466 -1.00753073631596
5053000000.0 -0.39096497267351216 -1.0142318822328722
5056000000.0 -0.3269627935014646 -0.9513080886908811
5059000000.0 -0.3330409914160694 -0.9867493744977262
5062000000.0 -0.4641944765859475 -0.9453052414462315
5066000000.0 -0.3827613555302828 -0.9612295383519782
5069000000.0 -0.3892669617141856 -0.9748463058544662
5072000000.0 -0.39949503864428615 -0.9244241759546967
5075000000.0 -0.38125708708889994 -0.9762951807158122
5078000000.0 -0.42979370922228893 -0.9467173327452896
5081000000.0 -0.43924648775570146 -0.9452198125890953
5084000000.0 -0.4434842142642872 -0.9454546286773784
5088000000.0 -0.40991287969849544 -0.9267100845253733
5091000000.0 -0.4864787119451412 -0.9236242184782142
5094000000.0 -0.45428587600846665 -0.9503598165644945
5097000000.0 -0.45173130972895414 -0.9535598805197876
5100000000.0 -0.4706259267067011 -0.9066170852944154
5103000000.0 -0.49444861497440584 -0.9536448199536635
5106000000.0 -0.5015453144867703 -0.9669008577096876
5109000000.0 -0.45446359949517307 -0.9447587180697807
5112000000.0 -0.5357738297145802 -0.890065227858865
5116000000.0 -0.46958504161142256 -0.8678988210307121
5119000000.0 -0.5490080611262489 -0.9220951660676511
5122000000.0 -0.5254084949211819 -0.8830100941641235
5125000000.0 -0.5441864275231073 -0.9030873222545505
5128000000.0 -0.5014058424368316 -0.918880942007799
5131000000.0 -0.5480524891412655 -0.8846664757555492
5134000000.0 -0.5481747849633869 -0.8704942663279359
5138000000.0 -0.5554926811269515 -0.8764167118209958
5141000000.0 -0.5212338375893023 -0.9078694456596679
5144000000.0 -0.5255539185705993 -0.8834211292551453
5147000000.0 -0.6030798939830259 -0.8824771536782677
5150000000.0 -0.57654799422533 -0.8761097629778306
5153000000.0 -0.605712569245199 -0.8834410673490017
5156000000.0 -0.5603818837215113 -0.860097542040981
5159000000.0 -0.6292943298430373 -0.9057494288904859
5162000000.0 -0.614456573379545 -0.8056680859669746
5166000000.0 -0.6575748487078762 -0.8319503188577414
5169000000.0 -0.6570314089727818 -0.8343944173493173
5172000000.0 -0.6347442800129989 -0.8405816643099993
5175000000.0 -0.6553350975918519 -0.8643658052463016
5178000000.0 -0.6466852449234402 -0.8109642010658269
5181000000.0 -0.6664567962087551 -0.8362980701706487
5184000000.0 -0.6592689089095195 -0.8117986440485231
5188000000.0 -0.6603440480999198 -0.8070094747196364
