! Created with skrf 1.8.0 (http://scikit-rf.org).
# Hz S RI R 50.0 
!freq ReS11 ImS11
4000000000.0 0.6380339294531394 0.8441854327193392
4003000000.0 0.6447575814138481 0.8583757013243978
4006000000.0 0.7001514493532333 0.7684073171243299
4009000000.0 0.6896474976841134 0.7696326308087923
4012000000.0 0.6148208023393016 0.8511609269641308
4016000000.0 0.7271439032727589 0.7791520968108943
4019000000.0 0.6922022560179992 0.7913329464544498
4022000000.0 0.6187013677372302 0.8329048730682309
4025000000.0 0.7454604577412484 0.7959383591803161
4028000000.0 0.6788963185423633 0.7435287697056654
4031000000.0 0.6657103149669266 0.7192760275174719
4034000000.0 0.7190271557661876 0.737235169765942
4038000000.0 0.7098868772154633 0.724078362660199
4041000000.0 0.7272890327082593 0.7446545019355488
4044000000.0 0.7513313126529921 0.7868628533772482
4047000000.0 0.7596451638289556 0.7692622872189239
4050000000.0 0.7632760066869674 0.724911109002801
4053000000.0 0.7612266396095753 0.6816475413866974
4056000000.0 0.743248100573103 0.7388468596590851
4059000000.0 0.7692325262627003 0.6728891305005291
4062000000.0 0.7440357596790774 0.6551858999465432
4066000000.0 0.7525448681096849 0.6254307307355395
4069000000.0 0.8076381610848979 0.6618324780111386
4072000000.0 0.7638838493161072 0.7039987419464835
4075000000.0 0.830905985578038 0.6912967428768535
4078000000.0 0.7982574137953531 0.6857063827954197
4081000000.0 0.7707876430550987 0.6814798282401981
4084000000.0 0.7891246817321658 0.6672252359512747
4088000000.0 0.7777564786128849 0.67940954372044
4091000000.0 0.8784639333509879 0.6742770140732619
4094000000.0 0.7996491245178504 0.6521925916146877
4097000000.0 0.8065104806316626 0.6275534797289468
4100000000.0 0.866800765758467 0.5865541544960411
4103000000.0 0.8438971773436279 0.688403093817805
4106000000.0 0.8415381702666251 0.6342042078943885
4109000000.0 0.832866469803897 0.5629482185672261
4112000000.0 0.8308105444841345 0.5774577054145722
4116000000.0 0.8422915110170707 0.5789732424562603
4119000000.0 0.871121280255838 0.5596463044884166
4122000000.0 0.8450811848173599 0.537421256808536
4125000000.0 0.9184489540852616 0.5644550544532365
4128000000.0 0.839475125248694 0.559147736167629
4131000000.0 0.8635829356070761 0.5546731867535192
4134000000.0 0.8941429042657613 0.547700909880891
4138000000.0 0.8800623537941323 0.4768103299672643
4141000000.0 0.8601041683727834 0.5224717758651269
4144000000.0 0.8881393831670098 0.530001729895619
4147000000.0 0.9052870972208166 0.517032761594856
4150000000.0 0.9467914530015823 0.5138451345307788
4153000000.0 0.9064907563217198 0.49542836647542554
4156000000.0 0.9011137817261294 0.5151482326358099
4159000000.0 0.8802721453330391 0.4874391524122171
4162000000.0 0.923589881029238 0.4522045701630013
4166000000.0 0.9396953966975934 0.4650154641642641
4169000000.0 0.9182062432301948 0.44213522749917933
4172000000.0 0.9308471617259956 0.4758499359514063
4175000000.0 0.9155808380011056 0.45942906581269366
4178000000.0 0.9191827659239905 0.43915339543142484
4181000000.0 0.934018693620519 0.40153881618015974
4184000000.0 0.9609109644664487 0.4217815975803953
4188000000.0 0.9329885490730037 0.39369414792418633
4191000000.0 0.9302121655737048 0.45810033711423853
4194000000.0 0.9475703827983082 0.3955376329295456
4197000000.0 0.9357271291811071 0.3971408443222905
4200000000.0 0.9439048538840134 0.3880971694434129
4203000000.0 0.9535917174540738 0.3818831202127535
4206000000.0 0.9810849427237307 0.3796911102509856
4209000000.0 0.9492866569721569 0.3650700491774091
4212000000.0 0.975560446692279 0.34131390644674586
4216000000.0 0.9683053100152501 0.3467910098023727
4219000000.0 0.9702681338599489 0.36536349333062135
4222000000.0 0.9837435473144291 0.3129303195853091
4225000000.0 0.9572773688560332 0.3212717137624109
4228000000.0 0.9962277131581962 0.31474665690216086
4231000000.0 0.979175801199644 0.29200436837202787
4234000000.0 0.9877312864780576 0.29892080560833423
4238000000.0 1.006926825617552 0.26126261686193375
4241000000.0 0.9820990676219337 0.2653891088175008
4244000000.0 0.9776783947226341 0.27199401003627066
4247000000.0 0.9870665352460353 0.27526442967797676
4250000000.0 0.9750095410842874 0.23032647257052258
4253000000.0 0.974467892060414 0.227044896217532
4256000000.0 1.0275399814361938 0.24797585173029507
4259000000.0 0.9426808546192504 0.2170852058193883
4262000000.0 1.0076752007085221 0.21025012009631752
4266000000.0 1.0123921988494102 0.19786054876531994
4269000000.0 1.0018262104604403 0.21948274585216634
4272000000.0 1.0051822719246721 0.18747664065596759
4275000000.0 0.9920040913846584 0.19453846079414505
4278000000.0 1.0239832069843162 0.1864236190196505
4281000000.0 0.9965523609052598 0.16844745022614077
4284000000.0 1.0190500927359096 0.14442448875741845
4288000000.0 1.0034627477735794 0.17999239771425166
4291000000.0 0.9789628353080518 0.1342419519040967
4294000000.0 1.0148052537475882 0.12400095334033125
4297000000.0 0.9805811114446263 0.1486472147351502
4300000000.0 1.01109696810852 0.1140818682885936
4303000000.0 0.9959310694783245 0.10140901948252802
4306000000.0 1.0230796411876135 0.1263294483308067
4309000000.0 0.9914487542995606 0.10897564219871893
4312000000.0 1.0199315494546914 0.14004758741229095
4316000000.0 1.014041956913441 0.07084055937236787
4319000000.0 1.0265726039945666 0.0619250018730184
4322000000.0 0.9942529048744473 0.022823010794515305
4325000000.0 1.0383029494823468 0.05112933455142389
4328000000.0 1.0064259548788463 0.04088757839682748
4331000000.0 1.0263328403320122 0.03238015009138173
4334000000.0 1.0382068535977778 0.007121192837895307
4338000000.0 1.014867745955799 0.04696360184615449
4341000000.0 1.0411589955110452 0.04147237496708939
4344000000.0 1.0351370355542684 0.013792747842026915
4347000000.0 1.0266873430928538 -0.02066183753873882
4350000000.0 0.9593856655572074 -0.017901175671725056
4353000000.0 1.0025599902144404 -0.021802600433303843
4356000000.0 1.009303935463889 -0.058102079000326365
4359000000.0 0.9719365105264179 -0.05157720174008279
4362000000.0 1.0019519157061938 -0.10134990305838777
4366000000.0 1.0526879268734224 -0.06897390588663493
4369000000.0 0.9667538539874152 -0.09418013461736027
4372000000.0 0.9997149281724682 -0.10337915123932366
4375000000.0 1.0027501240322705 -0.07102462747991736
4378000000.0 0.971631817698321 -0.09509719703300633
4381000000.0 1.0028194893815512 -0.10621066056013975
4384000000.0 1.068698151242741 -0.12907287922868527
4388000000.0 0.9800215854877055 -0.10963061864074324
4391000000.0 1.0198905882991827 -0.1436822669054523
4394000000.0 0.9641733084557783 -0.14959881305279213
4397000000.0 0.9893606303625369 -0.16296993933341514
4400000000.0 1.0212860972033522 -0.17190118961388462
4403000000.0 1.0034977656349877 -0.1645039908488101
4406000000.0 0.9902295256944266 -0.1968172562763712
4409000000.0 1.0296190395361569 -0.19954838463961333
4412000000.0 0.9856164379331084 -0.2442116048293879
4416000000.0 0.9616986166454733 -0.2076815116084758
4419000000.0 0.9749252339918224 -0.22187433949470098
4422000000.0 0.9799407932485131 -0.21287418425574156
4425000000.0 0.9993383575302864 -0.19935238134815292
4428000000.0 0.9872656898322474 -0.246688697254053
4431000000.0 1.000214072296945 -0.23878876930819093
4434000000.0 0.9614109283926394 -0.2723800658975311
4438000000.0 1.0013641126720543 -0.28676011921418915
4441000000.0 0.9919593743070048 -0.27102744277051827
4444000000.0 0.9613881726143183 -0.26489707870287416
4447000000.0 0.9568198827538584 -0.29326534088637823
4450000000.0 0.9435397523671709 -0.28139889810401963
4453000000.0 0.9775711358366255 -0.3110445477394448
4456000000.0 0.9367758731742608 -0.322488456543407
4459000000.0 0.9017189421038994 -0.3245513049775088
4462000000.0 1.0079342778935125 -0.35238822092724
4466000000.0 0.9681251057353963 -0.36675003554482855
4469000000.0 0.9463517572119443 -0.3275631484263244
4472000000.0 0.9706988971474482 -0.38115863346773543
4475000000.0 0.9176601059521305 -0.3509776375730381
4478000000.0 0.976272454617281 -0.40984977969764014
4481000000.0 0.9186001262230259 -0.37913218096445417
4484000000.0 0.9210921409573447 -0.4161540042953473
4488000000.0 0.9195918453588111 -0.41494645898922733
4491000000.0 0.9364178950588711 -0.4065414530541471
4494000000.0 0.920979603151118 -0.3996469160318931
4497000000.0 0.9026956068592202 -0.40705227205869443
4500000000.0 0.9203819808769556 -0.4118360644235023
4503000000.0 0.9330778695501127 -0.4329238965127233
4506000000.0 0.8950891831099248 -0.45049030537658297
4509000000.0 0.871723964558804 -0.4585505235353132
4512000000.0 0.8641182193035112 -0.4755257348884344
4516000000.0 0.8959055895947852 -0.48264869403813015
4519000000.0 0.8928002491439453 -0.44210775011538883
4522000000.0 0.8872103031377909 -0.49228436288655786
4525000000.0 0.8996157235745987 -0.4500806903676557
4528000000.0 0.9105067449664859 -0.5216319216559913
4531000000.0 0.8750534786925684 -0.4975207803756503
4534000000.0 0.8494263138157804 -0.49776851380452336
4538000000.0 0.880342521394335 -0.5292754300647882
4541000000.0 0.8375553855148355 -0.5586849952931651
4544000000.0 0.8513803672748137 -0.5273336621804829
4547000000.0 0.8392378458182206 -0.5325114968297375
4550000000.0 0.8406923768358328 -0.5675228204865682
4553000000.0 0.8481629004953448 -0.575576090448453
4556000000.0 0.8083082762311207 -0.5761664594712483
4559000000.0 0.8319226489447398 -0.5973960953896853
4562000000.0 0.8328663455880689 -0.5896714056548487
4566000000.0 0.8190273893563991 -0.6023933765806686
4569000000.0 0.800630487300455 -0.5890748992884973
4572000000.0 0.8010849916984703 -0.5971382240410319
4575000000.0 0.7818000659366078 -0.6372993921727572
4578000000.0 0.8202656429705328 -0.6183669546438125
4581000000.0 0.7977773227540081 -0.6455078440031671
4584000000.0 0.7903655691914198 -0.6236414925882594
4588000000.0 0.8014488609534557 -0.6517357792540597
4591000000.0 0.7876094451975164 -0.6379934898480493
4594000000.0 0.750331896753667 -0.666695122000347
4597000000.0 0.7948021593412131 -0.6669366853650053
4600000000.0 0.7288168225267337 -0.6872985969208788
4603000000.0 0.7558070127566902 -0.6942147141969831
4606000000.0 0.7533224263766476 -0.6917045449853709
4609000000.0 0.7386892736467604 -0.6971940276716315
4612000000.0 0.7400302756711157 -0.7136014343618492
4616000000.0 0.7219956359975663 -0.7020954406043504
4619000000.0 0.7175654723665053 -0.684291984635866
4622000000.0 0.7116051388098942 -0.7073792935183104
4625000000.0 0.6783408133912925 -0.7049942847828043
4628000000.0 0.6864435620178679 -0.7039286479932801
4631000000.0 0.681048532372514 -0.7330161470031682
4634000000.0 0.7017597623343476 -0.7351685108728736
4638000000.0 0.6867067906982792 -0.7547797069953923
4641000000.0 0.6843640104103126 -0.7530650031620861
4644000000.0 0.6808253747857951 -0.7527058057124983
4647000000.0 0.6669452650995634 -0.7653751225690323
4650000000.0 0.6445095875483685 -0.7597972802880036
4653000000.0 0.6675943162056472 -0.7802501638760093
4656000000.0 0.6213583110629302 -0.7692147499979236
4659000000.0 0.6108733422725048 -0.794218406331627
4662000000.0 0.631721675892815 -0.8224741043889787
4666000000.0 0.622830762150842 -0.7896145227398792
4669000000.0 0.6172104914094421 -0.7986589702600666
4672000000.0 0.6001967018612954 -0.8302594189030155
4675000000.0 0.5817712946551443 -0.8313048081799129
4678000000.0 0.5897547283223827 -0.821513091191199
4681000000.0 0.5742332295715054 -0.8395408531152655
4684000000.0 0.5529740122177229 -0.8351146743461605
4688000000.0 0.5389259138536998 -0.83689541476029
4691000000.0 0.5529269549410275 -0.8402568161481754
4694000000.0 0.5748252720457827 -0.8376934939317826
4697000000.0 0.526637907009279 -0.8382598895833386
4700000000.0 0.541726598014517 -0.8492902881854474
4703000000.0 0.5339456502604146 -0.8334844325932671
4706000000.0 0.5118771114583028 -0.8932106862823291
4709000000.0 0.4805298673677553 -0.8517962854117969
4712000000.0 0.4911127515333579 -0.873160096589144
4716000000.0 0.511442743122519 -0.8858171484453488
4719000000.0 0.5279930198910776 -0.8885375429931562
4722000000.0 0.5123716596478112 -0.8864655330340214
4725000000.0 0.4773486196339667 -0.8909036165432593
4728000000.0 0.4604942552724747 -0.9087342112217689
4731000000.0 0.5009364921908852 -0.9076054818551234
4734000000.0 0.4818036650736428 -0.8650529586978101
4738000000.0 0.47203910791119885 -0.9347024448677994
4741000000.0 0.4796768713211163 -0.9416783861818648
4744000000.0 0.4103871400946548 -0.941806475159523
4747000000.0 0.45238295560999897 -0.8888285690477619
4750000000.0 0.42580672490411575 -0.9502829539538266
4753000000.0 0.43333329994749314 -0.9247456068958358
4756000000.0 0.42562186363987553 -0.9421671556940294
4759000000.0 0.43315405679121477 -0.9750758373235806
4762000000.0 0.3662642631029601 -0.9599868106570649
4766000000.0 0.36514412071193675 -0.9493153666128636
4769000000.0 0.391199956082173 -0.9475771532646817
4772000000.0 0.3910978916280782 -0.9514938771297685
4775000000.0 0.3445739430511518 -0.9849702751945215
4778000000.0 0.35570247154395085 -0.9734094753338726
4781000000.0 0.3350457391697625 -0.9488845691929315
4784000000.0 0.3467019886266155 -0.959658636795269
4788000000.0 0.3164684829771155 -1.0042156794349757
4791000000.0 0.3133190935735706 -0.9810852535257898
4794000000.0 0.36202809014034065 -0.9887449699660678
4797000000.0 0.29987392036407823 -0.9413991503912037
4800000000.0 0.27083575345017386 -0.9676033773310284
4803000000.0 0.2344905010110418 -0.9878169180095424
4806000000.0 0.2960807911499619 -0.9859338971792544
4809000000.0 0.2285149881185869 -1.002861656560588
4812000000.0 0.2390901366009165 -0.9699083605403174
4816000000.0 0.25865523822664815 -0.9751089992705804
4819000000.0 0.26644057326521653 -1.0402091481404552
4822000000.0 0.2661558382693585 -1.0121030530546709
4825000000.0 0.24510644103619011 -1.0225837437968597
4828000000.0 0.20695374696183533 -0.9837730711701994
4831000000.0 0.18151085335738215 -1.0371699896046689
4834000000.0 0.2236125278911797 -0.9983205350365192
4838000000.0 0.18636028499031604 -1.042265689825537
4841000000.0 0.18924576344421323 -0.988231362818098
4844000000.0 0.19922582070321931 -1.019732558809142
4847000000.0 0.18626522228955145 -0.9818068421306971
4850000000.0 0.15893991341004973 -1.0323986865817876
4853000000.0 0.16267054325941388 -0.9929485941178031
4856000000.0 0.1385305288317153 -1.0071171141714461
4859000000.0 0.13428374031621848 -1.0486817066500782
4862000000.0 0.1694252988073781 -0.9952574723363828
4866000000.0 0.09069016064565841 -1.0357369282814037
4869000000.0 0.07909517723468593 -1.012918574559479
4872000000.0 0.07362173603447605 -1.035822111102673
4875000000.0 0.16449182082569852 -1.065563114365906
4878000000.0 0.09898539433720135 -1.0543947032878396
4881000000.0 0.03839479702229919 -1.080467963215764
4884000000.0 0.07830681906427894 -1.0337825958818512
4888000000.0 0.08698599809950402 -1.0403625300460417
4891000000.0 0.06755277507000004 -1.059458306942212
4894000000.0 0.0335050792961219 -1.0329773782055005
4897000000.0 0.06122658350306112 -1.0077434283310778
4900000000.0 0.027730216823174912 -1.0450486851690055
4903000000.0 0.03682773427934963 -1.0644582232205804
4906000000.0 0.009272550049583092 -1.046164018693218
4909000000.0 -0.012677804480035457 -1.0379651187878522
4912000000.0 -0.03721903866829797 -1.0821214540317643
4916000000.0 0.025106282668326194 -1.0553126392589527
4919000000.0 0.015405883519937026 -1.0666068142641034
4922000000.0 0.013323747641142955 -1.047693065175063
4925000000.0 -0.05498295161214549 -1.011530697844036
4928000000.0 -0.02349377982409598 -1.0326540406891693
4931000000.0 -0.00422451909275727 -1.0612234952733346
4934000000.0 -0.038244893640370065 -0.9700831801444879
4938000000.0 -0.10156785990229018 -1.016646807577282
4941000000.0 -0.05678457971201818 -0.9944726678058645
4944000000.0 -0.07715123503266269 -0.9775699887859826
4947000000.0 -0.07960829707072406 -0.9950924653470146
4950000000.0 -0.12221508280948219 -0.9934265565382772
4953000000.0 -0.1744781118633148 -1.0341449228362147
4956000000.0 -0.15669942803646442 -1.0295665528285083
4959000000.0 -0.16946446955532793 -1.028061750294478
4962000000.0 -0.14289275401549187 -1.008130488687882
4966000000.0 -0.1263246585022228 -1.0503866941502717
4969000000.0 -0.11071664171396195 -1.081518338510572
4972000000.0 -0.1966579334733544 -1.0426229577691752
4975000000.0 -0.1777088755115855 -1.0122358268185743
4978000000.0 -0.18526996857054728 -1.0330278093220333
4981000000.0 -0.2033613114664294 -1.0312933233059451
4984000000.0 -0.16096886210466596 -1.009513215329888
4988000000.0 -0.20259900438688172 -0.9885480245211886
4991000000.0 -0.1477348194782781 -1.05358772066027
4994000000.0 -0.20447507326057157 -1.0190310233811988
4997000000.0 -0.26971667403961463 -0.9932021937936067
5000000000.0 -0.22855979041724678 -1.062445345436077
5003000000.0 -0.21175568841457892 -1.07258075656375
5006000000.0 -0.29328904791856125 -1.0463436469831224
5009000000.0 -0.24376206128611697 -1.0055184949773934
5012000000.0 -0.2854410006500477 -1.0000145700256597
5016000000.0 -0.2652062678098051 -1.0087999969400907
5019000000.0 -0.27615958168435817 -0.9827571455207593
5022000000.0 -0.2829687005487286 -1.0116651879516243
5025000000.0 -0.31736467197460144 -1.082966913808269
5028000000.0 -0.33172368011207654 -0.9960047866198947
5031000000.0 -0.32528873143695747 -0.9694477947224075
5034000000.0 -0.36748736491268985 -1.0365465551066488
5038000000.0 -0.33752715851662984 -0.9567873853764706
5041000000.0 -0.3172340390221289 -1.0105126680141359
5044000000.0 -0.3236314474093893 -0.9690974710080319
5047000000.0 -0.3533920743608114 -0.9973500069090108
5050000000.0 -0.29448843847799056 -0.9889671540049099
5053000000.0 -0.3900922815729042 -1.0374494243502084
5056000000.0 -0.34565541010391 -1.0113472430027466
5059000000.0 -0.32638112141789627 -0.9815405874463591
5062000000.0 -0.43330168186720774 -0.9994217894524342
5066000000.0 -0.35174808127087576 -0.9416995102909742
5069000000.0 -0.401391983846184 -0.9386941850159142
5072000000.0 -0.40142173813606663 -0.9571664211369828
5075000000.0 -0.39141948239923274 -0.9729440557463989
5078000000.0 -0.4388324291088494 -0.9396951601920829
5081000000.0 -0.43156254125634236 -0.9260067702429987
5084000000.0 -0.3988361554393992 -0.955949506303893
5088000000.0 -0.36552848835480756 -0.9683666227630541
5091000000.0 -0.481725000860962 -0.9022873618827991
5094000000.0 -0.45906422697589205 -0.9319405678423086
5097000000.0 -0.44560511383107493 -0.9798633787708129
5100000000.0 -0.5079748880729055 -0.890101558817474
5103000000.0 -0.5149943574038813 -0.9112831597013668
5106000000.0 -0.4953941338441635 -0.9510938834699925
5109000000.0 -0.46191217041612814 -0.9305472813627189
5112000000.0 -0.5138802454849275 -0.913143200118379
5116000000.0 -0.46333158239722105 -0.8451778677072492
5119000000.0 -0.5359994319513491 -0.9139048374166816
5122000000.0 -0.4885555895836789 -0.9285682514743829
5125000000.0 -0.4584372043316866 -0.9101745657074471
5128000000.0 -0.5357528537950291 -0.8765703298850462
5131000000.0 -0.5408840467901684 -0.891790250412342
5134000000.0 -0.5367143700581258 -0.9396278650199077
5138000000.0 -0.5249228621512252 -0.8655176947669566
5141000000.0 -0.5133952513201072 -0.9152250678667591
5144000000.0 -0.5444058040375642 -0.8621763337713291
5147000000.0 -0.5685153712882165 -0.8656157437682662
5150000000.0 -0.5610500171259114 -0.8597925769546383
5153000000.0 -0.5957464699531234 -0.8947983693186744
5156000000.0 -0.6309713760972862 -0.8919175928445526
5159000000.0 -0.6078450230967161 -0.9006992662722446
5162000000.0 -0.6451547227760825 -0.804729282238903
5166000000.0 -0.6443795013492604 -0.8550362693010345
5169000000.0 -0.6614464942113406 -0.8389307672820425
5172000000.0 -0.635863924633662 -0.8223700332958365
5175000000.0 -0.6076708034533309 -0.8687351956732994
5178000000.0 -0.6553932710105901 -0.8255509582053525
5181000000.0 -0.6420871751848787 -0.8682767353405716
5184000000.0 -0.6547193460638209 -0.8009496291659525
5188000000.0 -0.6712860952883815 -0.7782894681686358
