! Created with skrf 1.8.0 (http://scikit-rf.org).
# Hz S RI R 50.0 
!freq ReS11 ImS11
4000000000.0 -0.12845300185393654 1.024415912318503
4003000000.0 -0.18006646363584725 1.0750303484706019
4006000000.0 -0.06629464728751025 1.0626060655891585
4009000000.0 -0.052702660380585374 1.0618583118598486
4012000000.0 -0.13663364598055977 1.0184893203344743
4016000000.0 -0.04495704646286888 1.0638460962957432
4019000000.0 -0.09328911068407514 1.0085725526894016
4022000000.0 -0.10312450233469773 1.0269174652333488
4025000000.0 0.07897308270931727 1.0642447531640595
4028000000.0 0.0008539947043690009 1.063760778054576
4031000000.0 -0.02049987134064051 1.0044288470960692
4034000000.0 0.059863372165265556 1.0443554453811457
4038000000.0 0.10032525155429964 1.0688416357132056
4041000000.0 -0.0008394836305977531 0.9999726702352175
4044000000.0 0.03475560720538047 1.1396034173178995
4047000000.0 -0.03022644023830889 1.0656056106680085
4050000000.0 0.10966824420472722 1.0879200693675806
4053000000.0 0.14482520772407598 1.0235805861840759
4056000000.0 0.07601209629801466 1.0385524946712608
4059000000.0 0.0676274398366945 1.0553855873637323
4062000000.0 0.1747702442000092 1.0339073263550003
4066000000.0 0.1263561890592886 0.9330470027115273
4069000000.0 0.18900807930302577 1.0600815457775234
4072000000.0 0.06140963349466101 1.0592726439094107
4075000000.0 0.08811480798797729 1.0577491666588528
4078000000.0 0.1630783214272039 1.0654171279581333
4081000000.0 0.06407046204462341 1.050165742369992
4084000000.0 0.2104927477748407 1.0358833372366416
4088000000.0 0.12327655156733613 1.0038800619831663
4091000000.0 0.20407367787235714 1.1064326448185857
4094000000.0 0.1808645202910405 1.0355472495324514
4097000000.0 0.23623268423748164 1.021059838029514
4100000000.0 0.2316803696587724 1.020947867921304
4103000000.0 0.23797915804653696 1.0177059421932442
4106000000.0 0.2581570022454994 1.0224658186973947
4109000000.0 0.3163711857357964 1.0170495562621837
4112000000.0 0.2521027240382886 1.0265171933041273
4116000000.0 0.24695455391338736 1.0234614040653356
4119000000.0 0.3423306474756115 0.9775743984622856
4122000000.0 0.36992432213659876 1.044565388529559
4125000000.0 0.3521379522684381 1.0257699749297517
4128000000.0 0.29807615483295147 1.0003938295489614
4131000000.0 0.26698146206055007 0.9868758913705149
4134000000.0 0.3643207301485086 0.9547562602367565
4138000000.0 0.37558211152305715 0.9735989389678379
4141000000.0 0.38805646633542756 0.9446454651097653
4144000000.0 0.37071138415000665 1.0038137154391362
4147000000.0 0.41435934212106384 0.9386388171909443
4150000000.0 0.3714393305998711 0.9822020821465645
4153000000.0 0.39808752901445216 0.9558059731358711
4156000000.0 0.41851404533632575 0.951921862131339
4159000000.0 0.41383845606658426 0.9226040366710802
4162000000.0 0.4634442942939209 0.9298986742406787
4166000000.0 0.46203529476846494 0.925801594835514
4169000000.0 0.4662248794908802 0.966937020329507
4172000000.0 0.48612046969528194 0.9306104829504078
4175000000.0 0.44587208637378534 0.915596439283114
4178000000.0 0.4953504473272259 0.9493633941315296
4181000000.0 0.4440748036579153 0.9224747680047815
4184000000.0 0.5493928710955507 0.9425286211693407
4188000000.0 0.4918048029471317 0.9082774914601937
4191000000.0 0.44220307810253634 0.9534279730915678
4194000000.0 0.47201349495600925 0.8570786050155134
4197000000.0 0.5545417017905425 0.8945676328802152
4200000000.0 0.5414103550791276 0.8659796171143846
4203000000.0 0.5132923029402503 0.8738860900911045
4206000000.0 0.5659412662589961 0.8595444506414625
4209000000.0 0.5168739682233721 0.8690037073623214
4212000000.0 0.540980601203701 0.8639993439555346
4216000000.0 0.5848704869271728 0.8406064023510593
4219000000.0 0.5717111019136436 0.8617738665497717
4222000000.0 0.6138423996927621 0.8479085658903613
4225000000.0 0.5866620191004562 0.8563375374308609
4228000000.0 0.5813898560960691 0.8348477404869218
4231000000.0 0.610357152529561 0.8415674194060182
4234000000.0 0.5954932060371974 0.8403568105479435
4238000000.0 0.6237615289221251 0.8031185430043544
4241000000.0 0.632245848010896 0.8442824954926702
4244000000.0 0.6194365432892162 0.8152093622187808
4247000000.0 0.6541696805664432 0.8498333297450315
4250000000.0 0.6845921598313987 0.7974157389841464
4253000000.0 0.645173211180954 0.7699512424603528
4256000000.0 0.6719978827728885 0.7753393410831022
4259000000.0 0.6897397447310458 0.7449827277183231
4262000000.0 0.7100204864180191 0.7757791632387615
4266000000.0 0.6981825789272905 0.7746132253286124
4269000000.0 0.693320574795413 0.7746788468667059
4272000000.0 0.6992102155366227 0.743943495903558
4275000000.0 0.7150037180990674 0.7259112739558389
4278000000.0 0.7029539879188801 0.7295965675849477
4281000000.0 0.7375212064830853 0.7362895060015116
4284000000.0 0.7533234020457119 0.7193229751772885
4288000000.0 0.7213223930145335 0.7271008276810978
4291000000.0 0.7323212019537514 0.7143026562497585
4294000000.0 0.7338403239193968 0.705182535567447
4297000000.0 0.7600106596426615 0.6737138933135353
4300000000.0 0.7718899585594623 0.6950704594796228
4303000000.0 0.7839733508907515 0.6869505655704187
4306000000.0 0.7766620780563421 0.6992773987426253
4309000000.0 0.7742467331674587 0.6635752889055403
4312000000.0 0.7936590974721195 0.6607316844681412
4316000000.0 0.7892277759770022 0.663958720917369
4319000000.0 0.7917321955586837 0.6862181629035714
4322000000.0 0.8054732339895947 0.60375079525121
4325000000.0 0.7768339161206885 0.6439610737418763
4328000000.0 0.8060961917956526 0.5964702065815234
4331000000.0 0.8423228216193331 0.5954006096773313
4334000000.0 0.8360981550639958 0.6110242238637245
4338000000.0 0.8433837741965771 0.6274170505153897
4341000000.0 0.8520282673559781 0.5825477053885785
4344000000.0 0.8454290839931561 0.5873665688596932
4347000000.0 0.8424203517866202 0.5837729952879798
4350000000.0 0.8496538325115526 0.5193308552652542
4353000000.0 0.8285562769120705 0.5480919197073275
4356000000.0 0.8705007641683303 0.553307731216488
4359000000.0 0.8368681045584971 0.5197086730507331
4362000000.0 0.8856882792668552 0.4990210818945534
4366000000.0 0.8607348677674482 0.541429483614727
4369000000.0 0.8520554074560522 0.49822947886413105
4372000000.0 0.8963503144261431 0.4799065617610373
4375000000.0 0.9088630766875758 0.49745128840229513
4378000000.0 0.8743913102919775 0.47845431383114523
4381000000.0 0.8881044496700088 0.507673455739656
4384000000.0 0.931428389383515 0.48147973817958634
4388000000.0 0.8853304219418567 0.4841162587523346
4391000000.0 0.8909220666703916 0.46992392555603524
4394000000.0 0.8827978659629018 0.44085702826813233
4397000000.0 0.9224563658770468 0.43107022032628417
4400000000.0 0.949281279771971 0.4576040794473669
4403000000.0 0.9421619006097248 0.4093294496860074
4406000000.0 0.9345409472944739 0.38093364011664
4409000000.0 0.9634335823841669 0.41314683128424395
4412000000.0 0.9691019880892182 0.3513702146307102
4416000000.0 0.9374096615648677 0.3563973206691089
4419000000.0 0.9428122355119394 0.36499831887213113
4422000000.0 0.932800221553002 0.35251699167567135
4425000000.0 0.9636785752621004 0.3728821058485158
4428000000.0 0.9437753054010712 0.3373510237268291
4431000000.0 0.9771620899727902 0.3283558956184889
4434000000.0 0.9595777384496224 0.31114975493512814
4438000000.0 0.9992640256571161 0.3241166777394084
4441000000.0 0.9703635348848185 0.33713881240849947
4444000000.0 0.9568986359593117 0.3100579702794558
4447000000.0 0.9647669314232687 0.2875783613053875
4450000000.0 0.9636244689470216 0.3019052244876648
4453000000.0 1.0017986401688868 0.2738912577041578
4456000000.0 0.9680308824554293 0.2519707448129831
4459000000.0 0.9496360308399849 0.22188817826043997
4462000000.0 1.0332664588295488 0.2490125248588733
4466000000.0 1.028105193201288 0.23194285312744697
4469000000.0 0.9985331616553211 0.2476387034957958
4472000000.0 1.0248592951464626 0.18875743226214242
4475000000.0 0.9664729867617631 0.21016553523374673
4478000000.0 1.0528932919738243 0.18820716949580366
4481000000.0 0.9931532621388174 0.16054457497809171
4484000000.0 0.9945916199825202 0.12676872014466026
4488000000.0 0.9896205110625569 0.15582129814204154
4491000000.0 1.0093686188314694 0.15168292887045678
4494000000.0 0.9910164898578878 0.15510744209158966
4497000000.0 0.9813869655283503 0.14109545589060424
4500000000.0 1.0083004309160926 0.15254603266276853
4503000000.0 1.0266105081791965 0.12315416346736996
4506000000.0 0.9976898656364128 0.0919333123189064
4509000000.0 1.0072072966918146 0.11290288150713756
4512000000.0 0.9970580744815092 0.05945847699125956
4516000000.0 1.0183842259030798 0.08863540807710742
4519000000.0 0.9667724461736438 0.0823044304273464
4522000000.0 1.0078707063197374 0.04494913110267447
4525000000.0 0.9968102761211117 0.08689036070116526
4528000000.0 1.0333680335243511 0.03427207704736711
4531000000.0 0.9807029782473781 0.058216033433556295
4534000000.0 0.9918058268589385 0.02664145037871505
4538000000.0 1.0089022277252104 -0.0074947835176047695
4541000000.0 1.0128198233194285 -0.03161845106612186
4544000000.0 0.9784703626453588 -0.008094263682512842
4547000000.0 0.981914967869576 0.022796231247535027
4550000000.0 1.0059276492971179 -0.05577378433782414
4553000000.0 1.0195386508449136 -0.03050295046364286
4556000000.0 0.9819835986477252 -0.07505447215598668
4559000000.0 1.007405769853429 -0.06769969331525923
4562000000.0 1.0196622511630924 -0.06567641791271106
4566000000.0 1.009070436358415 -0.0889529508061454
4569000000.0 0.973661703623107 -0.07516701640682474
4572000000.0 0.9879632712389309 -0.07226401152997718
4575000000.0 1.0197757909211689 -0.12996208393619252
4578000000.0 1.0464128678446398 -0.11244244028835834
4581000000.0 1.0260355792843605 -0.13823100909710428
4584000000.0 0.9928258487731598 -0.13025162302129495
4588000000.0 1.0365192525658617 -0.12817369171827298
4591000000.0 0.997882062226567 -0.12615651352837626
4594000000.0 0.9927254837920945 -0.1900515974252427
4597000000.0 1.0256106324675 -0.1821344082016972
4600000000.0 0.959406401444392 -0.22155052918290394
4603000000.0 1.00786555110407 -0.18890212534001827
4606000000.0 0.9803400869105694 -0.16935077266385656
4609000000.0 0.9861208845566909 -0.21698769505574683
4612000000.0 1.0254166332273287 -0.2229746767062755
4616000000.0 0.976239362409147 -0.22319968843669283
4619000000.0 0.9942549360936718 -0.23587199259468197
4622000000.0 0.9848437748299814 -0.22791473750050056
4625000000.0 0.9244989119189928 -0.2511783832961663
4628000000.0 0.9343078448243994 -0.23721020485696168
4631000000.0 0.9476741671453865 -0.3085396819963834
4634000000.0 0.956591711452405 -0.2841257679822444
4638000000.0 0.9682310079652297 -0.3067997042870979
4641000000.0 0.9973284069991771 -0.28231815945468236
4644000000.0 0.9654394841236315 -0.3281483909737921
4647000000.0 0.9683942092681446 -0.32508101650897603
4650000000.0 0.9499191880621247 -0.35356356835938707
4653000000.0 0.9728979029473526 -0.3406542506074184
4656000000.0 0.9319478233481042 -0.38366091426984966
4659000000.0 0.9363646024811189 -0.35689511548677655
4662000000.0 0.9499445114761185 -0.3662761998751805
4666000000.0 0.9186745826935696 -0.3754392377081163
4669000000.0 0.9382973059887261 -0.36993270799852956
4672000000.0 0.914828166711891 -0.4267107045117886
4675000000.0 0.8913976976224269 -0.43031866166868826
4678000000.0 0.9293666587920966 -0.41922085044100776
4681000000.0 0.9084083180726369 -0.459144911701482
4684000000.0 0.8684307370772563 -0.436067136672023
4688000000.0 0.9068009216347142 -0.4197328503177501
4691000000.0 0.8851437232704947 -0.42200490342834646
4694000000.0 0.8993478219211543 -0.46955730244878746
4697000000.0 0.8930180315749556 -0.47117712655686
4700000000.0 0.8956694666664865 -0.4743295478216207
4703000000.0 0.8919283469292647 -0.5062394630654996
4706000000.0 0.8750870501195636 -0.4852068689006751
4709000000.0 0.8637352246043096 -0.5048224030399041
4712000000.0 0.847746324454014 -0.5191371800633988
4716000000.0 0.8522755215945222 -0.5220807302062771
4719000000.0 0.8856603365474021 -0.5348905320761843
4722000000.0 0.8770451909588375 -0.524158320596571
4725000000.0 0.8395361621742209 -0.5437413124723681
4728000000.0 0.8360836964643374 -0.5518821762139261
4731000000.0 0.8575223043039548 -0.5457893551326021
4734000000.0 0.8368999766636269 -0.5616471491914011
4738000000.0 0.8454250729084851 -0.590392338614571
4741000000.0 0.8470599971710036 -0.5709896265297429
4744000000.0 0.8081438435457265 -0.6076389059651414
4747000000.0 0.8082044020994528 -0.6151104888224072
4750000000.0 0.7819866732861975 -0.5900282029043349
4753000000.0 0.811606952094021 -0.6538245597839313
4756000000.0 0.7955421001904245 -0.634277906400172
4759000000.0 0.7825286450459982 -0.645114490467597
4762000000.0 0.7920127521205821 -0.6313530992953688
4766000000.0 0.7599704587416607 -0.6518088046014453
4769000000.0 0.7989133298812161 -0.6561386219627953
4772000000.0 0.7916379730077958 -0.691370349569825
4775000000.0 0.8052480929867849 -0.679099884069529
4778000000.0 0.7827840298358979 -0.669921960450628
4781000000.0 0.7547560742881141 -0.6783208789060494
4784000000.0 0.7742599458229895 -0.6600878249390099
4788000000.0 0.7519371323048462 -0.7283165711882079
4791000000.0 0.7235582332387289 -0.7204223040140905
4794000000.0 0.7249483018437737 -0.6849160144538171
4797000000.0 0.7281225636532843 -0.7236331806854612
4800000000.0 0.6940974530081191 -0.7280382678523603
4803000000.0 0.6896282189845782 -0.7226692665990047
4806000000.0 0.682888646604578 -0.7466278275033871
4809000000.0 0.6780689984282371 -0.7431615025183801
4812000000.0 0.6694791675434983 -0.7683594477856618
4816000000.0 0.6925553888490951 -0.7403019549289475
4819000000.0 0.6974056074860737 -0.7830310494170474
4822000000.0 0.6811982029428 -0.792277270778809
4825000000.0 0.6799858934475134 -0.7612089636617893
4828000000.0 0.6614962353944887 -0.7507706407664423
4831000000.0 0.6203690366338478 -0.8106770435160191
4834000000.0 0.6422319529945213 -0.7950937741412339
4838000000.0 0.6338227127206163 -0.8173941285719566
4841000000.0 0.6180863174291634 -0.8138650040015907
4844000000.0 0.6356956196012484 -0.788886210697259
4847000000.0 0.6033575943072472 -0.7887075203002816
4850000000.0 0.6014940343280888 -0.8284112027772579
4853000000.0 0.593704770796168 -0.8193093165125818
4856000000.0 0.5846129925573562 -0.8166412841877347
4859000000.0 0.6003038355766603 -0.8680668757206326
4862000000.0 0.59644541759558 -0.8044385833362383
4866000000.0 0.5449679127658522 -0.8911397197591114
4869000000.0 0.5407989899474183 -0.8664517311196468
4872000000.0 0.5276710568553975 -0.8929621930684065
4875000000.0 0.5897589443614608 -0.8698275214909161
4878000000.0 0.5326132144827529 -0.8918040688985465
4881000000.0 0.5311413835945195 -0.9321339100770162
4884000000.0 0.5542076630335019 -0.8767780068813555
4888000000.0 0.5487006739038097 -0.8780104667923546
4891000000.0 0.5479737589991147 -0.9044256191482171
4894000000.0 0.4715376874687316 -0.8962470957119789
4897000000.0 0.5019662013772065 -0.8808390421553682
4900000000.0 0.47110914517601843 -0.9191998647084368
4903000000.0 0.4944860851663196 -0.9278543830377677
4906000000.0 0.4864499385278195 -0.9624106351626103
4909000000.0 0.43230181776519644 -0.9356308569689173
4912000000.0 0.45210030398982626 -0.9837144343954827
4916000000.0 0.4736698822779088 -0.9512640979597087
4919000000.0 0.46944009147624016 -0.9446128904932014
4922000000.0 0.4731968859711093 -0.9285341380910475
4925000000.0 0.3756384965672104 -0.9318780204963253
4928000000.0 0.4551782350238786 -0.902249350196295
4931000000.0 0.424342189763984 -0.930961776480453
4934000000.0 0.3690078859676224 -0.9282783122342884
4938000000.0 0.3637440818621834 -0.9325331125834511
4941000000.0 0.3657075734662535 -0.9541654189802172
4944000000.0 0.36159033482524605 -0.8769659111490928
4947000000.0 0.3501878498272888 -0.9269252902361361
4950000000.0 0.3561439191545065 -0.9566572439521673
4953000000.0 0.3212951171047877 -1.0227607253751243
4956000000.0 0.3264395559342421 -0.9666452350123614
4959000000.0 0.27079283488276307 -0.9808029657944861
4962000000.0 0.3327460575873412 -0.9824029082868202
4966000000.0 0.3374550894945851 -0.9981395020857956
4969000000.0 0.354396561770962 -1.0036807606075728
4972000000.0 0.26640257403562095 -1.0022758750333773
4975000000.0 0.3002291367522277 -0.9681427337416019
4978000000.0 0.2494764464882128 -1.0066180774601443
4981000000.0 0.25695275621127944 -0.9986541997719686
4984000000.0 0.2425296816335201 -0.9623193224762305
4988000000.0 0.2410675415765361 -0.9891000006908893
4991000000.0 0.29589440234554143 -0.9922682747989896
4994000000.0 0.2374961393571388 -1.0129796545492207
4997000000.0 0.19312722290735462 -1.0201268288307292
5000000000.0 0.23463382756494114 -0.990549260815057
5003000000.0 0.20500691635103346 -1.0292779737361486
5006000000.0 0.20738067398762863 -1.0640453527809162
5009000000.0 0.20692889375298623 -0.9860107615017525
5012000000.0 0.15602873285725438 -0.9932387077552918
5016000000.0 0.22379341522216772 -1.0395785164868998
5019000000.0 0.15615532500038615 -0.9994080073396561
5022000000.0 0.15861455971557542 -1.0181162801025663
5025000000.0 0.14189204455966037 -1.084050526366987
5028000000.0 0.10231753784404599 -1.048284735114507
5031000000.0 0.12474978747721387 -1.0185921963626934
5034000000.0 0.07372140603720101 -1.076207091664035
5038000000.0 0.0734390096770798 -1.0018285900641342
5041000000.0 0.15380028185063 -1.0375907763054992
5044000000.0 0.12222957387635687 -0.9768165523364242
5047000000.0 0.10507583092020553 -1.0405261735922293
5050000000.0 0.15601716310027997 -1.0157107452648706
5053000000.0 0.07105766163000729 -1.0765015288642716
5056000000.0 0.11222022009581481 -1.040718678100722
5059000000.0 0.11989386773211415 -1.019945176061107
5062000000.0 0.012611128016019407 -1.0413778927139847
5066000000.0 0.08118115491291687 -1.0300782879079917
5069000000.0 0.02915510081259498 -1.0523113394641166
5072000000.0 0.025367110768771323 -0.9972351230726795
5075000000.0 0.03892106650680925 -1.0500033891503366
5078000000.0 -0.0172843751312398 -1.0317048055097662
5081000000.0 0.001206690922572834 -0.9748667290275829
5084000000.0 -0.004533706734176898 -1.0708684544178826
5088000000.0 -0.017964442334225422 -1.0100839430514363
5091000000.0 -0.11506629970865145 -1.0426276760653967
5094000000.0 -0.03603840702914843 -1.0582496046510075
5097000000.0 0.006275819036292818 -1.05786906669192
5100000000.0 -0.017343831080382427 -1.0370020603492145
5103000000.0 -0.06994446895416587 -1.0533709597879706
5106000000.0 -0.055490965354730803 -1.100621298748917
5109000000.0 -0.05142668278458548 -1.026279507063856
5112000000.0 -0.06418766276146488 -1.0305709696467287
5116000000.0 -0.07205583681574952 -0.981629693048848
5119000000.0 -0.09279453984896516 -1.03903765659738
5122000000.0 -0.12237825830395521 -1.036360520625056
5125000000.0 -0.10327964191628719 -1.0603774875667522
5128000000.0 -0.12607875603351 -1.0213595231626638
5131000000.0 -0.12202013025609404 -0.9725895575939315
5134000000.0 -0.14060536367733287 -1.0583441677382566
5138000000.0 -0.1463236886259715 -1.0698436734593249
5141000000.0 -0.12561581934468027 -1.0187125578386182
5144000000.0 -0.16146872197138687 -1.0818756243960364
5147000000.0 -0.15177789526045438 -1.0107494607096024
5150000000.0 -0.15460975946589467 -1.033191275647698
5153000000.0 -0.1586806458819282 -1.004189022861836
5156000000.0 -0.19051254942822277 -1.0297908617651474
5159000000.0 -0.19339801552769442 -1.065410554523262
5162000000.0 -0.19208500559527245 -0.9959203355533892
5166000000.0 -0.2957744639491934 -1.0232939586747116
5169000000.0 -0.24602094843477018 -1.0273918604119956
5172000000.0 -0.26493117462682136 -0.985513005059659
5175000000.0 -0.22386554411286214 -1.0788951073772952
5178000000.0 -0.2582058992635037 -0.9638000545917742
5181000000.0 -0.27979722051410777 -1.0449143053336623
5184000000.0 -0.28564441516640837 -0.9929310277600807
5188000000.0 -0.23652139453216148 -0.9667403558040361
5191000000.0 -0.3491881064323499 -1.048830231858042
5194000000.0 -0.31446915643927825 -1.0177936767577318
