! Created with skrf 1.8.0 (http://scikit-rf.org).
# Hz S RI R 50.0 
!freq ReS11 ImS11
4000000000.0 0.5953857579191122 0.7837358651602293
4003000000.0 0.6984836803338271 0.8360313926327699
4006000000.0 0.6857710444410414 0.8042406664452522
4009000000.0 0.6310757419701472 0.797915069871418
4012000000.0 0.6079094535170015 0.8144796217210599
4016000000.0 0.6991366691606306 0.7859376843346075
4019000000.0 0.6889994069641179 0.7941545755781867
4022000000.0 0.6316969176600519 0.8350203597794702
4025000000.0 0.7220869479551201 0.7842256087059652
4028000000.0 0.7226178648499014 0.72472668212803
4031000000.0 0.6695698076078958 0.7313867454991028
4034000000.0 0.7102525419756275 0.692230323322599
4038000000.0 0.7362441310656599 0.7440517758202733
4041000000.0 0.7257722605984688 0.7089659644123664
4044000000.0 0.7873004103594314 0.78435304880924
4047000000.0 0.7648465302907959 0.7714817685386415
4050000000.0 0.7573101024637797 0.7048325434212992
4053000000.0 0.7989765941980124 0.6682819289365269
4056000000.0 0.7465480857255278 0.6792423246458601
4059000000.0 0.7670714648128597 0.6987897124312898
4062000000.0 0.7967480283855835 0.7007089200427299
4066000000.0 0.7233253412936655 0.6530159772424645
4069000000.0 0.8613185996051738 0.6814132844029474
4072000000.0 0.7752476611357997 0.7067206020215562
4075000000.0 0.8040454973922778 0.6795807580587943
4078000000.0 0.8011730988203197 0.6633671944756963
4081000000.0 0.8026449325164381 0.7202519360734411
4084000000.0 0.7951851273665106 0.6688636549961682
4088000000.0 0.7635640185469703 0.6444542526011805
4091000000.0 0.8596368512180111 0.6572078722371135
4094000000.0 0.8361974171630918 0.6420437113617987
4097000000.0 0.8645580684945919 0.6216179743233068
4100000000.0 0.8383487350102141 0.5944362804046421
4103000000.0 0.8245245724715073 0.6442276560402072
4106000000.0 0.8651199158267656 0.5827739882174111
4109000000.0 0.8709278410249515 0.5703627402555169
4112000000.0 0.8330512396607446 0.6042851898175554
4116000000.0 0.8472762866624782 0.6054884482502588
4119000000.0 0.899180030188754 0.5435561289577479
4122000000.0 0.9055755520614104 0.5207518311192535
4125000000.0 0.9124393447432871 0.532905320355743
4128000000.0 0.8365407316903033 0.5339907314387373
4131000000.0 0.9030820649011662 0.5388520000911035
4134000000.0 0.8776744311838578 0.5663573806798764
4138000000.0 0.8743196712940233 0.49784709144341893
4141000000.0 0.8644328004313061 0.4736229173825711
4144000000.0 0.9160212295142574 0.5208746782587466
4147000000.0 0.9110712135913341 0.47295889868420266
4150000000.0 0.9486833580218168 0.5121259122436743
4153000000.0 0.9302713912115252 0.4849787264442268
4156000000.0 0.8963260866273266 0.46982868396188704
4159000000.0 0.908653614452779 0.4698137830820462
4162000000.0 0.900251624737197 0.4612191952800049
4166000000.0 0.934873684038886 0.45030068685161007
4169000000.0 0.9275565409411923 0.43385414540546374
4172000000.0 0.928822977276323 0.41845472481952334
4175000000.0 0.9296104852343751 0.4717975470120807
4178000000.0 0.9368110603880224 0.4363781524529563
4181000000.0 0.9528190567452994 0.3967120072735546
4184000000.0 0.9400157609709845 0.39935163433204984
4188000000.0 0.9546344432348641 0.39860901491750833
4191000000.0 0.9369249276096118 0.43165603097777855
4194000000.0 0.9096439440083509 0.3731305809474291
4197000000.0 0.9675468931417894 0.3886568328945808
4200000000.0 0.9340364991478147 0.3840387669662457
4203000000.0 0.9542090952608261 0.39833315330265884
4206000000.0 0.9746971475242405 0.34419102926662876
4209000000.0 0.9643371853598103 0.3393898886452373
4212000000.0 0.984484160982071 0.3334174057308258
4216000000.0 0.9810728816509484 0.3441542923402772
4219000000.0 0.9727479160090087 0.337131190474133
4222000000.0 0.9885203465949051 0.31252632071986103
4225000000.0 0.9643444384209159 0.296913926789087
4228000000.0 0.9904259012871115 0.3022548179762673
4231000000.0 0.9860567289968828 0.2869636409004515
4234000000.0 0.9996698562661284 0.2628931878756007
4238000000.0 1.0136946575401948 0.25899226110729234
4241000000.0 0.9865050008095932 0.23530149608007972
4244000000.0 0.9707714245367062 0.25831176906585906
4247000000.0 0.9954497105294376 0.2643414690012186
4250000000.0 0.9710867016899192 0.21101042550117954
4253000000.0 0.9650796244882833 0.21105232333262836
4256000000.0 1.022039670974166 0.23080428246568985
4259000000.0 0.9823681506712898 0.20001206431784788
4262000000.0 0.9863639973408951 0.1901887410615318
4266000000.0 1.0206210719425266 0.18128858684175886
4269000000.0 0.9817440518140746 0.19395916905275176
4272000000.0 0.9871362933196621 0.1809961614180733
4275000000.0 0.9917855220211811 0.18469798077041055
4278000000.0 1.015164495414405 0.1838043442457512
4281000000.0 0.9852403745343978 0.1719458164386053
4284000000.0 1.0130975967806237 0.12764427070211642
4288000000.0 1.0193577267530303 0.15097387183184036
4291000000.0 0.9981386404696361 0.12309676171059487
4294000000.0 0.9859586794834836 0.1277602106629243
4297000000.0 1.0113062080034945 0.13924992594417146
4300000000.0 0.9976709671310626 0.10064001432951228
4303000000.0 1.0158300793642263 0.07462857883453584
4306000000.0 1.0131700528368273 0.11695759961413343
4309000000.0 1.0251650890835216 0.1128063153310185
4312000000.0 1.0123326794575616 0.08560851366950126
4316000000.0 1.0335856601454152 0.08089462453039604
4319000000.0 0.998342648233934 0.053823165975646695
4322000000.0 1.0154563490400523 0.013666730596489873
4325000000.0 1.025026637505247 0.04918165308729848
4328000000.0 0.9871669961752065 0.030843214106725567
4331000000.0 1.002318368408715 -0.011866375628804576
4334000000.0 1.045931543608285 0.007254456940608889
4338000000.0 1.0199532732887433 0.019777663482798788
4341000000.0 1.052729880436995 -0.0024499285239058533
4344000000.0 1.0296501225572852 -0.007953815606667664
4347000000.0 1.031995919199528 -0.05385308276288668
4350000000.0 0.9833720607261048 -0.06279832178413648
4353000000.0 1.0043800265543825 -0.030772189607453204
4356000000.0 1.0044132685134746 -0.07802530110544652
4359000000.0 0.9816525130947309 -0.045288120059064255
4362000000.0 1.0078615345028805 -0.12599312514137007
4366000000.0 1.021932917539614 -0.07986523660842045
4369000000.0 0.9783520371456904 -0.07872222516907139
4372000000.0 1.0020832533945612 -0.14010399368900178
4375000000.0 1.0030149899920677 -0.09429563136885671
4378000000.0 0.985758627214751 -0.10601311188581392
4381000000.0 1.0007381241163835 -0.1078733476406019
4384000000.0 1.058483240698728 -0.15548693199433183
4388000000.0 1.0065247236619745 -0.13828230186944523
4391000000.0 1.0059793865041105 -0.15293277384447365
4394000000.0 0.965787143652142 -0.1695349486801937
4397000000.0 0.9953440247043941 -0.16044983433743226
4400000000.0 1.0242799921854786 -0.18037446025791948
4403000000.0 1.0095568170677458 -0.17511969669455768
4406000000.0 0.9905352295962416 -0.20651480654794582
4409000000.0 1.022055348753977 -0.2106259423645617
4412000000.0 0.9781172385307012 -0.26437174551612197
4416000000.0 0.9611909414447319 -0.22659006774408857
4419000000.0 0.9749686331210223 -0.2474955768800718
4422000000.0 0.9690458216495004 -0.2111230118986071
4425000000.0 1.019551705023445 -0.2197066393832073
4428000000.0 0.9749631832921725 -0.2614085107282634
4431000000.0 1.0082390452156043 -0.253593974966949
4434000000.0 0.9629892494190498 -0.2689903806195965
4438000000.0 1.0004621349806124 -0.2735251990158575
4441000000.0 0.9787068286578349 -0.28179296811163473
4444000000.0 0.9464482919666812 -0.28268954868828583
4447000000.0 0.9430927551630782 -0.3132741189368966
4450000000.0 0.9540467954057223 -0.29725313567420075
4453000000.0 0.9951948181480904 -0.31973149841330506
4456000000.0 0.9336612959533975 -0.34458956780415306
4459000000.0 0.9058624373045825 -0.32485188318249786
4462000000.0 1.0056074968927364 -0.3835870145933773
4466000000.0 0.982441109774315 -0.35921009210940924
4469000000.0 0.9544341876124192 -0.3432828997024216
4472000000.0 0.9531759577364672 -0.41439284599153775
4475000000.0 0.9174381878077609 -0.34936337102925297
4478000000.0 0.9613923429048833 -0.43781120364701254
4481000000.0 0.8993291678699954 -0.3970706114671959
4484000000.0 0.9000249789756365 -0.4460420837615575
4488000000.0 0.9007953618969693 -0.4165563700499655
4491000000.0 0.9165523313618897 -0.42711450200941614
4494000000.0 0.9117592425292793 -0.41415584518765625
4497000000.0 0.8920757140935229 -0.4383928840727728
4500000000.0 0.910263233850404 -0.4325680206468489
4503000000.0 0.9281763394261779 -0.4521830358472655
4506000000.0 0.895992208950229 -0.46144874036967665
4509000000.0 0.8709506748796332 -0.459199727516701
4512000000.0 0.8696220483739819 -0.49146757775595673
4516000000.0 0.9118341324312821 -0.49190649593671254
4519000000.0 0.8763170119845545 -0.4690521264764359
4522000000.0 0.8881505919668093 -0.49587950926863056
4525000000.0 0.8805775508116913 -0.4828355503930982
4528000000.0 0.8980533685113221 -0.5407530617098982
4531000000.0 0.8699711833952548 -0.5128367043552406
4534000000.0 0.8387520645162314 -0.5183091246528814
4538000000.0 0.854228845139517 -0.5342402649935536
4541000000.0 0.8095151549244242 -0.5605249609845221
4544000000.0 0.8498086859056446 -0.5506426126130808
4547000000.0 0.839669899241377 -0.5520921727102741
4550000000.0 0.8450168388544399 -0.6038113118333867
4553000000.0 0.8214799514117641 -0.5754275988059209
4556000000.0 0.8033915925996284 -0.5790448246963343
4559000000.0 0.8138124005691431 -0.5993951339758563
4562000000.0 0.8318000091415148 -0.6088153214366218
4566000000.0 0.8231265230233322 -0.6192533775583544
4569000000.0 0.7817419258470861 -0.624582220394714
4572000000.0 0.8046320406484686 -0.6100672755166068
4575000000.0 0.7871161980394985 -0.6352854272490956
4578000000.0 0.812508352898144 -0.6389939202717467
4581000000.0 0.7748560261712694 -0.6541825817062322
4584000000.0 0.7798553554884804 -0.6376409981837207
4588000000.0 0.794006857664302 -0.6556499426355515
4591000000.0 0.7812391451161541 -0.6325906112530231
4594000000.0 0.7524439269097882 -0.6771383928793877
4597000000.0 0.7752812067332975 -0.6781793989852327
4600000000.0 0.706704214365586 -0.6931363369894968
4603000000.0 0.7408985247443844 -0.6878153512019494
4606000000.0 0.7431005799377681 -0.7137799699890066
4609000000.0 0.7459213210720335 -0.7067926778691973
4612000000.0 0.7137408592795734 -0.7253915392935304
4616000000.0 0.7217095733924619 -0.725544120874624
4619000000.0 0.7113679804762673 -0.7261019765640541
4622000000.0 0.6994310418663511 -0.7366963279209766
4625000000.0 0.6815554897515114 -0.7120914597657781
4628000000.0 0.7062872664439374 -0.7309410303787841
4631000000.0 0.6874596972209313 -0.7466652987415571
4634000000.0 0.6711746840458819 -0.7517093758641232
4638000000.0 0.6849991222982955 -0.7721912915434092
4641000000.0 0.6597433948433482 -0.7672905080718273
4644000000.0 0.657134185408659 -0.769551376467516
4647000000.0 0.6518500656135157 -0.7740643099161244
4650000000.0 0.6279031414706931 -0.803478086584027
4653000000.0 0.6359674896997765 -0.7964708912611771
4656000000.0 0.6149850631325291 -0.8016325144183962
4659000000.0 0.6205482249057958 -0.8077015006821342
4662000000.0 0.6224916782581371 -0.8240406752693084
4666000000.0 0.607094264986127 -0.816970867821604
4669000000.0 0.6121278997243835 -0.8185188803963468
4672000000.0 0.5967218501603898 -0.8409355686904203
4675000000.0 0.5721653748620377 -0.839077925550965
4678000000.0 0.5582003611726916 -0.8241492806588558
4681000000.0 0.5587482528733015 -0.8683557667475353
4684000000.0 0.5354270340341886 -0.8546468712951658
4688000000.0 0.5051032666192066 -0.8624373237363117
4691000000.0 0.5676708889356883 -0.851357413249568
4694000000.0 0.5460903767180985 -0.8397899260429968
4697000000.0 0.5103240607169385 -0.8460916896034791
4700000000.0 0.5379423747885375 -0.8660004493591271
4703000000.0 0.5171245549197916 -0.8303783513458154
4706000000.0 0.5200168847252559 -0.8797866144015479
4709000000.0 0.49776552807942925 -0.8738004378358902
4712000000.0 0.5028301101971784 -0.8907665339804148
4716000000.0 0.4893574580240212 -0.9082817719353307
4719000000.0 0.4861075324589825 -0.8967054274710841
4722000000.0 0.5073911926044075 -0.8758022721888574
4725000000.0 0.47176468214407596 -0.8761527240054993
4728000000.0 0.46400574197120126 -0.8921005491423064
4731000000.0 0.4780323497427337 -0.9046890217093055
4734000000.0 0.4561723084879872 -0.8795889261262131
4738000000.0 0.493108690451592 -0.946808518524756
4741000000.0 0.4346941888442945 -0.9354244684493354
4744000000.0 0.37779535140917103 -0.9573790432103723
4747000000.0 0.41616597422739254 -0.8801416669257868
4750000000.0 0.4037088436414048 -0.9534093376916546
4753000000.0 0.4072988441595528 -0.9061387467841721
4756000000.0 0.38611942633991925 -0.9485846615764773
4759000000.0 0.40627352720900217 -0.9347773247319866
4762000000.0 0.3708113975945473 -1.0110161953298198
4766000000.0 0.36302805042095193 -0.9411280215386995
4769000000.0 0.3690402591061983 -0.9896141210975539
4772000000.0 0.3465920635116719 -0.9660493545641602
4775000000.0 0.3649613153650166 -1.0058447115200686
4778000000.0 0.3336167834939463 -0.9776701797027368
4781000000.0 0.3112200062920534 -0.9428189305083945
4784000000.0 0.3365766099152665 -0.9457190893624435
4788000000.0 0.2803610580896211 -0.9962898204600334
4791000000.0 0.29123104428074537 -0.9766088426509366
4794000000.0 0.31922824982964604 -1.007939019616506
4797000000.0 0.27479155055973803 -0.9972944555570972
4800000000.0 0.24177585088657413 -0.9752490250341801
4803000000.0 0.2371396849997774 -0.9950567881468946
4806000000.0 0.26392062369270797 -1.017167483279159
4809000000.0 0.21231946556331138 -1.0089414640153163
4812000000.0 0.21643872939629286 -0.9666178835847268
4816000000.0 0.23323928035964198 -0.9670869755283253
4819000000.0 0.22764277873021183 -0.9987340589507703
4822000000.0 0.25431163140313606 -1.0378567272836587
4825000000.0 0.2586270929911678 -1.040588541580448
4828000000.0 0.19242008583765563 -1.0005996683041776
4831000000.0 0.15929125159066315 -1.0481801413341127
4834000000.0 0.20616639840792855 -1.0031253573043712
4838000000.0 0.16764798016648513 -1.0050136702406376
4841000000.0 0.14920597878807618 -1.0126284534903487
4844000000.0 0.1894134915283749 -1.0054407952914652
4847000000.0 0.17832443558282296 -0.971566172323548
4850000000.0 0.10308864371574848 -1.0364853253508919
4853000000.0 0.13002935700668117 -1.003426626040621
4856000000.0 0.10506039117465835 -1.0014959593907409
4859000000.0 0.09784951165659563 -1.085080718667125
4862000000.0 0.12861532679285675 -0.9994135094336659
4866000000.0 0.07735039738749566 -1.0495742135703492
4869000000.0 0.07398111670302077 -1.0161040231645844
4872000000.0 0.06147597439982055 -1.0303224830022863
4875000000.0 0.1332198571454124 -1.0302307508825361
4878000000.0 0.0716345518008821 -1.0358076422653253
4881000000.0 0.03337032323636629 -1.1116142049573068
4884000000.0 0.05083047642075067 -1.0218891123871925
4888000000.0 0.05076182564994143 -1.0213069191499011
4891000000.0 0.050071490276609516 -1.0479197785748486
4894000000.0 0.007887709670700658 -1.0166602613484577
4897000000.0 0.020989792795287704 -1.0090581411006112
4900000000.0 -0.0003469962985797534 -1.0471693814205358
4903000000.0 0.04219934118569151 -1.0556320387153941
4906000000.0 -0.010264995535839285 -1.0370978478423802
4909000000.0 -0.043827001853750165 -1.0475821307838646
4912000000.0 -0.04676758000088621 -1.0697989002049328
4916000000.0 -0.01278246650457851 -1.0530414948913605
4919000000.0 0.0036861016614424882 -1.0539033750366902
4922000000.0 -0.010048637632886201 -1.0490092936190274
4925000000.0 -0.09813816422495389 -1.0245533657969543
4928000000.0 -0.010838544137892314 -1.041145209282725
4931000000.0 -0.037844763817476326 -1.0425613435480308
4934000000.0 -0.08207388811742382 -0.9803116079960256
4938000000.0 -0.11094458902056158 -1.0268986339106432
4941000000.0 -0.072699604348637 -0.9963250849371325
4944000000.0 -0.10019340412522201 -0.9445969253186606
4947000000.0 -0.07329008143805407 -0.9980628976246299
4950000000.0 -0.1408525471713925 -0.9836702542926976
4953000000.0 -0.18758673271272214 -1.0735312284233447
4956000000.0 -0.16424058239666223 -1.021233351623799
4959000000.0 -0.1874323162624437 -0.9831702469759008
4962000000.0 -0.1559817721530907 -1.0302787315177322
4966000000.0 -0.1400273550956727 -1.0584279512501837
4969000000.0 -0.13963567038245994 -1.0658940284900245
4972000000.0 -0.17842214493369626 -1.0333481665343494
4975000000.0 -0.1823413760340585 -1.0069233387491563
4978000000.0 -0.21655345757838107 -1.019461305899702
4981000000.0 -0.22016636863720293 -1.0464976711149594
4984000000.0 -0.21049215580939554 -0.9792932851154648
4988000000.0 -0.2062525827593062 -1.0259463364825467
4991000000.0 -0.1767118453233732 -1.0539942889861258
4994000000.0 -0.23385277076344907 -1.0060106412301066
4997000000.0 -0.2710533115160894 -1.0351831440604928
5000000000.0 -0.23679489994541736 -1.0265178878610959
5003000000.0 -0.27978519831398213 -1.0471214137114304
5006000000.0 -0.24559806393813335 -1.0563252908108178
5009000000.0 -0.2500338403379406 -1.0035995370421604
5012000000.0 -0.31219195633684654 -0.990980775373546
5016000000.0 -0.28102652124998223 -1.0406968602248376
5019000000.0 -0.2977536917452124 -1.0103880467291197
5022000000.0 -0.3412514773787324 -0.9799578385294472
5025000000.0 -0.3706403704827281 -1.0443093976906992
5028000000.0 -0.34145237033210674 -0.974503221218012
5031000000.0 -0.3558082400620871 -0.9689802226377308
5034000000.0 -0.38684984269070644 -1.0032245724111735
5038000000.0 -0.3345001038586083 -0.9511118050688092
5041000000.0 -0.35605342796518047 -1.0224297722622944
5044000000.0 -0.3524120783768995 -0.9727515241256041
5047000000.0 -0.35530966126175206 -0.9849248811234782
5050000000.0 -0.29609653356247945 -0.9440280386942645
5053000000.0 -0.42273315519267485 -0.9720425926172378
5056000000.0 -0.3642262192669231 -1.006449204826513
5059000000.0 -0.3590852738879214 -0.9886393114984279
5062000000.0 -0.44266218001445656 -0.9675291330304012
5066000000.0 -0.39150747362508487 -0.986431297195945
5069000000.0 -0.48094936464542304 -0.9768719327469536
5072000000.0 -0.4080359397896012 -0.8947423734604905
5075000000.0 -0.41000537296397666 -0.9866152969948809
5078000000.0 -0.4796564944790627 -0.9411476806268224
5081000000.0 -0.4143075373523473 -0.9105959032225254
5084000000.0 -0.4830522673754917 -0.9657790262977248
5088000000.0 -0.47347841338294105 -0.9682762450251361
5091000000.0 -0.5308550912563563 -0.9136006160453993
5094000000.0 -0.49530059474457194 -0.9196421993610363
5097000000.0 -0.4719517849118908 -0.9422278434691909
5100000000.0 -0.4741341806681331 -0.9032791202363816
5103000000.0 -0.5389984544913043 -0.8762424993923209
5106000000.0 -0.5218002419589972 -0.9528591107797573
5109000000.0 -0.4724762760609102 -0.959334693335524
5112000000.0 -0.5427272822663127 -0.8878931954960476
5116000000.0 -0.4661990844135906 -0.878984049055205
5119000000.0 -0.5807528171007617 -0.9217124793002738
5122000000.0 -0.5332446794189855 -0.9246946962668965
5125000000.0 -0.4980785262427974 -0.9198021897170964
5128000000.0 -0.5639558353229646 -0.8941176649296152
5131000000.0 -0.5406159016808717 -0.8457855486616477
5134000000.0 -0.5545228824517169 -0.8014948353291168
5138000000.0 -0.555702593938915 -0.91310732791703
5141000000.0 -0.5270247110201111 -0.8946494259994817
5144000000.0 -0.5269971386427651 -0.8541366314374337
5147000000.0 -0.6124308338431881 -0.8710083123768637
5150000000.0 -0.585013815186338 -0.8935989486682496
5153000000.0 -0.592648761041539 -0.8784644049326423
5156000000.0 -0.5794281328642349 -0.841150216985606
5159000000.0 -0.6051133106646903 -0.9227609346642855
5162000000.0 -0.6719066663455399 -0.8199809194634675
5166000000.0 -0.6643350505980872 -0.8295421948636829
5169000000.0 -0.6569391352974212 -0.8448909537263923
5172000000.0 -0.6611946067112021 -0.8041000932659236
5175000000.0 -0.653651846659155 -0.8411967014461661
5178000000.0 -0.7063899544130852 -0.814695428293308
5181000000.0 -0.6676485666736304 -0.805829473203046
5184000000.0 -0.6718484476942007 -0.8125790682860419
5188000000.0 -0.6402867508182609 -0.7935637689377215
