! Created with skrf 1.8.0 (http://scikit-rf.org).
# Hz S RI R 50.0 
!freq ReS11 ImS11
4000000000.0 0.6380290142611392 0.7817288700599381
4003000000.0 0.6350595114306081 0.869454614024615
4006000000.0 0.7133352550866625 0.7781154177591713
4009000000.0 0.6681953947765381 0.7616182654375839
4012000000.0 0.6315880367908002 0.832224622797697
4016000000.0 0.6888095733585508 0.7894430521554308
4019000000.0 0.6942683757888994 0.7420342408555196
4022000000.0 0.6625607414866299 0.7943972545568866
4025000000.0 0.7528996602186008 0.7638057411060153
4028000000.0 0.7340356416638769 0.7693210557692445
4031000000.0 0.6938214378909309 0.6980913467917753
4034000000.0 0.7327640410002205 0.759498208604451
4038000000.0 0.7455599795565627 0.7340341898317461
4041000000.0 0.7072452131464392 0.7650505591591334
4044000000.0 0.7736185954553568 0.7291856176225534
4047000000.0 0.7120293785583711 0.7649310250080513
4050000000.0 0.7856464360932189 0.7587635987036184
4053000000.0 0.7646130895705903 0.6903480743249826
4056000000.0 0.7617146031689426 0.6810141354651188
4059000000.0 0.7182220750170645 0.6944188624390848
4062000000.0 0.768380738487567 0.6907259494383093
4066000000.0 0.7239762554361593 0.6385548070202357
4069000000.0 0.7975135232164411 0.7055640957426788
4072000000.0 0.762473740247468 0.7089050097872756
4075000000.0 0.7892834206511742 0.7259801041080367
4078000000.0 0.8164124013457799 0.7088090531311707
4081000000.0 0.7710854020246019 0.7084146992234094
4084000000.0 0.8416172551127742 0.6394286851427382
4088000000.0 0.7767349114029681 0.6389045754460864
4091000000.0 0.8767484917268187 0.6875396476607345
4094000000.0 0.842487297256757 0.6298634156863604
4097000000.0 0.8362559450212894 0.6099325925309902
4100000000.0 0.8535353710023575 0.6115229719396456
4103000000.0 0.8086145507104083 0.6553896115790441
4106000000.0 0.8535805077352843 0.6101015422309823
4109000000.0 0.8708382565179567 0.5879749460750052
4112000000.0 0.8708219056032271 0.5878092787697287
4116000000.0 0.8673812302131927 0.5816074942429434
4119000000.0 0.8674075234834392 0.5446639839838434
4122000000.0 0.8951475822434877 0.5512918582599493
4125000000.0 0.9269633860450165 0.5356847531374789
4128000000.0 0.845187139069092 0.5580019848694319
4131000000.0 0.8867534261336838 0.5308242040167858
4134000000.0 0.8836955901228922 0.5492183122354584
4138000000.0 0.8678588987923479 0.5341777910696193
4141000000.0 0.9039230497389343 0.4958390790859405
4144000000.0 0.9134090932636404 0.5397306565575231
4147000000.0 0.9034596270993653 0.4634750034866227
4150000000.0 0.9424462501094811 0.5158872225051212
4153000000.0 0.9166247794449525 0.48929738671998335
4156000000.0 0.9109721929380301 0.4974330848873154
4159000000.0 0.8946792124842353 0.518106784613011
4162000000.0 0.9166055370527761 0.44781021341319216
4166000000.0 0.9298468101276629 0.46121999875818553
4169000000.0 0.9281793045208169 0.4416025779342696
4172000000.0 0.9270531471661 0.4615404547878253
4175000000.0 0.9076411021478116 0.4459405858803574
4178000000.0 0.9572111388036638 0.4325033988053254
4181000000.0 0.9430110073033213 0.42980283981337863
4184000000.0 0.9323759439629742 0.3870715439383901
4188000000.0 0.9651229252316693 0.3941823573657869
4191000000.0 0.9157876687269491 0.419817568276405
4194000000.0 0.9215691730910569 0.3827582127785264
4197000000.0 0.9650416935998563 0.38027587905659194
4200000000.0 0.9527152593903525 0.37237745342783424
4203000000.0 0.9531611177240702 0.4109299132803874
4206000000.0 0.9803614988090259 0.3657993487734151
4209000000.0 0.9415589097381372 0.34335295119786274
4212000000.0 0.962198248936503 0.33604673638244287
4216000000.0 0.9722803044382484 0.3370021656741338
4219000000.0 0.9872604306663695 0.33126088838919265
4222000000.0 0.9845786953164881 0.3268567988612117
4225000000.0 0.9659425474085901 0.31076692041735865
4228000000.0 0.9996807854909753 0.31014673758879463
4231000000.0 0.9952835774374524 0.294393006912877
4234000000.0 0.98796600210825 0.30547307801442286
4238000000.0 0.9809957069847783 0.26601290212254425
4241000000.0 0.9766507185293307 0.2644323104250058
4244000000.0 0.9753183619662082 0.2559736142470804
4247000000.0 0.9901909487274836 0.2526634883720175
4250000000.0 0.9892709017391745 0.2527598958003299
4253000000.0 0.9679838053160559 0.22369016497783661
4256000000.0 1.0238310394150716 0.22610613165038634
4259000000.0 0.9500607905163648 0.20922033713645474
4262000000.0 1.000542297268311 0.19629467926794394
4266000000.0 1.0229119984665305 0.16605509376584482
4269000000.0 0.9897402131793144 0.18566578041969925
4272000000.0 1.000951372862743 0.18930508950796687
4275000000.0 1.0186022547504148 0.18504251648687997
4278000000.0 1.0171515378482614 0.17383919565574313
4281000000.0 1.017091588652179 0.17856240522125655
4284000000.0 1.0022085494539765 0.12418536176474093
4288000000.0 0.9760825140661303 0.17107933240000964
4291000000.0 0.9855654383693164 0.13581871595425454
4294000000.0 0.9894795422580904 0.12135390491745283
4297000000.0 0.9980372905200628 0.14669673200863453
4300000000.0 0.9799303048932986 0.11355139401727032
4303000000.0 0.9754101366078948 0.10457903919813742
4306000000.0 1.0381422150899797 0.11877167724314813
4309000000.0 1.0071580913153848 0.10033550511879717
4312000000.0 1.0293707451245788 0.11396968106363675
4316000000.0 1.0147527664264473 0.09380035844219488
4319000000.0 0.9981988308777873 0.04616905485294885
4322000000.0 0.9942372422325005 0.03790878320174172
4325000000.0 1.0325686759083217 0.08008547787280788
4328000000.0 1.008332049083052 0.03250018503836981
4331000000.0 1.0234428544765857 0.021421108836329472
4334000000.0 0.9956109132752387 -0.002947843048106788
4338000000.0 1.0042288561934933 0.022262670381972924
4341000000.0 1.0390683614815264 0.018098107674685004
4344000000.0 1.0445733664653938 7.117850418245086e-05
4347000000.0 1.024093736746953 -0.0342331935834613
4350000000.0 0.9785570843868856 -0.018865597982531762
4353000000.0 1.0011425476784117 -0.01478298980258233
4356000000.0 1.0092801862103158 -0.07279332524879457
4359000000.0 0.9743592992261558 -0.06146839340182057
4362000000.0 1.0096369209386329 -0.12416948935338584
4366000000.0 1.0518540141298587 -0.06629142817911601
4369000000.0 0.9705711095491365 -0.07188383015298373
4372000000.0 0.9959244037423123 -0.08774690920790393
4375000000.0 1.0169989087067788 -0.07118617132981496
4378000000.0 0.9698095319901519 -0.10188426759067194
4381000000.0 0.9931661150933317 -0.08978841343155698
4384000000.0 1.0654141120318492 -0.147357458381794
4388000000.0 0.9954032792313448 -0.12669775970597133
4391000000.0 1.0205776613008652 -0.13036668914773597
4394000000.0 0.9756428821897819 -0.13624609925864578
4397000000.0 0.9977341627610286 -0.169117281077021
4400000000.0 1.020019631666875 -0.16935964581418078
4403000000.0 1.0111801957600197 -0.16865930064292886
4406000000.0 0.9951908587851083 -0.20598384576956635
4409000000.0 1.0203972365699927 -0.21663814149677543
4412000000.0 0.9711338157476928 -0.2588982804369402
4416000000.0 0.9888223670109328 -0.22652788783905214
4419000000.0 0.9787665599664274 -0.227961701760471
4422000000.0 0.9794946973898639 -0.20145103267024636
4425000000.0 1.0086554420821208 -0.21339648895905264
4428000000.0 0.9761958414258292 -0.2534881800068247
4431000000.0 1.0192811714332677 -0.2416996364682892
4434000000.0 0.9769720906643014 -0.2564187854218092
4438000000.0 0.9914111282339146 -0.2705709590163086
4441000000.0 0.9976633467670128 -0.27724490640686617
4444000000.0 0.93734106703053 -0.2679319904226606
4447000000.0 0.9695720355331429 -0.3140477624092378
4450000000.0 0.961638703583864 -0.28269075171439234
4453000000.0 0.9855342002998474 -0.31807966300751844
4456000000.0 0.9478472157632747 -0.31231607658758487
4459000000.0 0.9135262198379239 -0.332650430952809
4462000000.0 1.0119046786147023 -0.36374737922755157
4466000000.0 0.9888695221438576 -0.35799771888524323
4469000000.0 0.9624653850426591 -0.3376310869913144
4472000000.0 0.9585003339307117 -0.3888791097737607
4475000000.0 0.9159565933207405 -0.3526711170339666
4478000000.0 0.9877790732742766 -0.39741440122269145
4481000000.0 0.8980091458643065 -0.3781763459655303
4484000000.0 0.9080415896031897 -0.4377639494233938
4488000000.0 0.926718245343349 -0.40697256089854306
4491000000.0 0.9134201460368039 -0.4122203246653884
4494000000.0 0.9138955917077628 -0.3986698618167998
4497000000.0 0.9079560504291617 -0.3950141232420065
4500000000.0 0.9156121282378904 -0.4226857691399018
4503000000.0 0.9404554594758618 -0.4342937745079711
4506000000.0 0.8986305447070106 -0.46488070106814167
4509000000.0 0.8821888316569653 -0.4514722611982639
4512000000.0 0.8667849318963426 -0.46019658017218135
4516000000.0 0.9140318553972885 -0.4694733917899275
4519000000.0 0.8802794691920883 -0.46962517287308003
4522000000.0 0.8686596699721276 -0.49652373799276395
4525000000.0 0.8788896224351646 -0.47114542381862035
4528000000.0 0.8978582455593556 -0.52146078705048
4531000000.0 0.8760969875988837 -0.49677763504919814
4534000000.0 0.8732631333270536 -0.49944485585041554
4538000000.0 0.8554193035598032 -0.5278996060782493
4541000000.0 0.8326983813056128 -0.5513924154864549
4544000000.0 0.8393325732326395 -0.5284545244039216
4547000000.0 0.8687171266677778 -0.526556292463241
4550000000.0 0.8419554722394453 -0.5642193273360565
4553000000.0 0.8431116794136946 -0.558280145712222
4556000000.0 0.8046756946896971 -0.5798105551601952
4559000000.0 0.8064488538370621 -0.5955244905197736
4562000000.0 0.847521277699063 -0.5999304094426978
4566000000.0 0.8267395877285246 -0.6145236508682324
4569000000.0 0.8020557618112634 -0.5803289883583285
4572000000.0 0.7958894639747758 -0.6065982710481834
4575000000.0 0.784092429564621 -0.6328132162233766
4578000000.0 0.829657502422569 -0.6351126652749414
4581000000.0 0.7911696213310153 -0.6461982647434006
4584000000.0 0.7737057717535839 -0.6281468234676543
4588000000.0 0.7973511324620238 -0.6463537285513152
4591000000.0 0.8038186025655495 -0.6410373548110723
4594000000.0 0.7572890302301336 -0.6601737440109368
4597000000.0 0.7474128521942978 -0.7034553274695639
4600000000.0 0.734584636565771 -0.6948163015963237
4603000000.0 0.7643598990065554 -0.6961783412903931
4606000000.0 0.7516105661530624 -0.6987669831180733
4609000000.0 0.734335969542136 -0.6876648225294029
4612000000.0 0.7375120033285075 -0.7223196159328159
4616000000.0 0.7244845947152463 -0.7254546539991497
4619000000.0 0.7299824373497383 -0.7202111116641317
4622000000.0 0.7092714246619937 -0.7081781684881504
4625000000.0 0.6627780153807948 -0.7039484471007531
4628000000.0 0.7194076269516245 -0.720061334635888
4631000000.0 0.6733590789684103 -0.7398374158811368
4634000000.0 0.6729819174298594 -0.7347590316259351
4638000000.0 0.6965202110373775 -0.7484440607029673
4641000000.0 0.6775375622568517 -0.7626578262856716
4644000000.0 0.6750616493238415 -0.7571219480771139
4647000000.0 0.6793774046967672 -0.7821723667055461
4650000000.0 0.645772549704486 -0.7837710658801094
4653000000.0 0.6682654923776332 -0.7909917196160899
4656000000.0 0.6186894012933302 -0.8140405152759564
4659000000.0 0.6267227505832075 -0.790957022117402
4662000000.0 0.6277989575737882 -0.8168214282771896
4666000000.0 0.6133815969236611 -0.8041369646436647
4669000000.0 0.6421917668730339 -0.8100279876855699
4672000000.0 0.5812487022804158 -0.8277199687019615
4675000000.0 0.5918096151628026 -0.8240675640389322
4678000000.0 0.5870849032758743 -0.7996740504111033
4681000000.0 0.5749241513423409 -0.8425910498051218
4684000000.0 0.5304571114674403 -0.8411268575213611
4688000000.0 0.5730404532233571 -0.831086684740572
4691000000.0 0.5681944850260121 -0.8223572558254761
4694000000.0 0.5755950003852078 -0.8330851805918502
4697000000.0 0.503156255150298 -0.8411986679519718
4700000000.0 0.5417957368793992 -0.8645685125843043
4703000000.0 0.5413027636250519 -0.8287500853794147
4706000000.0 0.5154025301134153 -0.8902137658555592
4709000000.0 0.4868684867961195 -0.8552781177672751
4712000000.0 0.4995407722201314 -0.894912809016628
4716000000.0 0.5239764899841935 -0.877293337228858
4719000000.0 0.5061921066076203 -0.8717287931506311
4722000000.0 0.5151665725163044 -0.87787040835026
4725000000.0 0.47483695451990704 -0.8900007946440451
4728000000.0 0.45220939662083826 -0.8963937718129191
4731000000.0 0.4859292049133558 -0.9295932910543132
4734000000.0 0.476252391468731 -0.8825908754456877
4738000000.0 0.489858253462212 -0.929159030379646
4741000000.0 0.4540169808099894 -0.9494037011783102
4744000000.0 0.41836447264133364 -0.9332817198052787
4747000000.0 0.44683222383171517 -0.8796254758551718
4750000000.0 0.38860459716974727 -0.944994975866113
4753000000.0 0.4267582804543671 -0.9231892539966312
4756000000.0 0.4157130505338981 -0.9159254454288752
4759000000.0 0.3844166629522794 -0.9340666782358772
4762000000.0 0.3580286825182821 -0.9639584445293505
4766000000.0 0.36581725736111825 -0.9264568281470089
4769000000.0 0.3981843944663737 -0.9531743245572687
4772000000.0 0.3487908302956302 -0.9904443439691585
4775000000.0 0.35086960508937026 -0.9996592790300383
4778000000.0 0.3496148934921284 -0.9482751449098609
4781000000.0 0.38304931067664594 -0.9520944228923882
4784000000.0 0.3581310957080589 -0.9389017147267741
4788000000.0 0.3267509744570339 -0.9801775904859855
4791000000.0 0.31224000328364204 -0.9682035546293718
4794000000.0 0.34062897066131753 -0.9983185141494322
4797000000.0 0.2867012106947934 -0.962155609354531
4800000000.0 0.2450649372709663 -0.9733217819901625
4803000000.0 0.24740594392782217 -1.007056169099946
4806000000.0 0.2617831444730095 -0.9988119496899719
4809000000.0 0.2155305020693672 -0.9981006308667076
4812000000.0 0.2152063666848675 -0.9911282069115566
4816000000.0 0.2745368284599998 -0.9715473048870846
4819000000.0 0.26618039086949874 -1.0028853400697122
4822000000.0 0.2682834303008135 -1.0348277790255065
4825000000.0 0.26596351711142485 -1.02469363900658
4828000000.0 0.19777971705651476 -0.9934672875234577
4831000000.0 0.16039131164823792 -1.0318354909966674
4834000000.0 0.22866424074282232 -1.0010425197574346
4838000000.0 0.17744728157806336 -1.041809943383083
4841000000.0 0.17089374799211265 -1.009849070585156
4844000000.0 0.2010074574132727 -1.0180608938700304
4847000000.0 0.19422469884556737 -0.9649742664407259
4850000000.0 0.15720676877936318 -1.042896986127641
4853000000.0 0.15143821292269244 -1.0093363787329488
4856000000.0 0.14416123350547677 -1.0020432301897966
4859000000.0 0.13908131807442237 -1.0691310893917745
4862000000.0 0.12293537702616258 -0.9897161674768128
4866000000.0 0.1141468430076065 -1.0364464180232067
4869000000.0 0.07099065020242107 -1.0273882084588466
4872000000.0 0.05964056097662937 -1.0378419489068058
4875000000.0 0.1563326124975693 -1.0687948884164442
4878000000.0 0.0649261905047149 -1.0226497223450663
4881000000.0 0.05217711271267498 -1.0915877626093426
4884000000.0 0.06301748338097246 -1.052836324074083
4888000000.0 0.09352798804028684 -1.0212529299196713
4891000000.0 0.07770058201450304 -1.039641386094341
4894000000.0 0.007343589012112437 -0.9866454867623152
4897000000.0 0.04351846728528285 -1.0157950676097955
4900000000.0 0.0250882089009944 -1.04491326464841
4903000000.0 0.05201144568209978 -1.0367290320784537
4906000000.0 0.017715603773326403 -1.0736029465441834
4909000000.0 -0.0050678568091676104 -1.052732623487397
4912000000.0 -0.014724663173160575 -1.053057673725551
4916000000.0 -0.002847988377192058 -1.0225014893556477
4919000000.0 0.004369418030548099 -1.0639570017339037
4922000000.0 0.0008908576401347595 -1.0259308785376227
4925000000.0 -0.08350322717789857 -1.0157485815598224
4928000000.0 -0.017947678647470086 -1.0313372260281755
4931000000.0 -0.053800202375425835 -1.0500702061780611
4934000000.0 -0.0421740512197213 -0.9551680826561815
4938000000.0 -0.10004711906280965 -1.0174524584659945
4941000000.0 -0.08285615775220838 -1.050515319970979
4944000000.0 -0.05428003457278316 -0.9846305508989643
4947000000.0 -0.1275352232334486 -0.9804009360532158
4950000000.0 -0.0972805321473889 -0.9959543287151267
4953000000.0 -0.16731213150715218 -1.068554698393174
4956000000.0 -0.14169037944020274 -1.0385681298782647
4959000000.0 -0.1796026568963416 -1.0099085603432303
4962000000.0 -0.16632235026362233 -1.0513476136524067
4966000000.0 -0.11637037529572247 -1.0488799513247522
4969000000.0 -0.11818259553713767 -1.0582875784350771
4972000000.0 -0.1848446654775003 -1.0100255873138047
4975000000.0 -0.1623697650636968 -1.0279224387098114
4978000000.0 -0.18399912558990023 -1.0540392882137035
4981000000.0 -0.22077085726028947 -0.9996036762584245
4984000000.0 -0.21610046702425426 -1.0315845237514842
4988000000.0 -0.20324776027909103 -1.0201580558597378
4991000000.0 -0.15716901040550002 -1.0691938062348045
4994000000.0 -0.1938589369733703 -1.0119618792069391
4997000000.0 -0.25761654538806017 -1.0207715363987733
5000000000.0 -0.2646531354238836 -1.0364115894072967
5003000000.0 -0.24217670147636944 -1.0261350353071945
5006000000.0 -0.273861646328015 -1.0258681721060754
5009000000.0 -0.2740971597334272 -1.0136832285831707
5012000000.0 -0.2893942999454186 -0.9786016542760081
5016000000.0 -0.24358986817714462 -1.05424861305888
5019000000.0 -0.27540959631231315 -0.9709087753774748
5022000000.0 -0.2894386452524407 -1.0208117539334138
5025000000.0 -0.3024528816421555 -1.0494159776724128
5028000000.0 -0.3264709331348331 -0.9962140473620549
5031000000.0 -0.3571930523812036 -0.9773022527288194
5034000000.0 -0.34843317007364727 -1.0013337643692806
5038000000.0 -0.34573289913821015 -0.9542049579394534
5041000000.0 -0.30678695809047385 -0.9969075575643348
5044000000.0 -0.2968430285801421 -0.9677164274839053
5047000000.0 -0.34178254251439305 -0.9933495887238973
5050000000.0 -0.24912409523813053 -0.9874910672392567
5053000000.0 -0.40223050214567324 -1.0264954999687002
5056000000.0 -0.31768032063135254 -0.9874887533747609
5059000000.0 -0.31133621898877445 -0.986099516762278
5062000000.0 -0.39585123243379894 -0.9649621489804834
5066000000.0 -0.33242239073814583 -0.944923255810088
5069000000.0 -0.3838742113325335 -0.9805890643479959
5072000000.0 -0.41079054903966494 -0.9376425975730298
5075000000.0 -0.41468880265615127 -0.9417412952763018
5078000000.0 -0.47303322564036226 -0.9462897703998903
5081000000.0 -0.41417459775383036 -0.9285662538032563
5084000000.0 -0.46842630792251894 -0.985480601664366
5088000000.0 -0.4032799231564666 -0.9453955630192981
5091000000.0 -0.4527142341448472 -0.9004537468079201
5094000000.0 -0.4814298312344681 -0.9517338416721371
5097000000.0 -0.4373237765448721 -0.961911258554514
5100000000.0 -0.48184052344062595 -0.9118843654321914
5103000000.0 -0.4710942129113844 -0.9310935129688253
5106000000.0 -0.48177792043466544 -0.944255853761707
5109000000.0 -0.43937081526460975 -0.9425915814863524
5112000000.0 -0.5029111973036297 -0.9212589450036852
5116000000.0 -0.47318430483160806 -0.8693997676441128
5119000000.0 -0.5046324391888557 -0.9047155129436186
5122000000.0 -0.5121623739296692 -0.8752064604107377
5125000000.0 -0.48192211098289606 -0.8703520286024075
5128000000.0 -0.5195016693499128 -0.896334196750235
5131000000.0 -0.5681483462525482 -0.8620216077254708
5134000000.0 -0.592175158132687 -0.8988219216000982
5138000000.0 -0.5139055850471772 -0.8735170483578931
5141000000.0 -0.5251411115572429 -0.8656083186314567
5144000000.0 -0.5091101139024841 -0.9104741129104953
5147000000.0 -0.6248492272817382 -0.8484857377856174
5150000000.0 -0.6206875936462848 -0.9113332586140315
5153000000.0 -0.5944586777686243 -0.8822655421442153
5156000000.0 -0.6058190048348308 -0.8651937088303795
5159000000.0 -0.56296695803089 -0.887796328482736
5162000000.0 -0.6229327849018602 -0.827616546249913
5166000000.0 -0.6273428903012186 -0.8305210699420489
5169000000.0 -0.6536448635703148 -0.8550138379612631
5172000000.0 -0.5928825928014463 -0.8219654818891022
5175000000.0 -0.667858660533453 -0.8672812568783471
5178000000.0 -0.656472589613146 -0.8166806614883012
5181000000.0 -0.6705985887360391 -0.8601007912289843
5184000000.0 -0.6627224936710757 -0.789323319896556
5188000000.0 -0.6408786502291015 -0.793470605057518
