! Created with skrf 1.8.0 (http://scikit-rf.org).
# Hz S RI R 50.0 
!freq ReS11 ImS11
4000000000.0 0.6169309332671056 0.8007525825262516
4003000000.0 0.6709233030702552 0.8636512424890791
4006000000.0 0.6664543224290022 0.7764174960485924
4009000000.0 0.6411332574346509 0.7775039498041136
4012000000.0 0.5877006704146243 0.8516569070022663
4016000000.0 0.7135593427943338 0.8107532414190979
4019000000.0 0.686900807136616 0.789181504360984
4022000000.0 0.6322751586892227 0.813001550024312
4025000000.0 0.7135283029323475 0.7676743883246986
4028000000.0 0.7272222577506643 0.7634970395173462
4031000000.0 0.6500301358035344 0.7323619688534689
4034000000.0 0.6749325397248457 0.7855437995304708
4038000000.0 0.7452481107022708 0.7379782852024227
4041000000.0 0.7082282631437257 0.7337783975677906
4044000000.0 0.7930337661430636 0.7884003219060359
4047000000.0 0.6756649476781796 0.77126998765634
4050000000.0 0.8016842159260614 0.728777483126171
4053000000.0 0.722665723216589 0.6386187787960897
4056000000.0 0.7182638308441094 0.7262450818226127
4059000000.0 0.7145830040322763 0.6843560485439206
4062000000.0 0.8246653034956363 0.6935598341683265
4066000000.0 0.7105187715766976 0.6347029826816204
4069000000.0 0.8270829776436814 0.6764994217011663
4072000000.0 0.7349829800539094 0.6610576487914084
4075000000.0 0.8147846775887124 0.7305596768826172
4078000000.0 0.8079251684150336 0.6827385441582929
4081000000.0 0.7738171386039401 0.6679049591232386
4084000000.0 0.821734093981086 0.6316421153182994
4088000000.0 0.7673221868380714 0.6488552745568748
4091000000.0 0.845157897738137 0.641130293300149
4094000000.0 0.8145590952681897 0.6623426528497925
4097000000.0 0.8213170708860377 0.6019258935157705
4100000000.0 0.8208982167831028 0.6014897636258925
4103000000.0 0.8130474890627257 0.631306878008806
4106000000.0 0.8300780383912171 0.5950267352775257
4109000000.0 0.8625117823025878 0.5876740833828935
4112000000.0 0.8356657112707655 0.6044356213366122
4116000000.0 0.8346795494913017 0.5573737909078169
4119000000.0 0.8666582053311775 0.5765866982747698
4122000000.0 0.8863345182871428 0.5426153473416859
4125000000.0 0.8850536115593215 0.568727501099386
4128000000.0 0.8036095141911458 0.5788252968412312
4131000000.0 0.841627073626726 0.5117754164402538
4134000000.0 0.8775252606137104 0.5459260144643269
4138000000.0 0.8612990453900502 0.5052950593463097
4141000000.0 0.8808111554143576 0.4960569348198647
4144000000.0 0.8872860953353927 0.522646526886507
4147000000.0 0.8743176379746262 0.47100372766421567
4150000000.0 0.8899931500558438 0.5187499281621215
4153000000.0 0.876682637072861 0.5102514783166977
4156000000.0 0.9385429502156999 0.4857511421860399
4159000000.0 0.8828824287560875 0.4689843423957372
4162000000.0 0.8823439153167421 0.471956152434308
4166000000.0 0.926247761386336 0.4421455174734944
4169000000.0 0.9319701594504557 0.4263700150435621
4172000000.0 0.9045977189220393 0.4728480128215821
4175000000.0 0.9375925006817858 0.43998478464729746
4178000000.0 0.9465518238919236 0.42788808064981654
4181000000.0 0.9349815465973768 0.43062561103167163
4184000000.0 0.9284188186410023 0.42300094056257326
4188000000.0 0.9245224126862823 0.41579837614079607
4191000000.0 0.9155477814648939 0.4155270755227965
4194000000.0 0.9198017385698745 0.3693975067648423
4197000000.0 0.9486638252507796 0.38548022772088136
4200000000.0 0.9369949721901125 0.39953804040804486
4203000000.0 0.9544214415534873 0.407399877533721
4206000000.0 0.9557158337637057 0.3837936037522148
4209000000.0 0.944163436633087 0.38086868556292636
4212000000.0 0.9544835349469177 0.32871529705146874
4216000000.0 0.9587904828552035 0.35645873138223333
4219000000.0 0.9581005844951518 0.3559078478731057
4222000000.0 0.9586774071376509 0.33450379924777546
4225000000.0 0.9541595886201346 0.3224194282218794
4228000000.0 0.9645275086915266 0.32306139112304166
4231000000.0 0.9675518204637004 0.30577447327775487
4234000000.0 1.0006693273428564 0.28086621206939466
4238000000.0 0.9760364157679097 0.26310318164067503
4241000000.0 0.98398375889164 0.25980212903184724
4244000000.0 0.9900684310674351 0.2720183212841141
4247000000.0 0.972111200075707 0.2729541668515468
4250000000.0 0.9811869623795231 0.2562329650654766
4253000000.0 0.9682584668836807 0.2370897641817835
4256000000.0 1.0127435546019148 0.25226017654658434
4259000000.0 0.9676770816374202 0.22239156371358745
4262000000.0 0.9964957230450819 0.20405867964803456
4266000000.0 1.0039992716816988 0.20271249767147342
4269000000.0 0.9974703497122449 0.23637908908520247
4272000000.0 0.9951220851489827 0.18354832846985525
4275000000.0 1.0028318404500325 0.1915472704273372
4278000000.0 1.0237791737971518 0.17467862835493048
4281000000.0 1.0071780511795558 0.19971186659274948
4284000000.0 1.009488316129787 0.13936868215270937
4288000000.0 1.0069179820330105 0.18606318917071077
4291000000.0 0.9792486859857554 0.157389881954431
4294000000.0 0.9987874906046004 0.12551879430399498
4297000000.0 0.9926467699415334 0.1485456974522647
4300000000.0 0.9729218044184278 0.12074197366216968
4303000000.0 0.9944910087245057 0.10069266389112148
4306000000.0 1.0322255604718302 0.11669729462590211
4309000000.0 1.0090327484290453 0.11839784741049784
4312000000.0 1.0407845799082331 0.15167314381219535
4316000000.0 1.0346014080723511 0.08973394427910085
4319000000.0 0.9976920633170839 0.06896643306228732
4322000000.0 1.001194239099183 0.04397712755284412
4325000000.0 0.999113682564678 0.059676699596392005
4328000000.0 0.9929133567104178 0.04723266162371649
4331000000.0 1.0368257782681387 0.013344490008734028
4334000000.0 1.011498626053553 0.040092498328801934
4338000000.0 1.0157697429173704 0.01918805630110458
4341000000.0 1.0315757665496457 0.04352572186416456
4344000000.0 1.0249843229733964 0.01943373204730872
4347000000.0 1.0306964541045698 -0.0017652331689895218
4350000000.0 0.9815833718633764 -0.02072198723555635
4353000000.0 0.9671447505740596 0.008404745722744689
4356000000.0 0.9756413204318609 -0.06050455698709224
4359000000.0 0.9665685195565318 -0.04861368344656178
4362000000.0 1.0332386161002873 -0.09309511000385914
4366000000.0 1.0446746436661645 -0.05637783420523329
4369000000.0 0.9882007900810419 -0.07174029385398176
4372000000.0 0.9842891441019623 -0.12224114285890172
4375000000.0 0.989457912060709 -0.050111187499790766
4378000000.0 0.9865707628268616 -0.06871528125545442
4381000000.0 0.9861037752451607 -0.09177870398680969
4384000000.0 1.0627185931883156 -0.11776370182276345
4388000000.0 0.9896631643699907 -0.0935778601149469
4391000000.0 1.0018609942615626 -0.13226086029612832
4394000000.0 0.972526015155113 -0.141181548352595
4397000000.0 0.9766430718892531 -0.14110053249453425
4400000000.0 1.01744230284723 -0.15707652586144558
4403000000.0 1.013472741919178 -0.1601828453850589
4406000000.0 0.9894026376841465 -0.19585175084960543
4409000000.0 1.019323900637874 -0.18885840256856196
4412000000.0 0.9794066116094309 -0.24049354695451922
4416000000.0 0.9684953294078431 -0.20618142700749437
4419000000.0 0.9890026118475927 -0.23326288338082807
4422000000.0 1.0050043558398387 -0.20696929281313886
4425000000.0 1.0159677679689245 -0.20137740868776285
4428000000.0 0.9805179083800905 -0.23836750794443184
4431000000.0 1.0002885205056988 -0.23260008002263707
4434000000.0 0.9654077562533669 -0.26389003003428163
4438000000.0 0.9930180982630261 -0.26978290554510237
4441000000.0 1.0051832838050174 -0.26263155210309985
4444000000.0 0.949244334937654 -0.26011616150933775
4447000000.0 0.9640661550131574 -0.289841837144625
4450000000.0 0.9720450178491103 -0.26801151492703645
4453000000.0 0.9840919873066514 -0.32162319750821905
4456000000.0 0.9400463877162668 -0.323365247342115
4459000000.0 0.8999310029612475 -0.3072768370656317
4462000000.0 1.0019660827638157 -0.3454739858038332
4466000000.0 0.9766684395244648 -0.35783556419621787
4469000000.0 0.949619344512516 -0.3321412232080804
4472000000.0 0.959506789485537 -0.3783529731328531
4475000000.0 0.9340305335283279 -0.3438868811086235
4478000000.0 0.9711450362489775 -0.3949327997862375
4481000000.0 0.8980652179680181 -0.3822650573493227
4484000000.0 0.9220327619028341 -0.40621172939743366
4488000000.0 0.9032847524399543 -0.4110042366859026
4491000000.0 0.9387958042497853 -0.4066029121396679
4494000000.0 0.9181040441196762 -0.39457284054760505
4497000000.0 0.9220585345917878 -0.3846207796817247
4500000000.0 0.929259802021267 -0.41089531572797605
4503000000.0 0.9223751840873069 -0.45312616969329345
4506000000.0 0.8772877970807349 -0.42998996703593567
4509000000.0 0.8821493371376834 -0.4458900831868553
4512000000.0 0.881528906163426 -0.45538269018366484
4516000000.0 0.9150349808392648 -0.46423515635748974
4519000000.0 0.8802233369803791 -0.4542949349672846
4522000000.0 0.8912235140809728 -0.4772571400352949
4525000000.0 0.8992491627662536 -0.4564567904190273
4528000000.0 0.900719619140643 -0.5003970597017785
4531000000.0 0.8784844297221187 -0.48837102608348726
4534000000.0 0.8456871160701829 -0.48678635116126645
4538000000.0 0.8603845725996764 -0.5150938907686351
4541000000.0 0.8273677203446564 -0.5319226920755259
4544000000.0 0.8492361302911722 -0.51194918427457
4547000000.0 0.8605577175351259 -0.533146886438763
4550000000.0 0.8448836336516485 -0.5660433500370788
4553000000.0 0.8369996727060811 -0.5511651478406521
4556000000.0 0.8140099712850433 -0.5577032858210358
4559000000.0 0.8294671138505456 -0.5647626857898875
4562000000.0 0.8410974808128528 -0.585839381063338
4566000000.0 0.8252688064105809 -0.5780860573340154
4569000000.0 0.8045758882786775 -0.581444748753561
4572000000.0 0.803608465534984 -0.5881210986873154
4575000000.0 0.8039133644274643 -0.6121741533727467
4578000000.0 0.8477471606682443 -0.630312323154759
4581000000.0 0.7987231020063765 -0.6333083410601535
4584000000.0 0.7813258854132136 -0.6099745803769142
4588000000.0 0.809690517127181 -0.6383187196027109
4591000000.0 0.7818163930794392 -0.6402848105461012
4594000000.0 0.7557766440322905 -0.6590585542292969
4597000000.0 0.7684996802010238 -0.677479215227633
4600000000.0 0.7384072402889796 -0.6529205316720553
4603000000.0 0.7447620291783651 -0.6782838083613655
4606000000.0 0.7455738366864514 -0.6770552880389757
4609000000.0 0.7494011670774201 -0.6901150519109862
4612000000.0 0.7554054452903193 -0.6996713232152045
4616000000.0 0.7064085333041694 -0.6846907365912771
4619000000.0 0.74604345000303 -0.6846928740998175
4622000000.0 0.7102283252571017 -0.7215717317985286
4625000000.0 0.6765100224644218 -0.6967386493860098
4628000000.0 0.6966578805552589 -0.7107031538706368
4631000000.0 0.6959556700358727 -0.7222893591210229
4634000000.0 0.6881179905180704 -0.7351795849514587
4638000000.0 0.6869240327192196 -0.7309646789457684
4641000000.0 0.6772484776814252 -0.7329472439508843
4644000000.0 0.6888821667509806 -0.7386226783342226
4647000000.0 0.6730715682657308 -0.7525727589734766
4650000000.0 0.6490909525549404 -0.7641146569455345
4653000000.0 0.6783362194762123 -0.7576534389548616
4656000000.0 0.6479644977236081 -0.775826938553976
4659000000.0 0.6447533107246297 -0.7750163177716797
4662000000.0 0.6284206847084874 -0.7832672895747973
4666000000.0 0.6212860262472649 -0.797034122673992
4669000000.0 0.6060620413474533 -0.7938945967369399
4672000000.0 0.6071871500631898 -0.8391168250115302
4675000000.0 0.590046240241713 -0.8059180588606869
4678000000.0 0.5965431257680328 -0.8050961121970994
4681000000.0 0.5557316799656973 -0.8445942145427927
4684000000.0 0.5417062457823087 -0.832741226505563
4688000000.0 0.5338077616206286 -0.8408005746965763
4691000000.0 0.5794405369102652 -0.8345234670423185
4694000000.0 0.5730166521912905 -0.8387259722856375
4697000000.0 0.5078610573754451 -0.8281230378532636
4700000000.0 0.5627584496054249 -0.8496050257576002
4703000000.0 0.5608241321307653 -0.8006664728541115
4706000000.0 0.5204302765973421 -0.8863114250707743
4709000000.0 0.5000655260012834 -0.8738526535748692
4712000000.0 0.5174953550910416 -0.8758273856046046
4716000000.0 0.48657008555972125 -0.8808768921483809
4719000000.0 0.5190240909499229 -0.8836636210130603
4722000000.0 0.494030714572104 -0.8917907245334413
4725000000.0 0.4655797543786513 -0.8861520746343718
4728000000.0 0.4769582970279689 -0.8952025022906485
4731000000.0 0.49752656121220956 -0.9091000829210905
4734000000.0 0.47331270531304626 -0.8635710073594127
4738000000.0 0.5252659312524233 -0.9321965630093405
4741000000.0 0.45828004914190124 -0.9461236339804591
4744000000.0 0.4152926758866553 -0.930618502767731
4747000000.0 0.4458238109577043 -0.8778010014123995
4750000000.0 0.4118008906892909 -0.9280349219655536
4753000000.0 0.42787535621373624 -0.9282121591904019
4756000000.0 0.44268294003021746 -0.9373676681465721
4759000000.0 0.42387648444957093 -0.9304623139572298
4762000000.0 0.407231288065652 -0.9744526578890215
4766000000.0 0.3659871598643602 -0.9609853456513564
4769000000.0 0.38477719319994524 -0.9495368498010731
4772000000.0 0.3931980684536161 -0.9288003137406534
4775000000.0 0.34941408939886903 -0.9845815465845922
4778000000.0 0.36175241110349776 -0.9583320670263727
4781000000.0 0.38587665437046986 -0.9409983003433815
4784000000.0 0.3512454299497441 -0.9414272286620965
4788000000.0 0.31922260088686494 -0.9810936558139276
4791000000.0 0.3195402681911699 -0.9514285470968246
4794000000.0 0.36119515402884195 -0.9647740341567699
4797000000.0 0.2865646062322999 -0.9462806687603919
4800000000.0 0.3021955414092984 -0.9596415406581609
4803000000.0 0.23904364749891183 -0.9684556824895114
4806000000.0 0.29343602775889466 -1.0013822802926917
4809000000.0 0.25178006508983375 -0.988055594720138
4812000000.0 0.2286798421548547 -0.9917047865391373
4816000000.0 0.28454528673937113 -0.977752225616934
4819000000.0 0.28071256389287713 -0.9941758493323385
4822000000.0 0.27761577133167276 -1.003835875264973
4825000000.0 0.2638581810164097 -1.0128082227374704
4828000000.0 0.2066750876082991 -0.966049442637993
4831000000.0 0.18728904273396238 -1.024251059883026
4834000000.0 0.22820312620541594 -0.9995634363376584
4838000000.0 0.1822033334010102 -1.0034540158195941
4841000000.0 0.16349942094583217 -0.9978852076999508
4844000000.0 0.2365784625026058 -0.9991509952248901
4847000000.0 0.1998532493267849 -0.9716260399510652
4850000000.0 0.17295603553789712 -1.0299418868475227
4853000000.0 0.151599066469218 -0.9666551874954354
4856000000.0 0.15159490660667388 -0.981795514876722
4859000000.0 0.14619632078052197 -1.0421393027817825
4862000000.0 0.14906191372541408 -0.9880121605226165
4866000000.0 0.11512217326485097 -1.0190851705462811
4869000000.0 0.09444638187805791 -1.0050724552617034
4872000000.0 0.07018556625699382 -1.0452858761497328
4875000000.0 0.15927593418939773 -1.0198265058944138
4878000000.0 0.08280449461869041 -1.0222168703621777
4881000000.0 0.054956383749330144 -1.0726113735768452
4884000000.0 0.08328870025763171 -1.0318500185751704
4888000000.0 0.10080666512650305 -1.016740051938563
4891000000.0 0.08356225937265199 -1.0508988095807124
4894000000.0 0.031166382852574157 -1.0244902740939323
4897000000.0 0.08948389354985542 -0.9939535276724311
4900000000.0 0.02024043664942537 -1.063256202483301
4903000000.0 0.053569997970293784 -1.0455530770452828
4906000000.0 0.03670840979891195 -1.026756012584884
4909000000.0 -0.010630671991842845 -1.0043524402494737
4912000000.0 0.00032868027452275655 -1.0933653679145852
4916000000.0 -0.005176781608434711 -1.0599781034135292
4919000000.0 0.03148348235094916 -1.0519950411101338
4922000000.0 -0.013717146327980226 -1.0388595248356627
4925000000.0 -0.0647863028889611 -1.0018078042636205
4928000000.0 0.021981918023212935 -1.028797732281683
4931000000.0 -0.009312076938841812 -1.0468541996967229
4934000000.0 -0.06646054429548288 -1.0252748560906801
4938000000.0 -0.08291536663986278 -1.0134704604246103
4941000000.0 -0.0789835847766764 -1.0037913780334293
4944000000.0 -0.03750679174717575 -0.9754990042804998
4947000000.0 -0.07436330060221272 -0.9689762567460506
4950000000.0 -0.10909141901524559 -0.9713244151909343
4953000000.0 -0.18757482511751788 -1.0351486394527982
4956000000.0 -0.14340905544502225 -1.0072896469684869
4959000000.0 -0.1439704403574318 -0.9894989653568159
4962000000.0 -0.13007410008927275 -1.0704047115013016
4966000000.0 -0.10997694772351907 -1.0233416835667257
4969000000.0 -0.11494610809969691 -1.0600261804679838
4972000000.0 -0.17588119684369943 -1.0235157571068505
4975000000.0 -0.13585558123717947 -1.0047549299434517
4978000000.0 -0.1678839794247095 -0.9958919369654631
4981000000.0 -0.18906790891098 -1.0211217864000977
4984000000.0 -0.1661497215336081 -0.9953221315588658
4988000000.0 -0.16943856598153223 -1.0226247256313754
4991000000.0 -0.1514544929821509 -1.0245131914380359
4994000000.0 -0.19472977435709582 -1.038969819060483
4997000000.0 -0.24953424119065815 -1.0044059470633684
5000000000.0 -0.23887047971434866 -1.0461573595886469
5003000000.0 -0.19897716403359944 -1.0669605597057856
5006000000.0 -0.2660007230100857 -1.0588864559814002
5009000000.0 -0.2341037706461421 -1.0221768945714234
5012000000.0 -0.2634825347105706 -0.9948168152726635
5016000000.0 -0.23261717414495675 -1.0391760479777994
5019000000.0 -0.2879528202777887 -1.0004368132760957
5022000000.0 -0.2800652913298539 -0.9875777349998534
5025000000.0 -0.31880982952357245 -1.053431954582956
5028000000.0 -0.31927394393564423 -0.9762296340875969
5031000000.0 -0.2784738241185012 -0.9739767760521855
5034000000.0 -0.3342445711304236 -0.9804437665507362
5038000000.0 -0.3363969288227836 -0.9511280739131887
5041000000.0 -0.306131124394182 -0.9877897600950575
5044000000.0 -0.2957524563332561 -0.9822742811049866
5047000000.0 -0.3527945484317004 -0.9994235574087823
5050000000.0 -0.25202107688826114 -0.9879172276850123
5053000000.0 -0.35108491476280745 -1.0200068481382878
5056000000.0 -0.33884775506915554 -0.9857896017151824
5059000000.0 -0.2773616834629164 -0.9589857848170585
5062000000.0 -0.423233024738525 -0.9647750544300557
5066000000.0 -0.3334176143598847 -0.9735745347900946
5069000000.0 -0.3925286880801603 -0.9601994648309812
5072000000.0 -0.3888265120564643 -0.9359670812364607
5075000000.0 -0.4390160184482216 -0.9567500898029833
5078000000.0 -0.4530027785764 -0.9248256243118131
5081000000.0 -0.44053488504974775 -0.8923234088403506
5084000000.0 -0.4545898422854162 -0.956922955538918
5088000000.0 -0.39235110146265867 -0.9430405586247517
5091000000.0 -0.47367852940918326 -0.9175161006694252
5094000000.0 -0.4454940434224897 -0.9517390230123374
5097000000.0 -0.42179041723146127 -0.967972647786556
5100000000.0 -0.4579601175268108 -0.9280975679181197
5103000000.0 -0.5009899994638343 -0.9602918351452426
5106000000.0 -0.498189254908928 -0.9584161018906794
5109000000.0 -0.4360469684409042 -0.917827865236005
5112000000.0 -0.4867178393273016 -0.8746312335311095
5116000000.0 -0.4770215065578657 -0.8740794888020358
5119000000.0 -0.5198829658406876 -0.9445996641568295
5122000000.0 -0.5133062504383205 -0.8766472065897357
5125000000.0 -0.5050459132889211 -0.9211665010042188
5128000000.0 -0.552803587262522 -0.9338731183107913
5131000000.0 -0.5326652760807322 -0.85891254949053
5134000000.0 -0.522210116529224 -0.837226209874376
5138000000.0 -0.5173975251864901 -0.8940836839915559
5141000000.0 -0.5313168937416144 -0.8896109289777561
5144000000.0 -0.5228964881307453 -0.8626657985257346
5147000000.0 -0.5729987755767671 -0.8774667317286637
5150000000.0 -0.5127199500889289 -0.8983334433863914
5153000000.0 -0.6078718002788346 -0.8388565890413213
5156000000.0 -0.5997266213464927 -0.8679003466626249
5159000000.0 -0.6496870677084949 -0.9181769763333278
5162000000.0 -0.5920826274037844 -0.8156169154790552
5166000000.0 -0.6075644187935995 -0.8341971374148358
5169000000.0 -0.6056996056028823 -0.8388042041877761
5172000000.0 -0.6223907351376333 -0.8474856638736126
5175000000.0 -0.654380139576217 -0.8871603708825706
5178000000.0 -0.6459983814614199 -0.7948654413900712
5181000000.0 -0.6412396905053455 -0.8378591627222057
5184000000.0 -0.6147964283881097 -0.8222903370536194
5188000000.0 -0.6332312901584597 -0.7850493146292234
