! Created with skrf 1.8.0 (http://scikit-rf.org).
# Hz S RI R 50.0 
!freq ReS11 ImS11
4000000000.0 0.7039783628636059 0.7620350161848499
4003000000.0 0.7415328857461091 0.7744685492400321
4006000000.0 0.7485615860876289 0.6693742300975133
4009000000.0 0.7525554640293743 0.7245835166714449
4012000000.0 0.7740433076254075 0.7513486729159639
4016000000.0 0.7825811038341425 0.6680343637075534
4019000000.0 0.759955207871003 0.672594265511183
4022000000.0 0.7266353860272333 0.7346726678329822
4025000000.0 0.8705608309883415 0.6653179582893581
4028000000.0 0.8313821915089035 0.6298699945120878
4031000000.0 0.7781578376773287 0.6175569563111999
4034000000.0 0.790339488287398 0.659145837183912
4038000000.0 0.8239459287815811 0.6072031507517258
4041000000.0 0.8166267327038048 0.5946749698097793
4044000000.0 0.8830418099558334 0.6433131904109853
4047000000.0 0.7995663216960862 0.6704438328279038
4050000000.0 0.8652810011698442 0.5899445041152945
4053000000.0 0.8413755956182565 0.5834073234549406
4056000000.0 0.8548375239497503 0.6125218266429296
4059000000.0 0.8380958487465715 0.6272627402295776
4062000000.0 0.8887426504102364 0.5357795227665829
4066000000.0 0.7881643588481244 0.5586182196826597
4069000000.0 0.9110515191584011 0.5576620827096959
4072000000.0 0.8458453507564918 0.575522515609181
4075000000.0 0.8632011827308841 0.5781152309313673
4078000000.0 0.9013493142259321 0.539005621406098
4081000000.0 0.854677297459461 0.5963204546262256
4084000000.0 0.8897010928848579 0.5120483500364303
4088000000.0 0.8594279924063429 0.5765457032449036
4091000000.0 0.9515700836960269 0.5534352800353441
4094000000.0 0.8844335145243987 0.4828291717074571
4097000000.0 0.9136361313564877 0.48774367086975007
4100000000.0 0.8912078033609117 0.47678464506821844
4103000000.0 0.9109896005403393 0.4722884460826911
4106000000.0 0.9175613399147934 0.47441488829767364
4109000000.0 0.9435419135994438 0.45292449808466745
4112000000.0 0.9289858920898457 0.45146496476001935
4116000000.0 0.9274677298631836 0.4660602849493113
4119000000.0 0.9417266205776905 0.41203553218818134
4122000000.0 0.9826260206768284 0.3898424350634815
4125000000.0 0.9648688164001313 0.39990560316016127
4128000000.0 0.9200695791179739 0.4260412181988652
4131000000.0 0.9357129999080079 0.3767468950721723
4134000000.0 0.9496654810579279 0.40806484381745745
4138000000.0 0.946370388600724 0.3260102088416314
4141000000.0 0.9199625335811341 0.3641300224776455
4144000000.0 0.9379786134351685 0.37881714533084604
4147000000.0 0.971736022890449 0.34767789166657764
4150000000.0 1.0053406139632919 0.36134367715899346
4153000000.0 0.9638871800739959 0.3330032725971904
4156000000.0 0.9989245504435869 0.36675569046036205
4159000000.0 0.9388217058250663 0.3317265608045122
4162000000.0 0.9515578300148502 0.306872074733352
4166000000.0 1.0096772534475016 0.29794510537438323
4169000000.0 0.9415657181809359 0.2964341181582052
4172000000.0 0.9950767955975455 0.30383614709959555
4175000000.0 0.9961079409177989 0.2988424553551386
4178000000.0 0.9888254881754983 0.29766005058385714
4181000000.0 0.9815953918147655 0.2567645098310338
4184000000.0 0.9792242346925454 0.2557142957767285
4188000000.0 0.9941141456863394 0.2602882795149599
4191000000.0 0.9881477548333948 0.28135485857079995
4194000000.0 0.9928203589133041 0.21999261969866235
4197000000.0 1.0038153691775697 0.2409870724012722
4200000000.0 0.9819614839102719 0.23565159703709504
4203000000.0 1.0032123040601295 0.23452219461716195
4206000000.0 1.0094843944857672 0.20831139833528522
4209000000.0 0.9878013153242249 0.20024049499066338
4212000000.0 1.0269404757320018 0.15836720972635365
4216000000.0 1.01815755345965 0.16446241807397866
4219000000.0 1.0148104813189902 0.17633871241980634
4222000000.0 0.9959757021126026 0.14786812603217403
4225000000.0 0.9938708954870032 0.14081136929724522
4228000000.0 1.0149903115397332 0.1374811095520341
4231000000.0 1.0206182501882632 0.11709489972603998
4234000000.0 1.0218635849781013 0.10870708225806947
4238000000.0 1.0115157728281132 0.09120954519023414
4241000000.0 1.0065277276217324 0.08503403679275265
4244000000.0 0.9981952064300444 0.09690299817747677
4247000000.0 1.0130932345297805 0.08859740189954712
4250000000.0 0.9982446293770824 0.06566454940921235
4253000000.0 0.997986345299422 0.046584673917108466
4256000000.0 1.0519302863629196 0.047711081857449295
4259000000.0 0.973939551994774 0.04312139369510812
4262000000.0 1.0077443311711092 0.030507099218144734
4266000000.0 1.0448371933895495 0.005436957568034723
4269000000.0 1.0205820855350207 0.03666210797642415
4272000000.0 1.0068656415296164 0.012069548654691079
4275000000.0 1.0211189903188196 0.015092506367455294
4278000000.0 1.0461875446506892 0.0021354827934382536
4281000000.0 1.0227297400909827 -0.00835051134684918
4284000000.0 1.031510103812602 -0.07775960185054276
4288000000.0 0.9994001774870829 -0.013215626848438557
4291000000.0 0.9798904143153284 -0.04248303353992444
4294000000.0 1.0019892179559409 -0.06821043499362897
4297000000.0 1.014275185174221 -0.03427555243142389
4300000000.0 0.990751753928441 -0.07482506744391171
4303000000.0 1.0051462556850719 -0.11351314241755944
4306000000.0 1.021759224810293 -0.0723232870041817
4309000000.0 0.9939354224727381 -0.0866737667210319
4312000000.0 1.0415980761086727 -0.07741112489145842
4316000000.0 1.0465364249065365 -0.09447550186202565
4319000000.0 0.9909238136556475 -0.1184244909166859
4322000000.0 0.9817118638619854 -0.16384688883495802
4325000000.0 0.9960579336727534 -0.12197262872097964
4328000000.0 0.9750432958475681 -0.14092123748864144
4331000000.0 0.9998256015974983 -0.2154055268019777
4334000000.0 1.014049884719493 -0.18424099916239273
4338000000.0 1.015838387975675 -0.15512368748944239
4341000000.0 1.0144782033826232 -0.17527365068704806
4344000000.0 1.0268719382841478 -0.21112083337939958
4347000000.0 1.0026895302529815 -0.2383425849711718
4350000000.0 0.9543680790592607 -0.24691678796277747
4353000000.0 0.9682584013362652 -0.20099353525895955
4356000000.0 0.9654490234780889 -0.26040574555938545
4359000000.0 0.9311674179382814 -0.24563735362522393
4362000000.0 0.9912684714301467 -0.31434305852619104
4366000000.0 1.0041390660015301 -0.28832537866489005
4369000000.0 0.9309605696970833 -0.2795621822811897
4372000000.0 0.9439408654062418 -0.313534570797582
4375000000.0 0.9761914802517699 -0.272237687078988
4378000000.0 0.9291793870090982 -0.29222932084473674
4381000000.0 0.9417606346564793 -0.30677235067622616
4384000000.0 1.0185999809927226 -0.3435812693539423
4388000000.0 0.9360425066959723 -0.3179342121947613
4391000000.0 0.9503055406355636 -0.35309098642058445
4394000000.0 0.9238051836505353 -0.3459416011014878
4397000000.0 0.9392699809476535 -0.3747388503563178
4400000000.0 0.9519424918319037 -0.3874474834849231
4403000000.0 0.9287693592686929 -0.39280863046146464
4406000000.0 0.9266721306653631 -0.40252860237494614
4409000000.0 0.9538073696895404 -0.41370958445583317
4412000000.0 0.8801094872569291 -0.4427330284511284
4416000000.0 0.9002918346439368 -0.42291075382420307
4419000000.0 0.9010773533367904 -0.4403560681898258
4422000000.0 0.9263774323767764 -0.4103171879467722
4425000000.0 0.9316195817267381 -0.4236046253467002
4428000000.0 0.892454681025778 -0.45520965737867514
4431000000.0 0.9136658663275161 -0.46771877753684
4434000000.0 0.879621332713843 -0.47024025716402806
4438000000.0 0.9141151415099775 -0.4740569578692591
4441000000.0 0.8962072935928118 -0.49304305542026733
4444000000.0 0.8745662738899325 -0.47120568520718065
4447000000.0 0.858648232865639 -0.5167577418528501
4450000000.0 0.8713373199247052 -0.4899194530330948
4453000000.0 0.8889075223926277 -0.5282142769426985
4456000000.0 0.8405647833231791 -0.5340239536927016
4459000000.0 0.8154442718130077 -0.5265040580686954
4462000000.0 0.8916456997068285 -0.5755573098568629
4466000000.0 0.8720558148260605 -0.5950665927045242
4469000000.0 0.8543573534897135 -0.5448797071626328
4472000000.0 0.8580545240416395 -0.584106850377976
4475000000.0 0.8112116727899591 -0.5641876079484789
4478000000.0 0.8474210228128543 -0.6186566324874888
4481000000.0 0.801192654286666 -0.5914489336137655
4484000000.0 0.7937082323562967 -0.6341645283577367
4488000000.0 0.7902748292823243 -0.6047909570232931
4491000000.0 0.8054178046295374 -0.6220553105097304
4494000000.0 0.7970842367810511 -0.6280391344323355
4497000000.0 0.7922361493947561 -0.6115054079106408
4500000000.0 0.7887984952230627 -0.6145817312874211
4503000000.0 0.7945702732288746 -0.6540434595948295
4506000000.0 0.7672607163324692 -0.6485703226462409
4509000000.0 0.745329037805931 -0.6523664195263449
4512000000.0 0.7374667134774988 -0.6511685622380211
4516000000.0 0.7670331128861532 -0.7105212401866088
4519000000.0 0.7414185454808171 -0.6371214583996212
4522000000.0 0.7289215556791071 -0.6845267036393411
4525000000.0 0.732045968251873 -0.6765074501427094
4528000000.0 0.7405934631046643 -0.7145464088107619
4531000000.0 0.7156866177500052 -0.7118632902686366
4534000000.0 0.6879403545288295 -0.7051634294194722
4538000000.0 0.6941394819759306 -0.707768724601339
4541000000.0 0.6738194300885376 -0.7503565676293349
4544000000.0 0.6775539646173729 -0.754014947346806
4547000000.0 0.6781032084491289 -0.7293956155449772
4550000000.0 0.6749121945363812 -0.7753505271401759
4553000000.0 0.6568566480484727 -0.7782965899974265
4556000000.0 0.614423033217103 -0.7741254926056318
4559000000.0 0.6403970779499237 -0.7898062175485459
4562000000.0 0.6572016794479367 -0.7737860273230579
4566000000.0 0.6392463047869908 -0.809247878097429
4569000000.0 0.6026203767628118 -0.7874194032566737
4572000000.0 0.6347925648943212 -0.8019862482140643
4575000000.0 0.6110043385582058 -0.8101282105766557
4578000000.0 0.6399185821987192 -0.8205403621569144
4581000000.0 0.5814771430525677 -0.812241969101912
4584000000.0 0.5817536483557548 -0.8244590674352732
4588000000.0 0.6011557916353958 -0.8308049502224998
4591000000.0 0.5843428103505955 -0.8268378776537111
4594000000.0 0.5520807451373564 -0.8412137129500425
4597000000.0 0.5477885171931086 -0.8533574555014999
4600000000.0 0.5315500687124848 -0.8646127318012092
4603000000.0 0.5395416326487885 -0.8612597029323439
4606000000.0 0.5441909880003143 -0.8918181375848427
4609000000.0 0.5372090552845263 -0.8644213551602236
4612000000.0 0.509629142804786 -0.8673330079962656
4616000000.0 0.500683185428632 -0.8666460971366089
4619000000.0 0.4845333003171715 -0.8817058650794658
4622000000.0 0.4767399666655292 -0.9004266981853748
4625000000.0 0.4622763035222327 -0.9155991600089828
4628000000.0 0.4953262044952242 -0.9200191888783072
4631000000.0 0.4463393542400704 -0.898193795474404
4634000000.0 0.440772879787625 -0.9123029299279627
4638000000.0 0.460901595455413 -0.9153308069497238
4641000000.0 0.4532230645367451 -0.9167111901927381
4644000000.0 0.42163270314716417 -0.9166684769027935
4647000000.0 0.42477620622265 -0.924548496301577
4650000000.0 0.3958130229266059 -0.9174574595130539
4653000000.0 0.4037033492752139 -0.9456179649964236
4656000000.0 0.3874246358016719 -0.9291367838192912
4659000000.0 0.35754418257297493 -0.9298229119611542
4662000000.0 0.38158933880654705 -0.9756482284447766
4666000000.0 0.35969896668795587 -0.9531094914576933
4669000000.0 0.33595708383280465 -0.9640604885279952
4672000000.0 0.34452570441816094 -1.001878935741289
4675000000.0 0.32086684364762486 -0.9853118443210293
4678000000.0 0.3131315414702427 -0.9564471862250848
4681000000.0 0.29982832239048784 -0.9887848346772202
4684000000.0 0.3106110743082421 -1.0086024666504838
4688000000.0 0.24966860078578157 -0.9620440457245979
4691000000.0 0.3064696607593416 -0.995104438483136
4694000000.0 0.30242060664665193 -0.9598367932439382
4697000000.0 0.24239159984193978 -0.9300362448693027
4700000000.0 0.22528129756985935 -0.994153601519651
4703000000.0 0.2690449830264644 -0.9463689265633979
4706000000.0 0.21595820116847791 -1.0013954857837482
4709000000.0 0.2084982523995857 -0.9588190819143032
4712000000.0 0.2094915941742544 -0.9933660469584329
4716000000.0 0.22452120591412578 -0.9912779662521563
4719000000.0 0.23514202729944156 -0.9902348290191373
4722000000.0 0.210544226782891 -0.9983566714332195
4725000000.0 0.1900735108902677 -1.0065409314310978
4728000000.0 0.1713637139503116 -1.0021658343894808
4731000000.0 0.17677875621543526 -1.0518304784413104
4734000000.0 0.17212817155568888 -1.0053069914043113
4738000000.0 0.1876117221066922 -1.0494714180099123
4741000000.0 0.07663806331583872 -1.0711354078242687
4744000000.0 0.12661360451988232 -1.0316230630529155
4747000000.0 0.12934160835018782 -0.9740163903793712
4750000000.0 0.13433813452632912 -1.0143848478127617
4753000000.0 0.12447552719927457 -1.026548210261514
4756000000.0 0.07863005494631428 -1.0378108053860404
4759000000.0 0.045601508626361115 -1.0251515686974417
4762000000.0 0.03840610939566111 -1.0259186784721253
4766000000.0 0.07119050209195732 -1.0063976854761527
4769000000.0 0.06085854363872023 -1.0236250783344696
4772000000.0 0.02631664285689317 -1.0482955429979617
4775000000.0 -0.007957866802269953 -1.0647401513708328
4778000000.0 -0.014578659603392163 -1.0514967488170444
4781000000.0 0.027203650704530347 -1.037705064820025
4784000000.0 -0.01494776011319554 -1.0098724316461665
4788000000.0 -0.03091560270712579 -1.0532524090075643
4791000000.0 -0.02364401869082766 -1.0223819016280407
4794000000.0 -0.005544910211880555 -1.059665214495603
4797000000.0 -0.059526380720765215 -1.0021404008830102
4800000000.0 -0.05088087352391743 -0.9942615198328011
4803000000.0 -0.1383496836857273 -1.0132154857308306
4806000000.0 -0.07920873897183778 -1.0398391761927968
4809000000.0 -0.12585971693632353 -1.0122659302591472
4812000000.0 -0.13962537867296082 -1.0036231303136365
4816000000.0 -0.05866195715958794 -0.9946900281523137
4819000000.0 -0.11073297984920416 -1.0680712833825545
4822000000.0 -0.133412743303235 -1.0728738539547469
4825000000.0 -0.09229180802488321 -1.0615074046804664
4828000000.0 -0.1566798752562055 -1.0064076375534055
4831000000.0 -0.2084906998940978 -1.0311565481277207
4834000000.0 -0.140360536008005 -1.018422314496385
4838000000.0 -0.20224509741803803 -1.0378014956258288
4841000000.0 -0.20615000244686466 -0.9974616801630457
4844000000.0 -0.1689835269846982 -1.0309497036115736
4847000000.0 -0.1663523795854416 -0.9755403922992423
4850000000.0 -0.23698688402680612 -1.027397779112245
4853000000.0 -0.21416683178481558 -0.9692618228240366
4856000000.0 -0.26193217124347146 -1.0026259855496682
4859000000.0 -0.26402292213468387 -1.0384497194374838
4862000000.0 -0.21907319180740548 -1.004439956822645
4866000000.0 -0.30820203548049463 -1.0001461372427631
4869000000.0 -0.2935190799179633 -0.999627429032857
4872000000.0 -0.3104617615367277 -1.0072927920828918
4875000000.0 -0.24984221100913223 -1.0556243732308588
4878000000.0 -0.3330105674540027 -1.0105832419591996
4881000000.0 -0.3712118287979011 -1.0278156456167982
4884000000.0 -0.31228436171318497 -0.9934825565226921
4888000000.0 -0.30540672815093234 -0.9892342674931819
4891000000.0 -0.3324641624408855 -1.0034057109398695
4894000000.0 -0.36623989848882876 -0.9691075992813866
4897000000.0 -0.3184165460871106 -0.9671922713071571
4900000000.0 -0.3719985144536294 -0.9964297401345941
4903000000.0 -0.3571305922113985 -1.033466337896206
4906000000.0 -0.3735345181085749 -0.9703740731085605
4909000000.0 -0.3957357471665176 -0.9467034869777244
4912000000.0 -0.4313841915091873 -0.964710490951826
4916000000.0 -0.4443977631196807 -0.9847608889622215
4919000000.0 -0.39996406499824294 -1.0195460424128593
4922000000.0 -0.40754377664777497 -0.9537950885367978
4925000000.0 -0.4749212037522068 -0.9368562086961256
4928000000.0 -0.38878579601429336 -0.9539956634671514
4931000000.0 -0.4357120393697813 -0.9613483065889128
4934000000.0 -0.4858916926360362 -0.8787259591107645
4938000000.0 -0.5091554667084621 -0.915561477609682
4941000000.0 -0.5100902811496577 -0.9042442371661357
4944000000.0 -0.48025649927416036 -0.8842716106771848
4947000000.0 -0.5095510126304514 -0.882070257450433
4950000000.0 -0.518924797510091 -0.8781001848802674
4953000000.0 -0.5506448292799138 -0.8910046353594979
4956000000.0 -0.5482799057771452 -0.9104429864909942
4959000000.0 -0.5476461885073571 -0.8336463385219717
4962000000.0 -0.5789967702945514 -0.9165196297674559
4966000000.0 -0.5463665752230313 -0.9434854985268035
4969000000.0 -0.5499924439677216 -0.9176563679989354
4972000000.0 -0.5863383978927381 -0.8677089864488466
4975000000.0 -0.564622716980591 -0.9038946448626862
4978000000.0 -0.5877959303904547 -0.8460391460237573
4981000000.0 -0.640026286765168 -0.8137115266485324
4984000000.0 -0.5928088519352689 -0.8458312104604276
4988000000.0 -0.6008865882094656 -0.8541335233886431
4991000000.0 -0.6149890369095641 -0.8666751834537423
4994000000.0 -0.6193139446165212 -0.8155703678516074
4997000000.0 -0.6780820586567835 -0.8112574958372214
5000000000.0 -0.6583893258161121 -0.8584234097849526
5003000000.0 -0.702724674209215 -0.8333659121501413
5006000000.0 -0.6943035176650134 -0.8173687618649198
5009000000.0 -0.6724443981914707 -0.7643234316557022
5012000000.0 -0.7054191978796551 -0.7739343578384288
5016000000.0 -0.7054480049911995 -0.8351385748731983
5019000000.0 -0.7000836408304982 -0.7821491883231605
5022000000.0 -0.7459454364067822 -0.7419510432873955
5025000000.0 -0.7454191951959874 -0.7869014138969895
5028000000.0 -0.733190103108649 -0.7662926046096193
5031000000.0 -0.744021051483001 -0.7237731325634054
5034000000.0 -0.749093664422846 -0.7311278979340882
5038000000.0 -0.7230859112991262 -0.7036810551582338
5041000000.0 -0.7419730642850905 -0.7549285894303863
5044000000.0 -0.7338219144763695 -0.702201792840056
5047000000.0 -0.7506223509331118 -0.6958694476201743
5050000000.0 -0.7492186701565359 -0.7460970422459132
5053000000.0 -0.8095101883206736 -0.7083834180943835
5056000000.0 -0.784541702269236 -0.696542998276773
5059000000.0 -0.7785381348156062 -0.6831936099767676
5062000000.0 -0.8472195409726161 -0.6407711587486961
5066000000.0 -0.7939842166065297 -0.6571536354299983
5069000000.0 -0.8411842681995987 -0.6424103997049306
5072000000.0 -0.79013144640861 -0.6367136037431826
5075000000.0 -0.8241354898728414 -0.615556362449657
5078000000.0 -0.8597816345087241 -0.5949533729927775
5081000000.0 -0.8604824764809171 -0.6018728330585168
5084000000.0 -0.8438361583870493 -0.5832841741113524
5088000000.0 -0.8717775675858749 -0.5989479753613838
5091000000.0 -0.8655480905732753 -0.5565248171462491
5094000000.0 -0.8997548939269624 -0.5091193700447905
5097000000.0 -0.8266518086470664 -0.5465595010187461
5100000000.0 -0.912036260205042 -0.5743904003669271
5103000000.0 -0.9294960346014729 -0.48505969079383493
5106000000.0 -0.882491486366102 -0.5265015439002209
5109000000.0 -0.8546035384668293 -0.5418532796812257
5112000000.0 -0.899467432808946 -0.5070993492002887
5116000000.0 -0.9253585045823312 -0.5005450411194521
5119000000.0 -0.9409140143348483 -0.4528362470228083
5122000000.0 -0.8897213447953816 -0.4479539738065657
5125000000.0 -0.8510970176487841 -0.47264676553611773
5128000000.0 -0.9479877811397627 -0.4210174032242681
5131000000.0 -0.9584317663659379 -0.46999208477853294
5134000000.0 -0.902970695497893 -0.4245586021204894
5138000000.0 -0.8982883975745399 -0.4867283752635162
5141000000.0 -0.9443430303103264 -0.45676659112240264
5144000000.0 -0.9015507619724191 -0.42502053473256846
5147000000.0 -0.9984871198352807 -0.4208239228023585
5150000000.0 -1.024373641944571 -0.42681659617493223
5153000000.0 -1.02202469469372 -0.40440749017455907
5156000000.0 -0.9765611284666667 -0.3644046225081022
5159000000.0 -1.0127122980389311 -0.39056605817848455
5162000000.0 -0.9666974361145314 -0.28653453379832805
5166000000.0 -0.9586393161102686 -0.3409081417460647
5169000000.0 -0.9725343207441863 -0.3042956529317928
5172000000.0 -0.9984785160172976 -0.34810011218893094
5175000000.0 -1.0024746820950232 -0.2829824827050785
5178000000.0 -1.0464144518889535 -0.25907158501640404
5181000000.0 -0.9954466165248781 -0.24794747333796618
5184000000.0 -1.0107722412091187 -0.29283645804305813
