! Created with skrf 1.8.0 (http://scikit-rf.org).
# Hz S RI R 50.0 
!freq ReS11 ImS11
4000000000.0 -0.8901691064002087 -0.47071394749130285
4003000000.0 -0.9344657495340689 -0.4630784301078864
4006000000.0 -0.9373398086172601 -0.4063943861139485
4009000000.0 -0.9533083949966628 -0.33843119975764896
4012000000.0 -1.034268055665117 -0.31321220807813666
4016000000.0 -0.971239884336949 -0.2752117570449798
4019000000.0 -0.9840679393270357 -0.24796567557968555
4022000000.0 -0.9734623071894122 -0.21563365667233225
4025000000.0 -0.9961037917965865 -0.14686834870479998
4028000000.0 -1.0383456776023166 -0.18224371999516348
4031000000.0 -1.0203102467632026 -0.17085806048494684
4034000000.0 -0.9865146154871659 -0.09508984566670133
4038000000.0 -1.0376789737932894 -0.03838053885212589
4041000000.0 -1.0226034456977162 -0.016118727510584685
4044000000.0 -1.0476468107020598 0.03436067934282319
4047000000.0 -1.014854669446837 0.016325820393207152
4050000000.0 -1.0281961670201267 0.11644430556039706
4053000000.0 -1.024935899991206 0.16123447126179957
4056000000.0 -1.0025764541251339 0.1616220084242094
4059000000.0 -1.0315176285939245 0.15507560604987636
4062000000.0 -0.9692430824350834 0.251515574564034
4066000000.0 -0.9702343262870317 0.2767539273670061
4069000000.0 -1.0342271014280016 0.26816681053627367
4072000000.0 -1.03651745516683 0.24332640711632725
4075000000.0 -0.9939824380659835 0.2987364221141397
4078000000.0 -1.0188264054279264 0.3653991135110475
4081000000.0 -1.007920710444627 0.3399239407365007
4084000000.0 -0.9297152057752358 0.4411779751527704
4088000000.0 -0.9927775801920793 0.4137509812950758
4091000000.0 -1.0153553893896976 0.5455830862377813
4094000000.0 -0.9376876744622411 0.4961459299948412
4097000000.0 -0.8869210234782283 0.5089502541830107
4100000000.0 -0.9110843293949168 0.520767587684106
4103000000.0 -0.8439776770011411 0.5708870755445756
4106000000.0 -0.8962439572852791 0.5745147732083664
4109000000.0 -0.8077068304664692 0.6790719106691328
4112000000.0 -0.8553937485484706 0.6600943104906902
4116000000.0 -0.8589089369866926 0.6147072298701326
4119000000.0 -0.786076001321536 0.7026999180451567
4122000000.0 -0.8323589307758649 0.7571219230338071
4125000000.0 -0.8088148421257405 0.8046187904044975
4128000000.0 -0.7504929796553765 0.7165374996262328
4131000000.0 -0.7632716329150556 0.720230760114051
4134000000.0 -0.717444718375543 0.7647705100782536
4138000000.0 -0.691696077703903 0.7439342352349168
4141000000.0 -0.6271162507355895 0.8248377122794313
4144000000.0 -0.7045233983359372 0.8278512343512618
4147000000.0 -0.5711667384892796 0.8361765568453166
4150000000.0 -0.6697773408320674 0.8895457147430748
4153000000.0 -0.6003053893465005 0.8747025096263082
4156000000.0 -0.6034094127628442 0.8876980640233183
4159000000.0 -0.581833373544449 0.8903263985425913
4162000000.0 -0.4929934827074151 0.9006389915518953
4166000000.0 -0.47960374404217215 0.9038291167559567
4169000000.0 -0.455713330784249 0.9956589159465558
4172000000.0 -0.46396339248913265 0.9052991538147503
4175000000.0 -0.43117972015960615 0.9241425772140095
4178000000.0 -0.39841388907982467 0.9895453658841302
4181000000.0 -0.4864695577792085 0.9825966280155735
4184000000.0 -0.40687842444278977 1.0324657214563113
4188000000.0 -0.390301593124245 1.032372860261682
4191000000.0 -0.40515983677106726 0.9715167661992363
4194000000.0 -0.2943855146334097 0.9425605064491839
4197000000.0 -0.3040654022829459 0.9720732825135265
4200000000.0 -0.30617974053920655 0.996459944419
4203000000.0 -0.27805016696455653 0.9339198769252186
4206000000.0 -0.2289518217622144 1.008884511136149
4209000000.0 -0.31271176017070357 1.0255321095769436
4212000000.0 -0.23335174254970784 1.0186542768850462
4216000000.0 -0.18125721037959702 1.000210139247005
4219000000.0 -0.20956869424677643 1.0099308745317346
4222000000.0 -0.1465550238561435 1.034450473428209
4225000000.0 -0.15203692695767074 1.000239849674837
4228000000.0 -0.15272850826020296 1.0946504150327137
4231000000.0 -0.14341261275088163 1.0316589796894333
4234000000.0 -0.17562226663101074 1.0337583505246457
4238000000.0 -0.09333463301527195 1.063258865165068
4241000000.0 -0.10131999627055638 1.051300476179054
4244000000.0 -0.08212301181203693 1.0048986903340293
4247000000.0 -0.0723755207826382 1.0915072538611077
4250000000.0 -0.021813843381232434 1.0586528602329452
4253000000.0 -0.05391994051320592 1.0589061635160693
4256000000.0 -0.00352945668977267 0.9819786783959659
4259000000.0 0.01928395598612989 1.0841895745182848
4262000000.0 0.056029680356967954 1.0685258142418057
4266000000.0 0.018851923598914466 1.0272476234935937
4269000000.0 0.06341187870220513 1.0926316866692771
4272000000.0 0.1073277274928836 1.0422137310792654
4275000000.0 0.12078906626544772 1.0179307843858636
4278000000.0 0.11073042141917729 1.0158706008479035
4281000000.0 0.1538768205329803 1.0079854302132694
4284000000.0 0.11028677361857518 1.0348986686113302
4288000000.0 0.17990657786885753 1.0199044469361733
4291000000.0 0.18755718312529515 1.0589268039033795
4294000000.0 0.17410316208104853 1.0343687956751397
4297000000.0 0.22716985683778945 0.9895110524137388
4300000000.0 0.2480359297770574 1.0277161845633545
4303000000.0 0.22647826719942526 1.0347423329982965
4306000000.0 0.2673038562071911 1.0161673116790637
4309000000.0 0.29750482507953674 0.9868733369412814
4312000000.0 0.3119110137404646 1.0009687067951958
4316000000.0 0.3126630090243119 0.9821634526710772
4319000000.0 0.3207310714244787 0.9633116049383336
4322000000.0 0.37025404342074153 0.9229982852323028
4325000000.0 0.3372656540541125 0.9732412534612348
4328000000.0 0.3995467941210321 0.9609901118308195
4331000000.0 0.3875989023249912 0.973656834970721
4334000000.0 0.38778063278631786 0.9905207161326444
4338000000.0 0.3774653343012349 0.9689118440984307
4341000000.0 0.37286796454304694 0.9520383480482412
4344000000.0 0.4194128717355117 0.9560521038485109
4347000000.0 0.4119097878792935 0.9725015445236378
4350000000.0 0.44951336849376133 0.9442953945476817
4353000000.0 0.4516105087460185 0.8814486539007185
4356000000.0 0.4680710234557211 1.010221441418392
4359000000.0 0.4669536352098686 0.8876824224327338
4362000000.0 0.5187419949715619 0.8706698982650973
4366000000.0 0.5031792205888082 0.8660939599299204
4369000000.0 0.5460316488896434 0.897594657807059
4372000000.0 0.5996610123479658 0.8571294352385376
4375000000.0 0.5394223401954114 0.8430429603353239
4378000000.0 0.560770668946568 0.8551990470850828
4381000000.0 0.6029681772886353 0.8854736441382085
4384000000.0 0.6052095550932683 0.8399092788794276
4388000000.0 0.5668195745973035 0.8512080816490626
4391000000.0 0.5699601822910765 0.8284217662941527
4394000000.0 0.5467982695617709 0.7942927458661185
4397000000.0 0.6305086447473909 0.789794415259718
4400000000.0 0.658828621422074 0.8239293874012201
4403000000.0 0.6201070982985126 0.8190504608214625
4406000000.0 0.7069020436236136 0.7413402412631124
4409000000.0 0.6776017654009969 0.7775603964686872
4412000000.0 0.6904163779758445 0.7501420370204528
4416000000.0 0.7036387968975779 0.7339695513455715
4419000000.0 0.7161418085520189 0.7520836653439911
4422000000.0 0.7314624434340833 0.7089885769647497
4425000000.0 0.7264666607548049 0.7477237527293299
4428000000.0 0.742195753744927 0.7053801180700997
4431000000.0 0.7554988224527679 0.713584067144238
4434000000.0 0.7691000593505759 0.725895573230952
4438000000.0 0.7683815470591884 0.720485714196335
4441000000.0 0.7720667858350398 0.7088141171948543
4444000000.0 0.7534730807486694 0.6509443198778024
4447000000.0 0.8015408256254122 0.6470418193485447
4450000000.0 0.7710780589563204 0.6342624188037073
4453000000.0 0.800780387129307 0.6671065011410418
4456000000.0 0.7890568604053281 0.6220956124991567
4459000000.0 0.7973742606817553 0.5845487622927781
4462000000.0 0.8595930173063828 0.616369258234513
4466000000.0 0.8533335440391127 0.6066348783719319
4469000000.0 0.8151175731148801 0.5973511334615003
4472000000.0 0.8539715610094939 0.5877968549035556
4475000000.0 0.8424379426661867 0.5649812383679128
4478000000.0 0.8996323105354761 0.5696060663834328
4481000000.0 0.8556299549943867 0.5374723310522339
4484000000.0 0.8762538329578897 0.4930853404843071
4488000000.0 0.8560328437785225 0.5041922451270131
4491000000.0 0.8973551938066086 0.5007099424510774
4494000000.0 0.8932044268484866 0.5114303065547443
4497000000.0 0.8719091473246872 0.4988779001865177
4500000000.0 0.8833206009022381 0.48400286937441944
4503000000.0 0.9256316435110565 0.47306566109308296
4506000000.0 0.8732627677044411 0.4631269055493886
4509000000.0 0.902062036130796 0.4453232565150719
4512000000.0 0.8828578129942499 0.4086704970642365
4516000000.0 0.9362450560640019 0.4417791697862298
4519000000.0 0.8953772856430839 0.4095903798731457
4522000000.0 0.929209299007306 0.4008729497072577
4525000000.0 0.9058952076694209 0.4102016624291199
4528000000.0 0.9519550550892633 0.3928209065078596
4531000000.0 0.9385941917603511 0.3805305823942751
4534000000.0 0.9280593528132594 0.37861424357569007
4538000000.0 0.9582658494570746 0.3304582226641313
4541000000.0 0.9945978681039607 0.303918934080985
4544000000.0 0.9367357819978175 0.3325122568466941
4547000000.0 0.9567997112754814 0.3251128617373532
4550000000.0 0.9667748429182077 0.28019774118961893
4553000000.0 0.9892330713334181 0.2907487831323088
4556000000.0 0.9286882881535015 0.24699953647759967
4559000000.0 0.9771517561864493 0.24461793413046895
4562000000.0 0.9929158094082304 0.26168655510788863
4566000000.0 0.9852546728984388 0.23381785955801732
4569000000.0 0.9531875645035939 0.2327028756212409
4572000000.0 0.9825193954475955 0.2304908129507317
4575000000.0 1.012309136387347 0.2053814951176779
4578000000.0 1.0158830588469034 0.2300977305050163
4581000000.0 1.0300337210035102 0.1753699528658611
4584000000.0 0.9774658259137807 0.15516148020608558
4588000000.0 1.0197866311106263 0.20048829470958646
4591000000.0 0.9855036102351098 0.16602945608593794
4594000000.0 1.0107428267888592 0.1333682175171604
4597000000.0 1.0353165205720658 0.11754310236477461
4600000000.0 0.9705494685581858 0.08076832432078879
4603000000.0 1.02713753566525 0.11696661206863401
4606000000.0 0.9872174844310099 0.09063001534300032
4609000000.0 1.0101449416420374 0.05936603127366369
4612000000.0 1.0461801357435005 0.07630967023940868
4616000000.0 1.0022871311188541 0.04749055999616771
4619000000.0 1.0192419592116084 0.08700294088407973
4622000000.0 0.9972482518744137 0.07083421247838326
4625000000.0 0.9492794101749618 0.013680529154125945
4628000000.0 0.9646886952068146 0.037053498858446145
4631000000.0 0.9852409765290884 -0.034385126151773845
4634000000.0 0.9893263457291661 0.0007084059609648308
4638000000.0 1.0097003958132462 -0.01911478160144811
4641000000.0 1.023750094095949 -0.01382381327844854
4644000000.0 1.0136617713908818 -0.05975279702411683
4647000000.0 1.0165983689309788 -0.051320415688813285
4650000000.0 1.0190156425732009 -0.09401955766863085
4653000000.0 1.0315447375505613 -0.09082732626402824
4656000000.0 0.9899135832197012 -0.13058891442827025
4659000000.0 0.9760713043955271 -0.09929912892789282
4662000000.0 0.9847458389426565 -0.08303710154816835
4666000000.0 0.9917699061166282 -0.11280506312456215
4669000000.0 1.0067791301588112 -0.11243403195804041
4672000000.0 0.9810695643907793 -0.18453148785025608
4675000000.0 0.9531987290085397 -0.18913422073157526
4678000000.0 0.9982131581834202 -0.17017732524035556
4681000000.0 1.011740888178324 -0.22097341388979164
4684000000.0 0.9475093010001064 -0.20108058539765652
4688000000.0 0.9787854626796504 -0.1888966806958818
4691000000.0 0.9332953625662328 -0.1902739655416366
4694000000.0 0.9783862353724724 -0.25754066118660374
4697000000.0 0.9675058060507322 -0.23766352668881213
4700000000.0 1.0138634712816157 -0.20944037192655113
4703000000.0 0.9859535705680289 -0.28308456723479847
4706000000.0 0.9668882066572215 -0.24265461934178362
4709000000.0 0.9513937702217666 -0.2889591150181301
4712000000.0 0.9518384246460576 -0.3016605357944052
4716000000.0 0.9693856307976815 -0.29996175672058356
4719000000.0 0.9702286902578015 -0.3394190931888892
4722000000.0 0.9734031218720933 -0.33161351277588685
4725000000.0 0.939797769963243 -0.34031604597038023
4728000000.0 0.9357260083478951 -0.3359906430095007
4731000000.0 0.9560404702832672 -0.3175419305865277
4734000000.0 0.9470800346180586 -0.35104147594053947
4738000000.0 0.9526671150085413 -0.37211181335067156
4741000000.0 0.9361181056950297 -0.3628411048653118
4744000000.0 0.9196185787347511 -0.40724508630995304
4747000000.0 0.9233428274262809 -0.4087952728985137
4750000000.0 0.8905364865923142 -0.42422162921213485
4753000000.0 0.9185060035535587 -0.4549326316306292
4756000000.0 0.9045047752789658 -0.44020698490353716
4759000000.0 0.9005062223774611 -0.4512324418643252
4762000000.0 0.9052766263728823 -0.46759559392602434
4766000000.0 0.8705524112468814 -0.4771346772351779
4769000000.0 0.906937924397161 -0.45991837214133624
4772000000.0 0.8863575477364333 -0.5030476528385763
4775000000.0 0.8922595523826404 -0.5200831186934824
4778000000.0 0.9128271427547678 -0.49984729603441935
4781000000.0 0.8851959782159429 -0.4941081755773663
4784000000.0 0.8679585367931344 -0.4891158257672547
4788000000.0 0.878545617361461 -0.5299338987589387
4791000000.0 0.8390727933467113 -0.5541679425740151
4794000000.0 0.8618896642741269 -0.5663973977348045
4797000000.0 0.8370853753175862 -0.5670018394100981
4800000000.0 0.8147816117194728 -0.5766939455840396
4803000000.0 0.8300814651842293 -0.5724417843936487
4806000000.0 0.8494858990015949 -0.6056672001883913
4809000000.0 0.8004447035873498 -0.6031560849809963
4812000000.0 0.8043991117856921 -0.5920230990043658
4816000000.0 0.8051592835899624 -0.5980323710583566
4819000000.0 0.8351573274415305 -0.6227494837974833
4822000000.0 0.8309531307221175 -0.6302853374914452
4825000000.0 0.8052277405675554 -0.6349763717716775
4828000000.0 0.7692768964939845 -0.6399552188908174
4831000000.0 0.7747180509418011 -0.6863488837380153
4834000000.0 0.7824105774577927 -0.6502093480988261
4838000000.0 0.7921610128044414 -0.6796254973106484
4841000000.0 0.7342167880056366 -0.683444700237748
4844000000.0 0.754645205099588 -0.6651895505914013
4847000000.0 0.7602055884954529 -0.6818163442147748
4850000000.0 0.7388093805997644 -0.6945964591596132
4853000000.0 0.7326077531238405 -0.6937754565241865
4856000000.0 0.7229585846093007 -0.7157737905927652
4859000000.0 0.7285121530271602 -0.7340179270239574
4862000000.0 0.7133255008330579 -0.7108451601582704
4866000000.0 0.6991329482703807 -0.765087760891487
4869000000.0 0.6680038281168417 -0.7417201871374354
4872000000.0 0.6825928191481219 -0.7854699757970262
4875000000.0 0.7263386151473386 -0.7625945336305093
4878000000.0 0.6557369994678054 -0.7769939638431984
4881000000.0 0.6887082099505674 -0.8092158115241902
4884000000.0 0.6565950347250206 -0.7670967409517276
4888000000.0 0.6838360386867164 -0.7814179800266776
4891000000.0 0.6602062045739753 -0.7911864461028475
4894000000.0 0.6221993395753237 -0.8105353583745967
4897000000.0 0.632984974943184 -0.7881115299448135
4900000000.0 0.6205671079553404 -0.8268131889546187
4903000000.0 0.6194038494860874 -0.8003190004978487
4906000000.0 0.6040856107100027 -0.8421656803196558
4909000000.0 0.6044495750893549 -0.8414941033843933
4912000000.0 0.6014864196549872 -0.8712500382428515
4916000000.0 0.589186291014376 -0.8424371511384474
4919000000.0 0.5949674481799184 -0.8523777337873546
4922000000.0 0.5855512687044035 -0.8467304179508494
4925000000.0 0.5433980454143982 -0.874521536334508
4928000000.0 0.5647738207150834 -0.8690758149163756
4931000000.0 0.5697385285032794 -0.8459778310188022
4934000000.0 0.5338910976197027 -0.8428066835186621
4938000000.0 0.5097262095222905 -0.869444840207495
4941000000.0 0.5076215013164425 -0.8902657091593021
4944000000.0 0.5073548579634835 -0.8134638056939656
4947000000.0 0.48472549367889206 -0.8273672049955925
4950000000.0 0.4818009428254075 -0.9023921129351722
4953000000.0 0.44889767533379127 -0.9292297162532405
4956000000.0 0.46911973669274887 -0.9413255549401347
4959000000.0 0.4287460330453965 -0.9149905727763197
4962000000.0 0.4730719766578608 -0.9419417521800619
4966000000.0 0.47336818020631666 -0.9353939442452727
4969000000.0 0.49130608209146925 -0.94150829513754
4972000000.0 0.42607931954465644 -0.943324404101494
4975000000.0 0.41638936643054447 -0.9199968067356153
4978000000.0 0.38908493080715684 -0.9084902631476305
4981000000.0 0.36246946512351796 -0.9520568179629719
4984000000.0 0.38864198714574993 -0.917318813775904
4988000000.0 0.3823846929355743 -0.9313759494267063
4991000000.0 0.4520329482041109 -0.9570964818938005
4994000000.0 0.4163585479332076 -0.940110351609615
4997000000.0 0.33656250803874094 -0.9890015982403555
5000000000.0 0.37085990559407567 -0.9800091438634504
5003000000.0 0.3465678953625819 -1.001529848867704
5006000000.0 0.34047303614508306 -0.9931078352455669
5009000000.0 0.3445778033213811 -0.9662764119190568
5012000000.0 0.2918864262629595 -0.9734055467513714
5016000000.0 0.33860269265914666 -1.0249479210846264
5019000000.0 0.27576854221702624 -0.9822247864462899
5022000000.0 0.27579445003512154 -0.9773625089490612
5025000000.0 0.3410052873603192 -1.0843934183899984
5028000000.0 0.2345445969118098 -1.015763545886104
5031000000.0 0.2634936635215202 -0.9932612419888608
5034000000.0 0.2301173290837888 -1.0379530929789818
5038000000.0 0.24670022545546658 -0.9728538504768021
5041000000.0 0.29670977327114884 -0.9918076106658845
5044000000.0 0.2284848981018103 -0.9829657736661123
5047000000.0 0.27380048353472775 -1.0252471388487172
5050000000.0 0.2736792581893781 -0.9608631682075592
5053000000.0 0.22305626651990965 -1.0579821563026328
5056000000.0 0.23998888440487096 -0.9906691410194735
5059000000.0 0.25483737138987295 -1.0046282440099334
5062000000.0 0.14735410090567236 -1.0234776504772698
5066000000.0 0.22916571852207085 -0.9868770917568686
5069000000.0 0.1536671386883434 -1.019404022820608
5072000000.0 0.1327786468364454 -0.9727969033290078
5075000000.0 0.16232843283141052 -1.0285034721384791
5078000000.0 0.06964319403738994 -1.0036731542933053
5081000000.0 0.09436777608612201 -0.9797096934444413
5084000000.0 0.14784256025326312 -1.084924060377813
5088000000.0 0.12029948711503557 -0.9982033249023883
5091000000.0 0.0376397230232841 -1.0753938178635158
5094000000.0 0.10460558132621953 -1.0373115407441702
5097000000.0 0.10071222332301297 -1.0595409250421939
5100000000.0 0.10185335959235214 -0.9878456309919369
5103000000.0 0.08639033212200503 -1.0263860664984032
5106000000.0 0.0755962475286322 -1.0742272069859056
5109000000.0 0.07558620950605546 -1.0215910988010457
5112000000.0 0.031542649690695077 -1.0481802558175235
5116000000.0 0.0006248295730931566 -0.9663452726571198
5119000000.0 0.03214774751161909 -1.0456430378388517
5122000000.0 0.04954357082640052 -1.0137282596762038
5125000000.0 0.0005788648527332504 -1.048969999743826
5128000000.0 0.01637942097317765 -1.0659592632880774
5131000000.0 -0.05657507062324965 -1.0041260979220155
5134000000.0 -0.015548679100271866 -0.9998299295092028
5138000000.0 -0.02484876350219259 -1.0701684570527412
5141000000.0 0.019395220142454817 -1.0434543534597644
5144000000.0 0.01121377586075522 -1.0692029720368659
5147000000.0 -0.06339739967293602 -1.0680608386041186
5150000000.0 -0.04031675099135382 -1.026276995513849
5153000000.0 -0.09355642474728465 -1.0206522141834544
5156000000.0 -0.08917915971923639 -1.054760674823372
5159000000.0 -0.07428560340060317 -1.083735497598001
5162000000.0 -0.047014471055804974 -0.9836832898236076
5166000000.0 -0.1628517219929355 -1.0912919745729666
5169000000.0 -0.14767637089519337 -1.0628365328378075
5172000000.0 -0.13340098276519272 -0.9915488890179232
5175000000.0 -0.14882491082101104 -1.0687915214329144
5178000000.0 -0.15739902792810304 -0.9965288510939035
5181000000.0 -0.09084803556439998 -1.0475784376193513
5184000000.0 -0.2115467871542649 -1.0428310920258197
5188000000.0 -0.16012119200577454 -1.0365276965288437
5191000000.0 -0.21449178203160377 -1.036161764550689
