! Created with skrf 1.8.0 (http://scikit-rf.org).
# Hz S RI R 50.0 
!freq ReS11 ImS11
4000000000.0 0.6221855729642662 0.8051046362852137
4003000000.0 0.6504398585791271 0.8566532318635082
4006000000.0 0.6819247583753498 0.7774705195567834
4009000000.0 0.6901166298694246 0.780659095406444
4012000000.0 0.6548756656532492 0.8347857515002498
4016000000.0 0.7630941454593045 0.7728816934529013
4019000000.0 0.7184748570521147 0.7695325073342212
4022000000.0 0.6530815808091628 0.7968012004643614
4025000000.0 0.757841759802966 0.6790058560740676
4028000000.0 0.733110271651423 0.7381529989745872
4031000000.0 0.715887692962193 0.6826881941532976
4034000000.0 0.7614370817234719 0.709600086394717
4038000000.0 0.7749834565181128 0.7502711516939584
4041000000.0 0.7439141721046508 0.7727257556004268
4044000000.0 0.802801364246904 0.7784086912680049
4047000000.0 0.7416584191418386 0.7450046932148897
4050000000.0 0.7687735530425216 0.684134154913822
4053000000.0 0.7942985596512742 0.6737999278838431
4056000000.0 0.7423968589828208 0.6809630739094544
4059000000.0 0.78084060235279 0.6729145323674597
4062000000.0 0.7886361692964183 0.6579495063259033
4066000000.0 0.7404518447820765 0.5966628460674821
4069000000.0 0.8549868749047878 0.6820547603476887
4072000000.0 0.7813951459218521 0.6779276709151254
4075000000.0 0.826032585014322 0.7095080333726496
4078000000.0 0.8238547159264099 0.6283450746936812
4081000000.0 0.7970732151715868 0.6867898519239334
4084000000.0 0.8407239871909612 0.6465881477861131
4088000000.0 0.7978436373541021 0.6342952528313882
4091000000.0 0.874452756103816 0.6497429256802567
4094000000.0 0.8343902813131969 0.656166246935134
4097000000.0 0.8608926611620358 0.601707214771501
4100000000.0 0.8790931592425985 0.5647925388524704
4103000000.0 0.8518121975103423 0.6660375489661567
4106000000.0 0.8913893388894275 0.5667657625502245
4109000000.0 0.8893391794013494 0.5450137866518925
4112000000.0 0.9119973603319551 0.5714226696269231
4116000000.0 0.8428623614052145 0.5627581429041812
4119000000.0 0.9056744984371612 0.539865845533115
4122000000.0 0.916429411507593 0.5055417019083479
4125000000.0 0.9376785285966692 0.5156384384263937
4128000000.0 0.8650795574950063 0.5591946067772673
4131000000.0 0.856984707889603 0.5094280820269733
4134000000.0 0.9004344228833016 0.5288925936053291
4138000000.0 0.8661591442246739 0.48425487525562155
4141000000.0 0.8516963049192792 0.492610796065847
4144000000.0 0.9283260934671618 0.5194645833109892
4147000000.0 0.9267853197801574 0.4748088377878917
4150000000.0 0.9067367432123488 0.5077973923170434
4153000000.0 0.9369907625470514 0.4718357223135755
4156000000.0 0.9290495985071827 0.5034916783267848
4159000000.0 0.9214717357490125 0.47289175670927247
4162000000.0 0.9080177771743168 0.4863150821510174
4166000000.0 0.9480622388188382 0.4601477598678626
4169000000.0 0.9260692909622106 0.4036232132251335
4172000000.0 0.976710097987809 0.45271037305871126
4175000000.0 0.9510420883830757 0.4298052145405334
4178000000.0 0.947355136804164 0.4147680208765705
4181000000.0 0.9509014791114807 0.39850282186971064
4184000000.0 0.95104236839615 0.40436358025003466
4188000000.0 0.9459173607554106 0.4127417527438455
4191000000.0 0.9406496467218033 0.4187090013987909
4194000000.0 0.9595534720034593 0.35178176011779116
4197000000.0 0.9966917415347788 0.3879873300737187
4200000000.0 0.983313212132068 0.3918997388669362
4203000000.0 0.9446896990265988 0.37897492093704443
4206000000.0 0.9990182928270988 0.34624030708486414
4209000000.0 0.9539800116770686 0.3466639021624612
4212000000.0 0.9802864441601055 0.3117677895239037
4216000000.0 0.9834285862554746 0.33322955009344374
4219000000.0 0.9942471602628445 0.32086285358399225
4222000000.0 0.9973761470877898 0.28489160258749857
4225000000.0 0.9692410261848219 0.2943306612276223
4228000000.0 0.9930384407352293 0.2892995619634242
4231000000.0 1.0061447118615094 0.29273152766289545
4234000000.0 1.012200551153976 0.27868511367654697
4238000000.0 1.0107971085165106 0.24686115736129313
4241000000.0 1.0012334286112767 0.24215605402259016
4244000000.0 0.998937287529374 0.25326117818298727
4247000000.0 0.9918643679085926 0.23095965899247922
4250000000.0 0.98861605709884 0.2084888196799332
4253000000.0 0.9899001982622233 0.2051460550331427
4256000000.0 1.018035867711853 0.2011573411234014
4259000000.0 0.9822937760351845 0.19600369748613397
4262000000.0 1.0134138643413937 0.17103866804510895
4266000000.0 1.016375562762025 0.17180641993795226
4269000000.0 1.008534548648206 0.1809237484555102
4272000000.0 1.001880626174769 0.16805922242618843
4275000000.0 1.0327581940582362 0.1645093857554522
4278000000.0 1.042382347779826 0.16269079738587022
4281000000.0 1.0077557419301544 0.14351171445668381
4284000000.0 1.0189809078389576 0.11122311087728623
4288000000.0 1.011459942050367 0.1609472271486054
4291000000.0 0.9877391528595018 0.1074214137366437
4294000000.0 1.034735854440457 0.09272839108732721
4297000000.0 1.0006488374459228 0.11485147576924641
4300000000.0 0.9837085616787167 0.09335444450131886
4303000000.0 1.007001697904407 0.075969131360943
4306000000.0 1.0332264155937854 0.09358894767863118
4309000000.0 1.0148983262991678 0.08542663355347947
4312000000.0 1.0427961920830287 0.10728599480797069
4316000000.0 1.0406654452706139 0.06953813000391994
4319000000.0 0.997676804721781 0.05557546280933219
4322000000.0 0.9973002946808841 -0.0008561852109106455
4325000000.0 1.0117268770324581 0.032157074826846474
4328000000.0 1.009225470524688 0.024568008836256414
4331000000.0 1.0055450131224324 -0.010653240126967264
4334000000.0 1.0345848378291462 -0.029898733078190617
4338000000.0 1.0285246023569203 0.04263363763066032
4341000000.0 1.028858384402583 0.013317135960316334
4344000000.0 1.029207079510836 -0.017622472929553545
4347000000.0 1.0432837225836677 -0.08169745124715837
4350000000.0 0.9789965510133777 -0.0797025762287771
4353000000.0 1.0233004806754216 -0.0119196924843043
4356000000.0 1.007625380556012 -0.07750344730697999
4359000000.0 0.9547669713487457 -0.08357154984110135
4362000000.0 1.0311486354897017 -0.14315753704833784
4366000000.0 1.0307708667742381 -0.0959740681954719
4369000000.0 0.9923203313634779 -0.10239311972480801
4372000000.0 0.9926362114185547 -0.1444228812413093
4375000000.0 0.983473363352406 -0.08709612914949728
4378000000.0 0.9693404471149567 -0.12456755473542044
4381000000.0 1.0023837919694873 -0.11360110416071895
4384000000.0 1.0648440591130472 -0.16341672674354826
4388000000.0 0.9905356296384872 -0.13346531398400419
4391000000.0 1.0235124920880774 -0.16371068179671466
4394000000.0 0.9743824906158672 -0.17696680351909005
4397000000.0 0.9894299396409572 -0.19222523396466634
4400000000.0 1.0195044594696874 -0.19778200525351397
4403000000.0 1.0075852316926635 -0.19752480762044694
4406000000.0 0.9970156217626763 -0.22577140160382644
4409000000.0 1.0251069103546426 -0.23309080189599476
4412000000.0 0.9726845789847586 -0.26846081594838855
4416000000.0 0.9745030234255501 -0.2428664416245475
4419000000.0 0.9942918967749081 -0.2625760414107625
4422000000.0 0.982650414842881 -0.2396849948399364
4425000000.0 1.004321427774491 -0.2270988335254241
4428000000.0 0.9709810264002007 -0.2723935494688451
4431000000.0 1.001125749508333 -0.27356422844938666
4434000000.0 0.9502972227368636 -0.29289464539025223
4438000000.0 0.998937601653648 -0.310202686468211
4441000000.0 0.9917820977455869 -0.29925694515207873
4444000000.0 0.953809463782064 -0.30317379430222224
4447000000.0 0.9571684491557259 -0.34615919254021
4450000000.0 0.9530053847388971 -0.30345972175449365
4453000000.0 0.9876224471727704 -0.343557012975683
4456000000.0 0.9298255006601562 -0.35114032664101585
4459000000.0 0.9067930898719578 -0.35513482945183394
4462000000.0 1.007058830377742 -0.3831085537917609
4466000000.0 0.9703697160180251 -0.39407680985521987
4469000000.0 0.9570913906801396 -0.36196317587277227
4472000000.0 0.9636483677956532 -0.41066217813837463
4475000000.0 0.8990168851207248 -0.3790043296521346
4478000000.0 0.9541652328976814 -0.4451128262377195
4481000000.0 0.8853580243892223 -0.41114036530640985
4484000000.0 0.9111045612927824 -0.4372610681485566
4488000000.0 0.8965996039465636 -0.43889079102869566
4491000000.0 0.9275866752870742 -0.45386600067271005
4494000000.0 0.9031513456371683 -0.4333176577724295
4497000000.0 0.9004228390942368 -0.4210985068739369
4500000000.0 0.9037673388960272 -0.46619456411937393
4503000000.0 0.9383287356720675 -0.4788346027615325
4506000000.0 0.8817558846775055 -0.4765818731512678
4509000000.0 0.8790976276268028 -0.4843810496953499
4512000000.0 0.8645416231814812 -0.47797969598464285
4516000000.0 0.911259967186087 -0.5208038645582901
4519000000.0 0.8626427496848176 -0.48933478238023737
4522000000.0 0.8548448449043538 -0.5297121360298649
4525000000.0 0.873014282996456 -0.5012281720966095
4528000000.0 0.8870642700505693 -0.5481881426862567
4531000000.0 0.8799395946814358 -0.5136944684189435
4534000000.0 0.8316847565525135 -0.5502510772681832
4538000000.0 0.8417213897503506 -0.5462174828015237
4541000000.0 0.8069493376134564 -0.5959438863286247
4544000000.0 0.82319740939652 -0.5554270884257058
4547000000.0 0.8412500082930515 -0.5622718127522803
4550000000.0 0.8274704931411412 -0.6201972919735946
4553000000.0 0.8306358327528958 -0.6187155349415537
4556000000.0 0.8009407366461045 -0.5979667290586537
4559000000.0 0.8066989550795636 -0.6270755168253923
4562000000.0 0.8164430940629039 -0.6236065318603614
4566000000.0 0.8158572903391377 -0.6338036775598812
4569000000.0 0.7825090198694338 -0.6380171554101444
4572000000.0 0.7887391820708036 -0.641178147244348
4575000000.0 0.7740845636559259 -0.6704660460228484
4578000000.0 0.8117908717237707 -0.6616237152090299
4581000000.0 0.777429956192762 -0.666505290533907
4584000000.0 0.7518077673884634 -0.6540592285946887
4588000000.0 0.7947857275463902 -0.6888314291617785
4591000000.0 0.7683292229072336 -0.67435627086086
4594000000.0 0.732880905855803 -0.7032080658544563
4597000000.0 0.7498957621116173 -0.7025043926986012
4600000000.0 0.7118151037933578 -0.7139708911684086
4603000000.0 0.7522298106833062 -0.712191770689625
4606000000.0 0.7466488914210175 -0.7224374382187224
4609000000.0 0.7195738862448158 -0.7189722747898695
4612000000.0 0.7334036834243266 -0.7365911655786228
4616000000.0 0.6979120881729239 -0.7441518458594963
4619000000.0 0.7021419828067151 -0.734241015031076
4622000000.0 0.7075259197170093 -0.7504576509375523
4625000000.0 0.6518067457302696 -0.7391378364690736
4628000000.0 0.6891393205310749 -0.7400511562583204
4631000000.0 0.6443573311650739 -0.7682040934912276
4634000000.0 0.665612222430018 -0.7625695078965932
4638000000.0 0.6616510405567672 -0.7859352239887554
4641000000.0 0.6483948200707058 -0.7819159396794148
4644000000.0 0.6538315349611504 -0.7899741496408704
4647000000.0 0.6432681249999828 -0.7973025841128251
4650000000.0 0.6102305877124662 -0.7983438441826284
4653000000.0 0.632104240313823 -0.8013432310663308
4656000000.0 0.6128104703545825 -0.8107363442107509
4659000000.0 0.6217853940679267 -0.8176404933036138
4662000000.0 0.6188117040109791 -0.8204496651772467
4666000000.0 0.5871631922397781 -0.8305526037228013
4669000000.0 0.6115484034038301 -0.8246393372680445
4672000000.0 0.5827905635868499 -0.8511256814474951
4675000000.0 0.5663027885120833 -0.866416158133995
4678000000.0 0.5623248076952515 -0.840312203075878
4681000000.0 0.5517276788748002 -0.8675773576862397
4684000000.0 0.5474417248107323 -0.9029969245633123
4688000000.0 0.5333468019050462 -0.8747453346987322
4691000000.0 0.559801753273409 -0.872140511960545
4694000000.0 0.5236952943021618 -0.8558588567119085
4697000000.0 0.5088903232404698 -0.8385914820130989
4700000000.0 0.5178658651747458 -0.8675774207726785
4703000000.0 0.5103452928941667 -0.8375062779239193
4706000000.0 0.48134828678609204 -0.8954403163646317
4709000000.0 0.49018071275536096 -0.9044213522134185
4712000000.0 0.47512681243269284 -0.907347804931369
4716000000.0 0.4553623223260301 -0.9093074701758053
4719000000.0 0.5026247553593919 -0.9078385014106662
4722000000.0 0.4853302673837153 -0.9140534610192452
4725000000.0 0.4609735576607459 -0.9143691341329117
4728000000.0 0.4450807232105535 -0.9246112678217993
4731000000.0 0.46014903137521335 -0.9287663146108365
4734000000.0 0.46166810010209847 -0.9093062070736316
4738000000.0 0.4529502014253869 -0.9677891542260271
4741000000.0 0.4210336210856753 -0.9433253420071438
4744000000.0 0.3877848574797834 -0.9376771681431182
4747000000.0 0.4162197131677589 -0.9037978957561446
4750000000.0 0.3912387759001938 -0.9705392157192627
4753000000.0 0.403706849325426 -0.9801957974055198
4756000000.0 0.3790899653613552 -0.9702861537457128
4759000000.0 0.3740799395900415 -0.9677941240911324
4762000000.0 0.3349993142242431 -0.967415561894464
4766000000.0 0.3372759665762839 -0.940891389811012
4769000000.0 0.3546730209948562 -0.9991515064314548
4772000000.0 0.3417645601715693 -0.971089728853136
4775000000.0 0.30840688003128053 -1.0110355494457812
4778000000.0 0.3112397989421946 -0.9937611693084628
4781000000.0 0.3219290487969461 -0.940274608184172
4784000000.0 0.3370948246290862 -0.9781650784508186
4788000000.0 0.29632663291894373 -1.0038133492519548
4791000000.0 0.27314744340900277 -0.9982616591927737
4794000000.0 0.3082452105082883 -1.0112415678293933
4797000000.0 0.2674097874180733 -0.9711492059385208
4800000000.0 0.25047249414102823 -0.9923590944096503
4803000000.0 0.1957634678764809 -0.9839276184751606
4806000000.0 0.2167088690077758 -1.019756819452601
4809000000.0 0.1633720059488488 -1.0045930921640025
4812000000.0 0.18257265425194488 -0.9931022587968983
4816000000.0 0.2322644589824995 -0.9789468657475329
4819000000.0 0.24789510208819324 -1.0540551647692742
4822000000.0 0.22790168075444817 -1.0638865523639218
4825000000.0 0.20864586449989383 -1.0407198669595046
4828000000.0 0.17253520174401227 -1.0141915153329815
4831000000.0 0.1324578604036698 -1.0372673353111768
4834000000.0 0.19124453241140882 -0.9957133032359287
4838000000.0 0.13423705483114118 -1.0279677274947212
4841000000.0 0.13184626843171482 -1.0014682444413898
4844000000.0 0.16813607840186362 -1.0297218163386883
4847000000.0 0.1526640828043169 -1.0187543138207231
4850000000.0 0.11161640037494103 -1.067867958239544
4853000000.0 0.10138982256744103 -1.0014400781001978
4856000000.0 0.10220743297361734 -1.0204917444698132
4859000000.0 0.07944900165213833 -1.0678458153492674
4862000000.0 0.11858269910298608 -1.0156318398200146
4866000000.0 0.04658803555977431 -1.0490380150545526
4869000000.0 0.06312531829481473 -1.013706325656803
4872000000.0 0.03621155057304932 -1.0624048557290027
4875000000.0 0.08474246479261763 -1.0868748913605144
4878000000.0 0.04874154768289368 -1.0393972043668398
4881000000.0 0.02436696156355387 -1.0959030730348893
4884000000.0 0.044629377300479035 -1.0364977001053535
4888000000.0 0.05777050712416608 -1.0244856499106354
4891000000.0 0.03052554800919715 -1.0686856633684207
4894000000.0 -0.022490755483584396 -1.0216785742751766
4897000000.0 0.012209601568613955 -1.0442693198955701
4900000000.0 -0.021146118446284792 -1.0578255522380255
4903000000.0 -0.007303753603121334 -1.0538852241540029
4906000000.0 -0.017463294205049724 -1.0716478179589626
4909000000.0 -0.0549449834566959 -1.0426712591987246
4912000000.0 -0.07753181581248647 -1.0863640953211184
4916000000.0 -0.0363959539256993 -1.0505367064200664
4919000000.0 -0.015948195657442987 -1.0691191193359235
4922000000.0 -0.03592410425387138 -1.0383587153553016
4925000000.0 -0.12627544480339298 -1.0331020035373473
4928000000.0 -0.04212689174322638 -1.0188252683925263
4931000000.0 -0.09397962675183193 -1.0609210574529127
4934000000.0 -0.10709981340426546 -0.9896034102026269
4938000000.0 -0.1544795237459487 -0.9866519575134958
4941000000.0 -0.10239995150221014 -1.0182895729932475
4944000000.0 -0.12086785106421838 -1.000872398157796
4947000000.0 -0.1530076750879832 -1.013902446027172
4950000000.0 -0.15184178837854967 -1.0118531235367851
4953000000.0 -0.19036355110485703 -1.0784503820618463
4956000000.0 -0.17558593015696644 -1.018933954811419
4959000000.0 -0.2055043324640101 -0.9806421196316825
4962000000.0 -0.2140650597803572 -1.0465794577467429
4966000000.0 -0.14926073876470497 -1.0415121615721945
4969000000.0 -0.1519202466919437 -1.0547356379682826
4972000000.0 -0.21905292603926727 -1.023668841785507
4975000000.0 -0.1983763436041888 -0.9948282412331791
4978000000.0 -0.24348967279507372 -1.0167632464117622
4981000000.0 -0.27906195615074514 -1.0322179758605838
4984000000.0 -0.22579071143642507 -0.9701907532894041
4988000000.0 -0.200622296301254 -1.0165457191789131
4991000000.0 -0.20176468411259496 -1.0627374034016912
4994000000.0 -0.253291821786307 -1.0338127921050264
4997000000.0 -0.3065928382726723 -1.0250251822854664
5000000000.0 -0.25706766824304567 -1.0280107149356266
5003000000.0 -0.2663371803231159 -1.0357423865054936
5006000000.0 -0.31856309591882803 -1.0460777995945238
5009000000.0 -0.29764097174434867 -0.9980007597224724
5012000000.0 -0.32022883612327885 -0.9778804798529213
5016000000.0 -0.2847897067881959 -1.022509247402216
5019000000.0 -0.32673744944893857 -0.9803802518553377
5022000000.0 -0.3270179137080115 -0.9915268301822406
5025000000.0 -0.37625514075433825 -1.0371511712076895
5028000000.0 -0.3854134547843525 -0.9822275197861228
5031000000.0 -0.38519973303550137 -0.9674097361545327
5034000000.0 -0.40990002431945705 -1.0289532326087345
5038000000.0 -0.39931569336892614 -0.9512389564662
5041000000.0 -0.3453496096292321 -0.980928376505163
5044000000.0 -0.36751540194882215 -0.9775378754259149
5047000000.0 -0.39897624277922367 -1.0113852268286014
5050000000.0 -0.34019136046588216 -0.976653281840228
5053000000.0 -0.44834098690648205 -0.996900391354139
5056000000.0 -0.3629425934272754 -0.9720519991693735
5059000000.0 -0.3584132081234896 -0.964251937663963
5062000000.0 -0.495141921219321 -0.9869603194367094
5066000000.0 -0.42374598374404593 -0.9696372818328731
5069000000.0 -0.48170899727566274 -0.9788452594633538
5072000000.0 -0.4274739315762619 -0.8961646342982101
5075000000.0 -0.43993814357179073 -0.9299800039356565
5078000000.0 -0.5278280173173768 -0.9151628484470247
5081000000.0 -0.4729851096015752 -0.8958166661661479
5084000000.0 -0.47354956117718094 -0.9361657890238779
5088000000.0 -0.4585504745628174 -0.923254222640117
5091000000.0 -0.5104602040856803 -0.8846658784802011
5094000000.0 -0.5014170455320077 -0.9435972442186712
5097000000.0 -0.4900249847001552 -0.9769761937046653
5100000000.0 -0.5478010374094946 -0.9457588962248035
5103000000.0 -0.5619349601848044 -0.883734472356689
5106000000.0 -0.5222680132841155 -0.9206555024204071
5109000000.0 -0.4860363199116238 -0.9225163726874779
5112000000.0 -0.5582020454264983 -0.8379950591885665
5116000000.0 -0.5457816355897386 -0.8486938456881901
5119000000.0 -0.5967945471970356 -0.8890271348322993
5122000000.0 -0.5565182879295697 -0.8941065577261724
5125000000.0 -0.5440917472827479 -0.8399126685295889
5128000000.0 -0.5775456971360998 -0.8781418732521649
5131000000.0 -0.5999252157015776 -0.8746768801594378
5134000000.0 -0.5949260444668465 -0.8389481975615961
5138000000.0 -0.5340160135040115 -0.8825586883934305
5141000000.0 -0.538188082338988 -0.8949307042683192
5144000000.0 -0.5787963564931636 -0.8704563626549426
5147000000.0 -0.6431617132882185 -0.8828812098779909
5150000000.0 -0.5974283427020325 -0.8539868160157538
5153000000.0 -0.6353273123794634 -0.8228953593767185
5156000000.0 -0.667223931333005 -0.8853213785034226
5159000000.0 -0.682281842569516 -0.8279082203755418
5162000000.0 -0.6793415443652578 -0.8177321053143436
5166000000.0 -0.6900147882762542 -0.8432214582197012
5169000000.0 -0.6731330183784637 -0.8237293555711213
5172000000.0 -0.6462671310128616 -0.7870497447334269
5175000000.0 -0.693439721780826 -0.8280286075618296
5178000000.0 -0.7223765805500324 -0.7859804753297106
5181000000.0 -0.7033871820350575 -0.8121108210438104
5184000000.0 -0.7051380125045557 -0.7856514840658871
5188000000.0 -0.6967820374739552 -0.7406442316443743
5191000000.0 -0.7108629026648356 -0.7630918169810802
