! Created with skrf 1.8.0 (http://scikit-rf.org).
# Hz S RI R 50.0 
!freq ReS11 ImS11
4000000000.0 0.6094979425739842 0.7660006042965948
4003000000.0 0.6894989413070176 0.7703188434835565
4006000000.0 0.6623632015686655 0.7242460258372554
4009000000.0 0.6355618436148156 0.706587647535815
4012000000.0 0.6496798158302767 0.8083319320528574
4016000000.0 0.7034382061062348 0.7692692023288976
4019000000.0 0.6831639058778836 0.7622467621648455
4022000000.0 0.6478201183905593 0.7881866007734024
4025000000.0 0.7594411641661735 0.7425225573642249
4028000000.0 0.730850440650058 0.7529103740950394
4031000000.0 0.6942954955998536 0.7145488882724408
4034000000.0 0.6982300636954614 0.7196192279768924
4038000000.0 0.7433885278722235 0.7464219266414381
4041000000.0 0.7601336419775582 0.7282296156752117
4044000000.0 0.7910299371171838 0.7681243869344235
4047000000.0 0.726351804131747 0.7448489589083358
4050000000.0 0.7920484200913447 0.6940097716483498
4053000000.0 0.768228158740273 0.6769159012621841
4056000000.0 0.7593913836856407 0.6577235038556637
4059000000.0 0.7871541492909762 0.6758181644838432
4062000000.0 0.7975672622667928 0.6331804832867425
4066000000.0 0.7404318950010524 0.6300624302804643
4069000000.0 0.8465156635146256 0.6701259783774464
4072000000.0 0.7616312494224783 0.6543851321685035
4075000000.0 0.8159665307028554 0.6421558812602437
4078000000.0 0.8281755967063567 0.6233840222264224
4081000000.0 0.7535675779179074 0.6963133622436141
4084000000.0 0.837219998938849 0.6121359655329528
4088000000.0 0.7931752809075308 0.6384372171155747
4091000000.0 0.8651468763067579 0.6598089295558693
4094000000.0 0.7866380981562406 0.6370217217155317
4097000000.0 0.8349540717019467 0.6308706055543114
4100000000.0 0.8059530745311875 0.5868054224837649
4103000000.0 0.8547277915975104 0.6030663498307036
4106000000.0 0.8682263286081878 0.5891756740317914
4109000000.0 0.8724987302020244 0.5747015127271602
4112000000.0 0.8462251515590504 0.5497831624962308
4116000000.0 0.8659703885911157 0.5507996771713071
4119000000.0 0.8602189175795242 0.5378875688175419
4122000000.0 0.8675980798668249 0.5411620451438542
4125000000.0 0.9006904774065874 0.5123480916774119
4128000000.0 0.8211638996172153 0.5241705442559917
4131000000.0 0.8616365746918383 0.502911819837767
4134000000.0 0.8681152523167376 0.5035319062599997
4138000000.0 0.88936891310882 0.4648987896448194
4141000000.0 0.8773066185974507 0.4935333718498712
4144000000.0 0.8708519170114926 0.5652702048399396
4147000000.0 0.8977946701789717 0.4784301504391502
4150000000.0 0.8847159643129183 0.4616965530127503
4153000000.0 0.9237930783804085 0.43681164424191354
4156000000.0 0.9149949249033298 0.5069814296748094
4159000000.0 0.8883543759986006 0.44383708632668945
4162000000.0 0.9003719984028815 0.4375598572018443
4166000000.0 0.9353670545403325 0.4597409421156695
4169000000.0 0.9196160932243762 0.38639954350588435
4172000000.0 0.9385168112950744 0.42381337243894207
4175000000.0 0.9485116252201303 0.4224780899558907
4178000000.0 0.9412198661636856 0.4203473039040003
4181000000.0 0.9689335911333099 0.40570160655198073
4184000000.0 0.9139150820520503 0.38568553215938156
4188000000.0 0.931833938447906 0.3982938707074116
4191000000.0 0.9198831341834802 0.4011022058121754
4194000000.0 0.9192821532116991 0.34762686797738307
4197000000.0 0.961840629490662 0.3957563768178381
4200000000.0 0.9479820415311588 0.37858083826698663
4203000000.0 0.9596808069413902 0.373084907363333
4206000000.0 0.961604708648904 0.3404389533700421
4209000000.0 0.9509823590894356 0.32481386597071876
4212000000.0 0.967088822843744 0.28327279483776147
4216000000.0 0.9683713745286098 0.3142671679403853
4219000000.0 0.9992837771942632 0.320216967425496
4222000000.0 0.9764436725638959 0.274326059436953
4225000000.0 0.9628978025173842 0.2851819065592811
4228000000.0 0.9765379070680673 0.28311355249075776
4231000000.0 0.9904519910927359 0.2751628103813109
4234000000.0 0.9880297014973919 0.2533561400458268
4238000000.0 1.0023519228309765 0.23009446049521862
4241000000.0 0.9833585375499154 0.2314339905416431
4244000000.0 0.9742322972596681 0.2501672409469734
4247000000.0 0.9767149631043789 0.24111877433842904
4250000000.0 0.961050954790931 0.21208213570308276
4253000000.0 0.9662263401313156 0.19639108943150252
4256000000.0 1.0089648942259541 0.21895216645157967
4259000000.0 0.9563902007566583 0.20238670094275366
4262000000.0 0.9982621212479048 0.19542461973653594
4266000000.0 0.9901771383227927 0.16472336262741238
4269000000.0 0.9757371388522873 0.1953883819739933
4272000000.0 1.0056265494496663 0.15625129233962587
4275000000.0 1.001887032845301 0.16440003518069307
4278000000.0 1.016126349810332 0.1457459177902686
4281000000.0 0.9962657964048108 0.14822916796840524
4284000000.0 1.0173691974751404 0.11308183291959381
4288000000.0 1.0055697193149877 0.15480868827542232
4291000000.0 0.978272874824087 0.12613176854430702
4294000000.0 0.9983728546587148 0.0972970538015706
4297000000.0 0.9974626204076432 0.12554280083212987
4300000000.0 0.9859631756020655 0.08388091567088507
4303000000.0 1.0063362593567822 0.06770947012909669
4306000000.0 1.0134339980522489 0.12141016874155941
4309000000.0 1.0059286014836057 0.05325377138959893
4312000000.0 1.0256350048980112 0.0967794744275364
4316000000.0 1.0037417438851004 0.08268339717151198
4319000000.0 0.9917119052302441 0.06701422960188085
4322000000.0 0.9740883885404765 -0.009140276636689523
4325000000.0 1.0140040981188088 0.02355535903517185
4328000000.0 0.9590086194197298 -0.0008049792402245043
4331000000.0 1.005891783354975 -0.014968425990807818
4334000000.0 1.0088978383715306 -0.006873582853053645
4338000000.0 1.0152567056919666 0.00145778220862873
4341000000.0 1.0277123393573049 0.01411069434248266
4344000000.0 0.9929908707627458 -0.020676775801516223
4347000000.0 1.0159889941992446 -0.06291447611574796
4350000000.0 0.9763988734737589 -0.04905300868121602
4353000000.0 0.9989134920061744 -0.03502583328333726
4356000000.0 1.005424579190018 -0.09156053320801828
4359000000.0 0.9649483836145643 -0.0535965047750319
4362000000.0 1.0090727345589012 -0.12684596259581143
4366000000.0 1.0121883157686835 -0.09524294933660149
4369000000.0 0.980984445273743 -0.11370095606821774
4372000000.0 0.9641188824787599 -0.13173183924072235
4375000000.0 1.001798191221892 -0.0959404324953096
4378000000.0 0.972393631802232 -0.10894872011814397
4381000000.0 0.9657282422313751 -0.12560619741375592
4384000000.0 1.057903976177664 -0.1673286364966946
4388000000.0 0.9864213979471159 -0.12119154892820719
4391000000.0 1.0018957921008051 -0.15704694551912057
4394000000.0 0.9720458398563807 -0.17055097787535461
4397000000.0 0.9869295060165382 -0.18370351001706134
4400000000.0 1.0173895740108592 -0.1926993632157857
4403000000.0 0.995352073017044 -0.18938111249095554
4406000000.0 0.9927500830451111 -0.23343886085793325
4409000000.0 1.0208404375925801 -0.22468419014821034
4412000000.0 0.9615073931088385 -0.2726416490024344
4416000000.0 0.9666093288971889 -0.22971870122059626
4419000000.0 0.976432985642327 -0.268336923170131
4422000000.0 0.9671676084143654 -0.2193662961825248
4425000000.0 1.0024406253726394 -0.2324191941050826
4428000000.0 0.9593481162101883 -0.27316342440363955
4431000000.0 0.9930154529207289 -0.2624477949507716
4434000000.0 0.9629530078501807 -0.28087710815895917
4438000000.0 0.9834976405095952 -0.29504390581315415
4441000000.0 0.9722923948836666 -0.2939496172837895
4444000000.0 0.937193203725406 -0.3034603553087871
4447000000.0 0.9367107790519096 -0.3246937927725995
4450000000.0 0.9381987887060952 -0.3151753710358449
4453000000.0 0.9709517663972886 -0.33055257267224225
4456000000.0 0.9193165907166543 -0.33546888524269697
4459000000.0 0.9100632143168479 -0.35124794820617283
4462000000.0 0.9850292725348404 -0.3846978323895756
4466000000.0 0.9810998709818053 -0.41310854758738813
4469000000.0 0.9471032136812545 -0.36078878087602145
4472000000.0 0.9525050637128227 -0.4202047538538069
4475000000.0 0.9146881033699162 -0.37709713922005184
4478000000.0 0.9509502289219681 -0.4437431752347145
4481000000.0 0.8998396078116111 -0.3978469439009897
4484000000.0 0.8933279520923092 -0.442775347599335
4488000000.0 0.8996142539235614 -0.43565171704896655
4491000000.0 0.9223812864047933 -0.4498962065712816
4494000000.0 0.8857059845192998 -0.4339219747686753
4497000000.0 0.8976379336947113 -0.43730082584121527
4500000000.0 0.8902077249439722 -0.4538616738504561
4503000000.0 0.9185309423808481 -0.47565986312391073
4506000000.0 0.8901375082445326 -0.4754511508444204
4509000000.0 0.8854047762812056 -0.4688240068398868
4512000000.0 0.8724062349907805 -0.48187835553989167
4516000000.0 0.8949315160135921 -0.5002822748507931
4519000000.0 0.8700013044417276 -0.48737888085321457
4522000000.0 0.8678255641210926 -0.5290114053804182
4525000000.0 0.8876858440418218 -0.4870359322008915
4528000000.0 0.8852933947210428 -0.5313363962009733
4531000000.0 0.8651096203422373 -0.5074064339044021
4534000000.0 0.8317188945290644 -0.5301997312449506
4538000000.0 0.8315444931408651 -0.5395629479020811
4541000000.0 0.810321906034405 -0.5704448440232454
4544000000.0 0.8184736472580301 -0.5464498077229428
4547000000.0 0.8346935712982879 -0.5615235006061954
4550000000.0 0.8160180362111302 -0.6078980083423711
4553000000.0 0.831525844701783 -0.5934570400474986
4556000000.0 0.7961312448234914 -0.594728200903037
4559000000.0 0.8117179896389841 -0.6126305356056616
4562000000.0 0.8131260066557007 -0.607854199735826
4566000000.0 0.7961404864315225 -0.6256295845891104
4569000000.0 0.795175004362447 -0.5985025960642036
4572000000.0 0.7963857944443429 -0.6186117495582257
4575000000.0 0.771817747786071 -0.6450112007132403
4578000000.0 0.7866758590179062 -0.6393315682301487
4581000000.0 0.7670622611771908 -0.6754028892346647
4584000000.0 0.756953357664491 -0.6555490453380951
4588000000.0 0.7769784910797264 -0.6643912601038341
4591000000.0 0.760297004617545 -0.6613449924025545
4594000000.0 0.7352055008926803 -0.6978935497978263
4597000000.0 0.744056913536985 -0.7117584736220622
4600000000.0 0.7087459356851017 -0.7008017491729656
4603000000.0 0.7182505242339271 -0.7018130359713184
4606000000.0 0.7083276636287678 -0.721056078037103
4609000000.0 0.7164331862318086 -0.7037801753056496
4612000000.0 0.7019166634594801 -0.722249577790248
4616000000.0 0.685069094660623 -0.7203047101895487
4619000000.0 0.6983609854472702 -0.7290671588916656
4622000000.0 0.687955902548391 -0.7296552865702888
4625000000.0 0.6457148612526535 -0.736506242429379
4628000000.0 0.6783038413530884 -0.7392031953201457
4631000000.0 0.6505312430260244 -0.7573576161905293
4634000000.0 0.6539196162702411 -0.7706754948791038
4638000000.0 0.6514477403641072 -0.7655079438160176
4641000000.0 0.6615612168024197 -0.7575441710340097
4644000000.0 0.6243901757967879 -0.7716222026528131
4647000000.0 0.6415477048887298 -0.7855967465278324
4650000000.0 0.6239268995946622 -0.7947378035914394
4653000000.0 0.6214836059412648 -0.7949998581058807
4656000000.0 0.6031111415377861 -0.8156887104280819
4659000000.0 0.603153773832598 -0.8288652090481085
4662000000.0 0.6143524346846377 -0.8152233901920638
4666000000.0 0.5880055885861604 -0.829843816879866
4669000000.0 0.5814786043429915 -0.8125624443632423
4672000000.0 0.5627916632518538 -0.8565294494047705
4675000000.0 0.5487256436873011 -0.8540726098204958
4678000000.0 0.5405425716029315 -0.8212484150659205
4681000000.0 0.5412865292504672 -0.8585123094674381
4684000000.0 0.5151740886045573 -0.8614646657957366
4688000000.0 0.5197395958337305 -0.8550214544402509
4691000000.0 0.544658413180215 -0.8424143558179944
4694000000.0 0.5223741807416673 -0.8622162463819998
4697000000.0 0.4693792856476464 -0.8513992251521545
4700000000.0 0.5076265691282597 -0.8669289396600044
4703000000.0 0.5035592851495925 -0.8436514191788294
4706000000.0 0.4686557508568552 -0.8806304619580084
4709000000.0 0.47120098272535016 -0.9030056718948619
4712000000.0 0.506252289067257 -0.8944392974198899
4716000000.0 0.47416661791489584 -0.9142428730886607
4719000000.0 0.4849257249430313 -0.8813317373442395
4722000000.0 0.4633422294064282 -0.8742847413401467
4725000000.0 0.45832314748188735 -0.9136875176730543
4728000000.0 0.4345229171920332 -0.8925237708165865
4731000000.0 0.4689674058060327 -0.9448103707316946
4734000000.0 0.4513584861860993 -0.9029049974795558
4738000000.0 0.4222849578478657 -0.9492477182645336
4741000000.0 0.39444046298576846 -0.9386722752009617
4744000000.0 0.38955138176941206 -0.9467600872604682
4747000000.0 0.42319502682798327 -0.8949418917992347
4750000000.0 0.390370258464236 -0.9585984376891119
4753000000.0 0.4088280402872243 -0.9469570041598476
4756000000.0 0.35807852746206714 -0.9655594628834401
4759000000.0 0.3926390484671652 -0.9674395558475016
4762000000.0 0.3043826327895533 -0.9525796300475502
4766000000.0 0.3590554214385709 -0.924724920775622
4769000000.0 0.35750330638383243 -0.9674595986526845
4772000000.0 0.33779542706976334 -0.9641433023856626
4775000000.0 0.31309478412601305 -0.9971189658263591
4778000000.0 0.3092049853953801 -0.9701328233008567
4781000000.0 0.3110640861331534 -0.9218825521655032
4784000000.0 0.3157990663413684 -0.9792202619190408
4788000000.0 0.2794189713073777 -0.983855207529676
4791000000.0 0.27429642483601474 -0.981662884085719
4794000000.0 0.295243892833209 -0.9966355046876345
4797000000.0 0.26059534711386284 -0.9826761688202051
4800000000.0 0.25398927894129153 -0.9548691753803304
4803000000.0 0.224733704154856 -0.9777391753292037
4806000000.0 0.23388638560994834 -1.0118942416754735
4809000000.0 0.20900618268277452 -1.0042743470461748
4812000000.0 0.19123358687600137 -1.0089088811881843
4816000000.0 0.23508351788801152 -0.9835511199461955
4819000000.0 0.21195943825107655 -1.007023095403304
4822000000.0 0.20785713491846633 -1.032293226964807
4825000000.0 0.2294023558938289 -1.019127687822683
4828000000.0 0.17510505676268057 -0.9921112864234353
4831000000.0 0.1273669367536915 -1.0383677578284138
4834000000.0 0.18071610178991945 -1.00623499700273
4838000000.0 0.14113643202573353 -1.027376702926285
4841000000.0 0.1328407881242025 -1.0027619845438251
4844000000.0 0.18217926853684216 -1.0057375549929124
4847000000.0 0.1603787360648729 -0.977719904999903
4850000000.0 0.09880166401795937 -1.0301244629950996
4853000000.0 0.12357054170751877 -0.9946485816693564
4856000000.0 0.1043653747563712 -1.0124490583753798
4859000000.0 0.10131230912321902 -1.0713773244610851
4862000000.0 0.11408662147985554 -0.9883398412899115
4866000000.0 0.04685083655119191 -1.0285262486695577
4869000000.0 0.03197556293900969 -1.0358957950547898
4872000000.0 0.02920694129641599 -1.0599065102018936
4875000000.0 0.11969876587798471 -1.0632693735048544
4878000000.0 0.02791363767370474 -1.0205200393012426
4881000000.0 0.008318714040758995 -1.0942823427997275
4884000000.0 0.043014869436615366 -1.0186673169471885
4888000000.0 0.05612083917950578 -1.0042386387706606
4891000000.0 0.05407485524583899 -1.014001216816943
4894000000.0 -0.026612619376903346 -1.0000269419739034
4897000000.0 0.05436859558792766 -0.9873188561699493
4900000000.0 -0.0101495743614324 -1.0717910229836858
4903000000.0 -0.024410800862791848 -1.0596425623608472
4906000000.0 -0.05114981209844505 -1.0196290600379736
4909000000.0 -0.03193968076619512 -1.0471777176436063
4912000000.0 -0.07830956836319712 -1.0451287633061745
4916000000.0 -0.04331147657381438 -1.0651592375841752
4919000000.0 -0.026865984996872927 -1.0568007725080917
4922000000.0 -0.06634434746538218 -0.996610359175734
4925000000.0 -0.12353362501548282 -1.0524958847182166
4928000000.0 -0.028831491636557738 -1.0119287949997158
4931000000.0 -0.05315217512393923 -1.033018568354493
4934000000.0 -0.062448078972902846 -0.9767831301689358
4938000000.0 -0.11384254574539128 -1.0140245418510387
4941000000.0 -0.0851576674946294 -1.005713514524994
4944000000.0 -0.10696310536399578 -0.9782717581425684
4947000000.0 -0.12291229853210345 -0.9542759488521769
4950000000.0 -0.15263677096238593 -1.002454459597711
4953000000.0 -0.1950086149429342 -1.049289010306555
4956000000.0 -0.1597662779321814 -1.0151043634142447
4959000000.0 -0.19033583265539253 -0.9850769465717081
4962000000.0 -0.1795158943197452 -1.032839254237437
4966000000.0 -0.19100245348696732 -1.058316529725427
4969000000.0 -0.1696289805423512 -1.0452470139360557
4972000000.0 -0.20653102640590879 -0.9922153225782295
4975000000.0 -0.1564204271602148 -1.0238899389617426
4978000000.0 -0.241873963584187 -0.9943536799610831
4981000000.0 -0.24769603015655908 -1.0212773139285505
4984000000.0 -0.1866701109039238 -1.0035465610250136
4988000000.0 -0.24105388761809798 -0.9758438127290068
4991000000.0 -0.18449892774706894 -1.0186706479874488
4994000000.0 -0.27625235642148804 -0.9806262145038507
4997000000.0 -0.292195876960552 -0.9844433687799043
5000000000.0 -0.26661043721382394 -1.0263635885385272
5003000000.0 -0.2800995916896149 -1.035499769399878
5006000000.0 -0.29231665368316617 -1.0356151791487203
5009000000.0 -0.29060400600336767 -0.9727633915778472
5012000000.0 -0.31925368813636085 -0.9899347334480788
5016000000.0 -0.2839124746231873 -1.0292517070897338
5019000000.0 -0.3382473323123888 -0.9851406116960382
5022000000.0 -0.3060016613435812 -0.9984641210411738
5025000000.0 -0.3556456405574934 -1.0436167260308011
5028000000.0 -0.37593779478019884 -1.0011965834349075
5031000000.0 -0.35771073808748444 -0.9712810224759344
5034000000.0 -0.4150548901731369 -1.0088276180803246
5038000000.0 -0.3759695676066239 -0.9469545554339778
5041000000.0 -0.33035654909086276 -0.9794455334510285
5044000000.0 -0.36330772038206216 -0.9585541978117423
5047000000.0 -0.40231569668494044 -0.9728314723093224
5050000000.0 -0.3113737726861583 -0.9745002143827368
5053000000.0 -0.4396272605101338 -0.9445894072726073
5056000000.0 -0.4046345141545409 -0.9630530601839151
5059000000.0 -0.36609694006838195 -0.9669568535083154
5062000000.0 -0.4829536345691603 -0.922854427523033
5066000000.0 -0.4204158645428784 -0.9437773957221964
5069000000.0 -0.4310142099934332 -0.951236349557319
5072000000.0 -0.4001363519250944 -0.9198011198638489
5075000000.0 -0.4301879758200171 -0.9437861380649746
5078000000.0 -0.4981346273950153 -0.9010108635372784
5081000000.0 -0.4850612846484584 -0.8840805939737818
5084000000.0 -0.4652018284558921 -0.9416882986060422
5088000000.0 -0.48534922884964116 -0.8988869488345144
5091000000.0 -0.5036020255147029 -0.8858200412953172
5094000000.0 -0.5337638492605209 -0.9185005692189511
5097000000.0 -0.45905451274417386 -0.9142752249681045
5100000000.0 -0.47819526589384836 -0.9137510067543323
5103000000.0 -0.527476647210285 -0.8791978507738477
5106000000.0 -0.5239854570288027 -0.8874245628657951
5109000000.0 -0.4849392358075075 -0.9316577468169553
5112000000.0 -0.5558960537529821 -0.8581656935290718
5116000000.0 -0.5065762546753307 -0.8376974077685138
5119000000.0 -0.5617288199606182 -0.8826124784114495
5122000000.0 -0.5741259508059465 -0.8620594851843453
5125000000.0 -0.5542916444926634 -0.8808349308542822
5128000000.0 -0.5818823378191591 -0.8773249951527844
5131000000.0 -0.5770235187391448 -0.85755848009955
5134000000.0 -0.5916431778867077 -0.8772618899252657
5138000000.0 -0.5528024777228571 -0.8811202786823443
5141000000.0 -0.5649185733378612 -0.8490533695409215
5144000000.0 -0.5741626218112457 -0.856155676190858
5147000000.0 -0.6000533530636204 -0.8078944213728774
5150000000.0 -0.5873171086920244 -0.850072646311311
5153000000.0 -0.6240338526084424 -0.8420018504344597
5156000000.0 -0.636225620545566 -0.8580862627438991
5159000000.0 -0.6710592486693162 -0.8275537411371504
5162000000.0 -0.6277996522609287 -0.7882770945295978
5166000000.0 -0.699104665103497 -0.8206861073095264
5169000000.0 -0.655566504532059 -0.7968563381846414
5172000000.0 -0.626985434385303 -0.7927153462744634
5175000000.0 -0.6791929909720859 -0.8376522197870085
5178000000.0 -0.694489822723696 -0.8235170444798398
5181000000.0 -0.7050401273348686 -0.819877750657786
5184000000.0 -0.6635382070719081 -0.7787641327146134
5188000000.0 -0.6927105522518849 -0.7498565206021608
