! Created with skrf 1.8.0 (http://scikit-rf.org).
# Hz S RI R 50.0 
!freq ReS11 ImS11
4000000000.0 0.6216881728492255 0.8118240500925646
4003000000.0 0.70890186353521 0.8818080657527102
4006000000.0 0.6628755231499815 0.8043822619545609
4009000000.0 0.6594998080434008 0.8271332503362793
4012000000.0 0.6345487180630454 0.877533071611793
4016000000.0 0.7219206328985193 0.7896432349623095
4019000000.0 0.6474430715601753 0.7876312936373675
4022000000.0 0.653382343152193 0.8239216941593339
4025000000.0 0.7628481139284552 0.7521476093056608
4028000000.0 0.7317751708630225 0.7431053558744636
4031000000.0 0.6701430867542602 0.6973386424126243
4034000000.0 0.7094278316742838 0.7223715894466032
4038000000.0 0.737677018119668 0.7499332321734242
4041000000.0 0.725397396674006 0.7123355512955891
4044000000.0 0.7370169410999733 0.7494864060520409
4047000000.0 0.7332276482764845 0.7772503463691812
4050000000.0 0.7718613473076172 0.7277222605286029
4053000000.0 0.7925824914930237 0.6835225215447711
4056000000.0 0.7560861387742424 0.7307053158040399
4059000000.0 0.798767353634824 0.6877612218370872
4062000000.0 0.7534080008920268 0.6672729327344835
4066000000.0 0.7127216006482844 0.6457133573608357
4069000000.0 0.8198186822153255 0.6871868751963812
4072000000.0 0.7505412428121442 0.700463868778088
4075000000.0 0.8023169389556088 0.7350710135099481
4078000000.0 0.8179890804290033 0.6546498296196475
4081000000.0 0.7451104104466013 0.726179414299418
4084000000.0 0.8404593569039198 0.6369683559281236
4088000000.0 0.7743190357842424 0.6849479591173149
4091000000.0 0.8430897938949702 0.678712470126619
4094000000.0 0.803769769053322 0.6195708397192775
4097000000.0 0.8320828213709903 0.6316746405605997
4100000000.0 0.8352400927737241 0.594557019555207
4103000000.0 0.8251661858834414 0.6599461121690069
4106000000.0 0.875768360056457 0.5907788852487911
4109000000.0 0.8725869930728005 0.5976951791479759
4112000000.0 0.8825779889668586 0.592166687854951
4116000000.0 0.842687943092303 0.5349300491572585
4119000000.0 0.8677207299868108 0.5572427406572774
4122000000.0 0.8786580883150004 0.5223779882610035
4125000000.0 0.9115471443048172 0.5768682273442078
4128000000.0 0.8748510928323927 0.5720584034632538
4131000000.0 0.8588271382750515 0.5604575304792042
4134000000.0 0.8627468220946076 0.5331736018805954
4138000000.0 0.8699281921526061 0.47484450032146924
4141000000.0 0.8999813518864922 0.5112402391480534
4144000000.0 0.8822750647172813 0.5312340878869368
4147000000.0 0.8977040839787793 0.47846708847583136
4150000000.0 0.9393032233852425 0.5257585637543436
4153000000.0 0.9127419830088296 0.47357578941142175
4156000000.0 0.9403211814385426 0.4795932123019533
4159000000.0 0.9036115262745845 0.4894453712748445
4162000000.0 0.9159479441043614 0.4764876688873426
4166000000.0 0.9066085431224904 0.4395982689400423
4169000000.0 0.9515001010375942 0.42284890776429285
4172000000.0 0.9133274181310368 0.48032771810829394
4175000000.0 0.9294088938615743 0.46101289061891687
4178000000.0 0.921256914089015 0.4408328312301023
4181000000.0 0.9559975039469737 0.4275646670626414
4184000000.0 0.942592789831709 0.41401651384372723
4188000000.0 0.9224705996300897 0.4077724620313995
4191000000.0 0.9326802553374013 0.42417189482331946
4194000000.0 0.9486911852448987 0.3773481865482998
4197000000.0 0.9535943097039769 0.4051959807146959
4200000000.0 0.942888609216955 0.3795012966875403
4203000000.0 0.9465281516271742 0.38704481370900734
4206000000.0 0.9783572311469537 0.37696385104432945
4209000000.0 0.9317367014507539 0.35450105111215996
4212000000.0 0.9666330015316195 0.3033588183163005
4216000000.0 0.9630531365218078 0.3515136992679379
4219000000.0 0.9712942971854805 0.350664061488295
4222000000.0 0.9599400910775255 0.3162191276641571
4225000000.0 0.9576665705683287 0.313087592643455
4228000000.0 0.9847871738840821 0.32624308086213627
4231000000.0 0.9844091937564022 0.2962982670823676
4234000000.0 1.0086794900911282 0.2987735074300034
4238000000.0 0.9814430758619299 0.2664341148389936
4241000000.0 0.9845186286350864 0.25066255790818
4244000000.0 0.9671071210904246 0.27526009593057527
4247000000.0 0.9881717608434468 0.2574307415261936
4250000000.0 0.9696587793799136 0.22877646895273074
4253000000.0 0.9825261125781763 0.23897219941979292
4256000000.0 1.0070530063439003 0.23447755798203873
4259000000.0 0.9872043868900982 0.19806308377498963
4262000000.0 0.9981668353678341 0.21169168353567244
4266000000.0 1.0239971195107895 0.18866868184766095
4269000000.0 1.007673205996793 0.2130322008459379
4272000000.0 1.0132779209531915 0.20431467902327188
4275000000.0 1.0191740966926552 0.19914299282019715
4278000000.0 1.0177842702630155 0.1680664387149422
4281000000.0 1.0272537483919433 0.1710022670303959
4284000000.0 1.0016063084485771 0.14034240171100965
4288000000.0 1.003170897352401 0.1632805206613384
4291000000.0 0.9880972883006341 0.12433718441092882
4294000000.0 0.9815271116356579 0.13847146454826925
4297000000.0 0.9991243274454092 0.13494973460147236
4300000000.0 1.014474318301835 0.11496664994174333
4303000000.0 1.0111951884146013 0.1019729853474819
4306000000.0 1.0111426100063863 0.12203419327117493
4309000000.0 0.9906629899452505 0.11714331717085262
4312000000.0 1.0466151424392307 0.12413978653937677
4316000000.0 1.0314743768270147 0.11344447704144901
4319000000.0 1.0083832915993909 0.07347540316446484
4322000000.0 0.992468400765044 0.034338619141992946
4325000000.0 1.0160863390085906 0.06322529285993801
4328000000.0 0.9979699969812947 0.011401099014043237
4331000000.0 1.0311704561257844 -0.0022305699015020275
4334000000.0 1.0352055699770688 0.0026891478599992413
4338000000.0 1.00006250359311 0.02192666617933557
4341000000.0 1.0083272581576517 0.0544970387239907
4344000000.0 1.0343618972089275 -0.014840436692997366
4347000000.0 1.0004099558375101 -0.017223598704790982
4350000000.0 0.9924842736730253 -0.028875540731418764
4353000000.0 0.9996568107370138 0.006474851170990226
4356000000.0 0.999159794600876 -0.06954448694759917
4359000000.0 0.9710425205674996 -0.040793512961310535
4362000000.0 1.0081697667023155 -0.10455243941082742
4366000000.0 1.0288560389199082 -0.07339200161036541
4369000000.0 0.9784486527761684 -0.08540552231449282
4372000000.0 0.9797671866657294 -0.11665615395350347
4375000000.0 0.9927035252302849 -0.0744608334836783
4378000000.0 0.9891269860873727 -0.11474000984386097
4381000000.0 1.005283009162835 -0.09838403203933539
4384000000.0 1.0741255340527553 -0.11255492358908237
4388000000.0 0.9844878790511481 -0.10273831174426123
4391000000.0 1.0057605407966324 -0.14191616140954913
4394000000.0 0.9757860300339873 -0.14709575960289356
4397000000.0 0.9804047508592384 -0.1647822621145134
4400000000.0 1.0441244738216222 -0.16026647945804973
4403000000.0 0.9918322140990131 -0.17572478338743602
4406000000.0 0.9974828138252696 -0.20172186297782949
4409000000.0 1.01576916831244 -0.1918761888428621
4412000000.0 0.9794601046456529 -0.2510367264429053
4416000000.0 0.9828544065787272 -0.21098632155439603
4419000000.0 0.9829302996291686 -0.23732808541621137
4422000000.0 0.9661181173724236 -0.210747999745147
4425000000.0 1.0167492637007585 -0.2161347212454888
4428000000.0 0.9833067052173844 -0.24927798736438092
4431000000.0 0.9972228959382903 -0.22949086077142775
4434000000.0 0.9743174173866825 -0.268226636914633
4438000000.0 0.9998591286164922 -0.27942149644019426
4441000000.0 0.9799397339099802 -0.2814879517185728
4444000000.0 0.9517337005726347 -0.26719488031367933
4447000000.0 0.9566359697356934 -0.29575993414294593
4450000000.0 0.9644429144232278 -0.27774368298324437
4453000000.0 0.9876759111576203 -0.326261815829874
4456000000.0 0.930351358770755 -0.31442840535359895
4459000000.0 0.9050014563185897 -0.3335651695881905
4462000000.0 1.0161378736565112 -0.3552672840904939
4466000000.0 0.9804621823613132 -0.3686768689782083
4469000000.0 0.9559658988817124 -0.3377942413320866
4472000000.0 0.9584837624859687 -0.3903968485753436
4475000000.0 0.9149961145882822 -0.3466729899135256
4478000000.0 0.9696945477580624 -0.41909409111944496
4481000000.0 0.9144083982202822 -0.3910579355761057
4484000000.0 0.8971782377950173 -0.42408517557924097
4488000000.0 0.9166955327467137 -0.40688174393893684
4491000000.0 0.9387270403914089 -0.4147151070016044
4494000000.0 0.9128667089926432 -0.40810251642723944
4497000000.0 0.9018040941172871 -0.39810158690760544
4500000000.0 0.9192294216235224 -0.4242261720245272
4503000000.0 0.9427931515620853 -0.46172632019705806
4506000000.0 0.8866509034193473 -0.45499815517266007
4509000000.0 0.8909744491005129 -0.4412613323812571
4512000000.0 0.8640062855537143 -0.4577657775755889
4516000000.0 0.9230961516446707 -0.5035863876500887
4519000000.0 0.8636443789261257 -0.4589629335403138
4522000000.0 0.8825611366970922 -0.5030237080811975
4525000000.0 0.8735595575146735 -0.44032725892922975
4528000000.0 0.9164810548275488 -0.5188309369878218
4531000000.0 0.8806774868500789 -0.49224053555815594
4534000000.0 0.841003717793045 -0.4964121612618857
4538000000.0 0.8488998393691654 -0.5155911430206279
4541000000.0 0.8134627182392898 -0.5433692424087542
4544000000.0 0.8513284248285107 -0.5202846942069388
4547000000.0 0.8406874686522405 -0.5297978644241326
4550000000.0 0.8439749641767511 -0.5842093920447574
4553000000.0 0.8495130555537702 -0.5740314308359966
4556000000.0 0.8168199939008056 -0.5727143963712704
4559000000.0 0.8274971665880821 -0.6054174157579675
4562000000.0 0.82325296040318 -0.5989749023060758
4566000000.0 0.8319059747500572 -0.6051829850565456
4569000000.0 0.8060595772160206 -0.6029827393221561
4572000000.0 0.7971936832068623 -0.5795729808681894
4575000000.0 0.8069440075456242 -0.6475394220054057
4578000000.0 0.8355078733970371 -0.6249390479937763
4581000000.0 0.7935535925584974 -0.6470526388398004
4584000000.0 0.7869551224177042 -0.632485012259149
4588000000.0 0.7992130016568987 -0.6408846712465914
4591000000.0 0.7911943536930152 -0.646461896694321
4594000000.0 0.753456132704894 -0.6832763088212113
4597000000.0 0.7618810035021666 -0.672985340839113
4600000000.0 0.7130471030644729 -0.6867581585990559
4603000000.0 0.752330532015118 -0.6807985049844909
4606000000.0 0.7451540531779282 -0.6791437157497258
4609000000.0 0.7430901185777042 -0.696371640887545
4612000000.0 0.7440638387613758 -0.7013850650147402
4616000000.0 0.7100886432503257 -0.6949661178589797
4619000000.0 0.7335179949748966 -0.722383903182465
4622000000.0 0.7279105852532489 -0.7111886851766956
4625000000.0 0.6776213144447591 -0.7243863927751331
4628000000.0 0.723748015930191 -0.7033153542016893
4631000000.0 0.6754303265457569 -0.7519602288976214
4634000000.0 0.6820308747488171 -0.7493471647126733
4638000000.0 0.6801063441465119 -0.7482541170863227
4641000000.0 0.6741509550847496 -0.7516964389473801
4644000000.0 0.6772662146093222 -0.744613414318488
4647000000.0 0.6787605476002417 -0.771192521524051
4650000000.0 0.6394508686386094 -0.7837267354014389
4653000000.0 0.6921372794492348 -0.7933018775288253
4656000000.0 0.6257799420002024 -0.8010063449510818
4659000000.0 0.624683607964069 -0.7963107018634936
4662000000.0 0.6340495474884497 -0.7904601091106744
4666000000.0 0.63170032477637 -0.8044561736096839
4669000000.0 0.6331067888464779 -0.8005766129684793
4672000000.0 0.6086809983230199 -0.8248668263807025
4675000000.0 0.5929361736418653 -0.8535453932231001
4678000000.0 0.5803428823212007 -0.8041689054314265
4681000000.0 0.5778208363159968 -0.8520637942149407
4684000000.0 0.5539189976020213 -0.8384695570033013
4688000000.0 0.533815910183562 -0.8518736046676942
4691000000.0 0.5749227669116329 -0.8427112441641758
4694000000.0 0.5578833539771502 -0.843895983337468
4697000000.0 0.5231111682481941 -0.8352010664808069
4700000000.0 0.5595938672386847 -0.8666635235261679
4703000000.0 0.5494676767500549 -0.8189919819890648
4706000000.0 0.5109229397108033 -0.8793281320445158
4709000000.0 0.5010667835580471 -0.8753695240484098
4712000000.0 0.5246564303418382 -0.8846909925338335
4716000000.0 0.4619516591296827 -0.8860021540168801
4719000000.0 0.5042708812988317 -0.8735923005662364
4722000000.0 0.5027962877986715 -0.8570464748045628
4725000000.0 0.477342239456788 -0.898819865775794
4728000000.0 0.4502478097252878 -0.9222783533401064
4731000000.0 0.4715926059122403 -0.9122714443667779
4734000000.0 0.4663428499680609 -0.8910694735048827
4738000000.0 0.4625215536193549 -0.9444490532440445
4741000000.0 0.437190479194133 -0.955481874562792
4744000000.0 0.40195320192403033 -0.9542436309959165
4747000000.0 0.4286086246585704 -0.8491014008539004
4750000000.0 0.4441146374476541 -0.9569238232941469
4753000000.0 0.44695542868064425 -0.9602752024255341
4756000000.0 0.43800773330059334 -0.9494312355176653
4759000000.0 0.37697278954656865 -0.9394912538094906
4762000000.0 0.3798323201923383 -0.9749989511701518
4766000000.0 0.37103911169241044 -0.9461097548851187
4769000000.0 0.35728523391570716 -0.9448228956723598
4772000000.0 0.36739758947406853 -0.9452301313828584
4775000000.0 0.32935999277343686 -1.033814804245317
4778000000.0 0.35267991909021135 -0.9992070762650921
4781000000.0 0.33232487482381345 -0.9541455625332163
4784000000.0 0.34511495158206634 -0.9266191740896698
4788000000.0 0.2931321649269937 -0.9983208636088374
4791000000.0 0.31198273742757787 -0.9559906965828188
4794000000.0 0.3394525066611695 -1.0179811410623834
4797000000.0 0.2881741907575706 -0.9813435899859057
4800000000.0 0.2743897930574813 -0.9923976907345928
4803000000.0 0.2432203958818394 -0.9688454097013424
4806000000.0 0.2809049242221393 -0.9983519469691993
4809000000.0 0.24020915248247668 -0.9738661659163518
4812000000.0 0.19842164244022018 -0.9847408794938697
4816000000.0 0.2721511240573963 -0.9882205657733885
4819000000.0 0.27157336285290334 -1.0045309916968994
4822000000.0 0.2677750932798564 -1.0302586194284904
4825000000.0 0.2733281500850939 -1.0125906274250038
4828000000.0 0.1993616086508718 -1.0177712549422133
4831000000.0 0.14754224885084394 -1.034138079174323
4834000000.0 0.21050318530182022 -0.9960666474937419
4838000000.0 0.17616549451811978 -1.0258882333271568
4841000000.0 0.17963657761408347 -0.9957099436460332
4844000000.0 0.2098470358562565 -1.0136663438769808
4847000000.0 0.1858380330219508 -0.9828246157314289
4850000000.0 0.15560883294655167 -1.0301429147989087
4853000000.0 0.14643937474587534 -0.9939111697167347
4856000000.0 0.14134736364379685 -0.9875543135456922
4859000000.0 0.13755341070500815 -1.0634917173812815
4862000000.0 0.15405128656584263 -0.9992958720011177
4866000000.0 0.08898829870446964 -1.0280544669185019
4869000000.0 0.08338981825590888 -1.0207945455756917
4872000000.0 0.07656245835882186 -1.0571932920221103
4875000000.0 0.13434317306724086 -1.0720684566005403
4878000000.0 0.09607094221676504 -1.0505793039031348
4881000000.0 0.04544302409373316 -1.0695132309978854
4884000000.0 0.08259915949896174 -1.0368871726382018
4888000000.0 0.10407397686874721 -1.0427510948809562
4891000000.0 0.069109938230663 -1.0464866974670404
4894000000.0 0.014310872237848654 -1.0220790779313798
4897000000.0 0.05405583562930465 -1.0046045755591413
4900000000.0 0.017366534465092332 -1.0436294389828922
4903000000.0 0.036647663752665115 -1.0303553916663049
4906000000.0 0.023208139271984743 -1.0766511823524374
4909000000.0 -0.0029671610597112666 -1.0282088951690096
4912000000.0 -0.02225506684335466 -1.072326296428415
4916000000.0 0.02684863342309269 -1.0435295174257946
4919000000.0 0.014437198152801978 -1.0857820904540305
4922000000.0 -0.0350106899604567 -1.0509480397001505
4925000000.0 -0.11744852024809638 -1.0294930965821376
4928000000.0 0.008515299921470265 -0.993286624329146
4931000000.0 -0.023861639391614398 -1.045613169609673
4934000000.0 -0.05933254618383098 -0.9835908459438586
4938000000.0 -0.08884067797555938 -1.0253985905513208
4941000000.0 -0.08574690233445902 -1.018990498108912
4944000000.0 -0.08222384432326635 -0.9528237175834895
4947000000.0 -0.09247696540634479 -1.008688381097397
4950000000.0 -0.11505602175992634 -1.0083087415366174
4953000000.0 -0.16404584683260742 -1.070118660357139
4956000000.0 -0.12764767244147357 -0.9943405132354015
4959000000.0 -0.15266348736544597 -0.9866993796365099
4962000000.0 -0.16489741537431388 -1.0630468707644882
4966000000.0 -0.14219902650604316 -1.044325260494012
4969000000.0 -0.15123158826749017 -1.0936451139226688
4972000000.0 -0.1678156634885131 -1.0412089571667094
4975000000.0 -0.1561491458596687 -1.0388480271550422
4978000000.0 -0.17933236910413242 -0.9967947603588311
4981000000.0 -0.21699471828462777 -1.0221379780146675
4984000000.0 -0.167580286508873 -1.018148670715988
4988000000.0 -0.19612738508052352 -1.0113516772976407
4991000000.0 -0.1664698522259459 -1.0465743745801286
4994000000.0 -0.203578442429878 -1.0059858981371033
4997000000.0 -0.2744477740687193 -1.0151998491198477
5000000000.0 -0.2307341394612331 -1.0339581565703788
5003000000.0 -0.21657158256056702 -1.0562137596975028
5006000000.0 -0.24913096844457153 -1.0656048554722948
5009000000.0 -0.2684318982325975 -0.996372313552058
5012000000.0 -0.26585161642885585 -0.98668081404678
5016000000.0 -0.25176729628881434 -1.0299203371997412
5019000000.0 -0.28786781426524477 -1.004430349521723
5022000000.0 -0.29305751181298234 -0.9929813207163023
5025000000.0 -0.32386559623052985 -1.0304780550482557
5028000000.0 -0.3443482788637463 -1.0072763164456358
5031000000.0 -0.325799069157115 -0.9673418388994995
5034000000.0 -0.3669446451056262 -1.0136343979320759
5038000000.0 -0.3334231705342283 -0.9380778449248843
5041000000.0 -0.30953036387718624 -0.9656521998291309
5044000000.0 -0.29820109517839455 -0.9676129265747512
5047000000.0 -0.3285334308013825 -0.9976150770882232
5050000000.0 -0.26597932585407125 -1.0003546243043333
5053000000.0 -0.4075690673006681 -1.0400492439949767
5056000000.0 -0.29898923239893604 -0.9521262904673355
5059000000.0 -0.3243555459247363 -0.9691032493142385
5062000000.0 -0.44205348378936427 -1.017087017213141
5066000000.0 -0.37114120446275856 -0.9716503715567895
5069000000.0 -0.4186477337315444 -0.9875664333615378
5072000000.0 -0.38519523235907654 -0.954013640504227
5075000000.0 -0.4003464862679619 -0.9582139431628458
5078000000.0 -0.4466069812979944 -0.9336437678469343
5081000000.0 -0.4049619340414967 -0.9323300282611268
5084000000.0 -0.4521577245636964 -0.9581597129481472
5088000000.0 -0.44651400648165007 -0.9322293556822059
5091000000.0 -0.5047085070177433 -0.9084415036528106
5094000000.0 -0.47076729619279706 -0.9455562390819786
5097000000.0 -0.4620916516607212 -0.9385165842936507
5100000000.0 -0.5047937394989217 -0.9444678755092454
5103000000.0 -0.5396479549589388 -0.919122490223156
5106000000.0 -0.4843717155799901 -0.9406839331380226
5109000000.0 -0.4834525811464201 -0.9751798045558786
5112000000.0 -0.5319459030050083 -0.9081567800770189
5116000000.0 -0.49965174795149975 -0.8659222301843288
5119000000.0 -0.5506976740540415 -0.8888844642573728
5122000000.0 -0.5240278226271761 -0.9147385985855467
5125000000.0 -0.47264383061573895 -0.8758610764404839
5128000000.0 -0.5592827085438427 -0.8656126607382448
5131000000.0 -0.5665026435434067 -0.8818601306701118
5134000000.0 -0.5206595475308202 -0.8908545296776376
5138000000.0 -0.5702222676448075 -0.8875787063303363
5141000000.0 -0.5637536333127902 -0.8969557926687086
5144000000.0 -0.5496642865898524 -0.8282019972669449
5147000000.0 -0.5903757704604502 -0.8698697766769596
5150000000.0 -0.5575247492477209 -0.8989635889915746
5153000000.0 -0.5948166094552316 -0.8472427615328209
5156000000.0 -0.6064096567947851 -0.8414363166602002
5159000000.0 -0.6117977609514783 -0.9100661958235685
5162000000.0 -0.6622542889913344 -0.8031090336423681
5166000000.0 -0.6608237370350464 -0.8124030414035168
5169000000.0 -0.6336717682288888 -0.894319218907804
5172000000.0 -0.6372828909976695 -0.8309335952500663
5175000000.0 -0.6452473101828005 -0.8667948495110325
5178000000.0 -0.6152215468044326 -0.8058662065972457
5181000000.0 -0.6323671999247227 -0.832733460663881
5184000000.0 -0.6366943711027768 -0.8079502965737778
5188000000.0 -0.6760672253355998 -0.8180840233816256
