! Created with skrf 1.8.0 (http://scikit-rf.org).
# Hz S RI R 50.0 
!freq ReS11 ImS11
4000000000.0 0.6429614227560753 0.744890063544863
4003000000.0 0.6736469765462522 0.8443883329397119
4006000000.0 0.7046197155021985 0.7489045319961205
4009000000.0 0.6914838915713741 0.7325449687302765
4012000000.0 0.6764018485307248 0.8119133761973999
4016000000.0 0.7409237854699484 0.7440567903660993
4019000000.0 0.7129628615366428 0.7548007844879269
4022000000.0 0.6991911289118006 0.7979810758585916
4025000000.0 0.7935274214201522 0.7345994138727632
4028000000.0 0.7516073149042882 0.7188094971691865
4031000000.0 0.7126245925447716 0.7001995887213466
4034000000.0 0.7129080361493615 0.7183768155195493
4038000000.0 0.7476729974178526 0.6917839580148882
4041000000.0 0.7660892002302632 0.7123441748053676
4044000000.0 0.7806539956518996 0.719910618672912
4047000000.0 0.7579280751596176 0.7287519762451284
4050000000.0 0.8165289825091688 0.6590370589372527
4053000000.0 0.7446997783377568 0.6382336694901041
4056000000.0 0.793360114804979 0.6361467728463353
4059000000.0 0.7777136954642365 0.6616192824423683
4062000000.0 0.7906801869899203 0.6390437466637351
4066000000.0 0.7650875365785728 0.6052698543762264
4069000000.0 0.8494122308314195 0.6625746197365894
4072000000.0 0.7800444764596887 0.6386196499905115
4075000000.0 0.8447538827641782 0.6702931497709961
4078000000.0 0.8434525259209397 0.611174183001315
4081000000.0 0.808612155711054 0.6065006535226378
4084000000.0 0.8496876498585177 0.5928194496070482
4088000000.0 0.786677025053704 0.6104956425545368
4091000000.0 0.8659832555315017 0.5909713873091353
4094000000.0 0.8236559101451735 0.5853771188812646
4097000000.0 0.8237118109911562 0.5751919496608158
4100000000.0 0.879502268770831 0.5545080678106977
4103000000.0 0.8512179397863293 0.581006902636686
4106000000.0 0.8970310504232475 0.5345679195567196
4109000000.0 0.887889528276524 0.5432633539616858
4112000000.0 0.8435712636257648 0.5247252553251531
4116000000.0 0.8604850531038706 0.5450868243889059
4119000000.0 0.9091202322035253 0.5496027487684413
4122000000.0 0.8933365108738751 0.47185258994187007
4125000000.0 0.8987046809720984 0.5062467618415363
4128000000.0 0.8728447348762387 0.5095384248263763
4131000000.0 0.9067601928184367 0.475258498902258
4134000000.0 0.8791332297903766 0.5027936769674616
4138000000.0 0.8988492642822212 0.4381238112446068
4141000000.0 0.8950184260798834 0.44476859798098056
4144000000.0 0.9104041432531073 0.49753982674811065
4147000000.0 0.9170998871123925 0.44004714422418095
4150000000.0 0.9606510075062666 0.4785825366190361
4153000000.0 0.9159695601762822 0.4334561110282714
4156000000.0 0.947122652723484 0.4451946660253443
4159000000.0 0.9028152533514915 0.4328883173618207
4162000000.0 0.9203987631529926 0.3893845880915322
4166000000.0 0.9578626404347936 0.38096008482410637
4169000000.0 0.9231158428631059 0.37541000943704117
4172000000.0 0.9562684709338775 0.4136360240089641
4175000000.0 0.931114285719953 0.3870701203699562
4178000000.0 0.9872344393567839 0.3625859150820653
4181000000.0 0.9376717939195895 0.37107699174366093
4184000000.0 0.9387766857809362 0.343577514255016
4188000000.0 0.9476070141249118 0.3437610322129845
4191000000.0 0.9270735033973106 0.39337842999018185
4194000000.0 0.9328052824088925 0.32689797549082844
4197000000.0 0.9920752429719057 0.3173381785391867
4200000000.0 0.9646948033454132 0.33445925851488867
4203000000.0 0.9866991359494807 0.3394958698436369
4206000000.0 0.9669213041668422 0.3102757463059273
4209000000.0 0.9638230222632942 0.28021648760755763
4212000000.0 0.9826916792597655 0.27389467496905806
4216000000.0 0.9851487593022376 0.27644938550360615
4219000000.0 0.987639120534924 0.2908944728077204
4222000000.0 0.9997844982223791 0.25247328521956264
4225000000.0 0.9714551845918729 0.2628358115500089
4228000000.0 1.0030524630655897 0.2623151698916344
4231000000.0 0.9893919362443581 0.23006184081478936
4234000000.0 1.0126716029380525 0.2169293028524133
4238000000.0 1.0203332145271338 0.20057483669708762
4241000000.0 0.9920267988106346 0.20621369423720676
4244000000.0 0.97958426613606 0.2067222926674333
4247000000.0 0.9838039447393465 0.20865970772209463
4250000000.0 0.9737853304301218 0.1776361858585742
4253000000.0 0.9846629148947557 0.14521359099270853
4256000000.0 1.0125081016330855 0.17547248620501005
4259000000.0 0.9654518063643676 0.13125466303661476
4262000000.0 0.9937895726360606 0.11323527607459186
4266000000.0 1.038371526438501 0.10908595000590923
4269000000.0 1.0149614506748033 0.14055212671731504
4272000000.0 0.998641089753441 0.12919203224137177
4275000000.0 0.9922868012437123 0.11264464343664154
4278000000.0 1.0212404318519737 0.11465401347639498
4281000000.0 1.025322095642952 0.11454370558562678
4284000000.0 1.0025375156538856 0.04657283801678386
4288000000.0 0.9921273209816467 0.09402154096352369
4291000000.0 1.0008572917685432 0.059272627015990384
4294000000.0 1.0072221488712219 0.07339364229210867
4297000000.0 0.9970027687531116 0.06457214594875628
4300000000.0 1.0195973452599643 0.05291787049787557
4303000000.0 0.9860464015710997 0.02623146543066235
4306000000.0 1.0260744198529486 0.06014016882532741
4309000000.0 0.9864544882176949 0.03731685997571216
4312000000.0 1.02814578879816 0.01784445955781254
4316000000.0 1.0213345650439365 0.055474860426427255
4319000000.0 1.00541809763854 0.00797224671188658
4322000000.0 0.986792277889406 -0.03443591129206068
4325000000.0 1.0157073757240278 -0.02602846380612464
4328000000.0 0.9941630035488522 -0.029452422483304666
4331000000.0 1.005398332903193 -0.06430567036132
4334000000.0 1.0118360343910269 -0.04020301394027094
4338000000.0 0.9986001321466099 -0.057829186792910395
4341000000.0 1.031177977127201 -0.02213019419408857
4344000000.0 1.0117165787077063 -0.06425911822128788
4347000000.0 0.9994136487011004 -0.11287596558774907
4350000000.0 0.9646201762557673 -0.10398488816751067
4353000000.0 0.9861324944738548 -0.07755866057056322
4356000000.0 0.9999089616757886 -0.13521900698327693
4359000000.0 0.9472327709619557 -0.09995208682482895
4362000000.0 0.9952983155708099 -0.18146180851141006
4366000000.0 1.0086083718909586 -0.14756631858493569
4369000000.0 0.9497715714219894 -0.16255874994627356
4372000000.0 0.9793367348420072 -0.19357758745320416
4375000000.0 0.9961992766385404 -0.14956284364649067
4378000000.0 0.96045196612086 -0.16628581193385222
4381000000.0 0.9669869095067403 -0.1693640679651655
4384000000.0 1.056676488519956 -0.20917293639083243
4388000000.0 0.9883365716943557 -0.18623140211392597
4391000000.0 0.9993902837889517 -0.18868937524713167
4394000000.0 0.9657226126386784 -0.21288023042513063
4397000000.0 0.9735104807032715 -0.2395072072236396
4400000000.0 0.9988159575158477 -0.25054343138296736
4403000000.0 0.9785931915163076 -0.250558820436847
4406000000.0 0.9698349564564294 -0.2691618875328017
4409000000.0 0.997696510343073 -0.2746839297229689
4412000000.0 0.9592168055773915 -0.3047160384474697
4416000000.0 0.9481972052315029 -0.283024296562805
4419000000.0 0.9520896248355966 -0.32226399554500806
4422000000.0 0.9619746859782015 -0.2786237290273136
4425000000.0 0.9810896957163154 -0.2825993594537287
4428000000.0 0.9485039340856142 -0.3317482203799764
4431000000.0 0.9722966565448885 -0.32798021892132545
4434000000.0 0.938351191567536 -0.33255405643431774
4438000000.0 0.9651706449643269 -0.34500210118787633
4441000000.0 0.9702872658047821 -0.34369507208170097
4444000000.0 0.9285909797123546 -0.34757107439033685
4447000000.0 0.9376871287222842 -0.391609720168987
4450000000.0 0.9212160794939724 -0.3523329823822564
4453000000.0 0.9565253717627894 -0.3825180578675944
4456000000.0 0.906576121422817 -0.3890136426657406
4459000000.0 0.8723698017118562 -0.40438826210893386
4462000000.0 0.9716599407305344 -0.43877209529790673
4466000000.0 0.9348607992476136 -0.4483335538802452
4469000000.0 0.9298466097585293 -0.4271210618848138
4472000000.0 0.9253437936108047 -0.451305870391416
4475000000.0 0.869302428399118 -0.42382954423316965
4478000000.0 0.933452079140717 -0.4712727058428563
4481000000.0 0.8738007827255303 -0.45645442170424566
4484000000.0 0.8582605367116443 -0.49574289948003747
4488000000.0 0.8659657497897626 -0.47798275054482603
4491000000.0 0.8772635628910403 -0.4982987182103595
4494000000.0 0.8593655080696816 -0.4858131822132875
4497000000.0 0.8762356872254773 -0.48221403355913867
4500000000.0 0.8730148628803365 -0.4988450605555857
4503000000.0 0.8810163620361813 -0.5154863192150536
4506000000.0 0.8487799038720292 -0.5220562962441133
4509000000.0 0.8246137987822226 -0.5325035292173613
4512000000.0 0.8232440517856314 -0.5389305120968715
4516000000.0 0.850031341159186 -0.5452371114206375
4519000000.0 0.8285618911206566 -0.5150652493427897
4522000000.0 0.835528898913938 -0.568447469370534
4525000000.0 0.8358470349134284 -0.5468535885894156
4528000000.0 0.8306059453889847 -0.5764327330777479
4531000000.0 0.8410618151462402 -0.5621532287505198
4534000000.0 0.8174793914910004 -0.5717390947430412
4538000000.0 0.8087387730158606 -0.601676159712384
4541000000.0 0.7858874636767762 -0.6419434722598727
4544000000.0 0.7872954191565933 -0.5879199189139993
4547000000.0 0.7834576076942923 -0.5929101943845383
4550000000.0 0.8032078882567604 -0.6291461183785929
4553000000.0 0.7886802443711447 -0.6434917527408226
4556000000.0 0.763902649858319 -0.6478425291060461
4559000000.0 0.7658190142560272 -0.6657133725987883
4562000000.0 0.7778227088258165 -0.6643652934116298
4566000000.0 0.7651249849173329 -0.6599519872410113
4569000000.0 0.7260971696530479 -0.6491732433277346
4572000000.0 0.7420902082825066 -0.6712030346338116
4575000000.0 0.7129638734635717 -0.6982705339973738
4578000000.0 0.7583296677176246 -0.7026693348345672
4581000000.0 0.7220918767823299 -0.7062578110724911
4584000000.0 0.7073804942978792 -0.7159210961123
4588000000.0 0.7231437527214514 -0.7162411343326258
4591000000.0 0.7193127023649516 -0.7052095729675073
4594000000.0 0.6935705442720235 -0.7373881198185422
4597000000.0 0.7054376621944909 -0.7392475084415903
4600000000.0 0.6719580204048192 -0.7382584499418287
4603000000.0 0.6731938444303331 -0.751918561733198
4606000000.0 0.6808323895976506 -0.7481960778489473
4609000000.0 0.6588154553715505 -0.7561919746627063
4612000000.0 0.6686442003045184 -0.7705912016034685
4616000000.0 0.6316052695049434 -0.7636774853524898
4619000000.0 0.6440119790521973 -0.7686569082131451
4622000000.0 0.6383944185350146 -0.7881227168191912
4625000000.0 0.6055878728324123 -0.7795090659003459
4628000000.0 0.6425252435909966 -0.7768753438930528
4631000000.0 0.6196627133551655 -0.7910220789458368
4634000000.0 0.5991314149548558 -0.7985878879089392
4638000000.0 0.6035042407848116 -0.808141228392256
4641000000.0 0.6028210869553154 -0.8080236189418982
4644000000.0 0.5969738620071335 -0.8109055893435396
4647000000.0 0.5992822966387894 -0.8354250160135801
4650000000.0 0.5723170790192182 -0.8238587238710581
4653000000.0 0.56921511615227 -0.8466639353505386
4656000000.0 0.5555091666399232 -0.8370337052040069
4659000000.0 0.542583195506184 -0.8441230073699507
4662000000.0 0.5622799631622176 -0.8712452838860522
4666000000.0 0.5197941945922578 -0.8456970222113586
4669000000.0 0.5373150308449404 -0.8627717010773555
4672000000.0 0.5212969325050072 -0.8789492610707094
4675000000.0 0.5161130104413081 -0.8879537815597544
4678000000.0 0.48495529055387726 -0.8503702618251707
4681000000.0 0.44996288486363495 -0.8978944112099478
4684000000.0 0.4925250327946371 -0.9276343412746074
4688000000.0 0.4434428424881657 -0.9042340422184242
4691000000.0 0.5171865627403288 -0.900611561000964
4694000000.0 0.45615153707216105 -0.8895906515129897
4697000000.0 0.4118377606622645 -0.8670721044602179
4700000000.0 0.45602287110571704 -0.8823869432694833
4703000000.0 0.44862482993393543 -0.8812331627509948
4706000000.0 0.4541386932109456 -0.916343154618207
4709000000.0 0.39959154806474506 -0.8993898888640526
4712000000.0 0.44809330116777646 -0.9171080495104553
4716000000.0 0.3851771039000068 -0.9260370099865667
4719000000.0 0.43313698400358575 -0.9053755716858306
4722000000.0 0.42105389292613904 -0.9245954135613552
4725000000.0 0.4090723596430772 -0.946457887523245
4728000000.0 0.3621738337275277 -0.9238250197968729
4731000000.0 0.39000295747170494 -0.9793812278510046
4734000000.0 0.37757777284149646 -0.9149608946346048
4738000000.0 0.40084409642939445 -0.9804952475273381
4741000000.0 0.3227442497074097 -0.9625205627199406
4744000000.0 0.3054716700848349 -0.9441582603094056
4747000000.0 0.3204132606254038 -0.9195103662059176
4750000000.0 0.3419647115134486 -0.9586301795776585
4753000000.0 0.3386644519023205 -0.9655330461629698
4756000000.0 0.29002413864601506 -0.9756861877548733
4759000000.0 0.3122086996090549 -0.9758776356932958
4762000000.0 0.31077552236632244 -0.9920395589859708
4766000000.0 0.2765020781476357 -0.9707285079400805
4769000000.0 0.27686708435598145 -0.9671253319325078
4772000000.0 0.25919328460257596 -0.9822408071741259
4775000000.0 0.2325972665176422 -1.0513828240701353
4778000000.0 0.23913959916245814 -0.9853327946347085
4781000000.0 0.2703325264602201 -0.9660750072771958
4784000000.0 0.2333083879584353 -0.9793298161787994
4788000000.0 0.17997791134186888 -1.0110332714809993
4791000000.0 0.23211934991382 -0.9793861223785724
4794000000.0 0.22147157503922404 -1.009033307510822
4797000000.0 0.19108599688197772 -1.0026919576995648
4800000000.0 0.18887463656369755 -0.9748398701982248
4803000000.0 0.14148856587336398 -0.9907415696185722
4806000000.0 0.16534293256821941 -1.0342165139000317
4809000000.0 0.10391682027970803 -1.0096658830022778
4812000000.0 0.11814245184177727 -0.9874541612162426
4816000000.0 0.14000619711169685 -0.9841335980048169
4819000000.0 0.1577467498278659 -1.0392143896852803
4822000000.0 0.13934276599878356 -1.0459898420591076
4825000000.0 0.14577771733250963 -1.0461447160439494
4828000000.0 0.08780627811753533 -1.013672552122935
4831000000.0 0.06278656815650861 -1.0380033385504683
4834000000.0 0.09435692732891768 -1.0154334000346859
4838000000.0 0.05330644449457046 -1.027360126009311
4841000000.0 0.05795402744324002 -1.0102675920960502
4844000000.0 0.10883552603586297 -1.049349598190411
4847000000.0 0.06913947896282537 -0.9952361820678426
4850000000.0 0.03445979394496319 -1.03877651644479
4853000000.0 0.04792712227895097 -0.9931621760537632
4856000000.0 0.042642128483723396 -0.991256899137756
4859000000.0 0.005359031663237972 -1.0513251120716718
4862000000.0 0.014732756615667579 -0.9971253218978199
4866000000.0 -0.019405823531507993 -1.0326549444683009
4869000000.0 -0.033173017560361215 -1.0344669340987351
4872000000.0 -0.04045816436347508 -1.0619574521333746
4875000000.0 0.019487563758014803 -1.063019274058176
4878000000.0 -0.03707737470298599 -1.0334519916712304
4881000000.0 -0.05711517134723113 -1.09065073284509
4884000000.0 -0.02828271552198823 -1.0246563641168442
4888000000.0 -0.029551116118349957 -1.0162460670229163
4891000000.0 -0.04583229417266467 -1.0486800389463473
4894000000.0 -0.06527137954417853 -0.9872276600043642
4897000000.0 -0.06804931178775844 -1.0075785744867978
4900000000.0 -0.08327953225580316 -1.0270874196614181
4903000000.0 -0.08869010220778278 -1.0313802794353315
4906000000.0 -0.07084054985261604 -1.0591008357505998
4909000000.0 -0.14700926226206695 -1.0300985173320873
4912000000.0 -0.13271700679253812 -1.0499468553239415
4916000000.0 -0.11161341398651364 -1.0368762234829014
4919000000.0 -0.09115007148556219 -1.0721618239275739
4922000000.0 -0.12513615893465918 -1.051755389154413
4925000000.0 -0.19255107851853276 -1.0200011843554715
4928000000.0 -0.08997643153948694 -1.0192747662227077
4931000000.0 -0.13878483742092806 -1.0175831945344307
4934000000.0 -0.19127290826135396 -1.0024106237969892
4938000000.0 -0.20681115122595856 -1.0073685833457842
4941000000.0 -0.16730398764640136 -1.0094879638039986
4944000000.0 -0.17408054138407927 -0.9498559743992085
4947000000.0 -0.19460044350210862 -0.9787248869504908
4950000000.0 -0.2355939049264399 -0.9932537720593779
4953000000.0 -0.27988546633945305 -1.0397533667199186
4956000000.0 -0.27776023862728466 -1.0051016058077875
4959000000.0 -0.2582959739948918 -0.9711653959763411
4962000000.0 -0.26881752203946463 -1.0125822906866393
4966000000.0 -0.25102823571173066 -1.0163582940541822
4969000000.0 -0.24699551731686376 -1.0354116386620233
4972000000.0 -0.3186994390073914 -0.9836376703955997
4975000000.0 -0.2620696402187547 -0.9980982621444078
4978000000.0 -0.3439024318329653 -0.9585859783241208
4981000000.0 -0.3324934360935332 -0.9617034787784763
4984000000.0 -0.31968641380577556 -0.9764865658267621
4988000000.0 -0.312458672248863 -0.9901517833250947
4991000000.0 -0.27368688212452 -0.9939748398225414
4994000000.0 -0.2974239617902835 -0.9538312346847808
4997000000.0 -0.4047204919470702 -0.9614333684699546
5000000000.0 -0.32453962985372886 -1.0156935925845687
5003000000.0 -0.3623970511327416 -0.978000308235726
5006000000.0 -0.40168747143018513 -1.00888201498599
5009000000.0 -0.3713484848845118 -0.9299042231281653
5012000000.0 -0.4011697033832698 -0.961809200108029
5016000000.0 -0.3779087409372341 -1.0013461593510025
5019000000.0 -0.41374054762310086 -0.9345523335270056
5022000000.0 -0.415734649786639 -0.9441765581629413
5025000000.0 -0.4238105360488626 -0.9967541632458496
5028000000.0 -0.4400676638822377 -0.9543229403197819
5031000000.0 -0.44195409192250246 -0.9283757018727873
5034000000.0 -0.47595374201149676 -0.9155601002256368
5038000000.0 -0.4604053796340677 -0.8815262079017595
5041000000.0 -0.4433439966762963 -0.923659766459847
5044000000.0 -0.43936608618887585 -0.9431999042072899
5047000000.0 -0.4532833447971631 -0.9195734135788532
5050000000.0 -0.4047237810242126 -0.9470276675914466
5053000000.0 -0.5144401528031264 -0.9491081734683173
5056000000.0 -0.4753649301300299 -0.9144670621565893
5059000000.0 -0.45821965630421374 -0.950095002373948
5062000000.0 -0.5446466267747119 -0.9197200601203968
5066000000.0 -0.4710901326926522 -0.8879611807055336
5069000000.0 -0.5166947162214848 -0.8798100301167876
5072000000.0 -0.5068832904426858 -0.8684672870613859
5075000000.0 -0.5030034610328232 -0.8963370667967934
5078000000.0 -0.5660029208445219 -0.8903770217759974
5081000000.0 -0.5546994900113749 -0.8360600772897623
5084000000.0 -0.5816954751027299 -0.8792165715543157
5088000000.0 -0.5480403125437164 -0.885175903022607
5091000000.0 -0.6177040825247404 -0.8642859476142386
5094000000.0 -0.5559806699166356 -0.8276509506814206
5097000000.0 -0.5427609728604186 -0.9182434950716141
5100000000.0 -0.5939631049513526 -0.8619065053955325
5103000000.0 -0.6593121873136236 -0.7965050255772458
5106000000.0 -0.6166869939855507 -0.8573342169352293
5109000000.0 -0.5738424526500202 -0.8607097260131831
5112000000.0 -0.6037911410780545 -0.7892777383603176
5116000000.0 -0.6093770338318322 -0.781383067418997
5119000000.0 -0.646413710023907 -0.8334795384831426
5122000000.0 -0.596463184873143 -0.8378287920818801
5125000000.0 -0.6315432393945399 -0.7718821773387754
5128000000.0 -0.715426741901251 -0.7786690864066248
5131000000.0 -0.6753274113492863 -0.7833598217855028
5134000000.0 -0.6657944800058718 -0.7790602876253132
5138000000.0 -0.674756875022415 -0.8246192188648754
5141000000.0 -0.7039187908466473 -0.8202098026637115
5144000000.0 -0.6722589685718959 -0.7574402713135534
5147000000.0 -0.7247853874089358 -0.8064085840393038
5150000000.0 -0.6943244347703112 -0.766372828992725
5153000000.0 -0.7177620051589915 -0.7498880679361667
5156000000.0 -0.7164008016911377 -0.7531240801415264
5159000000.0 -0.7739133325734208 -0.7777712382934304
5162000000.0 -0.770343960926165 -0.6872772672710522
5166000000.0 -0.7292907133895146 -0.7025850921789828
5169000000.0 -0.7470018067548705 -0.7467580344383858
5172000000.0 -0.7261072290569455 -0.7037848582583898
5175000000.0 -0.7268555750349263 -0.7334338017607877
5178000000.0 -0.7753962464997419 -0.6965773718729319
5181000000.0 -0.7584037412131063 -0.7127776497040196
5184000000.0 -0.7488523517158003 -0.71815317033169
5188000000.0 -0.7652396117307886 -0.6821667870037514
