! Created with skrf 1.8.0 (http://scikit-rf.org).
# Hz S RI R 50.0 
!freq ReS11 ImS11
4000000000.0 0.6203571468829066 0.7891399033748738
4003000000.0 0.663732058215475 0.8737438130115528
4006000000.0 0.6849351983563013 0.7780980770253657
4009000000.0 0.6566832567053603 0.8563092300499615
4012000000.0 0.6848773274999437 0.8197508114996479
4016000000.0 0.695907382874314 0.8073347193637703
4019000000.0 0.7066866843645612 0.7603940948836925
4022000000.0 0.6045066849773268 0.8554358825948191
4025000000.0 0.7692296140898329 0.7317706426004671
4028000000.0 0.7050791870690355 0.7390740323518512
4031000000.0 0.6828905799524411 0.7328054438216656
4034000000.0 0.7164673373176377 0.7214031751821252
4038000000.0 0.7166428833967292 0.7155417587952284
4041000000.0 0.7316648705236773 0.739853279520852
4044000000.0 0.7709211224229521 0.7845222080344894
4047000000.0 0.7109936346492166 0.8223239150995988
4050000000.0 0.7830901048176084 0.7182121874265007
4053000000.0 0.7663545221504607 0.6717591367810347
4056000000.0 0.7561851283039123 0.7233324091351307
4059000000.0 0.7359224609445351 0.7079600441697367
4062000000.0 0.7557262466689247 0.6692510456771119
4066000000.0 0.7020707658134826 0.6188114871504993
4069000000.0 0.8088548735394524 0.698204226215113
4072000000.0 0.7511436296498025 0.6803378391388941
4075000000.0 0.8175644014805287 0.7723312323823592
4078000000.0 0.8238407029037486 0.7094517296554211
4081000000.0 0.7820244088467725 0.7496445079599448
4084000000.0 0.8012726706867208 0.6413578592361875
4088000000.0 0.7767824752651349 0.6580901167857802
4091000000.0 0.846951560054844 0.6572526785505941
4094000000.0 0.8174021209161714 0.6177380872388669
4097000000.0 0.7871704635585646 0.6108705678886297
4100000000.0 0.8011383036318017 0.5943657899983741
4103000000.0 0.8404921654126334 0.646475799669312
4106000000.0 0.8400499847176659 0.6163048214650996
4109000000.0 0.902362484588338 0.5881529371035445
4112000000.0 0.8592052603226419 0.5900447182252657
4116000000.0 0.8469502186103065 0.63037316992774
4119000000.0 0.8639538505472414 0.5835933219783352
4122000000.0 0.8807936107173889 0.5733089011289831
4125000000.0 0.9197513054247599 0.5587623028544864
4128000000.0 0.8715880324827056 0.552643672874127
4131000000.0 0.8409652532813318 0.5233081303713071
4134000000.0 0.8808063270025293 0.5351531855704817
4138000000.0 0.8614347312515869 0.4929006595020187
4141000000.0 0.8718630815699507 0.5072845069365889
4144000000.0 0.8908172756267518 0.5284792390466482
4147000000.0 0.8826675271591409 0.5079141029972436
4150000000.0 0.8860942626028493 0.49990483803800806
4153000000.0 0.9077237775494555 0.5193102504272509
4156000000.0 0.9310401795031684 0.4987752752466811
4159000000.0 0.878059184132973 0.4849118282058758
4162000000.0 0.898811040528888 0.49876591458623265
4166000000.0 0.9276066763218811 0.4700544898260417
4169000000.0 0.9370573152272509 0.4007655288097214
4172000000.0 0.9377531893954776 0.45292093670210315
4175000000.0 0.910792337054566 0.4570053751524131
4178000000.0 0.9429002748516201 0.4391567657747717
4181000000.0 0.9462359849711381 0.4246037987754433
4184000000.0 0.94988258519284 0.4337143132686478
4188000000.0 0.935385100231324 0.41185275658564613
4191000000.0 0.8915131121629881 0.42984856012711853
4194000000.0 0.921560287928877 0.38248360951990557
4197000000.0 0.9563955117316393 0.3918044938290269
4200000000.0 0.945152406515215 0.3880579276337932
4203000000.0 0.9598523408696312 0.41364420049173434
4206000000.0 0.9746310325166785 0.3683458854907303
4209000000.0 0.9572038814909364 0.3669759522590494
4212000000.0 0.9626272141114731 0.3151826390507626
4216000000.0 0.9767531528283534 0.355088741732619
4219000000.0 0.9568727820566468 0.3515469928371501
4222000000.0 0.9736871896669637 0.31756507061123945
4225000000.0 0.9606445388880003 0.32158271413213635
4228000000.0 0.97448912860848 0.3336476066570805
4231000000.0 0.9762470896192861 0.3020642586222136
4234000000.0 0.9976768523938032 0.2972834156578807
4238000000.0 0.9849528550514226 0.2738141550385498
4241000000.0 0.9696467423143604 0.26291397357506135
4244000000.0 0.9673307913306926 0.27450773081090174
4247000000.0 0.9925234820658959 0.2799597551077966
4250000000.0 0.9898699512527855 0.24888313745811436
4253000000.0 0.9707056554776918 0.22303052764872344
4256000000.0 1.008040219321512 0.2405695957728024
4259000000.0 0.9629192680506891 0.21275295283996107
4262000000.0 1.0072986049514765 0.20875574381140058
4266000000.0 1.017194983023233 0.18311588029180687
4269000000.0 1.002257480399172 0.21917072558971365
4272000000.0 0.9918886729370391 0.20756545335354765
4275000000.0 0.9972703979829249 0.18760418345209828
4278000000.0 1.0280508480787165 0.19250753270828097
4281000000.0 1.0037142259266534 0.19246558855723883
4284000000.0 1.0133365356672224 0.13249287789834863
4288000000.0 1.0011868031866396 0.17763177472268776
4291000000.0 0.978564516903268 0.13970017271259816
4294000000.0 0.9911322156206135 0.12494412054341285
4297000000.0 0.9938645393544672 0.14108623472488718
4300000000.0 0.9950538190425147 0.12263709482455304
4303000000.0 0.9841794760876025 0.11959001056965267
4306000000.0 1.0205727134974425 0.12581523623856425
4309000000.0 0.996801674891182 0.10494615678019402
4312000000.0 1.0304165280759137 0.1418163697090026
4316000000.0 1.013195384590233 0.07124639538064974
4319000000.0 1.0015429709850028 0.07446767834248559
4322000000.0 1.0000627778010645 0.02342680420006775
4325000000.0 0.9843194350339688 0.06864936674672371
4328000000.0 1.013391030560795 0.034907562130608846
4331000000.0 1.0117429529467146 0.010528359955573385
4334000000.0 1.0276687104469004 0.03727102193690532
4338000000.0 1.0363114380907672 0.05326765182139233
4341000000.0 1.0411109633281606 0.04142179981265581
4344000000.0 1.034752856285289 0.025454378645631104
4347000000.0 1.0369988672078339 -0.028402466497950946
4350000000.0 0.9841190615074288 -0.011670275761855947
4353000000.0 0.9884927514094728 -0.0008145046150497548
4356000000.0 0.9821271396815263 -0.05580014364154655
4359000000.0 0.9841701259223794 -0.04161252735364668
4362000000.0 1.0254373131074428 -0.10711929022327604
4366000000.0 1.0455394590685447 -0.05895916718390773
4369000000.0 0.9941921065804168 -0.07561316743703661
4372000000.0 1.0022003936330217 -0.12930502166004737
4375000000.0 1.0152398269403617 -0.07169601809244944
4378000000.0 0.9866618150679214 -0.08335481068730308
4381000000.0 1.0016595075437789 -0.0819139838958021
4384000000.0 1.0681559114239088 -0.14425984274806025
4388000000.0 0.9953612895720736 -0.08990136481858835
4391000000.0 1.0026858313512301 -0.117385993959062
4394000000.0 0.9546333042535669 -0.14753829136789126
4397000000.0 1.0060481603551852 -0.16015637962220036
4400000000.0 1.024684815664094 -0.17327631385679185
4403000000.0 1.0006640668760411 -0.15246669904431992
4406000000.0 0.9908489310914151 -0.1812089595591485
4409000000.0 1.0215944266210697 -0.19496991881955808
4412000000.0 0.9634408405461923 -0.24356827635191594
4416000000.0 0.975620173422701 -0.20584109009325088
4419000000.0 0.9869911829018533 -0.23254303364945747
4422000000.0 0.9814740066461975 -0.1826491743309437
4425000000.0 1.0158505991962592 -0.19970782583930832
4428000000.0 0.9798108292970196 -0.2527972218950764
4431000000.0 1.0125791497947825 -0.2444354666727258
4434000000.0 0.9677573928705607 -0.2532667127240853
4438000000.0 0.9948088703296092 -0.26119694059424675
4441000000.0 1.006789876141217 -0.2729792035800654
4444000000.0 0.9443596469422275 -0.2590763740330486
4447000000.0 0.9514244833599906 -0.3028137352579576
4450000000.0 0.9534921254866882 -0.2778266173793017
4453000000.0 0.9742815638603771 -0.30982910212262715
4456000000.0 0.9378952871148476 -0.316991460816585
4459000000.0 0.9117058303349359 -0.326026468540961
4462000000.0 1.0142997141517103 -0.34982594431331065
4466000000.0 0.9985567755412791 -0.350036050351624
4469000000.0 0.9643766260988662 -0.32073729033335296
4472000000.0 0.9498884353357612 -0.3847731575200263
4475000000.0 0.9211972967030034 -0.3380234772888909
4478000000.0 0.9761885901150703 -0.3948657624784302
4481000000.0 0.9123786880826559 -0.3870881967642441
4484000000.0 0.9121979447433328 -0.4400026222116187
4488000000.0 0.9180205046434404 -0.3905277314259839
4491000000.0 0.9245310430883873 -0.4084389905662019
4494000000.0 0.9018662618041628 -0.4128696360981712
4497000000.0 0.9187653896993937 -0.38595752235317804
4500000000.0 0.9069167747911941 -0.4200548714254933
4503000000.0 0.9281181460123724 -0.42245396166750787
4506000000.0 0.9125778809677108 -0.43507611614455666
4509000000.0 0.8829744261844823 -0.4465937701723359
4512000000.0 0.8534186419050532 -0.46621409172286654
4516000000.0 0.9165788909616518 -0.4790071241945952
4519000000.0 0.8822085954742145 -0.45317625341131096
4522000000.0 0.8888216312047679 -0.504301484103453
4525000000.0 0.8962222846653418 -0.4425380954893297
4528000000.0 0.8958041167224542 -0.5211394459857986
4531000000.0 0.8776533545940945 -0.49988681580768346
4534000000.0 0.8687932219641665 -0.5017146759387472
4538000000.0 0.8483208039875476 -0.5083681625592371
4541000000.0 0.8289125879150329 -0.5653668601035254
4544000000.0 0.8351524993548347 -0.5391149470485577
4547000000.0 0.8468737622013373 -0.5197018047673438
4550000000.0 0.8332851070835894 -0.5858873383331898
4553000000.0 0.838132924863181 -0.5708849978807039
4556000000.0 0.8170568160095328 -0.5808960524738588
4559000000.0 0.821309329723568 -0.5993482768304457
4562000000.0 0.8425312464371342 -0.5916745909169503
4566000000.0 0.8331205863003299 -0.6049707268844249
4569000000.0 0.8177048218504979 -0.595434894915938
4572000000.0 0.8062031944450875 -0.595290204921158
4575000000.0 0.7960528147793553 -0.6234802143684295
4578000000.0 0.8280971183194534 -0.6152825026995642
4581000000.0 0.7891957615670094 -0.6488879529702614
4584000000.0 0.779180419005766 -0.6422397653048151
4588000000.0 0.8089744054126667 -0.6296969639145175
4591000000.0 0.7939395519179671 -0.6352751733516605
4594000000.0 0.7600254418845257 -0.6696384956720135
4597000000.0 0.7706019657187553 -0.6625996002599471
4600000000.0 0.7396517734197344 -0.6739268533000559
4603000000.0 0.7673262172880723 -0.6837632216361854
4606000000.0 0.7548016641796634 -0.692364447491199
4609000000.0 0.742930153258977 -0.7086842254863807
4612000000.0 0.7480344182078852 -0.7011440592560575
4616000000.0 0.7230281692542211 -0.6904499438185013
4619000000.0 0.7275551783826134 -0.6955836033087688
4622000000.0 0.7252110475897203 -0.7149265688677392
4625000000.0 0.6630030510257954 -0.715896294160511
4628000000.0 0.7218029882387116 -0.7088901042422524
4631000000.0 0.6812799290277849 -0.7352909788253719
4634000000.0 0.6861211279282176 -0.7483002836533117
4638000000.0 0.6998340520762879 -0.7514104117313475
4641000000.0 0.7061868257865628 -0.7423155973891808
4644000000.0 0.6661530377433186 -0.7670567431810699
4647000000.0 0.6664260050729561 -0.7642518380385226
4650000000.0 0.6498972088199272 -0.7746892110098852
4653000000.0 0.671349939193212 -0.7839348793353713
4656000000.0 0.6344868049818622 -0.7943838890950174
4659000000.0 0.6341284350604797 -0.7904870472030955
4662000000.0 0.6347085346791947 -0.7952067636102228
4666000000.0 0.6072926982966164 -0.7972134762500693
4669000000.0 0.6306259842986512 -0.811343045437935
4672000000.0 0.5977468911747654 -0.8339788220846339
4675000000.0 0.5805503845344029 -0.8342393205090952
4678000000.0 0.5989072071909751 -0.8203943635552622
4681000000.0 0.5811701156917379 -0.8777939153570837
4684000000.0 0.5700460178255045 -0.8589610324960384
4688000000.0 0.5501899902600565 -0.8518698381221687
4691000000.0 0.5957053398061609 -0.8528580825236589
4694000000.0 0.5490239106566669 -0.8327287042404488
4697000000.0 0.5228844807120088 -0.8451369608378392
4700000000.0 0.5468316380928345 -0.8503424754289035
4703000000.0 0.5498166981494258 -0.8123163817510775
4706000000.0 0.5076841317601746 -0.878725700854907
4709000000.0 0.4926343469239861 -0.8862073430406029
4712000000.0 0.5052331392781801 -0.8835242917590069
4716000000.0 0.5196025131020432 -0.8910294381043149
4719000000.0 0.5094862319986964 -0.8835970400450146
4722000000.0 0.5210304235380581 -0.8795924411100076
4725000000.0 0.4913864986570197 -0.8912761927086714
4728000000.0 0.45293093825892816 -0.8978543051416319
4731000000.0 0.4818506079253605 -0.9127803570522133
4734000000.0 0.4757228816078314 -0.8799372978115345
4738000000.0 0.4659379697003375 -0.9605718318476993
4741000000.0 0.4209313097190652 -0.9344085676915219
4744000000.0 0.4370875474936185 -0.920416865168144
4747000000.0 0.4492706600735836 -0.887432177324618
4750000000.0 0.43816724546467956 -0.9279097844892009
4753000000.0 0.43778052934643674 -0.9248421040588404
4756000000.0 0.38615981858009324 -0.9121057420217225
4759000000.0 0.42207905419769454 -0.9451170877577694
4762000000.0 0.3891020258732345 -0.9661355651371636
4766000000.0 0.3506204199658459 -0.9291091807266427
4769000000.0 0.3707144952414102 -0.9440087218835084
4772000000.0 0.3766361489471779 -0.9628337672151271
4775000000.0 0.36023734275466057 -0.9972742065663733
4778000000.0 0.3546435233984848 -0.9705270228322417
4781000000.0 0.3729895969169628 -0.9585853963713917
4784000000.0 0.3549701136912913 -0.9520234402857101
4788000000.0 0.3374291988756926 -0.983568017948264
4791000000.0 0.31525758405992904 -0.9737606462444198
4794000000.0 0.34440610529186555 -0.9947214985498181
4797000000.0 0.30599829594206807 -0.9611269336412934
4800000000.0 0.30039989715088483 -0.9805014926321507
4803000000.0 0.24282251638896207 -0.9909050202545069
4806000000.0 0.2955205135321261 -0.9941305521474104
4809000000.0 0.21547578027100725 -0.9812537587546687
4812000000.0 0.23227900968615062 -0.9905235106991559
4816000000.0 0.2686145348127105 -0.9869922243036424
4819000000.0 0.2772014647003151 -1.0140957972013327
4822000000.0 0.26009827071930547 -1.0055610615464405
4825000000.0 0.2527639475409258 -1.0064793610859128
4828000000.0 0.21875412685991588 -0.9673193663835383
4831000000.0 0.20457579478515192 -1.03681661356135
4834000000.0 0.21974692370957793 -1.0181259595201528
4838000000.0 0.1932457361486991 -1.0347371191785877
4841000000.0 0.1722896093178749 -1.0269439419446358
4844000000.0 0.2249764008136203 -1.0078896011541305
4847000000.0 0.18447244814597544 -0.9883112086805554
4850000000.0 0.14710809665221464 -1.029133342842453
4853000000.0 0.14626443055984684 -1.009810010757821
4856000000.0 0.1469624919051572 -0.9803194480154999
4859000000.0 0.1221158091184602 -1.0504878718868742
4862000000.0 0.1467708516268773 -1.0064251168069502
4866000000.0 0.09644149566983293 -1.0241146264911214
4869000000.0 0.09152010196009638 -1.0293163402886278
4872000000.0 0.0912091303426554 -1.0624156313991582
4875000000.0 0.1415686733334388 -1.063411495848263
4878000000.0 0.08645696901560782 -1.0192362573987503
4881000000.0 0.03213006627696517 -1.0958567027144852
4884000000.0 0.0872992865775804 -1.0366388688032504
4888000000.0 0.11753104354733512 -1.0107494586641321
4891000000.0 0.06583105245323448 -1.0376944364986593
4894000000.0 0.0057468954186679225 -1.0291532100957503
4897000000.0 0.06820386395222966 -1.0270081931863264
4900000000.0 0.04435062621765218 -1.0502745403197826
4903000000.0 0.01235318322284491 -1.0460735117627744
4906000000.0 0.00293734525786718 -1.0679656479768331
4909000000.0 0.00043650453546602644 -1.0539285991898006
4912000000.0 -0.03731700826113249 -1.1005496873512397
4916000000.0 0.014030545070708618 -1.0547759308157993
4919000000.0 0.03724366048119336 -1.0311980903925702
4922000000.0 0.003426387794797217 -1.0130643070416026
4925000000.0 -0.06706323750863774 -1.0263515506775436
4928000000.0 0.020435267738957222 -1.0382962512234193
4931000000.0 -0.016059606944536745 -1.0617869844238432
4934000000.0 -0.06100461480810636 -0.9918855138164269
4938000000.0 -0.0921156377830498 -1.0314188290544406
4941000000.0 -0.08045223105872194 -1.008272258495702
4944000000.0 -0.05181057410392903 -0.981286730647329
4947000000.0 -0.07636887867167505 -1.0021779420305108
4950000000.0 -0.11709122648908991 -1.0027322475436409
4953000000.0 -0.14957844961724448 -1.0503298694377894
4956000000.0 -0.15460355294005024 -1.0366953404238042
4959000000.0 -0.16576087483080945 -0.9824924578995031
4962000000.0 -0.13123004356391202 -1.0818161920342013
4966000000.0 -0.11500286103870011 -1.0719395246622405
4969000000.0 -0.13784611303303507 -1.0879791514196933
4972000000.0 -0.1764721558560293 -1.0080276430962423
4975000000.0 -0.13703661920000829 -1.000596431228704
4978000000.0 -0.18916335280153013 -1.0299200674333335
4981000000.0 -0.2028169328805335 -1.0490893119763518
4984000000.0 -0.17221606914989554 -1.026185647502067
4988000000.0 -0.180051769030181 -0.9989755235022584
4991000000.0 -0.1681986744764144 -1.0464570547423169
4994000000.0 -0.17149710037247096 -1.0244671552101123
4997000000.0 -0.2514128552980722 -1.024093823041745
5000000000.0 -0.21772769093165917 -1.0142586670772857
5003000000.0 -0.2449909406741434 -1.0433607236714948
5006000000.0 -0.26134995635170477 -1.0464701091012945
5009000000.0 -0.26428255829649794 -1.026711729480671
5012000000.0 -0.2892817632745431 -1.0180597884576228
5016000000.0 -0.2298571654792344 -1.0196589919468166
5019000000.0 -0.26842395565985333 -0.9696603303985887
5022000000.0 -0.2571166961854549 -1.0106282339512764
5025000000.0 -0.3046730532452196 -1.0632509301643365
5028000000.0 -0.3284514372089635 -1.0307897906172017
5031000000.0 -0.32173794736462447 -0.9973233513570742
5034000000.0 -0.3755804413480722 -0.9930368345920324
5038000000.0 -0.3263784627731713 -0.9446405512785414
5041000000.0 -0.30403989302355827 -1.0301991005394946
5044000000.0 -0.305722430435718 -0.9721673714662434
5047000000.0 -0.3368170886693493 -1.0016529769028226
5050000000.0 -0.2599438503909741 -0.9823145835330518
5053000000.0 -0.39017763617461 -1.0268462529017055
5056000000.0 -0.28567806628773595 -1.012026063745295
5059000000.0 -0.31617725138376923 -1.0177512592457356
5062000000.0 -0.38436924798313576 -0.9973983038804686
5066000000.0 -0.3431968635791698 -0.9847449405441033
5069000000.0 -0.4221131956397186 -0.9666932580397875
5072000000.0 -0.38926731756666993 -0.9182232240867556
5075000000.0 -0.36176251866789244 -0.943337837183368
5078000000.0 -0.48455164298006065 -0.9411857968637811
5081000000.0 -0.4483982139600636 -0.9125827874385032
5084000000.0 -0.44704524116017996 -0.9314013918843123
5088000000.0 -0.4586559430931155 -0.9504093264650739
5091000000.0 -0.4580369273518781 -0.9249006409601883
5094000000.0 -0.4662742368495158 -0.9479301573000832
5097000000.0 -0.42977577987079185 -0.9288620682594975
5100000000.0 -0.4614063845749461 -0.8867863007617981
5103000000.0 -0.5409202911553107 -0.8788008209303203
5106000000.0 -0.48091946232324273 -0.943345073842937
5109000000.0 -0.42993859036868604 -0.9603467877432887
5112000000.0 -0.4612479013022609 -0.8728251798595874
5116000000.0 -0.47394719838531035 -0.880617756696934
5119000000.0 -0.5323364677923252 -0.8933652139594523
5122000000.0 -0.5284524959780773 -0.8969235293143567
5125000000.0 -0.49371133954008123 -0.9146453142600205
5128000000.0 -0.5630395524132457 -0.8687130137510892
5131000000.0 -0.5433420874983907 -0.9153428405031455
5134000000.0 -0.5209929407958552 -0.8874944190422211
5138000000.0 -0.5464366423198507 -0.9129386226671162
5141000000.0 -0.46527670027399776 -0.9271732508462118
5144000000.0 -0.5437606882823327 -0.946318542195114
5147000000.0 -0.565034355300155 -0.9283581558786865
5150000000.0 -0.5576903809306355 -0.8585713035092677
5153000000.0 -0.5746872118057496 -0.8602471858463199
5156000000.0 -0.5923185020873193 -0.8617792310479706
5159000000.0 -0.6285360201210626 -0.9096229220615705
5162000000.0 -0.6255317558835027 -0.8590957668779894
5166000000.0 -0.6436706324950888 -0.8679220358473753
5169000000.0 -0.636208997308681 -0.8841451586865238
5172000000.0 -0.6518335211047308 -0.8260859660880543
5175000000.0 -0.6500515256616125 -0.8852091565731149
5178000000.0 -0.654518970742977 -0.8349462344914051
5181000000.0 -0.6116958245609512 -0.8549602354593638
5184000000.0 -0.6669967906456664 -0.8391787444597022
5188000000.0 -0.6453626029832256 -0.7988345469929651
