! Created with skrf 1.8.0 (http://scikit-rf.org).
# Hz S RI R 50.0 
!freq ReS11 ImS11
4000000000.0 -0.40505816109594767 0.8972935152591832
4003000000.0 -0.4172602488151754 0.9843908310213924
4006000000.0 -0.3212071707619958 0.9804840562016051
4009000000.0 -0.33139474270688724 0.9729342877800933
4012000000.0 -0.3805411985619641 0.9803210982499607
4016000000.0 -0.30531234441700544 1.0075481423540746
4019000000.0 -0.283388827968462 0.9837221062437941
4022000000.0 -0.3835878133092864 0.9260092261227867
4025000000.0 -0.2026347170790889 1.0087793173460522
4028000000.0 -0.2906103730136622 1.0636475760456507
4031000000.0 -0.2813239962613305 0.9685287884860249
4034000000.0 -0.21203523385467524 1.0287867332455516
4038000000.0 -0.1838713764141684 1.0171342739060973
4041000000.0 -0.19815270141876423 1.0457358476592804
4044000000.0 -0.17356521946691658 1.1199913122576026
4047000000.0 -0.24786286294161514 0.999335005076763
4050000000.0 -0.1195271760837426 1.0791109098317802
4053000000.0 -0.0851485222573298 1.0013119648376492
4056000000.0 -0.12126103920016437 0.994058387400086
4059000000.0 -0.15842466190307689 1.0297044189365503
4062000000.0 -0.04535530003443103 1.0511318643192005
4066000000.0 -0.09531180226841464 0.9693284297119856
4069000000.0 -0.04662944539473309 1.0805435889810622
4072000000.0 -0.16013364070522096 0.9963360142711988
4075000000.0 -0.07609406644747914 1.0728735225883028
4078000000.0 -0.11578676577111967 1.052106985513709
4081000000.0 -0.18001816700677326 1.0631731891683986
4084000000.0 -0.005061613569489358 1.043495439363581
4088000000.0 -0.09051627460457581 1.0021564608574307
4091000000.0 0.0018270002004687202 1.1726154755104328
4094000000.0 -0.0075805231596337425 1.0891227550856417
4097000000.0 -0.028598922189481985 1.0371095745226018
4100000000.0 0.048478533082539535 1.0469462347698084
4103000000.0 -0.011481622498965678 1.0579228059986945
4106000000.0 0.0526677837454166 1.0071772429365375
4109000000.0 0.12832081388160715 1.0332077123235892
4112000000.0 0.11041620500592501 1.02489102492191
4116000000.0 0.03637465363614155 1.0442667055652886
4119000000.0 0.14226708800737192 1.026484636500424
4122000000.0 0.08942563539221073 1.0427429404315056
4125000000.0 0.18126009536517007 1.0911865392515288
4128000000.0 0.1377951909630956 0.9804954392285252
4131000000.0 0.13403199672404684 0.9971584711217651
4134000000.0 0.157617176831417 0.990992927476142
4138000000.0 0.22861550034773495 0.9501156993409017
4141000000.0 0.1916415119112038 0.9764366050134761
4144000000.0 0.1729689696102661 1.0310609370313506
4147000000.0 0.24972807746910253 0.9554401934583854
4150000000.0 0.21468204674048363 1.0032359554713388
4153000000.0 0.24940207554870625 1.0151222653740524
4156000000.0 0.24303101670959482 0.9943902622427556
4159000000.0 0.2496528989796471 0.9884997320248115
4162000000.0 0.2526714662788675 0.9949777538288309
4166000000.0 0.2963863388461101 0.9928016642622337
4169000000.0 0.3440409816082485 0.9678952915656355
4172000000.0 0.2998857905475083 0.9684328674298943
4175000000.0 0.30669280009059446 0.9590093613896988
4178000000.0 0.30831840769559615 1.0383174253320395
4181000000.0 0.3013704446450727 0.9805407467407666
4184000000.0 0.3918440356619225 1.0277937632249485
4188000000.0 0.3923124269152776 0.9937362424684824
4191000000.0 0.31163435870265527 0.9616106130435378
4194000000.0 0.35793681449522463 0.905262137913358
4197000000.0 0.3858094182590681 0.9655425463905611
4200000000.0 0.3899969242434118 0.9413766455538003
4203000000.0 0.3670857716566214 0.9290273439477432
4206000000.0 0.44642002795365443 0.9394159980623067
4209000000.0 0.38862039908108403 0.9475368559715402
4212000000.0 0.4332397006103533 0.9221612332074188
4216000000.0 0.45377012084775203 0.8979719105909891
4219000000.0 0.4622103420234879 0.9179533026370447
4222000000.0 0.4917818141309066 0.9173788250441979
4225000000.0 0.48262193959504485 0.9126968656830533
4228000000.0 0.47440740965120626 0.9456579843877139
4231000000.0 0.47410666696374615 0.8788365845997442
4234000000.0 0.4724225608376593 0.9481782849023916
4238000000.0 0.501595825860958 0.9019586891197682
4241000000.0 0.5135071388747844 0.9053132208021597
4244000000.0 0.5139651439251024 0.9061328944136688
4247000000.0 0.537564786820881 0.9223755812528773
4250000000.0 0.5447072542714378 0.8687403124463037
4253000000.0 0.5174596364905919 0.8619096092773524
4256000000.0 0.5434398413226165 0.8236640664435813
4259000000.0 0.574417897195 0.8613403530390515
4262000000.0 0.588055445850879 0.8464669270015618
4266000000.0 0.5697241167057109 0.833550925784435
4269000000.0 0.6063178543630863 0.874004065245842
4272000000.0 0.6026490251033823 0.8422471123208954
4275000000.0 0.6092719428848083 0.8294215251492196
4278000000.0 0.6002941754560127 0.805423882908002
4281000000.0 0.6050037052807254 0.8098760327109387
4284000000.0 0.6454139818747479 0.8072373292501829
4288000000.0 0.6465914198360599 0.8063090235703372
4291000000.0 0.6349622204735104 0.8037471728800775
4294000000.0 0.6287116768894094 0.7704394886988847
4297000000.0 0.6928570516694097 0.7558500699144594
4300000000.0 0.6957477319756042 0.793805115693401
4303000000.0 0.6808200586457873 0.7383242157841304
4306000000.0 0.688015869055136 0.7778427505306547
4309000000.0 0.698469496140561 0.7655060134881365
4312000000.0 0.7021527119700982 0.748029753295073
4316000000.0 0.7543622678563288 0.7225034486316595
4319000000.0 0.6951790190751911 0.739062792166877
4322000000.0 0.7119603552005846 0.671699384847652
4325000000.0 0.7306507437236328 0.6896023777487381
4328000000.0 0.7523344765848936 0.6817607375111796
4331000000.0 0.7806257357536108 0.6649926719134958
4334000000.0 0.7796434979590441 0.6707838761124464
4338000000.0 0.7522720498878067 0.6704782882266492
4341000000.0 0.7764762168807294 0.6951185532845812
4344000000.0 0.7651689878218176 0.6845660576267045
4347000000.0 0.7603303173229744 0.644786599564914
4350000000.0 0.8107568158284136 0.6291369043125288
4353000000.0 0.7685806610048029 0.6280132737423352
4356000000.0 0.812297251904348 0.6399503892642996
4359000000.0 0.7863873437560681 0.6278500605494949
4362000000.0 0.8381024791911171 0.5874819561809679
4366000000.0 0.8525205148523893 0.5977000069678109
4369000000.0 0.8130766239206626 0.5991932716681985
4372000000.0 0.8435526863203424 0.5482072138504342
4375000000.0 0.8267270070023729 0.5589305410284221
4378000000.0 0.8422169261204779 0.5795316572599
4381000000.0 0.8250437195334006 0.5695773827462994
4384000000.0 0.8965323104842068 0.5753767797835568
4388000000.0 0.8358291357408812 0.5548825193791154
4391000000.0 0.8522577217111351 0.5305358097159885
4394000000.0 0.8296083074689539 0.5181117354826243
4397000000.0 0.871271477233057 0.5310023562500733
4400000000.0 0.8788332606463367 0.5301609513013259
4403000000.0 0.8845680179837166 0.5185077449275981
4406000000.0 0.9027092321473669 0.4707166921768908
4409000000.0 0.92108804523822 0.5007341619801637
4412000000.0 0.9171066738158595 0.44609597024943265
4416000000.0 0.8914813116590765 0.4376257083566295
4419000000.0 0.9128956477724202 0.4310922612439438
4422000000.0 0.9042438171393172 0.4449347384074351
4425000000.0 0.9238548004702242 0.49329461384080664
4428000000.0 0.8959297741322598 0.422677420427533
4431000000.0 0.9551580132772388 0.435181752698484
4434000000.0 0.927458230275423 0.396705583737847
4438000000.0 0.9591924832599343 0.435751643835159
4441000000.0 0.9352198037980457 0.41547809460748625
4444000000.0 0.9208690849667043 0.39587276830990703
4447000000.0 0.9503367978117753 0.365890527044205
4450000000.0 0.92583221608244 0.3723506514317695
4453000000.0 0.970184420272236 0.3637936186832492
4456000000.0 0.9398089414669929 0.3272557008645637
4459000000.0 0.9173959912605054 0.2950116956503125
4462000000.0 1.0079396297424006 0.3441333585785221
4466000000.0 0.9892324746969922 0.31923129353916124
4469000000.0 0.9620151660105039 0.3157048626003462
4472000000.0 0.9940117699969646 0.2823304407600217
4475000000.0 0.9441170449786896 0.2809842617760311
4478000000.0 1.0275547124892066 0.28218958668940153
4481000000.0 0.9526377278796562 0.24157403433757474
4484000000.0 0.9734168537747798 0.21789459472187686
4488000000.0 0.9619867058386556 0.23243705050132984
4491000000.0 0.9919888118773373 0.2334212706566391
4494000000.0 0.971390987378705 0.22729919452397196
4497000000.0 0.9773515415498484 0.22842987710292645
4500000000.0 0.9825944008218317 0.23114243558041087
4503000000.0 1.0134814428409342 0.2183956911087524
4506000000.0 0.9873758013427023 0.17745175493052529
4509000000.0 0.9772366763512037 0.1656900833776111
4512000000.0 0.9783476713056244 0.1501839552388652
4516000000.0 1.0162257758667816 0.18721378795064927
4519000000.0 0.9648694882928024 0.15263865199702736
4522000000.0 0.9990252767024816 0.12521958768111055
4525000000.0 0.9775582921411727 0.17888202715589818
4528000000.0 1.0368426744923742 0.11710325665123861
4531000000.0 0.9977391876390752 0.13285078975019443
4534000000.0 0.9723694871672487 0.09979467027314877
4538000000.0 0.984931775379464 0.0733836474081444
4541000000.0 1.0134122689827496 0.046753257747863576
4544000000.0 0.992137728717577 0.06598069871650568
4547000000.0 0.993953482945954 0.0853894570963084
4550000000.0 1.0079770024201398 0.0315047763932169
4553000000.0 1.017239417987917 0.04969848047135145
4556000000.0 0.9757009298733583 0.025421601064001743
4559000000.0 1.012090189165452 0.004717649805242509
4562000000.0 1.022018724525448 0.006868716867629299
4566000000.0 1.0180953027177222 -0.0038645711241706085
4569000000.0 0.9737532263379078 -0.010420487871457815
4572000000.0 0.9932017619387844 -0.020202789237519586
4575000000.0 1.016467550103226 -0.05845681137653172
4578000000.0 1.0416591663901384 -0.02395969608822051
4581000000.0 1.0257520134195188 -0.06752787666767075
4584000000.0 0.9984463233589896 -0.06465797953317717
4588000000.0 1.0131691623984174 -0.0558399045591466
4591000000.0 1.0000659410776505 -0.043768564410092095
4594000000.0 0.9868551348887095 -0.11468769192002895
4597000000.0 1.0213092990019255 -0.1292130899260285
4600000000.0 0.9576843081758006 -0.13134353199574786
4603000000.0 1.015893668359251 -0.140568112786233
4606000000.0 0.9942588559939675 -0.13916485506296172
4609000000.0 1.00291296030419 -0.15032463264872464
4612000000.0 1.0250467286925518 -0.14762710233008455
4616000000.0 0.972790667719527 -0.15669985715263784
4619000000.0 1.00209660633611 -0.13941096746869144
4622000000.0 0.9736810484766714 -0.16450526977560218
4625000000.0 0.9414856726242424 -0.18508746035596352
4628000000.0 0.9375048813862391 -0.16971327871045824
4631000000.0 0.9444513918940405 -0.2501501558172363
4634000000.0 0.9817220713780177 -0.1973701535163206
4638000000.0 0.9834601000644589 -0.23379114416740437
4641000000.0 0.9983881789061483 -0.2304321989244254
4644000000.0 0.9676539062043416 -0.2609654249180212
4647000000.0 0.9881818999696538 -0.2550267328678276
4650000000.0 0.9596710627077145 -0.28561375830109065
4653000000.0 0.9967879518990757 -0.2900479070936456
4656000000.0 0.949672276044057 -0.31864202594506374
4659000000.0 0.9455719660531988 -0.29136885423278536
4662000000.0 0.9455129765926509 -0.2905268572087547
4666000000.0 0.948518643990934 -0.28595202728557984
4669000000.0 0.9410088318990402 -0.30421497518295904
4672000000.0 0.9346220045051417 -0.3730608470785566
4675000000.0 0.8995308537583071 -0.3616778244142102
4678000000.0 0.9250483046903475 -0.34748605836255425
4681000000.0 0.9438558687170373 -0.39710426765428164
4684000000.0 0.9039956357366121 -0.38778149390547145
4688000000.0 0.9332812522796923 -0.38957153872636663
4691000000.0 0.9083604599627065 -0.36923700203875565
4694000000.0 0.9251568734836243 -0.39347009176135206
4697000000.0 0.9118407568462352 -0.403881919101754
4700000000.0 0.9456382308928416 -0.41876588194813125
4703000000.0 0.8895700501912442 -0.4409044193488222
4706000000.0 0.9125470422045512 -0.4336210837800878
4709000000.0 0.888117022611932 -0.455364635101708
4712000000.0 0.8769667232427416 -0.46978534819195095
4716000000.0 0.8976625386533689 -0.4878867626546011
4719000000.0 0.920123795056108 -0.48637675950604226
4722000000.0 0.8943659103113151 -0.486721575791075
4725000000.0 0.8592393231657732 -0.49276812430003303
4728000000.0 0.8559116064805341 -0.48545219025467756
4731000000.0 0.8833102064911242 -0.4937372082494886
4734000000.0 0.8474856631740387 -0.49682621556804746
4738000000.0 0.8602104563513366 -0.5364317233655921
4741000000.0 0.8492646526880764 -0.5554386478144223
4744000000.0 0.8459151661438354 -0.5702560014875933
4747000000.0 0.8371437082119285 -0.5321252151637822
4750000000.0 0.8262676522779069 -0.5735713700335884
4753000000.0 0.8514339248844984 -0.5918047406503296
4756000000.0 0.809704654213209 -0.5905766670010095
4759000000.0 0.8154135004586307 -0.6033036755609011
4762000000.0 0.8220179215734724 -0.56577864100346
4766000000.0 0.7901171273966223 -0.570394029822296
4769000000.0 0.8319204643270555 -0.6449162631007056
4772000000.0 0.8091179597988924 -0.6413350076567829
4775000000.0 0.7935697541907618 -0.6298738920949947
4778000000.0 0.8189891893823182 -0.6038848586458784
4781000000.0 0.7841494433560156 -0.6097499341416415
4784000000.0 0.7809972300983362 -0.6154574715166111
4788000000.0 0.7870777003846211 -0.66962739528251
4791000000.0 0.760313010090128 -0.6863276589047836
4794000000.0 0.7508040150810251 -0.6790076813611943
4797000000.0 0.7469215773808058 -0.7083165188256213
4800000000.0 0.7169457094001349 -0.6870466970647273
4803000000.0 0.7250544620595841 -0.6809021483625155
4806000000.0 0.7201443705992938 -0.6954736256685659
4809000000.0 0.7003958502886627 -0.6910988306836279
4812000000.0 0.7132133665101239 -0.725868623705815
4816000000.0 0.6937896405976802 -0.69991855253747
4819000000.0 0.7194222493989944 -0.7377730684001903
4822000000.0 0.7135672832515408 -0.729096496737913
4825000000.0 0.7220753124186445 -0.737348919268697
4828000000.0 0.6831178627134805 -0.7320976947236378
4831000000.0 0.6522405521847036 -0.7898488238617964
4834000000.0 0.677306339779942 -0.751671673248006
4838000000.0 0.663779840206161 -0.7786587867270485
4841000000.0 0.637289124621794 -0.7703739096237038
4844000000.0 0.6774159742370371 -0.7671609629357322
4847000000.0 0.6425324566599314 -0.7588996400040074
4850000000.0 0.6469493618408548 -0.8109268058818331
4853000000.0 0.6206947421422548 -0.7805112604207356
4856000000.0 0.5996976821527791 -0.8106557639058002
4859000000.0 0.6284953498220782 -0.8274793452342906
4862000000.0 0.6125216100597289 -0.7887434345363558
4866000000.0 0.5994188805732834 -0.8352600063407731
4869000000.0 0.5768080886187539 -0.8315470976964576
4872000000.0 0.5710611801160278 -0.8619405433936306
4875000000.0 0.6147221854972763 -0.8530347903821368
4878000000.0 0.5608886931313114 -0.8472485565558219
4881000000.0 0.5666588257144535 -0.8964228515655216
4884000000.0 0.5646917545669342 -0.8484436601562404
4888000000.0 0.5804593618585427 -0.8480879980255894
4891000000.0 0.5670014280844328 -0.8606379723215251
4894000000.0 0.5109103967864752 -0.8900690645473893
4897000000.0 0.5169850652751636 -0.8512689036936884
4900000000.0 0.5175648707101381 -0.9051198839213603
4903000000.0 0.5167688504725315 -0.8910956437025465
4906000000.0 0.4820449545668314 -0.8902266189100615
4909000000.0 0.47517506006922666 -0.8929627532464395
4912000000.0 0.4931958196812578 -0.9358791847652846
4916000000.0 0.5017922200770489 -0.8929185777761295
4919000000.0 0.4888639147596283 -0.902343190703107
4922000000.0 0.4597897733591366 -0.8870150673223058
4925000000.0 0.40369262749574586 -0.9293428640556963
4928000000.0 0.4555311727664316 -0.8690108981416743
4931000000.0 0.4672979257199544 -0.9360833258894243
4934000000.0 0.43725937709994656 -0.865702387293994
4938000000.0 0.3793505761555172 -0.9498469882935652
4941000000.0 0.4307929295334337 -0.914441369625624
4944000000.0 0.39743979152058084 -0.8901293939329666
4947000000.0 0.37486472434202145 -0.8997421271763525
4950000000.0 0.385252790557729 -0.9261668963056768
4953000000.0 0.362103827562981 -1.0253976843096149
4956000000.0 0.3282273582744102 -0.9626816814530985
4959000000.0 0.3141934921737939 -0.9121455993758921
4962000000.0 0.3626655754057 -0.9759495423732946
4966000000.0 0.3505895516566895 -0.9905095834178701
4969000000.0 0.34959390961740333 -0.9961309985267819
4972000000.0 0.29355266856615836 -0.9874080319425361
4975000000.0 0.3495021770564869 -0.9396361860041593
4978000000.0 0.3139029138642399 -0.9777236446279748
4981000000.0 0.24718783233231262 -0.9970691780811973
4984000000.0 0.29441551939044586 -0.9550697407817822
4988000000.0 0.2811064867550028 -0.9545025709075358
4991000000.0 0.33429886348988097 -0.9803998616805748
4994000000.0 0.29959061102062434 -0.9728420136131825
4997000000.0 0.24827295040995356 -1.0387191582051263
5000000000.0 0.27365386528557945 -1.032530639670433
5003000000.0 0.2593333136801475 -1.0038082704132558
5006000000.0 0.23203955987185895 -1.0423021164410269
5009000000.0 0.20752221995877695 -0.9872661774082486
5012000000.0 0.20621174432525516 -0.9955947880221618
5016000000.0 0.23988768040418518 -1.034005618228772
5019000000.0 0.17695617830623828 -0.97920063072563
5022000000.0 0.16239125612041036 -1.0234361472144822
5025000000.0 0.195150190291427 -1.1072546050665333
5028000000.0 0.133354595801533 -1.0493491134151502
5031000000.0 0.1351244403046143 -0.988064470345201
5034000000.0 0.11184479142684904 -1.0679338191809182
5038000000.0 0.12738881542018432 -0.9796080069029574
5041000000.0 0.1635589435588433 -1.013180765846272
5044000000.0 0.16949758433379622 -1.0008542378469167
5047000000.0 0.16711511675235066 -1.0054767117487482
5050000000.0 0.2050284222878889 -1.0013865852335606
5053000000.0 0.09391874092938189 -1.0385832052920594
5056000000.0 0.14896577667253966 -1.0396187238688814
5059000000.0 0.15401215039116167 -1.028262717910962
5062000000.0 0.05846601446497965 -1.0650809183513743
5066000000.0 0.11191929003477369 -1.022727761109719
5069000000.0 0.061899392910532765 -1.0445649017356269
5072000000.0 0.032893735484084655 -0.982841095761606
5075000000.0 0.08408648008469846 -1.0483159173549434
5078000000.0 -0.022867306204412963 -1.0381249808435404
5081000000.0 -0.04174058835114096 -1.0092853739341054
5084000000.0 0.01582888690104184 -1.0644518564909344
5088000000.0 0.03086419872243667 -1.0037540903503117
5091000000.0 -0.06613493104402704 -1.0487045150889425
5094000000.0 -0.025029567450140122 -1.0404139248515407
5097000000.0 0.015325909957345708 -1.0516450631817882
5100000000.0 -0.022861851265740585 -1.0137110387953718
5103000000.0 -0.07683418742325956 -1.0351510616971331
5106000000.0 0.012443016062004403 -1.0799094683694634
5109000000.0 -0.022775900693045647 -1.0230093056537306
5112000000.0 -0.04081475659802924 -0.9837072894135006
5116000000.0 -0.09572073340067908 -0.9655963104139229
5119000000.0 -0.02174857717626383 -1.0640702949540826
5122000000.0 -0.06759117856943225 -1.036894214878265
5125000000.0 -0.10898957910843082 -1.0107455651938597
5128000000.0 -0.08950502793471105 -1.0614645499137216
5131000000.0 -0.05395328101869348 -0.982804929003038
5134000000.0 -0.09157542255455484 -1.0135103411226518
5138000000.0 -0.1509883002997901 -1.0500746390415467
5141000000.0 -0.08191949094879036 -1.0275821073185518
5144000000.0 -0.09108269005612828 -1.0034314085450984
5147000000.0 -0.15471929718292535 -1.0430811544373737
5150000000.0 -0.10250301227251235 -1.0549428603989965
5153000000.0 -0.16121759495410293 -1.0063016922683523
5156000000.0 -0.18380814005048807 -1.0915363508323324
5159000000.0 -0.17895828752246457 -1.031700279092798
5162000000.0 -0.1837241645527598 -1.007590720369274
5166000000.0 -0.22450702442381726 -1.0292412280796328
5169000000.0 -0.23066146928506315 -1.0452309268128148
5172000000.0 -0.2212955369147928 -0.9700177856410936
5175000000.0 -0.2267669165984862 -1.0433266704530828
5178000000.0 -0.26976113113767153 -1.016170068762987
5181000000.0 -0.19783718014470625 -1.0272027594304645
5184000000.0 -0.2706222587225041 -1.001214737007799
5188000000.0 -0.23998566295362161 -0.9743420237626159
5191000000.0 -0.28156395662549033 -1.024410107349639
5194000000.0 -0.2461318646840806 -1.0067638015092795
