! Created with skrf 1.8.0 (http://scikit-rf.org).
# Hz S RI R 50.0 
!freq ReS11 ImS11
4000000000.0 0.605736498349259 0.7956574863132955
4003000000.0 0.6479483995484483 0.8481790263861764
4006000000.0 0.6643213935458283 0.7773388212052227
4009000000.0 0.6810477058250345 0.8021325690811905
4012000000.0 0.6647234279144748 0.8150258207543694
4016000000.0 0.6820835187961739 0.7712951477154188
4019000000.0 0.6906171305933315 0.7820615455221976
4022000000.0 0.5972035423257422 0.8220510719634322
4025000000.0 0.7260092074448542 0.76777988997687
4028000000.0 0.7398698259947619 0.7306517812709483
4031000000.0 0.6517789575875534 0.7301907732076721
4034000000.0 0.6714058699901255 0.7244111196196362
4038000000.0 0.7734365930489562 0.7221509904295936
4041000000.0 0.6958963490052662 0.7020616961324643
4044000000.0 0.7667440552237254 0.7892637628058762
4047000000.0 0.7346282385837298 0.750923810252381
4050000000.0 0.7586937248052232 0.6896096798863608
4053000000.0 0.7403662770636005 0.6711565280428882
4056000000.0 0.7855635195451983 0.6807991307084077
4059000000.0 0.748840800749586 0.7019109951186875
4062000000.0 0.7947381750471348 0.6825510168010664
4066000000.0 0.7290687251277084 0.6250526179336446
4069000000.0 0.8366595296305733 0.6331136202312163
4072000000.0 0.7359730023442848 0.7114118587647438
4075000000.0 0.7625053519013048 0.6919411238774642
4078000000.0 0.7970931080682008 0.6778153683171055
4081000000.0 0.7952241055905874 0.717394455463712
4084000000.0 0.8076413473340512 0.6466947435765988
4088000000.0 0.7497311808213536 0.6768834719121513
4091000000.0 0.8496236046549401 0.677203392691444
4094000000.0 0.8270949460717264 0.6665284377848165
4097000000.0 0.8250591933991326 0.6479521802580601
4100000000.0 0.8164154778094989 0.6051664649389628
4103000000.0 0.8364316279524218 0.6130005925018753
4106000000.0 0.8264849531695961 0.6061919142389053
4109000000.0 0.8666715318516987 0.605185695863284
4112000000.0 0.8579419993887829 0.5905259655077231
4116000000.0 0.8109184473101562 0.5867800999360376
4119000000.0 0.8795641891642006 0.5408250236370314
4122000000.0 0.8857232486511618 0.543554656964735
4125000000.0 0.8931429362740004 0.5046277184331063
4128000000.0 0.857597772424852 0.5352940778429401
4131000000.0 0.8595558963376476 0.546246019003799
4134000000.0 0.8766298199489719 0.5575696128927061
4138000000.0 0.8745737179318138 0.5146129603711398
4141000000.0 0.8901305731121913 0.5067268535086873
4144000000.0 0.8981953585304586 0.5292351013212044
4147000000.0 0.9027654739984291 0.5051461066763336
4150000000.0 0.9140504942297007 0.5351836867053572
4153000000.0 0.9089759033092829 0.48068789449575167
4156000000.0 0.9207178619786509 0.5123949146443357
4159000000.0 0.879016639937515 0.48489714673416967
4162000000.0 0.8908221318378933 0.48167570886418176
4166000000.0 0.9332507745738967 0.4462597038143541
4169000000.0 0.892970129329877 0.42536961888916247
4172000000.0 0.9195254102442845 0.4673711192492453
4175000000.0 0.9338785628005696 0.46752747768304287
4178000000.0 0.9517689092391846 0.4469877170053247
4181000000.0 0.9727304023261549 0.3828743263756835
4184000000.0 0.9320860069809704 0.40031319548504923
4188000000.0 0.9506831332458807 0.40992977440718803
4191000000.0 0.919605183664213 0.4429906422903585
4194000000.0 0.933168819510325 0.3811057756060122
4197000000.0 0.9451358620970897 0.40753012379652115
4200000000.0 0.9472713563266717 0.3791384799865235
4203000000.0 0.947354694985749 0.38034225316293235
4206000000.0 0.9779804275197604 0.3691948994594823
4209000000.0 0.9394236826261084 0.34231779401818824
4212000000.0 0.9816537308782809 0.3405425580043091
4216000000.0 0.9689755223839491 0.3296895375882762
4219000000.0 0.9979362067779101 0.35105280070595657
4222000000.0 0.9726835602467836 0.3100490366706929
4225000000.0 0.9436573562987274 0.30459132536872924
4228000000.0 0.973233291589336 0.3136861112118208
4231000000.0 0.9751975004267752 0.3016387643589048
4234000000.0 1.0002329344663383 0.2948857902220982
4238000000.0 0.9871125522915156 0.2578230736244319
4241000000.0 0.9802002790814628 0.2651384840139507
4244000000.0 1.0025321023528975 0.2633821534400962
4247000000.0 0.9909970649320538 0.26915390956823243
4250000000.0 0.9722625104159721 0.22153121473105147
4253000000.0 0.966340091450764 0.23306835547086546
4256000000.0 0.997101235165164 0.2159971357116709
4259000000.0 0.9486098107912161 0.19537570972756377
4262000000.0 1.0080464406027063 0.1835271655577703
4266000000.0 1.0260191042256404 0.1755716880475136
4269000000.0 0.9975560176461464 0.22118520064549926
4272000000.0 0.9840520398648228 0.18742856278673664
4275000000.0 1.0222561995407407 0.17796438061886544
4278000000.0 1.0186583562900962 0.18891597353489314
4281000000.0 1.012872796464913 0.15425280520922974
4284000000.0 1.0071787578557494 0.13088485946934353
4288000000.0 0.9962130450700729 0.17761325851209586
4291000000.0 0.9824908795192072 0.12354155209232363
4294000000.0 1.0218828605000863 0.1269156234322717
4297000000.0 1.0138847215304785 0.13948565721220013
4300000000.0 0.9963366884963372 0.10894116767977799
4303000000.0 1.0018173420661303 0.10578346055796807
4306000000.0 1.000330425483842 0.1031955150717419
4309000000.0 1.014272841668685 0.1077242177198753
4312000000.0 1.0105454995278509 0.1455164650846622
4316000000.0 1.0044303296870023 0.07975076613932498
4319000000.0 1.0149925472462478 0.05881305361582721
4322000000.0 1.0117842159319343 0.013451503227218484
4325000000.0 1.0014660972274885 0.05968815693953895
4328000000.0 0.9983996581824708 0.024293370118723276
4331000000.0 1.023296753327857 0.02931679362436318
4334000000.0 1.0264033072531922 0.020273112963737933
4338000000.0 1.0057798112490843 0.024923447622291192
4341000000.0 1.0201065354530081 0.021139045129956707
4344000000.0 1.036677862535674 0.011944617905507104
4347000000.0 1.0511431747579427 -0.03441749764465435
4350000000.0 0.9747145627445597 -0.033324062964357345
4353000000.0 0.9655122965096012 -0.010053160070460948
4356000000.0 1.0115022937007039 -0.06217205159094384
4359000000.0 0.9599360335962921 -0.04754464335597938
4362000000.0 1.0135278890052641 -0.08768137532503081
4366000000.0 1.0053331333902016 -0.07084964046548696
4369000000.0 0.9590457988266559 -0.08969523468422143
4372000000.0 1.0068784133841642 -0.11629524818239034
4375000000.0 1.010222582533799 -0.0981149256448008
4378000000.0 0.9906639751318996 -0.10100773827533673
4381000000.0 0.9947024758239904 -0.10475883604413554
4384000000.0 1.0460833941030354 -0.15251847720826234
4388000000.0 0.985808261175025 -0.11795415537957321
4391000000.0 1.0001686284866789 -0.1340582138144455
4394000000.0 0.9889463175466586 -0.15392010251513374
4397000000.0 0.9927502109425799 -0.16393485034240063
4400000000.0 1.0231855821449976 -0.1823511015681859
4403000000.0 1.004720999812358 -0.19471146181746352
4406000000.0 0.9884104685377892 -0.20674789391877374
4409000000.0 1.017734400933286 -0.19283887329689287
4412000000.0 0.9697546769438888 -0.24576447138570323
4416000000.0 0.9768653303453891 -0.21383068601949137
4419000000.0 0.9853789932026947 -0.2381419577399011
4422000000.0 0.978187039344609 -0.21384102490351356
4425000000.0 1.008766802688847 -0.23406915683112178
4428000000.0 0.9747943821615925 -0.2489864946070079
4431000000.0 1.0090012678974385 -0.24199840278575174
4434000000.0 0.9696956979200201 -0.2695289910609302
4438000000.0 0.9892218973555953 -0.27771570987129635
4441000000.0 0.9920505780889175 -0.27587589981070276
4444000000.0 0.9516177570964997 -0.2723748282227792
4447000000.0 0.9451861041545153 -0.30819273913936096
4450000000.0 0.9523181138779377 -0.27909609528910473
4453000000.0 0.9860250791961945 -0.32038115324147787
4456000000.0 0.92923580059 -0.3266977143723397
4459000000.0 0.9128513504668794 -0.32972850963596834
4462000000.0 1.0129757460069586 -0.36058696391066797
4466000000.0 0.9812050236203658 -0.37888722979755984
4469000000.0 0.9636081283852989 -0.3398822093818664
4472000000.0 0.9519548737275099 -0.3939226616616087
4475000000.0 0.917255307690472 -0.3535454325288555
4478000000.0 0.9582360927304681 -0.4250692080907016
4481000000.0 0.9073941924434267 -0.3816360825127412
4484000000.0 0.9010390804077444 -0.4332704837812177
4488000000.0 0.9096169364439325 -0.40598736539935315
4491000000.0 0.9342498254343128 -0.4129256750784152
4494000000.0 0.9038752748090164 -0.401539410810458
4497000000.0 0.9058834378483946 -0.4121655391714581
4500000000.0 0.9274128207999235 -0.4267273294116759
4503000000.0 0.9253203047696847 -0.4496897772417408
4506000000.0 0.8913514758232999 -0.4607372047849994
4509000000.0 0.8718348227671477 -0.4477073121897841
4512000000.0 0.8804826491272923 -0.4765061938916403
4516000000.0 0.916574908480688 -0.47778693964668223
4519000000.0 0.8756540421149338 -0.4521159882064115
4522000000.0 0.8864083576253059 -0.5295327520858434
4525000000.0 0.907026923531741 -0.4629763890302606
4528000000.0 0.8875823425902787 -0.532293540073364
4531000000.0 0.8697393772652776 -0.4854531199040445
4534000000.0 0.8508363078868422 -0.511779028934601
4538000000.0 0.8566165586254433 -0.5140753972513986
4541000000.0 0.8437702857190776 -0.5741927301833513
4544000000.0 0.8522891677268507 -0.5421509967830714
4547000000.0 0.858637103607094 -0.5309615834161692
4550000000.0 0.8474560186048399 -0.5658503489587682
4553000000.0 0.8564477544818325 -0.582762819763424
4556000000.0 0.8021564179674228 -0.5736921802962355
4559000000.0 0.82735905741939 -0.6189486380533875
4562000000.0 0.823158098982594 -0.6051654019927317
4566000000.0 0.826075700639586 -0.5964035456914629
4569000000.0 0.8045555298230262 -0.6209784826835993
4572000000.0 0.7939015933697535 -0.5914074395733736
4575000000.0 0.7963444561253623 -0.652692451137574
4578000000.0 0.8213541257524313 -0.617332935237108
4581000000.0 0.7738922653597093 -0.6413791033197812
4584000000.0 0.7589828788164062 -0.6324041480782489
4588000000.0 0.7777827771591793 -0.654402594452416
4591000000.0 0.7733903561509576 -0.6414764029799581
4594000000.0 0.7713441027866046 -0.6793635563274858
4597000000.0 0.7588567281412992 -0.669058909713696
4600000000.0 0.7255839111915838 -0.6890340026014821
4603000000.0 0.7310367275097002 -0.6935302051254584
4606000000.0 0.7350515648400767 -0.7037969671711024
4609000000.0 0.7363718948308169 -0.695391048947307
4612000000.0 0.7322568972279286 -0.7186953454915027
4616000000.0 0.7074904962790904 -0.6976506685803694
4619000000.0 0.7191927785562774 -0.6986887718709184
4622000000.0 0.7122478921322117 -0.7137694876434573
4625000000.0 0.668544346893428 -0.7286397031533203
4628000000.0 0.699760232271948 -0.7179215770523337
4631000000.0 0.6756166742912542 -0.7470737231263257
4634000000.0 0.666057497092719 -0.7533626695887099
4638000000.0 0.6838153311361718 -0.7523843457175575
4641000000.0 0.6687790459752677 -0.7593221797841976
4644000000.0 0.6651191934730318 -0.7607008707549837
4647000000.0 0.6675744124071709 -0.7727544514112591
4650000000.0 0.6332183989243758 -0.7652015508762539
4653000000.0 0.6627684369876967 -0.7871675888146034
4656000000.0 0.6222986089817322 -0.7945341083179076
4659000000.0 0.6175892656825707 -0.7914334139745843
4662000000.0 0.6161898530402625 -0.7964954204799857
4666000000.0 0.6015073528308438 -0.8107549829137107
4669000000.0 0.6292605900307884 -0.8112563203036995
4672000000.0 0.6023111130624518 -0.830265207950687
4675000000.0 0.5949602294743421 -0.8151824034270355
4678000000.0 0.5627266513409953 -0.8132233411152348
4681000000.0 0.5875000217418774 -0.8463928944382635
4684000000.0 0.5416830774118606 -0.8444106442091291
4688000000.0 0.5614112558707233 -0.8401339326318489
4691000000.0 0.566820903150956 -0.8458974911106252
4694000000.0 0.550961965521866 -0.8293003118486666
4697000000.0 0.5059273269986958 -0.8322087161390583
4700000000.0 0.5236645880710578 -0.8294947566264337
4703000000.0 0.5301762102814509 -0.8363418362197572
4706000000.0 0.5152055831061308 -0.9065518206243299
4709000000.0 0.5081930279176761 -0.864713658137772
4712000000.0 0.5235487413931823 -0.88968584925838
4716000000.0 0.48267378209793366 -0.8888689009605171
4719000000.0 0.5180536586622757 -0.881152801051419
4722000000.0 0.5093978685976264 -0.8769001112782187
4725000000.0 0.47522688584827 -0.9063104472565605
4728000000.0 0.47555463526497943 -0.9037698506364742
4731000000.0 0.49026068211876705 -0.911356981759365
4734000000.0 0.47005043484801756 -0.9037574914382207
4738000000.0 0.47150356116486375 -0.9256429043432469
4741000000.0 0.40823211885390465 -0.9379743545842459
4744000000.0 0.4063219404272197 -0.9274438778653646
4747000000.0 0.42234824345597555 -0.904729263253257
4750000000.0 0.4410820702844167 -0.9319298589299384
4753000000.0 0.4009751167637615 -0.924985500464533
4756000000.0 0.40908614281499567 -0.9756556433491064
4759000000.0 0.4080637500222012 -0.958489764132149
4762000000.0 0.34570332138000587 -0.9655513473956236
4766000000.0 0.3329144059173386 -0.9368240754238668
4769000000.0 0.37956865644663484 -0.9393520109617812
4772000000.0 0.3624052047328825 -0.9603745834124625
4775000000.0 0.34259001572781045 -1.0251204791320947
4778000000.0 0.3073265533919012 -0.971218015376944
4781000000.0 0.3489358953872067 -0.9567509953654922
4784000000.0 0.33667926311706114 -0.9705849109340933
4788000000.0 0.3092846509126722 -0.989477965333974
4791000000.0 0.30186099163432656 -0.9832733010485738
4794000000.0 0.33127383639410685 -1.0116546329385712
4797000000.0 0.2937413837743149 -0.972466577922731
4800000000.0 0.27809699020272227 -0.9728036263806292
4803000000.0 0.25556606545265514 -0.9873231898646246
4806000000.0 0.26401603860153844 -1.0089316937844526
4809000000.0 0.2342880096734265 -1.0087441205843508
4812000000.0 0.19456924501589287 -0.982459793224977
4816000000.0 0.2657583882203428 -0.9814089339554541
4819000000.0 0.25256651690962945 -0.9996987685710188
4822000000.0 0.24209079207513423 -1.042400301531883
4825000000.0 0.26540701921304893 -1.0401191390612645
4828000000.0 0.19609681125749773 -1.0084245446919495
4831000000.0 0.1563240942646371 -1.0537082703831988
4834000000.0 0.21050688545271906 -1.011162313910369
4838000000.0 0.16089432674025533 -1.0447014903436347
4841000000.0 0.15213269365634452 -0.9997578077522572
4844000000.0 0.17411671464134248 -1.0280826624710684
4847000000.0 0.18352422395103457 -0.9760570349532474
4850000000.0 0.12739199176582236 -1.0523232232686295
4853000000.0 0.14016844223912625 -0.994307321502008
4856000000.0 0.12481766917228704 -1.0231259214188106
4859000000.0 0.11637424637523244 -1.0400705240308863
4862000000.0 0.1412907967361493 -1.0212678096517025
4866000000.0 0.07402585647961082 -1.0419628880266791
4869000000.0 0.08791062549735512 -1.0375479697958192
4872000000.0 0.08023001704762094 -1.0438575907476542
4875000000.0 0.1381727651220443 -1.0497718540269991
4878000000.0 0.07761060981448213 -1.0412394063318953
4881000000.0 0.05222861286353292 -1.096778173779751
4884000000.0 0.08041518456276733 -1.0227206634578496
4888000000.0 0.09183232000421049 -1.0182851613089918
4891000000.0 0.048932254337543515 -1.0741183148760354
4894000000.0 -0.012276438079622497 -1.013238601270507
4897000000.0 0.07542158852000266 -1.0236066773733818
4900000000.0 0.016320620305624194 -1.0577650187721515
4903000000.0 0.03496572506371737 -1.0573559509110186
4906000000.0 0.0007607088519784415 -1.0338664240309552
4909000000.0 -0.03659868583908665 -1.0500231097451835
4912000000.0 -0.023041382731670237 -1.0597159390398534
4916000000.0 0.0022679470142607724 -1.0795316343382186
4919000000.0 -0.002534406368742366 -1.0672241437916528
4922000000.0 -0.017600701739888508 -1.0233720924733691
4925000000.0 -0.08774004359108942 -1.0032308854470082
4928000000.0 -0.03117597740091961 -1.0136628355292292
4931000000.0 -0.03704392474228517 -1.042879072349751
4934000000.0 -0.0654662989088826 -0.9977918501246232
4938000000.0 -0.09002383484390415 -1.030795304373969
4941000000.0 -0.046254670010646384 -1.034519978860592
4944000000.0 -0.07580484241194557 -0.9560188847119815
4947000000.0 -0.1326341186456534 -0.9957578582057871
4950000000.0 -0.14690545425907892 -0.987662037386293
4953000000.0 -0.16714360598176475 -1.0624214361447804
4956000000.0 -0.14025072710814557 -1.0383165810565875
4959000000.0 -0.1652403642217545 -0.9710823105648558
4962000000.0 -0.1490840711397696 -1.0203141480808617
4966000000.0 -0.16224580102323444 -1.0333903044704202
4969000000.0 -0.1374151205148253 -1.0737196232853305
4972000000.0 -0.19785218244688033 -1.0502583434417871
4975000000.0 -0.1622500345742313 -1.01058688758457
4978000000.0 -0.18562712972291584 -1.0175722052453589
4981000000.0 -0.2132708689422251 -1.0086975751093925
4984000000.0 -0.21866133015652503 -0.9980080461302935
4988000000.0 -0.20227662968478483 -1.0182518691453604
4991000000.0 -0.16247647133597237 -1.0491577605956246
4994000000.0 -0.21220788412367592 -1.0190964537024498
4997000000.0 -0.2604895079759503 -1.0141250520996603
5000000000.0 -0.2525359291542317 -1.0215517915937706
5003000000.0 -0.22679287745125593 -1.0484170121068634
5006000000.0 -0.29241594796118975 -1.0606151066663443
5009000000.0 -0.2630955492348209 -0.9914170630311904
5012000000.0 -0.28341064681237643 -0.9920987724971122
5016000000.0 -0.27687926727649176 -1.068471857953426
5019000000.0 -0.31756206513157526 -0.9823625134295026
5022000000.0 -0.3044560359241716 -1.0028758214463367
5025000000.0 -0.3334572742154069 -1.0605183680431745
5028000000.0 -0.32029635096707965 -0.9982925268822933
5031000000.0 -0.3180145606503464 -0.9754206862816205
5034000000.0 -0.3697820187027583 -0.9990656883113394
5038000000.0 -0.3567307981389434 -0.9803185804943302
5041000000.0 -0.3058506481141734 -0.9663033506997994
5044000000.0 -0.32332728396498356 -0.9768657865960851
5047000000.0 -0.33311237584816694 -0.9924162425417741
5050000000.0 -0.2798901942470057 -0.9855839438547063
5053000000.0 -0.4269927373243395 -1.0194594676032056
5056000000.0 -0.337378252742607 -0.9993372962198055
5059000000.0 -0.33922784812445556 -0.9813126718665038
5062000000.0 -0.4379501689951161 -0.9560888484193704
5066000000.0 -0.33417733303071884 -0.9617637532997507
5069000000.0 -0.44718891628794666 -0.9573893754566912
5072000000.0 -0.38665646237150075 -0.9526260850257353
5075000000.0 -0.393019850067462 -0.964870493346581
5078000000.0 -0.462823295411875 -0.9324999127440436
5081000000.0 -0.4213749923358768 -0.9030108063334069
5084000000.0 -0.47807003375390866 -0.9695435831454231
5088000000.0 -0.4218966437234697 -0.9296706586576255
5091000000.0 -0.4692957858923345 -0.9315096167315782
5094000000.0 -0.519192177029341 -0.9116041007338408
5097000000.0 -0.4316462457349103 -0.9635948010661992
5100000000.0 -0.4558575723212965 -0.9079419973272015
5103000000.0 -0.522275428672328 -0.8825257041711708
5106000000.0 -0.4992555927344215 -0.9686560113423781
5109000000.0 -0.46116083621562554 -0.9088151718075155
5112000000.0 -0.5594581543721423 -0.8861544542685427
5116000000.0 -0.508267977437051 -0.8706127583855963
5119000000.0 -0.5216932721045577 -0.9196870829868549
5122000000.0 -0.5804350865223276 -0.8813115622325367
5125000000.0 -0.5166944414486521 -0.8693279281114923
5128000000.0 -0.5808436672312477 -0.8699630712815523
5131000000.0 -0.5525497310168002 -0.8408206477152003
5134000000.0 -0.5140157063320009 -0.8834983263740295
5138000000.0 -0.5704518846296336 -0.8814336552110942
5141000000.0 -0.5298623857668268 -0.8862166573862404
5144000000.0 -0.5441663903701282 -0.9049673841984316
5147000000.0 -0.6092042752290108 -0.8483560270643621
5150000000.0 -0.6192326712361316 -0.8721840676982903
5153000000.0 -0.5954729778626089 -0.8855566981209434
5156000000.0 -0.6260482528056679 -0.8868402865936676
5159000000.0 -0.6209285534363246 -0.8613898791197527
5162000000.0 -0.6078056339920694 -0.8412690519731788
5166000000.0 -0.6336363976092407 -0.8559734695848935
5169000000.0 -0.6312272089870276 -0.8079950145795065
5172000000.0 -0.6748934913014494 -0.8246053512037834
5175000000.0 -0.662422265649246 -0.8377031252048022
5178000000.0 -0.654802987400126 -0.8084197333835104
5181000000.0 -0.6771430780699038 -0.8644647458858519
5184000000.0 -0.692768442328381 -0.7725978008118604
5188000000.0 -0.669600376282825 -0.8225361352489733
