! Created with skrf 1.8.0 (http://scikit-rf.org).
# Hz S RI R 50.0 
!freq ReS11 ImS11
4000000000.0 0.6707220341673071 0.7884332332926203
4003000000.0 0.7316488818645372 0.7565225916198834
4006000000.0 0.7581927114659678 0.6924015773325917
4009000000.0 0.7280084052586546 0.7198184935740968
4012000000.0 0.7079843679710509 0.7608759429605225
4016000000.0 0.7606321240899752 0.694146579726437
4019000000.0 0.7531550039761452 0.6445479014454852
4022000000.0 0.6998466313024364 0.7768439745769317
4025000000.0 0.7987314401168824 0.6517667930962561
4028000000.0 0.7875731626237404 0.6773697415128119
4031000000.0 0.7575554948181448 0.6494921439377174
4034000000.0 0.80512318481387 0.6572216575863973
4038000000.0 0.7980267608083133 0.6393990659561825
4041000000.0 0.7953236827113929 0.6568468988555353
4044000000.0 0.835667742464758 0.6511125014291137
4047000000.0 0.8259620597593033 0.6888437457809637
4050000000.0 0.8392666830439676 0.6303351430523295
4053000000.0 0.8225298004934973 0.5895277693826815
4056000000.0 0.8253642449932984 0.605319229996652
4059000000.0 0.817867305354294 0.6300756748835412
4062000000.0 0.8128298141956652 0.574971424906823
4066000000.0 0.8021540127709295 0.5685754564374186
4069000000.0 0.8891390940311436 0.5653037892117136
4072000000.0 0.8126734949608029 0.6235993546169534
4075000000.0 0.8537236630365245 0.6300310245276746
4078000000.0 0.8548230910879517 0.5466307742514845
4081000000.0 0.8458665853731363 0.6252245898270974
4084000000.0 0.8560395318913128 0.5173527904323356
4088000000.0 0.8066698374778861 0.5827004529089775
4091000000.0 0.9001631531691854 0.5491989781770676
4094000000.0 0.8654316716002214 0.5348792197913846
4097000000.0 0.8538684705140593 0.4980856239185381
4100000000.0 0.8995327890749443 0.48768417222535304
4103000000.0 0.8995126382115683 0.5260686410309152
4106000000.0 0.9226605775418643 0.4713563129554734
4109000000.0 0.9158780247509319 0.47661029541822325
4112000000.0 0.8822422410068917 0.48055776022149516
4116000000.0 0.900417316180054 0.48580869616451106
4119000000.0 0.9143429906923464 0.4263939304965234
4122000000.0 0.9157089130948693 0.43409747437015056
4125000000.0 0.9301699985601292 0.41690501647658035
4128000000.0 0.868917848781984 0.427727591470655
4131000000.0 0.943224016426731 0.4305089739917193
4134000000.0 0.9304015831666728 0.3983842024813167
4138000000.0 0.8905468214509513 0.3571290576066703
4141000000.0 0.929379501215252 0.3992151395977471
4144000000.0 0.9287695241463474 0.4237706928935991
4147000000.0 0.9480014176708241 0.36238882081565243
4150000000.0 0.9481212315526119 0.3887274735217939
4153000000.0 0.9455741888590351 0.3577337949963737
4156000000.0 0.9756246952003429 0.3588598860234846
4159000000.0 0.9284269134669401 0.3803624119014904
4162000000.0 0.9461340437823329 0.3613967860425171
4166000000.0 0.9909939084653203 0.34977946901024326
4169000000.0 0.9543719864469792 0.28814245410969497
4172000000.0 0.9809121360493902 0.3368049044696461
4175000000.0 0.9799856137205238 0.3276283135219216
4178000000.0 0.9786766996938644 0.2999495622718097
4181000000.0 0.9640451791966616 0.2816116245908059
4184000000.0 0.9756365336108223 0.2987370258663225
4188000000.0 0.9891543834471765 0.2806098203781948
4191000000.0 0.9680024671927412 0.2940532462439724
4194000000.0 0.9765016152743738 0.2633249620438869
4197000000.0 0.9719152468276522 0.2721295535339158
4200000000.0 0.974902218529508 0.2480383272593203
4203000000.0 0.9985427875440259 0.2865838609838067
4206000000.0 1.0168533578560695 0.24940290915297453
4209000000.0 0.9687806586061012 0.2378845452895771
4212000000.0 1.0025184281247461 0.16779767276393714
4216000000.0 1.0095400470556821 0.21742702799168673
4219000000.0 1.0181839713387912 0.21270011320254492
4222000000.0 0.98627168697381 0.19112088687976453
4225000000.0 0.9948530787755638 0.17229650504053182
4228000000.0 1.0182284191792983 0.17889925205673887
4231000000.0 0.9986536421698289 0.14966703686994248
4234000000.0 1.0177397601720273 0.13797485889394862
4238000000.0 1.0056769029514605 0.12336243429805391
4241000000.0 0.9891461676083182 0.11942500090718494
4244000000.0 1.01439192256208 0.12373571174270864
4247000000.0 0.9982784071873169 0.11289730172822321
4250000000.0 0.9956678592708519 0.0917851746385567
4253000000.0 0.9916439568242881 0.09448395122046901
4256000000.0 1.0388377723224682 0.09363649395998053
4259000000.0 0.9596774340434666 0.07079117587806188
4262000000.0 1.0243388285951773 0.04665479913977408
4266000000.0 1.0238972244468922 0.029398576980357305
4269000000.0 1.008119967082959 0.06900580104695445
4272000000.0 1.0018039584978768 0.059579038029061226
4275000000.0 1.0427287580271583 0.0390723335701271
4278000000.0 1.0248839628229975 0.02224457097127916
4281000000.0 1.0221707244838967 0.02937829975440076
4284000000.0 1.0194275292276012 -0.043831700456973856
4288000000.0 1.0081683196042097 0.022509531413905777
4291000000.0 1.0128266407379418 -0.020547755429268844
4294000000.0 1.0000626020149013 -0.026973986578974846
4297000000.0 0.9971439389419421 -0.009649989012863916
4300000000.0 0.9759573807990443 -0.011199854763108447
4303000000.0 0.9867050254353015 -0.05712217849899606
4306000000.0 1.0025172063055112 -0.045632539606978315
4309000000.0 0.9993539485540848 -0.037532759675144224
4312000000.0 1.034391912976915 -0.030814756450991194
4316000000.0 1.0006997186258513 -0.06688367153839225
4319000000.0 1.0067290657102974 -0.079894907007055
4322000000.0 0.9835518705721225 -0.11428644745137372
4325000000.0 1.0144604344523047 -0.09035680597651846
4328000000.0 0.9790254697229221 -0.12010411134040497
4331000000.0 0.9981952846592115 -0.16202777939776106
4334000000.0 1.0174400356106448 -0.12662096218474056
4338000000.0 0.9929339078581705 -0.11974022069411587
4341000000.0 1.0228505656320865 -0.12211890968637627
4344000000.0 1.013835730198938 -0.15485164590599498
4347000000.0 1.0008416665180961 -0.19124933643719264
4350000000.0 0.9445993001339215 -0.178829398166959
4353000000.0 0.9737663672937127 -0.15378917801266528
4356000000.0 0.964810411629484 -0.23469537924262193
4359000000.0 0.9299051401975682 -0.22999307918713482
4362000000.0 1.0049740679896761 -0.2726644720126866
4366000000.0 0.9941196449125593 -0.24240206002074716
4369000000.0 0.9465504645787864 -0.2458188242043754
4372000000.0 0.9525618338363304 -0.2807385029441155
4375000000.0 0.9901873119263449 -0.234417742101638
4378000000.0 0.9409777064982466 -0.25712060614123533
4381000000.0 0.9599946062933804 -0.26650904857102403
4384000000.0 1.0080070655670823 -0.3100391700925795
4388000000.0 0.9522404420570897 -0.26087856840927637
4391000000.0 0.974365283994542 -0.2976865875826594
4394000000.0 0.9430316488803987 -0.30933514693822056
4397000000.0 0.9440966634604699 -0.3286626837204797
4400000000.0 0.970361280907448 -0.33930282155405156
4403000000.0 0.9567716439545725 -0.3359274949174224
4406000000.0 0.9479319627201281 -0.36095279751271225
4409000000.0 0.9680935126692187 -0.3779620150769111
4412000000.0 0.9076973357643705 -0.41082574679059747
4416000000.0 0.9278849619662393 -0.3740789458324226
4419000000.0 0.9306891398271746 -0.4108700829637387
4422000000.0 0.9342470371917644 -0.37076065542838055
4425000000.0 0.94580202711117 -0.3773421647026472
4428000000.0 0.9217592776124566 -0.41127071599615644
4431000000.0 0.9382249934787126 -0.41225222130446193
4434000000.0 0.9010224460472986 -0.43399027714797933
4438000000.0 0.9245190491284563 -0.4508237038099546
4441000000.0 0.9232526994483836 -0.4556148207686451
4444000000.0 0.8722430652216779 -0.4462744707805584
4447000000.0 0.8790887538135221 -0.4734968500288464
4450000000.0 0.8850104997704229 -0.44823297041492177
4453000000.0 0.9027581991781831 -0.4923201552848269
4456000000.0 0.8544627397649074 -0.4722369363201666
4459000000.0 0.8380358613475432 -0.47862001897309636
4462000000.0 0.9172699490477894 -0.5397488453666834
4466000000.0 0.8909602023852682 -0.5384880068156533
4469000000.0 0.8667848724066162 -0.510458964038835
4472000000.0 0.8598103344993833 -0.5582796550305131
4475000000.0 0.8341658470442226 -0.5139698144995555
4478000000.0 0.8714436591706846 -0.5802539508199862
4481000000.0 0.8127255532566833 -0.5379729013815684
4484000000.0 0.8208652713356053 -0.6232522246246136
4488000000.0 0.8299035165551302 -0.5716322091785409
4491000000.0 0.8346120921921731 -0.5856692898074762
4494000000.0 0.8177619680105559 -0.5698025072495028
4497000000.0 0.8217170305599806 -0.5615338113555427
4500000000.0 0.8215078983817095 -0.5913225535208368
4503000000.0 0.8250057246496505 -0.6183980950718164
4506000000.0 0.7880277786701664 -0.6094841755787019
4509000000.0 0.773918553050823 -0.6161451580860046
4512000000.0 0.7753022636334026 -0.6276184658621868
4516000000.0 0.8053335759878983 -0.6571610886304672
4519000000.0 0.7611315980708551 -0.6273296397241814
4522000000.0 0.7602936903860387 -0.6589138012755593
4525000000.0 0.782354365038342 -0.654151377765512
4528000000.0 0.7652439192757128 -0.6877523746911199
4531000000.0 0.7641707172519948 -0.664436325512268
4534000000.0 0.7351736163475767 -0.6654325991877028
4538000000.0 0.7349058212865629 -0.6798353899026058
4541000000.0 0.7204415291564927 -0.6936571567911625
4544000000.0 0.734340768621349 -0.6831323478978762
4547000000.0 0.7307515666683835 -0.6897882811886848
4550000000.0 0.6939629653557449 -0.7364620332328032
4553000000.0 0.7148283265459618 -0.7282409523433994
4556000000.0 0.6893919496234995 -0.7260652368579247
4559000000.0 0.6692490557787718 -0.7423178159530059
4562000000.0 0.6766680034447823 -0.7551739166608469
4566000000.0 0.6741484420431709 -0.7612245550514911
4569000000.0 0.6497067127646029 -0.7420227477582213
4572000000.0 0.6583269044985544 -0.7560479957267396
4575000000.0 0.6573098514954321 -0.777374301175089
4578000000.0 0.6699900625730797 -0.7776040551431305
4581000000.0 0.629011203120297 -0.7902123539857088
4584000000.0 0.6327202154374154 -0.7941311847546387
4588000000.0 0.6449723841280279 -0.7992087800547577
4591000000.0 0.6277812275622733 -0.8050787869599605
4594000000.0 0.598512379921172 -0.8128175728027437
4597000000.0 0.6119531715260349 -0.8366217741747527
4600000000.0 0.5786821706531219 -0.8250903525054335
4603000000.0 0.5791681665653874 -0.8178179177990237
4606000000.0 0.5970673160663398 -0.8354194226147258
4609000000.0 0.5658149644108637 -0.8275056903834875
4612000000.0 0.5567741309066234 -0.8494801826304076
4616000000.0 0.5339093832750135 -0.8424900252132334
4619000000.0 0.5409760326763797 -0.8465544671285536
4622000000.0 0.5264282867174216 -0.8624395116830866
4625000000.0 0.5090153564820892 -0.8684748142334858
4628000000.0 0.5178808302916512 -0.8813508335296977
4631000000.0 0.48600800658351406 -0.8696840341463663
4634000000.0 0.48823315254826044 -0.8614160451459583
4638000000.0 0.5008097650133154 -0.8782411225288725
4641000000.0 0.495533331413069 -0.879549358266853
4644000000.0 0.46927830384296526 -0.8871276140269978
4647000000.0 0.47984600821351286 -0.9028089764219582
4650000000.0 0.44554903581881056 -0.9057412653373648
4653000000.0 0.4501267003831783 -0.9186525539934691
4656000000.0 0.45912139498992194 -0.9062723711902549
4659000000.0 0.4075897549128085 -0.914060535989126
4662000000.0 0.4291045728074033 -0.9314326172422589
4666000000.0 0.38370500081198955 -0.9350162662395586
4669000000.0 0.39673194720307764 -0.9226321551923851
4672000000.0 0.4005431463612314 -0.9637318809049382
4675000000.0 0.403676237601929 -0.9428341639839735
4678000000.0 0.3641472936894987 -0.9014510560099446
4681000000.0 0.38020392434638983 -0.9435533544057298
4684000000.0 0.35111279301994125 -0.9750779923999696
4688000000.0 0.32473118093728975 -0.9757920641594077
4691000000.0 0.3766604516664812 -0.9404043038548169
4694000000.0 0.33227733732081693 -0.9270641962725796
4697000000.0 0.2933884814978294 -0.9031016081356817
4700000000.0 0.32776498733792864 -0.9562114392131766
4703000000.0 0.35675232115425776 -0.9148237620128041
4706000000.0 0.30771324247498555 -0.9417331226415101
4709000000.0 0.28700816803173995 -0.9572457094358338
4712000000.0 0.295667129924813 -0.9765155763708745
4716000000.0 0.26295677595498246 -1.0077663762130786
4719000000.0 0.31965999121423294 -0.9673377010365242
4722000000.0 0.2931800125324642 -0.9659709026982071
4725000000.0 0.24552481705625417 -0.9906286692832081
4728000000.0 0.21733687142958108 -0.9953401834166675
4731000000.0 0.26224146912763924 -1.0348947541518039
4734000000.0 0.23403865948554958 -0.9607354796821739
4738000000.0 0.2503353055327236 -1.040089058571666
4741000000.0 0.19453962989442017 -1.0140578410153698
4744000000.0 0.18373348050610733 -0.9727009388066502
4747000000.0 0.19309929963553035 -0.9768277589912151
4750000000.0 0.20836440171041276 -1.0132704147938851
4753000000.0 0.18243531014095665 -1.039976231864199
4756000000.0 0.1522257044737422 -1.0088654669022206
4759000000.0 0.14825304203413434 -1.0449600131343781
4762000000.0 0.09512746933791955 -1.0664780184901879
4766000000.0 0.133037333926322 -1.039222288706352
4769000000.0 0.10036438242115303 -1.0379546473076586
4772000000.0 0.10282194648029899 -1.0201866224590974
4775000000.0 0.08565637853732866 -1.0627533146726222
4778000000.0 0.07070857270750283 -1.0164864775907063
4781000000.0 0.09515274816222588 -1.0184619849801118
4784000000.0 0.11011303726336558 -1.0085713251502835
4788000000.0 0.03322948484765054 -0.9896981526384636
4791000000.0 0.03198086758464927 -1.0004736442429178
4794000000.0 0.08983043666092713 -1.058075343796547
4797000000.0 0.035297284091751896 -0.9912002512788028
4800000000.0 0.03817999871865879 -0.9836917110638916
4803000000.0 -0.03128707836375652 -0.999889928432582
4806000000.0 -0.0012438054914212793 -1.0439425004730147
4809000000.0 -0.03814526749776126 -1.0162554410882774
4812000000.0 -0.05500671310978608 -0.9893381702069415
4816000000.0 -0.007825468885171716 -0.9992610812652862
4819000000.0 -0.013083496369611897 -1.051877959261641
4822000000.0 -0.01785968477699304 -1.0551158849143756
4825000000.0 -0.023455107266270814 -1.038076774822119
4828000000.0 -0.08103397563619086 -0.9952537481512181
4831000000.0 -0.11262321212327724 -1.0379203148346394
4834000000.0 -0.06806195875262047 -1.009375896396646
4838000000.0 -0.11612538861946979 -1.042800940527991
4841000000.0 -0.11982200632806188 -0.9864055023812018
4844000000.0 -0.06388986159010726 -1.0349187302364111
4847000000.0 -0.09931688984737044 -0.9976265912266142
4850000000.0 -0.1452672527816672 -1.0356292836292174
4853000000.0 -0.12449116608724775 -0.9758036678214617
4856000000.0 -0.1394746383281637 -0.9907574307055279
4859000000.0 -0.18463094284191248 -1.0319690133594475
4862000000.0 -0.12015159141006036 -0.9984551014127604
4866000000.0 -0.18789142861182034 -0.9902340512044846
4869000000.0 -0.19829886180930575 -0.9902440178314081
4872000000.0 -0.19238931072958126 -1.0483185252418865
4875000000.0 -0.14786154296502146 -1.0616826137392135
4878000000.0 -0.21647485335382827 -1.012048293779035
4881000000.0 -0.27909346291758796 -1.0513854934678182
4884000000.0 -0.20594507003067486 -1.0167769112208136
4888000000.0 -0.20382281387139817 -1.0122965096018972
4891000000.0 -0.23779325340396676 -1.0337672055210638
4894000000.0 -0.25803356943469824 -1.0172125422595517
4897000000.0 -0.22663884200889658 -1.0082966604921728
4900000000.0 -0.2785672588115867 -0.9973885931707275
4903000000.0 -0.3000409818248245 -0.9920375198587708
4906000000.0 -0.28227757408435855 -1.0069442120004706
4909000000.0 -0.308590564586961 -0.9860719393059341
4912000000.0 -0.3605843504399228 -0.9974749182700621
4916000000.0 -0.31559102190155913 -0.993445279837587
4919000000.0 -0.27672589446733553 -0.9985299862878073
4922000000.0 -0.32323998975446455 -0.9975800129157364
4925000000.0 -0.36553217052491915 -0.9841183442832342
4928000000.0 -0.2794907071324495 -0.9629982042025035
4931000000.0 -0.33514463583332815 -1.0039201214901532
4934000000.0 -0.32710754690776767 -0.9245562494628994
4938000000.0 -0.3751159875881273 -0.9514822753441429
4941000000.0 -0.3556968357295892 -0.9427383169366916
4944000000.0 -0.35323639001989304 -0.9016665749676456
4947000000.0 -0.38581515364894814 -0.9527927953836884
4950000000.0 -0.41458315097824416 -0.9005083952632468
4953000000.0 -0.49374596533239745 -0.9930377851479228
4956000000.0 -0.451114477368551 -0.9103289122647712
4959000000.0 -0.4932040014224156 -0.8868877981024745
4962000000.0 -0.46318696623850375 -0.9604002237222691
4966000000.0 -0.4564499952738196 -0.9465964171441136
4969000000.0 -0.45532092540318303 -0.9765073241676617
4972000000.0 -0.4702168634898418 -0.9354809531857088
4975000000.0 -0.45006237267135396 -0.957859156492173
4978000000.0 -0.5078890838759735 -0.8801696357809234
4981000000.0 -0.5202650201743076 -0.8929794880008849
4984000000.0 -0.4944177286126876 -0.8748477908971544
4988000000.0 -0.5132987110361631 -0.9179506750032275
4991000000.0 -0.4963362073269227 -0.9312208060153754
4994000000.0 -0.5127751632706579 -0.8721513742273665
4997000000.0 -0.5661389222320987 -0.8656155705265852
5000000000.0 -0.5576653325478054 -0.9213090963881292
5003000000.0 -0.5330790633256135 -0.9015424859334161
5006000000.0 -0.5878879815539425 -0.9042666260829424
5009000000.0 -0.5613202467027177 -0.8778549339801078
5012000000.0 -0.5938918386373855 -0.857498797583425
5016000000.0 -0.5658404472062928 -0.8829705968715026
5019000000.0 -0.5958333175584768 -0.8407973282808545
5022000000.0 -0.6163314412163698 -0.8183050735765973
5025000000.0 -0.6545780300150987 -0.873967121164821
5028000000.0 -0.6256580127566523 -0.8456022212876874
5031000000.0 -0.6429665098858416 -0.812606251545044
5034000000.0 -0.6792887032126134 -0.807939063031554
5038000000.0 -0.630760618158288 -0.7846917262798803
5041000000.0 -0.6266462806759916 -0.8400349127343338
5044000000.0 -0.6058472208585076 -0.7836389063696934
5047000000.0 -0.6558437549930978 -0.8091225281707091
5050000000.0 -0.6211932097569633 -0.8185507592849193
5053000000.0 -0.7258370115551079 -0.7678812044159253
5056000000.0 -0.6513850554956084 -0.7457374548169047
5059000000.0 -0.6955044937228012 -0.7399836601049871
5062000000.0 -0.7006707702845605 -0.7539242557408121
5066000000.0 -0.7014686639859169 -0.7646763673840098
5069000000.0 -0.7157583128702589 -0.7528974494168036
5072000000.0 -0.7214765267462109 -0.7409651058925035
5075000000.0 -0.7191570708708177 -0.7235952615436727
5078000000.0 -0.7201212104311934 -0.7125394494255638
5081000000.0 -0.7575264127374036 -0.6708915115564661
5084000000.0 -0.7662579293253257 -0.6994612422469939
5088000000.0 -0.7452034825586871 -0.7093174174064973
5091000000.0 -0.7877268446297945 -0.6366449846106044
5094000000.0 -0.7923108395872168 -0.6471433388500394
5097000000.0 -0.7465790064295189 -0.7264882047982424
5100000000.0 -0.7554254704649378 -0.6770829800093
5103000000.0 -0.8197532238317847 -0.6002769039028483
5106000000.0 -0.8279129208285378 -0.6256799446815969
5109000000.0 -0.7687647372942733 -0.6914351259509212
5112000000.0 -0.8602803851911317 -0.6527075939441991
5116000000.0 -0.7983701321323413 -0.6114047339950741
5119000000.0 -0.8951204677220885 -0.6038250837139241
5122000000.0 -0.7846796814103258 -0.6524790419055566
5125000000.0 -0.8024529916859466 -0.6190616543802603
5128000000.0 -0.8512044177292661 -0.5670047541300947
5131000000.0 -0.8497882096852877 -0.6113172636316172
5134000000.0 -0.8488448776358553 -0.5828786441613308
5138000000.0 -0.7978013971608287 -0.5902819777595635
5141000000.0 -0.8407999481630244 -0.6412511556180964
5144000000.0 -0.8477744208758927 -0.5535285382339914
5147000000.0 -0.8902455328354243 -0.5686184766184658
5150000000.0 -0.8434599559980046 -0.5288656852926501
5153000000.0 -0.9303101924864927 -0.572998220971304
5156000000.0 -0.8666199389927159 -0.549556386468371
5159000000.0 -0.9008033195552371 -0.5286925869351246
5162000000.0 -0.9059556580949971 -0.4721250077121078
5166000000.0 -0.933189396519459 -0.5154150856082171
5169000000.0 -0.9136383127191479 -0.5035682223857103
5172000000.0 -0.9082032853560599 -0.520215102217831
5175000000.0 -0.9181151460593296 -0.4825903810713418
5178000000.0 -0.9572802839753469 -0.479605801353291
5181000000.0 -0.9361402946370673 -0.4818697927592992
5184000000.0 -0.9244788535685449 -0.47371812217548287
