! Created with skrf 1.8.0 (http://scikit-rf.org).
# Hz S RI R 50.0 
!freq ReS11 ImS11
4000000000.0 0.9954142774576679 0.14529210925793679
4003000000.0 1.0492329769939213 0.11472542573061997
4006000000.0 1.0351992413810787 0.08343026384592156
4009000000.0 1.0204833072248276 0.09035009393037174
4012000000.0 1.0473790019401434 0.14131233449654737
4016000000.0 1.0254438593024386 0.06391164474052732
4019000000.0 1.008941609350701 0.07424826660459738
4022000000.0 1.0605039225308877 0.055081652088111416
4025000000.0 1.0095296106168212 0.017990226889144284
4028000000.0 1.0303083853901476 -0.00824939505818234
4031000000.0 1.0228371158010872 -0.006468614163042674
4034000000.0 0.9974623712518831 -0.02285271582293799
4038000000.0 1.0108313393670334 -0.06050571945193875
4041000000.0 0.9918214083606871 -0.03828365650433216
4044000000.0 1.0343042622884862 -0.03530087344403407
4047000000.0 1.060683344633901 -0.08943949067339305
4050000000.0 1.0358504319243982 -0.09050448476214011
4053000000.0 1.0172833858590284 -0.09746028007658258
4056000000.0 1.0276719493345463 -0.11939808369512792
4059000000.0 0.9655958778757168 -0.1613038907147991
4062000000.0 1.0267240572397545 -0.1257085837641577
4066000000.0 1.0082062385032737 -0.16274543452349055
4069000000.0 1.0086111707323069 -0.20793426847114058
4072000000.0 0.995857817237413 -0.23795990793157532
4075000000.0 1.0066317249841934 -0.2548737289507047
4078000000.0 0.979491734357066 -0.25000141422088734
4081000000.0 0.9842699201838689 -0.3063383308585709
4084000000.0 0.9931415329590264 -0.3027718145454793
4088000000.0 0.9812587311926678 -0.28391014348229593
4091000000.0 0.9889433240253537 -0.2836784653380765
4094000000.0 0.9416315517685252 -0.29763386875344966
4097000000.0 0.9472716915031456 -0.3348483574932356
4100000000.0 0.9360768694135229 -0.35671898660752316
4103000000.0 0.9627102783871051 -0.35499039299560003
4106000000.0 0.9518382945524352 -0.40995471894263497
4109000000.0 0.9470391438002663 -0.4202206230728634
4112000000.0 0.9045868574246507 -0.42698591424698173
4116000000.0 0.899128741793365 -0.4649723481824768
4119000000.0 0.9159731527688636 -0.45524919945913356
4122000000.0 0.8667682966680608 -0.4866793692911501
4125000000.0 0.8658755677432829 -0.46978565929245586
4128000000.0 0.862104406683671 -0.49319018963058553
4131000000.0 0.8433376932265276 -0.5509385978073744
4134000000.0 0.8537639946593463 -0.5110083951430638
4138000000.0 0.8370468293068172 -0.5682003478253153
4141000000.0 0.8433652165945866 -0.5512102023189829
4144000000.0 0.8549023963473958 -0.5828620573593641
4147000000.0 0.8441026165189078 -0.620489540452129
4150000000.0 0.7830896993327762 -0.6445508593902927
4153000000.0 0.7831371425451197 -0.6020453182839471
4156000000.0 0.7874467758814616 -0.6496325606081315
4159000000.0 0.7391618021767805 -0.648793371878702
4162000000.0 0.7547533374666453 -0.6816260615436931
4166000000.0 0.7607436839234265 -0.7292032945173494
4169000000.0 0.6922959240006971 -0.6951270824560497
4172000000.0 0.6938412567747504 -0.7314047361103306
4175000000.0 0.7332264155019211 -0.7617668186379155
4178000000.0 0.677926588193233 -0.7503734363816703
4181000000.0 0.6141932899320552 -0.756477806618674
4184000000.0 0.6253646253768821 -0.741248344472123
4188000000.0 0.5968103255151239 -0.779008338017225
4191000000.0 0.6132535939767721 -0.8160523343510162
4194000000.0 0.5833797658949685 -0.8266822172880767
4197000000.0 0.5963745407752005 -0.8402327123543907
4200000000.0 0.5964127902360421 -0.8520663894193417
4203000000.0 0.5662508909264665 -0.8831937532227826
4206000000.0 0.5198495529275104 -0.8691297319623423
4209000000.0 0.47627691103031844 -0.8763123210715977
4212000000.0 0.44005975946691195 -0.9140069631340313
4216000000.0 0.5062571065762989 -0.9216419769897692
4219000000.0 0.4279464149261541 -0.9202534828526446
4222000000.0 0.411595397125334 -0.908552112009277
4225000000.0 0.374929456290539 -0.9336547855735976
4228000000.0 0.3530421751192895 -0.9561374031608402
4231000000.0 0.32103482490501734 -0.9715613816745915
4234000000.0 0.2873981826522739 -0.975819486437496
4238000000.0 0.2795964810995173 -0.972323727779951
4241000000.0 0.228912968967528 -0.9684721727964594
4244000000.0 0.23996072404251012 -0.9446807428869034
4247000000.0 0.1979696258333156 -0.9626785902215357
4250000000.0 0.17170979137209696 -0.9570270787697274
4253000000.0 0.15162575906119224 -0.9998551153830672
4256000000.0 0.1288825456036032 -1.059252599598597
4259000000.0 0.08041483925203834 -0.9834488828495666
4262000000.0 0.03957408173528301 -0.9976681719799663
4266000000.0 0.018565699487456233 -1.0133680434439976
4269000000.0 0.01506401528397136 -1.0008452606895826
4272000000.0 0.015397813092041523 -0.998738513925312
4275000000.0 -0.02103462601590131 -1.0221320001826126
4278000000.0 -0.07788752222986475 -0.998156752500722
4281000000.0 -0.08102280476712756 -1.0002274989407243
4284000000.0 -0.1374394518271122 -1.016912423395855
4288000000.0 -0.17144250312097561 -1.0048033400746101
4291000000.0 -0.17823187824045117 -0.9886291539315242
4294000000.0 -0.23354725540280208 -1.0249008669674253
4297000000.0 -0.22253372741522112 -0.9863924712707492
4300000000.0 -0.279310641643607 -0.9967346556234421
4303000000.0 -0.2873255317970101 -0.9705526042375405
4306000000.0 -0.3405101195638361 -0.9781047456224038
4309000000.0 -0.38930498429075067 -0.982811816764873
4312000000.0 -0.3907535444348481 -0.9275275820107435
4316000000.0 -0.4222696182865201 -0.9131859181342012
4319000000.0 -0.44050473461193873 -0.9454811904731691
4322000000.0 -0.5022224135552527 -0.8996630226042205
4325000000.0 -0.5048682887014154 -0.8840211489972783
4328000000.0 -0.5489237601966938 -0.8830890808182831
4331000000.0 -0.5612745599885063 -0.8441389449295278
4334000000.0 -0.6203734109169434 -0.8598307957337992
4338000000.0 -0.6162075355809817 -0.8398127074025036
4341000000.0 -0.6346540250171735 -0.7825264653871536
4344000000.0 -0.6577914713666861 -0.7473574801896836
4347000000.0 -0.6894464598681561 -0.7625169230797447
4350000000.0 -0.7510507641022998 -0.7304529445837622
4353000000.0 -0.7661043106285059 -0.7063968411110145
4356000000.0 -0.7629878216970576 -0.7108808965661859
4359000000.0 -0.816968359613934 -0.672951158972103
4362000000.0 -0.7769254525926135 -0.6550374922220628
4366000000.0 -0.8355542736562831 -0.5983289049725085
4369000000.0 -0.8851563877509979 -0.6175124466585264
4372000000.0 -0.9142994202125634 -0.5572648057888138
4375000000.0 -0.8816200376541552 -0.4878972471499349
4378000000.0 -0.9859892390404628 -0.4941720924821373
4381000000.0 -0.9459996481819737 -0.4242917629995788
4384000000.0 -0.8436965615257825 -0.3706329632280523
4388000000.0 -0.9971386806912848 -0.38373923395283693
4391000000.0 -0.9616415827756342 -0.313789905915873
4394000000.0 -1.0038330084476246 -0.3377577122718104
4397000000.0 -0.9935910660817138 -0.29857630782554573
4400000000.0 -0.9863086658194384 -0.260302655966997
4403000000.0 -1.031973108317287 -0.2177604238507699
4406000000.0 -1.0289526339736328 -0.13385433621730883
4409000000.0 -0.962364753722998 -0.11201809529220166
4412000000.0 -0.9981754906513929 -0.17890416685456798
4416000000.0 -0.9664222025158953 -0.052822995019716795
4419000000.0 -1.002401832167228 -0.06460981157643261
4422000000.0 -1.0511677371331047 -0.026555346728693058
4425000000.0 -0.9949060416868227 0.04997041158345139
4428000000.0 -1.0829421272762296 0.09071963492068569
4431000000.0 -0.9580728251695181 0.09793439606053903
4434000000.0 -1.0261059051196852 0.1354501648102875
4438000000.0 -0.9588684778494081 0.14431742813685783
4441000000.0 -0.9501054885025164 0.21316436037476932
4444000000.0 -1.031487746975335 0.2749450762392164
4447000000.0 -1.0086735733305834 0.23122561231884714
4450000000.0 -1.010377991967127 0.39015411170114556
4453000000.0 -0.9422640199698292 0.33442178291933977
4456000000.0 -1.0284239152627284 0.39590265721011175
4459000000.0 -1.0491256325491307 0.4937702135674077
4462000000.0 -0.8917968606310391 0.4336135411356976
4466000000.0 -0.9366101155740493 0.44166280211697573
4469000000.0 -0.8610318130395698 0.5266512146398301
4472000000.0 -0.8616458670636599 0.5533568451601686
4475000000.0 -0.8547698864699266 0.6465005308607322
4478000000.0 -0.8232385397364501 0.5539812913637059
4481000000.0 -0.8644348027208988 0.6567578033613561
4484000000.0 -0.8215182136336856 0.6776430838252263
4488000000.0 -0.7901583189519636 0.6918291460076549
4491000000.0 -0.797032166670596 0.7010387691215133
4494000000.0 -0.7447415303586575 0.7070053631047524
4497000000.0 -0.718382185693794 0.7755583039728576
4500000000.0 -0.6776219686863902 0.7619367873676459
4503000000.0 -0.646055145317098 0.8162602851745624
4506000000.0 -0.6350538789811133 0.8069737969296727
4509000000.0 -0.5933616118980647 0.8552014533800568
4512000000.0 -0.5908880039887159 0.8274282834183481
4516000000.0 -0.5322856724024685 0.8667156242588394
4519000000.0 -0.4870852837259445 0.8960847626063576
4522000000.0 -0.5123608880790285 0.896987955975394
4525000000.0 -0.4624443658354968 0.9473786645570765
4528000000.0 -0.43513355957732464 0.9743385921823633
4531000000.0 -0.3690131682275888 0.9588295661576904
4534000000.0 -0.3676618610776806 0.9816529684843042
4538000000.0 -0.30221010217741445 0.9515223343875459
4541000000.0 -0.324536377907908 0.987302256759493
4544000000.0 -0.2871132552067417 1.027477286206547
4547000000.0 -0.2295656304065962 1.000981653231007
4550000000.0 -0.22649988476078442 1.0186352503965468
4553000000.0 -0.1672845848416269 1.014905801111979
4556000000.0 -0.1802822943164838 1.0176984219071263
4559000000.0 -0.164872006772546 1.0231800501054602
4562000000.0 -0.11371676451890927 1.0315167240923442
4566000000.0 -0.09349579267847008 1.0222534089492246
4569000000.0 -0.056675727769059436 1.0084605366140993
4572000000.0 -0.03789239214389947 1.0089469429640767
4575000000.0 0.011483608898815195 0.9939654421431914
4578000000.0 0.03409191064906959 1.0177261425557513
4581000000.0 0.07868471171422198 1.041995417475524
4584000000.0 0.10725129443332462 1.0161570963112203
4588000000.0 0.10784351018686632 1.0261205156273743
4591000000.0 0.12404269567011592 1.0381641782080102
4594000000.0 0.14197623110804114 1.016631967753526
4597000000.0 0.23351484611741616 1.0464567498206188
4600000000.0 0.24145233367359376 0.9292964487177885
4603000000.0 0.22201886533648565 0.9970303192198362
4606000000.0 0.24581302605814448 1.0084271321312879
4609000000.0 0.3204346170364965 0.9894656354945797
4612000000.0 0.31643312727490497 1.013293014255744
4616000000.0 0.34489891591610794 0.9444021946010228
4619000000.0 0.34857337791582743 0.9820826543044375
4622000000.0 0.34295307755748095 0.9598296791720937
4625000000.0 0.36801663020238573 0.8848092859088289
4628000000.0 0.3980793164131279 0.8956854193846023
4631000000.0 0.4771195188271913 0.8706744516266128
4634000000.0 0.47857493626101927 0.9018996158534698
4638000000.0 0.4815181141080933 0.8839920627812958
4641000000.0 0.5329884282533724 0.9104025246139262
4644000000.0 0.5481428666686763 0.875786940037556
4647000000.0 0.5489505992065863 0.8765725240194141
4650000000.0 0.6092061302412258 0.8351691126935746
4653000000.0 0.6165335982744716 0.8301436542774386
4656000000.0 0.650238646479258 0.7662150223513651
4659000000.0 0.6191243308995928 0.7922681608671391
4662000000.0 0.6217652706385034 0.7910067920249197
4666000000.0 0.6387067118823878 0.7926806966802716
4669000000.0 0.6803661689410427 0.7703748769936024
4672000000.0 0.7162271687991765 0.7052095229707195
4675000000.0 0.6987923620921279 0.6636495202711161
4678000000.0 0.6991321833549107 0.7148229801024358
4681000000.0 0.7760352077728618 0.6488025304700127
4684000000.0 0.69621142303657 0.6489900009215476
4688000000.0 0.7413949712110426 0.6871894043694272
4691000000.0 0.740850349133438 0.6227699607328696
4694000000.0 0.8173005645022073 0.6060059386497185
4697000000.0 0.8519698904485395 0.6299852316434444
4700000000.0 0.8255981244535586 0.6362460067186704
4703000000.0 0.9062354566288919 0.5785350677296786
4706000000.0 0.7967479584598278 0.6090365113147386
4709000000.0 0.848173500974629 0.5417722902759582
4712000000.0 0.8716805315943683 0.49774157394993535
4716000000.0 0.8485054507764045 0.5001939872342229
4719000000.0 0.9144587899366263 0.45712512887964923
4722000000.0 0.9454395669949929 0.48589214114160845
4725000000.0 0.9069525789131355 0.42405914598990035
4728000000.0 0.9158129379940305 0.40237230851162054
4731000000.0 0.8974221562345737 0.4265899155916469
4734000000.0 0.9299355440383221 0.40685021661237103
4738000000.0 0.8906140949674914 0.35918829006209657
4741000000.0 0.9178890180770412 0.36515558619198946
4744000000.0 0.9764802759430466 0.3239404966216772
4747000000.0 0.9906118054765266 0.318597674393972
4750000000.0 0.9434703191651377 0.26851034348560215
4753000000.0 0.9906743690604972 0.25771213129144876
4756000000.0 0.9625451885399796 0.23498626919988924
4759000000.0 0.9783178314009178 0.23860605357410386
4762000000.0 0.9302561438035647 0.2785650987548315
4766000000.0 0.9620148618590219 0.1968808449266392
4769000000.0 1.0200064280768575 0.2172120123999051
4772000000.0 1.0063985272276912 0.16949469649241178
4775000000.0 0.972339212525524 0.17628352355518123
4778000000.0 0.9640740941408392 0.21627919090858452
4781000000.0 1.0119116508455264 0.1431507225272386
4784000000.0 1.0112107290971224 0.14964514771200366
4788000000.0 1.006588117274569 0.12957826644719184
4791000000.0 1.0008986368650303 0.057443899610894994
4794000000.0 0.9949702962573923 0.0394301136524202
4797000000.0 1.0555616424833782 0.0683901723761005
4800000000.0 1.0312853574428555 -0.016010713442542013
4803000000.0 0.9813986660834267 0.0237086416401371
4806000000.0 0.9944420161612749 0.0052115447542575855
4809000000.0 0.9823621003777181 -0.02117479990235918
4812000000.0 0.9958038741709248 -0.04171267078485602
4816000000.0 1.0233427923492386 -0.07920915675664414
4819000000.0 1.0007466214906608 -0.08284210720095328
4822000000.0 1.0113814350249362 -0.0918260010460614
4825000000.0 0.9954429463659302 -0.1107628573502202
4828000000.0 0.9905809000965032 -0.11665715216405215
4831000000.0 0.9986995336067671 -0.13983502713942034
4834000000.0 0.9952558599758413 -0.1629318418990036
4838000000.0 1.0173198908615142 -0.17329081836407093
4841000000.0 1.006783785896742 -0.18074103244970458
4844000000.0 0.9809529614934758 -0.22214909888864073
4847000000.0 1.0225274931190538 -0.21040615804485427
4850000000.0 0.9905094788826978 -0.21525769797537642
4853000000.0 0.9921535595200762 -0.23259532015732293
4856000000.0 0.9705969988349283 -0.25681922378671973
4859000000.0 0.9746972714655786 -0.2669583306542887
4862000000.0 0.9565654634697697 -0.2668370959761995
4866000000.0 0.9759856526319536 -0.29611638611353186
4869000000.0 0.966299118582135 -0.3186229736400559
4872000000.0 0.9424213386063803 -0.338287725236347
4875000000.0 0.990369017310109 -0.3434168726108398
4878000000.0 0.9559669000540358 -0.3698029574447787
4881000000.0 0.9319007350802078 -0.3689420558353818
4884000000.0 0.9423732193893222 -0.3841430212120862
4888000000.0 0.9494137739759202 -0.39692154837847565
4891000000.0 0.945428023656868 -0.4091014920638288
4894000000.0 0.9248069837830687 -0.4346735649830052
4897000000.0 0.9077692496356015 -0.4159853472527138
4900000000.0 0.9135522955829737 -0.47807983118722513
4903000000.0 0.9168203763492225 -0.47539613931918556
4906000000.0 0.9128398691410423 -0.4952098524025637
4909000000.0 0.8891810290798587 -0.5068077409063871
4912000000.0 0.8861582683502617 -0.5302791322245524
4916000000.0 0.9120117828635439 -0.4968382067266415
4919000000.0 0.8869453622096561 -0.5215296388693123
4922000000.0 0.8863233991018613 -0.5455617908085073
4925000000.0 0.8519235340512981 -0.5336802975856374
4928000000.0 0.8520266021912108 -0.5332595727169375
4931000000.0 0.8786907038665648 -0.5685304961581088
4934000000.0 0.8141940624671858 -0.5507477659742427
4938000000.0 0.8133207042716087 -0.6048796954268439
4941000000.0 0.8168245126909485 -0.5955812024985683
4944000000.0 0.8202689519416781 -0.5887543575057494
4947000000.0 0.77750028122277 -0.6119903875891494
4950000000.0 0.7703848595576659 -0.6557772883712394
4953000000.0 0.780041772647125 -0.673032797175147
4956000000.0 0.7822834223031867 -0.6598757035213261
4959000000.0 0.7421863025328055 -0.6883539518946918
4962000000.0 0.7449322248982662 -0.6930144552286398
4966000000.0 0.7840185453513471 -0.7126732617791467
4969000000.0 0.7717301520951518 -0.7146557902658698
4972000000.0 0.7238968950437252 -0.7591493023375433
4975000000.0 0.7134577977728538 -0.6997426296760209
4978000000.0 0.6998199739329328 -0.7278832138900687
4981000000.0 0.6945606622923789 -0.7417504980082723
4984000000.0 0.7204787635004842 -0.7149550382870623
4988000000.0 0.6840365865043244 -0.756628924495598
4991000000.0 0.7295016624247146 -0.7419275258556566
4994000000.0 0.6468653160255631 -0.7674693401068352
4997000000.0 0.6630595382384501 -0.7947138509275183
5000000000.0 0.6625422609603469 -0.7674521011978856
5003000000.0 0.6652636207341167 -0.7986219601959176
5006000000.0 0.6692353807234798 -0.8169150061407545
5009000000.0 0.6274757442002123 -0.7925495078211632
5012000000.0 0.5840159296874274 -0.8068803704519776
5016000000.0 0.6668715211704324 -0.8268079252050686
5019000000.0 0.5680868770270622 -0.7958065740939335
5022000000.0 0.6011960984976408 -0.8631314429358852
5025000000.0 0.6302795871572758 -0.8857140391966987
5028000000.0 0.5384620455693773 -0.887431145141819
5031000000.0 0.5459149985535209 -0.8595122034259318
5034000000.0 0.5384809128730317 -0.9115080983590675
5038000000.0 0.49679890902265256 -0.8552202871582204
5041000000.0 0.5444378852820191 -0.8841379260715979
5044000000.0 0.5191123023108565 -0.8442545201357896
5047000000.0 0.5405656615157894 -0.8680781363148385
5050000000.0 0.5600584143795947 -0.8376310585644617
5053000000.0 0.526710604222709 -0.9435146790317106
5056000000.0 0.5500765420249601 -0.8870807576888426
5059000000.0 0.5348821697995836 -0.8733768349330505
5062000000.0 0.43908621373677015 -0.9579158285560088
5066000000.0 0.47290068655144657 -0.8920019314429541
5069000000.0 0.4379952055267867 -0.9315529928501437
5072000000.0 0.3810851195222037 -0.9225252581933359
5075000000.0 0.4464046646592994 -0.924246847641438
5078000000.0 0.3798489353383056 -0.9803416104846445
5081000000.0 0.3782419497045854 -0.9315811310325116
5084000000.0 0.3447794338270957 -0.986684199621471
5088000000.0 0.3762279292538453 -0.9190998315175143
5091000000.0 0.35549797274784484 -1.0365329889571055
5094000000.0 0.37216695359190377 -0.9933152759460097
5097000000.0 0.3872752529842406 -0.9967372172539504
5100000000.0 0.3319559264753488 -0.9402878231860946
5103000000.0 0.345312679054062 -0.9684922463058506
5106000000.0 0.35766706727763764 -1.0417163130444984
5109000000.0 0.3356882644975952 -0.9408777922938794
5112000000.0 0.28194425070744183 -0.9383257634710507
5116000000.0 0.33092299579482065 -0.9343276305165367
5119000000.0 0.27912980338783466 -1.0088906986727042
5122000000.0 0.2775063773057291 -0.9803586856261104
5125000000.0 0.23844726067548389 -1.012928609210816
5128000000.0 0.20451475317542903 -1.0052903877300718
5131000000.0 0.22825456588301385 -0.9264945687916678
5134000000.0 0.21635631515311293 -0.9945278688106127
5138000000.0 0.20024241605230017 -1.0089549730885765
5141000000.0 0.260196726886385 -0.9933387986682516
5144000000.0 0.24897640940124485 -1.0336488468651945
5147000000.0 0.18193211596915948 -1.0271927052729999
5150000000.0 0.20271249155976045 -0.9925481368596373
5153000000.0 0.1456759286818802 -1.00835711897704
5156000000.0 0.16821485233767353 -1.0700806685607414
5159000000.0 0.18111769394578497 -1.0130100433251372
5162000000.0 0.12329540541339953 -1.0066098696867307
5166000000.0 0.09390393012820464 -1.0974059517853365
5169000000.0 0.10973118353838646 -1.052793017968669
5172000000.0 0.10638077782745678 -0.9916406397976635
5175000000.0 0.12145735636813469 -1.0513755691182727
5178000000.0 0.06082007844092581 -1.0234609561263328
5181000000.0 0.160091674757097 -1.0608091134975552
5184000000.0 0.041145947252713214 -1.029992119016001
5188000000.0 0.11553967363998859 -1.0101626997324757
