! Created with skrf 1.8.0 (http://scikit-rf.org).
# Hz S RI R 50.0 
!freq ReS11 ImS11
4000000000.0 0.6588918813868726 0.7689884458608216
4003000000.0 0.7225646739221614 0.8368660729714146
4006000000.0 0.6741950108300018 0.7798786645947973
4009000000.0 0.6603889857330264 0.7802620780613769
4012000000.0 0.6416193062638598 0.8667050970775355
4016000000.0 0.6794378917377019 0.7285440882919825
4019000000.0 0.6935981935403774 0.7980772065746178
4022000000.0 0.6407402506104887 0.809170209800463
4025000000.0 0.7727291740337557 0.7284270421096826
4028000000.0 0.7737383554826628 0.8159347064454172
4031000000.0 0.6973463786829065 0.711093595423587
4034000000.0 0.758382086811083 0.7064415670118162
4038000000.0 0.7318722980300717 0.7117433354632224
4041000000.0 0.7350714129853715 0.7402180356908199
4044000000.0 0.791533216394947 0.7543579153790421
4047000000.0 0.7491494628560814 0.750309035425978
4050000000.0 0.7891354820691346 0.7064422668596628
4053000000.0 0.7695200701941852 0.6243742872282358
4056000000.0 0.772817032885951 0.7181035692131136
4059000000.0 0.7423021612383982 0.6934943512101619
4062000000.0 0.8439950275858004 0.6673407018685367
4066000000.0 0.6980198813489582 0.6137669666591671
4069000000.0 0.8311043864936559 0.6706716433905178
4072000000.0 0.7860081642181223 0.6900395505392691
4075000000.0 0.8121042612826601 0.677196406709698
4078000000.0 0.8054815986451848 0.674587766986756
4081000000.0 0.794870470641081 0.7354438725599028
4084000000.0 0.8408240182665148 0.6329447330330666
4088000000.0 0.7923016704681599 0.6575472453333361
4091000000.0 0.8467844108781072 0.6397828375595396
4094000000.0 0.8373486253963683 0.6154513552777395
4097000000.0 0.8126687782174601 0.6093597938575925
4100000000.0 0.8175889850354139 0.6103570403104548
4103000000.0 0.8616440656442952 0.6187845824302722
4106000000.0 0.8281432007344316 0.5972197289913305
4109000000.0 0.869609300511706 0.562468245578206
4112000000.0 0.8619866091922612 0.5712350127936883
4116000000.0 0.8535000930309097 0.5947578650646731
4119000000.0 0.9018189575425228 0.519793852628041
4122000000.0 0.9182392634601326 0.541719369182641
4125000000.0 0.9299971145481162 0.5409491090303127
4128000000.0 0.8328382295947205 0.5012483986440593
4131000000.0 0.9067110629974869 0.526790823864967
4134000000.0 0.8877510292535509 0.5201051062544348
4138000000.0 0.8690309518677823 0.4799291193406228
4141000000.0 0.879596760177686 0.4748193457791732
4144000000.0 0.905504597115135 0.5405213033069052
4147000000.0 0.8872679068544963 0.4890365856276269
4150000000.0 0.9581512925831046 0.48989257466923924
4153000000.0 0.9279679767192195 0.4530313883879302
4156000000.0 0.9273286418399735 0.48702816615558786
4159000000.0 0.912657482996253 0.4643280267541802
4162000000.0 0.9252097867297515 0.46379947157001455
4166000000.0 0.9521401680906298 0.4205039947612118
4169000000.0 0.9428953677057128 0.4188749757988558
4172000000.0 0.9150546736028419 0.4525752665537875
4175000000.0 0.9466324794245456 0.42542471225238393
4178000000.0 0.970307920499844 0.4152681721045046
4181000000.0 0.9672809670672811 0.3963802864454413
4184000000.0 0.9533427138561726 0.3916996204186846
4188000000.0 0.9359216442761396 0.4019334436591132
4191000000.0 0.902384786808879 0.3987182778826644
4194000000.0 0.9622431308392868 0.37696238241660274
4197000000.0 0.9557244943402843 0.39331722800012575
4200000000.0 0.9649820781659098 0.36454732458779004
4203000000.0 0.97536895418212 0.367359021219989
4206000000.0 0.9595571329390188 0.369525616082303
4209000000.0 0.9629295205296249 0.35171736565768236
4212000000.0 0.972168798614369 0.2973021663189558
4216000000.0 0.976619237590613 0.32443109142881704
4219000000.0 0.9906340540293295 0.35316303492110057
4222000000.0 0.9876970778393506 0.284281364327121
4225000000.0 0.9666904728221455 0.29047059691458244
4228000000.0 0.97600896500148 0.29568526492110003
4231000000.0 0.9724832008175488 0.2721652109031623
4234000000.0 1.0005391108900548 0.2640497470484121
4238000000.0 0.9872280447993457 0.23894605433652197
4241000000.0 0.9930105469885551 0.25035287025432845
4244000000.0 0.9794033643348166 0.2396894918922312
4247000000.0 0.9850034229831202 0.2371722076328721
4250000000.0 0.9743146047881177 0.2081634332083634
4253000000.0 0.9869342279696476 0.21889984619140251
4256000000.0 1.0273702304740613 0.2130516305057797
4259000000.0 0.972268974737666 0.18459330587592246
4262000000.0 0.9919088531083327 0.1648852305389766
4266000000.0 1.039653520383039 0.1461661608666684
4269000000.0 1.0122813738847047 0.185706014595009
4272000000.0 0.9888307322403116 0.1505971398524168
4275000000.0 1.0152514363976373 0.14530954055841142
4278000000.0 1.034721415987679 0.14203287555829713
4281000000.0 1.0171680814164508 0.1520343812749409
4284000000.0 1.0265393650405126 0.09800425431184431
4288000000.0 0.9959156699977542 0.15397022018058068
4291000000.0 1.0064747315264386 0.10662448648284122
4294000000.0 1.004229421779451 0.11294496144992179
4297000000.0 1.0032457027370039 0.11882463484947621
4300000000.0 1.0049184076639466 0.09957846882649138
4303000000.0 1.0019323368863808 0.05544747526793033
4306000000.0 1.017861858223974 0.10831541713615139
4309000000.0 1.019370367467474 0.0750533765371157
4312000000.0 1.0231703403236776 0.09618672808940062
4316000000.0 0.994459018256998 0.0740816095974385
4319000000.0 0.997923149909873 0.06344018183003751
4322000000.0 0.9806974884730698 0.014346899202462501
4325000000.0 1.0559887839612172 0.017341361339892378
4328000000.0 1.010552363352216 0.005048499525460326
4331000000.0 1.0180959780249825 -0.015665601679953706
4334000000.0 1.0259542725872772 0.0010045170000986536
4338000000.0 1.0298130419418583 0.003679072723363
4341000000.0 1.017338016117288 4.586014397955918e-06
4344000000.0 1.0564222597947481 -0.02797234268103696
4347000000.0 1.0351636709253966 -0.06070764618257535
4350000000.0 0.9524006593238186 -0.04824050998212501
4353000000.0 0.9706844529610705 -0.037274958741983125
4356000000.0 1.025729679112487 -0.08056867570814488
4359000000.0 0.9708953419406914 -0.05281760819813282
4362000000.0 1.0216485033776448 -0.12408061819718234
4366000000.0 1.0345039474378406 -0.09048043724709741
4369000000.0 0.982043479794282 -0.10093542238614782
4372000000.0 0.9876533847960454 -0.12948916219751522
4375000000.0 1.0025965860844093 -0.10930800290564686
4378000000.0 0.9849853895991524 -0.11792907579478175
4381000000.0 0.9828351674679088 -0.12288556631060259
4384000000.0 1.0520582282118993 -0.16198637206832747
4388000000.0 0.995448946674016 -0.14440681780315345
4391000000.0 1.0199607533377697 -0.162760798560642
4394000000.0 0.9615931275035743 -0.1630622775375873
4397000000.0 0.9806615459969312 -0.18337669378604024
4400000000.0 1.007170957905963 -0.20303896491933365
4403000000.0 1.0000219306402482 -0.19164193411864183
4406000000.0 0.9867829079368887 -0.23696008442357921
4409000000.0 1.0208947725891626 -0.2228641677249252
4412000000.0 0.9731356000656965 -0.2719988322739999
4416000000.0 0.9746882356042166 -0.23375144339051745
4419000000.0 0.9770505174419806 -0.2675683489179266
4422000000.0 0.9890182091867115 -0.22955422877073184
4425000000.0 0.9890508992496772 -0.23998514721773687
4428000000.0 0.9783505559750171 -0.27212306152014637
4431000000.0 1.0017092071294027 -0.26611661967081773
4434000000.0 0.9657058273198734 -0.27441720038843825
4438000000.0 0.9894672340840498 -0.29233151905608207
4441000000.0 0.9703318129596641 -0.29680943321825515
4444000000.0 0.9532563926363924 -0.3040186659124897
4447000000.0 0.9516701163903303 -0.32910616065856774
4450000000.0 0.9472245208989334 -0.32436264881908117
4453000000.0 0.9836067302672161 -0.33866567912994283
4456000000.0 0.9107461577992205 -0.3367231675366358
4459000000.0 0.9051123149699629 -0.35104091584139097
4462000000.0 0.9963194790461627 -0.3990739472616395
4466000000.0 0.9706685632505005 -0.39196027182612153
4469000000.0 0.9616709507210065 -0.3741946886040738
4472000000.0 0.9399850070890692 -0.4150568812596697
4475000000.0 0.9147042603674429 -0.3838041889292343
4478000000.0 0.9799780492204399 -0.4424467562735691
4481000000.0 0.8932093766955118 -0.4085305614812577
4484000000.0 0.8925665697132432 -0.4586885532953816
4488000000.0 0.8923991325114689 -0.43953966262445665
4491000000.0 0.8930816322120876 -0.45393136014227475
4494000000.0 0.9032390471590442 -0.4450229090164446
4497000000.0 0.90551723351186 -0.42783562916929957
4500000000.0 0.9076175144537362 -0.4465051538917835
4503000000.0 0.9214554850156647 -0.4716863845177741
4506000000.0 0.8761146990967008 -0.48107957251951045
4509000000.0 0.8756805618553867 -0.47124711633423844
4512000000.0 0.8815757804593747 -0.5020701820563618
4516000000.0 0.8924868317413094 -0.5083725040025595
4519000000.0 0.8788497243879234 -0.4866707894103613
4522000000.0 0.8499797620375129 -0.5337651560526995
4525000000.0 0.8671927901965828 -0.48932693515949244
4528000000.0 0.8918667209775668 -0.5312698758830713
4531000000.0 0.8533831676890804 -0.5217304773803345
4534000000.0 0.8253197413541766 -0.5215491718083494
4538000000.0 0.8437385105191317 -0.5550363442062456
4541000000.0 0.8057283356625854 -0.5933730301534661
4544000000.0 0.8077536988638254 -0.5606272842391271
4547000000.0 0.836020153303708 -0.5472978081101725
4550000000.0 0.825148180609319 -0.6081555115414912
4553000000.0 0.8253160243003459 -0.607570036882919
4556000000.0 0.8082036012142644 -0.6020189704111876
4559000000.0 0.792770225866203 -0.6091141080983353
4562000000.0 0.832496875599783 -0.6291865001582623
4566000000.0 0.823611828142834 -0.6387081046726157
4569000000.0 0.7940232022651748 -0.6059574460799766
4572000000.0 0.781376830083391 -0.6221206471086016
4575000000.0 0.7709783477803966 -0.6693011028023168
4578000000.0 0.8137635252450528 -0.6554115661635185
4581000000.0 0.7821137711414037 -0.6683486738934951
4584000000.0 0.7685784250765503 -0.6514281908044925
4588000000.0 0.7731473333573505 -0.6826625187506797
4591000000.0 0.7637803934331915 -0.6756989215475002
4594000000.0 0.732513411849371 -0.691816746124127
4597000000.0 0.7522477657037197 -0.6998879046094275
4600000000.0 0.7104083578086379 -0.7004827200852956
4603000000.0 0.7155609262267637 -0.7096507152671152
4606000000.0 0.7536843622707773 -0.706786936839189
4609000000.0 0.7208221123871726 -0.7117173794442447
4612000000.0 0.7065362263151006 -0.7182036672473109
4616000000.0 0.6887531098489208 -0.7175478040910542
4619000000.0 0.6859980218486259 -0.7233267627876997
4622000000.0 0.7006898333450898 -0.746512310920021
4625000000.0 0.6542843083212908 -0.7560727193566591
4628000000.0 0.6929529267776752 -0.7426811921709389
4631000000.0 0.65126297146223 -0.776907849728916
4634000000.0 0.6556440743689027 -0.7613035112466272
4638000000.0 0.6528664580186893 -0.7745550369581666
4641000000.0 0.6636146969849253 -0.7786588751209591
4644000000.0 0.6255279236608412 -0.7726479105999592
4647000000.0 0.6506062211049661 -0.7925797193834085
4650000000.0 0.6153299580013348 -0.784947954951923
4653000000.0 0.643099598000423 -0.7938502911803054
4656000000.0 0.614905212871532 -0.8119659646141435
4659000000.0 0.6060522952592943 -0.8134894290411653
4662000000.0 0.6065911478254374 -0.8294635588921844
4666000000.0 0.5852514152116809 -0.8230772751228732
4669000000.0 0.6011768659309954 -0.82407380246509
4672000000.0 0.5572656946839831 -0.8557223259523459
4675000000.0 0.5573046618216067 -0.8455909065907756
4678000000.0 0.5549108709710113 -0.8048695659219631
4681000000.0 0.5377307891208014 -0.8894783883573965
4684000000.0 0.5273794162713499 -0.8716199395850597
4688000000.0 0.505332038872631 -0.8664826856399075
4691000000.0 0.5567427138621772 -0.869595277540897
4694000000.0 0.5243654550155737 -0.8631961596407622
4697000000.0 0.47497541826334383 -0.8612141913444349
4700000000.0 0.5158773365918308 -0.8579724013749803
4703000000.0 0.517650483875133 -0.843156902901125
4706000000.0 0.4608949244058021 -0.9095903894489964
4709000000.0 0.4824354009262487 -0.8854667252053551
4712000000.0 0.47798504705531497 -0.8646719361126408
4716000000.0 0.45639358733880586 -0.9141651840712737
4719000000.0 0.48311584159740273 -0.8881935859716431
4722000000.0 0.4628499839051001 -0.8824674065938611
4725000000.0 0.44338349992532444 -0.901453620332644
4728000000.0 0.4275414085065591 -0.9270852250524515
4731000000.0 0.4500825326356246 -0.921715292176255
4734000000.0 0.4482195302709622 -0.9009016687873411
4738000000.0 0.4387421018370512 -0.945603467395962
4741000000.0 0.423445531129563 -0.9582692019403607
4744000000.0 0.37574220655340795 -0.9792138856554475
4747000000.0 0.39226057909622675 -0.9255275571651574
4750000000.0 0.37999851266904605 -0.9604551895105506
4753000000.0 0.40791121092308785 -0.9350436312446598
4756000000.0 0.36290331759418804 -0.9474596453459128
4759000000.0 0.38085817517485104 -0.9581294129115766
4762000000.0 0.35493740180986777 -0.9795392736414298
4766000000.0 0.3176018701194575 -0.9644571040232445
4769000000.0 0.36144341129264884 -0.9923591101360926
4772000000.0 0.3361885498894888 -0.9872371012218312
4775000000.0 0.31130719177218047 -1.0293442133344564
4778000000.0 0.3156904764459825 -0.9895514469533929
4781000000.0 0.33919295536610694 -0.9458781180465923
4784000000.0 0.32488176879127956 -0.9617782557478721
4788000000.0 0.27817645970074223 -1.0093343547078193
4791000000.0 0.23771025148342817 -1.0022650387726033
4794000000.0 0.30077234861409513 -1.0223614324234733
4797000000.0 0.23326975876394176 -0.959818774353237
4800000000.0 0.2436802081467618 -0.9774632354030346
4803000000.0 0.20493242134163148 -0.9657995226593399
4806000000.0 0.23329894483074132 -1.017387408742269
4809000000.0 0.2074021142844157 -0.9870680925723573
4812000000.0 0.1657955085328476 -0.98410356553909
4816000000.0 0.23006581884430838 -0.9689682220323104
4819000000.0 0.2216998293576182 -1.0331155643608096
4822000000.0 0.2272723369948379 -1.0363766498175724
4825000000.0 0.20428402566145112 -1.0310818182736912
4828000000.0 0.17916327978958507 -1.010454818091156
4831000000.0 0.11340291116828438 -1.0488953709401787
4834000000.0 0.18985434883227958 -1.0238058955601705
4838000000.0 0.13053662091461293 -1.0478521114615584
4841000000.0 0.142556303437773 -1.0096257262059143
4844000000.0 0.16150116195504174 -1.018335760541295
4847000000.0 0.14789912282352008 -0.9754309848698604
4850000000.0 0.1165350925837177 -1.0579361791537232
4853000000.0 0.11121018762600597 -1.0094033108658047
4856000000.0 0.09620215732232268 -1.0132785191489084
4859000000.0 0.07433624785489255 -1.0387448977277929
4862000000.0 0.12580188933103803 -1.0128832922543363
4866000000.0 0.05388505171783059 -1.0397389403837851
4869000000.0 0.06769602930676136 -1.0281063612029389
4872000000.0 0.028972308136754762 -1.0678648520792378
4875000000.0 0.09320384510293912 -1.0607839020684398
4878000000.0 0.043388230212781924 -1.0586815262827134
4881000000.0 0.0023908234377418456 -1.0648210053452871
4884000000.0 0.03306060527454127 -1.0458030127324933
4888000000.0 0.06400546175185318 -1.0404516052711006
4891000000.0 0.024799438875957487 -1.0445885259085366
4894000000.0 -0.003537124339689224 -1.045707918312845
4897000000.0 0.04273181159672696 -1.0207112831787264
4900000000.0 -0.01978133074439392 -1.0614925833789792
4903000000.0 0.012645119804337374 -1.055255808105838
4906000000.0 -0.022931693911217126 -1.062720931400728
4909000000.0 -0.03606968006934469 -1.0294408101453127
4912000000.0 -0.058981656989452694 -1.0994748123430078
4916000000.0 -0.031153342334700677 -1.049492796986464
4919000000.0 -0.028467909402115063 -1.0605272646208754
4922000000.0 -0.034186823133519534 -1.0237609951988236
4925000000.0 -0.13297854395580216 -1.0335721104693163
4928000000.0 -0.05802514666075252 -1.0467070297417642
4931000000.0 -0.07044260244891946 -1.0523613512998116
4934000000.0 -0.12557921906525776 -1.0134882451165712
4938000000.0 -0.1374792265082433 -1.0193815912196718
4941000000.0 -0.11827493751162861 -1.0010035707424718
4944000000.0 -0.11882511537837159 -0.9501803631199777
4947000000.0 -0.14784240743046514 -0.9536042770167674
4950000000.0 -0.14709958278847385 -0.9745372302775075
4953000000.0 -0.2071440926605494 -1.0528152871638436
4956000000.0 -0.17801016259422664 -1.0252319132129346
4959000000.0 -0.2119936747676001 -0.9567381334123087
4962000000.0 -0.20508639431809486 -1.0387744343692962
4966000000.0 -0.16315996229413593 -1.0269832966177903
4969000000.0 -0.1949238972210165 -1.0324781838767871
4972000000.0 -0.21621158979602004 -1.0697099728198933
4975000000.0 -0.21185822624658893 -1.0000619365011059
4978000000.0 -0.23316367850714742 -1.0191833866852706
4981000000.0 -0.2386185755973315 -1.0215933966417157
4984000000.0 -0.23585042795152253 -0.9789789685385017
4988000000.0 -0.2442819782414154 -1.0077240112032795
4991000000.0 -0.21933752689726044 -1.0322648195357549
4994000000.0 -0.23511950352948113 -1.0187743912726772
4997000000.0 -0.31285532539631516 -1.0035245276713756
5000000000.0 -0.2690162038848295 -1.055875212457698
5003000000.0 -0.25191930006415686 -1.0259782371037314
5006000000.0 -0.34089694731406706 -1.0360474718090593
5009000000.0 -0.29430484098614706 -0.9762175655548074
5012000000.0 -0.32574136617345256 -1.0318873894782967
5016000000.0 -0.2930690199343901 -1.0489597873164402
5019000000.0 -0.3396545749239551 -0.9879910011443558
5022000000.0 -0.3176804128476728 -1.0023950557714116
5025000000.0 -0.3478595426620254 -1.0316284373356646
5028000000.0 -0.3866717223698227 -0.9692298279785418
5031000000.0 -0.39672059266378445 -0.9746708177621602
5034000000.0 -0.40346112422231606 -1.016465840467072
5038000000.0 -0.37803893344269646 -0.9262282496966805
5041000000.0 -0.37505971855559495 -0.987063734550191
5044000000.0 -0.35826620826803357 -0.9375213127584069
5047000000.0 -0.3794601246729021 -0.9949757679466765
5050000000.0 -0.2997064212058924 -0.9690214183689083
5053000000.0 -0.42980763285503865 -0.9560178571666489
5056000000.0 -0.35868011834465297 -0.9824626514222647
5059000000.0 -0.39272059459538083 -0.9641979777303783
5062000000.0 -0.48524022577947934 -0.9607227889977465
5066000000.0 -0.40342890397441766 -0.9150169005957187
5069000000.0 -0.4746219807495313 -0.9601013174731491
5072000000.0 -0.4049794985271139 -0.9164869972717604
5075000000.0 -0.4039312975681447 -0.9430849862594568
5078000000.0 -0.5249840023480827 -0.9135112218097112
5081000000.0 -0.47653522986855495 -0.8807144949416911
5084000000.0 -0.4898253769027834 -0.9536859037590755
5088000000.0 -0.46580810792934635 -0.8933546245931541
5091000000.0 -0.4880400945652182 -0.9001946127777529
5094000000.0 -0.5252770613158237 -0.9179325653382789
5097000000.0 -0.48574173165686607 -0.8915318300634065
5100000000.0 -0.5324678817056141 -0.882626190486253
5103000000.0 -0.5314931410380903 -0.911206865549599
5106000000.0 -0.5674397095634276 -0.9169420790318332
5109000000.0 -0.4898370244905411 -0.9293135856351642
5112000000.0 -0.5623497196560522 -0.8358307279934742
5116000000.0 -0.5034327687628258 -0.8718557488590815
5119000000.0 -0.5589115482107867 -0.872623627331417
5122000000.0 -0.541268069719086 -0.8975773921811852
5125000000.0 -0.5423452337072588 -0.8709151177052198
5128000000.0 -0.5930100879301059 -0.8755887293925944
5131000000.0 -0.5579009158359668 -0.8505387076265248
5134000000.0 -0.5732285212251026 -0.8528576644903099
5138000000.0 -0.5723761993417564 -0.8813267349795325
5141000000.0 -0.5635011336561222 -0.8849993426180778
5144000000.0 -0.5706749975435115 -0.8452932815297871
5147000000.0 -0.6847379694951136 -0.8444518112558784
5150000000.0 -0.6443322507052074 -0.8850629055877237
5153000000.0 -0.6532237226855744 -0.8348401156195897
5156000000.0 -0.6484067620458264 -0.7917389067290349
5159000000.0 -0.642680924738283 -0.8387860927452406
5162000000.0 -0.6608568875541261 -0.810852721629434
5166000000.0 -0.6928655207344008 -0.8282511577816034
5169000000.0 -0.652323214618333 -0.8173717854345486
5172000000.0 -0.6631654493693818 -0.7930005910380614
5175000000.0 -0.6890785132368463 -0.8240722216234084
5178000000.0 -0.6686717876253807 -0.8011020177532041
5181000000.0 -0.684579757741834 -0.8343117804549159
5184000000.0 -0.6953428132021248 -0.7676561677886808
5188000000.0 -0.7174858173966046 -0.7640503433049308
