! Created with skrf 1.8.0 (http://scikit-rf.org).
# Hz S RI R 50.0 
!freq ReS11 ImS11
4000000000.0 0.6499067663598173 0.7638783157268656
4003000000.0 0.7066902075951681 0.8250314642905292
4006000000.0 0.6777969192963442 0.7185142945587697
4009000000.0 0.6540254096793576 0.7766634589681765
4012000000.0 0.6654416092582268 0.8557466782615856
4016000000.0 0.7262935655062822 0.7433764327667005
4019000000.0 0.7193340566438511 0.7601498378391823
4022000000.0 0.6258779024337761 0.8300693331806116
4025000000.0 0.7961061489208131 0.7189842086977037
4028000000.0 0.7496827878546362 0.6640082851059359
4031000000.0 0.6754870860984421 0.692520437996927
4034000000.0 0.7608006983826532 0.6852831166149776
4038000000.0 0.779745384661478 0.6733143997272457
4041000000.0 0.7699905162901115 0.7325982552139025
4044000000.0 0.8310376209755634 0.745267777568862
4047000000.0 0.7688154649828091 0.7112198535017696
4050000000.0 0.7960104519437317 0.6767677374280828
4053000000.0 0.774853277223674 0.6283978177930047
4056000000.0 0.7789985072993139 0.6673771822532573
4059000000.0 0.7850659580983123 0.6721854649211645
4062000000.0 0.8110687369657282 0.6206779659572552
4066000000.0 0.7704115544138037 0.5963205736141076
4069000000.0 0.8807882299977366 0.6259418542329254
4072000000.0 0.7737321733235175 0.6672780812536858
4075000000.0 0.8402726580632602 0.6317561257128872
4078000000.0 0.8162589836962988 0.6215892467145129
4081000000.0 0.8179323177644005 0.6812045781539993
4084000000.0 0.851895476366156 0.603466577863365
4088000000.0 0.8130391021152736 0.6464816688520472
4091000000.0 0.8857925063186199 0.5899173558275463
4094000000.0 0.8527503531912428 0.5742846302783975
4097000000.0 0.8266422831913459 0.5671477929292006
4100000000.0 0.8698284354758999 0.5418797153147024
4103000000.0 0.850733136902821 0.6125704887508487
4106000000.0 0.9064997931613173 0.5873207411470224
4109000000.0 0.87054334906006 0.5598879252106519
4112000000.0 0.8587960649837059 0.5460770235162942
4116000000.0 0.8875176510864434 0.5410768074878147
4119000000.0 0.894512133186713 0.5372983501843173
4122000000.0 0.9126011747865033 0.49133184054901
4125000000.0 0.9091348309656361 0.5185527651600876
4128000000.0 0.886916112236653 0.5219693500221588
4131000000.0 0.9012710359055652 0.48083455156210975
4134000000.0 0.8914354472635293 0.4982669181825842
4138000000.0 0.8858238892437935 0.46743584911221453
4141000000.0 0.92134454424969 0.4930723093414542
4144000000.0 0.9181179816061236 0.4967352608966035
4147000000.0 0.9331880401239949 0.4699414677086276
4150000000.0 0.9373295144763162 0.44945816194860383
4153000000.0 0.9279537017194825 0.4316191567830685
4156000000.0 0.960446974512678 0.4678598396478457
4159000000.0 0.9298248144346482 0.4332144338826934
4162000000.0 0.8960858201635886 0.4472444682231055
4166000000.0 0.9537166319436554 0.4262304921647928
4169000000.0 0.9370005609896574 0.39387948234834524
4172000000.0 0.9634936311591004 0.40728331281128266
4175000000.0 0.9755748216282935 0.43468482391474456
4178000000.0 0.9592229290498916 0.3627058310191519
4181000000.0 0.963969795627154 0.3815667170493291
4184000000.0 0.9503070986275132 0.3783342460631473
4188000000.0 0.9716193617424203 0.34917697368330003
4191000000.0 0.94699729292825 0.3775376119155323
4194000000.0 0.9438207513468723 0.32089191102852777
4197000000.0 0.977441003358754 0.34095442456421327
4200000000.0 0.9698198216313549 0.3683576155745264
4203000000.0 0.9839770912891465 0.35311499940111335
4206000000.0 0.9868935914006955 0.3300701529545201
4209000000.0 0.9505623067249829 0.29468027009529846
4212000000.0 0.9826138651868078 0.2912391726701443
4216000000.0 0.9959354820086489 0.2873753977189211
4219000000.0 0.9900306020229614 0.30692071809038857
4222000000.0 0.9835907531551384 0.2568443228912116
4225000000.0 0.9728368396472213 0.24950273141982846
4228000000.0 0.9952607601146735 0.27073673002566234
4231000000.0 0.9930904726292616 0.2209272644557717
4234000000.0 1.0161097633195046 0.22136634397367838
4238000000.0 0.9981306241765515 0.21316466232989897
4241000000.0 1.0018288405436961 0.202194038343049
4244000000.0 1.0020175284730357 0.20447459765961568
4247000000.0 0.991673679578714 0.20256862874018527
4250000000.0 0.982121016688855 0.17847741567008818
4253000000.0 0.981632180300757 0.15714076626451356
4256000000.0 1.0453612254754705 0.17864457303945563
4259000000.0 0.9528029917796299 0.13499740383129705
4262000000.0 1.0122994495111775 0.1292568344248033
4266000000.0 1.0337717719910422 0.11676351851257974
4269000000.0 0.9983250890987149 0.14164804844222295
4272000000.0 1.0189325882810651 0.14203366315481517
4275000000.0 0.9876442862964954 0.1316662289781047
4278000000.0 1.0404908049066586 0.09723183896400772
4281000000.0 1.0025069341355706 0.11598997110107402
4284000000.0 1.0388082386160415 0.07701590370033215
4288000000.0 1.003817570176002 0.10967593853336519
4291000000.0 0.979911287238747 0.07688544859121911
4294000000.0 0.9974225572408881 0.08853854035322574
4297000000.0 0.9939732384130915 0.07264134441708857
4300000000.0 1.0204490793053231 0.0549935999383263
4303000000.0 1.0168066994993468 0.01983223138670398
4306000000.0 1.0184017470709832 0.06680277669564422
4309000000.0 0.9950725725962026 0.0422113115985394
4312000000.0 1.0146787391294234 0.07315412060705753
4316000000.0 1.0364326969892046 0.051635243781052956
4319000000.0 1.0144618655923074 0.02280140549545888
4322000000.0 0.9954300041125993 -0.0379800293282833
4325000000.0 1.0179579586756125 -0.009628405888323754
4328000000.0 1.0060247530064281 -0.024072871940899868
4331000000.0 1.0175893727440397 -0.08565736897392602
4334000000.0 1.012008359704339 -0.04769584955555299
4338000000.0 1.0087284511895567 -0.056101931199094804
4341000000.0 1.0207648458100975 -0.03519626638908194
4344000000.0 1.0059714137483147 -0.06631341400489461
4347000000.0 1.0412090705820647 -0.10266701192589328
4350000000.0 0.9894218498643433 -0.10070850921622183
4353000000.0 0.9773105901089021 -0.06220156551232761
4356000000.0 1.0082483603660835 -0.12936702860113936
4359000000.0 0.9747100008566417 -0.11529926423486853
4362000000.0 1.0113088481895505 -0.18294243474999194
4366000000.0 1.0188801819177815 -0.14452112029742087
4369000000.0 0.9830025685256526 -0.14047107140778028
4372000000.0 0.977650207552434 -0.188665659839959
4375000000.0 0.9946983620981114 -0.1345937425262785
4378000000.0 0.9974166885079224 -0.1576448089359694
4381000000.0 0.9797738679104941 -0.16166554166030625
4384000000.0 1.0590755372707004 -0.21568900541594038
4388000000.0 0.9752291935790465 -0.17144455267229122
4391000000.0 1.005358676653656 -0.20905554467206475
4394000000.0 0.9695933199989419 -0.21471510336084254
4397000000.0 0.9716109727215219 -0.22760781672888314
4400000000.0 0.9945811674506331 -0.23488140470354177
4403000000.0 0.9873825801153207 -0.24401722234939183
4406000000.0 0.9660196874567355 -0.27797934414692876
4409000000.0 1.00178729117379 -0.2606964720652129
4412000000.0 0.9651194482365596 -0.3158359962206961
4416000000.0 0.9615877568250875 -0.28529627736199875
4419000000.0 0.9699441510123522 -0.3091576954124098
4422000000.0 0.9641891558741265 -0.2716924204173364
4425000000.0 0.9924094442201685 -0.28553221394196016
4428000000.0 0.9530967879684071 -0.32044406759342325
4431000000.0 0.9784016938056637 -0.30237055417696734
4434000000.0 0.9467841081559805 -0.32199322738608505
4438000000.0 0.977262663777964 -0.33921240791380386
4441000000.0 0.9705523561170013 -0.34096971544602744
4444000000.0 0.9293729034535616 -0.3404773686887085
4447000000.0 0.9459404494339878 -0.3598989014184286
4450000000.0 0.935909725982306 -0.3504057820926625
4453000000.0 0.9608852135704249 -0.38241974675548024
4456000000.0 0.9081360845192433 -0.386810793393018
4459000000.0 0.8874697376563343 -0.37053989306464924
4462000000.0 0.9742358089347942 -0.42679937110337596
4466000000.0 0.954633203364223 -0.42952040910298195
4469000000.0 0.9311622088789079 -0.4074694951066497
4472000000.0 0.9459360580945972 -0.4519544079077054
4475000000.0 0.8794151066148832 -0.4297511584583479
4478000000.0 0.9499285404177711 -0.48251330205948695
4481000000.0 0.8756559292783553 -0.4537028323163302
4484000000.0 0.8774427180474045 -0.49585999615431486
4488000000.0 0.8809251301317629 -0.46308462722739835
4491000000.0 0.8846903374237705 -0.4830222504780872
4494000000.0 0.8811300639820275 -0.4785269405321142
4497000000.0 0.8932156887348459 -0.482316434771029
4500000000.0 0.8959435253252046 -0.4952879754668295
4503000000.0 0.8899893037346025 -0.5155799614205666
4506000000.0 0.8561717037378498 -0.5262315636522379
4509000000.0 0.8390373592392038 -0.5064439205245528
4512000000.0 0.8375559487180397 -0.5303007219123276
4516000000.0 0.8651027212056126 -0.565979541114901
4519000000.0 0.8324231494045501 -0.5188843294950648
4522000000.0 0.8379433605681268 -0.5507104626161423
4525000000.0 0.847723349011603 -0.5354212113053778
4528000000.0 0.8522046809794648 -0.5726197034909248
4531000000.0 0.8347293814133256 -0.5762188288766179
4534000000.0 0.8112595100810365 -0.5784966006292037
4538000000.0 0.8265358216667795 -0.5929152575046263
4541000000.0 0.7853619056879148 -0.6215660191677526
4544000000.0 0.7866679494847986 -0.5997570201389028
4547000000.0 0.8047468575202765 -0.5862519789672214
4550000000.0 0.7927648385295836 -0.6503441879698978
4553000000.0 0.7740777423619318 -0.6271601007786229
4556000000.0 0.7793233629147143 -0.6437882235831556
4559000000.0 0.757802951753455 -0.6654065621105285
4562000000.0 0.7886966964290805 -0.6670001948853501
4566000000.0 0.7736036725014632 -0.663798151141983
4569000000.0 0.7536957153526447 -0.6541830510958415
4572000000.0 0.7330783648582625 -0.6658987616879152
4575000000.0 0.7361670438033288 -0.6865077054455414
4578000000.0 0.7684965342430705 -0.6817581762922843
4581000000.0 0.7207628395517187 -0.7108152717971183
4584000000.0 0.7081488652108984 -0.7061388462406755
4588000000.0 0.7506650511858363 -0.6995998480319117
4591000000.0 0.7310174288079545 -0.7067975936692379
4594000000.0 0.7019880894201102 -0.7291946012696394
4597000000.0 0.7195847015983972 -0.7395615939869928
4600000000.0 0.6751198106973559 -0.7387332012561021
4603000000.0 0.698475009473547 -0.7403997674322365
4606000000.0 0.6967154480577474 -0.7648922293457131
4609000000.0 0.6664634694146867 -0.7501442417569255
4612000000.0 0.6741012992875373 -0.7638560511673155
4616000000.0 0.6632912532599804 -0.7683666009668421
4619000000.0 0.6571716949182422 -0.7643300176458295
4622000000.0 0.6463460483236871 -0.7882489885973895
4625000000.0 0.6135249586836342 -0.7889183921185798
4628000000.0 0.6509776533908153 -0.7630138083559164
4631000000.0 0.609770107447769 -0.8040004324566976
4634000000.0 0.6243257065403736 -0.7962261003832435
4638000000.0 0.6201426870252256 -0.8086368161814709
4641000000.0 0.6102204810156489 -0.8056890130829458
4644000000.0 0.6067867320148467 -0.8069036792825479
4647000000.0 0.5965963162670702 -0.8235543413458681
4650000000.0 0.5617216910487952 -0.8387715514623663
4653000000.0 0.6026411512695894 -0.833752771217649
4656000000.0 0.5527042728309469 -0.8457355039315679
4659000000.0 0.5654064597251658 -0.8577403385711109
4662000000.0 0.5573143886769593 -0.8728583564343438
4666000000.0 0.535965694606933 -0.8539679822197562
4669000000.0 0.5441417576721985 -0.8499222852280062
4672000000.0 0.5111015429493556 -0.8873913203190371
4675000000.0 0.5192765696596684 -0.9022833784720864
4678000000.0 0.5168065116233952 -0.852309199183642
4681000000.0 0.4804773478731957 -0.9022667221341265
4684000000.0 0.4673595284437073 -0.8927320593970148
4688000000.0 0.4702097321023505 -0.8945624424959153
4691000000.0 0.5094854884861315 -0.8763229618715926
4694000000.0 0.46966661811517985 -0.8851524937019892
4697000000.0 0.4296735033242028 -0.855751163179141
4700000000.0 0.48617230382428434 -0.8959932657407845
4703000000.0 0.47004679898177487 -0.8574110710132969
4706000000.0 0.4326999975025999 -0.9188527762910014
4709000000.0 0.4366626422940078 -0.9178773733683464
4712000000.0 0.45322903074649346 -0.9327698995104095
4716000000.0 0.4270053777772813 -0.9292948700230088
4719000000.0 0.4421441168992313 -0.9345319227361002
4722000000.0 0.43356591969973135 -0.9272400076154013
4725000000.0 0.4144956303612976 -0.9484394759717889
4728000000.0 0.3551987698069272 -0.9389405733014293
4731000000.0 0.3914664678333745 -0.980235593204015
4734000000.0 0.36975757837428846 -0.9324191577381886
4738000000.0 0.3704753106706404 -1.008288363662729
4741000000.0 0.37308657425510644 -1.0019694264516892
4744000000.0 0.32413270189699583 -0.9420858997833853
4747000000.0 0.3691407109003674 -0.9418548450819149
4750000000.0 0.34153584426855454 -0.9652990587106629
4753000000.0 0.3449210588877221 -0.9490303660179732
4756000000.0 0.3406868624464189 -0.994858642474719
4759000000.0 0.3224350019600636 -0.9940042606416573
4762000000.0 0.28272627662058236 -1.0130803196342497
4766000000.0 0.24936519897898868 -1.0075272511066542
4769000000.0 0.26769449476048346 -1.020366009957283
4772000000.0 0.27875649006658726 -1.0034183259496032
4775000000.0 0.24176963704621265 -1.0516835853292539
4778000000.0 0.23181000031591342 -1.0026388880459005
4781000000.0 0.2505386950341784 -0.9876807062434445
4784000000.0 0.27218778645245717 -0.9804093457898465
4788000000.0 0.21996895636038374 -1.0158492923156508
4791000000.0 0.2290951072766403 -0.9976605245068232
4794000000.0 0.23777989435088254 -1.0482009560265018
4797000000.0 0.21849115254594748 -0.9904925317114833
4800000000.0 0.17834974791558056 -0.9805119060616763
4803000000.0 0.1192587721154234 -1.0101870030006634
4806000000.0 0.19566373178264973 -1.013731883131685
4809000000.0 0.1319474602077639 -1.0408988922124802
4812000000.0 0.12002704098045408 -1.0065173340993965
4816000000.0 0.16974056155372721 -1.003083811466017
4819000000.0 0.177962986635036 -1.0120312140671948
4822000000.0 0.1371270199803993 -1.0318908639606912
4825000000.0 0.14727390508613472 -1.0422981859850813
4828000000.0 0.12335186818308069 -1.0030699539345869
4831000000.0 0.06979422702752695 -1.0436283765901568
4834000000.0 0.11662800137700165 -1.0397565531280086
4838000000.0 0.057717668852824054 -1.0257456411854617
4841000000.0 0.07150242129585187 -1.00533579709546
4844000000.0 0.10930102132071505 -1.0213879477387569
4847000000.0 0.08874294395016237 -0.9926434536150333
4850000000.0 0.03934674722281292 -1.0610906121107164
4853000000.0 0.046166884216530334 -0.9792027349703556
4856000000.0 0.026221393640851486 -1.0131938451543616
4859000000.0 0.02185891191428583 -1.0709108829219103
4862000000.0 0.05247684131467644 -1.01859384787246
4866000000.0 -0.0025074675902142587 -1.0233769475531749
4869000000.0 0.0010274846452985494 -1.0424444121798442
4872000000.0 -0.03871235931871145 -1.0476283324032696
4875000000.0 0.05246480024058027 -1.0787961487512785
4878000000.0 -0.008078227360897881 -1.0603503915516026
4881000000.0 -0.07011839552258699 -1.1045333518411475
4884000000.0 -0.0035185560026268457 -1.073031387216733
4888000000.0 -0.035450148173612306 -1.0496455112329313
4891000000.0 -0.030348448064769995 -1.0433699958790765
4894000000.0 -0.05920881827637816 -1.0286711834301345
4897000000.0 -0.03916296950121001 -1.0216471311655644
4900000000.0 -0.05906184028569804 -1.0367936072001556
4903000000.0 -0.06584423470272396 -1.0327783310980194
4906000000.0 -0.10468315559843755 -1.0434501899054502
4909000000.0 -0.13965992762005347 -1.0163055528856662
4912000000.0 -0.1287122404578822 -1.054513466941006
4916000000.0 -0.09345706644196006 -1.0533580429836276
4919000000.0 -0.1076641619327413 -1.0427950041432104
4922000000.0 -0.15013594986439432 -1.017673783941345
4925000000.0 -0.20096159489936677 -1.0375297189431305
4928000000.0 -0.09522798854921412 -0.9955125212968604
4931000000.0 -0.16050684471519544 -1.0318819941094468
4934000000.0 -0.15412152605808233 -0.9709965373779436
4938000000.0 -0.21924037612988528 -1.0065605390420096
4941000000.0 -0.17901317387324883 -1.005295671822187
4944000000.0 -0.16902027776395187 -0.9853030661663689
4947000000.0 -0.18622702304843716 -1.0205146255422177
4950000000.0 -0.2115797634165431 -0.9803297724469983
4953000000.0 -0.27506241804380055 -1.0573363431673466
4956000000.0 -0.25455287288907374 -1.0009573658393547
4959000000.0 -0.26124001258961815 -0.9869587062584654
4962000000.0 -0.2652519378918208 -1.0546031849166015
4966000000.0 -0.26153759542699534 -1.0050336706940348
4969000000.0 -0.26977992583293897 -1.0304561210491725
4972000000.0 -0.2753955496128643 -1.0171944750761355
4975000000.0 -0.2632179997173827 -1.0046348528513873
4978000000.0 -0.28962476325502245 -0.9784364481701957
4981000000.0 -0.29697587995928953 -0.9930837098599413
4984000000.0 -0.30823054247989834 -0.9799598839389372
4988000000.0 -0.2944963410164427 -0.9873750542227904
4991000000.0 -0.2854163567498427 -1.0314689389507352
4994000000.0 -0.3160011093867394 -0.9969178314960505
4997000000.0 -0.36308723017128103 -0.9603020954051926
5000000000.0 -0.34410573200448025 -1.006030284078623
5003000000.0 -0.31785927736674974 -1.0113847411697288
5006000000.0 -0.393343486489108 -1.0124356565116728
5009000000.0 -0.3650656318300778 -0.9756647663140605
5012000000.0 -0.384879926899745 -0.9485035669203792
5016000000.0 -0.39023311783985365 -1.0355660996815728
5019000000.0 -0.4260835115526146 -0.9472157596963631
5022000000.0 -0.4151442094563619 -0.9622637672706467
5025000000.0 -0.46149501400861387 -0.9842855202996996
5028000000.0 -0.452711207868568 -0.9669081087127047
5031000000.0 -0.4598316464610088 -0.9562892315397985
5034000000.0 -0.5115139287653864 -0.942125850120366
5038000000.0 -0.4564459916298791 -0.91044780477242
5041000000.0 -0.44337893799024897 -0.9435179281797622
5044000000.0 -0.3807272742275154 -0.9185662941836482
5047000000.0 -0.4475425794342573 -0.9375097724375762
5050000000.0 -0.4056546638121383 -0.9347994035142009
5053000000.0 -0.49803083432493667 -0.9491075395031168
5056000000.0 -0.4511114103393036 -0.9383298755114313
5059000000.0 -0.45097581703313766 -0.937735707470777
5062000000.0 -0.5440750724467481 -0.9143438688271748
5066000000.0 -0.48077690158882014 -0.9352259328935217
5069000000.0 -0.49411632500816394 -0.9182480534020335
5072000000.0 -0.5056233885976731 -0.8997588200564024
5075000000.0 -0.5074642367823232 -0.8850999092443896
5078000000.0 -0.5461315200176906 -0.8891163819533479
5081000000.0 -0.5575069182556939 -0.8574374471285867
5084000000.0 -0.545514035880342 -0.928576857811332
5088000000.0 -0.556770710521925 -0.8747243049409192
5091000000.0 -0.6271302903149361 -0.9057482023564181
5094000000.0 -0.5752754170376247 -0.8733793929446519
5097000000.0 -0.5761547738312672 -0.8917418782739581
5100000000.0 -0.5543065833290174 -0.8613312775245273
5103000000.0 -0.6272585491714718 -0.8236336389462157
5106000000.0 -0.6618454719324465 -0.8493859575211706
5109000000.0 -0.5816150160839473 -0.8504444080766673
5112000000.0 -0.618244539148708 -0.8640387740454092
5116000000.0 -0.6081203212459682 -0.7914997096413333
5119000000.0 -0.614279598845379 -0.7809214552666541
5122000000.0 -0.638443136679483 -0.8101322400937949
5125000000.0 -0.6106441218597305 -0.8403280387870697
5128000000.0 -0.6959765018831201 -0.8358728640529849
5131000000.0 -0.6711553660222896 -0.7819861140802814
5134000000.0 -0.636812332608321 -0.8138876745991953
5138000000.0 -0.6436498417234119 -0.8163506664457092
5141000000.0 -0.6805528872697768 -0.8388810862776317
5144000000.0 -0.6817752948618179 -0.7890566994587938
5147000000.0 -0.6873684965319725 -0.8235673005564822
5150000000.0 -0.67989517214213 -0.7866821428834625
5153000000.0 -0.6835373365327597 -0.7838425023854435
5156000000.0 -0.6958939422531957 -0.7950160584110121
5159000000.0 -0.7186072901261475 -0.8179551079671622
5162000000.0 -0.7332113675404703 -0.7502620105679398
5166000000.0 -0.7574428103077908 -0.7545696006618653
5169000000.0 -0.7449184283833127 -0.7618185064906059
5172000000.0 -0.735134747070759 -0.7280078555035551
5175000000.0 -0.7808648647424262 -0.7942063345791882
5178000000.0 -0.7744407126503958 -0.764325494968422
5181000000.0 -0.7613557445989653 -0.7120203341574408
5184000000.0 -0.7811718321740528 -0.6945813844503003
5188000000.0 -0.7540177059741846 -0.7070526273326463
