! Created with skrf 1.8.0 (http://scikit-rf.org).
# Hz S RI R 50.0 
!freq ReS11 ImS11
4000000000.0 0.5950636589639062 0.7786618150347009
4003000000.0 0.6409016017867636 0.8542817452534655
4006000000.0 0.6888108796497511 0.7842117703597273
4009000000.0 0.6230586756281628 0.7820052440389975
4012000000.0 0.6411625308395921 0.8079541167157839
4016000000.0 0.6654696358368092 0.8028655485616212
4019000000.0 0.690862260061011 0.7523819974376605
4022000000.0 0.5936357269510725 0.8425947886274562
4025000000.0 0.7199284956067544 0.7612624221287542
4028000000.0 0.7003403797928728 0.7502194556896227
4031000000.0 0.6525677233283069 0.7763491456574557
4034000000.0 0.7119988742700024 0.7408714115017342
4038000000.0 0.7462100515175075 0.7413203625688316
4041000000.0 0.7437854640677987 0.7659586467918446
4044000000.0 0.7672045887905904 0.7795027673262582
4047000000.0 0.7238598937773999 0.7719892836500446
4050000000.0 0.8121756891476266 0.6949403683079135
4053000000.0 0.7330080762048793 0.697488935192895
4056000000.0 0.7470676313189302 0.7161918839041217
4059000000.0 0.7235865970342129 0.7165779312134075
4062000000.0 0.7593183412113717 0.6818967113958545
4066000000.0 0.7436216683687358 0.6624915532520743
4069000000.0 0.7972218768686958 0.7019104717752156
4072000000.0 0.7735109049934202 0.665014743704188
4075000000.0 0.8031684218166567 0.7187700166665012
4078000000.0 0.8101672624726256 0.6564996606097913
4081000000.0 0.7891710339570087 0.6996136024753432
4084000000.0 0.8082374272674738 0.6041287469325303
4088000000.0 0.7607664532560633 0.694304026812531
4091000000.0 0.8678878671304506 0.6630712238591912
4094000000.0 0.8009141242349567 0.6244364109031373
4097000000.0 0.8280538173720219 0.6422780547363605
4100000000.0 0.8261726745164464 0.611944094368682
4103000000.0 0.8081146175419576 0.6395172829111255
4106000000.0 0.8060553723259529 0.6054900366590271
4109000000.0 0.8437189975836417 0.5702879824424654
4112000000.0 0.8560031782276578 0.6169808976324036
4116000000.0 0.8558638897719362 0.6173005384417832
4119000000.0 0.8755613344780451 0.5554580698538254
4122000000.0 0.8820863970992916 0.5430974495033786
4125000000.0 0.881546411958361 0.5671305659522099
4128000000.0 0.8296401286766126 0.5451191997786919
4131000000.0 0.8413484714591695 0.5166631815649625
4134000000.0 0.8595127726528357 0.5519062244019218
4138000000.0 0.8550817102343224 0.4758358299800129
4141000000.0 0.8810552808670506 0.5275826950459395
4144000000.0 0.8562387094298312 0.5591255344758974
4147000000.0 0.8971229726147427 0.48717534826285397
4150000000.0 0.9246607051727468 0.516846484212014
4153000000.0 0.9134737802860453 0.49528966234928207
4156000000.0 0.9029820639311747 0.5073260661773306
4159000000.0 0.9061244754330624 0.49383969847612147
4162000000.0 0.8914961865861555 0.47964507407422097
4166000000.0 0.9042223487365602 0.4631915291836646
4169000000.0 0.8959780131577468 0.44256872070248787
4172000000.0 0.9062120986359493 0.4880673510981785
4175000000.0 0.8856251125016326 0.449257676912662
4178000000.0 0.9255573506103408 0.42561922756115544
4181000000.0 0.9272621633038507 0.4406124076251512
4184000000.0 0.9312096675293646 0.43182116316845004
4188000000.0 0.926319503628527 0.37662518167700276
4191000000.0 0.9131373810747466 0.4265421601655314
4194000000.0 0.9171217565033606 0.3945719279118488
4197000000.0 0.9537951436726573 0.4013917848371022
4200000000.0 0.9381532975412541 0.40010779281534237
4203000000.0 0.9509813675250106 0.38676103223998315
4206000000.0 0.9797480138043941 0.39279407950855344
4209000000.0 0.9355522714622901 0.3688035490933737
4212000000.0 0.965743334379612 0.3152311501179047
4216000000.0 0.9664921963457643 0.3593027687745775
4219000000.0 0.9694074552031064 0.3523998946490283
4222000000.0 0.9582275596709218 0.3261010455211297
4225000000.0 0.9656794300873242 0.33273156854608044
4228000000.0 0.965466238175205 0.32810509368412244
4231000000.0 0.9667417570480492 0.28936477489511464
4234000000.0 0.9919845768136127 0.2847041264938363
4238000000.0 0.9839455083735663 0.27965551776742814
4241000000.0 0.9631588161995357 0.2498483292838527
4244000000.0 0.9873154546979697 0.2749336546170292
4247000000.0 0.972111200075707 0.2729541668515468
4250000000.0 0.9671797726083051 0.23402860824416644
4253000000.0 0.9663950875589098 0.24441949205093194
4256000000.0 1.0105151995979662 0.24789112540230174
4259000000.0 0.9637035081406023 0.21442364714007087
4262000000.0 1.0031094686289441 0.20217528540812826
4266000000.0 1.0030397740113715 0.18552021145707165
4269000000.0 1.004350576538046 0.22362343944416443
4272000000.0 0.9873863309120452 0.20248258652182977
4275000000.0 0.9982223322092816 0.19995722817809786
4278000000.0 1.0228764377795978 0.19113978962833172
4281000000.0 0.9932256794179246 0.1716836120267804
4284000000.0 1.0227283469524844 0.1355018170638077
4288000000.0 0.9813843441149223 0.1842674089048359
4291000000.0 1.004260354368115 0.14578883849762486
4294000000.0 0.9966623636671611 0.13602194073299329
4297000000.0 0.971917168794464 0.15367531361010284
4300000000.0 1.0036125005734942 0.10893714375376409
4303000000.0 1.0003419831916922 0.10465594824506201
4306000000.0 1.0065770311588427 0.11942570728799859
4309000000.0 1.0055426651544068 0.10246619695007632
4312000000.0 1.0347337086405513 0.10198567021292518
4316000000.0 1.0313844850815506 0.08394131232709233
4319000000.0 0.9868007389647052 0.10008421117141096
4322000000.0 1.0101465796108695 0.04216846363093239
4325000000.0 1.0058476501391047 0.07395698008745642
4328000000.0 1.0071685765046512 0.03788074183424443
4331000000.0 1.0157060016885382 0.005968855373609583
4334000000.0 1.015936955219107 0.033851241182139724
4338000000.0 0.9904585928841806 0.04748069920951996
4341000000.0 1.046887472318925 0.04546482858410886
4344000000.0 1.0332272825299889 0.019594674773115467
4347000000.0 1.0193927257647053 0.0014992917599752353
4350000000.0 0.9819740133189677 -0.03108669773193501
4353000000.0 0.98581150662049 -0.012257647331648358
4356000000.0 1.0117983303971392 -0.04805517742562063
4359000000.0 0.9395921579275164 -0.051849229257904944
4362000000.0 1.0147480069590837 -0.09103719775578321
4366000000.0 1.0301896546229685 -0.0725349297774715
4369000000.0 0.9620931562992007 -0.08621359372809786
4372000000.0 0.9984269878117418 -0.11549815597220565
4375000000.0 0.9937073333770956 -0.06572408615613157
4378000000.0 0.9910827641397383 -0.10853245647820974
4381000000.0 0.9822835254364801 -0.08765612268529832
4384000000.0 1.0642106343372224 -0.1336825514193869
4388000000.0 0.9887152975721589 -0.10937097946583776
4391000000.0 1.007718544876837 -0.12457328847350856
4394000000.0 0.9731413292152796 -0.12638061132103234
4397000000.0 0.9805639335643423 -0.15649321462614255
4400000000.0 1.0207444440493019 -0.16099845061021417
4403000000.0 0.9891108592890643 -0.16509602114889008
4406000000.0 0.9889407693184231 -0.19581130244657807
4409000000.0 1.011364101837626 -0.19318673619474488
4412000000.0 0.987353646172443 -0.24167652745178722
4416000000.0 0.9649570777653831 -0.21739804178331795
4419000000.0 0.9811731769489433 -0.2232823437372333
4422000000.0 0.9827649787011732 -0.1847680820521743
4425000000.0 1.0074134923898397 -0.20239374966439772
4428000000.0 0.9742695575081505 -0.24000528354874587
4431000000.0 0.9985394039000959 -0.24486829533175952
4434000000.0 0.9644949262898636 -0.2544000164642555
4438000000.0 0.9969435712884036 -0.27734002213961734
4441000000.0 0.9753407848425353 -0.2562774544509519
4444000000.0 0.948416024268049 -0.2586925653737322
4447000000.0 0.9544046291160672 -0.2803957964704075
4450000000.0 0.9584632929755695 -0.27323421283907356
4453000000.0 0.999186805300692 -0.30628010557150204
4456000000.0 0.9308715511143896 -0.31730968864040354
4459000000.0 0.9059177059328547 -0.320654448420132
4462000000.0 1.0134505166973085 -0.3526367191729384
4466000000.0 0.9940197274314397 -0.3477169093441352
4469000000.0 0.9501920502593425 -0.3136311435672266
4472000000.0 0.953632027455583 -0.37254755656795985
4475000000.0 0.9124315047337106 -0.3537467939730613
4478000000.0 0.9752896726527703 -0.39166086684681756
4481000000.0 0.9112308318021142 -0.3754159305316006
4484000000.0 0.9188782951682153 -0.4252910657807819
4488000000.0 0.9231127448211212 -0.37284982685544815
4491000000.0 0.9236735061123816 -0.4215791726322082
4494000000.0 0.9124123822757941 -0.39422427152912815
4497000000.0 0.922542658590126 -0.3849384173908356
4500000000.0 0.9119401827771942 -0.42180758088467407
4503000000.0 0.9183343534604391 -0.42921159878777015
4506000000.0 0.901668014780937 -0.44520042018920725
4509000000.0 0.8877695380911887 -0.4406487844524489
4512000000.0 0.8607754395314965 -0.4499612046291276
4516000000.0 0.9309006417433656 -0.47496038016589387
4519000000.0 0.8818358203767592 -0.4497266433093466
4522000000.0 0.8587759031200357 -0.47200705815394556
4525000000.0 0.8816645682124433 -0.44825289990371187
4528000000.0 0.9060257320943932 -0.49957152455955145
4531000000.0 0.8734410315545017 -0.5047526307832193
4534000000.0 0.8567100982522015 -0.5019343313405725
4538000000.0 0.8553827262250102 -0.5067492522642123
4541000000.0 0.837027319920446 -0.5417372008235349
4544000000.0 0.8445798549649977 -0.5276125828954427
4547000000.0 0.8373049059306448 -0.5143999952910017
4550000000.0 0.8548798490009608 -0.5646645596251251
4553000000.0 0.8436526280558703 -0.5587920622760421
4556000000.0 0.8225125831816602 -0.570159388278235
4559000000.0 0.8362029607815921 -0.5745035598187493
4562000000.0 0.8478985261749648 -0.5944249491925562
4566000000.0 0.8214844003764443 -0.6029717975888502
4569000000.0 0.7990559953450922 -0.5797682781909084
4572000000.0 0.7941689656276459 -0.5756696392512932
4575000000.0 0.782905410107263 -0.6276623407555674
4578000000.0 0.8231190300744884 -0.6069644776235538
4581000000.0 0.7842932160546526 -0.6356621065119348
4584000000.0 0.7787347439064694 -0.6325749265791812
4588000000.0 0.79896564087459 -0.6330252005601011
4591000000.0 0.7853789423572923 -0.6259521476799089
4594000000.0 0.7493823488679403 -0.6551221649348097
4597000000.0 0.7732533152909808 -0.645357055867945
4600000000.0 0.7265770637892793 -0.6555107169530148
4603000000.0 0.7598282798488707 -0.6811796112706369
4606000000.0 0.7524421696640872 -0.6857091119589953
4609000000.0 0.7590117369993367 -0.6796899431334452
4612000000.0 0.7388701805216562 -0.6836924019965732
4616000000.0 0.7141211706205717 -0.7025533686157489
4619000000.0 0.7045225302415046 -0.7014182220625234
4622000000.0 0.7200313825675059 -0.7282279738044153
4625000000.0 0.6700279029031045 -0.7190917086062707
4628000000.0 0.7028695979187518 -0.7051295194961564
4631000000.0 0.6811626742235812 -0.7327245363287128
4634000000.0 0.684377122975849 -0.7322034573385783
4638000000.0 0.6897384412983694 -0.7369126522759049
4641000000.0 0.6722670863765864 -0.7672884324868434
4644000000.0 0.6718392922385373 -0.7610002111754118
4647000000.0 0.6792790812870934 -0.7768456892713227
4650000000.0 0.6456328489538335 -0.7746464317977962
4653000000.0 0.6787848464036823 -0.7712305774833728
4656000000.0 0.6406203109588866 -0.7815335857276646
4659000000.0 0.6246928501691741 -0.796255825594931
4662000000.0 0.6342708640518472 -0.7872182268514326
4666000000.0 0.6133243830828121 -0.8162034877427952
4669000000.0 0.6274486614808297 -0.7851611771205672
4672000000.0 0.6131197716223711 -0.8128610687747398
4675000000.0 0.5785057975841583 -0.8238650015164439
4678000000.0 0.5682595269039145 -0.7945665240206455
4681000000.0 0.5841232459977814 -0.8411770242392118
4684000000.0 0.5486727057338648 -0.8345043989027372
4688000000.0 0.5452780574336953 -0.8271980700237294
4691000000.0 0.5836376747915705 -0.8408480726134941
4694000000.0 0.5439060577525074 -0.8267202989966835
4697000000.0 0.5225284729652767 -0.8049967152778925
4700000000.0 0.5668151466042015 -0.8373635877451906
4703000000.0 0.546969433203094 -0.8161574235585876
4706000000.0 0.5282950209493972 -0.8773303277461756
4709000000.0 0.5024543286686609 -0.8718299520278459
4712000000.0 0.5082537698742369 -0.8698610502678928
4716000000.0 0.5056288311737043 -0.8816304247960614
4719000000.0 0.5237369228254003 -0.8905835369924011
4722000000.0 0.4939167682989638 -0.871886057117069
4725000000.0 0.5025630701488781 -0.8878388266091103
4728000000.0 0.4866818449212452 -0.8760304207844836
4731000000.0 0.5179892512300797 -0.8961383505549321
4734000000.0 0.4759126525362479 -0.8619031412864191
4738000000.0 0.4752723628915448 -0.9340941051360111
4741000000.0 0.43712708926893695 -0.9366021327850305
4744000000.0 0.43650092185922496 -0.9366689605741355
4747000000.0 0.45430099567403576 -0.8965961567054496
4750000000.0 0.43698586357279157 -0.9253937304644495
4753000000.0 0.4340162998591997 -0.9329419300050413
4756000000.0 0.4283319653061042 -0.9412562152256652
4759000000.0 0.42568978432242277 -0.9979608831867254
4762000000.0 0.3636809595480361 -0.9644736335875477
4766000000.0 0.37948677362895306 -0.9310626006758166
4769000000.0 0.37945156944696334 -0.9735466239320149
4772000000.0 0.38042511720031497 -0.9706124239381876
4775000000.0 0.34334144640964365 -0.996879031888187
4778000000.0 0.345366657174387 -0.938733047745021
4781000000.0 0.35446434458451026 -0.9346440282441122
4784000000.0 0.3814799177239172 -0.9611318295906696
4788000000.0 0.3086446859701891 -0.9772825067889179
4791000000.0 0.31837006010513536 -0.933903134557679
4794000000.0 0.34819413408497757 -0.9711644215672324
4797000000.0 0.3017377942785143 -0.9563628502999236
4800000000.0 0.2779105255001024 -0.9416743328081187
4803000000.0 0.25994429018996745 -0.9600810108817939
4806000000.0 0.2810272812493226 -1.0129752948912178
4809000000.0 0.238694094488963 -0.9776725678732908
4812000000.0 0.2137044249690101 -0.9624929138996885
4816000000.0 0.2700853701765215 -0.9525032949141417
4819000000.0 0.27377359688487973 -1.022437673129453
4822000000.0 0.27156890482187457 -1.0377320685090525
4825000000.0 0.2684097341748891 -0.9930402482712897
4828000000.0 0.23703275098386065 -0.9896929558218622
4831000000.0 0.17772527956297438 -1.024859799124143
4834000000.0 0.22611306999291614 -1.0139797656012377
4838000000.0 0.19129409827828206 -1.0295495214118098
4841000000.0 0.1738516691910386 -1.0068921703733502
4844000000.0 0.21133143485132772 -0.9927601925356527
4847000000.0 0.17696677640264497 -0.9698712602365469
4850000000.0 0.16783323866282096 -1.0358263539431338
4853000000.0 0.14840805181867278 -1.010857164585829
4856000000.0 0.1456793249453227 -1.0020422086216774
4859000000.0 0.1442969626772739 -1.0458515733238323
4862000000.0 0.1422956100225103 -0.9949991276191558
4866000000.0 0.1134445491110036 -1.016523591611138
4869000000.0 0.09596556575722591 -1.010919021736479
4872000000.0 0.10343273712257668 -1.030844866832233
4875000000.0 0.17477617020026698 -1.051215624963115
4878000000.0 0.0774058176003624 -1.0549788019817234
4881000000.0 0.06994149369136572 -1.0964722512151148
4884000000.0 0.07624619458276732 -1.0269035405500055
4888000000.0 0.10195240701938006 -1.031542117156142
4891000000.0 0.08533360571087731 -1.034215430217365
4894000000.0 0.0671507792902889 -1.011193354123339
4897000000.0 0.07191848000178931 -1.0007625996791631
4900000000.0 0.015020768883831886 -1.0443947820104171
4903000000.0 0.049493989850318734 -1.0384151000789232
4906000000.0 0.02387110370132396 -1.072763819452916
4909000000.0 0.0030489245347880348 -1.0351921237309567
4912000000.0 -0.0032727225583694605 -1.0434234624501668
4916000000.0 0.002334834217262577 -1.0727997802995934
4919000000.0 0.004016411335234449 -1.04546319061176
4922000000.0 0.0028236602429852486 -1.0070553156156963
4925000000.0 -0.051180571430385166 -1.0087371228953486
4928000000.0 0.020486513082603602 -1.0164633407204868
4931000000.0 -0.030553953546850046 -1.0577183940872337
4934000000.0 -0.08413425692147551 -1.001073612141545
4938000000.0 -0.08302845847195968 -1.012369240120184
4941000000.0 -0.08269296008827308 -1.008386770868602
4944000000.0 -0.08878347847978951 -0.9701885480662851
4947000000.0 -0.07966922200333151 -1.0079285982363706
4950000000.0 -0.09292678602948719 -1.0118946774012334
4953000000.0 -0.12293730635613592 -1.0522468205071274
4956000000.0 -0.12855215738387338 -1.0338751405580933
4959000000.0 -0.12732691058329212 -0.9610457488704247
4962000000.0 -0.1256104031900033 -1.0355850358636616
4966000000.0 -0.12242727577843648 -1.0429512859197605
4969000000.0 -0.13356140845973508 -1.0670467265580892
4972000000.0 -0.15910867910314327 -1.0299832286999842
4975000000.0 -0.1384068809222355 -1.0065080749462376
4978000000.0 -0.16353420148055242 -1.0027514253604575
4981000000.0 -0.17008046863913243 -1.0276100903693193
4984000000.0 -0.174517363028409 -0.9549702984746625
4988000000.0 -0.18039595517188345 -0.9869422314273886
4991000000.0 -0.1326611632369024 -1.057987617320599
4994000000.0 -0.20273898600335682 -1.016485139396156
4997000000.0 -0.23757394317590586 -1.024069945497203
5000000000.0 -0.19829325894022093 -1.0373757830483532
5003000000.0 -0.25425869767665 -1.0334887011628002
5006000000.0 -0.2498580305330165 -1.05898214553911
5009000000.0 -0.23788339567173997 -1.0083929019107427
5012000000.0 -0.2708954456082905 -0.9958112279523099
5016000000.0 -0.23219742328713522 -1.0253404881264314
5019000000.0 -0.28494916620219723 -0.9888008525531775
5022000000.0 -0.25971917720986004 -0.9981097733494468
5025000000.0 -0.3212079977178017 -1.0683523087938853
5028000000.0 -0.31700121565374784 -0.961075214102691
5031000000.0 -0.31400692155774856 -0.9617643229954224
5034000000.0 -0.35660117102024325 -1.011845559550012
5038000000.0 -0.33207393755586345 -0.9585496246504217
5041000000.0 -0.3046953258788413 -0.9972683198383422
5044000000.0 -0.29479431464281247 -0.9553099386620733
5047000000.0 -0.32023917364407556 -1.0018128590799007
5050000000.0 -0.2221144813131478 -1.0101651095108786
5053000000.0 -0.3872033699944737 -1.0211048038187558
5056000000.0 -0.31018282254714924 -0.9902131990317231
5059000000.0 -0.32674483794291825 -0.9937467926144322
5062000000.0 -0.4336160515517914 -0.9598746739330886
5066000000.0 -0.3785996938269791 -0.9225013970021128
5069000000.0 -0.36399060352080864 -0.9293483321354999
5072000000.0 -0.4061800121717262 -0.9072895608742366
5075000000.0 -0.38973110642676034 -0.9503224524115035
5078000000.0 -0.4578861747040806 -0.9171710958132357
5081000000.0 -0.4191448664988226 -0.9331458208273021
5084000000.0 -0.42018640769070337 -0.9718751516060236
5088000000.0 -0.40802317504260627 -0.9424086600385275
5091000000.0 -0.4671163042332151 -0.9162383639885101
5094000000.0 -0.4645495319722808 -0.9375320477409964
5097000000.0 -0.3928408333170158 -0.9462215087843007
5100000000.0 -0.46393972566141617 -0.9129604313073733
5103000000.0 -0.4772859304182293 -0.9037323141532209
5106000000.0 -0.45846751463915786 -0.9651966207323932
5109000000.0 -0.4109380239812488 -0.9201728504315965
5112000000.0 -0.5116374008632993 -0.9062198238193968
5116000000.0 -0.5022986195032865 -0.8461126924475244
5119000000.0 -0.5140580344668134 -0.919329418685211
5122000000.0 -0.5019433083214491 -0.8947975979470792
5125000000.0 -0.48486858730704346 -0.9009333251254176
5128000000.0 -0.5478941892297117 -0.884662307870558
5131000000.0 -0.5340469520317649 -0.8702734480604736
5134000000.0 -0.5269905917960858 -0.9048287470430055
5138000000.0 -0.5345601148879202 -0.888238173350625
5141000000.0 -0.5371312910674026 -0.8865640526487879
5144000000.0 -0.5371172221849588 -0.885387990475179
5147000000.0 -0.5820873505733059 -0.9206211798435869
5150000000.0 -0.5573331134363838 -0.9080316253448519
5153000000.0 -0.5896286216213884 -0.880664988235772
5156000000.0 -0.5747988872614797 -0.8630968916393904
5159000000.0 -0.6288463513546645 -0.8520429321351277
5162000000.0 -0.5958254769321528 -0.8161358723923847
5166000000.0 -0.6102262657701614 -0.8752540337322927
5169000000.0 -0.6297338246759211 -0.841511188762142
5172000000.0 -0.6038342566829206 -0.8316706428383172
5175000000.0 -0.6299097807585307 -0.8580425306305857
5178000000.0 -0.63809850449504 -0.8264126131775104
5181000000.0 -0.6456454197277336 -0.8382655115544395
5184000000.0 -0.6240848134796556 -0.8013663265476558
5188000000.0 -0.6619716978669868 -0.8103846050386583
