! Created with skrf 1.8.0 (http://scikit-rf.org).
# Hz S RI R 50.0 
!freq ReS11 ImS11
4000000000.0 0.6460495853949977 0.8025364904837657
4003000000.0 0.7031120949099791 0.8411173301374874
4006000000.0 0.6963187847083988 0.7867587377450297
4009000000.0 0.6507834086940851 0.761507922252636
4012000000.0 0.6241485828640666 0.8155622983846555
4016000000.0 0.6701510352347398 0.755953282969051
4019000000.0 0.6848892060985661 0.773988828658202
4022000000.0 0.6540734477687119 0.8165606226688484
4025000000.0 0.6981645519302385 0.7542430363858036
4028000000.0 0.7226642833918162 0.7521248782777914
4031000000.0 0.619674352962704 0.7190933016920417
4034000000.0 0.7449609664150716 0.7518937074184062
4038000000.0 0.7724125023221787 0.7223361143915631
4041000000.0 0.7022708718290723 0.7395709078715734
4044000000.0 0.759239632086038 0.7596757781947611
4047000000.0 0.6986442699310932 0.7766406108721459
4050000000.0 0.7676379119288674 0.6991746287665405
4053000000.0 0.7509672687821991 0.6742605353755406
4056000000.0 0.7284836768648254 0.7193277563601042
4059000000.0 0.7078131194858422 0.7049223673115719
4062000000.0 0.783536077571812 0.6508187958364782
4066000000.0 0.7177081453686207 0.6360861825108854
4069000000.0 0.7927706340513322 0.6802994156222149
4072000000.0 0.7501688234235009 0.6592268995010067
4075000000.0 0.7591980999643934 0.7307523196823893
4078000000.0 0.8155284455491076 0.6637803121891592
4081000000.0 0.8019087353578784 0.6936017289705186
4084000000.0 0.83519199428643 0.643881977185532
4088000000.0 0.7711719514577741 0.6988350443480359
4091000000.0 0.8438088419899953 0.6775643135959988
4094000000.0 0.8280002088738486 0.6239418419620628
4097000000.0 0.8213912815764266 0.5983538896255891
4100000000.0 0.8370304930650148 0.6066688234767366
4103000000.0 0.8263063244557607 0.631492234345147
4106000000.0 0.8567227354948787 0.5793315864464282
4109000000.0 0.8539870055791097 0.5850541645387664
4112000000.0 0.8471874313413834 0.592367142468734
4116000000.0 0.8476015379356706 0.6027257074853001
4119000000.0 0.8973213570676709 0.5801909662151857
4122000000.0 0.8933576373126589 0.5439055121973143
4125000000.0 0.8912003507704942 0.5279010253561554
4128000000.0 0.8145937726807413 0.5319394108602328
4131000000.0 0.8537088603841172 0.5310339648737102
4134000000.0 0.8692874351552707 0.5867593947372524
4138000000.0 0.8607278970130201 0.49097456525211586
4141000000.0 0.864983254533959 0.5125631476166845
4144000000.0 0.858241443563302 0.5533691827149934
4147000000.0 0.8929486967966445 0.44897833364846157
4150000000.0 0.8956410044656337 0.5191804865476963
4153000000.0 0.8664098515506952 0.4951056582111142
4156000000.0 0.9263956157509903 0.5267121516426209
4159000000.0 0.9065056515147905 0.4966903446817395
4162000000.0 0.8692741299010434 0.47351747807461
4166000000.0 0.918690541862418 0.44878026546613115
4169000000.0 0.9479658954481011 0.4201601170863719
4172000000.0 0.9214267937661949 0.46222118669540596
4175000000.0 0.9138790178326015 0.4603137663007389
4178000000.0 0.9686975198765244 0.4345098193641562
4181000000.0 0.9392866718801345 0.4277583252506022
4184000000.0 0.9535005456287872 0.4100874785461582
4188000000.0 0.9297443563232377 0.4084304808169684
4191000000.0 0.9004873636987374 0.4247542473374673
4194000000.0 0.9414436017562657 0.38266800584279603
4197000000.0 0.9540280556139964 0.3717951375461565
4200000000.0 0.9546721418755553 0.39431837939791925
4203000000.0 0.9249078398852859 0.3921013395901012
4206000000.0 0.9587200033486631 0.3893561334517123
4209000000.0 0.9236596621142662 0.3518842426875915
4212000000.0 0.9565389234466833 0.3137696905978238
4216000000.0 0.9567137338632223 0.3552565053959888
4219000000.0 0.985521734554053 0.35522861967449537
4222000000.0 0.9736094015086116 0.30640463093044784
4225000000.0 0.9545292091304043 0.31317047667904807
4228000000.0 0.9801116235406406 0.31082102645463017
4231000000.0 0.9782908407267815 0.2901702707171634
4234000000.0 0.9933854776617368 0.29274774142711996
4238000000.0 0.9776212244662126 0.2740461189737543
4241000000.0 0.9765460789217459 0.2551648141818702
4244000000.0 0.9718110038359347 0.2691604081608718
4247000000.0 0.993932849756145 0.2654618397275044
4250000000.0 0.9907692539037325 0.2334767855339802
4253000000.0 0.9600778158356633 0.22798419450857577
4256000000.0 1.011069808197963 0.21775840970598215
4259000000.0 0.9618027379179573 0.20475210653159318
4262000000.0 0.9902929483189586 0.20625597013153749
4266000000.0 1.0135913229653197 0.19149675401369531
4269000000.0 0.9803641143142704 0.22162739148023755
4272000000.0 0.979823124433434 0.18557751131121814
4275000000.0 1.0159191350418586 0.18419836173268833
4278000000.0 1.0180718300876155 0.16409194259015553
4281000000.0 0.994650450481464 0.18102904380830365
4284000000.0 1.0012266997859387 0.11583738328651394
4288000000.0 0.9979675143759785 0.20623408523990913
4291000000.0 0.9919582441571985 0.12729885318804657
4294000000.0 0.9790356304546257 0.12714626180309546
4297000000.0 1.0128744525304698 0.1373842921394574
4300000000.0 0.9901092604590698 0.14899769592438925
4303000000.0 0.9956736717847084 0.10689795647456808
4306000000.0 1.0018770247843078 0.14344479634803298
4309000000.0 0.9963893973903877 0.10182973070291314
4312000000.0 1.0352591786172012 0.11590708077449152
4316000000.0 1.020612303812936 0.07499208106706694
4319000000.0 1.0265394952001472 0.09122428541714779
4322000000.0 0.9864330434787817 0.04500350856647499
4325000000.0 0.9943845585183314 0.07926809281863657
4328000000.0 0.9838807747284054 0.04937566403557524
4331000000.0 1.0206035987091073 0.019060703261539275
4334000000.0 1.018938138525371 0.029615434635901078
4338000000.0 1.0204275736615278 0.05660712886104556
4341000000.0 1.0243052195918925 0.04087950283752498
4344000000.0 1.0200282013963158 0.00693808443251101
4347000000.0 1.0239352125642405 -0.015263353031441024
4350000000.0 0.9787817503049638 -0.022722843218026284
4353000000.0 0.9702283718268576 0.009055227800874616
4356000000.0 0.9984518784153713 -0.04763773603454291
4359000000.0 0.9744951635379646 -0.04575831953540489
4362000000.0 0.9787038949824336 -0.1026002919869078
4366000000.0 1.0213125159636713 -0.07027107396159861
4369000000.0 0.9973150752059162 -0.08262697898245033
4372000000.0 0.9876731391316089 -0.12027413671666363
4375000000.0 1.016896220857648 -0.07042201326404826
4378000000.0 0.9933766492419708 -0.09002787556904608
4381000000.0 0.9985816203084137 -0.09420682631374495
4384000000.0 1.066107002446866 -0.12988023160513604
4388000000.0 0.9695886223729385 -0.1220811129131534
4391000000.0 1.0025065853191912 -0.12645397888780635
4394000000.0 0.9743536855568873 -0.1349513599232791
4397000000.0 0.9882369149544707 -0.1642021997210817
4400000000.0 1.0069279954110135 -0.17148552954823187
4403000000.0 1.003144184044202 -0.1615425553354381
4406000000.0 0.9933800375436389 -0.20365144616552652
4409000000.0 1.0336895280267986 -0.19926854057942484
4412000000.0 0.9718341553845931 -0.2414988985392872
4416000000.0 0.9724267866906138 -0.21735541298902974
4419000000.0 0.9764095206590254 -0.23261575949240124
4422000000.0 0.9854221996720114 -0.20767029034861662
4425000000.0 1.0159712288525373 -0.19945005366326188
4428000000.0 0.9732970648953091 -0.23446488156380604
4431000000.0 0.9995129319690146 -0.2502002731782159
4434000000.0 0.9690040802220982 -0.2619342475430364
4438000000.0 0.9902720906817943 -0.27306135899938383
4441000000.0 0.974880598668801 -0.2756204826767551
4444000000.0 0.9520710945307871 -0.27111869879153777
4447000000.0 0.953947404444754 -0.3041845030754158
4450000000.0 0.9505791530442657 -0.28104016401434545
4453000000.0 0.9803390072862426 -0.3153548983107357
4456000000.0 0.92099653062032 -0.3213715705679552
4459000000.0 0.9085590176688993 -0.3227734480188254
4462000000.0 1.0119394819349377 -0.3379309313780325
4466000000.0 0.9788867071096001 -0.3603345898153356
4469000000.0 0.9602547737827156 -0.32898274427445434
4472000000.0 0.9481585797819728 -0.3894621669251106
4475000000.0 0.916196474884858 -0.3541932481420311
4478000000.0 0.980565531370516 -0.42412995114562757
4481000000.0 0.9029141563303471 -0.37693502431695697
4484000000.0 0.9150773596969488 -0.44298962130181463
4488000000.0 0.9098182776728457 -0.42409286121581424
4491000000.0 0.9096220267832509 -0.41364560051891797
4494000000.0 0.9060257727606552 -0.41189710440459465
4497000000.0 0.9019716201962622 -0.40351792714141904
4500000000.0 0.911709457435057 -0.4192189991418936
4503000000.0 0.9230022340285173 -0.4293056598035782
4506000000.0 0.9072881020646308 -0.4533794198021534
4509000000.0 0.8747969360891665 -0.4364638999014976
4512000000.0 0.8685024845223981 -0.46000343297220125
4516000000.0 0.9153609212767018 -0.4494103272717754
4519000000.0 0.8633448021830725 -0.4455534053194634
4522000000.0 0.8748329864537276 -0.49806460928546603
4525000000.0 0.8960436989495619 -0.45067672435792533
4528000000.0 0.8992380973300367 -0.49122509641418977
4531000000.0 0.8776356651251422 -0.48406823723563297
4534000000.0 0.8465594127934077 -0.5084718414650757
4538000000.0 0.8555949588367051 -0.5126565969984226
4541000000.0 0.8211750568979012 -0.5612616607545697
4544000000.0 0.8375315968520918 -0.536745777508653
4547000000.0 0.8487752555016744 -0.5204908956893699
4550000000.0 0.8281522966477897 -0.5583531341332267
4553000000.0 0.849675248721977 -0.5548610105953709
4556000000.0 0.8223934994462958 -0.57475887182083
4559000000.0 0.8187173194210712 -0.5923292177984141
4562000000.0 0.8372748688119365 -0.5931828454691136
4566000000.0 0.8381880001381734 -0.5899382960801693
4569000000.0 0.7836995598589156 -0.5814208663515241
4572000000.0 0.8057679483092627 -0.6018606066583487
4575000000.0 0.7831093055832723 -0.6285123798109208
4578000000.0 0.8335431422621142 -0.6017144440352195
4581000000.0 0.7769849223047446 -0.6392701229102561
4584000000.0 0.7667119612757158 -0.640369551448286
4588000000.0 0.8016270119601843 -0.6449164385451186
4591000000.0 0.7699752669548026 -0.6336276449576995
4594000000.0 0.7396198243198364 -0.6652316451461655
4597000000.0 0.7836238056134197 -0.6736135281737085
4600000000.0 0.7283600720740454 -0.671323606786963
4603000000.0 0.7543875901073093 -0.6975882648807209
4606000000.0 0.7592493165984966 -0.6740296080201776
4609000000.0 0.7417639169265913 -0.6984955203766405
4612000000.0 0.7369370378638637 -0.7127070320415935
4616000000.0 0.7048895447073298 -0.7091263619404675
4619000000.0 0.7319967212119974 -0.6930082621589131
4622000000.0 0.7123394932284349 -0.7037923300711068
4625000000.0 0.6688327395143828 -0.7097441922586933
4628000000.0 0.7106457728338931 -0.695347826719865
4631000000.0 0.6607351439404139 -0.745007458626283
4634000000.0 0.6751482879009263 -0.7500806002830058
4638000000.0 0.697351153936171 -0.7467832424182352
4641000000.0 0.6971893969794279 -0.761543750211405
4644000000.0 0.6794881152196655 -0.7660432415550852
4647000000.0 0.661898354486819 -0.7630746527957744
4650000000.0 0.6473425465846258 -0.7564320076044593
4653000000.0 0.6568612878160368 -0.7828533222241442
4656000000.0 0.6157924854224277 -0.7866823438479331
4659000000.0 0.629991686175814 -0.7883620155206875
4662000000.0 0.6166933908324314 -0.8014495939347553
4666000000.0 0.6083940496467595 -0.7916947178768483
4669000000.0 0.6044971821743169 -0.7930145885757294
4672000000.0 0.5967979472864461 -0.8185154540833316
4675000000.0 0.5945299972910654 -0.8342042906451637
4678000000.0 0.5876523802094868 -0.7809814136682297
4681000000.0 0.5637589807780401 -0.8562063339155912
4684000000.0 0.5689156417238963 -0.8541181090507822
4688000000.0 0.5601055232847741 -0.8418502767842216
4691000000.0 0.574729954903719 -0.8616795661104533
4694000000.0 0.5698442921249638 -0.8470193831015684
4697000000.0 0.5189952644207388 -0.8366017281200311
4700000000.0 0.5314065649755159 -0.8420810557777261
4703000000.0 0.54285329163251 -0.8213237176006485
4706000000.0 0.5092717472924235 -0.8676142400162659
4709000000.0 0.501866831227083 -0.8857888545306816
4712000000.0 0.49671591531891224 -0.8640019247906932
4716000000.0 0.5048577810774723 -0.8965344389210672
4719000000.0 0.509410186981511 -0.8864428988951465
4722000000.0 0.5230645421234325 -0.8814560078174694
4725000000.0 0.4805172874354249 -0.904031858411346
4728000000.0 0.48873452733330514 -0.8926029020590052
4731000000.0 0.48955773098994215 -0.9207993887679387
4734000000.0 0.47295940100283707 -0.8957852993483923
4738000000.0 0.4645359270240311 -0.9254593257076106
4741000000.0 0.45718029176537 -0.9386322879947298
4744000000.0 0.43972808198246083 -0.946781398996668
4747000000.0 0.42135059536780767 -0.8649301155928715
4750000000.0 0.4421636246068476 -0.9490599911102698
4753000000.0 0.4274693449043536 -0.9361564987260993
4756000000.0 0.41740515720721794 -0.9525911067741957
4759000000.0 0.4244042489379186 -0.9225533080764615
4762000000.0 0.37696939604602975 -0.9742355060272249
4766000000.0 0.37495586904941564 -0.9547512377970133
4769000000.0 0.3781635650435921 -0.9550233421311934
4772000000.0 0.35496561658227693 -0.9466073692935976
4775000000.0 0.3598507415808137 -0.9670547884177737
4778000000.0 0.320538175613287 -0.9508345560655479
4781000000.0 0.35212503307162607 -0.9502406755602397
4784000000.0 0.3674527248440677 -0.9691892464798076
4788000000.0 0.3112023891505098 -0.9802808333813524
4791000000.0 0.31226207556738755 -0.9805141866061841
4794000000.0 0.31715835533593384 -1.0044273818270737
4797000000.0 0.28632867943769535 -0.9464025021630068
4800000000.0 0.2779908847789591 -0.9541280025488674
4803000000.0 0.24640101215904217 -0.9802682427671798
4806000000.0 0.29763138861485683 -1.0014781233641594
4809000000.0 0.2220190688140995 -0.9932771617804458
4812000000.0 0.24282825211976894 -1.0061518125944886
4816000000.0 0.2530356116007441 -0.9898064629294379
4819000000.0 0.275983729804473 -0.9994066472251468
4822000000.0 0.27034939408049197 -1.0109430806244482
4825000000.0 0.2497836356942375 -1.0225031101706263
4828000000.0 0.22106378982054056 -0.9861665560478242
4831000000.0 0.1545385632824701 -1.026330587023272
4834000000.0 0.20538430569019162 -1.0039283828073584
4838000000.0 0.18176518622282664 -1.0053949013156396
4841000000.0 0.17548411288547666 -0.995137477263358
4844000000.0 0.21490722734519346 -1.0006023638152046
4847000000.0 0.19215567015761684 -0.9604608598692137
4850000000.0 0.15727359266150415 -1.035153661960815
4853000000.0 0.17301186715633404 -0.9920825685639849
4856000000.0 0.14618638015784538 -0.9969807843128095
4859000000.0 0.121169350002515 -1.0427863449607488
4862000000.0 0.14137188431570258 -1.0108537507065356
4866000000.0 0.08324955623533645 -1.069438078346465
4869000000.0 0.0885983869018409 -1.0101957993008648
4872000000.0 0.06127577445292745 -1.0510068893770124
4875000000.0 0.13458143817003226 -1.0540340276216174
4878000000.0 0.07665538838674808 -1.038170173284738
4881000000.0 0.057217853609654465 -1.0803493450222557
4884000000.0 0.09464295118012742 -1.0139384647274683
4888000000.0 0.07638821743367838 -1.0179044666266877
4891000000.0 0.07036177488827827 -1.0449581659564375
4894000000.0 0.05075561185118538 -1.014809259585505
4897000000.0 0.065469690115841 -1.0184048008929727
4900000000.0 0.014325058711669614 -1.0567859048646648
4903000000.0 0.019516617724836774 -1.0621359892361244
4906000000.0 0.003354144982654385 -1.0449947039246839
4909000000.0 -0.01681232391054059 -1.034643017360638
4912000000.0 0.0028589239983359896 -1.0511746726592102
4916000000.0 0.0063031702683100516 -1.0670610098569053
4919000000.0 0.00344010590356595 -1.0368230640796547
4922000000.0 -0.011550626367441336 -1.0417719381468313
4925000000.0 -0.08852668248003895 -1.0040064188235505
4928000000.0 0.006178421885793761 -1.007739870975095
4931000000.0 -0.026820002308953206 -1.0552063670755392
4934000000.0 -0.05759503245034779 -0.9757413077491407
4938000000.0 -0.09845690657219298 -1.027448887730656
4941000000.0 -0.08458796124679434 -1.0079772571439893
4944000000.0 -0.017628134732673523 -0.9532089614001735
4947000000.0 -0.09871683391177755 -0.973340144438607
4950000000.0 -0.1113631252495073 -0.9794977895395977
4953000000.0 -0.16834508632410744 -1.041779430962655
4956000000.0 -0.1413746910997074 -0.9966214946431102
4959000000.0 -0.1841148547229012 -0.9742777017316783
4962000000.0 -0.13613154237262529 -1.0303846397842669
4966000000.0 -0.12021711254465872 -1.041197425037404
4969000000.0 -0.14477590581508104 -1.0824461356293817
4972000000.0 -0.18769054475101396 -0.9881814243412795
4975000000.0 -0.15731292446356668 -1.0172061995231558
4978000000.0 -0.1818068612824889 -1.0181047115310262
4981000000.0 -0.17118665907574068 -1.0271081090213177
4984000000.0 -0.1724093007691663 -0.9993834120933086
4988000000.0 -0.18375180944435276 -1.0296565727452271
4991000000.0 -0.14432773924546438 -1.0618896384452348
4994000000.0 -0.20584775314490317 -1.0079565126836254
4997000000.0 -0.24588967474500278 -1.0086037464866235
5000000000.0 -0.22841200197392775 -1.0456037701265246
5003000000.0 -0.21513248944644586 -1.0204630389157647
5006000000.0 -0.2500419715993736 -1.046438325779171
5009000000.0 -0.22070583030375 -1.0244613636782731
5012000000.0 -0.289571993756537 -0.9913308009133699
5016000000.0 -0.27220985144645266 -1.0223876714955584
5019000000.0 -0.28528153058973693 -0.9977260373558259
5022000000.0 -0.26501376256670184 -0.9942091013670302
5025000000.0 -0.3374144062443171 -1.057543162814681
5028000000.0 -0.3339265848748749 -0.9944054162756055
5031000000.0 -0.3126254891442597 -0.993101407131966
5034000000.0 -0.35286039781737 -1.0168969908426577
5038000000.0 -0.3196010333479854 -0.9386522937193316
5041000000.0 -0.3149383142985692 -1.0109050068234224
5044000000.0 -0.31889078773942536 -0.9434251592027004
5047000000.0 -0.34177079318913123 -0.9923181348108271
5050000000.0 -0.2807736435449648 -1.0011179822101164
5053000000.0 -0.4142667069953708 -1.0176168726817196
5056000000.0 -0.36926420759202183 -0.9886429111481512
5059000000.0 -0.324460113579562 -1.0021411946589773
5062000000.0 -0.42423098557664585 -0.9830071732918768
5066000000.0 -0.3599869136315653 -0.9674102120395767
5069000000.0 -0.4136593500785889 -0.963662274383081
5072000000.0 -0.38846556152449857 -0.9535556272937236
5075000000.0 -0.3871186409922711 -0.9511669270624028
5078000000.0 -0.46132918302544784 -0.9438798533532111
5081000000.0 -0.4283435434119684 -0.8879531885195852
5084000000.0 -0.4651440809555858 -0.9724088010538943
5088000000.0 -0.4158386812411108 -0.9657452283645644
5091000000.0 -0.4840859485430103 -0.8683008198056936
5094000000.0 -0.4578574566974222 -0.9222107643338141
5097000000.0 -0.43760849070247876 -0.9141408197792675
5100000000.0 -0.49816430458257815 -0.9075372900615045
5103000000.0 -0.5018021107337881 -0.9067005798787117
5106000000.0 -0.5162098177225715 -0.9587787530710745
5109000000.0 -0.43190725283117004 -0.900436491591494
5112000000.0 -0.5173356841953789 -0.8590927088957785
5116000000.0 -0.5160008380285316 -0.8950964210459238
5119000000.0 -0.5624533017062153 -0.8987563009954935
5122000000.0 -0.5235673717336433 -0.9012059467710052
5125000000.0 -0.4912961539221981 -0.9459912875241318
5128000000.0 -0.5520807421718109 -0.875710408600731
5131000000.0 -0.5379483339048371 -0.8687539139905233
5134000000.0 -0.5712355713331747 -0.9036278972001465
5138000000.0 -0.513889287387387 -0.8759946013582864
5141000000.0 -0.5127791871297109 -0.9103530086677849
5144000000.0 -0.5639800980570109 -0.8947978852216323
5147000000.0 -0.5923363650087617 -0.8922784996877398
5150000000.0 -0.5776076159488625 -0.8663187768933038
5153000000.0 -0.5920307317572904 -0.854051460793738
5156000000.0 -0.6043628210290111 -0.8393845060126482
5159000000.0 -0.5739373593900364 -0.8725159190235889
5162000000.0 -0.5975317656586561 -0.8181902121481079
5166000000.0 -0.605689945629532 -0.8349451655537488
5169000000.0 -0.6280345978603681 -0.8142273418740595
5172000000.0 -0.6306180487379752 -0.8463168855082228
5175000000.0 -0.6574814666189022 -0.8794436062830161
5178000000.0 -0.6510645937636843 -0.8459717642887845
5181000000.0 -0.6687043807404878 -0.8273096470514543
5184000000.0 -0.6678540735922484 -0.7923486804209788
5188000000.0 -0.6387380667530261 -0.8312842954422549
