! Created with skrf 1.8.0 (http://scikit-rf.org).
# Hz S RI R 50.0 
!freq ReS11 ImS11
4000000000.0 0.6426377015907957 0.8143000116767714
4003000000.0 0.7057960568921148 0.8710228912443679
4006000000.0 0.6990943539950496 0.8121671476218659
4009000000.0 0.6422284102082234 0.8278008131805936
4012000000.0 0.6594640582436078 0.8444192565790125
4016000000.0 0.7008967897448173 0.7789053389076657
4019000000.0 0.6801126022504114 0.824157838600627
4022000000.0 0.6580004279075462 0.827424879237731
4025000000.0 0.8267201176800529 0.7744496710859772
4028000000.0 0.738153215323343 0.7552801840946097
4031000000.0 0.6741094041859459 0.7441378060814624
4034000000.0 0.7490026595520958 0.7102508104729718
4038000000.0 0.7330677021235694 0.7548203402895641
4041000000.0 0.7645881386298531 0.7300706895199721
4044000000.0 0.79148456526641 0.7875212960460147
4047000000.0 0.7446636826339433 0.8429570392800271
4050000000.0 0.74351850275592 0.7303509283044058
4053000000.0 0.7920355496263827 0.704553692019037
4056000000.0 0.785544884366529 0.7457369806443083
4059000000.0 0.7498800597347933 0.7076476467722312
4062000000.0 0.8047555404726183 0.7020859001930193
4066000000.0 0.7366950436563651 0.6582729980984259
4069000000.0 0.8407622807974956 0.6861867142013363
4072000000.0 0.7806433526022952 0.7245453680691991
4075000000.0 0.8118101987312356 0.696253299389624
4078000000.0 0.7807332921598569 0.6742389478329232
4081000000.0 0.8095558044268011 0.7332165086801327
4084000000.0 0.8328521838127755 0.6506297208321208
4088000000.0 0.829775855572981 0.7018594156355756
4091000000.0 0.8770027229468604 0.6845083634939058
4094000000.0 0.8322011180436485 0.6365399212633163
4097000000.0 0.8327530943371242 0.5933963941615072
4100000000.0 0.8196671100744393 0.6098861947705796
4103000000.0 0.8210865043980673 0.6735619101448338
4106000000.0 0.8750610667522231 0.5818538189397883
4109000000.0 0.894473349672597 0.6195810628626921
4112000000.0 0.8917549097825446 0.6235322238709533
4116000000.0 0.8449605866744552 0.6337619068953368
4119000000.0 0.8942909333329071 0.5992142022498587
4122000000.0 0.8909500670166328 0.5496543688099388
4125000000.0 0.9165862665513945 0.5666144387206453
4128000000.0 0.870671523381794 0.5490536749707775
4131000000.0 0.9153156169674606 0.5371542905786264
4134000000.0 0.8742363645424542 0.5856491856083422
4138000000.0 0.9141366017700217 0.5076848612900005
4141000000.0 0.8970283131509482 0.5416196371175981
4144000000.0 0.9098219702219572 0.5441866994744491
4147000000.0 0.927060209131265 0.49497664881318854
4150000000.0 0.9130607748601013 0.5451120345942235
4153000000.0 0.8942737467006839 0.5254069068992893
4156000000.0 0.9385868153035144 0.4978809679208468
4159000000.0 0.8906312424860885 0.4935134991887485
4162000000.0 0.9317751727479473 0.48096821948235613
4166000000.0 0.9521033998404234 0.44772235638911706
4169000000.0 0.9549776356490158 0.46557813740983234
4172000000.0 0.9426527894769613 0.45089047983206915
4175000000.0 0.9670442837514422 0.45129810777510254
4178000000.0 0.9697250732741718 0.4569138323305193
4181000000.0 0.9603354889138285 0.4208730672223241
4184000000.0 0.9511329234679484 0.4327808465581959
4188000000.0 0.9442421102376508 0.41240617549687286
4191000000.0 0.9064089856379349 0.4383077489969243
4194000000.0 0.9156396952256501 0.4120695771452879
4197000000.0 0.9779430642676598 0.40966575692126644
4200000000.0 0.96819472790455 0.39473193421546204
4203000000.0 0.9601874634823122 0.40140917856578084
4206000000.0 0.9862988706235445 0.37143267942683916
4209000000.0 0.9502555627620859 0.36772681807547675
4212000000.0 0.9799005156990817 0.3294650579812506
4216000000.0 0.9660993343148225 0.36118568834641557
4219000000.0 0.9794372899161402 0.3671591216151342
4222000000.0 0.9774063941023532 0.33125385576462013
4225000000.0 0.9795231576939998 0.33733735918154506
4228000000.0 0.9825152730649045 0.30762352911886526
4231000000.0 0.9936476476789815 0.3074258770139421
4234000000.0 1.0114306585248531 0.29836991276565805
4238000000.0 0.9869014147590122 0.26718838845410364
4241000000.0 0.9943830676767251 0.2631963106856239
4244000000.0 0.9988272963206405 0.2712283227467611
4247000000.0 0.9919014344957171 0.28321641869109276
4250000000.0 0.9836572404342141 0.24064314134164638
4253000000.0 0.9632673127157898 0.22721701568375768
4256000000.0 1.0328707159842254 0.2332260201061776
4259000000.0 0.9747535716913267 0.23279817641245862
4262000000.0 1.0109242578290387 0.20990649498211003
4266000000.0 1.0183457431697067 0.18904860195196166
4269000000.0 1.0158432525709409 0.22870252070960043
4272000000.0 1.0155232017243558 0.1981782529635387
4275000000.0 1.0318281365585094 0.19374716463994196
4278000000.0 1.0365129833489857 0.16713352187321473
4281000000.0 0.9972262988254011 0.1789781924648967
4284000000.0 1.0128952716588273 0.12349035289946753
4288000000.0 1.0231017658310344 0.16836699209276473
4291000000.0 1.0120342170977041 0.15644421169302675
4294000000.0 0.989827814157012 0.14985025662181006
4297000000.0 0.9951577193939266 0.14479490325353928
4300000000.0 1.019003590601639 0.14387938109993167
4303000000.0 0.9932719547982065 0.067435554203037
4306000000.0 1.0192851666304805 0.1347345451877762
4309000000.0 1.0301136278759593 0.12110496378064033
4312000000.0 1.032796106502224 0.11262497973707114
4316000000.0 1.033751682401311 0.09680600869319438
4319000000.0 0.9841654975107523 0.07866542174938722
4322000000.0 0.986789969021308 0.0354346217646314
4325000000.0 1.0272916514971255 0.044739505163156904
4328000000.0 0.9949184085243201 0.03413437078572955
4331000000.0 1.0266685775227335 0.011258957124235053
4334000000.0 1.0399754311083942 0.039867793882732705
4338000000.0 1.0498187391283715 0.021615996534221818
4341000000.0 1.018173979673117 0.019067010138410445
4344000000.0 1.0657289920961637 0.017276925618513544
4347000000.0 1.0196670673492878 -0.03900408501990163
4350000000.0 1.0060606658275648 -0.03497771053752889
4353000000.0 0.9969658708540909 -0.006267389363752596
4356000000.0 1.0420393085208643 -0.05749734021936949
4359000000.0 0.992016647742707 -0.05034084635517733
4362000000.0 1.0052127240707143 -0.08466779997266352
4366000000.0 1.0225604971491449 -0.046111405821770535
4369000000.0 0.9843063544829233 -0.07507977932459182
4372000000.0 1.0121204727301594 -0.10831768768409515
4375000000.0 1.0120946270492692 -0.063187952912384
4378000000.0 0.9890103430236746 -0.08142962112337665
4381000000.0 1.0109291562337561 -0.0837603041790991
4384000000.0 1.0759921499613703 -0.1490432368454213
4388000000.0 1.0057250415879608 -0.11346554658830972
4391000000.0 1.0306949095319116 -0.12811121149305116
4394000000.0 0.991744838105047 -0.13081879432771773
4397000000.0 1.0141963557364613 -0.14893919545500844
4400000000.0 1.0333286271407978 -0.15828968183522685
4403000000.0 1.0226140757647286 -0.17134838277714345
4406000000.0 1.011523954423029 -0.18894468054632363
4409000000.0 1.0353373178990357 -0.18917469001455164
4412000000.0 0.9750613594028462 -0.23747943336009156
4416000000.0 0.979839602470725 -0.2178534996740507
4419000000.0 0.9996223332667723 -0.23311257298836116
4422000000.0 0.9908104385285201 -0.1953038590394809
4425000000.0 1.0219960660396952 -0.21821266668094733
4428000000.0 0.9919104673277939 -0.23029421823721472
4431000000.0 1.0170964183932418 -0.23485334185911802
4434000000.0 0.9901165704635583 -0.25332685672978633
4438000000.0 1.0072988847168851 -0.25526676358962375
4441000000.0 0.9980205463649001 -0.26897760340913146
4444000000.0 0.9579238686097309 -0.2542731922514882
4447000000.0 0.965525872936874 -0.29462894193320116
4450000000.0 0.9773005210389016 -0.2730230229869087
4453000000.0 0.9931285733442844 -0.3038890954615218
4456000000.0 0.943430801157294 -0.31358465130245844
4459000000.0 0.9273032426106209 -0.32298802620365386
4462000000.0 1.0194843078366058 -0.34173868706862826
4466000000.0 0.9796627370920629 -0.364485488286341
4469000000.0 0.9628154117718377 -0.3209330395703469
4472000000.0 0.9626475160183462 -0.3837128932332644
4475000000.0 0.9306267000326763 -0.35951977447972505
4478000000.0 0.9648546811256284 -0.4025475904096393
4481000000.0 0.9058469121854 -0.37582037733921986
4484000000.0 0.9318364041793921 -0.4312603637434449
4488000000.0 0.9335750664345606 -0.40506714870473565
4491000000.0 0.9394952781339537 -0.4143973516528605
4494000000.0 0.9202183092155453 -0.4133139699678576
4497000000.0 0.9346811475785952 -0.39071928374477083
4500000000.0 0.9381484256654853 -0.4316950046707399
4503000000.0 0.9536870552743124 -0.4491503592549382
4506000000.0 0.9009725392468482 -0.4416570485113694
4509000000.0 0.9011697318964205 -0.44123571921761207
4512000000.0 0.8788857535121406 -0.4577381625405883
4516000000.0 0.9224099362253021 -0.4611787334420144
4519000000.0 0.8926100815987921 -0.45498376739807345
4522000000.0 0.8928866544556131 -0.4981757299058232
4525000000.0 0.9026115483575998 -0.4718706419208758
4528000000.0 0.9040357769635246 -0.5115741563690489
4531000000.0 0.9083250881029491 -0.49195178978013854
4534000000.0 0.8565031473902583 -0.5219156549804659
4538000000.0 0.8833424156401297 -0.5093506436261619
4541000000.0 0.8365267471845611 -0.5539770166871644
4544000000.0 0.8687326560151842 -0.5317184242598159
4547000000.0 0.8485755030127058 -0.5353265004953656
4550000000.0 0.8387391728116891 -0.5725020142770397
4553000000.0 0.8625712076267216 -0.5672573199139055
4556000000.0 0.823868167303379 -0.565599284892657
4559000000.0 0.8369553632281596 -0.5960993161148866
4562000000.0 0.8474676877708873 -0.5947620952631477
4566000000.0 0.822775887656575 -0.619640061670063
4569000000.0 0.8090742573562926 -0.59641967535247
4572000000.0 0.8198876523453196 -0.6066097588929031
4575000000.0 0.8134046774758286 -0.640479134292336
4578000000.0 0.8248534578824647 -0.6351861595534735
4581000000.0 0.7870077513458473 -0.6594066850008935
4584000000.0 0.786946757915847 -0.6543439802778288
4588000000.0 0.8173171201606634 -0.6396284062591505
4591000000.0 0.7808994842852189 -0.6377690890195614
4594000000.0 0.7637242952280282 -0.6758112820430624
4597000000.0 0.7841348361081546 -0.667703374554469
4600000000.0 0.7231750786936433 -0.6670625328917944
4603000000.0 0.7756612857192237 -0.6883045563492823
4606000000.0 0.775290003178547 -0.6928271293352632
4609000000.0 0.7461709826162516 -0.6859101425209794
4612000000.0 0.7659621672598413 -0.7207231374267835
4616000000.0 0.7289531824947728 -0.6880908926730387
4619000000.0 0.7191400373296639 -0.7130680706723023
4622000000.0 0.7351048347126059 -0.7227609270621194
4625000000.0 0.6734874004025284 -0.7146360777617335
4628000000.0 0.7242613881643466 -0.7156751786628639
4631000000.0 0.6893731829255678 -0.7474595000324293
4634000000.0 0.6830266964084478 -0.7456180447810603
4638000000.0 0.6859089006166933 -0.7431817596734689
4641000000.0 0.6861375747394894 -0.7391830993611781
4644000000.0 0.6757805118978151 -0.7545492263810568
4647000000.0 0.6772907703742919 -0.7568741869749185
4650000000.0 0.6637245120727644 -0.7916373097622752
4653000000.0 0.6898227678481907 -0.7864968447491435
4656000000.0 0.6426836747270688 -0.7916713235621569
4659000000.0 0.6396838960917207 -0.7812887070342521
4662000000.0 0.6507911435685398 -0.7990218513995496
4666000000.0 0.6384033050612233 -0.8004924185564264
4669000000.0 0.6344180017368746 -0.8140976536528698
4672000000.0 0.598737850906059 -0.8349056746540636
4675000000.0 0.591713910345655 -0.8212952180138497
4678000000.0 0.5915148190537461 -0.7956289302041576
4681000000.0 0.585240183515114 -0.8548010666813796
4684000000.0 0.5702711587172953 -0.8695731561697659
4688000000.0 0.5596594962823596 -0.8451695685802377
4691000000.0 0.5892547728671235 -0.8301453705093347
4694000000.0 0.581000563349009 -0.849077118875726
4697000000.0 0.5190370184791411 -0.8619451210623252
4700000000.0 0.5617344253969929 -0.8355912232196225
4703000000.0 0.5584796062365021 -0.8248363724809971
4706000000.0 0.5219568599257344 -0.8718683590414165
4709000000.0 0.5004937869716211 -0.8832864306770152
4712000000.0 0.518007216779816 -0.8792597444285893
4716000000.0 0.5135422246205786 -0.9018599732159103
4719000000.0 0.5261731162029164 -0.8750926011343191
4722000000.0 0.5234128778615665 -0.8995296345364521
4725000000.0 0.4805144791895227 -0.9036830832797638
4728000000.0 0.48260164566680624 -0.9076698109873393
4731000000.0 0.5046099659240231 -0.9114927951244254
4734000000.0 0.4793523037456695 -0.8935854171201374
4738000000.0 0.47826376101834356 -0.9539705332254816
4741000000.0 0.4574191959183309 -0.9405353979081523
4744000000.0 0.4393477591579517 -0.9485584024404866
4747000000.0 0.44862455491995634 -0.8835273254019457
4750000000.0 0.45264891540129876 -0.916228183600095
4753000000.0 0.40520304527786744 -0.927166123622263
4756000000.0 0.4154520838404246 -0.9436622628863753
4759000000.0 0.41364641449158435 -0.9549481285721444
4762000000.0 0.40509804384614634 -0.9668841370256989
4766000000.0 0.40931596762780476 -0.936521119730718
4769000000.0 0.36247050273633974 -0.9859368389429802
4772000000.0 0.39319080120198147 -0.9700962744218339
4775000000.0 0.3660548132683926 -1.0116477129650427
4778000000.0 0.3466901967161005 -0.978871866738071
4781000000.0 0.37639874206417806 -0.9667913040182585
4784000000.0 0.3751368609389505 -0.9702551306242887
4788000000.0 0.3201802497704478 -1.024496862869823
4791000000.0 0.3191565338184806 -0.9846881888141877
4794000000.0 0.3602940035288144 -0.9882111720991917
4797000000.0 0.30505907807319255 -1.0015006970400748
4800000000.0 0.29000599755916384 -0.9967858373848317
4803000000.0 0.22141854000250227 -0.9790087138744181
4806000000.0 0.2640737593210739 -1.014424750939991
4809000000.0 0.24430036107985836 -0.993663238476539
4812000000.0 0.21275926106793308 -0.9939545280147424
4816000000.0 0.2646762474028992 -0.9788291334463548
4819000000.0 0.26606142325712656 -1.0376726356500408
4822000000.0 0.24214378190747263 -1.0159924455941252
4825000000.0 0.2758446959551496 -1.011033400391952
4828000000.0 0.23236519616646614 -1.0072796973059956
4831000000.0 0.1985929429881515 -1.0539575171739182
4834000000.0 0.24082237481962165 -1.0138643630956343
4838000000.0 0.17190291728213541 -1.0404441743469017
4841000000.0 0.16307094922011664 -1.0215270902460714
4844000000.0 0.20685401698661907 -1.0076850118970635
4847000000.0 0.19820964232225718 -1.004159185878238
4850000000.0 0.16331062181774048 -1.051904430268044
4853000000.0 0.17818095593394223 -1.0044691049031191
4856000000.0 0.1367216986381167 -1.0071232980064226
4859000000.0 0.15216950058821652 -1.0748434760705154
4862000000.0 0.16312933880594604 -0.9939520097320139
4866000000.0 0.11880250416681945 -1.043022225876331
4869000000.0 0.0855412755359142 -1.054231688173751
4872000000.0 0.07976717665662213 -1.0326292347051285
4875000000.0 0.13889847920028628 -1.0794619727255361
4878000000.0 0.09140919864992396 -1.0543256876584441
4881000000.0 0.05363186438411491 -1.1003507591345323
4884000000.0 0.09927880836535515 -1.026676424458888
4888000000.0 0.09273713362503799 -1.0413877714906168
4891000000.0 0.10078419579782201 -1.0641200425931083
4894000000.0 0.015279668899712192 -1.0589181830108714
4897000000.0 0.0709513582426691 -1.0366765773214635
4900000000.0 0.04057807088647836 -1.0597427654161693
4903000000.0 0.06617641549701443 -1.048498214314707
4906000000.0 0.03000483126092736 -1.0880311951896016
4909000000.0 -0.004797765723027304 -1.0463833052308256
4912000000.0 -0.022846828167709603 -1.0725003802191044
4916000000.0 0.019901581958140502 -1.0664110075982074
4919000000.0 0.011777160008261976 -1.0766582245462266
4922000000.0 -0.010945376923995553 -1.056791775510076
4925000000.0 -0.07781407398987618 -1.0452416084206584
4928000000.0 0.001717572950312829 -1.0532854583123508
4931000000.0 -0.026551976131990424 -1.0808946541089823
4934000000.0 -0.03488568305046738 -1.0027836394460539
4938000000.0 -0.10104682316104653 -1.0122782843090368
4941000000.0 -0.10620985937736187 -1.0220326970524318
4944000000.0 -0.03909152110429548 -0.9699476812141044
4947000000.0 -0.06322064951286366 -1.0298505188962161
4950000000.0 -0.10465522402080367 -1.034394427720172
4953000000.0 -0.1607586592390024 -1.0690356903130205
4956000000.0 -0.1389612769184005 -1.0385014267856139
4959000000.0 -0.16773543898097518 -0.9879942656953696
4962000000.0 -0.13630704473731878 -1.07558580799816
4966000000.0 -0.13025891880567375 -1.0634604923361877
4969000000.0 -0.13654334013092018 -1.0994945748442748
4972000000.0 -0.17187918916613862 -1.0309417854314022
4975000000.0 -0.14897148368555582 -1.0868105564082504
4978000000.0 -0.2037337278347065 -1.039662666471309
4981000000.0 -0.21034585706855388 -1.0368088054570817
4984000000.0 -0.20365073335324493 -0.9975981457608927
4988000000.0 -0.17047742254005593 -1.045421031432235
4991000000.0 -0.1416829902029435 -1.0528166203315283
4994000000.0 -0.19757957311233848 -1.0255510543158681
4997000000.0 -0.2769661045254842 -1.0074357749491618
5000000000.0 -0.22383093669409182 -1.0758925592469406
5003000000.0 -0.23729419195979273 -1.0644547144555818
5006000000.0 -0.263976844024285 -1.0525089887904677
5009000000.0 -0.24986581545842815 -1.0132150714019217
5012000000.0 -0.2782195025874303 -1.0181185092136702
5016000000.0 -0.23077329193594848 -1.074207457196894
5019000000.0 -0.28854048928502585 -0.9993797593620746
5022000000.0 -0.26638926853643474 -1.0169244639552133
5025000000.0 -0.3219737116503228 -1.0938138109117037
5028000000.0 -0.2967723667043042 -1.020106437608356
5031000000.0 -0.32950492502594997 -1.036209966954255
5034000000.0 -0.3690001535722358 -1.0115712528861154
5038000000.0 -0.3273515192163229 -0.9834343674275503
5041000000.0 -0.2991045691161822 -1.0095034423524707
5044000000.0 -0.32224945968475294 -0.9662556685751388
5047000000.0 -0.3355163542540946 -1.0057895608622744
5050000000.0 -0.25554041956840146 -1.0052090433048315
5053000000.0 -0.3921245448583587 -1.0186436532265626
5056000000.0 -0.340251633103121 -1.0164435766883122
5059000000.0 -0.3470470766821035 -1.0084587367937048
5062000000.0 -0.4245993915659896 -0.9883410479464427
5066000000.0 -0.3691253986610734 -1.0022647464038383
5069000000.0 -0.39259867470765186 -0.9998644068907331
5072000000.0 -0.4055595091964632 -0.9625253701760617
5075000000.0 -0.40281822265334744 -0.9768447025997298
5078000000.0 -0.4286272880527476 -0.9742440884355883
5081000000.0 -0.48070767363141403 -0.9215449741582878
5084000000.0 -0.45558041350637235 -0.9796872930313112
5088000000.0 -0.409075169149353 -1.0332807959905834
5091000000.0 -0.5103052919717812 -0.9434163641482509
5094000000.0 -0.4961638629707786 -0.9389959445723676
5097000000.0 -0.44852573022180564 -0.9456848254267876
5100000000.0 -0.4842719678800311 -0.9509473766412398
5103000000.0 -0.49596931120724064 -0.9574329330748973
5106000000.0 -0.4893150472299062 -0.9526199442770327
5109000000.0 -0.4536448570237188 -0.9411740904916508
5112000000.0 -0.5058228216072582 -0.9171435168799598
5116000000.0 -0.4758681913450592 -0.9263312474097714
5119000000.0 -0.49897206027725843 -0.9616285867045162
5122000000.0 -0.5243582098953272 -0.911410719299838
5125000000.0 -0.5163737517965477 -0.9704463853401971
5128000000.0 -0.5572487462429931 -0.9182095002544999
5131000000.0 -0.5505756805942118 -0.9224617652613109
5134000000.0 -0.5139381760508848 -0.9052852261181329
5138000000.0 -0.5257865735869456 -0.9261833023688609
5141000000.0 -0.5202893008609782 -0.9178370051466838
5144000000.0 -0.5525877315226715 -0.9128885924898292
5147000000.0 -0.5705040632143036 -0.875566061405003
5150000000.0 -0.5549324501855053 -0.854471523706361
5153000000.0 -0.5517462173757173 -0.8552177795980235
5156000000.0 -0.6348454811669515 -0.8404298346311462
5159000000.0 -0.6494543589442616 -0.9518623529271393
5162000000.0 -0.617879907490042 -0.8194532557852586
5166000000.0 -0.6403680040081338 -0.880495560268615
5169000000.0 -0.6040382498752129 -0.8450219749738588
5172000000.0 -0.6150947772354012 -0.8583497085564694
5175000000.0 -0.6351660687730322 -0.8807197177836706
5178000000.0 -0.6917663971872434 -0.8325044144522586
5181000000.0 -0.675438146808059 -0.8508557761189358
5184000000.0 -0.6813730276894392 -0.8301564403921177
5188000000.0 -0.6363522216553423 -0.8294050656220984
