! Created with skrf 1.8.0 (http://scikit-rf.org).
# Hz S RI R 50.0 
!freq ReS11 ImS11
4000000000.0 0.6571233833796752 0.7573264122008447
4003000000.0 0.6225645065806424 0.8792471916104855
4006000000.0 0.6569348595864593 0.7912455077283075
4009000000.0 0.642495422119366 0.8233952893734756
4012000000.0 0.6083541070245712 0.8294656235950127
4016000000.0 0.7221906654509817 0.7614294325745463
4019000000.0 0.6661606428268902 0.7736296901424625
4022000000.0 0.6156799316757376 0.8112862969838006
4025000000.0 0.7584635018557736 0.7336800127080808
4028000000.0 0.7225484049170332 0.7409863470474471
4031000000.0 0.6556612829787651 0.7531755193128441
4034000000.0 0.7219809976260008 0.7628895035084851
4038000000.0 0.7068205478750419 0.7626199702641069
4041000000.0 0.6883664833457619 0.7287509961780488
4044000000.0 0.7839875339981066 0.8028401045964966
4047000000.0 0.7246825256995196 0.7581981776583842
4050000000.0 0.7592700207837718 0.6912051630120858
4053000000.0 0.7410365433102587 0.6953458419292435
4056000000.0 0.7609457612974105 0.6940005928615521
4059000000.0 0.7603450115854864 0.665451543071601
4062000000.0 0.7867389360005204 0.7015115318121778
4066000000.0 0.7256222016428493 0.5959270496593623
4069000000.0 0.816732645612765 0.7150223135262277
4072000000.0 0.7413711250993335 0.7229256460340037
4075000000.0 0.7985644957043571 0.7285742118249592
4078000000.0 0.8285147859330552 0.6921765103936882
4081000000.0 0.747908497760678 0.7163200365655645
4084000000.0 0.8056755961149289 0.6261968382853575
4088000000.0 0.7891623943009971 0.6626745157292745
4091000000.0 0.8895618826177801 0.6993021035737514
4094000000.0 0.7715437738021413 0.6590390685380236
4097000000.0 0.8163536344527328 0.6131299755152178
4100000000.0 0.8451908934314833 0.5677713509440607
4103000000.0 0.8034243140930859 0.6331142075219225
4106000000.0 0.896162513958832 0.6015106776649505
4109000000.0 0.8559491599629705 0.557061969383807
4112000000.0 0.8594421072306508 0.5932951518136012
4116000000.0 0.8666078900798831 0.5896636326005538
4119000000.0 0.8862407967451122 0.5924683545359287
4122000000.0 0.8735712723793752 0.5620638477878926
4125000000.0 0.9055750767414903 0.5446881794349336
4128000000.0 0.8161736219430163 0.5551687556127856
4131000000.0 0.8138041173233543 0.5206684335221783
4134000000.0 0.8587068795016554 0.5255862992002887
4138000000.0 0.8358396808274 0.46695809636632085
4141000000.0 0.869621047166252 0.5179835939520249
4144000000.0 0.8736313490828191 0.5374342251814259
4147000000.0 0.8897050874528224 0.5190607175437103
4150000000.0 0.8910759258208757 0.5164531119539861
4153000000.0 0.8834196820363751 0.49527371669916476
4156000000.0 0.8915331351530889 0.5084608214952461
4159000000.0 0.8857063980275495 0.4846834046148934
4162000000.0 0.8710669122162897 0.4612992200088297
4166000000.0 0.9215979938773375 0.46236173712514816
4169000000.0 0.9071011241731148 0.4318385667734672
4172000000.0 0.9029443493520116 0.4582151706775324
4175000000.0 0.8821942177077231 0.43935404927004434
4178000000.0 0.950490933207631 0.41569792956029517
4181000000.0 0.9223629744194122 0.41673360951474503
4184000000.0 0.9484102688236824 0.41409224973509223
4188000000.0 0.9197586807641742 0.40640685692387635
4191000000.0 0.9085404731058491 0.4322027549525746
4194000000.0 0.9289362907003559 0.39558994290047045
4197000000.0 0.9419351437441281 0.40411745273806404
4200000000.0 0.9295884351593704 0.4098833568024952
4203000000.0 0.9298532246459984 0.39163377981115766
4206000000.0 0.9643354805700144 0.368151692320187
4209000000.0 0.9499735883946281 0.3915549159728762
4212000000.0 0.9662867016088499 0.3028988114727541
4216000000.0 0.9555092827331675 0.37029797511097945
4219000000.0 0.9531450980374332 0.35150507405166065
4222000000.0 0.9748838648931526 0.3279999116232531
4225000000.0 0.9540687660169884 0.3262140154821941
4228000000.0 0.9752805418187096 0.32568353266114547
4231000000.0 0.9791750614833592 0.29825672148746113
4234000000.0 0.9726349278741108 0.2833369998356078
4238000000.0 0.9785159361571543 0.2752561922336001
4241000000.0 0.9741296951695573 0.2652515361813859
4244000000.0 0.975599112266858 0.2790614947639484
4247000000.0 0.9583084527016805 0.27609954677531207
4250000000.0 0.9808293361820153 0.23466548119700215
4253000000.0 0.9503153358376322 0.2328101250365751
4256000000.0 0.9972068817318154 0.22980250248474965
4259000000.0 0.9548109214495508 0.20406814713372498
4262000000.0 0.9778672184113966 0.20832008230794283
4266000000.0 0.9938403450582322 0.19246738940636898
4269000000.0 0.9978504969636751 0.19218707116836722
4272000000.0 0.987334734210674 0.2034765475383865
4275000000.0 0.9967795554028043 0.19496063365454824
4278000000.0 1.0072899762548022 0.19379047733341231
4281000000.0 1.0124546336548506 0.17182016326970107
4284000000.0 1.0105967617629126 0.14005976662747394
4288000000.0 1.0196469504700385 0.1958140559680341
4291000000.0 0.9830306574524702 0.1344839236183457
4294000000.0 1.0046461495134766 0.12539483264736434
4297000000.0 0.9916576349868902 0.1393811465531617
4300000000.0 0.9941124640876824 0.14578528290637324
4303000000.0 0.9780830904888972 0.0940730271753653
4306000000.0 1.0047195478305033 0.15620105189890804
4309000000.0 1.0099026812607768 0.10129120201834065
4312000000.0 1.009897939113169 0.10977237538742543
4316000000.0 1.0370453917530866 0.10232975164027246
4319000000.0 0.9707007737246776 0.06286231627866963
4322000000.0 0.977294259253997 0.04296752713107739
4325000000.0 1.008792094347992 0.06691182957849527
4328000000.0 0.9902073072517239 0.0448083128288279
4331000000.0 1.0252595925878112 0.003163908710069191
4334000000.0 1.0248161968711593 0.020034926428900174
4338000000.0 1.0077633312664132 0.03426605574819035
4341000000.0 1.0202884862227801 0.045780395741646246
4344000000.0 1.0106487477795183 -0.0016619707039012555
4347000000.0 1.0189288167642165 -0.026464998932871353
4350000000.0 0.9856342258458138 -0.03298089631607805
4353000000.0 0.9772084792917521 -0.005645525197997853
4356000000.0 0.9999157887147972 -0.03675845788239235
4359000000.0 0.9545001839789024 -0.042692001235614285
4362000000.0 1.0092057162985526 -0.10632203762477198
4366000000.0 1.0169679236995448 -0.046145488050908234
4369000000.0 0.9806440525468629 -0.0849975112942746
4372000000.0 0.9859783702750029 -0.12246768821190775
4375000000.0 1.0019360739124243 -0.06479982627400815
4378000000.0 0.982599398233074 -0.08758280990410014
4381000000.0 0.9787665144770603 -0.08061511206700411
4384000000.0 1.0563183417326063 -0.13037918415705763
4388000000.0 0.9855605117735602 -0.11521338729749075
4391000000.0 1.0085622773738667 -0.11983127039347972
4394000000.0 0.9781093786696791 -0.1465726768127228
4397000000.0 0.9861395837328666 -0.1470234256374025
4400000000.0 1.0069325897471528 -0.16833306492277317
4403000000.0 1.008291836412293 -0.1568833588906291
4406000000.0 0.9897546300203173 -0.19334939809025695
4409000000.0 1.0195174681388617 -0.18045353724042335
4412000000.0 0.9700688497742036 -0.22509576379171323
4416000000.0 0.9773543556355595 -0.211379917942521
4419000000.0 0.9765183318641447 -0.22312774625826182
4422000000.0 0.980899444740162 -0.192278550050636
4425000000.0 1.0026398733651205 -0.21286954053430163
4428000000.0 0.9893190469160907 -0.22761139692819232
4431000000.0 1.014916419769087 -0.22256742300351007
4434000000.0 0.9707756733758187 -0.2477677532736227
4438000000.0 0.9984771797993401 -0.2748090738496226
4441000000.0 0.9865678485464209 -0.2785846956111404
4444000000.0 0.9517550042660667 -0.2728315564116977
4447000000.0 0.9646614542053957 -0.2997220040504851
4450000000.0 0.9452809030569099 -0.2753356485675521
4453000000.0 0.9920017790508552 -0.3129928295838022
4456000000.0 0.9433985161403392 -0.32415548036732045
4459000000.0 0.8966232236618858 -0.32296441215744265
4462000000.0 0.999760671390058 -0.34373210810898547
4466000000.0 0.9875514130284198 -0.36324458287933825
4469000000.0 0.9421805379063023 -0.3214152004963132
4472000000.0 0.9637481244413464 -0.3831433588274421
4475000000.0 0.9197249762994321 -0.33825657048665836
4478000000.0 0.981643354105978 -0.39121213301745195
4481000000.0 0.9123402395487379 -0.38483947483838976
4484000000.0 0.8986153635081302 -0.43296533112048563
4488000000.0 0.9108092023552496 -0.41345837470931984
4491000000.0 0.9314537612265771 -0.41021982436420656
4494000000.0 0.8983764310672945 -0.4086619319686728
4497000000.0 0.9085546529787867 -0.3949574772623851
4500000000.0 0.9152157257962414 -0.4086465006337856
4503000000.0 0.9303746373554616 -0.4196591579463696
4506000000.0 0.8922737389949527 -0.44050303163751037
4509000000.0 0.9079000905140491 -0.44809208489224006
4512000000.0 0.8868336662040445 -0.4447718282828357
4516000000.0 0.896214056543565 -0.4632360833745845
4519000000.0 0.8702396302123726 -0.4571824960968016
4522000000.0 0.893798573923801 -0.4756405877709108
4525000000.0 0.8910014908049089 -0.45415308189677894
4528000000.0 0.9100651138516493 -0.500266355357628
4531000000.0 0.8918924491031593 -0.49417991836777764
4534000000.0 0.8436374507073909 -0.508430291562149
4538000000.0 0.8684692064782633 -0.5159331196547131
4541000000.0 0.8193361117458189 -0.5349157355209629
4544000000.0 0.8623957233452246 -0.5011393233503468
4547000000.0 0.8403727063320544 -0.507270065751023
4550000000.0 0.8373685520070404 -0.5615475158358919
4553000000.0 0.824118013938655 -0.5611236896620786
4556000000.0 0.7917646199614155 -0.550081138249592
4559000000.0 0.8251845613046495 -0.5875818707972014
4562000000.0 0.842035162722593 -0.5790199862081176
4566000000.0 0.8242627372089324 -0.6068493623097937
4569000000.0 0.7814918245432824 -0.5850219273009449
4572000000.0 0.8067958335533588 -0.6010473273088421
4575000000.0 0.8106491367878048 -0.6274634604065715
4578000000.0 0.8442918964262391 -0.6292638781475492
4581000000.0 0.7695995069896195 -0.6222372197462487
4584000000.0 0.7699359762384179 -0.6301399682288824
4588000000.0 0.7958844664673327 -0.6470229990944094
4591000000.0 0.7821400885880728 -0.6383868201396466
4594000000.0 0.762634254826042 -0.6465962555578751
4597000000.0 0.7748912671018136 -0.6624535968559403
4600000000.0 0.7436676300376301 -0.6812187867381603
4603000000.0 0.752765317749296 -0.6823389719363535
4606000000.0 0.7524283056398362 -0.6774394098666404
4609000000.0 0.7380144436574042 -0.665455325462101
4612000000.0 0.7563009712328342 -0.6965339108633579
4616000000.0 0.7097413831856805 -0.685030750233442
4619000000.0 0.7293165931650032 -0.6883926589865862
4622000000.0 0.7155916431410217 -0.6993978464137545
4625000000.0 0.656170489892087 -0.6989603748540738
4628000000.0 0.7067092017281646 -0.7168638243803425
4631000000.0 0.6892043801529661 -0.7507755448584202
4634000000.0 0.6801983122766048 -0.723749378557846
4638000000.0 0.6827111270074715 -0.7361344202850197
4641000000.0 0.6709994833704445 -0.7368346428558198
4644000000.0 0.663598187821091 -0.7245557704706691
4647000000.0 0.7053535895444728 -0.7694759782197834
4650000000.0 0.6434424808075611 -0.7714003968765542
4653000000.0 0.6638964364616035 -0.7736969128746047
4656000000.0 0.6136385847905181 -0.7824294869476385
4659000000.0 0.63945373245607 -0.7857422583330573
4662000000.0 0.6385150335015334 -0.801701222039475
4666000000.0 0.61034632624723 -0.8020599089632635
4669000000.0 0.6243450858696284 -0.7946499648250499
4672000000.0 0.6023405368393434 -0.8175959566594784
4675000000.0 0.5938042812048875 -0.8253541782270561
4678000000.0 0.570296431810005 -0.8016030777056703
4681000000.0 0.564667246000927 -0.8503891761031896
4684000000.0 0.5679255290634522 -0.8466905080812367
4688000000.0 0.5570441295869951 -0.8300147609498849
4691000000.0 0.5801746522154733 -0.8260184742847989
4694000000.0 0.5743408860153288 -0.848982972911388
4697000000.0 0.5183264013793966 -0.850869107773462
4700000000.0 0.5508329716110152 -0.8308236582492645
4703000000.0 0.5529025009069243 -0.8108777457766985
4706000000.0 0.5321464858224829 -0.8574199117294522
4709000000.0 0.5180969986639609 -0.8593493871438544
4712000000.0 0.5204545264484154 -0.8584601999068434
4716000000.0 0.4945463084576578 -0.9159818174409622
4719000000.0 0.5239038732297877 -0.8815355045983295
4722000000.0 0.5098415617999231 -0.8728391429438149
4725000000.0 0.46107055120101686 -0.8725492357030357
4728000000.0 0.45274278764799436 -0.8758052514609573
4731000000.0 0.4940608429702521 -0.8968142806930088
4734000000.0 0.48746084864211825 -0.8812561491940846
4738000000.0 0.5056406831997982 -0.9000107287250054
4741000000.0 0.45704507837152275 -0.9239728975494265
4744000000.0 0.42878978922200145 -0.9501966829786347
4747000000.0 0.4231906829935905 -0.867768429640192
4750000000.0 0.43059609205350013 -0.9201649150528313
4753000000.0 0.4349363851936867 -0.9169531883274823
4756000000.0 0.38258041492077727 -0.938178811506484
4759000000.0 0.42661942566723043 -0.9583403451165202
4762000000.0 0.39775624551009875 -0.9661967324635486
4766000000.0 0.39177934930724906 -0.9591100765541458
4769000000.0 0.35952307844072146 -0.9479089380812515
4772000000.0 0.3618292718732783 -0.9455311458003287
4775000000.0 0.3833261419652661 -0.9856289300432126
4778000000.0 0.3529846218621924 -0.960813613586431
4781000000.0 0.34825734971807953 -0.9388446192927944
4784000000.0 0.35595438860743844 -0.973786619906995
4788000000.0 0.31070850530692595 -0.9706329831068237
4791000000.0 0.320132107081606 -0.9720251729530235
4794000000.0 0.33034571927408113 -0.9875044580627812
4797000000.0 0.268051148406717 -0.9418808658262882
4800000000.0 0.29237173844114894 -0.9591805528540225
4803000000.0 0.2452052062459176 -0.981141296766501
4806000000.0 0.2726069841910588 -0.9862718820725418
4809000000.0 0.2380846416151207 -0.9876007955945209
4812000000.0 0.22779991111013664 -0.9778437477112563
4816000000.0 0.2791251805881891 -0.9820325964301231
4819000000.0 0.2885793201386706 -1.0135990277120583
4822000000.0 0.27630935322693057 -1.0077717430795452
4825000000.0 0.2397805100156929 -1.0088678183264985
4828000000.0 0.2063097833849472 -0.9956970085048885
4831000000.0 0.19045243396777098 -1.0237276722139266
4834000000.0 0.23072490288860442 -0.9949031803720167
4838000000.0 0.1976225830669011 -1.0241459845735579
4841000000.0 0.17857647311856978 -0.988360128368677
4844000000.0 0.22305518299738725 -1.0094881325683336
4847000000.0 0.18588814090066882 -0.9620761702679317
4850000000.0 0.1683240028132243 -1.0204166942224369
4853000000.0 0.16247250254518336 -0.973763351147318
4856000000.0 0.1409099701904348 -1.0042174299493258
4859000000.0 0.14945718132460384 -1.0555933414209195
4862000000.0 0.13495681124555703 -0.9865148661166233
4866000000.0 0.08891763882834582 -1.0297283306913538
4869000000.0 0.1202580559094314 -1.0258363764736105
4872000000.0 0.07337596565942554 -1.040529961337137
4875000000.0 0.14639817577538733 -1.0569747411884527
4878000000.0 0.09684873955339762 -0.9958487527224199
4881000000.0 0.03637587392274946 -1.0841829420516296
4884000000.0 0.09943476914278519 -1.0145238485802914
4888000000.0 0.08520232859474862 -1.0048114770023162
4891000000.0 0.10871142922854521 -1.039055694810278
4894000000.0 0.03951708430200668 -1.0122692423770703
4897000000.0 0.06589384108433166 -1.0095475672521421
4900000000.0 0.05651240104980899 -1.0316930814806087
4903000000.0 0.027210897931984376 -1.0501710680369862
4906000000.0 0.0378546342191578 -1.028498826129686
4909000000.0 -0.0076233925958557845 -1.0386685137936198
4912000000.0 0.009109246317462585 -1.0588628401212783
4916000000.0 -0.006610497462962772 -1.0579285306754045
4919000000.0 0.01524180282253456 -1.0576001756196058
4922000000.0 0.0225512884915927 -1.028202431097274
4925000000.0 -0.07025259265781086 -1.017321599071433
4928000000.0 0.012462116069150861 -1.0100127111865849
4931000000.0 -0.00804308832938816 -1.0361572494722968
4934000000.0 -0.034165142679418656 -0.9904294965457385
4938000000.0 -0.12422156084650039 -1.0188202773058919
4941000000.0 -0.07880927203138603 -1.022892463010571
4944000000.0 -0.07064382978066572 -0.9710488400110233
4947000000.0 -0.06063304148161505 -0.9870799875324149
4950000000.0 -0.06890781905284539 -1.0163505546234717
4953000000.0 -0.12635601424779572 -1.0469038918636882
4956000000.0 -0.12830844246355338 -1.0054177511205253
4959000000.0 -0.18124942804430047 -0.9822353005234316
4962000000.0 -0.14607854725273114 -1.0276385318848906
4966000000.0 -0.11977290266697627 -1.0434731887057525
4969000000.0 -0.12903593905334493 -1.0590977272379747
4972000000.0 -0.1526489615255456 -1.051879691598185
4975000000.0 -0.13205564540287282 -1.02697012385266
4978000000.0 -0.17770537129949682 -0.9987092989980482
4981000000.0 -0.1849302338308618 -1.0068742072184798
4984000000.0 -0.20607751820329864 -1.0015859268885896
4988000000.0 -0.16929604536552945 -1.0222519807618433
4991000000.0 -0.15526333673719606 -1.0450123262994369
4994000000.0 -0.1776302064249376 -1.0023268540058576
4997000000.0 -0.2561846745425879 -0.9726493443681835
5000000000.0 -0.2009399420041436 -1.0395916615106962
5003000000.0 -0.24116918995561987 -1.048413305202026
5006000000.0 -0.23833521415728978 -1.0416482697951965
5009000000.0 -0.23148027895679915 -0.9768621514975254
5012000000.0 -0.3016112816176069 -0.9898730344521325
5016000000.0 -0.2259078096846523 -1.0166429843876144
5019000000.0 -0.2781309557180283 -0.9656515699657635
5022000000.0 -0.2719241739307785 -0.9872554304919225
5025000000.0 -0.2713228619888047 -1.0372169939383313
5028000000.0 -0.3408072187324175 -0.9870010575981887
5031000000.0 -0.3092807684872051 -0.9681644456865378
5034000000.0 -0.3621032434263255 -0.9794910059795756
5038000000.0 -0.34541471104430355 -0.9734388019044349
5041000000.0 -0.29509858164107483 -1.0306721624267317
5044000000.0 -0.29671503687720235 -0.9545455485542412
5047000000.0 -0.31050049764212656 -0.9844485613174897
5050000000.0 -0.26762448190090116 -0.9942422250124112
5053000000.0 -0.3593699221882881 -1.0096191080813157
5056000000.0 -0.349612479960407 -1.0093130142509266
5059000000.0 -0.32965639135889174 -0.9637568616695588
5062000000.0 -0.42831978592544306 -0.9705775595407085
5066000000.0 -0.3210303160754945 -0.9525906719997275
5069000000.0 -0.39719136507999453 -0.9657227456095486
5072000000.0 -0.37460890652888823 -0.9309726584662104
5075000000.0 -0.37295439429950694 -0.9654899651633926
5078000000.0 -0.434898216384702 -0.9782823947748065
5081000000.0 -0.37885424005658885 -0.87565802538748
5084000000.0 -0.4253848733634955 -0.9315325134469028
5088000000.0 -0.401288849977822 -0.907063932250622
5091000000.0 -0.47872166298202473 -0.8838362035910985
5094000000.0 -0.47066604233651593 -0.9202825240242888
5097000000.0 -0.41571744153339185 -0.9743217905029942
5100000000.0 -0.469654824930801 -0.942426376940931
5103000000.0 -0.5060971133428461 -0.9423628995227044
5106000000.0 -0.47423574196538604 -0.9422081145087842
5109000000.0 -0.3899659371115096 -0.9510198586544032
5112000000.0 -0.4385344505160016 -0.8788828277260818
5116000000.0 -0.48903661414522553 -0.8493051112867671
5119000000.0 -0.5130548212834507 -0.9169384647458934
5122000000.0 -0.4979143829734844 -0.9099810434998767
5125000000.0 -0.5040676453003434 -0.9224484765969062
5128000000.0 -0.5146264970409463 -0.9029251270195262
5131000000.0 -0.47443251121666374 -0.8876393678016455
5134000000.0 -0.4996502905146967 -0.8391831816206553
5138000000.0 -0.5845255405482274 -0.8592530183853206
5141000000.0 -0.54320358715483 -0.8939058700392621
5144000000.0 -0.551791710866737 -0.8951356669635663
5147000000.0 -0.6081841460009064 -0.8721005006237965
5150000000.0 -0.560392370032799 -0.8985168418753308
5153000000.0 -0.5851927953434202 -0.8616084402835231
5156000000.0 -0.5932480536879475 -0.8839177182839897
5159000000.0 -0.5829678413597061 -0.9002027170115526
5162000000.0 -0.6229656425233273 -0.8244156496408189
5166000000.0 -0.6263995413514338 -0.8337268918439977
5169000000.0 -0.6275779315630662 -0.8737799722914413
5172000000.0 -0.5844736012354566 -0.840778654925656
5175000000.0 -0.6406101992159472 -0.8205177138986207
5178000000.0 -0.6593328803612251 -0.8172012755786027
5181000000.0 -0.6481293409836576 -0.8233233287903106
5184000000.0 -0.6295386340727126 -0.788412186056798
5188000000.0 -0.6581292140243219 -0.7920534359071764
