! Created with skrf 1.8.0 (http://scikit-rf.org).
# Hz S RI R 50.0 
!freq ReS11 ImS11
4000000000.0 0.804499722196125 0.5883594396258258
4003000000.0 0.8716961724967317 0.668094554409904
4006000000.0 0.8630730154695115 0.5674669656020558
4009000000.0 0.8408337409169611 0.6447462702287062
4012000000.0 0.8336061111045155 0.6499298722170298
4016000000.0 0.8878650056876529 0.574120077055656
4019000000.0 0.8469706939437975 0.5837569418438913
4022000000.0 0.8410022059689771 0.6076621174567214
4025000000.0 0.9065185147634772 0.5710278195259552
4028000000.0 0.8916491001168041 0.5158966989158382
4031000000.0 0.8341189103577832 0.5514520797635829
4034000000.0 0.8507530727326128 0.5160846297052255
4038000000.0 0.8938007877226871 0.5273712074689297
4041000000.0 0.876847140756955 0.5052317784337897
4044000000.0 0.9310443493243908 0.5326677310837383
4047000000.0 0.933667734580158 0.5331958923714958
4050000000.0 0.9168456697367774 0.5015814883617483
4053000000.0 0.8968636464359128 0.4457760771067348
4056000000.0 0.9214235858195269 0.4685569201774049
4059000000.0 0.9053589983354692 0.47561263355143163
4062000000.0 0.927643799545411 0.4314568580709482
4066000000.0 0.8368179467153614 0.44761241312691913
4069000000.0 0.967105969727577 0.44734273464878105
4072000000.0 0.9197856837520556 0.45020197109209464
4075000000.0 0.9793724543477672 0.5023031089316032
4078000000.0 0.9730277755842461 0.37794845719652126
4081000000.0 0.9326406047217928 0.4413031650657725
4084000000.0 0.9544352349072913 0.381459266687225
4088000000.0 0.9382382265563378 0.44647333819035917
4091000000.0 0.9890979711635296 0.42224806911527707
4094000000.0 0.9335619613386087 0.37679367531758
4097000000.0 0.9608850362991855 0.38611639924149915
4100000000.0 0.9461250049188171 0.3591144171288944
4103000000.0 0.975974672138757 0.3745867224965869
4106000000.0 1.0203585300143603 0.3332982577445841
4109000000.0 0.998050815532024 0.3234785088526689
4112000000.0 0.9621308295257467 0.3263729923971493
4116000000.0 0.9743242117025168 0.32190332775286157
4119000000.0 0.9931248666547546 0.312478046327591
4122000000.0 0.98818996298278 0.28261414547444885
4125000000.0 0.9828372062197408 0.26548369231920216
4128000000.0 0.9863280073662959 0.2764856001671787
4131000000.0 0.9781383507091591 0.22710111755557238
4134000000.0 0.9884430586550639 0.26573920739337453
4138000000.0 0.9993870864166041 0.2307220426539091
4141000000.0 0.9895376013379081 0.23842354496379026
4144000000.0 0.9894336490837979 0.23740143405126862
4147000000.0 1.0093826394649852 0.209760737013389
4150000000.0 1.034110089368557 0.1984422163352197
4153000000.0 0.9778879995830984 0.20717648477962824
4156000000.0 1.033306851835737 0.22610787101745022
4159000000.0 0.9887969832855517 0.1993608661128024
4162000000.0 1.0045545774831444 0.15907127709544133
4166000000.0 1.0410171924468916 0.15665598376613765
4169000000.0 0.9846802297782874 0.15571366827724947
4172000000.0 1.0494020444814178 0.13513487732993368
4175000000.0 1.0368542223569508 0.1395818979832137
4178000000.0 1.0308751936488612 0.11827934454862726
4181000000.0 1.000045357960119 0.1035402643887054
4184000000.0 0.9960114455453207 0.11435721950354288
4188000000.0 1.0017990659055447 0.07664156147659296
4191000000.0 0.9970288967921518 0.09699370728585716
4194000000.0 1.0044643928675092 0.046169792256807896
4197000000.0 1.0229621771309632 0.06643118317638302
4200000000.0 1.0131972278914465 0.07976181388807607
4203000000.0 1.040945381667771 0.062390880972923335
4206000000.0 1.0378350536027359 0.031387384686261344
4209000000.0 0.9858802955615964 0.01179039161583556
4212000000.0 1.0134733161427631 -0.024800653697205105
4216000000.0 1.0369671901383706 0.019283707621073454
4219000000.0 1.0395860711590155 -0.010658236062557946
4222000000.0 1.0116660230975099 -0.02238640714502227
4225000000.0 1.0089616419146328 -0.021369483905078396
4228000000.0 1.0186540414270895 -0.04309651532217962
4231000000.0 1.015696814456514 -0.06665398624457855
4234000000.0 1.0215269741412838 -0.0837387877970307
4238000000.0 1.015063693003662 -0.1002093787028618
4241000000.0 0.9895906162140922 -0.1055184503627232
4244000000.0 1.0080123390347147 -0.10628361697053877
4247000000.0 0.9959218192964372 -0.10896367552872191
4250000000.0 0.9789189319959735 -0.11768568558286024
4253000000.0 0.9871060950279009 -0.15824059652893735
4256000000.0 1.055629493408365 -0.14012470955215914
4259000000.0 0.954995113933621 -0.17546051063658916
4262000000.0 0.9963918503306619 -0.18357365274033646
4266000000.0 1.0039833898529433 -0.1983772281696452
4269000000.0 0.9962995555117499 -0.16657253264106175
4272000000.0 0.9971571248680127 -0.16273727200146804
4275000000.0 1.009589886167922 -0.18247100129698202
4278000000.0 1.0095389711923721 -0.2129966013867226
4281000000.0 0.9872656242114327 -0.21081912731141894
4284000000.0 0.997384920323651 -0.28632634828408027
4288000000.0 0.9663749879455177 -0.21531648684260868
4291000000.0 0.9550478972224239 -0.24971811062500565
4294000000.0 0.9764211183917574 -0.26723457879794865
4297000000.0 0.9585842313074003 -0.2331208842780691
4300000000.0 0.9742879001305886 -0.2658092781581368
4303000000.0 0.9419554894541957 -0.2977030188001594
4306000000.0 0.9867914632455238 -0.2923580536950554
4309000000.0 0.9575776270207202 -0.3022363409186908
4312000000.0 0.962277863352519 -0.2939719545959457
4316000000.0 0.9663822742010639 -0.3159587281507461
4319000000.0 0.9373148087533204 -0.3490009891894863
4322000000.0 0.9103166467885376 -0.3785895122873138
4325000000.0 0.925614140989584 -0.36116930005729303
4328000000.0 0.9417119172414405 -0.3673837010874313
4331000000.0 0.9376018162111038 -0.4046949049859577
4334000000.0 0.9486626067966647 -0.39877796095825724
4338000000.0 0.9295319401753928 -0.3949550914462082
4341000000.0 0.9426687132584911 -0.40649139130911127
4344000000.0 0.9420691320878795 -0.4158330084397751
4347000000.0 0.9146597545865673 -0.475197126615863
4350000000.0 0.8798059251812677 -0.44494931003359867
4353000000.0 0.8954072155198132 -0.4358196952537272
4356000000.0 0.8560321165628934 -0.47445025423671816
4359000000.0 0.861080685555785 -0.4555217671522305
4362000000.0 0.8649954942110516 -0.522257516959886
4366000000.0 0.9111786484988533 -0.49967922511941326
4369000000.0 0.8472971939518218 -0.49538892744178176
4372000000.0 0.8534968895874058 -0.5330509526792794
4375000000.0 0.8696758011358929 -0.5038884019855966
4378000000.0 0.8433708123353681 -0.5159000096596448
4381000000.0 0.8279070109421833 -0.5247956768595848
4384000000.0 0.904049250881796 -0.599971766401656
4388000000.0 0.8329929183286606 -0.5527228142773524
4391000000.0 0.8208628629029833 -0.5543920661451531
4394000000.0 0.8067498815980161 -0.5746871117844697
4397000000.0 0.8130722667915098 -0.5880415171121658
4400000000.0 0.8202182502381843 -0.6128257935053416
4403000000.0 0.8057694023613442 -0.610726082237226
4406000000.0 0.7910283632470162 -0.6293746403713806
4409000000.0 0.8093653014138811 -0.634369477069159
4412000000.0 0.7552571405245943 -0.6637684809578479
4416000000.0 0.7629285550172245 -0.639305217949706
4419000000.0 0.7564586114603654 -0.658002044206838
4422000000.0 0.7702068674765701 -0.6533819735855606
4425000000.0 0.7796002064662626 -0.6667175845970015
4428000000.0 0.761799022045206 -0.6864395284062981
4431000000.0 0.7543726419672803 -0.6887228288308339
4434000000.0 0.7312528283224515 -0.680761320481823
4438000000.0 0.7302152544601264 -0.7104853710578893
4441000000.0 0.711404148169188 -0.7374528022555511
4444000000.0 0.6975576320706746 -0.707949872241153
4447000000.0 0.6981279204752584 -0.7455123146939658
4450000000.0 0.6774094269991803 -0.7163323128198624
4453000000.0 0.6671474879425603 -0.760249849938286
4456000000.0 0.6591062337135276 -0.741299433026133
4459000000.0 0.6420613009200469 -0.7503820614359584
4462000000.0 0.6757172799281499 -0.8089455264167557
4466000000.0 0.6798715191444241 -0.8022723785519483
4469000000.0 0.6446623434868596 -0.7614893291077711
4472000000.0 0.6168312914131697 -0.8059795966391148
4475000000.0 0.6262173001695158 -0.7920554444265765
4478000000.0 0.6214685698666409 -0.8470587916605438
4481000000.0 0.5921250850154107 -0.8065612968276192
4484000000.0 0.5576935470972916 -0.8431068377169029
4488000000.0 0.585247517307055 -0.8254010338395695
4491000000.0 0.5580162291398061 -0.8287464080442016
4494000000.0 0.5580917726158512 -0.8443693083779511
4497000000.0 0.5521276164932563 -0.8498912859786756
4500000000.0 0.5416451640197153 -0.8534341733334814
4503000000.0 0.5375266666746802 -0.8963852092659348
4506000000.0 0.4945550310445467 -0.865226264263022
4509000000.0 0.5011314940591777 -0.8495385555967082
4512000000.0 0.4934803191725612 -0.8600781398518811
4516000000.0 0.4874249591619435 -0.9095965778457741
4519000000.0 0.4707943877570331 -0.8862096206414536
4522000000.0 0.4642180557214831 -0.8799960216630545
4525000000.0 0.4826517677406591 -0.8877101719313809
4528000000.0 0.4592383356010419 -0.9053093095684748
4531000000.0 0.4415643006744222 -0.9223731193770957
4534000000.0 0.4201563799440334 -0.913668847218252
4538000000.0 0.42529321272133824 -0.9330713106072586
4541000000.0 0.3844013402404939 -0.9185395683265912
4544000000.0 0.3901866045978989 -0.9518742549650283
4547000000.0 0.37355226936167885 -0.9437089012163664
4550000000.0 0.36807254152099345 -0.9579091320680889
4553000000.0 0.341413147052238 -0.9538248941140638
4556000000.0 0.3536953644711427 -0.9465698057790637
4559000000.0 0.3424173226706443 -0.9779596451404076
4562000000.0 0.3259535417697984 -0.9694007963054295
4566000000.0 0.2977639326544411 -0.9928650153846246
4569000000.0 0.2804644766357762 -0.9672873644940347
4572000000.0 0.27088993922390564 -0.985730854529015
4575000000.0 0.2498153739693978 -0.9753583611678704
4578000000.0 0.25780262964718925 -1.0003305349675824
4581000000.0 0.22591237147648466 -0.9654472502907789
4584000000.0 0.22369138928158555 -1.0110103517381164
4588000000.0 0.2112010940627472 -1.0062624745021038
4591000000.0 0.18935246362265823 -0.9952859633336162
4594000000.0 0.18252682555819671 -0.9958779742277485
4597000000.0 0.16350849606648804 -0.9909826837173661
4600000000.0 0.16375464423421088 -1.0104665189531004
4603000000.0 0.11855718637558828 -0.9844464980642156
4606000000.0 0.14890853807405946 -1.0264089867065203
4609000000.0 0.1292514327862166 -1.0102230800380623
4612000000.0 0.09536801292526123 -0.9895813849597379
4616000000.0 0.09884966289816718 -1.0051214498049963
4619000000.0 0.07714603830765081 -0.9931318973984505
4622000000.0 0.00942477102158601 -1.0225749591005167
4625000000.0 0.0076805626230733726 -1.0396666425912657
4628000000.0 0.05196091841085677 -1.0829227248675222
4631000000.0 0.037771470416434604 -1.0347938458226922
4634000000.0 -0.011317463973817478 -1.0332625570229708
4638000000.0 0.008892392425739325 -1.0486985817856214
4641000000.0 -0.015587735355381424 -1.0020013378806563
4644000000.0 -0.027476573801833992 -0.9975695627954556
4647000000.0 -0.019261866096112204 -1.0094820663192323
4650000000.0 -0.05034994387017894 -0.985377509099258
4653000000.0 -0.06813806961927776 -1.0266903790108517
4656000000.0 -0.06736521406980908 -1.0555445629570135
4659000000.0 -0.11506402200468516 -1.0417574931934999
4662000000.0 -0.12525148496963173 -1.0219066420680099
4666000000.0 -0.15169752691777422 -1.0220440308930292
4669000000.0 -0.14693695519189004 -1.0267080837687814
4672000000.0 -0.16720554822000255 -1.0714751542863232
4675000000.0 -0.19435366216250566 -1.0595333367246909
4678000000.0 -0.2046591492649042 -0.9562838161576248
4681000000.0 -0.2605642041352198 -0.9972359868963909
4684000000.0 -0.23405801860329584 -1.058088405493955
4688000000.0 -0.28906415829032694 -0.9728081993712404
4691000000.0 -0.25725166332560534 -1.0328242769563747
4694000000.0 -0.22823957138401837 -0.9588878481665719
4697000000.0 -0.29195393068273373 -0.924702427222502
4700000000.0 -0.26009387354153846 -0.9794268867631646
4703000000.0 -0.22127972003162527 -0.9505311839157353
4706000000.0 -0.3269266236878638 -0.9747097942708326
4709000000.0 -0.29948482957750866 -0.9745790710328652
4712000000.0 -0.3042115725933942 -0.9637289969412938
4716000000.0 -0.36563428531385267 -0.9534735536334504
4719000000.0 -0.2878452338986355 -1.008597854244021
4722000000.0 -0.31502892841305247 -0.9772457774782233
4725000000.0 -0.3541950925814993 -0.9548573563323646
4728000000.0 -0.39179861134984223 -0.9300761959198689
4731000000.0 -0.44130650753523876 -1.006380758518301
4734000000.0 -0.3942018070712504 -0.9139828404822127
4738000000.0 -0.4303665569212615 -0.9713073202522521
4741000000.0 -0.5057623802348619 -0.913441785521257
4744000000.0 -0.4713986699237871 -0.9245654485387717
4747000000.0 -0.4276706087989781 -0.9277997815876082
4750000000.0 -0.46706302890407153 -0.9316292454988169
4753000000.0 -0.4831764178904585 -0.9733774229680294
4756000000.0 -0.511162822735505 -0.9344796878147972
4759000000.0 -0.5274276610812323 -0.9443014362921399
4762000000.0 -0.6096037280408282 -0.8820922399323118
4766000000.0 -0.5538687310822059 -0.8666095380758965
4769000000.0 -0.5804199952039579 -0.8525996990532331
4772000000.0 -0.5680222751283786 -0.8773184870378861
4775000000.0 -0.6356164141146027 -0.8995449692922378
4778000000.0 -0.6764688942980361 -0.812943397871359
4781000000.0 -0.6231573555486924 -0.8298356071511894
4784000000.0 -0.6378389330933611 -0.8173545901454218
4788000000.0 -0.6995548759718286 -0.7990710338410482
4791000000.0 -0.6567789209218635 -0.7868478215042339
4794000000.0 -0.6599231084637676 -0.8457862903227789
4797000000.0 -0.6779819116672201 -0.7570102796785293
4800000000.0 -0.7129064132633226 -0.7427319521885222
4803000000.0 -0.7384355889900636 -0.7286232778483455
4806000000.0 -0.7524496681871724 -0.7528963426908023
4809000000.0 -0.7836572780220952 -0.6925550132375127
4812000000.0 -0.7552263789096243 -0.6911794214755098
4816000000.0 -0.7363314768436113 -0.7239471628397279
4819000000.0 -0.79420391664737 -0.6919160494615696
4822000000.0 -0.7954365357477342 -0.7289110445503794
4825000000.0 -0.7907723184861244 -0.6975967667525178
4828000000.0 -0.779488755787179 -0.6410264471988086
4831000000.0 -0.8531475313057233 -0.6411664714207698
4834000000.0 -0.8143307046456567 -0.6444232388654093
4838000000.0 -0.8651204421139065 -0.597837808124623
4841000000.0 -0.8502427797754681 -0.5829081897778539
4844000000.0 -0.8502909968098395 -0.6149583454992293
4847000000.0 -0.8472008013752217 -0.5767293970819665
4850000000.0 -0.920277438325519 -0.5365396250235082
4853000000.0 -0.8407494227222583 -0.5176859062016963
4856000000.0 -0.8869052492575207 -0.4958831730077098
4859000000.0 -0.9312008001880092 -0.49004445444711187
4862000000.0 -0.8796081593962656 -0.4963511473086545
4866000000.0 -0.9274026537221435 -0.46077625752337475
4869000000.0 -0.9225645862054054 -0.46172569364740557
4872000000.0 -0.9740150077694062 -0.455828473608905
4875000000.0 -0.9449281282221165 -0.48011990247141023
4878000000.0 -0.9572467767042261 -0.4113351987550194
4881000000.0 -0.9744556100402977 -0.3749209552276602
4884000000.0 -0.9703351869084657 -0.38053970135644155
4888000000.0 -0.9582176531263035 -0.3558613654298927
4891000000.0 -0.9900800939763688 -0.30942181603050284
4894000000.0 -0.9709168304138487 -0.2925458099888522
4897000000.0 -0.9760198654272182 -0.28937376443303475
4900000000.0 -0.9953379150581253 -0.26435293848564007
4903000000.0 -1.0623262255161938 -0.2416704562246665
4906000000.0 -1.0350738955712657 -0.203129548863149
4909000000.0 -1.039149501431342 -0.2415321414289323
4912000000.0 -1.0213692437477893 -0.1483705862842696
4916000000.0 -1.0548823434820502 -0.10427452313035167
4919000000.0 -1.0147374556772029 -0.18775230195807824
4922000000.0 -0.9925082368382356 -0.11623325460331682
4925000000.0 -1.0018791998441179 -0.06093755405657893
4928000000.0 -1.0125213177940748 -0.10686188858304949
4931000000.0 -1.0204225184189923 -0.057016245725362916
4934000000.0 -1.0428308399604436 -0.013742507086696734
4938000000.0 -1.045000102870818 0.025014511589765157
4941000000.0 -0.9988386902052083 -0.013480250607988534
4944000000.0 -1.0316498426192424 0.06776644799675248
4947000000.0 -1.0223696360884948 0.06059960831508919
4950000000.0 -1.0324075648119022 0.09856757666689803
4953000000.0 -1.026024858172228 0.11774003974756952
4956000000.0 -1.029217616568026 0.10157394204089983
4959000000.0 -1.0098226068600025 0.16202222171620673
4962000000.0 -1.01215963381972 0.19214760062321906
4966000000.0 -1.0110614438089252 0.18775692996759033
4969000000.0 -0.9702080126700924 0.2265994371381703
4972000000.0 -0.9810581035365992 0.24854012320838467
4975000000.0 -0.9806278948131457 0.3206062312189816
4978000000.0 -0.9972997212153054 0.3075356439396441
4981000000.0 -0.9611836222890794 0.3289905380682778
4984000000.0 -0.9710311479781077 0.36355363977544863
4988000000.0 -0.971012441086728 0.3593697870026495
4991000000.0 -0.9579034578572203 0.4480355035308745
4994000000.0 -0.9145875455466175 0.44994508550880785
4997000000.0 -0.9106434910514571 0.44981523194159634
5000000000.0 -0.8945653342606105 0.5326669353572622
5003000000.0 -0.8854936379122995 0.5180236939099157
5006000000.0 -0.848314655635155 0.5072341255464495
5009000000.0 -0.846821135132275 0.59847007867595
5012000000.0 -0.8950303818846026 0.6169766891657227
5016000000.0 -0.8586119464448512 0.5991475316064638
5019000000.0 -0.8006801520568477 0.6290281427748028
5022000000.0 -0.7816921347839406 0.6374052548183364
5025000000.0 -0.7372132823232196 0.6483378701063867
5028000000.0 -0.7516382240990535 0.6694358619949634
5031000000.0 -0.7075942659392636 0.7050276178457344
5034000000.0 -0.755844185494052 0.7437012928069762
5038000000.0 -0.724645440648683 0.7426241362464637
5041000000.0 -0.6488336247903016 0.7512632831788579
5044000000.0 -0.6223542518606917 0.7717557358409594
5047000000.0 -0.5591033901766933 0.8292748724313574
5050000000.0 -0.5602943311266885 0.8811046668531479
5053000000.0 -0.5070185419240132 0.8242941231805017
5056000000.0 -0.4717570509012041 0.848172135718328
5059000000.0 -0.4309722265362736 0.9033618100320168
5062000000.0 -0.47038238192559967 0.9192397601113341
5066000000.0 -0.3775059631720008 1.0265170179076557
5069000000.0 -0.46873308809888947 0.8857006385830021
5072000000.0 -0.498088604037483 1.0208201150845546
5075000000.0 -0.3124672699281569 0.9126432065772465
5078000000.0 -0.3722532153386935 0.9449075126970217
5081000000.0 -0.27509099560929356 0.9835736079137872
5084000000.0 -0.22080548974676528 0.9572917267958021
5088000000.0 -0.16685898848270347 1.020588325905982
5091000000.0 -0.14240703197509974 0.9326306272845055
5094000000.0 -0.12309281333070483 0.9729701145541829
5097000000.0 -0.05161302839498258 0.9461061039251679
5100000000.0 -0.08095295520422935 1.0280535601871663
5103000000.0 -0.023107319640152377 1.0014334500471602
5106000000.0 0.05877801979358671 0.919688675113258
5109000000.0 0.08113861555969157 0.9861148934092676
5112000000.0 0.09107195020462669 1.0288619005919977
5116000000.0 0.11795236492370718 1.047531755822497
5119000000.0 0.2178211897379248 0.9376663377422474
5122000000.0 0.22715532212214193 0.9760712268660976
5125000000.0 0.1798594584737162 0.9613291231019264
5128000000.0 0.2436002002597806 1.008384653834605
5131000000.0 0.31434117360933045 0.997073753403261
5134000000.0 0.3717401967779342 0.908416551367681
5138000000.0 0.36969689706118825 0.9064267122219377
5141000000.0 0.41169244064857347 0.9528815944117552
5144000000.0 0.460962976756376 0.8662291644080943
5147000000.0 0.4460750929615705 0.8990323580047036
5150000000.0 0.5109352933455776 0.8448390207955222
5153000000.0 0.5604467746971216 0.9221369078567258
5156000000.0 0.5318488461699891 0.8554085212896769
5159000000.0 0.5696716035655618 0.7796835172569155
5162000000.0 0.6423432789232357 0.7764604634424377
5166000000.0 0.646055264165366 0.7671536219737782
5169000000.0 0.661880334268558 0.70850592956122
5172000000.0 0.6968045800709617 0.7238052007091889
5175000000.0 0.737204814438304 0.7353438863359694
5178000000.0 0.7714716045044081 0.6484635783672633
5181000000.0 0.7817258226573486 0.6518110255491351
5184000000.0 0.7941023388403573 0.6356357616377151
5188000000.0 0.8146120260874897 0.5678272370530918
