! Created with skrf 1.8.0 (http://scikit-rf.org).
# Hz S RI R 50.0 
!freq ReS11 ImS11
4000000000.0 0.6214904830062955 0.8012447765024255
4003000000.0 0.6914178366546481 0.8359096176579877
4006000000.0 0.722404289233899 0.7398661436854248
4009000000.0 0.6692263432791627 0.8147270149589906
4012000000.0 0.6672283665168837 0.811737655293579
4016000000.0 0.7194400863636952 0.7560965368774708
4019000000.0 0.6943579010949354 0.7647766932748665
4022000000.0 0.6333714377489872 0.8042909036358904
4025000000.0 0.736010519734645 0.7183992154944616
4028000000.0 0.7358478696873612 0.7231588790461274
4031000000.0 0.7047046407342439 0.727747167631287
4034000000.0 0.7122376794760108 0.7098377514221647
4038000000.0 0.7760802276428957 0.7019568842682625
4041000000.0 0.7801561999450904 0.7226744469446049
4044000000.0 0.7955491577767165 0.766880232583123
4047000000.0 0.7312018523980413 0.7863145526849115
4050000000.0 0.7697861606497032 0.6803481833259161
4053000000.0 0.7773715621177916 0.6429292282973118
4056000000.0 0.7670386299954257 0.6923316177537041
4059000000.0 0.7503638760132642 0.6717883594206016
4062000000.0 0.7739139518638413 0.6699512766798079
4066000000.0 0.7690434173287488 0.5942679366877749
4069000000.0 0.8493959922393552 0.6716646417929274
4072000000.0 0.8079192962640963 0.6772154073368888
4075000000.0 0.8028778126274346 0.6864794365626401
4078000000.0 0.8269495840589314 0.6252535639560012
4081000000.0 0.8258092627079294 0.6620640745154388
4084000000.0 0.824008291978763 0.6172674210906224
4088000000.0 0.775901124848207 0.6472467883364632
4091000000.0 0.8767464903028483 0.6511380334483963
4094000000.0 0.8512579238768667 0.595297729012485
4097000000.0 0.8374377624861352 0.652041506495272
4100000000.0 0.8096443716013298 0.5801468824117304
4103000000.0 0.8281736200687724 0.5903049104584701
4106000000.0 0.8609324961459907 0.5909074115751298
4109000000.0 0.887243510637965 0.5892412849194406
4112000000.0 0.8687166202354486 0.5598043870824443
4116000000.0 0.8537727452917708 0.6009234239092147
4119000000.0 0.86641274570495 0.5291753245316663
4122000000.0 0.8563069647653387 0.5403263031421397
4125000000.0 0.9260355530400356 0.5299846123354046
4128000000.0 0.8383976895285754 0.5409871895811856
4131000000.0 0.8633022549776594 0.5375756996191382
4134000000.0 0.898019300665516 0.569473206675124
4138000000.0 0.8472140695489958 0.4399094778195209
4141000000.0 0.8614041830951787 0.47313979490199587
4144000000.0 0.8902518548118582 0.516894094319279
4147000000.0 0.9079153372020583 0.45953722666905356
4150000000.0 0.9395928695758858 0.49341920024525027
4153000000.0 0.9273226010394119 0.45716297173411147
4156000000.0 0.9585996971823529 0.47072909002048413
4159000000.0 0.8949060138639973 0.48153753737091815
4162000000.0 0.9214604205376986 0.4732372173732343
4166000000.0 0.9561205478604378 0.4344088373068411
4169000000.0 0.9331390875318265 0.40311827010456314
4172000000.0 0.9580231048643915 0.47302312054000456
4175000000.0 0.9318306923598701 0.40175860898118837
4178000000.0 0.9361026641667997 0.4227256953834446
4181000000.0 0.9580529637051809 0.4080457878968138
4184000000.0 0.9294206556786784 0.39524857802231256
4188000000.0 0.9454110999143996 0.37018956417649895
4191000000.0 0.9383719245310165 0.3940112681232348
4194000000.0 0.9465212815214493 0.3745984168227049
4197000000.0 0.983947617189903 0.3522227145266737
4200000000.0 0.9613659537909343 0.3680817311056469
4203000000.0 0.9482515835853752 0.3483447120469536
4206000000.0 0.9684224850166054 0.36350517356752504
4209000000.0 0.9658628879946835 0.33064070094817993
4212000000.0 0.9835555073030733 0.2989348601602767
4216000000.0 0.9664854469586364 0.3164423176927699
4219000000.0 0.9965903051552955 0.3360542581586974
4222000000.0 0.9792467268209304 0.3029774756943437
4225000000.0 0.9555067052379271 0.2879625566326348
4228000000.0 0.9992107654556397 0.2994289864956864
4231000000.0 0.9877760438893581 0.28207045080006876
4234000000.0 0.9934652840813812 0.2829087224654214
4238000000.0 0.9816970746489402 0.24187166239309923
4241000000.0 0.9849782177370132 0.21827020446411532
4244000000.0 0.9955919068996008 0.2394650776870822
4247000000.0 1.0046121575533622 0.24341957930939173
4250000000.0 0.9701534027427057 0.21171540886014062
4253000000.0 0.9878630541955176 0.2034934089824874
4256000000.0 1.0213234003926663 0.22703877425442787
4259000000.0 0.9609826041114188 0.1680193543266423
4262000000.0 1.0033164646191004 0.17501808091264695
4266000000.0 1.01231132800116 0.17383909105529527
4269000000.0 1.0215387194954477 0.1639657019278919
4272000000.0 1.0056285124454507 0.16967539081531957
4275000000.0 0.993486822497313 0.15688978006615584
4278000000.0 1.0308465354416285 0.16694115780444607
4281000000.0 1.0325013855795493 0.1586698133848688
4284000000.0 1.0119783347399767 0.1060543863026894
4288000000.0 1.0042748657493117 0.1636734611956142
4291000000.0 0.9911376112650107 0.1108966734280633
4294000000.0 1.010438990707505 0.10688492932685704
4297000000.0 0.9945823427547875 0.11996686917942122
4300000000.0 0.9977852106442386 0.0950721414030668
4303000000.0 0.9964782925166599 0.055737719057911764
4306000000.0 1.0103549883752563 0.07227953159410472
4309000000.0 1.0009451445070852 0.08365840857971361
4312000000.0 1.0070311724870962 0.08938891551142777
4316000000.0 1.0239318866921727 0.06379513397608498
4319000000.0 0.9814182917110683 0.019935114026986125
4322000000.0 1.030655298694065 0.021849059499081766
4325000000.0 1.020907356795556 0.023335412384423035
4328000000.0 1.0044867737479923 0.00017860967209201717
4331000000.0 1.0169078195111456 -0.01185190683609666
4334000000.0 1.013880176240206 0.003294241745715132
4338000000.0 1.010727371538474 0.0055168339358314805
4341000000.0 1.0417255559806666 -8.291817215219655e-05
4344000000.0 1.0093211572387832 -0.021622860451545073
4347000000.0 1.019568658157202 -0.07362887424574911
4350000000.0 0.9805147405041598 -0.04457871937733425
4353000000.0 0.9885346653886251 -0.035380426187361244
4356000000.0 0.9920421523329325 -0.07068290505112113
4359000000.0 0.9593397473966461 -0.07302081169466722
4362000000.0 1.011790289908571 -0.1435460516267796
4366000000.0 1.020638849290034 -0.0902409393844358
4369000000.0 0.9669623014592947 -0.1209411178923916
4372000000.0 0.9804735340929798 -0.1490979671024691
4375000000.0 0.9959942242103694 -0.09199973464264458
4378000000.0 0.9842677969661117 -0.09862131896218901
4381000000.0 0.9974501639020621 -0.1316687271382998
4384000000.0 1.0757574595061519 -0.15934656148966508
4388000000.0 0.978528677299559 -0.143132144731469
4391000000.0 1.0191916990002334 -0.1633053768917063
4394000000.0 0.9834042672613079 -0.16858864825541542
4397000000.0 0.9915422782390055 -0.1792314562051365
4400000000.0 1.0139646225165406 -0.20301210887544954
4403000000.0 1.001199050567192 -0.20583830926336844
4406000000.0 0.9917568802699473 -0.22789344135791875
4409000000.0 1.015645606939163 -0.2377751699003926
4412000000.0 0.9719403021863274 -0.28717254513790846
4416000000.0 0.9686829063513507 -0.24513527649955386
4419000000.0 0.9738508921534802 -0.25893114524548183
4422000000.0 0.9781878273165279 -0.2407591210203631
4425000000.0 0.9994763251011823 -0.23519663459745122
4428000000.0 0.98360266849062 -0.27791452081323814
4431000000.0 0.9966433565910444 -0.2758895789676938
4434000000.0 0.9643468575150891 -0.2822651855972741
4438000000.0 0.9882003587075128 -0.31264857283793235
4441000000.0 0.9751315021089955 -0.30531602624936605
4444000000.0 0.9454070565387616 -0.291320488563751
4447000000.0 0.9407726271499873 -0.33339694228883976
4450000000.0 0.9481321524547167 -0.30106389383874355
4453000000.0 0.97536835083686 -0.33875835148229944
4456000000.0 0.920929579996394 -0.3511519649598548
4459000000.0 0.8967873754879492 -0.35421994346090924
4462000000.0 1.0089745344050955 -0.3737056161084048
4466000000.0 0.9776894516350187 -0.3878313255214235
4469000000.0 0.9475832755025363 -0.35390458541411474
4472000000.0 0.9488442748674129 -0.4230150538710928
4475000000.0 0.9029833615916455 -0.37160789333646504
4478000000.0 0.950585716767167 -0.4133040395262476
4481000000.0 0.8887120407942818 -0.4224926511329403
4484000000.0 0.9031858938436175 -0.452029714099519
4488000000.0 0.9114294949574517 -0.43034330101009005
4491000000.0 0.9167234327752094 -0.46354345286116855
4494000000.0 0.8866993674230155 -0.42403617719298353
4497000000.0 0.91265901332038 -0.43139583297549355
4500000000.0 0.9050794127691462 -0.45318529888037207
4503000000.0 0.9283316664656938 -0.46148315528282124
4506000000.0 0.8778758779093867 -0.48796705825621234
4509000000.0 0.8675256039309569 -0.4954847107546245
4512000000.0 0.8533387555579999 -0.49036863160261424
4516000000.0 0.9089523536261177 -0.48732534304266495
4519000000.0 0.851883390742425 -0.4794890132315405
4522000000.0 0.8453184335712811 -0.5532392618940901
4525000000.0 0.8869180148651672 -0.49258022735417895
4528000000.0 0.884854741766071 -0.5393912146764868
4531000000.0 0.8619199422288768 -0.4985187879198827
4534000000.0 0.8450517554497232 -0.5415052756692865
4538000000.0 0.8457392768929013 -0.5443060375011063
4541000000.0 0.8214981551474956 -0.5805217459758149
4544000000.0 0.8237535674416805 -0.5635849284298696
4547000000.0 0.8280150506570257 -0.5727762003916517
4550000000.0 0.8221270262120717 -0.6028038857755295
4553000000.0 0.8007267448727176 -0.5828277215898675
4556000000.0 0.7857183228601421 -0.5963287271626247
4559000000.0 0.7943656475065471 -0.6142820415852936
4562000000.0 0.8127214183424518 -0.602919097571391
4566000000.0 0.8040206350069039 -0.639315954240385
4569000000.0 0.7730813263931835 -0.6102725211557689
4572000000.0 0.7915405041426584 -0.6072125821044847
4575000000.0 0.7884186121115324 -0.6665632675223396
4578000000.0 0.8045024989009892 -0.6569122077266728
4581000000.0 0.7730578267636355 -0.6639795030554532
4584000000.0 0.7538480518399945 -0.6806836514257499
4588000000.0 0.7789806041421524 -0.6798744883577149
4591000000.0 0.7477661297945906 -0.6677051507800364
4594000000.0 0.7387106315679464 -0.6700984886996076
4597000000.0 0.7429773982808141 -0.7002156011408941
4600000000.0 0.7059641968996112 -0.7271458844535374
4603000000.0 0.7243680879138407 -0.7179997504912022
4606000000.0 0.728829406610122 -0.7045138509448879
4609000000.0 0.7166910025779907 -0.7170794509281463
4612000000.0 0.7009527790442008 -0.7375887968278463
4616000000.0 0.6946986151091232 -0.7192650759432546
4619000000.0 0.6859700742361114 -0.7395861439823554
4622000000.0 0.6924738304192227 -0.738592895281172
4625000000.0 0.6506908205178915 -0.7430661053931689
4628000000.0 0.6927788992017825 -0.7330086783043346
4631000000.0 0.6675673123922177 -0.764074490431631
4634000000.0 0.65795884309789 -0.7708753979149015
4638000000.0 0.6720376247295384 -0.7712756279948034
4641000000.0 0.6579229686727384 -0.7748467277563279
4644000000.0 0.6467461495035691 -0.7742953232266757
4647000000.0 0.6381916233492094 -0.7997888583766238
4650000000.0 0.6085397400746224 -0.7987946245845217
4653000000.0 0.6461808830161117 -0.8077948827541908
4656000000.0 0.5959638265532056 -0.8001904996972427
4659000000.0 0.6303758233444531 -0.8347939243181615
4662000000.0 0.6138450753801541 -0.8188070402698866
4666000000.0 0.5781621104346455 -0.8275838904865017
4669000000.0 0.6002430752682417 -0.8254556431584322
4672000000.0 0.5780665010433302 -0.8500826912271613
4675000000.0 0.5489777442630539 -0.8406452758784511
4678000000.0 0.5356296286509472 -0.8256937167389785
4681000000.0 0.5327120495961393 -0.8839401823025456
4684000000.0 0.5233381767405456 -0.8648168338183697
4688000000.0 0.5192550882302835 -0.8676366077267629
4691000000.0 0.5667710973628808 -0.868147197562632
4694000000.0 0.5344467406401411 -0.8418157200734595
4697000000.0 0.4997512170654075 -0.8439213833261423
4700000000.0 0.5224814186165406 -0.8835935199714924
4703000000.0 0.525020528125415 -0.8762595802815347
4706000000.0 0.4758889395853461 -0.910889907916558
4709000000.0 0.49011386822146263 -0.8791070195631515
4712000000.0 0.47393607069896426 -0.8953637067443091
4716000000.0 0.4529581114599077 -0.9210644678613691
4719000000.0 0.49027428372197046 -0.9056520392620995
4722000000.0 0.48383149842674245 -0.8750768089195406
4725000000.0 0.4608976127846467 -0.8766782039330878
4728000000.0 0.4188081661816683 -0.9065331766755635
4731000000.0 0.46895969352288724 -0.92379689561562
4734000000.0 0.43432326566073143 -0.912041885658918
4738000000.0 0.45370244874603166 -0.9550416122319675
4741000000.0 0.41765947465668884 -0.9965192197742336
4744000000.0 0.4016660371004511 -0.9551407507749382
4747000000.0 0.39474383118581524 -0.8851984673710144
4750000000.0 0.4206237701153456 -0.95308082534635
4753000000.0 0.3760504294689364 -0.94304685894773
4756000000.0 0.36366597552776203 -0.9394698385937903
4759000000.0 0.363346597958166 -0.9881140439836098
4762000000.0 0.3542442248527943 -0.986400513151873
4766000000.0 0.35213351335164655 -0.9602110693992173
4769000000.0 0.33993256526622634 -0.9538299200683157
4772000000.0 0.3219307725929756 -0.953962992604256
4775000000.0 0.32297319099130806 -1.00013344337329
4778000000.0 0.30804505127154963 -0.9751314924991489
4781000000.0 0.3043900213739365 -0.9925215677107913
4784000000.0 0.31855705993092315 -0.9584191433092489
4788000000.0 0.2702374273678838 -1.020629641951962
4791000000.0 0.24765465088565627 -0.9701129525210911
4794000000.0 0.30953178814050153 -1.0145159940664616
4797000000.0 0.2597078434707947 -0.9921379952153692
4800000000.0 0.24449523393126818 -0.9927957334155342
4803000000.0 0.2092323245924281 -0.9970656767305888
4806000000.0 0.2480992089521358 -1.0241445955142814
4809000000.0 0.19294474244971185 -0.9944389820342817
4812000000.0 0.19518734393070353 -0.9902544471240289
4816000000.0 0.22137219508836714 -0.976088162251769
4819000000.0 0.2252405499765619 -1.0148166768491074
4822000000.0 0.20820940446464206 -1.0315315306213515
4825000000.0 0.2244750876757997 -1.0098661488031118
4828000000.0 0.1735533126413764 -0.9990938838896534
4831000000.0 0.14178789537414632 -1.0574498501504874
4834000000.0 0.1912530583559529 -1.0101033380782398
4838000000.0 0.13620144205329995 -1.032461540849518
4841000000.0 0.12044484309806609 -1.003415879469495
4844000000.0 0.179371781862625 -1.0181994457397483
4847000000.0 0.16885238661888735 -0.9821002816794306
4850000000.0 0.11091499891590656 -1.0208198787191531
4853000000.0 0.09925196271176548 -0.993750077344761
4856000000.0 0.1002487063372978 -0.9942196914276159
4859000000.0 0.07937855272185095 -1.0597145068197582
4862000000.0 0.11829414780398476 -1.0007207793891377
4866000000.0 0.03856409370399864 -1.0408264030376277
4869000000.0 0.05117070210077475 -1.039232677714157
4872000000.0 0.05039013121721448 -1.0498950896442811
4875000000.0 0.0938241320506763 -1.0548771568930753
4878000000.0 0.0521371224434166 -1.0324814617743108
4881000000.0 -0.011280807942294835 -1.0900916332699073
4884000000.0 0.05652063866207606 -1.0527159234801473
4888000000.0 0.0407238944284465 -1.0251538887089857
4891000000.0 0.019595769866668486 -1.0595237049080546
4894000000.0 -0.019981585165900193 -1.0135745624465762
4897000000.0 0.02303558877357894 -0.9934451868352382
4900000000.0 -0.027296548371458985 -1.0620587449138996
4903000000.0 -0.01914640888796021 -1.0526415325734872
4906000000.0 -0.01525645121359281 -1.0684635745711548
4909000000.0 -0.04716635708060155 -1.0136446930864533
4912000000.0 -0.07674675469105412 -1.0773769775466642
4916000000.0 -0.04698566701283494 -1.0708032056379697
4919000000.0 -0.02699570716323038 -1.0641724529709824
4922000000.0 -0.05025115814747187 -1.0408254263412327
4925000000.0 -0.1458776388767312 -1.0153236137995898
4928000000.0 -0.010375999523205975 -0.99184102453481
4931000000.0 -0.08843826740249892 -1.0396357411290564
4934000000.0 -0.12196132040790929 -1.004213877644542
4938000000.0 -0.14774312297165548 -1.0387189808950499
4941000000.0 -0.10190080002593764 -0.9891833429609169
4944000000.0 -0.09897211208252454 -0.9600406363449749
4947000000.0 -0.13955927456027267 -1.0087409361322441
4950000000.0 -0.12053473564890128 -1.0150679567971306
4953000000.0 -0.22195351928464285 -1.0770553364206608
4956000000.0 -0.19589098869361032 -1.0373101660877315
4959000000.0 -0.18890386239043447 -0.9709482605212727
4962000000.0 -0.22752473015432848 -1.0451135958818543
4966000000.0 -0.17096097101692548 -1.053068549284785
4969000000.0 -0.16964641146359433 -1.0901479198688542
4972000000.0 -0.2126089327100749 -1.002429988734525
4975000000.0 -0.16161671334954994 -1.0448102543154008
4978000000.0 -0.20821212732348088 -0.9988913508966432
4981000000.0 -0.223467208980942 -1.0011588850051087
4984000000.0 -0.2199443135995722 -0.9847579279486923
4988000000.0 -0.24316056377220985 -0.9950042999381854
4991000000.0 -0.19092610855452236 -1.0495204479619455
4994000000.0 -0.253878570806181 -0.9968272245313018
4997000000.0 -0.27006309301311876 -0.9967356114782854
5000000000.0 -0.2896452170364371 -1.0572196538277578
5003000000.0 -0.2734379121193466 -1.0231068273855337
5006000000.0 -0.2950855364832363 -1.0278187964889274
5009000000.0 -0.2966069530649589 -1.0087735149214112
5012000000.0 -0.331499733077168 -0.9723378738261288
5016000000.0 -0.32303202041689 -1.0571816553531481
5019000000.0 -0.3439523794640811 -0.9805217194083922
5022000000.0 -0.33635708569569134 -1.0050120028633578
5025000000.0 -0.3813287207899481 -1.0469095105769224
5028000000.0 -0.35975399454014845 -0.9852496791602954
5031000000.0 -0.37105757668406647 -0.9639348872890815
5034000000.0 -0.4055690358654528 -0.9911280754974623
5038000000.0 -0.37365722898018805 -0.945241557202785
5041000000.0 -0.32878586514842223 -0.9869239792342493
5044000000.0 -0.3568606331116556 -0.9616029229595032
5047000000.0 -0.37114965180163567 -0.9712502149323253
5050000000.0 -0.32246889001522616 -0.9678567883633971
5053000000.0 -0.42956765602595226 -0.9931963454893551
5056000000.0 -0.3595987221048047 -0.9819837693546682
5059000000.0 -0.3962731345506419 -0.9654769793295973
5062000000.0 -0.4564349960603371 -0.936062101141375
5066000000.0 -0.40097414031539913 -0.9648798317444605
5069000000.0 -0.4499738784012969 -0.9590928015637074
5072000000.0 -0.4327785898485249 -0.9193334263235544
5075000000.0 -0.4248125404856846 -0.909497026288236
5078000000.0 -0.45409877634621926 -0.9252473576138729
5081000000.0 -0.49292320405178086 -0.8743816338892997
5084000000.0 -0.49204738728696584 -0.959956653730127
5088000000.0 -0.4891505307192485 -0.888014409271022
5091000000.0 -0.5122509531552646 -0.9347238007342826
5094000000.0 -0.4642524549064538 -0.9094588678415937
5097000000.0 -0.47834216011766606 -0.9474671553533207
5100000000.0 -0.5018349679785036 -0.9184656029858597
5103000000.0 -0.5772118473511613 -0.8491006125916175
5106000000.0 -0.5451589622110382 -0.9265836383524297
5109000000.0 -0.5130425484173952 -0.936879024603301
5112000000.0 -0.564167729808412 -0.8783234932825839
5116000000.0 -0.5280261608424044 -0.8887223502380759
5119000000.0 -0.592504278799985 -0.8931812081867794
5122000000.0 -0.5439258948648836 -0.8783920652050641
5125000000.0 -0.5401189024650705 -0.8502838602667729
5128000000.0 -0.6053437305565925 -0.868233258805881
5131000000.0 -0.5730966148846712 -0.8514680098434495
5134000000.0 -0.5605935395724695 -0.8869794630417439
5138000000.0 -0.5866691703787134 -0.8464736326782447
5141000000.0 -0.584318167471197 -0.8589427439228237
5144000000.0 -0.6077680280087931 -0.8390015034427811
5147000000.0 -0.6603651416208021 -0.8456998928723198
5150000000.0 -0.6210867018045282 -0.8588119797217979
5153000000.0 -0.657870937557038 -0.8674058544461656
5156000000.0 -0.6173215857389331 -0.8330708417581167
5159000000.0 -0.6448964653721926 -0.8531993997536799
5162000000.0 -0.6729156759340843 -0.8383828884020221
5166000000.0 -0.6827889199448943 -0.7929832317739025
5169000000.0 -0.6611781580736471 -0.8392420971786171
5172000000.0 -0.6703531986718864 -0.8158698475831834
5175000000.0 -0.6755197554077221 -0.8450978544060258
5178000000.0 -0.6878577662095533 -0.7943975375796878
5181000000.0 -0.6606150102431892 -0.7687717997562401
5184000000.0 -0.7130532373571568 -0.7667436707110252
5188000000.0 -0.6683213882893192 -0.7487066979418308
