! Created with skrf 1.8.0 (http://scikit-rf.org).
# Hz S RI R 50.0 
!freq ReS11 ImS11
4000000000.0 0.5828767085753642 0.8099937152849681
4003000000.0 0.6665887679372235 0.8508433617480297
4006000000.0 0.6625723043697979 0.7771195298367398
4009000000.0 0.6121272342857803 0.7904051355300967
4012000000.0 0.6352542559528814 0.8353855746810359
4016000000.0 0.7035729907304709 0.7297356125438763
4019000000.0 0.6561598316866271 0.7768414669272523
4022000000.0 0.6200076169092351 0.8319770586463868
4025000000.0 0.7769156615811658 0.7149797033699976
4028000000.0 0.7503142722928005 0.7267778580985662
4031000000.0 0.6291563314257443 0.7598770772584958
4034000000.0 0.6922739384164016 0.7502518599451335
4038000000.0 0.7830310071645905 0.7474126524311079
4041000000.0 0.7033072948938597 0.7411162413146143
4044000000.0 0.7737489617091975 0.7747073816101341
4047000000.0 0.694298107887526 0.7884929428686259
4050000000.0 0.7604265341147978 0.7015006874859911
4053000000.0 0.7527256245463156 0.6827722578944897
4056000000.0 0.7432661130649937 0.7068474173437638
4059000000.0 0.7333695150919335 0.7033017314593686
4062000000.0 0.7773550659892149 0.6598675698195904
4066000000.0 0.7108049874213525 0.6232705434050769
4069000000.0 0.8062009457918023 0.6883485007178979
4072000000.0 0.7314231714853061 0.7127330990908449
4075000000.0 0.8072314388906646 0.6891360064271563
4078000000.0 0.8268158831131206 0.6628945683073287
4081000000.0 0.7822539568064872 0.7293124423613607
4084000000.0 0.832543184489026 0.6226340949415887
4088000000.0 0.7713182140892479 0.6651462445193803
4091000000.0 0.8508094123637232 0.6612390002103734
4094000000.0 0.8604044788656582 0.6315467371814664
4097000000.0 0.8258257652339969 0.6120132336017805
4100000000.0 0.8300046301391099 0.6186915912809325
4103000000.0 0.834039586406347 0.6477562495258955
4106000000.0 0.8518327268551014 0.565902899560072
4109000000.0 0.8737405056158127 0.5945177838741502
4112000000.0 0.8424281736707699 0.5852809691630767
4116000000.0 0.7969567302113155 0.5697888554807724
4119000000.0 0.8642819447447652 0.5443182270525989
4122000000.0 0.8617358486209413 0.5282825302413412
4125000000.0 0.8891900254572976 0.5363790521044245
4128000000.0 0.8303931789405363 0.5546843217259662
4131000000.0 0.8492813085949419 0.4902134648231449
4134000000.0 0.8316573169458549 0.529035077474195
4138000000.0 0.8708527847487628 0.49946447311330927
4141000000.0 0.8503568601956399 0.5352371166549236
4144000000.0 0.8776937338170411 0.518819662498232
4147000000.0 0.9031739998004422 0.4996198629397329
4150000000.0 0.9016066974490928 0.48643601739290016
4153000000.0 0.8549910159805112 0.4823648238833549
4156000000.0 0.9135828389380307 0.5228963648953905
4159000000.0 0.8723242601070798 0.48508233053103295
4162000000.0 0.852086219477421 0.45970489821951577
4166000000.0 0.9044259893426052 0.505201030825732
4169000000.0 0.9239948561157365 0.4275888362241751
4172000000.0 0.9035993388341635 0.47320312963420114
4175000000.0 0.885667304909295 0.4599449636324305
4178000000.0 0.9125943978702422 0.4301777564928797
4181000000.0 0.9171491435939947 0.4153106707246371
4184000000.0 0.9180197830638808 0.41068950492057793
4188000000.0 0.93034927488575 0.4077207662344281
4191000000.0 0.8972109715953114 0.4425823085934942
4194000000.0 0.9145814473744085 0.37877342458925856
4197000000.0 0.9333450623592449 0.3876898604146601
4200000000.0 0.9371299119938821 0.40628054393124213
4203000000.0 0.9604630513129764 0.3844425287380375
4206000000.0 0.9563226451936727 0.3751318337115011
4209000000.0 0.9485684461291026 0.34978384814963076
4212000000.0 0.9609041920758407 0.3275415582656873
4216000000.0 0.955354250738842 0.3582513350513857
4219000000.0 0.9728781875210177 0.3403853192663282
4222000000.0 0.9634993464764441 0.3224899761888262
4225000000.0 0.9484994649808631 0.305764685640617
4228000000.0 0.9832270977907949 0.33365154905292616
4231000000.0 0.96934863157319 0.3135567261774892
4234000000.0 0.9928434625065757 0.2791941077188979
4238000000.0 0.9874467222037349 0.2629211102761294
4241000000.0 0.9748543753495715 0.25590641796504976
4244000000.0 0.9733304953737874 0.25621312161013676
4247000000.0 0.9757928739075676 0.2549956025409423
4250000000.0 0.9745210773290811 0.2505294207641619
4253000000.0 0.9806419661005397 0.2352571807824944
4256000000.0 1.013759067964394 0.23176008135666942
4259000000.0 0.946576620470496 0.21598309705861315
4262000000.0 0.9839448968580382 0.1974995786860729
4266000000.0 1.0235698547579815 0.18984696222397812
4269000000.0 0.9749042511310548 0.2073223999361775
4272000000.0 0.9861163024714096 0.19982799937154422
4275000000.0 1.0000891869438269 0.19007404598235828
4278000000.0 1.0142143099916685 0.18315406198292888
4281000000.0 1.0217735463389295 0.17745604390819864
4284000000.0 1.014705315387113 0.13229213713058469
4288000000.0 1.0046202774524915 0.18376037924068075
4291000000.0 0.9721072248421373 0.1272063766751791
4294000000.0 0.9976062867033981 0.11842745702431741
4297000000.0 1.0017310196448235 0.14603801302236302
4300000000.0 0.9896793697935775 0.12877752457671002
4303000000.0 0.9954318188150237 0.0950885157721386
4306000000.0 1.0144733868855322 0.14893036678834692
4309000000.0 1.0153290992450734 0.09616222435032336
4312000000.0 1.0140743776652652 0.11994680305712932
4316000000.0 1.0044249739916498 0.10229900362387205
4319000000.0 0.9782294926500579 0.07828939494475447
4322000000.0 1.0051940057652724 0.0477186380687198
4325000000.0 1.0108325132730496 0.06389082469774195
4328000000.0 1.0041522480562295 0.062427265265651136
4331000000.0 1.0021184798694143 0.021841256527450864
4334000000.0 1.0373359602551153 0.03732642536919065
4338000000.0 0.9998874519385202 0.04179912191185976
4341000000.0 1.04268083412082 0.03195880758681077
4344000000.0 1.0250293359126708 0.004758931916452436
4347000000.0 1.0252992444188804 -0.027011656552622693
4350000000.0 0.9499501989516582 -0.027560735923756907
4353000000.0 0.9812833839593509 -0.0028642323201367725
4356000000.0 1.0275245594795257 -0.055230096666927644
4359000000.0 0.9794462975485968 -0.053752770344986184
4362000000.0 0.9922332854885401 -0.11053770742106495
4366000000.0 1.0109311204892182 -0.06500411039577914
4369000000.0 0.9775247960455533 -0.0907095481920313
4372000000.0 1.0024449934297592 -0.1109139676768316
4375000000.0 1.000057575661626 -0.08193443506929843
4378000000.0 0.9830369435099986 -0.0897772527301084
4381000000.0 0.9866499321516493 -0.09074951176706776
4384000000.0 1.0579532478041629 -0.13279346123761718
4388000000.0 0.988549265373783 -0.1117545475691094
4391000000.0 0.9935659125087379 -0.12143382994311418
4394000000.0 0.9899318939667915 -0.14139685119495343
4397000000.0 0.991546702255663 -0.14119719383673657
4400000000.0 1.0277524839273913 -0.17907969163647597
4403000000.0 0.9920187921778743 -0.15888328656595996
4406000000.0 0.9893469845500684 -0.19458051078317432
4409000000.0 1.0082618734541522 -0.1818560141822423
4412000000.0 0.9624170746786015 -0.24424273127811297
4416000000.0 0.9725964043455129 -0.2027081908200647
4419000000.0 0.9843864446395802 -0.23436955930517409
4422000000.0 0.9802703761232898 -0.19969702387716964
4425000000.0 1.0073029026114626 -0.1987390646053435
4428000000.0 0.9717711428189777 -0.24386844169827834
4431000000.0 0.9945868223164493 -0.24604687190648789
4434000000.0 0.9538315480457737 -0.2606352240390617
4438000000.0 1.0023356361858367 -0.28074438372733856
4441000000.0 0.9893127950630667 -0.2647721054569226
4444000000.0 0.9510888307654599 -0.2788452001217089
4447000000.0 0.965136492400784 -0.30273857227524603
4450000000.0 0.9622620822942047 -0.28213012032551577
4453000000.0 0.9822605292293417 -0.31425124055463854
4456000000.0 0.9265674656418414 -0.3094922583282914
4459000000.0 0.9153050811332184 -0.3151888103856183
4462000000.0 1.005038650908544 -0.336357487096992
4466000000.0 0.988655372947245 -0.3636839409671446
4469000000.0 0.9609715734385409 -0.33499783159161245
4472000000.0 0.9579319918600175 -0.36928499146278027
4475000000.0 0.9268655447123163 -0.3354885917236856
4478000000.0 0.9808324974589273 -0.4016270017453364
4481000000.0 0.9169994288560948 -0.3979345483682832
4484000000.0 0.914415668898706 -0.4331867275876762
4488000000.0 0.9160337075358681 -0.40703441030766013
4491000000.0 0.9350643870299845 -0.418256735304908
4494000000.0 0.8908882886368081 -0.41866337550971117
4497000000.0 0.9124595711504264 -0.39749870863963394
4500000000.0 0.9042231708255548 -0.4205610796096629
4503000000.0 0.9323899077326832 -0.4434867758230195
4506000000.0 0.8939943572764344 -0.4506700811229903
4509000000.0 0.9035283408377137 -0.4454085149429523
4512000000.0 0.8818945706395471 -0.4559060133456544
4516000000.0 0.9057841562343586 -0.47933493939841115
4519000000.0 0.849933165278305 -0.44382875606238564
4522000000.0 0.8749339329370578 -0.4891059811570164
4525000000.0 0.8847562961233995 -0.4697020755594531
4528000000.0 0.9119043318300359 -0.5084356363358177
4531000000.0 0.8708575113545778 -0.49081403574235316
4534000000.0 0.8516287901136743 -0.511956530773362
4538000000.0 0.8492328344652749 -0.5182136531124469
4541000000.0 0.8168433268151888 -0.5504002433051377
4544000000.0 0.8352600221295396 -0.5101323293943318
4547000000.0 0.8530995403552017 -0.5167723883991171
4550000000.0 0.8476883453624338 -0.5786072607123116
4553000000.0 0.8391254263723154 -0.557072644193788
4556000000.0 0.798480957064603 -0.5537985231622355
4559000000.0 0.82643242348679 -0.575507842125393
4562000000.0 0.8333024686038812 -0.5788724715927346
4566000000.0 0.8322952424030001 -0.5996422301869813
4569000000.0 0.8032516159041043 -0.5769181331943929
4572000000.0 0.7999641767591945 -0.5972935694249958
4575000000.0 0.7864346244419456 -0.6145278097427526
4578000000.0 0.8205889998169507 -0.630192212108885
4581000000.0 0.7937175017802962 -0.6496401906948498
4584000000.0 0.7825403540866628 -0.6086336557287202
4588000000.0 0.8015474813052068 -0.627373050792152
4591000000.0 0.7855892246175229 -0.5996759840979146
4594000000.0 0.7402408479174553 -0.661377684892331
4597000000.0 0.7505144040116194 -0.6836593687599415
4600000000.0 0.7215467152400037 -0.6731129600102916
4603000000.0 0.7549456647107851 -0.6755492908836215
4606000000.0 0.7583948947025962 -0.6921530719917061
4609000000.0 0.7403032330734157 -0.6807654512292872
4612000000.0 0.7231056596059519 -0.7032778696281042
4616000000.0 0.7078687741990117 -0.694783542072087
4619000000.0 0.7337470904919594 -0.6992696390645264
4622000000.0 0.7173507606379113 -0.7138862574432823
4625000000.0 0.6697886764728294 -0.7031519608879739
4628000000.0 0.7103993457903266 -0.7032846507680329
4631000000.0 0.6633993648465109 -0.7321220496571779
4634000000.0 0.675085460883713 -0.7507523038545384
4638000000.0 0.6843875068095229 -0.7456722094170403
4641000000.0 0.6962732780524316 -0.7428349794734603
4644000000.0 0.6647357174050631 -0.7589002094952895
4647000000.0 0.6742155018902143 -0.7691839461355995
4650000000.0 0.6307443133607339 -0.7717876263975292
4653000000.0 0.6816898073706258 -0.7780792309160257
4656000000.0 0.6442247087451369 -0.7943808258141625
4659000000.0 0.6215524473484257 -0.7881450594599391
4662000000.0 0.6196178078739485 -0.7803600139696604
4666000000.0 0.602800360697253 -0.8040271284443224
4669000000.0 0.6200478952570674 -0.7864147718106883
4672000000.0 0.6009697557851177 -0.8215914684494291
4675000000.0 0.5872241408651888 -0.8124274750619489
4678000000.0 0.5524906238410296 -0.8161322128761755
4681000000.0 0.5508427592993226 -0.8496393946218277
4684000000.0 0.5601324547527817 -0.8383083599096357
4688000000.0 0.5572205719413228 -0.8304807301588566
4691000000.0 0.5837756040006273 -0.8255784062250757
4694000000.0 0.5718592508800752 -0.8317982364476584
4697000000.0 0.5174123333453228 -0.8317979299415001
4700000000.0 0.5812443617552201 -0.8507377699713834
4703000000.0 0.5222684914337863 -0.815322303583351
4706000000.0 0.5094535427120703 -0.8557057615954191
4709000000.0 0.5242439367643547 -0.8755904365480291
4712000000.0 0.5061127912343522 -0.8562642463114525
4716000000.0 0.5040566928643538 -0.891478436886165
4719000000.0 0.5301961264911963 -0.861312374835456
4722000000.0 0.4822678174170836 -0.9003204950243409
4725000000.0 0.5009209455373033 -0.8800604043816871
4728000000.0 0.4757033312005787 -0.900169725205427
4731000000.0 0.4788005134060918 -0.9018567966543121
4734000000.0 0.4896085090892825 -0.8699151384992994
4738000000.0 0.45369192328987423 -0.9384342191834408
4741000000.0 0.4187262139642287 -0.9506789058708487
4744000000.0 0.4130523847575591 -0.9269856438343803
4747000000.0 0.4479795762471725 -0.8828358815395057
4750000000.0 0.404695156616379 -0.9219338252897918
4753000000.0 0.4532867442595647 -0.9269137854018588
4756000000.0 0.38633655751847834 -0.9533399120043542
4759000000.0 0.42280027882512095 -0.9411937483389728
4762000000.0 0.36734418211084197 -0.9573089600476037
4766000000.0 0.34554689912114445 -0.9450444077445807
4769000000.0 0.36509116904669003 -0.932945010789534
4772000000.0 0.38319394353753833 -0.9506450677952832
4775000000.0 0.3398533417849849 -0.9663027590706813
4778000000.0 0.3590258596091298 -0.9810680077812023
4781000000.0 0.36264199715239476 -0.9348416501418118
4784000000.0 0.3540758585621053 -0.9388750636407649
4788000000.0 0.3210114397255147 -0.9924608585232007
4791000000.0 0.3027823348934414 -0.9459926786786342
4794000000.0 0.3505270914879095 -1.0042198944978917
4797000000.0 0.2976222273597508 -0.9505259581919522
4800000000.0 0.2935657587511188 -0.9860551278284377
4803000000.0 0.24669994682309515 -0.9800499895558954
4806000000.0 0.2715143119636523 -0.9935581907151494
4809000000.0 0.23546662193878304 -0.9763364538779847
4812000000.0 0.23725520872981776 -0.9761621515943457
4816000000.0 0.2717747294797183 -0.9746165736176629
4819000000.0 0.2790037266087618 -1.0241256380544748
4822000000.0 0.257872323577659 -1.0223906176047621
4825000000.0 0.2571046801073896 -1.024551313028494
4828000000.0 0.2149791024774365 -0.9795175494738021
4831000000.0 0.16697374585842834 -1.0254168521205884
4834000000.0 0.22472077205306415 -0.9899648035526474
4838000000.0 0.1667817027037065 -1.0344749920231309
4841000000.0 0.163478418958625 -0.9895183719564226
4844000000.0 0.19644913718131107 -0.9994870109794968
4847000000.0 0.19141337923514049 -0.9743714154081375
4850000000.0 0.142196532863679 -1.026544938288158
4853000000.0 0.1704012608577518 -0.9858909153738205
4856000000.0 0.1372792142925072 -0.9977057635566634
4859000000.0 0.13199958343046253 -1.036416387451407
4862000000.0 0.14737670954598567 -1.0032964897345447
4866000000.0 0.10207885523459578 -1.0295175535341499
4869000000.0 0.08109804287851834 -1.0193916384996586
4872000000.0 0.08807834799019329 -1.0379384933274822
4875000000.0 0.15322590573962372 -1.0446600266771822
4878000000.0 0.058118821627148785 -1.011724317603335
4881000000.0 0.0397436869953188 -1.066444359244434
4884000000.0 0.07924192101886993 -1.0221643714421977
4888000000.0 0.09756544193522644 -1.0160577767894339
4891000000.0 0.06998713078735319 -1.063946595616633
4894000000.0 0.040318734705787146 -1.009914967206443
4897000000.0 0.06666402717624503 -1.0057733968575528
4900000000.0 0.04585290119363064 -1.0302112978748441
4903000000.0 0.034093726546306685 -1.0437687245236211
4906000000.0 0.005546674508871889 -1.056163684573623
4909000000.0 -0.00849575435419735 -1.0158605990858929
4912000000.0 -0.007804518680294088 -1.0680730632795121
4916000000.0 0.014912326880143364 -1.046503520955281
4919000000.0 0.025986741751282405 -1.0502746959397489
4922000000.0 -0.008026384338477799 -1.0109345360408495
4925000000.0 -0.047167596898835804 -1.0141629571065396
4928000000.0 0.0036506480610891817 -1.012321978145156
4931000000.0 -0.009028710058911454 -1.0247820265038525
4934000000.0 -0.060213311930734106 -0.9865534983236368
4938000000.0 -0.07471598809508924 -1.028585052103705
4941000000.0 -0.07194034456188501 -1.0307550719785927
4944000000.0 -0.05510178232093463 -0.9710366565857127
4947000000.0 -0.08462115494425229 -0.9975504443424794
4950000000.0 -0.09874053043735227 -1.0294577997720966
4953000000.0 -0.145378450943336 -1.0639775710192259
4956000000.0 -0.12460302148171015 -1.0297478704912226
4959000000.0 -0.17675913407311186 -0.9854945326303006
4962000000.0 -0.13504504078233773 -1.0162793372193726
4966000000.0 -0.13867054582233512 -1.0404507761290975
4969000000.0 -0.10432238278962325 -1.0630517278888687
4972000000.0 -0.1959381990543609 -1.0371981000740433
4975000000.0 -0.11017523046809677 -1.0166241979604982
4978000000.0 -0.17305870443103089 -0.9979982834932567
4981000000.0 -0.17619530072588493 -1.0018421203138084
4984000000.0 -0.17660100642515567 -0.9749953897073705
4988000000.0 -0.1809469658070158 -0.9855769311961544
4991000000.0 -0.17663558825113646 -1.0702709630119691
4994000000.0 -0.1756371782328947 -1.0065391558898784
4997000000.0 -0.27641249088771 -1.007438131420289
5000000000.0 -0.22565612751087993 -1.0561583944543542
5003000000.0 -0.22382349678632896 -1.0321734081520777
5006000000.0 -0.2546372927640824 -1.0650980488638317
5009000000.0 -0.2478831601146381 -1.0116960712079663
5012000000.0 -0.2769381652227597 -0.9993398227897772
5016000000.0 -0.23488665339881282 -1.0233045335273852
5019000000.0 -0.3000984732142321 -0.9832227736331509
5022000000.0 -0.2803032833308484 -0.9944470924734143
5025000000.0 -0.31127005426400384 -1.058320484672345
5028000000.0 -0.3330406107834041 -0.9938472190314585
5031000000.0 -0.31579287793941235 -0.9955716306171752
5034000000.0 -0.3614617999893619 -0.9753786747859747
5038000000.0 -0.34667514732422566 -0.9477991081679802
5041000000.0 -0.27598698601342964 -0.9868753521962056
5044000000.0 -0.30913689571648684 -0.9578166740447321
5047000000.0 -0.33982303515784434 -0.9933716958996491
5050000000.0 -0.29960491345684237 -0.9778515658312512
5053000000.0 -0.365135830804341 -0.9798576020634813
5056000000.0 -0.33790931530285173 -0.990927729623414
5059000000.0 -0.32410078453076 -0.9763887494591156
5062000000.0 -0.4259127270623976 -0.9539397550273228
5066000000.0 -0.3558605236049065 -0.9642271612449893
5069000000.0 -0.42601228913048617 -0.9733708488755356
5072000000.0 -0.3914490349474565 -0.9107742638540219
5075000000.0 -0.3729041308889717 -0.9379738492534346
5078000000.0 -0.45221092303965443 -0.9585901731815933
5081000000.0 -0.4156057993955586 -0.877109580293245
5084000000.0 -0.4523105290256578 -0.9678735165241354
5088000000.0 -0.4234456204904694 -0.9425805976604973
5091000000.0 -0.49688818907264604 -0.9179159845191613
5094000000.0 -0.5134535877169026 -0.9237272581331165
5097000000.0 -0.45765552720000235 -0.950654697416284
5100000000.0 -0.4118011968735295 -0.8988185161620733
5103000000.0 -0.5261843212647292 -0.920626870189725
5106000000.0 -0.4484070889478542 -0.9743549631422395
5109000000.0 -0.4434770638118687 -0.91465681737471
5112000000.0 -0.5108590499135326 -0.8838350494344784
5116000000.0 -0.4954411202193749 -0.8550678788398871
5119000000.0 -0.4955962098251493 -0.8726574633396884
5122000000.0 -0.48489185365869303 -0.8887223578581278
5125000000.0 -0.5124789729430342 -0.909801478506281
5128000000.0 -0.5660426163928509 -0.8875597156637733
5131000000.0 -0.5613112759956942 -0.8663579226621777
5134000000.0 -0.5582467953829904 -0.8700641807182669
5138000000.0 -0.49314001060631685 -0.8794229486203059
5141000000.0 -0.5014702137296593 -0.9083359449613067
5144000000.0 -0.5331317096332837 -0.8434828432154877
5147000000.0 -0.6049935385043074 -0.931107343961574
5150000000.0 -0.5389262639064726 -0.8147962932922408
5153000000.0 -0.5917873698182021 -0.8521342210620585
5156000000.0 -0.5808353891962523 -0.8781043844121822
5159000000.0 -0.5908793099393751 -0.8807508870305158
5162000000.0 -0.5722649654946986 -0.8409412636678635
5166000000.0 -0.6642869480590293 -0.850168884131258
5169000000.0 -0.6625107042745767 -0.8635365354273125
5172000000.0 -0.6183753190817997 -0.8110341261205487
5175000000.0 -0.6219824807859667 -0.829811040730285
5178000000.0 -0.691309155671394 -0.8250648921964762
5181000000.0 -0.6338726839453296 -0.8600137712001469
5184000000.0 -0.6456251642378256 -0.8036862637926321
5188000000.0 -0.6427525139903397 -0.787901700173466
