! Created with skrf 1.8.0 (http://scikit-rf.org).
# Hz S RI R 50.0 
!freq ReS11 ImS11
4000000000.0 0.6202310574360289 0.83637471313703
4003000000.0 0.6843892047205179 0.8563792176658143
4006000000.0 0.6783427815821497 0.7770905064020581
4009000000.0 0.6233077973046913 0.8005865858726734
4012000000.0 0.6248811029416785 0.8418891145419609
4016000000.0 0.7352716642266065 0.7738208695613058
4019000000.0 0.665715898662687 0.7796194765780864
4022000000.0 0.6495026928847942 0.8187474229759547
4025000000.0 0.7047995616321899 0.7371064209515448
4028000000.0 0.7385925963897203 0.7416803942802657
4031000000.0 0.6802220792442688 0.744093587073532
4034000000.0 0.7329999093364116 0.7441781427418209
4038000000.0 0.7564858334336914 0.7108708449383314
4041000000.0 0.6972140095030369 0.7393727065802436
4044000000.0 0.7747217227903208 0.7801972213392568
4047000000.0 0.7506908559060328 0.7838054751786754
4050000000.0 0.7828021513297356 0.742183833087272
4053000000.0 0.7206295582001504 0.6684430427246828
4056000000.0 0.7195486425526887 0.6732342955771384
4059000000.0 0.7357008491524704 0.6490998471701799
4062000000.0 0.7825147792927832 0.6569334952664843
4066000000.0 0.7432204469779642 0.6516738423094361
4069000000.0 0.818003657907473 0.6873454919553498
4072000000.0 0.7449972776750011 0.7124977949829447
4075000000.0 0.7698476883305981 0.7311594971205109
4078000000.0 0.8196713645767685 0.6838006479037234
4081000000.0 0.7542135860439746 0.7301660492270148
4084000000.0 0.8282223599143526 0.628173019537076
4088000000.0 0.7977791271319642 0.6485644562097809
4091000000.0 0.8698086671905508 0.6547761214727321
4094000000.0 0.8480754457546305 0.6633686858590142
4097000000.0 0.8034875067666712 0.6004601404795482
4100000000.0 0.828156422136928 0.6251827716833087
4103000000.0 0.8521260818480723 0.6058668182933855
4106000000.0 0.8842960397760202 0.5988459675929332
4109000000.0 0.8808922901192051 0.5629823873295039
4112000000.0 0.8425190975192369 0.5896762622653096
4116000000.0 0.8432161194439933 0.5752027142493743
4119000000.0 0.8778793799652528 0.5517538721927799
4122000000.0 0.8820395305171898 0.53314871186951
4125000000.0 0.9157436118046103 0.5401906161980827
4128000000.0 0.8708083534140469 0.5883294961622237
4131000000.0 0.8397180124064975 0.5624953222446266
4134000000.0 0.8826353971320532 0.5323365773985376
4138000000.0 0.8565980776461992 0.47328630616630646
4141000000.0 0.8822012001353544 0.515094076107481
4144000000.0 0.9052655669719887 0.5690230858080869
4147000000.0 0.9134249908722794 0.502879266025817
4150000000.0 0.9140136537591815 0.5172741511648182
4153000000.0 0.8993224401302689 0.5016147975439719
4156000000.0 0.9423084921448914 0.5027664089599769
4159000000.0 0.8948801827151334 0.4661931351850424
4162000000.0 0.8485929471054898 0.49291265950870844
4166000000.0 0.9526441143171853 0.4587605460555788
4169000000.0 0.9246528999481931 0.42700578232073505
4172000000.0 0.9062557788967662 0.4419029233303449
4175000000.0 0.9257383190945521 0.45018667406293683
4178000000.0 0.9176286367773695 0.43087073117652697
4181000000.0 0.930570857112325 0.4353963958699558
4184000000.0 0.9216282179873042 0.4229786857219136
4188000000.0 0.9157243694769528 0.4250559234841734
4191000000.0 0.9216023525652909 0.43344722307151967
4194000000.0 0.9188576036301289 0.38401343540100075
4197000000.0 0.9531212812732467 0.40291633788502684
4200000000.0 0.9626099119881155 0.40732646887731494
4203000000.0 0.9486095218623116 0.40348553640895346
4206000000.0 0.9618002692995464 0.3858497892124945
4209000000.0 0.9489311128026682 0.34077247749625367
4212000000.0 0.9655862533687917 0.31444586505536
4216000000.0 0.9587637975465548 0.34581484015579284
4219000000.0 0.992295023934901 0.3400537698855788
4222000000.0 0.9726317519152969 0.3104714580807176
4225000000.0 0.9539208991776609 0.30502937775112915
4228000000.0 0.9977363436001205 0.31356311079709276
4231000000.0 0.9902663183427333 0.29711615297035016
4234000000.0 0.9950588787124455 0.29521854817489646
4238000000.0 0.9868111870165122 0.2520975673886168
4241000000.0 0.9855688962497102 0.26672889883038
4244000000.0 0.9769236647331011 0.2696977856223166
4247000000.0 0.9795126346545646 0.27390680939247697
4250000000.0 0.9709429954004347 0.23840302155284543
4253000000.0 0.9651619611741953 0.23115390819755888
4256000000.0 1.014370321369114 0.24258177892217359
4259000000.0 0.9514989755678032 0.19944679534112456
4262000000.0 0.9847376039794979 0.20280527614334096
4266000000.0 1.0223432816969193 0.19019036041092302
4269000000.0 0.9948655025468325 0.21655039312331445
4272000000.0 0.9941444982125325 0.18501301149550103
4275000000.0 0.9999071340661032 0.16611489592550915
4278000000.0 1.0176659133678638 0.16742657499665853
4281000000.0 1.0053938912273668 0.16616901587856636
4284000000.0 1.0147795118128857 0.13582256501140946
4288000000.0 1.0040348236530767 0.18542006990451235
4291000000.0 0.9796586649273756 0.131112413373548
4294000000.0 1.024682419452935 0.1390480109629677
4297000000.0 0.9927420389252647 0.14192021336217392
4300000000.0 0.998074249597227 0.12075072312114574
4303000000.0 0.9852920945202513 0.10701621875067448
4306000000.0 1.0112454980516938 0.10545882161577616
4309000000.0 0.987009371062328 0.0817386882341651
4312000000.0 1.031551677695694 0.10948009289980318
4316000000.0 1.0235103711895521 0.08206644851856211
4319000000.0 0.9806316798963459 0.09783802047584376
4322000000.0 0.9943066841514949 0.0420199941549451
4325000000.0 1.0188682279008285 0.05584568809837075
4328000000.0 0.9964131638855502 0.04658037407674974
4331000000.0 1.026995964734903 -0.00412535919897862
4334000000.0 0.9940613619944365 0.017479339259428323
4338000000.0 1.0266121598953775 0.016350704052702322
4341000000.0 1.0501660354551676 0.026734557397468744
4344000000.0 1.0606081251560524 0.004072426736054541
4347000000.0 1.027991253472938 -0.052495398769344295
4350000000.0 0.9822426411115253 -0.02940682918562021
4353000000.0 1.002328451165021 0.003362057551378278
4356000000.0 1.0279204105047994 -0.05824645834490429
4359000000.0 0.9860640691836376 -0.05477761074271334
4362000000.0 1.0129183775422752 -0.12857005160119697
4366000000.0 1.0280899340160208 -0.06990014575048141
4369000000.0 0.9644694265922492 -0.0841014339037722
4372000000.0 0.9916424040733318 -0.11622910747123004
4375000000.0 1.0057213809579029 -0.06159662181434036
4378000000.0 0.9908679643680662 -0.10745253611997972
4381000000.0 1.0035418196796164 -0.10268184270664413
4384000000.0 1.062793877580107 -0.13856757875640874
4388000000.0 1.0020313511615444 -0.10884788886570589
4391000000.0 0.9999314672394823 -0.12111536131020054
4394000000.0 0.9657608286085986 -0.14616082523653226
4397000000.0 0.9889457297212272 -0.15940999459304
4400000000.0 1.022954196437017 -0.1672143567348979
4403000000.0 0.9981287520920278 -0.17148677663982104
4406000000.0 1.0040854222047362 -0.2028426255137294
4409000000.0 1.0169416845454209 -0.19247867287229992
4412000000.0 0.9832329728272813 -0.2524288815672931
4416000000.0 0.9804454595865422 -0.20365817317645613
4419000000.0 0.9816455628342948 -0.23823213046461905
4422000000.0 0.9853231452340272 -0.21207497543465328
4425000000.0 0.9976505872875867 -0.2090069555937907
4428000000.0 0.9749445693522808 -0.2466559272341045
4431000000.0 0.9946265995306385 -0.2541056840168841
4434000000.0 0.9720762510702136 -0.2599136329723877
4438000000.0 1.007975064981828 -0.2675966959182914
4441000000.0 0.9891810081634598 -0.28998355851064994
4444000000.0 0.9575202349518346 -0.27820829031269706
4447000000.0 0.950861426231745 -0.30204452040206137
4450000000.0 0.9461956381429 -0.28016186161639356
4453000000.0 0.9830948132490488 -0.31445917738424994
4456000000.0 0.9362132232323518 -0.3303008665963542
4459000000.0 0.9117704475391202 -0.33133965418529715
4462000000.0 1.013161921522858 -0.3603205141543595
4466000000.0 0.9875372960662433 -0.37577864850350934
4469000000.0 0.947251018040546 -0.33714213601189924
4472000000.0 0.9702972656264265 -0.39437280121907603
4475000000.0 0.9133039410481235 -0.36050243938372856
4478000000.0 0.9526403426684377 -0.4086687221588935
4481000000.0 0.9002859508307868 -0.3958178887627856
4484000000.0 0.899358828637457 -0.43944483709622373
4488000000.0 0.9031105792835571 -0.40861558550860505
4491000000.0 0.9250596374699414 -0.4177748444351234
4494000000.0 0.920358351303189 -0.4102388445382305
4497000000.0 0.9222941267138622 -0.4136067074093457
4500000000.0 0.9166962258439981 -0.43830037639002584
4503000000.0 0.9392580491930962 -0.4439522687169975
4506000000.0 0.8964550659545338 -0.44753517803690923
4509000000.0 0.8813054395652562 -0.4398492348304355
4512000000.0 0.8709570790381572 -0.45294567506359984
4516000000.0 0.9109605767509122 -0.4715158719647909
4519000000.0 0.8656826503279497 -0.467608392913966
4522000000.0 0.8892044943244302 -0.49819806536387934
4525000000.0 0.8888172571466793 -0.4905462374721514
4528000000.0 0.891930359848015 -0.5149203907115109
4531000000.0 0.8872236224201993 -0.5094882926196069
4534000000.0 0.8434273936068499 -0.49511597216162684
4538000000.0 0.8650783620671822 -0.516545520060208
4541000000.0 0.8167989499949184 -0.5553513669686513
4544000000.0 0.8480231869650314 -0.541767990376571
4547000000.0 0.8465796870890014 -0.5245820841668758
4550000000.0 0.8376312525054272 -0.5736099994740342
4553000000.0 0.8291239461406501 -0.5635433374403594
4556000000.0 0.8182276096603116 -0.5643361779602701
4559000000.0 0.8237549029879476 -0.5784079951598622
4562000000.0 0.8222260048714627 -0.5866770144021247
4566000000.0 0.8380307931898319 -0.6176245913067411
4569000000.0 0.7868294771151358 -0.6062853506634083
4572000000.0 0.7978800873457933 -0.6083326895808842
4575000000.0 0.7983341846147403 -0.6247455102322285
4578000000.0 0.8129499195754506 -0.6381559450058861
4581000000.0 0.7665934764145028 -0.6405381603019755
4584000000.0 0.7823199103052391 -0.6624469295103268
4588000000.0 0.8041646970962344 -0.6543722547909954
4591000000.0 0.7896936556070497 -0.6485048962018638
4594000000.0 0.7372509196583482 -0.6677226240609404
4597000000.0 0.7564157955234132 -0.6780673714396899
4600000000.0 0.7307858501739506 -0.6915145507459354
4603000000.0 0.7259838307646801 -0.6983161169583276
4606000000.0 0.7577798599718769 -0.690503263982167
4609000000.0 0.7316403201594305 -0.6886191251128421
4612000000.0 0.7391597926000498 -0.7107818481141234
4616000000.0 0.7229134094853071 -0.6994308606659588
4619000000.0 0.7139501770790756 -0.7260115772313557
4622000000.0 0.722885778229761 -0.7163029062149819
4625000000.0 0.6624136714484209 -0.7219826401475667
4628000000.0 0.7077184848840442 -0.7267153005757926
4631000000.0 0.6874129243187403 -0.7424778383482141
4634000000.0 0.6947811647802283 -0.7409216721289337
4638000000.0 0.669775876592747 -0.764619469545859
4641000000.0 0.6662470438448663 -0.7541758964574268
4644000000.0 0.6622024276038903 -0.7535347598448663
4647000000.0 0.6587145993750803 -0.7701759433457823
4650000000.0 0.6342400319699409 -0.7877434459080838
4653000000.0 0.6610166311206872 -0.7967368544112096
4656000000.0 0.6424360473769863 -0.7829238024180307
4659000000.0 0.6165439084913988 -0.7942617212039886
4662000000.0 0.6313697518276752 -0.7951446024574856
4666000000.0 0.6114693294995113 -0.7836920683316626
4669000000.0 0.6293521181389563 -0.8059667572584039
4672000000.0 0.5916375753899871 -0.8278316739552452
4675000000.0 0.5653766431736011 -0.8063832103056421
4678000000.0 0.5758232076581318 -0.8162857529195673
4681000000.0 0.5594797821647995 -0.8645260305122485
4684000000.0 0.5520567226287495 -0.8383471728805766
4688000000.0 0.5335170453726295 -0.8508691734861801
4691000000.0 0.5765082736396911 -0.8449541606747599
4694000000.0 0.5531228256065436 -0.8572104683980224
4697000000.0 0.4971123939159986 -0.850369478879011
4700000000.0 0.555188411575963 -0.8480302374831445
4703000000.0 0.5280254363244575 -0.8376712197626681
4706000000.0 0.5104969345622534 -0.8872328378822997
4709000000.0 0.5135964306193269 -0.8707532096288549
4712000000.0 0.5046828582133762 -0.8663594478346403
4716000000.0 0.4965683533960874 -0.8753230664721259
4719000000.0 0.5325664975038038 -0.906277733792699
4722000000.0 0.5087518245382734 -0.8699394691295124
4725000000.0 0.4586494277970047 -0.8731577984747769
4728000000.0 0.46319388416660023 -0.8898066519414567
4731000000.0 0.4893656586563211 -0.937453575306106
4734000000.0 0.4717182193431912 -0.8805426136662848
4738000000.0 0.48348807412241124 -0.939274909805757
4741000000.0 0.4269403766971942 -0.9701670045939995
4744000000.0 0.38655410579866845 -0.9512185485041729
4747000000.0 0.46038164581051644 -0.9074331127820133
4750000000.0 0.41129328207094357 -0.9235439635996124
4753000000.0 0.42310931459366397 -0.9229679205498996
4756000000.0 0.4126050947216039 -0.9340887703111609
4759000000.0 0.3701279552580266 -0.9290347292274653
4762000000.0 0.3654360119889802 -0.9410202175629383
4766000000.0 0.3640670460079251 -0.9433105927740364
4769000000.0 0.362341435887046 -0.9848750536248637
4772000000.0 0.3600076268323812 -0.9739974033498396
4775000000.0 0.35586721752854766 -1.0136479319338416
4778000000.0 0.35670090854183545 -0.991059542038751
4781000000.0 0.33401893866733734 -0.9558980999658993
4784000000.0 0.346336854437638 -0.949228388522081
4788000000.0 0.2982065424813611 -1.009462708838114
4791000000.0 0.2916957072176735 -0.9650554894032505
4794000000.0 0.338998898185635 -1.0063957116568818
4797000000.0 0.2472636092688183 -0.9605914625553479
4800000000.0 0.28722357391193776 -0.9517969927667629
4803000000.0 0.2541913282928479 -0.9562699607375247
4806000000.0 0.25599311074143116 -0.992263521117057
4809000000.0 0.2149444562026168 -1.006060185729677
4812000000.0 0.18111766964604561 -0.9897404316147334
4816000000.0 0.2560781767225331 -0.9802130757622094
4819000000.0 0.2488200704766477 -1.0224602093674133
4822000000.0 0.2659881118745851 -1.0173236762709514
4825000000.0 0.2667343385133568 -1.021387818105741
4828000000.0 0.21484629907307132 -0.9802973023049123
4831000000.0 0.19045985382102865 -1.0319223570666451
4834000000.0 0.21296240580844586 -1.0155331656658038
4838000000.0 0.189291568848152 -1.0372617082439302
4841000000.0 0.14866244062993042 -0.9982795739741145
4844000000.0 0.2007331031454443 -1.0203351431487018
4847000000.0 0.18218831104742889 -0.9839251643019615
4850000000.0 0.12420760839780373 -1.03920650536841
4853000000.0 0.1609763654126664 -0.9989071103248208
4856000000.0 0.1359805716044969 -1.0013319506641618
4859000000.0 0.11794745610236135 -1.054645574432437
4862000000.0 0.14966124801257635 -1.0049078000244518
4866000000.0 0.10573013193231279 -1.0440990128970251
4869000000.0 0.08326251987016868 -1.0323440103907997
4872000000.0 0.09313621943708028 -1.0628950446556684
4875000000.0 0.14093945559979604 -1.0650256776374614
4878000000.0 0.0977983649298039 -1.0399887161319592
4881000000.0 0.03207801499194485 -1.098567489905233
4884000000.0 0.0745474667610488 -1.040345998260387
4888000000.0 0.0824087829450309 -0.9971170685028109
4891000000.0 0.04478273820817351 -1.068500789533993
4894000000.0 0.024893742495422873 -1.0060825959832722
4897000000.0 0.04683556466646997 -1.026212114002982
4900000000.0 0.04487279000038931 -1.0467966651942835
4903000000.0 0.03560419523679262 -1.0570570202703313
4906000000.0 -0.01232752555677957 -1.0536589176730025
4909000000.0 -0.05043982298010074 -1.0275111628025122
4912000000.0 -0.033139422908379346 -1.0776806114850739
4916000000.0 -0.012668508897479606 -1.06114291418819
4919000000.0 0.009888159882789356 -1.0493996790510915
4922000000.0 -0.0194216104389881 -1.0141632728768133
4925000000.0 -0.04694801129553229 -1.0240779086688794
4928000000.0 -3.2565775876750025e-05 -1.0035355235763948
4931000000.0 -0.02411648285689115 -1.0540645196860734
4934000000.0 -0.10020940667362259 -1.0088864129557402
4938000000.0 -0.10207965700772996 -1.0050337011285455
4941000000.0 -0.07008902956859488 -1.016891140053724
4944000000.0 -0.06490137185735875 -0.9883904743081608
4947000000.0 -0.11017625954099566 -1.0089555087459643
4950000000.0 -0.1229380351377742 -1.024470925663028
4953000000.0 -0.16772088343237784 -1.042263057323499
4956000000.0 -0.18248726810812588 -1.0526326337593275
4959000000.0 -0.18560548287097486 -0.9805164762225236
4962000000.0 -0.11839226083919932 -1.0523061441065051
4966000000.0 -0.140297058726856 -1.039125855396205
4969000000.0 -0.14371001516248338 -1.0803626474719152
4972000000.0 -0.2078526180165791 -1.0099540029571512
4975000000.0 -0.15704586103902665 -1.043234698067829
4978000000.0 -0.2203036917824832 -1.011247196601771
4981000000.0 -0.2380642015503696 -1.0208472687380168
4984000000.0 -0.20132907530528557 -0.9924179895948657
4988000000.0 -0.16908893606834885 -0.9951800736633137
4991000000.0 -0.19480632408206022 -1.066722466040532
4994000000.0 -0.21338272503610878 -1.0188208293744954
4997000000.0 -0.2780291769946747 -1.0251717030656609
5000000000.0 -0.2246804071949215 -1.047015014434952
5003000000.0 -0.25435624966364595 -1.0066518374863322
5006000000.0 -0.28114305163530573 -1.0280706345775725
5009000000.0 -0.2670036027760554 -1.0177949415094811
5012000000.0 -0.3031786576580437 -0.9894047969258677
5016000000.0 -0.27029934304365794 -1.0105636392939807
5019000000.0 -0.2782600075111394 -0.9904937472380781
5022000000.0 -0.30358514825839655 -1.023708855528308
5025000000.0 -0.3317123780254185 -1.065720147446302
5028000000.0 -0.3218290274742944 -1.0247757233178487
5031000000.0 -0.36771738502474616 -1.0004680799822825
5034000000.0 -0.3598495560609617 -1.0059181781617654
5038000000.0 -0.31996251846740564 -0.9285917201060283
5041000000.0 -0.3404150275412051 -1.010657339725821
5044000000.0 -0.3070023358619257 -0.9810288555590078
5047000000.0 -0.3346169474131973 -0.9594400349152749
5050000000.0 -0.2879989662876523 -1.0270798449659344
5053000000.0 -0.39674181757583393 -1.0363137328085106
5056000000.0 -0.3278863587027321 -0.9752255701615773
5059000000.0 -0.338676400572225 -0.9860645651620453
5062000000.0 -0.4474434658775036 -0.9811531186839211
5066000000.0 -0.37986307920569196 -0.963389909573636
5069000000.0 -0.40628075057933566 -0.9513245084122138
5072000000.0 -0.41841895246847705 -0.9490388993764816
5075000000.0 -0.3782745539780189 -0.9638277756736886
5078000000.0 -0.4537835942247435 -0.9433616998633372
5081000000.0 -0.4205278931706697 -0.8816051638319039
5084000000.0 -0.46516528221556985 -0.9773061914586454
5088000000.0 -0.4512784490443569 -0.9529373336827844
5091000000.0 -0.45665961292123464 -0.9196533697471712
5094000000.0 -0.445064845118968 -0.9427739022965061
5097000000.0 -0.44694408727429935 -0.9318342925893814
5100000000.0 -0.4947742279545357 -0.9331395090666573
5103000000.0 -0.5625867122365987 -0.9145278019830206
5106000000.0 -0.5037342596645034 -0.9288202669307173
5109000000.0 -0.4973000913055571 -0.9399143162346597
5112000000.0 -0.5043261279672803 -0.8804368918773857
5116000000.0 -0.4760896367424651 -0.8731136415780694
5119000000.0 -0.527603491244166 -0.8908017194002906
5122000000.0 -0.5119123935616309 -0.8947713975135909
5125000000.0 -0.50399730765027 -0.8615157353050125
5128000000.0 -0.5394863434169976 -0.8962386155118438
5131000000.0 -0.5738342639914076 -0.8776811600118589
5134000000.0 -0.5214080837120619 -0.8927111940106723
5138000000.0 -0.5174828576490101 -0.8763490581246505
5141000000.0 -0.5423466321457999 -0.9168637384010971
5144000000.0 -0.5748095820845057 -0.8468694616695834
5147000000.0 -0.5714933689721151 -0.8586786028474905
5150000000.0 -0.5752974466440525 -0.8590702592863
5153000000.0 -0.6271179948821308 -0.8478377105890172
5156000000.0 -0.5909928563659814 -0.87861765564981
5159000000.0 -0.5953140875388424 -0.8909474123832383
5162000000.0 -0.5957111635184761 -0.8192282904376883
5166000000.0 -0.637141723866212 -0.824191905952481
5169000000.0 -0.6171193910936043 -0.8533632626373523
5172000000.0 -0.6047770077588115 -0.8097150091642736
5175000000.0 -0.6717001077455398 -0.8272119856162815
5178000000.0 -0.6617754326928054 -0.8124492182511504
5181000000.0 -0.6911009825877731 -0.8249667542863113
5184000000.0 -0.6563258664084776 -0.8207951996265629
5188000000.0 -0.6393164368252829 -0.8438083397517723
5191000000.0 -0.687223448590292 -0.7788325669310318
