! Created with skrf 1.8.0 (http://scikit-rf.org).
# Hz S RI R 50.0 
!freq ReS11 ImS11
4000000000.0 0.6235809035362889 0.812841825518896
4003000000.0 0.699214886529842 0.8440644007222485
4006000000.0 0.6567975558264351 0.7786260026765928
4009000000.0 0.6305584845294843 0.8007812192831156
4012000000.0 0.6356040750863002 0.8258644030369208
4016000000.0 0.7125047960650713 0.7982091799782354
4019000000.0 0.66944632995528 0.7471911042002541
4022000000.0 0.6978269872567194 0.8395259442553081
4025000000.0 0.7565705948873647 0.7370577703108597
4028000000.0 0.7000960377379335 0.7493594334536118
4031000000.0 0.6846409287911989 0.755136436365363
4034000000.0 0.666666051900213 0.7376397480866587
4038000000.0 0.7565707750672395 0.7123972881976056
4041000000.0 0.7404665422818478 0.7723726009901551
4044000000.0 0.7632308325678575 0.7525826803423684
4047000000.0 0.67300291342539 0.7835036149077027
4050000000.0 0.76244039913567 0.7040698785644971
4053000000.0 0.754278240336472 0.6563260257602119
4056000000.0 0.7561685122757766 0.7224243085822944
4059000000.0 0.7124732907752157 0.7207652415635475
4062000000.0 0.7997450790933419 0.6991024381987285
4066000000.0 0.7290651316970673 0.6536519823414646
4069000000.0 0.8117869189834808 0.6787500315598132
4072000000.0 0.7193929831468592 0.6957982248592418
4075000000.0 0.796672352581675 0.6890699109984737
4078000000.0 0.8048145668068487 0.6707051318014488
4081000000.0 0.7878831505017253 0.7540153153868239
4084000000.0 0.809659531685402 0.6653702504838155
4088000000.0 0.7794282343111619 0.6678852247237838
4091000000.0 0.8606078919918471 0.6904126909903898
4094000000.0 0.8230072021070461 0.6580891840562991
4097000000.0 0.8185047163016642 0.6420585849903884
4100000000.0 0.8186289303991305 0.6379671996781142
4103000000.0 0.8265257587482673 0.6771737982762613
4106000000.0 0.8330048132397991 0.601534617102823
4109000000.0 0.8497768676371924 0.5935242140480557
4112000000.0 0.8472562154628596 0.6068217527408113
4116000000.0 0.8299840465113234 0.5977734371533518
4119000000.0 0.847879820372669 0.5553002734265985
4122000000.0 0.8833661332684053 0.5653411351616261
4125000000.0 0.904659001024259 0.5825450338703162
4128000000.0 0.8602754410592586 0.5504992394940301
4131000000.0 0.8459021045394339 0.4930546881024722
4134000000.0 0.8604423367566303 0.5511833760167619
4138000000.0 0.883178231755201 0.5080950586497988
4141000000.0 0.8705612275809684 0.5280010372754541
4144000000.0 0.897857071259622 0.5100710725539068
4147000000.0 0.883238705043563 0.4959548955653173
4150000000.0 0.9727050980070554 0.5346368995753961
4153000000.0 0.9037965281424152 0.5164384724440667
4156000000.0 0.9467513317928966 0.5136905549121152
4159000000.0 0.8764428081701923 0.4791617033814351
4162000000.0 0.8974629041300648 0.4974855382425333
4166000000.0 0.9273476985255937 0.45646846854642464
4169000000.0 0.9100778835580186 0.4421624063566083
4172000000.0 0.923774769941819 0.4890208874863207
4175000000.0 0.9327177711979853 0.4651766657363792
4178000000.0 0.952626209276014 0.45261065767089137
4181000000.0 0.9494765599586197 0.44186256654419775
4184000000.0 0.9296911427499993 0.41836527644978344
4188000000.0 0.9376781274509038 0.42045395182335255
4191000000.0 0.9218680696506549 0.4180409122195801
4194000000.0 0.9196795771041267 0.40771317049836187
4197000000.0 0.9752710806185764 0.40580807116798306
4200000000.0 0.9484276519559001 0.3869914972898423
4203000000.0 0.958508477533615 0.4108305741702082
4206000000.0 0.9632397784689737 0.3729762855907169
4209000000.0 0.9418978611776766 0.3629233870951685
4212000000.0 0.9549616549760831 0.3279201052145405
4216000000.0 0.9620958365502034 0.36161861125826783
4219000000.0 0.9582445325091085 0.3448577148535914
4222000000.0 0.9768634917203693 0.3274525243891047
4225000000.0 0.9718386128372738 0.3245205223827412
4228000000.0 0.9744098442097768 0.30045110752353044
4231000000.0 0.9819104031925606 0.2852578372829263
4234000000.0 0.9958665703254943 0.29876027761970997
4238000000.0 0.9992353164492297 0.2628420590172075
4241000000.0 0.9789123352477724 0.26440107831264525
4244000000.0 0.9659993676923803 0.2582053729681657
4247000000.0 1.0010177880243092 0.27886402999067406
4250000000.0 0.9803374535757166 0.24012238182279538
4253000000.0 0.971840925346872 0.2500345187406849
4256000000.0 0.9942245762934148 0.2298704149855838
4259000000.0 0.9774552343767048 0.20755907983540936
4262000000.0 0.9803346856055282 0.20733851994542138
4266000000.0 1.014576952183627 0.18423635557073592
4269000000.0 0.9967883396747451 0.2205330771085948
4272000000.0 0.9937546527393923 0.18922872233769417
4275000000.0 1.0010746442512908 0.18221610622700296
4278000000.0 1.014160209059927 0.17424924328446872
4281000000.0 1.001916786387828 0.17792705847417617
4284000000.0 1.0180642020911916 0.13004232332995788
4288000000.0 1.012242427276868 0.18153798289397255
4291000000.0 0.9860062402241505 0.14808404824372418
4294000000.0 1.0230684478023964 0.1380285570167703
4297000000.0 1.0134286766135143 0.15810283484891258
4300000000.0 1.0121256028692307 0.12032830555945248
4303000000.0 0.9989843730245855 0.09632693241258107
4306000000.0 0.9990754321415606 0.14415195383011456
4309000000.0 0.9942944260591918 0.10891486500835353
4312000000.0 1.0230102103071084 0.11364142351297571
4316000000.0 1.0335720686295218 0.09093698529276122
4319000000.0 0.9990471342325552 0.09832472562066515
4322000000.0 0.9770538039672401 0.022459618066031153
4325000000.0 1.0138894528774274 0.07441556997305059
4328000000.0 0.9940732320104981 0.05575557156024975
4331000000.0 1.013999092226281 0.007883502169850426
4334000000.0 1.043520847282585 0.004463019324389278
4338000000.0 0.9958412076944981 0.05586224885449083
4341000000.0 1.0431588362310282 0.034478185933874
4344000000.0 1.0395358153128602 0.0030357893694744065
4347000000.0 1.013153307265694 -0.019444609089779186
4350000000.0 0.9942306270800323 -0.013096708343998398
4353000000.0 1.0039146058946582 -0.011917174717265888
4356000000.0 1.0177080491839057 -0.04906635133244047
4359000000.0 0.9732392521749814 -0.047630428053395055
4362000000.0 1.0179303865299172 -0.07639585900736057
4366000000.0 1.0185766153938074 -0.038408628691402436
4369000000.0 0.9679494875210065 -0.07418498251978564
4372000000.0 0.9831613890508513 -0.11817936777351415
4375000000.0 0.9976883080203343 -0.05299832835569787
4378000000.0 0.9907540225498448 -0.07629835785096785
4381000000.0 0.9940402878158627 -0.08369422333399032
4384000000.0 1.065942846180057 -0.13499221280660145
4388000000.0 0.9874391865556816 -0.10311504931085023
4391000000.0 1.0060885029646205 -0.11798809986893484
4394000000.0 0.9527958934205405 -0.14739409406313858
4397000000.0 0.9906028017716553 -0.13818471832730458
4400000000.0 1.0352481457273577 -0.1589307911843466
4403000000.0 1.0120585711531556 -0.15736095565821095
4406000000.0 0.991732288610253 -0.2017345422920645
4409000000.0 1.0327300690929135 -0.19952035223281359
4412000000.0 0.9775509772612805 -0.2517954283421633
4416000000.0 0.9866846649811467 -0.1971735634979386
4419000000.0 0.9906867195583057 -0.2227270852623887
4422000000.0 0.9864654899843672 -0.20215421025853686
4425000000.0 1.0148487160623696 -0.1989696084100954
4428000000.0 0.985447098411727 -0.245668709066467
4431000000.0 1.0175505472252682 -0.23838791887620497
4434000000.0 0.9727572169871217 -0.2578316728576382
4438000000.0 0.981069279033626 -0.2542728439592628
4441000000.0 0.9914493603062222 -0.27387050970161847
4444000000.0 0.9511646115346613 -0.2552432809928957
4447000000.0 0.9625631382641051 -0.29741422467172624
4450000000.0 0.9563015543443105 -0.2760783700608158
4453000000.0 0.9873311142377862 -0.2974082750848
4456000000.0 0.9408468842736336 -0.30764379333620584
4459000000.0 0.8894757647316562 -0.3060869689755432
4462000000.0 1.011083382596164 -0.33513836010275244
4466000000.0 0.9810956929274274 -0.3498418800686982
4469000000.0 0.9683611061782215 -0.33109201947351835
4472000000.0 0.9689033320289996 -0.37642096992134966
4475000000.0 0.9169003879169045 -0.3379779993329603
4478000000.0 0.9826605684981308 -0.40474129125302627
4481000000.0 0.8939436490782617 -0.36474978059500357
4484000000.0 0.9213536953308596 -0.43604748022896067
4488000000.0 0.903311814319493 -0.38847878865624874
4491000000.0 0.9250588683639943 -0.3994701950327902
4494000000.0 0.9167117124646773 -0.40248208950034825
4497000000.0 0.9028594992189274 -0.4044759291100008
4500000000.0 0.9227183133771586 -0.40388506061383594
4503000000.0 0.9255783981361181 -0.4475730856459447
4506000000.0 0.9131324545593984 -0.4470795005106891
4509000000.0 0.8855821728868358 -0.4361376007423252
4512000000.0 0.8729336905445376 -0.46627670274108957
4516000000.0 0.8990174286204808 -0.47098434477068796
4519000000.0 0.8636045483593011 -0.46890997111256894
4522000000.0 0.8836038275756228 -0.49822559666048516
4525000000.0 0.9032876838159871 -0.4491045516603896
4528000000.0 0.8970180151680833 -0.5126601646898078
4531000000.0 0.8700366426828334 -0.48576346800133463
4534000000.0 0.8641515676185791 -0.4996606610552471
4538000000.0 0.8492027757564187 -0.5310401782464451
4541000000.0 0.8295234384289041 -0.5646862103556566
4544000000.0 0.8481010738832131 -0.5199365471773983
4547000000.0 0.8581883163177396 -0.5433814328010254
4550000000.0 0.8394267189690627 -0.5693995950962603
4553000000.0 0.866109222915701 -0.5770258526200479
4556000000.0 0.8186591071441554 -0.5618190940251536
4559000000.0 0.8144465174204 -0.5963957609051038
4562000000.0 0.845137074067918 -0.5835540384478235
4566000000.0 0.8088898627869505 -0.5914571226894234
4569000000.0 0.7804686757565564 -0.5790826109092471
4572000000.0 0.7956800350330722 -0.6079713797193993
4575000000.0 0.7966072591370426 -0.6352154086693509
4578000000.0 0.8309866582840033 -0.614407131674283
4581000000.0 0.7865290961025839 -0.6427384793099351
4584000000.0 0.7654061653787783 -0.6353844593687292
4588000000.0 0.8038170316065171 -0.6409764376204887
4591000000.0 0.7941193859607952 -0.626185835764458
4594000000.0 0.7453404666841318 -0.6590936677762493
4597000000.0 0.7846744028014256 -0.6849749579475012
4600000000.0 0.7332707684412231 -0.6824897831483242
4603000000.0 0.7494679642954253 -0.6786407096276161
4606000000.0 0.7589051702683073 -0.6811571702672133
4609000000.0 0.743775232871532 -0.6860094268676934
4612000000.0 0.7362622929029023 -0.6891514612592137
4616000000.0 0.7238446636687625 -0.6926328253215687
4619000000.0 0.7206414384236215 -0.7092529344271918
4622000000.0 0.7208783922227852 -0.7328044277601898
4625000000.0 0.6766696429357968 -0.7136878033989782
4628000000.0 0.7007474981093529 -0.7072062609580413
4631000000.0 0.6829913989110226 -0.7452762380204262
4634000000.0 0.6852885256166399 -0.7531962226232007
4638000000.0 0.7087604761765609 -0.7439148674572676
4641000000.0 0.7084800087415624 -0.7518308149370956
4644000000.0 0.672189755594905 -0.7678923480786807
4647000000.0 0.6942888393580822 -0.7619937458294335
4650000000.0 0.6568229416436627 -0.7649820211784508
4653000000.0 0.6637219947504153 -0.776802845196265
4656000000.0 0.6359605817044762 -0.783457854035599
4659000000.0 0.6176369828284658 -0.794502352038064
4662000000.0 0.6189003166421021 -0.7733394134451651
4666000000.0 0.6326588147374703 -0.7963499157831836
4669000000.0 0.626527930741374 -0.7935939030640003
4672000000.0 0.5901947499139255 -0.8270233011356012
4675000000.0 0.5932476109757814 -0.8206764422298116
4678000000.0 0.5814725056477048 -0.7897499448776144
4681000000.0 0.5885346859696629 -0.8396096945739677
4684000000.0 0.5726448059862084 -0.8321397201552084
4688000000.0 0.5387605986099646 -0.8525617689160556
4691000000.0 0.581341239197268 -0.8341644222433873
4694000000.0 0.5661263187932898 -0.8272990475624511
4697000000.0 0.521864176802192 -0.8370758643705916
4700000000.0 0.570850248904309 -0.8366358921668189
4703000000.0 0.5424412917205803 -0.8314982711470893
4706000000.0 0.5389845813923655 -0.8742486211579404
4709000000.0 0.5330450316470872 -0.8616091528039896
4712000000.0 0.5119198382672838 -0.8771838169817557
4716000000.0 0.5011498739620437 -0.8830518372916687
4719000000.0 0.5014340315322172 -0.8767022665271423
4722000000.0 0.4986943974558755 -0.8778994563105011
4725000000.0 0.4853555869517834 -0.8924461162527052
4728000000.0 0.4827285942305297 -0.8935195206902635
4731000000.0 0.5183230428874909 -0.906947406628287
4734000000.0 0.4810583575823549 -0.8824510978650986
4738000000.0 0.49233621671736005 -0.9226204918740087
4741000000.0 0.4422537594340967 -0.9484778595395505
4744000000.0 0.42855028640033643 -0.9330467484553208
4747000000.0 0.448805403986013 -0.8824260653854995
4750000000.0 0.4447277627349822 -0.923997015219988
4753000000.0 0.4308579535652718 -0.9459599942830291
4756000000.0 0.40818183208641645 -0.9508894982868248
4759000000.0 0.42198482313728036 -0.9652107374545169
4762000000.0 0.37309937187995024 -0.9620731004079598
4766000000.0 0.3966345688480958 -0.9287862971041337
4769000000.0 0.3882730189991735 -0.9699804116129213
4772000000.0 0.36709423992393386 -0.947962775514387
4775000000.0 0.3587578700300379 -0.9787646331934499
4778000000.0 0.3911087255445064 -0.9691873034718955
4781000000.0 0.3556615401539223 -0.9524537252051319
4784000000.0 0.3812590681640674 -0.9602302415281577
4788000000.0 0.296272768202425 -0.9806015259913763
4791000000.0 0.3209570541759194 -0.976465384010509
4794000000.0 0.34769113245649086 -0.9871715428604972
4797000000.0 0.2825404101423061 -0.9702959641804066
4800000000.0 0.2960766320962292 -0.9804138997124203
4803000000.0 0.24911305139628634 -0.9943342075697614
4806000000.0 0.2935157558911072 -1.0360811673982566
4809000000.0 0.21559068748021473 -0.9893861315766984
4812000000.0 0.21880160195008824 -0.9864604268651489
4816000000.0 0.27756177720309655 -0.9743783261642478
4819000000.0 0.2589809731143819 -1.0054454069661736
4822000000.0 0.24129037951653187 -1.0350812980850437
4825000000.0 0.2627289048520894 -1.0153940262765564
4828000000.0 0.21982690691366477 -0.9915644764730419
4831000000.0 0.19954356208354046 -1.0091725881514786
4834000000.0 0.22939752315294532 -0.992718065415596
4838000000.0 0.185035055495188 -1.0147244568097644
4841000000.0 0.18047526032983705 -1.0053728544282818
4844000000.0 0.20866878739482964 -1.0227178247514241
4847000000.0 0.1986631716809638 -0.9785819404600995
4850000000.0 0.1516326447869361 -1.0324165027224514
4853000000.0 0.16385028810399235 -0.9791209794955069
4856000000.0 0.13273620924000698 -1.0064147022849699
4859000000.0 0.13914560574089618 -1.036072850205454
4862000000.0 0.14177019147823594 -1.0033170036618118
4866000000.0 0.11307855631596023 -1.0316631307044812
4869000000.0 0.08662974852639857 -1.0307726444712526
4872000000.0 0.09739482270982464 -1.045064722785415
4875000000.0 0.1413483334127761 -1.0667460470041359
4878000000.0 0.07177813003185773 -1.0220048288740338
4881000000.0 0.056241065425450376 -1.109055854054962
4884000000.0 0.09890891448321315 -1.0267579729747724
4888000000.0 0.08742540563444401 -1.0019411408755177
4891000000.0 0.09647512749407222 -1.0429434309633658
4894000000.0 0.05367329092898221 -1.025153354270492
4897000000.0 0.0660172477815918 -1.0051970677545135
4900000000.0 0.04081317229133734 -1.0527343801204327
4903000000.0 0.041156593404646405 -1.048631210015028
4906000000.0 0.01735095421375614 -1.055595090300026
4909000000.0 -0.016144717346175737 -1.0282748681801612
4912000000.0 -0.021120361289951463 -1.0548932463041107
4916000000.0 -0.0006122388676972138 -1.0674566955318345
4919000000.0 0.017545528154877643 -1.0692248611259956
4922000000.0 0.00897443902293435 -1.0598391672968481
4925000000.0 -0.060310575176749606 -1.011471231702493
4928000000.0 0.016100273806074622 -1.0237310258585437
4931000000.0 -0.013127959184084367 -1.030797871193243
4934000000.0 -0.05819974968750695 -0.995691279788035
4938000000.0 -0.1014345538803041 -1.0280806547796728
4941000000.0 -0.06538260050081142 -1.031742752676164
4944000000.0 -0.06461426191764177 -0.974958668061934
4947000000.0 -0.10517689222999732 -0.9862409562977656
4950000000.0 -0.09722023569461118 -1.0022834468386885
4953000000.0 -0.15454181610055812 -1.0578539658454174
4956000000.0 -0.14669275341973592 -1.0367980372611196
4959000000.0 -0.15139753756716465 -0.9777522060937828
4962000000.0 -0.1987064958655199 -1.073002983623408
4966000000.0 -0.11281587517854158 -1.0583029554606185
4969000000.0 -0.12709878483178644 -1.0179649758174512
4972000000.0 -0.16832902549591958 -1.0374625659164374
4975000000.0 -0.1483091313487194 -1.0286599587104255
4978000000.0 -0.22141221072215295 -1.037689947683031
4981000000.0 -0.217494148817335 -1.0207250164091795
4984000000.0 -0.16118164959157336 -0.9990188280228552
4988000000.0 -0.18261741789547759 -0.996860240649068
4991000000.0 -0.17759387632779478 -1.0516123478475619
4994000000.0 -0.1679006548381427 -1.0160050258320745
4997000000.0 -0.258485697029721 -1.005942595792595
5000000000.0 -0.20824860567432568 -1.0383007516806086
5003000000.0 -0.2286460691963783 -1.0389906447831678
5006000000.0 -0.260224903718983 -1.0421049545279504
5009000000.0 -0.2381706791858573 -1.0158045037762378
5012000000.0 -0.28753206293743566 -1.0153776167872965
5016000000.0 -0.23855865218653804 -1.0361255159237563
5019000000.0 -0.28222682011485833 -0.976152748331492
5022000000.0 -0.3131906667428721 -1.0226248370843525
5025000000.0 -0.3044951385123517 -1.0526873124990301
5028000000.0 -0.3501200767957743 -1.018725918098161
5031000000.0 -0.32485494052132413 -1.0193976565964096
5034000000.0 -0.37675734916256876 -1.00573787798141
5038000000.0 -0.3273525251691395 -0.9439741235071868
5041000000.0 -0.2930730238945749 -0.9910781426728775
5044000000.0 -0.31234101110511303 -0.9629748672495732
5047000000.0 -0.34354076307364995 -1.0150058189077371
5050000000.0 -0.2739892933571536 -0.9411623783057088
5053000000.0 -0.38055820876801316 -0.9767592201062831
5056000000.0 -0.33971985359238455 -1.0097479641293108
5059000000.0 -0.3352655702327288 -0.9954959350518001
5062000000.0 -0.4183090783987192 -0.96985533948117
5066000000.0 -0.3478308940048035 -0.9767964415793335
5069000000.0 -0.41554416915454784 -1.0104063193546178
5072000000.0 -0.3826560152337209 -0.9498099626151311
5075000000.0 -0.398254929826914 -0.9468047406757467
5078000000.0 -0.46117153066653566 -0.9542053731365621
5081000000.0 -0.4437804806185108 -0.8815059390945951
5084000000.0 -0.42392365033564683 -1.0088889922760285
5088000000.0 -0.4204574910911899 -0.9230660273535454
5091000000.0 -0.48999137346310223 -0.9316456672919384
5094000000.0 -0.4744799583288058 -0.9589832563456092
5097000000.0 -0.43576479732313134 -0.9271131295790349
5100000000.0 -0.4581458445899286 -0.910523955049232
5103000000.0 -0.4706385887588275 -0.8851614784253804
5106000000.0 -0.5013064878260782 -0.9481100516234173
5109000000.0 -0.4728340593788983 -0.9265990851935559
5112000000.0 -0.4763013567364684 -0.8958059126219813
5116000000.0 -0.49199919415800875 -0.8897397378531267
5119000000.0 -0.5066152086047794 -0.9229512982606916
5122000000.0 -0.5139446025600797 -0.9024997009572324
5125000000.0 -0.47061915474246374 -0.9211472635208776
5128000000.0 -0.5456945985598588 -0.8696782147704283
5131000000.0 -0.5425811423228512 -0.8879797141478959
5134000000.0 -0.5450229800260639 -0.8920557855746449
5138000000.0 -0.5743314248569127 -0.8946869101640628
5141000000.0 -0.5080415295892734 -0.929403299467011
5144000000.0 -0.5407400616980217 -0.8898355738851035
5147000000.0 -0.614135329178223 -0.8488543372576295
5150000000.0 -0.5599116566372856 -0.8452973880180089
5153000000.0 -0.6058252872101761 -0.8058628653042802
5156000000.0 -0.5948964193208883 -0.8513020197878546
5159000000.0 -0.6028739866771247 -0.8979410556866336
5162000000.0 -0.6217893664671361 -0.8390353527162628
5166000000.0 -0.6209132181984279 -0.8261423116614224
5169000000.0 -0.6225357346494429 -0.8794581433778607
5172000000.0 -0.5765002802296064 -0.8174484025597052
5175000000.0 -0.6517604459145091 -0.8843058116850357
5178000000.0 -0.6402224441629611 -0.8131702968677198
5181000000.0 -0.6273707787491466 -0.8423118766855485
5184000000.0 -0.6560187534765116 -0.8298280348171483
5188000000.0 -0.6654968631852219 -0.805218544466069
