! Created with skrf 1.8.0 (http://scikit-rf.org).
# Hz S RI R 50.0 
!freq ReS11 ImS11
4000000000.0 0.8158804086584588 0.6734476124120974
4003000000.0 0.8121864918877247 0.7246445075954505
4006000000.0 0.8172724272103591 0.6246601625579669
4009000000.0 0.8209363938381582 0.6595323624895257
4012000000.0 0.7850923092704096 0.6456302516386249
4016000000.0 0.865540399003024 0.6148684870689713
4019000000.0 0.8145879726142946 0.6407496414784777
4022000000.0 0.8444772483177105 0.6574247652266204
4025000000.0 0.8674218770432013 0.5651087745228083
4028000000.0 0.8112973207526287 0.5792614249812038
4031000000.0 0.7769358334491279 0.5737910911483775
4034000000.0 0.8518891205154485 0.5411376355096923
4038000000.0 0.868957029787045 0.545081899028532
4041000000.0 0.8595172917709357 0.5506046770151927
4044000000.0 0.8756513176183971 0.5730614752847863
4047000000.0 0.8966400092805141 0.5785612660875529
4050000000.0 0.8948645959033253 0.5544783141302251
4053000000.0 0.8881953501393626 0.5030689735126401
4056000000.0 0.8874447613584315 0.4963760086611526
4059000000.0 0.8930916294347115 0.5475472080011063
4062000000.0 0.9208114097476838 0.5148689548921308
4066000000.0 0.8499676137171328 0.47467088526077283
4069000000.0 0.9454008664129607 0.4617571413354101
4072000000.0 0.8639473340928301 0.49824517708378185
4075000000.0 0.9132017703588334 0.5266330136722233
4078000000.0 0.9331400317888308 0.4809903541487027
4081000000.0 0.92924404113333 0.4660191641831476
4084000000.0 0.9383186018668823 0.4363157439599475
4088000000.0 0.9077260875509516 0.43936010695209937
4091000000.0 0.9761441951610829 0.45270058861470835
4094000000.0 0.914336058570842 0.4144112665389703
4097000000.0 0.9224488803825802 0.3889302426980415
4100000000.0 0.9321315104759582 0.37938830655923456
4103000000.0 0.9612588200406431 0.4316919295961587
4106000000.0 0.9665319422090652 0.40009619807724806
4109000000.0 0.9702411167570955 0.3733107469875651
4112000000.0 0.9498936601976891 0.3818322169332174
4116000000.0 0.9343537417709408 0.37260832403095834
4119000000.0 0.9489622792467166 0.36940832127385503
4122000000.0 0.9490418602990588 0.2987587137230059
4125000000.0 0.9578401632726768 0.30303183446750076
4128000000.0 0.9498678355333302 0.34195097335120683
4131000000.0 0.9712589359204036 0.32901501772871045
4134000000.0 0.9549666690210051 0.3304716449049705
4138000000.0 0.9476353429390385 0.2684142968767274
4141000000.0 0.978331838301932 0.28909547631717325
4144000000.0 0.9896895345416863 0.28754553798892996
4147000000.0 1.0047973608342113 0.2826847818905442
4150000000.0 1.032114250703594 0.26921845777515224
4153000000.0 0.9893610765937362 0.2608144797965918
4156000000.0 1.0070239575882785 0.276895830022291
4159000000.0 0.9910076452688235 0.21956086378351874
4162000000.0 1.005272793546861 0.23932469291651515
4166000000.0 1.0186339669443092 0.2230332264917213
4169000000.0 0.9909422800728738 0.19885315045416907
4172000000.0 1.0176948357158961 0.19756825689476448
4175000000.0 1.039017132635701 0.21249990186495754
4178000000.0 1.012718857622922 0.19235702890634376
4181000000.0 0.9942453276019343 0.16159541977752517
4184000000.0 0.9945039061056836 0.1828622176769698
4188000000.0 0.9785967668152664 0.142632196807656
4191000000.0 0.9911089390329371 0.16060478295968217
4194000000.0 1.0008430993818387 0.1287371004150143
4197000000.0 1.0184077002516265 0.1355174571316573
4200000000.0 1.0057270589233545 0.13413593900937737
4203000000.0 1.0303469405550263 0.11780822805743218
4206000000.0 1.0421472319694696 0.09797104374592669
4209000000.0 1.0012564717152408 0.0914108302302934
4212000000.0 1.0208381985448551 0.05427608546421692
4216000000.0 1.0229422910906045 0.07524949026893929
4219000000.0 1.0246430475899881 0.0687694975455774
4222000000.0 1.005591827416656 0.05178719933853737
4225000000.0 1.0155346279027746 0.04573084228953175
4228000000.0 1.0248750913028735 0.03010678228154759
4231000000.0 1.0331549421429473 0.0076282520658843556
4234000000.0 1.0252526303139742 -0.015054308749789358
4238000000.0 1.016980421608343 -0.025869777424607443
4241000000.0 0.9980872058949735 -0.023272607308438192
4244000000.0 1.0151672112270815 -0.019719353100022763
4247000000.0 1.0128011796762504 -0.023377608903970587
4250000000.0 0.9943216671042896 -0.04279733367862909
4253000000.0 0.9875183008355919 -0.07468572634285923
4256000000.0 1.0398386291102044 -0.0785759091131343
4259000000.0 0.9880822431577871 -0.0762235554283176
4262000000.0 0.994358102560307 -0.1004021965282711
4266000000.0 1.0121824337121121 -0.11792410036002314
4269000000.0 0.99868885804921 -0.08504877175796553
4272000000.0 1.002841826119135 -0.11306157096713298
4275000000.0 1.009779200089049 -0.1383848656336183
4278000000.0 1.0459508479886477 -0.15274352254530152
4281000000.0 0.9983614533900748 -0.12725424353860887
4284000000.0 1.0065294707040242 -0.17749364316208857
4288000000.0 0.9991504178430133 -0.1312806880273627
4291000000.0 0.9805131101627863 -0.14739439530216916
4294000000.0 0.9785889122279461 -0.1780616219962151
4297000000.0 0.986262714915106 -0.1384136904435409
4300000000.0 0.9866933736744334 -0.19071664072358438
4303000000.0 0.9736140852123755 -0.2232167276101114
4306000000.0 0.9900743651247946 -0.1987446115749599
4309000000.0 0.97526322031672 -0.24270674068755788
4312000000.0 1.0239810408837624 -0.18593524283198476
4316000000.0 0.9830976960094979 -0.2233158584272587
4319000000.0 0.9702217039282344 -0.2397388512587647
4322000000.0 0.9586236123184559 -0.3039894405891239
4325000000.0 0.9711030841347422 -0.2648493489543103
4328000000.0 0.9723933327915529 -0.2767711156578528
4331000000.0 0.948123519803453 -0.3232971714285489
4334000000.0 0.9744744817433838 -0.3109484296870091
4338000000.0 0.9688942959270765 -0.31412754851646707
4341000000.0 0.9791157740389039 -0.28517630611852207
4344000000.0 0.9797879631036923 -0.33160872044883993
4347000000.0 0.9711909590111955 -0.3643141522685788
4350000000.0 0.9038075289147712 -0.35221883980427937
4353000000.0 0.9271783785536949 -0.3281104711846476
4356000000.0 0.9286212341871346 -0.40762055825018295
4359000000.0 0.8865755112632292 -0.38120881248039507
4362000000.0 0.9263552381642872 -0.4547096074210307
4366000000.0 0.9443244058330988 -0.40930372277290056
4369000000.0 0.8902260933005184 -0.42863620360880716
4372000000.0 0.8853542896162185 -0.44084797618707816
4375000000.0 0.9218172359261898 -0.4074367109383346
4378000000.0 0.8900390756551219 -0.4259597436832725
4381000000.0 0.8941023854640409 -0.4344499484372173
4384000000.0 0.942158837454607 -0.4856001300234821
4388000000.0 0.8815862900240375 -0.4570175668248271
4391000000.0 0.895958226921014 -0.47443499882611184
4394000000.0 0.862084707331439 -0.4831663722204848
4397000000.0 0.8743453761792614 -0.5121895503079562
4400000000.0 0.8853824593669557 -0.5185411913157385
4403000000.0 0.8589830326082218 -0.5245045176489241
4406000000.0 0.8621710586294116 -0.5385103766763812
4409000000.0 0.8842394838707539 -0.5474383649797974
4412000000.0 0.8101864855204768 -0.5810989863817826
4416000000.0 0.8384890103682721 -0.5466860331261286
4419000000.0 0.8345397422349562 -0.5743590724281008
4422000000.0 0.8370899194521089 -0.5552983401145645
4425000000.0 0.851652957868988 -0.5634103364557745
4428000000.0 0.8152421503435513 -0.5995067642107507
4431000000.0 0.817882588577554 -0.6042616115453308
4434000000.0 0.7923599473811517 -0.6097195636426584
4438000000.0 0.8067274328347105 -0.6193895434800285
4441000000.0 0.814030221952355 -0.634632299355983
4444000000.0 0.7608304109638626 -0.6245718446629884
4447000000.0 0.7636492474219653 -0.6539659811422402
4450000000.0 0.7787960361610232 -0.6326317497288529
4453000000.0 0.7798778441289274 -0.6694317190191579
4456000000.0 0.7376323431131098 -0.6623919795427701
4459000000.0 0.7204124691468136 -0.6627390019126629
4462000000.0 0.762647257061301 -0.7169758654683028
4466000000.0 0.7747719032384677 -0.7250976742264433
4469000000.0 0.7489628721171749 -0.6830238320998208
4472000000.0 0.7171664911138873 -0.7102225014431457
4475000000.0 0.6983558664401487 -0.7101752789198243
4478000000.0 0.7234601799295299 -0.7452019590225718
4481000000.0 0.6747770689354898 -0.7234855927333218
4484000000.0 0.6667349077581647 -0.7670340194781039
4488000000.0 0.6621907019629067 -0.7596322090266023
4491000000.0 0.6665936657565847 -0.7517229842832768
4494000000.0 0.6634101607801841 -0.738503284791004
4497000000.0 0.6532511084949733 -0.7385242052432931
4500000000.0 0.6590904240631494 -0.7638479236121571
4503000000.0 0.6654586844838462 -0.7928224679907865
4506000000.0 0.6151795333827026 -0.7973615075369879
4509000000.0 0.6104113371521633 -0.7767968379710408
4512000000.0 0.5998404179960144 -0.792132012967607
4516000000.0 0.6231226670052996 -0.8169295176201443
4519000000.0 0.5896169694045459 -0.8104515700495559
4522000000.0 0.5979538277432418 -0.8131452504474428
4525000000.0 0.6132864143998517 -0.837271301291986
4528000000.0 0.5926523081703523 -0.8498863565745078
4531000000.0 0.574285800893543 -0.8400560040893063
4534000000.0 0.5471834376829758 -0.8376862867883631
4538000000.0 0.541667612442335 -0.8406859705091209
4541000000.0 0.5061902436876428 -0.8441004341226593
4544000000.0 0.5283047610493992 -0.8691809082478343
4547000000.0 0.5257647991355768 -0.8681921637394494
4550000000.0 0.5233277289931777 -0.8932324747426048
4553000000.0 0.49042270802586163 -0.8917581811150314
4556000000.0 0.4820713017565651 -0.898256099956947
4559000000.0 0.4883108693277549 -0.898893129548346
4562000000.0 0.4582979211826422 -0.8925436859572327
4566000000.0 0.4600084051054461 -0.8932394629631457
4569000000.0 0.4343543190368823 -0.9115267381125223
4572000000.0 0.4276772976408114 -0.9038279586902014
4575000000.0 0.4212150443090156 -0.9253001795280764
4578000000.0 0.4286894466705862 -0.9556679406854346
4581000000.0 0.40820569006372065 -0.9317799999565554
4584000000.0 0.3895996029695455 -0.9461756562758036
4588000000.0 0.388316363597744 -0.9423280289365895
4591000000.0 0.36317586162860965 -0.9499871520636409
4594000000.0 0.3437070270451129 -0.9477804635901441
4597000000.0 0.3543732221004568 -0.9676265739922207
4600000000.0 0.337904947055095 -0.9515237936600732
4603000000.0 0.3199970877053404 -0.953150849233599
4606000000.0 0.3244373210167496 -0.9962851652513731
4609000000.0 0.31507730137672696 -0.9578766965015258
4612000000.0 0.30136590527738694 -0.9461309360875263
4616000000.0 0.2911530713364139 -0.9806325384294082
4619000000.0 0.2525323072936626 -0.9714775632002035
4622000000.0 0.24457089066543006 -1.0006863641978847
4625000000.0 0.2340748532497723 -0.9846638061686206
4628000000.0 0.24296516723166522 -1.0441089226113731
4631000000.0 0.23271138190965843 -0.9936223419706458
4634000000.0 0.21924689569219993 -0.9960875521610819
4638000000.0 0.20568763488105568 -1.0010004838834092
4641000000.0 0.19119066519694225 -0.9863035453170313
4644000000.0 0.18647111850966352 -0.9955433736922811
4647000000.0 0.158607967702027 -0.993888424475015
4650000000.0 0.16065451117407492 -0.9898156685521842
4653000000.0 0.1504066825125957 -1.0045898455529365
4656000000.0 0.16482180011584482 -1.011924473008184
4659000000.0 0.1026439513063809 -1.0242972289819117
4662000000.0 0.11786274148834763 -1.0233601510845718
4666000000.0 0.07320318726155806 -1.0170717229637254
4669000000.0 0.08125060224378494 -1.0323304343037032
4672000000.0 0.07980628864909572 -1.0324509560003763
4675000000.0 0.057737376359747364 -1.0486472635676682
4678000000.0 0.041157431862913485 -1.0052118840112587
4681000000.0 0.023356487782783986 -0.9929544429764119
4684000000.0 0.019561189878700647 -1.072813736017586
4688000000.0 -0.012678611385483401 -1.0172906548052834
4691000000.0 0.025475521455369604 -1.0374101768943476
4694000000.0 0.019124138904592608 -0.9694171024619622
4697000000.0 -0.06130157629307725 -0.9440366751714153
4700000000.0 -0.03776383585871762 -0.9950076573891937
4703000000.0 -0.012740681655155128 -0.9642315010030236
4706000000.0 -0.06899065613270539 -1.0255831789881957
4709000000.0 -0.03190590938767368 -0.9819991371837339
4712000000.0 -0.056047886330383045 -1.0204395351412627
4716000000.0 -0.0811745272216802 -1.029007670531888
4719000000.0 -0.05235052512053778 -1.007389597639873
4722000000.0 -0.07004017940972013 -1.0312644275472738
4725000000.0 -0.12803515516719083 -1.0234921103557326
4728000000.0 -0.1349567649430088 -0.9916680273872318
4731000000.0 -0.13859272269479916 -1.0736765234716594
4734000000.0 -0.18101263602614082 -1.0069464656342013
4738000000.0 -0.11607590880591284 -1.0615147607901645
4741000000.0 -0.17616179684912414 -1.053465190799604
4744000000.0 -0.17320682678322902 -1.0249722795391178
4747000000.0 -0.16035257562445915 -0.9548879714654
4750000000.0 -0.20418303652836534 -1.0612681033559772
4753000000.0 -0.23699033650674584 -1.0086173233562856
4756000000.0 -0.23925231579888728 -1.0247992634088456
4759000000.0 -0.22946900315102464 -0.9937882596179346
4762000000.0 -0.31390722393300374 -1.062999113428386
4766000000.0 -0.2963484873886118 -0.9832850291285655
4769000000.0 -0.30060738898016504 -1.0040705556894851
4772000000.0 -0.2838515982005019 -0.9943184867541844
4775000000.0 -0.31719966519451803 -1.0199862338413608
4778000000.0 -0.36104120316629956 -0.9602228403586818
4781000000.0 -0.33287453357046104 -0.9975911435501024
4784000000.0 -0.32414070621760316 -0.9642340875712491
4788000000.0 -0.40184162271344226 -0.9721373833442086
4791000000.0 -0.35674102732211865 -0.9809544143256684
4794000000.0 -0.37967829876810505 -1.0176864658312865
4797000000.0 -0.4328932938629952 -0.9348029885136798
4800000000.0 -0.4169571459174779 -0.912927014310928
4803000000.0 -0.4682753613355217 -0.934797792259279
4806000000.0 -0.4641504588977452 -0.9462827945079784
4809000000.0 -0.49071551102281485 -0.9022614989458223
4812000000.0 -0.4870366098178693 -0.9034957968055022
4816000000.0 -0.41092460693756094 -0.9141082871590969
4819000000.0 -0.47692536359186016 -0.9500137401881532
4822000000.0 -0.46839299349361296 -0.9519731593405595
4825000000.0 -0.49745561309407343 -0.940474849805929
4828000000.0 -0.5083064794139802 -0.8929649023681513
4831000000.0 -0.5695048724355369 -0.8943121858790284
4834000000.0 -0.5185104893677822 -0.9280662069372048
4838000000.0 -0.5799204538400505 -0.8779715797992579
4841000000.0 -0.5807398841972284 -0.8466808623894854
4844000000.0 -0.5526436333105096 -0.901999887373116
4847000000.0 -0.5411602233145747 -0.8546293070165293
4850000000.0 -0.6286362884026364 -0.8529026758062803
4853000000.0 -0.5748525322438546 -0.8120474750739548
4856000000.0 -0.6269220118122725 -0.8467305863886211
4859000000.0 -0.6720832474272236 -0.8154962518029015
4862000000.0 -0.6209317940722267 -0.8164943490701911
4866000000.0 -0.6682029573955012 -0.7989606743144401
4869000000.0 -0.6626879474324232 -0.7926199209959915
4872000000.0 -0.7086542194294057 -0.8038486095290082
4875000000.0 -0.679730599990829 -0.8483742140625986
4878000000.0 -0.7150559306136227 -0.7875388271495352
4881000000.0 -0.7912212685439566 -0.7768687766028524
4884000000.0 -0.7162113800270034 -0.7621442702317286
4888000000.0 -0.695623899986806 -0.7707054085845825
4891000000.0 -0.724325449156895 -0.7419913546506526
4894000000.0 -0.7556913202224764 -0.7042755532932741
4897000000.0 -0.7359803307097323 -0.7043377433541905
4900000000.0 -0.7774708152583002 -0.7290371186519681
4903000000.0 -0.8103876170779655 -0.7164112776639349
4906000000.0 -0.7716453563957135 -0.7156692187998672
4909000000.0 -0.820746783317544 -0.6645491984271298
4912000000.0 -0.8167692553205711 -0.6336946455554467
4916000000.0 -0.8247044957915626 -0.6114077459673362
4919000000.0 -0.8514537083446543 -0.6542117418908913
4922000000.0 -0.843779664711517 -0.6493693191451839
4925000000.0 -0.8389690780938456 -0.538586712086224
4928000000.0 -0.7966152112369004 -0.6693833944974332
4931000000.0 -0.8187334934425208 -0.6156297069681169
4934000000.0 -0.8103978666505276 -0.5803374780471684
4938000000.0 -0.8854670529594727 -0.5296498543151448
4941000000.0 -0.8905305835815749 -0.5681850267668694
4944000000.0 -0.8581871871351231 -0.5130134257601967
4947000000.0 -0.8805873150733989 -0.5172060737331402
4950000000.0 -0.8507605460112719 -0.476788437455989
4953000000.0 -0.93723472557248 -0.4904043612541278
4956000000.0 -0.9421317487449332 -0.4993807808341145
4959000000.0 -0.9220225552802781 -0.43317669085837357
4962000000.0 -0.9455706196125971 -0.47074057196241975
4966000000.0 -0.9684173459677723 -0.4527052035388449
4969000000.0 -0.980096137907125 -0.439053404583552
4972000000.0 -0.937086483210512 -0.3839624305904509
4975000000.0 -0.9853208179065647 -0.42026641006101645
4978000000.0 -1.0035433280247086 -0.3607281849466433
4981000000.0 -1.0066705677077585 -0.3665013876158351
4984000000.0 -0.9503949289826468 -0.33490567460670817
4988000000.0 -0.9739659606046231 -0.3703912289106515
4991000000.0 -1.0324631651303313 -0.3288769618855528
4994000000.0 -0.996474415005133 -0.3009489781165802
4997000000.0 -1.0214162269052272 -0.26299979089162606
5000000000.0 -1.0159450294659735 -0.25741461242693253
5003000000.0 -1.028939489521923 -0.25091918930994683
5006000000.0 -1.0125530610745757 -0.2443505117319675
5009000000.0 -1.0144999208149876 -0.18089904345040508
5012000000.0 -1.058073442374964 -0.18526203722131093
5016000000.0 -1.0276858611053254 -0.21997396673128883
5019000000.0 -1.0454119943930684 -0.15847013757736872
5022000000.0 -1.0518181684984742 -0.11879059879460935
5025000000.0 -1.0109025974186157 -0.11772698128227696
5028000000.0 -1.0393697073053172 -0.11536274853340649
5031000000.0 -1.047500269543325 -0.062267074722669596
5034000000.0 -1.0551348282370236 -0.02675773725799528
5038000000.0 -1.035690143391818 -0.05153769848307031
5041000000.0 -1.0366363635410174 -0.03759511950619909
5044000000.0 -0.9930571667769329 -0.017360826893007802
5047000000.0 -1.0365210689634656 0.006738444536712684
5050000000.0 -1.0616951499126548 0.06019622538699501
5053000000.0 -0.9882386036879169 0.051309649981041816
5056000000.0 -1.0197397286371863 0.07477887370557483
5059000000.0 -0.997847111936782 0.15464060520987014
5062000000.0 -1.0809210602471064 0.14374178495591602
5066000000.0 -1.0823647782750254 0.13524664428075356
5069000000.0 -1.0328740269890107 0.14853735836508475
5072000000.0 -1.0599704009992403 0.10661937191930414
5075000000.0 -0.9793893906012603 0.20593935491342802
5078000000.0 -1.035468283801173 0.1784151346420285
5081000000.0 -0.9788058426358235 0.2647476479063708
5084000000.0 -0.9509554744119306 0.26703930343893095
5088000000.0 -1.0272973533489163 0.2808068472666478
5091000000.0 -0.9087504690962873 0.29064442540393165
5094000000.0 -0.9574397649367146 0.374173129603859
5097000000.0 -0.9049230275761299 0.3154889420811168
5100000000.0 -0.9400597046943103 0.3859146768974999
5103000000.0 -0.9034687399264356 0.43103720734284434
5106000000.0 -0.8315358768601552 0.42044168826258943
5109000000.0 -0.901226274428945 0.4148683702221123
5112000000.0 -0.9142003654311359 0.5200689733729523
5116000000.0 -0.9516047005384664 0.5061249512187285
5119000000.0 -0.8374098373485764 0.5798586800182022
5122000000.0 -0.8005162192066484 0.5594563977253614
5125000000.0 -0.8555760297204699 0.46781391967406755
5128000000.0 -0.8716194545577773 0.5739165442002976
5131000000.0 -0.8553771187095685 0.6289486408371964
5134000000.0 -0.7577606874138263 0.6033688492146587
5138000000.0 -0.7971819479721556 0.5751621330305664
5141000000.0 -0.8104320325762495 0.6944125811747184
5144000000.0 -0.6867537752122687 0.6776874804839655
5147000000.0 -0.729856224423313 0.6995125572108685
5150000000.0 -0.777921530703746 0.7839555863327105
5153000000.0 -0.7581196825366627 0.7717033798471006
5156000000.0 -0.6865264036168717 0.6957307054331265
5159000000.0 -0.642794440366649 0.8060864802449346
5162000000.0 -0.6044610794414139 0.8493588473035236
5166000000.0 -0.6471126873466343 0.7021365128152987
5169000000.0 -0.5502676036023686 0.797585820168952
5172000000.0 -0.6361958670446186 0.8520131801170753
5175000000.0 -0.5974844050238229 0.8536461575342277
5178000000.0 -0.5753618099562381 0.907858949405133
5181000000.0 -0.455114668714537 0.9163005364960646
5184000000.0 -0.4993095900018741 0.8710087063799141
