! Created with skrf 1.8.0 (http://scikit-rf.org).
# Hz S RI R 50.0 
!freq ReS11 ImS11
4000000000.0 0.6114971431991152 0.82214710523808
4003000000.0 0.6886359325593041 0.873358879973224
4006000000.0 0.6808896307812081 0.7837889143444113
4009000000.0 0.6901321143155522 0.782623554038573
4012000000.0 0.6471002653744763 0.8821053239931939
4016000000.0 0.7000302798588645 0.775517228795723
4019000000.0 0.706430329929866 0.787598196437614
4022000000.0 0.6775659642228384 0.8674478503161148
4025000000.0 0.7414106203667818 0.7419383549356277
4028000000.0 0.7424371198848978 0.7524453137057803
4031000000.0 0.6583410338151934 0.7139022810190034
4034000000.0 0.7287506537505538 0.7236483407070241
4038000000.0 0.75144705824225 0.7539643819615686
4041000000.0 0.7562862933996473 0.7304708587696721
4044000000.0 0.746871386696971 0.7566286745305347
4047000000.0 0.7757486046337736 0.7630592056933961
4050000000.0 0.7984748335238334 0.7353938068863844
4053000000.0 0.7767950567218325 0.684597236215035
4056000000.0 0.7416462666794448 0.7020703429771152
4059000000.0 0.7690806760678269 0.7026257648105636
4062000000.0 0.8093982137847407 0.6670480673015917
4066000000.0 0.7149754053788184 0.6171164834616748
4069000000.0 0.8183158214818292 0.6699967858564311
4072000000.0 0.736484264846078 0.7269918447176413
4075000000.0 0.8050867291406252 0.6790859889942016
4078000000.0 0.80055044457776 0.6402429793815819
4081000000.0 0.7678432322050881 0.7196789476253534
4084000000.0 0.8454960720722943 0.6369340275597881
4088000000.0 0.7920461130386018 0.6615102905666425
4091000000.0 0.8886458835602987 0.6915698976272406
4094000000.0 0.7922149292277092 0.6449515317271892
4097000000.0 0.8323941609326042 0.6146897038765164
4100000000.0 0.8375900043908149 0.5827444076319239
4103000000.0 0.8598542209225406 0.6473724457855099
4106000000.0 0.8831491407364962 0.5784483902377936
4109000000.0 0.8804304057188161 0.5613588413450101
4112000000.0 0.8376236131632881 0.5926052628077128
4116000000.0 0.8662063478307829 0.5970731821600195
4119000000.0 0.8694159203747193 0.5484177156697824
4122000000.0 0.8827417077544287 0.5441030431597508
4125000000.0 0.8891748662270655 0.5362732762142826
4128000000.0 0.8380077622508155 0.5354883517507015
4131000000.0 0.8809198567367068 0.5392236630345009
4134000000.0 0.8923124161021492 0.5505509684377929
4138000000.0 0.8627405800486505 0.49737436800244356
4141000000.0 0.8913067804649963 0.4815114643330368
4144000000.0 0.8967281059451448 0.5473665068458022
4147000000.0 0.9386408973294181 0.4707671606913126
4150000000.0 0.910112298721983 0.5181722507233761
4153000000.0 0.8915408497885341 0.4889121980226131
4156000000.0 0.8855058861729252 0.4687081526349589
4159000000.0 0.9161257553603994 0.4687878450355018
4162000000.0 0.904417288800532 0.47006219583575026
4166000000.0 0.9407250318584683 0.43966333076955055
4169000000.0 0.9481325755168043 0.43189869307030526
4172000000.0 0.9384867837281456 0.4438139356538276
4175000000.0 0.8994038896980817 0.467754371929151
4178000000.0 0.9326970136671335 0.46230574035711547
4181000000.0 0.9265677090554492 0.4011700694221527
4184000000.0 0.9042693217065472 0.39522081365355194
4188000000.0 0.9369140912359415 0.39080197578773057
4191000000.0 0.9141711890027302 0.43337830092816493
4194000000.0 0.9462794902905396 0.4097961520325609
4197000000.0 0.9736079389592789 0.3919672616534165
4200000000.0 0.9434224177926831 0.38361377843134237
4203000000.0 0.9683350416044082 0.38433071553708364
4206000000.0 0.9516533923212455 0.3608335872183233
4209000000.0 0.9447517262589564 0.3625017564348723
4212000000.0 0.9855166356538353 0.32406288589086596
4216000000.0 0.9690672230324116 0.36850759355946633
4219000000.0 0.9767782861187941 0.36204649376204934
4222000000.0 0.9923783769707695 0.32051090811279764
4225000000.0 0.9557826434896515 0.32047766326125804
4228000000.0 0.9961813964192472 0.324545448448445
4231000000.0 0.9778608680927035 0.29036113470715424
4234000000.0 1.0064422980511374 0.2992877483345186
4238000000.0 0.9933490625852902 0.262955266067709
4241000000.0 0.9867416737862522 0.24892089687309588
4244000000.0 0.9848418228215471 0.30037449829553464
4247000000.0 0.9748507673698056 0.25388370942598276
4250000000.0 0.9873232331160096 0.25163541926864275
4253000000.0 0.9710895121857079 0.22989591499940454
4256000000.0 1.0217629465115996 0.24615578231373497
4259000000.0 0.9833657018430592 0.19931769417647496
4262000000.0 1.007265851674173 0.1978103978853671
4266000000.0 1.019771950462799 0.1775804407026471
4269000000.0 0.9967929932814191 0.2017483669398569
4272000000.0 0.9907391682576369 0.18286022107361705
4275000000.0 1.0227027549257526 0.17693760289517652
4278000000.0 1.013108103234302 0.18114877942066404
4281000000.0 1.0188563058231082 0.15573743579330684
4284000000.0 1.010455700171172 0.11490744864549646
4288000000.0 1.0101198528252648 0.1594763389686821
4291000000.0 0.9792639909666117 0.12532872447187382
4294000000.0 1.0072212254901345 0.12333040802398805
4297000000.0 1.004313293803777 0.14272003627808177
4300000000.0 1.0030215132802027 0.10429995181116405
4303000000.0 1.0016846770459362 0.11272371616072104
4306000000.0 1.0150150406041467 0.09961459696533817
4309000000.0 0.9902570663356006 0.0846516625456339
4312000000.0 1.0363127599920674 0.10948479014878806
4316000000.0 1.022034413910746 0.10162591773600692
4319000000.0 1.0125260242080762 0.05732242383377266
4322000000.0 0.9985222283247812 0.04728681585907378
4325000000.0 1.0337656210661383 0.05369349401331909
4328000000.0 0.9829352481610281 0.031405741612876056
4331000000.0 0.9983549205617196 0.01572122729462405
4334000000.0 1.044866493694724 0.023940420860558642
4338000000.0 1.0016514611524743 0.03652038300623735
4341000000.0 1.0267948804651275 0.029298298953141094
4344000000.0 1.035441405577037 -0.004423618798578083
4347000000.0 1.027479601530601 -0.04984306674953834
4350000000.0 0.9972339932229958 -0.04175884524283276
4353000000.0 0.9842839984062521 0.016665330665162792
4356000000.0 1.0008858084573906 -0.050398833615598215
4359000000.0 0.986019271842879 -0.04555613996480519
4362000000.0 1.0430888388055328 -0.11703495699594225
4366000000.0 1.0395057437373991 -0.08030179977097156
4369000000.0 0.9957236623918323 -0.07952382792020317
4372000000.0 0.9888820368257571 -0.10406598906973782
4375000000.0 0.993158069560014 -0.07384461712218642
4378000000.0 0.9908414635752907 -0.09089567673383878
4381000000.0 0.9987924881815946 -0.10819001081525566
4384000000.0 1.054342630053537 -0.1513664799449253
4388000000.0 0.9810235666566286 -0.12071604596761704
4391000000.0 1.0188704776392752 -0.13213157965478775
4394000000.0 0.9798896512778754 -0.13495342514335273
4397000000.0 0.9923738748881468 -0.17631819459721126
4400000000.0 1.0203034007813458 -0.17143786594810134
4403000000.0 1.0041323931553126 -0.16606163708125726
4406000000.0 0.9821497512681133 -0.207774319306974
4409000000.0 1.0168580287298532 -0.19750567195318197
4412000000.0 0.9795254439880248 -0.2548307794253529
4416000000.0 0.971070151574073 -0.2232257845026305
4419000000.0 0.9824824652016075 -0.23537880950397005
4422000000.0 0.9878713035262565 -0.21901561863021296
4425000000.0 1.0117664155093524 -0.20950251433314013
4428000000.0 0.9734219000015203 -0.2523820342855618
4431000000.0 0.9961049301130975 -0.24874109885271725
4434000000.0 0.9623640010898384 -0.25204543595032275
4438000000.0 1.0035575769077207 -0.2810216570314651
4441000000.0 0.995428768472775 -0.28680911848786567
4444000000.0 0.9515564178954574 -0.2749249610624543
4447000000.0 0.9653287936785157 -0.30852162381621395
4450000000.0 0.9542485200214144 -0.27502995847872863
4453000000.0 0.9898705813674868 -0.3102505016979292
4456000000.0 0.9306246342755093 -0.34010656340494816
4459000000.0 0.8985722748658596 -0.3353682659122797
4462000000.0 1.0109406189989154 -0.3529705980560286
4466000000.0 0.9764352232834118 -0.36669474003616753
4469000000.0 0.9541212809899573 -0.3228798595698027
4472000000.0 0.9552412127428559 -0.38842020093468643
4475000000.0 0.9293519468837614 -0.34939904692055423
4478000000.0 0.9696357739681554 -0.4145233827224365
4481000000.0 0.9010820289874562 -0.386205145286239
4484000000.0 0.8928811909403966 -0.4309643059541448
4488000000.0 0.9221607826002759 -0.41878929185665725
4491000000.0 0.9145031339520231 -0.4252239405829689
4494000000.0 0.9091280575149999 -0.39816592295528547
4497000000.0 0.9062209269701462 -0.4130190203004247
4500000000.0 0.9266150392941124 -0.4219316518805824
4503000000.0 0.9368166788936192 -0.44849947775857824
4506000000.0 0.891443141000966 -0.4513660299166596
4509000000.0 0.8856928790605596 -0.45604954735449177
4512000000.0 0.8661269010011269 -0.46897693452941147
4516000000.0 0.8831610937787149 -0.4815498017513139
4519000000.0 0.8804453062307052 -0.4608563782326867
4522000000.0 0.8832633854295495 -0.4975385496392099
4525000000.0 0.876704832971335 -0.4588976145092749
4528000000.0 0.8987710905579829 -0.5294470672461843
4531000000.0 0.8763547160346492 -0.49843386388773103
4534000000.0 0.8360346908860189 -0.5054299237493519
4538000000.0 0.8619824782229766 -0.5429208758061519
4541000000.0 0.8187136531895677 -0.5571421385623719
4544000000.0 0.8395851076569971 -0.5392602636863146
4547000000.0 0.8632023919965411 -0.526763768903804
4550000000.0 0.8255229451258106 -0.5858070309979811
4553000000.0 0.8412674403982789 -0.5836939150721784
4556000000.0 0.8131522361305537 -0.5846968554619818
4559000000.0 0.8125219951491455 -0.599054725437268
4562000000.0 0.8453539581455676 -0.6033680162516682
4566000000.0 0.8189052654521523 -0.6276403733760769
4569000000.0 0.7873722268319369 -0.6036055742297892
4572000000.0 0.8169334821885875 -0.6016619942322137
4575000000.0 0.8026404985579363 -0.6480960139179098
4578000000.0 0.8211149384743159 -0.632132909213153
4581000000.0 0.7905646964100403 -0.6562898923299486
4584000000.0 0.7686111194431943 -0.648575959968517
4588000000.0 0.7955262178599086 -0.6760903632208445
4591000000.0 0.7727688088474048 -0.6354339438381097
4594000000.0 0.7323336699643237 -0.6754904661896399
4597000000.0 0.7877823071802814 -0.6985338540700189
4600000000.0 0.7325491903875677 -0.6854789972353709
4603000000.0 0.747923455552668 -0.7012256986353125
4606000000.0 0.7391504199683692 -0.6976003431933636
4609000000.0 0.7323809397796028 -0.698428502151496
4612000000.0 0.7228569611979927 -0.7080973439188003
4616000000.0 0.7132821444860444 -0.7089736682045193
4619000000.0 0.7178665380318963 -0.7174688370442448
4622000000.0 0.7145582702112742 -0.7246668032030232
4625000000.0 0.6698478220086415 -0.7214253119879107
4628000000.0 0.6982823433722066 -0.7051793188322449
4631000000.0 0.6801012909233213 -0.7412066583274065
4634000000.0 0.6828134766106257 -0.7653654582423793
4638000000.0 0.6785807319642604 -0.7575625120999152
4641000000.0 0.6733618779289328 -0.7531153953534592
4644000000.0 0.6513970157328037 -0.7692608379499477
4647000000.0 0.6614200742873688 -0.7710753018811801
4650000000.0 0.6489080091881284 -0.7862194067610999
4653000000.0 0.6549149942444417 -0.791482169438228
4656000000.0 0.6371558807967099 -0.7828107397053001
4659000000.0 0.6336665146934213 -0.8205061446162968
4662000000.0 0.6251045848920156 -0.8092536704718977
4666000000.0 0.6092308597458178 -0.8173756578960739
4669000000.0 0.6137814623325144 -0.796332195899808
4672000000.0 0.5932249485821401 -0.8462051874817649
4675000000.0 0.5803196376701236 -0.8487771188707235
4678000000.0 0.5830559531920076 -0.8101687088545024
4681000000.0 0.554409926123922 -0.847832437346949
4684000000.0 0.5351421475395053 -0.8574142300708487
4688000000.0 0.5146886016656864 -0.8499075507043177
4691000000.0 0.5635346523815506 -0.8459050904594121
4694000000.0 0.550996713317749 -0.8356469564137947
4697000000.0 0.5108513979899902 -0.8477147285334861
4700000000.0 0.5291597803006083 -0.8516619394731846
4703000000.0 0.550193746527576 -0.8474377731886977
4706000000.0 0.5332443274007845 -0.8701529300088204
4709000000.0 0.5107364225656923 -0.8933552937561399
4712000000.0 0.48526237558956686 -0.8727104381813182
4716000000.0 0.5141930699291927 -0.8928443919167222
4719000000.0 0.49997550222002346 -0.8886727867305029
4722000000.0 0.5014911022685906 -0.8796078503250724
4725000000.0 0.49196082923417694 -0.9036501852115938
4728000000.0 0.4649418560675969 -0.9023087663182718
4731000000.0 0.49077194775553634 -0.9449664832260467
4734000000.0 0.4696660523677473 -0.8929174980920543
4738000000.0 0.46981131331164994 -0.9040708594820881
4741000000.0 0.4471462986222253 -0.9677052371254461
4744000000.0 0.41817989093190433 -0.9295220149955838
4747000000.0 0.4295164148403665 -0.9068128007586695
4750000000.0 0.4166891893814848 -0.9492019316220786
4753000000.0 0.416930575820206 -0.9406613124590987
4756000000.0 0.39395718212308006 -0.9268070141840428
4759000000.0 0.42968451970021826 -0.9261055559864936
4762000000.0 0.37488583138662673 -0.9397094441934486
4766000000.0 0.37479707415154273 -0.9670916911152706
4769000000.0 0.37979636252548354 -0.9550858963205532
4772000000.0 0.3402154481219541 -0.9542008669683968
4775000000.0 0.36879018550847104 -0.9986104015335686
4778000000.0 0.33455818117577696 -0.9953853125499236
4781000000.0 0.33573730288479176 -0.9280144846485396
4784000000.0 0.3608448551584459 -0.9716890408165998
4788000000.0 0.30115109790035666 -0.9798823071262799
4791000000.0 0.29723439293439013 -0.978274797930209
4794000000.0 0.3185450355314233 -0.9886002102714337
4797000000.0 0.282397638215502 -0.9713678162958551
4800000000.0 0.2581832462952367 -0.9869739529928159
4803000000.0 0.22412471136519962 -0.9816212364952654
4806000000.0 0.2578011469496007 -1.0124508904295018
4809000000.0 0.23294344789489463 -1.0005816199942972
4812000000.0 0.19140130980381334 -0.9993047212300543
4816000000.0 0.2529354200157715 -0.9992897423416838
4819000000.0 0.2736946920228774 -1.0224658958196318
4822000000.0 0.2528538026886559 -1.0276728968333402
4825000000.0 0.2556297686950055 -1.022638344628321
4828000000.0 0.18999421461092889 -0.9929718561359512
4831000000.0 0.1661266358718023 -1.0487379099277816
4834000000.0 0.21688061467725123 -0.9979571498789297
4838000000.0 0.17254470683064319 -1.0276052385012509
4841000000.0 0.16227751241494298 -1.0103292795971721
4844000000.0 0.19645110083057277 -1.034499394111631
4847000000.0 0.1887572936826879 -0.9836970842344026
4850000000.0 0.14600102072231258 -1.0031376838444377
4853000000.0 0.15585934598928428 -0.9919245097822371
4856000000.0 0.13456990557556472 -1.0114743162385946
4859000000.0 0.12422614057698497 -1.0617926901900225
4862000000.0 0.14578934662070575 -1.0103972649553246
4866000000.0 0.09075853425681252 -1.033212191832455
4869000000.0 0.07887735151539177 -1.0113739921965412
4872000000.0 0.06327057140104478 -1.0570687284936886
4875000000.0 0.14939203136799456 -1.0657209266518473
4878000000.0 0.07360189305282415 -1.0189699989327616
4881000000.0 0.04546243129406735 -1.1075741090632611
4884000000.0 0.07064766930460191 -1.0183381001765706
4888000000.0 0.0879363445530634 -1.0152294110340094
4891000000.0 0.07442470629191637 -1.0618163367338966
4894000000.0 0.007412009637578355 -1.0112596269559617
4897000000.0 0.07562674168051883 -1.0202541582509481
4900000000.0 0.03671894216011865 -1.0657231589934344
4903000000.0 0.03828050173060106 -1.0229632078559636
4906000000.0 -0.03757821736558214 -1.0539461536552328
4909000000.0 0.006098410491097168 -1.0604602294294092
4912000000.0 -0.005225686050494047 -1.0513892227025108
4916000000.0 -0.004954206724171371 -1.0673021908988147
4919000000.0 -0.027199469416512273 -1.042189302076242
4922000000.0 -0.012416494652624468 -1.0200242706368237
4925000000.0 -0.07912014067835853 -1.016087215618513
4928000000.0 -0.0012134934244905082 -1.0139421638960948
4931000000.0 -0.06110938431154479 -1.0714451326843284
4934000000.0 -0.05112821434506208 -0.9946815040677188
4938000000.0 -0.09427888934266469 -1.0253314937821492
4941000000.0 -0.09400357111522607 -1.0197729929847177
4944000000.0 -0.08809262154989334 -0.9761145446177573
4947000000.0 -0.10187909195359629 -1.014836769678687
4950000000.0 -0.11202193844662196 -1.0001498199849912
4953000000.0 -0.1329392945085695 -1.0470164368472499
4956000000.0 -0.14668516822336453 -1.0067291829011338
4959000000.0 -0.15836181564073912 -0.9840668453047123
4962000000.0 -0.15081768043038987 -1.0536647568382387
4966000000.0 -0.16518350856691572 -1.0650412308007597
4969000000.0 -0.13267391502743303 -1.0579975367343755
4972000000.0 -0.18104968477030733 -1.0157807860753565
4975000000.0 -0.12832775209707267 -1.0017987548397873
4978000000.0 -0.19387765755915076 -1.003847694551678
4981000000.0 -0.21008447051220738 -1.0161895132775955
4984000000.0 -0.18996669301861743 -1.006120948688711
4988000000.0 -0.2013574218031715 -1.0116313167853894
4991000000.0 -0.14499314228527643 -1.0192088026121318
4994000000.0 -0.196586524567746 -0.9942771774790291
4997000000.0 -0.2592460835086304 -0.9995324310231483
5000000000.0 -0.24325242797613283 -1.0470773092025765
5003000000.0 -0.26315642555835655 -1.0526341229989964
5006000000.0 -0.2701507851226431 -1.0628568296284768
5009000000.0 -0.2614450265844751 -0.9975585989153811
5012000000.0 -0.2798674415434665 -1.0208286683641463
5016000000.0 -0.24430730567565045 -1.0532286474286572
5019000000.0 -0.3354084505760595 -0.989447087050785
5022000000.0 -0.3116339343819807 -1.0284663305283663
5025000000.0 -0.31258147065747605 -1.0774168641740467
5028000000.0 -0.33561508511829896 -0.9775521608170363
5031000000.0 -0.3643344238093198 -1.0004013502348876
5034000000.0 -0.37062180291081304 -1.0052953165866125
5038000000.0 -0.337347672475209 -0.957966165486364
5041000000.0 -0.33596114911751807 -1.0021500013529052
5044000000.0 -0.2965558631715003 -0.9783908934648143
5047000000.0 -0.3156316558467845 -1.003911350008818
5050000000.0 -0.2923592229986889 -0.9804928818266527
5053000000.0 -0.38674030303277174 -0.9596661079454314
5056000000.0 -0.33284408489077866 -0.9796116790276914
5059000000.0 -0.328726739328741 -0.9529696666257187
5062000000.0 -0.4487700855664758 -0.9872583420182133
5066000000.0 -0.3367332836318294 -0.9795303474010197
5069000000.0 -0.43714186432288993 -0.9822469261314445
5072000000.0 -0.39106039369619616 -0.9205045231473719
5075000000.0 -0.3725664427540043 -0.9460999752257275
5078000000.0 -0.46579374032927484 -0.9455201740368941
5081000000.0 -0.44429871578113017 -0.8933469217509068
5084000000.0 -0.4735070960389266 -0.9792340394250629
5088000000.0 -0.44162663064457675 -0.9485890819535505
5091000000.0 -0.5052052619752048 -0.9324229683574659
5094000000.0 -0.483459774975284 -0.964199173807942
5097000000.0 -0.42288511546104335 -0.9492682848222367
5100000000.0 -0.4473008181153308 -0.9176112918668867
5103000000.0 -0.5243570266438176 -0.9339646608584503
5106000000.0 -0.4475873794005293 -0.9469800915660063
5109000000.0 -0.47769825669240956 -0.9581132580412774
5112000000.0 -0.5421223990575175 -0.8665994557514305
5116000000.0 -0.5074968769068616 -0.912328784551574
5119000000.0 -0.5583779166716986 -0.9055136011813685
5122000000.0 -0.5402253749122369 -0.9067896345149755
5125000000.0 -0.5162204684461098 -0.9127432421275216
5128000000.0 -0.555737844149388 -0.8774779887211788
5131000000.0 -0.5540389983054299 -0.8700567084987012
5134000000.0 -0.5292191257360837 -0.8805806595923746
5138000000.0 -0.561034027793327 -0.8611088877152434
5141000000.0 -0.5015343019585279 -0.9209062665862353
5144000000.0 -0.5451165781843564 -0.867119784735124
5147000000.0 -0.5800844485995705 -0.8942502393981787
5150000000.0 -0.5883733046908111 -0.9041998808371065
5153000000.0 -0.596561690578927 -0.8447051954796979
5156000000.0 -0.6083434853266491 -0.8832310495845083
5159000000.0 -0.6233089196844088 -0.9004923655220073
5162000000.0 -0.622678451969202 -0.7995749217365066
5166000000.0 -0.6520964047351172 -0.8310594339536304
5169000000.0 -0.6574490002045736 -0.8461202927863225
5172000000.0 -0.6092394989668662 -0.8368646838042106
5175000000.0 -0.6512435830535583 -0.8734807461712456
5178000000.0 -0.6933286107386163 -0.8321126417653055
5181000000.0 -0.6589135912257186 -0.8357516748652943
5184000000.0 -0.6555703525012553 -0.8038850130443348
5188000000.0 -0.6661920050756883 -0.8325582921348846
