! Created with skrf 1.8.0 (http://scikit-rf.org).
# Hz S RI R 50.0 
!freq ReS11 ImS11
4000000000.0 0.8445010456926885 0.5919369804911938
4003000000.0 0.9011793202777448 0.5867279665764004
4006000000.0 0.8845653167519069 0.5560444575052068
4009000000.0 0.8427483348979063 0.5448009909919591
4012000000.0 0.8632115494863288 0.58237010355297
4016000000.0 0.8927530060423876 0.4980302625394691
4019000000.0 0.8762445093422442 0.5373847274826588
4022000000.0 0.9059200064363655 0.54629149919009
4025000000.0 0.87965502535568 0.4861901061827103
4028000000.0 0.9269559979127824 0.4485512748299237
4031000000.0 0.8706720432664714 0.46999240904201867
4034000000.0 0.9040841991175605 0.4595700281473606
4038000000.0 0.931618668630002 0.48709151146939267
4041000000.0 0.9018704600286886 0.4249807173258552
4044000000.0 0.9505946290926411 0.4568788954494635
4047000000.0 0.9811293265119998 0.45825596233388766
4050000000.0 0.9359045376136615 0.44012217823800404
4053000000.0 0.9311715250744824 0.416487597270167
4056000000.0 0.9694660971473024 0.4292830636589522
4059000000.0 0.929186679800533 0.39342352304321787
4062000000.0 0.9547065841862981 0.3978626701735229
4066000000.0 0.9130816013175533 0.33344447007084654
4069000000.0 0.9855745293565115 0.34108548829354723
4072000000.0 0.9816851871532312 0.33544710722435017
4075000000.0 0.9819030269755779 0.4116478559280465
4078000000.0 0.9995766580532203 0.3107218158608813
4081000000.0 0.9558166736045013 0.3791383570177813
4084000000.0 0.9707733774799138 0.3118435047498715
4088000000.0 0.9411406302155844 0.322092099872348
4091000000.0 1.0145263916251026 0.35245584419809867
4094000000.0 0.9467685614684647 0.2724933084300162
4097000000.0 0.9679226312036211 0.3225270738038612
4100000000.0 0.9712482991253357 0.27793258072572097
4103000000.0 1.0049123323690217 0.28256410051232844
4106000000.0 1.0022323896897953 0.2268725469293449
4109000000.0 0.9932411810233086 0.2561001524653798
4112000000.0 0.9798461610841296 0.2368784036200831
4116000000.0 0.9900823617588224 0.21442877774780322
4119000000.0 1.0164511410540173 0.22846388993098077
4122000000.0 1.0158083129267275 0.15253871809944608
4125000000.0 0.9985971351001299 0.21309742325623166
4128000000.0 0.9833912294021561 0.17779659928613967
4131000000.0 0.9938494494425114 0.17112064799776727
4134000000.0 0.9779910685109138 0.18871278898876753
4138000000.0 0.9857853064808737 0.14003577056511912
4141000000.0 1.0111517801784116 0.14915527268182394
4144000000.0 1.0258169162568394 0.17329122713108053
4147000000.0 1.0252299183356495 0.1186188943710747
4150000000.0 1.026103395659653 0.1274064968832691
4153000000.0 0.9885369315332596 0.10292606839566737
4156000000.0 1.0126063420729805 0.1120138665108869
4159000000.0 1.0010377444420735 0.08390437576181325
4162000000.0 1.014583213902593 0.09141052900936086
4166000000.0 1.0472315852104734 0.06427984746168047
4169000000.0 1.0015204416419097 0.06039705160446274
4172000000.0 1.0209847119140578 0.02716894098340067
4175000000.0 1.0325555313454529 0.032928942369390535
4178000000.0 1.0199785482634163 0.02789500568240666
4181000000.0 1.0218608554787605 -0.013027452224690872
4184000000.0 0.9945535664168615 -0.005209041135270487
4188000000.0 0.9992119187170063 -0.02693732243380964
4191000000.0 1.0067998658116748 -0.005597766320239006
4194000000.0 1.0065465412006525 -0.025029141502417696
4197000000.0 1.0422513409914607 -0.03811005530930184
4200000000.0 1.0264016757523262 -0.023291026215858712
4203000000.0 1.0552559257672232 -0.05939665512049447
4206000000.0 1.026996195724036 -0.05812093975872806
4209000000.0 0.9969993938624645 -0.08144508781247406
4212000000.0 1.0126893514623883 -0.12170573400091403
4216000000.0 1.0334482331456716 -0.08770956596545426
4219000000.0 1.0230615697828196 -0.11052114939002752
4222000000.0 1.0051416388789056 -0.13513222120060303
4225000000.0 1.002390259053963 -0.12337764366732713
4228000000.0 1.0071074050569317 -0.16753335520997506
4231000000.0 0.9997498195894206 -0.17469950444094282
4234000000.0 1.0037104244681843 -0.18611138813897848
4238000000.0 0.9936923963005609 -0.2098127544137298
4241000000.0 0.9766286672730047 -0.21130741285476654
4244000000.0 0.9802149103498748 -0.2146304315220297
4247000000.0 0.9670904199442231 -0.2102555695164227
4250000000.0 0.9577065418008444 -0.2426724767828799
4253000000.0 0.9543751796251883 -0.2566400745698862
4256000000.0 1.0269155462014694 -0.27556279707653364
4259000000.0 0.9306131932443019 -0.2728458665349463
4262000000.0 0.9750827789152434 -0.3171316132128356
4266000000.0 0.9709909280243956 -0.33040862057983067
4269000000.0 0.9578505212790608 -0.2930873692840541
4272000000.0 0.9568102487887389 -0.30142543669860705
4275000000.0 0.9658359927225326 -0.3000355983903217
4278000000.0 1.0026446899580501 -0.33538283945724223
4281000000.0 0.9650030009654991 -0.3350113608089
4284000000.0 0.9201350492843746 -0.39614544375216665
4288000000.0 0.9503727854552443 -0.34976774789400866
4291000000.0 0.8901830850376019 -0.35309297294150555
4294000000.0 0.9294422719108811 -0.405468797170188
4297000000.0 0.9314500078815124 -0.3677500038353818
4300000000.0 0.9068661614816582 -0.39223369330654123
4303000000.0 0.8975685971005875 -0.4284088254498048
4306000000.0 0.9247512464652112 -0.42513864636639653
4309000000.0 0.8915790499930886 -0.40160191810304147
4312000000.0 0.9394496516866871 -0.41105672581863484
4316000000.0 0.9031935635050328 -0.4681207894106995
4319000000.0 0.8928495272238034 -0.43639892412362735
4322000000.0 0.8975181564854025 -0.5181409263988928
4325000000.0 0.8759040426983117 -0.49412237724969865
4328000000.0 0.8595001325714924 -0.4852239709360616
4331000000.0 0.8480594783701785 -0.5264316041640582
4334000000.0 0.8762835435293701 -0.5080154185979575
4338000000.0 0.8627597424991764 -0.5284859842750251
4341000000.0 0.8816308126552578 -0.5463861979937763
4344000000.0 0.8659938918108955 -0.5620896438411185
4347000000.0 0.8284310140403782 -0.5824427059037184
4350000000.0 0.7929338266398166 -0.5652654562949634
4353000000.0 0.8090684111874054 -0.5543406321923299
4356000000.0 0.7766351730271641 -0.5911430553440267
4359000000.0 0.7571054650246977 -0.595140573731592
4362000000.0 0.7761080212927021 -0.6532260646290031
4366000000.0 0.8057496316532373 -0.634739216180999
4369000000.0 0.7541837904670844 -0.6214952786512816
4372000000.0 0.7537232488825274 -0.6677643299307976
4375000000.0 0.793332460583243 -0.640722566937579
4378000000.0 0.7495321135882848 -0.651362168832868
4381000000.0 0.7395513653919632 -0.6589185661925865
4384000000.0 0.7810398159321158 -0.7206424227054179
4388000000.0 0.7324391459134826 -0.6785089516429328
4391000000.0 0.7346812354503285 -0.70648604290519
4394000000.0 0.7041768875268184 -0.7149544043757186
4397000000.0 0.6997888532244063 -0.7365473426702672
4400000000.0 0.6959404624692627 -0.7501391197110115
4403000000.0 0.6970012239834917 -0.7463680271653559
4406000000.0 0.6733199763906945 -0.7509936456535244
4409000000.0 0.6763523694137733 -0.7817225126340213
4412000000.0 0.6297648513229921 -0.7788907874703415
4416000000.0 0.6405066948623807 -0.7846799894555534
4419000000.0 0.6259292649543484 -0.7977855932118676
4422000000.0 0.6373023669118432 -0.7690747248113321
4425000000.0 0.6326708558145626 -0.7973438422482518
4428000000.0 0.6242599756749416 -0.8187356963675038
4431000000.0 0.5955608521115054 -0.8177364584193637
4434000000.0 0.5764092807634664 -0.8237716053175295
4438000000.0 0.5927435576155942 -0.82919538166079
4441000000.0 0.5606302854025906 -0.8626930280457199
4444000000.0 0.5411900707963753 -0.8403914285912238
4447000000.0 0.5321260440289943 -0.8497527318550497
4450000000.0 0.527635665766055 -0.872039629458852
4453000000.0 0.5256538919552957 -0.8664044628916133
4456000000.0 0.4961495357191046 -0.8813633433627024
4459000000.0 0.47976373982629317 -0.8746057594507411
4462000000.0 0.48915218366735935 -0.9205756515471185
4466000000.0 0.49772720815967186 -0.9376774565174789
4469000000.0 0.4744684065318415 -0.8963996215628272
4472000000.0 0.4380731059203815 -0.9213004341159505
4475000000.0 0.44223131053317855 -0.896305874015165
4478000000.0 0.3969567076496591 -0.9279600876884876
4481000000.0 0.37115718766701067 -0.8959121184242956
4484000000.0 0.37183613442154745 -0.9660891396426535
4488000000.0 0.37753805709431143 -0.9570182573783944
4491000000.0 0.37635198940556114 -0.945239935064676
4494000000.0 0.3776419444686349 -0.9587747820659973
4497000000.0 0.35325736281640496 -0.9633582339702043
4500000000.0 0.31584592308349885 -0.9673713830869866
4503000000.0 0.31626403019689325 -0.9839666577426194
4506000000.0 0.2810284392022213 -0.986826296863855
4509000000.0 0.256996403363531 -0.954886683387981
4512000000.0 0.2747900908317961 -0.9738943620469214
4516000000.0 0.2453261881342641 -0.9848560084619191
4519000000.0 0.21789435821464662 -0.9912130549957305
4522000000.0 0.23529784361299744 -1.0090522710293883
4525000000.0 0.22104235871020567 -1.0088170464703468
4528000000.0 0.17814805437847286 -0.990512095922064
4531000000.0 0.18684255719105353 -0.9926476102555227
4534000000.0 0.14532192842927888 -1.0112627352831565
4538000000.0 0.13729841889298172 -1.0162749665523656
4541000000.0 0.12077654096465659 -0.9903075011786512
4544000000.0 0.11442916541497966 -1.0159733934832071
4547000000.0 0.09320973529355084 -1.0223562820413055
4550000000.0 0.10895713685488284 -1.0388029244159158
4553000000.0 0.07654061421244801 -1.01889653236339
4556000000.0 0.0473152384518126 -1.0208445955050287
4559000000.0 0.059667960764274 -1.02517326393559
4562000000.0 0.032517049181954666 -1.046707759397337
4566000000.0 0.012658298375890636 -1.015245066913797
4569000000.0 -0.03419186797712265 -1.0346240285910469
4572000000.0 -0.03190338197274767 -1.0196849651251
4575000000.0 -0.05614775801373201 -0.9931638241515723
4578000000.0 -0.05360227970740028 -1.0286030184974155
4581000000.0 -0.07845967838042303 -1.000799979827187
4584000000.0 -0.09607566425501536 -1.0226283549127757
4588000000.0 -0.11079909625429257 -1.0155687473663433
4591000000.0 -0.1390056146440597 -1.0319256362451108
4594000000.0 -0.14294696007824245 -1.00241036327496
4597000000.0 -0.15511762736541657 -1.0108957642788294
4600000000.0 -0.16457754083770312 -1.0271817647521946
4603000000.0 -0.1948659774055933 -0.9793346451423326
4606000000.0 -0.2234762607107592 -1.0321171466692949
4609000000.0 -0.1920466588267539 -1.0017562217780798
4612000000.0 -0.23564722439364533 -0.9567929934379611
4616000000.0 -0.2532957818090274 -0.963190510138206
4619000000.0 -0.3005732986545936 -0.9691879577887759
4622000000.0 -0.335685968622051 -0.9747125443468884
4625000000.0 -0.35077302495971263 -1.0043946407249649
4628000000.0 -0.3765794064060094 -1.0736222737552685
4631000000.0 -0.31985126193025976 -1.0047148451029166
4634000000.0 -0.3862807483508149 -0.9583422543363475
4638000000.0 -0.3758226309636665 -0.9560577971555674
4641000000.0 -0.40559941795299237 -0.9326140717932663
4644000000.0 -0.4118637290922057 -0.9325619776462122
4647000000.0 -0.4056045569584785 -0.9140878139863106
4650000000.0 -0.44630724806471356 -0.9294954985650095
4653000000.0 -0.45095861491456035 -0.884544489932872
4656000000.0 -0.43220078821586333 -0.9593798914731355
4659000000.0 -0.529724285456656 -0.8851409924852582
4662000000.0 -0.5192961265651124 -0.8955288877972306
4666000000.0 -0.606437735295249 -0.882473568349583
4669000000.0 -0.5637024383651776 -0.8973014903735401
4672000000.0 -0.5856129785233659 -0.8943373282319859
4675000000.0 -0.6393057749825088 -0.8982479863837345
4678000000.0 -0.5542780375914946 -0.8066378227636192
4681000000.0 -0.6435720552065772 -0.8006760105157185
4684000000.0 -0.7079743558995997 -0.8277126467750424
4688000000.0 -0.6750002775221402 -0.7950796244742799
4691000000.0 -0.6541500243260611 -0.8296258280381998
4694000000.0 -0.6271509642814296 -0.7705856001082725
4697000000.0 -0.6554024222945725 -0.7064884787658583
4700000000.0 -0.6615108481193888 -0.7623027673110643
4703000000.0 -0.5733015637989556 -0.752496558459752
4706000000.0 -0.7168226892098459 -0.7339860382198686
4709000000.0 -0.7728919009106342 -0.6842217727939142
4712000000.0 -0.7167796602886838 -0.7374698675763252
4716000000.0 -0.8021916925859585 -0.7368404713198244
4719000000.0 -0.6741969397200879 -0.6975836739234454
4722000000.0 -0.7500563779626046 -0.6966392734074662
4725000000.0 -0.7943798280499041 -0.6825611731529143
4728000000.0 -0.8755706783075627 -0.6402380834827488
4731000000.0 -0.9093380598897045 -0.6579700308436085
4734000000.0 -0.8163775173625335 -0.6352427292861834
4738000000.0 -0.9005182531990739 -0.6508088460306916
4741000000.0 -0.9330505382313101 -0.5442300334926112
4744000000.0 -0.9001361042127081 -0.5550657336179692
4747000000.0 -0.858894759013994 -0.5307628572355205
4750000000.0 -0.885864816511964 -0.5316144439361727
4753000000.0 -0.9289927386230021 -0.5441756471284427
4756000000.0 -0.9500663418983151 -0.47707022605755733
4759000000.0 -0.9545746835783806 -0.45149679776558943
4762000000.0 -1.01097217523462 -0.3954910853638998
4766000000.0 -0.9529560032435369 -0.3940977484916279
4769000000.0 -1.0224096054434126 -0.3809924678892689
4772000000.0 -1.000511762106532 -0.36334954193313457
4775000000.0 -1.023187127039351 -0.34700887004022385
4778000000.0 -1.01169870250633 -0.2588658997669767
4781000000.0 -1.0204189474813412 -0.32117724472690945
4784000000.0 -1.031085959241918 -0.2683714951471019
4788000000.0 -1.0348125360948481 -0.21358371475586901
4791000000.0 -0.987721755134321 -0.23955621963834112
4794000000.0 -1.058354307352769 -0.23421616961635322
4797000000.0 -1.0149842989225835 -0.15147894055818273
4800000000.0 -1.0296988810334178 -0.12968697022736417
4803000000.0 -1.0561450157145493 -0.07763251095120766
4806000000.0 -1.0617628486589157 -0.06710063045848824
4809000000.0 -1.0181594386408297 -0.0035111412096600625
4812000000.0 -1.035809996154013 -0.0033533329221612784
4816000000.0 -1.018044653291256 -0.033968249961121244
4819000000.0 -1.0439912951144465 0.059498186846940734
4822000000.0 -1.0591789931550397 0.04139994066469639
4825000000.0 -1.0428757476932462 0.06489247582332801
4828000000.0 -1.0260547041450856 0.13066437117849633
4831000000.0 -1.0552021252151418 0.11882176089042551
4834000000.0 -1.0251234747297133 0.1479223318808355
4838000000.0 -1.0050299945640415 0.22009491520268948
4841000000.0 -0.9969743660802632 0.217135424031424
4844000000.0 -1.043369290118782 0.2445367764067073
4847000000.0 -1.00976620506141 0.27327058041443836
4850000000.0 -1.0170018027715575 0.33670178428346276
4853000000.0 -0.9749967019868944 0.3535603877366409
4856000000.0 -1.011680662639244 0.3715957355269939
4859000000.0 -0.9455330287856227 0.4417580338721474
4862000000.0 -0.9551059916363799 0.4590765151197345
4866000000.0 -0.918303164624424 0.4389953206536412
4869000000.0 -0.9352456556200052 0.4722557353328314
4872000000.0 -0.844830380055518 0.4860315130005712
4875000000.0 -0.8834962087889945 0.5118390537131049
4878000000.0 -0.8684037717152321 0.5691199813088447
4881000000.0 -0.8333297933294893 0.5858549790288757
4884000000.0 -0.8423035345471457 0.6015862197736009
4888000000.0 -0.8517011984631717 0.6685521651654012
4891000000.0 -0.7197561936418578 0.6577776517527548
4894000000.0 -0.7597447298323684 0.6819020247678672
4897000000.0 -0.7330153801891804 0.740918485407949
4900000000.0 -0.7327696470905951 0.7090451315255641
4903000000.0 -0.6574372016563759 0.8001125783219046
4906000000.0 -0.7127906981713344 0.7630098762482044
4909000000.0 -0.681355136411482 0.8216146563790088
4912000000.0 -0.5332205848198764 0.7983546183889412
4916000000.0 -0.5315087234926914 0.8459618327453098
4919000000.0 -0.5253060911258461 0.8272250424697994
4922000000.0 -0.4730309423712663 0.8623812827865398
4925000000.0 -0.4884234946545062 0.8803024449174187
4928000000.0 -0.4306069982513238 0.968447314650527
4931000000.0 -0.3766203866365353 0.9446935825343548
4934000000.0 -0.4315469590973659 0.9473744179179452
4938000000.0 -0.39159614607872995 0.9598968011782303
4941000000.0 -0.323155340020445 0.9919250243070502
4944000000.0 -0.3017183511173952 1.0667120929937628
4947000000.0 -0.2775225673446786 0.9979920440054367
4950000000.0 -0.22382260707586216 1.0235051615302708
4953000000.0 -0.1981820003533718 0.9566093186376744
4956000000.0 -0.19242737331737414 1.0469280716986125
4959000000.0 -0.13694642881004063 1.0290430684627645
4962000000.0 -0.05802067139848344 1.001111333460484
4966000000.0 -0.03151607955035149 0.9779930931653137
4969000000.0 0.025446488671482498 0.9655727545569327
4972000000.0 0.012846241286620375 0.9932390383480549
4975000000.0 0.12924634282637104 1.0203555855969146
4978000000.0 0.08601427422087672 1.0189057560967627
4981000000.0 0.09996985722376715 0.9698901741441707
4984000000.0 0.20809561885260056 1.0195141494781745
4988000000.0 0.22862458375439634 1.0217822931445815
4991000000.0 0.30213750202783485 0.9923277044633835
4994000000.0 0.2780013243150086 0.9596967076326962
4997000000.0 0.280208686420894 0.9571264745470907
5000000000.0 0.3886625882755102 0.9008729850350126
5003000000.0 0.3912839827422488 0.8868323724639892
5006000000.0 0.38643826258159086 0.8383914283086122
5009000000.0 0.4748696278791346 0.8920294341688811
5012000000.0 0.48210728001244796 0.9076987544757005
5016000000.0 0.5365267474289899 0.8682722367456635
5019000000.0 0.5311716860272898 0.8499368325623889
5022000000.0 0.5728341270380276 0.82179859278866
5025000000.0 0.5764222280279735 0.7854971855765113
5028000000.0 0.6051877957348966 0.7891758719406914
5031000000.0 0.6648858218454925 0.7575777369550915
5034000000.0 0.6583028368977157 0.7503101124370978
5038000000.0 0.6843171111833395 0.7274037109069728
5041000000.0 0.6934811828307581 0.6933532149609922
5044000000.0 0.7131803978590768 0.6801765243590475
5047000000.0 0.8120904573977861 0.6296654999933413
5050000000.0 0.8035426661489627 0.6324519589397457
5053000000.0 0.7807722363919445 0.5822092705523125
5056000000.0 0.8230850084432957 0.5584304820856991
5059000000.0 0.8844153198863693 0.5188655442794379
5062000000.0 0.841256395264147 0.5183736184803274
5066000000.0 0.8801340525741937 0.4518235536581522
5069000000.0 0.8870856422647635 0.4495159016686282
5072000000.0 0.9383913402250792 0.4852356269243993
5075000000.0 0.9202208957042765 0.3782075359783207
5078000000.0 0.9638638151191716 0.3990358565603491
5081000000.0 0.9383950811229654 0.3442263685530965
5084000000.0 0.9782898543761512 0.3067964764807028
5088000000.0 0.976810664883009 0.2689749198900611
5091000000.0 0.9976025927717691 0.21938745784632463
5094000000.0 0.9936423094710162 0.20335489316522515
5097000000.0 0.9836982365717638 0.18196147806862512
5100000000.0 0.9783489170717331 0.16755520171231383
5103000000.0 0.9821000837446918 0.12515322859252517
5106000000.0 1.016308158030545 0.10855881215963459
5109000000.0 0.9947222709026042 0.11608274608999142
5112000000.0 0.9776718703227056 0.0547184921537677
5116000000.0 1.0030833455848363 0.03176167276591549
5119000000.0 0.9931788047805465 -0.011405155864991023
5122000000.0 1.0353873447999078 0.005790529203702904
5125000000.0 1.0160054722783953 -0.06694235521772449
5128000000.0 0.9964906170024702 -0.10807442205089093
5131000000.0 0.9974461201026221 -0.11127905089362959
5134000000.0 1.0230525955963878 -0.16957084470815503
5138000000.0 0.9879914420562006 -0.17945846424210235
5141000000.0 1.0209190904847674 -0.15901708078493615
5144000000.0 1.0533086372279081 -0.239555109851707
5147000000.0 0.9653921410478302 -0.18294339478113492
5150000000.0 0.9477978710560983 -0.22352941631362977
5153000000.0 0.9711633706599871 -0.2919246606778793
5156000000.0 1.0135988038856956 -0.319156667158373
5159000000.0 0.9840769826900067 -0.32021198931115225
5162000000.0 0.9391722812403935 -0.33003829309628735
5166000000.0 0.9841064451274388 -0.4436827271165442
5169000000.0 0.9206169245629754 -0.397629268818771
5172000000.0 0.8877857836102779 -0.4378618273780702
5175000000.0 0.9714796912543064 -0.4321357330168699
5178000000.0 0.8783801852531508 -0.46918437361370546
5181000000.0 0.9400215188199946 -0.446733738781838
5184000000.0 0.8732338525177702 -0.5139789262245683
5188000000.0 0.8553638730364365 -0.47564930675078126
