! Created with skrf 1.8.0 (http://scikit-rf.org).
# Hz S RI R 50.0 
!freq ReS11 ImS11
4000000000.0 0.790830307939745 0.6856999105411428
4003000000.0 0.8577654514756944 0.6812895031321968
4006000000.0 0.8345861466450256 0.5536357981194692
4009000000.0 0.8132310030050123 0.6322607574806919
4012000000.0 0.8162377685096699 0.6416958031472361
4016000000.0 0.8655962434304009 0.5943979865729709
4019000000.0 0.8560567649867579 0.5642892496470905
4022000000.0 0.8631328436936291 0.614944217564765
4025000000.0 0.8670962400014626 0.5549867500676339
4028000000.0 0.878977484770034 0.526194155279538
4031000000.0 0.8077837160387601 0.5589808782795683
4034000000.0 0.8878971346557347 0.5290819395424721
4038000000.0 0.8829557814671126 0.5075300287321926
4041000000.0 0.8782488262259389 0.5335959552354548
4044000000.0 0.9257809031081801 0.5519370667506734
4047000000.0 0.8713073471252211 0.5890539038275848
4050000000.0 0.907265898648862 0.5093433346012263
4053000000.0 0.8976336825064377 0.5016263777143048
4056000000.0 0.9256825901434492 0.47933533395311356
4059000000.0 0.8905932233602498 0.4789181554711465
4062000000.0 0.9348599355861557 0.4545167766009323
4066000000.0 0.9038501473888945 0.44751591239077326
4069000000.0 0.976965455832 0.43387524860425264
4072000000.0 0.8800038992261937 0.4712443960828265
4075000000.0 0.9589918710886524 0.4816717706157168
4078000000.0 0.9350956706713843 0.41366313861634085
4081000000.0 0.9202586474481529 0.4542648773580923
4084000000.0 0.9508116705706677 0.41236288527918025
4088000000.0 0.9058805003021104 0.4211105098744211
4091000000.0 0.9533268947197554 0.39923183870230655
4094000000.0 0.9496209190144215 0.3970810722638519
4097000000.0 0.970690187017635 0.340949949201418
4100000000.0 0.9529337948307817 0.32997234623143507
4103000000.0 0.9498280898779041 0.3831081105862431
4106000000.0 0.9838593522061307 0.3065849037976467
4109000000.0 1.0003784757729122 0.3317030434591826
4112000000.0 0.958540302118341 0.3455879876299937
4116000000.0 1.0016875230039963 0.3266352934585375
4119000000.0 0.9909068307654784 0.3309046564439819
4122000000.0 0.940612812682129 0.2474460492031142
4125000000.0 0.9806881025681398 0.2869114730335068
4128000000.0 0.9401983026844745 0.2969878678763376
4131000000.0 0.9765486615667267 0.2811191021416283
4134000000.0 0.9508743473252419 0.2935223385429332
4138000000.0 0.9812914314919476 0.2196408731516461
4141000000.0 0.9736882682481744 0.24109938319079582
4144000000.0 0.9915933154543635 0.2542351818172454
4147000000.0 1.0127024946660845 0.2203437191809809
4150000000.0 1.02037947258596 0.19010715922221738
4153000000.0 0.9745394778532278 0.20961781405336166
4156000000.0 1.0040013135147101 0.2012703992479623
4159000000.0 0.9801821118597971 0.20471990382630695
4162000000.0 0.9990025886209113 0.17703350957403396
4166000000.0 1.0247715556541295 0.1817425477103054
4169000000.0 0.9953211349766683 0.1350098915456544
4172000000.0 1.0220029673823725 0.1466401155710066
4175000000.0 1.01541661073029 0.13681385147545377
4178000000.0 1.0117970593766588 0.1591195181326432
4181000000.0 0.9997981680047341 0.10300315967205731
4184000000.0 0.9881846651143125 0.1155022162638592
4188000000.0 0.9793487205826623 0.12430062053634378
4191000000.0 1.0108425889741413 0.10427183712050841
4194000000.0 1.0029806833538646 0.08283548623333686
4197000000.0 1.029963882283603 0.07264528539864429
4200000000.0 1.0173340287727581 0.09503390440340109
4203000000.0 1.0420099695879024 0.06595534151873023
4206000000.0 1.0257166456202897 0.05169377139052239
4209000000.0 0.9929144572005957 0.039269671072348744
4212000000.0 0.996822049525862 -0.00599527081710971
4216000000.0 1.0272221290479504 0.035004782466068474
4219000000.0 1.0305371481708865 0.007687095193961047
4222000000.0 1.0239629933973913 -0.00754031424078444
4225000000.0 1.0055118602996933 -0.01440668625993613
4228000000.0 1.0177958806409895 -0.028454017886777067
4231000000.0 1.0316228936905112 -0.0532902788667923
4234000000.0 1.030756465644758 -0.06900698714515399
4238000000.0 1.0079182663389297 -0.0845592799194131
4241000000.0 0.9879160611019466 -0.09808463832894315
4244000000.0 0.9883383941838666 -0.07546913964469866
4247000000.0 0.9886198563715966 -0.08256600401104792
4250000000.0 0.9820158479222447 -0.10772162151920005
4253000000.0 0.9774296198975867 -0.1091055071365237
4256000000.0 1.0364639067514834 -0.12600248032866174
4259000000.0 0.9585016460014051 -0.13775474242220956
4262000000.0 0.9964358499013675 -0.15034265288491
4266000000.0 1.0011827488401013 -0.17990235910920888
4269000000.0 1.0066590519586578 -0.15609250424986504
4272000000.0 0.9795196219475312 -0.15439411419952193
4275000000.0 1.0177871735700124 -0.17974722374674637
4278000000.0 1.0173858353426606 -0.18781150197939916
4281000000.0 1.0217921753000176 -0.1905516404003323
4284000000.0 0.985128669309668 -0.2491729417684253
4288000000.0 0.9701019789468048 -0.1776341254458033
4291000000.0 0.9508502432216591 -0.22162456238262535
4294000000.0 0.980325030454797 -0.2555479910347672
4297000000.0 0.9803862005358109 -0.22940320040381434
4300000000.0 0.9501589519448088 -0.24598685890806457
4303000000.0 0.9264332460855795 -0.2536618836694661
4306000000.0 0.9709618476160526 -0.24504804712425804
4309000000.0 0.9628391592046349 -0.2792605729690651
4312000000.0 0.9889358560075951 -0.2593595950259667
4316000000.0 0.9605920562605464 -0.29058416134616943
4319000000.0 0.9305437362439685 -0.3184775138191854
4322000000.0 0.9291918830589423 -0.3403375385523246
4325000000.0 0.9426475517671138 -0.316845227415073
4328000000.0 0.9331801623481687 -0.3410546475184675
4331000000.0 0.9429583060263054 -0.3878844378067259
4334000000.0 0.9416634473600856 -0.37043920892010496
4338000000.0 0.9274507597746815 -0.3676112440404957
4341000000.0 0.9656228638779081 -0.378854924511386
4344000000.0 0.9486322810574456 -0.38543987538865265
4347000000.0 0.9186869261957934 -0.43734682310015577
4350000000.0 0.8885684768908135 -0.42317786069093005
4353000000.0 0.8986014128760895 -0.406821507721041
4356000000.0 0.8723440261326069 -0.4606151666211715
4359000000.0 0.8561159347920267 -0.4412888755138413
4362000000.0 0.8837012167790861 -0.49675058192904553
4366000000.0 0.9059617618100273 -0.4928774029319062
4369000000.0 0.8551456273855778 -0.47233172308812865
4372000000.0 0.8509289847529946 -0.5191685416288001
4375000000.0 0.8908547531980482 -0.4860975488886783
4378000000.0 0.8356688376978554 -0.4880535779705633
4381000000.0 0.8435872525311652 -0.4999087623453491
4384000000.0 0.9022679318907556 -0.5618644483760517
4388000000.0 0.8455314453635395 -0.5272011459808029
4391000000.0 0.8509127403661347 -0.5449256445328721
4394000000.0 0.8232109108997692 -0.5622783017737645
4397000000.0 0.8266491295361584 -0.5694260783386668
4400000000.0 0.8434095609405781 -0.5931799221840289
4403000000.0 0.8271390709130086 -0.5942415148592731
4406000000.0 0.8161326825464188 -0.6051196801154011
4409000000.0 0.8293537139984886 -0.6212614120704276
4412000000.0 0.7649036921598639 -0.6375646298187361
4416000000.0 0.7728675012817483 -0.6123067658506774
4419000000.0 0.7785857238606896 -0.6445040407099942
4422000000.0 0.7965982539643583 -0.6263517945937377
4425000000.0 0.7962085075835947 -0.632543839264893
4428000000.0 0.7708219054579102 -0.6748067966449878
4431000000.0 0.7721161692804701 -0.6556738634198197
4434000000.0 0.7562450500596114 -0.6742675735795378
4438000000.0 0.7578126751845184 -0.6828805463713358
4441000000.0 0.7469455856224092 -0.69978506653712
4444000000.0 0.7259196151857731 -0.6944262754044829
4447000000.0 0.7260133771365218 -0.7097101097732267
4450000000.0 0.7087810844620117 -0.7100684639403959
4453000000.0 0.7204744765443695 -0.7291056397428359
4456000000.0 0.6924285846940833 -0.7326693671387586
4459000000.0 0.6667342724934403 -0.7243267911695297
4462000000.0 0.7139285020961752 -0.7624621091183521
4466000000.0 0.6948410760523956 -0.7895591100388815
4469000000.0 0.6727203446409926 -0.7633868387893596
4472000000.0 0.6470006835440772 -0.7938992316547396
4475000000.0 0.6290696605319293 -0.7690045858571855
4478000000.0 0.635235621958762 -0.7979578034269075
4481000000.0 0.5987755045623118 -0.7841179640946752
4484000000.0 0.5952297630731156 -0.8426461849032826
4488000000.0 0.6025182369343598 -0.825116482240921
4491000000.0 0.5999132149680195 -0.8152763404430148
4494000000.0 0.58675491243201 -0.8054197039362916
4497000000.0 0.5951970113599097 -0.8226596842600782
4500000000.0 0.5847680030514406 -0.8560195730756492
4503000000.0 0.5574489035596799 -0.8531610080538994
4506000000.0 0.5477014487677998 -0.8766813379066734
4509000000.0 0.5365314100099614 -0.8395835614093105
4512000000.0 0.5140004141165293 -0.8526272002287009
4516000000.0 0.5332650501332493 -0.885633271457684
4519000000.0 0.5034204033654496 -0.8757305800133101
4522000000.0 0.48822994316562585 -0.8914784014847476
4525000000.0 0.4982338540212988 -0.875307335339333
4528000000.0 0.4934993042794401 -0.9011537161466531
4531000000.0 0.47067253257727537 -0.8913446809939936
4534000000.0 0.44511534256255786 -0.9082712200768788
4538000000.0 0.4654659967258386 -0.9034881079228498
4541000000.0 0.40858249958071907 -0.8967836205876364
4544000000.0 0.4180493569759565 -0.9186051016834748
4547000000.0 0.39570851790428274 -0.9290150818369132
4550000000.0 0.400453109615138 -0.9570905835669048
4553000000.0 0.35593079874544875 -0.9203190740882528
4556000000.0 0.35992794986232657 -0.9408783261478535
4559000000.0 0.37437557043782294 -0.9561923133985779
4562000000.0 0.35565795962944313 -0.952052441911834
4566000000.0 0.34437731987931947 -0.9621707310596197
4569000000.0 0.3321548698453132 -0.972378907734299
4572000000.0 0.3225474307665489 -0.9806528508328068
4575000000.0 0.3037845349680152 -0.96502088197154
4578000000.0 0.2789979699319832 -0.9864702152213826
4581000000.0 0.27736381660329135 -0.9705127976077315
4584000000.0 0.2748688116882149 -0.9807031774046584
4588000000.0 0.2641914764218313 -0.9902340627357921
4591000000.0 0.2370353374149482 -0.982019992592752
4594000000.0 0.21346539038272005 -0.9881093389887937
4597000000.0 0.2224625772310932 -0.9822712709326771
4600000000.0 0.22341251179875793 -1.0169415009780927
4603000000.0 0.17402549653794075 -0.977808735091969
4606000000.0 0.19039780432049386 -1.0145836466383573
4609000000.0 0.18559876464156538 -0.9946785895039832
4612000000.0 0.15467413594557766 -0.9779271895008043
4616000000.0 0.12341409560282418 -0.9966549659091154
4619000000.0 0.12270070653704233 -0.9858787390789318
4622000000.0 0.09086438089515504 -1.0110198186233947
4625000000.0 0.08942396394007548 -1.0125747447516409
4628000000.0 0.0911932876120852 -1.0789618065219828
4631000000.0 0.09076742717239711 -1.0280933901021765
4634000000.0 0.07033760665623714 -1.0160846118458506
4638000000.0 0.06876819533051311 -1.0102752965025912
4641000000.0 0.050670488776740054 -0.9960371604490718
4644000000.0 0.04855374376851952 -1.0016816701812723
4647000000.0 0.03433029609920037 -1.0165638495604894
4650000000.0 0.0008073988031351703 -1.0151619215464214
4653000000.0 -0.01020174827984345 -1.036890264430985
4656000000.0 -0.02250261638348315 -1.034646153934386
4659000000.0 -0.053187641644329736 -1.0273459875022501
4662000000.0 -0.0673580881991146 -1.0522321124156173
4666000000.0 -0.10115767608212574 -1.0645253321383035
4669000000.0 -0.10576059305681063 -1.0208896408204318
4672000000.0 -0.10504690779313842 -1.0431203685210955
4675000000.0 -0.10851888808303853 -1.0219511354765924
4678000000.0 -0.14723745836183805 -0.9716518359986362
4681000000.0 -0.13224197747099092 -1.0063393080637462
4684000000.0 -0.18106845908015096 -1.0588774405212893
4688000000.0 -0.19428431903023047 -1.0322956813309048
4691000000.0 -0.15581305921143515 -1.0629864637713555
4694000000.0 -0.1467850627372637 -1.0184352456398744
4697000000.0 -0.22089381032143796 -0.9327573235993059
4700000000.0 -0.19499673704148904 -0.9778759487108235
4703000000.0 -0.12636219030098628 -0.9442690333454102
4706000000.0 -0.26496928584816476 -0.9800353189577684
4709000000.0 -0.2400960351596383 -0.9736079671817822
4712000000.0 -0.21093438192219421 -1.0106448226221931
4716000000.0 -0.30142205549432277 -1.0129607346239882
4719000000.0 -0.2535665669303233 -1.007632757552536
4722000000.0 -0.2577216043454003 -0.9827780842419378
4725000000.0 -0.28963058105216255 -0.975285847500542
4728000000.0 -0.34714224962595647 -0.9679790090916893
4731000000.0 -0.36235938446612587 -1.0079425759468839
4734000000.0 -0.30715885658804065 -0.9858301189742694
4738000000.0 -0.3430804025750905 -1.0321417771579766
4741000000.0 -0.4227480996724352 -1.030493073695514
4744000000.0 -0.42484821380512006 -0.9611714152899509
4747000000.0 -0.35580984085083245 -0.9373034178908553
4750000000.0 -0.4036696074673302 -0.9419886615858973
4753000000.0 -0.42962653868462275 -0.9539839413446436
4756000000.0 -0.4701018332335236 -0.937637167336328
4759000000.0 -0.4606166758469436 -0.9665925483305821
4762000000.0 -0.509254594043846 -0.9590028163486017
4766000000.0 -0.4690945559798127 -0.900533999383926
4769000000.0 -0.5197914628877081 -0.9037360717868145
4772000000.0 -0.4925795116819567 -0.9118303825975771
4775000000.0 -0.579002701739582 -0.9203259093417858
4778000000.0 -0.5831749652773808 -0.8901436259833495
4781000000.0 -0.5560207818010947 -0.8496306975136175
4784000000.0 -0.5744756646137971 -0.8881609151304052
4788000000.0 -0.602992167382512 -0.8647165325344691
4791000000.0 -0.5535431292459583 -0.8389853196295275
4794000000.0 -0.5934115968848634 -0.8775767807735979
4797000000.0 -0.5997338738499935 -0.8228276238387573
4800000000.0 -0.6143215259837768 -0.8143732500933109
4803000000.0 -0.6775277977293739 -0.7892605530499242
4806000000.0 -0.676321179962882 -0.822531693123988
4809000000.0 -0.7184269922915675 -0.7555924651906357
4812000000.0 -0.7187992773410643 -0.7441891756355826
4816000000.0 -0.6485307135253818 -0.7939814550147908
4819000000.0 -0.6829075358428545 -0.8044049275084102
4822000000.0 -0.7150854689286337 -0.7999897830241922
4825000000.0 -0.7256943201141635 -0.7929481193494845
4828000000.0 -0.7264484148488961 -0.7102696798176423
4831000000.0 -0.7729959608131307 -0.697525643182843
4834000000.0 -0.7576279480943928 -0.7219666138320548
4838000000.0 -0.80142171510109 -0.6908643489621196
4841000000.0 -0.7687173181729391 -0.6655590685777796
4844000000.0 -0.8087228507672586 -0.7261814615375037
4847000000.0 -0.7602160526022895 -0.6665831768014746
4850000000.0 -0.8567156298826832 -0.6372527967958681
4853000000.0 -0.8290036720404768 -0.6046161695236354
4856000000.0 -0.8389910031852648 -0.6281148426336471
4859000000.0 -0.9074150081247715 -0.5738808626042955
4862000000.0 -0.8212311116852004 -0.6281689381010884
4866000000.0 -0.8722723045100986 -0.5730435984965798
4869000000.0 -0.8764029960456894 -0.566826158171139
4872000000.0 -0.9192675392643719 -0.5573620816455144
4875000000.0 -0.9319058308891733 -0.5940714951337803
4878000000.0 -0.9049404102919896 -0.4915763131394673
4881000000.0 -0.956447183326982 -0.5057743102865639
4884000000.0 -0.9111893375045528 -0.5281829878515504
4888000000.0 -0.9294543561344734 -0.5062888443834478
4891000000.0 -0.9590930979199571 -0.45085458071800677
4894000000.0 -0.9512828102261043 -0.42860770298600065
4897000000.0 -0.9494814184195647 -0.38650429235727507
4900000000.0 -0.9526977438623074 -0.4173970389714141
4903000000.0 -0.9710536879928421 -0.3879177997973263
4906000000.0 -0.9682027113092939 -0.361045037354762
4909000000.0 -0.972501070004098 -0.34276548440060667
4912000000.0 -1.002230678327351 -0.28787155058542424
4916000000.0 -0.9891746123554601 -0.2657191149844471
4919000000.0 -0.9745690210551131 -0.323067159476287
4922000000.0 -0.9427913182290018 -0.2832005628001086
4925000000.0 -0.9859691362992459 -0.2546710769751185
4928000000.0 -0.9927695268565615 -0.2801146395767235
4931000000.0 -1.0097043817875202 -0.22661503114237955
4934000000.0 -1.006025249275446 -0.1861546906087016
4938000000.0 -1.0349760634643081 -0.12292490053387431
4941000000.0 -0.9970955758532482 -0.15581240154599235
4944000000.0 -1.0283821332019671 -0.13813242930350322
4947000000.0 -1.0417991735411274 -0.11187762809522578
4950000000.0 -1.028360131156505 -0.10403681247480488
4953000000.0 -1.024450992402768 -0.07077370144594453
4956000000.0 -1.0296012832362582 -0.07863454998849623
4959000000.0 -1.039312520278256 0.0012093930808150521
4962000000.0 -1.060544102296412 0.010011397974917846
4966000000.0 -1.0555920803330547 0.0023822991602861915
4969000000.0 -1.0612107404669584 0.055375727722371426
4972000000.0 -0.9775654003886683 0.0559536950152312
4975000000.0 -1.0555664520305794 0.11640524024926432
4978000000.0 -1.0219231596771847 0.13605891861875236
4981000000.0 -0.9994119823383837 0.14805639903360243
4984000000.0 -1.0101395786729186 0.16477795371438556
4988000000.0 -1.0341418793342303 0.16990612581204956
4991000000.0 -1.0273360275931382 0.21748260501386676
4994000000.0 -0.9917414472938679 0.24844725662928607
4997000000.0 -1.0140754002860912 0.27621565353854105
5000000000.0 -0.9874338358142313 0.28650410641945184
5003000000.0 -0.971726185119806 0.31807475056952017
5006000000.0 -0.9564586479578366 0.326181726611718
5009000000.0 -0.9527184431957061 0.3955374283671925
5012000000.0 -1.0254498878886649 0.42556120590377694
5016000000.0 -0.9366828369345499 0.3920978551004705
5019000000.0 -0.9437543013600017 0.4335549277606908
5022000000.0 -0.9383169519599383 0.49564474037366607
5025000000.0 -0.878332485492942 0.4542234518646385
5028000000.0 -0.8713527228686985 0.4563766014587529
5031000000.0 -0.8983153124695966 0.5401603979920924
5034000000.0 -0.9115321635992916 0.5322470115078229
5038000000.0 -0.8806707557431688 0.5372293149842591
5041000000.0 -0.8286889737003005 0.5656591045252297
5044000000.0 -0.810498153084081 0.57149309737517
5047000000.0 -0.7766055244565051 0.6452017446299284
5050000000.0 -0.7805165586800998 0.679626355029018
5053000000.0 -0.7061760897562973 0.6558494775816952
5056000000.0 -0.7004082232085727 0.7127364104967727
5059000000.0 -0.7116246331409655 0.7487060594000366
5062000000.0 -0.7061996145923825 0.7729254628685548
5066000000.0 -0.6628748241097369 0.8318136480870495
5069000000.0 -0.6611253884758606 0.7739704165995344
5072000000.0 -0.7196742085270433 0.8079880897575586
5075000000.0 -0.5663793668309279 0.7881461880085063
5078000000.0 -0.6342743073865296 0.8008217254550545
5081000000.0 -0.540013291483896 0.8811924846976311
5084000000.0 -0.476777587703922 0.7985216493980312
5088000000.0 -0.4719364450301725 0.8708269099535442
5091000000.0 -0.4543566715194732 0.8746197266646172
5094000000.0 -0.3757656177179552 0.9089341683604665
5097000000.0 -0.3037300174903955 0.8892597575064762
5100000000.0 -0.31703942277709124 0.9473782953931231
5103000000.0 -0.294882080306799 0.9717207906016226
5106000000.0 -0.25766959952474117 0.9164973954167015
5109000000.0 -0.27933859675849243 0.959153858821374
5112000000.0 -0.2328145515150298 0.9638391596362843
5116000000.0 -0.23024989928933032 1.0255978464056723
5119000000.0 -0.08833131968016168 1.0227727188889488
5122000000.0 -0.04839820519759083 1.0165306707001542
5125000000.0 -0.1767822181600606 0.9401523010214834
5128000000.0 -0.0891814816805378 0.9981035784200409
5131000000.0 -0.05092373343595992 1.0899889709551485
5134000000.0 0.04053649812667708 0.9672517482876168
5138000000.0 0.03573962203129259 0.9653281332101302
5141000000.0 0.057863684020456885 1.0397240655405187
5144000000.0 0.16652697012193446 0.9514238782490985
5147000000.0 0.1477395791613499 1.0180193508695847
5150000000.0 0.18287834288038352 0.9988420100189792
5153000000.0 0.2487550611005614 1.0754050551298573
5156000000.0 0.2240841538007658 0.9497584584035108
5159000000.0 0.29930495949084707 0.9411657278725607
5162000000.0 0.3622281940160154 0.9325802207310492
5166000000.0 0.310646839767534 0.9532014826648465
5169000000.0 0.3727035921009304 0.8824518905458018
5172000000.0 0.4192418444735184 0.9226182123027565
5175000000.0 0.42730312276092064 0.8997180620303113
5178000000.0 0.5131207136297686 0.8961145957574069
5181000000.0 0.5286530233605439 0.8409040884504548
5184000000.0 0.5507748411350084 0.8450032644861297
5188000000.0 0.591610746987563 0.8329317302832386
