! Created with skrf 1.8.0 (http://scikit-rf.org).
# Hz S RI R 50.0 
!freq ReS11 ImS11
4000000000.0 0.617362962496237 0.8359122042681071
4003000000.0 0.6705963475168857 0.9059175220046695
4006000000.0 0.7018132932465881 0.7705904337937666
4009000000.0 0.6727910667731968 0.8702995262100433
4012000000.0 0.6529051540980007 0.8370371348043736
4016000000.0 0.6981131334276575 0.7996564899607159
4019000000.0 0.6739481526323756 0.739327304964462
4022000000.0 0.6657667981378605 0.8091348172065398
4025000000.0 0.7561746439914127 0.7532230366579518
4028000000.0 0.7103207819382523 0.7703764365294359
4031000000.0 0.6270368138930964 0.7393392436522789
4034000000.0 0.7071270905953021 0.7498949401473121
4038000000.0 0.741639418608421 0.7159099122506812
4041000000.0 0.7533714252269718 0.7334088177422375
4044000000.0 0.7855469736159745 0.7625493120949138
4047000000.0 0.7272026920393868 0.7380196682880167
4050000000.0 0.7969778674867767 0.7117484674167053
4053000000.0 0.7511353441407583 0.6885762486932223
4056000000.0 0.7580847309692386 0.7445777367469647
4059000000.0 0.7197630238719035 0.6990647516551329
4062000000.0 0.7759371833613733 0.6644120849247139
4066000000.0 0.719894044500573 0.6372078056159223
4069000000.0 0.8173710105652088 0.7011503721066807
4072000000.0 0.7921431000880199 0.7322335132642002
4075000000.0 0.7680108746182693 0.7199241603048694
4078000000.0 0.812653307698056 0.6613381980835824
4081000000.0 0.7854722252384803 0.7292500764078298
4084000000.0 0.834206896588115 0.6413501839152254
4088000000.0 0.7976549788524675 0.7059414935420366
4091000000.0 0.8741027069495914 0.6971070673243525
4094000000.0 0.7999050505045971 0.6474987832398315
4097000000.0 0.825366301450579 0.6341097563649833
4100000000.0 0.8579327713071637 0.5767208842119873
4103000000.0 0.8629599601564242 0.6223110304242523
4106000000.0 0.835044158700695 0.5911942997534193
4109000000.0 0.8744981381437735 0.609956111543958
4112000000.0 0.8453860040045533 0.5775428337193478
4116000000.0 0.860161433141656 0.6165596132753319
4119000000.0 0.8480596835773306 0.5416139194379808
4122000000.0 0.8860859952196816 0.5389713443434544
4125000000.0 0.905050886699818 0.5777338251839721
4128000000.0 0.8354875204679524 0.5600754100734964
4131000000.0 0.8440603040139957 0.5266638803632736
4134000000.0 0.8649117412163395 0.5476971129093248
4138000000.0 0.8731988975022913 0.48613145236964156
4141000000.0 0.9127820005945809 0.5103281634274224
4144000000.0 0.9001025643547448 0.5471336259152475
4147000000.0 0.8907731385855266 0.501460573300629
4150000000.0 0.9331552754925881 0.545056523178292
4153000000.0 0.8936093727321636 0.49930001620337705
4156000000.0 0.9180684975024567 0.4938739165396747
4159000000.0 0.9017049063890181 0.4895992771183019
4162000000.0 0.9298509121316241 0.4844391413486856
4166000000.0 0.9320485520249295 0.47300531442056704
4169000000.0 0.8936536933055674 0.40078440475903854
4172000000.0 0.9474248392214933 0.47059851704103056
4175000000.0 0.8974646761419602 0.42411889315002554
4178000000.0 0.9513788604230284 0.46218206461196976
4181000000.0 0.9381314524041149 0.43763106699292087
4184000000.0 0.9500931301654578 0.41216645858206163
4188000000.0 0.9416246580046779 0.40269906485802587
4191000000.0 0.9448726934595387 0.42264635804679357
4194000000.0 0.9088653430453852 0.36856299194474673
4197000000.0 0.9607159422206168 0.3887217647659766
4200000000.0 0.928048362152649 0.38966062150348724
4203000000.0 0.966554577350061 0.4092051994914966
4206000000.0 0.9710023951656301 0.3752895286088576
4209000000.0 0.9334112397394333 0.3593138930350161
4212000000.0 0.9459372726442858 0.3375906218957554
4216000000.0 0.9616251724007999 0.3707441362244212
4219000000.0 0.9772887400949912 0.3404062037559228
4222000000.0 0.9736094015086116 0.30640463093044784
4225000000.0 0.9618069366655886 0.330572917626456
4228000000.0 0.9687142689177666 0.3277758278018428
4231000000.0 0.9748129975269526 0.3123251693016622
4234000000.0 1.0045256049721227 0.29335619649132283
4238000000.0 1.0015309036397833 0.26076253425966667
4241000000.0 0.9895822839439741 0.2729077399358789
4244000000.0 0.978152426564729 0.276886395913087
4247000000.0 0.9714664201806178 0.26770974536920544
4250000000.0 0.9758137008689995 0.24265188998014797
4253000000.0 0.9860091781187854 0.22633855694371652
4256000000.0 1.0071518903902175 0.235022990908186
4259000000.0 0.9824184552615781 0.20932694969661889
4262000000.0 0.9712940693596965 0.21600608463874485
4266000000.0 1.0215181791183974 0.19399274710720155
4269000000.0 1.0032572105041797 0.19229144574726817
4272000000.0 0.9833822160564414 0.1920773585912678
4275000000.0 1.0115686047218206 0.18211469906712968
4278000000.0 1.0152226620172395 0.1815133815232024
4281000000.0 1.0131322535418539 0.17859139491397036
4284000000.0 1.0302255692827855 0.13547246407754893
4288000000.0 0.9907085737367064 0.1545971578233655
4291000000.0 0.998532611739298 0.13679652945791498
4294000000.0 0.9920125348728157 0.12202069433142161
4297000000.0 1.0154080644881718 0.13737431796387434
4300000000.0 1.0069860375525335 0.1141848174110538
4303000000.0 1.0048951938018784 0.08398600339073135
4306000000.0 1.004459336558448 0.1192120577556384
4309000000.0 0.9998402797361324 0.11032199448337095
4312000000.0 1.0372728441776202 0.11568034868486285
4316000000.0 1.0435354086860829 0.09371760456560917
4319000000.0 0.994130002881447 0.07739812313076157
4322000000.0 0.9790366391445783 0.02324223963858281
4325000000.0 1.008863718578959 0.05849110931306915
4328000000.0 1.003689508673458 0.0726939056875164
4331000000.0 1.0236620576304547 0.03070588125485238
4334000000.0 1.0609730463363407 -0.003358658840039455
4338000000.0 1.0132526946175218 0.022853159305667933
4341000000.0 1.0468222677323613 0.029259358460209856
4344000000.0 1.0232972400688585 0.015556649373045878
4347000000.0 1.042410579028847 -0.030242964472098954
4350000000.0 0.974673183281949 -0.02183784763179708
4353000000.0 0.9975516172973815 -0.017939063929895416
4356000000.0 0.9804727711877482 -0.05512665803776447
4359000000.0 0.9780382907768049 -0.03705149099521485
4362000000.0 1.0242021249157787 -0.12112768911914344
4366000000.0 1.0214710861581568 -0.06901811411348707
4369000000.0 0.9859721422173355 -0.09158485582588563
4372000000.0 0.9988031540707301 -0.13412549858888606
4375000000.0 0.9984402087501685 -0.08046443300825816
4378000000.0 0.9833733547051945 -0.07207764799849115
4381000000.0 0.9922340601242987 -0.10047182971964959
4384000000.0 1.0682717656654803 -0.13358965249203758
4388000000.0 0.9836957977228438 -0.12013932574689924
4391000000.0 1.0302831663452998 -0.1266469491347825
4394000000.0 0.9755716942415271 -0.15710848412120199
4397000000.0 0.9949685613101951 -0.16218534379446597
4400000000.0 1.0251642520525557 -0.17000105524844922
4403000000.0 1.0012928544683346 -0.1549503597148192
4406000000.0 1.0017815472669145 -0.20369602113539093
4409000000.0 1.0238611234496535 -0.21205355928321726
4412000000.0 0.9699247576672662 -0.25341185325005866
4416000000.0 0.9758515902325349 -0.22024832529326172
4419000000.0 0.9881341130664074 -0.23551063467822006
4422000000.0 0.9677133196668077 -0.21377117864819392
4425000000.0 1.0073025089299645 -0.2163953179734718
4428000000.0 0.9790745192792277 -0.24167841732521506
4431000000.0 0.9850428323428615 -0.246140059227146
4434000000.0 0.9718427216317469 -0.268248965389561
4438000000.0 1.0049961754438919 -0.2616806525370692
4441000000.0 0.9848678791701091 -0.27023023296943155
4444000000.0 0.9572244543108677 -0.26896437717466404
4447000000.0 0.9485813510360038 -0.31176641732660654
4450000000.0 0.960446041649181 -0.28148486197023953
4453000000.0 0.9835742092193802 -0.3141870620260294
4456000000.0 0.9208147427806685 -0.32835169578028717
4459000000.0 0.9054492460117178 -0.3148544512505329
4462000000.0 1.0066137347085335 -0.3534528110518993
4466000000.0 0.9860735526848547 -0.3647636706502982
4469000000.0 0.9504729457670683 -0.3219853660398133
4472000000.0 0.9721842403764098 -0.38113988450634223
4475000000.0 0.9077266314799618 -0.3531024844788127
4478000000.0 0.9705956495103211 -0.413750926520994
4481000000.0 0.8990765487039284 -0.3839737181295787
4484000000.0 0.9175661549328276 -0.42932428279131785
4488000000.0 0.9186379159558128 -0.39209945121258805
4491000000.0 0.9447645447674143 -0.3999070752268464
4494000000.0 0.9146695326089113 -0.40460199717821355
4497000000.0 0.9168821468728614 -0.41432226976033143
4500000000.0 0.9204997067096747 -0.4298473967911081
4503000000.0 0.9268264626513412 -0.4529044029307091
4506000000.0 0.9025666517359263 -0.4443644252901915
4509000000.0 0.8979508768522961 -0.4492337997223067
4512000000.0 0.8901685783150346 -0.4611958243140146
4516000000.0 0.9050676425281992 -0.47371598694874034
4519000000.0 0.8861443147267432 -0.4635892272747661
4522000000.0 0.8796515910762999 -0.47595871891921543
4525000000.0 0.897291176070059 -0.4461054514634245
4528000000.0 0.9082788736801402 -0.5044131851974533
4531000000.0 0.8635851865139472 -0.4946000320614077
4534000000.0 0.8635775945325437 -0.5181368509213332
4538000000.0 0.848015223495717 -0.5217994953477075
4541000000.0 0.8321022843638214 -0.5393774490442129
4544000000.0 0.8470116663649898 -0.5364276132607393
4547000000.0 0.8633094948581063 -0.5179346878389561
4550000000.0 0.844173175162676 -0.5727189152378697
4553000000.0 0.8391814452901227 -0.5701090742919833
4556000000.0 0.7894398282498098 -0.5857297559293241
4559000000.0 0.8043998133943822 -0.592293736232625
4562000000.0 0.8325416456820345 -0.5846965043239142
4566000000.0 0.8304056540617404 -0.6043111595046762
4569000000.0 0.7962219204341112 -0.5790125858431074
4572000000.0 0.8120279157667677 -0.5976441875857088
4575000000.0 0.795981922956678 -0.6361212716340285
4578000000.0 0.8421283397454054 -0.6334076240527562
4581000000.0 0.777793153919851 -0.6508936528164253
4584000000.0 0.7833114976330651 -0.6372281136478765
4588000000.0 0.7990098426638456 -0.6358146554522013
4591000000.0 0.7806192854232855 -0.6347308643145486
4594000000.0 0.7601063316122056 -0.6747701312085694
4597000000.0 0.781404721515683 -0.6769073629976062
4600000000.0 0.7240325188263818 -0.6738182846181573
4603000000.0 0.759572396026388 -0.6771450871830907
4606000000.0 0.7435411498967407 -0.6702158428882762
4609000000.0 0.7323096419869051 -0.6731392921723676
4612000000.0 0.7458367377066385 -0.707009574048346
4616000000.0 0.7104273698284129 -0.6924304945261455
4619000000.0 0.7242257871638268 -0.7225270753090649
4622000000.0 0.7148340087553517 -0.7170422019264522
4625000000.0 0.6776425749864877 -0.7274109773467891
4628000000.0 0.7162286073325725 -0.7093504777285227
4631000000.0 0.6566022628218402 -0.7321653661144503
4634000000.0 0.681353383128197 -0.7427601357761994
4638000000.0 0.6829951431635682 -0.7474166563071508
4641000000.0 0.6929471094658708 -0.7579816329124682
4644000000.0 0.6690762257561736 -0.7610948507146343
4647000000.0 0.6595164825136437 -0.7663171406793645
4650000000.0 0.6479596007405971 -0.7810782970748472
4653000000.0 0.6772358503609417 -0.7814032458389348
4656000000.0 0.6394972686571214 -0.789853061870698
4659000000.0 0.6179748380542612 -0.7891739188663172
4662000000.0 0.6339572316025551 -0.8065862314241322
4666000000.0 0.6059285930770711 -0.8086903945997004
4669000000.0 0.6458067400454388 -0.814010289055971
4672000000.0 0.5993209634349991 -0.8292984737903706
4675000000.0 0.578804246418898 -0.8307687003412167
4678000000.0 0.5781427416761805 -0.8231550312979444
4681000000.0 0.5737325674657519 -0.8625088630743967
4684000000.0 0.5562410547743242 -0.837386241852181
4688000000.0 0.5444141077151525 -0.8273570325514333
4691000000.0 0.587977176884754 -0.8426300086375464
4694000000.0 0.5728772953127095 -0.8501645840125605
4697000000.0 0.5180787950736898 -0.8296084959621988
4700000000.0 0.5655312555913877 -0.8493141324606794
4703000000.0 0.5628530175566702 -0.8257838914639153
4706000000.0 0.5043153935736009 -0.8807468434154401
4709000000.0 0.5083443127713138 -0.8747835296903347
4712000000.0 0.5144488513709976 -0.8826435198855834
4716000000.0 0.5008470792219268 -0.9099000357469706
4719000000.0 0.5246101540672903 -0.8927380063329883
4722000000.0 0.5196405737696648 -0.8838782664696214
4725000000.0 0.4701399152571416 -0.8805739783651775
4728000000.0 0.43255032915167524 -0.889805668204565
4731000000.0 0.5261880143268685 -0.9118721213465075
4734000000.0 0.4723905164828643 -0.8851105166107063
4738000000.0 0.47088968097456635 -0.9409781838301639
4741000000.0 0.4515550616402854 -0.9532938940037734
4744000000.0 0.4363260409041125 -0.9364879042858809
4747000000.0 0.44217360219103663 -0.9000658225217204
4750000000.0 0.44332182464730385 -0.9242514047841464
4753000000.0 0.4160081041064034 -0.9382824536101052
4756000000.0 0.4016797757632502 -0.9319466924010282
4759000000.0 0.4165786426868258 -0.9391317172191107
4762000000.0 0.3536402127759031 -0.9552674710574033
4766000000.0 0.3793287804360087 -0.9654042685388207
4769000000.0 0.3808506391788341 -0.973761725822294
4772000000.0 0.35446167793233563 -0.9585767160113873
4775000000.0 0.3371882668538972 -0.9973193640291924
4778000000.0 0.3593550474108708 -0.9672968908483167
4781000000.0 0.3425705646019165 -0.9440334471936989
4784000000.0 0.368980506480407 -0.9783952629279787
4788000000.0 0.31911341902781604 -0.9741246870209772
4791000000.0 0.3320996486070996 -0.9687077223292156
4794000000.0 0.34198746288530635 -1.01780202380047
4797000000.0 0.2887960983817649 -0.9590772342911428
4800000000.0 0.28622347685410365 -0.948018611599657
4803000000.0 0.23929707499357827 -1.0003637116719817
4806000000.0 0.28055275370816896 -1.0056535167991603
4809000000.0 0.2202033750672466 -0.9979300051429539
4812000000.0 0.2051643487406904 -0.998101212355142
4816000000.0 0.2780090041728513 -0.9631790081868812
4819000000.0 0.2430629200192561 -0.9968255865059306
4822000000.0 0.24926437967655504 -1.007028804342083
4825000000.0 0.2709204581463375 -1.0300847522456897
4828000000.0 0.2066316237225852 -0.9885334742238118
4831000000.0 0.16141335073183555 -1.0392332558684283
4834000000.0 0.21983135443727325 -1.0121007715730137
4838000000.0 0.20311600198968388 -1.0322289366908632
4841000000.0 0.17488546419589196 -1.0149887967901279
4844000000.0 0.1980687730216665 -0.9921450071585497
4847000000.0 0.17129662701203655 -0.9768191717758246
4850000000.0 0.14330460779741053 -1.0205372984333403
4853000000.0 0.15540746828544005 -0.9932089524478598
4856000000.0 0.13742501751428526 -0.9984304758655843
4859000000.0 0.12879685172422126 -1.0481753295989367
4862000000.0 0.15579842058841376 -0.9766225114203185
4866000000.0 0.09750860303626219 -1.0331842018246797
4869000000.0 0.09108556406924549 -1.0115142203882665
4872000000.0 0.08894593120482004 -1.0610647804407856
4875000000.0 0.14466485384871836 -1.074188411659677
4878000000.0 0.07666386320196772 -1.027458489059544
4881000000.0 0.06330408946639579 -1.0900586012467157
4884000000.0 0.08875102378391157 -1.0233254962953329
4888000000.0 0.09507631382607198 -1.0077695576877113
4891000000.0 0.09848058920023693 -1.0438555506106455
4894000000.0 0.030366816179352052 -1.0225173099534
4897000000.0 0.06887510568117566 -1.007295930735501
4900000000.0 0.03932453624404618 -1.0526634676911586
4903000000.0 0.059617785825486214 -1.0246964614079386
4906000000.0 0.029597941715176317 -1.0653594113577898
4909000000.0 -0.005726326042081096 -1.0502409409071787
4912000000.0 -0.024275586536033504 -1.0557984745261013
4916000000.0 0.0100656984285084 -1.0507058441693373
4919000000.0 0.02041735221054152 -1.049516391399179
4922000000.0 0.020052270543469225 -1.0380881946801248
4925000000.0 -0.04481370262634786 -1.0346716895640664
4928000000.0 -0.008755437870464719 -1.0237124512011724
4931000000.0 0.023212948734051275 -1.0553350137925417
4934000000.0 -0.06521996722342692 -0.981042986853201
4938000000.0 -0.07380431902987515 -1.012527944793791
4941000000.0 -0.0877940993304326 -1.0150933730224052
4944000000.0 -0.06262873235235492 -0.9559358532546729
4947000000.0 -0.08446965658643935 -1.0245222484323835
4950000000.0 -0.11279189188418966 -0.9956664076693688
4953000000.0 -0.15248624944227723 -1.0639289623877706
4956000000.0 -0.15919910586712105 -1.0344144248834153
4959000000.0 -0.14675736719436852 -0.9794888268699458
4962000000.0 -0.15346347313027772 -1.0546001108466332
4966000000.0 -0.11941194137271038 -1.0550445892451565
4969000000.0 -0.1217516171420383 -1.0549042450796102
4972000000.0 -0.1805384615325563 -1.0170019339665577
4975000000.0 -0.16740839188647802 -1.0272134724622155
4978000000.0 -0.19776142909549477 -1.0335252375510735
4981000000.0 -0.21596795930700327 -1.0403277002384403
4984000000.0 -0.18720500279844368 -0.9777932686184913
4988000000.0 -0.18130975802879035 -1.0039150172015798
4991000000.0 -0.1781537231518292 -1.0446122351134992
4994000000.0 -0.20735622563173567 -1.0154694147869368
4997000000.0 -0.2601910841180398 -0.983753375321246
5000000000.0 -0.23820568977048873 -1.0183729100263652
5003000000.0 -0.2514831134563347 -1.0306294082539669
5006000000.0 -0.2353857332488495 -1.0370552920793255
5009000000.0 -0.23535728509226458 -1.00493769831935
5012000000.0 -0.28338145643814067 -1.0016897262368352
5016000000.0 -0.22469416487247418 -1.0106224924461942
5019000000.0 -0.27178680628713525 -0.9971316886741308
5022000000.0 -0.2820316934341869 -1.0040798726101392
5025000000.0 -0.3435858447160622 -1.0546742319728415
5028000000.0 -0.3433947666599356 -0.9935384574745281
5031000000.0 -0.32951349296096955 -1.0022854402447792
5034000000.0 -0.3705728927535663 -1.0174581527163697
5038000000.0 -0.3400098056223029 -0.9309548949619584
5041000000.0 -0.31792454526124825 -0.9960096977600675
5044000000.0 -0.3153719484235229 -1.0097045996411254
5047000000.0 -0.3578982084456312 -0.9776547175271667
5050000000.0 -0.2718557860545209 -0.9763519702212899
5053000000.0 -0.3980956000144523 -1.0184541437883945
5056000000.0 -0.335458951273341 -1.0177369040429294
5059000000.0 -0.32493051910777276 -0.9872778528699363
5062000000.0 -0.41759228665266324 -0.9526237178586379
5066000000.0 -0.34972456594655177 -0.995093926659492
5069000000.0 -0.41444048139499035 -0.989096662785162
5072000000.0 -0.4125334393578196 -0.9145885918910093
5075000000.0 -0.3903045456175145 -1.0066536572065843
5078000000.0 -0.4376605478102887 -0.9393338667808333
5081000000.0 -0.420068920174062 -0.9015929843268308
5084000000.0 -0.4065742335985489 -0.9568887721326271
5088000000.0 -0.4315188694697125 -0.9250333438136671
5091000000.0 -0.5009036193506549 -0.900510704562379
5094000000.0 -0.408146316306721 -0.9687590227551063
5097000000.0 -0.42493347463540254 -0.9525663181143904
5100000000.0 -0.4622286387345436 -0.9129951158802326
5103000000.0 -0.5046311257680597 -0.9312620777660746
5106000000.0 -0.5220115011710089 -0.9447374355831133
5109000000.0 -0.45184305191741775 -0.9583894947804574
5112000000.0 -0.5146106987720716 -0.9208238384402883
5116000000.0 -0.4807401701463233 -0.8909935002997547
5119000000.0 -0.5438784561403943 -0.9345823884270155
5122000000.0 -0.44647809315766923 -0.858423191116003
5125000000.0 -0.49062904665578305 -0.9139113588825137
5128000000.0 -0.546228955220422 -0.9002644344921673
5131000000.0 -0.5525544841780456 -0.9070627118942872
5134000000.0 -0.5160209847537274 -0.8964987950973999
5138000000.0 -0.5690686020367057 -0.8935495097652725
5141000000.0 -0.5164666339113695 -0.9208526016221337
5144000000.0 -0.5536777752868912 -0.8701747375279643
5147000000.0 -0.5773835610794289 -0.8833235122589931
5150000000.0 -0.5681817155177789 -0.8787021859744336
5153000000.0 -0.6154735178503785 -0.9062235964452986
5156000000.0 -0.5840062794513741 -0.8304655484186624
5159000000.0 -0.5855726875992628 -0.8724303680938972
5162000000.0 -0.6216341967109638 -0.8133072745830661
5166000000.0 -0.6291150244884858 -0.7811866736951549
5169000000.0 -0.6671936010575042 -0.8381073170982866
5172000000.0 -0.5892288452365173 -0.8538074609518751
5175000000.0 -0.6204951704813564 -0.8493637665939396
5178000000.0 -0.6527527398553559 -0.7934796455806111
5181000000.0 -0.6350643083828895 -0.861773160950916
5184000000.0 -0.6526166939768911 -0.7964406379303488
5188000000.0 -0.6472067790016367 -0.8367552720217327
