! Created with skrf 1.8.0 (http://scikit-rf.org).
# Hz S RI R 50.0 
!freq ReS11 ImS11
4000000000.0 0.7252457927423859 0.7012694711147067
4003000000.0 0.7362406048729457 0.7905259181502358
4006000000.0 0.7737711664751792 0.6526641938369409
4009000000.0 0.7353014389085663 0.7171515679377499
4012000000.0 0.7496290593752128 0.7097689211414344
4016000000.0 0.7913774372831529 0.6503697162452875
4019000000.0 0.755066298147701 0.6310538473696619
4022000000.0 0.7682033712593038 0.7168161627999926
4025000000.0 0.8432146007360731 0.6596587313893677
4028000000.0 0.8218917489240569 0.6345823101892036
4031000000.0 0.769064863775783 0.6428373690476347
4034000000.0 0.7950668378480544 0.6117091945119189
4038000000.0 0.7694090212596043 0.6442765283483542
4041000000.0 0.798518173535739 0.6159621993310092
4044000000.0 0.8543927926322888 0.625103532830777
4047000000.0 0.8287905963909344 0.666964706550657
4050000000.0 0.8586841054986828 0.5793230235233404
4053000000.0 0.8343316191108163 0.5710548099853501
4056000000.0 0.8621970719646236 0.5932168441966573
4059000000.0 0.8204928657484175 0.5754155347782364
4062000000.0 0.889409592843943 0.5680679577809438
4066000000.0 0.8003295098934935 0.5107421384923228
4069000000.0 0.8784121254030276 0.5635076191590215
4072000000.0 0.8257020953736218 0.5511808251913191
4075000000.0 0.8645619878731887 0.5750731379310772
4078000000.0 0.8749186466720524 0.5039408617765635
4081000000.0 0.9000519214676926 0.5712472177741388
4084000000.0 0.9017871620857802 0.5117051732670206
4088000000.0 0.8672166321636005 0.5358184351749559
4091000000.0 0.9506300650370211 0.5432362101957502
4094000000.0 0.8843909259387743 0.501839257336047
4097000000.0 0.8769278205698834 0.44325872000957184
4100000000.0 0.8896967573636619 0.4793349529524304
4103000000.0 0.9087204948198151 0.49635810523842533
4106000000.0 0.8876088253167308 0.5216438146327677
4109000000.0 0.9516717179935568 0.4148915937362185
4112000000.0 0.9041288423322866 0.4226981299734404
4116000000.0 0.9376480538867348 0.4230984938497472
4119000000.0 0.9359545719244687 0.43184443346148627
4122000000.0 0.9186906034331983 0.3739159199742309
4125000000.0 0.9847028617679418 0.41197520153052997
4128000000.0 0.9263762016772497 0.4001078907141571
4131000000.0 0.9306436605011729 0.3973006867506528
4134000000.0 0.937201198098571 0.39124573888754643
4138000000.0 0.9591631037962369 0.37330714945666804
4141000000.0 0.9466211000044823 0.37555957042954125
4144000000.0 0.9594552577706021 0.40870576200358527
4147000000.0 0.9510053633698797 0.39958975398087687
4150000000.0 0.9679225302568469 0.38453426258974194
4153000000.0 0.9618098517978521 0.35375427639349033
4156000000.0 0.9864062183942179 0.37685810631033667
4159000000.0 0.9438747444457221 0.3140554225164514
4162000000.0 0.9645567767156387 0.30586822009474346
4166000000.0 0.972406657137477 0.2912230210732315
4169000000.0 0.9612531814428674 0.2701469286520034
4172000000.0 0.9872032727628118 0.29184314605883194
4175000000.0 0.983907845936603 0.3101277767652943
4178000000.0 0.995826796815249 0.29019408765162347
4181000000.0 0.9822211491179829 0.25107029875251274
4184000000.0 0.9779409876413763 0.26839119893995594
4188000000.0 0.977806534730753 0.23833110341273278
4191000000.0 0.9788424239951741 0.27955749859407314
4194000000.0 0.9842631480305566 0.21494584729459987
4197000000.0 0.9951153202166191 0.2238103893191849
4200000000.0 0.9750614129385997 0.24187915793133175
4203000000.0 1.0142380732825278 0.23323202187172287
4206000000.0 1.014925978928741 0.2167682095041349
4209000000.0 0.9947775271670388 0.19752748922323493
4212000000.0 0.9937830130189144 0.16349049589191478
4216000000.0 1.0044176027654332 0.18271336688203565
4219000000.0 1.0094895631524714 0.1783031753913424
4222000000.0 0.9902481322711698 0.1379000033685847
4225000000.0 1.0075964921490124 0.15510279444607103
4228000000.0 1.0153912406513836 0.13672978911900277
4231000000.0 1.0106267155562167 0.11280945536097553
4234000000.0 1.0239807488332873 0.09587084535668783
4238000000.0 1.0133394528464208 0.09013084127862894
4241000000.0 1.0058738206544957 0.07783320328209065
4244000000.0 1.009447634767356 0.08486248982891292
4247000000.0 1.0011303765634307 0.08384087341401161
4250000000.0 0.9965701979892578 0.0627893389687395
4253000000.0 0.9969350154505283 0.05290796995597025
4256000000.0 1.0382785927162224 0.05509950827460808
4259000000.0 0.9697471598961904 0.040545702699497144
4262000000.0 1.013605323622712 0.016304277455313626
4266000000.0 1.029806981353602 -0.002018102086873849
4269000000.0 0.9908904546475864 0.018038538661206402
4272000000.0 1.0054048338373627 -0.012591941502470616
4275000000.0 1.0315650269902128 -0.01378042584884949
4278000000.0 1.019818197022438 0.0032925528274899
4281000000.0 1.033705349769098 -0.009949378658653349
4284000000.0 1.0200726224010266 -0.06767254159645958
4288000000.0 1.0054500709820249 -0.016049517515479117
4291000000.0 1.001120012818141 -0.030732161036074818
4294000000.0 0.9987134756933541 -0.062443995083673105
4297000000.0 0.9951687563705154 -0.033357014043032755
4300000000.0 0.9884788630541279 -0.08103529890550419
4303000000.0 0.9683470975246061 -0.11217274349359779
4306000000.0 1.001367236816669 -0.06356362187724603
4309000000.0 0.9931531802134435 -0.08566203107824538
4312000000.0 1.02644442521134 -0.0888065869533076
4316000000.0 1.0209508160634273 -0.10881394958798182
4319000000.0 0.9889667368832084 -0.12058996651017706
4322000000.0 0.9511482333989166 -0.16198964017341133
4325000000.0 1.0036990164160093 -0.14511759341787725
4328000000.0 0.9849236562484642 -0.1612772909637726
4331000000.0 0.997941170300805 -0.20207276029916232
4334000000.0 1.0256714656089028 -0.18656457458885345
4338000000.0 0.995433395860465 -0.14309712637216498
4341000000.0 1.0183341050055894 -0.18043971994399485
4344000000.0 1.0177508171626468 -0.20626290488394608
4347000000.0 0.9959254746769323 -0.24447374502094726
4350000000.0 0.956238066597628 -0.22451740272471576
4353000000.0 0.9775119090681637 -0.2145924211520896
4356000000.0 0.9658531959517465 -0.2583944811171295
4359000000.0 0.9273300419971976 -0.22918491922665135
4362000000.0 0.9678141921217078 -0.3188333642863163
4366000000.0 0.99635662118791 -0.28562149377575025
4369000000.0 0.9448714716469014 -0.2818526107885553
4372000000.0 0.930964627525062 -0.3318670391071029
4375000000.0 0.9652386899871825 -0.2893113147987756
4378000000.0 0.9486004675867098 -0.3036810577385749
4381000000.0 0.9591502006965158 -0.3137562133113242
4384000000.0 1.0127402121217397 -0.35473954687676057
4388000000.0 0.9418427068922172 -0.3251284248004027
4391000000.0 0.9652858714528612 -0.34871587433640483
4394000000.0 0.934399611260874 -0.35427865367473993
4397000000.0 0.9453936421137856 -0.35753876443890753
4400000000.0 0.950093282259429 -0.3926612922865284
4403000000.0 0.9444773568291782 -0.39421835891294466
4406000000.0 0.9310260130060387 -0.404291270015709
4409000000.0 0.9502393301223235 -0.4208036958212947
4412000000.0 0.8948752428283324 -0.4390590984126732
4416000000.0 0.9042295766421953 -0.42442880672706584
4419000000.0 0.9091179222674125 -0.46448804725807785
4422000000.0 0.9090299051032946 -0.41800393606490205
4425000000.0 0.929578767940253 -0.4203586239485775
4428000000.0 0.8961147875615405 -0.4641495729126817
4431000000.0 0.9045593430868752 -0.4584141467387409
4434000000.0 0.8895216891329931 -0.4637543784304281
4438000000.0 0.9188210045335483 -0.47869483870373614
4441000000.0 0.8993773134445429 -0.5001832877825003
4444000000.0 0.8720734980943132 -0.4816284069589183
4447000000.0 0.8703993390657236 -0.514251341323184
4450000000.0 0.8653138035174252 -0.4892955913056638
4453000000.0 0.8763313094683379 -0.5307861612241894
4456000000.0 0.8377184965955783 -0.5298926395213834
4459000000.0 0.8099254356317165 -0.5384645046774216
4462000000.0 0.8821852291919565 -0.5732210787768605
4466000000.0 0.8485451935370227 -0.5791374994290799
4469000000.0 0.852296959327953 -0.5554552728016321
4472000000.0 0.8308898127674255 -0.592947873422911
4475000000.0 0.7996806475041109 -0.5674911985034655
4478000000.0 0.8336744761376327 -0.618283964265915
4481000000.0 0.7880686997474267 -0.6013891963305996
4484000000.0 0.7914018544633595 -0.6544364394264117
4488000000.0 0.7996463480667972 -0.6174902063568075
4491000000.0 0.7909258171825948 -0.6344514742542352
4494000000.0 0.7841310846628253 -0.6277378688568178
4497000000.0 0.7787393515052161 -0.6265755140745768
4500000000.0 0.7809903702034072 -0.635141874126445
4503000000.0 0.7781551491609224 -0.6345646498085786
4506000000.0 0.7444725606761683 -0.6591875992048775
4509000000.0 0.7344038271066156 -0.6520471942424856
4512000000.0 0.7497130759865551 -0.669378511406133
4516000000.0 0.7423939999841573 -0.7063486630533554
4519000000.0 0.7168737016547904 -0.6461134389614205
4522000000.0 0.7320813861744215 -0.7048991084448468
4525000000.0 0.7366871790052906 -0.6720373209277151
4528000000.0 0.7534643972329684 -0.7257613480425454
4531000000.0 0.7229336788764106 -0.7006071646351031
4534000000.0 0.6916371031394277 -0.7092774316385743
4538000000.0 0.6981687952631797 -0.7197065085801629
4541000000.0 0.6429661971216152 -0.7325449326846722
4544000000.0 0.6721776432848896 -0.7475763444554723
4547000000.0 0.6909778096883296 -0.722050537761507
4550000000.0 0.661532131151344 -0.7727921508743987
4553000000.0 0.6427272543650958 -0.7495171483704711
4556000000.0 0.6338986135622247 -0.747361889790954
4559000000.0 0.6323459038355143 -0.7751541608533352
4562000000.0 0.6414263070453727 -0.7774307268566765
4566000000.0 0.6368505116460375 -0.7850924841301994
4569000000.0 0.6038300156565287 -0.7891604467252198
4572000000.0 0.6187073633022898 -0.7997513615645513
4575000000.0 0.5945959402832633 -0.8276231418202177
4578000000.0 0.6274524706629914 -0.8337364567963768
4581000000.0 0.5806579772889172 -0.8073691366346311
4584000000.0 0.5708891195184019 -0.8276610089708932
4588000000.0 0.6015153036041123 -0.8341059899886749
4591000000.0 0.5764539923584981 -0.8229157378159705
4594000000.0 0.5316759239992551 -0.8481115199957194
4597000000.0 0.5435325333454077 -0.869197257177953
4600000000.0 0.5332432824041268 -0.862320563526964
4603000000.0 0.5232640559804546 -0.8714474433280818
4606000000.0 0.5236289901795171 -0.8813658751467843
4609000000.0 0.5149181868877308 -0.8757610513848962
4612000000.0 0.5030530449112228 -0.8793096595767822
4616000000.0 0.4969186836221325 -0.8750941475148276
4619000000.0 0.48677321603473644 -0.8780975143265501
4622000000.0 0.4799805447363115 -0.9114809168230498
4625000000.0 0.4451885629248743 -0.9020933178179922
4628000000.0 0.4756402433511123 -0.9119570832185878
4631000000.0 0.4581435227885696 -0.9130023986820189
4634000000.0 0.4257629474894654 -0.914712932681559
4638000000.0 0.43255856705476403 -0.9330800475841791
4641000000.0 0.424573935834464 -0.9088202713803246
4644000000.0 0.41139373122724426 -0.9243091769815717
4647000000.0 0.41885015449244534 -0.9243478565956335
4650000000.0 0.4047341342508496 -0.929313053834319
4653000000.0 0.40877376512814534 -0.9451033279255998
4656000000.0 0.4024839593904541 -0.9477259616030886
4659000000.0 0.36034690195961 -0.96076242090771
4662000000.0 0.357269340374875 -0.9644700705863635
4666000000.0 0.3271578917101848 -0.9696494321526516
4669000000.0 0.3459218849260177 -0.9896654932167802
4672000000.0 0.3265657361155737 -0.9779376363537117
4675000000.0 0.3236348909131326 -0.9750573238631067
4678000000.0 0.29510626282026564 -0.9559778781941979
4681000000.0 0.2911529669136607 -0.9989929180810853
4684000000.0 0.2821156637945248 -1.021744810075095
4688000000.0 0.27614451481121594 -0.9821705562089736
4691000000.0 0.31026024897764737 -0.9956783544122187
4694000000.0 0.28396103838026754 -0.935243198659397
4697000000.0 0.23884074503976038 -0.9415653047190387
4700000000.0 0.25554208103114534 -0.9525803822407981
4703000000.0 0.27990523478117063 -0.9097255434692642
4706000000.0 0.18915855836318538 -0.9901091737675592
4709000000.0 0.21911876002068134 -1.0029742640963217
4712000000.0 0.23830992860437084 -0.991915705643964
4716000000.0 0.15042507466507543 -1.0318713544122025
4719000000.0 0.22701185666987944 -0.9891261661680405
4722000000.0 0.22182360900436887 -0.9863991067033226
4725000000.0 0.17895626335289117 -0.9958675024641007
4728000000.0 0.1549509424346368 -1.0245698538634127
4731000000.0 0.13227612355662646 -1.0565894657077992
4734000000.0 0.1505354716680919 -0.9892339392336512
4738000000.0 0.12700994326219123 -1.0598754111588655
4741000000.0 0.1228059745434733 -1.064850492602136
4744000000.0 0.12878974764968912 -1.037672207559158
4747000000.0 0.1288680579152858 -0.9613660129671902
4750000000.0 0.0875211114301904 -1.059960340127011
4753000000.0 0.12333395602307479 -1.033081409158883
4756000000.0 0.09575006858015342 -1.0433331224618212
4759000000.0 0.0929995209161015 -1.032428632839543
4762000000.0 0.0535084824220754 -1.0674972610870896
4766000000.0 0.01968873551800515 -1.0154063931646233
4769000000.0 0.04822385404234433 -1.038339904387137
4772000000.0 0.010112965367410909 -0.995141693015796
4775000000.0 -0.009802356946303326 -1.080604966469094
4778000000.0 -0.01725468489295434 -1.0567202196906322
4781000000.0 0.03412215705494162 -1.0245004042456518
4784000000.0 0.00589104430035059 -0.9928661513912024
4788000000.0 -0.035353955779292345 -1.0231504589554683
4791000000.0 -0.07910881017891402 -1.0382855478948352
4794000000.0 0.018301703036496808 -1.0726610375000134
4797000000.0 -0.09022283609773413 -0.9957689151242665
4800000000.0 -0.06914624253630183 -1.0212912927529105
4803000000.0 -0.10430365349144138 -1.02353945540191
4806000000.0 -0.10701385696301136 -1.0531961678184913
4809000000.0 -0.1331938530411883 -1.011596898191629
4812000000.0 -0.14347516713007913 -1.005762944445219
4816000000.0 -0.08532253837390108 -0.9859418915003202
4819000000.0 -0.0919838400068333 -1.0497712488522881
4822000000.0 -0.11744040538516337 -1.0561362855713452
4825000000.0 -0.13356605604362765 -1.0475564545024765
4828000000.0 -0.1452854695421212 -0.9971374870655666
4831000000.0 -0.21836361500304202 -1.0372821624107755
4834000000.0 -0.15108530530483086 -1.0252134668868702
4838000000.0 -0.23436304073719355 -1.0027436035762773
4841000000.0 -0.20212019800501368 -0.9750328226737838
4844000000.0 -0.1690866277452746 -1.0292249163008413
4847000000.0 -0.17293950432142843 -0.994051409783528
4850000000.0 -0.25011897894075064 -1.0118792258786544
4853000000.0 -0.20392737654917362 -0.9782030684524179
4856000000.0 -0.25233751417168654 -0.9681123685662235
4859000000.0 -0.28512673492299867 -1.049130531621603
4862000000.0 -0.2475008232671716 -0.9883999869224959
4866000000.0 -0.3149950292592762 -1.018678431124439
4869000000.0 -0.29059833037527893 -0.985741312084092
4872000000.0 -0.3325351033475256 -1.0149621812731666
4875000000.0 -0.27822016277587175 -1.0614400199458789
4878000000.0 -0.28870024358154345 -0.9841635666536835
4881000000.0 -0.3850935605781839 -1.0338032871583065
4884000000.0 -0.30039031373231306 -0.9688510004331858
4888000000.0 -0.32098006310764293 -0.9733887497480297
4891000000.0 -0.32135828833197466 -1.0173789603659362
4894000000.0 -0.3779528942096952 -0.9431313336904665
4897000000.0 -0.3349884068420377 -0.9774089083479782
4900000000.0 -0.3666854055175584 -0.9843207479721022
4903000000.0 -0.386182728232902 -0.9906642909833966
4906000000.0 -0.4060544688855757 -1.001938045213483
4909000000.0 -0.4132714293543173 -0.9551851745234915
4912000000.0 -0.4147958310163289 -0.9560114026329067
4916000000.0 -0.44709587882391305 -0.9699957505747223
4919000000.0 -0.3905352109289245 -0.9960192734098144
4922000000.0 -0.4390796454104847 -0.9380869078224053
4925000000.0 -0.47918002306901564 -0.9251044896529353
4928000000.0 -0.3903737542713187 -0.9514649726486014
4931000000.0 -0.4785464156420406 -0.9459392063279304
4934000000.0 -0.4950981642041688 -0.896764184541915
4938000000.0 -0.5169622838150129 -0.8876587644788044
4941000000.0 -0.46327904808316345 -0.8986727428792076
4944000000.0 -0.4814788373765052 -0.9037545595208643
4947000000.0 -0.5226955345584114 -0.8569761770492491
4950000000.0 -0.5239659537822986 -0.8852716016263964
4953000000.0 -0.5651120436350564 -0.8817864446277001
4956000000.0 -0.571220747586453 -0.867923274288399
4959000000.0 -0.5773380555444195 -0.8353623089369345
4962000000.0 -0.5859915532737411 -0.8790841121552053
4966000000.0 -0.5710406438753105 -0.8607062661680244
4969000000.0 -0.5998732095842155 -0.9145087174239106
4972000000.0 -0.5873861538340273 -0.8620199431761513
4975000000.0 -0.5812424782844885 -0.8697759931759532
4978000000.0 -0.6182854927212503 -0.845890563390641
4981000000.0 -0.624494312364434 -0.805013448366673
4984000000.0 -0.6219318721953914 -0.7950291309063127
4988000000.0 -0.6224033368617885 -0.8359674876129349
4991000000.0 -0.62631599042193 -0.8630886727429175
4994000000.0 -0.6427600164947271 -0.8133505054756723
4997000000.0 -0.6679631088948157 -0.7717984068260242
5000000000.0 -0.6979380465318058 -0.8206585756790896
5003000000.0 -0.6876999758299629 -0.7994961866633059
5006000000.0 -0.6814620137238842 -0.8245074452632036
5009000000.0 -0.673527338059281 -0.7878947006582644
5012000000.0 -0.7461086605848106 -0.7641187701626437
5016000000.0 -0.6916194181087767 -0.8045089508846021
5019000000.0 -0.7198778646238028 -0.7730763771205847
5022000000.0 -0.7050027201882173 -0.7440406591627899
5025000000.0 -0.7514864632061533 -0.7628624699416141
5028000000.0 -0.7362131402360848 -0.7112552647287104
5031000000.0 -0.7492607590163125 -0.6986188992657819
5034000000.0 -0.7852628463919971 -0.722159753966299
5038000000.0 -0.7695383610501745 -0.689401733579301
5041000000.0 -0.7734655692354476 -0.6953820188850264
5044000000.0 -0.723499866496827 -0.7086051242045667
5047000000.0 -0.7423823945075001 -0.6820522812999258
5050000000.0 -0.7315318997457972 -0.7359773312313564
5053000000.0 -0.8523226994025086 -0.6699372557743972
5056000000.0 -0.8024911621280316 -0.6541722235175179
5059000000.0 -0.7708754187204199 -0.673389821645202
5062000000.0 -0.876298024953698 -0.6329709788933386
5066000000.0 -0.8391897407969133 -0.6576136654697439
5069000000.0 -0.8648491221048883 -0.672571849971736
5072000000.0 -0.8116492112488024 -0.6690606239106514
5075000000.0 -0.8248783502465246 -0.6474030958613033
5078000000.0 -0.8786454228480824 -0.5929250485390399
5081000000.0 -0.8461656680001666 -0.5550043881902349
5084000000.0 -0.8296699688287205 -0.5868225153203095
5088000000.0 -0.8430793044490674 -0.5562999353871017
5091000000.0 -0.8410053342858441 -0.5372017987724955
5094000000.0 -0.915392563218906 -0.5264219271747945
5097000000.0 -0.8507127471744367 -0.5226038615493995
5100000000.0 -0.8618995836592321 -0.5511900690894036
5103000000.0 -0.9281922060612962 -0.4727187862079898
5106000000.0 -0.9032403243680247 -0.5328274242341865
5109000000.0 -0.9024585880904274 -0.5651435483824748
5112000000.0 -0.9082406835653843 -0.4907872764613192
5116000000.0 -0.9349163818733729 -0.4746837289177904
5119000000.0 -0.9876364935397435 -0.39426825171552077
5122000000.0 -0.9450263599279046 -0.41447140784070685
5125000000.0 -0.9302055715882661 -0.48105460406635714
5128000000.0 -0.952380277088832 -0.43266104612980255
5131000000.0 -0.956143882481881 -0.4284946281335268
5134000000.0 -0.9678007407026746 -0.4059663240090774
5138000000.0 -0.9098104960838128 -0.46470689936373866
5141000000.0 -0.9642328871169306 -0.4785812228642226
5144000000.0 -0.8961395688283772 -0.3766067388309945
5147000000.0 -0.9683070781339846 -0.3694511382155817
5150000000.0 -1.0172359446954775 -0.36018885536217493
5153000000.0 -1.0161082037083555 -0.36480164901099693
5156000000.0 -0.9723782124985554 -0.35557831300199183
5159000000.0 -1.002298437283179 -0.3093674752377721
5162000000.0 -1.0077679847776668 -0.26099534392639656
5166000000.0 -0.9642920419526588 -0.3412613873130121
5169000000.0 -1.0176847891410659 -0.2835013865211867
5172000000.0 -1.0176736750019886 -0.31368492098702916
5175000000.0 -1.0479335840849677 -0.3150350246403635
5178000000.0 -1.0106229166932068 -0.30328670754332665
5181000000.0 -1.0291084444379401 -0.21884468523525172
5184000000.0 -1.0010665951704891 -0.22583390449432178
