! Created with skrf 1.8.0 (http://scikit-rf.org).
# Hz S RI R 50.0 
!freq ReS11 ImS11
4000000000.0 0.5978284654762798 0.8066539504957237
4003000000.0 0.6886260967814647 0.8489345166433957
4006000000.0 0.6826117583597635 0.7781447348773874
4009000000.0 0.6712091337691435 0.7951100849063871
4012000000.0 0.6474246672390249 0.8361113806372511
4016000000.0 0.705337982264128 0.7348028332096785
4019000000.0 0.6776452533201793 0.7082588796667355
4022000000.0 0.6477824555215852 0.8521010887681265
4025000000.0 0.7256461131474099 0.7528138978649915
4028000000.0 0.7125398563894463 0.7231767390010317
4031000000.0 0.703293133036685 0.7291894034875339
4034000000.0 0.7527257144094166 0.6946856220675853
4038000000.0 0.7580955846526518 0.7384103489601503
4041000000.0 0.708366441561186 0.7413028425716929
4044000000.0 0.7471478595793095 0.7915443171993267
4047000000.0 0.7627861310501016 0.757471724101364
4050000000.0 0.7737648133992172 0.7047688715812043
4053000000.0 0.7341117266981633 0.6788401921192266
4056000000.0 0.776499194991015 0.6991978971663726
4059000000.0 0.7282749888085186 0.717104577116269
4062000000.0 0.7880660330297086 0.65222170762061
4066000000.0 0.6901675565062797 0.6107306224637702
4069000000.0 0.8365190707182432 0.6412166784093639
4072000000.0 0.7506532821784763 0.6929988931551871
4075000000.0 0.8132362576667062 0.6761402311241131
4078000000.0 0.795407437614198 0.6595550804601062
4081000000.0 0.8029778699482683 0.7107419928869337
4084000000.0 0.8242066919809561 0.6413386265354788
4088000000.0 0.7843186506414441 0.6882891508997243
4091000000.0 0.8494308238806675 0.7019417610446472
4094000000.0 0.7752881042432382 0.635911950973932
4097000000.0 0.8169681987495754 0.5857930247300989
4100000000.0 0.8310294339139699 0.5710476501574033
4103000000.0 0.8600931186425174 0.6313170895370015
4106000000.0 0.8028893389099343 0.5785733358827351
4109000000.0 0.8643626570804921 0.57688184979465
4112000000.0 0.8520620256982117 0.5849821216414808
4116000000.0 0.8101775449308555 0.5986565783636016
4119000000.0 0.8749524076255975 0.5482071190070706
4122000000.0 0.867683455488718 0.5569341000327911
4125000000.0 0.9019335783198306 0.5277145702718502
4128000000.0 0.840465233405879 0.5715750143462464
4131000000.0 0.8414718566510136 0.5334369307711733
4134000000.0 0.8721239425261286 0.5542863767429671
4138000000.0 0.8683500052126978 0.5314563466385909
4141000000.0 0.8827108770797923 0.5289452000107432
4144000000.0 0.9060496707654805 0.511389006479364
4147000000.0 0.8904004377229399 0.46460306403128254
4150000000.0 0.8979259722885845 0.509290695170266
4153000000.0 0.9115719670278586 0.49889314891214087
4156000000.0 0.8925191307010316 0.5121362652893581
4159000000.0 0.8718925329503846 0.4812036071801871
4162000000.0 0.9100792082110865 0.469375681842798
4166000000.0 0.9139332161041513 0.4529485677524828
4169000000.0 0.9387022052472631 0.4309584391188016
4172000000.0 0.9173283050767784 0.45969303002137757
4175000000.0 0.9288643973610159 0.4672338645696868
4178000000.0 0.9414996828760792 0.45161268030986257
4181000000.0 0.9324802362521261 0.43548153680705093
4184000000.0 0.9236941771829369 0.43518520432632896
4188000000.0 0.9422081879837354 0.4136705069910741
4191000000.0 0.9137950473000431 0.4361746763398526
4194000000.0 0.8972052892727153 0.4064425039963381
4197000000.0 0.9385495577585488 0.41444741119069833
4200000000.0 0.9405060737604538 0.3898236556503206
4203000000.0 0.9470007062465207 0.39238696742335943
4206000000.0 0.946312227030051 0.3805712413933114
4209000000.0 0.9277955733542408 0.3691199600197131
4212000000.0 0.958294560977554 0.32027610483301094
4216000000.0 0.9656307437579892 0.35287991910050703
4219000000.0 0.9757345460247598 0.3623327054045965
4222000000.0 0.9709816764751105 0.32021281180045097
4225000000.0 0.9686498752602073 0.32841260497164027
4228000000.0 0.9603869465196058 0.3170826656624114
4231000000.0 0.971780761379715 0.29917963255234625
4234000000.0 0.9803043149967772 0.3057552140092121
4238000000.0 0.9917531997519761 0.27683874499713645
4241000000.0 0.9771957714880186 0.25465617083748027
4244000000.0 0.9818032632184904 0.28574383034722983
4247000000.0 0.9663288462692673 0.27231449445880407
4250000000.0 0.9750036976147127 0.24224891605113685
4253000000.0 0.9676415606177373 0.22471375501577617
4256000000.0 1.021138201302005 0.2498692674170433
4259000000.0 0.9415748125507353 0.1993846681970539
4262000000.0 0.9811727498830356 0.2120536999116687
4266000000.0 1.0109016722147548 0.2112413201010857
4269000000.0 0.9815866361554921 0.2046654610216718
4272000000.0 1.0071367042955208 0.1917864330037266
4275000000.0 1.0001224702940483 0.1835490715595149
4278000000.0 1.0208503457223423 0.17801731662286036
4281000000.0 0.9848561391264851 0.18199814017671728
4284000000.0 1.026386873346238 0.11804030636790158
4288000000.0 0.9997054831706115 0.18358093510611695
4291000000.0 0.9808124756893601 0.1307038189821353
4294000000.0 0.9985237874739539 0.13261851148087944
4297000000.0 0.9975854012822509 0.15128937500730033
4300000000.0 0.981161198455256 0.13804288555476407
4303000000.0 0.996454976528471 0.10801357939165597
4306000000.0 1.006121746529172 0.13271724066063514
4309000000.0 0.9984329071878305 0.11018894832050001
4312000000.0 1.0319292169475882 0.10914040705501535
4316000000.0 1.0189206185856194 0.10196793350644952
4319000000.0 0.9782625574625776 0.05430105921589841
4322000000.0 0.9886059400748912 0.04744136565596026
4325000000.0 1.031363190866878 0.04306593289099099
4328000000.0 1.0080180722116114 0.04705827447440335
4331000000.0 1.0074022161763634 0.0022482866289967596
4334000000.0 1.0046169436027852 0.03233419024783771
4338000000.0 1.0117812885743895 0.01108211064427879
4341000000.0 1.01206537985808 0.021631245129141885
4344000000.0 1.023202131708306 0.023601315736357237
4347000000.0 1.0259290846688052 -0.019408288426807307
4350000000.0 0.9807119099546706 -0.0197463217928954
4353000000.0 0.9882854400494212 0.006026737196177051
4356000000.0 1.0132177336243846 -0.05002371036095005
4359000000.0 0.9725454474425163 -0.03432203237804507
4362000000.0 1.011007439896492 -0.07454863124916772
4366000000.0 1.0079351569818151 -0.06437901456062217
4369000000.0 0.9607278796864049 -0.08057681251638381
4372000000.0 0.9968154413251091 -0.10777804605386523
4375000000.0 0.993938220433561 -0.07278828118173375
4378000000.0 0.9656739268038754 -0.08493746202893498
4381000000.0 0.9856246410646756 -0.07796118865774566
4384000000.0 1.0561093624368996 -0.12580444408163655
4388000000.0 0.9867177528606164 -0.10926412807806411
4391000000.0 1.0295019064650497 -0.12892133763188202
4394000000.0 0.9709167938156532 -0.14456482184902963
4397000000.0 0.9672102700884222 -0.158402826345873
4400000000.0 1.0187975083335674 -0.14963512140636925
4403000000.0 0.9968264960189815 -0.1502553522708705
4406000000.0 0.9755664751276009 -0.19154136399302926
4409000000.0 1.0230656423835158 -0.1960605622242319
4412000000.0 0.9792566113990192 -0.24251588921923298
4416000000.0 0.9697891255014517 -0.20353964347334333
4419000000.0 0.979987497617439 -0.22963380116434445
4422000000.0 0.9743888568354431 -0.20194510100057048
4425000000.0 1.0265581279688947 -0.19508076537451705
4428000000.0 0.9744394696193236 -0.23677909676437625
4431000000.0 0.9995819382489888 -0.24181400549738585
4434000000.0 0.9669468815859777 -0.2554594055940177
4438000000.0 0.9932993193514492 -0.2656914979419832
4441000000.0 0.986056808484632 -0.26857401055316554
4444000000.0 0.9581514347029645 -0.2651004897858499
4447000000.0 0.9666367183398743 -0.29003321971266643
4450000000.0 0.9504375047016446 -0.2824262371110792
4453000000.0 0.9892917058968098 -0.29616626553702047
4456000000.0 0.9323461480817495 -0.32604703579173494
4459000000.0 0.9100457530756043 -0.3105621914302995
4462000000.0 0.9937966829395077 -0.35214767141475145
4466000000.0 0.9887793141549298 -0.3560877516308814
4469000000.0 0.9645399486377123 -0.3281234414952012
4472000000.0 0.9614898510954426 -0.38479601625076265
4475000000.0 0.9247262036597571 -0.35461762622440796
4478000000.0 0.975233767219367 -0.4106826859927796
4481000000.0 0.9142938057123443 -0.3847583935238087
4484000000.0 0.8967021851523356 -0.4271158078686589
4488000000.0 0.9292921918906871 -0.4007841720744024
4491000000.0 0.9286709357085802 -0.4143521259862776
4494000000.0 0.9011469595049005 -0.41395660838089116
4497000000.0 0.9047428822024928 -0.3920857858630873
4500000000.0 0.9087721917060569 -0.41314465582762167
4503000000.0 0.9413619390679613 -0.43208305236854117
4506000000.0 0.8946303080004654 -0.4450323265816457
4509000000.0 0.8838078232921658 -0.4216867001108723
4512000000.0 0.8807352181693987 -0.4652749892871353
4516000000.0 0.9189817284285362 -0.46979075864598324
4519000000.0 0.8803666011136546 -0.4401022005774399
4522000000.0 0.8779848369558081 -0.5084126171639138
4525000000.0 0.8967188774314496 -0.4482000763373968
4528000000.0 0.9026264857484823 -0.4961768413762696
4531000000.0 0.873338995844133 -0.48281937222410165
4534000000.0 0.8553419123597832 -0.5292986544718026
4538000000.0 0.8519817696649326 -0.5225440148509908
4541000000.0 0.8046311324717903 -0.5384377446755767
4544000000.0 0.8340497815560659 -0.5330214422465497
4547000000.0 0.8575364031525184 -0.5402571062133554
4550000000.0 0.8249470309660139 -0.5709586885532812
4553000000.0 0.827692382453415 -0.5652875947071484
4556000000.0 0.8144029314940244 -0.5612588139156122
4559000000.0 0.8126467084329707 -0.5665602792834117
4562000000.0 0.827295005773877 -0.5957916475708969
4566000000.0 0.8111761015492247 -0.6022529724145127
4569000000.0 0.7917547262999148 -0.5943815978704514
4572000000.0 0.8073092722414171 -0.5881542387155657
4575000000.0 0.7827720026178537 -0.6221235511068486
4578000000.0 0.8226999101055994 -0.6162210231095738
4581000000.0 0.7957049084576607 -0.6352227477410605
4584000000.0 0.7718626628396741 -0.6333757889894315
4588000000.0 0.805978150329744 -0.6282972609182803
4591000000.0 0.7895935126770797 -0.6209015080596756
4594000000.0 0.7639222037418968 -0.6616427872745817
4597000000.0 0.7785994883585265 -0.665622322213593
4600000000.0 0.7447104407038874 -0.6747623411428009
4603000000.0 0.7408418916190694 -0.6777946311932972
4606000000.0 0.7558874427518378 -0.679210170228492
4609000000.0 0.746584257319803 -0.6780775638558915
4612000000.0 0.7336809938659687 -0.6979346942921201
4616000000.0 0.711234652166989 -0.6947824544859709
4619000000.0 0.7237370226215593 -0.6912331588856963
4622000000.0 0.7144558757121958 -0.7018443580886742
4625000000.0 0.6761098569758555 -0.696350092797853
4628000000.0 0.6982060318581824 -0.708852813004742
4631000000.0 0.6847847010111616 -0.7221368694053518
4634000000.0 0.6727755109452306 -0.7386961207367655
4638000000.0 0.6888452454243915 -0.761741637201157
4641000000.0 0.6767908217566919 -0.7494068683554788
4644000000.0 0.659445170569308 -0.744184680895561
4647000000.0 0.6801197831164214 -0.7702556450041661
4650000000.0 0.6369452245116008 -0.7702710725369903
4653000000.0 0.6687112719861285 -0.7845072028479785
4656000000.0 0.6163279431379991 -0.7833714299268717
4659000000.0 0.605231714465968 -0.7837958606256075
4662000000.0 0.6438379899291861 -0.7961609189563343
4666000000.0 0.5961767789400451 -0.7847219993264386
4669000000.0 0.6057972408781414 -0.7839419635790058
4672000000.0 0.6106350291400978 -0.8429298460893219
4675000000.0 0.5947821651238576 -0.8230412242056844
4678000000.0 0.5716121919467609 -0.8109748283828921
4681000000.0 0.5762260594621958 -0.8408503280225142
4684000000.0 0.5750319944325435 -0.8514650564108227
4688000000.0 0.5415176616390072 -0.8490830067039365
4691000000.0 0.5780408276378998 -0.8374647033136133
4694000000.0 0.5802236450859591 -0.832340198026126
4697000000.0 0.5060276027558013 -0.845338067826062
4700000000.0 0.5378850129998552 -0.8426740186812121
4703000000.0 0.5417525958531793 -0.8160034943915597
4706000000.0 0.5092042025286252 -0.865120659062411
4709000000.0 0.48636994992309796 -0.8511396531543771
4712000000.0 0.5167830393251245 -0.8725899540778571
4716000000.0 0.4772426010066546 -0.8907447135218871
4719000000.0 0.530586993067766 -0.8849456846081856
4722000000.0 0.5270234564588852 -0.8859878998896149
4725000000.0 0.4754825846156227 -0.9031268830289727
4728000000.0 0.4678554134398373 -0.8728303129335713
4731000000.0 0.5144550435346755 -0.9120204949804196
4734000000.0 0.46973592097753825 -0.8613957604659923
4738000000.0 0.48556147650514403 -0.9101194521255166
4741000000.0 0.4640942625819615 -0.9299720996753477
4744000000.0 0.4323772177310701 -0.9493548311287834
4747000000.0 0.4194548471383539 -0.8846216536138412
4750000000.0 0.4128006479423811 -0.9104950229796225
4753000000.0 0.42537676935134183 -0.9230452735036861
4756000000.0 0.4215390158695418 -0.9502373885389677
4759000000.0 0.3913348213807517 -0.9164739593861924
4762000000.0 0.3743115262408985 -0.9378427395442485
4766000000.0 0.39193261074129754 -0.9409676526221578
4769000000.0 0.4016825093907245 -0.9440627113617591
4772000000.0 0.3523325125668696 -0.9703888832447557
4775000000.0 0.3251672268871513 -0.9834183001995846
4778000000.0 0.33794740180405847 -0.96561057387263
4781000000.0 0.36099551678020925 -0.9396028859476175
4784000000.0 0.3441823906162141 -0.928734034928412
4788000000.0 0.31802696421470433 -0.9595987429985688
4791000000.0 0.315850229630223 -0.9347878715455865
4794000000.0 0.3440446387347169 -0.9860421796636196
4797000000.0 0.29739573961266774 -0.9625965464077527
4800000000.0 0.28373389135347205 -0.9749668674378873
4803000000.0 0.23330877844087272 -0.993266713538624
4806000000.0 0.27635319799308333 -0.990019602711689
4809000000.0 0.23809692805478927 -0.9937424649482492
4812000000.0 0.2362808368726026 -0.9901788864038599
4816000000.0 0.2765268972548133 -0.9555535116178133
4819000000.0 0.2691392349081452 -1.0321115655084117
4822000000.0 0.2800750730447677 -1.017014268049197
4825000000.0 0.2674145147314472 -1.0068371378330636
4828000000.0 0.24309466943209881 -1.0019136173405783
4831000000.0 0.20190217542987582 -1.0185259346326394
4834000000.0 0.2147524660378523 -1.0176816832690432
4838000000.0 0.18506902885862575 -1.0233721663834439
4841000000.0 0.17868047052322042 -0.9837782969587686
4844000000.0 0.2092723163522665 -0.9927165963656593
4847000000.0 0.1877174318077357 -0.9722964377909158
4850000000.0 0.15474018743186235 -1.0276271362961535
4853000000.0 0.1583360306472983 -0.9936395495539536
4856000000.0 0.14054097026722484 -0.9991518111163696
4859000000.0 0.1366777729220959 -1.0379848795322797
4862000000.0 0.16667011964460016 -0.9893442660382842
4866000000.0 0.10437259804156757 -1.0391770536966107
4869000000.0 0.09254560551411617 -1.0329285935990473
4872000000.0 0.07484813642763306 -1.0488414584664532
4875000000.0 0.14915604640589383 -1.057615223344876
4878000000.0 0.10231836134447184 -1.0249024438911671
4881000000.0 0.06283932487059454 -1.0840919210025595
4884000000.0 0.07577554582724405 -1.0180326260292987
4888000000.0 0.0820631743657334 -1.0221729572797569
4891000000.0 0.0778439922443861 -1.0461202232710907
4894000000.0 0.027921153772214644 -1.0304661087881866
4897000000.0 0.07954158826463462 -1.019392332302833
4900000000.0 0.02443210483378168 -1.0687396242003924
4903000000.0 0.03134469957048162 -1.0412863042432203
4906000000.0 -0.004975031726865215 -1.0527277410341649
4909000000.0 -0.007424518848702363 -1.0420152755589975
4912000000.0 -0.041037399383284004 -1.062755372902982
4916000000.0 -0.0011295431324984187 -1.031355598379697
4919000000.0 0.020569862589895467 -1.0300144186842441
4922000000.0 0.00473115131470872 -1.041610547967374
4925000000.0 -0.03761905691012277 -0.9986852867672676
4928000000.0 0.012747964928563754 -1.0055679502023815
4931000000.0 0.005034410091559319 -1.0429245019900368
4934000000.0 -0.05274374447011827 -0.9788842798290948
4938000000.0 -0.09571200828469324 -1.010548490057546
4941000000.0 -0.04627502951365127 -1.0192211987152564
4944000000.0 -0.04678316213875086 -0.9872998655927416
4947000000.0 -0.08270095053649051 -1.0106159470705072
4950000000.0 -0.10638932572504546 -1.0219110152657942
4953000000.0 -0.15401746790686544 -1.0642861321159311
4956000000.0 -0.1554639474503614 -1.0129626133677478
4959000000.0 -0.16052056202072448 -0.9902505969083618
4962000000.0 -0.1525070077960404 -1.0472040041634907
4966000000.0 -0.13722064238359205 -1.0534114996730046
4969000000.0 -0.12437717982696123 -1.0789005034291126
4972000000.0 -0.18064224022178824 -1.0342642781737958
4975000000.0 -0.13183290965345232 -1.011480052751873
4978000000.0 -0.18077838906385374 -1.0135046120133635
4981000000.0 -0.21932962334698683 -1.0313535838260104
4984000000.0 -0.1997037735319904 -0.9858803093153659
4988000000.0 -0.1635675607059745 -1.0049187791598604
4991000000.0 -0.14710231106982352 -1.0248122251265765
4994000000.0 -0.17841878354774005 -0.9998743671949305
4997000000.0 -0.25838656935298515 -1.014127631401687
5000000000.0 -0.20348453769442193 -1.0334691994422627
5003000000.0 -0.24357281811669013 -1.0196687222629488
5006000000.0 -0.22692378666375077 -1.091303425201771
5009000000.0 -0.24587688944736932 -1.0178062338542015
5012000000.0 -0.27644906987945195 -0.9994845781056856
5016000000.0 -0.24070233549872055 -1.047519844903646
5019000000.0 -0.30868826643074876 -0.9843058721677314
5022000000.0 -0.29315166810828286 -0.9829108627101397
5025000000.0 -0.3158673926790421 -1.0490584895959807
5028000000.0 -0.3026076954718543 -0.9823464837363711
5031000000.0 -0.317164527206659 -0.9677996770109268
5034000000.0 -0.3445244657732084 -0.9932468917477735
5038000000.0 -0.34227379235906075 -0.9493650431407448
5041000000.0 -0.31126760134808285 -1.017691437647406
5044000000.0 -0.3217648512388238 -0.9564240672739522
5047000000.0 -0.3248591660017907 -0.9822196894785066
5050000000.0 -0.24882532982432723 -0.9778095908174722
5053000000.0 -0.3855978930875815 -1.0219293174948443
5056000000.0 -0.3533166845661704 -0.9724177939145069
5059000000.0 -0.3519556354320778 -0.9757764967753849
5062000000.0 -0.39602202692203636 -0.9409233140712343
5066000000.0 -0.32504629812669084 -0.9474683387146867
5069000000.0 -0.3966111566002213 -0.9586670017916118
5072000000.0 -0.37076992617838916 -0.9452529387104647
5075000000.0 -0.39578655911286864 -0.9691623991608267
5078000000.0 -0.48008090268606535 -0.9497737463089118
5081000000.0 -0.443231182038844 -0.87285592241469
5084000000.0 -0.43000755741921737 -0.9510979764560388
5088000000.0 -0.4227506371504018 -0.9385464921466926
5091000000.0 -0.4971552440280506 -0.9327523959188084
5094000000.0 -0.43166273166024466 -0.9255489990757996
5097000000.0 -0.4408748215385031 -0.9499147807908193
5100000000.0 -0.4995603337499858 -0.9206243579685262
5103000000.0 -0.5088709537397518 -0.904763349811997
5106000000.0 -0.4514911135715734 -0.9751442197661777
5109000000.0 -0.45576509967441664 -0.910008036621609
5112000000.0 -0.5022746426954225 -0.8574052937787022
5116000000.0 -0.45522070448481644 -0.8621654243144616
5119000000.0 -0.5023496251616909 -0.9606357135649783
5122000000.0 -0.5171546509590661 -0.9106951938344359
5125000000.0 -0.4939326276942303 -0.9111721906416045
5128000000.0 -0.5617774028317118 -0.874699265697424
5131000000.0 -0.5580933845537231 -0.8415106478458132
5134000000.0 -0.5347465997523304 -0.8634735874472115
5138000000.0 -0.5642773178901626 -0.8658768424587076
5141000000.0 -0.5551656554991142 -0.9260080629580785
5144000000.0 -0.5162033254676328 -0.8412039410228761
5147000000.0 -0.5892587272072751 -0.8814639224267375
5150000000.0 -0.5940923562153116 -0.8842165693196811
5153000000.0 -0.5759073872971472 -0.8769924906757508
5156000000.0 -0.6019145283968799 -0.8690059444183932
5159000000.0 -0.6255353877194995 -0.8642364206105331
5162000000.0 -0.6108756846199138 -0.8380975121801233
5166000000.0 -0.6386927154456875 -0.8649024633297496
5169000000.0 -0.6463425121336077 -0.8527119054291826
5172000000.0 -0.6179641641763214 -0.7932435642205287
5175000000.0 -0.6168445438340592 -0.8795701817271846
5178000000.0 -0.5883399248161545 -0.8143432147131602
5181000000.0 -0.628267237220031 -0.8293085829031487
5184000000.0 -0.6555744673115051 -0.8277787272434922
5188000000.0 -0.6456198228525791 -0.825238155352222
