! Created with skrf 1.8.0 (http://scikit-rf.org).
# Hz S RI R 50.0 
!freq ReS11 ImS11
4000000000.0 0.6074822135382353 0.8191481836929864
4003000000.0 0.6024304829605142 0.8770984287227693
4006000000.0 0.7067264197605302 0.7674041907690143
4009000000.0 0.6749756241893344 0.8197417262237268
4012000000.0 0.6160189039361335 0.8538215627254884
4016000000.0 0.7044470881539613 0.7511410120011524
4019000000.0 0.6722198284945637 0.7630326512006534
4022000000.0 0.6180726922965234 0.837897968951231
4025000000.0 0.7157713395096893 0.7521807062017758
4028000000.0 0.7212351164395885 0.7225966450444041
4031000000.0 0.6331538869475217 0.6888321549537154
4034000000.0 0.7077572604044245 0.7345217312710519
4038000000.0 0.7261628438761853 0.7570131151432716
4041000000.0 0.7387108042317099 0.7422244774282946
4044000000.0 0.7826717491272637 0.7790505676992614
4047000000.0 0.712531179558352 0.7750984932261947
4050000000.0 0.770870018842972 0.7243534346676247
4053000000.0 0.7320694193379212 0.6570429352588891
4056000000.0 0.7539602447734502 0.7215243292449854
4059000000.0 0.7401198187844283 0.7035910571052164
4062000000.0 0.7766865903097935 0.6709629599801872
4066000000.0 0.6987989665360934 0.6140775072633877
4069000000.0 0.8100343166637902 0.6580101521372503
4072000000.0 0.7440542272819614 0.6643704034936324
4075000000.0 0.7877816676195166 0.7344847734762197
4078000000.0 0.7897655690347009 0.6365078579302906
4081000000.0 0.7982578562647187 0.7206423887244586
4084000000.0 0.7897969883865035 0.6572642259962471
4088000000.0 0.7678488569508146 0.6953248833475077
4091000000.0 0.8600592229358988 0.6964849075345783
4094000000.0 0.8128812234220449 0.6378359959269372
4097000000.0 0.7923982082029928 0.6517946282481826
4100000000.0 0.7857403362070977 0.6311583442602497
4103000000.0 0.8021342820342678 0.6253541772746181
4106000000.0 0.7988600348310626 0.575009838234828
4109000000.0 0.846643264541908 0.6274358454472231
4112000000.0 0.8525050491571673 0.5870329867812227
4116000000.0 0.8138071363144492 0.5990421756587416
4119000000.0 0.8657927468741847 0.5789128407640877
4122000000.0 0.8834878329826843 0.579369977162675
4125000000.0 0.8846204651394395 0.5656112175789585
4128000000.0 0.8233724640442915 0.554118024137468
4131000000.0 0.8398431404256491 0.542275428248706
4134000000.0 0.8612023900187081 0.550591770998554
4138000000.0 0.8766923605838548 0.47204665743783697
4141000000.0 0.8765538746873058 0.5314877278215286
4144000000.0 0.8825834155481821 0.5073572725602566
4147000000.0 0.8902743240694619 0.48570923852486475
4150000000.0 0.9201603020902479 0.5088080801464949
4153000000.0 0.8808736147268506 0.4623960405608398
4156000000.0 0.9235409843243103 0.48921992075970844
4159000000.0 0.8690083775057866 0.49864276319800943
4162000000.0 0.8950313926458322 0.4919670882336219
4166000000.0 0.9273400693149108 0.43824918930692025
4169000000.0 0.9159728681878296 0.44646961860708845
4172000000.0 0.9005642836008955 0.46537138188372157
4175000000.0 0.9250766242884153 0.4554353716954717
4178000000.0 0.9667687513020832 0.4379845541786087
4181000000.0 0.937907459148466 0.3979888275679808
4184000000.0 0.9163573806203545 0.4269662836992674
4188000000.0 0.9399425488381286 0.39047437556517794
4191000000.0 0.9068491535611207 0.4216026155202955
4194000000.0 0.9268271002070279 0.3760055962008324
4197000000.0 0.9507309875834896 0.388051430743444
4200000000.0 0.9275384823714337 0.38900635611449774
4203000000.0 0.9531222166203098 0.3807451922133749
4206000000.0 0.979907519761617 0.3831823490472482
4209000000.0 0.9456561820490259 0.37000685003671346
4212000000.0 0.9774649679623281 0.32292716996801973
4216000000.0 0.9706945946113891 0.3349009684611301
4219000000.0 0.9843647462682151 0.34675194171065105
4222000000.0 0.9687083871693862 0.32320857050152624
4225000000.0 0.9447132881592633 0.3157191267763966
4228000000.0 0.9710212710938593 0.2965376750185821
4231000000.0 0.9777361493306433 0.3084856539337175
4234000000.0 0.984893413658008 0.30316465080832117
4238000000.0 0.9763045226088839 0.2711284735632946
4241000000.0 0.9886490157585206 0.27189415845603615
4244000000.0 0.978659866191428 0.26548060869348306
4247000000.0 0.9721365719050921 0.2754515303512017
4250000000.0 0.9759727898186719 0.24144628130760837
4253000000.0 0.9677913212144644 0.2371028688333532
4256000000.0 1.0081271316688447 0.2203059641012755
4259000000.0 0.952999174810324 0.22858558146919358
4262000000.0 0.9989057204733216 0.20484461389909633
4266000000.0 1.030600907915516 0.17208032414717617
4269000000.0 0.9978984903899709 0.19550466472056585
4272000000.0 0.9925527422494814 0.18649253271166205
4275000000.0 1.0091138466517018 0.1773144201339265
4278000000.0 1.0234296454397065 0.18243989227189605
4281000000.0 0.9919353463757854 0.18022408706571602
4284000000.0 0.9878927838736704 0.15238602428086775
4288000000.0 1.008919582087902 0.17160181198640012
4291000000.0 0.9794688908169364 0.13707680191515348
4294000000.0 0.9898963958527801 0.11795895341044867
4297000000.0 0.9776009568688337 0.14255629761108884
4300000000.0 1.0107291918566983 0.12987453635884422
4303000000.0 0.9924070441600292 0.10057971861716918
4306000000.0 1.0134596357148493 0.16730674236742155
4309000000.0 1.0051334845944147 0.09169928287755351
4312000000.0 1.020884451439237 0.09469884849906296
4316000000.0 0.9975543275341435 0.0896879677255925
4319000000.0 0.9954190412221471 0.07078924697726414
4322000000.0 0.9846549100595261 0.0457391248994163
4325000000.0 1.0028789438298318 0.04417940344236508
4328000000.0 0.9913577393217313 0.05332486429473869
4331000000.0 0.9939256593917947 0.015660824161436243
4334000000.0 1.01276318971454 0.003637206186703379
4338000000.0 0.9934869496148427 0.03954859613930804
4341000000.0 1.0370311989879344 0.04625152612140851
4344000000.0 1.029694768281704 -0.0012123598456541818
4347000000.0 1.029262565681272 -0.03187136287052117
4350000000.0 0.9876172815060972 -0.03027492490352296
4353000000.0 0.9926051844119996 -0.002366923214549538
4356000000.0 1.0026007295458728 -0.05494827246476483
4359000000.0 0.9608571638098605 -0.02095917675727632
4362000000.0 1.0153966559461316 -0.09839639523919556
4366000000.0 1.0369764493414582 -0.07652680175076207
4369000000.0 0.9626061409668362 -0.08499700244074011
4372000000.0 0.9990834918838589 -0.10803270392572818
4375000000.0 0.9891612743131233 -0.05982246844473291
4378000000.0 0.9776678279287493 -0.07929107543087177
4381000000.0 0.9791871653911164 -0.08668567298674766
4384000000.0 1.0563492161331525 -0.12499110202973279
4388000000.0 0.9917150119930618 -0.10951273122366192
4391000000.0 1.018333001553772 -0.13893725166190612
4394000000.0 0.9829887826441526 -0.13653046867837906
4397000000.0 0.991094505508908 -0.15573290266521295
4400000000.0 1.015406961183624 -0.16264197805285346
4403000000.0 1.0133084782818091 -0.1578223319797415
4406000000.0 0.9870286064428184 -0.19209930888974636
4409000000.0 1.0316391701911485 -0.19413947033913898
4412000000.0 0.9708147379493604 -0.23389141621129803
4416000000.0 0.9689723051538219 -0.2287957180547911
4419000000.0 0.9827838339214959 -0.22264572308324565
4422000000.0 0.9924479929130485 -0.19034681070404094
4425000000.0 0.996511641734928 -0.20853860817320327
4428000000.0 0.9843050355307467 -0.24864635700410595
4431000000.0 0.9981715940213802 -0.25486963046070066
4434000000.0 0.964268440714392 -0.2561215750916376
4438000000.0 0.9956624478091909 -0.2626037571664946
4441000000.0 0.9872601275476676 -0.27046180383167234
4444000000.0 0.9527100622894924 -0.25045052552956054
4447000000.0 0.9592214766979347 -0.2990336596616259
4450000000.0 0.9585564763965663 -0.27093566813017156
4453000000.0 0.9944983185715557 -0.3034740975806305
4456000000.0 0.921763440870521 -0.31896369704996486
4459000000.0 0.8979865455350184 -0.3243785204242261
4462000000.0 1.0080305611558986 -0.35467807176955823
4466000000.0 0.9907045368775688 -0.3495646376244986
4469000000.0 0.9506228748111473 -0.3215933023471896
4472000000.0 0.9656226577790933 -0.3911866026606481
4475000000.0 0.9237017322728417 -0.35507757681168983
4478000000.0 0.9690662885660382 -0.40445035315868205
4481000000.0 0.903839301554212 -0.3715218356277804
4484000000.0 0.9183741844748374 -0.4178316477160646
4488000000.0 0.9092528093023196 -0.3922651085602166
4491000000.0 0.9126713239931687 -0.3998681191817255
4494000000.0 0.9019490266883269 -0.39939605317348026
4497000000.0 0.9019617157159858 -0.3955805175366317
4500000000.0 0.919949041040748 -0.42880728547612523
4503000000.0 0.9246083839188235 -0.44517945239868933
4506000000.0 0.8988898097782798 -0.44275289911062393
4509000000.0 0.880803462489941 -0.42913566746315324
4512000000.0 0.8608599932201095 -0.46771672852140134
4516000000.0 0.9206709251704879 -0.4797096485208882
4519000000.0 0.8893308059364047 -0.4475230183203587
4522000000.0 0.8731715044962791 -0.4905540680327994
4525000000.0 0.8891499252010993 -0.468621018454199
4528000000.0 0.8954033237789418 -0.5229315257547487
4531000000.0 0.8768139497808417 -0.49491057286019646
4534000000.0 0.8495292727078002 -0.5156766012304098
4538000000.0 0.8646554341349408 -0.5203581717229431
4541000000.0 0.8197752595956909 -0.5530217862373419
4544000000.0 0.8474234071560116 -0.5193248407780905
4547000000.0 0.8377486291394397 -0.4948733493431819
4550000000.0 0.8363172451548586 -0.5612027766006958
4553000000.0 0.8242879534598502 -0.5531372675094105
4556000000.0 0.8090513475943677 -0.5704260289156058
4559000000.0 0.8243866288122362 -0.5849566948070866
4562000000.0 0.8377885837876544 -0.5953914681753073
4566000000.0 0.8003945515796067 -0.5978920877919267
4569000000.0 0.8084002732174709 -0.5709561920457555
4572000000.0 0.7979700758958486 -0.6022750457770026
4575000000.0 0.7856598768072538 -0.6339693264765456
4578000000.0 0.8189407669106763 -0.6096384131335295
4581000000.0 0.7829466196323932 -0.6429272402494921
4584000000.0 0.7645172715809462 -0.6266164021236313
4588000000.0 0.8190257580957815 -0.6437686307047292
4591000000.0 0.7800588829339824 -0.6376404017765349
4594000000.0 0.7514117963282907 -0.6668736851823263
4597000000.0 0.7732333583639694 -0.6741237206441523
4600000000.0 0.7342386935671642 -0.676021273306909
4603000000.0 0.7526647507830035 -0.6769252977376226
4606000000.0 0.7516020788945051 -0.6981352595627965
4609000000.0 0.743962216351405 -0.680460876103518
4612000000.0 0.7276550055483673 -0.6960102177502706
4616000000.0 0.7188981130926824 -0.7044133766036403
4619000000.0 0.7254796053540529 -0.6911873142279409
4622000000.0 0.7043268256214902 -0.7009820983404128
4625000000.0 0.6631907280847912 -0.7032999896267672
4628000000.0 0.7029932830998081 -0.7081064719350701
4631000000.0 0.6720402568425032 -0.7316360073768987
4634000000.0 0.67589935238996 -0.7445680114950685
4638000000.0 0.6726291014228841 -0.7368976777117364
4641000000.0 0.7002861063024707 -0.7516589957004236
4644000000.0 0.6693663977878923 -0.7483429529032483
4647000000.0 0.6696035643090603 -0.7645080912672065
4650000000.0 0.6435149993410498 -0.757867257587255
4653000000.0 0.645043818026983 -0.7907146731421884
4656000000.0 0.6391918837918393 -0.7965525103492841
4659000000.0 0.6313299255092734 -0.7903971320475806
4662000000.0 0.6478857605095405 -0.8130233308505617
4666000000.0 0.6137321836428274 -0.8041193689370735
4669000000.0 0.6238065571049731 -0.8026126417385566
4672000000.0 0.6137259333971484 -0.8378381870606701
4675000000.0 0.5831355988186258 -0.8189840475778633
4678000000.0 0.5737407187769794 -0.7913487042709703
4681000000.0 0.5743320122866897 -0.8468772179719442
4684000000.0 0.558497665637294 -0.8330652283753255
4688000000.0 0.5466432686377798 -0.8165265280340864
4691000000.0 0.5843182528435918 -0.8227296364131895
4694000000.0 0.5753952811383256 -0.8184450176141478
4697000000.0 0.5001488214526371 -0.8408922388007276
4700000000.0 0.5429819594854375 -0.851743550107565
4703000000.0 0.5533200835902353 -0.8108463204925886
4706000000.0 0.50398070189602 -0.8614501244188636
4709000000.0 0.5138973134151678 -0.870654503065885
4712000000.0 0.5156684355447916 -0.8746196027089274
4716000000.0 0.5011443323666264 -0.8792429244376956
4719000000.0 0.5213015701350945 -0.8775669782164626
4722000000.0 0.5081043325062689 -0.8970582639688087
4725000000.0 0.4791173749824653 -0.8608893533317677
4728000000.0 0.46334561762834986 -0.8994711795477248
4731000000.0 0.49655924068584983 -0.9188857246640603
4734000000.0 0.4915648697032573 -0.8646868915209287
4738000000.0 0.48438542607675805 -0.9468417033856896
4741000000.0 0.48067402485660515 -0.9199405601343025
4744000000.0 0.4166191659912568 -0.923765300078462
4747000000.0 0.4288769667787974 -0.8970046800978677
4750000000.0 0.4237716992610425 -0.918632380983818
4753000000.0 0.44052392400607665 -0.9069024072789802
4756000000.0 0.42788743646960825 -0.9720809894892386
4759000000.0 0.403569945270653 -0.9251754795453021
4762000000.0 0.39190115781643864 -0.9315206976818239
4766000000.0 0.3986078749915456 -0.9646465381564351
4769000000.0 0.3913386721346556 -0.9656671806736498
4772000000.0 0.3758556068488755 -0.9572184046921391
4775000000.0 0.36002945625759647 -0.9839456756237039
4778000000.0 0.3538537015221032 -0.9539043619033135
4781000000.0 0.36251326369901077 -0.9382107156095256
4784000000.0 0.3695134420625328 -0.9486689651310692
4788000000.0 0.32538808136767366 -0.9627308831888102
4791000000.0 0.2976436317839875 -0.9459068716441089
4794000000.0 0.3381021973724355 -0.9880081630812847
4797000000.0 0.29217608923870875 -0.9573278289257589
4800000000.0 0.2780869964590836 -0.9505971255011825
4803000000.0 0.22071496605678842 -0.9898402031952558
4806000000.0 0.28258075619326645 -0.981952053024741
4809000000.0 0.23016806672785983 -0.9797797819427169
4812000000.0 0.21014568623253055 -0.9741341913492731
4816000000.0 0.28209346358225496 -0.9538465028211409
4819000000.0 0.2789863955589036 -0.9983428438260029
4822000000.0 0.2594914773638258 -1.0132758477323323
4825000000.0 0.2566194806518712 -1.020134282713991
4828000000.0 0.2206771213011837 -0.9941107809674371
4831000000.0 0.1748990911684301 -1.0281942299497822
4834000000.0 0.22965460113702418 -1.0077556583326321
4838000000.0 0.19342650132842112 -1.0087429025734602
4841000000.0 0.1828568805279 -0.9881520344825517
4844000000.0 0.21305739947734983 -1.0149616909232446
4847000000.0 0.1967451369906718 -0.9763947037703109
4850000000.0 0.1496751376362685 -1.034339294285045
4853000000.0 0.16166204872103304 -0.9909881486748318
4856000000.0 0.1363539525543626 -0.9802741221095538
4859000000.0 0.14108880989075973 -1.0462056432287867
4862000000.0 0.14689889151263003 -0.9818916503969454
4866000000.0 0.09253642367927822 -1.0298357959539992
4869000000.0 0.1031425239555275 -1.0263876763197453
4872000000.0 0.078688607124456 -1.0490150708364598
4875000000.0 0.1515918636861344 -1.04921492320765
4878000000.0 0.07898178845926612 -1.018313251449564
4881000000.0 0.03337032323636629 -1.1116142049573068
4884000000.0 0.07732529969026894 -1.0070949796554047
4888000000.0 0.10956546089196639 -1.021078782040582
4891000000.0 0.07754601420920698 -1.0369106386686169
4894000000.0 0.03355535321028534 -1.0130637468151171
4897000000.0 0.08076611879238413 -1.0099793337954732
4900000000.0 0.036958239108318205 -1.0525505750217283
4903000000.0 0.025764596208497567 -1.019622258805602
4906000000.0 0.020338144933592386 -1.0476259711621099
4909000000.0 -0.01646583693290387 -1.0346426670908717
4912000000.0 -0.03531137892997535 -1.055745513463732
4916000000.0 -0.0005607286908053677 -1.0577754231002146
4919000000.0 0.004425633537538817 -1.059896105633015
4922000000.0 -0.011920150389588616 -1.0326072683740355
4925000000.0 -0.07627209846422361 -1.0170502334431304
4928000000.0 0.0006676926561145768 -1.0266155682033573
4931000000.0 -0.011278135661799568 -1.0675300677396566
4934000000.0 -0.03555224377937817 -0.9982265787466483
4938000000.0 -0.11610459847952866 -0.971868190134875
4941000000.0 -0.07736742966572345 -1.0259963869373925
4944000000.0 -0.06402315960329524 -0.9654780270539751
4947000000.0 -0.09322050273814028 -1.0152915959079407
4950000000.0 -0.08407597606711024 -1.0208258359231939
4953000000.0 -0.15363904966260716 -1.057020098393125
4956000000.0 -0.14720410046331867 -0.9964848843988231
4959000000.0 -0.16328369461450856 -0.9680707075208026
4962000000.0 -0.14308667172421727 -1.0653676116148876
4966000000.0 -0.11911536899034203 -1.070773953682904
4969000000.0 -0.09109667601991672 -1.0412828947653303
4972000000.0 -0.15623262093362553 -1.0112191919618878
4975000000.0 -0.12606831018719808 -0.9751288717092557
4978000000.0 -0.17391940344661 -0.9883459492035964
4981000000.0 -0.18359301110770845 -1.0162835181309158
4984000000.0 -0.1722844177000564 -0.995934376675355
4988000000.0 -0.19636850719173965 -1.0237464813037456
4991000000.0 -0.16678072910864777 -1.0546621591925058
4994000000.0 -0.19201599783904622 -1.0186268954509112
4997000000.0 -0.23530696485156544 -0.9942575211492741
5000000000.0 -0.20975504255755928 -1.0554399949662454
5003000000.0 -0.23613669571103246 -1.0378083530073883
5006000000.0 -0.260583546692024 -1.0718371935128135
5009000000.0 -0.24637211350264873 -0.9952367961375098
5012000000.0 -0.25476627700255156 -1.002695089555867
5016000000.0 -0.2134975866015168 -1.0429438027340554
5019000000.0 -0.300146944177756 -0.9921887582044202
5022000000.0 -0.3010658358054338 -1.009140040883011
5025000000.0 -0.3438130548742299 -1.0346050843874306
5028000000.0 -0.3297332285123854 -0.9914436682564063
5031000000.0 -0.278405899522836 -0.996407048312307
5034000000.0 -0.353679218281721 -0.9900611309603928
5038000000.0 -0.3009062563264939 -0.9351604717314108
5041000000.0 -0.28009292584834283 -1.0229552257852572
5044000000.0 -0.2959787951681656 -0.9834864543190159
5047000000.0 -0.3338516775706702 -0.9851963406279177
5050000000.0 -0.29078375280136926 -0.9528612912674168
5053000000.0 -0.388366053117135 -0.994785401677718
5056000000.0 -0.32835121917472065 -1.0005123448939983
5059000000.0 -0.34281260689398924 -0.9551587118091877
5062000000.0 -0.4174322603198757 -0.986563310530902
5066000000.0 -0.34128178741840154 -0.975159286801591
5069000000.0 -0.4056400302636666 -0.9575267696435846
5072000000.0 -0.3805560558477748 -0.9186010591536995
5075000000.0 -0.39028690050148673 -0.9687694801655526
5078000000.0 -0.4514571604327395 -0.9566282900480749
5081000000.0 -0.39484797319728626 -0.9083887214836567
5084000000.0 -0.405679894449784 -0.9512821334662949
5088000000.0 -0.4019558867428341 -0.9395827845412374
5091000000.0 -0.48075404915535974 -0.9449493434037275
5094000000.0 -0.4338695342687385 -0.9079105448672292
5097000000.0 -0.44752291548068923 -0.9306109197056236
5100000000.0 -0.4348265999234338 -0.9324669594264839
5103000000.0 -0.503478100768019 -0.9446009740589282
5106000000.0 -0.5042017213330806 -0.971190874829525
5109000000.0 -0.45483642226788695 -0.9185075334099482
5112000000.0 -0.4821606501982866 -0.8915576958702849
5116000000.0 -0.43682423476755755 -0.8825748846676953
5119000000.0 -0.5486883419409042 -0.8732211693889524
5122000000.0 -0.48639551331129227 -0.9289499168408364
5125000000.0 -0.5179692750929885 -0.8855740391820193
5128000000.0 -0.47086605041944235 -0.9093279822873284
5131000000.0 -0.5790319326208413 -0.8787388082415472
5134000000.0 -0.5369144142152491 -0.8737669684171357
5138000000.0 -0.535165681074963 -0.906172157718402
5141000000.0 -0.5345273331760605 -0.9231427028491357
5144000000.0 -0.5193164877509697 -0.9257977387129142
5147000000.0 -0.5870893381163533 -0.9058370145674064
5150000000.0 -0.5300212515437915 -0.8982692613943696
5153000000.0 -0.6173279936989258 -0.8883639306041642
5156000000.0 -0.5827916412435971 -0.9089781166037378
5159000000.0 -0.6000063330297263 -0.8991740394284606
5162000000.0 -0.6134881826738998 -0.7922152294402834
5166000000.0 -0.6561841992433725 -0.847934111047709
5169000000.0 -0.6404412981678257 -0.88037122957929
5172000000.0 -0.6117949936785978 -0.825681996421962
5175000000.0 -0.6523104021303133 -0.8810209817279632
5178000000.0 -0.6396713768963949 -0.828412473424475
5181000000.0 -0.666529317810334 -0.8334313636765535
5184000000.0 -0.6422926598040543 -0.782342012398865
5188000000.0 -0.629326929466858 -0.8408450520932638
