! Created with skrf 1.8.0 (http://scikit-rf.org).
# Hz S RI R 50.0 
!freq ReS11 ImS11
4000000000.0 0.6036151523448293 0.8107287614269636
4003000000.0 0.6765862124436851 0.8653534926286156
4006000000.0 0.6841658567726719 0.7774605422747937
4009000000.0 0.6590994536517323 0.7924468358950225
4012000000.0 0.6589553590294339 0.8321532309031843
4016000000.0 0.6695312161845014 0.7672469203857493
4019000000.0 0.6853103311160063 0.7570174190582216
4022000000.0 0.6095873462000961 0.7965015274372678
4025000000.0 0.7368974162250127 0.7467532951858906
4028000000.0 0.7254504752655402 0.712809997367744
4031000000.0 0.7163247839671416 0.712944984693641
4034000000.0 0.7128365576316843 0.7254671206319906
4038000000.0 0.7676306401689451 0.7260352265664293
4041000000.0 0.7539302666817924 0.7258042812091136
4044000000.0 0.7966131914335332 0.7949578529841361
4047000000.0 0.7320979727272525 0.7790267870874493
4050000000.0 0.7884220007480245 0.6896347665128895
4053000000.0 0.729912902306638 0.6588823876905925
4056000000.0 0.7378261353111869 0.6945896015747777
4059000000.0 0.7755358008025719 0.6758184304357777
4062000000.0 0.8021320147740696 0.6950994902024805
4066000000.0 0.7371546456497613 0.6067580604473521
4069000000.0 0.815531770452809 0.6693292697759501
4072000000.0 0.748969775391325 0.6870603661038164
4075000000.0 0.786626497159289 0.6915560686642748
4078000000.0 0.8563828587279306 0.6726320671583187
4081000000.0 0.8089504302644444 0.7261847530742402
4084000000.0 0.8216185224300143 0.6872610680271936
4088000000.0 0.7477880893653661 0.664362711861752
4091000000.0 0.8811452535040215 0.6451774635684553
4094000000.0 0.8446840697025296 0.6510273284945066
4097000000.0 0.8379537813584983 0.6221757168367337
4100000000.0 0.821335939246561 0.6183933290506716
4103000000.0 0.8413279918736984 0.6473757354631042
4106000000.0 0.8739428774501086 0.5964758485461291
4109000000.0 0.8942450751738455 0.5962604917152012
4112000000.0 0.8885819712241645 0.5920431110296274
4116000000.0 0.8619887373160323 0.6313277503905562
4119000000.0 0.8817919781728126 0.5413582264460424
4122000000.0 0.877832666664587 0.5058162450795438
4125000000.0 0.9006099667266314 0.5478229982282206
4128000000.0 0.8463114520951516 0.5361483883322525
4131000000.0 0.8916021502980623 0.5507195043070852
4134000000.0 0.8660401342131414 0.5265595411458338
4138000000.0 0.8727494512393628 0.4646879530275185
4141000000.0 0.8925660258584092 0.4877015649648727
4144000000.0 0.8727497446187845 0.5173781746718833
4147000000.0 0.8714064789922167 0.4847471496588119
4150000000.0 0.9617360534753626 0.51388263509101
4153000000.0 0.9002345869998597 0.48135230294362974
4156000000.0 0.9367540387181015 0.5306643558119547
4159000000.0 0.8943381664476415 0.4468430463475777
4162000000.0 0.9056361512028916 0.4608177372449038
4166000000.0 0.9233136383361844 0.42954540749019965
4169000000.0 0.9283158028207078 0.4261015661668798
4172000000.0 0.9106368547948458 0.4291387476119067
4175000000.0 0.9171171822315471 0.4275387284643855
4178000000.0 0.9578259708863864 0.43330312839176777
4181000000.0 0.9604603728414842 0.43109682855709464
4184000000.0 0.917723224437378 0.411320886782331
4188000000.0 0.9492077181052192 0.41318550402129717
4191000000.0 0.9140062182128733 0.4094378016806934
4194000000.0 0.9376665756189214 0.3563847054144117
4197000000.0 0.9561531490092327 0.3804476806497428
4200000000.0 0.9410109044828339 0.4017710541327615
4203000000.0 0.9825876616492635 0.40584213616218046
4206000000.0 0.9804806084957668 0.38510858841451096
4209000000.0 0.9593178498386735 0.3661918000212722
4212000000.0 0.9831682971213686 0.317426848102336
4216000000.0 0.9860110147880304 0.34411166510522145
4219000000.0 0.9772395735558594 0.3337174157771514
4222000000.0 0.989252079434761 0.30206015446394535
4225000000.0 0.9662174310387628 0.29749285776697865
4228000000.0 0.9967023316057719 0.318434836571278
4231000000.0 0.9985875109977999 0.2740560144436878
4234000000.0 0.996389533838982 0.28832305050305596
4238000000.0 0.990755199096921 0.2572774300710078
4241000000.0 0.9845186286350864 0.25066255790818
4244000000.0 0.9853492218954323 0.24967710751571814
4247000000.0 0.9913684879803345 0.2482505844279574
4250000000.0 0.9765791255812692 0.21229147373570473
4253000000.0 0.9694554407451113 0.2280432387976492
4256000000.0 1.0114031347077266 0.22060713971339752
4259000000.0 0.9698693909258974 0.19429978063210843
4262000000.0 0.9956670107781329 0.17747330821704546
4266000000.0 1.0084852042637904 0.1812390051790061
4269000000.0 1.0130937254875263 0.19442000551907787
4272000000.0 1.0064137129375281 0.1919688907205463
4275000000.0 1.0128486795475415 0.15619434196350596
4278000000.0 1.0278358149158353 0.18672989863005546
4281000000.0 1.0134169508730668 0.15806534549440715
4284000000.0 1.0245025143565725 0.102417383637014
4288000000.0 1.0074824663143611 0.172149213609925
4291000000.0 0.967494584343585 0.12400547315155121
4294000000.0 1.0087486008793087 0.13378468764487889
4297000000.0 0.9879231681695603 0.15059270184493528
4300000000.0 0.998265309509083 0.09010361610105333
4303000000.0 1.008156088246121 0.0817247370221361
4306000000.0 1.0313666126186245 0.1155897252002348
4309000000.0 1.005154596819936 0.09903680245159947
4312000000.0 1.0143029577434304 0.10589391367189879
4316000000.0 1.0320664175727734 0.07098342996228411
4319000000.0 0.9905045058429662 0.07078293424522793
4322000000.0 0.9938715405858026 0.03679721788978969
4325000000.0 1.0073275291355257 0.035010024175335566
4328000000.0 1.0143219118368094 0.022223710397340293
4331000000.0 1.010820834110566 0.0012924678102265719
4334000000.0 1.0114622379985116 0.015329939592521713
4338000000.0 1.0276412861543345 0.0021266666822558067
4341000000.0 1.0453844911262475 0.025743148108709757
4344000000.0 1.0344546074503005 -0.015847409605590168
4347000000.0 1.02535818486108 -0.041513826817649785
4350000000.0 0.9731567933634752 -0.01807733860687516
4353000000.0 0.9888886552331926 -0.020249943975013535
4356000000.0 1.0147615638381091 -0.07839489917730297
4359000000.0 0.973944432477401 -0.04741919183073906
4362000000.0 0.9956643192337569 -0.11144432332569683
4366000000.0 1.0374143840037218 -0.0912962966016348
4369000000.0 0.9722603575451869 -0.07875009233563017
4372000000.0 1.0020323107619062 -0.14547257982533135
4375000000.0 1.0322847183082327 -0.09034869325065224
4378000000.0 0.984139436423977 -0.111217882034502
4381000000.0 1.0025089430721534 -0.07594735905609296
4384000000.0 1.068120552689928 -0.12632330428561112
4388000000.0 0.9852792448423796 -0.13267871350679078
4391000000.0 1.0161574081959952 -0.15328349470771624
4394000000.0 0.968366347851356 -0.13461663320281458
4397000000.0 0.9958820291466859 -0.17577106489158023
4400000000.0 1.0150419499029963 -0.1667205717514396
4403000000.0 0.9962253499453406 -0.18226611274052903
4406000000.0 1.0019511046124103 -0.2185294889877508
4409000000.0 1.0176791875905205 -0.20409894177876398
4412000000.0 0.9705999295281622 -0.2529670091709083
4416000000.0 0.9671486095858364 -0.22347111121602373
4419000000.0 0.9824943823838913 -0.245293488136495
4422000000.0 0.9791445982126967 -0.21911173547538315
4425000000.0 0.9926339542052636 -0.23363072842294863
4428000000.0 0.9724859827108765 -0.2522836237054115
4431000000.0 1.004297584957122 -0.2653348379730796
4434000000.0 0.9612189786183081 -0.28132730565636477
4438000000.0 0.9998443274876316 -0.29747739197598877
4441000000.0 0.9845920607049807 -0.2792206031013702
4444000000.0 0.9486598676764513 -0.28974629914426214
4447000000.0 0.9446103549159492 -0.3138954219504456
4450000000.0 0.9481755355881339 -0.3011345615493043
4453000000.0 0.9818540111039473 -0.3247758689396555
4456000000.0 0.9203605401737185 -0.3407738298336733
4459000000.0 0.9084427483344133 -0.34358376874659524
4462000000.0 1.004594947079909 -0.3710299596324244
4466000000.0 0.9688220329106593 -0.372182969387879
4469000000.0 0.9558244500202318 -0.3503349849635037
4472000000.0 0.9543754089128286 -0.39038379627626085
4475000000.0 0.9180813292961076 -0.37017086667621557
4478000000.0 0.9623683022305625 -0.41509275430730763
4481000000.0 0.9189034996125196 -0.41368766322574474
4484000000.0 0.8983924269791195 -0.4414628290735044
4488000000.0 0.9319444708817173 -0.4351154563755189
4491000000.0 0.9249632038929354 -0.43188808554160746
4494000000.0 0.8991606386947476 -0.40606080522660937
4497000000.0 0.9063974280289884 -0.4083548345643876
4500000000.0 0.8969248228908897 -0.4414537206990629
4503000000.0 0.9385978636961243 -0.4546292301024988
4506000000.0 0.8947617867164936 -0.45500766402730636
4509000000.0 0.8746684912693514 -0.45239421923004774
4512000000.0 0.8755925493399305 -0.4767969079403691
4516000000.0 0.9210681637882774 -0.4850438980997357
4519000000.0 0.8681122086632698 -0.47550909474962194
4522000000.0 0.8775793940227279 -0.5209404204023446
4525000000.0 0.891480396559454 -0.457425766418054
4528000000.0 0.8752289572874419 -0.5374053228169533
4531000000.0 0.8738766040707 -0.5018998470478281
4534000000.0 0.8583485177425384 -0.523829384380763
4538000000.0 0.8392877311201319 -0.5275150246924315
4541000000.0 0.8256934077923688 -0.574837575953364
4544000000.0 0.8223626452182833 -0.5353920552654194
4547000000.0 0.8412640669611152 -0.5345225149434054
4550000000.0 0.8435328350931277 -0.589363026601768
4553000000.0 0.8323735199882392 -0.5779833672084749
4556000000.0 0.805381605740427 -0.5885056398071322
4559000000.0 0.8139913914643876 -0.5985475380624428
4562000000.0 0.8319033867979739 -0.5895549457410285
4566000000.0 0.8159388136216674 -0.6198935318965029
4569000000.0 0.7865823337061696 -0.597399159909
4572000000.0 0.8068015179055429 -0.6097634087430326
4575000000.0 0.7799825957975337 -0.6663601488203234
4578000000.0 0.8048456483019206 -0.6223983443419675
4581000000.0 0.7677493140522179 -0.6574746625627947
4584000000.0 0.7588537168847304 -0.6317609086234388
4588000000.0 0.8119477195706379 -0.6668503869846134
4591000000.0 0.7754435898433854 -0.6471544924178781
4594000000.0 0.7390979243501298 -0.6822160278527253
4597000000.0 0.7500600190592517 -0.6950583436637897
4600000000.0 0.725363721749717 -0.685636165069515
4603000000.0 0.740407086990291 -0.7065922425978609
4606000000.0 0.7450128049317969 -0.7021566307429209
4609000000.0 0.7151739455346194 -0.6917799941033084
4612000000.0 0.7097566602906457 -0.719010199323901
4616000000.0 0.7073240506978669 -0.711947536388923
4619000000.0 0.7154280336835772 -0.7221962184870553
4622000000.0 0.7136091043294231 -0.73234751538236
4625000000.0 0.6645269376509408 -0.7247841855626397
4628000000.0 0.6841295974634205 -0.7287416148357813
4631000000.0 0.6600001383055114 -0.7499458487843575
4634000000.0 0.6691231329957842 -0.7477777355253331
4638000000.0 0.6720606127682321 -0.7502887872907471
4641000000.0 0.6504596993334072 -0.7584251542409243
4644000000.0 0.6476662901577682 -0.7510257625342537
4647000000.0 0.6612092153907007 -0.7944841236669659
4650000000.0 0.6264895291942614 -0.7837349590276528
4653000000.0 0.6509107153261683 -0.7799524717623301
4656000000.0 0.6321257890213692 -0.8046458846681954
4659000000.0 0.6202012397929718 -0.8205999861619736
4662000000.0 0.6292944178114876 -0.8123670143316062
4666000000.0 0.5925280929032524 -0.8097136194484298
4669000000.0 0.6096545681881074 -0.803287550056474
4672000000.0 0.5733315709382067 -0.8478033476077527
4675000000.0 0.565701754385596 -0.8470690204519743
4678000000.0 0.5634421818590969 -0.8310054605043536
4681000000.0 0.5588231665720691 -0.8403018274934078
4684000000.0 0.5570454427481832 -0.8750465664932583
4688000000.0 0.5367771819251128 -0.8328378170073569
4691000000.0 0.5693010459225596 -0.8458647431248909
4694000000.0 0.530625804399124 -0.8444125044956416
4697000000.0 0.509368151437408 -0.8366678847252127
4700000000.0 0.5048775297541767 -0.8865783839766581
4703000000.0 0.5334718647445544 -0.8322804488915077
4706000000.0 0.5013801001644055 -0.8757003191957904
4709000000.0 0.4828615187039328 -0.8865467133323222
4712000000.0 0.5100298239060616 -0.9047394434480258
4716000000.0 0.5104890773044998 -0.8996448187449142
4719000000.0 0.5148663946518023 -0.9059887300273405
4722000000.0 0.5003025117597257 -0.8783063508288795
4725000000.0 0.4826397121445336 -0.8909260705528207
4728000000.0 0.45179704936448917 -0.8859305583095933
4731000000.0 0.47075564124906544 -0.9194157532035605
4734000000.0 0.4675725132735388 -0.9033738974083684
4738000000.0 0.46934353718300137 -0.9393422839488282
4741000000.0 0.4161736768864092 -0.9439213835772473
4744000000.0 0.399259362663884 -0.9406645749767987
4747000000.0 0.4176494795983562 -0.9261592893983916
4750000000.0 0.4144885492562047 -0.9431618823640899
4753000000.0 0.4081470044831087 -0.9465266473962965
4756000000.0 0.36919329837152814 -0.9280534634778612
4759000000.0 0.39300216089433965 -0.9484514486009948
4762000000.0 0.36372555801577583 -0.9676952111324861
4766000000.0 0.3707239636118121 -0.9498341570778757
4769000000.0 0.3712849413165541 -0.9812454131450891
4772000000.0 0.3515757396859151 -0.9860898366106364
4775000000.0 0.3258941614488192 -1.0213185074167757
4778000000.0 0.3105418576343932 -1.0027281395465624
4781000000.0 0.3539408806047066 -0.9768636203776477
4784000000.0 0.36288816283360775 -0.941621946984977
4788000000.0 0.28638095694398047 -0.9905949163051377
4791000000.0 0.291286230221264 -0.9689951506619673
4794000000.0 0.3287563912483291 -0.9984635151413175
4797000000.0 0.28928932186124184 -0.9867534960853729
4800000000.0 0.2520576113900221 -0.9633321929397483
4803000000.0 0.2343710552445734 -0.9856111940181096
4806000000.0 0.24901860698560138 -0.9820150206205809
4809000000.0 0.2094385630777447 -1.014586817036094
4812000000.0 0.22813080126784926 -0.988268447242767
4816000000.0 0.25720105840667595 -0.9742105733046
4819000000.0 0.23578992090380296 -1.0307193313465408
4822000000.0 0.2301389708049843 -1.047941263151366
4825000000.0 0.2617201761711392 -1.0122487816268155
4828000000.0 0.1855775195524686 -0.9713191467839525
4831000000.0 0.13644261776625818 -1.0329477305041506
4834000000.0 0.2092080280859594 -1.0059608106310265
4838000000.0 0.15961079829875444 -1.015004286698567
4841000000.0 0.14799367578593034 -0.9885129626695358
4844000000.0 0.18927294632168767 -1.0157581154997781
4847000000.0 0.16447416261513806 -0.9683475315766061
4850000000.0 0.12157332577447078 -1.0417923853620639
4853000000.0 0.14886826731136046 -0.9956689566612649
4856000000.0 0.1386827710485204 -1.0092861923770169
4859000000.0 0.13139820833151955 -1.0511573633878961
4862000000.0 0.14414453705923214 -1.0219645747532313
4866000000.0 0.0752984506243416 -1.0220403174060286
4869000000.0 0.07626598709892024 -1.027393922904451
4872000000.0 0.0784606577475741 -1.053709245611474
4875000000.0 0.12775345457832993 -1.0591357689213072
4878000000.0 0.0721714650058538 -1.0304500143020667
4881000000.0 0.030575613862755438 -1.084508662239445
4884000000.0 0.06796730511098058 -1.027931066665462
4888000000.0 0.07416842063623588 -1.0174618286459363
4891000000.0 0.03993979171411003 -1.0412996895415032
4894000000.0 0.005932599780431353 -1.0335805229492123
4897000000.0 0.048162237019455226 -1.0122703501543002
4900000000.0 -0.0016370227521775617 -1.0694500099787065
4903000000.0 0.010969271594158312 -1.0641613104494676
4906000000.0 -0.011044100221876768 -1.0419842302423543
4909000000.0 -0.020175628815134586 -1.0792604509631067
4912000000.0 -0.025768760821079012 -1.0498204498387727
4916000000.0 -0.0036245655530229987 -1.071900152587923
4919000000.0 8.489100534196659e-05 -1.0447229440015935
4922000000.0 -0.03235254373150778 -1.0257494857221168
4925000000.0 -0.10452133655262327 -0.9927951681430769
4928000000.0 -0.05280089552435789 -1.0409725468736888
4931000000.0 -0.04922826102289972 -1.0424205588786404
4934000000.0 -0.09272387391470503 -1.009596977975767
4938000000.0 -0.13997390879791038 -1.0303101560100612
4941000000.0 -0.08170387304744843 -1.0165708145745398
4944000000.0 -0.07023285971559798 -0.9637806913593583
4947000000.0 -0.09952980812834497 -1.0041644996242693
4950000000.0 -0.14717229203107485 -1.022267697746286
4953000000.0 -0.1958913754849374 -1.0335895766420022
4956000000.0 -0.17907275559224234 -1.005368125065244
4959000000.0 -0.19994677228451843 -0.9852505857857254
4962000000.0 -0.15671967961640157 -1.028707299228873
4966000000.0 -0.12553053544880471 -1.0514161392322077
4969000000.0 -0.18579755584707586 -1.0720769874351448
4972000000.0 -0.16285318102143517 -1.0076394787465288
4975000000.0 -0.15043435373106287 -1.0352254834340915
4978000000.0 -0.22835482948793023 -1.0125005772438924
4981000000.0 -0.2228258795101382 -1.0129052095228928
4984000000.0 -0.23565958178430021 -0.9990019108187315
4988000000.0 -0.22001880938931578 -1.0245798588023265
4991000000.0 -0.188930499667201 -1.0206523159522378
4994000000.0 -0.21307756577993003 -1.014412261402475
4997000000.0 -0.2851909843874375 -0.9937806573173489
5000000000.0 -0.2665370675748112 -1.047789194282272
5003000000.0 -0.2670109078299719 -1.040531921381691
5006000000.0 -0.2890146031067701 -1.0725276234931966
5009000000.0 -0.2886378574899453 -0.9800326899808959
5012000000.0 -0.30230016714199487 -0.9864663269673701
5016000000.0 -0.28856493383346066 -1.0426436334213651
5019000000.0 -0.3082997964049664 -0.9853446132475894
5022000000.0 -0.3106145151183264 -1.0166516460026431
5025000000.0 -0.3527905723949741 -1.0413678246137195
5028000000.0 -0.36207073596511674 -0.9811522322576007
5031000000.0 -0.3262541967512531 -0.9735214319097422
5034000000.0 -0.3841485344893354 -0.9801748244506425
5038000000.0 -0.3466217453417284 -0.9628206641411872
5041000000.0 -0.33599542996667653 -0.996993488323452
5044000000.0 -0.30968274530171636 -0.9631108639932179
5047000000.0 -0.36918413820035373 -0.985777184938211
5050000000.0 -0.2990521824644431 -0.9707390334168602
5053000000.0 -0.43172864882381246 -1.0020211920452178
5056000000.0 -0.3901048457396554 -0.9942207166761101
5059000000.0 -0.32802490201113127 -0.9900158031197198
5062000000.0 -0.4472401025663001 -0.9757376192301768
5066000000.0 -0.3664794806718241 -0.9988308520942726
5069000000.0 -0.42050948535831356 -0.9515529242302091
5072000000.0 -0.4173243749853972 -0.9540631615582709
5075000000.0 -0.4209255124277571 -0.9390655834532022
5078000000.0 -0.47134554328392925 -0.9629143542408269
5081000000.0 -0.4641859369269425 -0.8848748865887609
5084000000.0 -0.4499574487556893 -0.9396973733120899
5088000000.0 -0.40576548972867416 -0.9346438522389553
5091000000.0 -0.5390092062363026 -0.9155183246011669
5094000000.0 -0.5022678375112104 -0.8941015479297799
5097000000.0 -0.4427050452199094 -0.9532430497535984
5100000000.0 -0.484361502420878 -0.8694740178473696
5103000000.0 -0.5361284786887652 -0.9078491717791198
5106000000.0 -0.5241309735450186 -0.9399002599358912
5109000000.0 -0.4724244280741272 -0.9267306559016675
5112000000.0 -0.5631213959924452 -0.8992116369185028
5116000000.0 -0.5312537749197015 -0.8607783517726597
5119000000.0 -0.5264474312185777 -0.8965734808509549
5122000000.0 -0.5439851334312893 -0.910913672632099
5125000000.0 -0.5292832521866494 -0.8947998857096426
5128000000.0 -0.5862552603507878 -0.8746418057078795
5131000000.0 -0.5918527366474546 -0.847564465294594
5134000000.0 -0.5583973442953953 -0.8329877912982419
5138000000.0 -0.5732562223019428 -0.8433879471664809
5141000000.0 -0.5399331667248757 -0.9550478246550747
5144000000.0 -0.5592939423127831 -0.8694324999182903
5147000000.0 -0.5987659129529131 -0.856917768406808
5150000000.0 -0.5807461155788931 -0.8727886292321118
5153000000.0 -0.6250773854497249 -0.849081323912696
5156000000.0 -0.5983669462729113 -0.8630165341666655
5159000000.0 -0.6942206038139869 -0.8775900103708113
5162000000.0 -0.6511992705871384 -0.792446179590598
5166000000.0 -0.6812304769982548 -0.8816188463832415
5169000000.0 -0.6681353950163978 -0.8421719893009532
5172000000.0 -0.6315059355866484 -0.7913655050497959
5175000000.0 -0.6684025815453297 -0.8486029524110832
5178000000.0 -0.6609042138389716 -0.8001757795130484
5181000000.0 -0.6485351765748196 -0.8176828837437059
5184000000.0 -0.6779062670713286 -0.75727587635426
5188000000.0 -0.6656484419778598 -0.7928263067950391
5191000000.0 -0.712697934346908 -0.7552957678856617
