! Created with skrf 1.8.0 (http://scikit-rf.org).
# Hz S RI R 50.0 
!freq ReS11 ImS11
4000000000.0 0.15433829404766097 0.9937952838365369
4003000000.0 0.11238245084534089 1.1076781160979974
4006000000.0 0.2986104629797468 1.0192191728003754
4009000000.0 0.17598771036034896 1.0079534341434118
4012000000.0 0.16027978114619212 1.0274760044074245
4016000000.0 0.3229942431818967 1.0259586360567767
4019000000.0 0.2548135758523153 1.0401753258835051
4022000000.0 0.14166498024285917 0.9982465550516354
4025000000.0 0.3102037067145172 1.0140740447115022
4028000000.0 0.29416861555925544 0.9868543262891247
4031000000.0 0.24567600559927472 0.9492580485389456
4034000000.0 0.23279041785707108 1.0165059051906349
4038000000.0 0.2967286007871176 1.0260900129600556
4041000000.0 0.2895941348589595 0.9847063956483159
4044000000.0 0.33634883547534805 1.0988016204111308
4047000000.0 0.26795761193226997 1.0158091988693756
4050000000.0 0.38213123193899334 1.0117818892191395
4053000000.0 0.3399928876653144 0.93611738513717
4056000000.0 0.3179601673372183 0.9536233224739327
4059000000.0 0.2858041553267643 0.9883756109416117
4062000000.0 0.38036038145291023 0.9786261849670097
4066000000.0 0.36428273291609503 0.901827830946755
4069000000.0 0.40601133213034973 1.0037042248893537
4072000000.0 0.33056717718289746 0.9974141369850282
4075000000.0 0.3512207674444503 0.9996241834485784
4078000000.0 0.420412689414564 0.9352134000947978
4081000000.0 0.3234033197978057 0.9875095925219224
4084000000.0 0.40668548296024776 0.9558719302418135
4088000000.0 0.3544601512453751 1.012221439611626
4091000000.0 0.48032359523383106 1.0400685380470034
4094000000.0 0.4681363865228639 0.980718534393031
4097000000.0 0.4482116052213282 0.954772145271892
4100000000.0 0.47652492353412834 0.936390288861497
4103000000.0 0.4474103008954437 0.9503519636259219
4106000000.0 0.4717551630347887 0.923941259899127
4109000000.0 0.4916370696623933 0.9047511163127859
4112000000.0 0.47767107388037006 0.9440323064098217
4116000000.0 0.4364958560331767 0.9137469615162046
4119000000.0 0.5281605808132039 0.8730687519732843
4122000000.0 0.5315579125974048 0.9218365757351332
4125000000.0 0.5593301058382681 0.9127315152331437
4128000000.0 0.5007936057489966 0.8576590579721037
4131000000.0 0.5358288920784169 0.872086276027392
4134000000.0 0.5097935213273717 0.8814109988182528
4138000000.0 0.5544476411086673 0.8669668919826101
4141000000.0 0.5852940837651982 0.849373892232328
4144000000.0 0.5667335661957092 0.8770117604409267
4147000000.0 0.5931148492975257 0.8128976618747263
4150000000.0 0.5942979667723505 0.8831089478119645
4153000000.0 0.6023071935752511 0.8607930886343799
4156000000.0 0.5831467609415748 0.8484528862375416
4159000000.0 0.5625538996660739 0.8261684043941675
4162000000.0 0.6044518993843111 0.8376257649407146
4166000000.0 0.6251166306768265 0.8376263594666682
4169000000.0 0.6284926455566445 0.8131330068909027
4172000000.0 0.6478580113856692 0.8230634736568423
4175000000.0 0.6236515034965042 0.7793203661863146
4178000000.0 0.6553693651943653 0.827244660852545
4181000000.0 0.6329650851292978 0.8601528143799845
4184000000.0 0.6763726238724138 0.7938120114502862
4188000000.0 0.6596158498784765 0.7963356030780906
4191000000.0 0.6191180724365148 0.8053211472692241
4194000000.0 0.6919078683496768 0.7690937573342048
4197000000.0 0.6965614460271998 0.7955775334193431
4200000000.0 0.7017988556766437 0.7809720531075138
4203000000.0 0.6661631879534278 0.7673199129646644
4206000000.0 0.7045068979374629 0.7509736896776724
4209000000.0 0.7153949773580044 0.7678477921630118
4212000000.0 0.7248251983979918 0.7423305544577045
4216000000.0 0.7032495807981277 0.7327899088629273
4219000000.0 0.7103148408261488 0.7482956675663344
4222000000.0 0.7423624062565559 0.7151783252472397
4225000000.0 0.7327060546953154 0.7441088158769281
4228000000.0 0.7343975872982537 0.7374717221177329
4231000000.0 0.7356820064939513 0.6973994382537263
4234000000.0 0.7636287711915883 0.7322122901344452
4238000000.0 0.7687194273150773 0.7002380031477774
4241000000.0 0.7804784784463288 0.6958580848810254
4244000000.0 0.7701808592014954 0.7159188607067145
4247000000.0 0.7626687128687407 0.6937211308541162
4250000000.0 0.7919590320599159 0.6951801928687512
4253000000.0 0.7823910733058677 0.6508276352725503
4256000000.0 0.7995932462739652 0.6521810861373989
4259000000.0 0.7888340597616861 0.6310192035456023
4262000000.0 0.8081959506725256 0.6283842461657221
4266000000.0 0.8175260620372319 0.634195288648605
4269000000.0 0.8252850383400631 0.6486114408396886
4272000000.0 0.8137909508433965 0.5956344572790817
4275000000.0 0.8115038508097596 0.5954654272785518
4278000000.0 0.8182525961251368 0.5898997854936499
4281000000.0 0.8072910977345111 0.5918845684921654
4284000000.0 0.8607018824165986 0.5879780468794507
4288000000.0 0.8491202844221731 0.5976378419085905
4291000000.0 0.8204069240485162 0.5916942262546863
4294000000.0 0.8374554263546835 0.5509317092305096
4297000000.0 0.8439491772136635 0.5817256426804185
4300000000.0 0.8606097151171554 0.5499163364571789
4303000000.0 0.8524190100977794 0.5497920906458208
4306000000.0 0.8673630149204049 0.5875691243492466
4309000000.0 0.8557387579804331 0.5271463818930552
4312000000.0 0.8622816111126979 0.5369792792466537
4316000000.0 0.8679193541867575 0.5626340323252647
4319000000.0 0.8675553510551314 0.5183266586221411
4322000000.0 0.9016715562380776 0.480180452217466
4325000000.0 0.8968489970305196 0.5049433436357479
4328000000.0 0.8863183361615117 0.46269843956044077
4331000000.0 0.9351342397044129 0.4469640302368154
4334000000.0 0.9171055700280335 0.46741558012800644
4338000000.0 0.9182829274863921 0.4834676575794476
4341000000.0 0.904569332112041 0.47843086755078434
4344000000.0 0.970306009119724 0.45277127439587195
4347000000.0 0.9303371199080377 0.45700721783069775
4350000000.0 0.9051991183431358 0.40409458799241055
4353000000.0 0.8846590805667727 0.44913462975246865
4356000000.0 0.9456856255594921 0.40641408681091895
4359000000.0 0.9097291988260927 0.3977010190370537
4362000000.0 0.9336802105333042 0.34969068445753315
4366000000.0 0.9277771324659303 0.3713808984423187
4369000000.0 0.922999788790676 0.3799288602670491
4372000000.0 0.9754244407722923 0.3198869385900245
4375000000.0 0.9329165037192455 0.3652510141696874
4378000000.0 0.9163564775450271 0.35766650493274077
4381000000.0 0.9519419951350927 0.3825543544620955
4384000000.0 1.0084318693912175 0.3537122904320912
4388000000.0 0.9401948048420257 0.3363109141460621
4391000000.0 0.9711500339551753 0.31981937774771463
4394000000.0 0.9349395762422728 0.29741990931257356
4397000000.0 0.9774473052939012 0.294078738404839
4400000000.0 0.9990538978929837 0.31281942852261446
4403000000.0 0.9923971602472585 0.2993521604595536
4406000000.0 0.9839041926609257 0.24325228923656236
4409000000.0 1.0232599896698256 0.2747544102990955
4412000000.0 0.9813529606114832 0.2262914717821643
4416000000.0 0.9754467072737842 0.23355002414657508
4419000000.0 0.9814107224250908 0.22159205117037695
4422000000.0 0.9866745992004742 0.23342656271382572
4425000000.0 0.9951831028700868 0.25020558990802366
4428000000.0 0.9906546934356676 0.21195490220423024
4431000000.0 1.016052433348944 0.21895923858889746
4434000000.0 0.9853008011300044 0.19046156842979883
4438000000.0 1.0130670522110286 0.20154553653078794
4441000000.0 1.0050182859676458 0.20091166860454768
4444000000.0 0.9698965357913145 0.1847533785190442
4447000000.0 1.0141797640591927 0.16402344765703342
4450000000.0 0.9958072058818228 0.1668439908337851
4453000000.0 1.0423434692157805 0.1439591218093777
4456000000.0 0.9886411637629552 0.10541714580896508
4459000000.0 0.9651888218489604 0.09366200430435803
4462000000.0 1.063908143994503 0.12568979066510724
4466000000.0 1.0475666242514499 0.10365577798204548
4469000000.0 1.0047457891989366 0.12445825456398335
4472000000.0 1.0225199209102187 0.06677169047829973
4475000000.0 0.9965511522498287 0.0863774376541726
4478000000.0 1.0477682886787498 0.052428891747250295
4481000000.0 0.9797136981257939 0.040782660114428076
4484000000.0 1.0011842857767694 -0.007769617200079071
4488000000.0 0.9887321532183098 0.019631647739143235
4491000000.0 1.0207650578651446 -0.0036572893958689706
4494000000.0 1.0050660676260266 0.0312844433951123
4497000000.0 0.9945647146040169 0.04549551081079364
4500000000.0 1.0077236948764556 0.015697389497375785
4503000000.0 1.022074651244758 0.01278032104141931
4506000000.0 0.9993970134707864 -0.009786429822883146
4509000000.0 0.9834935029610841 -0.02421253133422638
4512000000.0 0.9962095095150718 -0.05131425916216502
4516000000.0 1.0326918187935745 -0.022872935842454215
4519000000.0 0.9941989069488258 -0.03494114395372069
4522000000.0 0.9999224732557457 -0.07161015134118337
4525000000.0 1.0108172496641608 -0.024860036378956778
4528000000.0 1.0365656390189575 -0.09443857555076052
4531000000.0 0.9997823629783124 -0.0656102845473205
4534000000.0 0.9955766588226509 -0.08000297112324738
4538000000.0 1.0136695724522993 -0.11078486911767763
4541000000.0 0.9949330967377549 -0.14977682343585433
4544000000.0 0.9751878055784242 -0.1158727420977641
4547000000.0 0.974086736620672 -0.092375774297458
4550000000.0 0.9858780920051844 -0.1772644267711888
4553000000.0 0.990609961893355 -0.16308506874169754
4556000000.0 0.9659402453023271 -0.1637023674173368
4559000000.0 0.9884367452668917 -0.1888602862271533
4562000000.0 1.0081359830617163 -0.18574624166769033
4566000000.0 0.9714263639915561 -0.19156737186721393
4569000000.0 0.9455471428380372 -0.1948716563738138
4572000000.0 0.9826332493441773 -0.18079509584440429
4575000000.0 0.9891326156439029 -0.2314654093799351
4578000000.0 1.0144797198281017 -0.2119811335134626
4581000000.0 1.00004286564074 -0.24802682293639494
4584000000.0 0.9630453706089848 -0.26101495215183307
4588000000.0 1.0086114771800914 -0.23369591209833926
4591000000.0 0.9849888243346206 -0.23694871757458763
4594000000.0 0.9725602903890327 -0.27525231287921254
4597000000.0 0.9914154247988802 -0.2880749832959753
4600000000.0 0.9376124577062263 -0.30490336799717804
4603000000.0 0.9763546569427038 -0.2983372086728426
4606000000.0 0.9711945596183978 -0.28625176497220245
4609000000.0 0.9523696735008106 -0.3321480199898127
4612000000.0 0.9908421487739105 -0.3245793931187299
4616000000.0 0.9416179048283293 -0.3392813872045276
4619000000.0 0.9687300217973185 -0.319319170403887
4622000000.0 0.9559079611836085 -0.3228756612318012
4625000000.0 0.8836312053670352 -0.3460355049777429
4628000000.0 0.9177135470580656 -0.3255023744633021
4631000000.0 0.8938218699478386 -0.39198949914500913
4634000000.0 0.9335173483489692 -0.3776019466939091
4638000000.0 0.9267223660612248 -0.39347642827541196
4641000000.0 0.9420701386728397 -0.3918227959469005
4644000000.0 0.9146846478633013 -0.40405229107271
4647000000.0 0.9486913018835995 -0.4018533951902591
4650000000.0 0.9021724876681584 -0.44626123635239817
4653000000.0 0.9183993397787859 -0.424920446333508
4656000000.0 0.9037070198865815 -0.46806131990219957
4659000000.0 0.9030155077244444 -0.44816712873840475
4662000000.0 0.901973020907835 -0.4552437906563226
4666000000.0 0.8938042455434487 -0.45437264931035776
4669000000.0 0.8957190068645116 -0.46423482249083364
4672000000.0 0.877141235899434 -0.5108969066857454
4675000000.0 0.8562320242660908 -0.5066219997171867
4678000000.0 0.8744901948032398 -0.5074759500938567
4681000000.0 0.8586652890692739 -0.5549905712917271
4684000000.0 0.8395156722939427 -0.5186069544496681
4688000000.0 0.8541432960936608 -0.5248118053296859
4691000000.0 0.8511940985096653 -0.5094843200148331
4694000000.0 0.8508395437331729 -0.5420009173546781
4697000000.0 0.8396390204552155 -0.5556846062224279
4700000000.0 0.867493644496402 -0.5459990767267826
4703000000.0 0.840558901174439 -0.5650335410076597
4706000000.0 0.8399446073257215 -0.5548068684415854
4709000000.0 0.819703041373319 -0.5690035850945293
4712000000.0 0.8250758563600735 -0.59498249151252
4716000000.0 0.8340024149202326 -0.566457067559099
4719000000.0 0.8233122928935552 -0.6087132771583492
4722000000.0 0.8130182990732902 -0.6183310969678386
4725000000.0 0.8102105953767555 -0.6224822107116665
4728000000.0 0.7659206633527498 -0.6174991783533397
4731000000.0 0.812948353513788 -0.602631385877948
4734000000.0 0.8010349510070208 -0.6182496450812385
4738000000.0 0.8106120972892215 -0.6621884622807825
4741000000.0 0.7819309421279603 -0.6474498741226814
4744000000.0 0.7520109277018694 -0.6813105718423541
4747000000.0 0.7709794443509506 -0.6421786758840315
4750000000.0 0.7630562102614208 -0.6855237581764873
4753000000.0 0.7467957050708548 -0.6812568348766939
4756000000.0 0.7139811012222409 -0.6812901596694432
4759000000.0 0.7333787679243602 -0.7076844423101533
4762000000.0 0.7119765500449613 -0.7201658498648621
4766000000.0 0.7126890693206136 -0.7106380856405425
4769000000.0 0.7267378996407163 -0.7454762234602116
4772000000.0 0.7110771235017697 -0.7384343534255171
4775000000.0 0.6876465963966747 -0.7699971409655277
4778000000.0 0.7328354956824361 -0.7391551979968425
4781000000.0 0.716033961593328 -0.7362891548562241
4784000000.0 0.7172648534054087 -0.7250808989082722
4788000000.0 0.6721930770875684 -0.7547654261632947
4791000000.0 0.6708777600908825 -0.7576516467248404
4794000000.0 0.6766550287038463 -0.7530692112762722
4797000000.0 0.6435002485005292 -0.7716537780421134
4800000000.0 0.6356090560157424 -0.7929711243104071
4803000000.0 0.6072802716946308 -0.803700685558399
4806000000.0 0.624687252783489 -0.7869233706151575
4809000000.0 0.6248546973322334 -0.8048287168383809
4812000000.0 0.5983719044866461 -0.8068291320117823
4816000000.0 0.6238959027297942 -0.7950816567366787
4819000000.0 0.6305551942981424 -0.830061057303403
4822000000.0 0.6267772514363719 -0.8285871160767124
4825000000.0 0.60837387460424 -0.8244026592688409
4828000000.0 0.5869613033429638 -0.8232674067082221
4831000000.0 0.5640492186303858 -0.8934703727312658
4834000000.0 0.5876118767566291 -0.8384996196574916
4838000000.0 0.5634337308382692 -0.8802146517141386
4841000000.0 0.5494078989036273 -0.8532078481630386
4844000000.0 0.5624966257397765 -0.8603018432903026
4847000000.0 0.5451661239407973 -0.8177270547446003
4850000000.0 0.5451215517849136 -0.8984881514924914
4853000000.0 0.5388265435025968 -0.8556350885134683
4856000000.0 0.5240196581024781 -0.8598572384195245
4859000000.0 0.5080150981000802 -0.904945348444469
4862000000.0 0.5219269831626838 -0.8415748684537393
4866000000.0 0.49127799318226256 -0.9087228770498166
4869000000.0 0.47395696007986654 -0.9069619192445396
4872000000.0 0.4762245906615725 -0.9151174684333099
4875000000.0 0.5087369242079807 -0.9271973854383543
4878000000.0 0.4755393934228075 -0.9178741005016229
4881000000.0 0.4862310551531847 -0.9801451633823404
4884000000.0 0.45651091635141233 -0.9233741520329637
4888000000.0 0.4735030602445983 -0.8931490953001944
4891000000.0 0.4721364793089675 -0.9221625472758282
4894000000.0 0.40905496473278774 -0.9184710373167226
4897000000.0 0.4278120650791582 -0.9148340981979747
4900000000.0 0.42816022906525075 -0.9545934166669033
4903000000.0 0.40028129895731057 -0.9459841385567043
4906000000.0 0.41201027601898804 -0.9469538239900458
4909000000.0 0.384595067867968 -0.969208592715525
4912000000.0 0.3812789338251549 -0.9780210961968131
4916000000.0 0.40912083803783117 -0.9658136367146009
4919000000.0 0.3789201470440009 -0.9800225993765324
4922000000.0 0.3937301457563923 -0.9522966754256296
4925000000.0 0.32857189507040674 -0.9603920102311493
4928000000.0 0.3913938420369065 -0.9507211515931888
4931000000.0 0.36194898343840776 -0.9861201555935315
4934000000.0 0.34216843272694647 -0.9415597959629824
4938000000.0 0.2900705312302675 -0.9750034118972974
4941000000.0 0.30297017360460915 -0.9438468747026474
4944000000.0 0.32250530436809893 -0.9083728168955021
4947000000.0 0.296921567666652 -0.9464277846262548
4950000000.0 0.26144527679936047 -0.9802009494137112
4953000000.0 0.2285163098859816 -1.0210036182862419
4956000000.0 0.2447982937038132 -0.9958700306993548
4959000000.0 0.23267538315688469 -0.957315019070992
4962000000.0 0.268105662982301 -1.0217818913954195
4966000000.0 0.25862383745408896 -1.0182856859749125
4969000000.0 0.25335918564594057 -1.0516869954309662
4972000000.0 0.2196848257133069 -0.9950531586878181
4975000000.0 0.21510423501964623 -0.9815329911460567
4978000000.0 0.2232477968637923 -1.006087688150368
4981000000.0 0.22457398319673147 -1.021914920362774
4984000000.0 0.17812817473466597 -1.0012600084396213
4988000000.0 0.20144767841095607 -0.9970317663847823
4991000000.0 0.24238285724088246 -1.0294102849472377
4994000000.0 0.16560940149268402 -1.021511977683023
4997000000.0 0.13426442934373473 -1.0356300295135523
5000000000.0 0.196094756810071 -1.06156052080301
5003000000.0 0.16633265129502003 -1.076561985216632
5006000000.0 0.17757826873504717 -1.058083320763068
5009000000.0 0.13766743801408823 -1.0480373635307974
5012000000.0 0.11467630595027375 -1.024581265970287
5016000000.0 0.14009208927576508 -1.0380749544155539
5019000000.0 0.09962559352660101 -1.0273691719979723
5022000000.0 0.10118137821212844 -1.0502140124533232
5025000000.0 0.09300588945821353 -1.104335243038373
5028000000.0 0.03683750009477402 -1.0321990984630671
5031000000.0 0.023990025902461215 -1.036852000679661
5034000000.0 0.03689497581476925 -1.1085893859660296
5038000000.0 0.033649777336867914 -0.9976147637700623
5041000000.0 0.1203894675329633 -1.0421716857573604
5044000000.0 0.06981711471711384 -1.0006262458232604
5047000000.0 0.05198328149830567 -1.0517131078834705
5050000000.0 0.10984855793002518 -1.0200634610359762
5053000000.0 0.03738430507141141 -1.0714209505679237
5056000000.0 0.04044011756642735 -1.036542564818662
5059000000.0 0.06944185338584064 -1.0587806121998566
5062000000.0 -0.032852490811196344 -1.0696239342517746
5066000000.0 0.02797683516340596 -1.004896875798515
5069000000.0 -0.03827130174963714 -1.0583963727630032
5072000000.0 -0.019208496445287035 -1.0168350829355333
5075000000.0 -0.0033013424956663817 -1.073222002138149
5078000000.0 -0.10885162845263349 -1.0205062299967356
5081000000.0 -0.08827017624447321 -1.0334976311458572
5084000000.0 -0.0495097744178655 -1.0574560705742466
5088000000.0 -0.02167594961245506 -1.013322653388826
5091000000.0 -0.12804977651902488 -1.0486231502416772
5094000000.0 -0.12418957302691759 -1.075323778037934
5097000000.0 -0.04776404077786102 -1.0379867843471002
5100000000.0 -0.10427651723048226 -1.037176505509707
5103000000.0 -0.15456293774191593 -0.9969664573963265
5106000000.0 -0.13609684250774567 -1.0758739003633868
5109000000.0 -0.05246836256943087 -1.0665332247585046
5112000000.0 -0.11728093781130805 -1.0118579605613565
5116000000.0 -0.136846688047011 -0.9735212190230427
5119000000.0 -0.15654986432420254 -1.0067723206117696
5122000000.0 -0.15606954321522507 -0.9976164070518898
5125000000.0 -0.18488484986512038 -1.0065060469419667
5128000000.0 -0.2192273779145068 -0.991715362029632
5131000000.0 -0.15810386404317317 -1.006190983529517
5134000000.0 -0.19954141586354657 -1.0122454855916296
5138000000.0 -0.19806502695054248 -1.0149313644371096
5141000000.0 -0.145379130245329 -1.0159655827062828
5144000000.0 -0.17529781662333951 -1.016717705435892
5147000000.0 -0.2288815097806301 -0.9989969761108329
5150000000.0 -0.18271621643238656 -1.0133434937490013
5153000000.0 -0.2608347915084209 -0.9897620126243867
5156000000.0 -0.2797594838590195 -1.061585451274265
5159000000.0 -0.2844822745547267 -1.057934287968057
5162000000.0 -0.2343413631324837 -1.0112560439694667
5166000000.0 -0.3616830062741137 -1.0135616819816091
5169000000.0 -0.25899858164648515 -1.0358279632400627
5172000000.0 -0.2759957187083113 -0.9834237124955127
5175000000.0 -0.2746219825865892 -1.0167531151173061
5178000000.0 -0.30662433820806667 -0.9993136148997157
5181000000.0 -0.28726475678035074 -1.0205652742581788
5184000000.0 -0.35708805602078625 -1.014116242403722
5188000000.0 -0.30706113769989385 -0.9848557372707822
5191000000.0 -0.36247741105173764 -0.9963370879194184
5194000000.0 -0.31572146737479356 -1.0151255371170533
