! Created with skrf 1.8.0 (http://scikit-rf.org).
# Hz S RI R 50.0 
!freq ReS11 ImS11
4000000000.0 0.6314538397924202 0.7676652817231033
4003000000.0 0.768204002082757 0.7932662964347418
4006000000.0 0.7340346538995556 0.735477450428893
4009000000.0 0.6590040714159896 0.7945823387793062
4012000000.0 0.713029625357739 0.7775404902483151
4016000000.0 0.7728635401758905 0.7775928420069895
4019000000.0 0.7284503547983663 0.7307987354468493
4022000000.0 0.6659825585267887 0.805548978592091
4025000000.0 0.7985657707718355 0.7051554139346519
4028000000.0 0.7317686911469933 0.7228001247904989
4031000000.0 0.7196480925413675 0.7041350071236756
4034000000.0 0.7598031762754677 0.7041001809268245
4038000000.0 0.7720794804029945 0.7093390939690807
4041000000.0 0.7582070597066607 0.6870604447853002
4044000000.0 0.7996764889586359 0.7318636160588806
4047000000.0 0.7594488275207143 0.7153419014961994
4050000000.0 0.7921471374431793 0.665553438774108
4053000000.0 0.8065280323729425 0.6176202278986855
4056000000.0 0.7711088972428934 0.6797492380523439
4059000000.0 0.7984063595012656 0.652714744742511
4062000000.0 0.828707155549894 0.6344780907619287
4066000000.0 0.7532072924151667 0.6122037545543502
4069000000.0 0.8630813397316305 0.6368051143109126
4072000000.0 0.8071636994248641 0.6555461437544174
4075000000.0 0.8457976708629513 0.6326031450161242
4078000000.0 0.8537017273414351 0.6354036560630388
4081000000.0 0.8183526229952175 0.662622417997448
4084000000.0 0.8880105120989994 0.6101304452023404
4088000000.0 0.7892189541394825 0.6273275956774843
4091000000.0 0.8804350935834735 0.6502351154170312
4094000000.0 0.8258611809306508 0.638342888769343
4097000000.0 0.8750402418851388 0.5693710585117233
4100000000.0 0.837157227463679 0.5867975759628421
4103000000.0 0.8606056576164423 0.574213478354288
4106000000.0 0.8840091971132655 0.5524414095653906
4109000000.0 0.8899784542679641 0.5051759908447571
4112000000.0 0.8872577164220803 0.5360020187419352
4116000000.0 0.8613874080161962 0.5566962288285237
4119000000.0 0.8884282986804815 0.5471790078492094
4122000000.0 0.8879812334344968 0.47826758970643746
4125000000.0 0.9340389368098255 0.4879370179002424
4128000000.0 0.8503790104866967 0.5188694704507737
4131000000.0 0.8742810376149516 0.4844298171972161
4134000000.0 0.8658395510314603 0.49206334129490226
4138000000.0 0.9092903781008541 0.46390787582744003
4141000000.0 0.9226405762972643 0.4641562114114719
4144000000.0 0.8927889559380854 0.47939700046015804
4147000000.0 0.9341985620146844 0.450513280987986
4150000000.0 0.9275068047751494 0.4490582471392474
4153000000.0 0.9299199056045697 0.43777339274024396
4156000000.0 0.9386425003586081 0.4838659696100507
4159000000.0 0.9157125452434445 0.412140988823088
4162000000.0 0.9331769198249216 0.42855440126333
4166000000.0 0.965644758394461 0.41148613394756073
4169000000.0 0.9598435209984395 0.38694074251912325
4172000000.0 0.9853051606263896 0.3962583597727644
4175000000.0 0.944510716850082 0.38563359620952137
4178000000.0 0.9561702566622328 0.4113506196034509
4181000000.0 0.9640664605691518 0.35293100861309545
4184000000.0 0.9654024356796552 0.3883999963118258
4188000000.0 0.9789744300082437 0.359119602899689
4191000000.0 0.9425946419359764 0.3586319452917683
4194000000.0 0.9361145850288266 0.3501984242973549
4197000000.0 0.993265386650851 0.3461248150042499
4200000000.0 0.955002319025863 0.3191875809589303
4203000000.0 0.9794330981157768 0.33469227287145764
4206000000.0 0.9690916126992982 0.3030261523000595
4209000000.0 0.9515743735571556 0.318103920475259
4212000000.0 0.9956507510543 0.27455754513260966
4216000000.0 0.9864575434277304 0.30353875352466847
4219000000.0 0.9965241568563608 0.2978437327584049
4222000000.0 0.9916908818504195 0.264670131943538
4225000000.0 0.989526524089366 0.2566445841900844
4228000000.0 0.9806460027243931 0.2597676223794857
4231000000.0 1.0003256481155116 0.23910726732581522
4234000000.0 1.0084738367870898 0.2416140970435105
4238000000.0 1.0007265553258513 0.22570628211594043
4241000000.0 0.9917639967333369 0.2013875264254662
4244000000.0 1.0092004966408668 0.21847295636379072
4247000000.0 0.9787493426433459 0.21459760018423163
4250000000.0 0.972165525093148 0.17858304493465071
4253000000.0 0.9867890467863629 0.18565857273819258
4256000000.0 1.023676368363109 0.1827601810733569
4259000000.0 0.9728103041210221 0.13197028776909528
4262000000.0 1.011616515932702 0.1505529717599489
4266000000.0 1.0127921831130706 0.1269177797123191
4269000000.0 1.0002125183064088 0.1308944797488345
4272000000.0 1.0039742670273337 0.12587585605949408
4275000000.0 1.0165791216497042 0.141668519410602
4278000000.0 1.0256359324486781 0.11894633681920969
4281000000.0 1.0200834892407287 0.13691197151892842
4284000000.0 1.009520493905903 0.0647743757048394
4288000000.0 1.0131347519749296 0.13025266278860068
4291000000.0 0.9841881096950447 0.07613749825973663
4294000000.0 1.0061208978284286 0.059756419848040934
4297000000.0 1.0082465760291277 0.06780505838183425
4300000000.0 1.0078882618500287 0.06107872302016689
4303000000.0 0.9883374697875154 0.020487046619878865
4306000000.0 1.017156804397316 0.05953269112444648
4309000000.0 1.008748281132224 0.03817176047650936
4312000000.0 1.0146710157394525 0.04862791608891452
4316000000.0 1.0353793378466878 0.023071317775041456
4319000000.0 1.002876456472319 0.04285771239431625
4322000000.0 1.009179777412426 -0.03932705006837468
4325000000.0 1.0231182792252995 -0.0060876267995421535
4328000000.0 1.0092823328538827 -0.015331527583535426
4331000000.0 0.9936772150056332 -0.07666718043125055
4334000000.0 1.005692088992001 -0.044823663421787896
4338000000.0 1.0115284458289264 -0.02370431812182304
4341000000.0 1.0483745616719888 -0.02668055318589052
4344000000.0 1.03012764961336 -0.0769714227502145
4347000000.0 1.0259451914573927 -0.11089711742030905
4350000000.0 0.9857529981959089 -0.08168971737392605
4353000000.0 0.985157403837791 -0.07112387961334685
4356000000.0 0.9945393332648611 -0.12463831733950459
4359000000.0 0.955139178612157 -0.10208568285316148
4362000000.0 1.0144927774642492 -0.17902007688221394
4366000000.0 1.033980476206129 -0.12668254332522624
4369000000.0 0.9740221916289349 -0.1375005990831104
4372000000.0 0.988504693477392 -0.2008823130584244
4375000000.0 0.9921460791705965 -0.12639906328311468
4378000000.0 1.0027458265475409 -0.17089675146503328
4381000000.0 0.9789745808899983 -0.16891714093638355
4384000000.0 1.0526453011548962 -0.18136975187852672
4388000000.0 0.9609341225429509 -0.16842616317690848
4391000000.0 1.0036139182942256 -0.20749400955914657
4394000000.0 0.9586929183477316 -0.21350092125701123
4397000000.0 0.9906683357101684 -0.22591711799200467
4400000000.0 1.0153783652251427 -0.2494439910484778
4403000000.0 0.9858817803318779 -0.22904927300153352
4406000000.0 0.9733595942989566 -0.2575619552929228
4409000000.0 1.0119837823774336 -0.27333734441884694
4412000000.0 0.9503836255540391 -0.3237045320062497
4416000000.0 0.9522890455527393 -0.2779067400013024
4419000000.0 0.9634026428844666 -0.3081814557715298
4422000000.0 0.9576637562557071 -0.25828537367504956
4425000000.0 0.9943396205983435 -0.2893889549963803
4428000000.0 0.9602926551685949 -0.3181206935390143
4431000000.0 0.9863390107410805 -0.33373572796954204
4434000000.0 0.9609872653977433 -0.3363619774583053
4438000000.0 0.9782963777157274 -0.32723127799965757
4441000000.0 0.9705300845221452 -0.3410045883297419
4444000000.0 0.9382472230949448 -0.3392739505655647
4447000000.0 0.9374708947475837 -0.3749284011657691
4450000000.0 0.9426242694143386 -0.34579005181398204
4453000000.0 0.9542620404432106 -0.37588282344192137
4456000000.0 0.9171714515222852 -0.38054948670495126
4459000000.0 0.8919452160552179 -0.3887265694733243
4462000000.0 0.9852375992661813 -0.42281527214483605
4466000000.0 0.9678438157573686 -0.4361716309413458
4469000000.0 0.9502373975402166 -0.3918219055657514
4472000000.0 0.9191846749253776 -0.4587202290597299
4475000000.0 0.9046598960548458 -0.42542518612059477
4478000000.0 0.9447014633396935 -0.4849444669680616
4481000000.0 0.8816335348092088 -0.46246509843453115
4484000000.0 0.873649290120178 -0.5025452939175825
4488000000.0 0.884054635961701 -0.4666853457811739
4491000000.0 0.897852933016457 -0.4711134528639347
4494000000.0 0.8850154576148205 -0.47848411453305506
4497000000.0 0.8719285411158435 -0.4605727040579936
4500000000.0 0.8866923932384374 -0.4937371026491227
4503000000.0 0.9005575362406466 -0.5148113418095753
4506000000.0 0.8609446504646743 -0.5198359553612271
4509000000.0 0.8471765649192866 -0.5286867466178001
4512000000.0 0.8399758315101967 -0.520958157307135
4516000000.0 0.8795508511349419 -0.5547737472270318
4519000000.0 0.8206800618802985 -0.5253447888951795
4522000000.0 0.8435935000866184 -0.5720569284954153
4525000000.0 0.8582234448722124 -0.5321283920168011
4528000000.0 0.8521164048407786 -0.5750390294375273
4531000000.0 0.8393681244075719 -0.5655678354341355
4534000000.0 0.8230822381446731 -0.5738350355265642
4538000000.0 0.8149611890719071 -0.5929062202385165
4541000000.0 0.7777925064557368 -0.6142783472974274
4544000000.0 0.8118282325059969 -0.6022893852940865
4547000000.0 0.801057014454867 -0.5903800497424647
4550000000.0 0.7982408673063772 -0.6403583038739162
4553000000.0 0.7898788784794399 -0.6442387605590234
4556000000.0 0.7634743159931696 -0.6373251007660896
4559000000.0 0.774414028999134 -0.6566546551794239
4562000000.0 0.7799026763079819 -0.6529545007648154
4566000000.0 0.7841499842490318 -0.6533180192613766
4569000000.0 0.7474178548967383 -0.6628691023697846
4572000000.0 0.7550420415693162 -0.6671298223274013
4575000000.0 0.7433498774993597 -0.7095540255654341
4578000000.0 0.7715987613852622 -0.6912903220812525
4581000000.0 0.7333055244686109 -0.7272924670505235
4584000000.0 0.7224727646542657 -0.6980653029341982
4588000000.0 0.7320590082412292 -0.7108150863805072
4591000000.0 0.723405271635895 -0.7108559158439929
4594000000.0 0.6973835611545526 -0.730877581120401
4597000000.0 0.7191881414187096 -0.7400179764770521
4600000000.0 0.6620480120498473 -0.7479395254597404
4603000000.0 0.6905502722386715 -0.7468425470989705
4606000000.0 0.6960310137855567 -0.7445656002080655
4609000000.0 0.6871309035938202 -0.7436053434091862
4612000000.0 0.6881466227519191 -0.7620355827389594
4616000000.0 0.6611445956694679 -0.7503053712741435
4619000000.0 0.6782495357843774 -0.754573241233375
4622000000.0 0.6508540957914636 -0.7722841494524139
4625000000.0 0.6115119424128491 -0.7637316453018225
4628000000.0 0.6497307823070799 -0.7760693370244968
4631000000.0 0.6316837395471431 -0.8031166691271469
4634000000.0 0.6145123620905001 -0.8082000097006548
4638000000.0 0.6169459498692179 -0.7986569755820054
4641000000.0 0.623138116300973 -0.8020475102980683
4644000000.0 0.581350936616572 -0.8077604149917197
4647000000.0 0.5995443957688829 -0.8093225181775578
4650000000.0 0.5808579057846716 -0.8141515562718578
4653000000.0 0.5860434113385666 -0.8501204715516104
4656000000.0 0.585444394147151 -0.8346756502972119
4659000000.0 0.5537631815850181 -0.8434406757958808
4662000000.0 0.5479656694409563 -0.8539829880486036
4666000000.0 0.5319805063313912 -0.8628527002719452
4669000000.0 0.5495070612613712 -0.846180494261578
4672000000.0 0.5379577724172299 -0.8837299221602218
4675000000.0 0.5309657559000646 -0.8745767627758491
4678000000.0 0.5130271072893755 -0.8500680607105207
4681000000.0 0.4910850013119303 -0.9122771404473751
4684000000.0 0.46785068489417775 -0.8949798016643844
4688000000.0 0.4710433770480301 -0.8888130384839543
4691000000.0 0.5167301999713212 -0.9083586191396613
4694000000.0 0.4766941757578148 -0.8993942092096339
4697000000.0 0.42851532192083075 -0.8496824312506512
4700000000.0 0.485008076553478 -0.8949299282220893
4703000000.0 0.4687168275692214 -0.8535563456895678
4706000000.0 0.44069917734237096 -0.9236974599185449
4709000000.0 0.42957995949637534 -0.9244726266126908
4712000000.0 0.4588493731234866 -0.9169712186679793
4716000000.0 0.4193201890268406 -0.9275178817994203
4719000000.0 0.45114810058059523 -0.9221026889070383
4722000000.0 0.437435740677772 -0.9130791081034968
4725000000.0 0.40535735559862685 -0.9526820849069786
4728000000.0 0.3604154159539974 -0.9264385933983141
4731000000.0 0.38178438419784183 -0.9763555897890734
4734000000.0 0.41366362958769426 -0.9463822281059078
4738000000.0 0.384759414018877 -0.9792699020168877
4741000000.0 0.34359241914748934 -0.9532176592148021
4744000000.0 0.33477039618435844 -0.9867337259082423
4747000000.0 0.36432248751479435 -0.917238218570211
4750000000.0 0.34932040120049146 -0.9790449666169515
4753000000.0 0.3437975141590558 -0.9743419568729412
4756000000.0 0.3234072723576574 -0.975878727583406
4759000000.0 0.32744220374867844 -0.9562250076289024
4762000000.0 0.29460431827433503 -1.007432689848398
4766000000.0 0.3004324908427552 -0.9889560191115109
4769000000.0 0.3026104388502753 -0.9941635195400863
4772000000.0 0.2691190935950321 -0.9975930011348945
4775000000.0 0.247120614041537 -1.0336474137571454
4778000000.0 0.2726245364276764 -1.0227328331557217
4781000000.0 0.2655457554248305 -0.9800056131363073
4784000000.0 0.28254347500569743 -0.9684415165966843
4788000000.0 0.21397314498164072 -0.9885421132771011
4791000000.0 0.21135710306094052 -0.9943406138588741
4794000000.0 0.2548527681529628 -1.0447840815100384
4797000000.0 0.18469116641040526 -0.9849043795739859
4800000000.0 0.19446572974109713 -0.9940226545454827
4803000000.0 0.12742275095227978 -0.9928904938865488
4806000000.0 0.1879489055433888 -1.0080132860792246
4809000000.0 0.11058528950507888 -1.0139111669654062
4812000000.0 0.11100879241830465 -0.9985870157771888
4816000000.0 0.16502370037717934 -0.9752562200084889
4819000000.0 0.1632579475747366 -1.0200435200226052
4822000000.0 0.16075451699259183 -1.0506220200488738
4825000000.0 0.17165749712851666 -1.0143454840184476
4828000000.0 0.10615828598265373 -1.0116708726446815
4831000000.0 0.0657146782592413 -1.0512227454141736
4834000000.0 0.12139294197030957 -1.0439620505997271
4838000000.0 0.07373642609064784 -1.0379514337016857
4841000000.0 0.07759750094276721 -1.0130897579416822
4844000000.0 0.09310045199759844 -1.0208659863806857
4847000000.0 0.09932918356852607 -0.9966796848572588
4850000000.0 0.026098992722872284 -1.0514825976918054
4853000000.0 0.07451899120935226 -1.011290509141703
4856000000.0 0.03326738098920919 -1.0256208487994696
4859000000.0 0.017282659357442887 -1.0576308504941792
4862000000.0 0.05374019688187936 -1.0105422002194833
4866000000.0 -0.019532814802261884 -1.0421939698772515
4869000000.0 -0.012862719027922156 -1.0475604672116328
4872000000.0 -0.044080340909874935 -1.0488112371791611
4875000000.0 0.042033395513232305 -1.0841376700915137
4878000000.0 -0.032898885770177536 -1.0246836639905474
4881000000.0 -0.06144506826278044 -1.0921598856473445
4884000000.0 -0.033632213990346535 -1.031008344495592
4888000000.0 -0.007846479749144632 -1.023676820438325
4891000000.0 -0.01773987506996086 -1.0755568851928747
4894000000.0 -0.0756447829260799 -1.031066776047977
4897000000.0 -0.03715537015677371 -1.018997080040919
4900000000.0 -0.060218584758735025 -1.0697362173323608
4903000000.0 -0.0450234629787157 -1.0679713742088592
4906000000.0 -0.11709074312225558 -1.0619137688320133
4909000000.0 -0.09699643591979651 -1.0395741914399526
4912000000.0 -0.12922803402291227 -1.0546536092421108
4916000000.0 -0.09805578518430613 -1.0728780001125224
4919000000.0 -0.10695367641263549 -1.0600730310788498
4922000000.0 -0.1123796977714874 -1.04915350777538
4925000000.0 -0.19513882759219423 -1.0236761117783348
4928000000.0 -0.09626550044505479 -1.026966143562414
4931000000.0 -0.12162580124330387 -1.0352061929889558
4934000000.0 -0.1629476511851315 -0.9591760001759347
4938000000.0 -0.20653485249846643 -1.0214327775443865
4941000000.0 -0.1485572425638152 -1.0022322359733404
4944000000.0 -0.1515750355474421 -0.9391257842063285
4947000000.0 -0.2147997865411029 -1.004543802756859
4950000000.0 -0.22065802338602464 -0.9843822849832623
4953000000.0 -0.304044011344977 -1.0423969344355755
4956000000.0 -0.23318664018815377 -0.9957223505008808
4959000000.0 -0.2847964000811305 -0.9441437703646803
4962000000.0 -0.24790260084263513 -1.0127997698086073
4966000000.0 -0.24105313179931015 -1.0277318404118183
4969000000.0 -0.26513680656848043 -1.0458842477313632
4972000000.0 -0.27658192355317046 -1.0022398662571372
4975000000.0 -0.2421347794000772 -0.9869972044664227
4978000000.0 -0.3121501924655898 -0.9853315814055708
4981000000.0 -0.3365960110503786 -1.0043186807708382
4984000000.0 -0.301509533233955 -0.9558617641950554
4988000000.0 -0.26590498719425937 -1.0114957958417259
4991000000.0 -0.272904878373567 -1.0478761183039296
4994000000.0 -0.34166194999667276 -0.9885718113953462
4997000000.0 -0.37703354278794105 -0.9799876534140581
5000000000.0 -0.3621376765587637 -0.9843884302987753
5003000000.0 -0.34332041358353776 -1.0337070742549126
5006000000.0 -0.37064570456856216 -1.0026882513665927
5009000000.0 -0.37293099946316044 -0.9786011140322618
5012000000.0 -0.38289635435409625 -0.9469623653581933
5016000000.0 -0.3661450770815848 -1.0242014348836035
5019000000.0 -0.40676715063822033 -0.968558197564219
5022000000.0 -0.41014355425347593 -0.9586749257649674
5025000000.0 -0.4504742833631514 -1.0125443750647094
5028000000.0 -0.41840766167291377 -0.9568798035451191
5031000000.0 -0.43132801024679013 -0.9518592943256999
5034000000.0 -0.4787671713364803 -0.9521192452936409
5038000000.0 -0.4361856740093806 -0.929219139692421
5041000000.0 -0.4082841152202994 -0.948920807424599
5044000000.0 -0.42368327093349534 -0.9207453555935824
5047000000.0 -0.46674703770317766 -0.9297175582638192
5050000000.0 -0.3992103939239182 -0.9561152513772109
5053000000.0 -0.5522856830338558 -0.9486260433305698
5056000000.0 -0.43791526940342596 -0.99648217042442
5059000000.0 -0.45521048568736905 -0.9086198341694224
5062000000.0 -0.5328702382686632 -0.9341856905936448
5066000000.0 -0.47253337068009593 -0.9136316254793022
5069000000.0 -0.5104498994617942 -0.9046183383180414
5072000000.0 -0.4599481647021698 -0.8646846668731683
5075000000.0 -0.4925675718782063 -0.8749563632590636
5078000000.0 -0.5512774168441943 -0.8668112076814909
5081000000.0 -0.5486632065004164 -0.8571802390966455
5084000000.0 -0.5634621675380126 -0.9266894406354071
5088000000.0 -0.5414808202187245 -0.9040506645296178
5091000000.0 -0.5886680385963656 -0.8579555019787577
5094000000.0 -0.6434953614375775 -0.8728883286081462
5097000000.0 -0.570223397551759 -0.8733771099284966
5100000000.0 -0.585921674726721 -0.8747761004791871
5103000000.0 -0.6338223787842838 -0.8501847539629973
5106000000.0 -0.608039438346577 -0.8661235438096315
5109000000.0 -0.5448279170008462 -0.8849624059924033
5112000000.0 -0.646540263943383 -0.8283935415936134
5116000000.0 -0.5752250582517154 -0.8076352245379902
5119000000.0 -0.6628208205051134 -0.8389033026628461
5122000000.0 -0.62732973352229 -0.7835291723351074
5125000000.0 -0.5887613665943399 -0.8384033163632781
5128000000.0 -0.6295877580034854 -0.7886791934715587
5131000000.0 -0.6325059279556493 -0.8190496906280115
5134000000.0 -0.6718044313967912 -0.781328851347568
5138000000.0 -0.6166055160778166 -0.8021131088982005
5141000000.0 -0.6521606457548186 -0.8426689974570092
5144000000.0 -0.628843877648731 -0.818415189869446
5147000000.0 -0.6923573918318779 -0.8207894332058912
5150000000.0 -0.6895546510832146 -0.8237732488305936
5153000000.0 -0.717235988745575 -0.7513244462319388
5156000000.0 -0.7294678784149823 -0.7805530312856979
5159000000.0 -0.7054251581674532 -0.8383313715740488
5162000000.0 -0.7397553982009224 -0.7442429349621331
5166000000.0 -0.7466420651802729 -0.7751205529889427
5169000000.0 -0.7461983685674506 -0.7755330814987759
5172000000.0 -0.6779554539801388 -0.6940645243149324
5175000000.0 -0.7568039852781632 -0.7686652228084078
5178000000.0 -0.744137956466115 -0.760749686576672
5181000000.0 -0.7576959583599017 -0.7855818192188799
5184000000.0 -0.7533912919644172 -0.7087597751824631
5188000000.0 -0.7629269905982643 -0.7281183389676711
