! Created with skrf 1.8.0 (http://scikit-rf.org).
# Hz S RI R 50.0 
!freq ReS11 ImS11
4000000000.0 0.6035099740610469 0.8343557551910192
4003000000.0 0.6804365137216737 0.8421332799365593
4006000000.0 0.6587439417015994 0.7632417953772057
4009000000.0 0.7463764912905881 0.8164586307707803
4012000000.0 0.6064312019453916 0.8006780283492295
4016000000.0 0.691091236509019 0.7802103947736776
4019000000.0 0.6665316385546034 0.7915262534261512
4022000000.0 0.6531584301666171 0.8447448979816373
4025000000.0 0.7579205370569323 0.7744699174646854
4028000000.0 0.6876514502362222 0.735004565698151
4031000000.0 0.672870225917465 0.7252338185074637
4034000000.0 0.6941982940117477 0.7273297482883657
4038000000.0 0.7486060331795553 0.7540015712589757
4041000000.0 0.721537206848454 0.714515268470991
4044000000.0 0.7357728896902481 0.7780343581378759
4047000000.0 0.7315274252964198 0.8210346602580411
4050000000.0 0.7609600909144731 0.7174174073517253
4053000000.0 0.7654756582345541 0.699369230734677
4056000000.0 0.7636701190913673 0.7366823079349568
4059000000.0 0.7454781467803017 0.7241849063906547
4062000000.0 0.7805972278302696 0.6835150738304359
4066000000.0 0.717506198409682 0.6313774792619783
4069000000.0 0.8049183213831181 0.6838858153854123
4072000000.0 0.7244654211825738 0.7111340282062075
4075000000.0 0.7985520010473787 0.7061620115266942
4078000000.0 0.8031382908029661 0.6717833885634981
4081000000.0 0.7818138007408754 0.7051862502705751
4084000000.0 0.797353609058393 0.6515376652774043
4088000000.0 0.7630801548343313 0.6573966567495642
4091000000.0 0.8382063967210021 0.6788464348395367
4094000000.0 0.7934551631349782 0.6493114406707885
4097000000.0 0.8053924781577844 0.6334132282500766
4100000000.0 0.8361455561352739 0.6111244030615752
4103000000.0 0.8146304649489604 0.6744962683417979
4106000000.0 0.8538537902842642 0.6052863172665658
4109000000.0 0.8393835887066663 0.5429040962818714
4112000000.0 0.8266717407364428 0.5647256225930497
4116000000.0 0.850978096978558 0.5947039984385143
4119000000.0 0.8485001494894817 0.5562190548374045
4122000000.0 0.852309972795533 0.5325726372011923
4125000000.0 0.8863619635788139 0.5624151025910946
4128000000.0 0.8106953832564593 0.5560128366434334
4131000000.0 0.8594438765915682 0.5484599097723508
4134000000.0 0.8702261066776231 0.5408156396705439
4138000000.0 0.8445512489383598 0.4871127732133084
4141000000.0 0.8475000503854703 0.4881791771709758
4144000000.0 0.8902621842965833 0.5135457356476263
4147000000.0 0.8778835060145878 0.48325605811138145
4150000000.0 0.9037228076571392 0.509307901826421
4153000000.0 0.9096058895049807 0.4795008862785709
4156000000.0 0.9017405190950618 0.4787065704374852
4159000000.0 0.8683691878557767 0.48398452662308994
4162000000.0 0.8886238872623493 0.48928947764166675
4166000000.0 0.9311506698124339 0.4725986563977338
4169000000.0 0.9124833002402943 0.43184093433470483
4172000000.0 0.9116269078195867 0.4514444181501505
4175000000.0 0.9146344245623002 0.430743241963833
4178000000.0 0.9322105138490188 0.43441545096532563
4181000000.0 0.9331631429647458 0.4286420998835119
4184000000.0 0.9341087164819539 0.4142226408361623
4188000000.0 0.8982166038572059 0.398654767849942
4191000000.0 0.9217599778769757 0.42975103935673503
4194000000.0 0.9205554652959655 0.37196794081608187
4197000000.0 0.9841660517917881 0.3882814885562608
4200000000.0 0.9232064368036961 0.4028405345872592
4203000000.0 0.9476331555646916 0.387154188106434
4206000000.0 0.9552621451230912 0.3868334973046376
4209000000.0 0.9392783750950721 0.37413264538943475
4212000000.0 0.9555038747461267 0.3291371342106828
4216000000.0 0.9823081677667427 0.3562846879989086
4219000000.0 0.9639009046397832 0.3629750458953196
4222000000.0 0.9656523739216567 0.3090265923266981
4225000000.0 0.9568974935935355 0.3225442015461636
4228000000.0 0.9838978168604107 0.31627652697081965
4231000000.0 0.9769542908039714 0.29264650358924277
4234000000.0 1.0014540664038543 0.3146924349498786
4238000000.0 0.9880419111306316 0.2814492605308969
4241000000.0 0.9856299879588353 0.25908267497497
4244000000.0 0.9722716021007796 0.27895035808316526
4247000000.0 0.9813916982439856 0.2796307984264608
4250000000.0 0.9772241863752524 0.241062173160891
4253000000.0 0.9635698806697253 0.2334176110704415
4256000000.0 1.013782075825262 0.22356484995519166
4259000000.0 0.9687973302931646 0.2003701938559518
4262000000.0 0.9899306592745842 0.2204586039568822
4266000000.0 1.0227777933577142 0.18899218931198303
4269000000.0 0.9793767505559378 0.21246628967880318
4272000000.0 0.9946477064239272 0.18879527976527144
4275000000.0 1.0124568273962677 0.20697429401281398
4278000000.0 1.0086924051603425 0.18880274261945146
4281000000.0 1.0130853895824157 0.17513674130743245
4284000000.0 1.0133645966473028 0.14322332772964247
4288000000.0 0.992372298666061 0.19731690250057918
4291000000.0 0.999201179040111 0.16381915418847648
4294000000.0 1.0024875951786414 0.12537218386005455
4297000000.0 0.9725136303697556 0.164279213690757
4300000000.0 0.9929708292966146 0.11890117864578048
4303000000.0 1.0119672622948561 0.09458326015292569
4306000000.0 1.0311594797478725 0.14084657038356468
4309000000.0 0.9790508339330172 0.11947040412332023
4312000000.0 1.0105000887678872 0.13513563870407624
4316000000.0 1.019296568007762 0.11345351905940211
4319000000.0 0.9836431004429698 0.08674226424431973
4322000000.0 1.002725502836265 0.015787521426133877
4325000000.0 1.0003047682118247 0.04137399794766995
4328000000.0 0.9927200125807587 0.04760795573532349
4331000000.0 0.9985000072013149 0.039712071542259725
4334000000.0 1.0250408002723852 0.022211798855939796
4338000000.0 1.0248870711518685 0.030824965832635706
4341000000.0 1.0047343562088795 0.0598150887535589
4344000000.0 1.0342934300604032 0.015499962688618668
4347000000.0 1.0176155133322091 -0.036121627736280915
4350000000.0 0.9651366061111651 -0.02841512362761839
4353000000.0 1.016452400769883 -0.025711146767824877
4356000000.0 0.9843448581517138 -0.0525702682954661
4359000000.0 0.968372220575052 -0.03921220888404678
4362000000.0 1.0104286117874672 -0.08984723375896686
4366000000.0 1.011740029791122 -0.06846306538133676
4369000000.0 0.9916803997313289 -0.07625675547389374
4372000000.0 1.0114472644644874 -0.11333596156851769
4375000000.0 0.9977281520879515 -0.08142613411631014
4378000000.0 0.9783451280679666 -0.07443836198148396
4381000000.0 0.9860708420231379 -0.0782604321449737
4384000000.0 1.0533627197121003 -0.1317231778106434
4388000000.0 0.9873595543258785 -0.10878556826281258
4391000000.0 0.9972996105164627 -0.128357732087188
4394000000.0 0.9586831052621975 -0.133698423840512
4397000000.0 0.9848065574518137 -0.16193655898686848
4400000000.0 1.0210882207649485 -0.15655094688598026
4403000000.0 1.001304558951106 -0.16573972113153224
4406000000.0 0.9927616076385514 -0.19306250511397388
4409000000.0 1.0250484022882882 -0.18005560678190025
4412000000.0 0.9686260934825006 -0.2357897490859669
4416000000.0 0.9718751570245521 -0.20109237153622647
4419000000.0 0.9838105858383375 -0.22639350830435837
4422000000.0 0.9701933531967368 -0.21244083950534395
4425000000.0 1.0108035586527833 -0.19703270979495283
4428000000.0 0.9656155275066138 -0.241359307703154
4431000000.0 1.0042209103463198 -0.23546988728193124
4434000000.0 0.9682474269097064 -0.25286739094446664
4438000000.0 0.9943021272269177 -0.2572024550644436
4441000000.0 0.9944207048707436 -0.2598688508432179
4444000000.0 0.9390026091619978 -0.2706647515482513
4447000000.0 0.9579874132454609 -0.28545510420449227
4450000000.0 0.9694987881305557 -0.2742139220058339
4453000000.0 0.9776630722483368 -0.29781180183899536
4456000000.0 0.9330858660321728 -0.3046950026252012
4459000000.0 0.9193845889184435 -0.3203606054795509
4462000000.0 1.0023761479724629 -0.3368601853662984
4466000000.0 0.9969268228599403 -0.34777535408841387
4469000000.0 0.9549404736116787 -0.32990945569472885
4472000000.0 0.9543681871885696 -0.37975981196267505
4475000000.0 0.9087704388805437 -0.3587500939147716
4478000000.0 0.9753329973226962 -0.3882374988549163
4481000000.0 0.9082366709930841 -0.3695709884697334
4484000000.0 0.9227256293482802 -0.4141819846717648
4488000000.0 0.8984274462464799 -0.3951095279745309
4491000000.0 0.930603991747191 -0.416418581732883
4494000000.0 0.9201842701797364 -0.39710127802627926
4497000000.0 0.9119807080225044 -0.3873062033251424
4500000000.0 0.89663852481748 -0.4241459458460355
4503000000.0 0.9261579649027147 -0.4377917742144645
4506000000.0 0.9050293726008933 -0.4588605696496004
4509000000.0 0.8815867333643352 -0.4391641264246273
4512000000.0 0.8715140457913376 -0.46411352650003457
4516000000.0 0.9121291384106349 -0.46915180247771254
4519000000.0 0.8755440434092165 -0.46213882341677637
4522000000.0 0.8752661675647198 -0.49116976118922206
4525000000.0 0.8825228208955631 -0.45766591326401773
4528000000.0 0.9077931469251492 -0.4992968614851284
4531000000.0 0.8895516690058203 -0.4812679157746187
4534000000.0 0.8544891074575119 -0.4851197873761095
4538000000.0 0.8516021940057941 -0.5276819747267174
4541000000.0 0.8337797877827785 -0.5579987746183106
4544000000.0 0.8343387104157118 -0.5288999222829591
4547000000.0 0.864916447915597 -0.5264473646339396
4550000000.0 0.8264061187959473 -0.5754570758111217
4553000000.0 0.839885309694703 -0.5720947675456034
4556000000.0 0.8050303474069254 -0.553046147379539
4559000000.0 0.8325606421828163 -0.5600433760634502
4562000000.0 0.8451264727874317 -0.5844311716345612
4566000000.0 0.8234798745970915 -0.5872822948384231
4569000000.0 0.8093939377679935 -0.5889744017620351
4572000000.0 0.7973890196940475 -0.5937508599346353
4575000000.0 0.7947002304086057 -0.6448229755373474
4578000000.0 0.8246619661423578 -0.6057948127023834
4581000000.0 0.7847769930773512 -0.6479115991540583
4584000000.0 0.7807770144043465 -0.6258388685570402
4588000000.0 0.7836616677607533 -0.6363520093155246
4591000000.0 0.795796235118479 -0.6394523751834414
4594000000.0 0.7483556834227042 -0.6583451266527119
4597000000.0 0.7557101300715245 -0.6634416506558051
4600000000.0 0.7212009023500588 -0.6863983505867715
4603000000.0 0.7551377329162494 -0.6874875593568324
4606000000.0 0.7493988703786394 -0.6659144046008618
4609000000.0 0.7467196622039678 -0.6810247784540192
4612000000.0 0.7468455551896787 -0.7011484684076685
4616000000.0 0.7080607088764763 -0.7061781568133303
4619000000.0 0.7299375142890938 -0.6988903028054397
4622000000.0 0.7204775707289734 -0.7083418637626984
4625000000.0 0.6863158023507752 -0.7137142811799182
4628000000.0 0.7120142951899947 -0.7050422062285008
4631000000.0 0.6799699288418075 -0.7415467446909718
4634000000.0 0.684003671250134 -0.734942563954957
4638000000.0 0.6945588012004121 -0.7471249197323061
4641000000.0 0.6725544477436796 -0.7340369014263312
4644000000.0 0.6808972799273225 -0.7473423807505889
4647000000.0 0.675678585295662 -0.7699263417420327
4650000000.0 0.6299859146861514 -0.7567176871764733
4653000000.0 0.6621824742829623 -0.7926473842235298
4656000000.0 0.6401253566175718 -0.7806147078758903
4659000000.0 0.6314659674264614 -0.7799884161608958
4662000000.0 0.6168067953420331 -0.7920839506822555
4666000000.0 0.5954743667325549 -0.7930425422889146
4669000000.0 0.6309144420178217 -0.8026930204648772
4672000000.0 0.5914809259870225 -0.8211974134556548
4675000000.0 0.5831717275152521 -0.8174008237744967
4678000000.0 0.5822281649963468 -0.8145403185674184
4681000000.0 0.5792934160586485 -0.8361704866370724
4684000000.0 0.5641638810680933 -0.847345557576467
4688000000.0 0.5699100818964575 -0.8313451209029085
4691000000.0 0.5825832801667891 -0.8390030803203208
4694000000.0 0.5562329702449035 -0.8385161262503225
4697000000.0 0.49624449473735305 -0.8130738360092098
4700000000.0 0.5590567161261892 -0.8365461746278484
4703000000.0 0.5529135684405253 -0.8189693362290533
4706000000.0 0.5185638428038899 -0.8713677680317479
4709000000.0 0.5144135539469465 -0.8744518383327219
4712000000.0 0.5198481841232898 -0.8532300574314826
4716000000.0 0.503920138991156 -0.8962175601135411
4719000000.0 0.5127668423807971 -0.8791026389455889
4722000000.0 0.508096376589819 -0.8685156732257346
4725000000.0 0.4812162714516177 -0.8994251173174893
4728000000.0 0.47010984987956617 -0.8683620550977165
4731000000.0 0.5022155628361871 -0.9207082414628214
4734000000.0 0.5189184189176684 -0.8813721814259801
4738000000.0 0.4613745563333461 -0.934042169540805
4741000000.0 0.4539526836719565 -0.9449513871458488
4744000000.0 0.4435275578729481 -0.9423845426135046
4747000000.0 0.44446645461770296 -0.8807251608940251
4750000000.0 0.40737534685106086 -0.9352368118841292
4753000000.0 0.4388774161352904 -0.9234431204696906
4756000000.0 0.40773727447085123 -0.9061658618418442
4759000000.0 0.40585492959746566 -0.9520609498686885
4762000000.0 0.3731125473710011 -0.9609881091925774
4766000000.0 0.39349996398545667 -0.94913371254132
4769000000.0 0.37155192277753823 -0.9445956490968759
4772000000.0 0.3848831163562767 -0.9443942496623747
4775000000.0 0.36962665736318956 -0.9916238796921608
4778000000.0 0.35874817753371385 -0.9301847993600546
4781000000.0 0.36590905465921436 -0.9299292784759685
4784000000.0 0.35959536238439926 -0.9404718452930286
4788000000.0 0.30451141602241677 -0.9709387660348263
4791000000.0 0.31279880791177844 -0.9462483515939332
4794000000.0 0.34989704363324736 -0.9745455874711775
4797000000.0 0.30229725003914504 -0.9510948981783741
4800000000.0 0.2969245319608478 -0.9602159597851143
4803000000.0 0.2442668046316153 -0.9680824095184186
4806000000.0 0.28041794987063423 -0.991945411457269
4809000000.0 0.2383476370781966 -1.004487140296026
4812000000.0 0.2204010637542797 -0.9749941673953955
4816000000.0 0.27042541266781994 -0.9496456463637293
4819000000.0 0.2720675330607386 -0.9999052732411
4822000000.0 0.2755578528514213 -1.0101445584049498
4825000000.0 0.2690569917830715 -1.0161784454965912
4828000000.0 0.22027729483316594 -0.9884366215837722
4831000000.0 0.17937185105197806 -1.0214625679029161
4834000000.0 0.2388834598302762 -0.9982091763929752
4838000000.0 0.1892276144389273 -1.0140611923009186
4841000000.0 0.16609410791903106 -0.9919635340210501
4844000000.0 0.2128845335184704 -1.0069443040915558
4847000000.0 0.1954912758977539 -0.9714799472576308
4850000000.0 0.1696683449238535 -1.0454978703187867
4853000000.0 0.16823828727031698 -0.9921991295772996
4856000000.0 0.15457253165294718 -0.9955512367117393
4859000000.0 0.13248579425447468 -1.0510156944854732
4862000000.0 0.17708341993003768 -0.9874002298211703
4866000000.0 0.0903656295444923 -1.023615581210309
4869000000.0 0.09883512711228139 -1.008794483578649
4872000000.0 0.09169078687260812 -1.055445933911409
4875000000.0 0.14069921638015342 -1.0412797804580312
4878000000.0 0.10070965986342248 -1.0294208345575215
4881000000.0 0.07551154583980381 -1.0885026611814161
4884000000.0 0.0893762769187229 -1.0450980447214442
4888000000.0 0.08363596477395904 -1.0278619595291065
4891000000.0 0.08614718356746093 -1.0375587979438345
4894000000.0 0.03148376848440665 -1.014173413340004
4897000000.0 0.07144515526818013 -1.0032373360107787
4900000000.0 0.043574263144799674 -1.0397207202422514
4903000000.0 0.04425430010071385 -1.047941516054708
4906000000.0 -0.007828920240377308 -1.0521305758323027
4909000000.0 -0.003338670318943627 -1.0294543272046481
4912000000.0 -0.026914229522556093 -1.0544177309273242
4916000000.0 0.0009867693877573872 -1.0542281746970323
4919000000.0 0.004861299389531455 -1.0777204203037667
4922000000.0 0.006862749214618408 -1.014110300238113
4925000000.0 -0.05014176943171943 -1.0077875265665144
4928000000.0 0.01570313816190362 -1.0365719154947635
4931000000.0 -0.027169159008530924 -1.0343991647863409
4934000000.0 -0.04494234361327448 -0.98257827685597
4938000000.0 -0.10481352795695041 -1.0302781795310125
4941000000.0 -0.0515713793197992 -1.0111253738619026
4944000000.0 -0.0759656151984493 -0.9531023831067713
4947000000.0 -0.0746644513335287 -0.9969196567776551
4950000000.0 -0.10414059462523086 -1.0020022066537688
4953000000.0 -0.11656989951178506 -1.077834761000549
4956000000.0 -0.12265217749236015 -1.0126241067514292
4959000000.0 -0.13410421579067186 -1.01362207031914
4962000000.0 -0.14012405382627427 -1.059830534360374
4966000000.0 -0.13740519346313457 -1.032164037679732
4969000000.0 -0.12725622671679615 -1.0255060057615875
4972000000.0 -0.16561418090354438 -1.0273573215513652
4975000000.0 -0.11950942910395299 -0.9977203214405257
4978000000.0 -0.20290060482419797 -1.0144680348849124
4981000000.0 -0.18329299443740718 -0.9918016162756452
4984000000.0 -0.16390643490945486 -1.0017431002744868
4988000000.0 -0.19249497201986154 -0.9943254188798033
4991000000.0 -0.1553159802014885 -1.0253972404739775
4994000000.0 -0.20208959422486084 -0.9991165850623176
4997000000.0 -0.2596452424106717 -0.9851880861960968
5000000000.0 -0.2279562391998844 -1.0219609875727238
5003000000.0 -0.2390723228283787 -1.0128413121696656
5006000000.0 -0.21875090108473547 -1.0300164405589272
5009000000.0 -0.23327367057688111 -0.9953074884490528
5012000000.0 -0.25388696077928635 -0.9796202491634312
5016000000.0 -0.21732094289765824 -1.0184527090521114
5019000000.0 -0.29803461656566554 -0.9844376067905289
5022000000.0 -0.2853225745930045 -1.0235126773074488
5025000000.0 -0.3181869792668565 -1.044956319285148
5028000000.0 -0.3131605768742295 -0.9950699312191258
5031000000.0 -0.3097211439354698 -0.9715666001695337
5034000000.0 -0.34554504891013493 -0.9883621175173147
5038000000.0 -0.31697975398099665 -0.9458726886274709
5041000000.0 -0.30054349460218444 -0.9600689642319679
5044000000.0 -0.30401203812999 -0.9578725018261974
5047000000.0 -0.31981500775969446 -0.99050602424915
5050000000.0 -0.2512509257874237 -0.9698943336759922
5053000000.0 -0.3816080628838958 -0.999108263023238
5056000000.0 -0.33595292555416945 -1.011682421277829
5059000000.0 -0.2976172426972084 -1.0141507436762427
5062000000.0 -0.3979226358979707 -0.9946968549722486
5066000000.0 -0.34809270147914084 -1.011061922823008
5069000000.0 -0.3866212714859023 -0.9690742327447021
5072000000.0 -0.3842978637663376 -0.9109872089812283
5075000000.0 -0.37297304942945253 -0.9400154061782333
5078000000.0 -0.42141220720073974 -0.9570180815990994
5081000000.0 -0.40686556570548493 -0.9053704471974297
5084000000.0 -0.44865113126215017 -0.9856155909411135
5088000000.0 -0.41950299649161354 -0.8892668609940022
5091000000.0 -0.4967960596484802 -0.9317215434918191
5094000000.0 -0.4646452266347804 -0.962466464964098
5097000000.0 -0.4268517930781235 -0.979175935777711
5100000000.0 -0.44002556831753215 -0.9024099490213392
5103000000.0 -0.49639107827242157 -0.9770383449791639
5106000000.0 -0.5039652463566485 -0.963460933477245
5109000000.0 -0.47107672479006457 -0.938388831627567
5112000000.0 -0.49903674222942906 -0.8670709239117422
5116000000.0 -0.4571182454730525 -0.8538306324051008
5119000000.0 -0.5017570664739057 -0.877413305575762
5122000000.0 -0.5091867968273501 -0.8755393086836725
5125000000.0 -0.48605097195911917 -0.8828053299154864
5128000000.0 -0.5280430223457652 -0.8323252297689685
5131000000.0 -0.5226006721212529 -0.9321091266056561
5134000000.0 -0.46723677186951157 -0.8996217306658982
5138000000.0 -0.551973898717848 -0.8841659597928135
5141000000.0 -0.510932062188387 -0.9315886796470845
5144000000.0 -0.5520068655284228 -0.9155718280466629
5147000000.0 -0.5660700137823682 -0.8680347544492373
5150000000.0 -0.5779840415382764 -0.9173839186062148
5153000000.0 -0.6073453304435223 -0.8385591528503111
5156000000.0 -0.5471399882595646 -0.8798504228381188
5159000000.0 -0.5901710573642958 -0.86352252133108
5162000000.0 -0.6225752891360853 -0.7968031232887127
5166000000.0 -0.617135906156653 -0.8619805877681378
5169000000.0 -0.6439172968353131 -0.8507192389052356
5172000000.0 -0.6094914091713823 -0.8620157866039675
5175000000.0 -0.6405619720650371 -0.8373864717443141
5178000000.0 -0.6262636403189015 -0.8065422672161796
5181000000.0 -0.6463284948022714 -0.8249027519531232
5184000000.0 -0.6311581620062066 -0.8158056941296132
5188000000.0 -0.6316865331118365 -0.8358963493307737
