! Created with skrf 1.8.0 (http://scikit-rf.org).
# Hz S RI R 50.0 
!freq ReS11 ImS11
4000000000.0 0.7705972561002676 0.6942945862760894
4003000000.0 0.8111064455474013 0.7046572716627452
4006000000.0 0.788483116472407 0.623921083055963
4009000000.0 0.7919426532355479 0.6641635359256949
4012000000.0 0.7399036126326873 0.697301822888847
4016000000.0 0.8222827287802179 0.6420034423915362
4019000000.0 0.8143906013417883 0.586364935781702
4022000000.0 0.8082399378926122 0.721325147728457
4025000000.0 0.8694791838663117 0.6089767063283654
4028000000.0 0.828861003715364 0.6158088202291714
4031000000.0 0.7946177281869874 0.5872827690036511
4034000000.0 0.8593867381741873 0.6299518183132105
4038000000.0 0.8436927775931043 0.5628083905439902
4041000000.0 0.8545150112994996 0.5620884700011677
4044000000.0 0.8872169294780463 0.6034061097041514
4047000000.0 0.877454568915519 0.5983552590701748
4050000000.0 0.8621096358131956 0.5462622216650121
4053000000.0 0.8269239969742821 0.5246429997687516
4056000000.0 0.8543862441102389 0.5721096126024658
4059000000.0 0.8711151771737817 0.5719349879705529
4062000000.0 0.8680594109454566 0.5308202494417693
4066000000.0 0.8359115418914129 0.4728413410181951
4069000000.0 0.9140510349113922 0.48260265697607874
4072000000.0 0.8874783635325154 0.5138532229189556
4075000000.0 0.901704856752623 0.5383084165464562
4078000000.0 0.9216128865839242 0.4684141754749609
4081000000.0 0.9496363293286914 0.5423644653226425
4084000000.0 0.9217812266659134 0.45368066838668236
4088000000.0 0.854548660226367 0.46913275871510784
4091000000.0 0.9605078591490149 0.4785038388909271
4094000000.0 0.9080354221648699 0.4592052096829703
4097000000.0 0.900343940750499 0.45610094276337704
4100000000.0 0.9044397123186496 0.46257443720266406
4103000000.0 0.9423594018500536 0.43191722287434625
4106000000.0 0.9489010876223816 0.4168219997588205
4109000000.0 0.9601202236045265 0.4064575208558608
4112000000.0 0.9550024316670591 0.3932229154432066
4116000000.0 0.9589273343287572 0.4010203424376373
4119000000.0 0.9727443343638176 0.3626578440021192
4122000000.0 0.969184647117196 0.37002152378574005
4125000000.0 0.9828230083343146 0.3294807998362171
4128000000.0 0.9394753974044102 0.3608755278005089
4131000000.0 0.9548881134426007 0.36135009537457397
4134000000.0 0.9814238626107451 0.356062790675169
4138000000.0 0.9623759068850393 0.3206978865121876
4141000000.0 0.9467240984092472 0.31387078824949743
4144000000.0 0.9639647184260688 0.3385818178023668
4147000000.0 1.0208213136774864 0.3013601816483397
4150000000.0 1.0218462887836577 0.3005802790720548
4153000000.0 0.9812010152440596 0.28970172963422725
4156000000.0 0.9754332654797375 0.3054055714319771
4159000000.0 0.9672659177107008 0.27531667896138395
4162000000.0 0.9780026185328323 0.2955362234329405
4166000000.0 1.010761526492479 0.24363357644691286
4169000000.0 0.9898292811567742 0.2277747597292159
4172000000.0 1.003747092859192 0.23564343556781336
4175000000.0 0.9984713591270723 0.24421689828508591
4178000000.0 0.9979196826800495 0.22071696272672192
4181000000.0 0.9998631680295411 0.18344587883755425
4184000000.0 0.98651601325347 0.1881010285248727
4188000000.0 1.013012796849541 0.16941078589904646
4191000000.0 0.9725119387394929 0.20881075211191064
4194000000.0 0.9891086366436791 0.15048292490135123
4197000000.0 1.0224984178019862 0.15630020275147477
4200000000.0 1.0116743485931394 0.15804842394505858
4203000000.0 1.0283165238904015 0.15879039869436612
4206000000.0 1.0150060033165418 0.14662965443037124
4209000000.0 1.0130150549645232 0.11982764420118247
4212000000.0 1.006996309152747 0.07493484268507189
4216000000.0 1.0343365237427853 0.12024444366943443
4219000000.0 1.0225656562370293 0.09327465451748237
4222000000.0 1.0166645555232992 0.07713674846939272
4225000000.0 0.9931212541957908 0.09007211686164399
4228000000.0 1.0243640268407606 0.06258202922546588
4231000000.0 1.0312659585500454 0.051751023451385464
4234000000.0 1.0216543670324993 0.02274054197908351
4238000000.0 1.0090542437196195 0.014184484864816105
4241000000.0 0.9965146029088727 0.011936409854718222
4244000000.0 1.0095376203078885 0.00477967343318958
4247000000.0 1.0035532179670157 0.013113873802533899
4250000000.0 1.0027238006066055 -0.012121424838282463
4253000000.0 0.9877231456486042 -0.027238142647292005
4256000000.0 1.0634038809083963 -0.023310139373287547
4259000000.0 0.9724306555570046 -0.028539037928995675
4262000000.0 1.0005921721792153 -0.06520566579573675
4266000000.0 1.0369257518167956 -0.0795653683604391
4269000000.0 0.9988319667232343 -0.04140465302107007
4272000000.0 1.0053390454131712 -0.060035029231198654
4275000000.0 1.003373005598728 -0.07754706390973606
4278000000.0 1.0306120929163127 -0.08481433866290149
4281000000.0 1.0126283576372557 -0.09441780547289541
4284000000.0 0.9897260288002838 -0.14444647984726783
4288000000.0 1.019398087877058 -0.08082205705988199
4291000000.0 0.9828190464116261 -0.12449281217555838
4294000000.0 0.9945808003547015 -0.15805636351233188
4297000000.0 1.0184771627521247 -0.1244108713286308
4300000000.0 0.9554498422159474 -0.13291377097368093
4303000000.0 0.9754567551970402 -0.17391847014899828
4306000000.0 0.9938867900318461 -0.1358618876647839
4309000000.0 1.004186879022759 -0.18269798094792425
4312000000.0 1.0171463039521704 -0.17541448836864615
4316000000.0 1.0002025955436873 -0.19079955566864476
4319000000.0 0.9799613173364065 -0.2231361958176678
4322000000.0 0.9509156296755108 -0.23885615417912975
4325000000.0 0.9972178468203904 -0.22668186962030357
4328000000.0 0.9757549828756884 -0.22727110715550514
4331000000.0 0.9690649213495864 -0.27034347007213333
4334000000.0 0.9867616151449206 -0.29450315418867756
4338000000.0 0.987203665728984 -0.2416569603389358
4341000000.0 0.9975567565830554 -0.2694780987291641
4344000000.0 0.9863752376736157 -0.30261584239296435
4347000000.0 0.9613092911955097 -0.319958058787735
4350000000.0 0.9451701732067205 -0.30558540551016533
4353000000.0 0.9263873399792131 -0.29737208718976516
4356000000.0 0.9416005561523926 -0.3560180304898073
4359000000.0 0.913268448328477 -0.32849681785581386
4362000000.0 0.9483933995406253 -0.3967037999082615
4366000000.0 0.9415033225606175 -0.36079176211978203
4369000000.0 0.9161384264096896 -0.3678870812059925
4372000000.0 0.9017499227900572 -0.4138139773986638
4375000000.0 0.9301666768439625 -0.362940617351485
4378000000.0 0.9127989102258784 -0.382738138293696
4381000000.0 0.909958150670773 -0.3926658506366164
4384000000.0 0.9867949513056242 -0.45566604190874005
4388000000.0 0.9127088995108857 -0.404286573736354
4391000000.0 0.9155032434752084 -0.43190781633668685
4394000000.0 0.8832432844824609 -0.43815553029285303
4397000000.0 0.8911548281897375 -0.45387028077500674
4400000000.0 0.9156907170252575 -0.47310409843993656
4403000000.0 0.8934337458607434 -0.477780888408903
4406000000.0 0.882272150182197 -0.496001234271102
4409000000.0 0.8954579659524868 -0.5041604039137055
4412000000.0 0.835909184406778 -0.5336972446515336
4416000000.0 0.8492849316150368 -0.504248181318724
4419000000.0 0.8512730533865629 -0.531767380615676
4422000000.0 0.8607037092423573 -0.5163027313890516
4425000000.0 0.8802311536923274 -0.5165338184245937
4428000000.0 0.8585952686555716 -0.5381683470359975
4431000000.0 0.8551336679972847 -0.5571105860258202
4434000000.0 0.8183806668928851 -0.5443422972306297
4438000000.0 0.8628618947298601 -0.5798151478296791
4441000000.0 0.8376377220080806 -0.5841814692238326
4444000000.0 0.8087388780738198 -0.5632566590095207
4447000000.0 0.7983891523824048 -0.6041534484428324
4450000000.0 0.8042862740447129 -0.5932477082136909
4453000000.0 0.8079787882122698 -0.629961495279755
4456000000.0 0.7797918552242806 -0.5964367942565855
4459000000.0 0.7623034782312613 -0.6258517879230299
4462000000.0 0.8259528403742611 -0.6896194937499817
4466000000.0 0.805336742175556 -0.6718032544230831
4469000000.0 0.788995276758909 -0.6498406460176491
4472000000.0 0.7746310554147104 -0.6830272230524221
4475000000.0 0.7275134338451406 -0.6575752037367489
4478000000.0 0.7689204261329285 -0.6951509271766616
4481000000.0 0.7252810516407009 -0.6838918710385062
4484000000.0 0.7085477244643865 -0.7080412698636701
4488000000.0 0.7216678240736718 -0.693069265387532
4491000000.0 0.7278352113513556 -0.7123314425976937
4494000000.0 0.721169262493956 -0.708653561594085
4497000000.0 0.6998101296195822 -0.7206979961574616
4500000000.0 0.7097923886220088 -0.7477663288928369
4503000000.0 0.6916470966985783 -0.7554645772501696
4506000000.0 0.6907266205580209 -0.7499498869599228
4509000000.0 0.6516970924300887 -0.7289383100246164
4512000000.0 0.6415277787405803 -0.7305275289559559
4516000000.0 0.6732633262250162 -0.7859795620262978
4519000000.0 0.6480636653968266 -0.7556624101176824
4522000000.0 0.636325118933658 -0.8019738994499415
4525000000.0 0.6567851795996444 -0.7534604439198668
4528000000.0 0.6142080080598407 -0.8081965464460963
4531000000.0 0.6295096047805446 -0.7850201974002211
4534000000.0 0.6059813964564504 -0.7868978933326709
4538000000.0 0.6028771660766059 -0.8196040243181254
4541000000.0 0.5651345054843687 -0.822413114156381
4544000000.0 0.5978540156180061 -0.831128252958483
4547000000.0 0.5729029149336896 -0.8082398164213407
4550000000.0 0.5786110146398378 -0.8483526022359914
4553000000.0 0.5338538466482126 -0.8346784808779638
4556000000.0 0.5473135063626425 -0.8360635470415199
4559000000.0 0.5324076206212972 -0.8574844653750027
4562000000.0 0.5585608057618674 -0.8708960332665552
4566000000.0 0.5334548093062568 -0.8812890982938852
4569000000.0 0.5101905250580501 -0.8630049045836246
4572000000.0 0.499974607975066 -0.8733795720131323
4575000000.0 0.4938757371984887 -0.8844710651934266
4578000000.0 0.511635352434872 -0.8965152303815219
4581000000.0 0.47008860922789397 -0.8919450266648907
4584000000.0 0.4615176819276541 -0.9005163423702581
4588000000.0 0.4617301813648766 -0.9251424845686932
4591000000.0 0.4502473525739704 -0.920799061504854
4594000000.0 0.4081440396451914 -0.9236288485930827
4597000000.0 0.40776487815789986 -0.9248191846382395
4600000000.0 0.3961627421739282 -0.9283529796414534
4603000000.0 0.40049027015074895 -0.9269791224457122
4606000000.0 0.40977363625217234 -0.9552437020781922
4609000000.0 0.41000775310805637 -0.9364054281576678
4612000000.0 0.36727341739140884 -0.9564462555407819
4616000000.0 0.35742831639343225 -0.9326290039363238
4619000000.0 0.3326323461426685 -0.9528255296203665
4622000000.0 0.3189313970194485 -0.9479250859860079
4625000000.0 0.2951605120985282 -0.9466493479900283
4628000000.0 0.33720717347307 -0.9964163287064481
4631000000.0 0.31202274060572915 -0.962833335257718
4634000000.0 0.2934773336632582 -0.9735789382798242
4638000000.0 0.3093171818146192 -0.9861622359063724
4641000000.0 0.2635774232808976 -0.9662839891449408
4644000000.0 0.2804752984579579 -0.9772461930163067
4647000000.0 0.2702832304764915 -0.971907249739116
4650000000.0 0.22301009712858597 -0.9880239273923562
4653000000.0 0.24986227999475108 -1.002795036304212
4656000000.0 0.2534825415491419 -0.9839824351649502
4659000000.0 0.2065776149216195 -1.0121368085394473
4662000000.0 0.19842566137372342 -1.0200775936052557
4666000000.0 0.15582374520902792 -1.0091862917668584
4669000000.0 0.17496187952266695 -1.0159346246324759
4672000000.0 0.1765583266329383 -1.0329974313301153
4675000000.0 0.1622262001157709 -1.022127645836106
4678000000.0 0.15718544102238916 -0.9725845454440831
4681000000.0 0.14341120729117607 -1.0101896735059956
4684000000.0 0.1263530293878305 -1.0516472562748116
4688000000.0 0.09808648216465177 -1.005736166234603
4691000000.0 0.13036302042083858 -1.0568230466791393
4694000000.0 0.10511325948927505 -0.9910120108879117
4697000000.0 0.02515066654864251 -0.9708725933091502
4700000000.0 0.10762032387375729 -1.0377987391967023
4703000000.0 0.09765338298957224 -0.9846082329937598
4706000000.0 0.018460853707043312 -1.0301002146196685
4709000000.0 0.016590959124572313 -1.0196843722912363
4712000000.0 0.04248720526345129 -1.0126572351452412
4716000000.0 0.019169061850554142 -1.0300253667068113
4719000000.0 0.060279763027590944 -1.0144354382039884
4722000000.0 0.034185401993540726 -1.025263241810332
4725000000.0 -0.03950292621212553 -1.0302007173068242
4728000000.0 -0.022902103870877988 -1.0253128672203848
4731000000.0 -0.045821374727640474 -1.0638625900845846
4734000000.0 -0.003376567356484783 -1.0182180687967006
4738000000.0 -0.0019640982038660604 -1.061816791085169
4741000000.0 -0.05836072375650664 -1.0739835316128976
4744000000.0 -0.08758400294470198 -1.059008569766104
4747000000.0 -0.030265045604241758 -1.0052058400743276
4750000000.0 -0.07707235694959047 -1.0581583717185647
4753000000.0 -0.08644997573455726 -1.0276387927158037
4756000000.0 -0.1461756477125472 -1.031079389510521
4759000000.0 -0.09091371732191944 -1.0575708751479467
4762000000.0 -0.19680855150754978 -1.0498723719384766
4766000000.0 -0.13656473159428112 -1.003397675214646
4769000000.0 -0.15234841086432493 -1.0092654784374522
4772000000.0 -0.16761657210414027 -1.024534946291639
4775000000.0 -0.22628678813383563 -1.0943375825961126
4778000000.0 -0.22170286586186821 -1.0086425163210637
4781000000.0 -0.18407225644451147 -0.9894633448723473
4784000000.0 -0.21782974162865748 -0.9941730905177487
4788000000.0 -0.2839629827736323 -1.0207049881980943
4791000000.0 -0.24778694905731358 -0.9740403434271853
4794000000.0 -0.24566822924286058 -1.0608228123394234
4797000000.0 -0.2455452786303875 -0.9993194890553031
4800000000.0 -0.2686790625598543 -0.9600077999431731
4803000000.0 -0.3376515365942372 -0.9532243666807378
4806000000.0 -0.32815763141374865 -1.0045317358899681
4809000000.0 -0.38377493988929223 -0.9764436490066412
4812000000.0 -0.3864017596658374 -0.9582977006851423
4816000000.0 -0.27860046618060635 -0.9621034417559233
4819000000.0 -0.3468736532929983 -0.9946091603896734
4822000000.0 -0.3508399590548693 -0.993165393211913
4825000000.0 -0.3605837049900951 -1.0015115726889339
4828000000.0 -0.36725368807919 -0.9424871514011893
4831000000.0 -0.42724684363124926 -0.9637165057875376
4834000000.0 -0.3854821276652568 -0.9764772928197682
4838000000.0 -0.45345847240012377 -0.9408401340796871
4841000000.0 -0.43804482947578904 -0.9312391941016401
4844000000.0 -0.40846676293152934 -0.9653713529157596
4847000000.0 -0.4168471568335128 -0.9200289069716476
4850000000.0 -0.4971174961214287 -0.9444804933320765
4853000000.0 -0.42823069671138814 -0.9135852268171449
4856000000.0 -0.49194632529191135 -0.9174610439480461
4859000000.0 -0.5337357144237386 -0.9248351030380019
4862000000.0 -0.49422650462514167 -0.8917359612017689
4866000000.0 -0.5184735330643074 -0.9065696795863067
4869000000.0 -0.5283976085474036 -0.8861112344026645
4872000000.0 -0.5873175101707024 -0.893577422946094
4875000000.0 -0.5400388844965169 -0.9578139677978331
4878000000.0 -0.550561650696328 -0.877997346604036
4881000000.0 -0.65898186173253 -0.8834997465327339
4884000000.0 -0.5491262051081799 -0.8681773731352042
4888000000.0 -0.5685595119485622 -0.8461226425896627
4891000000.0 -0.6201455007934399 -0.8922425779237096
4894000000.0 -0.5845474943784715 -0.8059405492729532
4897000000.0 -0.5798215049991982 -0.8163260425611687
4900000000.0 -0.6407198657226079 -0.834717461519442
4903000000.0 -0.6455897934327319 -0.8602459887772207
4906000000.0 -0.6690580783712833 -0.8559064840078107
4909000000.0 -0.6507763710915219 -0.8178291073276159
4912000000.0 -0.7291456648650075 -0.7909602301091985
4916000000.0 -0.6847178572805346 -0.8245735974728716
4919000000.0 -0.6301753717330693 -0.8316840907139448
4922000000.0 -0.6778235882144554 -0.7792339588021427
4925000000.0 -0.6859656992292402 -0.7862438161472978
4928000000.0 -0.6615735232950748 -0.7933126299604012
4931000000.0 -0.7329843970892785 -0.7842343283676354
4934000000.0 -0.6888014975739268 -0.7064317099136679
4938000000.0 -0.7681046922849424 -0.7326214338107179
4941000000.0 -0.6960951980276452 -0.6919840868047288
4944000000.0 -0.6994955726829153 -0.6436317380711243
4947000000.0 -0.7734795185215831 -0.6914707524570703
4950000000.0 -0.7678629751636338 -0.686190783364651
4953000000.0 -0.8092720384583146 -0.6775831796382505
4956000000.0 -0.7892059239160996 -0.6626326463715708
4959000000.0 -0.8204848522640075 -0.6208903278122535
4962000000.0 -0.8344442280478274 -0.6669150318154338
4966000000.0 -0.8433187116939873 -0.6641543251433104
4969000000.0 -0.8182274309573205 -0.6277371285010082
4972000000.0 -0.8353468352787053 -0.617876700102134
4975000000.0 -0.8204339438191492 -0.6139354434316213
4978000000.0 -0.878589654744695 -0.5962310299031306
4981000000.0 -0.8763486167857076 -0.5646374514390383
4984000000.0 -0.8525081010780087 -0.5609939231526092
4988000000.0 -0.8881550232111535 -0.576828020729061
4991000000.0 -0.873744110262763 -0.5804153976666879
4994000000.0 -0.8543016728640516 -0.5299458333289255
4997000000.0 -0.9233596016632857 -0.5024372438841347
5000000000.0 -0.9139518887947858 -0.5100053176884902
5003000000.0 -0.9058755072984845 -0.4895622805422497
5006000000.0 -0.9226713274920301 -0.49856244641036773
5009000000.0 -0.958046644379523 -0.4974919823476798
5012000000.0 -0.9531819935729269 -0.4862799930782156
5016000000.0 -0.9376564563537273 -0.49229316136538
5019000000.0 -0.925659340062219 -0.4338078824135737
5022000000.0 -0.9733867929362584 -0.42159751015535074
5025000000.0 -0.9651819075928312 -0.41034176276034706
5028000000.0 -0.931113231052375 -0.40731969472989643
5031000000.0 -0.9907042132419339 -0.3818047086879216
5034000000.0 -0.996042652077136 -0.3438980539878076
5038000000.0 -0.9307416807630251 -0.3843928517994108
5041000000.0 -0.9841370704421291 -0.34661201832124255
5044000000.0 -0.9608475116399994 -0.32408276055220353
5047000000.0 -1.001798175510031 -0.29346075040899705
5050000000.0 -0.9559450883582495 -0.32461740502747444
5053000000.0 -1.0023100443681954 -0.24914598141031413
5056000000.0 -1.0014780594847088 -0.26550936886598936
5059000000.0 -1.0296894315858618 -0.2535565354058025
5062000000.0 -1.0394996151731948 -0.20584643435513306
5066000000.0 -1.059468128487372 -0.21733218215378303
5069000000.0 -1.0479659010898739 -0.24548586007505843
5072000000.0 -1.0559664017606638 -0.2495356317977701
5075000000.0 -0.9957410703485545 -0.23917335622641356
5078000000.0 -1.0106028940293612 -0.14546433969473405
5081000000.0 -1.0445640653490809 -0.15519798715447322
5084000000.0 -1.0026397612649274 -0.09652399685280333
5088000000.0 -1.0273936935905135 -0.08874722111922556
5091000000.0 -1.0115550120550834 -0.06288284353607215
5094000000.0 -0.9743024187392191 -0.010378401974431323
5097000000.0 -0.9988552316075637 -0.01299035965575604
5100000000.0 -1.0670373144746805 -0.062479515221723486
5103000000.0 -1.0159060913054354 0.04062191549551045
5106000000.0 -0.9920946488329198 0.03358397206359959
5109000000.0 -1.0127529257420251 -0.04068012703747784
5112000000.0 -1.0416003930704292 0.07000462392865472
5116000000.0 -1.0703787557935835 0.07939072686316966
5119000000.0 -1.048916507572224 0.13312405363459967
5122000000.0 -1.0144615126329086 0.12147169508647342
5125000000.0 -0.9949363762663498 0.043835872020154425
5128000000.0 -1.0252998461928264 0.12734725992485846
5131000000.0 -1.0621149444522284 0.15405962454984934
5134000000.0 -1.0121877281499732 0.15749068813484413
5138000000.0 -0.9942772242888048 0.12657665321068845
5141000000.0 -1.0371255786454114 0.2064722288120334
5144000000.0 -0.9470951440217532 0.2670942960958868
5147000000.0 -1.062690555816274 0.2640835195920978
5150000000.0 -1.039962096889166 0.32446385286679197
5153000000.0 -1.0454897902980143 0.28690686796410414
5156000000.0 -0.9378260702596042 0.2787042311001564
5159000000.0 -1.022249434133347 0.3533260114328134
5162000000.0 -1.0112360380580867 0.40098848987104996
5166000000.0 -0.9585589021454318 0.3081856207702349
5169000000.0 -0.9313821352293352 0.38493175706677474
5172000000.0 -0.9555875322303653 0.3603775957807088
5175000000.0 -0.9872077361703319 0.40182432468635454
5178000000.0 -0.9785527535089862 0.47262381964199796
5181000000.0 -0.9066371730482459 0.5019996979774022
5184000000.0 -0.9172996108708527 0.44733412370612985
