! Created with skrf 1.8.0 (http://scikit-rf.org).
# Hz S RI R 50.0 
!freq ReS11 ImS11
4000000000.0 0.6195692854485356 0.808799682491903
4003000000.0 0.673448320422829 0.8689444408160311
4006000000.0 0.6473507113675174 0.779732383996376
4009000000.0 0.6248361079507263 0.8227653266556977
4012000000.0 0.6112588936434947 0.8148749957290563
4016000000.0 0.6998295825930091 0.7834458881894799
4019000000.0 0.6668866694362681 0.7339402516628604
4022000000.0 0.6038068253377982 0.8616291229319634
4025000000.0 0.7390788481629431 0.7706983613828967
4028000000.0 0.7004866063882902 0.7369525051879091
4031000000.0 0.6863460102006106 0.7306018510939407
4034000000.0 0.7332503174839807 0.727175957606752
4038000000.0 0.7066699876101603 0.7214798283915321
4041000000.0 0.7542136717522119 0.7391509100394192
4044000000.0 0.7912520170002822 0.7599473609140008
4047000000.0 0.7155258939664249 0.7589389679072366
4050000000.0 0.7688083155290137 0.7351725055931404
4053000000.0 0.748178069734581 0.693359037889093
4056000000.0 0.791397020987589 0.7256797643400477
4059000000.0 0.7251761670191218 0.6828672252095083
4062000000.0 0.78856286853628 0.6849345399303461
4066000000.0 0.7204562134469215 0.6143192603566795
4069000000.0 0.7992096921868778 0.6471615287763001
4072000000.0 0.7136302623631142 0.717589837555257
4075000000.0 0.7851613684327083 0.7163145666810768
4078000000.0 0.7898430209179116 0.6481523926960332
4081000000.0 0.8009633726639674 0.6619458437567027
4084000000.0 0.7964711765104 0.6267791809244943
4088000000.0 0.7937785038849386 0.6782385324378479
4091000000.0 0.8508094123637232 0.6612390002103734
4094000000.0 0.8032756455305173 0.6728724889145918
4097000000.0 0.8473587681395669 0.6291585127355159
4100000000.0 0.7951096773339638 0.659446420729799
4103000000.0 0.7786840904547803 0.6294741309560201
4106000000.0 0.8500757083212561 0.5876215223292882
4109000000.0 0.8355005380736003 0.5920631220019059
4112000000.0 0.8383291823617467 0.5990027161275646
4116000000.0 0.8522500226974398 0.6190771350209144
4119000000.0 0.8705202070878844 0.5885451212867778
4122000000.0 0.8866536460016342 0.5340768564363626
4125000000.0 0.9029388426346696 0.5272399795739997
4128000000.0 0.8356317191100477 0.5290229385936407
4131000000.0 0.8480258778825377 0.5343611818032817
4134000000.0 0.8753464261126364 0.5476509657587203
4138000000.0 0.8686023879698341 0.5240647738616573
4141000000.0 0.8755664403299864 0.514413206147333
4144000000.0 0.8902442940520718 0.5605031159644049
4147000000.0 0.9007529405424982 0.5070449426646664
4150000000.0 0.918101922343663 0.505687075568547
4153000000.0 0.9150831514219652 0.49077857620707355
4156000000.0 0.9365055905395416 0.5203816184436745
4159000000.0 0.878606295146291 0.4896517021369225
4162000000.0 0.9106499208251504 0.45285385749272533
4166000000.0 0.9502290102871338 0.4769161869725296
4169000000.0 0.9143954357617754 0.4454822955873946
4172000000.0 0.891825562593598 0.47180109287314925
4175000000.0 0.931689352687177 0.452911935359639
4178000000.0 0.9381971587036154 0.4700735127114287
4181000000.0 0.9269638344496731 0.42303075309435756
4184000000.0 0.9169270033393434 0.4130153504129274
4188000000.0 0.934293211989625 0.40771519896271646
4191000000.0 0.9035837246629096 0.45350927228382015
4194000000.0 0.9099441716637663 0.3858516181715749
4197000000.0 0.9498606399018733 0.41959544820028977
4200000000.0 0.936951462879472 0.3923985273706385
4203000000.0 0.9477062979323861 0.3857203133508269
4206000000.0 0.9752326424493524 0.39344087460462956
4209000000.0 0.9550118076130559 0.35938469834763304
4212000000.0 0.9706360389439836 0.3196547406107465
4216000000.0 0.9650702476103361 0.3607929765650619
4219000000.0 0.9648988294278744 0.3442628419322825
4222000000.0 0.9657996238625897 0.31939986107274815
4225000000.0 0.9419451345172165 0.31451330414779377
4228000000.0 0.9676615569821603 0.31821484793738886
4231000000.0 0.9702474690785767 0.30501447764940826
4234000000.0 0.9795587245291292 0.29376943308367814
4238000000.0 0.9841963575311511 0.2657644484995031
4241000000.0 0.9767347989610737 0.27024259197423744
4244000000.0 0.9770455453647469 0.2725152324842588
4247000000.0 0.9821370374962936 0.2778181175753888
4250000000.0 0.9663848284227139 0.24556534317219808
4253000000.0 0.9538674936835465 0.24227833913339597
4256000000.0 1.0189560450307389 0.23539154897714065
4259000000.0 0.9687198545347055 0.22121730661145708
4262000000.0 0.9919922472417129 0.19822297208162978
4266000000.0 1.0001842280295403 0.19334592188396166
4269000000.0 0.9831895147746518 0.22037706304148094
4272000000.0 0.990190101174172 0.2037290686929744
4275000000.0 1.004722408592494 0.18877429090128506
4278000000.0 1.0142007312008077 0.17943419072434852
4281000000.0 1.0151622517132777 0.20703896027937885
4284000000.0 1.008703049075609 0.13487804566221204
4288000000.0 1.0080101025535297 0.1917950798578932
4291000000.0 0.9780894091647994 0.14817942098960496
4294000000.0 0.9862740034845813 0.15103248391693563
4297000000.0 0.9830973151503134 0.17355955737925371
4300000000.0 0.9999975527365892 0.145509481630342
4303000000.0 0.9816282571876649 0.1225662890077646
4306000000.0 1.0186912937168755 0.11894443948864086
4309000000.0 1.012879724417992 0.0997241776042024
4312000000.0 1.0476033845396717 0.12573265112649099
4316000000.0 1.024592690312054 0.1168874488901646
4319000000.0 1.0010581870103752 0.09597721055806431
4322000000.0 0.9985621503910107 0.027722226806504727
4325000000.0 0.9953291810652234 0.07751357349524658
4328000000.0 0.9971780389392138 0.06673281148067027
4331000000.0 1.0049436695945007 0.021342353569767547
4334000000.0 1.0177174466085956 0.03883332107435472
4338000000.0 0.999627345767994 0.03752740634752348
4341000000.0 1.0365232959027333 0.03962228065576445
4344000000.0 1.0487995713473675 -0.009492571319773352
4347000000.0 1.0119925140458725 -0.02442249268905161
4350000000.0 0.9739494221986045 -0.030000456745900322
4353000000.0 0.9963362745071158 -0.009008534195049656
4356000000.0 0.9974946469569302 -0.06516006264290766
4359000000.0 0.9703331637721565 -0.05453056123673082
4362000000.0 1.0193610110070104 -0.10774501253667003
4366000000.0 1.0305942172077003 -0.055601079158438704
4369000000.0 0.9807051540789503 -0.06687096417566687
4372000000.0 1.0074082835417386 -0.08904473561511342
4375000000.0 0.9835100120123232 -0.07776052676807156
4378000000.0 0.9830471951898978 -0.09254107584758554
4381000000.0 0.9864586797174684 -0.07980059217745776
4384000000.0 1.0686014418802823 -0.13022805351612204
4388000000.0 0.9849215762464457 -0.09759900593628769
4391000000.0 0.9904917537840743 -0.11881113289673695
4394000000.0 0.9656434062089787 -0.14076602808171773
4397000000.0 0.9891074242922204 -0.15186616418088728
4400000000.0 1.0197138500100227 -0.16020876304469198
4403000000.0 1.0113295733393062 -0.1683937505112414
4406000000.0 0.995100089709099 -0.1864562166059151
4409000000.0 1.0191687372221179 -0.18939683867684137
4412000000.0 0.9785290565292524 -0.23381507344439664
4416000000.0 0.9661790668910308 -0.2160551052299703
4419000000.0 0.9878371488045261 -0.22540665779110974
4422000000.0 0.9798979791087621 -0.189739820292874
4425000000.0 0.9951254425154513 -0.20461978224077568
4428000000.0 0.9870237094683952 -0.2355328631329192
4431000000.0 1.0102883616275613 -0.23788308394745541
4434000000.0 0.9657308835731631 -0.2569675310380219
4438000000.0 0.9987910116852783 -0.2569794709688368
4441000000.0 0.9938579428576044 -0.25853221672778826
4444000000.0 0.9611282269570847 -0.26258602829612926
4447000000.0 0.9475477087955197 -0.2951671892941014
4450000000.0 0.9491460897221393 -0.2802495935978191
4453000000.0 0.9971065800589951 -0.31340766578359924
4456000000.0 0.9382795696748922 -0.32109619959753055
4459000000.0 0.9153642871762913 -0.310615293922195
4462000000.0 1.0071846541241876 -0.34860567576196916
4466000000.0 0.982735424964706 -0.36656447077008514
4469000000.0 0.9632974087283261 -0.3209686390874795
4472000000.0 0.9438602092541046 -0.37294972153222394
4475000000.0 0.9184659307231249 -0.34594022302289024
4478000000.0 0.9771290896053837 -0.3986916194968827
4481000000.0 0.9168955582778098 -0.39330150704771116
4484000000.0 0.9186228805243135 -0.4215615966356827
4488000000.0 0.9029552833812298 -0.39173091865490095
4491000000.0 0.9298202926737384 -0.4030416207228881
4494000000.0 0.9250667879145316 -0.3917276073995785
4497000000.0 0.9197739909395584 -0.39233852341619346
4500000000.0 0.9214682408106865 -0.4042128426178487
4503000000.0 0.9393271786463013 -0.44855171103356944
4506000000.0 0.880851976577187 -0.4325881954657506
4509000000.0 0.8859048893806163 -0.447826211939252
4512000000.0 0.8537994481376956 -0.4448796524187164
4516000000.0 0.9219324353914761 -0.4684541904061598
4519000000.0 0.8789520195201199 -0.4498190371602554
4522000000.0 0.8596696509014174 -0.49519229361966816
4525000000.0 0.9044048141203378 -0.4475026260822372
4528000000.0 0.8986805083632396 -0.510120170146659
4531000000.0 0.8755781910039742 -0.4682412542748191
4534000000.0 0.8569170075716055 -0.4900905294051703
4538000000.0 0.8648107895016091 -0.5058020569720442
4541000000.0 0.8214543770329881 -0.5511569959272012
4544000000.0 0.850052279998353 -0.5262444393776233
4547000000.0 0.862366402848889 -0.4953526057796562
4550000000.0 0.8253007846539411 -0.5715498080494217
4553000000.0 0.8390606930216387 -0.5798623608428772
4556000000.0 0.8148291837889057 -0.5557170023093067
4559000000.0 0.8190051271037455 -0.5782684425693361
4562000000.0 0.8328846593509245 -0.5826849539534132
4566000000.0 0.8245409890085611 -0.5833657573439333
4569000000.0 0.8055175179651719 -0.5712633029821719
4572000000.0 0.7952042794913002 -0.5871874663096551
4575000000.0 0.7957797054891169 -0.6398343640740428
4578000000.0 0.8337334452972536 -0.6303727006846062
4581000000.0 0.7929841582912676 -0.6423844899892378
4584000000.0 0.7744595552055487 -0.6412085360484953
4588000000.0 0.8228254609789762 -0.6298482975241152
4591000000.0 0.7802148648821841 -0.6383296885304769
4594000000.0 0.7447338846909987 -0.6707624585927247
4597000000.0 0.7583431702480927 -0.6777620374801893
4600000000.0 0.7250744003047751 -0.6667267888805286
4603000000.0 0.7360630695853707 -0.682056197120553
4606000000.0 0.7710166497634572 -0.6844698983111217
4609000000.0 0.7424396956711109 -0.6847713179172135
4612000000.0 0.7409863669096529 -0.6944859400960587
4616000000.0 0.7195325168323783 -0.6833468766756913
4619000000.0 0.7207139301865869 -0.6940723945872561
4622000000.0 0.7187693653268189 -0.7055673046289538
4625000000.0 0.6710514572448326 -0.7113469129434479
4628000000.0 0.7222570310360087 -0.6949291100773378
4631000000.0 0.6716162464369981 -0.7069511636514763
4634000000.0 0.6841999823293387 -0.7304034867952565
4638000000.0 0.7033335737719889 -0.7596699721077009
4641000000.0 0.6719079992050275 -0.7558497297945804
4644000000.0 0.6678304220822808 -0.7450189442110089
4647000000.0 0.6841985011793325 -0.7692588324129229
4650000000.0 0.6503712388656924 -0.7654277863950797
4653000000.0 0.6689058223961897 -0.7691996561590096
4656000000.0 0.6440729317194727 -0.791505052399305
4659000000.0 0.6273097426459613 -0.7624599877585094
4662000000.0 0.6308389825216659 -0.7895095650938632
4666000000.0 0.609098122872701 -0.7916638037581577
4669000000.0 0.6264970094855562 -0.7875177645966429
4672000000.0 0.5889763121507314 -0.8261502175583412
4675000000.0 0.5906828489711773 -0.8404548941901778
4678000000.0 0.5755186365817966 -0.7931751267871215
4681000000.0 0.5715347601372944 -0.8403282893261876
4684000000.0 0.5771384303542112 -0.840690403351411
4688000000.0 0.5498586512212204 -0.8441667476660965
4691000000.0 0.5819703036142408 -0.856214366392761
4694000000.0 0.5514515669361113 -0.8242287300479874
4697000000.0 0.5176711821384063 -0.8373950069711882
4700000000.0 0.5534222615697117 -0.8248733134433581
4703000000.0 0.5479977370130129 -0.7899412976596358
4706000000.0 0.5078996342808836 -0.8549343890889762
4709000000.0 0.5173878592388494 -0.8654539657255306
4712000000.0 0.5317230738488339 -0.8701662607910058
4716000000.0 0.5066605045892661 -0.8748820297916113
4719000000.0 0.523249872787669 -0.8692527310201255
4722000000.0 0.5188076391748155 -0.8565428933743366
4725000000.0 0.4987283899254548 -0.8858550693048847
4728000000.0 0.468285259805029 -0.9008218641479164
4731000000.0 0.5060642359710807 -0.9059473032876804
4734000000.0 0.49403146467185743 -0.8700124876915335
4738000000.0 0.47860578686064387 -0.8966815823846171
4741000000.0 0.4410607712782273 -0.9242371634934966
4744000000.0 0.44330042332116015 -0.9048953699113853
4747000000.0 0.4517961423198075 -0.8623668515636705
4750000000.0 0.41411503219226975 -0.9312941483660344
4753000000.0 0.4117025566995215 -0.946761713197201
4756000000.0 0.4046725889186689 -0.9290546392094932
4759000000.0 0.4097624116604654 -0.9555327428364954
4762000000.0 0.3902974865017261 -0.935497941705365
4766000000.0 0.3943109004839489 -0.9452755123051172
4769000000.0 0.3764848674651421 -0.9538533590118089
4772000000.0 0.3916677573123684 -0.9634999774906841
4775000000.0 0.33733158544562747 -0.9931557589280706
4778000000.0 0.3370833385195944 -0.9607463470009433
4781000000.0 0.368443813952256 -0.9538955055598382
4784000000.0 0.3739584976009567 -0.9238749221332939
4788000000.0 0.34091792430656875 -0.9617588235542207
4791000000.0 0.2883680485194529 -0.9415887194061715
4794000000.0 0.3518315767609091 -0.9722973886924227
4797000000.0 0.31000990412039586 -0.9650221561551685
4800000000.0 0.32146363824942614 -0.9578228564140476
4803000000.0 0.2563442832927798 -0.9695737422084498
4806000000.0 0.301115293831514 -0.9851436100468911
4809000000.0 0.22336315862085193 -0.987547798652236
4812000000.0 0.24069792751495425 -0.9662871057959173
4816000000.0 0.27726434002477 -0.9617589237998454
4819000000.0 0.27918069258821254 -0.9973848880910645
4822000000.0 0.2691886432376258 -1.0237251213974041
4825000000.0 0.2733832599669991 -1.0116157144332238
4828000000.0 0.22013355427440512 -0.9779906291974972
4831000000.0 0.19364791286732058 -1.0272779678373947
4834000000.0 0.2359187598038726 -0.9976224787724024
4838000000.0 0.19299875042967257 -1.0178279091191627
4841000000.0 0.16974944193264493 -0.9926479761600885
4844000000.0 0.22606516284991215 -1.0083336381048316
4847000000.0 0.1966659000578192 -0.9804032847353217
4850000000.0 0.1674750294002051 -1.0124591960882225
4853000000.0 0.14684189937616088 -0.9982221330635828
4856000000.0 0.1491511350538584 -0.9969842604270324
4859000000.0 0.13943573453366384 -1.0623038595173102
4862000000.0 0.15021750947567777 -1.003277485792254
4866000000.0 0.11501376709580802 -1.0436600797822173
4869000000.0 0.08907953330421685 -0.9935866115600626
4872000000.0 0.08954169175729415 -1.0533283145539611
4875000000.0 0.12596652210688472 -1.0628558681019171
4878000000.0 0.09750108584521908 -1.0194802427061458
4881000000.0 0.07096184573714957 -1.0913366606951338
4884000000.0 0.0934384161972675 -1.0222969527542418
4888000000.0 0.08677355917057197 -0.9912414860084512
4891000000.0 0.09480355981335184 -1.0298209871606383
4894000000.0 0.05301410959549341 -1.004289371651636
4897000000.0 0.08910952168807076 -1.0057909606058635
4900000000.0 0.0536994375500785 -1.0638132535278602
4903000000.0 0.07160828238275058 -1.0364628755241698
4906000000.0 0.02788542999198151 -1.0155487306425905
4909000000.0 0.02351199082162769 -1.034051150570855
4912000000.0 -0.01758725910674918 -1.0411210811392544
4916000000.0 0.011615758956642519 -1.0549243501360517
4919000000.0 0.015647044567429443 -1.0557308449244038
4922000000.0 0.01130938453319074 -1.0408426626660232
4925000000.0 -0.06491070424012449 -1.0401423310428037
4928000000.0 0.019876072013771257 -0.9734456613031166
4931000000.0 -0.013034078943980038 -1.055464095713933
4934000000.0 -0.06127810056214282 -0.9926582248647717
4938000000.0 -0.1305576060162459 -0.9968151132626217
4941000000.0 -0.07545069998542021 -1.013926858293679
4944000000.0 -0.055403133313758735 -0.9605084566494639
4947000000.0 -0.07669615787430878 -1.037923863303647
4950000000.0 -0.07070834952827267 -0.9918406210808237
4953000000.0 -0.14283899091939756 -1.0720438725431278
4956000000.0 -0.15123503162816193 -1.0353666520322984
4959000000.0 -0.1431234218249852 -0.9805745479078976
4962000000.0 -0.1394169702195305 -1.070727608467032
4966000000.0 -0.10985234107713371 -1.050991163493946
4969000000.0 -0.1455300425503152 -1.0841255367562115
4972000000.0 -0.14162871754719 -1.0182033804950519
4975000000.0 -0.1375779081564805 -1.0148448408157853
4978000000.0 -0.17131590320747492 -1.0004701314566489
4981000000.0 -0.2017166804463891 -1.0386196413896112
4984000000.0 -0.1615490946855828 -0.9942821290289918
4988000000.0 -0.15413101642270854 -1.007556965166945
4991000000.0 -0.15665808794547487 -1.061114540742153
4994000000.0 -0.19096338028170956 -1.0098499666315477
4997000000.0 -0.2529572242304285 -1.0034090637994644
5000000000.0 -0.23246386573970634 -1.0708198698272222
5003000000.0 -0.24255721589677182 -1.0740310271126041
5006000000.0 -0.25113767180924296 -1.0545494115897351
5009000000.0 -0.22827588006265362 -0.9899145062537434
5012000000.0 -0.2686817941582798 -1.0102842348792345
5016000000.0 -0.23857861909271 -1.0252554050831892
5019000000.0 -0.2925471846546226 -0.9909928291080614
5022000000.0 -0.2917646710717796 -0.9757599514883826
5025000000.0 -0.3088321244521545 -1.0782725469647312
5028000000.0 -0.3104293680495377 -0.998249279399098
5031000000.0 -0.32804245223364215 -0.9880956909690405
5034000000.0 -0.34167847484877134 -1.0177025327051503
5038000000.0 -0.3104838063834431 -0.9672686363933822
5041000000.0 -0.2851327253379292 -1.0231309416353578
5044000000.0 -0.3028778909729595 -0.9725190752815555
5047000000.0 -0.3411380241896134 -1.0253482034778565
5050000000.0 -0.27653611012193857 -1.0140073075864033
5053000000.0 -0.345618305667179 -1.0213043227037695
5056000000.0 -0.3234699747925823 -1.0007103609746515
5059000000.0 -0.346939840674848 -0.9758222260366806
5062000000.0 -0.40891565823353715 -0.9656398124184806
5066000000.0 -0.33212652037581325 -0.9565201961552807
5069000000.0 -0.3764480209398497 -0.9672931901674765
5072000000.0 -0.40233506057067825 -0.9403689214077482
5075000000.0 -0.3991615161301618 -0.9560831777955385
5078000000.0 -0.4368404590586467 -0.9361536442617528
5081000000.0 -0.43900606351230514 -0.8865944928621515
5084000000.0 -0.4426931417207708 -0.9849382470229091
5088000000.0 -0.4029765040715842 -0.9503559080119723
5091000000.0 -0.445945250502147 -0.914045360101376
5094000000.0 -0.4838372206823183 -0.9094818806356261
5097000000.0 -0.38422619363269184 -0.9389287370010446
5100000000.0 -0.445380749689269 -0.9020651012568454
5103000000.0 -0.5308009372678129 -0.8806224985976544
5106000000.0 -0.4635581736648477 -0.9597688138232485
5109000000.0 -0.40735169078484024 -0.940839495636453
5112000000.0 -0.481415050252409 -0.8826195348557595
5116000000.0 -0.4740178123022014 -0.8765668117585317
5119000000.0 -0.49686503159823847 -0.9245642766860562
5122000000.0 -0.49540790337897567 -0.9148497717533053
5125000000.0 -0.5149106609701724 -0.8729117335928258
5128000000.0 -0.5257232412041296 -0.8720445579063316
5131000000.0 -0.5337558465599133 -0.8763090745716149
5134000000.0 -0.5139681421361362 -0.9066472827513493
5138000000.0 -0.5463923300946043 -0.8590251093982426
5141000000.0 -0.4798232185091617 -0.8806878001467424
5144000000.0 -0.5464693549074062 -0.8560131085071201
5147000000.0 -0.5206636119600185 -0.892624966484229
5150000000.0 -0.568105481304317 -0.900025608919578
5153000000.0 -0.5787169540717508 -0.8721467946059095
5156000000.0 -0.5560103200197453 -0.8344220760539298
5159000000.0 -0.6097251964676195 -0.8972172521927714
5162000000.0 -0.5779318791616028 -0.8278009295812518
5166000000.0 -0.6327687544051794 -0.8444475252880052
5169000000.0 -0.6186707298066711 -0.8849568741997077
5172000000.0 -0.5933409355680207 -0.8202196853477882
5175000000.0 -0.6455065212791978 -0.8620896848359675
5178000000.0 -0.6620697576466092 -0.805755231325007
5181000000.0 -0.6294033962119562 -0.8652918834546156
5184000000.0 -0.6408795306776869 -0.7858222528674385
5188000000.0 -0.5991969851323375 -0.8154541910273099
5191000000.0 -0.6858809982480005 -0.7807049074412692
