! Created with skrf 1.8.0 (http://scikit-rf.org).
# Hz S RI R 50.0 
!freq ReS11 ImS11
4000000000.0 0.6424321543831345 0.7726809079638948
4003000000.0 0.6840538338074998 0.8333439801528972
4006000000.0 0.6977787227306953 0.7753284958250221
4009000000.0 0.6709939887011397 0.7895989774527646
4012000000.0 0.6718228104141646 0.8146564796056863
4016000000.0 0.7457489830023518 0.7964590708809054
4019000000.0 0.6820752758447515 0.7589455674833984
4022000000.0 0.6705795649144796 0.8055855521421277
4025000000.0 0.7833893871799974 0.7399256015403782
4028000000.0 0.7244396273399369 0.7387381921047922
4031000000.0 0.7089681680657514 0.7255846645909164
4034000000.0 0.7321973306024512 0.7196297306392951
4038000000.0 0.7756002025004161 0.7543345231623431
4041000000.0 0.7270037562582635 0.6996940216794227
4044000000.0 0.708651752746493 0.7882905779815093
4047000000.0 0.7671123395615044 0.7756434724698714
4050000000.0 0.7338650508560178 0.697754671218674
4053000000.0 0.768651231894904 0.6632590928317605
4056000000.0 0.7868410594415827 0.6676164683907262
4059000000.0 0.7718359704963765 0.6617986859914298
4062000000.0 0.7965508205328095 0.6492898672557679
4066000000.0 0.7252473140394675 0.6320813252903412
4069000000.0 0.8464538548073636 0.6601427081334658
4072000000.0 0.7378887522344428 0.6646828818508783
4075000000.0 0.7796026656109006 0.6607521744104492
4078000000.0 0.8432700933155117 0.6477370160062162
4081000000.0 0.7974225207269356 0.6915313167638081
4084000000.0 0.8318155062390934 0.65298028443818
4088000000.0 0.7638604559957157 0.6718510662908552
4091000000.0 0.8670654301476685 0.6760442001160281
4094000000.0 0.8014677825291542 0.6397937494957013
4097000000.0 0.8257727424462828 0.614659097014504
4100000000.0 0.8504164852263443 0.6029256578415501
4103000000.0 0.8247846870428637 0.643051529318527
4106000000.0 0.8730415718887911 0.5702225383472174
4109000000.0 0.8331093310888327 0.5623078285299172
4112000000.0 0.8762407805795851 0.6160017714824573
4116000000.0 0.8292495851074636 0.6142146370651915
4119000000.0 0.8734376206669615 0.5233962677358732
4122000000.0 0.8797834575169403 0.5446101210324226
4125000000.0 0.9005468265019795 0.5473974669234711
4128000000.0 0.8864881696294562 0.5770461523226056
4131000000.0 0.8588334634655885 0.5162755292684462
4134000000.0 0.8735169192182689 0.5586576924022499
4138000000.0 0.8798100752092031 0.4844326901230093
4141000000.0 0.8843254789758137 0.49857770960518377
4144000000.0 0.8696287508217798 0.5233926777664355
4147000000.0 0.9030599494014291 0.45944734196555553
4150000000.0 0.9447647460768097 0.4946346027732666
4153000000.0 0.888610250037856 0.5027805775789719
4156000000.0 0.9323805447876166 0.484645931062763
4159000000.0 0.9192495821963258 0.46397720495895906
4162000000.0 0.9019020612303501 0.4555339059518976
4166000000.0 0.9560361862756297 0.4370855005629246
4169000000.0 0.9453350174382518 0.42493366403731514
4172000000.0 0.9480450264396474 0.4253345727592686
4175000000.0 0.94718617157553 0.41167121961583125
4178000000.0 0.9535351834391111 0.4331621050399104
4181000000.0 0.9405882047251992 0.4141944646799913
4184000000.0 0.9368634088749151 0.3827065726037496
4188000000.0 0.946785302522152 0.38407613804914476
4191000000.0 0.9272549653096149 0.41019002034992175
4194000000.0 0.932481207504931 0.36236024554098256
4197000000.0 0.9544767474515118 0.3757871542197783
4200000000.0 0.9660997100805986 0.38826722973891115
4203000000.0 0.9658730215413104 0.3581195544498128
4206000000.0 0.9823305196079605 0.3514453755551284
4209000000.0 0.9724570764843558 0.3422957784377831
4212000000.0 0.9677486900494124 0.3077224040406177
4216000000.0 0.9620449714310119 0.32958258362417087
4219000000.0 0.971083816516258 0.34405418546440125
4222000000.0 0.982786442756554 0.31300981542626777
4225000000.0 0.956395697242854 0.3037256831333346
4228000000.0 0.979786195269635 0.2906319171707249
4231000000.0 0.9880444984375071 0.3037833505185188
4234000000.0 0.9847935266347261 0.27328755670714544
4238000000.0 0.9945879314866579 0.24887694450821854
4241000000.0 0.9848461489545486 0.23314812753861086
4244000000.0 0.9679754735306791 0.26434449372234836
4247000000.0 0.9675614063104435 0.2543090218980945
4250000000.0 0.9822958980290362 0.2203118341893795
4253000000.0 0.9846938082995766 0.22325621582854993
4256000000.0 1.0097960843757792 0.23270642981614603
4259000000.0 0.9788425960862736 0.20768921108589708
4262000000.0 1.0033607033596588 0.1778541512719388
4266000000.0 1.0167852736137755 0.16770612110743938
4269000000.0 0.9975069591361033 0.19752070410918468
4272000000.0 0.99880354621365 0.15737885900776638
4275000000.0 1.008626383994463 0.19173198661361457
4278000000.0 1.022116013686441 0.1806227239406356
4281000000.0 1.0392629752886262 0.1773043670806413
4284000000.0 1.004582005830903 0.10263362713317678
4288000000.0 1.01215370164378 0.16423738192249943
4291000000.0 0.988236696351732 0.12467568395598554
4294000000.0 0.9974827292634242 0.10548118237205915
4297000000.0 0.9937955794599389 0.11909130491455551
4300000000.0 0.9945439434071524 0.11569840513148957
4303000000.0 0.9925088583274044 0.07532793721825927
4306000000.0 1.0198623985563464 0.08521410046139863
4309000000.0 0.9863158304363541 0.09608288053551371
4312000000.0 1.0181066300507036 0.12184465481268353
4316000000.0 1.0245999464860587 0.07402424648029561
4319000000.0 1.0093718195622006 0.04577062385777679
4322000000.0 1.0044587270266163 0.034605262180284244
4325000000.0 1.0036830941186898 0.029269824204006575
4328000000.0 1.028715305149188 0.041897600633661894
4331000000.0 1.007874217339615 -0.012930206845813239
4334000000.0 1.0141558062627267 -0.0007859045796962949
4338000000.0 1.0476104682728224 0.0030717934228765564
4341000000.0 1.0384765115830987 0.005463454462272976
4344000000.0 1.0489431798878754 -0.011175880773673014
4347000000.0 1.0334870086596524 -0.043031089369780576
4350000000.0 0.9829081146637706 -0.05512408044042523
4353000000.0 0.9893945862141293 -0.019186854818447174
4356000000.0 1.00617985974041 -0.09357351552926889
4359000000.0 0.9814563475598655 -0.07410369187808905
4362000000.0 1.0221503917436372 -0.11755103159207289
4366000000.0 1.0311086167106633 -0.08408483542326252
4369000000.0 0.9861363539251866 -0.11141525096039026
4372000000.0 0.9887737733834283 -0.12932316380551398
4375000000.0 0.9991064816211104 -0.09596204727571019
4378000000.0 0.9764673323592831 -0.12051562068947559
4381000000.0 1.0016560745412426 -0.10836738135675629
4384000000.0 1.0509581195854731 -0.1356658987642806
4388000000.0 0.9936372613003659 -0.12944597519494888
4391000000.0 1.0051415311351237 -0.1476575971296069
4394000000.0 0.9722845778661531 -0.15161405498438463
4397000000.0 0.9909550733205772 -0.17056336298747105
4400000000.0 1.0260312761070638 -0.18968164729767864
4403000000.0 0.999187409657975 -0.19958574995337147
4406000000.0 0.9769261345710394 -0.2188612468729053
4409000000.0 1.0212733817053763 -0.21344922070845707
4412000000.0 0.9710179136868955 -0.2609056815365419
4416000000.0 0.9748200834564014 -0.2285543974248396
4419000000.0 0.9766230896064635 -0.2454939804841497
4422000000.0 0.9738704116201973 -0.22036982343537034
4425000000.0 0.9963238535545218 -0.23534375176243974
4428000000.0 0.9745570003334667 -0.27412722208261636
4431000000.0 0.9994749121506017 -0.2650196433975145
4434000000.0 0.9685571414712981 -0.284837375149827
4438000000.0 0.984093638615656 -0.2908081682696653
4441000000.0 0.9801062866563628 -0.3024218987348515
4444000000.0 0.9503486637671228 -0.30147981518178635
4447000000.0 0.9511725863426065 -0.31943801666784616
4450000000.0 0.9431511435946521 -0.2960252580762145
4453000000.0 0.9760657581208734 -0.314855203252875
4456000000.0 0.9344605613471131 -0.3246387943847552
4459000000.0 0.9115389954783006 -0.3458084753901117
4462000000.0 0.9935568066366736 -0.3713793803470328
4466000000.0 0.9826172834827198 -0.374053927744213
4469000000.0 0.9567945178187709 -0.3600195753167982
4472000000.0 0.9511844705815703 -0.3893458881477824
4475000000.0 0.9154457758537217 -0.38888459189647606
4478000000.0 0.9611136832054501 -0.4380403891469975
4481000000.0 0.884800112599508 -0.424125406259877
4484000000.0 0.9035868805596099 -0.4408027039079494
4488000000.0 0.9168878379279107 -0.43591692414084604
4491000000.0 0.9136549269211742 -0.4433227575919395
4494000000.0 0.9077575219202957 -0.43867951035425123
4497000000.0 0.9066867790979152 -0.4195531242006934
4500000000.0 0.9165864821889962 -0.44614685927952746
4503000000.0 0.9154569457749189 -0.4564094302886602
4506000000.0 0.9022386734569081 -0.44383151098442597
4509000000.0 0.8831194482994822 -0.4631574738519596
4512000000.0 0.8709654202684195 -0.48073230585064886
4516000000.0 0.9234466122253708 -0.497188097216543
4519000000.0 0.8457992443678686 -0.48165948243466217
4522000000.0 0.886464762822655 -0.5150364372264274
4525000000.0 0.8960936674080706 -0.4784587783807819
4528000000.0 0.8808278774405709 -0.5301293170299108
4531000000.0 0.8566246425120658 -0.5090316613117687
4534000000.0 0.8521551208336875 -0.5358507179484643
4538000000.0 0.8467726500393584 -0.5417061251639886
4541000000.0 0.8104880904929261 -0.571242887913007
4544000000.0 0.8236715565091082 -0.5509764371692423
4547000000.0 0.8491365801909024 -0.5707324236548139
4550000000.0 0.8391087327514153 -0.5873764396187648
4553000000.0 0.8171484527430106 -0.5808030351627064
4556000000.0 0.7966849253645969 -0.5875498797897972
4559000000.0 0.8157505047361998 -0.5966719765628319
4562000000.0 0.8231329084312204 -0.6008168870781868
4566000000.0 0.8079451406113691 -0.6153469249357046
4569000000.0 0.7954477093939388 -0.6042810888558605
4572000000.0 0.7941123952761591 -0.614909562431079
4575000000.0 0.7865227257570764 -0.6533199813529826
4578000000.0 0.8217952818212133 -0.6459220349675947
4581000000.0 0.7605628774529086 -0.6429640730468107
4584000000.0 0.7578312457600156 -0.643696673907831
4588000000.0 0.7835673805879954 -0.6736811056251248
4591000000.0 0.7713758769966027 -0.6521488127881935
4594000000.0 0.7322482182747876 -0.6867971380486692
4597000000.0 0.7544779923702905 -0.6965068046962798
4600000000.0 0.7168690222326248 -0.6958117852683439
4603000000.0 0.741525817476033 -0.7036627443967404
4606000000.0 0.7404039501876419 -0.7149238581072624
4609000000.0 0.7101072317754925 -0.7033108677961319
4612000000.0 0.7304302789166751 -0.7263813286956445
4616000000.0 0.70756071840298 -0.718942320181808
4619000000.0 0.7014278778601377 -0.7172411136801171
4622000000.0 0.7028089647126672 -0.7421985902964955
4625000000.0 0.6582284721970862 -0.7422336178548959
4628000000.0 0.6912952089981773 -0.7318102940793862
4631000000.0 0.6639012937708217 -0.7529719142376704
4634000000.0 0.6745484861500206 -0.7536027094905554
4638000000.0 0.668175652439321 -0.7750699249484321
4641000000.0 0.6497048076240521 -0.7799862480373712
4644000000.0 0.6554853752736016 -0.7631995064417484
4647000000.0 0.6496591006433268 -0.7826872900901272
4650000000.0 0.6191110368365639 -0.7965424033647974
4653000000.0 0.6570781971108706 -0.8073794770362693
4656000000.0 0.6196710129582077 -0.802019949593759
4659000000.0 0.593683223144171 -0.8088207088914582
4662000000.0 0.6103512876699667 -0.804882379296199
4666000000.0 0.6099973974757072 -0.8153961275620896
4669000000.0 0.5971137525665408 -0.8301046115380115
4672000000.0 0.5863897027391257 -0.8482222674509238
4675000000.0 0.5682139951528488 -0.8471905256136093
4678000000.0 0.5740958213778131 -0.810455414016762
4681000000.0 0.5401905060138645 -0.8550622516350842
4684000000.0 0.5274483559763055 -0.8681500951425485
4688000000.0 0.5452654381817312 -0.8557335141453223
4691000000.0 0.5526594859109979 -0.8417119612555037
4694000000.0 0.5500612332384786 -0.8609232347775597
4697000000.0 0.49818709063999106 -0.8609991748639847
4700000000.0 0.5322217098917408 -0.865194745646618
4703000000.0 0.5373881542055504 -0.8362609531989253
4706000000.0 0.5126051121434061 -0.8563777183471009
4709000000.0 0.4712534564266849 -0.8861048550448541
4712000000.0 0.48382741078543345 -0.8989792308774489
4716000000.0 0.4792095129003112 -0.9055219869284288
4719000000.0 0.48467235130357 -0.8700867750808209
4722000000.0 0.5000455979628179 -0.9014809717164258
4725000000.0 0.4849229771256534 -0.8708074989957034
4728000000.0 0.46718710283935483 -0.9333932790398982
4731000000.0 0.47692257866342547 -0.946846178309152
4734000000.0 0.4486359835323842 -0.8905058176547344
4738000000.0 0.4876156086993656 -0.9461229807664702
4741000000.0 0.4472038157493976 -0.9464768024037834
4744000000.0 0.38611394348104644 -0.9263453402584035
4747000000.0 0.42081638078759037 -0.9149475342599996
4750000000.0 0.39904500817438404 -0.9709592195642373
4753000000.0 0.41108667750485084 -0.9489116056581129
4756000000.0 0.39599821410375735 -0.9462893654710174
4759000000.0 0.37925712525986355 -0.9734112394459524
4762000000.0 0.3628263142959638 -0.9573298406205147
4766000000.0 0.33873328283833337 -0.9355349490145631
4769000000.0 0.3639071682697874 -0.9678197155169471
4772000000.0 0.3363656934461814 -0.9881884625921885
4775000000.0 0.32355484142595736 -0.9884407730368931
4778000000.0 0.319025963074553 -0.9705974290343332
4781000000.0 0.3366660234928101 -0.9731402165320673
4784000000.0 0.31764305699121875 -0.9826470802542316
4788000000.0 0.27699282576779616 -0.989331064781658
4791000000.0 0.26791874307386165 -0.9953567595970693
4794000000.0 0.31946631322254027 -1.010883092878024
4797000000.0 0.271769511664146 -0.9868705173935622
4800000000.0 0.2554763359691499 -1.0006045941894632
4803000000.0 0.23877614899595903 -1.0225632974032013
4806000000.0 0.22702061080323302 -0.9961235996366011
4809000000.0 0.20046121797683103 -1.0091523210771327
4812000000.0 0.2022491191272955 -0.9809205918128481
4816000000.0 0.2755277002602732 -0.9855346761259645
4819000000.0 0.24267238485885248 -1.0443308977874008
4822000000.0 0.23954589859099265 -1.044156827194148
4825000000.0 0.21124401984277263 -1.0086186129906445
4828000000.0 0.1709801247597039 -1.009923969009233
4831000000.0 0.1374029543445798 -1.025955006778568
4834000000.0 0.20539628749419125 -1.0280658590339073
4838000000.0 0.17541555322904373 -1.0057573410357479
4841000000.0 0.159731639933519 -1.0124418747082884
4844000000.0 0.18500844263441993 -1.0148553648792822
4847000000.0 0.15945450474509804 -1.0014844813499508
4850000000.0 0.1294395721029949 -1.0426144459820985
4853000000.0 0.11561975106131228 -1.002043612203606
4856000000.0 0.128000478413198 -1.0144104465225332
4859000000.0 0.07832140664044163 -1.0261702171661038
4862000000.0 0.12798327566549234 -0.9861213489564254
4866000000.0 0.07892115543062905 -1.058850450840512
4869000000.0 0.06329277509998157 -1.0392727961845125
4872000000.0 0.05364002641674675 -1.0570800116380803
4875000000.0 0.11675501090081085 -1.0374802754448975
4878000000.0 0.061209927164536417 -1.0287479974675413
4881000000.0 -0.0021054426097902876 -1.0904870775800546
4884000000.0 0.05054369847090797 -1.0194790890143328
4888000000.0 0.05203307281587867 -1.0096288804668403
4891000000.0 0.036097097551605714 -1.0583552908754346
4894000000.0 -0.015510775607742978 -1.0087274668611002
4897000000.0 0.04213167072840382 -1.0007074015391004
4900000000.0 -0.008470171890687807 -1.046756092589895
4903000000.0 0.032289158646638505 -1.0468788252434376
4906000000.0 -0.04825509138749037 -1.0786912994373157
4909000000.0 -0.03241934224084131 -1.0407128350474604
4912000000.0 -0.05243289199402269 -1.0692742755776674
4916000000.0 -0.042311994968840895 -1.0901624898715834
4919000000.0 -0.023928166264818043 -1.076083337113388
4922000000.0 -0.022346517320459516 -1.0538676045756747
4925000000.0 -0.09934638268474166 -1.0345410045380112
4928000000.0 -0.01624900621443144 -1.0320419071853688
4931000000.0 -0.05580275394852756 -1.0327682890977206
4934000000.0 -0.09836358585972725 -0.9562185730598359
4938000000.0 -0.11116765440211158 -1.0019125375710678
4941000000.0 -0.10260419339546605 -1.0064765163054161
4944000000.0 -0.07097760359040026 -0.9644901460124089
4947000000.0 -0.1497966813996431 -0.9688437748713575
4950000000.0 -0.11557981142982728 -1.0043951779330664
4953000000.0 -0.19463387041492802 -1.0318209288274962
4956000000.0 -0.17384673374260412 -1.0376624264445522
4959000000.0 -0.18966356571542367 -0.9702521317539377
4962000000.0 -0.15490441611760583 -1.0479099462000832
4966000000.0 -0.1317862738619771 -1.0256718140454708
4969000000.0 -0.19070772603181452 -1.0539917256638018
4972000000.0 -0.20574115348977726 -1.0181941322958483
4975000000.0 -0.14347524327119612 -1.0158649534330246
4978000000.0 -0.22848824086302288 -0.9995916704811106
4981000000.0 -0.228366991319265 -1.032582086058783
4984000000.0 -0.19517165050488586 -1.0093311678148775
4988000000.0 -0.20724799301177266 -0.978160375332336
4991000000.0 -0.2102140931030509 -1.0318057378731098
4994000000.0 -0.22993624883399966 -0.986448284112268
4997000000.0 -0.29888205769245785 -1.0038690612503873
5000000000.0 -0.26806430903364264 -1.0423422922102916
5003000000.0 -0.2684142021897971 -1.0313174615509466
5006000000.0 -0.303170766821413 -1.068478713814106
5009000000.0 -0.2576177653387175 -0.9939117710638444
5012000000.0 -0.3156081059878348 -1.0038551284216952
5016000000.0 -0.27345045747573565 -1.0297110916322174
5019000000.0 -0.33120000163325836 -0.9699063632010874
5022000000.0 -0.29861616980631633 -0.998778231827171
5025000000.0 -0.36323265951372824 -1.0556173870884205
5028000000.0 -0.3679075812440563 -0.9901588963818171
5031000000.0 -0.3729365710313678 -0.979107946603892
5034000000.0 -0.3966707836176112 -0.9731755134811735
5038000000.0 -0.37485240944273746 -0.9698755209986223
5041000000.0 -0.35268726774949843 -0.9868617131882386
5044000000.0 -0.34883700490856895 -0.9575444006365831
5047000000.0 -0.3594192664294538 -0.991076452813508
5050000000.0 -0.2844435873129906 -0.9599038275029126
5053000000.0 -0.4361865558748006 -0.9653859071558846
5056000000.0 -0.367890804273027 -0.9788251484915407
5059000000.0 -0.3842418121872428 -0.9572041734917048
5062000000.0 -0.4684321494081213 -0.9900291044821969
5066000000.0 -0.4097284822833195 -0.9760974674319081
5069000000.0 -0.42313688498206836 -0.9757720836166629
5072000000.0 -0.423634961507391 -0.9507539657337158
5075000000.0 -0.4218100405991031 -0.9267868182715824
5078000000.0 -0.49603972411136815 -0.9052349709864957
5081000000.0 -0.49028472954133057 -0.8897862339404315
5084000000.0 -0.46680525889467495 -0.9285761767110037
5088000000.0 -0.46899222106889704 -0.8921555241962142
5091000000.0 -0.5154924745604159 -0.9440337726295531
5094000000.0 -0.5037260452454347 -0.9097539690190609
5097000000.0 -0.49395964924671265 -0.943551339685448
5100000000.0 -0.5318647285173973 -0.9140015442506214
5103000000.0 -0.526062553248834 -0.9206182027066973
5106000000.0 -0.5088341704612531 -0.9169077004471773
5109000000.0 -0.4583784458747563 -0.9316391347740749
5112000000.0 -0.5568968155499493 -0.8711998252497266
5116000000.0 -0.4802066106134394 -0.8329973745495867
5119000000.0 -0.5255673355139662 -0.8590540992618978
5122000000.0 -0.5372444182211742 -0.8481972030601579
5125000000.0 -0.5292793046052159 -0.8586636500326078
5128000000.0 -0.5747037323006815 -0.857586183860654
5131000000.0 -0.544398961133717 -0.8609811686764881
5134000000.0 -0.5626584166615768 -0.8785604277109809
5138000000.0 -0.5279663691797755 -0.8801866384932966
5141000000.0 -0.5334884807451039 -0.9166719100060112
5144000000.0 -0.5627531902618503 -0.8478490235783208
5147000000.0 -0.6165657158146751 -0.8523546602186338
5150000000.0 -0.6137764183739692 -0.8237070338043798
5153000000.0 -0.6352155075702219 -0.856461286558845
5156000000.0 -0.5975736283352363 -0.8410745137301732
5159000000.0 -0.6355146193470483 -0.8714275613119129
5162000000.0 -0.6274042661946122 -0.8008520312487166
5166000000.0 -0.6507385139837276 -0.8112625448000598
5169000000.0 -0.6384560138952536 -0.8091637559242074
5172000000.0 -0.638725716400847 -0.7914439636137341
5175000000.0 -0.6871735236714898 -0.8277635941659359
5178000000.0 -0.6800494423193009 -0.8248266380100785
5181000000.0 -0.6794501314838485 -0.81679725680301
5184000000.0 -0.6611188933870369 -0.7961647803916527
5188000000.0 -0.6771712363670072 -0.8116201197191193
