! Created with skrf 1.8.0 (http://scikit-rf.org).
# Hz S RI R 50.0 
!freq ReS11 ImS11
4000000000.0 0.6164755226280902 0.837517650998205
4003000000.0 0.6773786165234854 0.8558335142987006
4006000000.0 0.697643616021287 0.7802823608402056
4009000000.0 0.6702998502416923 0.8306378194061012
4012000000.0 0.5999492343111172 0.8383696590517593
4016000000.0 0.6960039599614767 0.7507193646549355
4019000000.0 0.7099880454079885 0.7694241787537833
4022000000.0 0.6285015599050774 0.827057379969395
4025000000.0 0.7650850724734958 0.75544021353894
4028000000.0 0.738132135621944 0.7666164378519316
4031000000.0 0.6566186602665346 0.7246564337070913
4034000000.0 0.6891748681372221 0.7460850366475872
4038000000.0 0.7698099662099372 0.7186157683016855
4041000000.0 0.7290819303902278 0.7393710956559281
4044000000.0 0.757716679398186 0.7406384934355676
4047000000.0 0.7556111793849493 0.7886682410202552
4050000000.0 0.7778542023564249 0.693547463844932
4053000000.0 0.7736351604256605 0.7026950331078381
4056000000.0 0.7516271397055497 0.727081027135969
4059000000.0 0.7486113583258057 0.7004197905778178
4062000000.0 0.8016718061778996 0.6563911935430979
4066000000.0 0.729959328316397 0.6079526623083743
4069000000.0 0.7959822628230033 0.6519279714398746
4072000000.0 0.8042722990554388 0.731821341623363
4075000000.0 0.8050433023354933 0.7134658400446663
4078000000.0 0.8356132690588286 0.6238259282286925
4081000000.0 0.8211800438329301 0.7071410723779566
4084000000.0 0.8415461934254478 0.5989101400383481
4088000000.0 0.7761169713453828 0.6416520955363182
4091000000.0 0.8879524510660486 0.6887627346851202
4094000000.0 0.8171959855068572 0.6004954690527265
4097000000.0 0.8287355909579671 0.6080090149436754
4100000000.0 0.8487101208058596 0.603115539386901
4103000000.0 0.856191650323749 0.6304085590563897
4106000000.0 0.8835298886380797 0.5945888050359472
4109000000.0 0.8481313028753421 0.6007554737917542
4112000000.0 0.8554507832560272 0.5948121699904598
4116000000.0 0.8564983402224098 0.5917679181813223
4119000000.0 0.8811350624417122 0.5658375220954676
4122000000.0 0.8833868192780872 0.5250831840393873
4125000000.0 0.9159547697835807 0.5346278909637445
4128000000.0 0.8189711427481314 0.5349873437823515
4131000000.0 0.8813472749067542 0.49795963245673236
4134000000.0 0.8925050293439437 0.5600483306708923
4138000000.0 0.8683775188492802 0.525315588076783
4141000000.0 0.8914506063080311 0.4942130576191549
4144000000.0 0.8836177675496075 0.5304772888383673
4147000000.0 0.9214567031850983 0.46226936597202145
4150000000.0 0.9202569050314598 0.5111642329621273
4153000000.0 0.9016361913265601 0.5059552172265172
4156000000.0 0.9173874565002349 0.49830655405878777
4159000000.0 0.9035416864098986 0.5035843113936507
4162000000.0 0.9202584038182633 0.4638020456951085
4166000000.0 0.9390682733623796 0.48073721861577845
4169000000.0 0.922544268779894 0.42184165089560954
4172000000.0 0.9230829770532527 0.45832327966247494
4175000000.0 0.9329818736574326 0.4337024917584373
4178000000.0 0.9723764023613688 0.41965700047605237
4181000000.0 0.9411111610800618 0.42973132028968886
4184000000.0 0.9577382801126496 0.4233388050551283
4188000000.0 0.9220187421693313 0.39664803450539154
4191000000.0 0.9245735864996005 0.4497431736266236
4194000000.0 0.9302331342328298 0.4094344268809794
4197000000.0 0.9573855459501233 0.39268605916573934
4200000000.0 0.9593523139767597 0.3920860871113816
4203000000.0 0.9598551022543206 0.36954760142852816
4206000000.0 0.9618395666875238 0.3530285185807078
4209000000.0 0.963679140332519 0.3585835762232373
4212000000.0 0.9657598334740642 0.32046057527571337
4216000000.0 0.966374399057845 0.34803922593418285
4219000000.0 0.996389851388601 0.35115028486517175
4222000000.0 0.962874799329005 0.3010220483433315
4225000000.0 0.9518742471202057 0.3300877175314343
4228000000.0 0.990304837502437 0.3179767631938364
4231000000.0 0.987764788938137 0.30460768811349626
4234000000.0 0.9837596465072643 0.28718031742771843
4238000000.0 0.9847852039678784 0.24428774497479264
4241000000.0 0.9913202545028907 0.26506184728552146
4244000000.0 0.989650224869342 0.2621698163080936
4247000000.0 0.9945046753914891 0.26324739131406594
4250000000.0 0.9922822913916718 0.2445283823900689
4253000000.0 0.9815238683341423 0.22760246345572793
4256000000.0 1.0292647386212683 0.2307521758645541
4259000000.0 0.9681473355425027 0.20222662390970095
4262000000.0 0.9954554678378726 0.1954610672867804
4266000000.0 1.014608315660865 0.16612698707118134
4269000000.0 0.9912482318218748 0.21390706309099408
4272000000.0 0.9924151348882568 0.1903331741419484
4275000000.0 1.014451323757519 0.17859721756125585
4278000000.0 1.0153006744026767 0.1821905582494901
4281000000.0 1.002083239429573 0.16560800112002316
4284000000.0 1.007979799405633 0.13679499767611442
4288000000.0 1.025513569355914 0.17734094593213195
4291000000.0 0.9978263500813661 0.1382797725204895
4294000000.0 1.0221170295598814 0.11852961309771463
4297000000.0 1.0077192562589667 0.13336005662863581
4300000000.0 0.995506441803699 0.10896997056205437
4303000000.0 0.9986469088873416 0.1094324452013425
4306000000.0 1.0182133030757536 0.1270839028920821
4309000000.0 1.015561318453724 0.09362045846480675
4312000000.0 1.0105312501998815 0.11280218101773162
4316000000.0 1.0322769605279714 0.05346885267797523
4319000000.0 1.0025917642038769 0.060049080750913045
4322000000.0 0.9979915594541207 0.05097035902328968
4325000000.0 1.017111366511685 0.053200588307367666
4328000000.0 1.0097214232166636 0.02513274840492745
4331000000.0 1.0511541797015937 -0.004430393593701912
4334000000.0 1.022306248472273 0.01239770812427915
4338000000.0 1.021924605682502 0.018348520359260698
4341000000.0 1.0241406309547805 0.023427924856741028
4344000000.0 1.0548842887248362 -0.0174466269559361
4347000000.0 1.0386636434538297 -0.06380002358651132
4350000000.0 0.9683715303158122 -0.036672805567392136
4353000000.0 1.0035825808788472 -0.006910587116124273
4356000000.0 0.9949988198179752 -0.06583613264362773
4359000000.0 0.9698784396678254 -0.06747287647729547
4362000000.0 1.0057107145607547 -0.11383195967406162
4366000000.0 1.0131055802682536 -0.08245179853767955
4369000000.0 0.9862373062159764 -0.07941875090859703
4372000000.0 0.9928469063783825 -0.10682893233181406
4375000000.0 1.0043088019360513 -0.08712081178335562
4378000000.0 0.9707489419554111 -0.10881512766770267
4381000000.0 0.9971557836773319 -0.08574271918042566
4384000000.0 1.075314995838867 -0.14880969054586773
4388000000.0 0.986659541577155 -0.12396623462936465
4391000000.0 1.0039533969324514 -0.13018576982505775
4394000000.0 0.9736606703028138 -0.1447048473557751
4397000000.0 1.013160753299228 -0.16628415281991055
4400000000.0 1.008535214630848 -0.1853948151344927
4403000000.0 0.9926627245187777 -0.18705738981175601
4406000000.0 1.0070836739211348 -0.2171845552067266
4409000000.0 1.0240423097904754 -0.2129840564417448
4412000000.0 0.9636572248572705 -0.245381587918593
4416000000.0 0.9698569826627441 -0.2246779072521328
4419000000.0 0.9859505171321367 -0.2485906260926752
4422000000.0 0.9711318176136792 -0.22366504953771027
4425000000.0 1.0076932224907944 -0.22447098274113028
4428000000.0 0.9777938133160672 -0.2574795044274607
4431000000.0 0.9989051501057467 -0.2594887677241953
4434000000.0 0.9666440381167497 -0.28236111691590904
4438000000.0 0.9924194078756414 -0.28597295554812113
4441000000.0 0.9863980727071946 -0.29036247671235704
4444000000.0 0.944936164613539 -0.293767976621357
4447000000.0 0.960270497257868 -0.31648928283976735
4450000000.0 0.9427344748780314 -0.3078155655354704
4453000000.0 0.9847100176515319 -0.3204796935082389
4456000000.0 0.9245782628904353 -0.3146780094886787
4459000000.0 0.8972214691171385 -0.33421381762049795
4462000000.0 1.0093367658494272 -0.36581296012269027
4466000000.0 0.9798127323739345 -0.36497586983257185
4469000000.0 0.9605345178805366 -0.34151549456622077
4472000000.0 0.9570813703652454 -0.3896730068434371
4475000000.0 0.9180223445802779 -0.34572503736767324
4478000000.0 0.9778709871986873 -0.4098802047880511
4481000000.0 0.9088633181149713 -0.38156554724984254
4484000000.0 0.9184033573463704 -0.43887286734512343
4488000000.0 0.9116139263541976 -0.4157458321466299
4491000000.0 0.9188211841060716 -0.42624591797952777
4494000000.0 0.908367000420729 -0.41985693764133586
4497000000.0 0.9134201576902432 -0.41223221972017254
4500000000.0 0.9167096978019345 -0.42477028301458325
4503000000.0 0.9368349479888629 -0.4330836767362186
4506000000.0 0.8897695138536976 -0.46391649362099735
4509000000.0 0.8868707764240067 -0.4725600428314637
4512000000.0 0.8791254930685196 -0.48123129606441006
4516000000.0 0.9084148896793017 -0.4846582460819945
4519000000.0 0.8764997988736374 -0.4574428701118169
4522000000.0 0.878416163498472 -0.504671808381141
4525000000.0 0.8829083800470523 -0.4689331476298013
4528000000.0 0.904355968289176 -0.5245430815171045
4531000000.0 0.8791989030320079 -0.5142088649325786
4534000000.0 0.8518419894457901 -0.49557904278886755
4538000000.0 0.843551308450375 -0.5291024417776828
4541000000.0 0.8241648558692894 -0.5628280530840007
4544000000.0 0.836235924067751 -0.5374369972231857
4547000000.0 0.8293728343846946 -0.5248313049096351
4550000000.0 0.85518998449609 -0.5944555566771883
4553000000.0 0.8284220321194249 -0.588095234974323
4556000000.0 0.8134972177596564 -0.5738941886712066
4559000000.0 0.815451459793777 -0.6013069006832139
4562000000.0 0.8356825885097776 -0.6040123444912779
4566000000.0 0.8134150116415737 -0.6128202814422614
4569000000.0 0.7897099257054485 -0.6222688660457278
4572000000.0 0.8126751191569715 -0.6096141534664737
4575000000.0 0.7897326250584533 -0.6383431674101869
4578000000.0 0.820258864452617 -0.6379996172009679
4581000000.0 0.7852225888374113 -0.6646760121419125
4584000000.0 0.7721464922127406 -0.6551816958757835
4588000000.0 0.7986564431541473 -0.655474048022841
4591000000.0 0.7731038277640379 -0.6302440207291252
4594000000.0 0.7513501966638936 -0.6714664736769501
4597000000.0 0.7613003800627332 -0.7007087324673384
4600000000.0 0.7283120936737567 -0.6816623256705864
4603000000.0 0.7562738852785501 -0.6956972555194287
4606000000.0 0.7398441130029447 -0.6998626490081408
4609000000.0 0.7278515615644007 -0.6893178427115301
4612000000.0 0.7372849569274194 -0.7191380268181565
4616000000.0 0.7083843324969135 -0.7080076695504721
4619000000.0 0.7218507070608742 -0.7081055310185131
4622000000.0 0.703907487595132 -0.742084547011563
4625000000.0 0.6648252343713728 -0.7304938397056404
4628000000.0 0.7052046584692558 -0.7168802517165856
4631000000.0 0.6781128332859989 -0.7640013705091836
4634000000.0 0.6884098687248407 -0.7457480026494874
4638000000.0 0.6734592065374211 -0.7552527797635584
4641000000.0 0.676161633662031 -0.746295169695963
4644000000.0 0.6588401812893551 -0.7694803069729494
4647000000.0 0.6591221263348174 -0.7604213606292063
4650000000.0 0.6334462123598595 -0.7922789888582861
4653000000.0 0.6641724464860539 -0.7839527704342762
4656000000.0 0.6142871702867099 -0.7947657160490942
4659000000.0 0.6180561560760045 -0.8091625991965918
4662000000.0 0.6212077235429759 -0.8058543206580425
4666000000.0 0.5982857763579695 -0.8111688619219812
4669000000.0 0.6006175070249542 -0.819591906530486
4672000000.0 0.5781732519727849 -0.8341053887461586
4675000000.0 0.5732660504126231 -0.8348603454573904
4678000000.0 0.5909619111994067 -0.8156478680642509
4681000000.0 0.5665578040820765 -0.8637502009662369
4684000000.0 0.5397510715523414 -0.8645015624599
4688000000.0 0.5315748047691616 -0.8352062264860749
4691000000.0 0.5843725630459994 -0.8739858448481799
4694000000.0 0.5438613751673972 -0.8499949991516933
4697000000.0 0.49479601948041296 -0.8461962372778589
4700000000.0 0.545836598846623 -0.8710901035415535
4703000000.0 0.5517197808987295 -0.8242769268160506
4706000000.0 0.5079365854315556 -0.8904885192006489
4709000000.0 0.492857980487015 -0.8689479512241177
4712000000.0 0.5008683750715359 -0.8946350759220617
4716000000.0 0.48569003573295877 -0.8998347011904857
4719000000.0 0.5066934014991302 -0.8891864121303729
4722000000.0 0.5100074476756042 -0.880709718494129
4725000000.0 0.4776247820745421 -0.8837293516285017
4728000000.0 0.46114643258548377 -0.8915874934772701
4731000000.0 0.45410642103184473 -0.9283324686808438
4734000000.0 0.44652526324304104 -0.8739445611607958
4738000000.0 0.4604978256640816 -0.9674747258238368
4741000000.0 0.43891195013347295 -0.9496353659087569
4744000000.0 0.4227773960606095 -0.9572773104298541
4747000000.0 0.4340922902711501 -0.9076347641731126
4750000000.0 0.42760493380159414 -0.9426135323177226
4753000000.0 0.4063687362733513 -0.9383009492467858
4756000000.0 0.3838572474472587 -0.9435413668748007
4759000000.0 0.3786209022147024 -0.9625839544904083
4762000000.0 0.37915019101885605 -0.9850894422196862
4766000000.0 0.39080099485156816 -0.9588585414869735
4769000000.0 0.37453185441833287 -0.9859657672074328
4772000000.0 0.3544560142200049 -0.9687654475871889
4775000000.0 0.3364832777186396 -1.0109194642398882
4778000000.0 0.35516681101455905 -0.9822919872766883
4781000000.0 0.3357097988709408 -0.9705570272197108
4784000000.0 0.35802680933606645 -0.9551381775144149
4788000000.0 0.2988068549327859 -0.9940024056410506
4791000000.0 0.29757444477841954 -0.9867003449613069
4794000000.0 0.34643182915082904 -1.0039151924088214
4797000000.0 0.2867893032124358 -0.9571254341539358
4800000000.0 0.27620491061816066 -0.9670453251169957
4803000000.0 0.2666093264299417 -0.9678008176722281
4806000000.0 0.27233720117618876 -1.0091225432014121
4809000000.0 0.1924025748980921 -0.981237171351831
4812000000.0 0.19667450973627595 -0.9970994143873448
4816000000.0 0.23377622494024322 -0.9750870248524617
4819000000.0 0.24700015965399566 -0.988283580657205
4822000000.0 0.2459705015750882 -1.0542930736960667
4825000000.0 0.2681372381016661 -1.0233416859743656
4828000000.0 0.2175944895968554 -1.0167869158513292
4831000000.0 0.14939539871421995 -1.0377716998424122
4834000000.0 0.22492435774525033 -1.0027642361015792
4838000000.0 0.17677303501768454 -1.0412836846597444
4841000000.0 0.1645680198335152 -0.9945963300748927
4844000000.0 0.17506849693112414 -1.0260669783491678
4847000000.0 0.1817016287003418 -0.9626306843179289
4850000000.0 0.14485890356848619 -1.05353404200004
4853000000.0 0.1385721004860065 -1.0048897095261797
4856000000.0 0.14532664224567415 -0.991188401950054
4859000000.0 0.12170946235335484 -1.059969153625918
4862000000.0 0.14444055577758852 -1.0063109999429447
4866000000.0 0.0826962130666836 -1.0334528403252614
4869000000.0 0.0779467761778947 -1.0430559327708913
4872000000.0 0.06973841331469814 -1.0578757717942677
4875000000.0 0.12505657492530592 -1.0668427079972425
4878000000.0 0.037432794558467944 -1.0315377239776606
4881000000.0 -0.0018856460052679544 -1.0975852778089745
4884000000.0 0.06935889229924229 -1.032529933926074
4888000000.0 0.08788581297875289 -1.0313259422828158
4891000000.0 0.06469917892703478 -1.0664912317794801
4894000000.0 0.012274006490118722 -1.0336923315085484
4897000000.0 0.06780632555398385 -1.030528161082664
4900000000.0 0.01591881720270575 -1.056859605553185
4903000000.0 0.03113210275929008 -1.0460867699343435
4906000000.0 0.007776959408278625 -1.0787787128666064
4909000000.0 -0.03089786843267328 -1.0358031643966512
4912000000.0 -0.036964888030041054 -1.0476436738130286
4916000000.0 -0.0021072779961412366 -1.0419057947366919
4919000000.0 -0.007191761893918902 -1.0574870796490758
4922000000.0 0.012709591325760071 -1.0465790856472699
4925000000.0 -0.07861321237129246 -1.0201689724343737
4928000000.0 -0.0005626055016274278 -1.0348083607950924
4931000000.0 -0.009171524842263357 -1.0593887965435387
4934000000.0 -0.06776988377186365 -0.9948072255200594
4938000000.0 -0.12249370866315977 -1.0092425942897638
4941000000.0 -0.08612733140592861 -1.0324951635026833
4944000000.0 -0.0654972114008652 -0.9643302286712383
4947000000.0 -0.09576879085703721 -0.9950316116731408
4950000000.0 -0.12819219151547967 -0.993364835556521
4953000000.0 -0.18873757858063617 -1.042895403179078
4956000000.0 -0.1929620444544598 -1.0304990504565914
4959000000.0 -0.17374908714242324 -1.009032888156938
4962000000.0 -0.16841078262908257 -1.0460231666650681
4966000000.0 -0.1266322972430643 -1.0648346356480576
4969000000.0 -0.1623830699032499 -1.0741051907341344
4972000000.0 -0.20635948613869984 -0.9995743567385954
4975000000.0 -0.1300474308250463 -1.0171223478172817
4978000000.0 -0.2194802646144975 -1.0001082913344794
4981000000.0 -0.21353125225205907 -1.025129406046321
4984000000.0 -0.21647750105099858 -1.0220833310962092
4988000000.0 -0.2159989851796773 -1.012242702760844
4991000000.0 -0.1518032963592768 -1.0521713112065725
4994000000.0 -0.22557666696177903 -1.0000096271523184
4997000000.0 -0.2632484047412582 -1.0096935443482975
5000000000.0 -0.22292874748245767 -1.0370584931364228
5003000000.0 -0.22215182076514695 -1.0402697798365341
5006000000.0 -0.2977791587901152 -1.0589022934310997
5009000000.0 -0.26620787273444835 -1.0115222607123064
5012000000.0 -0.287815109822871 -0.9897234874884102
5016000000.0 -0.27300658822724194 -1.0558196730436593
5019000000.0 -0.30641983385385196 -0.9845466795677289
5022000000.0 -0.31874945154608414 -1.0027460908065635
5025000000.0 -0.36204869732456074 -1.0693436082071346
5028000000.0 -0.3328892961379295 -0.9723238424720364
5031000000.0 -0.3444921245823881 -0.9918953973032137
5034000000.0 -0.3852723542116827 -1.0293749360144004
5038000000.0 -0.36219513496266387 -0.9634839238656336
5041000000.0 -0.29663476927075005 -1.0160711192926284
5044000000.0 -0.2986965674144363 -1.0127202069192491
5047000000.0 -0.37109528807300535 -0.9816080980660892
5050000000.0 -0.2930003675918079 -0.9925109088992843
5053000000.0 -0.41306309388055573 -1.0163785988206728
5056000000.0 -0.3341965016901841 -1.003300553274222
5059000000.0 -0.32140985153276386 -0.9863244239490824
5062000000.0 -0.4493328829662844 -0.9188902552413745
5066000000.0 -0.37307530921738297 -0.9531865026474091
5069000000.0 -0.42527816942666385 -0.9560627403006695
5072000000.0 -0.3660229551197099 -0.9365499095012884
5075000000.0 -0.38486156306706554 -0.9745143153969942
5078000000.0 -0.4865538688423959 -0.9728814544443949
5081000000.0 -0.41299952687011093 -0.8563637968073837
5084000000.0 -0.43462892502791195 -0.9450888558529122
5088000000.0 -0.4356257412263129 -0.9539054660464228
5091000000.0 -0.540910042155887 -0.8986770259366559
5094000000.0 -0.4914347978872478 -0.9398641198516512
5097000000.0 -0.48227903555738094 -0.9588464230648899
5100000000.0 -0.5286129154974929 -0.918720568393769
5103000000.0 -0.4534427741496553 -0.9128057862537263
5106000000.0 -0.46846176659405153 -0.9106244818001847
5109000000.0 -0.5130666404739189 -0.9666293266223465
5112000000.0 -0.5797385712333357 -0.9275376517142635
5116000000.0 -0.5260943854725688 -0.8334397756567045
5119000000.0 -0.5526312805252593 -0.9510089472168339
5122000000.0 -0.5445748784295793 -0.8685571755173063
5125000000.0 -0.4925811451787222 -0.8568562574916335
5128000000.0 -0.5126024724370601 -0.8878868273812661
5131000000.0 -0.5827150622340361 -0.8755035914447864
5134000000.0 -0.5741593545137575 -0.8692932663778307
5138000000.0 -0.5522608763806155 -0.913022101450293
5141000000.0 -0.5620801714234365 -0.8917198062278329
5144000000.0 -0.5774205314432437 -0.8990847741136833
5147000000.0 -0.5852710759597307 -0.900913793758197
5150000000.0 -0.5919120004585168 -0.9163187281446395
5153000000.0 -0.6249623629040721 -0.8538672582915975
5156000000.0 -0.6281177461211545 -0.8591035020608433
5159000000.0 -0.6037624194836577 -0.8929662096708813
5162000000.0 -0.6357420825410586 -0.7852383102053716
5166000000.0 -0.6830484075524744 -0.8336129686407515
5169000000.0 -0.6261035851027049 -0.8212003731869184
5172000000.0 -0.6455369498792575 -0.8066073681984808
5175000000.0 -0.6781050822241214 -0.8595073559207509
5178000000.0 -0.7181485242627708 -0.831949416137705
5181000000.0 -0.6718707011457486 -0.8458176956735127
5184000000.0 -0.6805045908125754 -0.7813743443633032
5188000000.0 -0.6802393826757873 -0.7883174586788906
