! Created with skrf 1.8.0 (http://scikit-rf.org).
# Hz S RI R 50.0 
!freq ReS11 ImS11
4000000000.0 0.6863921882676364 0.8056814384792408
4003000000.0 0.671271502569124 0.8319717236713774
4006000000.0 0.7227441983835945 0.7836526029572939
4009000000.0 0.6757318955988787 0.7864923114115961
4012000000.0 0.6520472621305996 0.821093852741329
4016000000.0 0.7233823514686066 0.7474863474699336
4019000000.0 0.697253092805389 0.7586296390343913
4022000000.0 0.7123666013029821 0.7960557671841167
4025000000.0 0.7673596987187473 0.7350697845195723
4028000000.0 0.6955302473478401 0.7573552721638863
4031000000.0 0.6890808247598641 0.7169112449051338
4034000000.0 0.7308891296831899 0.72368585150435
4038000000.0 0.7825186906398175 0.7501151166171289
4041000000.0 0.7320570717371176 0.730587281427486
4044000000.0 0.8027839159009404 0.7585006404219313
4047000000.0 0.7199969247921237 0.7881156120074161
4050000000.0 0.7835166602475886 0.7045645968246522
4053000000.0 0.7490906110648772 0.6341212181883231
4056000000.0 0.8050520480821169 0.6895605166638011
4059000000.0 0.7726112852430674 0.7292458361877463
4062000000.0 0.8268604952621541 0.6499878710298719
4066000000.0 0.7311046001478869 0.6250993526751124
4069000000.0 0.8385726623306037 0.6727065994705137
4072000000.0 0.7643919478575347 0.6986252392235583
4075000000.0 0.7795582565503368 0.6718081606824564
4078000000.0 0.8223800464995416 0.6603992782665634
4081000000.0 0.7725073854807508 0.7353081121604677
4084000000.0 0.8179828073201306 0.6013617736747952
4088000000.0 0.7694110352538631 0.6454965220045928
4091000000.0 0.8450230449563212 0.6489315172520895
4094000000.0 0.8395281114288066 0.6039261462410555
4097000000.0 0.8071322944356447 0.604790042700154
4100000000.0 0.8482670471275627 0.5848913128402342
4103000000.0 0.8549182083786706 0.6070514553347925
4106000000.0 0.8737030201071382 0.574486186101799
4109000000.0 0.8484732903042915 0.5631640434083345
4112000000.0 0.8467444023088593 0.5814512772070279
4116000000.0 0.8673666047776887 0.5771754302097405
4119000000.0 0.8545426444829162 0.5152016304555403
4122000000.0 0.8850184437518959 0.5426236783857774
4125000000.0 0.9119472125230872 0.5297406419951527
4128000000.0 0.8909331894300114 0.4983736608130678
4131000000.0 0.8918298835882242 0.5098261973280059
4134000000.0 0.8795542377970019 0.5607425031916419
4138000000.0 0.8686410647737477 0.4466684657059316
4141000000.0 0.9222010158743562 0.4901690120420331
4144000000.0 0.9264990917891124 0.5219314905611954
4147000000.0 0.9120968237111473 0.49378727391474836
4150000000.0 0.9681696298226142 0.4740050557692897
4153000000.0 0.907815848387994 0.467185014728674
4156000000.0 0.9576210385298773 0.48631796871943145
4159000000.0 0.8757213058104241 0.4561024422470345
4162000000.0 0.9299002703151 0.4520068091592577
4166000000.0 0.950450887779025 0.44344072125056777
4169000000.0 0.9211401834004135 0.42542036768893676
4172000000.0 0.9225692324974522 0.45621524423715315
4175000000.0 0.9448547566353479 0.4389981792247127
4178000000.0 0.9397973249239369 0.4115981357571582
4181000000.0 0.9644992105694676 0.4041116848945384
4184000000.0 0.9265311442934976 0.3871690318655649
4188000000.0 0.9724193881639327 0.35741811632019294
4191000000.0 0.9196026775967663 0.4082532264680458
4194000000.0 0.952396000243415 0.3699808663002643
4197000000.0 0.9488289768914845 0.34696810107340686
4200000000.0 0.9837079287638246 0.37647104558276245
4203000000.0 0.9899816632557773 0.3862048764310335
4206000000.0 0.971177350126251 0.34729334218661306
4209000000.0 0.9447862845424663 0.35589850184681465
4212000000.0 0.983962836347358 0.2930905535353149
4216000000.0 0.9825330201065869 0.32518615073178797
4219000000.0 1.0005308424192505 0.3270367378477962
4222000000.0 0.9952968474995911 0.30664802368225214
4225000000.0 0.9783328453104525 0.31512082069515046
4228000000.0 0.9957724948107538 0.29341575768225214
4231000000.0 0.9804396254105832 0.26552113052194815
4234000000.0 0.9970105636682403 0.2734302977655783
4238000000.0 0.9867480287797229 0.22793078124935742
4241000000.0 0.9674378206261423 0.2327029859998277
4244000000.0 0.9870333424103214 0.23505920950581743
4247000000.0 0.9838963043140333 0.24927412428353857
4250000000.0 0.9807793014315445 0.21845622746018578
4253000000.0 0.9734642556583057 0.2070573926560496
4256000000.0 1.0287243797393155 0.1951517182504695
4259000000.0 0.9662506933916728 0.175349550251601
4262000000.0 1.0106215347298584 0.1784836093348333
4266000000.0 1.018960219237343 0.1663029283383634
4269000000.0 0.9956885481674526 0.1857682898972263
4272000000.0 1.0106059724182503 0.15871822013372724
4275000000.0 1.02094086302302 0.16713273425137892
4278000000.0 1.0419987880350543 0.14156472066329404
4281000000.0 1.0049274932055807 0.1471430878203026
4284000000.0 1.0060137890529908 0.10253866625375099
4288000000.0 1.0069320079539812 0.16144844225516677
4291000000.0 0.9798341527609779 0.10900884708618726
4294000000.0 0.9919627915955086 0.10236939894231635
4297000000.0 1.0096238495483028 0.1119454864721363
4300000000.0 0.9997765916212669 0.09889812438443171
4303000000.0 1.0058833523792088 0.053491492541809946
4306000000.0 1.0256910112495827 0.09078046410062782
4309000000.0 1.019391609372908 0.036420853390186955
4312000000.0 1.022332187446336 0.09235439251034191
4316000000.0 1.0279064090527361 0.06612892791889018
4319000000.0 0.9904988751273736 0.04397949584496337
4322000000.0 1.0103563719362079 0.004577144405001607
4325000000.0 1.020374403602098 0.009355519967486348
4328000000.0 1.0115784790596163 -0.0015683320309485688
4331000000.0 1.0005245874485336 -0.007471372917634722
4334000000.0 1.017598967172245 -0.014247880538521052
4338000000.0 1.0184661557179884 0.008257654515352555
4341000000.0 1.0542583296111776 -0.008755404049707483
4344000000.0 1.0399584992758983 -0.024398728048693405
4347000000.0 1.0273792009011435 -0.06215308873588436
4350000000.0 0.9891238107640983 -0.05149018923975039
4353000000.0 0.9898686640861252 -0.04401675648536814
4356000000.0 0.9924758233401914 -0.08072031676814574
4359000000.0 0.9542992158213826 -0.07516715223774303
4362000000.0 1.0357321561043122 -0.12277327874601238
4366000000.0 1.0295754920278402 -0.10059349435673029
4369000000.0 0.9869313622168043 -0.1063061031984546
4372000000.0 0.9909706749824414 -0.15572765200497152
4375000000.0 1.016881989562566 -0.1035044296268015
4378000000.0 0.9777265020930986 -0.12142045418337252
4381000000.0 0.9924624737366368 -0.12678439086533
4384000000.0 1.0718924834982009 -0.17567278965712094
4388000000.0 0.9920959074149233 -0.13682116337780417
4391000000.0 0.9848532867572057 -0.16602175431549424
4394000000.0 0.9845388090617119 -0.186313927081785
4397000000.0 0.9681518744191826 -0.20522306982277136
4400000000.0 1.01559400994915 -0.21056205210360238
4403000000.0 1.0018279554325233 -0.2137743373486577
4406000000.0 0.9933762276757667 -0.23702231475077457
4409000000.0 1.0182801704810027 -0.22609300166170773
4412000000.0 0.9650976832830299 -0.2842013655289618
4416000000.0 0.9751031998585913 -0.2560334836568397
4419000000.0 0.9654930489406874 -0.2687250532845477
4422000000.0 0.976319523655687 -0.23251399957288651
4425000000.0 1.0068532992561687 -0.2601205186924395
4428000000.0 0.977600086513038 -0.28802737468729556
4431000000.0 0.981171454218309 -0.2756657507542789
4434000000.0 0.9652574953173993 -0.29128889199973323
4438000000.0 0.9879100345543921 -0.285279496806568
4441000000.0 0.9877276961397745 -0.3037160782371437
4444000000.0 0.9491465686441114 -0.30416280162784626
4447000000.0 0.9403616756664527 -0.3333239992449717
4450000000.0 0.9436483555658299 -0.3220697384685851
4453000000.0 0.9636418144907264 -0.35388336929185904
4456000000.0 0.9298556241526846 -0.3608737059685286
4459000000.0 0.8830498296460705 -0.3465788969779748
4462000000.0 1.002621387264052 -0.388831442452496
4466000000.0 0.9679318804267038 -0.3971896646166952
4469000000.0 0.9371054390288146 -0.35389734713424936
4472000000.0 0.9433991817020531 -0.4288986805553626
4475000000.0 0.9149475323760964 -0.38551364084107975
4478000000.0 0.9536741994206658 -0.43948255396966185
4481000000.0 0.8850736639231179 -0.41780508052615056
4484000000.0 0.896882334106013 -0.458270493394093
4488000000.0 0.8963916738008965 -0.443571725479217
4491000000.0 0.9192611115910313 -0.44299414558585126
4494000000.0 0.8960710870710137 -0.43989470305764844
4497000000.0 0.8964144807917183 -0.42288277072959596
4500000000.0 0.9084243346083705 -0.46160214727506993
4503000000.0 0.9179858672988757 -0.4867573278469736
4506000000.0 0.8783402892496874 -0.47982139253730494
4509000000.0 0.8661597039016473 -0.47601721584626255
4512000000.0 0.8662067921279922 -0.4999101335588496
4516000000.0 0.9080753280004789 -0.501623836808571
4519000000.0 0.8536460231012754 -0.4988948569213454
4522000000.0 0.8578241528410833 -0.527675246861614
4525000000.0 0.8947598864945752 -0.5018581229133077
4528000000.0 0.875076670926829 -0.5429658020646156
4531000000.0 0.8485683801662284 -0.5103776557405473
4534000000.0 0.8373044812017953 -0.5404935371645664
4538000000.0 0.8261389565780632 -0.5553376200851785
4541000000.0 0.811267673246347 -0.5910589172345948
4544000000.0 0.8251523474221243 -0.5608610701000691
4547000000.0 0.8197384686734557 -0.5531753387269918
4550000000.0 0.8079849962274201 -0.5921326862698582
4553000000.0 0.8167454346256842 -0.5971413828513664
4556000000.0 0.7904901292266333 -0.5988363166674021
4559000000.0 0.7998797417703224 -0.6305709412853748
4562000000.0 0.8139960045819217 -0.6185491975055133
4566000000.0 0.8068449162487388 -0.6228146950549929
4569000000.0 0.7625141218465881 -0.6238877203106039
4572000000.0 0.7698904794399398 -0.6190867592033912
4575000000.0 0.767971301008882 -0.6691403846736305
4578000000.0 0.8012945300870846 -0.6516099290196595
4581000000.0 0.7576332679556433 -0.6673096073148724
4584000000.0 0.7521185167826241 -0.656739553077448
4588000000.0 0.7752433509129004 -0.6694919966507552
4591000000.0 0.736229369205325 -0.6483850564267353
4594000000.0 0.7249631922487195 -0.6905347273216056
4597000000.0 0.7543112313686218 -0.7111844329590413
4600000000.0 0.6945906751953581 -0.7052905538987535
4603000000.0 0.71212330682254 -0.7118753256642326
4606000000.0 0.7279541062005386 -0.7247227352941583
4609000000.0 0.7098332175253189 -0.721902497116455
4612000000.0 0.6980122196619288 -0.7252178192568326
4616000000.0 0.6910088057256791 -0.7268646301061561
4619000000.0 0.7149437410787808 -0.7402217455265313
4622000000.0 0.67018258112188 -0.7297535006474858
4625000000.0 0.6396973134351198 -0.750676979600128
4628000000.0 0.680387140747266 -0.7407595658500348
4631000000.0 0.6340928051118184 -0.7640221280206393
4634000000.0 0.6605773891918864 -0.766135650605703
4638000000.0 0.6565435743143527 -0.783338952661732
4641000000.0 0.6545835913299906 -0.7778370600333974
4644000000.0 0.6294172028626525 -0.7724483493038719
4647000000.0 0.628636976099963 -0.7877104887522893
4650000000.0 0.6174942912738675 -0.7854861556669597
4653000000.0 0.640261395635123 -0.8235153198383554
4656000000.0 0.6027256872438516 -0.8232483085925808
4659000000.0 0.5970544892844742 -0.8128288913453819
4662000000.0 0.6107004278870561 -0.8224981860166648
4666000000.0 0.5851680120947663 -0.8385843579106093
4669000000.0 0.5873998238751866 -0.8113665812536444
4672000000.0 0.5744736832105467 -0.8603891703800992
4675000000.0 0.559550703620093 -0.8385158257029387
4678000000.0 0.5413484459166272 -0.829699855707279
4681000000.0 0.5329887202117083 -0.8899362269644917
4684000000.0 0.513617296018765 -0.8816987602812135
4688000000.0 0.51423497059128 -0.8650335680589214
4691000000.0 0.5623408561434443 -0.8596910042025268
4694000000.0 0.5279719335629003 -0.9004935231562983
4697000000.0 0.46653405130664205 -0.8563681604427369
4700000000.0 0.5118216759009044 -0.8461661868064083
4703000000.0 0.5169104203950645 -0.8518011069268814
4706000000.0 0.48200804045413803 -0.9106121818589108
4709000000.0 0.47069713607767694 -0.8971503886333915
4712000000.0 0.4885521255982562 -0.8854773486811411
4716000000.0 0.46960803368081616 -0.9189264984647876
4719000000.0 0.47251764462375156 -0.9193675775043089
4722000000.0 0.4651788061595794 -0.9053787023561937
4725000000.0 0.45873819394557797 -0.8993118138939583
4728000000.0 0.43964689309502547 -0.9036950727295003
4731000000.0 0.4311651124933625 -0.941800036181706
4734000000.0 0.46132623277379703 -0.90648823240538
4738000000.0 0.4510041296205105 -0.9662909395141858
4741000000.0 0.41286810249882455 -0.9613989368822805
4744000000.0 0.38429861213819994 -0.963874577069432
4747000000.0 0.4088482619814101 -0.902804445896082
4750000000.0 0.36900217483966136 -0.9811622486174839
4753000000.0 0.3908008227371938 -0.9285600413786131
4756000000.0 0.3739910681828756 -0.9496637833097421
4759000000.0 0.36959673858492104 -0.9624462267355487
4762000000.0 0.3442032182441994 -0.971689853873643
4766000000.0 0.3430567106806707 -0.9568409882573224
4769000000.0 0.3198703911637984 -0.9725786604745948
4772000000.0 0.33602680722963324 -0.9844233326063282
4775000000.0 0.32128354756321553 -1.0259227715791714
4778000000.0 0.28192494349678593 -0.9714940124174315
4781000000.0 0.3071213056020875 -0.96379057703966
4784000000.0 0.32022446424222784 -0.9695572320724576
4788000000.0 0.28035453789043846 -1.0150599727320595
4791000000.0 0.25584992555227576 -0.9901039543284061
4794000000.0 0.29127249298478614 -1.0136478342243267
4797000000.0 0.24483572813152904 -0.9748435590635817
4800000000.0 0.23827708930804564 -0.9530548641369976
4803000000.0 0.1934102153206308 -1.0005597682915606
4806000000.0 0.22768699664692144 -1.021848990476834
4809000000.0 0.193209459425352 -1.0174057689828264
4812000000.0 0.18400937880681897 -0.9598166381979623
4816000000.0 0.22707882155412956 -0.9795922639188781
4819000000.0 0.224771288118766 -1.010505969631674
4822000000.0 0.22188791157034718 -1.0371547674848083
4825000000.0 0.222007660176191 -1.0361060217471896
4828000000.0 0.18091133914119123 -1.011542779209507
4831000000.0 0.1275826224464169 -1.0516375601510233
4834000000.0 0.1778991038043548 -1.0094525106813452
4838000000.0 0.12976343007259933 -1.0235073865502486
4841000000.0 0.13605896427252048 -1.0172673079243877
4844000000.0 0.17271250620625317 -1.033900369676221
4847000000.0 0.14952997331980106 -0.9826349310610512
4850000000.0 0.10052150079088464 -1.041457106919655
4853000000.0 0.12150437462515645 -1.0066193075926022
4856000000.0 0.09727522773286124 -1.0052253114665337
4859000000.0 0.08730355947331195 -1.0561548118815498
4862000000.0 0.09070803664208722 -1.0098857238945862
4866000000.0 0.06094585329069885 -1.045778925169095
4869000000.0 0.05301856587588978 -1.0408436159657053
4872000000.0 0.04302629726117865 -1.0616616681316973
4875000000.0 0.08983204400345118 -1.0574295874809483
4878000000.0 0.021753413136882106 -1.0259117718557134
4881000000.0 -0.010284334651374167 -1.0607877015361147
4884000000.0 0.020548614330238826 -1.0554221569241666
4888000000.0 0.04343578775492324 -1.0430796544865115
4891000000.0 0.029660088127001546 -1.0213587059742828
4894000000.0 -0.021973067582131377 -1.0395102405607535
4897000000.0 0.00759063655462296 -1.0050048446353788
4900000000.0 -0.004752879786132626 -1.0648468417373982
4903000000.0 0.00026570749555344594 -1.0318055221402256
4906000000.0 -0.058085977865123053 -1.058474437254376
4909000000.0 -0.0373925613997606 -1.0343810477752038
4912000000.0 -0.07277539953456465 -1.0653282915360958
4916000000.0 -0.05116687873358224 -1.0573314493511623
4919000000.0 -0.028644929395868338 -1.0516521345499807
4922000000.0 -0.05157976688794991 -1.0689962839836633
4925000000.0 -0.09185385972310783 -1.0068407044687628
4928000000.0 -0.047978743651472325 -0.9897586088873153
4931000000.0 -0.08132583665163366 -1.0528479156402153
4934000000.0 -0.10572942330752656 -0.9705160962296951
4938000000.0 -0.15168409886010642 -1.0375663608920584
4941000000.0 -0.11993181490014944 -1.0181550207670345
4944000000.0 -0.09614978309189753 -0.9867115656120697
4947000000.0 -0.1470391558533052 -0.9954462850953891
4950000000.0 -0.13305386176355394 -0.9968687642002313
4953000000.0 -0.210287657931371 -1.0553587980199541
4956000000.0 -0.18940588999188368 -1.0256465444033391
4959000000.0 -0.2272593948135179 -0.9846845229110752
4962000000.0 -0.1963415393735354 -1.0248041481658758
4966000000.0 -0.159033344255414 -1.037143289393372
4969000000.0 -0.16423161685822335 -1.0519928670445753
4972000000.0 -0.24983156605735982 -1.0162165562891203
4975000000.0 -0.19179622950709227 -0.9975366228583873
4978000000.0 -0.23071460510569475 -1.024226182784043
4981000000.0 -0.2657483675721841 -1.04684744808067
4984000000.0 -0.2572584638815941 -1.018724949847509
4988000000.0 -0.24215807739909445 -0.9787599759936718
4991000000.0 -0.22257241390800198 -1.0378473629461373
4994000000.0 -0.24621260140399748 -1.0315317112809173
4997000000.0 -0.3117163906840659 -0.9798279886136907
5000000000.0 -0.25806713129439157 -1.0172995323514198
5003000000.0 -0.30705536478164935 -1.0477665576540525
5006000000.0 -0.3233926813751019 -1.0458917656809272
5009000000.0 -0.3316785304282496 -0.9846691156843411
5012000000.0 -0.3295512558301797 -1.0071892210076514
5016000000.0 -0.30274990025709986 -1.0130214957035943
5019000000.0 -0.3292585503663299 -0.9741135291962246
5022000000.0 -0.33068210566105205 -1.0364967099899705
5025000000.0 -0.34465579975309263 -1.0346450111829837
5028000000.0 -0.3648937469902257 -0.9827107678108118
5031000000.0 -0.35204555588986397 -0.9833095172789944
5034000000.0 -0.424271730510805 -0.9745692903593759
5038000000.0 -0.38277004248052404 -0.9336320708659014
5041000000.0 -0.3502840246090627 -0.9914118493569714
5044000000.0 -0.3382518131862856 -0.9505359341532459
5047000000.0 -0.36665290468331596 -0.9620071693008522
5050000000.0 -0.31084595207738586 -0.9836465555319334
5053000000.0 -0.44118454595848067 -1.0097640946544197
5056000000.0 -0.39280295459070236 -0.9998697363391533
5059000000.0 -0.3896985832432274 -0.9652501532211749
5062000000.0 -0.46757878235484807 -0.9352253461292228
5066000000.0 -0.39463559059904885 -0.959285242797618
5069000000.0 -0.4659669005593634 -0.9684089691460492
5072000000.0 -0.45652348043587476 -0.9127793132502553
5075000000.0 -0.4574716056072944 -0.9186585017104039
5078000000.0 -0.5116021113668123 -0.936847834758276
5081000000.0 -0.48658923454506314 -0.9393345976554023
5084000000.0 -0.49218840320785806 -0.9450623392055921
5088000000.0 -0.49743096279714105 -0.9426178142952433
5091000000.0 -0.5561839546428118 -0.9051480890412682
5094000000.0 -0.5411526033015845 -0.8984176041094495
5097000000.0 -0.44486361273477504 -0.9332050084727939
5100000000.0 -0.4989197413681696 -0.8875500550072909
5103000000.0 -0.5345793728058337 -0.9249004171272014
5106000000.0 -0.5009149920172979 -0.9420875192688558
5109000000.0 -0.4679835120027949 -0.9340237114046912
5112000000.0 -0.5773303097486833 -0.852497799479986
5116000000.0 -0.5291021904255079 -0.8777635948944957
5119000000.0 -0.591583761415062 -0.8632372317417358
5122000000.0 -0.5474269462710146 -0.8995009599739285
5125000000.0 -0.5554465660718243 -0.8968604407855901
5128000000.0 -0.5745989245790435 -0.8759021139599719
5131000000.0 -0.5655904270886543 -0.8900483355700953
5134000000.0 -0.5749334074121512 -0.8777248568069395
5138000000.0 -0.5846271685282146 -0.8510782266208939
5141000000.0 -0.5760100393512841 -0.8599764940909869
5144000000.0 -0.5986380988200972 -0.8469438505247803
5147000000.0 -0.6603384680541343 -0.8593020213318685
5150000000.0 -0.6222547732969177 -0.8733030949630671
5153000000.0 -0.634615605714961 -0.8424520598711107
5156000000.0 -0.674899881135663 -0.8228489337198798
5159000000.0 -0.6730033855894882 -0.8744929653194244
5162000000.0 -0.6719420637879983 -0.7814227056232148
5166000000.0 -0.666652537070215 -0.8116183102485857
5169000000.0 -0.7053018245720373 -0.7927362139577234
5172000000.0 -0.6586749739450755 -0.7557777471641218
5175000000.0 -0.7066110167991121 -0.81762941862751
5178000000.0 -0.7077965537930848 -0.7989517555503741
5181000000.0 -0.6993349178080078 -0.7842023927085072
5184000000.0 -0.6933981942124869 -0.7951510591170989
5188000000.0 -0.7238202388980337 -0.7665164061693512
