! Created with skrf 1.8.0 (http://scikit-rf.org).
# Hz S RI R 50.0 
!freq ReS11 ImS11
4000000000.0 0.646499109900672 0.7543207697341328
4003000000.0 0.6480302252273129 0.8380825376568226
4006000000.0 0.6485092305155576 0.7714780651549851
4009000000.0 0.6579854099883141 0.8181106255647618
4012000000.0 0.6485783971378495 0.8047727392655192
4016000000.0 0.7064323151624216 0.8129105706784181
4019000000.0 0.6767392659456273 0.7788457110644549
4022000000.0 0.6596261782653775 0.8400299127114111
4025000000.0 0.7179129597011866 0.7745750423814345
4028000000.0 0.7334471046615268 0.7338632096747622
4031000000.0 0.6863671457982049 0.73277354788054
4034000000.0 0.7129728588414306 0.7271830594168587
4038000000.0 0.7530846424920045 0.7036365889073999
4041000000.0 0.7254140881342714 0.7432306677197961
4044000000.0 0.7946347114162124 0.7959105821952054
4047000000.0 0.7518138147187822 0.758482714781208
4050000000.0 0.7446600097953375 0.7050352791099382
4053000000.0 0.7546779264722662 0.6786354905360961
4056000000.0 0.7931082476043246 0.682971528433858
4059000000.0 0.7759686910229195 0.6847679964844877
4062000000.0 0.795364914194516 0.6512580975984119
4066000000.0 0.7274168030038384 0.6568724920659867
4069000000.0 0.8496925651263887 0.6562024883284868
4072000000.0 0.7972179832284364 0.71528045980978
4075000000.0 0.8065389657246069 0.7389200634673441
4078000000.0 0.7963083320843302 0.6397685103494765
4081000000.0 0.7621308189561933 0.7345197518617128
4084000000.0 0.8240536017557113 0.6336497421267684
4088000000.0 0.8013553718078359 0.6890948010940211
4091000000.0 0.8717733694193162 0.6956815740475428
4094000000.0 0.8292494370236653 0.6431010614004569
4097000000.0 0.7830454866074946 0.6207305421142737
4100000000.0 0.8305310435744817 0.6095827327232748
4103000000.0 0.8409967931246629 0.6106251155883315
4106000000.0 0.8318657603807558 0.5940639385311527
4109000000.0 0.8693614453538363 0.5660314376447535
4112000000.0 0.8662766678049734 0.5884492642929187
4116000000.0 0.8790422990585586 0.5811043084884652
4119000000.0 0.878650251684558 0.5505197498447337
4122000000.0 0.8507084874147847 0.5291047220848165
4125000000.0 0.9344083758912703 0.5813520675930581
4128000000.0 0.8310259238226678 0.5364444961379411
4131000000.0 0.8425468518685042 0.5147683172592411
4134000000.0 0.8627290435426743 0.5037804769486159
4138000000.0 0.8694265207267855 0.47769028944904585
4141000000.0 0.878784276375801 0.5230527821160581
4144000000.0 0.9132535617468873 0.5297659044910845
4147000000.0 0.8644680800055546 0.47798429978855556
4150000000.0 0.9304395014028338 0.5116616058273946
4153000000.0 0.9110028738189958 0.4711434294709439
4156000000.0 0.8988325313877967 0.515012597428099
4159000000.0 0.8873588778954415 0.4983604029693995
4162000000.0 0.9174484219434997 0.4802626955003836
4166000000.0 0.9351919399255135 0.44310741536181486
4169000000.0 0.9180815379134453 0.42460281260439026
4172000000.0 0.9149872003977084 0.439024256534757
4175000000.0 0.9248525504793432 0.44479538903024424
4178000000.0 0.932632749037904 0.4384124692580983
4181000000.0 0.9593693715672442 0.444817003248692
4184000000.0 0.9080301950584168 0.4174139356283771
4188000000.0 0.9642716153291464 0.4132221051410436
4191000000.0 0.8916817383064423 0.4148658573791713
4194000000.0 0.9296528179724144 0.3961830925284717
4197000000.0 0.9500144980221874 0.4084967814875508
4200000000.0 0.9384327549022355 0.39471090690531185
4203000000.0 0.9464974934523186 0.38357672317283076
4206000000.0 0.9673185275347633 0.3770817428077095
4209000000.0 0.9474091380241805 0.3615451209569605
4212000000.0 0.9599617761330508 0.33338857007873424
4216000000.0 0.971126127654532 0.34360747312465384
4219000000.0 0.955395517094035 0.3447091561389456
4222000000.0 0.9739776367915438 0.31511637124014563
4225000000.0 0.9748986899729304 0.3175314259732177
4228000000.0 0.9889064974836419 0.3140814908927424
4231000000.0 0.9675447561799195 0.3078352105111508
4234000000.0 0.9825440432000269 0.289400423838782
4238000000.0 0.9952130730241858 0.2604118146487433
4241000000.0 0.9920486858242372 0.2726841765908001
4244000000.0 0.9813092473963891 0.2710309267810517
4247000000.0 0.9985540276674165 0.26108815858723516
4250000000.0 0.9813758611081227 0.23187548768505178
4253000000.0 0.9805613881408226 0.2198684328559844
4256000000.0 1.0210384573864373 0.22728723280726654
4259000000.0 0.974657395145136 0.2176733125608434
4262000000.0 1.0065852707537164 0.20400990803877775
4266000000.0 1.0259176166108548 0.18944757330618456
4269000000.0 0.9870630306967421 0.2330409234555095
4272000000.0 1.006117328811475 0.2069886486186629
4275000000.0 1.0157235896219614 0.18851053372979393
4278000000.0 1.0203008416243575 0.1651009163125881
4281000000.0 1.0091413414537558 0.19021133838554516
4284000000.0 1.0097460468813821 0.11994839113842684
4288000000.0 1.0098969655097276 0.17586307335082527
4291000000.0 0.9796385828081389 0.14230338195366826
4294000000.0 1.0001085310621407 0.11386668730349271
4297000000.0 1.0002491812707595 0.15551772847793638
4300000000.0 0.9881073123677588 0.1298000573686108
4303000000.0 0.9882819997551285 0.10983416115044996
4306000000.0 1.0063178842402216 0.12465686627059855
4309000000.0 1.02351444054444 0.09164765044425745
4312000000.0 1.0161874892758183 0.1293580070818744
4316000000.0 1.0181192700209536 0.05968529571766577
4319000000.0 1.0030223200957469 0.0831023161542155
4322000000.0 1.000443578828814 0.03313096463087499
4325000000.0 1.0245423431393272 0.056339641232625956
4328000000.0 1.0168442075652535 0.04207230114455819
4331000000.0 1.0202309059405374 0.006402261322087099
4334000000.0 1.021772380391608 -0.005410225105702882
4338000000.0 0.9983559033554288 0.0051649323929265495
4341000000.0 1.036145813975634 0.01601717720500298
4344000000.0 1.036305439657135 0.01602800882054256
4347000000.0 1.0287411962878596 -0.03367997485615276
4350000000.0 0.9851378779332689 -0.030763652003046135
4353000000.0 0.9948155476849216 -0.015039983292556292
4356000000.0 1.0157184400291472 -0.05869217970617997
4359000000.0 0.9702670536917221 -0.07204198585243761
4362000000.0 1.0291703184461372 -0.10363629674751362
4366000000.0 1.0261052208317185 -0.06632698008718926
4369000000.0 0.9682582844606695 -0.1003672156165439
4372000000.0 0.9960704989655458 -0.12661460728153823
4375000000.0 1.0032728304182998 -0.07761527851263472
4378000000.0 0.988186406949836 -0.09390077569360615
4381000000.0 1.0025952773189037 -0.1143037876022984
4384000000.0 1.067164426955301 -0.1296064203722117
4388000000.0 0.9858293854430372 -0.10520483064640475
4391000000.0 1.0067719210792088 -0.14001929757866666
4394000000.0 0.9708387404675248 -0.13894608949505977
4397000000.0 0.9957970860450374 -0.16062291453274613
4400000000.0 1.0316438929045797 -0.17048326504801775
4403000000.0 1.0116189843029804 -0.16078841000132932
4406000000.0 1.0012300917453265 -0.20228348154862583
4409000000.0 1.0189562492971065 -0.20112507204852237
4412000000.0 0.9764516340048367 -0.25010451954101137
4416000000.0 0.967597345227468 -0.22136544940080713
4419000000.0 0.9793050943066601 -0.2441398064850793
4422000000.0 0.9965523503096483 -0.21584631783144914
4425000000.0 1.0089417082604824 -0.21374898752965293
4428000000.0 0.9789592797641349 -0.2614608436716465
4431000000.0 1.0143652219827894 -0.26355820604431673
4434000000.0 0.9721865127133041 -0.2633821283625802
4438000000.0 1.009625777786341 -0.2689653822818742
4441000000.0 0.9882866432080495 -0.28046134340684137
4444000000.0 0.9530671615391784 -0.2892283094665906
4447000000.0 0.9470925166896808 -0.3078745651023796
4450000000.0 0.9701057363239426 -0.29128099902416377
4453000000.0 0.979414812900637 -0.3210260177803875
4456000000.0 0.9282753643019498 -0.3292914928483941
4459000000.0 0.9004980688410633 -0.3381991709389357
4462000000.0 1.0007258769294145 -0.35370410535430635
4466000000.0 0.9765505498789903 -0.3558223428744379
4469000000.0 0.9620143160773655 -0.33884805937839746
4472000000.0 0.9585430992760373 -0.37815001753686
4475000000.0 0.9245164049811716 -0.35906242236210034
4478000000.0 0.9529705879106719 -0.41337883634848394
4481000000.0 0.9096604122841351 -0.3977161337829583
4484000000.0 0.9013095856013846 -0.43375787427190593
4488000000.0 0.9185499327793493 -0.42233113190358446
4491000000.0 0.9194661343354654 -0.4168927581076651
4494000000.0 0.9203908459959083 -0.4018444597511933
4497000000.0 0.9177844118403329 -0.41318928145732037
4500000000.0 0.9029609679863828 -0.41885629797773105
4503000000.0 0.9230813671442115 -0.4525157535224939
4506000000.0 0.8975039743664768 -0.44739844418009345
4509000000.0 0.8976024817570178 -0.4511411085282202
4512000000.0 0.8795556086307931 -0.4578775868471513
4516000000.0 0.9049980393744925 -0.481280820283321
4519000000.0 0.8729406048620473 -0.4814679042737277
4522000000.0 0.8660678119259924 -0.5076660210762889
4525000000.0 0.9064185995766629 -0.4551262077370708
4528000000.0 0.8978019309784735 -0.530029805935871
4531000000.0 0.8816967527844985 -0.5052051071230051
4534000000.0 0.8455767468387008 -0.5165836930480021
4538000000.0 0.8549613527507127 -0.5256797046056845
4541000000.0 0.8140237441536422 -0.5476491131214565
4544000000.0 0.8335401873095578 -0.528382061658491
4547000000.0 0.8471545889058927 -0.5336398467913561
4550000000.0 0.8402098293525437 -0.565549581913489
4553000000.0 0.8410648977597053 -0.552183556890394
4556000000.0 0.8105819986086351 -0.5839317747248045
4559000000.0 0.8177889558737272 -0.5902909717266318
4562000000.0 0.8451178063537208 -0.6000778193284013
4566000000.0 0.8267715986760102 -0.5944226124740426
4569000000.0 0.7962693628447727 -0.6043314126523158
4572000000.0 0.8028568303103578 -0.6036074102130559
4575000000.0 0.7946044663742142 -0.632415437494148
4578000000.0 0.8256377629295197 -0.6265439643063436
4581000000.0 0.7728152715872245 -0.6570556190738805
4584000000.0 0.7787932848757373 -0.6247580287217465
4588000000.0 0.7951285011077456 -0.650487412731294
4591000000.0 0.7907607114167737 -0.6427479057579922
4594000000.0 0.7619820910216994 -0.674631355081647
4597000000.0 0.7620345286365549 -0.6764294030755306
4600000000.0 0.733460669125968 -0.6813115962274485
4603000000.0 0.7390043714639749 -0.6863519696226682
4606000000.0 0.7511602144269149 -0.6976835199385341
4609000000.0 0.7329450940926617 -0.7002103990804759
4612000000.0 0.7360651211858884 -0.6999157438980125
4616000000.0 0.715418884287262 -0.6887288494020999
4619000000.0 0.715095583302869 -0.7169292440900745
4622000000.0 0.7082890300649146 -0.7352109469873864
4625000000.0 0.6639238425142103 -0.70623742782921
4628000000.0 0.6951743999110455 -0.7009764901963496
4631000000.0 0.682795027893826 -0.7400166722871403
4634000000.0 0.6797521404494532 -0.7423935426528531
4638000000.0 0.68504262837464 -0.7483089819206864
4641000000.0 0.669602120352811 -0.7446398782025763
4644000000.0 0.6623671708111363 -0.765603714873981
4647000000.0 0.6608858862092517 -0.7589482865133809
4650000000.0 0.6465057854655494 -0.7733564924220342
4653000000.0 0.6568463675531948 -0.7925542655400879
4656000000.0 0.6254732603575444 -0.7939771431231155
4659000000.0 0.6264197009827165 -0.8028001616321607
4662000000.0 0.6116414547138682 -0.7889958576983542
4666000000.0 0.6162984066198812 -0.805102327094144
4669000000.0 0.6051829378609712 -0.8129063998755056
4672000000.0 0.6049851219054605 -0.843368957509067
4675000000.0 0.5931788113609444 -0.8405324534262382
4678000000.0 0.574156425474007 -0.8164212835113528
4681000000.0 0.5576834585257351 -0.8332469004983262
4684000000.0 0.571446088974185 -0.8528213612414643
4688000000.0 0.5350980401134283 -0.8532402610014436
4691000000.0 0.564043645113429 -0.8419324266866579
4694000000.0 0.5467720439904836 -0.8450940886342893
4697000000.0 0.5212380972806625 -0.8320412136326458
4700000000.0 0.531194923916551 -0.8707167774407936
4703000000.0 0.5368160000181297 -0.8086227871082221
4706000000.0 0.5071403262453935 -0.8969528978223127
4709000000.0 0.5096790600100387 -0.8911276460371379
4712000000.0 0.514352549561138 -0.8651235726625617
4716000000.0 0.520860837309231 -0.9111143109111537
4719000000.0 0.5159169965512976 -0.8933192847813759
4722000000.0 0.5189831930770712 -0.8998663800005218
4725000000.0 0.4987065854832391 -0.8947967428165782
4728000000.0 0.44474013864156225 -0.8836638709132947
4731000000.0 0.48436526707239624 -0.9087170307808399
4734000000.0 0.4512635211963235 -0.8908197515862865
4738000000.0 0.46601750813563625 -0.9347148250939982
4741000000.0 0.4370301340533821 -0.9273530705328974
4744000000.0 0.4189397602048628 -0.9500427736728766
4747000000.0 0.4080586916384421 -0.9040799320484366
4750000000.0 0.4214800341792464 -0.9492435363493235
4753000000.0 0.4155763027310511 -0.9409661210485171
4756000000.0 0.3686655508737754 -0.9504333581458619
4759000000.0 0.41136290051020896 -0.9458415176021184
4762000000.0 0.35894678520562007 -0.9451940885105456
4766000000.0 0.36821864035553703 -0.9663405268775459
4769000000.0 0.3612339907104967 -0.9604480121228353
4772000000.0 0.3363443305155335 -0.9704908118616303
4775000000.0 0.345403113097379 -1.0141296244309193
4778000000.0 0.3559381625877476 -0.9851970633402313
4781000000.0 0.35151925151807595 -0.9458423980246589
4784000000.0 0.3527584018912031 -0.9668710782361566
4788000000.0 0.3092508556024426 -0.9883419312552013
4791000000.0 0.3118568928358361 -0.9759188320314457
4794000000.0 0.3510240641736812 -1.0310369738361242
4797000000.0 0.2808599194189187 -0.9691714054540793
4800000000.0 0.26708365597934375 -0.9551922452146127
4803000000.0 0.2317603078148526 -0.9955445763357076
4806000000.0 0.2767672557176907 -1.0238533606568017
4809000000.0 0.23322850617887556 -0.990718295608468
4812000000.0 0.20357036439016155 -0.9816779257892285
4816000000.0 0.2568349683093811 -0.9930982188277413
4819000000.0 0.2666571955298901 -1.0232035603472032
4822000000.0 0.2625314806013228 -1.026663363920042
4825000000.0 0.24803414082473624 -1.0207579979233725
4828000000.0 0.20262078901631964 -0.9918705313660429
4831000000.0 0.1632019179451407 -1.0274738505680308
4834000000.0 0.2182887526760942 -1.015205472862359
4838000000.0 0.17142462201535558 -1.0297959740916562
4841000000.0 0.13301147708749783 -1.0095985524592033
4844000000.0 0.18452263351905712 -1.0106708632801642
4847000000.0 0.16298006320334557 -0.9867878646460599
4850000000.0 0.15012887747919318 -1.0336566231173239
4853000000.0 0.14169666936847708 -1.0088659470068237
4856000000.0 0.133792860948045 -0.9882691829887494
4859000000.0 0.13160862686254018 -1.03945510740121
4862000000.0 0.1295883154039762 -1.004378034196648
4866000000.0 0.09123582810712952 -1.0351569368691886
4869000000.0 0.08521679832234068 -1.0289713454258937
4872000000.0 0.060375610434250805 -1.0460033906912232
4875000000.0 0.14150505626045984 -1.0416029274864194
4878000000.0 0.09474655344459135 -1.0201792652960586
4881000000.0 0.04604805626968048 -1.1055430917016162
4884000000.0 0.08466919031801896 -1.0339803392091231
4888000000.0 0.08292697220027159 -1.0218709662008632
4891000000.0 0.08273407290384888 -1.0410190370712726
4894000000.0 0.016235707094624338 -1.0121777308835975
4897000000.0 0.06667268484294812 -1.0443075241965727
4900000000.0 -0.001084417772328046 -1.039088716822326
4903000000.0 0.007430547362079563 -1.0257905268806091
4906000000.0 -0.003855581120924618 -1.0794228011463902
4909000000.0 -0.0140341431498201 -1.0559292149362118
4912000000.0 -0.007230834068624119 -1.0710993321980344
4916000000.0 -0.015074255582730255 -1.0617594848784142
4919000000.0 0.0033432107210054907 -1.0721198461607606
4922000000.0 -0.002022474143548919 -1.0392891967199753
4925000000.0 -0.07586950818422634 -1.03514896837375
4928000000.0 -0.037662355376633025 -1.0018965093538577
4931000000.0 -0.02574044245540752 -1.0316925474929517
4934000000.0 -0.03333140102661358 -0.9602072018539061
4938000000.0 -0.09577504870935256 -1.020931783758477
4941000000.0 -0.05582206699347099 -0.9858851045250404
4944000000.0 -0.061688255663882224 -0.9670792331459879
4947000000.0 -0.1029770816532613 -0.9815204031356138
4950000000.0 -0.13462880464642357 -0.9858981270629376
4953000000.0 -0.21465429459761592 -1.0625788464150232
4956000000.0 -0.1711495661124835 -1.0400959042015951
4959000000.0 -0.17009994822912491 -0.9705597068597847
4962000000.0 -0.1322147829476715 -1.0737415567441717
4966000000.0 -0.15847212892995877 -1.044481636106766
4969000000.0 -0.1532717955054757 -1.0711404191235845
4972000000.0 -0.16021898516680336 -1.0105468755819058
4975000000.0 -0.12705017139464578 -0.9891652974148929
4978000000.0 -0.21168297814398696 -1.0077062381537942
4981000000.0 -0.2307123501006695 -0.9983163122636481
4984000000.0 -0.198835397188616 -0.9663259053656551
4988000000.0 -0.19950159297795433 -1.0169805507414076
4991000000.0 -0.16538656639622862 -1.040862542177746
4994000000.0 -0.1895064042990281 -1.0216132131343458
4997000000.0 -0.2830963964570456 -0.9947892288305727
5000000000.0 -0.22902699387226405 -1.0211451626999168
5003000000.0 -0.26137396459587253 -1.0091530318826578
5006000000.0 -0.2521525613152833 -1.0303670432061172
5009000000.0 -0.2333082190051988 -1.0162540656301156
5012000000.0 -0.3135662540053357 -0.9873639558720679
5016000000.0 -0.28214457159041745 -1.0736982089341833
5019000000.0 -0.32796669250598487 -0.9732543407428191
5022000000.0 -0.30830103391266905 -1.004709542782152
5025000000.0 -0.3091372310474762 -1.0466018285922507
5028000000.0 -0.3305211404373475 -1.0148907838152676
5031000000.0 -0.3387712211385886 -0.9565471229732906
5034000000.0 -0.3754903292070737 -1.0173711296099455
5038000000.0 -0.33815264881640983 -0.9427094697702607
5041000000.0 -0.32257127841339295 -0.9767006238898462
5044000000.0 -0.32167698962457625 -0.9832250554683407
5047000000.0 -0.3701192476130903 -0.9785147505068689
5050000000.0 -0.30034920846635704 -0.966058696335816
5053000000.0 -0.40216404226895763 -1.002059127975684
5056000000.0 -0.3167171150068171 -0.9845146071606405
5059000000.0 -0.3406767252959139 -0.9913487481876088
5062000000.0 -0.4206893435163498 -0.9995864875094993
5066000000.0 -0.36322260960011876 -0.9542425084518853
5069000000.0 -0.4387306985408542 -0.9953841425320024
5072000000.0 -0.4474361839021256 -0.9214566492346181
5075000000.0 -0.405459278693476 -0.9524137192186188
5078000000.0 -0.4850310618959221 -0.8868361429483873
5081000000.0 -0.4313058375179079 -0.8781511386941688
5084000000.0 -0.4668174619420551 -0.9580557658240729
5088000000.0 -0.38739963812763406 -0.8995469667729754
5091000000.0 -0.4792836057036593 -0.9625858022304332
5094000000.0 -0.49838982437382323 -0.9245757433851508
5097000000.0 -0.4295311695332167 -0.9672820547565157
5100000000.0 -0.49066715351248785 -0.9385987110653123
5103000000.0 -0.5285831219982404 -0.9281476319042309
5106000000.0 -0.42968620973200655 -0.9296000437776357
5109000000.0 -0.4876581106079214 -0.9715295135323472
5112000000.0 -0.5176432775694433 -0.8991939871931196
5116000000.0 -0.4625104648556938 -0.8413626957993157
5119000000.0 -0.5358678427276001 -0.888183505921393
5122000000.0 -0.5545648653936465 -0.8846669284632738
5125000000.0 -0.47546833113669973 -0.9102079421539122
5128000000.0 -0.5302303700516897 -0.8934723087187431
5131000000.0 -0.5618427404105732 -0.8992375779470768
5134000000.0 -0.5436242948372115 -0.864638574860725
5138000000.0 -0.5512101683124041 -0.9044729203948227
5141000000.0 -0.4920815895991593 -0.8711069787599246
5144000000.0 -0.5906965651999627 -0.8894767804999416
5147000000.0 -0.6060797079641149 -0.8660972566364239
5150000000.0 -0.5371278081145379 -0.8933955563033736
5153000000.0 -0.634736119288998 -0.8377834323453645
5156000000.0 -0.5902107840674188 -0.8506749363758657
5159000000.0 -0.6385374720035066 -0.8837669199822886
5162000000.0 -0.6139181187082902 -0.8107131172807435
5166000000.0 -0.6400279701306265 -0.8652389823437696
5169000000.0 -0.6368856626158458 -0.843470951201942
5172000000.0 -0.6225040496407118 -0.8128014788627397
5175000000.0 -0.665050361116197 -0.8498889353188779
5178000000.0 -0.6393370021823019 -0.7845874197793987
5181000000.0 -0.6530697314798745 -0.8606571937414814
5184000000.0 -0.6796481790759179 -0.7900867953868024
5188000000.0 -0.667501004110788 -0.7966788339656964
