! Created with skrf 1.8.0 (http://scikit-rf.org).
# Hz S RI R 50.0 
!freq ReS11 ImS11
4000000000.0 0.657640309781943 0.775091130267108
4003000000.0 0.7238361646017084 0.8104452397603144
4006000000.0 0.7110803435309787 0.7556945911647652
4009000000.0 0.6666401161616573 0.7548548478858789
4012000000.0 0.6866363444851532 0.8043163959892841
4016000000.0 0.7108985472181617 0.777271237835568
4019000000.0 0.6925370121477621 0.7413289410604743
4022000000.0 0.6793550606483182 0.8254990718471531
4025000000.0 0.7999250845428213 0.67028118400871
4028000000.0 0.7490274406676314 0.708391641401426
4031000000.0 0.6874623629729258 0.6558051958734146
4034000000.0 0.7515264412559489 0.7145233446498882
4038000000.0 0.7796625402255157 0.715737221959701
4041000000.0 0.7614547330840151 0.6923477176982893
4044000000.0 0.7901302255906396 0.697530518152582
4047000000.0 0.7493671037050428 0.7253486123489598
4050000000.0 0.8155280404792885 0.6658766656768723
4053000000.0 0.7460618949097384 0.6362669164624788
4056000000.0 0.7895713303947534 0.6863141378750426
4059000000.0 0.7700873472997867 0.6731198195270811
4062000000.0 0.8331900675125002 0.6324871918492949
4066000000.0 0.7536286424621816 0.5980874360298485
4069000000.0 0.8446881129743121 0.6232994485971429
4072000000.0 0.8091538632442825 0.6267031595757511
4075000000.0 0.8220382077658145 0.6808411070323106
4078000000.0 0.8252073626312407 0.6178784636597477
4081000000.0 0.8324014999379153 0.6875223371915349
4084000000.0 0.8288507261001642 0.6086661168624898
4088000000.0 0.823840380231252 0.6373894528409223
4091000000.0 0.8989861078800567 0.6193242057062995
4094000000.0 0.864663825106541 0.5637363132681268
4097000000.0 0.8368322159362067 0.569807719037158
4100000000.0 0.8651010615133913 0.5570209826000398
4103000000.0 0.8600750151081293 0.6065906837308415
4106000000.0 0.8698760827947091 0.5409153389746835
4109000000.0 0.8922926638738105 0.5513293233452945
4112000000.0 0.8827344794104732 0.5268659122245716
4116000000.0 0.8882442166033521 0.5736345490430783
4119000000.0 0.8589856900667562 0.5100704004905662
4122000000.0 0.9010245689705422 0.5503200936928735
4125000000.0 0.9360630574895012 0.4998330994085774
4128000000.0 0.8493293896738738 0.5243208140881519
4131000000.0 0.8635651790657957 0.4580765420273395
4134000000.0 0.8596623428365631 0.5008793433680625
4138000000.0 0.8891584039819118 0.4535554286598676
4141000000.0 0.8937214697704948 0.47192745372358036
4144000000.0 0.915747213377352 0.4769319554394273
4147000000.0 0.9302512294604526 0.4323789211695263
4150000000.0 0.9419616954484925 0.48796264984587717
4153000000.0 0.9208706593816148 0.43676282421131085
4156000000.0 0.9270821504133662 0.4668907577928155
4159000000.0 0.9279787823359076 0.40197685129066835
4162000000.0 0.9343852080455184 0.4232915434251747
4166000000.0 0.9584846021710363 0.415591358203122
4169000000.0 0.9350143172458042 0.3773354306096093
4172000000.0 0.9529402315713356 0.39726456115000824
4175000000.0 0.9558431643141547 0.4031627603402214
4178000000.0 0.9689871149692331 0.3762471881490318
4181000000.0 0.9718011816880487 0.39241295418654487
4184000000.0 0.9367891651298691 0.35471244732237944
4188000000.0 0.9426634809995644 0.34203167287784686
4191000000.0 0.9370012761790022 0.4094470852136853
4194000000.0 0.9666521142269071 0.3345657093230461
4197000000.0 0.9658023115781849 0.3455251546107632
4200000000.0 0.9770659404066004 0.36069525539413816
4203000000.0 0.9813453722307722 0.32701220305186385
4206000000.0 0.9944758954759402 0.3269756414901653
4209000000.0 0.9582532938237366 0.2955771174402448
4212000000.0 0.9902532977650383 0.26646616868007444
4216000000.0 0.9793132832361798 0.2916301373320402
4219000000.0 0.9974456480912626 0.2854397330748518
4222000000.0 0.9968359609256059 0.24446147806062285
4225000000.0 0.98839233027547 0.26226940587273195
4228000000.0 0.988177180258303 0.2888744289340721
4231000000.0 0.9887208266594322 0.26070042904838486
4234000000.0 1.0162947537402969 0.22255618399921173
4238000000.0 1.0064992370118748 0.21477460162695758
4241000000.0 0.9844553220961867 0.19679196527306764
4244000000.0 0.9817447569731139 0.21893626356375456
4247000000.0 0.9824617870456852 0.21154279290730427
4250000000.0 0.9933919317708488 0.18035978917570605
4253000000.0 0.9839864328120125 0.147874337106566
4256000000.0 1.0397366082421862 0.17725410665905766
4259000000.0 0.9634602942668594 0.13585253494808572
4262000000.0 1.011812461558636 0.13969117719285898
4266000000.0 1.031951723210465 0.1200789411105721
4269000000.0 1.0064369187103663 0.1187086224932403
4272000000.0 1.0036464757099361 0.1272308023798855
4275000000.0 1.0219803018716964 0.14439280945886845
4278000000.0 1.038689185903461 0.11201663093818096
4281000000.0 1.011196026880215 0.13958438347787389
4284000000.0 1.02819122654588 0.05883725315396082
4288000000.0 1.0028941694690603 0.10368448054105711
4291000000.0 0.9902845743272412 0.07988064669583005
4294000000.0 1.0329737257787575 0.06184582662639369
4297000000.0 0.9924479583100958 0.08948352715264311
4300000000.0 1.012965274613118 0.07578960602724702
4303000000.0 1.0035622583383064 0.03278776365845108
4306000000.0 1.016518814351374 0.05804824157941496
4309000000.0 1.01023529205637 0.03722096602302476
4312000000.0 1.030285027295526 0.057930654185169794
4316000000.0 1.0183940101593525 0.03567090380799576
4319000000.0 0.9770860273511315 0.020840261766504928
4322000000.0 0.9829602419494285 -0.027789539707539834
4325000000.0 1.0019766903328913 0.005471538596307501
4328000000.0 1.00107378776126 -0.032438380860875235
4331000000.0 1.01730837396409 -0.04892485561265597
4334000000.0 1.0231889494028765 -0.034427932511108095
4338000000.0 1.0068076711825191 -0.023342466663390793
4341000000.0 1.0262214909675178 -0.02640666526348981
4344000000.0 1.0155825280985915 -0.06975234265014224
4347000000.0 1.025033971223557 -0.11961751859881206
4350000000.0 0.9925198100834813 -0.06963169207269483
4353000000.0 0.9822706080468431 -0.07303454488230672
4356000000.0 1.0070203459706066 -0.13312313672020748
4359000000.0 0.9630159345169542 -0.11004469002468213
4362000000.0 1.0094761146432394 -0.1716412526044413
4366000000.0 1.0152433223636015 -0.13542586086430908
4369000000.0 0.9757731574775009 -0.1366722160984966
4372000000.0 0.9785750904865633 -0.1779639694614714
4375000000.0 1.0007576752207887 -0.13248401540755023
4378000000.0 0.9597259457377645 -0.16760715317684077
4381000000.0 0.9936936331054071 -0.16975727198029136
4384000000.0 1.048257928576049 -0.2117872404424047
4388000000.0 0.9707716560329889 -0.18983998567398663
4391000000.0 0.9913055798887545 -0.20000260487620772
4394000000.0 0.9609107546839825 -0.21264282881587615
4397000000.0 0.9881354147465264 -0.21892591921702764
4400000000.0 1.018406112703659 -0.2466364801103026
4403000000.0 0.9876949619859466 -0.2358173425824606
4406000000.0 0.9790049677681444 -0.25740924127105047
4409000000.0 1.0104142761209676 -0.27102819392295935
4412000000.0 0.9602149255035621 -0.3174606220896208
4416000000.0 0.9605870301849118 -0.2911471142944994
4419000000.0 0.9718281060420592 -0.31115429357289265
4422000000.0 0.9604237259271171 -0.26074872645453245
4425000000.0 0.982345383857268 -0.2815725419445105
4428000000.0 0.9712136048986509 -0.3161745100784279
4431000000.0 0.9940519004335866 -0.30547909648832244
4434000000.0 0.936632784009756 -0.32768909934261503
4438000000.0 0.9770875619518578 -0.33719914958099917
4441000000.0 0.9727939310013212 -0.34899901635430497
4444000000.0 0.9184598346127721 -0.34562140598464225
4447000000.0 0.9355505264653283 -0.3718238643179963
4450000000.0 0.9345755048983436 -0.353506781927305
4453000000.0 0.9523493238770523 -0.3809387984252214
4456000000.0 0.902241746380736 -0.38748265837623186
4459000000.0 0.87960414709745 -0.3903228441613521
4462000000.0 0.9820035689963234 -0.42521777915407255
4466000000.0 0.9512639564890302 -0.43451002145474804
4469000000.0 0.9244036766844599 -0.40370263098044223
4472000000.0 0.9261260543812462 -0.45170201125023113
4475000000.0 0.8854727881645579 -0.4155197308188532
4478000000.0 0.9280945842564576 -0.47376241360660176
4481000000.0 0.8678002065849401 -0.44703519042810735
4484000000.0 0.8905340233190724 -0.501988871325678
4488000000.0 0.8864432681119567 -0.476472256824623
4491000000.0 0.8968579290437254 -0.48668762491539846
4494000000.0 0.8810879510013535 -0.4839245546859354
4497000000.0 0.877022752375624 -0.4905954426043949
4500000000.0 0.8785862183454769 -0.49281292939467036
4503000000.0 0.8972095011104853 -0.5194535685690469
4506000000.0 0.8797790429781822 -0.534544562617145
4509000000.0 0.8349934144419446 -0.510111337892051
4512000000.0 0.8416117478634321 -0.5280278327040717
4516000000.0 0.875670407485619 -0.562980875903978
4519000000.0 0.8446486504491139 -0.5304551959319611
4522000000.0 0.8445033994362021 -0.549403004522957
4525000000.0 0.8528421572050229 -0.5370549075180425
4528000000.0 0.86516444169026 -0.5796001347627052
4531000000.0 0.815672598783706 -0.5538174832046466
4534000000.0 0.8112794516294032 -0.5692714458171086
4538000000.0 0.8224823504951471 -0.602484433501348
4541000000.0 0.7841364017985221 -0.6219762629975972
4544000000.0 0.7994328215822777 -0.6044569778028168
4547000000.0 0.81129370065801 -0.6094957970968682
4550000000.0 0.7666283630596353 -0.6617140790823147
4553000000.0 0.7827427305069903 -0.6376272946333666
4556000000.0 0.75131909211793 -0.6347210646628271
4559000000.0 0.7684110183501975 -0.6596313878998354
4562000000.0 0.7845731181250315 -0.6562331303412633
4566000000.0 0.7685810804596613 -0.6662782707250796
4569000000.0 0.7377723793245099 -0.667362353688135
4572000000.0 0.7660455495893872 -0.6627242869353851
4575000000.0 0.7302551115703828 -0.7001684732523291
4578000000.0 0.7482552182408562 -0.6905028703743432
4581000000.0 0.7324569848050777 -0.6999462640739236
4584000000.0 0.7181564391411911 -0.7047907537708714
4588000000.0 0.7516822901392103 -0.7175365596573076
4591000000.0 0.7349346959432965 -0.6818517440896814
4594000000.0 0.6902299706876944 -0.7138322497987024
4597000000.0 0.7121157995565279 -0.7500395926656948
4600000000.0 0.6891512666503582 -0.7340349733919572
4603000000.0 0.674545356658029 -0.7460533406411749
4606000000.0 0.6893294672794846 -0.7598747462008786
4609000000.0 0.6841234489176434 -0.7401593521812414
4612000000.0 0.6688054366304309 -0.7583051613410201
4616000000.0 0.6495551440479446 -0.7611926612370821
4619000000.0 0.6671056378264332 -0.7534645626869838
4622000000.0 0.6418001814283143 -0.7811487640336786
4625000000.0 0.6039857617792471 -0.7812003359479859
4628000000.0 0.645578318255578 -0.7754718735384971
4631000000.0 0.6201310712628503 -0.7962493629338
4634000000.0 0.6210541940934777 -0.8100468679479363
4638000000.0 0.6070086974594154 -0.8048843278627301
4641000000.0 0.6154101248263081 -0.8192662868936442
4644000000.0 0.5979122826017841 -0.8124664644118487
4647000000.0 0.6121145892202766 -0.8104927345668979
4650000000.0 0.5633729325325338 -0.840517638991235
4653000000.0 0.6034016410849659 -0.8486911320771078
4656000000.0 0.5737403488824968 -0.8435966955955327
4659000000.0 0.5698266469788238 -0.845342284344439
4662000000.0 0.545295413607203 -0.8681825790709189
4666000000.0 0.5507928060050203 -0.8563589985042313
4669000000.0 0.5508155927830376 -0.8565091522998047
4672000000.0 0.5452209581178614 -0.8757263289587105
4675000000.0 0.5029430230042602 -0.895168840011868
4678000000.0 0.4851886255559357 -0.856608209502839
4681000000.0 0.49314614897992515 -0.8883146889159989
4684000000.0 0.471989994110449 -0.9173314759440907
4688000000.0 0.462339555182267 -0.8919156763597158
4691000000.0 0.49443124657447635 -0.9007659260623135
4694000000.0 0.4869968010507614 -0.888121785289615
4697000000.0 0.43960646940684156 -0.8838826713942709
4700000000.0 0.44788472825382813 -0.8900453725650219
4703000000.0 0.4607663048099825 -0.8683893120785118
4706000000.0 0.44434813570550125 -0.9144060267370763
4709000000.0 0.42697447793687804 -0.9283224553856386
4712000000.0 0.42978799727674455 -0.8980415618664475
4716000000.0 0.41586451680159187 -0.9429463674540839
4719000000.0 0.4315740363308987 -0.9450418320047038
4722000000.0 0.3966317856153142 -0.937421766295149
4725000000.0 0.41660696439851497 -0.9421945362269514
4728000000.0 0.35527701368632003 -0.9389062751872916
4731000000.0 0.3947968966558728 -0.9365669328017767
4734000000.0 0.4036096256295597 -0.9259908146046579
4738000000.0 0.3987537448939834 -0.9588805830122147
4741000000.0 0.3528299307404905 -1.0084898581670916
4744000000.0 0.3576800631410797 -0.9669710080299846
4747000000.0 0.3574780170518607 -0.9313973119035326
4750000000.0 0.3440641563440018 -0.9989458768126184
4753000000.0 0.331308850275465 -0.9664823769908795
4756000000.0 0.3037847045725818 -0.9812161558882304
4759000000.0 0.3332669127515051 -0.9770036982957089
4762000000.0 0.2692882261107856 -0.9995543268320363
4766000000.0 0.2721249016499832 -0.9959901651821691
4769000000.0 0.293720633518079 -0.9987943038066339
4772000000.0 0.28509258704919876 -1.0230208837422272
4775000000.0 0.25891247663712924 -1.0221915656284586
4778000000.0 0.24449528851629831 -1.009091564198547
4781000000.0 0.25914396272984014 -1.005878022155583
4784000000.0 0.2715481077137826 -1.0037916081504588
4788000000.0 0.20038672094994198 -1.0194071222760375
4791000000.0 0.2198679701663333 -1.0037961083074038
4794000000.0 0.23846105771577844 -1.0163781435512491
4797000000.0 0.1818010717182679 -1.006501447348737
4800000000.0 0.19827920176324834 -0.9787712134100779
4803000000.0 0.11665562731506274 -0.9835653434733993
4806000000.0 0.17292823096295037 -1.0131667206163444
4809000000.0 0.1058214819220092 -1.0082070451480196
4812000000.0 0.14213697705678396 -1.0202518376016816
4816000000.0 0.1721612619896576 -0.9959222212145151
4819000000.0 0.15228397459462173 -1.032159178142285
4822000000.0 0.15420821660354586 -1.0625762640300251
4825000000.0 0.16677845442340508 -1.0375798313885491
4828000000.0 0.1287531445125627 -1.0224763534668413
4831000000.0 0.05756122234255193 -1.034012994364143
4834000000.0 0.1240421994346995 -1.0047691693296033
4838000000.0 0.06331160843078254 -1.044884678304523
4841000000.0 0.07494160233408113 -1.0222343790066608
4844000000.0 0.10813846883720275 -1.035442035588486
4847000000.0 0.08896387960287062 -0.9933441936123903
4850000000.0 0.049984300015305974 -1.0520385043028724
4853000000.0 0.04661583792580619 -1.01450286886138
4856000000.0 0.05827666140209935 -1.0109670253912348
4859000000.0 0.027676599055953634 -1.0455156903230973
4862000000.0 0.05723663694511174 -1.0072274910229169
4866000000.0 -0.0010110925317173766 -1.0467198272735114
4869000000.0 -0.033753015836835557 -1.0149879473834373
4872000000.0 -0.009835968166509055 -1.0317495075770484
4875000000.0 0.035006340248821995 -1.070799700930826
4878000000.0 0.0032923748884743746 -1.0508822579884611
4881000000.0 -0.03842520089850084 -1.0889074117691602
4884000000.0 -0.02632736900707304 -1.0327219201517521
4888000000.0 -0.009768897340242513 -1.0364249025036043
4891000000.0 -0.03302100843236079 -1.0603303093698517
4894000000.0 -0.065503189098926 -1.0250287639011422
4897000000.0 -0.03613386171085152 -1.0020631252988201
4900000000.0 -0.07183098018788675 -1.0600326377142655
4903000000.0 -0.07743903004073496 -1.0463104390545657
4906000000.0 -0.09829580790782888 -1.0794626325632724
4909000000.0 -0.12223119636446078 -1.0260284441053609
4912000000.0 -0.15568471475766854 -1.0618333674432692
4916000000.0 -0.10046538369323538 -1.0845070280425542
4919000000.0 -0.08723061122076815 -1.0551800984445516
4922000000.0 -0.11561921998848429 -1.0465352827556083
4925000000.0 -0.18918088185295653 -1.0239838392847431
4928000000.0 -0.08655469678941848 -1.0078313156874963
4931000000.0 -0.13368689558777447 -1.0584634733806848
4934000000.0 -0.14078882635550033 -0.9745741700659375
4938000000.0 -0.22615472497076583 -1.0172124735798869
4941000000.0 -0.1748630757412265 -0.9842340634470209
4944000000.0 -0.17057717806670783 -0.9405453965286368
4947000000.0 -0.20892753308396464 -0.9588289602231329
4950000000.0 -0.19284750195425293 -0.9920207858974461
4953000000.0 -0.2529266260455582 -1.0322475677190202
4956000000.0 -0.2517960080906051 -1.0109959385138343
4959000000.0 -0.2533497207822225 -0.960931592989208
4962000000.0 -0.2552631832383877 -1.0071787793593827
4966000000.0 -0.2368663517513323 -1.0123931348300026
4969000000.0 -0.2332184235588094 -1.0587801760560083
4972000000.0 -0.30088199939073 -0.9966191838013818
4975000000.0 -0.25818376412330646 -1.0164473480350622
4978000000.0 -0.2766910854231503 -1.0160748424656842
4981000000.0 -0.30425053563982096 -1.004187810872702
4984000000.0 -0.266652539692557 -0.9852557533727826
4988000000.0 -0.31167282869597973 -0.9999700561142235
4991000000.0 -0.2786680518499712 -1.019109894129884
4994000000.0 -0.3068831585290023 -0.9885462519064487
4997000000.0 -0.3678881863775208 -0.9728437460966562
5000000000.0 -0.3524417893825822 -1.008121239443155
5003000000.0 -0.36975156921903246 -0.9926747858373193
5006000000.0 -0.3759513492848564 -1.0313146925176444
5009000000.0 -0.34665732908633495 -0.9903117432104064
5012000000.0 -0.4021217861028394 -0.9571971042802865
5016000000.0 -0.36270311592701326 -0.9976046169044037
5019000000.0 -0.4123604952723595 -0.9699410453403245
5022000000.0 -0.4259831995120119 -0.9350387031423872
5025000000.0 -0.4407232905283723 -1.0238708734602446
5028000000.0 -0.4621280969509173 -0.9368668251717767
5031000000.0 -0.44463157432688905 -0.948826448259725
5034000000.0 -0.49048278638828535 -0.9286996427326804
5038000000.0 -0.44459033052005537 -0.8874319332626146
5041000000.0 -0.41825481959332333 -0.940845067973816
5044000000.0 -0.4185539619830433 -0.9267995767131406
5047000000.0 -0.4412328135240912 -0.9271981258980099
5050000000.0 -0.38796427693846436 -0.9628920798797509
5053000000.0 -0.48497742154512646 -0.9441858477323319
5056000000.0 -0.43951085733108175 -0.9635745299853868
5059000000.0 -0.4396927721483798 -0.9149488788748957
5062000000.0 -0.541498703343736 -0.9119615565946928
5066000000.0 -0.47899678584105965 -0.9449682402673292
5069000000.0 -0.5237006087823195 -0.9163622039993674
5072000000.0 -0.5017973643447454 -0.8720071272760275
5075000000.0 -0.491730728909505 -0.9373779814132108
5078000000.0 -0.5472207140210565 -0.8635101010538173
5081000000.0 -0.5762920722570679 -0.8560433354084481
5084000000.0 -0.5804578976076081 -0.874831445969696
5088000000.0 -0.5241986295663994 -0.8527015788394876
5091000000.0 -0.5903855964340892 -0.8936005939321265
5094000000.0 -0.5922483216037657 -0.8988816186552474
5097000000.0 -0.5347826780774791 -0.8918641680431334
5100000000.0 -0.5789858613240974 -0.8832033732486014
5103000000.0 -0.5936710402034322 -0.838962519250846
5106000000.0 -0.6206825348807627 -0.8786865209062924
5109000000.0 -0.6113730609253131 -0.853375167347137
5112000000.0 -0.6351940421562293 -0.828908996825519
5116000000.0 -0.5835689499550267 -0.7576756160414271
5119000000.0 -0.7097035001092038 -0.8448731937079503
5122000000.0 -0.6282458638728092 -0.8118946531579216
5125000000.0 -0.6045746849069156 -0.8357045523591977
5128000000.0 -0.6539320613069864 -0.8340713214426747
5131000000.0 -0.6371749289584814 -0.824337792876566
5134000000.0 -0.617246684484289 -0.7817358024124713
5138000000.0 -0.653100445222329 -0.8153809005682451
5141000000.0 -0.6274310043165485 -0.801211053241702
5144000000.0 -0.6365492260254394 -0.7961674069314155
5147000000.0 -0.7210539833271238 -0.7883570746529229
5150000000.0 -0.6796800066197374 -0.8074739691171986
5153000000.0 -0.7540609713434021 -0.8090063736854104
5156000000.0 -0.6973655935760626 -0.805624653356268
5159000000.0 -0.7339623699927472 -0.7821097569237286
5162000000.0 -0.7637138000197786 -0.7230964663011381
5166000000.0 -0.723259305497101 -0.7320096272880884
5169000000.0 -0.7498474305783592 -0.7708595182644657
5172000000.0 -0.720768937764187 -0.7759458375051642
5175000000.0 -0.7425731441385867 -0.7711283794958824
5178000000.0 -0.7622305457422083 -0.7407138611453751
5181000000.0 -0.7557704274017942 -0.7623516105901856
5184000000.0 -0.7481223024438036 -0.7111591975961477
5188000000.0 -0.7426903686869453 -0.7229590623754476
