! Created with skrf 1.8.0 (http://scikit-rf.org).
# Hz S RI R 50.0 
!freq ReS11 ImS11
4000000000.0 0.6248728714596791 0.801364711424523
4003000000.0 0.6874937640837999 0.8527907947487464
4006000000.0 0.6984082256649898 0.7516887078739214
4009000000.0 0.6569261438875014 0.7828745188564779
4012000000.0 0.6338862038177135 0.8120303217718925
4016000000.0 0.7171039128567753 0.7380381376376992
4019000000.0 0.6724191424859205 0.7537253431132807
4022000000.0 0.6573500344780393 0.8405403423519163
4025000000.0 0.7582187233888612 0.704945128886847
4028000000.0 0.7270246839151284 0.7279239591323912
4031000000.0 0.695735293171675 0.6669828471629118
4034000000.0 0.7347297291507462 0.7106859265368359
4038000000.0 0.7503004081178107 0.7053292723771237
4041000000.0 0.7352829705583787 0.6878462020558689
4044000000.0 0.7846043888200536 0.7413514893518994
4047000000.0 0.7641588702468739 0.7290953418187851
4050000000.0 0.7603896301610026 0.7025446243311443
4053000000.0 0.7490947575757411 0.6486306040595151
4056000000.0 0.7741277359969229 0.676660784579883
4059000000.0 0.7623222682670829 0.6789623294929898
4062000000.0 0.776507775114596 0.6879024886561902
4066000000.0 0.7201016728344074 0.5975715257378659
4069000000.0 0.8171067115533616 0.6456678145055479
4072000000.0 0.7593424033223609 0.6783081167777669
4075000000.0 0.8391843478738801 0.6814764985922745
4078000000.0 0.8212913628509687 0.617250413276328
4081000000.0 0.8018670987509501 0.7051605523399184
4084000000.0 0.797535711641154 0.6081738225522779
4088000000.0 0.7786153265107455 0.6727267032289902
4091000000.0 0.8907990257929387 0.6408317148352034
4094000000.0 0.7863351905471261 0.5999560305948382
4097000000.0 0.8337441310892635 0.590034646373492
4100000000.0 0.8510538783342834 0.5702034984688282
4103000000.0 0.8637635308391463 0.6583912080497676
4106000000.0 0.8786857312735663 0.5926418633150834
4109000000.0 0.8557555452810881 0.5632493593048431
4112000000.0 0.8196031704283553 0.5466375698475892
4116000000.0 0.8294086695650955 0.5685256367294004
4119000000.0 0.8517139175528871 0.5439591113066197
4122000000.0 0.8894956793116601 0.5276795831878062
4125000000.0 0.895874399755159 0.5086941968015595
4128000000.0 0.8703122149399158 0.5374168522083546
4131000000.0 0.8909978437563297 0.5358271793181862
4134000000.0 0.841596398619952 0.516178097662767
4138000000.0 0.8667561324796931 0.47501626535533575
4141000000.0 0.8982029144019894 0.4842146140132788
4144000000.0 0.9025814712021768 0.5189200562009926
4147000000.0 0.907251314560866 0.45667082735741643
4150000000.0 0.9518659918552042 0.5020198378049678
4153000000.0 0.911214637636385 0.4494802687277092
4156000000.0 0.9068058843306894 0.48314121176895075
4159000000.0 0.912114004376293 0.43294745157057773
4162000000.0 0.9107084448536651 0.45675363418707327
4166000000.0 0.9323053719780006 0.4094421806073516
4169000000.0 0.9076324535049494 0.40250207518341186
4172000000.0 0.9730061955572872 0.44179834463060325
4175000000.0 0.9124410845057184 0.40894544269051286
4178000000.0 0.9479766099732699 0.4369536232018697
4181000000.0 0.9549813030643943 0.3659768038153911
4184000000.0 0.952224625496775 0.36147310240115166
4188000000.0 0.9409744917034693 0.38259716290097967
4191000000.0 0.928220369517632 0.39421524746320996
4194000000.0 0.928042719874914 0.3491647609988353
4197000000.0 0.9565667046902885 0.37653416260665845
4200000000.0 0.9498053540111815 0.36790249917440565
4203000000.0 0.9783645617452258 0.352770935162911
4206000000.0 0.9758449968398724 0.3460191790892014
4209000000.0 0.9748347983646224 0.35025942250150005
4212000000.0 0.9704149549121571 0.30433229715775334
4216000000.0 0.9883167787085797 0.32363258730142624
4219000000.0 0.9832765778709908 0.3175960798358439
4222000000.0 0.9807456046625607 0.28388730473737783
4225000000.0 0.9602693571970597 0.3001081193310491
4228000000.0 0.9924370896687154 0.29413009099019805
4231000000.0 0.976168217804765 0.2870047397897774
4234000000.0 1.0030202076076795 0.2574429193233321
4238000000.0 0.9987387610984415 0.24529975640390503
4241000000.0 0.9814365651492551 0.21642312342405817
4244000000.0 0.9829780783767991 0.24348893320337145
4247000000.0 0.9693452557159746 0.23615046774598925
4250000000.0 0.9756079053460878 0.2024245387933753
4253000000.0 0.9676726136288449 0.20520875651125436
4256000000.0 1.0073833518852215 0.21341560739945842
4259000000.0 0.955117771128336 0.17007529877703417
4262000000.0 0.9948849571635126 0.16134424565816438
4266000000.0 0.9969795271710884 0.14222977760217465
4269000000.0 0.999318112986926 0.18058173383151174
4272000000.0 0.996296082113435 0.15749797979535873
4275000000.0 1.0082656225364421 0.16557643973163305
4278000000.0 1.0144323471965815 0.15911781103066747
4281000000.0 1.0053636495099574 0.15162348427086453
4284000000.0 1.002588412743444 0.10338517370224848
4288000000.0 1.0095936606773421 0.1732078160928128
4291000000.0 0.9876862136205423 0.12173570757668441
4294000000.0 1.016766631244443 0.0966491100436956
4297000000.0 0.998505409111556 0.11706279394360943
4300000000.0 0.9921054238250933 0.08646624265247899
4303000000.0 1.0095635440193742 0.0651846903041325
4306000000.0 1.0130160227027214 0.11882930689101717
4309000000.0 1.0054830278089537 0.08043358191454779
4312000000.0 1.0359094244150702 0.09705080534790092
4316000000.0 1.0401982405590946 0.05487511520160902
4319000000.0 0.9750761937720925 0.03199172208072722
4322000000.0 1.0081847381804347 0.010859396951343997
4325000000.0 1.0280653709692682 0.005100240075983045
4328000000.0 1.003162009625966 0.02571040777993401
4331000000.0 1.0168541220649128 -0.012056842551700808
4334000000.0 1.0433079110415544 -0.026429991457744717
4338000000.0 0.9883500037372219 0.010176050674503237
4341000000.0 1.0551424944394439 0.0030285623586710775
4344000000.0 1.001696992967041 -0.019858863628909956
4347000000.0 1.0118284547762357 -0.0861959642896434
4350000000.0 0.9802523165270958 -0.04906930984012958
4353000000.0 0.9829927446660749 -0.031266223209634986
4356000000.0 0.9909536126999084 -0.09266836837053809
4359000000.0 0.9620278848961912 -0.08994079222971486
4362000000.0 1.0226575783450962 -0.13808506629610212
4366000000.0 1.015264227548179 -0.1098434591184752
4369000000.0 0.957630297170122 -0.11364898125562459
4372000000.0 0.984900042728208 -0.15023405485458907
4375000000.0 1.0023910724601126 -0.11318885959181578
4378000000.0 0.9684295450332915 -0.11797243959437749
4381000000.0 0.9815204993239348 -0.11864122467098939
4384000000.0 1.0442613358062744 -0.17048513760668926
4388000000.0 0.9849854173224136 -0.15042688636524532
4391000000.0 0.9940795281396193 -0.16569339618350426
4394000000.0 0.9719357423753652 -0.17252455806046135
4397000000.0 0.9744358003062099 -0.19249372252779723
4400000000.0 1.009069671194007 -0.20069431053629563
4403000000.0 0.9913636668207346 -0.20337292980759478
4406000000.0 0.9868367394199703 -0.22452423176534714
4409000000.0 1.0192736165244163 -0.23219128769877317
4412000000.0 0.9483255779270073 -0.27688838847291575
4416000000.0 0.9636411672545251 -0.24643884849922582
4419000000.0 0.9717118028983465 -0.2761647867302558
4422000000.0 0.9821456897635741 -0.23784304779151602
4425000000.0 0.9974605038634959 -0.24405826113850432
4428000000.0 0.9765765639576908 -0.28368766292078645
4431000000.0 0.9888927257265399 -0.2829421852248063
4434000000.0 0.96433747869 -0.29622942478965214
4438000000.0 0.9802700728084954 -0.2957915030487029
4441000000.0 0.9780971872340538 -0.30611939133535887
4444000000.0 0.9368224237746332 -0.3111619570606644
4447000000.0 0.9557837655242103 -0.325376114610698
4450000000.0 0.9404810221838593 -0.3056852401441192
4453000000.0 0.9763327057779528 -0.34701390327447346
4456000000.0 0.9194194632571219 -0.35030955492877025
4459000000.0 0.8896872632964814 -0.3647613870501031
4462000000.0 0.9856147123129522 -0.39310768033777166
4466000000.0 0.9720979110592365 -0.38569542714063093
4469000000.0 0.941930128547734 -0.3726381996346104
4472000000.0 0.9340112278535683 -0.40740052716650343
4475000000.0 0.8863015085372004 -0.39014330228208915
4478000000.0 0.9587765984075274 -0.4379593428873755
4481000000.0 0.8977512309924776 -0.42606389345101586
4484000000.0 0.8857838815491785 -0.4596852804437742
4488000000.0 0.9006750423372379 -0.4319732017186655
4491000000.0 0.9093285426513321 -0.4305106975813037
4494000000.0 0.8931745866742883 -0.445106210536563
4497000000.0 0.8917907130819684 -0.45879178500858236
4500000000.0 0.9006043465271443 -0.4519300531829352
4503000000.0 0.9259915895175412 -0.4935195682174005
4506000000.0 0.8641185522863062 -0.47446738409577516
4509000000.0 0.8675572018386448 -0.47292390283608277
4512000000.0 0.8471047622468117 -0.4802756156976281
4516000000.0 0.905860114970404 -0.49436324648464636
4519000000.0 0.8472879653795176 -0.49589617854656276
4522000000.0 0.8654482797457186 -0.5105993275048423
4525000000.0 0.8854465978529278 -0.4877477347216772
4528000000.0 0.868036940924493 -0.5229926852009138
4531000000.0 0.865115558996605 -0.529977391352483
4534000000.0 0.8261579984601999 -0.5307727277925358
4538000000.0 0.8365759203913574 -0.5380157914686773
4541000000.0 0.8034145706772441 -0.5979730098673711
4544000000.0 0.8043745324423863 -0.5490417595289286
4547000000.0 0.82488112576206 -0.5522470456185427
4550000000.0 0.8094940539319175 -0.605969169774601
4553000000.0 0.8152835177845936 -0.5951649588333199
4556000000.0 0.772529823130282 -0.5942242525424917
4559000000.0 0.7820971368635836 -0.6119078185641951
4562000000.0 0.8008288352323094 -0.6114794594687968
4566000000.0 0.8013638443276623 -0.6368791156240519
4569000000.0 0.7840811853266645 -0.6156630764784559
4572000000.0 0.7719344011860103 -0.6356198157924864
4575000000.0 0.7756925928274103 -0.6531341909231096
4578000000.0 0.8112815724057483 -0.6617834485983831
4581000000.0 0.7732673254043063 -0.6694868757517629
4584000000.0 0.7429511238645736 -0.6624334016716731
4588000000.0 0.7832202480777907 -0.6567538712390388
4591000000.0 0.7637585581940323 -0.6699663808090288
4594000000.0 0.7299384827006576 -0.6899574456554646
4597000000.0 0.7502728654126491 -0.7147907075931383
4600000000.0 0.6979671712438517 -0.721310117099332
4603000000.0 0.71212330682254 -0.7118753256642326
4606000000.0 0.7270928856503778 -0.7052521625415655
4609000000.0 0.7311243367314515 -0.708979110041612
4612000000.0 0.7026363395881995 -0.7305571961692788
4616000000.0 0.6802426126174992 -0.7136251002062527
4619000000.0 0.6938030392346745 -0.7165485704211175
4622000000.0 0.6779101310920996 -0.7442795957601224
4625000000.0 0.6411002744533248 -0.739863957163155
4628000000.0 0.6825480835244477 -0.7373769812861287
4631000000.0 0.6382399525487896 -0.7494708891243044
4634000000.0 0.6646552787535815 -0.7701610210794116
4638000000.0 0.6478771933183755 -0.7747105960759746
4641000000.0 0.6423326852362312 -0.773894173393939
4644000000.0 0.6312698361705886 -0.7949993127285216
4647000000.0 0.6384549988969526 -0.7720693513163497
4650000000.0 0.6058648700506186 -0.8072044996352019
4653000000.0 0.6288771122270725 -0.8018559464813811
4656000000.0 0.6146609296160346 -0.838796390658691
4659000000.0 0.583424357081701 -0.8232253974125876
4662000000.0 0.591508147291922 -0.8293708165268425
4666000000.0 0.577608015453941 -0.8273223887780233
4669000000.0 0.5754887889438738 -0.856355714395082
4672000000.0 0.5579089892006633 -0.8667312283292119
4675000000.0 0.5409536112596062 -0.8443901349042563
4678000000.0 0.5450440282337491 -0.832638687915395
4681000000.0 0.5302811842344142 -0.8781094015347021
4684000000.0 0.5289179538308733 -0.8771399694372964
4688000000.0 0.507649272905325 -0.8653316020153764
4691000000.0 0.5500665437139224 -0.8529286475048112
4694000000.0 0.5308593228342404 -0.8525658781783017
4697000000.0 0.48735095699317055 -0.8517688605039293
4700000000.0 0.5078053740749072 -0.8365406282634531
4703000000.0 0.503805422190205 -0.8382461120175273
4706000000.0 0.48993706617907207 -0.8868221822300357
4709000000.0 0.4674742592243092 -0.8741227565995645
4712000000.0 0.48692775244180875 -0.89100734160161
4716000000.0 0.469732511387415 -0.9141707216031532
4719000000.0 0.46181058066931013 -0.8982654688600783
4722000000.0 0.43714298798769147 -0.8967381353046242
4725000000.0 0.449819115034756 -0.897948936454843
4728000000.0 0.41892929554051517 -0.90107299753553
4731000000.0 0.4443406344446485 -0.9411026969827305
4734000000.0 0.452413411236677 -0.9421190795337581
4738000000.0 0.4483380341305296 -0.9560300710935646
4741000000.0 0.41278819123914245 -0.9698522484535597
4744000000.0 0.3920323497213367 -0.9450091605687913
4747000000.0 0.403053429149218 -0.8827588415491078
4750000000.0 0.37685418993316816 -0.9451831366142637
4753000000.0 0.3975081498834291 -0.9310539877939942
4756000000.0 0.349882498585675 -0.9419469322547627
4759000000.0 0.3767065511894543 -0.9489384053206019
4762000000.0 0.30921024198206953 -0.9862192239867434
4766000000.0 0.33047006921955163 -0.955386783716638
4769000000.0 0.34535019702237635 -0.9628516109868489
4772000000.0 0.32898129427315803 -0.9389812376027339
4775000000.0 0.3120524171028256 -1.0260472130032896
4778000000.0 0.31166037677693453 -0.9947289641049143
4781000000.0 0.2992805711327843 -0.9502941078963782
4784000000.0 0.3077888420650825 -0.9685396633577635
4788000000.0 0.255718971792367 -0.9768962411940907
4791000000.0 0.23678668859659416 -0.9701127136107769
4794000000.0 0.29886889746453965 -1.029459698638988
4797000000.0 0.24634839262985633 -0.9750606299009729
4800000000.0 0.24753044636690155 -0.9836801004283571
4803000000.0 0.2183683720375813 -1.0018793441972706
4806000000.0 0.2276188830961454 -1.0053184427884188
4809000000.0 0.18835081760199818 -0.992679057926655
4812000000.0 0.181593594595555 -0.9862089804271248
4816000000.0 0.23766284570939625 -0.9985158039731876
4819000000.0 0.2089105710083014 -1.0197850462155804
4822000000.0 0.2107050810871176 -1.0200205457587523
4825000000.0 0.23191217462282246 -1.027990794926627
4828000000.0 0.1779509099975173 -0.9933856877021082
4831000000.0 0.12999622578857922 -1.0351618354098917
4834000000.0 0.17388124924873974 -1.0074396010631714
4838000000.0 0.11236153447659171 -1.0437467798008981
4841000000.0 0.13576701363984423 -1.0112339139016697
4844000000.0 0.17266477836134464 -1.0115443544645413
4847000000.0 0.12721406664818838 -0.9750705251983824
4850000000.0 0.0655684793164243 -1.0408349860759534
4853000000.0 0.1147106190921797 -0.9952763351621974
4856000000.0 0.09185269942191547 -0.9979575711663272
4859000000.0 0.06614044016029623 -1.0715396295849833
4862000000.0 0.10698066662184968 -0.9879995391254371
4866000000.0 0.053948559122705714 -1.03891160917092
4869000000.0 0.05740658896122014 -1.0188563325617255
4872000000.0 0.03878012274583697 -1.0341722679924825
4875000000.0 0.09901423955411204 -1.07473152784432
4878000000.0 0.03551736336974881 -1.049374206992884
4881000000.0 0.009063013951874489 -1.0917903729235827
4884000000.0 0.03244121838812679 -1.0052339829951122
4888000000.0 0.05177944137471807 -1.0271540227261446
4891000000.0 0.031206111384963587 -1.0645230500899272
4894000000.0 -0.016758842723741812 -0.9977200378116834
4897000000.0 0.00811495264662217 -1.0057014818333891
4900000000.0 -0.030844157915707097 -1.0456047568600069
4903000000.0 -0.05179993451110137 -1.0465241483176106
4906000000.0 -0.03924024996745259 -1.0270150241327094
4909000000.0 -0.0532596457771669 -1.0198532287547821
4912000000.0 -0.09501435904164902 -1.0694409490173735
4916000000.0 -0.052576736571393466 -1.0557102691601357
4919000000.0 -0.03471908177292546 -1.0412483328993907
4922000000.0 -0.0591062658669137 -1.0304535500176937
4925000000.0 -0.10609133342891411 -1.0103326010680855
4928000000.0 -0.05270072058529175 -1.0363838329630908
4931000000.0 -0.04904505139164213 -1.0517446463297335
4934000000.0 -0.08844943310882396 -0.9965586870155171
4938000000.0 -0.1466824825972466 -0.9901066629952595
4941000000.0 -0.13805230038486493 -1.0089686414893142
4944000000.0 -0.13121598978767557 -0.9519622206594058
4947000000.0 -0.14996144404737502 -0.9930095489210979
4950000000.0 -0.160756279926339 -0.9880766015452979
4953000000.0 -0.18950112234443212 -1.0291404375137194
4956000000.0 -0.1963103994753031 -1.0092563646821688
4959000000.0 -0.22824454424439125 -0.9771261846249888
4962000000.0 -0.20172399750829637 -1.0235042243060575
4966000000.0 -0.1761159808158329 -1.0408169392363198
4969000000.0 -0.17501692981503342 -1.039458580718142
4972000000.0 -0.26950638294378326 -1.0085104340467996
4975000000.0 -0.19893928983118533 -0.9965594386720222
4978000000.0 -0.2333236661965309 -1.012670351588458
4981000000.0 -0.2691822301779042 -1.0211374392721508
4984000000.0 -0.24492368194280398 -0.9786783429090621
4988000000.0 -0.20718307037739087 -0.9945750531557674
4991000000.0 -0.18908805851075433 -1.0368717781646934
4994000000.0 -0.25654483128003136 -0.9889637905865658
4997000000.0 -0.3053958549473556 -1.0005995074892986
5000000000.0 -0.26815575764008026 -1.023748870201357
5003000000.0 -0.28085814564099815 -1.0038828853214046
5006000000.0 -0.3219244009881165 -1.0517506808709434
5009000000.0 -0.2916285873205573 -0.9600031319453505
5012000000.0 -0.33406216890684665 -0.9769164264696595
5016000000.0 -0.29564990318358025 -1.0159693313612148
5019000000.0 -0.33722905679141535 -0.9592544823997884
5022000000.0 -0.3407510492704803 -0.989084726615387
5025000000.0 -0.38108905753874406 -1.0331300974631652
5028000000.0 -0.37746386980582325 -0.9844034154722687
5031000000.0 -0.3680981013129193 -0.9467215323891781
5034000000.0 -0.4212884212882959 -0.9704313955464985
5038000000.0 -0.3778367285663149 -0.9307996945809198
5041000000.0 -0.367146838501458 -0.9832833642567004
5044000000.0 -0.36406842258603567 -0.9666296007571852
5047000000.0 -0.38257436867585887 -0.9544767586653068
5050000000.0 -0.3206375914674139 -0.9527995879421756
5053000000.0 -0.42566537322428144 -0.9692599607625703
5056000000.0 -0.3592306412595193 -0.9938541769712415
5059000000.0 -0.3912274004122083 -0.9821836676981656
5062000000.0 -0.49573482418975157 -0.9291516474482344
5066000000.0 -0.4251292183841566 -0.9101766222674945
5069000000.0 -0.44880732514657706 -0.9571844290797026
5072000000.0 -0.42925485653324513 -0.9173348934427663
5075000000.0 -0.48125145782501855 -0.9481614505904177
5078000000.0 -0.48387837771252756 -0.9263268769582014
5081000000.0 -0.4817704364014093 -0.8907006938597065
5084000000.0 -0.5190002553269963 -0.9560439773280967
5088000000.0 -0.4922387938353189 -0.9463660786747039
5091000000.0 -0.566799199776765 -0.8852890620808893
5094000000.0 -0.49280819748957067 -0.8972572346336899
5097000000.0 -0.43271620908078545 -0.8925956126006367
5100000000.0 -0.5159445875326768 -0.8807957116190902
5103000000.0 -0.5822074961723844 -0.8947918032364334
5106000000.0 -0.5487633778295783 -0.9108871537234182
5109000000.0 -0.4920286997374339 -0.8871000694436313
5112000000.0 -0.5268862965025829 -0.9053084617932168
5116000000.0 -0.5267145952590605 -0.8555155342888789
5119000000.0 -0.6161905235731814 -0.8342551658262887
5122000000.0 -0.571883294609497 -0.8674287103488791
5125000000.0 -0.5587855004229022 -0.8426486394362954
5128000000.0 -0.600489801905891 -0.8394039291785542
5131000000.0 -0.5350128503592753 -0.830876899676214
5134000000.0 -0.5820545524499047 -0.8175004019693178
5138000000.0 -0.5990957842084489 -0.8402182197931358
5141000000.0 -0.5427374839168684 -0.8505636653097468
5144000000.0 -0.5723930396353843 -0.8548823286537061
5147000000.0 -0.6112492783046911 -0.819667539951664
5150000000.0 -0.6352938802762937 -0.8432859982977747
5153000000.0 -0.6239973250973205 -0.8435960928688266
5156000000.0 -0.6299842173543914 -0.8331759306739871
5159000000.0 -0.6510669279131316 -0.8312561505222773
5162000000.0 -0.6659273176854433 -0.8256471023640299
5166000000.0 -0.6970670045267545 -0.8013014720373569
5169000000.0 -0.6807303693991084 -0.8413802371461238
5172000000.0 -0.6948625884584462 -0.8160075625962322
5175000000.0 -0.6927565970183517 -0.8134000640069531
5178000000.0 -0.7173365400295999 -0.7635393218842641
5181000000.0 -0.7110374561276436 -0.7812308971383443
5184000000.0 -0.6986020976822909 -0.7519123303820491
5188000000.0 -0.7264895269091953 -0.7536467369734102
