! Created with skrf 1.8.0 (http://scikit-rf.org).
# Hz S RI R 50.0 
!freq ReS11 ImS11
4000000000.0 0.6799927445518916 0.7261607909321726
4003000000.0 0.7068004202845152 0.8104845686318066
4006000000.0 0.7679745310988618 0.7127145360352871
4009000000.0 0.7474619586672017 0.7125843105369611
4012000000.0 0.7012567604131695 0.788319685423766
4016000000.0 0.7565546364421188 0.709242355153449
4019000000.0 0.7563240480055726 0.7016102068836295
4022000000.0 0.7032388074530033 0.7469501591147393
4025000000.0 0.782971747710816 0.6740114194853648
4028000000.0 0.7715718839472714 0.6722347092080914
4031000000.0 0.7305784347333156 0.6795369552506348
4034000000.0 0.7909582071116952 0.6606190054361423
4038000000.0 0.8178241091029353 0.6389289889049414
4041000000.0 0.7997018928619248 0.6537067658717065
4044000000.0 0.810643442000277 0.6893382661429447
4047000000.0 0.822958394007235 0.7122964543463266
4050000000.0 0.8358345798811925 0.6330105181087616
4053000000.0 0.7859525167806314 0.6169637495914322
4056000000.0 0.816276896480162 0.6102022044768136
4059000000.0 0.7844193529474082 0.6208001053906382
4062000000.0 0.8517877603636981 0.6209713419387941
4066000000.0 0.7640422760479071 0.5634102741403055
4069000000.0 0.8849558219297724 0.5989745982840263
4072000000.0 0.8025579722025096 0.6288212894878409
4075000000.0 0.8928832599630444 0.6053077095472224
4078000000.0 0.8857704805636908 0.5751699017916568
4081000000.0 0.8440630430970272 0.6037485080340396
4084000000.0 0.8967838912136462 0.5166270704096432
4088000000.0 0.8371554391231258 0.5933097339759651
4091000000.0 0.9012771312398747 0.5498560454198729
4094000000.0 0.8897445602193133 0.548010995596307
4097000000.0 0.887547838359264 0.5052827239345123
4100000000.0 0.8940399735680343 0.5343896477136496
4103000000.0 0.887128684441219 0.5608668649064295
4106000000.0 0.9453075119353005 0.5093500632290436
4109000000.0 0.9145607011347758 0.4985055358085307
4112000000.0 0.9232817893528744 0.4711123410618588
4116000000.0 0.8736157596180837 0.499627576422795
4119000000.0 0.9317632981804558 0.47793749659075735
4122000000.0 0.9347698839627174 0.4349326255997954
4125000000.0 0.935556955010045 0.4538979304631589
4128000000.0 0.8908978741736251 0.467317331312339
4131000000.0 0.9097275710883528 0.4228143535927098
4134000000.0 0.9091127119960739 0.4664138790188701
4138000000.0 0.8966645388452761 0.406780682123744
4141000000.0 0.9136840137933357 0.42170538911320354
4144000000.0 0.9369668427561072 0.4340675554075208
4147000000.0 0.9349618568183271 0.38928819127409314
4150000000.0 0.9628810760279762 0.4098012044534058
4153000000.0 0.9484163356236814 0.3831842335562712
4156000000.0 0.9671537373013577 0.3805094012427884
4159000000.0 0.9359666125710489 0.3767211718234111
4162000000.0 0.9509990459994944 0.35095432826980455
4166000000.0 0.9890467379081884 0.36781217110045383
4169000000.0 0.9519829901354034 0.332844609165335
4172000000.0 0.949201233986455 0.34568788674969925
4175000000.0 0.9840570548258053 0.357468557410266
4178000000.0 0.982355594594149 0.3259080023361318
4181000000.0 0.9806797258012938 0.3012241880886827
4184000000.0 0.9750748359962664 0.31033052695459323
4188000000.0 0.975216407487403 0.31386456940715857
4191000000.0 0.9574986338105921 0.3069975583888382
4194000000.0 0.9640228520175939 0.2855091890820374
4197000000.0 0.9997319100471085 0.2821861573072388
4200000000.0 0.9778192370690613 0.28811159428714483
4203000000.0 1.0056219924105632 0.2732910694724079
4206000000.0 1.0015346343325215 0.24409085898711114
4209000000.0 0.9826392364043404 0.25859130153248316
4212000000.0 1.0033872577032472 0.20694126731493534
4216000000.0 1.001805402007089 0.2296369430984363
4219000000.0 1.0093298507005803 0.2309621575786028
4222000000.0 1.0101793273937263 0.1988219012286338
4225000000.0 0.9900417144441838 0.19882864217100113
4228000000.0 1.0087680818908593 0.19595386656332622
4231000000.0 1.002843070628212 0.1677447574395574
4234000000.0 1.0321343975774204 0.1750300861829715
4238000000.0 1.0046608200781448 0.1503699836274344
4241000000.0 0.9849893490941448 0.14348863683781132
4244000000.0 0.999549710935444 0.15166528548970465
4247000000.0 1.0016691337618473 0.14418085690393956
4250000000.0 0.9817120043265861 0.11131072564859787
4253000000.0 0.9926319276522608 0.10247754685454322
4256000000.0 1.0430071852763254 0.10582290823128465
4259000000.0 0.978865891616638 0.07876130686859831
4262000000.0 1.0048297826224235 0.05687461141858438
4266000000.0 1.043837054410372 0.038495422371835786
4269000000.0 1.024037453850556 0.07680044711663234
4272000000.0 1.0063381683901471 0.07381521183154025
4275000000.0 1.025488915501998 0.05876830333938085
4278000000.0 1.051722471037063 0.05615759327723591
4281000000.0 1.01857478761595 0.0566325864145958
4284000000.0 1.022613418842501 -0.011926956957927864
4288000000.0 1.0186715064799936 0.05408546379807833
4291000000.0 0.9785270059715648 -0.011404181646398476
4294000000.0 0.9993125106396735 -0.018025234540871626
4297000000.0 0.9967216506089933 0.021895816684137884
4300000000.0 0.995552167034069 0.00408080217186587
4303000000.0 0.9919945214409966 -0.030364599593995317
4306000000.0 1.0077960216159827 -0.009055712701002666
4309000000.0 1.0143022338351477 -0.0501107331616543
4312000000.0 1.0229881338719073 -0.007576648367612737
4316000000.0 1.0341653145747147 -0.05093806271613033
4319000000.0 0.9917089279004443 -0.05733210122998001
4322000000.0 0.9708610929971022 -0.09081566135910998
4325000000.0 0.9907965929704906 -0.05672105926013625
4328000000.0 1.002330783722558 -0.0957309893416622
4331000000.0 1.0353227840463388 -0.12184179155578813
4334000000.0 1.0088228230050036 -0.10378046524807287
4338000000.0 0.9916886375031885 -0.10754958097453625
4341000000.0 1.0192687498884545 -0.10014309770604155
4344000000.0 1.0346424916280106 -0.11158646666846349
4347000000.0 1.0107757812659708 -0.18202059808300547
4350000000.0 0.9517651105644387 -0.16427151203959645
4353000000.0 0.9723742710506564 -0.15126306188079716
4356000000.0 0.9847181902195044 -0.21401342973339743
4359000000.0 0.9581799367869993 -0.18714596653185533
4362000000.0 0.999811833068303 -0.2456448091786597
4366000000.0 1.0053642776229523 -0.21706390661273425
4369000000.0 0.9733994411086838 -0.21414299790336389
4372000000.0 0.974832245866234 -0.25104380886973876
4375000000.0 0.981632816342608 -0.21430244527122183
4378000000.0 0.9548823472884252 -0.22763560508999464
4381000000.0 0.9568822769684824 -0.2548821099531911
4384000000.0 1.0353512581281068 -0.2938710451039504
4388000000.0 0.9604277323442508 -0.2538831366391558
4391000000.0 0.9824172980247936 -0.28415232872610835
4394000000.0 0.9408361722438993 -0.28771531708652914
4397000000.0 0.9646446600868588 -0.304630922478063
4400000000.0 0.9865964520140733 -0.32141823777915873
4403000000.0 0.9629151425410243 -0.32221150839953333
4406000000.0 0.9506081454670322 -0.33594057133688504
4409000000.0 0.973204793007576 -0.3555663301418038
4412000000.0 0.9241354211058037 -0.4020451587610193
4416000000.0 0.9390460941521186 -0.3551162031632896
4419000000.0 0.9404324555578589 -0.37024825588328314
4422000000.0 0.9417688455592803 -0.3389935896793195
4425000000.0 0.9633597231794986 -0.35774047986514734
4428000000.0 0.9332678219486767 -0.38182575121683354
4431000000.0 0.9577610706298072 -0.38409482194355127
4434000000.0 0.918887626218516 -0.40375398291455733
4438000000.0 0.948856964196162 -0.4173220652884141
4441000000.0 0.9493385720365779 -0.41759096652896743
4444000000.0 0.8996616841160245 -0.4228503251506529
4447000000.0 0.8980758864614782 -0.43636391882884884
4450000000.0 0.9043012992418472 -0.4199552251003712
4453000000.0 0.9173930434896118 -0.46423817082624097
4456000000.0 0.8609144455926822 -0.4561682324745545
4459000000.0 0.8547092423979032 -0.46439804111669936
4462000000.0 0.9417269697743837 -0.5142658622285919
4466000000.0 0.9165637893826253 -0.4973135952037969
4469000000.0 0.8897160819173917 -0.4916682688139052
4472000000.0 0.8753621590531203 -0.5283091966706859
4475000000.0 0.852716080771416 -0.4803846976068781
4478000000.0 0.8963571522519039 -0.5514951138003112
4481000000.0 0.8287298385139686 -0.5143379531254006
4484000000.0 0.8434547987833045 -0.5655880974710801
4488000000.0 0.8261486453318968 -0.5538621024113803
4491000000.0 0.8303464836954693 -0.5512174250949111
4494000000.0 0.8310073289552516 -0.5529007077426036
4497000000.0 0.837923686797982 -0.5511360042089692
4500000000.0 0.8461169552423715 -0.5733969899127611
4503000000.0 0.8258210206829177 -0.5855007853627883
4506000000.0 0.7969219278817243 -0.5985993233844104
4509000000.0 0.808485873774591 -0.5993146462845687
4512000000.0 0.7987133192880671 -0.5919741905448839
4516000000.0 0.8108714190107293 -0.620649799927501
4519000000.0 0.7732993103486648 -0.5868636888183498
4522000000.0 0.7837548409241017 -0.6143441538594736
4525000000.0 0.8157150044573744 -0.6039982069124554
4528000000.0 0.7845821413924352 -0.6590146209698188
4531000000.0 0.7991665030731474 -0.6376736508994048
4534000000.0 0.768716762171774 -0.6555718517134794
4538000000.0 0.7626390010239605 -0.6507964903050953
4541000000.0 0.7166428235298432 -0.6951223791342439
4544000000.0 0.7432283643663344 -0.6555655114159525
4547000000.0 0.7332121765815972 -0.6519453121170149
4550000000.0 0.7186001127965485 -0.7081653129343766
4553000000.0 0.7177912200056653 -0.6992738155039512
4556000000.0 0.7246761985044679 -0.6979120439107406
4559000000.0 0.7184455186271036 -0.7254814703309473
4562000000.0 0.7248746225322036 -0.7358309508528075
4566000000.0 0.6868127145149869 -0.7370257817142447
4569000000.0 0.6817250581233303 -0.739819513074369
4572000000.0 0.6827154008000323 -0.7359879228098039
4575000000.0 0.6674901993915492 -0.7489166610590609
4578000000.0 0.6865958066298408 -0.7426203301507555
4581000000.0 0.6413346084722515 -0.7730097128529649
4584000000.0 0.6426174463234924 -0.7610430414970584
4588000000.0 0.6580045815105472 -0.7650383772172394
4591000000.0 0.6478267145296648 -0.7591012310505926
4594000000.0 0.6221740662340507 -0.7848843583608323
4597000000.0 0.6367681739034048 -0.8054524185966373
4600000000.0 0.6113181180938608 -0.8047599183109359
4603000000.0 0.6024983088447982 -0.8180223164565371
4606000000.0 0.6189734064296386 -0.8104068647935356
4609000000.0 0.6161479094461683 -0.8068088752993683
4612000000.0 0.5870794914655061 -0.8140954370987626
4616000000.0 0.5722894214620449 -0.8203899582316851
4619000000.0 0.5714447263351164 -0.8360361700946514
4622000000.0 0.5582041759600712 -0.8367835371149965
4625000000.0 0.5227764704813314 -0.833669602187292
4628000000.0 0.5692909546567273 -0.8407322055439213
4631000000.0 0.540854560200993 -0.8729079441058533
4634000000.0 0.5306147988639272 -0.8332185303681131
4638000000.0 0.5464707245483011 -0.8576515151063709
4641000000.0 0.5259790284386792 -0.8719558531590805
4644000000.0 0.5097468895475235 -0.8600975917795983
4647000000.0 0.5171048536755869 -0.8771123563401825
4650000000.0 0.4892985057130923 -0.8846579457145525
4653000000.0 0.520790007087339 -0.8928763498085792
4656000000.0 0.4883157155362001 -0.8830446012639142
4659000000.0 0.46679333695114233 -0.9162844156368228
4662000000.0 0.4629623322599517 -0.9107585923353103
4666000000.0 0.4348525319091773 -0.9094436637060426
4669000000.0 0.4511044817138043 -0.9290463110318539
4672000000.0 0.43242173539205886 -0.911458998125777
4675000000.0 0.4166026443956055 -0.9349138251534023
4678000000.0 0.4111478418834699 -0.8974051546195657
4681000000.0 0.3997064740008659 -0.9705041225945916
4684000000.0 0.37923546178013745 -0.9223182224276121
4688000000.0 0.36998858391730055 -0.9358738298469311
4691000000.0 0.3950979363663333 -0.9526906615439761
4694000000.0 0.41834436169694134 -0.9166182223246382
4697000000.0 0.3271706459787227 -0.9056203189348886
4700000000.0 0.3801113248851835 -0.9512268417006842
4703000000.0 0.3747438891261596 -0.9224677147723184
4706000000.0 0.32507536469311477 -0.9854354036957642
4709000000.0 0.33076086703535407 -0.9449289304099141
4712000000.0 0.3346513481497386 -0.9604333914312485
4716000000.0 0.3220496941834998 -0.9760835597592694
4719000000.0 0.31970099450712375 -0.971632196320743
4722000000.0 0.29873725678535995 -0.9443993193515889
4725000000.0 0.3020361330610632 -0.9850993845327418
4728000000.0 0.26229232860865365 -0.9728210205069803
4731000000.0 0.3256280704973758 -1.0043105895314046
4734000000.0 0.26552083717062847 -0.9601686754075475
4738000000.0 0.2781649149947772 -1.0339920222676595
4741000000.0 0.24719996616497356 -1.0463971340280904
4744000000.0 0.21614558210756474 -1.003073971041585
4747000000.0 0.2179329444734996 -0.9467058413250059
4750000000.0 0.20914791905169333 -1.009192492708092
4753000000.0 0.2101408739249835 -1.025209129499109
4756000000.0 0.19975863096381652 -1.0313890171187643
4759000000.0 0.19727290629272237 -1.0202705269920385
4762000000.0 0.1536586806073344 -1.0212398086888113
4766000000.0 0.18324504921304105 -1.0180563134729113
4769000000.0 0.1766700403457853 -1.0132128496628507
4772000000.0 0.1579293571961887 -1.022475093159973
4775000000.0 0.12755777065222418 -1.061097754692692
4778000000.0 0.13199842951105806 -1.0111101532885691
4781000000.0 0.14599574710042157 -1.0228611365480014
4784000000.0 0.1345423815806834 -1.0409267793980426
4788000000.0 0.12181860007656012 -1.038074921441469
4791000000.0 0.09216700120709845 -1.0108925380322318
4794000000.0 0.13166202980958905 -1.0517877708421024
4797000000.0 0.061567633614332845 -1.0121413127999757
4800000000.0 0.049739198489133246 -0.9836192661779997
4803000000.0 0.0359136296776624 -1.021712552778018
4806000000.0 0.03599955404497712 -1.0187778550715698
4809000000.0 -0.0021731101535727437 -1.0215641924051235
4812000000.0 -0.006243185954980468 -1.0330523944162036
4816000000.0 0.049474380426809295 -1.0031432474188224
4819000000.0 0.03669061434513754 -1.0334376565843524
4822000000.0 0.03464441326574988 -1.059896726260302
4825000000.0 0.005645630589264927 -1.060680232444582
4828000000.0 -0.01665298618491859 -1.0257701388455969
4831000000.0 -0.05809161013857543 -1.037603134184101
4834000000.0 -0.011291014632744428 -1.0283540611520798
4838000000.0 -0.05738081177261044 -1.0399684407008745
4841000000.0 -0.05941917433489417 -1.013616136365568
4844000000.0 -0.029523239295134757 -1.042840181000392
4847000000.0 -0.05155590993535106 -0.9994755382147396
4850000000.0 -0.09794091711540948 -1.0550436330209807
4853000000.0 -0.09492164871836459 -0.9861305519588093
4856000000.0 -0.08829513954800242 -1.0167744709719
4859000000.0 -0.12592966372148748 -1.0753342423341996
4862000000.0 -0.07403160935039658 -1.0066241494251358
4866000000.0 -0.1531426158940539 -1.0037859756212688
4869000000.0 -0.14213465555644966 -1.0151897043500009
4872000000.0 -0.19181650992584062 -1.03730098867753
4875000000.0 -0.1155727699112346 -1.0617896201306558
4878000000.0 -0.1512533939062116 -1.0249041130006988
4881000000.0 -0.2146554231115914 -1.1104968565757727
4884000000.0 -0.15662019536410762 -1.0195586209067533
4888000000.0 -0.1452113742001308 -1.0178622553268666
4891000000.0 -0.14463535786890044 -1.0253186102485512
4894000000.0 -0.23082866747333883 -0.980027478249161
4897000000.0 -0.17239419716450807 -1.0009695591296761
4900000000.0 -0.2501385435717771 -1.0303290786100652
4903000000.0 -0.18447889640764142 -1.0167844305541367
4906000000.0 -0.2562105795476522 -1.0602204573862994
4909000000.0 -0.23249704975926036 -0.9909545030244369
4912000000.0 -0.29028655083246596 -1.031516031314987
4916000000.0 -0.258730604989834 -1.0230832575442033
4919000000.0 -0.25846961498114396 -1.00602140897738
4922000000.0 -0.23044699338897703 -0.9982601605110375
4925000000.0 -0.3084637393322407 -0.9954605691825956
4928000000.0 -0.22616059712418402 -0.988594362741026
4931000000.0 -0.30892353144390666 -1.024475518821275
4934000000.0 -0.32095943081942235 -0.9329963268498823
4938000000.0 -0.33892127923542903 -0.9552616664685389
4941000000.0 -0.33084476753957454 -0.9504109602092805
4944000000.0 -0.3262253608115243 -0.926193510996999
4947000000.0 -0.32247305185978803 -0.9659543794890627
4950000000.0 -0.34019433301305024 -0.9712380232701419
4953000000.0 -0.37864281535949146 -0.9935476389344899
4956000000.0 -0.41297391081998974 -0.9633312602529788
4959000000.0 -0.4259061217676765 -0.9296966134837686
4962000000.0 -0.39370342517246903 -0.9896589834582192
4966000000.0 -0.39926336070616586 -1.0033192847933052
4969000000.0 -0.4121182328955193 -1.0074545356048752
4972000000.0 -0.39095092163526135 -0.941977259791347
4975000000.0 -0.41421315672265313 -0.9709446311584117
4978000000.0 -0.4723957826933388 -0.9272002672173124
4981000000.0 -0.4478467804080116 -0.9411305920663082
4984000000.0 -0.4422540839402559 -0.9352301904603733
4988000000.0 -0.4265852243245108 -0.929454343994679
4991000000.0 -0.4555864675950477 -0.974063149078691
4994000000.0 -0.45098238533322166 -0.9021805646522916
4997000000.0 -0.5224441251960812 -0.8908499439382412
5000000000.0 -0.5034768886946343 -0.9193459844410075
5003000000.0 -0.5411450739117216 -0.9354989753434713
5006000000.0 -0.5339083545998872 -0.963673591825554
5009000000.0 -0.5374446251291227 -0.8896795453598704
5012000000.0 -0.5221202968737846 -0.8690765545751458
5016000000.0 -0.5092486736006021 -0.9160175070001516
5019000000.0 -0.5720955706829788 -0.8765806413328542
5022000000.0 -0.5390496883007514 -0.8725869015700758
5025000000.0 -0.6024314516677378 -0.9089107917614047
5028000000.0 -0.5654652021661972 -0.8772363510911132
5031000000.0 -0.578646346308588 -0.8606309834314528
5034000000.0 -0.6249284316907766 -0.8854223379508411
5038000000.0 -0.5676981628044292 -0.8220835016403071
5041000000.0 -0.5647906725735385 -0.8781273002756267
5044000000.0 -0.564821272626665 -0.8790153389415046
5047000000.0 -0.6320951334260589 -0.8585611495174617
5050000000.0 -0.5316080222330491 -0.8284431447431593
5053000000.0 -0.6654743718856957 -0.8591401545510557
5056000000.0 -0.5902052583398336 -0.8485002703467909
5059000000.0 -0.6122321710801799 -0.8283564352446119
5062000000.0 -0.6733805993527117 -0.8350740237109644
5066000000.0 -0.6268241654791715 -0.852593924162035
5069000000.0 -0.6670577919075792 -0.8047895124677742
5072000000.0 -0.6217648027568424 -0.8099891588638606
5075000000.0 -0.6325122639623557 -0.7997321456899691
5078000000.0 -0.6737918394280351 -0.7749312974361202
5081000000.0 -0.6968735138891352 -0.7538636850150043
5084000000.0 -0.7134285311799575 -0.8116879909758674
5088000000.0 -0.7153271544651497 -0.7939445559616218
5091000000.0 -0.7113093541421744 -0.7329854385858088
5094000000.0 -0.7377736214027824 -0.7415992090860075
5097000000.0 -0.711458355590957 -0.7412774714413011
5100000000.0 -0.7015198897014179 -0.7542106736037238
5103000000.0 -0.7306282151455646 -0.700191083255444
5106000000.0 -0.7511174560754795 -0.7961525351960499
5109000000.0 -0.7039166969105087 -0.7071864966219006
5112000000.0 -0.7544897833020914 -0.7307946657749969
5116000000.0 -0.7585328644718141 -0.6779649544727115
5119000000.0 -0.8243121973008396 -0.6968066704752849
5122000000.0 -0.7778783953006545 -0.7008143510488654
5125000000.0 -0.7342011157548805 -0.7150381053323879
5128000000.0 -0.8477485279662963 -0.6852952303720483
5131000000.0 -0.7776783673432559 -0.68370628210088
5134000000.0 -0.8044311677131509 -0.6795138833769007
5138000000.0 -0.7771369500602429 -0.66607163500516
5141000000.0 -0.7813649758665626 -0.6772265749762709
5144000000.0 -0.8126855839799493 -0.6529511484892222
5147000000.0 -0.8539225385358528 -0.6381468934526251
5150000000.0 -0.8147315735235287 -0.6402574464540983
5153000000.0 -0.8488837131733553 -0.6465833300430212
5156000000.0 -0.8330349276692568 -0.6683715088881262
5159000000.0 -0.905243114641026 -0.6410298506829635
5162000000.0 -0.8920454056968524 -0.6036266713762598
5166000000.0 -0.8802991650453027 -0.5969745894303956
5169000000.0 -0.8580041281529615 -0.5886592649757024
5172000000.0 -0.8609162249056801 -0.6470987157775517
5175000000.0 -0.8469965903877167 -0.6153647808483572
5178000000.0 -0.8817608144934261 -0.5811452825520007
5181000000.0 -0.8823948672636197 -0.5604864379898167
5184000000.0 -0.8811815339127783 -0.56126771410304
5188000000.0 -0.916026111357774 -0.5310955391818964
