! Created with skrf 1.8.0 (http://scikit-rf.org).
# Hz S RI R 50.0 
!freq ReS11 ImS11
4000000000.0 0.6302233694234269 0.7960260490174322
4003000000.0 0.7125024645041219 0.8582629437376689
4006000000.0 0.7046978224813362 0.7741816598629891
4009000000.0 0.6802787253389413 0.75026464487546
4012000000.0 0.6579984770413277 0.8294824335246185
4016000000.0 0.7147503489988156 0.7322482154092418
4019000000.0 0.6565115648555289 0.755617970354771
4022000000.0 0.6837403687050112 0.7946668328000008
4025000000.0 0.7390062369397599 0.7118988540042614
4028000000.0 0.7472010365597416 0.7709321648457341
4031000000.0 0.6909534545669999 0.7276363314660762
4034000000.0 0.7064348062296619 0.7359204597464849
4038000000.0 0.7721861286689558 0.7159364215797819
4041000000.0 0.7370731414373176 0.7007945967420163
4044000000.0 0.7439278981940156 0.7495631278668202
4047000000.0 0.7553578956835163 0.7670486472620885
4050000000.0 0.7770638774166082 0.6779310284718367
4053000000.0 0.7636635737586014 0.6487544435216839
4056000000.0 0.7922715433607973 0.6779046632416826
4059000000.0 0.7432569226037304 0.6781269035870745
4062000000.0 0.7848888795957936 0.6563530492237726
4066000000.0 0.7782659156280012 0.6556456241009243
4069000000.0 0.8205785933797212 0.623732573908795
4072000000.0 0.7685386023656396 0.6619201140032649
4075000000.0 0.7716216114503736 0.6840853206189073
4078000000.0 0.8399776231180272 0.6413021622618528
4081000000.0 0.8172978785908078 0.7324330050105616
4084000000.0 0.8525573817427742 0.6341459349523828
4088000000.0 0.7698507677438388 0.6675048940459893
4091000000.0 0.9074435201589944 0.6601410806783494
4094000000.0 0.8295389114186171 0.6088378803052779
4097000000.0 0.8272425221928724 0.5866484304020017
4100000000.0 0.8337465816823542 0.6019717798660305
4103000000.0 0.871748197396605 0.588663901375523
4106000000.0 0.8776853304871846 0.5780485711325397
4109000000.0 0.8794567163643472 0.5292569569224994
4112000000.0 0.8422623400464666 0.5295454887365532
4116000000.0 0.8616385036663478 0.52988582735432
4119000000.0 0.8943286566172641 0.5766158150696327
4122000000.0 0.8618623450956704 0.539897013136238
4125000000.0 0.8839148766189547 0.5372356922239496
4128000000.0 0.8650673093462913 0.5263145276927924
4131000000.0 0.8808038332290054 0.5131666655559718
4134000000.0 0.8740812374527052 0.5202193446435855
4138000000.0 0.9105057808035926 0.44238903557585324
4141000000.0 0.8960083128761454 0.4972439509867608
4144000000.0 0.9251464724298786 0.49813911540191197
4147000000.0 0.9047268993849797 0.455622890744574
4150000000.0 0.9448200123260503 0.49979442129506774
4153000000.0 0.9260638057237666 0.4624848302573462
4156000000.0 0.9249596258214989 0.48197462062997876
4159000000.0 0.9268649201243482 0.45766937188098583
4162000000.0 0.9505124422191544 0.4520609864762808
4166000000.0 0.9275715737160901 0.4518597893448246
4169000000.0 0.9394907124144397 0.3985754778797812
4172000000.0 0.9219808187986952 0.42160405755816793
4175000000.0 0.9639447441696493 0.42174421607091245
4178000000.0 0.9334230386517013 0.4386749179787264
4181000000.0 0.9525777258629724 0.3823108291042264
4184000000.0 0.928210980373348 0.3871243155500757
4188000000.0 0.9493325449681667 0.37053014049309607
4191000000.0 0.9293423694246857 0.38720728231728
4194000000.0 0.9345702606193311 0.34349755033959717
4197000000.0 0.9676837868555639 0.3386904871280593
4200000000.0 0.9711153338806093 0.36402794537906946
4203000000.0 0.9650811087094394 0.3701845379497456
4206000000.0 0.9790924601998746 0.3538314590535157
4209000000.0 0.9541047396955347 0.335416660632691
4212000000.0 0.9794897813757623 0.28622307919885837
4216000000.0 0.9899076388518329 0.326135046495095
4219000000.0 0.9904740460042761 0.3150498053209382
4222000000.0 0.9886410848743683 0.266739482121768
4225000000.0 0.9820581353338274 0.2901259351114617
4228000000.0 0.9967013733020968 0.2653287850212138
4231000000.0 0.9836601632849493 0.2696878800906481
4234000000.0 1.0117856729554429 0.253532000099075
4238000000.0 1.007203285547472 0.2316848350390258
4241000000.0 0.9966491606050389 0.21899514332146153
4244000000.0 0.9896281857534962 0.24193745002625028
4247000000.0 1.0154129087681352 0.23036696199776152
4250000000.0 0.9848965891506187 0.21938034009897084
4253000000.0 0.9739663216350931 0.20333216914890329
4256000000.0 1.0246935244889561 0.2016817078246358
4259000000.0 0.9755088481470614 0.18483865647046352
4262000000.0 0.9931224437053323 0.1687212836892771
4266000000.0 1.0280018347247684 0.1464719336211372
4269000000.0 1.0031578380086197 0.17442922160408533
4272000000.0 0.9903838414762627 0.16533454197451208
4275000000.0 0.9965333623512869 0.15531635089018891
4278000000.0 1.0402494382228857 0.1460568690448815
4281000000.0 1.023078616163477 0.15395973822741255
4284000000.0 1.036570474879853 0.09174849048290637
4288000000.0 0.9967297193841987 0.14822358131265173
4291000000.0 0.9916098351705654 0.12005483416653094
4294000000.0 1.0042351933988045 0.10239936631445502
4297000000.0 1.0034057735183264 0.11613872130327925
4300000000.0 0.9806569474881284 0.07803097953770921
4303000000.0 0.9970775606789336 0.08095815423241635
4306000000.0 1.0025163647244533 0.08134021940189398
4309000000.0 1.0179910539379846 0.05934863718949111
4312000000.0 1.0433007397023408 0.08112537801290629
4316000000.0 1.0295770562673332 0.02905236039281471
4319000000.0 0.9988097258836801 0.039902749344787145
4322000000.0 0.995310096441719 -0.01221729263733641
4325000000.0 1.0167333458704453 0.024645214753773
4328000000.0 0.9912001869665334 -0.005704588119380197
4331000000.0 1.0206992226234988 -0.014089479885951675
4334000000.0 1.0119168835203114 -0.040317150330532375
4338000000.0 1.0031056790814747 -0.017509751215454367
4341000000.0 1.0500238780842979 -0.007247753573616886
4344000000.0 1.0354103281054001 -0.040925471377444594
4347000000.0 1.0197007808812646 -0.06793221698351833
4350000000.0 0.9798726750973132 -0.07526873359488492
4353000000.0 0.9981709307615207 -0.04506251312856477
4356000000.0 0.9992712471725871 -0.10204364558544754
4359000000.0 0.9728035815247156 -0.08716618564835858
4362000000.0 0.9822650359298424 -0.14147042309605412
4366000000.0 1.019557482784618 -0.09904065805043123
4369000000.0 0.9687879213641554 -0.1304163778729073
4372000000.0 0.9959129104568862 -0.15578853931148756
4375000000.0 1.0015131225133638 -0.12606731132094423
4378000000.0 0.9720103814079838 -0.12702044456535755
4381000000.0 0.987137802004648 -0.14039309983360332
4384000000.0 1.0577571898756766 -0.17609415453715194
4388000000.0 0.9883172028606468 -0.1489685924948973
4391000000.0 1.008541950090617 -0.1622045945631595
4394000000.0 0.9728420631823372 -0.17239518329742876
4397000000.0 0.9878352867982318 -0.19535395475622394
4400000000.0 0.9996947642997358 -0.2018391919895054
4403000000.0 0.9875186007274871 -0.21734159707876144
4406000000.0 0.993242949781562 -0.22618220680439013
4409000000.0 1.0233337869064345 -0.23650524643895332
4412000000.0 0.9594980685841347 -0.2851857210922834
4416000000.0 0.9586509161725836 -0.23919986496383144
4419000000.0 0.9732082316450353 -0.2793484396557511
4422000000.0 0.9779269301493805 -0.2469077790227821
4425000000.0 1.0010737267451226 -0.24483979740725423
4428000000.0 0.9771537699100308 -0.29527822855859404
4431000000.0 1.005364232411994 -0.2835821215732674
4434000000.0 0.9736119453374816 -0.29587329060176315
4438000000.0 0.988240187013391 -0.31923908734011264
4441000000.0 0.9762418719100829 -0.3283506721474296
4444000000.0 0.9456073965596064 -0.30733572035671475
4447000000.0 0.9437965978608955 -0.33576310934434894
4450000000.0 0.9570074349653428 -0.3068037718580958
4453000000.0 0.9800962728344536 -0.35717323034101134
4456000000.0 0.9146695537467663 -0.3520320618482824
4459000000.0 0.8972147431220707 -0.3543383873286807
4462000000.0 0.9928529951069782 -0.389924869502632
4466000000.0 0.966078213434057 -0.39453469959692833
4469000000.0 0.9550939626209908 -0.37469320643977116
4472000000.0 0.9405495401424039 -0.4316210089647781
4475000000.0 0.9034033477911882 -0.3891264284598047
4478000000.0 0.9557639002423931 -0.43575669629990277
4481000000.0 0.8928139178683805 -0.42620397095603574
4484000000.0 0.8859601158482504 -0.4586253870354765
4488000000.0 0.8991848032957213 -0.4327685305255499
4491000000.0 0.9072930364601993 -0.4451052740563748
4494000000.0 0.9057672379451347 -0.45654996112362295
4497000000.0 0.9060821997626964 -0.4447461129000884
4500000000.0 0.8892420152147809 -0.46102240288640634
4503000000.0 0.924074206689919 -0.49369322694745144
4506000000.0 0.8666549642951513 -0.4832097060457617
4509000000.0 0.8615615115823436 -0.48440872221842357
4512000000.0 0.8597289281620677 -0.5083387593026825
4516000000.0 0.9061946512474495 -0.5184452016332539
4519000000.0 0.8634632991282573 -0.4876816623422884
4522000000.0 0.8631563529730495 -0.535532825511162
4525000000.0 0.8747029224449419 -0.4921253561747393
4528000000.0 0.8794346550272936 -0.562209044606897
4531000000.0 0.852295565421715 -0.542121002483033
4534000000.0 0.8304817885175866 -0.5349736040381461
4538000000.0 0.8474320915830902 -0.5496435765250806
4541000000.0 0.7929955824026419 -0.5860057056617509
4544000000.0 0.8055852456318182 -0.5583360539836314
4547000000.0 0.8283611648694122 -0.5706394726495871
4550000000.0 0.813165046281819 -0.6110952081084208
4553000000.0 0.8097273321495524 -0.6057120024412032
4556000000.0 0.7789337322305028 -0.6195072067068756
4559000000.0 0.7838166174808897 -0.6151932025577509
4562000000.0 0.8210090570923365 -0.617354051536653
4566000000.0 0.7817519794158974 -0.6337889798847911
4569000000.0 0.7840941062215948 -0.6269014029017042
4572000000.0 0.7654500761892634 -0.6345713692363577
4575000000.0 0.7557710422397286 -0.6733921842709654
4578000000.0 0.8026763984559946 -0.6637914744275947
4581000000.0 0.7569273651624947 -0.6733626029359117
4584000000.0 0.7467716396597979 -0.6610659348837321
4588000000.0 0.766134083671694 -0.6848237186599461
4591000000.0 0.7526022184825107 -0.6719011170647886
4594000000.0 0.7268962834006254 -0.6934511555405019
4597000000.0 0.7379880808731762 -0.7158482503582416
4600000000.0 0.7109730333485126 -0.7187130076706085
4603000000.0 0.7235272412969298 -0.7284876710060451
4606000000.0 0.7299265393778483 -0.7251485177772427
4609000000.0 0.7108468659725281 -0.7205960652315289
4612000000.0 0.7108678206182543 -0.7344223550028343
4616000000.0 0.6756720839163308 -0.7498340631591563
4619000000.0 0.6879091299212476 -0.739298038550728
4622000000.0 0.6720097480437385 -0.7602683433988825
4625000000.0 0.636755560485466 -0.7470537243461944
4628000000.0 0.6921350380065892 -0.7662020720619347
4631000000.0 0.638242124883333 -0.7744009446957544
4634000000.0 0.6507623540281787 -0.7725347034704023
4638000000.0 0.6495046380244315 -0.7711358563250386
4641000000.0 0.6411857544563189 -0.7997556950392442
4644000000.0 0.6384735624712894 -0.7886693653869923
4647000000.0 0.6391162951831005 -0.8117759142731975
4650000000.0 0.5921577827674795 -0.7949115437991369
4653000000.0 0.6312631844788951 -0.8062245873699679
4656000000.0 0.5935870201297505 -0.8236788552777288
4659000000.0 0.5958379340018836 -0.8170310814221936
4662000000.0 0.598841363730814 -0.811505970613515
4666000000.0 0.5577735452398996 -0.8293239561193093
4669000000.0 0.5866339485219217 -0.8274630628523426
4672000000.0 0.5614837747486037 -0.8656216345900161
4675000000.0 0.5388284821002514 -0.8627072984192702
4678000000.0 0.54520272006588 -0.8250881752390276
4681000000.0 0.5237727628708522 -0.8925535965364156
4684000000.0 0.5297062957597294 -0.8543715449416401
4688000000.0 0.5143512865046735 -0.8742838289920704
4691000000.0 0.5393560226543127 -0.850596226020867
4694000000.0 0.512339106326245 -0.8573572840901817
4697000000.0 0.473050777809928 -0.8743462994779438
4700000000.0 0.4965221372714831 -0.8628382786146132
4703000000.0 0.5105497025032896 -0.8343624859946657
4706000000.0 0.4776704996169547 -0.8898960941276964
4709000000.0 0.4798395999878304 -0.9132334799863733
4712000000.0 0.4664179425767938 -0.9147514433428064
4716000000.0 0.4806047369933868 -0.9021819527031727
4719000000.0 0.46267877088474585 -0.9010323716875477
4722000000.0 0.45813253577962476 -0.9087575843826989
4725000000.0 0.4426326490409821 -0.9174597324121995
4728000000.0 0.417829687949282 -0.9178136163004753
4731000000.0 0.43379095507465154 -0.9402116777524019
4734000000.0 0.4287504071855502 -0.9085275763506767
4738000000.0 0.4568527550919292 -0.979120607069811
4741000000.0 0.39821585837494394 -0.9865761869462037
4744000000.0 0.39435177690338713 -0.9504818535287392
4747000000.0 0.39081286318877495 -0.9012644509288686
4750000000.0 0.3909395585310046 -0.9724589992103072
4753000000.0 0.37449001442665286 -0.9397939276933689
4756000000.0 0.34856176979887754 -0.9725913196197096
4759000000.0 0.3686513898202925 -0.9717545293315086
4762000000.0 0.32610219284537395 -0.9836280562165741
4766000000.0 0.2986488819614042 -0.9699818667999067
4769000000.0 0.3307877615896574 -0.9734975845067119
4772000000.0 0.33827488959988666 -0.9921224958953275
4775000000.0 0.31807154136275023 -1.0203656738838012
4778000000.0 0.2836200355551934 -0.9803321498817904
4781000000.0 0.3290558315925386 -0.9827619047950416
4784000000.0 0.29304638353429346 -0.9757228998410968
4788000000.0 0.25999816054835967 -1.012591380316188
4791000000.0 0.25626671474128143 -0.9880486659005238
4794000000.0 0.2838924444329475 -1.0209726416886329
4797000000.0 0.23552420710589062 -0.9796646778186279
4800000000.0 0.22050299680810906 -0.9793463054903115
4803000000.0 0.18406076929498277 -1.0131158455576006
4806000000.0 0.24744796973869454 -1.0204626372774512
4809000000.0 0.18262652900674034 -1.0008921379672389
4812000000.0 0.1721306193613408 -0.9992551284164111
4816000000.0 0.2183193951734525 -0.9665366074125536
4819000000.0 0.20099095793177094 -1.0217387122276735
4822000000.0 0.20366431842234406 -1.0387960092176858
4825000000.0 0.19424332812145537 -1.027866211109048
4828000000.0 0.16579153406238636 -0.9954074848564743
4831000000.0 0.1166554251038406 -1.0275384321734315
4834000000.0 0.160526251420438 -1.016697252849366
4838000000.0 0.10714806797383511 -1.0308287381903838
4841000000.0 0.11617304974254371 -1.0121025040923572
4844000000.0 0.15772091437874788 -1.0104375219953179
4847000000.0 0.13285644068488708 -1.0020485931697387
4850000000.0 0.07825908388213647 -1.048041554276166
4853000000.0 0.09794111112091163 -1.0080486929188202
4856000000.0 0.08419337388131852 -0.9958349722986796
4859000000.0 0.05945477921661694 -1.0435133583598377
4862000000.0 0.09155204639493726 -0.9982819552838041
4866000000.0 0.03679744129945879 -1.0605820304200702
4869000000.0 0.031950645315965864 -1.033395707865714
4872000000.0 0.01718033083051671 -1.057799902430331
4875000000.0 0.10317108841377132 -1.0912574435354374
4878000000.0 0.03778854635319964 -1.0447326086255768
4881000000.0 0.003450622207344949 -1.082521042232855
4884000000.0 0.0429394808123996 -1.040194359608462
4888000000.0 0.05731376842845133 -1.0428019613364612
4891000000.0 0.04457461433235771 -1.0467189987564407
4894000000.0 -0.03665272067720376 -1.0512211966268445
4897000000.0 0.025268431667140878 -1.0461858449869805
4900000000.0 -0.023765957984836675 -1.0540938102130781
4903000000.0 -0.021673918605315153 -1.0337171165793222
4906000000.0 -0.04650928658066692 -1.0648052304211706
4909000000.0 -0.07762032017640982 -1.044193993392731
4912000000.0 -0.0763512729471775 -1.0696163962710963
4916000000.0 -0.07113241469662773 -1.0349294873867931
4919000000.0 -0.048137956183011185 -1.0896283753097609
4922000000.0 -0.08217026243799677 -1.0593415569795317
4925000000.0 -0.1387773620746216 -1.0342258692032462
4928000000.0 -0.06682597953577558 -0.987160507097663
4931000000.0 -0.06821671845379186 -1.064277530714076
4934000000.0 -0.1063898333353865 -0.9790662085986038
4938000000.0 -0.190289566840453 -1.000759971361599
4941000000.0 -0.12823060123211827 -0.9636783675544314
4944000000.0 -0.11589753345825954 -0.956773032899833
4947000000.0 -0.1409447123775247 -0.9960098811820004
4950000000.0 -0.14192112854813493 -1.0118511994709658
4953000000.0 -0.19292865932201575 -1.0486928795321726
4956000000.0 -0.18930135495101108 -1.0108959363746186
4959000000.0 -0.20613309141408218 -0.9975709410204654
4962000000.0 -0.22882806251109308 -1.0675442502636572
4966000000.0 -0.17657409041777727 -1.0119447561096273
4969000000.0 -0.1902162663384409 -1.0872989213861568
4972000000.0 -0.2478277229453161 -1.0361304496218218
4975000000.0 -0.1901733113424127 -1.0128039220210319
4978000000.0 -0.2455825599832882 -1.0105845788031567
4981000000.0 -0.2724067477875147 -1.0285887068645645
4984000000.0 -0.24208707897324874 -0.9654177864504422
4988000000.0 -0.22583871385173354 -0.9904871564724792
4991000000.0 -0.21336580790655668 -1.0303984072739691
4994000000.0 -0.25643261423084157 -0.9973516742830622
4997000000.0 -0.29174195119828544 -0.9971651514787975
5000000000.0 -0.28763275454153026 -1.0358435768326677
5003000000.0 -0.3102063659445496 -0.9978384647685445
5006000000.0 -0.3335265069722262 -1.0288620186162603
5009000000.0 -0.3173274818371984 -0.9996045639071437
5012000000.0 -0.3231261254395958 -0.9588304632788547
5016000000.0 -0.3259381792439125 -1.0106147203553397
5019000000.0 -0.37747420343845683 -0.9808700672889865
5022000000.0 -0.341349637446987 -0.9669209144533017
5025000000.0 -0.36669953771459646 -1.0092613961092034
5028000000.0 -0.4053487248236761 -0.971290805441507
5031000000.0 -0.3822748643871354 -0.9898781441448147
5034000000.0 -0.44861115699786847 -0.9841883077713711
5038000000.0 -0.3604135826965099 -0.9166383739498436
5041000000.0 -0.38587449146401265 -0.9778932779333332
5044000000.0 -0.35294093547950034 -0.9572250503979541
5047000000.0 -0.4088517334707376 -0.9779327854806931
5050000000.0 -0.33656287460002143 -0.9754501644178029
5053000000.0 -0.4561319310150137 -0.9915825084429708
5056000000.0 -0.4197231712142355 -0.9775664415735621
5059000000.0 -0.43228052801640365 -0.9623202212198204
5062000000.0 -0.5131760902596654 -0.9470807373582839
5066000000.0 -0.4259250875410874 -0.9344201264964007
5069000000.0 -0.45866349835541087 -0.9425471362859349
5072000000.0 -0.48054684036459017 -0.9141714907537861
5075000000.0 -0.42700827000729946 -0.929169032262855
5078000000.0 -0.5423093458627404 -0.9154782105775385
5081000000.0 -0.5171291043798587 -0.8873443593240301
5084000000.0 -0.5203044465400272 -0.9305076915436306
5088000000.0 -0.4943300829886482 -0.9366524831259928
5091000000.0 -0.5605152047134045 -0.918803733458111
5094000000.0 -0.5198646532818598 -0.9021166108052773
5097000000.0 -0.5244861919411797 -0.9096037101578178
5100000000.0 -0.5218732755063737 -0.8944790839233469
5103000000.0 -0.5471934204962527 -0.8546240816053524
5106000000.0 -0.5462631328052019 -0.9641987497380795
5109000000.0 -0.5116593934679607 -0.8892270365692223
5112000000.0 -0.5736027947329904 -0.8707616444414872
5116000000.0 -0.5600469062515174 -0.8517485781074958
5119000000.0 -0.6075043078905806 -0.8358587269747777
5122000000.0 -0.5809219264560185 -0.8634044315057039
5125000000.0 -0.5687489465147363 -0.8383629982574452
5128000000.0 -0.6072176526555024 -0.8121651599020185
5131000000.0 -0.5980457796097851 -0.822311555649727
5134000000.0 -0.5840284675062652 -0.8235141621220319
5138000000.0 -0.5838731585762797 -0.8703065085043477
5141000000.0 -0.6165403625433712 -0.8656618671937777
5144000000.0 -0.6095331698084157 -0.8463953970320466
5147000000.0 -0.6427537738996514 -0.877966458946791
5150000000.0 -0.6137912213164459 -0.8789433991319173
5153000000.0 -0.6732286766047537 -0.8428637071937871
5156000000.0 -0.6518956387613523 -0.7974177874845416
5159000000.0 -0.6752673841302189 -0.8253829150529866
5162000000.0 -0.6932198495638372 -0.7701715851030633
5166000000.0 -0.7156552727826172 -0.824988741097745
5169000000.0 -0.694116212890348 -0.8307125841547656
5172000000.0 -0.694464326552403 -0.7887246199516275
5175000000.0 -0.6918115081135192 -0.8218550105575494
5178000000.0 -0.7347923795564135 -0.7856252770663928
5181000000.0 -0.7258997084144707 -0.813758049721108
5184000000.0 -0.695127855351689 -0.7478637861580626
5188000000.0 -0.7322314099170973 -0.7816758782734545
