! Created with skrf 1.8.0 (http://scikit-rf.org).
# Hz S RI R 50.0 
!freq ReS11 ImS11
4000000000.0 0.9416037164121877 0.405629186985273
4003000000.0 0.9381712765572087 0.4530693783750016
4006000000.0 0.9640479155634545 0.36306407881863934
4009000000.0 0.9631554437695004 0.3905691312304944
4012000000.0 0.9886742286788303 0.405933359447208
4016000000.0 0.9575618374111285 0.33569960545139665
4019000000.0 0.9529179951919957 0.37382083778139474
4022000000.0 0.972378947740002 0.33395271063880616
4025000000.0 1.0102171039659433 0.28618784246620466
4028000000.0 0.9896204316827923 0.27577322881669697
4031000000.0 0.9498276862498984 0.3153913292906566
4034000000.0 0.950329337923913 0.24255830362851138
4038000000.0 0.9749919824878347 0.2845080225121834
4041000000.0 0.9684747209229269 0.2551041282998605
4044000000.0 1.0098813604013521 0.26816455663089844
4047000000.0 1.0562700944711518 0.24841195175691885
4050000000.0 1.0359162077483999 0.24145984340272816
4053000000.0 0.9831730795223286 0.2148700958664641
4056000000.0 0.9819116679326819 0.21686869517540994
4059000000.0 0.9779680395851813 0.1874115993455514
4062000000.0 1.0239638868891001 0.19362788843088807
4066000000.0 0.9458657588788482 0.16477966694496737
4069000000.0 1.0437718593472005 0.1265025732603534
4072000000.0 0.984937206902032 0.1460907880712785
4075000000.0 1.0535930329797065 0.11569620205502285
4078000000.0 1.0059842501344096 0.10506533803643309
4081000000.0 1.0037086851946664 0.1308854509174152
4084000000.0 1.0289576504408489 0.07835846902430071
4088000000.0 1.016706675599059 0.09546991232683266
4091000000.0 1.0507315615927773 0.08276963205498372
4094000000.0 0.9928075143628675 0.05064107358770098
4097000000.0 1.0233770278185412 0.04404660523633597
4100000000.0 1.008599675347227 0.023536514103746464
4103000000.0 1.0107752416476188 0.04896964442563079
4106000000.0 1.044028977074564 -0.02534725575255542
4109000000.0 1.026070119795857 -0.010088449830387536
4112000000.0 0.9994335147541638 -0.03403241383665406
4116000000.0 1.0048333729055923 -0.012446353156791656
4119000000.0 1.0282253171619629 -0.04592245346260304
4122000000.0 0.9821669689315952 -0.08333741372929387
4125000000.0 1.0163320360068435 -0.07536983175379786
4128000000.0 0.9931346747757165 -0.06815943374089173
4131000000.0 0.9972342315143612 -0.11829401117597238
4134000000.0 1.002890304873433 -0.07041538719339452
4138000000.0 0.9981134371668923 -0.12222731610345672
4141000000.0 1.0029442062795502 -0.12004528082648869
4144000000.0 1.0131959940652466 -0.12503311492778288
4147000000.0 1.0155970478344047 -0.1782622973795575
4150000000.0 1.0156804315164798 -0.20987919447656073
4153000000.0 0.9776660812779902 -0.1838454465560548
4156000000.0 1.0112919060175252 -0.19902714561008866
4159000000.0 0.9591054638785828 -0.20551574227302974
4162000000.0 0.9877309597252832 -0.22426924417951627
4166000000.0 0.9990693573763765 -0.24626091887262336
4169000000.0 0.9614963253743941 -0.2553161312034776
4172000000.0 0.9857370075712653 -0.2797244772940868
4175000000.0 1.0092637513965785 -0.28887110266362775
4178000000.0 0.9713147434173458 -0.29039523101288306
4181000000.0 0.9309732980767431 -0.3300350343784323
4184000000.0 0.9303673832025796 -0.2935158080986628
4188000000.0 0.9385803165117885 -0.345210832362473
4191000000.0 0.9489274852510688 -0.32342999136743195
4194000000.0 0.9330744135823014 -0.3721532894415433
4197000000.0 0.9408836127045711 -0.3651859317092856
4200000000.0 0.9574908007979215 -0.3557580856953612
4203000000.0 0.9596100701462055 -0.4002546584665485
4206000000.0 0.9218214702925704 -0.4022455685020098
4209000000.0 0.8930580273608543 -0.43312989296361826
4212000000.0 0.882092712151001 -0.46139815356531644
4216000000.0 0.9446207331480161 -0.4528972669396997
4219000000.0 0.9189198983208677 -0.45996047271587864
4222000000.0 0.8749626203083609 -0.46647638909256844
4225000000.0 0.8749654167520027 -0.4892130292434401
4228000000.0 0.8567579979292657 -0.5111938093331697
4231000000.0 0.8636924324600832 -0.5502245761247992
4234000000.0 0.8484225304442068 -0.5718554072855658
4238000000.0 0.834897564551509 -0.5563555474312354
4241000000.0 0.7874821498785187 -0.5559247063088232
4244000000.0 0.804138770019167 -0.5789999377423416
4247000000.0 0.8170398851132232 -0.580394583203903
4250000000.0 0.7903113815938139 -0.5903587068627005
4253000000.0 0.781644291636459 -0.6085453227962979
4256000000.0 0.841957413229216 -0.6591896720852526
4259000000.0 0.7373252521443444 -0.6420475841092101
4262000000.0 0.7456638149098016 -0.6615680431905541
4266000000.0 0.7420154091810944 -0.71594704630204
4269000000.0 0.7327659156700621 -0.6608966389354216
4272000000.0 0.7318847969785275 -0.6510352085835878
4275000000.0 0.762560518277636 -0.6847158407019251
4278000000.0 0.7522695194579754 -0.7481800102155605
4281000000.0 0.7153644569707852 -0.7185062942456626
4284000000.0 0.6668850450029349 -0.7538040479270262
4288000000.0 0.6835570764705596 -0.7212019904241032
4291000000.0 0.6474351539565819 -0.7539037608645942
4294000000.0 0.6489231010603962 -0.7619618224905246
4297000000.0 0.6646727365863513 -0.7289850630654849
4300000000.0 0.6142681590897447 -0.7697226769674859
4303000000.0 0.6050435801586139 -0.8119970118055027
4306000000.0 0.6230590213529479 -0.8088167990737177
4309000000.0 0.6010861125012122 -0.800370833921704
4312000000.0 0.6064117613027421 -0.8076733046380186
4316000000.0 0.5644213762244188 -0.8045904629638096
4319000000.0 0.5370964327799004 -0.8301563900833318
4322000000.0 0.5043919417292176 -0.8711226331301198
4325000000.0 0.5165121016382884 -0.890696295882143
4328000000.0 0.47962481894679165 -0.8587713618362545
4331000000.0 0.45697385729347023 -0.8947100566952737
4334000000.0 0.452519689563377 -0.9074744286405233
4338000000.0 0.4516816041195008 -0.8913539320647894
4341000000.0 0.4490506465428695 -0.9022650176241472
4344000000.0 0.43133846912806006 -0.9317677455581211
4347000000.0 0.381281236806019 -0.9309904111719837
4350000000.0 0.35439217832785286 -0.9355106369821511
4353000000.0 0.35890405401339637 -0.9262532958108883
4356000000.0 0.30910724160174763 -0.9602467485939586
4359000000.0 0.3029340743128572 -0.9401366416858767
4362000000.0 0.2876497314453085 -0.9801954381227024
4366000000.0 0.2863571832597935 -0.9866600732950662
4369000000.0 0.26428548921129164 -0.9652138925056559
4372000000.0 0.23891958762907523 -0.9769871145158937
4375000000.0 0.2345758151791409 -0.9826594312465822
4378000000.0 0.2108102285794894 -0.9913924695846387
4381000000.0 0.1739650695040735 -0.9796143204571474
4384000000.0 0.1617016406348577 -1.0225602913170242
4388000000.0 0.13396439738143462 -1.0021133994695166
4391000000.0 0.11377845249074262 -1.0089838198366545
4394000000.0 0.08447788899053167 -1.0246623268329063
4397000000.0 0.08183307442713789 -1.0293563749253525
4400000000.0 0.050914947819077086 -1.0127508707689103
4403000000.0 0.037477435752394275 -1.0338281864870162
4406000000.0 -5.080976102916912e-05 -1.0239537933175482
4409000000.0 -0.016291901152121396 -1.013484577161805
4412000000.0 -0.013726414594487812 -0.9999321398975283
4416000000.0 -0.037731962717671375 -0.9952153452569475
4419000000.0 -0.08136504941298714 -1.0155944061781694
4422000000.0 -0.08756704500662793 -1.0198713226697569
4425000000.0 -0.14898824785834053 -1.0231583406377702
4428000000.0 -0.14576668462820774 -1.0171292715562683
4431000000.0 -0.1340970555223283 -0.9880778507885021
4434000000.0 -0.19820190404033527 -0.9890204899617177
4438000000.0 -0.2143610385030743 -1.0027957562296788
4441000000.0 -0.27630141190877905 -0.9741419732874774
4444000000.0 -0.26278230757246773 -1.0090910757124187
4447000000.0 -0.2862334136158916 -0.9941234845804632
4450000000.0 -0.3383790227491894 -0.9843766995718158
4453000000.0 -0.3026269276874588 -0.9253876916656494
4456000000.0 -0.3641672696777061 -0.9525398895144346
4459000000.0 -0.36208106271334456 -1.0031481084307048
4462000000.0 -0.4205716148053666 -0.9194849997941451
4466000000.0 -0.43415615975498756 -0.9550015331480368
4469000000.0 -0.46645831108592317 -0.8823340392196648
4472000000.0 -0.46754114412709524 -0.8693761278391544
4475000000.0 -0.54534229477591 -0.8905632919730747
4478000000.0 -0.4976822174351928 -0.8454531320402143
4481000000.0 -0.5434206638925659 -0.8827362881537137
4484000000.0 -0.5781242666646094 -0.8762975882802272
4488000000.0 -0.6314643741760768 -0.8659742862946319
4491000000.0 -0.610758949231885 -0.839377639148262
4494000000.0 -0.6328943964503779 -0.8494598406720006
4497000000.0 -0.6734249988076804 -0.781973328514929
4500000000.0 -0.6825536903540768 -0.7563854895943449
4503000000.0 -0.7296270287751461 -0.7429893979831366
4506000000.0 -0.724263789081782 -0.7527568900202556
4509000000.0 -0.7573475522132274 -0.6818254667273667
4512000000.0 -0.7385376839692636 -0.6962386222787812
4516000000.0 -0.7979130642101174 -0.6505505645263331
4519000000.0 -0.8219991356484988 -0.6153500512692609
4522000000.0 -0.7849188500849185 -0.643410980508159
4525000000.0 -0.8976400256609833 -0.5854632184418558
4528000000.0 -0.8235204686535822 -0.5775190117593162
4531000000.0 -0.8788954730863103 -0.5069267858503781
4534000000.0 -0.9157688104851932 -0.5191985088242124
4538000000.0 -0.8989828289074435 -0.5139062171435448
4541000000.0 -0.9060545306781665 -0.4556625436460656
4544000000.0 -0.9606997826388102 -0.4286634762050763
4547000000.0 -0.9740255486341556 -0.38087095370950486
4550000000.0 -0.969370176123983 -0.43446039835321265
4553000000.0 -0.9761555158969726 -0.32725965000361124
4556000000.0 -1.0217476178158917 -0.37012906340569085
4559000000.0 -0.9976645426734717 -0.3109321782470771
4562000000.0 -0.9784898787963103 -0.25964837186765366
4566000000.0 -0.9906832666712342 -0.25026240844344205
4569000000.0 -1.0745725182419261 -0.1943480627973951
4572000000.0 -1.0178316884647975 -0.15771349799994394
4575000000.0 -0.969800890912373 -0.148755999716494
4578000000.0 -1.020923571962001 -0.11168582063389254
4581000000.0 -1.0023859491001736 -0.08196294792185006
4584000000.0 -1.039912960432223 -0.027559064045024124
4588000000.0 -1.0132491140419448 0.02368373975712922
4591000000.0 -1.0506862950769542 0.06841192254070388
4594000000.0 -1.0512168074421693 0.04106874697703715
4597000000.0 -1.0303173785793476 0.10929870507046038
4600000000.0 -1.0943943027308227 0.11143237024363767
4603000000.0 -0.9605632155061806 0.19374858549831053
4606000000.0 -1.0498309250675364 0.19067459756390415
4609000000.0 -1.0023683319947174 0.23462917780793807
4612000000.0 -0.9608602618558262 0.2501412310693779
4616000000.0 -1.0118851710155545 0.3200745790136982
4619000000.0 -0.987192539124026 0.39932671294431055
4622000000.0 -0.9665182535583382 0.4222782381080083
4625000000.0 -1.014476543822457 0.39390842146927163
4628000000.0 -0.9895591349272328 0.477240468107267
4631000000.0 -0.9821312289624977 0.4709011286213361
4634000000.0 -0.9192154118275999 0.5089274969609752
4638000000.0 -0.9182933984452739 0.5308456413440968
4641000000.0 -0.8331151894490407 0.591480219720213
4644000000.0 -0.8194403707206599 0.5847324117526734
4647000000.0 -0.8458810884910296 0.586336969026425
4650000000.0 -0.7743190861944422 0.6129736312509121
4653000000.0 -0.6940327388206683 0.656982055404453
4656000000.0 -0.8004247826198294 0.7227161923588803
4659000000.0 -0.7253605816594255 0.7193385878449116
4662000000.0 -0.7004783784549063 0.7403052509768627
4666000000.0 -0.7010355152008667 0.8047493986580068
4669000000.0 -0.6347010133630773 0.8339626255755597
4672000000.0 -0.6491998347737803 0.8740744081245909
4675000000.0 -0.5545478218040842 0.8512416012299531
4678000000.0 -0.6041686537401338 0.8208210333019549
4681000000.0 -0.44194570615763784 0.8850641606246542
4684000000.0 -0.5498857339906117 0.8317191901775924
4688000000.0 -0.48512440952122976 0.9065670550389597
4691000000.0 -0.4718202004995139 0.8661963735401568
4694000000.0 -0.4531409152691237 0.9750318816640537
4697000000.0 -0.37596794200934985 0.9293234798388594
4700000000.0 -0.37656840576638506 0.9933352688665367
4703000000.0 -0.3366119051767377 0.9556697551531139
4706000000.0 -0.3470049551640832 0.9471467815710471
4709000000.0 -0.3120466202795761 0.9847287736219071
4712000000.0 -0.2304832193396556 0.979812302492366
4716000000.0 -0.19244400042237977 1.0114123368685595
4719000000.0 -0.14671497577969933 1.015633877976547
4722000000.0 -0.14700759613165054 1.0808978769294701
4725000000.0 -0.09337063363519543 1.0078262667230475
4728000000.0 -0.06882342794336788 1.0474419898411538
4731000000.0 -0.06141305370783484 1.0107166758593336
4734000000.0 -0.009913908378160419 1.0239457104445415
4738000000.0 0.0175605374886309 0.9950503480116646
4741000000.0 0.0653257471596663 0.9691597700997376
4744000000.0 0.11245672045060545 1.0278133483203993
4747000000.0 0.13117889305552813 1.0647683170951996
4750000000.0 0.1607617992156907 0.9672795897442723
4753000000.0 0.23380473955059047 1.020632874170001
4756000000.0 0.24494266195211206 0.9770766729451412
4759000000.0 0.24726882667176558 0.9976643103164388
4762000000.0 0.24948422881957724 0.9720615066679862
4766000000.0 0.3068706261756846 0.9163754367396895
4769000000.0 0.3491665090208419 1.008554207655685
4772000000.0 0.3749216066317577 0.939563906399576
4775000000.0 0.3945957967365483 0.9225780706122484
4778000000.0 0.3673978643739892 0.9291168488696222
4781000000.0 0.4548728906793955 0.9348180487756389
4784000000.0 0.46762888735104974 0.9180612330604242
4788000000.0 0.44979073063073394 0.9095734250053495
4791000000.0 0.5475576125670578 0.864015441100343
4794000000.0 0.5387664303119754 0.8088754818404478
4797000000.0 0.6126827932418318 0.8657872164268887
4800000000.0 0.6443501380389224 0.7925443365355032
4803000000.0 0.5936321725678453 0.8324206282768571
4806000000.0 0.6238951401447543 0.797953141054428
4809000000.0 0.6159528011024924 0.803335621112416
4812000000.0 0.6837813459100055 0.7807949016626979
4816000000.0 0.7283838918286052 0.701391690257934
4819000000.0 0.7247654715869931 0.6688385696112359
4822000000.0 0.7317313054988527 0.6577390171106237
4825000000.0 0.7649429095597136 0.6548660200069035
4828000000.0 0.7703067943758636 0.6291876228303954
4831000000.0 0.7383443522625286 0.6325618952995647
4834000000.0 0.8075941255201838 0.5668623027516625
4838000000.0 0.8353873126381063 0.5895562386071082
4841000000.0 0.8482590743454731 0.5401597690426908
4844000000.0 0.8463597041692166 0.5394264128809646
4847000000.0 0.9068648542529698 0.5400001143202039
4850000000.0 0.8820083160154344 0.49919560262594126
4853000000.0 0.8972090253624829 0.45453138495692186
4856000000.0 0.9083662200639773 0.4530868174139028
4859000000.0 0.900640071989768 0.41994697217922317
4862000000.0 0.9375906772864578 0.402153649651513
4866000000.0 0.9365182040483633 0.3962432099721759
4869000000.0 0.9281644535438276 0.3790223899648958
4872000000.0 0.9248413366716676 0.3375909528212335
4875000000.0 0.9642607975745184 0.29603606408242233
4878000000.0 0.990043244632451 0.28665440477851495
4881000000.0 0.9063512708062138 0.28075281815208236
4884000000.0 0.9970065196824157 0.24971686872307763
4888000000.0 1.0111722126948786 0.22390774362634336
4891000000.0 0.9735775677484291 0.18191496113916084
4894000000.0 0.9672786328688102 0.19013955873777805
4897000000.0 0.976167514252663 0.1500370331114063
4900000000.0 1.0086608327237712 0.08725625045548832
4903000000.0 1.013019293754336 0.11429866913178917
4906000000.0 1.0177079342771005 0.09434173349549589
4909000000.0 1.0001716828444713 0.06672720411011163
4912000000.0 0.9753928031599198 0.029030490838881297
4916000000.0 1.0009636208343196 0.01571120456071054
4919000000.0 0.991609368344016 -0.014970609892079247
4922000000.0 1.0257769999057653 -0.020380810696825465
4925000000.0 0.9843655118504459 -0.011278177408644723
4928000000.0 1.0136495642450907 -0.06222003742208296
4931000000.0 1.0235814936518817 -0.07705158412244825
4934000000.0 1.0029573159885465 -0.0758049035547757
4938000000.0 1.0180552688841238 -0.11539341558813884
4941000000.0 0.9833028175559844 -0.1498898859571955
4944000000.0 1.008514054632139 -0.13437338212644262
4947000000.0 0.9896025639171581 -0.16493668904856676
4950000000.0 1.0037340123882355 -0.19920943411675987
4953000000.0 0.9687075784086853 -0.21499992168561594
4956000000.0 0.9821060949665346 -0.2179577562657372
4959000000.0 0.9694221670452144 -0.2614459110276921
4962000000.0 0.9481802361831128 -0.27265071802779306
4966000000.0 0.9755924025776854 -0.27194741638915443
4969000000.0 0.952337663386167 -0.30805769660560717
4972000000.0 0.9698074797001238 -0.34020082684439934
4975000000.0 0.9445849133049738 -0.33439372758230046
4978000000.0 0.9451619315285416 -0.3571881370329421
4981000000.0 0.9245805308434737 -0.36536591442143357
4984000000.0 0.9433500227174906 -0.39355011737070866
4988000000.0 0.9109023474670219 -0.38845003632772956
4991000000.0 0.9574372332950525 -0.4135064036747351
4994000000.0 0.9171667330050344 -0.4088751066130161
4997000000.0 0.9252005156001646 -0.4403808985940348
5000000000.0 0.9225064051885519 -0.4630390304061112
5003000000.0 0.9060635227415079 -0.46559369168033427
5006000000.0 0.8898286729922412 -0.5132460998883746
5009000000.0 0.8631538155816766 -0.5033732241831943
5012000000.0 0.8482103852446752 -0.5238929500137102
5016000000.0 0.8754927972578885 -0.5390405188476295
5019000000.0 0.8015830183228015 -0.5393808736131426
5022000000.0 0.8327882391632586 -0.5519205133215421
5025000000.0 0.8756881413337083 -0.595988486949713
5028000000.0 0.845323604176478 -0.6104472014020615
5031000000.0 0.8042006462208103 -0.6033509377053389
5034000000.0 0.8334697044204608 -0.6517303041048154
5038000000.0 0.7648559760714075 -0.6342160139786431
5041000000.0 0.8078170131076482 -0.6044449194312642
5044000000.0 0.7568934742747824 -0.6164881908047117
5047000000.0 0.8039370919310243 -0.6812052654937648
5050000000.0 0.8047399710446552 -0.6211779475662726
5053000000.0 0.7614713829361415 -0.7154370105975614
5056000000.0 0.7499338153784763 -0.6502060264039151
5059000000.0 0.7888551024388402 -0.660462754012346
5062000000.0 0.7118802831359411 -0.7347708457381013
5066000000.0 0.7154852174328974 -0.679338456407199
5069000000.0 0.7323611099090184 -0.7377685694919481
5072000000.0 0.653688990804667 -0.7339521441791415
5075000000.0 0.6893957027894333 -0.7584216906958583
5078000000.0 0.6380763786273109 -0.8293671524056543
5081000000.0 0.5972644955618166 -0.7667186970898101
5084000000.0 0.6316170178987798 -0.8178250869288206
5088000000.0 0.6229168965124039 -0.7676786223484269
5091000000.0 0.6086569357754217 -0.893520422299759
5094000000.0 0.6092553734392089 -0.8125270679567169
5097000000.0 0.6588812639818894 -0.8278866688877144
5100000000.0 0.5677224267381823 -0.8558817385989222
5103000000.0 0.5703643375357007 -0.8438705387822837
5106000000.0 0.6137648613015403 -0.8947382632446945
5109000000.0 0.590062042505532 -0.8178789592533197
5112000000.0 0.5351927206076775 -0.8592202126381328
5116000000.0 0.5305688016869399 -0.8196878289221613
5119000000.0 0.575783986446311 -0.8510535541802831
5122000000.0 0.5128033776080343 -0.8948214507493466
5125000000.0 0.4950251526920382 -0.8859066545210516
5128000000.0 0.4918543039498216 -0.8922390725855178
5131000000.0 0.47326680573527574 -0.863735530161701
5134000000.0 0.47414872374913497 -0.9197532754231834
5138000000.0 0.4545809821166127 -0.8991369009501938
5141000000.0 0.4726009495847962 -0.9075334372121753
5144000000.0 0.49356588978613736 -0.9584129397450308
5147000000.0 0.4399925761500248 -0.9499354884304708
5150000000.0 0.4186564599279304 -0.9096108106919986
5153000000.0 0.38450123738093855 -0.9213416832852889
5156000000.0 0.4226065941227284 -0.994784326144177
5159000000.0 0.4183703013153529 -0.9699340302263517
5162000000.0 0.3658617188689728 -0.8977625493028406
5166000000.0 0.29553278915388775 -1.061284831553739
5169000000.0 0.3328129448463609 -1.0259407417912696
5172000000.0 0.27148055022401296 -0.9541790501924308
5175000000.0 0.36848279614831875 -1.0028553989891418
5178000000.0 0.3090789584474141 -0.9607518560069275
5181000000.0 0.3584610489437338 -1.0011065889766617
5184000000.0 0.2082149023630561 -0.9913721852128098
5188000000.0 0.3000970601525008 -0.977708940514505
