! Created with skrf 1.8.0 (http://scikit-rf.org).
# Hz S RI R 50.0 
!freq ReS11 ImS11
4000000000.0 0.6114165089865043 0.7690715383088507
4003000000.0 0.6609296641446746 0.8795140119988182
4006000000.0 0.657814298541298 0.7520595204626833
4009000000.0 0.673135037551975 0.7934217158192782
4012000000.0 0.5975686460511792 0.816129603944793
4016000000.0 0.6778776307162636 0.7470006360026129
4019000000.0 0.6496292517588671 0.7535073892668446
4022000000.0 0.6192792618392897 0.7907406163193269
4025000000.0 0.73136529339995 0.7536369137551827
4028000000.0 0.675358241125812 0.7629597085218089
4031000000.0 0.6487782397655028 0.7376200481443512
4034000000.0 0.7291396211934965 0.7492906784047226
4038000000.0 0.7365264092734071 0.7418584010574368
4041000000.0 0.6961985386356132 0.7045065139318175
4044000000.0 0.7622621016544684 0.7640999052681875
4047000000.0 0.7116582135655911 0.7538194794020948
4050000000.0 0.7627653574030685 0.6734849313475713
4053000000.0 0.7239876798081308 0.6855340910440335
4056000000.0 0.7437050380972459 0.6867344529134798
4059000000.0 0.7425126947497988 0.7105236280793341
4062000000.0 0.7535626667164614 0.6765053760238657
4066000000.0 0.699656233524564 0.6648712436592572
4069000000.0 0.8742302521698898 0.6910481027675488
4072000000.0 0.7218539490496236 0.7304569147987883
4075000000.0 0.7684919445458452 0.717293629228491
4078000000.0 0.7929114882007398 0.6815645215850585
4081000000.0 0.7887521330261313 0.7545590446067365
4084000000.0 0.8082473236367109 0.650343390747014
4088000000.0 0.7964292499044497 0.6543304916021463
4091000000.0 0.8131018431112786 0.640617320486863
4094000000.0 0.8064254491056118 0.6265750066554896
4097000000.0 0.830343006333353 0.6231808433209118
4100000000.0 0.7951647420250667 0.6248494233705604
4103000000.0 0.8605973742015294 0.6288658999197176
4106000000.0 0.8327005046884239 0.5775126877070995
4109000000.0 0.8518685358512517 0.5765831854921399
4112000000.0 0.8393744812026813 0.5842081723097139
4116000000.0 0.8564857424468482 0.6095466799242928
4119000000.0 0.8577560887008341 0.5594680611142128
4122000000.0 0.8739407939176325 0.5514888747820188
4125000000.0 0.8657282406307232 0.5802044346073048
4128000000.0 0.8408235621523852 0.5518971702113797
4131000000.0 0.8748767045735039 0.5248728111784997
4134000000.0 0.8573353034935789 0.529332521789727
4138000000.0 0.8558623209644658 0.5058919672987376
4141000000.0 0.8700713282442682 0.49094145848927073
4144000000.0 0.8754048552014603 0.5386899919586381
4147000000.0 0.8546300868226901 0.4692196476950154
4150000000.0 0.9295928973431787 0.5345489742806304
4153000000.0 0.900954254306991 0.46729372496791166
4156000000.0 0.884246610053238 0.5238724931978312
4159000000.0 0.889245139575003 0.48224085556272184
4162000000.0 0.8879969692219021 0.48727473261913645
4166000000.0 0.9057637302992849 0.4387356856491793
4169000000.0 0.9170328597790385 0.4408012569256483
4172000000.0 0.9396241483733699 0.49954718519950253
4175000000.0 0.9514416755093437 0.4491139421636154
4178000000.0 0.936220959585786 0.4569715573408797
4181000000.0 0.9305126529164507 0.4122429917951096
4184000000.0 0.912731181486102 0.4292139585376448
4188000000.0 0.9267236342571332 0.40282778466051206
4191000000.0 0.9116670266873786 0.4043632199829103
4194000000.0 0.9324294951950186 0.3796980890922119
4197000000.0 0.9470926426263043 0.39672739364523607
4200000000.0 0.9562555910464097 0.41230362313102864
4203000000.0 0.9497562736829526 0.39021130759947176
4206000000.0 0.9533745942837185 0.3764662597253737
4209000000.0 0.9412765389394292 0.3746238563359869
4212000000.0 0.9647936225965862 0.3457014736061662
4216000000.0 0.9819512572233011 0.37290857758987656
4219000000.0 0.9709404039816819 0.34894356299661466
4222000000.0 0.981133317052495 0.33688298573225844
4225000000.0 0.9743783535131123 0.3348659854175713
4228000000.0 0.9671447838623068 0.31940663535699776
4231000000.0 0.9733660391514168 0.3061124798486179
4234000000.0 0.9971177938815325 0.28818289795352636
4238000000.0 0.9827573637395839 0.26906621720424706
4241000000.0 0.9728683537214842 0.2810249253125353
4244000000.0 0.9657788750302899 0.2748650559867271
4247000000.0 0.977576913155599 0.26920855644166275
4250000000.0 0.9812889651854946 0.24303087257630762
4253000000.0 0.9518297663401893 0.24112161816063343
4256000000.0 0.9950358149758729 0.23804874584362212
4259000000.0 0.9627197611198625 0.214896461484521
4262000000.0 0.9814055035260252 0.20084180248026548
4266000000.0 1.0066645905110618 0.21071071488412407
4269000000.0 0.981175873341497 0.22553067997452805
4272000000.0 0.9925314106062935 0.2075057084026225
4275000000.0 1.0024653979603961 0.18673806494617845
4278000000.0 1.0236031794584528 0.1875074792115537
4281000000.0 1.0110606786625511 0.18489664740472167
4284000000.0 1.0111233036644562 0.13111086038534853
4288000000.0 1.0031038806431325 0.18453175240902495
4291000000.0 0.9726922137492576 0.14152329198101476
4294000000.0 0.9714842199072408 0.12370795200653324
4297000000.0 0.9858964701996914 0.13912737930765867
4300000000.0 1.0002571710687622 0.1254457097448077
4303000000.0 0.9969079464693996 0.10499947619681434
4306000000.0 0.9996646775879594 0.12237231054032033
4309000000.0 0.9882757289690983 0.10508487197309684
4312000000.0 1.0267839976515725 0.12809051162687268
4316000000.0 1.0212187429704227 0.10515649356246816
4319000000.0 1.0061500293185206 0.07389154286975856
4322000000.0 0.994533286058451 0.03491325741841418
4325000000.0 1.0043563259246218 0.06334295172138742
4328000000.0 0.9951910841092649 0.04895886248624738
4331000000.0 0.990377491027564 -0.004323451254603428
4334000000.0 1.0141254549755 0.015290165598988853
4338000000.0 1.0260678668690146 0.04726653281024108
4341000000.0 1.0257355906954704 0.04546843286776389
4344000000.0 1.0360438684573237 0.01889092664460265
4347000000.0 1.0374746769035368 -0.0007930843989535363
4350000000.0 0.9924716294474588 -0.014002531529783258
4353000000.0 0.9982545894875656 -0.010763167851435995
4356000000.0 0.9915703881135682 -0.03874562930372494
4359000000.0 0.9754589382836122 -0.015952611051439858
4362000000.0 1.0347438809325404 -0.08425542339252631
4366000000.0 1.0289838005940575 -0.07708562537792599
4369000000.0 0.9806888348077297 -0.07594368975979025
4372000000.0 0.9878140504440696 -0.09289669261118991
4375000000.0 0.9948395156953656 -0.07800472309784484
4378000000.0 0.9861927870036077 -0.07531383442440331
4381000000.0 0.9833851665006217 -0.08330070283005117
4384000000.0 1.0687184021358447 -0.1207747464939264
4388000000.0 0.9763292698356366 -0.11013958441670291
4391000000.0 1.0065262023515398 -0.1194679433339818
4394000000.0 0.9692632804256555 -0.1417876331625294
4397000000.0 0.9925230118331687 -0.13211568140640778
4400000000.0 1.0200746896205517 -0.15231343065254804
4403000000.0 1.008020019228646 -0.16538239671701213
4406000000.0 0.9935927442732235 -0.1742903907631738
4409000000.0 1.0152104735831713 -0.18754145814256498
4412000000.0 0.976807711401909 -0.23491026024509393
4416000000.0 0.965757121328026 -0.1954908026029064
4419000000.0 0.9783623659272078 -0.21600302591304443
4422000000.0 0.9752810878515759 -0.1990249914475833
4425000000.0 1.00603895162256 -0.1927230809627581
4428000000.0 0.9699889275067567 -0.23405621934663448
4431000000.0 1.0007611195638817 -0.23232887664375956
4434000000.0 0.9578855204899968 -0.26449808719406437
4438000000.0 0.9869614945119629 -0.2589028614653084
4441000000.0 0.9969582211669796 -0.26341176283813755
4444000000.0 0.9656117938341788 -0.2596120614356101
4447000000.0 0.953279048105205 -0.2994735117379249
4450000000.0 0.9587645887191513 -0.2613809382113862
4453000000.0 0.9911315711295804 -0.3054190308277913
4456000000.0 0.9406863087646433 -0.31221486270537513
4459000000.0 0.9198748793348202 -0.32137720754455634
4462000000.0 0.9987872251060512 -0.34671688980487714
4466000000.0 0.985231692220106 -0.35395167755044477
4469000000.0 0.9582171687597149 -0.3109609506944796
4472000000.0 0.9401590071366179 -0.36780056418008034
4475000000.0 0.9227159668077922 -0.3462435617698092
4478000000.0 0.9671871534342297 -0.40134875212174603
4481000000.0 0.9122406883814425 -0.3780445146848424
4484000000.0 0.9091245849185492 -0.428269347081382
4488000000.0 0.9253052275020985 -0.39210217830336463
4491000000.0 0.9301680100091819 -0.40694080345693656
4494000000.0 0.9128774201180823 -0.4035992230471193
4497000000.0 0.9338766860036962 -0.3954325133579571
4500000000.0 0.9228556024431724 -0.42196707519570725
4503000000.0 0.920954150630588 -0.43296342463268345
4506000000.0 0.8936664847518399 -0.44760997683735315
4509000000.0 0.8826481719497321 -0.4476494765195622
4512000000.0 0.8718063165664649 -0.46374245763307864
4516000000.0 0.9179804692871536 -0.45458405718128536
4519000000.0 0.8769055110031053 -0.44408950782709855
4522000000.0 0.8747284800868007 -0.4898040233003531
4525000000.0 0.8773269181369174 -0.4667485824154597
4528000000.0 0.9017584801511713 -0.49823572605316646
4531000000.0 0.8710366314291966 -0.4787890172932222
4534000000.0 0.8590416960719552 -0.49085620008079944
4538000000.0 0.866664328208943 -0.5009087613289813
4541000000.0 0.8293366175325894 -0.5395035243113208
4544000000.0 0.8337741363212021 -0.5006746504525227
4547000000.0 0.859742816458352 -0.5231302630888874
4550000000.0 0.8415624913601067 -0.5486377335501287
4553000000.0 0.8358589561460046 -0.5728881966272953
4556000000.0 0.8207152550037273 -0.5387360880709526
4559000000.0 0.8311776945585195 -0.5850604991935577
4562000000.0 0.8419524630408985 -0.5729977553451885
4566000000.0 0.8213627650308364 -0.6072582351007927
4569000000.0 0.8004869146204007 -0.5912689621803233
4572000000.0 0.7960400974779434 -0.5844460896799782
4575000000.0 0.7902454859682075 -0.6238842294281511
4578000000.0 0.8294901197900213 -0.5860625831738255
4581000000.0 0.7718507729037761 -0.6263964077116323
4584000000.0 0.7721172509081556 -0.634658834665011
4588000000.0 0.7991075219666947 -0.6353731181141665
4591000000.0 0.787404061130075 -0.6186008774770777
4594000000.0 0.760123005333558 -0.6711526824793067
4597000000.0 0.7738283517077762 -0.6653979485600097
4600000000.0 0.7310537957386335 -0.6748652395966119
4603000000.0 0.7512955763818581 -0.6679380828727339
4606000000.0 0.7551982055810428 -0.6737644513413961
4609000000.0 0.7495163913519906 -0.6847933017057801
4612000000.0 0.7481268571616968 -0.6871789413979887
4616000000.0 0.721037280798875 -0.6806370543041325
4619000000.0 0.7166587479293891 -0.6731851358959525
4622000000.0 0.7161673190698609 -0.7046255757117548
4625000000.0 0.6702703766799615 -0.7074832710955348
4628000000.0 0.698705801729559 -0.7207870041767448
4631000000.0 0.6629455865958755 -0.7347675535342738
4634000000.0 0.6837215957633551 -0.7224394899276894
4638000000.0 0.6899289131463572 -0.7389802677688909
4641000000.0 0.6768848449961536 -0.7296103452812042
4644000000.0 0.6707629609866345 -0.7309197782635565
4647000000.0 0.694080384093517 -0.7658484033049208
4650000000.0 0.6434298831063423 -0.7697829624499576
4653000000.0 0.6722719926296832 -0.7710663326990871
4656000000.0 0.6337555034982227 -0.7626316538674776
4659000000.0 0.6330269954975822 -0.7562746185981221
4662000000.0 0.6313655773138271 -0.7920927348356767
4666000000.0 0.5920430221112551 -0.8116362484487089
4669000000.0 0.635841968075066 -0.7936226763727258
4672000000.0 0.6100303277758483 -0.8238913800532138
4675000000.0 0.580463662870299 -0.8088003674707078
4678000000.0 0.5805595457379259 -0.804066564127245
4681000000.0 0.5787019270343952 -0.8483105705706865
4684000000.0 0.5503229999678069 -0.8282057103366596
4688000000.0 0.5474289073204369 -0.8153156430232895
4691000000.0 0.5927772180871398 -0.8319158093555938
4694000000.0 0.5519363384688497 -0.8311463524884108
4697000000.0 0.493664479930168 -0.8272930938071656
4700000000.0 0.564092399343963 -0.8433657565643826
4703000000.0 0.5370281819658882 -0.8084375300208448
4706000000.0 0.5328752264963614 -0.8528203957201267
4709000000.0 0.520089554017211 -0.8631475914976146
4712000000.0 0.541333971893529 -0.8524868777777459
4716000000.0 0.481372521648756 -0.8851785970255379
4719000000.0 0.5567579039401167 -0.8823117236026008
4722000000.0 0.5166568002869596 -0.8775074100093347
4725000000.0 0.5128610585982758 -0.8598962570498242
4728000000.0 0.5030091466864548 -0.8784292580812445
4731000000.0 0.48530441983950073 -0.9005851633136048
4734000000.0 0.4989479250587113 -0.8757214006073558
4738000000.0 0.4975978119173692 -0.9309324558939892
4741000000.0 0.4448823095164244 -0.9335932085290386
4744000000.0 0.4414200142207042 -0.9405749065015923
4747000000.0 0.43522145162170833 -0.8828073878997174
4750000000.0 0.4351535482036909 -0.8904007052709632
4753000000.0 0.4359874905758879 -0.9237042570628538
4756000000.0 0.3983321650639654 -0.9378349856330539
4759000000.0 0.4115994918128882 -0.9229181839613514
4762000000.0 0.36572887589432795 -0.9440999613326144
4766000000.0 0.378958517248574 -0.9146357471453854
4769000000.0 0.3786846913078511 -0.9354031581667964
4772000000.0 0.3646976552218883 -0.9421624867700787
4775000000.0 0.3829363245870995 -1.011258781751958
4778000000.0 0.3531000188886291 -0.9627680315598722
4781000000.0 0.3642003174712354 -0.954622877451246
4784000000.0 0.3792775956555817 -0.9378472365477678
4788000000.0 0.3306962374831506 -0.9882752446223084
4791000000.0 0.31317380113631477 -0.9697659411200176
4794000000.0 0.34525177637660076 -0.9873678711699796
4797000000.0 0.2866021680889004 -0.9821603742342001
4800000000.0 0.307316184426244 -0.989142336854071
4803000000.0 0.25167350765559954 -0.9592491973657506
4806000000.0 0.27820851538781577 -0.9964607955283231
4809000000.0 0.24518809595508362 -0.9735011737725162
4812000000.0 0.23411762358880428 -0.9781728137267536
4816000000.0 0.2682615791246331 -0.9667001705397895
4819000000.0 0.2666282490961498 -1.0053983259063068
4822000000.0 0.2801324711472476 -1.0108832811016126
4825000000.0 0.2671243765907676 -1.000424016988361
4828000000.0 0.2334161300409852 -0.9930736122054954
4831000000.0 0.17674804966171406 -1.0133250441281372
4834000000.0 0.22666675980270873 -0.9883479079514894
4838000000.0 0.16842510438654593 -1.017939465700166
4841000000.0 0.17844283747148484 -0.9944638808010321
4844000000.0 0.21173531161366083 -1.0040898558009825
4847000000.0 0.21638241114352363 -0.9734823219948556
4850000000.0 0.14876350398109667 -1.020912028587865
4853000000.0 0.15730675807296524 -0.9686183696584836
4856000000.0 0.16856560490021816 -1.014281770239131
4859000000.0 0.13971405175139304 -1.0492510249649807
4862000000.0 0.1476855464219763 -0.9816869772804874
4866000000.0 0.10022290323928215 -1.0089153356489793
4869000000.0 0.12168222825167985 -1.028419432564524
4872000000.0 0.07624265504704063 -1.0349026746941188
4875000000.0 0.14991239310114268 -1.052786295651097
4878000000.0 0.10442231483785652 -1.029493398588841
4881000000.0 0.057475374202755836 -1.0826512978452298
4884000000.0 0.09845935192998594 -1.0026125452523134
4888000000.0 0.11187398489336332 -1.0130457654892828
4891000000.0 0.06813219183516434 -1.0291247103772014
4894000000.0 0.02961489473508148 -1.0344316987184925
4897000000.0 0.08347997039444387 -1.0005437559308115
4900000000.0 0.01768275486235542 -1.0409867123749534
4903000000.0 0.0450859560077866 -1.040135077660032
4906000000.0 0.028274538611858323 -1.0230406743925011
4909000000.0 -0.007185878350491073 -1.010511679429244
4912000000.0 0.0005240539243099376 -1.0933054849959989
4916000000.0 0.016978510471319302 -1.061669686529355
4919000000.0 0.016187360334695144 -1.0595657794676618
4922000000.0 0.01489629721649284 -1.0295490596242567
4925000000.0 -0.014126376727952937 -1.0144716784455254
4928000000.0 0.011791076878933049 -1.0030880766158219
4931000000.0 -0.022271143843269517 -1.0452848451408359
4934000000.0 -0.03856928465069534 -0.9735177752579283
4938000000.0 -0.10989283206753901 -1.0300844395891364
4941000000.0 -0.04915293494087601 -1.0162346071523503
4944000000.0 -0.05125304369425726 -0.9435696492117691
4947000000.0 -0.06571028684393629 -0.980376701540404
4950000000.0 -0.08541467728733428 -0.9619118870367119
4953000000.0 -0.14975230098945458 -1.0737538863045142
4956000000.0 -0.1378653267999197 -1.0173280385487524
4959000000.0 -0.1716711493672002 -1.0134733940466067
4962000000.0 -0.15185760112018457 -1.0605916279001226
4966000000.0 -0.10729597246176492 -1.0467509801714334
4969000000.0 -0.12933250386510503 -1.0483002400103463
4972000000.0 -0.15823663017584635 -1.0201126164257612
4975000000.0 -0.15120617638399073 -1.0029759598150172
4978000000.0 -0.16761589006700556 -1.020333944112383
4981000000.0 -0.20110003814075125 -1.0253773973556686
4984000000.0 -0.17640444601833868 -0.9738914520600651
4988000000.0 -0.19889477851174397 -0.9981227252566113
4991000000.0 -0.143933860438048 -1.0238783684893316
4994000000.0 -0.203486425896594 -0.9985974992963694
4997000000.0 -0.261539622144581 -0.9909157625116835
5000000000.0 -0.20548059863509965 -1.0488106445114256
5003000000.0 -0.20659309413717136 -1.0219546190526212
5006000000.0 -0.28048797345812415 -1.050920700359497
5009000000.0 -0.2301225847324647 -0.9551530269827612
5012000000.0 -0.2678306515202765 -0.9733475127034588
5016000000.0 -0.2248848540315267 -1.0285579735599355
5019000000.0 -0.27699214233169966 -0.9936097068201704
5022000000.0 -0.2742662473351207 -0.9891574763053859
5025000000.0 -0.28803039982394946 -1.054967565156832
5028000000.0 -0.32904605396706554 -0.9931438804689352
5031000000.0 -0.3060919824738504 -0.9843196818076062
5034000000.0 -0.33857023458601576 -1.0026388662691839
5038000000.0 -0.3371211197861893 -0.9339299139977979
5041000000.0 -0.2750713279032246 -1.0125629876059645
5044000000.0 -0.31602596647116066 -0.9601576736314151
5047000000.0 -0.30974539623631153 -0.981378511499707
5050000000.0 -0.26841231069021176 -0.9613835178918342
5053000000.0 -0.3443058807448317 -1.0095171126494429
5056000000.0 -0.3369066183390621 -0.969349984359055
5059000000.0 -0.3386022674794151 -0.9982330363933124
5062000000.0 -0.4340575419552859 -0.9608089637450086
5066000000.0 -0.350793583168141 -0.9797817880418287
5069000000.0 -0.40550943009348095 -0.9453017615804965
5072000000.0 -0.3875401594182834 -0.8957909905133115
5075000000.0 -0.3950958789673642 -0.9773069227878515
5078000000.0 -0.4748241183942565 -0.9308246342169548
5081000000.0 -0.40613631081792717 -0.9167939831838062
5084000000.0 -0.40418933406345947 -0.973832210266377
5088000000.0 -0.39982456244299264 -0.9301960532527156
5091000000.0 -0.45086390214661204 -0.9636368996727922
5094000000.0 -0.4397891637754527 -0.941011208695376
5097000000.0 -0.432052677527892 -0.9565659893343872
5100000000.0 -0.44870289179668765 -0.9052340546131511
5103000000.0 -0.5037465036417815 -0.9458438597433535
5106000000.0 -0.4966663844901858 -0.9706377897408898
5109000000.0 -0.4626703440383927 -0.9434168033384451
5112000000.0 -0.5103439251112002 -0.9108828952374532
5116000000.0 -0.4909464272661077 -0.8746152544960479
5119000000.0 -0.5449589325038597 -0.901587286467781
5122000000.0 -0.48216085162545574 -0.8888928704345358
5125000000.0 -0.4796276051624711 -0.9062189498375147
5128000000.0 -0.5242110144597398 -0.8707220637105508
5131000000.0 -0.4805794363345932 -0.8696292118385471
5134000000.0 -0.5187727655000616 -0.8842229593195335
5138000000.0 -0.507601052619498 -0.8986355495358009
5141000000.0 -0.5361377518469509 -0.89549729284746
5144000000.0 -0.5430995922761697 -0.8872864177074873
5147000000.0 -0.5267173351485915 -0.8913775108420071
5150000000.0 -0.5718841879399719 -0.877007429417449
5153000000.0 -0.5801922717847844 -0.8624772101233402
5156000000.0 -0.5557319324445666 -0.8744396863569025
5159000000.0 -0.5895525695409621 -0.90036614694031
5162000000.0 -0.5812219681907779 -0.8392316750501236
5166000000.0 -0.5735888046204033 -0.852582874859907
5169000000.0 -0.6444401621760777 -0.8308205212887295
5172000000.0 -0.5569294441734073 -0.8712155384150146
5175000000.0 -0.6444670456319803 -0.8644040484021058
5178000000.0 -0.6565046001101382 -0.8128687605078847
5181000000.0 -0.6550266253588315 -0.8446675444089455
5184000000.0 -0.6587984176769556 -0.8206937651761186
5188000000.0 -0.62958255312753 -0.8101528639569776
