! Created with skrf 1.8.0 (http://scikit-rf.org).
# Hz S RI R 50.0 
!freq ReS11 ImS11
4000000000.0 0.5830301936642645 0.8226628674122589
4003000000.0 0.6388405675415209 0.8413262011669596
4006000000.0 0.6637048441253295 0.7572440647889446
4009000000.0 0.6518810308144263 0.7498750574773866
4012000000.0 0.6213048146431233 0.8558087488602192
4016000000.0 0.7374828582854988 0.7660000702556422
4019000000.0 0.6457035038119687 0.8152775474224756
4022000000.0 0.6772055012648781 0.8190303946466416
4025000000.0 0.7584506743701738 0.7230653673009901
4028000000.0 0.7013684248007384 0.7102683830404584
4031000000.0 0.6585994516173732 0.6939967621309099
4034000000.0 0.6773908990656553 0.7407482662489021
4038000000.0 0.7480717071733556 0.7177176051129756
4041000000.0 0.73548153457792 0.7671434142732021
4044000000.0 0.7553779389922579 0.7640105465603024
4047000000.0 0.7328138029803827 0.773191458135022
4050000000.0 0.7388588621041549 0.7276372255207212
4053000000.0 0.7447409613689492 0.7179631604452867
4056000000.0 0.7813524343559803 0.700756099522716
4059000000.0 0.7333695150919335 0.7033017314593686
4062000000.0 0.8014795351731114 0.6656794984552143
4066000000.0 0.7226767070882443 0.6401015630809365
4069000000.0 0.8130779002541603 0.6832014747683235
4072000000.0 0.7463756260559746 0.6794611557710728
4075000000.0 0.7689593940777901 0.7626541324493175
4078000000.0 0.8164605564986344 0.6945867436517544
4081000000.0 0.7814598020410234 0.700518899807958
4084000000.0 0.836454702165851 0.65312753148278
4088000000.0 0.7720934133751969 0.6832341889722335
4091000000.0 0.8669607338721927 0.6632935995887785
4094000000.0 0.7975615222143215 0.6038448193512009
4097000000.0 0.7896303461471417 0.5933876923147408
4100000000.0 0.8674169781633273 0.6185920662722826
4103000000.0 0.8228481076831944 0.6471484967167802
4106000000.0 0.8546595277428997 0.604843690240839
4109000000.0 0.8872484685426809 0.6099805890486387
4112000000.0 0.8367173430017538 0.5940493925786265
4116000000.0 0.8393998817007582 0.621130242063616
4119000000.0 0.8770971869977221 0.5667683741115915
4122000000.0 0.867551730878486 0.567115429323907
4125000000.0 0.8997227922341134 0.564000792706445
4128000000.0 0.8283133910058851 0.5537544912836257
4131000000.0 0.864048419219377 0.5216616220589982
4134000000.0 0.8626623376331193 0.5671603699214322
4138000000.0 0.8583265791074222 0.509868392756736
4141000000.0 0.8969358361403785 0.5344996088094326
4144000000.0 0.8999175273079171 0.5036384497784625
4147000000.0 0.8893800042092532 0.4945598763492826
4150000000.0 0.9043423933293256 0.5155215805656406
4153000000.0 0.9148618641712524 0.4868457190822454
4156000000.0 0.9059043733132566 0.5167997439077601
4159000000.0 0.8929970680409691 0.5047463799607095
4162000000.0 0.884131684811974 0.4661793417025196
4166000000.0 0.9415044234779346 0.489317540597067
4169000000.0 0.9225140697043965 0.43242860286315776
4172000000.0 0.9133292868553846 0.45671558404825624
4175000000.0 0.9362823609500435 0.45635427636184694
4178000000.0 0.9477645944239265 0.4458017125507939
4181000000.0 0.9518565503156096 0.41460439182059083
4184000000.0 0.9234392565822683 0.42274376008981757
4188000000.0 0.9550615067109947 0.42276473851729746
4191000000.0 0.9231290580842377 0.453958143835641
4194000000.0 0.9413203037902322 0.3799415292241979
4197000000.0 0.9517928604974025 0.40776583228430513
4200000000.0 0.9621443907840415 0.3899931778455038
4203000000.0 0.9532675951973036 0.3820565297561245
4206000000.0 0.940522506096714 0.39488690976492563
4209000000.0 0.9473064525584872 0.371218827423798
4212000000.0 0.9675670299395795 0.3344575482848725
4216000000.0 0.9607366261185014 0.364320713124247
4219000000.0 0.9629643028197411 0.3603892292731865
4222000000.0 0.9599135228238787 0.30531305819881777
4225000000.0 0.9646077278544753 0.32689426973119395
4228000000.0 0.9892636731229953 0.3144365738627839
4231000000.0 0.9724747398991873 0.2959309729776263
4234000000.0 0.9859363098403635 0.2935574703253038
4238000000.0 0.9859062880082812 0.27154719458469023
4241000000.0 0.9763233791864789 0.25592174399769424
4244000000.0 0.9684220116446928 0.26764379956798645
4247000000.0 0.9897765747447447 0.2552975956676302
4250000000.0 0.9745657684471885 0.24951802056814149
4253000000.0 0.9721472940912741 0.21954353403214022
4256000000.0 1.0127529045074484 0.22006476837167244
4259000000.0 0.9659801801598484 0.21519750897299464
4262000000.0 1.0038239565429092 0.20865962296018428
4266000000.0 1.016242955352653 0.1781740205724613
4269000000.0 0.9834899881212051 0.21181327130080943
4272000000.0 0.994933893341874 0.20202996699239795
4275000000.0 0.9974938340209534 0.20407134185507841
4278000000.0 1.0318420603489016 0.19659495693699924
4281000000.0 1.018560143401128 0.17629754056398644
4284000000.0 1.0132281133217025 0.16128279256470437
4288000000.0 1.0037507077394698 0.17741930357042188
4291000000.0 0.9761969182218472 0.13716693868840524
4294000000.0 1.005364500708571 0.12672805594836117
4297000000.0 0.9952416673765658 0.1559687428753298
4300000000.0 1.0075763885036773 0.14842244548022737
4303000000.0 0.9937854147944191 0.1180748915250862
4306000000.0 1.006025762226368 0.12128636177749896
4309000000.0 1.0065351170271106 0.11467019995942034
4312000000.0 0.9993298069169124 0.12376914145377607
4316000000.0 1.0016506995370515 0.09156456925338262
4319000000.0 0.9908630861008305 0.08041950066654972
4322000000.0 0.9977935319353566 0.038550800397020094
4325000000.0 1.010009437816102 0.059484114393302576
4328000000.0 1.01102974148417 0.06608255949238222
4331000000.0 1.0311246518093695 0.014133955526924646
4334000000.0 1.0264718977572191 0.04023173454983861
4338000000.0 1.0123037481467199 0.018971766674649823
4341000000.0 1.03269607283811 0.04573260804598228
4344000000.0 1.0356000427636292 0.02373915406631774
4347000000.0 1.0242333129640195 -0.03180140635391879
4350000000.0 0.985377949820069 -0.02604445483480164
4353000000.0 0.9914784372063317 -0.014818593377998401
4356000000.0 1.0105334617462338 -0.04463818264558314
4359000000.0 0.9800090934871093 -0.04639012192613309
4362000000.0 1.0070415849003196 -0.09893231204378992
4366000000.0 1.0312846850706598 -0.07349138204953354
4369000000.0 0.9804991421843425 -0.06856151928009908
4372000000.0 0.9945633084461984 -0.10576436147652372
4375000000.0 1.0096106356437369 -0.0619211483667354
4378000000.0 0.9864372986451475 -0.07657941446764616
4381000000.0 1.0147881078250032 -0.0811874115694259
4384000000.0 1.0797908665487235 -0.12196735554104059
4388000000.0 0.9876011848352498 -0.12237100825782525
4391000000.0 0.9993681299209523 -0.12031711328648541
4394000000.0 0.981815157365279 -0.13390582054511946
4397000000.0 0.9878970686191446 -0.1551935307153433
4400000000.0 1.0200490325845668 -0.166174741443383
4403000000.0 1.0049885530625642 -0.1779952854321366
4406000000.0 0.994386505538052 -0.18922564413619064
4409000000.0 1.0237968770112311 -0.19506707672972592
4412000000.0 0.976723231171138 -0.23931665182167874
4416000000.0 0.983561351910055 -0.20424155557620743
4419000000.0 0.9910537558195031 -0.23454442176790216
4422000000.0 0.9729985022721404 -0.20765218715689743
4425000000.0 1.0024665788337903 -0.20336170783375923
4428000000.0 0.9829563622179338 -0.2494537665555861
4431000000.0 1.0100549448731078 -0.2447755311604482
4434000000.0 0.9623008605978549 -0.2546613277763406
4438000000.0 0.9938012012729194 -0.25299536656678573
4441000000.0 0.9806501307070792 -0.26323714108137786
4444000000.0 0.9418527155278418 -0.2532794263679925
4447000000.0 0.9597306558810165 -0.2845269395952499
4450000000.0 0.9736521929005159 -0.2820955343576288
4453000000.0 0.9841746395112942 -0.31060069259734674
4456000000.0 0.9337115636578642 -0.32365231057564836
4459000000.0 0.9134983542579369 -0.32309249521700134
4462000000.0 1.0092338818195021 -0.34571883256041236
4466000000.0 0.977926637877213 -0.3587726535321297
4469000000.0 0.9501154807009126 -0.32554344708648797
4472000000.0 0.9604273886155713 -0.39595648799647665
4475000000.0 0.9214636444265393 -0.3572107605091723
4478000000.0 0.9642805409221115 -0.39859928810833345
4481000000.0 0.914165283507602 -0.37557785880372874
4484000000.0 0.9042758621653229 -0.4195405777031457
4488000000.0 0.9139740274363621 -0.4027338975111046
4491000000.0 0.9247370815366411 -0.41148634669242523
4494000000.0 0.9212326589404013 -0.4084423180426293
4497000000.0 0.9026816278901264 -0.4152101362416257
4500000000.0 0.9129546074482109 -0.41769712665638337
4503000000.0 0.9355239416062751 -0.45401083051410185
4506000000.0 0.8903626327962819 -0.4498460779649731
4509000000.0 0.8968788148990618 -0.4390821510040981
4512000000.0 0.8746361977561319 -0.46312284574318474
4516000000.0 0.9138409723567668 -0.4719573198118253
4519000000.0 0.869852460622008 -0.4692089735243332
4522000000.0 0.8720774101954285 -0.4804199361191719
4525000000.0 0.8792147656171161 -0.4547109155004832
4528000000.0 0.9036524886872539 -0.5071616952477537
4531000000.0 0.880632779741821 -0.5029745865150668
4534000000.0 0.8405275745283982 -0.5013458589727193
4538000000.0 0.8441802704465113 -0.5211819468873399
4541000000.0 0.8418641438290366 -0.5364126711306945
4544000000.0 0.8467448653484642 -0.5332595218448418
4547000000.0 0.8541491043889581 -0.513386081279325
4550000000.0 0.8597001275659475 -0.5672421282109803
4553000000.0 0.8370462495070721 -0.5642121069683459
4556000000.0 0.8183722332325263 -0.5491401675419986
4559000000.0 0.8373103929343004 -0.5725647476674847
4562000000.0 0.826393862407266 -0.5729320900558476
4566000000.0 0.8147212789571683 -0.5964933241175765
4569000000.0 0.7932889986015317 -0.5936001777491868
4572000000.0 0.7997004322081903 -0.5973301549792488
4575000000.0 0.7968817038193134 -0.6382363702961503
4578000000.0 0.8256118112855286 -0.6209457434187613
4581000000.0 0.7789519490274904 -0.6306732892890163
4584000000.0 0.7816539367552207 -0.619009659401473
4588000000.0 0.7968909047655109 -0.6125842727433066
4591000000.0 0.7867149789585923 -0.6191591390724852
4594000000.0 0.7619787987757769 -0.6746914288664925
4597000000.0 0.7762826337121573 -0.6815728325312993
4600000000.0 0.7233550950303593 -0.6716378910597536
4603000000.0 0.7490549822744242 -0.6792958392442476
4606000000.0 0.7566089868489804 -0.6808230465892573
4609000000.0 0.7379258393276581 -0.682473938493658
4612000000.0 0.753127190008136 -0.7128128778558563
4616000000.0 0.7211528831625149 -0.6959527056581493
4619000000.0 0.7386543370324719 -0.6970469278176663
4622000000.0 0.714498796019504 -0.715318076672205
4625000000.0 0.6634108234603284 -0.7090935828301637
4628000000.0 0.7278693399032677 -0.717191739110207
4631000000.0 0.6644816180073467 -0.7293220356799375
4634000000.0 0.6896364329474526 -0.7425359755731192
4638000000.0 0.6814585116897978 -0.7402216564612315
4641000000.0 0.6800598062704905 -0.7407494393162776
4644000000.0 0.6617785621213054 -0.7552611430728504
4647000000.0 0.6801655093371918 -0.7575379217186529
4650000000.0 0.653926480068124 -0.7817626052828507
4653000000.0 0.6669543580685676 -0.7817035142227636
4656000000.0 0.6368426214165468 -0.7817916030129746
4659000000.0 0.621627599161995 -0.7780080808537712
4662000000.0 0.6185237610874212 -0.8137236731599393
4666000000.0 0.6174449062306094 -0.7986135929646085
4669000000.0 0.6338260562410496 -0.7924154822141828
4672000000.0 0.5988946889850544 -0.8409106339425834
4675000000.0 0.6012148058914484 -0.8198232593557269
4678000000.0 0.5699940115454591 -0.7904317482896495
4681000000.0 0.5749541002044418 -0.8595357857640854
4684000000.0 0.5621790897971222 -0.8390935655015088
4688000000.0 0.5576686644976976 -0.8206147982825405
4691000000.0 0.5765204532343137 -0.8504135227810805
4694000000.0 0.5495035979616933 -0.8590829745985538
4697000000.0 0.5186899201148587 -0.8180195798618632
4700000000.0 0.531649950764175 -0.8478346143343349
4703000000.0 0.5245902817086611 -0.8306707566351395
4706000000.0 0.5353418391933353 -0.8730875889145684
4709000000.0 0.5071005247215548 -0.8657686043103349
4712000000.0 0.5199051748408459 -0.8657578074438926
4716000000.0 0.5227441851506652 -0.9050468074683176
4719000000.0 0.5187579729762595 -0.8927522058072986
4722000000.0 0.5033484147906949 -0.8910817249341751
4725000000.0 0.4788553593557079 -0.8940009888324688
4728000000.0 0.4715679681208338 -0.8984783145194419
4731000000.0 0.511001570019316 -0.9113900599521123
4734000000.0 0.4672635241152208 -0.904589707752216
4738000000.0 0.5007262699661718 -0.9289993160787863
4741000000.0 0.4330653995328885 -0.9165240995988135
4744000000.0 0.4244630205803712 -0.946550435553691
4747000000.0 0.41677274214585946 -0.891743650420929
4750000000.0 0.42606943188568724 -0.9182306222633578
4753000000.0 0.42709526593002933 -0.9455939960715928
4756000000.0 0.4090295450270341 -0.9573368985838107
4759000000.0 0.37753444385615975 -0.9507771658751334
4762000000.0 0.387824695691208 -0.963526675587445
4766000000.0 0.3760168418470323 -0.9405793535486126
4769000000.0 0.37958595581852156 -0.9597745999168966
4772000000.0 0.36313605316664704 -0.960454310934512
4775000000.0 0.30962149641069825 -0.992925921759573
4778000000.0 0.36999942691477034 -0.9666393214642052
4781000000.0 0.34892756491815974 -0.9437596398263213
4784000000.0 0.3455809161205876 -0.9513118193204245
4788000000.0 0.3557378999791683 -0.980960398769781
4791000000.0 0.29569706096227527 -0.9626933832581676
4794000000.0 0.3427010501705669 -0.9808664718128182
4797000000.0 0.3203445699638392 -0.9636421151329816
4800000000.0 0.28332155573108875 -0.9677722577634766
4803000000.0 0.24309266717297126 -0.9930010451492524
4806000000.0 0.2912185116703092 -0.9985929370873725
4809000000.0 0.23893824934050722 -0.9969222284939366
4812000000.0 0.22350517563323255 -0.9886676380967949
4816000000.0 0.25950561720593873 -0.9689353683101101
4819000000.0 0.28294234838768356 -0.9987199031111185
4822000000.0 0.24858294050646929 -1.0323411371248876
4825000000.0 0.2684586163342745 -1.0127828360997422
4828000000.0 0.24203693208170451 -0.9945462202712386
4831000000.0 0.16971920782224997 -1.0139129941232645
4834000000.0 0.21739453016477905 -0.996418151511117
4838000000.0 0.1722676956733739 -1.0244187016626098
4841000000.0 0.1848912787120055 -0.999822151009332
4844000000.0 0.22081682615623827 -0.9902678631580469
4847000000.0 0.18108436076663445 -0.9781196837054282
4850000000.0 0.15155014016332122 -1.042497533424547
4853000000.0 0.16216962026813558 -0.9905841373642745
4856000000.0 0.1469306432219108 -1.0143098266864166
4859000000.0 0.14000017193529576 -1.0476140426996619
4862000000.0 0.15662562268297392 -0.9926988024357045
4866000000.0 0.10688774519044286 -1.0370407159168993
4869000000.0 0.10218791100807499 -1.0211248177060788
4872000000.0 0.08813767931672493 -1.0498162860541063
4875000000.0 0.15541304296593744 -1.0551138231534616
4878000000.0 0.09441856065224552 -1.03766071536243
4881000000.0 0.05131586791680027 -1.091306532666567
4884000000.0 0.09057219445203875 -1.0277911343782855
4888000000.0 0.10243854260508556 -1.0210983903238375
4891000000.0 0.08011562034119579 -1.0788211662575866
4894000000.0 0.01479785561609686 -1.0248420066072195
4897000000.0 0.045886734670871204 -0.9818830410139142
4900000000.0 0.025025414910641586 -1.0590458416343336
4903000000.0 0.04232647846328102 -1.0397522642276058
4906000000.0 0.017645751775314557 -1.0669564526315927
4909000000.0 -0.012569981754272368 -1.0493077017343846
4912000000.0 -0.005859609270643218 -1.0706936338226483
4916000000.0 -0.0036874900436462757 -1.068373470450029
4919000000.0 0.0006739058922475769 -1.0720285239567078
4922000000.0 -0.010724827674764237 -1.0312497075638587
4925000000.0 -0.04157727053672439 -1.0186492401611917
4928000000.0 0.03367660153642383 -1.00787420965732
4931000000.0 -0.008225175045566122 -1.0588996160820543
4934000000.0 -0.04340579023233569 -1.0181254837430058
4938000000.0 -0.09225835174304058 -1.0375158207548967
4941000000.0 -0.0690759681207755 -1.012501933359438
4944000000.0 -0.05662150156508919 -0.9891443860897582
4947000000.0 -0.07825475296593717 -1.019531778302301
4950000000.0 -0.1100517700131438 -0.9874155938087952
4953000000.0 -0.1456939930814053 -1.074509827407966
4956000000.0 -0.14855844106924637 -1.030921471527943
4959000000.0 -0.15599430579797227 -0.9743439640042856
4962000000.0 -0.15091880952653194 -1.036908971600368
4966000000.0 -0.10356994957220089 -1.012690401259275
4969000000.0 -0.13397306672917897 -1.0914747780534575
4972000000.0 -0.15730747271449466 -1.0462834675588761
4975000000.0 -0.10968263363873418 -1.024448011358249
4978000000.0 -0.18919085091801668 -1.014611161866266
4981000000.0 -0.2173819670329827 -1.0172839189114442
4984000000.0 -0.19649758421508332 -1.020645753965235
4988000000.0 -0.16655051527987091 -1.0121701617924805
4991000000.0 -0.16954697307929428 -1.0243916278463272
4994000000.0 -0.16967736309242992 -0.9954378430724049
4997000000.0 -0.2573770544031157 -1.003955140028508
5000000000.0 -0.21804288028610863 -1.008395181797048
5003000000.0 -0.20424918251666474 -1.0289725863315997
5006000000.0 -0.23587312170776095 -1.0553993002414825
5009000000.0 -0.24235724557998764 -1.0056104072283385
5012000000.0 -0.28860043653249884 -1.0171944906229082
5016000000.0 -0.24052322385707298 -1.0477746845135814
5019000000.0 -0.3103854961629525 -1.007082385716753
5022000000.0 -0.2836196019409569 -1.0266365780280162
5025000000.0 -0.31272569463229055 -1.0341378334881661
5028000000.0 -0.32298447200753755 -0.9879392821040762
5031000000.0 -0.31740530582281723 -0.9841557938418252
5034000000.0 -0.3499676370750122 -0.9829823946934706
5038000000.0 -0.34287169017997887 -0.978386928290488
5041000000.0 -0.2753001824457008 -0.9829098324096176
5044000000.0 -0.2622797678782691 -0.9755068868624658
5047000000.0 -0.2940667770486965 -1.002047510363107
5050000000.0 -0.27143533015504995 -0.9915557618771569
5053000000.0 -0.3706650039967433 -1.0176163188548595
5056000000.0 -0.3321572644087877 -0.9718339067464827
5059000000.0 -0.3222364552881987 -1.0111445842204532
5062000000.0 -0.40533840258680653 -0.9887546069527795
5066000000.0 -0.36523444494440016 -0.9690906281145752
5069000000.0 -0.43214040351066463 -0.9715880062584447
5072000000.0 -0.3780278821217633 -0.9263614006984036
5075000000.0 -0.37699791934358207 -0.9882352647561494
5078000000.0 -0.42301136318957605 -0.9265775820336282
5081000000.0 -0.4504545087802034 -0.8992860948864528
5084000000.0 -0.43411125549047147 -0.9867951817631406
5088000000.0 -0.42047592198921063 -0.9117492378261571
5091000000.0 -0.4726572341854622 -0.8744374462634894
5094000000.0 -0.5061819503721662 -0.8933554678448031
5097000000.0 -0.41600380520377234 -0.9464219890020757
5100000000.0 -0.46523726968803913 -0.9101444618349709
5103000000.0 -0.5312159169568039 -0.89895881576279
5106000000.0 -0.5211748846782012 -0.9485711359833056
5109000000.0 -0.4556819763976775 -0.9164017399437778
5112000000.0 -0.504999272728093 -0.8974876366969979
5116000000.0 -0.49669438679041183 -0.8838307610840357
5119000000.0 -0.5395235393832235 -0.911447845963518
5122000000.0 -0.517848239329576 -0.8768477974614228
5125000000.0 -0.4641832692689847 -0.8873935389037407
5128000000.0 -0.5599477378093664 -0.8526951331406363
5131000000.0 -0.5540767931679599 -0.8639853969794594
5134000000.0 -0.5383178424532468 -0.8944676510503375
5138000000.0 -0.5661545017080079 -0.8975119728328138
5141000000.0 -0.485150981832961 -0.8475655570726239
5144000000.0 -0.558842316291018 -0.8871871264607699
5147000000.0 -0.5731807433021934 -0.8722777123057089
5150000000.0 -0.5527060448171452 -0.8692521544548675
5153000000.0 -0.5785047175339157 -0.8853134964324748
5156000000.0 -0.6036563948421731 -0.8558743581457235
5159000000.0 -0.6260335237131719 -0.8644837571168331
5162000000.0 -0.6464632771733083 -0.8302729377700733
5166000000.0 -0.6749139235198254 -0.8071757766438032
5169000000.0 -0.636600520785936 -0.8384478989411919
5172000000.0 -0.6130207184570982 -0.8102273912086111
5175000000.0 -0.6420309933872804 -0.852286084059637
5178000000.0 -0.660192131254405 -0.8193012866163748
5181000000.0 -0.6618575342981687 -0.8678301532254713
5184000000.0 -0.6544735280060104 -0.7868630317570673
5188000000.0 -0.6475879454949391 -0.8361831875376846
