! Created with skrf 1.8.0 (http://scikit-rf.org).
# Hz S RI R 50.0 
!freq ReS11 ImS11
4000000000.0 0.773088563449501 0.6155526750123419
4003000000.0 0.8324919696813824 0.7237187816009503
4006000000.0 0.8727800932147494 0.5828392378105135
4009000000.0 0.7922797202186898 0.6675971472865769
4012000000.0 0.7869776023399845 0.6867074112656443
4016000000.0 0.8934842319060662 0.6141437898300575
4019000000.0 0.8037594174307767 0.630511097229379
4022000000.0 0.7793635135777589 0.6656713468499977
4025000000.0 0.8658355473755897 0.5668568358798712
4028000000.0 0.874651572430802 0.5808821799314803
4031000000.0 0.8277007408694724 0.5633332987400084
4034000000.0 0.8294137278578558 0.5911414819317489
4038000000.0 0.8610640272222339 0.5789715381918905
4041000000.0 0.8596144214638886 0.5816869690972957
4044000000.0 0.8742579841054554 0.5684669301087255
4047000000.0 0.8779219932577761 0.5917405670058739
4050000000.0 0.9276501771456224 0.5713372030270287
4053000000.0 0.8788707283694399 0.5163927670109185
4056000000.0 0.8730478064479517 0.5531306535942321
4059000000.0 0.8880880817166519 0.5324020691332432
4062000000.0 0.9118174382829753 0.4767051592857526
4066000000.0 0.8760509747412968 0.45995390822956694
4069000000.0 0.9442555187284136 0.4786636490312711
4072000000.0 0.8781175112052209 0.5043864099503432
4075000000.0 0.9084502582304083 0.5064637219904817
4078000000.0 0.9061832033616817 0.47512831301175973
4081000000.0 0.9526454068881927 0.4984427185376695
4084000000.0 0.9709383607195815 0.4366567948686146
4088000000.0 0.8941035885277266 0.446305404464053
4091000000.0 0.9834012220823248 0.4616407517473648
4094000000.0 0.9095117127971684 0.4455605304512388
4097000000.0 0.9421168673668249 0.44471079888029647
4100000000.0 0.9339376226370207 0.4187311023271258
4103000000.0 0.9576735158821283 0.44923627055485277
4106000000.0 0.952146065707999 0.3979483808408505
4109000000.0 0.9721907862360946 0.3826929434593069
4112000000.0 0.9541752369243659 0.41266580030921923
4116000000.0 0.9246447758646072 0.36500187720057864
4119000000.0 0.9902346007749642 0.2997954889847093
4122000000.0 0.9685639648079923 0.34656069535069545
4125000000.0 0.9522474430039035 0.3604271955856924
4128000000.0 0.9354143313217933 0.32652943893057307
4131000000.0 0.9420366495341523 0.31139888298577556
4134000000.0 0.9688494483190248 0.3027270767743472
4138000000.0 0.9551768163106404 0.26761177103831296
4141000000.0 0.9734372139684284 0.2795490340353848
4144000000.0 0.9877503914235913 0.295190887458964
4147000000.0 0.997840831306236 0.2763181304619983
4150000000.0 1.0428594910165345 0.27746278717292633
4153000000.0 0.9832490548412901 0.2681874435767817
4156000000.0 1.0129781296136842 0.24765293482259576
4159000000.0 0.9649056729704075 0.24708726756507665
4162000000.0 0.969809899909658 0.2267355069580843
4166000000.0 1.0070159143103985 0.2249756019428888
4169000000.0 0.9992534038554983 0.18586337508561313
4172000000.0 1.0084015741004078 0.20955513725393288
4175000000.0 1.026489530568871 0.22150290302901782
4178000000.0 1.03552805764891 0.18566071737917889
4181000000.0 0.9972774551966768 0.16810999565966372
4184000000.0 0.9966356980794453 0.14999559923596834
4188000000.0 0.9895813148643406 0.15889867672254088
4191000000.0 0.9964649066833984 0.17083223405738002
4194000000.0 0.9952015670908407 0.1212024979357817
4197000000.0 1.0289402730158559 0.13295793905480086
4200000000.0 1.0250123875279542 0.15190855699898126
4203000000.0 1.0347406062681408 0.12832655358718764
4206000000.0 1.0295331837742374 0.11648533140801831
4209000000.0 0.9988301538493416 0.08401309997662554
4212000000.0 1.0039760667778492 0.04716908576856499
4216000000.0 1.0396446657939664 0.0895745011157259
4219000000.0 1.027080511630451 0.06136975262936509
4222000000.0 1.0136590260518625 0.03829119987550253
4225000000.0 1.000745091683286 0.04279036146404336
4228000000.0 1.0226091496308005 0.030707571307756282
4231000000.0 1.0198569145490897 0.018528951630203988
4234000000.0 1.041697192020394 0.002212468093908654
4238000000.0 1.0091992329443737 -0.039927904880363296
4241000000.0 1.0088696008219113 -0.02266866190008779
4244000000.0 0.9918374058845217 -0.008388153166982992
4247000000.0 1.0116529589389627 -0.029915432703639777
4250000000.0 0.9856213409912782 -0.04677157330636483
4253000000.0 0.9811361447683757 -0.05675216147407611
4256000000.0 1.0544920568947407 -0.039994192662366645
4259000000.0 0.9795905243257773 -0.08336863624852932
4262000000.0 1.01017920494891 -0.11561743666811979
4266000000.0 1.0160993570242856 -0.1191806905476714
4269000000.0 1.0201680742750896 -0.07241680758780833
4272000000.0 1.0246902451091104 -0.08570935700927151
4275000000.0 1.0124835626356352 -0.09685960201137232
4278000000.0 1.0324237526375353 -0.13171948963418517
4281000000.0 1.0161214006360795 -0.13134819908418743
4284000000.0 1.0142205442477228 -0.18248961759979498
4288000000.0 0.9935836815394623 -0.11582234577382798
4291000000.0 0.9599327864673864 -0.15380780709172553
4294000000.0 0.9852344654782956 -0.16879827626808355
4297000000.0 1.0055367334217375 -0.15297122220827541
4300000000.0 0.968168520306711 -0.19281051971884763
4303000000.0 0.9635655942299357 -0.2087646091403043
4306000000.0 0.9789998297427219 -0.17567043779269897
4309000000.0 0.9886005299345147 -0.20610719674248837
4312000000.0 1.0076671421821717 -0.20674358853679495
4316000000.0 0.998223004781091 -0.2195046746772466
4319000000.0 0.9791106529726132 -0.23426405522173388
4322000000.0 0.9648871905055155 -0.28146231511529907
4325000000.0 0.9707489858160965 -0.26774469410633983
4328000000.0 0.9813200671316958 -0.27069015574187016
4331000000.0 0.973189967056975 -0.3102825337776217
4334000000.0 0.9594506587454237 -0.30418494450255273
4338000000.0 0.9619189133681327 -0.2836519036559513
4341000000.0 0.9775020546145511 -0.30579075913923826
4344000000.0 0.9786724186307625 -0.3172978844076175
4347000000.0 0.9484285451523291 -0.37218958864357643
4350000000.0 0.9073032893640753 -0.36964796022316226
4353000000.0 0.945077744587256 -0.3258010836118851
4356000000.0 0.9134005502631024 -0.38020989540634176
4359000000.0 0.8967841923739769 -0.3606638338065422
4362000000.0 0.9306427550797238 -0.4421467979998253
4366000000.0 0.9373600602438439 -0.40978776812089857
4369000000.0 0.9001224246504086 -0.40175411390163174
4372000000.0 0.9081645724160945 -0.4559001777183985
4375000000.0 0.9288696579281293 -0.4066320391150774
4378000000.0 0.8824166173527307 -0.4159976956923392
4381000000.0 0.8924831644043341 -0.4451253526118583
4384000000.0 0.9569015446299156 -0.4922592509143702
4388000000.0 0.8922245167703394 -0.45884684688905514
4391000000.0 0.8997469873506951 -0.4726540627786264
4394000000.0 0.8504829698316625 -0.4812358110296874
4397000000.0 0.888494654625372 -0.5086514931791513
4400000000.0 0.8907377281145128 -0.5105183203265268
4403000000.0 0.8881553301124719 -0.5181428626401844
4406000000.0 0.8535053815996635 -0.531024345625281
4409000000.0 0.8857833404760387 -0.5540594001621193
4412000000.0 0.8366906734801395 -0.5686813250172096
4416000000.0 0.8309513225500409 -0.5564865255429172
4419000000.0 0.8365072433099596 -0.5825086196326563
4422000000.0 0.8459152882926317 -0.5320712307609454
4425000000.0 0.8477842732459978 -0.5806777193727655
4428000000.0 0.8172820627606044 -0.5860902239202166
4431000000.0 0.8341213130667839 -0.6019511958409632
4434000000.0 0.804584098441367 -0.5976212256472659
4438000000.0 0.8217310933919193 -0.6133800031541936
4441000000.0 0.8095609497992149 -0.6422810628628702
4444000000.0 0.7821762861735007 -0.6190148286296322
4447000000.0 0.7823676960727691 -0.653405435980828
4450000000.0 0.7785358859819534 -0.6309011980017394
4453000000.0 0.7924132306224037 -0.6544457779317958
4456000000.0 0.7324196296084418 -0.6671780147046822
4459000000.0 0.7283259757581371 -0.6535039755982993
4462000000.0 0.7842639455913542 -0.7073929168001485
4466000000.0 0.7718723094948957 -0.7333061012932582
4469000000.0 0.7538652944559715 -0.6861117922818305
4472000000.0 0.7039242365120247 -0.7023578827973885
4475000000.0 0.7005490543937554 -0.6958557449957957
4478000000.0 0.7199141220164832 -0.7498379246604961
4481000000.0 0.7015485271913006 -0.7106641281987729
4484000000.0 0.6581847092205749 -0.7675867791755934
4488000000.0 0.6740593313776908 -0.7499146137733408
4491000000.0 0.7023349530904859 -0.7464016351322931
4494000000.0 0.6741731936585926 -0.7350858462337586
4497000000.0 0.6828051856786332 -0.7411496269459089
4500000000.0 0.6404708684256923 -0.7710422425869532
4503000000.0 0.6596610825873553 -0.7833237367019688
4506000000.0 0.636815800135575 -0.7711938682510265
4509000000.0 0.6199519212508442 -0.7906653961359184
4512000000.0 0.6177769671114516 -0.7793571145218635
4516000000.0 0.6292282453707642 -0.8197043649708005
4519000000.0 0.6030741450804722 -0.7930737179728071
4522000000.0 0.6128144100654159 -0.814224320403275
4525000000.0 0.6078365573217157 -0.8049329033781506
4528000000.0 0.5983239220859271 -0.8467651697652466
4531000000.0 0.5704647141422787 -0.8419741946148721
4534000000.0 0.5468812002143477 -0.8215000498137303
4538000000.0 0.5612481033649082 -0.852629085353901
4541000000.0 0.5046074676142176 -0.8552029252000317
4544000000.0 0.5315560394412513 -0.8541202751520318
4547000000.0 0.5392924645567713 -0.8497040936919589
4550000000.0 0.5051382826473949 -0.8800800314175705
4553000000.0 0.4952519479798826 -0.8925028133179964
4556000000.0 0.4772407849130604 -0.8933147468002728
4559000000.0 0.49143519003369374 -0.8896569859898917
4562000000.0 0.4739731655207997 -0.8960996943012598
4566000000.0 0.46772501518859333 -0.907145305274909
4569000000.0 0.4473287397908392 -0.9264963210784161
4572000000.0 0.4447275886156159 -0.9108459158788146
4575000000.0 0.4336429840423838 -0.9225206752999284
4578000000.0 0.440356541278872 -0.9293627567673197
4581000000.0 0.40562502603239436 -0.9079142990625543
4584000000.0 0.40092464660342575 -0.9221823887708056
4588000000.0 0.4014837154904129 -0.9343152293091502
4591000000.0 0.3859243243189807 -0.9570350080925856
4594000000.0 0.34780605849470525 -0.9663181104758498
4597000000.0 0.35704386237094093 -0.9531667283695137
4600000000.0 0.3548353296509761 -0.9595309010326161
4603000000.0 0.32851828467534283 -0.9669852809700952
4606000000.0 0.35817087816239634 -0.9763453457301148
4609000000.0 0.3191755747203904 -0.9524522717853642
4612000000.0 0.3093643233076744 -0.9715437487760248
4616000000.0 0.28428115409570204 -0.9622093034333702
4619000000.0 0.27012246903779125 -0.9712761935117872
4622000000.0 0.24108842512193834 -1.0077206995011783
4625000000.0 0.25087587063864447 -1.0076880811608335
4628000000.0 0.2604370611776755 -1.035075078469738
4631000000.0 0.24296611297657209 -0.986413548906
4634000000.0 0.20487502555848128 -0.9840893008723464
4638000000.0 0.21203350271496016 -1.0012459935916798
4641000000.0 0.21078130692039995 -1.0083721225311104
4644000000.0 0.1896957819825172 -0.9894831274994952
4647000000.0 0.19669113908072972 -1.0023246946150868
4650000000.0 0.1710543105994283 -1.0058540830052234
4653000000.0 0.16353296452570726 -1.0137673537644114
4656000000.0 0.1692127044950832 -1.0211196540702951
4659000000.0 0.12831140956691894 -1.0400801227260694
4662000000.0 0.1186704519553752 -1.0297482040472365
4666000000.0 0.07651693178914318 -1.0264604941283573
4669000000.0 0.0743537394916233 -1.029329229015152
4672000000.0 0.06861630213410605 -1.0537876171383682
4675000000.0 0.07002105056794145 -1.0495236643192603
4678000000.0 0.0532823747904527 -1.0072378163110578
4681000000.0 0.028607827185599927 -1.0020370533241778
4684000000.0 -0.01576186286492698 -1.077798068182788
4688000000.0 0.0010885668304085605 -1.0151712030147382
4691000000.0 0.03638440891290634 -1.0447828472481473
4694000000.0 0.01839120889285062 -1.0007163632676472
4697000000.0 -0.07342303668280992 -0.982633342856992
4700000000.0 -0.011911408436709264 -1.0191396924853278
4703000000.0 0.04306619748947271 -0.9491978497860338
4706000000.0 -0.06330034561866327 -1.0347495946036476
4709000000.0 -0.06674738085439597 -1.0281031725488674
4712000000.0 -0.05122488746540349 -1.0437465244141741
4716000000.0 -0.11286371029876005 -1.0511969153345275
4719000000.0 -0.04510000253622415 -0.9943045454183022
4722000000.0 -0.08041192831814387 -1.0335995205786803
4725000000.0 -0.06075438996256605 -1.038000402735239
4728000000.0 -0.13935196096148822 -0.9921585729721638
4731000000.0 -0.1504796250698891 -1.0860483494014022
4734000000.0 -0.14346218076878697 -1.0018791551960717
4738000000.0 -0.11622575111879735 -1.0648759577080185
4741000000.0 -0.19923664920478873 -1.0582776491690662
4744000000.0 -0.19083491801289515 -1.01998160018173
4747000000.0 -0.14563377302565106 -0.9594257883338712
4750000000.0 -0.17066009208692778 -1.0526114142588956
4753000000.0 -0.19297988153647067 -1.0026013146843256
4756000000.0 -0.23503105842741245 -1.0309433453718722
4759000000.0 -0.2344911049416249 -1.034923838662078
4762000000.0 -0.3263792856863452 -1.0013481305937817
4766000000.0 -0.2659181063867992 -0.9924648738636114
4769000000.0 -0.3056847852435247 -0.9878430742287866
4772000000.0 -0.2654262612144024 -0.9988315548504082
4775000000.0 -0.34456722260050854 -1.0377485806180144
4778000000.0 -0.3564992016978024 -0.9648008301642527
4781000000.0 -0.3461836778161891 -0.9722939142133578
4784000000.0 -0.3026562593345553 -0.9691180579698734
4788000000.0 -0.4165136360788799 -0.9695610087641728
4791000000.0 -0.3536145608375316 -0.9392069140527269
4794000000.0 -0.345348108599227 -1.0092689997820443
4797000000.0 -0.37524463813687986 -0.9257357723264549
4800000000.0 -0.389828438918728 -0.9223959951915399
4803000000.0 -0.47136865822362406 -0.9252468299945447
4806000000.0 -0.41514338260779116 -0.9582935423691403
4809000000.0 -0.4727507032158348 -0.9254578864159128
4812000000.0 -0.49457593034168174 -0.9024890816300442
4816000000.0 -0.39989907738885233 -0.9333677192193488
4819000000.0 -0.4528201244907502 -0.9645620358285996
4822000000.0 -0.49413477280219575 -0.9466742295281597
4825000000.0 -0.47141794995980807 -0.9627510924719034
4828000000.0 -0.5049482706962317 -0.910754750221937
4831000000.0 -0.5510986264172306 -0.9028488401450014
4834000000.0 -0.5081495309003813 -0.9179768707971594
4838000000.0 -0.5798602799022167 -0.8769558553314097
4841000000.0 -0.560099962213129 -0.8532193907302701
4844000000.0 -0.5440283221301634 -0.899043786293766
4847000000.0 -0.5079962898778233 -0.8429318406435741
4850000000.0 -0.6000720042008947 -0.8524473270327972
4853000000.0 -0.5652455873345366 -0.8119091579291591
4856000000.0 -0.5642706006389202 -0.827349245201297
4859000000.0 -0.6420257961701713 -0.8728753905916691
4862000000.0 -0.5931050610838332 -0.8262399115660125
4866000000.0 -0.6502479391556222 -0.7891596953973462
4869000000.0 -0.6422249946933518 -0.8053861700302731
4872000000.0 -0.6871295576150266 -0.8070406172400817
4875000000.0 -0.6622743292465355 -0.8792939564670189
4878000000.0 -0.6824547076461687 -0.7860348457651484
4881000000.0 -0.7600526032504736 -0.8060902617366849
4884000000.0 -0.7162029697529967 -0.768338511626172
4888000000.0 -0.7075585252750245 -0.7819867508291254
4891000000.0 -0.7723473621422904 -0.7565549925667668
4894000000.0 -0.7382410738782748 -0.723047815216763
4897000000.0 -0.6977686105545775 -0.7206559581970534
4900000000.0 -0.7599620682626016 -0.7367693217799656
4903000000.0 -0.7374724074613559 -0.7658777076226492
4906000000.0 -0.7679612361762588 -0.6924173599281909
4909000000.0 -0.778553776236408 -0.6778304959147823
4912000000.0 -0.8192525870502315 -0.6278286959383681
4916000000.0 -0.831509071334193 -0.6530304922972623
4919000000.0 -0.8158173165686449 -0.708271878438276
4922000000.0 -0.8464400197496637 -0.649128257688817
4925000000.0 -0.8511363675448945 -0.5714582840917155
4928000000.0 -0.7953220524787514 -0.6350215401181476
4931000000.0 -0.8395129970554225 -0.6419307663230778
4934000000.0 -0.8743226546629317 -0.5775101932613673
4938000000.0 -0.8606159588184222 -0.5659872934596709
4941000000.0 -0.8342573375785022 -0.5410856055900833
4944000000.0 -0.8728154590054108 -0.554115213518612
4947000000.0 -0.8811457269110665 -0.5291361382354208
4950000000.0 -0.8857023386123712 -0.5547597653697214
4953000000.0 -0.9243247340593135 -0.5114856820256715
4956000000.0 -0.9061093209931752 -0.489394989271628
4959000000.0 -0.8884331443621427 -0.4478748949235797
4962000000.0 -0.9244550540691553 -0.4787476109535772
4966000000.0 -0.9028686724009065 -0.5125903892154485
4969000000.0 -0.9474340715811028 -0.4652622575763551
4972000000.0 -0.917723165270583 -0.42256845433314094
4975000000.0 -0.9809516628299291 -0.4324052968777323
4978000000.0 -0.9479408810360128 -0.39475945267461915
4981000000.0 -0.9798225309230989 -0.3779226217512032
4984000000.0 -0.9870157996499507 -0.37901601470683355
4988000000.0 -0.9866672166585733 -0.3675553532993379
4991000000.0 -1.0254508456876565 -0.35895530991789315
4994000000.0 -0.9534711484009057 -0.32912507955755294
4997000000.0 -1.0040217394086703 -0.25583439435560335
5000000000.0 -1.0073262082309657 -0.2883205507428955
5003000000.0 -1.006665212462808 -0.2785619131106787
5006000000.0 -1.0222194577672 -0.26353262865834326
5009000000.0 -1.015935778870033 -0.2033155649583707
5012000000.0 -1.0175078693648072 -0.20633493431102654
5016000000.0 -1.02180693621291 -0.25309619100927244
5019000000.0 -1.0355651953906362 -0.18975535452541464
5022000000.0 -1.038076436990202 -0.16610645932600304
5025000000.0 -1.0284086298667539 -0.1645689174058396
5028000000.0 -1.0212171768691478 -0.17477423268301984
5031000000.0 -1.036890434136293 -0.09320571583769216
5034000000.0 -1.0476761512768729 -0.09098560014113298
5038000000.0 -1.0174921131349144 -0.07078305677564285
5041000000.0 -1.0352328167621738 -0.054108317634037506
5044000000.0 -1.0039443956380427 -0.058618776768679576
5047000000.0 -1.0212219131379618 -0.002902078002983588
5050000000.0 -1.0703647668968996 -0.004769099044550834
5053000000.0 -1.0345186521520144 0.04774445924363821
5056000000.0 -1.012431572359282 0.03180925393138598
5059000000.0 -1.00538020338551 0.10144848826132662
5062000000.0 -1.0250447923935504 0.13115594459780805
5066000000.0 -1.0607103975841385 0.15233642467441524
5069000000.0 -1.0388587798476818 0.08495071732806693
5072000000.0 -1.0796042814704165 0.0859776041596604
5075000000.0 -0.9850637390359873 0.14841750505283618
5078000000.0 -1.0519485391071097 0.1553142817117756
5081000000.0 -1.0243398407220472 0.19384228446431676
5084000000.0 -0.9516558530284234 0.26676287385322994
5088000000.0 -1.0659840993398215 0.22667594641798677
5091000000.0 -0.9557266586348998 0.29786277758487384
5094000000.0 -0.9162475795248632 0.3341587707799745
5097000000.0 -0.9190819070400633 0.3131306662378043
5100000000.0 -0.9688545416334562 0.3627997338788434
5103000000.0 -1.0095479477855887 0.42498924798839943
5106000000.0 -0.9087548745107921 0.3912734300832491
5109000000.0 -0.9491556960629892 0.3850514434024548
5112000000.0 -0.9482538167133495 0.43172534270360746
5116000000.0 -0.9641301959155882 0.4133221994753795
5119000000.0 -0.8614780004310788 0.540232983080255
5122000000.0 -0.8563187134517614 0.5089349413154196
5125000000.0 -0.8837518205442317 0.39872338573611993
5128000000.0 -0.8958813758941248 0.5067549875309596
5131000000.0 -0.9449005758884099 0.630112282456199
5134000000.0 -0.813067204136647 0.5462248947363988
5138000000.0 -0.8228795489018166 0.5682702024425196
5141000000.0 -0.8404995678044027 0.6279561838896706
5144000000.0 -0.7744366466840226 0.6241412686151313
5147000000.0 -0.7805764917987966 0.7132636224540843
5150000000.0 -0.8283119400599475 0.7556123615133677
5153000000.0 -0.8413081401463092 0.7571989620673201
5156000000.0 -0.7097807207514862 0.6580328464554368
5159000000.0 -0.72351138839751 0.7344406228188034
5162000000.0 -0.6761159961821704 0.8118658933192388
5166000000.0 -0.6966460204318631 0.7040987437128515
5169000000.0 -0.647213912122595 0.7811507132522205
5172000000.0 -0.6814644027929123 0.8081681650257557
5175000000.0 -0.6194800847445608 0.8105631317848596
5178000000.0 -0.6368879639745506 0.8227516245426142
5181000000.0 -0.5318456319021362 0.8604605942916371
5184000000.0 -0.5731877298190554 0.8817307396915619
