! Created with skrf 1.8.0 (http://scikit-rf.org).
# Hz S RI R 50.0 
!freq ReS11 ImS11
4000000000.0 0.6226872067143252 0.8198184322602524
4003000000.0 0.6515982741407816 0.8496223971288491
4006000000.0 0.6849656051493664 0.7479818436069706
4009000000.0 0.6569695573345495 0.8219895513004675
4012000000.0 0.6306111990200569 0.8532918424580499
4016000000.0 0.691988261325354 0.7789781796758668
4019000000.0 0.6737751764382318 0.7731018296871427
4022000000.0 0.6230060191316927 0.8549401107687852
4025000000.0 0.7586120169885798 0.7649753275929123
4028000000.0 0.7439934700278492 0.7751413512880583
4031000000.0 0.6829492468604603 0.7326550641339225
4034000000.0 0.7474873715576673 0.7321152126502012
4038000000.0 0.7434592395301841 0.7395169600291857
4041000000.0 0.7364481610881147 0.7560128759411568
4044000000.0 0.7402989845585616 0.77562189068537
4047000000.0 0.7691747171940898 0.7983415927338736
4050000000.0 0.7672564732174364 0.7332443013867859
4053000000.0 0.7611802882562468 0.6697848597911664
4056000000.0 0.7604215033501655 0.7197144764053439
4059000000.0 0.7203711692947596 0.7151172120549336
4062000000.0 0.7919472370189331 0.6883271227898897
4066000000.0 0.7250576770476072 0.6323070852541393
4069000000.0 0.8027159812614248 0.6904647915294242
4072000000.0 0.7524977404738377 0.723510468621773
4075000000.0 0.8382474121429426 0.7178696627818841
4078000000.0 0.8188602486745735 0.6594611043154236
4081000000.0 0.7978476221511709 0.713180928761468
4084000000.0 0.819587383691989 0.6353665400693842
4088000000.0 0.790147207803967 0.6805992273934824
4091000000.0 0.8506779925318417 0.6398440711075244
4094000000.0 0.8183670138282053 0.6312217651678357
4097000000.0 0.8538062862936303 0.648452892751729
4100000000.0 0.7825421992244115 0.6251392653244077
4103000000.0 0.8509705217918264 0.6748959347284791
4106000000.0 0.8699122601623481 0.5766154728500144
4109000000.0 0.8742776176238101 0.5553039204724173
4112000000.0 0.8623785768092975 0.5843835215798503
4116000000.0 0.8432431428318727 0.6145927443251994
4119000000.0 0.8497128983592198 0.5443963398191424
4122000000.0 0.9302881903195206 0.5432363102985223
4125000000.0 0.8852231226550548 0.5542849407183812
4128000000.0 0.8557431572453745 0.5341791245728893
4131000000.0 0.8852394592091765 0.5421567182803781
4134000000.0 0.8548647757692296 0.5446929999870792
4138000000.0 0.8805726797794502 0.5108481114261219
4141000000.0 0.8865061895486269 0.5373253699481129
4144000000.0 0.9167054511312578 0.5117098920857006
4147000000.0 0.8918485615009347 0.5214342502243567
4150000000.0 0.9070034067478897 0.5274962449987786
4153000000.0 0.9201957346157337 0.5103550755763498
4156000000.0 0.9118350670033772 0.525454830765994
4159000000.0 0.9079205958995269 0.4928259085983671
4162000000.0 0.8935169416543229 0.47091457757946387
4166000000.0 0.9113614385466364 0.4819802245515614
4169000000.0 0.9399459019078436 0.4310202605798539
4172000000.0 0.9422096814322106 0.4482759834342261
4175000000.0 0.9511481873384555 0.41527702599476884
4178000000.0 0.9392347596490626 0.44234326127712176
4181000000.0 0.9149461248040849 0.4016363463248874
4184000000.0 0.9185438878860898 0.4149957401060333
4188000000.0 0.9343525023000461 0.40494091469025517
4191000000.0 0.8951669475838846 0.41409544871755094
4194000000.0 0.9305908772879211 0.4018974581215987
4197000000.0 0.9538629871802408 0.3878698917322118
4200000000.0 0.9521699129859391 0.40231224518024344
4203000000.0 0.9533986455198691 0.38476883799458284
4206000000.0 0.9741424385993472 0.3857581955319544
4209000000.0 0.9419370651102824 0.36471436453004963
4212000000.0 0.9725994990901667 0.3366406068396398
4216000000.0 0.9539890892775102 0.3611531450753754
4219000000.0 0.9641166752899029 0.35110050112011015
4222000000.0 0.9661756692506267 0.3163246084460793
4225000000.0 0.9586178378120671 0.3237488232814991
4228000000.0 1.0008797983368205 0.3156886700741546
4231000000.0 0.9825188917022868 0.2858753161417836
4234000000.0 0.985020143251251 0.2939194844146606
4238000000.0 0.9926813951117411 0.27557553171367866
4241000000.0 0.9798361410188217 0.26660071441772837
4244000000.0 0.9773866650302755 0.2554625716151254
4247000000.0 0.9859466796573534 0.2543769151510298
4250000000.0 0.9578576009118971 0.23938608342895473
4253000000.0 0.9729138116701996 0.22201417429357928
4256000000.0 1.019194060354547 0.2332952783971733
4259000000.0 0.9682249904936152 0.22685192292564718
4262000000.0 0.9950544028655905 0.19629167212673979
4266000000.0 1.0173835874902495 0.1947485426328801
4269000000.0 0.9972213348261874 0.19826368518616574
4272000000.0 1.0101102664125925 0.1909318518744239
4275000000.0 1.0100236431000162 0.1894195580422648
4278000000.0 1.0193109846565176 0.17863573099851804
4281000000.0 1.0288542171366324 0.16786173671251803
4284000000.0 1.0036068841499857 0.11168769561317857
4288000000.0 1.0119647464159427 0.1682698436449814
4291000000.0 0.972024352024226 0.12539034782815867
4294000000.0 0.9934029045308286 0.10895191390703575
4297000000.0 1.017202565683152 0.14383585121042508
4300000000.0 0.9940280134495854 0.11312867051414185
4303000000.0 0.9984872145121181 0.10743592128604705
4306000000.0 1.0084345047245142 0.12007522409899729
4309000000.0 1.0177000487612555 0.08566215414914495
4312000000.0 1.0176074497692102 0.11448168474950121
4316000000.0 1.0196565443081913 0.07914327465370845
4319000000.0 0.9913229415167707 0.07377295878769387
4322000000.0 1.000602210019498 0.06962050022190978
4325000000.0 1.0050493585368605 0.06309164142957806
4328000000.0 1.0107624569345985 0.040098929244132345
4331000000.0 1.048353416904003 0.012208668043324211
4334000000.0 1.0294619176986926 0.01716105780499605
4338000000.0 1.0015382083200364 0.045979352760273304
4341000000.0 1.0267653787218263 0.03332573849372941
4344000000.0 1.0228258464586197 0.006323235590328352
4347000000.0 1.0392241024176443 -0.026606336972637062
4350000000.0 1.0131837900253107 -0.04444760316684056
4353000000.0 0.9899546386151843 -0.026646261739897203
4356000000.0 0.9958878398249678 -0.046384931564258186
4359000000.0 0.9511880074026848 -0.022940537217459755
4362000000.0 1.0372832583046918 -0.12302750445057
4366000000.0 1.0320222416002678 -0.07713727209300615
4369000000.0 0.9750184758641945 -0.08388660131530716
4372000000.0 0.991062481133028 -0.1188223655976646
4375000000.0 1.0066814186638133 -0.08213181765722274
4378000000.0 0.9907086101672358 -0.10395023244342971
4381000000.0 1.0150995841283095 -0.11514259024449532
4384000000.0 1.0606947657155132 -0.13777463418824332
4388000000.0 0.9882477584032987 -0.12003984212928269
4391000000.0 1.002364375872319 -0.11522075660603252
4394000000.0 0.9658389975433644 -0.1377766920634793
4397000000.0 1.0004416496195294 -0.1523151677493938
4400000000.0 1.0142460927585057 -0.1709432901301154
4403000000.0 1.0165527339620006 -0.15831884177860014
4406000000.0 0.9944301170580193 -0.2051812665050065
4409000000.0 1.0241700939766356 -0.20153412437231252
4412000000.0 0.9635297875699296 -0.24888526639428912
4416000000.0 0.9725732558057687 -0.21315960810919451
4419000000.0 0.9944901685796171 -0.23298329824840422
4422000000.0 0.9833205541403989 -0.1906241522455236
4425000000.0 1.01468324325885 -0.2041397681127203
4428000000.0 0.9899153141796583 -0.24938372345144078
4431000000.0 1.0061545724859982 -0.25789932646346797
4434000000.0 0.9590085737321599 -0.2542820293817816
4438000000.0 0.9989333694842311 -0.2762537198287242
4441000000.0 0.9955584500450787 -0.2731025309125254
4444000000.0 0.942529446033747 -0.2794753679145801
4447000000.0 0.9528953318955394 -0.30458318717471666
4450000000.0 0.9610325229478027 -0.2864962738379735
4453000000.0 0.9827001843355148 -0.31421994695954086
4456000000.0 0.9426604207293315 -0.3304215923900766
4459000000.0 0.9141110351698241 -0.3301053657893398
4462000000.0 1.019120364965906 -0.36312165008185915
4466000000.0 1.0035721484554485 -0.3682396203484901
4469000000.0 0.9638288403183508 -0.3208745437700742
4472000000.0 0.9534424557379094 -0.3827710414568959
4475000000.0 0.9170556719931963 -0.3428398726563341
4478000000.0 0.9726307087570647 -0.4068581086672213
4481000000.0 0.8994712569673693 -0.37692715927673776
4484000000.0 0.9108758284433895 -0.42450804430958866
4488000000.0 0.9058486177059812 -0.4073918900641583
4491000000.0 0.9160711137530211 -0.4106580223366631
4494000000.0 0.9026008768255451 -0.4101699439913296
4497000000.0 0.8967617181167853 -0.4175469755188837
4500000000.0 0.9269828649352392 -0.42343879283031316
4503000000.0 0.9200364579281894 -0.4546793790758218
4506000000.0 0.9142757899020444 -0.4393351782467058
4509000000.0 0.8743352417939694 -0.44232045522110797
4512000000.0 0.8749890473412629 -0.4508232309137208
4516000000.0 0.9036984651398613 -0.48245881298571763
4519000000.0 0.8830058396757346 -0.4571929727893423
4522000000.0 0.8835374029238752 -0.489558015156073
4525000000.0 0.8991297461393022 -0.4594239274841996
4528000000.0 0.8906196912750068 -0.5133745223878343
4531000000.0 0.8952048948084883 -0.4997961764550106
4534000000.0 0.8424380209331934 -0.5203597673647508
4538000000.0 0.8503516458018336 -0.5253512474237924
4541000000.0 0.8240758183279908 -0.5521612347611247
4544000000.0 0.8449822464000423 -0.5282134610821013
4547000000.0 0.8406277632515716 -0.5168871583693722
4550000000.0 0.8295648684967067 -0.5814929936840119
4553000000.0 0.8332571104010409 -0.5757298387577016
4556000000.0 0.8020130438419684 -0.5714973352574624
4559000000.0 0.8256479899948445 -0.5917674548902176
4562000000.0 0.8271470077905523 -0.5775802041198226
4566000000.0 0.8197265527370494 -0.5972549946208088
4569000000.0 0.7917944373480663 -0.6116403908065575
4572000000.0 0.8115571461844846 -0.6164628868757966
4575000000.0 0.7783392286524575 -0.6377596706708065
4578000000.0 0.8092989002223068 -0.6238380175922527
4581000000.0 0.7942309938396037 -0.6485601441119069
4584000000.0 0.7719979235377278 -0.6389748504031167
4588000000.0 0.8116332060631747 -0.6592989094187178
4591000000.0 0.7711909660406165 -0.6318107057085346
4594000000.0 0.7395543934278364 -0.6920048523321539
4597000000.0 0.7662058523815514 -0.6781824030965923
4600000000.0 0.7229300032060471 -0.7066847798792275
4603000000.0 0.7356523922783906 -0.6827143273580377
4606000000.0 0.7451949525662247 -0.6708197461206299
4609000000.0 0.731469824904651 -0.6840043042061461
4612000000.0 0.7302493971751467 -0.6958755193118384
4616000000.0 0.718978212826737 -0.7038106504597992
4619000000.0 0.7187578852713653 -0.6895450420568874
4622000000.0 0.7089138752994351 -0.7175965812706937
4625000000.0 0.6759158869024933 -0.7189433707676124
4628000000.0 0.7150755198454222 -0.7146308164778857
4631000000.0 0.679655716655535 -0.7308440078693815
4634000000.0 0.7024639353408634 -0.7447994028017373
4638000000.0 0.6818616048435874 -0.7542564858304721
4641000000.0 0.6893513939802297 -0.738615942553492
4644000000.0 0.6724455873611213 -0.7646983360360287
4647000000.0 0.6663757087658444 -0.7634061417902621
4650000000.0 0.6473740969005868 -0.7650605761486432
4653000000.0 0.6550171957073747 -0.7719890671877264
4656000000.0 0.6318995290918097 -0.7916317425803909
4659000000.0 0.6206536565292945 -0.8001547572868002
4662000000.0 0.6213602698847823 -0.8026286705241715
4666000000.0 0.6018928662797604 -0.8080818838705314
4669000000.0 0.6234609383068743 -0.8155413083506549
4672000000.0 0.5729306076414585 -0.8540812623489981
4675000000.0 0.5680082538224891 -0.8367245849993281
4678000000.0 0.5648546772357417 -0.806180914000576
4681000000.0 0.5684579375513265 -0.8577000940928333
4684000000.0 0.5471269237351059 -0.850742788868415
4688000000.0 0.5392343265094137 -0.8482129607878234
4691000000.0 0.5848063403016684 -0.8360423557126462
4694000000.0 0.5626601123234811 -0.8244229551777413
4697000000.0 0.5125845457571018 -0.8306477148884428
4700000000.0 0.5251060804691075 -0.8840737464061976
4703000000.0 0.5254491632205354 -0.8355727693806556
4706000000.0 0.5229663310058029 -0.8544790664260987
4709000000.0 0.5123331394096382 -0.8634053535169675
4712000000.0 0.5401044032943283 -0.8536317522874093
4716000000.0 0.499748152145958 -0.8800894742330443
4719000000.0 0.52034595038375 -0.860957067839224
4722000000.0 0.5304089473742712 -0.8710185092867249
4725000000.0 0.4702982165221841 -0.8908776943358909
4728000000.0 0.45779717924447705 -0.8983758915705653
4731000000.0 0.4750383393943293 -0.9161576088877454
4734000000.0 0.47326462414791853 -0.8795375489638452
4738000000.0 0.47809899014051627 -0.9340683582922118
4741000000.0 0.44600130661338777 -0.9634429051046948
4744000000.0 0.3964503853532041 -0.9339314263598915
4747000000.0 0.4308720914798507 -0.8945083910416998
4750000000.0 0.4344451448166285 -0.9131284154292578
4753000000.0 0.4198269271559269 -0.9264614605810879
4756000000.0 0.3934308653275367 -0.9490639719504352
4759000000.0 0.39893003412224587 -0.9470400413223644
4762000000.0 0.3602485788143989 -0.9317032362029305
4766000000.0 0.3636031712229215 -0.9508155024255583
4769000000.0 0.38456526142302355 -0.9781524970119316
4772000000.0 0.3589218151011959 -0.9720281285133939
4775000000.0 0.33101913244039044 -1.0185133232616246
4778000000.0 0.3289760235243227 -0.9996764254001024
4781000000.0 0.35486092302202316 -0.9389973492520793
4784000000.0 0.358464525693817 -0.9264540141290972
4788000000.0 0.3245804144711666 -1.0004706793670208
4791000000.0 0.30636602735242346 -0.9636571023678361
4794000000.0 0.3384150877572661 -0.9919165925198223
4797000000.0 0.2784928240491704 -0.9404840058708456
4800000000.0 0.28206699339586416 -0.9737021640727999
4803000000.0 0.24556857068153182 -0.9648440048835698
4806000000.0 0.27528566375004604 -0.9963912229265428
4809000000.0 0.22614507625504815 -1.0163679078430743
4812000000.0 0.20257668820101682 -0.9957123037736462
4816000000.0 0.254519679804936 -0.9821203397754881
4819000000.0 0.27752740550015204 -1.0157585967286187
4822000000.0 0.26995740602452173 -1.0564593924914951
4825000000.0 0.24063056949987444 -1.0225385155536908
4828000000.0 0.21484662538444985 -1.015531345842676
4831000000.0 0.18595856159856863 -1.0212303812349441
4834000000.0 0.19450932975936852 -1.005356845895903
4838000000.0 0.1616578975010458 -1.0158128339210202
4841000000.0 0.1616491913867745 -0.9967903208071901
4844000000.0 0.1928501231879956 -1.0076200856202064
4847000000.0 0.19322952948298255 -0.9917016288076834
4850000000.0 0.14322057320535816 -1.053200160856436
4853000000.0 0.12987348626008857 -0.9960892648911661
4856000000.0 0.1518961165975562 -1.0121351475162341
4859000000.0 0.11793758172678867 -1.045704517300456
4862000000.0 0.15661429934523952 -0.9897424156923241
4866000000.0 0.1000914403360367 -1.0370329657914161
4869000000.0 0.09602756276910918 -1.0272268407213694
4872000000.0 0.0993518623579917 -1.0613006981570452
4875000000.0 0.14501995363954792 -1.0550918860062224
4878000000.0 0.08621883824386171 -1.0161756928874417
4881000000.0 0.02623765799167304 -1.0830806786852536
4884000000.0 0.08420144682283878 -1.0365252121780244
4888000000.0 0.10299091204964544 -1.0247486965517414
4891000000.0 0.08602369231583464 -1.0487999323487225
4894000000.0 0.027739365963201576 -1.023469560431955
4897000000.0 0.07286930497410553 -1.0223620799632263
4900000000.0 0.02597700812542889 -1.063504188153934
4903000000.0 0.03591414378986334 -1.0555973078027214
4906000000.0 0.0044752402050002305 -1.062029389103747
4909000000.0 -0.010722892693786845 -1.0153959089188955
4912000000.0 -0.00491615063086516 -1.0597841963863677
4916000000.0 0.00681615797058608 -1.0556844391999811
4919000000.0 -0.016875007803896502 -1.0551736157717109
4922000000.0 0.01356208827351036 -1.033890280233967
4925000000.0 -0.07961409604164026 -1.0423944837901957
4928000000.0 0.027326051670087323 -1.008686270454601
4931000000.0 -0.03290272955854444 -1.0281877400100647
4934000000.0 -0.06309414348249294 -0.9877050910940909
4938000000.0 -0.1039838178352371 -1.0140899970096533
4941000000.0 -0.07014614916155772 -1.0111416029899645
4944000000.0 -0.10075377910531702 -0.9410588990099504
4947000000.0 -0.09963719188001788 -1.0150729920333768
4950000000.0 -0.12240656986989264 -1.0118270990579767
4953000000.0 -0.18307684798368745 -1.0990635943328404
4956000000.0 -0.12634339864153538 -1.0298099246799315
4959000000.0 -0.16664438831751635 -1.0068384801987165
4962000000.0 -0.18124269871311408 -1.0549490508700887
4966000000.0 -0.12391264300378357 -1.0586636599509127
4969000000.0 -0.15832540927574773 -1.0840704679803344
4972000000.0 -0.18996714173912335 -1.014289471089056
4975000000.0 -0.1522708364754415 -0.9972167968152855
4978000000.0 -0.198320252636153 -1.0027443464585106
4981000000.0 -0.17504437254606828 -1.0399224372673175
4984000000.0 -0.18212432422329192 -0.9955065977353786
4988000000.0 -0.18216337467028582 -0.9978920956795053
4991000000.0 -0.14788108608506156 -1.055888998958898
4994000000.0 -0.1826831829988984 -1.019605964341857
4997000000.0 -0.2571358950036098 -0.9942386022702315
5000000000.0 -0.22337657021816953 -1.036719251165826
5003000000.0 -0.2570813128441348 -1.052905982612096
5006000000.0 -0.2621651126399869 -1.0584912849792432
5009000000.0 -0.26179247725438126 -1.0182334370227697
5012000000.0 -0.2917828431127742 -1.0055942630035772
5016000000.0 -0.23252796638958023 -1.0104195037577537
5019000000.0 -0.2813992406059863 -0.9692798424678444
5022000000.0 -0.3096981532875408 -1.0204253572984634
5025000000.0 -0.29891435167584085 -1.0545006760284414
5028000000.0 -0.34578100684435376 -1.0218669059536953
5031000000.0 -0.2903372580151735 -0.9405160633554949
5034000000.0 -0.4040097672981474 -0.9863251418145607
5038000000.0 -0.3715090173055039 -0.9390462443035825
5041000000.0 -0.30331064840009836 -0.9934059125058236
5044000000.0 -0.3012943286185682 -0.9580833577501523
5047000000.0 -0.319447975865145 -0.9771482097117027
5050000000.0 -0.30029801168338977 -0.969851917976402
5053000000.0 -0.3979617543786822 -0.9770848778044947
5056000000.0 -0.3129277687362567 -1.0130640266764792
5059000000.0 -0.3420370938290089 -1.0076552444152913
5062000000.0 -0.4280013521588395 -0.9630291649853995
5066000000.0 -0.37655447659594743 -0.9608169300404099
5069000000.0 -0.42463457268760174 -0.9991153431779748
5072000000.0 -0.4173803518190933 -0.9246766103033555
5075000000.0 -0.37505332616270504 -1.0054485366402761
5078000000.0 -0.4805294817662839 -0.9698628012978183
5081000000.0 -0.4356061930525242 -0.8994829791368003
5084000000.0 -0.4447420258697904 -0.9839110351792761
5088000000.0 -0.41293373392547156 -0.9279204749889964
5091000000.0 -0.5080191263716591 -0.9280518078321853
5094000000.0 -0.48424592392311067 -0.9483560478593233
5097000000.0 -0.4545641109546037 -0.9380887554868464
5100000000.0 -0.4626402724619776 -0.9157752088351104
5103000000.0 -0.5239994367476076 -0.8936019675286339
5106000000.0 -0.5027396784852475 -0.9659843644225727
5109000000.0 -0.48396999911387456 -0.9188281766557431
5112000000.0 -0.533618285560403 -0.8776832102499843
5116000000.0 -0.48344597953317286 -0.8529780958042881
5119000000.0 -0.5275660757968536 -0.9138135958443354
5122000000.0 -0.5564207386822265 -0.8964017459085201
5125000000.0 -0.5254375751819951 -0.8895825006263385
5128000000.0 -0.5481292681888299 -0.900984013053409
5131000000.0 -0.5091073092948198 -0.8729449724901063
5134000000.0 -0.5335553026825889 -0.8635315644417232
5138000000.0 -0.5402258105392331 -0.9225443868094394
5141000000.0 -0.512264220061847 -0.8981043026288926
5144000000.0 -0.5541070977285064 -0.8810410100240167
5147000000.0 -0.6089886359620776 -0.8630933331448618
5150000000.0 -0.5839158578487235 -0.9246492790905693
5153000000.0 -0.5972391884204253 -0.8414515248741374
5156000000.0 -0.5668783534655516 -0.8964859425887169
5159000000.0 -0.5952445499517669 -0.8502800929124543
5162000000.0 -0.6330752665575695 -0.8304504910989603
5166000000.0 -0.6267841390290485 -0.8455416617741093
5169000000.0 -0.5962779608915677 -0.8230461481825674
5172000000.0 -0.6047994945465514 -0.8244488805057235
5175000000.0 -0.6190302464291401 -0.8714732047946832
5178000000.0 -0.6532312122016091 -0.8403920797755261
5181000000.0 -0.6637830754980274 -0.8483453967601121
5184000000.0 -0.6567581544415588 -0.7960042505563032
5188000000.0 -0.6757430563668261 -0.7914534751224518
