! Created with skrf 1.8.0 (http://scikit-rf.org).
# Hz S RI R 50.0 
!freq ReS11 ImS11
4000000000.0 0.6036760446862482 0.8267378477213172
4003000000.0 0.6773455674393761 0.8697011181171957
4006000000.0 0.6955581969652264 0.7481206263381209
4009000000.0 0.6633040337930585 0.7884436212615282
4012000000.0 0.6673129476374484 0.8363246019723787
4016000000.0 0.659757992237852 0.8090125480369017
4019000000.0 0.6608031372653933 0.7697377815868378
4022000000.0 0.6538405489721048 0.8201572928736796
4025000000.0 0.7052759793332781 0.7580036243778525
4028000000.0 0.7173750173048251 0.7812624362025173
4031000000.0 0.6917076710504074 0.754900316200883
4034000000.0 0.7186074848322531 0.7552473007194059
4038000000.0 0.7502052698365107 0.718898132307421
4041000000.0 0.7285502947373617 0.729398291603306
4044000000.0 0.7780279730108355 0.7751060255495809
4047000000.0 0.7425871670265168 0.7751919827699288
4050000000.0 0.7621875023079162 0.6789449460696227
4053000000.0 0.7883280083277833 0.6842066138374492
4056000000.0 0.7713113328927166 0.7306667245966686
4059000000.0 0.7419115126855907 0.7058804970158092
4062000000.0 0.7734450492765319 0.6541034281753213
4066000000.0 0.7110071236551301 0.6083049920177804
4069000000.0 0.7997256484870374 0.6761036981913899
4072000000.0 0.7061648206623148 0.6920848180102899
4075000000.0 0.7745493839713506 0.7321134401927063
4078000000.0 0.8059727989008003 0.6753504231563349
4081000000.0 0.7958110084292879 0.6873721058529447
4084000000.0 0.8277070897838371 0.6293387188496284
4088000000.0 0.7583995868236396 0.6475122675542586
4091000000.0 0.8858212427870341 0.6962421421305951
4094000000.0 0.8293874962621828 0.6355312818932004
4097000000.0 0.848288865186301 0.6308852752817757
4100000000.0 0.8692028437950654 0.6132969579501808
4103000000.0 0.8058666993983374 0.6448626767621664
4106000000.0 0.8557332351030484 0.608919557786293
4109000000.0 0.8656946513667387 0.5761090110117644
4112000000.0 0.8366217860510763 0.6085393051463344
4116000000.0 0.8125724819118338 0.5882867720448406
4119000000.0 0.8354911103566076 0.5674352677948773
4122000000.0 0.8861654369515223 0.5630909974443807
4125000000.0 0.8884495352563554 0.5387531643713075
4128000000.0 0.7955042811128122 0.5703510302777016
4131000000.0 0.8742176972670622 0.5407220283310382
4134000000.0 0.8737837293980247 0.5680522564982448
4138000000.0 0.8827507175680294 0.49813681775046775
4141000000.0 0.8829168248739437 0.5347516652685699
4144000000.0 0.9047274512694792 0.5637421135790939
4147000000.0 0.9172269025537303 0.4884359904903112
4150000000.0 0.9637086470890169 0.5228916037720073
4153000000.0 0.9080257147294891 0.5070422922515578
4156000000.0 0.9023117819349791 0.5445275136430052
4159000000.0 0.9117933077925628 0.4511287558566312
4162000000.0 0.87986436811342 0.46533596721154313
4166000000.0 0.920227304623537 0.43707246203385164
4169000000.0 0.9413348491941825 0.41793417661475474
4172000000.0 0.916278392304 0.4698801864914603
4175000000.0 0.9530291619961511 0.4462783553481707
4178000000.0 0.9329631859509135 0.4165643215489888
4181000000.0 0.9526791068261455 0.4123775031254526
4184000000.0 0.9312761441151365 0.42417591334088206
4188000000.0 0.9487618400888973 0.41156637203908275
4191000000.0 0.876752627555774 0.42460283594368914
4194000000.0 0.9318085254104784 0.3980295404135047
4197000000.0 0.9519461650850198 0.3719196587328078
4200000000.0 0.9594470178868013 0.3798596048734011
4203000000.0 0.9466439144410588 0.38280335610128413
4206000000.0 0.95423515955872 0.37235387680427107
4209000000.0 0.957720298232691 0.38130045212382374
4212000000.0 0.9749948759749799 0.3303682616147531
4216000000.0 0.9663718140054977 0.3479894218050172
4219000000.0 0.9798494925587312 0.33738510457727466
4222000000.0 0.973256043604183 0.32124586543463424
4225000000.0 0.9543635594801521 0.3148514123006938
4228000000.0 0.978003093569132 0.30274856963728725
4231000000.0 0.990525461948305 0.2859537288887547
4234000000.0 0.9945187083898148 0.2808876222206339
4238000000.0 0.9849435210462392 0.27436249155604664
4241000000.0 0.9880694521305387 0.2513501145508896
4244000000.0 0.9747144305245519 0.27717141189895367
4247000000.0 0.9795865687723059 0.27287660723868096
4250000000.0 0.9720531165986017 0.24380803743352575
4253000000.0 0.9725727584886095 0.22681447347580835
4256000000.0 0.9919288179489012 0.22679968208015205
4259000000.0 0.9674742515934073 0.2092382514799249
4262000000.0 0.9914236100835976 0.20089882593383376
4266000000.0 1.0079796219858812 0.19172014223366785
4269000000.0 0.9953791328953704 0.2133465316875989
4272000000.0 0.9876060310703838 0.18846369210661418
4275000000.0 1.0144546175827391 0.18561959147499385
4278000000.0 1.0198907365184728 0.17365105594357444
4281000000.0 1.0086467964435355 0.163383847261505
4284000000.0 1.028237716431492 0.14039167044031722
4288000000.0 1.0113197204942 0.1771116879629412
4291000000.0 0.9736850098996322 0.1229935878857704
4294000000.0 1.003873938478222 0.14938213270454487
4297000000.0 0.9897878434200986 0.14676465660217047
4300000000.0 1.0009153291068695 0.12455771627699061
4303000000.0 0.9969054219977243 0.0875180880033722
4306000000.0 1.047204516500345 0.11302410497389415
4309000000.0 1.0276378167246731 0.08500289696131115
4312000000.0 1.0308663474798394 0.10639515204951547
4316000000.0 1.0259512929417984 0.1010867293888733
4319000000.0 1.021335907724443 0.06576563640244847
4322000000.0 0.9851755717888347 0.0421315363389745
4325000000.0 1.0248479443352099 0.048699666593344
4328000000.0 1.009428535510423 0.042728669653772075
4331000000.0 1.0229549521260157 -0.005545747631224451
4334000000.0 1.0229657199227384 -0.005872691007876879
4338000000.0 1.0284282913726064 0.041315664676540895
4341000000.0 1.036713553947551 0.03273576942739789
4344000000.0 1.0171066718273962 0.00877008919235836
4347000000.0 1.0476782463335628 -0.03779372720398819
4350000000.0 0.9779403117695326 -0.027593549150858904
4353000000.0 0.9792445024161731 -0.004254042686415216
4356000000.0 0.9893543644326686 -0.05653389144740238
4359000000.0 0.9726287828853057 -0.047555661470627494
4362000000.0 0.9899175277907117 -0.11149605731516637
4366000000.0 1.039610362221858 -0.10632733604090089
4369000000.0 0.9762093966306832 -0.0753026289618582
4372000000.0 0.9713835209385531 -0.1288864594981376
4375000000.0 1.022279993413158 -0.0714565979812053
4378000000.0 0.9878989968217271 -0.0896835111855492
4381000000.0 0.994680250505281 -0.10924678418285627
4384000000.0 1.066027220289423 -0.12138163363707533
4388000000.0 0.999191913963115 -0.10817077439674655
4391000000.0 1.023211022254681 -0.13672134380170153
4394000000.0 0.9727848899436154 -0.14409426532623387
4397000000.0 1.0025143830650558 -0.15801855058050884
4400000000.0 1.0253863900488085 -0.17166935236952358
4403000000.0 1.008863634608267 -0.17904625096566934
4406000000.0 0.9864960133368119 -0.2064093571625097
4409000000.0 1.0351337661583373 -0.20798594346251142
4412000000.0 0.9824605731999848 -0.245267694192941
4416000000.0 0.9779915486312782 -0.21508778121671301
4419000000.0 0.9849624324468262 -0.23307386517680823
4422000000.0 0.977737929287805 -0.20083747355161036
4425000000.0 1.0012442683818603 -0.2169815368885224
4428000000.0 0.9841743739587656 -0.24310327281708513
4431000000.0 0.9921354782193836 -0.24796516340215122
4434000000.0 0.9655708120665546 -0.26888234023979746
4438000000.0 1.0044090709316829 -0.2702024848041732
4441000000.0 0.9930779174871109 -0.26805764596341286
4444000000.0 0.9497366475352378 -0.2771392580716045
4447000000.0 0.9619911771422636 -0.3060232802007857
4450000000.0 0.9501294715015534 -0.27619901561567783
4453000000.0 0.9905424605069054 -0.3088457166889608
4456000000.0 0.9332473425487894 -0.31624311129500426
4459000000.0 0.904586781314471 -0.3143461016951463
4462000000.0 1.016568114772618 -0.3676067688242416
4466000000.0 0.9811848841168737 -0.35988200573150153
4469000000.0 0.9597587450904339 -0.33959630352068737
4472000000.0 0.9552051302099558 -0.370993445315756
4475000000.0 0.9318018327800213 -0.3401097173676023
4478000000.0 0.9637637693034243 -0.40868796106423355
4481000000.0 0.8946605937117537 -0.38532671791714496
4484000000.0 0.9116421551666567 -0.4464356169521553
4488000000.0 0.9160119029971078 -0.41202917226684443
4491000000.0 0.9126926326364679 -0.42870754853530424
4494000000.0 0.9065157520390932 -0.4065766811385418
4497000000.0 0.9187478799786795 -0.41184307454238384
4500000000.0 0.9048789823896817 -0.432968286065271
4503000000.0 0.9326716654722644 -0.43614874275730353
4506000000.0 0.8905722555869473 -0.45133588309394257
4509000000.0 0.877087707715563 -0.4543856546282672
4512000000.0 0.8873611382223784 -0.46970259473399023
4516000000.0 0.9088005068708678 -0.4839587489306878
4519000000.0 0.8782935236268579 -0.4750017909619632
4522000000.0 0.8886417370403195 -0.4896699244653062
4525000000.0 0.8919217453155539 -0.47359752421963164
4528000000.0 0.9019824580308764 -0.5120239726047601
4531000000.0 0.8768779200078103 -0.4939049024332539
4534000000.0 0.8365358189173615 -0.5140057945846699
4538000000.0 0.8643335781384982 -0.5077802894408527
4541000000.0 0.827737956322927 -0.5559176853862138
4544000000.0 0.85231358580548 -0.5346059315816674
4547000000.0 0.8459569545034878 -0.5228531147522408
4550000000.0 0.8478512598400743 -0.5714175290692455
4553000000.0 0.8526004388161499 -0.5812499891880779
4556000000.0 0.8018796536304584 -0.5601836089447165
4559000000.0 0.820024113878903 -0.6022046522359075
4562000000.0 0.8285981249970142 -0.5877871166362789
4566000000.0 0.8300514481814438 -0.5806760519492247
4569000000.0 0.7921694309605294 -0.5969462271907642
4572000000.0 0.7936058505980376 -0.6122955255814172
4575000000.0 0.7907130787935648 -0.6426311607992007
4578000000.0 0.8247942010059104 -0.624699657750532
4581000000.0 0.791061455875106 -0.646425933082113
4584000000.0 0.7735560964982897 -0.6431047993071097
4588000000.0 0.788022996232866 -0.6650947145489559
4591000000.0 0.7828800240863711 -0.6426784888803928
4594000000.0 0.7361829208855989 -0.6611107530391289
4597000000.0 0.760276291477239 -0.6747399737673211
4600000000.0 0.7293782925828081 -0.6837618055005634
4603000000.0 0.7522755627621794 -0.6730818262033412
4606000000.0 0.7544019746833341 -0.6779074624454784
4609000000.0 0.7361435919803593 -0.6858719563840773
4612000000.0 0.7328974967491763 -0.7096923699137602
4616000000.0 0.7210401159072009 -0.7009071755302799
4619000000.0 0.7256746365464881 -0.710832730836552
4622000000.0 0.7117112790650572 -0.7278620132724477
4625000000.0 0.6888305269132339 -0.7339859533413093
4628000000.0 0.6944448828805811 -0.7085726692833102
4631000000.0 0.6910280494683894 -0.7561185478117799
4634000000.0 0.6980496544259824 -0.7447533159569263
4638000000.0 0.6842624551830775 -0.7630760681918807
4641000000.0 0.6765572742702145 -0.757657721572599
4644000000.0 0.6686389945204178 -0.7559952406898364
4647000000.0 0.661497158176326 -0.7728106153347819
4650000000.0 0.6366775971628285 -0.7806319685077516
4653000000.0 0.6707866885235964 -0.8002807964634672
4656000000.0 0.6379600493625468 -0.7936644843624454
4659000000.0 0.6241048274759381 -0.7997681106312005
4662000000.0 0.6253856057131048 -0.7974550757570336
4666000000.0 0.5938915045616813 -0.7921080418007955
4669000000.0 0.6037242359326966 -0.8087266788827112
4672000000.0 0.601898399806611 -0.835813876097472
4675000000.0 0.5919728059039632 -0.8419323007927407
4678000000.0 0.5875263311531298 -0.8139901530495519
4681000000.0 0.5636268758197576 -0.8610782788316437
4684000000.0 0.5320331971867708 -0.8566463580983464
4688000000.0 0.5734024585714564 -0.8492821318326088
4691000000.0 0.5849054584145619 -0.8294512356679455
4694000000.0 0.55754461852443 -0.8229805803931269
4697000000.0 0.5206771639311372 -0.8233650245801809
4700000000.0 0.55156326237066 -0.8450053127204897
4703000000.0 0.535323051023349 -0.8167915529652503
4706000000.0 0.5376872398716499 -0.8700022943081709
4709000000.0 0.5127088628678449 -0.8699775296421817
4712000000.0 0.5037277902054219 -0.8938812119207123
4716000000.0 0.5237740226921486 -0.8868110777606981
4719000000.0 0.5163541926324289 -0.8924621424929458
4722000000.0 0.5196326826366363 -0.88861953492875
4725000000.0 0.46719058342363495 -0.8768940448122329
4728000000.0 0.4619156699808755 -0.9027666006235266
4731000000.0 0.48987863206660454 -0.9117902266796016
4734000000.0 0.46445838065292994 -0.9034070638436111
4738000000.0 0.49802866773768795 -0.9113240494415719
4741000000.0 0.42275206380204666 -0.9548572504215371
4744000000.0 0.416326075623514 -0.9024431250371462
4747000000.0 0.4195025966175196 -0.8934938744529364
4750000000.0 0.4451098569949156 -0.9384714358913797
4753000000.0 0.4009023346971568 -0.9189882705793913
4756000000.0 0.4049850563014011 -0.9194117671110549
4759000000.0 0.40281619091084575 -0.9701902641824375
4762000000.0 0.37588431507961495 -0.9178755422192206
4766000000.0 0.3569759499734438 -0.9395100250920442
4769000000.0 0.38643032184142934 -0.9689216198357725
4772000000.0 0.36273865072298833 -0.9641095315128958
4775000000.0 0.33179949150457755 -1.0083094847978433
4778000000.0 0.37177173077405296 -0.9714272558447495
4781000000.0 0.3610900173640047 -0.9695033967552775
4784000000.0 0.35873856083096656 -0.9798414775076328
4788000000.0 0.3301734391576125 -0.9982286580446151
4791000000.0 0.31136139538241064 -0.9590487058472595
4794000000.0 0.3474709281714475 -0.9737904517189595
4797000000.0 0.25018487097172143 -0.9710748838435695
4800000000.0 0.2730694544913581 -0.9538926428542964
4803000000.0 0.2340797571729609 -1.0087697497188655
4806000000.0 0.28263469954466147 -0.994738837544237
4809000000.0 0.2173239518388228 -0.9778834778975053
4812000000.0 0.21908123607620672 -0.9785937706142407
4816000000.0 0.2759599398703987 -0.97434135054173
4819000000.0 0.27634342709763865 -1.0330852033723665
4822000000.0 0.2630874349325232 -1.0426712368501392
4825000000.0 0.2726924518479459 -1.0252172277748262
4828000000.0 0.23608066770061586 -0.9943276117977348
4831000000.0 0.1638572987263304 -1.02487844938744
4834000000.0 0.19996169948992 -1.010307918918522
4838000000.0 0.18592478397874868 -1.0318574085927996
4841000000.0 0.17035055837056548 -1.006181641390242
4844000000.0 0.2157111357589065 -1.0033188262386523
4847000000.0 0.18834562221298662 -0.9663961667695642
4850000000.0 0.14751027271727005 -1.0447668457225934
4853000000.0 0.1422529866474384 -0.9805628293900401
4856000000.0 0.1407270371662847 -1.0143349795799388
4859000000.0 0.12149814194341088 -1.0474616591677481
4862000000.0 0.1510908585161834 -1.0178420413553015
4866000000.0 0.1013301336582699 -1.0503842098720522
4869000000.0 0.09786615033655902 -1.0214801648833314
4872000000.0 0.06768498657597953 -1.0581605585231746
4875000000.0 0.12498019283726985 -1.06269700464361
4878000000.0 0.08788229928696552 -1.0497357311203113
4881000000.0 0.04126363037952462 -1.0718332398239896
4884000000.0 0.0814976883676667 -1.0403931942883884
4888000000.0 0.08878430276456714 -1.036754054784661
4891000000.0 0.08943183737832303 -1.0388148360500964
4894000000.0 0.024306725436051745 -1.021576468265057
4897000000.0 0.05502853609375245 -1.0102893775714359
4900000000.0 0.04592318217524212 -1.0503509728589606
4903000000.0 0.01867411856095543 -1.0732217275621911
4906000000.0 0.018057429173465676 -1.0640507900214977
4909000000.0 0.015226481557502534 -1.0299195216063401
4912000000.0 -0.026875083438898786 -1.070465723546571
4916000000.0 0.016632529427322004 -1.06309861645151
4919000000.0 0.02119053483109202 -1.0878606635204964
4922000000.0 0.019293190454391033 -1.0250685259436674
4925000000.0 -0.08329976462895508 -1.0205579599468155
4928000000.0 -0.00280469621989457 -0.9964789367890672
4931000000.0 -0.01916413505820816 -1.055132665709721
4934000000.0 -0.05274888544308924 -1.0104110867847298
4938000000.0 -0.12816644365663388 -1.0342220128688382
4941000000.0 -0.06172296062518108 -0.9894129653476901
4944000000.0 -0.047234417622720404 -0.9614180963453842
4947000000.0 -0.10869053794248262 -1.0254305374471129
4950000000.0 -0.14155595597808107 -0.9997992563175105
4953000000.0 -0.15181425152699796 -1.0355122322875858
4956000000.0 -0.124610001260338 -1.0437263646729529
4959000000.0 -0.1874737919959608 -0.9875830370580059
4962000000.0 -0.13714767277714054 -1.0228349813871453
4966000000.0 -0.13622100381924163 -1.040006562017606
4969000000.0 -0.13469157427756268 -1.0582552216634966
4972000000.0 -0.18014349415537353 -1.0264513844620542
4975000000.0 -0.1376790286574662 -1.0213356876319677
4978000000.0 -0.20381370328217135 -1.0153102837371484
4981000000.0 -0.21952604782606847 -1.0212461896066354
4984000000.0 -0.18747560583151116 -0.9730677674507633
4988000000.0 -0.17168961689283369 -1.0355135665403514
4991000000.0 -0.18663047750484796 -1.057964114490933
4994000000.0 -0.18220423879798392 -0.9931003738960525
4997000000.0 -0.2680213364811451 -1.015218188302506
5000000000.0 -0.21717283898237727 -1.0357809946872538
5003000000.0 -0.2258783304262772 -1.0443698895928855
5006000000.0 -0.2521101417828069 -1.0453073964261697
5009000000.0 -0.2282689518334979 -1.0071777529932662
5012000000.0 -0.26855794211337997 -0.9943775486621473
5016000000.0 -0.2375309956162061 -1.035784795593135
5019000000.0 -0.28719914073848896 -0.9547402194393031
5022000000.0 -0.279173563577362 -0.9955841893790003
5025000000.0 -0.30665434040897804 -1.0517459493905446
5028000000.0 -0.3154204998469611 -1.0018270434474228
5031000000.0 -0.32624222693546945 -0.9756708232213102
5034000000.0 -0.39196970350725946 -1.0085664665718215
5038000000.0 -0.34671677391166034 -0.9427349595779586
5041000000.0 -0.3361026370714659 -0.9887342997699254
5044000000.0 -0.32608921480006225 -0.9929077565099672
5047000000.0 -0.3537822460322207 -0.9952785544397521
5050000000.0 -0.27920077658796505 -0.9810947658404177
5053000000.0 -0.38320839337605905 -0.9982801955892848
5056000000.0 -0.363497807454764 -0.9822882953909118
5059000000.0 -0.33973494396209786 -0.9943093374159305
5062000000.0 -0.44585193324095784 -0.9311944625872239
5066000000.0 -0.34862402455850683 -0.9930962974232005
5069000000.0 -0.36849474253388287 -0.9784130526247105
5072000000.0 -0.40141949349419653 -0.9359176135186353
5075000000.0 -0.4050359051280472 -0.9759796855262002
5078000000.0 -0.47482342609911193 -0.9244193271038113
5081000000.0 -0.4032522674483196 -0.8969889231551694
5084000000.0 -0.45666437134779647 -0.9828149796716694
5088000000.0 -0.43133856688578553 -0.9645422313941838
5091000000.0 -0.49377514786695226 -0.9304119504034201
5094000000.0 -0.48948184018955626 -0.9236559645053765
5097000000.0 -0.44567193793734716 -0.9331256219716175
5100000000.0 -0.4843823064820287 -0.9238179197504494
5103000000.0 -0.5002515320724229 -0.946788001211894
5106000000.0 -0.48267389354911644 -0.9624322673424199
5109000000.0 -0.44172032672831896 -0.9502072448299124
5112000000.0 -0.531297990207804 -0.9057887934387807
5116000000.0 -0.48540440482927977 -0.8657827488845231
5119000000.0 -0.5696409048863862 -0.8882487114761926
5122000000.0 -0.47453645929002897 -0.9006897394197848
5125000000.0 -0.5259345474764994 -0.9298761024515604
5128000000.0 -0.5644894411689192 -0.8595986878306026
5131000000.0 -0.5177216426332265 -0.8833755749591453
5134000000.0 -0.5658542416440235 -0.8999477456298817
5138000000.0 -0.5740086920272475 -0.8765231034094964
5141000000.0 -0.5185506870903414 -0.8664616341845761
5144000000.0 -0.5457800215708382 -0.8758361097945373
5147000000.0 -0.6158252792210174 -0.8708748529346024
5150000000.0 -0.56362249259702 -0.8759088292008003
5153000000.0 -0.5818757629274018 -0.8970834956215954
5156000000.0 -0.6104186616594256 -0.8600945938627563
5159000000.0 -0.6096360872549549 -0.8774323382233392
5162000000.0 -0.6624992566692077 -0.837803998986824
5166000000.0 -0.675487786109788 -0.8549127793980773
5169000000.0 -0.6436182605087575 -0.8620347690767765
5172000000.0 -0.6021452341114921 -0.7854078981296794
5175000000.0 -0.6167106060452012 -0.8481215564693215
5178000000.0 -0.6501831593577012 -0.829830839605353
5181000000.0 -0.6427177861343023 -0.8378280112298004
5184000000.0 -0.6549606526873387 -0.781229294628113
5188000000.0 -0.6902202115060735 -0.8169099784254196
