! Created with skrf 1.8.0 (http://scikit-rf.org).
# Hz S RI R 50.0 
!freq ReS11 ImS11
4000000000.0 0.6674087906927063 0.7615856268233636
4003000000.0 0.7685847074844593 0.7493481425740964
4006000000.0 0.7368647957050012 0.6976344300419312
4009000000.0 0.7540745806979545 0.7214431625880336
4012000000.0 0.7469594599875254 0.7713572072890733
4016000000.0 0.7982753948229689 0.6584093770692008
4019000000.0 0.7720271901040221 0.6713510103425642
4022000000.0 0.7198709470536437 0.7764897426114344
4025000000.0 0.8071134162348166 0.6564737163484128
4028000000.0 0.8100180923684475 0.6819959689281028
4031000000.0 0.7498818741148262 0.6121431019898795
4034000000.0 0.7992456364946069 0.6295631792645366
4038000000.0 0.8237728905363124 0.6804418300281273
4041000000.0 0.8065124952504661 0.6705443074676454
4044000000.0 0.8585066719333324 0.644521269309205
4047000000.0 0.8531567220257459 0.6794506156916666
4050000000.0 0.8234875800273211 0.6536644085674932
4053000000.0 0.802130902425515 0.6070774681852606
4056000000.0 0.8263622452246918 0.59957740063024
4059000000.0 0.8225501523315851 0.5926093475936001
4062000000.0 0.854051009018454 0.6013498956131222
4066000000.0 0.7783917171716002 0.546030315080627
4069000000.0 0.8971338745962111 0.5967077440285913
4072000000.0 0.8492849134854054 0.6056107894603442
4075000000.0 0.8576930681400237 0.5841728160686532
4078000000.0 0.876419284037698 0.5593243302575508
4081000000.0 0.8335033113921823 0.6020447943511683
4084000000.0 0.9144318479160106 0.5262098464564957
4088000000.0 0.856229901404899 0.5424899082759087
4091000000.0 0.940397157639592 0.5718020935285739
4094000000.0 0.8978505392641759 0.5211737213051778
4097000000.0 0.8758410485260253 0.5298206071413472
4100000000.0 0.8895920061446144 0.5308713077360974
4103000000.0 0.9072860746926206 0.5373919723934386
4106000000.0 0.9186521293154537 0.4624194848523394
4109000000.0 0.9363953579484325 0.4566640200273256
4112000000.0 0.8889281188415583 0.48859819368198326
4116000000.0 0.9240476684893926 0.5048768103185355
4119000000.0 0.8951574788136097 0.44230048818269585
4122000000.0 0.954415337089214 0.43055381470967735
4125000000.0 0.9755935556241221 0.4284835391236987
4128000000.0 0.8850673263732548 0.455804271071679
4131000000.0 0.9117330152197223 0.42963877656196825
4134000000.0 0.9321492655974031 0.4417493318089941
4138000000.0 0.9465553230610866 0.39481602197183235
4141000000.0 0.9639035323991498 0.3797075760939005
4144000000.0 0.9476445322197353 0.4289850562433292
4147000000.0 0.9514144895445067 0.3759859232280876
4150000000.0 0.9975378487143641 0.3762627913511915
4153000000.0 0.966095477910514 0.36351867924985404
4156000000.0 0.9631010600758008 0.38517101541638843
4159000000.0 0.9348265539373268 0.36919594082327084
4162000000.0 0.9623541305856689 0.3649625914448741
4166000000.0 1.0047050239316935 0.31058269363491786
4169000000.0 0.9810457690618942 0.30590812824756286
4172000000.0 0.9738972121342082 0.3186678611463653
4175000000.0 0.9752232653829852 0.3384497329995236
4178000000.0 0.9899142907495619 0.3221252627486906
4181000000.0 0.9623059906557088 0.2851535559807119
4184000000.0 0.9777157160749347 0.3078203443524468
4188000000.0 0.9675218080310317 0.2906096622016122
4191000000.0 0.9568274695765957 0.30363036344010735
4194000000.0 0.9618434461442239 0.27620016113794554
4197000000.0 1.0047249256487238 0.2511932454155979
4200000000.0 0.9922106219046225 0.2484910867929736
4203000000.0 1.0030870521356845 0.253812175028274
4206000000.0 1.0032612671660184 0.25871638569865746
4209000000.0 0.9822477775141111 0.21944442228944433
4212000000.0 1.0072828708593906 0.18085895287512765
4216000000.0 1.0090810627487494 0.21124291395965533
4219000000.0 1.0028705793483796 0.2135359227856589
4222000000.0 0.9938785665077534 0.1694626708179504
4225000000.0 0.9831047102544066 0.17243163133280928
4228000000.0 0.9986328868321575 0.17234201304400323
4231000000.0 1.019595037234222 0.14454103358129072
4234000000.0 1.0183780430454752 0.150336358908918
4238000000.0 1.0156012029278059 0.13295237636054066
4241000000.0 1.0063664815528346 0.11398922672157419
4244000000.0 1.0019035903422673 0.11747465336089236
4247000000.0 1.0020160740296853 0.11729096062794947
4250000000.0 0.9996042639401326 0.09445580950251467
4253000000.0 0.987564441849333 0.08690924294690477
4256000000.0 1.0379436066941568 0.09909532361581036
4259000000.0 0.9827353616342202 0.05697099740692538
4262000000.0 0.9925577599735651 0.043766462140969464
4266000000.0 1.053965008913318 0.03379919900491213
4269000000.0 1.011077591036151 0.06839082123910034
4272000000.0 1.001785070247427 0.04682161567443022
4275000000.0 1.015116056207 0.03476804400640923
4278000000.0 1.0428514889154619 0.04917290169093136
4281000000.0 1.016896561354021 0.030536617686548598
4284000000.0 1.02870683053552 -0.033676275071115064
4288000000.0 1.0202141736149444 0.02673045012649066
4291000000.0 0.9840932652108746 -0.011978458518043716
4294000000.0 0.9932765478770379 -0.03774535950002065
4297000000.0 0.997114194319148 -0.009832125233019781
4300000000.0 0.9682817056828872 -0.023767839859363607
4303000000.0 0.9928456462673981 -0.09202130907129699
4306000000.0 1.002488259398731 -0.026435291034097676
4309000000.0 0.9831272895320533 -0.06748852615994397
4312000000.0 1.0258967655612914 -0.03470466387261761
4316000000.0 1.0166647890315583 -0.05403627463099794
4319000000.0 0.9949591053173609 -0.0799655209986504
4322000000.0 0.9933545060854667 -0.09274488317192034
4325000000.0 1.0015275499298586 -0.10107979674578912
4328000000.0 1.0172222229261136 -0.12361419481172567
4331000000.0 1.0070022651957447 -0.17801751398374482
4334000000.0 0.9938825148760884 -0.16780490218544888
4338000000.0 1.0045444748453884 -0.11087637062307569
4341000000.0 1.0120004304862937 -0.11848355864067231
4344000000.0 1.0000926097638403 -0.14509882211463998
4347000000.0 1.0164771530294356 -0.21164546865137784
4350000000.0 0.9665869567197668 -0.19987290861658324
4353000000.0 0.9728792885770314 -0.17949265795782202
4356000000.0 0.9590694851479211 -0.23593796354710286
4359000000.0 0.9565190977062429 -0.21561316198283853
4362000000.0 0.9981293820537982 -0.26637522620608267
4366000000.0 1.01246669042685 -0.22946067354492844
4369000000.0 0.9483471566331667 -0.24195924328681814
4372000000.0 0.946567193049783 -0.28211964094288666
4375000000.0 0.9774694709121758 -0.23656692314580707
4378000000.0 0.9414325347117158 -0.24637908827780358
4381000000.0 0.9473546369549968 -0.2588376700563982
4384000000.0 1.0357754229878715 -0.3056269021569081
4388000000.0 0.9559252836583696 -0.29116898988338213
4391000000.0 0.9617161126241052 -0.294624392361233
4394000000.0 0.9379695916094033 -0.30605437655889994
4397000000.0 0.9353973567308962 -0.32168779253343205
4400000000.0 0.9656931735711238 -0.34450759453894375
4403000000.0 0.9591040368620793 -0.3429344286635453
4406000000.0 0.9481158111438237 -0.3612869931194195
4409000000.0 0.977412055853581 -0.3694233431881181
4412000000.0 0.9096013461252058 -0.40615528019546177
4416000000.0 0.9307182871557829 -0.37285754566243423
4419000000.0 0.9347075433516928 -0.4022456983369021
4422000000.0 0.9325599907150619 -0.36274254610476075
4425000000.0 0.9510291707787774 -0.39213104689449263
4428000000.0 0.9252840824467407 -0.41914144282082233
4431000000.0 0.9388012360069833 -0.4321752793455035
4434000000.0 0.8990417757816441 -0.4350645653619817
4438000000.0 0.9263062820678407 -0.4492920716493939
4441000000.0 0.9179145104773143 -0.4476896337668926
4444000000.0 0.8869489497735112 -0.4379301337420539
4447000000.0 0.8802319378153209 -0.4790547015018573
4450000000.0 0.8977687357869705 -0.4409896751502149
4453000000.0 0.9016351732331515 -0.4686670926907975
4456000000.0 0.8585348019429148 -0.47276108748487755
4459000000.0 0.8361820420504678 -0.48632306058009955
4462000000.0 0.9128641291484729 -0.5285811413022147
4466000000.0 0.9016427476409355 -0.5415298719273686
4469000000.0 0.8745621929301005 -0.49312518608988776
4472000000.0 0.8525990814566843 -0.5635121541363894
4475000000.0 0.8437973963283976 -0.5052908004303033
4478000000.0 0.8777181223091358 -0.5832005448934685
4481000000.0 0.813347945462907 -0.5644211620609259
4484000000.0 0.8222986423474037 -0.601104350215118
4488000000.0 0.8117822316079555 -0.5737671987347173
4491000000.0 0.8346700390785176 -0.5897397210419628
4494000000.0 0.8139823093427926 -0.5608117449689584
4497000000.0 0.8243495860341996 -0.5737428967904409
4500000000.0 0.8094214471696255 -0.5948202147478912
4503000000.0 0.8332263921560141 -0.6243925909678465
4506000000.0 0.7945495067542165 -0.6249101714168953
4509000000.0 0.7684946610026387 -0.6084337871659262
4512000000.0 0.7532055589087213 -0.6312082704261947
4516000000.0 0.7981816390197102 -0.6576158486907565
4519000000.0 0.778424377063315 -0.6274595143387274
4522000000.0 0.7629148496442588 -0.6469856380194903
4525000000.0 0.7691673483375978 -0.6323548518232557
4528000000.0 0.7704005192049426 -0.6778907774800466
4531000000.0 0.7485395240934406 -0.6630458917030083
4534000000.0 0.7381115264492003 -0.6721139684337257
4538000000.0 0.7291394683448769 -0.6950719493331147
4541000000.0 0.684807660376676 -0.6961736984328941
4544000000.0 0.7201127264450542 -0.6711408463486339
4547000000.0 0.7116578769661902 -0.6986674103095083
4550000000.0 0.701157794237943 -0.7423706889922588
4553000000.0 0.7091765216103922 -0.7233525074351018
4556000000.0 0.6644920609062037 -0.7335817217209987
4559000000.0 0.6836947652490668 -0.7383020489821766
4562000000.0 0.6914125386124426 -0.743474153421562
4566000000.0 0.6815074084816668 -0.7531469900574994
4569000000.0 0.6641888663543485 -0.7559608380568505
4572000000.0 0.6450119220769083 -0.763991939721566
4575000000.0 0.633438164545616 -0.7719444038344987
4578000000.0 0.6888338730026748 -0.7969991946219063
4581000000.0 0.6483310225829254 -0.7873035248611773
4584000000.0 0.6141197448577294 -0.7827529061719188
4588000000.0 0.6480681195466942 -0.7885804217630035
4591000000.0 0.6221030737564509 -0.800840829329157
4594000000.0 0.5997622783866174 -0.795980023687322
4597000000.0 0.6034246690060903 -0.8386925931021477
4600000000.0 0.5788804264389995 -0.8426517452278517
4603000000.0 0.5869328190060685 -0.8271940758007046
4606000000.0 0.5878149958588 -0.830152220661959
4609000000.0 0.5686132620110884 -0.8231441710924043
4612000000.0 0.5500747671950362 -0.8244773523464458
4616000000.0 0.5383340772351561 -0.8398094312077309
4619000000.0 0.5536668219776123 -0.8666695579144612
4622000000.0 0.530137946810322 -0.874547023649696
4625000000.0 0.5125579278772942 -0.8752917971454749
4628000000.0 0.5257391340563543 -0.8669436012755871
4631000000.0 0.49743970257493575 -0.8672220034526018
4634000000.0 0.49745631827951065 -0.8776482078439456
4638000000.0 0.4956694689386878 -0.8939103865140424
4641000000.0 0.49914178307202717 -0.8883828279444723
4644000000.0 0.47481679937763066 -0.897155186369033
4647000000.0 0.4749987500524303 -0.8985792124380537
4650000000.0 0.4448340901740866 -0.8796241973020117
4653000000.0 0.46571288463338056 -0.8927209505259127
4656000000.0 0.4498998468729559 -0.9140920227809806
4659000000.0 0.4311415605822197 -0.9272879409050907
4662000000.0 0.4309427379282364 -0.9322004740292078
4666000000.0 0.4019994364386709 -0.9357564900121844
4669000000.0 0.40755256983646376 -0.9434242328096175
4672000000.0 0.391592960726666 -0.93716415663974
4675000000.0 0.39561699147264784 -0.9506382147008832
4678000000.0 0.3478912424969978 -0.9221064539713703
4681000000.0 0.36680446110502585 -0.963859893752751
4684000000.0 0.35647067811317423 -0.9799331285482126
4688000000.0 0.34924307144375055 -0.9503590428958025
4691000000.0 0.37286798830633516 -0.9611838991196562
4694000000.0 0.3677628404417892 -0.9581798963197259
4697000000.0 0.3039989946998509 -0.9203113380570582
4700000000.0 0.32221449495066634 -0.9766932116751761
4703000000.0 0.3194761957613017 -0.9035100629229886
4706000000.0 0.28251635019640375 -0.9720722675115584
4709000000.0 0.27904212574053416 -0.963247122663195
4712000000.0 0.31733215806894066 -0.9836852318797946
4716000000.0 0.27028283034444606 -0.9899731103157563
4719000000.0 0.3099124504479651 -0.9780573234754182
4722000000.0 0.2842614946627059 -0.9903935357603428
4725000000.0 0.2742927764831957 -0.9887812110142
4728000000.0 0.2410608858711469 -1.0067494095089915
4731000000.0 0.24770673817346942 -1.0242703411741734
4734000000.0 0.2403668195758558 -0.984420489233009
4738000000.0 0.25774549567942046 -1.0163841139939356
4741000000.0 0.2360831486274756 -1.0137889282221664
4744000000.0 0.1884248748272847 -1.0136082316949482
4747000000.0 0.21421218779229756 -0.9671541325099481
4750000000.0 0.17682238730881997 -0.9992251370744561
4753000000.0 0.18579665012087226 -1.0024958669342026
4756000000.0 0.17656256262547954 -0.9995472429497767
4759000000.0 0.1774497994909533 -1.0254907708510514
4762000000.0 0.10757501312847989 -1.0541278895582629
4766000000.0 0.12136398496667511 -1.006149718115055
4769000000.0 0.1343324282332505 -1.0171949778599325
4772000000.0 0.10326766974416404 -1.025145043038014
4775000000.0 0.11131866622113126 -1.04966472734936
4778000000.0 0.08758503529957098 -1.0458924544208241
4781000000.0 0.08670401682950299 -1.0019225394673223
4784000000.0 0.12136348502255692 -1.01706821381378
4788000000.0 0.03270619185410789 -1.050464676778381
4791000000.0 0.055532093982666564 -1.0196750810790267
4794000000.0 0.06351243958746436 -1.0464484852587024
4797000000.0 0.02885661433021855 -0.9924762658076792
4800000000.0 0.007411612428748077 -1.0167358431519564
4803000000.0 -0.03902976213430903 -1.0243536320831084
4806000000.0 -0.013890419558926698 -1.0332717019168363
4809000000.0 -0.04453163866778606 -1.0228784545160319
4812000000.0 -0.05580333240294322 -1.028108955491688
4816000000.0 0.0036066983849678547 -1.013731495889646
4819000000.0 -0.02269480249954603 -1.0332359030797182
4822000000.0 -0.029414276749431867 -1.0765882283263746
4825000000.0 -0.009918390773242663 -1.0659557876014736
4828000000.0 -0.061929926683697234 -1.0292050110563453
4831000000.0 -0.11890852467046696 -1.0430620725803945
4834000000.0 -0.06821581011113045 -1.037864256388888
4838000000.0 -0.1190934725371348 -1.0316386797177235
4841000000.0 -0.09296231595873543 -1.0260740652614375
4844000000.0 -0.09050451986478425 -1.0381653105667383
4847000000.0 -0.07057133164858184 -1.0004063260678453
4850000000.0 -0.14747803835063336 -1.0434825546070339
4853000000.0 -0.13395956751290616 -0.9881058195495525
4856000000.0 -0.1517666915551456 -1.0109413355785575
4859000000.0 -0.18402385194508875 -1.059615893204556
4862000000.0 -0.11698560188081424 -1.003191193699053
4866000000.0 -0.18940829812042323 -1.0332804110951321
4869000000.0 -0.18240906378095478 -1.0395713595866254
4872000000.0 -0.24549541679590034 -1.0305108618849703
4875000000.0 -0.12508928164169542 -1.0737088478847647
4878000000.0 -0.1934468528004273 -1.0270686783575351
4881000000.0 -0.2645943338719773 -1.0504340058059005
4884000000.0 -0.2269741550242325 -1.0024572352677474
4888000000.0 -0.19676877315630825 -1.004552292554463
4891000000.0 -0.2157820537192244 -0.994296145189631
4894000000.0 -0.27794484031176714 -0.9870164399071558
4897000000.0 -0.2165296443236108 -1.0087582992921664
4900000000.0 -0.2765230467637494 -1.0096031126913798
4903000000.0 -0.27262332913322035 -1.0055872609737757
4906000000.0 -0.3026570129940897 -1.0153002314907646
4909000000.0 -0.31269179791809004 -0.9975151039203481
4912000000.0 -0.3447267258786126 -0.9980050537106706
4916000000.0 -0.33458972276775617 -1.0245145408629859
4919000000.0 -0.32693365471373853 -1.0056708113208166
4922000000.0 -0.337142506213157 -0.9548416179219087
4925000000.0 -0.3669142141148858 -0.9338590838635473
4928000000.0 -0.3014405303145946 -0.9677710741254858
4931000000.0 -0.3577662166182494 -0.9833739891519879
4934000000.0 -0.3597705619467829 -0.9526353395210829
4938000000.0 -0.4279377499215565 -0.9451114035934466
4941000000.0 -0.3667886887616801 -0.9712934586855991
4944000000.0 -0.36631964906965264 -0.9089785208608201
4947000000.0 -0.40250096057296947 -0.9162541699041503
4950000000.0 -0.4219699618746896 -0.9376273777021249
4953000000.0 -0.46978245558430254 -0.9150530500659608
4956000000.0 -0.43670291397500477 -0.9610378021276819
4959000000.0 -0.45543194259604425 -0.9070839036451911
4962000000.0 -0.48686358040386757 -0.9842689920432514
4966000000.0 -0.45036673739859345 -0.961372213166988
4969000000.0 -0.47530422932390914 -0.9671892940765875
4972000000.0 -0.4705929943737167 -0.9366964143496892
4975000000.0 -0.5054322779027496 -0.9485046365743361
4978000000.0 -0.5122584437113649 -0.9090279087943658
4981000000.0 -0.529375370144014 -0.9024820263841273
4984000000.0 -0.5032248783617783 -0.9135188383639108
4988000000.0 -0.5166751267734766 -0.8818733051816832
4991000000.0 -0.49633327635868013 -0.951085073248916
4994000000.0 -0.5469943098683585 -0.8860269685789455
4997000000.0 -0.5863096405038573 -0.8604176896379635
5000000000.0 -0.5751677455560936 -0.9198883486056204
5003000000.0 -0.5583221383227881 -0.8991688498608517
5006000000.0 -0.5699466103271016 -0.8856182900798173
5009000000.0 -0.5553620325014861 -0.8722246843848045
5012000000.0 -0.5966649805141606 -0.8665120594267666
5016000000.0 -0.5792982468234784 -0.9131762592738237
5019000000.0 -0.6315260199193398 -0.8574782619147655
5022000000.0 -0.5936922717091283 -0.8578236199708191
5025000000.0 -0.6427185699683866 -0.8667945362227986
5028000000.0 -0.6461528655683033 -0.83136127632534
5031000000.0 -0.6390184407579544 -0.851031476204811
5034000000.0 -0.6671267733282409 -0.8377358410984356
5038000000.0 -0.6479700201963252 -0.7609705473281394
5041000000.0 -0.6208837809204715 -0.8412157812807692
5044000000.0 -0.594382944858364 -0.8387613462459099
5047000000.0 -0.6447108835726147 -0.8290085275057201
5050000000.0 -0.6245932176919048 -0.8364134150890894
5053000000.0 -0.7413515876953763 -0.7864520627653042
5056000000.0 -0.6548117104503214 -0.80416712247359
5059000000.0 -0.6634069525140878 -0.8367691743254168
5062000000.0 -0.7387360523180992 -0.7254968845742544
5066000000.0 -0.7195311067140664 -0.7827280638317164
5069000000.0 -0.7061862243426358 -0.7792981931976997
5072000000.0 -0.7137420092667999 -0.7702956470596698
5075000000.0 -0.7024092254732069 -0.7603223701117559
5078000000.0 -0.7552656838863276 -0.6915346611537371
5081000000.0 -0.771721394858174 -0.7131273746724739
5084000000.0 -0.7699175115943331 -0.7158471384891032
5088000000.0 -0.7339475786296324 -0.745525413576364
5091000000.0 -0.8041775457090039 -0.6898230305065691
5094000000.0 -0.7288115775290629 -0.6904496119104161
5097000000.0 -0.7268361681510772 -0.7421552198779582
5100000000.0 -0.758296756531599 -0.6613720183290781
5103000000.0 -0.8347215337758854 -0.6379010060761038
5106000000.0 -0.7857400605586751 -0.6850506077556755
5109000000.0 -0.7616487128204225 -0.7082614582382102
5112000000.0 -0.8332641789088645 -0.6149982237286076
5116000000.0 -0.7905582370723279 -0.6105016559519795
5119000000.0 -0.8860160466127195 -0.6105597617595897
5122000000.0 -0.8169722801746775 -0.6355618671481991
5125000000.0 -0.8065753397367604 -0.6297823602151902
5128000000.0 -0.8906965012306453 -0.6453410660849028
5131000000.0 -0.8267315086554594 -0.6206137127169185
5134000000.0 -0.8559697838063447 -0.557031485594108
5138000000.0 -0.864890935026695 -0.5887954487676665
5141000000.0 -0.8349332739901241 -0.6142189721016227
5144000000.0 -0.8746871962101026 -0.5840206912671937
5147000000.0 -0.890853426797354 -0.5731261570340288
5150000000.0 -0.8989062676754643 -0.6010912941527885
5153000000.0 -0.9377267429082725 -0.5613475434391648
5156000000.0 -0.8807853911335656 -0.5413046508834238
5159000000.0 -0.9157319329414577 -0.5485376740983657
5162000000.0 -0.906237559228777 -0.5025771841958042
5166000000.0 -0.8843033879392259 -0.5052755673013472
5169000000.0 -0.8877886327395106 -0.512721245399619
5172000000.0 -0.9497819088093283 -0.50255569282956
5175000000.0 -0.907512266352846 -0.4996388518844771
5178000000.0 -0.9675831920940476 -0.4901422403089403
5181000000.0 -0.9449331810160657 -0.4653563254372728
5184000000.0 -0.9348248802890763 -0.46706039407010375
5188000000.0 -0.958734636432183 -0.4378458066877575
