! Created with skrf 1.8.0 (http://scikit-rf.org).
# Hz S RI R 50.0 
!freq ReS11 ImS11
4000000000.0 0.6452438804952629 0.774158754070503
4003000000.0 0.645927501378862 0.8612147245331903
4006000000.0 0.6148895615027188 0.7738768451438147
4009000000.0 0.6852219789373352 0.7742180493929974
4012000000.0 0.6320818696240523 0.7889556467310498
4016000000.0 0.7073685182002643 0.7110089454271895
4019000000.0 0.7142036103562004 0.7496437389374744
4022000000.0 0.6684337311098992 0.8071696985043574
4025000000.0 0.7661136350443709 0.7185117634878182
4028000000.0 0.6987171530543138 0.799523902855279
4031000000.0 0.6878854425456169 0.7288654352895768
4034000000.0 0.6907557420057556 0.7031483460295169
4038000000.0 0.7756233751379795 0.7266590334114532
4041000000.0 0.7542029020679569 0.6991876137803574
4044000000.0 0.7834819262955068 0.7400268641327846
4047000000.0 0.7738135359930461 0.7978398555366657
4050000000.0 0.7710328095646529 0.6905442948910466
4053000000.0 0.7868852795346498 0.6435366415467987
4056000000.0 0.7905127806981133 0.7168888664244965
4059000000.0 0.7694929678561607 0.6684656314678421
4062000000.0 0.780582808056949 0.68690420183034
4066000000.0 0.7152132805463753 0.6489682565904286
4069000000.0 0.7896361117946534 0.6988331387809149
4072000000.0 0.7782003401672285 0.6806720533450865
4075000000.0 0.7990733300294267 0.6806527401348363
4078000000.0 0.8079769018025004 0.6322688384951638
4081000000.0 0.7992259902272894 0.7151730785575103
4084000000.0 0.8390203841918347 0.6047005477679757
4088000000.0 0.8038725463305708 0.6278769041070204
4091000000.0 0.8708723422433865 0.6919301305226733
4094000000.0 0.8323610908521769 0.6348636558076703
4097000000.0 0.8245055424517185 0.6299027618257802
4100000000.0 0.8121801562794669 0.5768569383925457
4103000000.0 0.8352257459772314 0.6044319025669005
4106000000.0 0.851407371357973 0.579955719008643
4109000000.0 0.8883906300731288 0.5771466180154525
4112000000.0 0.8299823149168051 0.5998564679061957
4116000000.0 0.8658481303769165 0.5798517108177544
4119000000.0 0.8480185468097027 0.5218219682413361
4122000000.0 0.896286148583678 0.5393610597761378
4125000000.0 0.8889475827516874 0.5346873255310043
4128000000.0 0.8840973087637135 0.515882806683067
4131000000.0 0.8559578755861277 0.5081816440897962
4134000000.0 0.8512579685906521 0.5461311792398887
4138000000.0 0.8949153855319145 0.48211777205703515
4141000000.0 0.9259900341080672 0.47483137620420723
4144000000.0 0.8955591251241293 0.517209336712849
4147000000.0 0.8931630132659029 0.4572173198003096
4150000000.0 0.8957856381559983 0.45976995784908464
4153000000.0 0.9061290630032504 0.47461286093910016
4156000000.0 0.9348896062373377 0.4947361107008713
4159000000.0 0.8872016049752489 0.46543309813141603
4162000000.0 0.8978529482959161 0.432436514798867
4166000000.0 0.9377976648957083 0.4245484376812032
4169000000.0 0.9104061249326959 0.39554641955320213
4172000000.0 0.923537665094524 0.4181587348083183
4175000000.0 0.9414390958463564 0.4525925861703764
4178000000.0 0.9254509178879565 0.4259321969895594
4181000000.0 0.9407066632722005 0.4022081196150784
4184000000.0 0.9286599749336311 0.3826157397680123
4188000000.0 0.9573843860589457 0.37757417086385614
4191000000.0 0.888949422781903 0.4226490641841186
4194000000.0 0.9391304968902426 0.3766278777636489
4197000000.0 0.9740165741082938 0.38351280868771925
4200000000.0 0.9542744932121758 0.3777269538734812
4203000000.0 0.9644748463907301 0.36022942290763094
4206000000.0 0.9763911917599082 0.34955238799916294
4209000000.0 0.9606097461869937 0.3567351742311285
4212000000.0 0.9692393539646948 0.2898701170711653
4216000000.0 0.9738203379867069 0.33811333017607365
4219000000.0 0.9814106517463567 0.3292509430255166
4222000000.0 0.990666354086656 0.3102196397201828
4225000000.0 0.9763806048870627 0.29210964095678027
4228000000.0 0.9715104232767497 0.2942946435312379
4231000000.0 0.9703476827554115 0.27760738540153457
4234000000.0 0.9808955377394715 0.2683295506031012
4238000000.0 1.0006342575103608 0.24180697284240613
4241000000.0 0.9675392806048273 0.24415397737711292
4244000000.0 0.9854602487488118 0.2555575602903095
4247000000.0 0.9959742407130693 0.2389112264034437
4250000000.0 0.9753989953095143 0.21700491972663427
4253000000.0 0.9692613197043369 0.2149008790167507
4256000000.0 1.0203351754627912 0.1942346717299135
4259000000.0 0.9605146737118716 0.18508585300524652
4262000000.0 0.9784632298358762 0.1835499956531271
4266000000.0 1.02494871955538 0.14874098517709206
4269000000.0 1.0101800873399553 0.174657039895894
4272000000.0 1.0015636025985102 0.16046092074456467
4275000000.0 1.00275996945301 0.16187188842936273
4278000000.0 0.9959031335230668 0.16277134629760837
4281000000.0 0.9911705410342684 0.15548815726649895
4284000000.0 1.002874076184053 0.09231520542823701
4288000000.0 1.002789020827952 0.1713555184047423
4291000000.0 0.980001893201617 0.09651398269608681
4294000000.0 0.9932822608014259 0.10128808292791337
4297000000.0 0.9746573825634169 0.14027422223080788
4300000000.0 1.006986646459459 0.11200579851918438
4303000000.0 0.9772987118098895 0.07427932916040304
4306000000.0 1.020254408787154 0.07522601016228764
4309000000.0 0.9820028973019087 0.08238023305225468
4312000000.0 1.0069219876858602 0.08456941392770881
4316000000.0 1.023833991170017 0.06422333969807172
4319000000.0 0.9781324324503453 0.04658285283584661
4322000000.0 0.9946880153988457 0.01943952682432172
4325000000.0 0.9976437378248443 0.021161269554857795
4328000000.0 1.0239597942191883 0.017014443289791126
4331000000.0 1.012142123289234 -0.004908621204779889
4334000000.0 1.0000247082725249 -0.0017856487084523531
4338000000.0 0.9950282433453401 0.01855648448482873
4341000000.0 1.0080785102343113 -0.004942081353470323
4344000000.0 1.0015244447305556 -0.011946928428864911
4347000000.0 1.0216397907241934 -0.049803151958436334
4350000000.0 0.9667678423807065 -0.05994506684968856
4353000000.0 0.9875849809992625 -0.035950390961091275
4356000000.0 1.011772616341345 -0.08499655447423897
4359000000.0 0.9664386742924896 -0.08194722575323317
4362000000.0 1.0171483896622624 -0.12242454053212751
4366000000.0 1.0317655278827536 -0.10687174527168436
4369000000.0 0.9799724788466234 -0.09753584451064691
4372000000.0 0.9793499699798507 -0.14678140909232862
4375000000.0 0.9975763227329921 -0.09804377882558732
4378000000.0 0.9857955537765457 -0.10353593261303362
4381000000.0 1.00277207812516 -0.1271070305421153
4384000000.0 1.0532084613405353 -0.1540839661669145
4388000000.0 0.9767858200045992 -0.14223200520647675
4391000000.0 0.9868869378849752 -0.14783203500030964
4394000000.0 0.9750222504477152 -0.1735514109805507
4397000000.0 0.9862986678029064 -0.19776120840226277
4400000000.0 1.0154204508451234 -0.18861983255929315
4403000000.0 0.9770168494126787 -0.18776393299596833
4406000000.0 0.991873741222319 -0.22499103813519383
4409000000.0 1.0250933957128114 -0.22029190949214
4412000000.0 0.9593025686463367 -0.26441072960996076
4416000000.0 0.9705934411241799 -0.24670168819366575
4419000000.0 0.9779839379045091 -0.24760519026289027
4422000000.0 0.9659037290161285 -0.23397786887902036
4425000000.0 1.0035704934121514 -0.23897918932797096
4428000000.0 0.961931782106926 -0.2762980399625696
4431000000.0 0.9991082783315519 -0.2669547393325966
4434000000.0 0.9479625287110555 -0.2944263070510933
4438000000.0 0.9861194931539967 -0.28172495030900235
4441000000.0 0.9815824704904341 -0.3113166458676045
4444000000.0 0.9519789728718675 -0.30518574598752735
4447000000.0 0.9379076973491376 -0.3362359576527338
4450000000.0 0.9425238561630735 -0.31461874590452316
4453000000.0 0.967311670021256 -0.34328477866621976
4456000000.0 0.9201577631662788 -0.3519019583308114
4459000000.0 0.8920175563708519 -0.35612148314952097
4462000000.0 0.9891343234726837 -0.37866059125143503
4466000000.0 0.9900404717444513 -0.3744621906263318
4469000000.0 0.949842689207109 -0.34631883553341664
4472000000.0 0.9433124355023506 -0.4138116357777063
4475000000.0 0.8976517557184575 -0.37503496757109045
4478000000.0 0.9604461279535845 -0.4392574695430126
4481000000.0 0.8898844705298886 -0.3942655914380479
4484000000.0 0.912467371145359 -0.4577798109711595
4488000000.0 0.8885958647611568 -0.43129866504112313
4491000000.0 0.9037341470501569 -0.4485200383823106
4494000000.0 0.9049006857707874 -0.43523089644327145
4497000000.0 0.9127787060082022 -0.43096500664785886
4500000000.0 0.8891663367930747 -0.4454974379329648
4503000000.0 0.9221340673992398 -0.46043597317725254
4506000000.0 0.868427941994506 -0.4550754371293235
4509000000.0 0.8701420762145304 -0.4714448215520156
4512000000.0 0.8589995406730588 -0.502207214044708
4516000000.0 0.8979921776825673 -0.49992079301303466
4519000000.0 0.846420194108351 -0.4933254418383458
4522000000.0 0.8673735125432529 -0.5014341891635334
4525000000.0 0.8886673642335872 -0.478132006497748
4528000000.0 0.8829654291978697 -0.5389738840394895
4531000000.0 0.8567856267054447 -0.5216819764302901
4534000000.0 0.8391887303766625 -0.5278665713969107
4538000000.0 0.836828716245434 -0.557063182794912
4541000000.0 0.805089739739965 -0.5733597646429209
4544000000.0 0.8340578615463852 -0.5391444334128825
4547000000.0 0.8415969584854035 -0.5455355874824697
4550000000.0 0.7998812669490623 -0.5957957370022084
4553000000.0 0.812314362119182 -0.5894077856698049
4556000000.0 0.7908352978221407 -0.597105956012711
4559000000.0 0.795167032663132 -0.6070853286333795
4562000000.0 0.8001061723443292 -0.6023886269899014
4566000000.0 0.7957818150125915 -0.641438209767982
4569000000.0 0.7875432344802081 -0.6146269673229161
4572000000.0 0.7904268382974671 -0.6107320742072665
4575000000.0 0.783526038059503 -0.6622951608083957
4578000000.0 0.804741593401453 -0.6449173995540585
4581000000.0 0.767419897405895 -0.6537007104605339
4584000000.0 0.7636815624193993 -0.6483778857985483
4588000000.0 0.7881269287944165 -0.6707716967811648
4591000000.0 0.7724545511966376 -0.6660007530221311
4594000000.0 0.7288960188852572 -0.697631839215568
4597000000.0 0.737533438679568 -0.699916683738503
4600000000.0 0.7067315703567172 -0.7212707847034436
4603000000.0 0.7246736195658787 -0.6959011494490432
4606000000.0 0.7345999457509109 -0.7135684141201872
4609000000.0 0.7126174229507096 -0.7116810085819159
4612000000.0 0.7091472938062695 -0.7200355080649715
4616000000.0 0.6962087477987999 -0.7114529820948075
4619000000.0 0.6836401856824742 -0.7248191923010207
4622000000.0 0.6902132424568838 -0.747636090050617
4625000000.0 0.645075843764217 -0.7301924622934518
4628000000.0 0.6765455909663832 -0.7381178895559284
4631000000.0 0.6476290594434999 -0.7484804854343763
4634000000.0 0.6561626948415115 -0.765501665231654
4638000000.0 0.6599542426398712 -0.7676756569186294
4641000000.0 0.6676520603884283 -0.7654690743235417
4644000000.0 0.6518095831449007 -0.767635609299784
4647000000.0 0.6404534535668917 -0.7739828801320446
4650000000.0 0.6170900378165575 -0.770249763913123
4653000000.0 0.6301856248506019 -0.8001751746659214
4656000000.0 0.5973627078823263 -0.8141079284771222
4659000000.0 0.5827576559710755 -0.813145816667071
4662000000.0 0.6011875674951087 -0.8117029169733624
4666000000.0 0.6019721450907799 -0.8311038878731806
4669000000.0 0.5999858031840317 -0.8089013154125836
4672000000.0 0.5845895126937758 -0.8499781739054114
4675000000.0 0.5786006077686457 -0.840508339151076
4678000000.0 0.5519791206385936 -0.8285436111978919
4681000000.0 0.5567519526004373 -0.8571061199075871
4684000000.0 0.5210509009129538 -0.8633395382031215
4688000000.0 0.5167739500265947 -0.8557988016794851
4691000000.0 0.5301531232605385 -0.8339289846056037
4694000000.0 0.5418191403781505 -0.8590413536634507
4697000000.0 0.4915428554576359 -0.8358997034540312
4700000000.0 0.5123154332327169 -0.8763168754058499
4703000000.0 0.5259758116843678 -0.8413545080720068
4706000000.0 0.48817896520190746 -0.872480791077116
4709000000.0 0.46736817513068407 -0.8932347464172865
4712000000.0 0.5064659396802866 -0.8754632555536378
4716000000.0 0.4716543985321361 -0.8989821758999705
4719000000.0 0.4918823956496393 -0.8896329872335192
4722000000.0 0.4919486010277362 -0.8963069844189475
4725000000.0 0.4345451445658368 -0.8850092025758556
4728000000.0 0.42597900984459236 -0.9214433727161089
4731000000.0 0.45208457838264116 -0.8909466866382698
4734000000.0 0.458502199545256 -0.9032817286071392
4738000000.0 0.44888838721845054 -0.9624429235195745
4741000000.0 0.4334118308065801 -0.9385764728950388
4744000000.0 0.4011050392599594 -0.9614525971777281
4747000000.0 0.39810585604857734 -0.913411036900769
4750000000.0 0.393423916079887 -0.9747972237901343
4753000000.0 0.3830256366782429 -0.928360009954271
4756000000.0 0.3582759965743205 -0.9577019433186238
4759000000.0 0.3629610224045201 -0.9495801902363851
4762000000.0 0.3583349388892755 -0.9985787451951543
4766000000.0 0.3422757407619933 -0.9355412820910539
4769000000.0 0.3484490614669893 -0.9848654248748424
4772000000.0 0.31164697231579475 -0.9630306326196139
4775000000.0 0.32715616035645456 -0.9739091623894758
4778000000.0 0.31063632254158 -0.9898312984077252
4781000000.0 0.3072753653674162 -0.9762017443407645
4784000000.0 0.30071672265974786 -0.9451611190291279
4788000000.0 0.3051472574076183 -0.9547875561735268
4791000000.0 0.2845642594632724 -0.9666257036701257
4794000000.0 0.3054988238642653 -0.9969676743176403
4797000000.0 0.2733652226043388 -0.9770504998974837
4800000000.0 0.22315017285274297 -0.9728028516727878
4803000000.0 0.2200383624851263 -1.001808228371963
4806000000.0 0.23596427123896418 -0.9871768426870715
4809000000.0 0.18993022595887185 -1.0199219675187607
4812000000.0 0.19600748920225447 -1.0128465323098415
4816000000.0 0.2323127018905343 -0.9626774368924385
4819000000.0 0.23146431772013726 -1.026907844534234
4822000000.0 0.21795627074883822 -1.0207786584413228
4825000000.0 0.21948747697758503 -1.0205821564628101
4828000000.0 0.1790653936563239 -0.9823064819456403
4831000000.0 0.13747022700161332 -1.0217643618891576
4834000000.0 0.17461730757129218 -1.0104274140599776
4838000000.0 0.14817833963931945 -1.0122224091311574
4841000000.0 0.11487587250784657 -0.9832479422813903
4844000000.0 0.17493288645068739 -1.0052425780852083
4847000000.0 0.14000578904679872 -0.9868895845914432
4850000000.0 0.10353463803307028 -1.0420608719809858
4853000000.0 0.12471657743480188 -0.9965257799572971
4856000000.0 0.11951867204207313 -0.9882795854953715
4859000000.0 0.09230610758505076 -1.045060791361526
4862000000.0 0.09727025266232635 -0.9921580970495526
4866000000.0 0.06199609056066239 -1.0377300989648655
4869000000.0 0.04615347414481659 -1.0249749806945176
4872000000.0 0.044173107544294384 -1.0459514067265863
4875000000.0 0.09821494507910268 -1.0765392414217587
4878000000.0 0.04598046989094576 -1.0370516717616023
4881000000.0 0.016987809706543497 -1.067813636063485
4884000000.0 0.04826361347845677 -1.0290632852219024
4888000000.0 0.039884272672826786 -1.0213754346917039
4891000000.0 0.0283771106949235 -1.0582124010614506
4894000000.0 -0.007742332582637276 -1.0110759333663106
4897000000.0 0.01132548997845334 -1.0273396225089109
4900000000.0 0.0008163280924846396 -1.0436566131713174
4903000000.0 -0.008271311346123973 -1.0298525645531773
4906000000.0 -0.05302123272612387 -1.0627171363291603
4909000000.0 -0.03742199014302943 -1.0243346880517792
4912000000.0 -0.06004945029821353 -1.0465776597094147
4916000000.0 -0.05727510854594851 -1.0536495495445488
4919000000.0 -0.0036817965828750826 -1.0346905767178942
4922000000.0 -0.03327851725395145 -1.05974393133895
4925000000.0 -0.10516550721553222 -0.993601411665258
4928000000.0 -0.043510007303015866 -1.0037774471654455
4931000000.0 -0.07929166445748963 -1.0566725325480317
4934000000.0 -0.10651006933256911 -0.9867248461484078
4938000000.0 -0.15226476319230775 -1.0163254823349832
4941000000.0 -0.09502911469807428 -0.9854795001498513
4944000000.0 -0.0769865701188239 -0.9566174774239742
4947000000.0 -0.11283800170376321 -0.9942809702440804
4950000000.0 -0.1484773560770502 -0.9809929512644314
4953000000.0 -0.1860104689637661 -1.0631345293549768
4956000000.0 -0.18227407110703925 -1.0046869557000777
4959000000.0 -0.17479063495916972 -0.9838289431762913
4962000000.0 -0.19854250259340636 -1.0449035974079772
4966000000.0 -0.17281900939291173 -1.0464148249173975
4969000000.0 -0.1899352094962315 -1.0532951162344102
4972000000.0 -0.20061999641400066 -1.017024989595984
4975000000.0 -0.1707256703555625 -0.9982196078177163
4978000000.0 -0.23357985493665545 -1.0035425930452797
4981000000.0 -0.23149820025527776 -0.9919086802241333
4984000000.0 -0.20076087344018503 -0.9855792290747836
4988000000.0 -0.2334823218999042 -0.9746947465962672
4991000000.0 -0.19189619147634035 -1.0308631583149206
4994000000.0 -0.2323388308941718 -0.9894237736780932
4997000000.0 -0.29437728806501545 -0.9943781902412279
5000000000.0 -0.2720021374512368 -1.0150800445300856
5003000000.0 -0.28256322148816376 -1.020052134412312
5006000000.0 -0.29729682131058377 -1.032844792774695
5009000000.0 -0.3041393912932764 -0.9694358322110255
5012000000.0 -0.3306146231678834 -0.9715353417193284
5016000000.0 -0.28522028971358554 -1.014578167108023
5019000000.0 -0.33651155807630884 -0.9783263351510108
5022000000.0 -0.3327763353219747 -0.9713413657858796
5025000000.0 -0.3556132667611705 -1.0024553195526589
5028000000.0 -0.3451168163896543 -0.9622028329571488
5031000000.0 -0.3774049455421219 -0.9590755902626774
5034000000.0 -0.4076161409869834 -0.9591529785997175
5038000000.0 -0.37010527015887196 -0.8989606470705818
5041000000.0 -0.33746429002064027 -0.9730438578389976
5044000000.0 -0.3508846449223416 -0.9297191889990458
5047000000.0 -0.372875160903026 -0.9567245438002024
5050000000.0 -0.3246563308729916 -0.9284349008893995
5053000000.0 -0.41942588279545245 -0.994957117623273
5056000000.0 -0.38973352267277994 -0.9732539062754892
5059000000.0 -0.3893363238028961 -0.9570306145322723
5062000000.0 -0.46439830514208114 -0.9242732867983581
5066000000.0 -0.41783881467460626 -0.9793655951619085
5069000000.0 -0.447878800144467 -0.9285186061095635
5072000000.0 -0.4123492907518299 -0.8946066591228719
5075000000.0 -0.44357170272785196 -0.9126645689492883
5078000000.0 -0.5305021064643516 -0.9247035189787065
5081000000.0 -0.4788696950406606 -0.8791996065769455
5084000000.0 -0.4730584438045664 -0.9548718053458221
5088000000.0 -0.4389825118676607 -0.8779149370389459
5091000000.0 -0.5313858584043931 -0.9249813608003343
5094000000.0 -0.4747580585908599 -0.8892994127916029
5097000000.0 -0.4609309805000209 -0.9398015980208059
5100000000.0 -0.4943266623946238 -0.8791160192383897
5103000000.0 -0.5581677177943009 -0.8871912966575611
5106000000.0 -0.5441335887800496 -0.9161698442760637
5109000000.0 -0.5408344963968456 -0.9501385174822907
5112000000.0 -0.564741411086576 -0.8359388455282106
5116000000.0 -0.5215926828610898 -0.8884192866529605
5119000000.0 -0.5424036527464182 -0.8319260360125407
5122000000.0 -0.5359954889799644 -0.8727648144934896
5125000000.0 -0.5264118764976549 -0.92403687201968
5128000000.0 -0.5983854481238482 -0.8669766856687311
5131000000.0 -0.5747201411476145 -0.8212899667212096
5134000000.0 -0.579240929482149 -0.8482724186144446
5138000000.0 -0.5256454836452757 -0.8745242641431344
5141000000.0 -0.538365566695039 -0.8889767735729923
5144000000.0 -0.5627704671645909 -0.8514986662915233
5147000000.0 -0.6486778319312141 -0.8487156188778371
5150000000.0 -0.6159508876999678 -0.8858356326452635
5153000000.0 -0.5983404620947594 -0.8396043273281802
5156000000.0 -0.5853643996320266 -0.846569146786191
5159000000.0 -0.6639385454140712 -0.8498164114247232
5162000000.0 -0.6799909353471576 -0.8263450881009912
5166000000.0 -0.648373213125578 -0.79277446473472
5169000000.0 -0.6333814331708209 -0.8313441862485984
5172000000.0 -0.6391404922170786 -0.7968075536221445
5175000000.0 -0.6754221444700329 -0.8093754107777088
5178000000.0 -0.7191978338414704 -0.8025379144487946
5181000000.0 -0.6829649401506945 -0.8163615924890752
5184000000.0 -0.697843215675723 -0.7901667791834667
5188000000.0 -0.725522470708425 -0.7616981313621314
