! Created with skrf 1.8.0 (http://scikit-rf.org).
# Hz S RI R 50.0 
!freq ReS11 ImS11
4000000000.0 0.6212599644537102 0.7758843965680164
4003000000.0 0.6271759482352083 0.8521706997324486
4006000000.0 0.6544058571066298 0.7757599651739905
4009000000.0 0.6349645581385619 0.8411789499755185
4012000000.0 0.6303892987493355 0.8514227218358843
4016000000.0 0.6942218357765971 0.7306610852863191
4019000000.0 0.690797013009183 0.7625157196154083
4022000000.0 0.5980972512967527 0.7734088258894474
4025000000.0 0.7242783833155975 0.7495522174708509
4028000000.0 0.6853953038811059 0.735418708954898
4031000000.0 0.6560367991171052 0.7326019835950809
4034000000.0 0.6847978906248029 0.7220619465727601
4038000000.0 0.7654641345610342 0.7557894456805588
4041000000.0 0.7440001824483445 0.726403837450663
4044000000.0 0.7787718535823006 0.7835142167353186
4047000000.0 0.7664357955034099 0.7899809042980283
4050000000.0 0.7362770384938705 0.6980153962650916
4053000000.0 0.7755222188938433 0.6679521266964743
4056000000.0 0.7514559617204941 0.7262369798519586
4059000000.0 0.7344700016892581 0.7263288718113037
4062000000.0 0.7331512547313154 0.6526598048573378
4066000000.0 0.7003837554956387 0.6441758267186085
4069000000.0 0.8099006087665864 0.6779980605553585
4072000000.0 0.7614973034825322 0.6924488362707921
4075000000.0 0.7828292179855297 0.7185204290351379
4078000000.0 0.7797419079151434 0.6888423250512744
4081000000.0 0.7856044547103066 0.7007037730593306
4084000000.0 0.857839796980067 0.6359375122653768
4088000000.0 0.7711074805232668 0.6427638930700396
4091000000.0 0.8585127564210022 0.6899173134610392
4094000000.0 0.8298784379740071 0.606956357588325
4097000000.0 0.8267387318474746 0.613638136156031
4100000000.0 0.8085179761133691 0.6018012658465548
4103000000.0 0.8654384093332477 0.6452311176309624
4106000000.0 0.8511732499535398 0.621941816633809
4109000000.0 0.8572809397659307 0.5818484174993719
4112000000.0 0.8243681508493277 0.6208294488631589
4116000000.0 0.8090518710038553 0.628333134015053
4119000000.0 0.8843621000425234 0.5523615423972773
4122000000.0 0.8599141279712723 0.5231769240644512
4125000000.0 0.8810466180942985 0.5476960470787553
4128000000.0 0.8426221981920483 0.5427373985991415
4131000000.0 0.8494526864825435 0.5283896680304917
4134000000.0 0.8553506518134852 0.5660053904607083
4138000000.0 0.8556709256779136 0.5069223819750721
4141000000.0 0.8580896493782847 0.5026972137833329
4144000000.0 0.88680299837606 0.5241181340359142
4147000000.0 0.901241758750529 0.49934311305303863
4150000000.0 0.9386410969173115 0.5352647827077139
4153000000.0 0.8921211113604385 0.46402569741820143
4156000000.0 0.8993466513852704 0.5228367406164179
4159000000.0 0.8623049843691575 0.4992666464416419
4162000000.0 0.9087554043154178 0.4641322131004847
4166000000.0 0.9244056219220078 0.47935206411761233
4169000000.0 0.916269642969332 0.44383817327581276
4172000000.0 0.9034016289867417 0.4741833926798928
4175000000.0 0.9120942640363332 0.4494915281832607
4178000000.0 0.9194831788651594 0.4486380650656966
4181000000.0 0.9578162707994724 0.4455474646871963
4184000000.0 0.9112463631471472 0.43420794391666623
4188000000.0 0.9462361784861453 0.3849202548028342
4191000000.0 0.9170936631826473 0.43207696446386884
4194000000.0 0.917267633717639 0.3766424393177643
4197000000.0 0.947900881825469 0.3995852852220307
4200000000.0 0.9447430081396251 0.3980684620509074
4203000000.0 0.9593193351340983 0.4061270484813485
4206000000.0 0.9790767280710913 0.3625202675430987
4209000000.0 0.92844866157328 0.38473378363511895
4212000000.0 0.9768348766439232 0.3304370014298488
4216000000.0 0.9484798008329779 0.3518172479790645
4219000000.0 0.9644497489275169 0.34399226821274076
4222000000.0 0.9888047727174356 0.32744461472659453
4225000000.0 0.9502885928453304 0.3111768454530852
4228000000.0 0.9746581738777778 0.3271486494728406
4231000000.0 0.9759715500461272 0.2924883798905357
4234000000.0 0.9766910586758832 0.29121240888284294
4238000000.0 0.9817169147729402 0.27572609444223717
4241000000.0 0.9757603941885546 0.2804837509816576
4244000000.0 0.9765324050244047 0.2630105701893659
4247000000.0 0.9888022769548901 0.2770333442998532
4250000000.0 0.9792267097795315 0.23567208331804068
4253000000.0 0.9709108669767041 0.22846946331132417
4256000000.0 1.0059359960349399 0.24623245707279773
4259000000.0 0.9517752767083681 0.21103872093753787
4262000000.0 0.995914253444057 0.18709665596435834
4266000000.0 1.0049450068150123 0.18637210885205863
4269000000.0 0.9871482297173267 0.20352727022430536
4272000000.0 1.006080933128636 0.1924705520157819
4275000000.0 1.0215918857718402 0.18989198203727253
4278000000.0 1.0105491482028266 0.19089224631635748
4281000000.0 1.0193889503665226 0.16705094985793623
4284000000.0 1.0287694896421333 0.1024176941146735
4288000000.0 1.0170174113559136 0.17856432876449188
4291000000.0 0.9831965424274435 0.1412972417933751
4294000000.0 0.9961270433498284 0.11848451394148678
4297000000.0 0.9929625939499819 0.1574576028103422
4300000000.0 0.9893942727652176 0.1258878345021777
4303000000.0 0.9861495748171005 0.11811783210044126
4306000000.0 0.9972587043679463 0.12645000077500565
4309000000.0 1.0006586846699796 0.10917110608059317
4312000000.0 1.0128755092061685 0.12126340536755761
4316000000.0 1.0133115668409411 0.11952342626416072
4319000000.0 0.9868566073703114 0.09263678495787632
4322000000.0 1.0009432939495169 0.042526772159780915
4325000000.0 0.9914406329392995 0.06227674341815444
4328000000.0 0.9902309040473967 0.04782847625193566
4331000000.0 1.012960047318762 -0.0073879463978225035
4334000000.0 1.0071765056625401 0.016407820714260807
4338000000.0 1.0045697406724936 0.016712675244671307
4341000000.0 1.0299060825499358 0.06425544670827624
4344000000.0 1.0279715608774216 0.009763057944461917
4347000000.0 1.0400630600536567 -0.03219304578620252
4350000000.0 0.9746234101504715 -0.035739195980733385
4353000000.0 0.9733020359938986 -0.0007050037914555496
4356000000.0 0.9994501257488536 -0.06668744909780264
4359000000.0 0.9589863056968262 -0.04457211061063057
4362000000.0 1.023335173006435 -0.11217456788347022
4366000000.0 1.0330975348243716 -0.059907253574919744
4369000000.0 0.9670569869168583 -0.07420913607753046
4372000000.0 0.9723518517016212 -0.10850869676312049
4375000000.0 0.9926494419705647 -0.07176824694692942
4378000000.0 0.9912188005945942 -0.08725025539361801
4381000000.0 1.0055984582955038 -0.09232996224231799
4384000000.0 1.0541072959785593 -0.11152380314692832
4388000000.0 0.9905070261175659 -0.10663286192335081
4391000000.0 1.016614250053989 -0.12547532209549528
4394000000.0 0.972247093512467 -0.1385833270481439
4397000000.0 0.9856696798461293 -0.1549374018886785
4400000000.0 1.0184939245144147 -0.16148305851346742
4403000000.0 1.004175781898113 -0.15970424260199517
4406000000.0 0.9882174863951773 -0.18599138219620912
4409000000.0 1.0271881151352507 -0.1941310141374562
4412000000.0 0.9697546769438888 -0.24576447138570323
4416000000.0 0.9757869518652482 -0.20209954612572426
4419000000.0 0.9852919557597659 -0.22713468247414142
4422000000.0 0.9779035739991881 -0.19987237972731137
4425000000.0 1.0010450714574501 -0.2174283649319718
4428000000.0 0.971208247675913 -0.2453939681718681
4431000000.0 0.994918233806124 -0.2344421508281087
4434000000.0 0.9513948988586769 -0.24606046922941727
4438000000.0 1.003852241729044 -0.2646684278518694
4441000000.0 0.985832532631693 -0.26461520078240885
4444000000.0 0.952069772153342 -0.2641091448760776
4447000000.0 0.9608439318726462 -0.29937178985038987
4450000000.0 0.9632030129345864 -0.27318621226072176
4453000000.0 0.9797547859102652 -0.31101840094881816
4456000000.0 0.9317065571676507 -0.3115123905215401
4459000000.0 0.9015095929366586 -0.31710325094725517
4462000000.0 1.0108737493319686 -0.3506463546381001
4466000000.0 0.9721287023973834 -0.35573360014125577
4469000000.0 0.9647800255011817 -0.33142697652090103
4472000000.0 0.9519380866461601 -0.3724968602930746
4475000000.0 0.9227455971840042 -0.3373263389760431
4478000000.0 0.9654883421393655 -0.3825830774296809
4481000000.0 0.8989978589672901 -0.3784593277674981
4484000000.0 0.9200099897046126 -0.4271469495755059
4488000000.0 0.9122979628291753 -0.3986628860843531
4491000000.0 0.9126648727712212 -0.394190226093818
4494000000.0 0.9018291299939208 -0.38836090084545427
4497000000.0 0.9154177786358475 -0.40729513634187414
4500000000.0 0.9062750764196008 -0.42111088793297446
4503000000.0 0.9222497986847555 -0.4484304105877931
4506000000.0 0.8936351151330593 -0.45353259347532526
4509000000.0 0.8780091221395157 -0.4483248955065767
4512000000.0 0.8559514629964678 -0.45207423199214725
4516000000.0 0.9279111604345393 -0.4607018304805633
4519000000.0 0.8853758447778631 -0.45251781578050476
4522000000.0 0.8645454657569249 -0.4843286038851563
4525000000.0 0.9030164370520524 -0.44760071526143264
4528000000.0 0.9109545325613948 -0.5043688681978747
4531000000.0 0.8935081857396114 -0.4768780639051987
4534000000.0 0.8405813711145409 -0.48062197780525573
4538000000.0 0.8644916255697812 -0.5141354780044729
4541000000.0 0.8446212184818971 -0.5518336471503728
4544000000.0 0.8366761795512043 -0.5350038699217636
4547000000.0 0.8481421133974841 -0.5043995427464238
4550000000.0 0.8439914216445579 -0.5649300447577136
4553000000.0 0.8421006712191872 -0.5552005095522917
4556000000.0 0.7999247762953356 -0.5772782213914012
4559000000.0 0.8257811134132627 -0.5785059548370821
4562000000.0 0.8547857350106374 -0.5942460063604638
4566000000.0 0.8122346139740579 -0.6105573944863547
4569000000.0 0.8101190498241788 -0.5730011153139327
4572000000.0 0.8023871510916819 -0.5875483279367487
4575000000.0 0.7840692250427885 -0.6294092341088723
4578000000.0 0.8272539287687635 -0.61273260777317
4581000000.0 0.787110703873948 -0.6194552329465001
4584000000.0 0.7817199334028306 -0.6133109559202788
4588000000.0 0.7986335260860478 -0.6375175173429981
4591000000.0 0.7682153139657866 -0.6178376689788754
4594000000.0 0.750798690321631 -0.6670225614128378
4597000000.0 0.7670174140839785 -0.6682889346556004
4600000000.0 0.7303829359927644 -0.6611931607460912
4603000000.0 0.7503832442259711 -0.6883540422658183
4606000000.0 0.7651589321576087 -0.6944396310592863
4609000000.0 0.7277749073706805 -0.6758891063716225
4612000000.0 0.7322516745666943 -0.6974102629473757
4616000000.0 0.7099244049209992 -0.6795908440759421
4619000000.0 0.7259457743115816 -0.6923367521113949
4622000000.0 0.711631923342956 -0.7108958454395056
4625000000.0 0.681157725323294 -0.7016202930580397
4628000000.0 0.7092005609008613 -0.7019594059091523
4631000000.0 0.6826874728611643 -0.7345533707635313
4634000000.0 0.6947027354657778 -0.7220933787119526
4638000000.0 0.6734380442320098 -0.7321580516814714
4641000000.0 0.6788376458033673 -0.7469068472392754
4644000000.0 0.6611646641472679 -0.7560846556757904
4647000000.0 0.6947526797527479 -0.7649480575281584
4650000000.0 0.6432553100073217 -0.7665826041012905
4653000000.0 0.6747489629569171 -0.7829863833384905
4656000000.0 0.6379006568252623 -0.7693500832345752
4659000000.0 0.6348644378514002 -0.7830743332453675
4662000000.0 0.6385111390237586 -0.7849773278389395
4666000000.0 0.6250748831332361 -0.8055956738492709
4669000000.0 0.6236921458929796 -0.7884187204361237
4672000000.0 0.6089922155894749 -0.8289835744189687
4675000000.0 0.5697385924645251 -0.8157676566136312
4678000000.0 0.5915967838480543 -0.810069125152752
4681000000.0 0.567716333283651 -0.8485291254102691
4684000000.0 0.5720886753841157 -0.841592550072109
4688000000.0 0.5374608122513496 -0.8277718035570846
4691000000.0 0.5876169410469267 -0.8068036882613183
4694000000.0 0.5441182977411904 -0.8360928565775281
4697000000.0 0.4997873981020209 -0.8345408872571642
4700000000.0 0.5488784159877292 -0.8387381646166381
4703000000.0 0.5411198051323967 -0.8302316970982244
4706000000.0 0.5156792509307437 -0.8722468623877236
4709000000.0 0.5113054938241512 -0.8598115391593806
4712000000.0 0.5013785151804262 -0.8714105666455138
4716000000.0 0.49582112244137244 -0.8674398879381546
4719000000.0 0.5263354268770315 -0.8727815437256793
4722000000.0 0.506946353925726 -0.86799902669715
4725000000.0 0.4713382686723995 -0.9058856801974183
4728000000.0 0.4943413178522893 -0.865753442082261
4731000000.0 0.4957247230187786 -0.9328260110905144
4734000000.0 0.49236418187995246 -0.8840194863303651
4738000000.0 0.46152490494178006 -0.9333452209230303
4741000000.0 0.48947267483882895 -0.937598020667519
4744000000.0 0.39489181958463926 -0.9188653267422049
4747000000.0 0.4488978805916527 -0.8851489559019462
4750000000.0 0.42701918350114887 -0.9189745661088554
4753000000.0 0.4283892737450702 -0.9520809959997577
4756000000.0 0.3958237902078886 -0.9367392761218101
4759000000.0 0.409256483969187 -0.9313859296600979
4762000000.0 0.3937071440231702 -0.9638772209801505
4766000000.0 0.36579354107897233 -0.9475806156464509
4769000000.0 0.38443750096214274 -0.9350349564528341
4772000000.0 0.37862302244357227 -0.9345169333315614
4775000000.0 0.3370018572669955 -0.9819622008761684
4778000000.0 0.35759291559380635 -0.9458621399232953
4781000000.0 0.3635500428323186 -0.9371480185025614
4784000000.0 0.3550245566176279 -0.9281856154247811
4788000000.0 0.3325366786791305 -0.9733977611394087
4791000000.0 0.2933986735309531 -0.9540274770388929
4794000000.0 0.34879039458500277 -0.9723005533990761
4797000000.0 0.2991043168297352 -0.9547383892965265
4800000000.0 0.2840314222039116 -0.9732589354156813
4803000000.0 0.24294807354326026 -0.978205992955872
4806000000.0 0.2830210314172792 -0.9682693954388477
4809000000.0 0.23351957364249806 -0.977978489182214
4812000000.0 0.2326918430516831 -0.9626127987952684
4816000000.0 0.2710013246427233 -0.9750937184754942
4819000000.0 0.26722948461160645 -0.9864827635739033
4822000000.0 0.2600435070479508 -1.0117088922222908
4825000000.0 0.2626443146696778 -0.9881120916983195
4828000000.0 0.2265969045835236 -1.0031108245432123
4831000000.0 0.17135416571448703 -1.0280069840742285
4834000000.0 0.2203043487013561 -0.9932322886701039
4838000000.0 0.18172402984045155 -1.0176716093160296
4841000000.0 0.17533912629651655 -1.015641096455647
4844000000.0 0.22388732500713326 -1.0209203349381417
4847000000.0 0.1974093555397165 -0.9593725257758934
4850000000.0 0.16319438402464442 -1.038723231868688
4853000000.0 0.1503916727339832 -0.9962988502643708
4856000000.0 0.12346781334247536 -0.9722121921044594
4859000000.0 0.13204175994079134 -1.0376289378488188
4862000000.0 0.1651828325831506 -0.9830894446171349
4866000000.0 0.11576094459732844 -1.0414953000403544
4869000000.0 0.09809524109200542 -1.0205586689523276
4872000000.0 0.09125208973088146 -1.0419159915611622
4875000000.0 0.14829432089089267 -1.0615090771507034
4878000000.0 0.10167320069196875 -1.034745304853059
4881000000.0 0.05500028665519917 -1.082984511864205
4884000000.0 0.07335275224862682 -1.0577799241606614
4888000000.0 0.10304417210901146 -1.0059511913249646
4891000000.0 0.0694787050645697 -1.0350564528075323
4894000000.0 0.03474966676936528 -1.0125577628083635
4897000000.0 0.07206392988522944 -0.9869183404925608
4900000000.0 0.04911957852386306 -1.039141482981019
4903000000.0 0.026078330909712573 -1.0342553313414782
4906000000.0 -0.0058195274349688055 -1.054750647418934
4909000000.0 0.006905578339249357 -1.0041839470037768
4912000000.0 -0.009910274265857118 -1.037900763501959
4916000000.0 0.01735667023391792 -1.023424541331035
4919000000.0 0.00800744053518631 -1.0719502139048778
4922000000.0 -0.0007626556828234238 -1.0228186052417896
4925000000.0 -0.060367370097668765 -1.0168058742060153
4928000000.0 -0.0003457822701806029 -1.0163251419309598
4931000000.0 -0.03154983449827882 -1.0348030641551749
4934000000.0 -0.04551357675700329 -0.9936597777207193
4938000000.0 -0.10915180542674528 -1.0045989519446805
4941000000.0 -0.055648494401478524 -1.0280837492305024
4944000000.0 -0.04814824618361943 -0.9786925717768773
4947000000.0 -0.07256198077407375 -1.025701052040671
4950000000.0 -0.09704472792772449 -0.9931907266745321
4953000000.0 -0.1365521448594169 -1.054790990588473
4956000000.0 -0.1354084191315164 -1.031560050139672
4959000000.0 -0.14521386352053453 -0.9946277967193219
4962000000.0 -0.13695711438235567 -1.0214403689960276
4966000000.0 -0.12049209306153652 -1.0548556372358762
4969000000.0 -0.12697803806903057 -1.0757377861517612
4972000000.0 -0.1878696388436544 -1.0360376698856508
4975000000.0 -0.1452056944922854 -1.0293574375359875
4978000000.0 -0.19334975235133461 -1.0126362599384757
4981000000.0 -0.1951433096210096 -1.0055518692170182
4984000000.0 -0.1883652062078456 -0.968166962181374
4988000000.0 -0.19068048602839682 -1.0125402355985544
4991000000.0 -0.16964711586584735 -1.040569252950284
4994000000.0 -0.19410164502368915 -1.0071584498096449
4997000000.0 -0.2401542597334395 -0.991064408723684
5000000000.0 -0.19295328172663012 -1.0511838492877157
5003000000.0 -0.24749140388461044 -1.0323668628756655
5006000000.0 -0.2692995455025875 -1.0346201321980646
5009000000.0 -0.24076958131589363 -1.0145092663687427
5012000000.0 -0.2705463905010915 -1.008672203011617
5016000000.0 -0.23328988001503076 -1.0580474037348533
5019000000.0 -0.26027801155328695 -0.9973210362281162
5022000000.0 -0.2968905349414691 -0.9933906756146489
5025000000.0 -0.3185807645575796 -1.063985459298798
5028000000.0 -0.29371875066709985 -0.9828097279058738
5031000000.0 -0.33286561806470316 -0.9786304730063177
5034000000.0 -0.3574118996304454 -1.0103646838258917
5038000000.0 -0.3163386993732684 -0.9471301664547696
5041000000.0 -0.2903172713137693 -0.9905310756756299
5044000000.0 -0.32369286634809735 -0.9556569395711009
5047000000.0 -0.357963485792746 -0.9993676853035848
5050000000.0 -0.29026039603514275 -0.9782374970912857
5053000000.0 -0.3810752480480003 -1.0180862808159796
5056000000.0 -0.3257594418766574 -0.9925750338528923
5059000000.0 -0.3540301260446566 -1.0404552970876035
5062000000.0 -0.4316387472706872 -0.9682701680394918
5066000000.0 -0.34963484847547577 -0.9638952785653447
5069000000.0 -0.40717630506617974 -0.9624338922481656
5072000000.0 -0.3992737798568405 -0.9219653706766711
5075000000.0 -0.37592099915637867 -0.9595812781790687
5078000000.0 -0.47555638697526853 -0.9071655230103786
5081000000.0 -0.45805067562578633 -0.9035002295713773
5084000000.0 -0.4427877468204451 -0.9335886260222424
5088000000.0 -0.4070389468871762 -0.9581253691041374
5091000000.0 -0.5257246037270906 -0.8968321009883424
5094000000.0 -0.4559659844862249 -0.9429412255504123
5097000000.0 -0.4561888060153889 -0.9250766333005469
5100000000.0 -0.46253544123376206 -0.8793364204309065
5103000000.0 -0.5203954283565861 -0.9177690864118343
5106000000.0 -0.48689434936465475 -0.9859574332609937
5109000000.0 -0.42204564046403525 -0.9693769525244678
5112000000.0 -0.4955888107809113 -0.8875040495868516
5116000000.0 -0.4784425681256378 -0.8782227241026825
5119000000.0 -0.503728428454716 -0.8540026965948928
5122000000.0 -0.4498282002575838 -0.9180297237855048
5125000000.0 -0.5152215088415941 -0.8832033212733067
5128000000.0 -0.5382243918141205 -0.8564391307936758
5131000000.0 -0.4992876073583597 -0.8798089992325911
5134000000.0 -0.5640496394893956 -0.8499292669758509
5138000000.0 -0.5485820413708651 -0.8747260453411383
5141000000.0 -0.4964438153340328 -0.8951302192508501
5144000000.0 -0.5323778708140386 -0.8998912839844417
5147000000.0 -0.5489358694218798 -0.9219096995492149
5150000000.0 -0.6004978202987724 -0.9299641347031073
5153000000.0 -0.5998138680157004 -0.8752590403969803
5156000000.0 -0.5734998942936165 -0.9125268661232442
5159000000.0 -0.5985977642255734 -0.9406983660777339
5162000000.0 -0.6244800861068626 -0.8249000494948345
5166000000.0 -0.6099242082908011 -0.8761375279135277
5169000000.0 -0.6389970218330554 -0.8881789310726402
5172000000.0 -0.6282446093163816 -0.8259814308644472
5175000000.0 -0.6014231875983026 -0.8572059491378061
5178000000.0 -0.6433227311583347 -0.8097474023205861
5181000000.0 -0.6469149982444728 -0.8749488136890022
5184000000.0 -0.6499087750264356 -0.8150235605024062
5188000000.0 -0.6567900272182817 -0.771853850187963
