! Created with skrf 1.8.0 (http://scikit-rf.org).
# Hz S RI R 50.0 
!freq ReS11 ImS11
4000000000.0 0.6146284976366883 0.8042487273394969
4003000000.0 0.7137569834664369 0.832179895595467
4006000000.0 0.639840094910813 0.768363641455172
4009000000.0 0.6868994407440482 0.7968660710072958
4012000000.0 0.6719730953672246 0.8307131890295653
4016000000.0 0.7574435414351598 0.7938031175611708
4019000000.0 0.6919578573060905 0.7556692016067459
4022000000.0 0.6674987375997773 0.7647166580706669
4025000000.0 0.74279259292486 0.7152252531268387
4028000000.0 0.6950606454393652 0.7333405588010764
4031000000.0 0.6622120237835092 0.6807950767162781
4034000000.0 0.7011869413855553 0.7061921892508857
4038000000.0 0.7655053833757501 0.7402109306508067
4041000000.0 0.7241011348462881 0.7459303931207156
4044000000.0 0.7997073639996561 0.7331346264143153
4047000000.0 0.7444385440930837 0.7596102359666653
4050000000.0 0.7861554631224951 0.7158865961327575
4053000000.0 0.7698180561161527 0.6619483954433736
4056000000.0 0.7656937129566548 0.6586572820145641
4059000000.0 0.7238071736927345 0.6741275882437625
4062000000.0 0.7709290972849794 0.6757314310525857
4066000000.0 0.7335463512269704 0.5950838358748352
4069000000.0 0.8101856540665875 0.6598076567082305
4072000000.0 0.7810390081351748 0.6844094358760509
4075000000.0 0.8036991310285655 0.6816302089946191
4078000000.0 0.8751263985302811 0.6610885483415704
4081000000.0 0.8045392859371785 0.6921519794433407
4084000000.0 0.8372273837557053 0.6217734635415169
4088000000.0 0.796795786124275 0.6360201857705916
4091000000.0 0.8697072867519584 0.6665588684169541
4094000000.0 0.7843578590227753 0.6166321632552952
4097000000.0 0.8191939539581268 0.568036475988202
4100000000.0 0.8311016542246513 0.5709875635285016
4103000000.0 0.8532591801495855 0.5808249284938449
4106000000.0 0.8756834176143715 0.565260257351467
4109000000.0 0.8721752722860263 0.5871957342307708
4112000000.0 0.8869649765277963 0.549314958157012
4116000000.0 0.8242421937569119 0.579425591196275
4119000000.0 0.8764161414485588 0.5363032901174299
4122000000.0 0.8831513546796101 0.5374529156416222
4125000000.0 0.8909848591929763 0.5338549909956967
4128000000.0 0.8789153533957571 0.5271772694569654
4131000000.0 0.874376300811601 0.5369684120098069
4134000000.0 0.8529275598324846 0.504801430192848
4138000000.0 0.8856046032659617 0.4625070931548652
4141000000.0 0.8792015594403807 0.46359608383926465
4144000000.0 0.9107956267742083 0.5099779001877325
4147000000.0 0.933360528525803 0.47305178614949644
4150000000.0 0.9258650176850988 0.49091633676146357
4153000000.0 0.9028808917884062 0.4835370903363777
4156000000.0 0.9081621828286803 0.5066548139123022
4159000000.0 0.883565327803685 0.4507781913775171
4162000000.0 0.9317108432420032 0.4367499926647319
4166000000.0 0.9366102941244183 0.45191198818775935
4169000000.0 0.9409203225772601 0.40892401530987066
4172000000.0 0.9162922300944463 0.4232645185154696
4175000000.0 0.9087389910425399 0.43087972169465444
4178000000.0 0.9417948371370991 0.4265129811889714
4181000000.0 0.9434860781013128 0.3801220515819276
4184000000.0 0.9549571131464901 0.3917568595963857
4188000000.0 0.9311293800595757 0.3621701761416035
4191000000.0 0.9069142583368744 0.3910616287736384
4194000000.0 0.9381069768232758 0.34973079264972884
4197000000.0 0.975605084852103 0.3599545281379249
4200000000.0 0.9616556158546952 0.38137776631504916
4203000000.0 0.9411069767475876 0.34389072102944396
4206000000.0 0.9759141123614343 0.33581639564373295
4209000000.0 0.9352920676228346 0.3337001583304257
4212000000.0 0.971468084253479 0.29333932449645705
4216000000.0 0.958085834354768 0.3298359754369489
4219000000.0 0.978938217139193 0.3148954036783781
4222000000.0 0.9764629874367108 0.2741887102985439
4225000000.0 0.9800228773752919 0.28140845464184383
4228000000.0 0.974375865825077 0.2744345619533788
4231000000.0 0.9741597531400116 0.2821595578059587
4234000000.0 1.0052624938399493 0.2701202580972235
4238000000.0 0.9903921821229106 0.23874018698620422
4241000000.0 0.9867265504730331 0.24143869868857654
4244000000.0 0.984374222742522 0.23446447522084185
4247000000.0 0.9832790536250593 0.2302489938571488
4250000000.0 0.9819024216191923 0.21382983845891745
4253000000.0 0.9622542724828298 0.19407615874014078
4256000000.0 1.0075263110181945 0.21015932041352142
4259000000.0 0.9654544718956959 0.18715335167909622
4262000000.0 0.9988815448129718 0.17433199468911784
4266000000.0 1.0174676131447504 0.17935160688365465
4269000000.0 0.9941424934270271 0.18596466610666582
4272000000.0 0.9781968355121756 0.16445777508651344
4275000000.0 1.0041416877110378 0.15910015002266525
4278000000.0 1.023007824663471 0.15231653666187905
4281000000.0 0.9968515977266496 0.1590858776771104
4284000000.0 1.01934479962839 0.10428684157730886
4288000000.0 1.0082671816921907 0.15595791216976324
4291000000.0 0.986184651391367 0.10522957070833265
4294000000.0 1.0053689271431059 0.09508120186481799
4297000000.0 1.012920688365214 0.10555292633916984
4300000000.0 0.9827636088895779 0.10001722867897977
4303000000.0 1.004658442858329 0.046683795922403584
4306000000.0 0.9787249296032642 0.1050653534691548
4309000000.0 0.9835016663771642 0.06720830043777033
4312000000.0 1.027548529305037 0.08972667766446696
4316000000.0 1.003606000700061 0.06720595770128322
4319000000.0 1.000739885315956 0.05225767193283544
4322000000.0 0.9902511370172997 0.025633600108273605
4325000000.0 1.0111764371703968 0.013754653964611965
4328000000.0 0.9977340960341862 -0.004826753960873231
4331000000.0 0.9935461875633119 -0.0235110660851979
4334000000.0 0.9902266741301307 -0.00639906537828927
4338000000.0 0.9976499237593071 -0.01786104787382624
4341000000.0 1.039781820675435 0.003846079068402619
4344000000.0 1.028296639553805 -0.029379084842448694
4347000000.0 1.0216228578593176 -0.06978969010826348
4350000000.0 0.9756449438203915 -0.07066903110199681
4353000000.0 0.9777035461596701 -0.04256082385975904
4356000000.0 0.9847280767959553 -0.101041164280408
4359000000.0 0.960253129673842 -0.08189364597471827
4362000000.0 1.0320864054829608 -0.13249206378788617
4366000000.0 1.0225090433741508 -0.09947559256486167
4369000000.0 0.962020189413217 -0.11792891811607045
4372000000.0 0.9788419054405959 -0.15236989949668964
4375000000.0 1.0006345995384622 -0.10746987462427972
4378000000.0 0.97753943784746 -0.10004699088410789
4381000000.0 0.9768235886720527 -0.12893855753718267
4384000000.0 1.0472020430306381 -0.1576318176447553
4388000000.0 0.9904407324701566 -0.14289556482147556
4391000000.0 1.0025859023951678 -0.16124292734164233
4394000000.0 0.9563417422044823 -0.17856519103734733
4397000000.0 0.9867766409231273 -0.18921614039304377
4400000000.0 1.0213220382197197 -0.18530301651107162
4403000000.0 0.9879802412017307 -0.2098863623223579
4406000000.0 0.9797267427569947 -0.23693756105376543
4409000000.0 1.0158603904289647 -0.2155342231672479
4412000000.0 0.960846103032447 -0.2730944068658976
4416000000.0 0.9659929456765168 -0.24359512897851365
4419000000.0 0.9657123707675909 -0.2614210053343519
4422000000.0 0.9695803598652117 -0.22086144115849582
4425000000.0 1.0017794190072178 -0.2329266926351805
4428000000.0 0.96731475664832 -0.27634874820385974
4431000000.0 0.974423455816716 -0.2718988232791848
4434000000.0 0.9631714055266402 -0.29103096486038915
4438000000.0 0.9826573110591148 -0.29459909017521485
4441000000.0 0.9675092085912416 -0.3039374412861514
4444000000.0 0.9452157612302665 -0.2946389565336317
4447000000.0 0.9476959890072016 -0.3369778359152857
4450000000.0 0.9374401681641698 -0.30624530280899886
4453000000.0 0.9726606207147671 -0.3424070989990735
4456000000.0 0.9108480848640136 -0.3476167951432493
4459000000.0 0.8889941241664134 -0.35883855520380303
4462000000.0 0.989911140180814 -0.3850471164556494
4466000000.0 0.9664640320701257 -0.3926808413232909
4469000000.0 0.9465714331526968 -0.3553310864597361
4472000000.0 0.9449493216459192 -0.4061605636290056
4475000000.0 0.8892168179806538 -0.3831474745414998
4478000000.0 0.9656126885685244 -0.4376739422178747
4481000000.0 0.8912873274404569 -0.41046692145812036
4484000000.0 0.898207195676769 -0.45660605029869894
4488000000.0 0.9007316644826654 -0.43733434481427547
4491000000.0 0.912925906347079 -0.4388329557745489
4494000000.0 0.8907808562076367 -0.4266263377889704
4497000000.0 0.8978765538726143 -0.4427949961628068
4500000000.0 0.895830497202289 -0.4352271331487564
4503000000.0 0.9080755878548996 -0.46454569827043013
4506000000.0 0.8729475015551986 -0.47638625808573165
4509000000.0 0.8359309699917497 -0.47488860304056035
4512000000.0 0.8614628917823205 -0.49296638993295927
4516000000.0 0.8936989581273918 -0.49639474884579327
4519000000.0 0.8602633882311482 -0.4784071332018411
4522000000.0 0.8536760118707722 -0.5177326773112819
4525000000.0 0.8814765368504813 -0.5003376287709503
4528000000.0 0.8700689696410975 -0.5506981510286358
4531000000.0 0.8553611342338411 -0.5309446540498363
4534000000.0 0.8329291862129722 -0.5091608909371527
4538000000.0 0.815606912281134 -0.5396845399103087
4541000000.0 0.7981706815844013 -0.5969913594290828
4544000000.0 0.8334118086128772 -0.5536020355882799
4547000000.0 0.8276861578683802 -0.5542708634870352
4550000000.0 0.8115017127169495 -0.6059549578075913
4553000000.0 0.8181040029759836 -0.6013021141945832
4556000000.0 0.7792048386526962 -0.5910230175900564
4559000000.0 0.8095089370684228 -0.6167243585678814
4562000000.0 0.8117201561284852 -0.6107211515655987
4566000000.0 0.8051164526438506 -0.6189917652616947
4569000000.0 0.7842342179347668 -0.6154816859861421
4572000000.0 0.7912073680508555 -0.6119651074308902
4575000000.0 0.7637128566699121 -0.6766214150204516
4578000000.0 0.8069228658151015 -0.6449381619620387
4581000000.0 0.7551932705305802 -0.6922488980967132
4584000000.0 0.7530131014295804 -0.6683496447808244
4588000000.0 0.7720953512965805 -0.656296782723106
4591000000.0 0.7641252186368483 -0.6630881485735971
4594000000.0 0.7354353949385187 -0.6911597029378599
4597000000.0 0.7493778698014715 -0.6976323368205958
4600000000.0 0.7081126683746205 -0.6968979361174636
4603000000.0 0.7224505909402247 -0.7177330652949644
4606000000.0 0.7180677982544222 -0.7084684769095057
4609000000.0 0.7164082602787583 -0.7003533651727131
4612000000.0 0.707722394811575 -0.7228782613646362
4616000000.0 0.6830341453393076 -0.7233711524091709
4619000000.0 0.6850987307602999 -0.7193340799862219
4622000000.0 0.6919262317242207 -0.7327756781859895
4625000000.0 0.6441750630512928 -0.733763970660689
4628000000.0 0.6697812892620906 -0.7564750217694336
4631000000.0 0.6552177379150024 -0.7522525098397267
4634000000.0 0.6556208983215182 -0.7671042893465767
4638000000.0 0.6433471843552884 -0.7716188583354998
4641000000.0 0.6638481786493137 -0.7740095524620844
4644000000.0 0.6344336038207228 -0.7700376130783319
4647000000.0 0.6437498697577521 -0.798506917489639
4650000000.0 0.6107444737304585 -0.7965617506574797
4653000000.0 0.6324846697334262 -0.8309447371937915
4656000000.0 0.5870248847943622 -0.8182604870348384
4659000000.0 0.6043753236649755 -0.806122479169755
4662000000.0 0.6030492528022017 -0.8162612838525252
4666000000.0 0.567946615174311 -0.8125506108669843
4669000000.0 0.5721309682955144 -0.8198621555698969
4672000000.0 0.5798257132559078 -0.8458809089495567
4675000000.0 0.5455724924620109 -0.8603806970694458
4678000000.0 0.5497098976601275 -0.8371186166192428
4681000000.0 0.5327668575855091 -0.8713004784086182
4684000000.0 0.5094949672933824 -0.8809211167187894
4688000000.0 0.5131901337372358 -0.8786850955478681
4691000000.0 0.5663367772454456 -0.8800165199321033
4694000000.0 0.5316713565378834 -0.8341261590364648
4697000000.0 0.47358934977079764 -0.864601055498879
4700000000.0 0.49639423950217376 -0.8584143617268085
4703000000.0 0.5137186704022239 -0.8548081176960194
4706000000.0 0.4770810999030461 -0.9032166751958918
4709000000.0 0.4698492496763933 -0.8639509952451268
4712000000.0 0.481724115317761 -0.9100853876878846
4716000000.0 0.4849420007658246 -0.9079798444466909
4719000000.0 0.48599349910310086 -0.8913029428432581
4722000000.0 0.46704969316368666 -0.9057246136630905
4725000000.0 0.4331574630649356 -0.9013095526566388
4728000000.0 0.4210084174766704 -0.8920890505080317
4731000000.0 0.4553869419900325 -0.9306688689525797
4734000000.0 0.413096422614865 -0.9033348547391293
4738000000.0 0.4667727757124025 -0.9372622386154468
4741000000.0 0.4043515472211694 -0.9677045310346676
4744000000.0 0.35887089176795794 -0.933748625570164
4747000000.0 0.374069987578491 -0.8999649954596355
4750000000.0 0.3891567001686618 -0.9774561524221709
4753000000.0 0.38659861877546564 -0.930447197243552
4756000000.0 0.34818082406617595 -0.9473473460984025
4759000000.0 0.38523377491212313 -0.9709741388731483
4762000000.0 0.3505961455273031 -0.9838176362188172
4766000000.0 0.33750003549726604 -0.9697814243705006
4769000000.0 0.3557323949612197 -0.9492433426052609
4772000000.0 0.3297267491428953 -0.9874700712937733
4775000000.0 0.3219797941842972 -0.9984009948133634
4778000000.0 0.31963312416368744 -0.9745098131810787
4781000000.0 0.3127741235403148 -0.9530122664091267
4784000000.0 0.3071005398407738 -0.966772593094852
4788000000.0 0.26668238180848747 -1.0039703109506477
4791000000.0 0.2794849421354165 -0.9874343930540742
4794000000.0 0.31986779160896345 -0.9957042057435472
4797000000.0 0.24566274347030626 -0.9534251104827035
4800000000.0 0.2429625814884395 -0.9755181916458706
4803000000.0 0.21921523762745318 -0.9829066494553
4806000000.0 0.2506221229769986 -1.0022065992192886
4809000000.0 0.18526192184922619 -0.983313165871938
4812000000.0 0.16819183925842235 -1.0048380687374179
4816000000.0 0.23384449955085126 -0.9885305268543165
4819000000.0 0.21824227190892392 -0.9985005277333119
4822000000.0 0.21665480397858192 -1.0194410081081795
4825000000.0 0.21250503251094768 -1.0240082974457112
4828000000.0 0.1734839635233833 -0.9902342889951844
4831000000.0 0.12323104270959472 -1.04075193809699
4834000000.0 0.17850424735558015 -1.0109296852627458
4838000000.0 0.13585852817988087 -1.0519531837828437
4841000000.0 0.11534518566177113 -0.9961985925352607
4844000000.0 0.17348043190424473 -1.0030600756775925
4847000000.0 0.12412364827312743 -0.9816027249963788
4850000000.0 0.11143058691004298 -1.0530215423099059
4853000000.0 0.11131202138914499 -0.9971019271045147
4856000000.0 0.10325021167663966 -0.9941982845646765
4859000000.0 0.07504950068401875 -1.0649266472667946
4862000000.0 0.12708321409269768 -0.9878580378994654
4866000000.0 0.0631969537836568 -1.0434619993990848
4869000000.0 0.05322896843892072 -1.0191516614512517
4872000000.0 0.055791626974642385 -1.0671556955542494
4875000000.0 0.10026062001629371 -1.0629026170833915
4878000000.0 0.022715405075837018 -1.0423182121355887
4881000000.0 0.009942346510426749 -1.114679584521791
4884000000.0 0.02157338583460829 -1.0159417640267119
4888000000.0 0.03879873084852341 -1.0099656389889233
4891000000.0 0.037133737934074346 -1.042614736073527
4894000000.0 -0.0326434517582634 -0.9990720088666304
4897000000.0 0.011054504217409847 -1.0100320372669165
4900000000.0 0.022412580853227313 -1.0261991339070407
4903000000.0 -0.005035759041365398 -1.0611003511907533
4906000000.0 -0.039618977703999046 -1.03771348987523
4909000000.0 -0.05507706409916833 -1.0253285490587658
4912000000.0 -0.081897418927158 -1.0580922870731726
4916000000.0 -0.031403274554917766 -1.0385159166070355
4919000000.0 -0.03712547691018897 -1.0643146809129256
4922000000.0 -0.036293508177333636 -1.0274452506923375
4925000000.0 -0.11630203847530796 -1.0134992527675206
4928000000.0 -0.05193576465573689 -1.0055374975586233
4931000000.0 -0.10821973502205941 -1.0409468282300989
4934000000.0 -0.09660063489027908 -0.9868091771968569
4938000000.0 -0.13278905555315823 -0.9824024432191066
4941000000.0 -0.1243019729807313 -1.0041189902386238
4944000000.0 -0.10388316257807839 -0.9397241189365992
4947000000.0 -0.14331865121676626 -0.9847433146928102
4950000000.0 -0.14889504342373938 -0.9978766430678372
4953000000.0 -0.22980218119138118 -1.0438348546100107
4956000000.0 -0.1779404591807191 -1.0278655722856669
4959000000.0 -0.17292553398815533 -0.981826841487074
4962000000.0 -0.195962653936233 -1.0622538478136265
4966000000.0 -0.1564240564527481 -1.0458817534008125
4969000000.0 -0.20481236185978496 -1.0630334701976845
4972000000.0 -0.235055870223951 -1.0061244002288454
4975000000.0 -0.18758967783490885 -0.9979481772195679
4978000000.0 -0.2422656727634543 -1.0044644874815989
4981000000.0 -0.21734223554502105 -1.007985872868053
4984000000.0 -0.24770267332139687 -0.9637607605820946
4988000000.0 -0.22670568014631032 -1.0274917471575988
4991000000.0 -0.21521824745606266 -1.0302546672476474
4994000000.0 -0.25805413449352954 -1.0038550844095429
4997000000.0 -0.30344057132890007 -0.9709718062345905
5000000000.0 -0.26718245538034757 -1.0287712466828516
5003000000.0 -0.263313221901089 -1.0329442666989956
5006000000.0 -0.27738571560961733 -1.0251632744251706
5009000000.0 -0.292913435771472 -1.0047253039907558
5012000000.0 -0.3146258747941035 -0.96674813330459
5016000000.0 -0.306229276912325 -1.030005930426146
5019000000.0 -0.3397569887781612 -0.9759742380563055
5022000000.0 -0.33557480057085576 -0.9828520646899912
5025000000.0 -0.3651971910239635 -1.0049788739999685
5028000000.0 -0.3753238361971709 -0.9811373431979074
5031000000.0 -0.3812913259762787 -0.9684433543156955
5034000000.0 -0.4065451094102337 -0.977381292335169
5038000000.0 -0.3628421988706022 -0.9331429851996618
5041000000.0 -0.3608182680871108 -0.9616610204385175
5044000000.0 -0.3701651740421271 -0.9625058641161549
5047000000.0 -0.3810574646137696 -0.9565779963544528
5050000000.0 -0.3300009768652692 -0.9650010350054734
5053000000.0 -0.44036918906423805 -0.9883190499193943
5056000000.0 -0.39251540876507496 -0.9635512069586885
5059000000.0 -0.37922436820205624 -0.9632385302654601
5062000000.0 -0.4633783080762315 -0.9511181362060002
5066000000.0 -0.41492016788257824 -0.9243480627926601
5069000000.0 -0.44827418249452333 -0.9767763215800175
5072000000.0 -0.4445386087747668 -0.9188435893246327
5075000000.0 -0.45024890270211604 -0.9285581981824458
5078000000.0 -0.48973615815617794 -0.9024581820619075
5081000000.0 -0.4735942590768118 -0.8852751287387081
5084000000.0 -0.5011400199381595 -0.8697961079773995
5088000000.0 -0.49196008110237666 -0.9117693863265426
5091000000.0 -0.5430713462698755 -0.9037428678908872
5094000000.0 -0.505747549667412 -0.9003488140899211
5097000000.0 -0.44001314347269993 -0.9348443817416838
5100000000.0 -0.5467356796834728 -0.8572911956818688
5103000000.0 -0.5338803579659251 -0.8918008326583547
5106000000.0 -0.4929051408856186 -0.8930470965505115
5109000000.0 -0.5159964180202388 -0.8920223427368474
5112000000.0 -0.5183499190112848 -0.865285820975966
5116000000.0 -0.5124938367247258 -0.8373271732796312
5119000000.0 -0.5472485028122165 -0.8696148002618806
5122000000.0 -0.5519170292537503 -0.8872889508108004
5125000000.0 -0.5599249289193589 -0.8687991224125453
5128000000.0 -0.613645785413089 -0.8233721998866153
5131000000.0 -0.5613050436583634 -0.8434876322548877
5134000000.0 -0.5703512743532079 -0.8613701087511961
5138000000.0 -0.6011983727063708 -0.8455919075421979
5141000000.0 -0.5960244243156858 -0.8650747976544517
5144000000.0 -0.589211093815578 -0.8293633440659508
5147000000.0 -0.6214890062527922 -0.8647737597993124
5150000000.0 -0.5986736284231343 -0.8530202100675734
5153000000.0 -0.6141620085190651 -0.8135162226333091
5156000000.0 -0.6494829470092357 -0.8088435266157166
5159000000.0 -0.6725807284587076 -0.8529840879245524
5162000000.0 -0.6473433070041098 -0.7774928987465227
5166000000.0 -0.6647232210779886 -0.8260625652955267
5169000000.0 -0.6520530876279717 -0.7989595564187172
5172000000.0 -0.650465747071568 -0.8158382546520214
5175000000.0 -0.670268950224406 -0.8437833949691196
5178000000.0 -0.703691105988631 -0.8083118491665361
5181000000.0 -0.7367103291778077 -0.8103493019353992
5184000000.0 -0.6791018377128261 -0.7864169971205642
5188000000.0 -0.6962714501185494 -0.770681910137719
