! Created with skrf 1.8.0 (http://scikit-rf.org).
# Hz S RI R 50.0 
!freq ReS11 ImS11
4000000000.0 0.6400793859200034 0.7688045550894085
4003000000.0 0.7146886560591351 0.8145142084937478
4006000000.0 0.6875340378665349 0.7672013271355209
4009000000.0 0.6811264218697731 0.7801176717061217
4012000000.0 0.6558694604873633 0.8308137223391875
4016000000.0 0.7456193331628106 0.7746131780180061
4019000000.0 0.7127311405314389 0.7717327560362613
4022000000.0 0.643809858399982 0.8126278429849868
4025000000.0 0.792202070783979 0.742934559069222
4028000000.0 0.7481739105155889 0.6958838285759075
4031000000.0 0.6997196877551094 0.7362800763518221
4034000000.0 0.7446150355110356 0.7173160375618266
4038000000.0 0.7710329689290728 0.7334433570791961
4041000000.0 0.7345274694113249 0.7003202097092035
4044000000.0 0.8091034884841456 0.727475570816001
4047000000.0 0.7526192782454143 0.7515247719010877
4050000000.0 0.82743264218169 0.7295557429482987
4053000000.0 0.8015184217217474 0.6491535858959154
4056000000.0 0.7803682268420188 0.6569136000054591
4059000000.0 0.7321373118138431 0.676946434073189
4062000000.0 0.8429162872125362 0.7015036944202588
4066000000.0 0.7354302112793185 0.6014323235189581
4069000000.0 0.829055660264268 0.6881910065969952
4072000000.0 0.7974747041946193 0.6566084493400675
4075000000.0 0.7914731868964785 0.6692102515824214
4078000000.0 0.8308886314726779 0.6280042753590743
4081000000.0 0.8055409361160659 0.6865439347024562
4084000000.0 0.8464315342513492 0.6181602179088617
4088000000.0 0.810428602130333 0.6365386864625876
4091000000.0 0.8981278342449597 0.6350878365303059
4094000000.0 0.8460797313623492 0.6209750200887153
4097000000.0 0.8788305770745881 0.6044981963728113
4100000000.0 0.852281331079739 0.5802703429171783
4103000000.0 0.8484617682998163 0.6282828649617209
4106000000.0 0.8668599379599502 0.559838362010452
4109000000.0 0.8416419565207951 0.5618659078356645
4112000000.0 0.8722393374960009 0.5606380118005656
4116000000.0 0.8831794385166359 0.5601769886389693
4119000000.0 0.8789401316745511 0.5336212964999327
4122000000.0 0.8919559496522227 0.4878910146696057
4125000000.0 0.8986814041187661 0.5203571325849254
4128000000.0 0.8868273567562593 0.516064154708558
4131000000.0 0.9055131073613876 0.4837265817172669
4134000000.0 0.8837112556135536 0.5112029272194515
4138000000.0 0.893597449757275 0.4709071732630538
4141000000.0 0.8909761914482454 0.4747749522002145
4144000000.0 0.896742722879524 0.49683971888999207
4147000000.0 0.8840127142790754 0.44945875308362365
4150000000.0 0.9685855148227184 0.451458078747958
4153000000.0 0.8904631273240673 0.4852484371003398
4156000000.0 0.9406246146519794 0.4878155959086915
4159000000.0 0.9044145832853705 0.4522132557807503
4162000000.0 0.9151146733480584 0.437580370800259
4166000000.0 0.9285177284420096 0.380816508165555
4169000000.0 0.9320415646259002 0.37884771983817134
4172000000.0 0.9621875375087788 0.41516021359160665
4175000000.0 0.9708002006817744 0.40637986364611195
4178000000.0 0.9656998580603765 0.3946640330075103
4181000000.0 0.962563566670952 0.36694955281535746
4184000000.0 0.9474057051024124 0.37393543223522957
4188000000.0 0.9721866315863474 0.3700594117129876
4191000000.0 0.9625228764811062 0.40097910070175863
4194000000.0 0.942962050800446 0.3543769595319115
4197000000.0 0.9646637698535829 0.34312115598497434
4200000000.0 0.9598238868822022 0.352072426614887
4203000000.0 0.9621481645396677 0.35058200859045663
4206000000.0 0.9972174238425096 0.3159097493453767
4209000000.0 0.9666971531624782 0.29866588275722755
4212000000.0 0.9608393265738905 0.27932596940757337
4216000000.0 0.9885880392739256 0.31923812010791236
4219000000.0 0.9841329293313681 0.3301104790116497
4222000000.0 0.9825936770721897 0.28763960285888773
4225000000.0 0.981513668522298 0.2997598255102554
4228000000.0 0.9886537212256328 0.27424287709126083
4231000000.0 0.9918186795540183 0.26435171222015563
4234000000.0 0.9991837696290956 0.26493759859235394
4238000000.0 0.9970742449252217 0.21685942046806264
4241000000.0 0.9922062108169114 0.20719751476354248
4244000000.0 0.9889531985059262 0.23046692340648095
4247000000.0 0.9888274239014544 0.21680177356133357
4250000000.0 0.9961316031560496 0.20176645283501232
4253000000.0 0.9664924380415469 0.17674081737422553
4256000000.0 1.0177957688155663 0.18647915389554015
4259000000.0 0.9741284783839801 0.17164085672162713
4262000000.0 0.9898525291313793 0.1427380417504661
4266000000.0 1.0124754297330916 0.13354338369518642
4269000000.0 0.9992116623240915 0.16247549101764552
4272000000.0 0.9887865181026892 0.15513269345661637
4275000000.0 1.006558117582884 0.14038594751863792
4278000000.0 1.0316784137277557 0.15433235505907944
4281000000.0 1.0060400550473736 0.1400200054621939
4284000000.0 1.0341139371527328 0.09338541642522638
4288000000.0 1.0104921209608904 0.12725120997332726
4291000000.0 0.985194668196306 0.09958750212731475
4294000000.0 0.9851006311941845 0.08598880000835903
4297000000.0 0.98642948877408 0.10220888687412365
4300000000.0 1.0129931183589398 0.08006786478641606
4303000000.0 0.9745260158830034 0.0551977590734644
4306000000.0 1.017256739143309 0.07719397610746967
4309000000.0 0.9975375967188914 0.0529813204498364
4312000000.0 1.0118296449745954 0.0740222257062138
4316000000.0 1.0195910254239735 0.030432985312227004
4319000000.0 1.0115413579307122 0.01900798838355576
4322000000.0 0.9984049358056899 0.004539005435904589
4325000000.0 1.0050511440428924 0.0033494355484414012
4328000000.0 1.016499358085922 0.005571137618966077
4331000000.0 1.0208522360586156 -0.038247484180235686
4334000000.0 1.0398464515631962 -0.04611228049321002
4338000000.0 0.9925234340398011 -0.0007963869317159089
4341000000.0 1.032685927953383 -0.0026520150765784595
4344000000.0 1.0400703208995987 -0.010526809623383704
4347000000.0 1.0371054666576915 -0.09837025006661415
4350000000.0 0.98928848970502 -0.07780628186627678
4353000000.0 0.9856946322771296 -0.051428509715693405
4356000000.0 0.9963536693665449 -0.09438736641165789
4359000000.0 0.9572896085102485 -0.09128012283247607
4362000000.0 0.9994788959910499 -0.14059536549191035
4366000000.0 1.012855242765012 -0.12542130207713248
4369000000.0 0.9721884503592938 -0.12811346144313196
4372000000.0 0.9937113056616842 -0.16628695893220796
4375000000.0 1.0022865088668629 -0.12231577430542842
4378000000.0 0.9891181849337592 -0.15022301721269102
4381000000.0 0.9851203341017474 -0.1286057917386616
4384000000.0 1.0515898511972959 -0.17389489144848863
4388000000.0 0.9935325490506964 -0.1587427627002828
4391000000.0 1.0050576978946035 -0.19086207410304595
4394000000.0 0.9624987678762323 -0.19229036315933556
4397000000.0 0.9837703497004688 -0.2006410632802535
4400000000.0 1.0139208177463654 -0.21698184590054326
4403000000.0 0.9940542763806669 -0.2204513341018204
4406000000.0 0.9812593040959581 -0.24557318759719607
4409000000.0 0.9999482808057691 -0.25219763991820243
4412000000.0 0.9625766205235706 -0.29510940238100575
4416000000.0 0.9579511730988572 -0.27328872207731975
4419000000.0 0.9776889360608609 -0.2945419804931572
4422000000.0 0.9591083064735539 -0.24688223903188306
4425000000.0 0.987499392479821 -0.26511434478709467
4428000000.0 0.9625574154417369 -0.28893065923987005
4431000000.0 0.9877530472661373 -0.29453980388567885
4434000000.0 0.955551181243267 -0.3144995475097753
4438000000.0 0.9907880640630837 -0.3265989822475616
4441000000.0 0.9849349800796272 -0.32636372837976213
4444000000.0 0.9387494824534344 -0.31063778692897365
4447000000.0 0.9419368715075274 -0.3555098627918431
4450000000.0 0.93621806511 -0.34189951646841366
4453000000.0 0.9665295731427606 -0.36822402537655863
4456000000.0 0.9231863958003143 -0.3668901734251465
4459000000.0 0.8868428652549736 -0.3755084183735915
4462000000.0 0.9898584055592021 -0.416558882807222
4466000000.0 0.9495613210334845 -0.41163493650224114
4469000000.0 0.9282256573721599 -0.39074865951828475
4472000000.0 0.9229666333303914 -0.4521453438550594
4475000000.0 0.8978871301245304 -0.40162946642256436
4478000000.0 0.9545911620921498 -0.4697060353856394
4481000000.0 0.8820874238894069 -0.44250063150356084
4484000000.0 0.8821042681062032 -0.46516692968816664
4488000000.0 0.8968310166021484 -0.45748425341098137
4491000000.0 0.8842936657150824 -0.45924917306950647
4494000000.0 0.8754141719888283 -0.46975864732363776
4497000000.0 0.9086095953551792 -0.4612897545563949
4500000000.0 0.8900137738022444 -0.47557249678949204
4503000000.0 0.9021719794323517 -0.48659464435458466
4506000000.0 0.8484479219269465 -0.5049298651343403
4509000000.0 0.8679552424545793 -0.5075278427873245
4512000000.0 0.8455076559945228 -0.5076017340120393
4516000000.0 0.8813664731976963 -0.5332980521337001
4519000000.0 0.875984467209489 -0.4981951557147848
4522000000.0 0.8478690215643379 -0.5316415424011164
4525000000.0 0.8589417810993711 -0.5130719249199021
4528000000.0 0.8660833288101863 -0.5460702853726678
4531000000.0 0.8454689999163025 -0.5496659944518001
4534000000.0 0.8227499244442692 -0.5631390142651624
4538000000.0 0.8136648992342064 -0.5701721603522462
4541000000.0 0.7962027135163839 -0.5922859407578757
4544000000.0 0.8029508229938331 -0.5953199465346408
4547000000.0 0.813075489289332 -0.5821433766342732
4550000000.0 0.8164010375548296 -0.6249839069455986
4553000000.0 0.7809786436948549 -0.6207093168069782
4556000000.0 0.7895768304707309 -0.6024311226913315
4559000000.0 0.7777428782174967 -0.6365905663461362
4562000000.0 0.8223803944646155 -0.6451076076741813
4566000000.0 0.782616742452513 -0.6422773542154359
4569000000.0 0.750920513292085 -0.656517303531118
4572000000.0 0.7511389464143939 -0.6529284296264141
4575000000.0 0.7620528696013409 -0.6814097385168559
4578000000.0 0.7798915447640329 -0.6752614633048055
4581000000.0 0.7513149001475394 -0.6780584103011464
4584000000.0 0.7287107079281028 -0.6702412222051584
4588000000.0 0.7596550834528957 -0.697278864087534
4591000000.0 0.7488979105459692 -0.6750157479453046
4594000000.0 0.721716958885835 -0.7057823368300413
4597000000.0 0.7113722686551909 -0.7314639443799461
4600000000.0 0.697628960620774 -0.7144809702921731
4603000000.0 0.731994406564408 -0.7383756446552843
4606000000.0 0.7131205563114648 -0.7337516374777434
4609000000.0 0.6899895577678985 -0.7382037546953302
4612000000.0 0.6820304435053577 -0.7509294085003511
4616000000.0 0.6745000194748283 -0.7346626177990446
4619000000.0 0.6765854988166757 -0.7464405749338009
4622000000.0 0.6693289433569736 -0.7664739338442155
4625000000.0 0.6371316949224703 -0.7613856967675633
4628000000.0 0.654451031507674 -0.7626970355633828
4631000000.0 0.6288857642565853 -0.7884776087233312
4634000000.0 0.638134664905195 -0.7852347767295472
4638000000.0 0.6430962504624296 -0.7971829392508072
4641000000.0 0.6474697860831494 -0.7992464360116533
4644000000.0 0.6094515007759789 -0.7936819826932736
4647000000.0 0.636107374790562 -0.8037175067693197
4650000000.0 0.5938189066865288 -0.8160448563042936
4653000000.0 0.6269963076750736 -0.8194636618226194
4656000000.0 0.5818732002433495 -0.825002835596097
4659000000.0 0.5618231528017934 -0.8318073715863185
4662000000.0 0.5718588008359101 -0.8383357488769384
4666000000.0 0.5550209406415767 -0.8322315687592613
4669000000.0 0.574586727343275 -0.8412066699661042
4672000000.0 0.5413186414143667 -0.8517994605338262
4675000000.0 0.5408222153563587 -0.8708667087974241
4678000000.0 0.5227838200864923 -0.8313394661941275
4681000000.0 0.5196874741838109 -0.8933867285190474
4684000000.0 0.4986578207158164 -0.8780732625556702
4688000000.0 0.49417157035582016 -0.8728978691013596
4691000000.0 0.5333957099795745 -0.8836821559552588
4694000000.0 0.5257342168529003 -0.8740745986053424
4697000000.0 0.462567635852722 -0.8698828700890444
4700000000.0 0.4907068880612101 -0.8995274681822467
4703000000.0 0.49953259750112367 -0.8586629541049182
4706000000.0 0.46647047045919005 -0.9061964963461454
4709000000.0 0.43897130610684243 -0.9134979734871091
4712000000.0 0.44423562613459944 -0.8921721632085483
4716000000.0 0.4638006947997517 -0.9407857123102739
4719000000.0 0.4585743023439825 -0.9149614421977215
4722000000.0 0.4461111806869137 -0.9314574956519395
4725000000.0 0.4480678538683473 -0.9249735950101512
4728000000.0 0.4055435953559061 -0.9214184986812044
4731000000.0 0.4311430994515255 -0.972407669560327
4734000000.0 0.4012529275879372 -0.9078957740945368
4738000000.0 0.40612597289834235 -0.9776483570141686
4741000000.0 0.4055925421279474 -0.9946290682658268
4744000000.0 0.36018567049008654 -0.9578774424852209
4747000000.0 0.3762505566363004 -0.9152725951871309
4750000000.0 0.3813851564391782 -0.9546207215274624
4753000000.0 0.3769641390143107 -0.9319480663463743
4756000000.0 0.36046646032639773 -0.9492180285714535
4759000000.0 0.35946625165642115 -0.9733756831000986
4762000000.0 0.28761211739832465 -0.975627130644548
4766000000.0 0.290589784206889 -0.9677776752160423
4769000000.0 0.3357568337868223 -0.9805735825782881
4772000000.0 0.3122621167350798 -0.9949161648535939
4775000000.0 0.310792641240564 -1.0231995650665457
4778000000.0 0.30849313010861257 -0.9899486462983106
4781000000.0 0.30059907177318884 -0.9916445760693737
4784000000.0 0.28017189258084646 -0.973793938845762
4788000000.0 0.24220759435266873 -1.0126660257720719
4791000000.0 0.24192784264401607 -0.9730774542009156
4794000000.0 0.290143168275114 -1.0209905141023077
4797000000.0 0.22672773238170224 -0.9982521186508225
4800000000.0 0.21078216429484783 -0.965516439974518
4803000000.0 0.18498640101537608 -0.9848817194887269
4806000000.0 0.20574821059483955 -1.020418579661224
4809000000.0 0.1560361303370797 -0.9922799981281311
4812000000.0 0.15378300203784495 -1.0069898406632076
4816000000.0 0.1935888708616557 -0.9849762653741438
4819000000.0 0.20492985653531717 -1.0328960148173534
4822000000.0 0.18571274003241006 -1.0308288479093095
4825000000.0 0.1957254345711732 -1.044119899509919
4828000000.0 0.12732423595417974 -0.9883502124574212
4831000000.0 0.10230499824755249 -1.0352756126931872
4834000000.0 0.14668690372422244 -1.036694611945645
4838000000.0 0.10105420473119983 -1.0479260921378775
4841000000.0 0.11463091041183104 -1.0025088313930453
4844000000.0 0.12125354331098101 -1.0163065581654582
4847000000.0 0.10613321401060238 -0.9929612937203516
4850000000.0 0.06441579909306086 -1.0516496701356013
4853000000.0 0.08877169531313556 -1.005191249131233
4856000000.0 0.0684329220071435 -1.0011971010630916
4859000000.0 0.041610825247931776 -1.0424397111409234
4862000000.0 0.08171750940938655 -0.9957012450538797
4866000000.0 -0.0019479010135321842 -1.0297538497016152
4869000000.0 0.012443859503890332 -1.0200183592003313
4872000000.0 -0.004580413637562069 -1.060654349233519
4875000000.0 0.06933729298761274 -1.0523878843351433
4878000000.0 0.025984783533721138 -1.0322017150236202
4881000000.0 -0.05331945653313986 -1.099595502145193
4884000000.0 0.016485005604652873 -1.0212543192873684
4888000000.0 0.026920529825029595 -1.0291896834644008
4891000000.0 -0.024840379986859173 -1.0593722955380331
4894000000.0 -0.03553472898908349 -1.019577632592962
4897000000.0 0.006348927934083148 -1.0103115100401143
4900000000.0 -0.018028096906071503 -1.0372632888787368
4903000000.0 -0.05589857981855429 -1.0341978324921879
4906000000.0 -0.08114592530681392 -1.0594100341244774
4909000000.0 -0.07684961795572731 -1.0176759199707548
4912000000.0 -0.11518838295967292 -1.044123242089657
4916000000.0 -0.08669421948375891 -1.0283774882274137
4919000000.0 -0.037035159833370565 -1.0723356545625282
4922000000.0 -0.07281256005577788 -1.0521050573333022
4925000000.0 -0.13953921675187317 -1.0328717896800041
4928000000.0 -0.0874200190021883 -1.0021502145615875
4931000000.0 -0.12044691407022289 -1.0395839835003522
4934000000.0 -0.1198090697189687 -1.0015500480100636
4938000000.0 -0.184980595082487 -1.0141393661843385
4941000000.0 -0.12948433117269598 -0.9798476008806933
4944000000.0 -0.11413779894560891 -0.9634695687925148
4947000000.0 -0.16541077296835197 -1.012118539176489
4950000000.0 -0.16898684944966502 -0.9726112232806969
4953000000.0 -0.22904922173259895 -1.0828341431958566
4956000000.0 -0.18981181561329452 -0.9797462091825035
4959000000.0 -0.2273448085174539 -0.9730756360624643
4962000000.0 -0.2564985791669361 -1.0595832575695283
4966000000.0 -0.21593371647538162 -1.057151213325905
4969000000.0 -0.2155624380158941 -1.0665632901285311
4972000000.0 -0.2582799564625038 -1.0102592897294576
4975000000.0 -0.1895218045072604 -1.0046606820356743
4978000000.0 -0.28112677518304807 -1.0008794449091922
4981000000.0 -0.27449453485833475 -1.0081787178395072
4984000000.0 -0.27716860491650397 -0.9904294476304034
4988000000.0 -0.25062081613081955 -0.9993326499860817
4991000000.0 -0.24785795963190915 -0.9992247994231611
4994000000.0 -0.26339003998046345 -0.9864459882841851
4997000000.0 -0.3284336260275474 -0.997023200096529
5000000000.0 -0.30179598778546635 -1.0420929184490717
5003000000.0 -0.3165271625261408 -0.997311177071367
5006000000.0 -0.34751378359091 -1.0297807372896728
5009000000.0 -0.3175217825839287 -0.9706832708860156
5012000000.0 -0.3503708142068354 -0.9751933576710294
5016000000.0 -0.3370060436538553 -1.0111095216806878
5019000000.0 -0.37231353807881595 -0.9623744412577953
5022000000.0 -0.3859046588788603 -0.9878482316567412
5025000000.0 -0.4109309999460348 -0.9962747622774384
5028000000.0 -0.3988705112804801 -0.9832822197271909
5031000000.0 -0.4258374637728993 -0.9930793534374213
5034000000.0 -0.46797160549951455 -0.9728265568555832
5038000000.0 -0.4182096569677921 -0.9372333512168725
5041000000.0 -0.38240183189357446 -0.989915787325026
5044000000.0 -0.3745462331580758 -0.9002255556664228
5047000000.0 -0.4005306490814012 -0.9718201654201238
5050000000.0 -0.33590103316607745 -0.950676740978363
5053000000.0 -0.47713662243141475 -0.9709472499204799
5056000000.0 -0.41259674794369894 -0.9150102953864168
5059000000.0 -0.4188359557398879 -0.9609818047479234
5062000000.0 -0.5045949448158865 -0.9213944444734914
5066000000.0 -0.4427862626587461 -0.9256490634250241
5069000000.0 -0.4583246076476145 -0.9559777836761602
5072000000.0 -0.4523692172447975 -0.9005529159762287
5075000000.0 -0.441080006943007 -0.9331469736432838
5078000000.0 -0.5536808628328225 -0.9182515929844743
5081000000.0 -0.5338176643256611 -0.8608636041673091
5084000000.0 -0.5195286394489591 -0.920961886655189
5088000000.0 -0.496676394302057 -0.8865276042593981
5091000000.0 -0.5566226347918213 -0.88990311160726
5094000000.0 -0.5658539316779546 -0.8465372309385225
5097000000.0 -0.48760282179289083 -0.904227403554207
5100000000.0 -0.5504668010810014 -0.8896100838584317
5103000000.0 -0.586298212287414 -0.9185470247596544
5106000000.0 -0.5490731590856517 -0.8672498500726045
5109000000.0 -0.5311032146398648 -0.9138763833067962
5112000000.0 -0.5878665237882345 -0.8374464664847285
5116000000.0 -0.5982598095767186 -0.7989664968325192
5119000000.0 -0.6284242877014464 -0.866064356533019
5122000000.0 -0.5594282612619398 -0.8102227854029738
5125000000.0 -0.579648296179543 -0.8506884620145871
5128000000.0 -0.6225270556593107 -0.8304243977458177
5131000000.0 -0.6020615455427407 -0.8633966585158233
5134000000.0 -0.6122706403663865 -0.8191192168153733
5138000000.0 -0.6117402220703061 -0.8774481731662266
5141000000.0 -0.6169328528114648 -0.8545067305755152
5144000000.0 -0.6028770775810434 -0.7930604828082826
5147000000.0 -0.6656552462562065 -0.8138264963090179
5150000000.0 -0.6567669809520804 -0.84149722315733
5153000000.0 -0.6466090154918163 -0.8284873939396774
5156000000.0 -0.6696441350130711 -0.8427884670544196
5159000000.0 -0.6866703973882526 -0.8049131090920509
5162000000.0 -0.6960529817730334 -0.7766265098566513
5166000000.0 -0.6908371132503945 -0.7836640655656651
5169000000.0 -0.6979504604159937 -0.769995401701214
5172000000.0 -0.7006568279349432 -0.7745113878995169
5175000000.0 -0.7357403836264418 -0.7931719524247501
5178000000.0 -0.7150147479202493 -0.7402429166611895
5181000000.0 -0.758879087872804 -0.7527105768246594
5184000000.0 -0.7632491125461892 -0.7596833747704036
5188000000.0 -0.7507523086081874 -0.7622561864411209
