! Created with skrf 1.8.0 (http://scikit-rf.org).
# Hz S RI R 50.0 
!freq ReS11 ImS11
4000000000.0 0.6408516567820126 0.8024681526314692
4003000000.0 0.7422040720413807 0.8165403015615984
4006000000.0 0.6742156687209836 0.7643032370698198
4009000000.0 0.6884499885757518 0.7978761821239597
4012000000.0 0.631591360269762 0.7871777193363588
4016000000.0 0.7285892866683518 0.7112712646667492
4019000000.0 0.7229506863235482 0.7346311783321923
4022000000.0 0.6657873189064427 0.8068346584060593
4025000000.0 0.7848059011045556 0.7059713519330787
4028000000.0 0.7349313992367742 0.6985961514825052
4031000000.0 0.718105333236474 0.7172924498882652
4034000000.0 0.7553101744933378 0.6631822871077022
4038000000.0 0.7653958271913083 0.7030316929597394
4041000000.0 0.7665120661224293 0.6710710818259029
4044000000.0 0.7962379257953768 0.7423744646262056
4047000000.0 0.7742029810780382 0.7190241139476453
4050000000.0 0.8035795258164952 0.7066876349529896
4053000000.0 0.7862094944232841 0.6309710975671263
4056000000.0 0.7721429806837216 0.6702960548415838
4059000000.0 0.7800067037508042 0.6943489162376706
4062000000.0 0.8124262272157187 0.6128841460077821
4066000000.0 0.7121312960518011 0.603310815608241
4069000000.0 0.8255535783017275 0.5995181743320048
4072000000.0 0.7204453814006824 0.6275418868272109
4075000000.0 0.8266254239143551 0.6642889287906033
4078000000.0 0.8279858787110099 0.632046469769522
4081000000.0 0.8060602973451813 0.6879901937116848
4084000000.0 0.8749513712171463 0.6135231887645414
4088000000.0 0.7932599647583295 0.6330098120264848
4091000000.0 0.8792344382182393 0.6020908635978055
4094000000.0 0.828794608799872 0.6053504031609389
4097000000.0 0.8610829220796369 0.560051335900434
4100000000.0 0.8709497607853205 0.5693248005142766
4103000000.0 0.8632560413594965 0.5759455170963461
4106000000.0 0.8768199586064425 0.5680912961143344
4109000000.0 0.8462971396780727 0.5438262146051918
4112000000.0 0.8924463045909159 0.5306295770597351
4116000000.0 0.8746751194141268 0.5776422670532654
4119000000.0 0.8914313652741279 0.4983908541073422
4122000000.0 0.8966019143563494 0.5206595712413329
4125000000.0 0.9195313365099543 0.5031075300465067
4128000000.0 0.8404024900205103 0.4923596487423203
4131000000.0 0.8812329496522815 0.4693534577582946
4134000000.0 0.913933556664168 0.493319693723808
4138000000.0 0.8899041630697233 0.4363839422163696
4141000000.0 0.8944877878193132 0.4542229572531924
4144000000.0 0.9038370351301241 0.49131675581075956
4147000000.0 0.9225067162730586 0.4607717179610918
4150000000.0 0.9387655394575715 0.47706619044530624
4153000000.0 0.9169683732099286 0.4273618531028638
4156000000.0 0.9266848081278944 0.44891724013705336
4159000000.0 0.9228138533465662 0.4427337335081793
4162000000.0 0.901697276769936 0.42712051992012456
4166000000.0 0.9503245102238196 0.397862109000655
4169000000.0 0.9166411241946528 0.3743122398544646
4172000000.0 0.9323040731576868 0.42365190669208214
4175000000.0 0.9532543581933438 0.3950737905376169
4178000000.0 0.9492448243942849 0.37032300186355405
4181000000.0 0.9458199400469152 0.3953455547221648
4184000000.0 0.9502983975556629 0.3765400024153431
4188000000.0 0.9391055488109219 0.3635759445705138
4191000000.0 0.903120070117835 0.3967217392020825
4194000000.0 0.9470700391748226 0.3201400410237788
4197000000.0 0.9677781616745035 0.3334969982879266
4200000000.0 0.9621208363768223 0.33889920501814785
4203000000.0 0.9655250496301133 0.35286443543312873
4206000000.0 0.980049721581773 0.3244097857446145
4209000000.0 0.957563287808866 0.3153452379166251
4212000000.0 0.9734191320331245 0.24665728864242165
4216000000.0 0.9752859580790583 0.3023346986998738
4219000000.0 0.9907551556779324 0.2875068980017912
4222000000.0 1.0105917586527953 0.25647541578831334
4225000000.0 0.9855116770273813 0.2713730689849435
4228000000.0 0.9933909478045178 0.25941535475431343
4231000000.0 0.9768913832682619 0.25057812858270684
4234000000.0 1.011650635487525 0.24145487256420511
4238000000.0 0.9971676594055837 0.22534570275618984
4241000000.0 0.9776414870173864 0.2147557123505453
4244000000.0 0.9870375358927664 0.21142224805112148
4247000000.0 0.9898760771733645 0.2144613661192582
4250000000.0 1.0003898414149965 0.18756515446047067
4253000000.0 0.9794871404664574 0.17290242763704655
4256000000.0 1.0300344028623323 0.18541046584406712
4259000000.0 0.9686340364005204 0.14294202716557033
4262000000.0 0.9809965963565548 0.14979477384803644
4266000000.0 1.0216641627164575 0.13697676447675822
4269000000.0 0.9932874492659011 0.1508388720425721
4272000000.0 0.9851520150209115 0.11868714644819184
4275000000.0 1.0121585797192327 0.13798366401272977
4278000000.0 1.0098309163293022 0.11792230941875878
4281000000.0 1.031663704911978 0.12421589876023441
4284000000.0 1.0255244611672771 0.07938853041006094
4288000000.0 1.0238484061895166 0.13150224967858934
4291000000.0 0.9770078376909699 0.06968619367881788
4294000000.0 0.9992802051306187 0.06821118697774246
4297000000.0 0.998659072131664 0.08525914847717901
4300000000.0 0.9822438119042025 0.06734330999095534
4303000000.0 0.9998485713179686 0.05506382656264018
4306000000.0 1.0188720044779305 0.056119029881685156
4309000000.0 0.9881407533473681 0.04863917187647397
4312000000.0 1.0176654110042738 0.07364926285168
4316000000.0 1.0285900158596988 0.03672278258485369
4319000000.0 0.9794917642063921 0.031210838499368662
4322000000.0 1.004169557291753 -0.02057428448851177
4325000000.0 1.0269299858652328 -0.012356277591244302
4328000000.0 0.9855254533749713 -0.024667306216106133
4331000000.0 1.005219111186632 -0.04562355447406993
4334000000.0 1.0113394068382675 -0.052776978930576354
4338000000.0 1.0034507720496075 -0.033617946230709295
4341000000.0 1.0326229035625423 -0.020599110566248663
4344000000.0 1.015425533300803 -0.05505430698857375
4347000000.0 1.0472229708512075 -0.11190078838351053
4350000000.0 0.9662007457801612 -0.08433836922828951
4353000000.0 0.9800331168129366 -0.06926701170512585
4356000000.0 0.9894168425347176 -0.12342468413079402
4359000000.0 0.9691879626710426 -0.10597258537088856
4362000000.0 0.9903769640966702 -0.1698637392001705
4366000000.0 1.0111670831204955 -0.13507933156118684
4369000000.0 0.9716957835279537 -0.14251091155257806
4372000000.0 0.9624868360637924 -0.185478105674382
4375000000.0 0.9961309634308642 -0.12809710732130938
4378000000.0 0.9793720953746027 -0.16034997430767853
4381000000.0 0.9907177096738042 -0.17009619023331843
4384000000.0 1.0563136073792583 -0.1805858098796587
4388000000.0 0.9855208660342473 -0.17086122675698528
4391000000.0 0.9991037833736649 -0.19064588078115413
4394000000.0 0.9526149666438648 -0.21043999647533407
4397000000.0 0.9720809299228803 -0.2223145803064044
4400000000.0 0.999830494934377 -0.23915682076326156
4403000000.0 0.9900161034292301 -0.23306517895570358
4406000000.0 0.987073230806452 -0.2508872247441039
4409000000.0 0.9931307427223077 -0.25918180205637237
4412000000.0 0.9528922817960117 -0.3116921573963069
4416000000.0 0.9652163012386106 -0.2746090862591715
4419000000.0 0.964840647681041 -0.307557706224609
4422000000.0 0.9691269116340926 -0.2798223448833681
4425000000.0 0.9874176914624043 -0.28403816430724205
4428000000.0 0.9604447045250323 -0.31063122194184256
4431000000.0 0.9751714334235582 -0.30490986353775734
4434000000.0 0.9437257528986963 -0.3275057469194143
4438000000.0 0.9728108634338688 -0.3248106915521578
4441000000.0 0.9708750133395267 -0.3358655300908746
4444000000.0 0.9313276635577741 -0.32221430605239254
4447000000.0 0.9162804611901695 -0.363472624311082
4450000000.0 0.9394170199497615 -0.34183680290557594
4453000000.0 0.9648005918682587 -0.37867692486458154
4456000000.0 0.90560974201187 -0.3960192439081088
4459000000.0 0.8739777839586009 -0.38625401743094057
4462000000.0 0.9820936913646137 -0.4259494428272971
4466000000.0 0.9498480384897471 -0.43003408358624284
4469000000.0 0.9296291164793491 -0.410645149136115
4472000000.0 0.9309750855937652 -0.4477435397265924
4475000000.0 0.903909634661706 -0.42355686436084183
4478000000.0 0.9427218757150891 -0.469564879480585
4481000000.0 0.8737074302006235 -0.4447946274400331
4484000000.0 0.8649485231466967 -0.4862185505569505
4488000000.0 0.8880806908079995 -0.47620597826089806
4491000000.0 0.8792995355905905 -0.49031991736939223
4494000000.0 0.8863622328711462 -0.4753584488948899
4497000000.0 0.8793151399383057 -0.47266465748332337
4500000000.0 0.8835330188224593 -0.4800045461880934
4503000000.0 0.8971368066207721 -0.49522799948642543
4506000000.0 0.8440581933525337 -0.5047984488356133
4509000000.0 0.8448619979459575 -0.5122287318036556
4512000000.0 0.8533190012155532 -0.524878403576484
4516000000.0 0.8799058093008949 -0.5317844389453259
4519000000.0 0.8367466045723214 -0.5276314345141258
4522000000.0 0.8466800825076217 -0.5624141168817671
4525000000.0 0.8574920625373583 -0.5268392506966855
4528000000.0 0.8618063991041771 -0.5722289502011643
4531000000.0 0.8350524577288309 -0.5817831655250282
4534000000.0 0.8116666897640176 -0.5468909458919279
4538000000.0 0.7890374641340694 -0.5880892294260672
4541000000.0 0.7881029636412661 -0.613436709968517
4544000000.0 0.8095700979096905 -0.5823790161184855
4547000000.0 0.7976071865066768 -0.5731491276525793
4550000000.0 0.8098341021356463 -0.6202225760533859
4553000000.0 0.7832945079454483 -0.6302727696375772
4556000000.0 0.7854630968871568 -0.6247546470351811
4559000000.0 0.7757381915308389 -0.6460523464257402
4562000000.0 0.7753961574545203 -0.6548421133892973
4566000000.0 0.7778977948937036 -0.6472966542262653
4569000000.0 0.7360182997195576 -0.6569549319633763
4572000000.0 0.7711393911337354 -0.6652903794344197
4575000000.0 0.7548226434600527 -0.6864236705211868
4578000000.0 0.7787554746797287 -0.6882627291607089
4581000000.0 0.7213857985345677 -0.6908039885048983
4584000000.0 0.715208608758058 -0.6877864478403443
4588000000.0 0.7442352941756865 -0.7222146267738652
4591000000.0 0.7205471583994554 -0.6916264827881194
4594000000.0 0.6925779917921762 -0.7361663279457088
4597000000.0 0.7048362799885421 -0.742731363537558
4600000000.0 0.685345035456196 -0.7394321093914293
4603000000.0 0.6857312417658177 -0.7281650903350356
4606000000.0 0.7062726887537207 -0.7393488157951421
4609000000.0 0.6887565391737484 -0.74213214573802
4612000000.0 0.6619779337282821 -0.7740422760169138
4616000000.0 0.6577614742314248 -0.750641052444463
4619000000.0 0.6624677144805886 -0.7606073651785
4622000000.0 0.6604372214000117 -0.7675487346619606
4625000000.0 0.630171427516485 -0.7742963704101281
4628000000.0 0.6577371909460022 -0.7823674728718387
4631000000.0 0.6235272910748213 -0.7927748741316877
4634000000.0 0.6254802452515612 -0.7968283178165843
4638000000.0 0.6224168193295397 -0.7949135932563174
4641000000.0 0.6151054529556508 -0.8072558396446173
4644000000.0 0.6031007443462806 -0.8169503638108054
4647000000.0 0.5918575369494045 -0.8087874602443691
4650000000.0 0.5940677233477119 -0.8264669072220949
4653000000.0 0.6004455264733632 -0.8180797669897496
4656000000.0 0.5704181368118989 -0.8242991579641581
4659000000.0 0.5448390860294738 -0.8299136374826993
4662000000.0 0.5783554858675906 -0.8434246557638452
4666000000.0 0.5359021672389744 -0.8487931779722473
4669000000.0 0.5487618859575318 -0.8551818977094608
4672000000.0 0.5341417353902057 -0.8805340439994372
4675000000.0 0.5041374402140459 -0.8609227469682441
4678000000.0 0.5042138096509463 -0.8426988497118773
4681000000.0 0.5014278879635751 -0.8899153484479423
4684000000.0 0.4799477742818449 -0.8889212495347287
4688000000.0 0.4825331697614289 -0.8804666837596923
4691000000.0 0.5161492028165487 -0.8985448703903149
4694000000.0 0.4869467500041066 -0.8720891904042785
4697000000.0 0.4403046003673353 -0.8748316275481036
4700000000.0 0.47414521521167063 -0.888482383342502
4703000000.0 0.46162158407359644 -0.8726883934309477
4706000000.0 0.42793708788170637 -0.923533731567845
4709000000.0 0.4558461810405679 -0.9109797012711521
4712000000.0 0.463850761609813 -0.8958889146755646
4716000000.0 0.41272347405800347 -0.9267647306972437
4719000000.0 0.44975212761457856 -0.9439634825237901
4722000000.0 0.4268555655995775 -0.9099175566310724
4725000000.0 0.4018034047313244 -0.9204470956160689
4728000000.0 0.3858801542266019 -0.9053525320706799
4731000000.0 0.3868481613081368 -0.9504184950816987
4734000000.0 0.38902572792845624 -0.9386810442488078
4738000000.0 0.41083950665159585 -0.9998344136196055
4741000000.0 0.3512760139264586 -0.9830396729369079
4744000000.0 0.3457393618075639 -0.9749685242024515
4747000000.0 0.32963931875742736 -0.930364037203577
4750000000.0 0.35509337270356883 -0.9780190858729818
4753000000.0 0.3390374639994202 -0.9871738610919262
4756000000.0 0.3375617748651376 -0.9791427755523945
4759000000.0 0.32141637959854635 -0.9642120377010829
4762000000.0 0.317009875670337 -0.9716163465353418
4766000000.0 0.29879449379370543 -0.9612751023454074
4769000000.0 0.3086300468329325 -0.9649573616794328
4772000000.0 0.29042841411008485 -0.975555531971673
4775000000.0 0.22809344554018568 -1.0600428785239486
4778000000.0 0.2720648778763474 -1.016760141430708
4781000000.0 0.2691129385116009 -0.9941972007462088
4784000000.0 0.26414562654286644 -0.9851091963712707
4788000000.0 0.20814720452809768 -1.0033685008820692
4791000000.0 0.220638646310959 -0.9872453753168814
4794000000.0 0.2684178883962611 -1.0103494355750355
4797000000.0 0.18722324758936457 -0.9575098361497162
4800000000.0 0.18290757388440665 -0.9833412965281136
4803000000.0 0.1366234202003386 -1.001622279819514
4806000000.0 0.16762920722557084 -1.0278055155697157
4809000000.0 0.16220632876286856 -1.0269951334264895
4812000000.0 0.13449792554210388 -0.9973560855849313
4816000000.0 0.1678537414779655 -1.0000248149165463
4819000000.0 0.18145139987278852 -1.0396118855527718
4822000000.0 0.14385165917596393 -1.0333025937886997
4825000000.0 0.16981026421355647 -1.0308584946091897
4828000000.0 0.12919407146759757 -1.0023857228924369
4831000000.0 0.055546981844503344 -1.033607748688282
4834000000.0 0.13803616521906031 -1.0159980456715076
4838000000.0 0.0937880346476605 -1.0492888279154369
4841000000.0 0.08329477654590636 -0.988521341721826
4844000000.0 0.09195482265733312 -1.0196214681028866
4847000000.0 0.10852242566541989 -1.002273022414256
4850000000.0 0.0572649726752846 -1.0660326993357032
4853000000.0 0.05947641989334923 -0.9931777537162534
4856000000.0 0.048737446404281806 -0.986694130249293
4859000000.0 0.032487343619813216 -1.0541352384340095
4862000000.0 0.057920852809889976 -0.9978171778768271
4866000000.0 0.004585445873599773 -1.055457585645352
4869000000.0 0.00292050435371749 -1.0144153403659886
4872000000.0 -0.01663942180300415 -1.0691563624238503
4875000000.0 0.046517536590272406 -1.0514232671643904
4878000000.0 0.00732730526386946 -1.0186867690807848
4881000000.0 -0.053706993716995166 -1.094739417938369
4884000000.0 -0.024608918017241584 -1.022964772396838
4888000000.0 -0.01728989626296238 -1.0338307820905068
4891000000.0 -0.03383987901646719 -1.0617050338127483
4894000000.0 -0.051897394476436834 -1.0263381305161936
4897000000.0 -0.04695055621349971 -1.0038316581082398
4900000000.0 -0.10023766180081721 -1.0531059746527833
4903000000.0 -0.07183310849894828 -1.054275090570968
4906000000.0 -0.08586103355703699 -1.0293939552444296
4909000000.0 -0.11490065298846333 -1.0087754175641486
4912000000.0 -0.1363543979518359 -1.037962199159146
4916000000.0 -0.0900254682636315 -1.0699545056021713
4919000000.0 -0.10523963902426213 -1.0685259470062616
4922000000.0 -0.08987506021079589 -1.0490430124428516
4925000000.0 -0.1820374374465381 -0.9948031060824615
4928000000.0 -0.08099007848283825 -0.9939101995934957
4931000000.0 -0.1353439782736302 -1.036657969474874
4934000000.0 -0.15179900805812818 -0.9779824395250035
4938000000.0 -0.20877343120570818 -1.0075291308807635
4941000000.0 -0.16020720878626094 -0.9886154030388462
4944000000.0 -0.14458698094342284 -0.9630942075376396
4947000000.0 -0.20212444435125745 -0.951097181170557
4950000000.0 -0.2109196035319123 -0.9823275982225163
4953000000.0 -0.2897106173202263 -1.021694561784547
4956000000.0 -0.2718148106165909 -1.021529204035114
4959000000.0 -0.2534798234486856 -0.9715789129068131
4962000000.0 -0.25345791464688383 -1.0257197980157906
4966000000.0 -0.25145980412412716 -1.0322556454214677
4969000000.0 -0.2643897960214997 -1.0855223246846744
4972000000.0 -0.2972847981693073 -0.987457290716904
4975000000.0 -0.25620181128297337 -1.0244070373275813
4978000000.0 -0.29261195486839403 -0.9730328268637742
4981000000.0 -0.27948306948133506 -0.981084674367234
4984000000.0 -0.2792803931990099 -0.9685030561124174
4988000000.0 -0.2957305275743421 -0.996367976008992
4991000000.0 -0.2550858347324419 -1.0317172787647881
4994000000.0 -0.29151938878564054 -0.9754366188734577
4997000000.0 -0.35723669355575877 -0.9788196858940755
5000000000.0 -0.33186816231539207 -0.9896909023865836
5003000000.0 -0.33633495882006753 -1.0153512159791516
5006000000.0 -0.3696273740291526 -1.0146574681458425
5009000000.0 -0.3599847375653108 -0.9740755770446291
5012000000.0 -0.3996080059936468 -0.964449270645527
5016000000.0 -0.3555839034473988 -0.9820138850248743
5019000000.0 -0.381666451484321 -0.9563097328907033
5022000000.0 -0.3782316641395371 -0.972537935830224
5025000000.0 -0.443407598857493 -0.9932168382736064
5028000000.0 -0.4077450654106405 -0.94895411432142
5031000000.0 -0.4018361867547129 -0.9605527124574763
5034000000.0 -0.4589840254434212 -0.9681738179455923
5038000000.0 -0.4467885064027157 -0.8915359696365517
5041000000.0 -0.4070646063045781 -0.9304208726952233
5044000000.0 -0.39583359223820014 -0.90975560779562
5047000000.0 -0.42938800726396126 -0.9389633370493259
5050000000.0 -0.4080368181617673 -0.9343606867788854
5053000000.0 -0.5053141689545516 -0.9564979021005726
5056000000.0 -0.41103745496888877 -0.9419206787533276
5059000000.0 -0.4422237781741311 -0.9586173646949253
5062000000.0 -0.5084419991836918 -0.9266191870543021
5066000000.0 -0.4570551381108784 -0.9241204483130931
5069000000.0 -0.4844803215214474 -0.9236763922841208
5072000000.0 -0.458817395466963 -0.8712419610385551
5075000000.0 -0.5181406833315156 -0.9222784805213238
5078000000.0 -0.5567679675889541 -0.8963459996049807
5081000000.0 -0.523767302916983 -0.8455865674058957
5084000000.0 -0.5023957757003347 -0.8914610133098151
5088000000.0 -0.5060619968956562 -0.8602094375721812
5091000000.0 -0.5729291738233979 -0.8482498054139069
5094000000.0 -0.6083794070042023 -0.849271659413389
5097000000.0 -0.5035315292075423 -0.8695623125156797
5100000000.0 -0.5735967977982575 -0.8555175388243251
5103000000.0 -0.6140415618497959 -0.8296398799978321
5106000000.0 -0.6480593526923452 -0.8808505852047548
5109000000.0 -0.5464477437375482 -0.860446715894569
5112000000.0 -0.5815997261775919 -0.839367395175902
5116000000.0 -0.6070375223208271 -0.8308155506490706
5119000000.0 -0.6529383314155626 -0.8996516193256319
5122000000.0 -0.6047866266695093 -0.8213702111899508
5125000000.0 -0.6257957395835516 -0.8215194744679248
5128000000.0 -0.592470762455646 -0.7863903813353497
5131000000.0 -0.6329498406616145 -0.8384519946066021
5134000000.0 -0.6567982765196341 -0.7960717954900046
5138000000.0 -0.6237735270906317 -0.802424762437467
5141000000.0 -0.62760679150923 -0.8343371306358847
5144000000.0 -0.6499949601018374 -0.8350650911025648
5147000000.0 -0.6443989416019488 -0.7870309044566149
5150000000.0 -0.6712004638636031 -0.8048413570216779
5153000000.0 -0.7150642675915895 -0.7819003380962803
5156000000.0 -0.7150091428884454 -0.7641970276264625
5159000000.0 -0.7167296393416693 -0.7928712738211232
5162000000.0 -0.6920742800299428 -0.7425689567975651
5166000000.0 -0.7330198419417627 -0.7354065676240816
5169000000.0 -0.7053926275710042 -0.73965757758213
5172000000.0 -0.6978276804447924 -0.7372542715299526
5175000000.0 -0.7674338171319757 -0.7629800534255876
5178000000.0 -0.7672981240711727 -0.7681109200548661
5181000000.0 -0.7336418027493321 -0.7675477345478616
5184000000.0 -0.732404313668024 -0.7222741481198491
5188000000.0 -0.7841461953061303 -0.7349880959398849
