! Created with skrf 1.8.0 (http://scikit-rf.org).
# Hz S RI R 50.0 
!freq ReS11 ImS11
4000000000.0 0.5712961228738993 0.7755860858578341
4003000000.0 0.6672979696152931 0.8350395178906066
4006000000.0 0.6643100729973734 0.7676278796930988
4009000000.0 0.6497239461422039 0.7982806011503962
4012000000.0 0.6151003572117 0.8616058117719437
4016000000.0 0.7132433547967088 0.7678507911484764
4019000000.0 0.6554195848266315 0.7785928300241101
4022000000.0 0.6310706237132157 0.849189152244325
4025000000.0 0.7482099246685886 0.7391164380070585
4028000000.0 0.6906938586461943 0.7401419925180555
4031000000.0 0.6256162482165292 0.7321655083264252
4034000000.0 0.6883578250672753 0.7163235253549544
4038000000.0 0.742620933909319 0.7359606155612759
4041000000.0 0.7385784106886484 0.7531811280323765
4044000000.0 0.7526741425862049 0.7308291225176851
4047000000.0 0.7006559448787358 0.7684340217013219
4050000000.0 0.7545268636936948 0.705879369632628
4053000000.0 0.7345225112853437 0.6541461778924085
4056000000.0 0.7526857321935689 0.7248049110676451
4059000000.0 0.7075056270111271 0.6640850673306196
4062000000.0 0.775142234453032 0.6403178286236015
4066000000.0 0.7442924319105988 0.6616819046988514
4069000000.0 0.8035504673354161 0.6894815949912833
4072000000.0 0.7541094660431112 0.6876344858551984
4075000000.0 0.7799392725941673 0.7021302695253109
4078000000.0 0.8220920697894113 0.6963736478052124
4081000000.0 0.782495129188383 0.7061813867528028
4084000000.0 0.8353160369275499 0.6302531448081308
4088000000.0 0.7727394251540148 0.6646127384916187
4091000000.0 0.8656033718671072 0.6823097728234722
4094000000.0 0.8131203153255342 0.6039727536873467
4097000000.0 0.800886737992874 0.6252073518391816
4100000000.0 0.7995346644136316 0.5738329545479104
4103000000.0 0.827923613810986 0.6568338816138224
4106000000.0 0.8690503810017961 0.6179642909204497
4109000000.0 0.8138585381574404 0.5931692836936691
4112000000.0 0.8595059689586406 0.6010831226226061
4116000000.0 0.8220074082783162 0.6176649682684312
4119000000.0 0.8712918667475693 0.5702190985581501
4122000000.0 0.9065625660779606 0.5684127568714091
4125000000.0 0.9096019145158937 0.5640609973971045
4128000000.0 0.8274790814229607 0.5589814033215712
4131000000.0 0.83463118401311 0.5720255210457764
4134000000.0 0.8326432976413967 0.5229961726225861
4138000000.0 0.8702525450961571 0.4908878178654184
4141000000.0 0.8381035158215112 0.5155039267206836
4144000000.0 0.8630977272788357 0.5521624245264702
4147000000.0 0.9131607693465801 0.46155130261899907
4150000000.0 0.9324399529466325 0.5228583669354381
4153000000.0 0.8973239872571052 0.4782559483448735
4156000000.0 0.9214588930032876 0.5147774354685645
4159000000.0 0.8849654601018577 0.4625772499591661
4162000000.0 0.8686052134419449 0.480734997238494
4166000000.0 0.9392430335455013 0.4763340080594701
4169000000.0 0.9351021488094028 0.43301997253139846
4172000000.0 0.9261788798208663 0.48109798210463145
4175000000.0 0.9310531191917375 0.45226950019648876
4178000000.0 0.9434617881903409 0.456483291391664
4181000000.0 0.9177988862407569 0.3976948131749174
4184000000.0 0.9013817561307775 0.41876635915965404
4188000000.0 0.90999193268325 0.3889894096004013
4191000000.0 0.9010638984954663 0.4495535283883047
4194000000.0 0.9181972222995639 0.38492907517082786
4197000000.0 0.9413277998675255 0.40106445752222036
4200000000.0 0.939370028978469 0.4079687292326434
4203000000.0 0.9516861618416321 0.37596688394872246
4206000000.0 0.9636105435496647 0.3789055587953009
4209000000.0 0.9170485358873961 0.36073297913804664
4212000000.0 0.9543327728756089 0.3300266857788986
4216000000.0 0.9587957594274382 0.3565591687396989
4219000000.0 0.9879534334035079 0.3468096578964176
4222000000.0 0.9629707746591045 0.3038994389583985
4225000000.0 0.9451466502206864 0.3245810115421055
4228000000.0 0.9850768657286086 0.3304388483605878
4231000000.0 0.9643745479903565 0.306546665039118
4234000000.0 0.9838390498385714 0.28036367353445735
4238000000.0 0.9708035275528657 0.27059090924545215
4241000000.0 0.9661782418159708 0.2739039221951528
4244000000.0 0.9851098353146366 0.2842088782721867
4247000000.0 0.9682271637566111 0.2805883032515227
4250000000.0 0.9737215496534328 0.2399199730921111
4253000000.0 0.952421767722518 0.2457260610021163
4256000000.0 1.0140583818773847 0.2574430241267192
4259000000.0 0.9603790187713976 0.2199037450340577
4262000000.0 0.9987855392992773 0.22117662729150264
4266000000.0 1.0084850606154 0.19337599336074957
4269000000.0 0.9970956004348757 0.23531822936385785
4272000000.0 1.0044031970817262 0.1877417621721203
4275000000.0 1.009279774995173 0.17955789789565685
4278000000.0 1.0192704955693728 0.19061268322127378
4281000000.0 0.9997310627540529 0.1811675637970846
4284000000.0 0.9979795605077054 0.12943510953439372
4288000000.0 1.005716637885219 0.19478312860315897
4291000000.0 0.9934118640862473 0.13720182326203728
4294000000.0 0.9653885704678254 0.12026397258131673
4297000000.0 0.9893463133762854 0.14786012802148996
4300000000.0 0.9929120778197753 0.13207138207188016
4303000000.0 0.983483477597183 0.11957416362488553
4306000000.0 1.0053010152092914 0.12235139017490015
4309000000.0 0.9944059147505647 0.10033622105301475
4312000000.0 1.0173283572136584 0.11328544341887481
4316000000.0 1.0116121914814755 0.09428041930241003
4319000000.0 0.9877071978720432 0.06716212883626153
4322000000.0 1.0067912271405053 0.05403841723945689
4325000000.0 1.0224857899077064 0.06779238754166399
4328000000.0 1.0192751452876336 0.04975295274540616
4331000000.0 0.993005778888312 0.0119969429470759
4334000000.0 1.0264859817498082 0.036439845674691024
4338000000.0 0.9892929176316324 0.039211581480837546
4341000000.0 1.020654657687619 0.030863341425128255
4344000000.0 1.0183258517438296 0.0034178923685923845
4347000000.0 1.035172916189232 -0.00946705004122217
4350000000.0 0.9669431344159672 -0.03610138472029453
4353000000.0 0.9692560922216473 0.0024971237123809775
4356000000.0 0.9957546054112922 -0.04420542705633426
4359000000.0 0.9540974402520275 -0.03394998623726975
4362000000.0 1.0028000001963593 -0.09787837998601061
4366000000.0 1.027024650729773 -0.05928017959386575
4369000000.0 0.9803969663184241 -0.06334897970161874
4372000000.0 0.9929109505138904 -0.099932044410067
4375000000.0 1.0063749167484066 -0.06346677262360101
4378000000.0 0.9844270743175276 -0.08857792756392531
4381000000.0 0.9767735197416973 -0.07980704905001959
4384000000.0 1.0477938835814893 -0.11759992146433244
4388000000.0 0.9894636370116464 -0.10851820922366424
4391000000.0 1.0064528314471755 -0.11594742026968359
4394000000.0 0.9602859899068499 -0.12349159938546515
4397000000.0 0.9888670614618211 -0.14743179319068647
4400000000.0 1.022687703812769 -0.15090915419421522
4403000000.0 1.0180190762188293 -0.1645333192412876
4406000000.0 0.9898234845047145 -0.19010791863673082
4409000000.0 1.0244225692905433 -0.18675122303340932
4412000000.0 0.9756154827913506 -0.23227847409386165
4416000000.0 0.9709704198228859 -0.20370753855437865
4419000000.0 0.9731439582024224 -0.22334008308924413
4422000000.0 0.9755344294719952 -0.1900460400219403
4425000000.0 1.0117217766793019 -0.2076501045185165
4428000000.0 0.9701618436589164 -0.23530398576627973
4431000000.0 1.0026284660075844 -0.22755334501678695
4434000000.0 0.9702719415063612 -0.24157818380501583
4438000000.0 0.9870246545689829 -0.26120275318235786
4441000000.0 0.9901802991635822 -0.26499020766647313
4444000000.0 0.9579275559039258 -0.26855001044558136
4447000000.0 0.9629351373318427 -0.28331200326685047
4450000000.0 0.959223217833893 -0.2679735555710757
4453000000.0 0.9819838581416921 -0.3133012595905874
4456000000.0 0.9365758555378685 -0.31263638671954863
4459000000.0 0.91395515861685 -0.3283632030689257
4462000000.0 0.9953101397826083 -0.3540745290758874
4466000000.0 0.9768727418897846 -0.3633372065379714
4469000000.0 0.9493809689526658 -0.3183186871235728
4472000000.0 0.9718811443155672 -0.3823106747106014
4475000000.0 0.9215386678548608 -0.34466937902497374
4478000000.0 0.960388001863613 -0.40347138787058434
4481000000.0 0.9034465890014923 -0.38012175470498505
4484000000.0 0.9207185387581778 -0.43764471017362216
4488000000.0 0.9151251714689239 -0.40611743352830526
4491000000.0 0.9263339803346431 -0.41075551050446724
4494000000.0 0.8946456937398203 -0.4027592550426735
4497000000.0 0.9108400279255604 -0.3911531373602882
4500000000.0 0.9080784628977319 -0.4166893756401362
4503000000.0 0.9302844631078748 -0.45565472478833136
4506000000.0 0.8780601694039458 -0.42232582991935674
4509000000.0 0.8739113478678866 -0.43747905334753956
4512000000.0 0.864047349184679 -0.45177470029362377
4516000000.0 0.9076601676146944 -0.4810203758147667
4519000000.0 0.8814553452229161 -0.44768949693313426
4522000000.0 0.8716633505686853 -0.4833937981225824
4525000000.0 0.8877026610014214 -0.4512043045821074
4528000000.0 0.8880926430637266 -0.5203212166333698
4531000000.0 0.8969598645863397 -0.49147495450833323
4534000000.0 0.8480188045388243 -0.49006411665986405
4538000000.0 0.8587196502551877 -0.5191409552128107
4541000000.0 0.8316183161506173 -0.5506374541549014
4544000000.0 0.8459436944083658 -0.4993963362532008
4547000000.0 0.8327907764956496 -0.5242529365907862
4550000000.0 0.8343570304129129 -0.5661876098504312
4553000000.0 0.844199809054254 -0.5611653255324898
4556000000.0 0.8021740383997509 -0.5486257268458329
4559000000.0 0.8508234339422459 -0.5792159467213931
4562000000.0 0.8506847259842392 -0.5497316406589906
4566000000.0 0.8215340078071147 -0.5929711172383887
4569000000.0 0.7992959443371321 -0.5663376900117274
4572000000.0 0.812751602407822 -0.5916436214589568
4575000000.0 0.793528409135513 -0.6465273815024251
4578000000.0 0.8140962572208932 -0.6195519588172662
4581000000.0 0.7896508291053423 -0.6317681631420645
4584000000.0 0.7796480268036102 -0.613684519461812
4588000000.0 0.8020078947093903 -0.6312513241561797
4591000000.0 0.8032248851586622 -0.6236933588875433
4594000000.0 0.7649952980376459 -0.6537161639773412
4597000000.0 0.7689423444911867 -0.6643977879856466
4600000000.0 0.7156381254434401 -0.6678298903230632
4603000000.0 0.7482104698264177 -0.6884631008985775
4606000000.0 0.7499302188218517 -0.6727208647067723
4609000000.0 0.7657880224553386 -0.675649214363653
4612000000.0 0.7462028228018235 -0.6928939797242178
4616000000.0 0.7106645327632672 -0.6906657511726146
4619000000.0 0.7264284089980192 -0.6879208192847193
4622000000.0 0.7167508406174296 -0.6916654967628729
4625000000.0 0.6713597529395227 -0.7027274183227392
4628000000.0 0.7016450117084044 -0.6995692045207281
4631000000.0 0.6830769280330646 -0.7321300307542731
4634000000.0 0.6847486340373421 -0.7338947913166077
4638000000.0 0.7092712152879993 -0.7534612671244751
4641000000.0 0.6786252753308787 -0.7405222159227176
4644000000.0 0.6704132145388968 -0.7581217147251488
4647000000.0 0.6902229931618066 -0.7584765232961245
4650000000.0 0.6522509417361552 -0.7601407887512148
4653000000.0 0.6674189523885594 -0.7671503042594787
4656000000.0 0.6300613173362424 -0.7836798307898294
4659000000.0 0.6400032260928995 -0.8020861396946957
4662000000.0 0.6319346052143118 -0.7854865180705161
4666000000.0 0.6283667656256576 -0.7789124837145559
4669000000.0 0.6338319550513902 -0.7934238635652977
4672000000.0 0.621226072165222 -0.817227448538331
4675000000.0 0.5869937210540108 -0.8355749483123837
4678000000.0 0.5836253284657282 -0.8211640899929753
4681000000.0 0.557511016862807 -0.8510983058108477
4684000000.0 0.5896398307396247 -0.8385002756371177
4688000000.0 0.5695034669245664 -0.8074529824905755
4691000000.0 0.5869724341713208 -0.8310163329241222
4694000000.0 0.5558166286755162 -0.8265500491399969
4697000000.0 0.5246454548184497 -0.817497933158426
4700000000.0 0.5490671938371824 -0.8307255144460322
4703000000.0 0.5683817537201192 -0.8448789682038478
4706000000.0 0.5384992468573956 -0.8644990073909472
4709000000.0 0.5029703285593 -0.8488923060704285
4712000000.0 0.5077011122611826 -0.878227869645308
4716000000.0 0.5116491197318619 -0.8831477850175777
4719000000.0 0.5305319815248825 -0.8842789152643797
4722000000.0 0.5346293355768652 -0.8606244238126741
4725000000.0 0.5009579212324614 -0.881713159196056
4728000000.0 0.4686951346378301 -0.8812401104711516
4731000000.0 0.48067584446873113 -0.8907618299528883
4734000000.0 0.4831528046679441 -0.8790877223289278
4738000000.0 0.4840727709770904 -0.9169067282061334
4741000000.0 0.46912303639650144 -0.926511040666472
4744000000.0 0.4101169610552154 -0.9336344830635994
4747000000.0 0.42719747392158874 -0.8865930173392571
4750000000.0 0.43691572561908576 -0.9244969141459713
4753000000.0 0.4445026156685872 -0.9531186416788601
4756000000.0 0.40771189519010376 -0.9194790084325084
4759000000.0 0.4270749028214912 -0.9417652552789928
4762000000.0 0.38144693596334645 -0.9526407554480448
4766000000.0 0.3887233955608241 -0.9463784552383726
4769000000.0 0.3903312819266843 -0.9686145150346731
4772000000.0 0.38699503096933663 -0.9418695214693356
4775000000.0 0.35642667334693257 -0.9882371396786376
4778000000.0 0.363295342635255 -0.9611763111709538
4781000000.0 0.3418347777327597 -0.933719853832158
4784000000.0 0.36874260896861955 -0.9469416914722047
4788000000.0 0.30858252281935683 -0.9849514825087466
4791000000.0 0.33190967342282973 -0.9442256847337959
4794000000.0 0.3613413010999224 -0.9875844602692976
4797000000.0 0.2959843623517943 -0.9463942242821207
4800000000.0 0.28124062038385833 -0.9761787133282283
4803000000.0 0.23863834019724678 -0.9710411776084162
4806000000.0 0.31825379597131076 -0.9846423180691815
4809000000.0 0.24020595192845492 -0.9648509914078608
4812000000.0 0.22810279432021224 -0.9865288719794549
4816000000.0 0.2759182198582265 -0.9724036666420015
4819000000.0 0.2666221216434452 -1.0116356389698775
4822000000.0 0.25480510901074355 -1.0045732415882909
4825000000.0 0.25403524652706144 -1.013244703093017
4828000000.0 0.23148910596675137 -0.964704761848782
4831000000.0 0.18850605686379424 -1.0212091260438982
4834000000.0 0.229275492939209 -1.0025124792298743
4838000000.0 0.1796480284889848 -1.02990292845443
4841000000.0 0.1724338546402776 -1.0003899054603194
4844000000.0 0.19924144075117467 -0.9749753139168517
4847000000.0 0.17928073021976365 -0.9718698332992306
4850000000.0 0.17886903939204135 -1.0319788770356122
4853000000.0 0.17492696297061444 -0.9905650584509922
4856000000.0 0.1446110949385503 -1.010710983103209
4859000000.0 0.13525129794785906 -1.0398234077604682
4862000000.0 0.16607171516757815 -0.9931848055592748
4866000000.0 0.11307522873913275 -1.0325109369866143
4869000000.0 0.10701042310886004 -1.0254210322148058
4872000000.0 0.09710079517368472 -1.0552313945729197
4875000000.0 0.18062723045311668 -1.067484964793619
4878000000.0 0.08589009216812159 -1.0245688829590278
4881000000.0 0.06859195768433235 -1.0617519468544523
4884000000.0 0.07081003476069311 -1.0264790742291725
4888000000.0 0.10669737271706602 -1.017641816883573
4891000000.0 0.0756443887481148 -1.0462206875729032
4894000000.0 0.05291075743983462 -1.0085689399492712
4897000000.0 0.08009678552117898 -1.0274768799583054
4900000000.0 0.061866200417175554 -1.0563360219130586
4903000000.0 0.05089467107963236 -1.0501862837488478
4906000000.0 -0.0021140713652041954 -1.0504526784588268
4909000000.0 -0.0017408873976502356 -1.0120087182765767
4912000000.0 -0.018603560651742283 -1.0499120092048952
4916000000.0 -0.003899683021402006 -1.0635437107124226
4919000000.0 0.010290549265692096 -1.0488309907171078
4922000000.0 0.013791885689597924 -1.039462867819167
4925000000.0 -0.052946452011490175 -0.9998910405745374
4928000000.0 0.028580118319001244 -1.027518157575608
4931000000.0 -0.014555138910583618 -1.0298512565336997
4934000000.0 -0.0403423029862115 -0.9640205715647531
4938000000.0 -0.12328858892985166 -0.9999241562928345
4941000000.0 -0.08505035656241665 -1.0039935743859802
4944000000.0 -0.06728737805444779 -0.9777189098303578
4947000000.0 -0.06767230710484681 -1.002936942145549
4950000000.0 -0.09298341068199197 -0.9919093656458733
4953000000.0 -0.16550990337244625 -1.0682013050696952
4956000000.0 -0.11843837006028482 -0.999132685774992
4959000000.0 -0.17321859930330755 -0.9901064000057168
4962000000.0 -0.15904844383745162 -1.0282246504652097
4966000000.0 -0.13001404941282102 -1.0457980585192101
4969000000.0 -0.1283358191442598 -1.0944812955111884
4972000000.0 -0.1488285089873461 -1.0110264071945834
4975000000.0 -0.12850058018691543 -0.9974533049033131
4978000000.0 -0.1756630173031598 -1.0008193557128768
4981000000.0 -0.1881701983208722 -0.9959622854697698
4984000000.0 -0.16172464496168268 -0.9849694387336775
4988000000.0 -0.16626043406421726 -1.043494734276761
4991000000.0 -0.12213850836094964 -1.0402284253959226
4994000000.0 -0.17948116273210524 -1.011998210653072
4997000000.0 -0.2730201136354281 -1.0196385494849671
5000000000.0 -0.2281008771693755 -1.0373692109530226
5003000000.0 -0.22746457968617367 -1.0351173774168443
5006000000.0 -0.2677062700564813 -1.0604490025973912
5009000000.0 -0.24624698659867958 -0.9871166652000177
5012000000.0 -0.28281498127650945 -0.9954694300876483
5016000000.0 -0.21902229236331033 -1.0512792092809982
5019000000.0 -0.2753225054630176 -0.9729053792069995
5022000000.0 -0.2635223840840175 -0.9730115441793947
5025000000.0 -0.28736153446687 -1.0517701234632353
5028000000.0 -0.3027851902518658 -0.9834161612650223
5031000000.0 -0.31223785767918355 -0.9773167194065365
5034000000.0 -0.31953288122112056 -1.0005293323195301
5038000000.0 -0.31298131188370926 -0.9342298083128744
5041000000.0 -0.31870275996096054 -0.9927924394954809
5044000000.0 -0.299372962572942 -0.9632879699755484
5047000000.0 -0.373122571252591 -0.9784713432080713
5050000000.0 -0.25648831771030245 -0.9872358608161482
5053000000.0 -0.3712313166664414 -1.0166417879889895
5056000000.0 -0.31739245912720815 -0.959826661675526
5059000000.0 -0.3340759040371816 -0.986503224795163
5062000000.0 -0.43690484106816196 -0.9718266021677695
5066000000.0 -0.3413986578326371 -0.9416014430593258
5069000000.0 -0.38251590923881296 -1.0030904360039037
5072000000.0 -0.39640214395571477 -0.9407017655018017
5075000000.0 -0.3449002030471082 -0.9553770966243749
5078000000.0 -0.4666292106664626 -0.9090377348230929
5081000000.0 -0.4237145698945553 -0.931246330532503
5084000000.0 -0.42567025207106235 -0.956950514180694
5088000000.0 -0.3970811842745223 -0.9400608552889886
5091000000.0 -0.46357454879289667 -0.9333637026372508
5094000000.0 -0.5084471528533144 -0.9277585432838994
5097000000.0 -0.40713206698124915 -0.9345066090290417
5100000000.0 -0.4245641598352565 -0.9295304525896936
5103000000.0 -0.4973456431293769 -0.9112436567335852
5106000000.0 -0.45274971910830986 -0.9648511034987968
5109000000.0 -0.46570884668883183 -0.9311390778525288
5112000000.0 -0.4818125736396035 -0.9050322570763045
5116000000.0 -0.46540867493294874 -0.8699338888577468
5119000000.0 -0.496811404010412 -0.9084645153341002
5122000000.0 -0.5088769613453006 -0.8944757068734672
5125000000.0 -0.5060279490215517 -0.9233359968619496
5128000000.0 -0.5224987736286746 -0.8470042816488053
5131000000.0 -0.5493563399602676 -0.8933415691005658
5134000000.0 -0.5179223647754495 -0.8668726851839201
5138000000.0 -0.49788068783112993 -0.8775396487527278
5141000000.0 -0.5090725684163278 -0.9279731193770808
5144000000.0 -0.5342451699803662 -0.9055525017226711
5147000000.0 -0.5158351697109764 -0.8723638374830314
5150000000.0 -0.5259387730403063 -0.8758430603928193
5153000000.0 -0.5726005949510028 -0.8465441152937305
5156000000.0 -0.5614405010741398 -0.899841222739636
5159000000.0 -0.5938849509425521 -0.8652599358263484
5162000000.0 -0.6114192345782333 -0.803930259519099
5166000000.0 -0.6273334245905866 -0.8813507505131246
5169000000.0 -0.6373907658159786 -0.8541249606156116
5172000000.0 -0.5776586628504983 -0.8340526694827666
5175000000.0 -0.6506584575250147 -0.8648657472151706
5178000000.0 -0.6052973390195076 -0.8066374849597735
5181000000.0 -0.6371871585234022 -0.8459152339161745
5184000000.0 -0.6253388141308085 -0.8284854340402973
5188000000.0 -0.6319279860933168 -0.8155485544431925
