! Created with skrf 1.8.0 (http://scikit-rf.org).
# Hz S RI R 50.0 
!freq ReS11 ImS11
4000000000.0 0.7196981713405738 0.7583422142394944
4003000000.0 0.6959933723287671 0.820150609798626
4006000000.0 0.7522465234485062 0.7610742113995833
4009000000.0 0.726638915615152 0.7732661294020704
4012000000.0 0.6731752207988606 0.8012295361073825
4016000000.0 0.7144400019912464 0.7402517855351642
4019000000.0 0.7406577016983111 0.762387511563802
4022000000.0 0.706408521943892 0.7821757468605989
4025000000.0 0.8072988502431537 0.7215855794507342
4028000000.0 0.7331904013519912 0.6907426647933763
4031000000.0 0.7168186814581956 0.7139004791598054
4034000000.0 0.8147052616500903 0.6959535466164006
4038000000.0 0.8256712446311755 0.6871773877455616
4041000000.0 0.7613094334260434 0.6857824757349885
4044000000.0 0.8145286790800746 0.7068159067912021
4047000000.0 0.7891433105890605 0.7038727099593948
4050000000.0 0.8365584810640692 0.6495632455214404
4053000000.0 0.7747884216579894 0.6375553420395377
4056000000.0 0.7930142604385537 0.6658550204142053
4059000000.0 0.8425546268014028 0.6664385560357571
4062000000.0 0.812857398336247 0.6376888910042542
4066000000.0 0.7527948251845094 0.6151826647055219
4069000000.0 0.8847858579102154 0.6215585021054177
4072000000.0 0.796867440686498 0.668250316275609
4075000000.0 0.8396468261760832 0.6358086359418194
4078000000.0 0.8165197199803493 0.6118773204995035
4081000000.0 0.8265813143446158 0.7097187131022945
4084000000.0 0.8965961964361279 0.6104711790006603
4088000000.0 0.8012526507972246 0.5759821768528284
4091000000.0 0.8844207327968849 0.6152485131498384
4094000000.0 0.8448514274976523 0.5592662372910157
4097000000.0 0.8638304506334052 0.5755249012597421
4100000000.0 0.9015181894255966 0.555195071380183
4103000000.0 0.8750253250081399 0.5668961104438244
4106000000.0 0.8974429068083326 0.5412524754627099
4109000000.0 0.9256871292527968 0.5320686167008084
4112000000.0 0.8964398385772829 0.5378016760022994
4116000000.0 0.8844723696327506 0.5286791961238633
4119000000.0 0.9314227018123706 0.5207475963368166
4122000000.0 0.9068640586719794 0.4883677502755376
4125000000.0 0.9539543959412992 0.5162549396657379
4128000000.0 0.8654283782129124 0.4585856057193958
4131000000.0 0.8700634720285014 0.4543039895185661
4134000000.0 0.9105608190319675 0.5015292673661436
4138000000.0 0.9313013012973326 0.4112789183616014
4141000000.0 0.9226896906682787 0.46296336861547405
4144000000.0 0.9494194655135882 0.46955265809969665
4147000000.0 0.94142150214596 0.4213198704259214
4150000000.0 0.9716658326050156 0.45741411128894
4153000000.0 0.9414360993449273 0.4137836827452841
4156000000.0 0.9578293135824236 0.46145089176649545
4159000000.0 0.9088857986185159 0.4022879997593581
4162000000.0 0.9477384157564772 0.4164482181736435
4166000000.0 0.9479676571002309 0.39124342464147377
4169000000.0 0.9526104734256674 0.3716946460241156
4172000000.0 0.9737084909967912 0.3981943342959557
4175000000.0 0.9496575891041921 0.3791381510713538
4178000000.0 0.9831161496541262 0.36534022682373213
4181000000.0 0.9709897105788081 0.31523792540592954
4184000000.0 0.9487036523199273 0.3585914591099117
4188000000.0 0.9616440851714885 0.3123867812090294
4191000000.0 0.9481428505324322 0.37497617730897087
4194000000.0 0.9483113432093022 0.29463818815658993
4197000000.0 0.9851794603832927 0.31272753512258783
4200000000.0 0.9731310824723758 0.3235606026135308
4203000000.0 1.0079236470615713 0.31863529936804325
4206000000.0 0.9813665718739292 0.3032350588502308
4209000000.0 0.9547757463306772 0.2834401287808698
4212000000.0 0.9775448067070204 0.25072480605210123
4216000000.0 0.9951620179752939 0.27794762037058424
4219000000.0 1.0014214278682245 0.2623541718340596
4222000000.0 1.005442924796402 0.2381145913162716
4225000000.0 0.9864832851505168 0.2516711358052188
4228000000.0 1.0145948568212166 0.24992824973018726
4231000000.0 0.9924102732926839 0.22683036896373765
4234000000.0 1.0060975125190978 0.21747730982749214
4238000000.0 1.0047366384493894 0.19598733148816536
4241000000.0 1.0048195813470893 0.18176948780134095
4244000000.0 0.9834544417211326 0.18821266563020295
4247000000.0 0.9957431896405434 0.20186418658070487
4250000000.0 0.9965019071724108 0.15412982562507394
4253000000.0 0.988049907133872 0.14741936526062482
4256000000.0 1.0392759830464835 0.16543783612495777
4259000000.0 0.9721011905458107 0.13387911345338097
4262000000.0 0.9990135425640001 0.10298725203730524
4266000000.0 1.047367141557393 0.1199329691385507
4269000000.0 0.9878767948735967 0.1322472627989896
4272000000.0 1.0228180218417555 0.1153191588944571
4275000000.0 1.0062618288956402 0.10055192441321603
4278000000.0 1.04510037665443 0.10644993691994215
4281000000.0 1.0229531996545045 0.08757536652548668
4284000000.0 1.0114719569835988 0.04516933792108241
4288000000.0 1.0193046599957774 0.09273524198270247
4291000000.0 0.9746976262393251 0.047653504957442014
4294000000.0 1.012659549649643 0.02081017872090786
4297000000.0 1.0007487920596199 0.08275550673264535
4300000000.0 1.0147102760575328 0.053029921325537195
4303000000.0 0.9899086958063695 0.005181055744246821
4306000000.0 1.051211199628362 0.03622848231797489
4309000000.0 1.013025221290607 3.627220211338544e-05
4312000000.0 1.0533041757716213 0.03369793931221325
4316000000.0 1.0279199766171518 0.010055638592144867
4319000000.0 1.007663759558747 -0.025531925374714645
4322000000.0 0.9810393672397414 -0.04740370149741387
4325000000.0 1.0218526387927258 -0.025944484691036274
4328000000.0 0.9951319274007282 -0.04475616970444557
4331000000.0 1.012459542092868 -0.0781931666551774
4334000000.0 1.0214821027348695 -0.07199132098545938
4338000000.0 1.0092004688500968 -0.05910489077588951
4341000000.0 1.018945878139121 -0.06562419388958593
4344000000.0 1.0390292221997393 -0.0808858951068616
4347000000.0 1.0333595733493053 -0.1520583018219371
4350000000.0 0.9578641550586476 -0.11720257856604484
4353000000.0 0.993597839754667 -0.09400520687489852
4356000000.0 0.995615043452536 -0.14461699815214082
4359000000.0 0.9697743173675281 -0.12502808056573922
4362000000.0 1.0095368549462105 -0.20305063761436715
4366000000.0 1.014015163145909 -0.16695284305952107
4369000000.0 0.9760933308511193 -0.16037842537819155
4372000000.0 0.9838111674664445 -0.20778844347109834
4375000000.0 0.9924069975514198 -0.16206548778359747
4378000000.0 0.9619492727330056 -0.19162355322835992
4381000000.0 0.9727935651585062 -0.17921658091851894
4384000000.0 1.0520352093280994 -0.25228694054195155
4388000000.0 0.9721690450146648 -0.2102091368971828
4391000000.0 0.9859937277455086 -0.21397590144400475
4394000000.0 0.9539388557011609 -0.23155005799933823
4397000000.0 0.9737876566273342 -0.24859624609549083
4400000000.0 1.001014848498097 -0.26901172783658356
4403000000.0 0.9957666485880052 -0.25248639685983765
4406000000.0 0.9726222624811769 -0.28826652702492966
4409000000.0 0.9795316176120865 -0.28398477766410496
4412000000.0 0.953011136543015 -0.3290002883661856
4416000000.0 0.954434569663636 -0.3000235840935609
4419000000.0 0.9664464079626539 -0.33008981515329344
4422000000.0 0.9657629495946123 -0.29158709544577605
4425000000.0 0.9801296761162136 -0.3081435840602945
4428000000.0 0.9590082731446203 -0.33042037410614233
4431000000.0 0.9717147897973071 -0.335545135053445
4434000000.0 0.9373109969862782 -0.35037007523806474
4438000000.0 0.9720682145263364 -0.3571050461891815
4441000000.0 0.9680569323312367 -0.38509321857203965
4444000000.0 0.926374909707687 -0.36962204150608025
4447000000.0 0.9224278630415759 -0.39733290093375073
4450000000.0 0.9284856366179816 -0.37405432708076825
4453000000.0 0.9492950068122871 -0.3924712724233905
4456000000.0 0.8981126272666188 -0.40509978389584184
4459000000.0 0.8814175265224999 -0.42647672799747227
4462000000.0 0.9765707025937229 -0.4577235625068411
4466000000.0 0.948138476084676 -0.4546185979300462
4469000000.0 0.9187716277961918 -0.4179395843791846
4472000000.0 0.9210372081775671 -0.4757259862904792
4475000000.0 0.8798966472113114 -0.4342063778007925
4478000000.0 0.9233499565297346 -0.5034178854182525
4481000000.0 0.8761860668299047 -0.471636861414209
4484000000.0 0.8687967200291635 -0.5335479154866578
4488000000.0 0.87721556644395 -0.4932670660327317
4491000000.0 0.8787115410771555 -0.522088489204878
4494000000.0 0.870596703367773 -0.47982695320118673
4497000000.0 0.8598682722234119 -0.49768229560330857
4500000000.0 0.8656017121406316 -0.5113007796176987
4503000000.0 0.8929297763113118 -0.542268901172702
4506000000.0 0.8412259864960456 -0.5417546380118552
4509000000.0 0.8370119357249026 -0.5330277321172936
4512000000.0 0.8353550328064789 -0.5580602887708417
4516000000.0 0.8555608504081917 -0.5678930960078564
4519000000.0 0.8098630411205185 -0.5387821714093859
4522000000.0 0.8169658382994522 -0.5909645239409017
4525000000.0 0.8296948634220127 -0.5718060158055625
4528000000.0 0.8461855394296423 -0.6063841750792633
4531000000.0 0.8038443380273681 -0.5810457948362694
4534000000.0 0.8287675140665689 -0.6080688208206905
4538000000.0 0.7977630197197216 -0.6187497594188053
4541000000.0 0.7686178166377595 -0.6560101168620929
4544000000.0 0.7611745572258088 -0.6280714752460503
4547000000.0 0.7864225703212205 -0.61126923085504
4550000000.0 0.7746305303874519 -0.6687984059040182
4553000000.0 0.7775744775692488 -0.6632958844841451
4556000000.0 0.7486492087518868 -0.6502746435104027
4559000000.0 0.7620208161707163 -0.6821977836638555
4562000000.0 0.7629354277897065 -0.6925032104735213
4566000000.0 0.7577176179151699 -0.683972359518753
4569000000.0 0.7288585897023013 -0.676230979363954
4572000000.0 0.7254949712515532 -0.6799594822643553
4575000000.0 0.7335454571218749 -0.7104206531066452
4578000000.0 0.7643564614521883 -0.7322260273403461
4581000000.0 0.7150500153456445 -0.7206938620262746
4584000000.0 0.6978061340022541 -0.7228359627863515
4588000000.0 0.7309277356526367 -0.7371409343993043
4591000000.0 0.7072343746635769 -0.7358026258741381
4594000000.0 0.6659487101085584 -0.7477197617886554
4597000000.0 0.6962399394377259 -0.7639558106988164
4600000000.0 0.658552824572573 -0.7573971862451946
4603000000.0 0.6655902963743672 -0.774609645386025
4606000000.0 0.6683185471822027 -0.7617522219205143
4609000000.0 0.6533263543862166 -0.7728957488855455
4612000000.0 0.6609139317278353 -0.796369228140979
4616000000.0 0.6288490019065625 -0.78151074039365
4619000000.0 0.6493103936233795 -0.788140426829283
4622000000.0 0.6131747039084088 -0.7784142428882067
4625000000.0 0.5936896869568294 -0.7960636750351372
4628000000.0 0.6243397073157337 -0.7910345310969119
4631000000.0 0.6021185431150182 -0.8173714083061764
4634000000.0 0.6067793595872674 -0.823630315115386
4638000000.0 0.6030534426126384 -0.8319448640516574
4641000000.0 0.5924085041533032 -0.8265182766774674
4644000000.0 0.5735791869942525 -0.8320456653150128
4647000000.0 0.5919993650775924 -0.848492238411519
4650000000.0 0.5523511740041506 -0.8433183842820136
4653000000.0 0.5741145591306792 -0.8545199405781728
4656000000.0 0.527787137087828 -0.8496526373627673
4659000000.0 0.5542010182601971 -0.8552935506704116
4662000000.0 0.550146605555593 -0.8741706603316118
4666000000.0 0.5207538812621642 -0.8712340310501749
4669000000.0 0.5241158101538348 -0.8871988762959526
4672000000.0 0.5013311859670063 -0.9081120629635797
4675000000.0 0.50454988166146 -0.9033050377293012
4678000000.0 0.4745256840679814 -0.8699626774490727
4681000000.0 0.47163197287967 -0.9256643993088632
4684000000.0 0.4556265549969364 -0.934804386032259
4688000000.0 0.42153622140274166 -0.9052370600226332
4691000000.0 0.47834732876259944 -0.923682084700673
4694000000.0 0.4670468057225081 -0.8998287640948868
4697000000.0 0.40544112903836005 -0.9158279000409446
4700000000.0 0.4335877409186737 -0.9226452738306425
4703000000.0 0.4530570078383931 -0.8777288073241916
4706000000.0 0.39114007997832073 -0.9616224573663321
4709000000.0 0.39735217919396304 -0.9202434379845752
4712000000.0 0.40951321595308954 -0.9347037393542894
4716000000.0 0.3949736457128622 -0.944469168817915
4719000000.0 0.41000644539359443 -0.9415406437628671
4722000000.0 0.3941864771694264 -0.9279491377313851
4725000000.0 0.3588295600527718 -0.9329891915135023
4728000000.0 0.34634237631227466 -0.970129421428992
4731000000.0 0.3901465081540695 -0.9859895562650924
4734000000.0 0.3281668330136533 -0.9496265658771577
4738000000.0 0.3682181697192816 -0.9860176180798134
4741000000.0 0.32411598066171304 -1.0025130391943406
4744000000.0 0.3001158784281551 -0.9662793922706043
4747000000.0 0.31242874381445845 -0.9498577377946014
4750000000.0 0.3053540057923997 -0.9876364889919534
4753000000.0 0.31141053113845385 -0.9975478924604492
4756000000.0 0.2657889674402587 -0.9933283000742152
4759000000.0 0.28448038729694336 -0.9971562035191675
4762000000.0 0.24429535577299114 -1.0001466482777388
4766000000.0 0.2838595949114337 -0.9972027802872944
4769000000.0 0.2608864477006395 -0.9945601390339524
4772000000.0 0.24823387769417224 -1.0027482378446941
4775000000.0 0.2022439292020703 -1.0251985203237903
4778000000.0 0.2149982538031374 -1.0153904942381302
4781000000.0 0.2590670053373562 -1.001319223833034
4784000000.0 0.22485129285568123 -1.0045291493603294
4788000000.0 0.16512923118481657 -1.0310756233299991
4791000000.0 0.19025456391432036 -1.0161851321126913
4794000000.0 0.1838736952262183 -1.0252900715447455
4797000000.0 0.17181745120108743 -0.9895477310462969
4800000000.0 0.15771604796821714 -0.9946828493148405
4803000000.0 0.1079044053903378 -1.019452310750986
4806000000.0 0.13189235347743783 -1.0528729521902764
4809000000.0 0.0995602046929836 -1.0350581021801324
4812000000.0 0.08344278331254394 -1.0177050942991739
4816000000.0 0.14593388472571633 -1.0126808813053922
4819000000.0 0.14594161690104673 -1.0353731680149698
4822000000.0 0.10393734761317178 -1.0509027210360788
4825000000.0 0.13283601433843167 -1.0399362809372845
4828000000.0 0.07005268609327064 -1.0174307245822787
4831000000.0 0.024632988960795715 -1.0459889196434378
4834000000.0 0.07025039215820272 -1.0142566657002492
4838000000.0 0.001433625872050287 -1.0389149075116786
4841000000.0 0.02639263667686781 -1.0035057138277583
4844000000.0 0.06547917521113969 -1.041256078300117
4847000000.0 0.038742193590602735 -1.0006579024297357
4850000000.0 0.02340805442323525 -1.0438272582044406
4853000000.0 0.020091743282916727 -1.0068562280334725
4856000000.0 -0.0042268392174367175 -1.023085709973226
4859000000.0 -0.013532662632917698 -1.0658046239305516
4862000000.0 0.01431773913716098 -1.0190990543643248
4866000000.0 -0.06411697664101593 -1.0297156142487336
4869000000.0 -0.057868479006878734 -1.0311312647535547
4872000000.0 -0.07290828717280749 -1.0568736737316042
4875000000.0 -0.0005240495079140636 -1.0828344279372808
4878000000.0 -0.059314952065477426 -1.047130429281739
4881000000.0 -0.08281199944358963 -1.1009917326321033
4884000000.0 -0.06676661339940151 -1.0171582765902836
4888000000.0 -0.052663129863493294 -1.0322750751287966
4891000000.0 -0.0439651566543198 -1.0507573317869017
4894000000.0 -0.1259016581135048 -1.0172451922205856
4897000000.0 -0.10373376363563616 -1.040931975450379
4900000000.0 -0.08333531963839866 -1.0280102717061372
4903000000.0 -0.11649737092552487 -1.0624474241239112
4906000000.0 -0.15869872509500704 -1.050827970588215
4909000000.0 -0.1377758479454541 -0.992764340020209
4912000000.0 -0.16194489400506057 -1.0758994649204279
4916000000.0 -0.15085576172884457 -1.0722206791656275
4919000000.0 -0.1348809272836961 -1.0523052838960314
4922000000.0 -0.14746005149541916 -1.041030539581896
4925000000.0 -0.20693433268200698 -0.9848988617824109
4928000000.0 -0.1135739948989196 -1.0090383817583435
4931000000.0 -0.1829147771844507 -1.0501388911877576
4934000000.0 -0.21014343344282177 -0.9523957601347656
4938000000.0 -0.2642580025172424 -1.020245472058076
4941000000.0 -0.2233995744803995 -0.9899150795745945
4944000000.0 -0.2018019877518604 -0.995235545613941
4947000000.0 -0.2509793719244735 -0.9635944965502381
4950000000.0 -0.24775764342722184 -0.9922279984438719
4953000000.0 -0.31542380372130246 -1.0082270458199456
4956000000.0 -0.30899935007999363 -1.0058287606873137
4959000000.0 -0.28972048079603063 -0.9731347889984511
4962000000.0 -0.30359618146438927 -1.023977139071235
4966000000.0 -0.2788741397527247 -1.0478908330733308
4969000000.0 -0.294954432904854 -1.05485257490291
4972000000.0 -0.30756655547313017 -0.9839894363463233
4975000000.0 -0.29390038559747844 -1.0100566489436742
4978000000.0 -0.3716774258966289 -0.9625972263412832
4981000000.0 -0.36596668142611266 -1.007287505885961
4984000000.0 -0.33386378025021013 -0.9697612589936491
4988000000.0 -0.33445123518607295 -0.997345543392573
4991000000.0 -0.30886304382894175 -1.0116189251750651
4994000000.0 -0.32603397829431335 -1.0009429319905672
4997000000.0 -0.41846062559472136 -0.951937788872602
5000000000.0 -0.38636104185276454 -0.9677640428734369
5003000000.0 -0.3972978304011959 -1.0054818035151245
5006000000.0 -0.43950611214614244 -1.0072551241232357
5009000000.0 -0.40489534973530705 -0.9561849220633895
5012000000.0 -0.4487447692371684 -0.9741827710555171
5016000000.0 -0.39761498332717954 -0.9796975545179436
5019000000.0 -0.44663350248385814 -0.9539128315659855
5022000000.0 -0.44386863313795855 -0.9472313199424578
5025000000.0 -0.47418144757714126 -0.992107206505223
5028000000.0 -0.45932421620652 -0.9413685388428854
5031000000.0 -0.4252748264695603 -0.9458828607385307
5034000000.0 -0.5169639732565757 -0.9451191982796603
5038000000.0 -0.47573077298585853 -0.8935671074992777
5041000000.0 -0.4779895083844041 -0.9475999250291912
5044000000.0 -0.4488284308122512 -0.9107655040903849
5047000000.0 -0.5082640051562644 -0.9043866187733528
5050000000.0 -0.4558042822066778 -0.9112528922824537
5053000000.0 -0.5736357100951882 -0.9275677121024393
5056000000.0 -0.4640907619905893 -0.9277652785699015
5059000000.0 -0.48925626869014954 -0.9206684025169941
5062000000.0 -0.6067401416769886 -0.8633781813908423
5066000000.0 -0.5112918186886201 -0.9317757263257269
5069000000.0 -0.5792616365141467 -0.9004383335760845
5072000000.0 -0.5559652092679119 -0.896927939652604
5075000000.0 -0.5392601314156032 -0.8752096685224646
5078000000.0 -0.6128166589170672 -0.8348187028422263
5081000000.0 -0.5942395825050402 -0.8099565998351138
5084000000.0 -0.6245993570845855 -0.8597651882404105
5088000000.0 -0.5999213017813751 -0.8841552337542178
5091000000.0 -0.6812649474031791 -0.8133712740359802
5094000000.0 -0.6240836567351887 -0.8484295393216942
5097000000.0 -0.629089891381816 -0.8586757111296113
5100000000.0 -0.624641417354068 -0.8196034422148325
5103000000.0 -0.6630731475799911 -0.8073118851928979
5106000000.0 -0.6508792124084053 -0.8884690308406693
5109000000.0 -0.5994792248362131 -0.8477216776138563
5112000000.0 -0.6873999749671188 -0.786758812310824
5116000000.0 -0.6604976988951502 -0.7913478177427444
5119000000.0 -0.717451835319224 -0.7967143849719589
5122000000.0 -0.6519564511930548 -0.7461514611095557
5125000000.0 -0.6729212179314396 -0.808514460389389
5128000000.0 -0.676378366728493 -0.7944885982429761
5131000000.0 -0.6895298972047288 -0.7514983830931915
5134000000.0 -0.6629765586458745 -0.7764011068865447
5138000000.0 -0.692963346967635 -0.7730816881296462
5141000000.0 -0.6879870773953314 -0.825252890626768
5144000000.0 -0.7401102251384075 -0.7932645688379697
5147000000.0 -0.737671575336873 -0.7557119600994016
5150000000.0 -0.7366492147840092 -0.7678703454067933
5153000000.0 -0.7423861575471131 -0.74345562204063
5156000000.0 -0.7277476783925202 -0.745300054191661
5159000000.0 -0.7383757297612971 -0.742831553344925
5162000000.0 -0.7426342365199365 -0.6926617156796626
5166000000.0 -0.7429546295461398 -0.693122756816835
5169000000.0 -0.7855342772675495 -0.7053133394573322
5172000000.0 -0.7678003068500737 -0.6989321040655887
5175000000.0 -0.772806618667341 -0.7436359148633632
5178000000.0 -0.7952058745748625 -0.677550386460515
5181000000.0 -0.7936447498879883 -0.6844067372362869
5184000000.0 -0.7793016376444943 -0.6822829341223074
5188000000.0 -0.8084352351631651 -0.650232083795588
