! Created with skrf 1.8.0 (http://scikit-rf.org).
# Hz S RI R 50.0 
!freq ReS11 ImS11
4000000000.0 0.689052273344316 0.7394836372645408
4003000000.0 0.7249855104603464 0.8317728790845513
4006000000.0 0.707499422900041 0.7167985277753847
4009000000.0 0.7045725107659778 0.7785145528725235
4012000000.0 0.6883994314584665 0.7407427336539151
4016000000.0 0.7060520970698814 0.6787898460675093
4019000000.0 0.7126404180905175 0.7213536172862774
4022000000.0 0.7258303502803837 0.8194261670309516
4025000000.0 0.7784502794563217 0.7044906532213135
4028000000.0 0.7606257069412781 0.6865895080258126
4031000000.0 0.7155408984654904 0.6725102254322355
4034000000.0 0.7280121777137498 0.701923282054479
4038000000.0 0.7487958344860123 0.668386662442443
4041000000.0 0.789824626069934 0.7153189997160866
4044000000.0 0.8554487367223302 0.696322815506674
4047000000.0 0.7663008913460035 0.7017908419357418
4050000000.0 0.8332778623879118 0.6632663504275157
4053000000.0 0.77863422204677 0.6442368628953468
4056000000.0 0.7914372544768636 0.6441132213142234
4059000000.0 0.8044544842971852 0.6659994854994082
4062000000.0 0.8459446312622464 0.6366547461810446
4066000000.0 0.772026747046632 0.5931166800265906
4069000000.0 0.8865020289551369 0.6369925046610189
4072000000.0 0.8167198939811496 0.6607727400005354
4075000000.0 0.849737846662757 0.618998876715851
4078000000.0 0.8401550388378923 0.5953097270009914
4081000000.0 0.8414369645047386 0.6677715295175554
4084000000.0 0.8656957621860307 0.6114544227477003
4088000000.0 0.7879273417605168 0.6014747172086381
4091000000.0 0.9113371789986977 0.5997224568498427
4094000000.0 0.853723222425631 0.5848443294228587
4097000000.0 0.8880902723021051 0.5664253924440565
4100000000.0 0.8875016020072998 0.5463129777461497
4103000000.0 0.8857454183403315 0.604712510896221
4106000000.0 0.9176991710029598 0.5514846813138609
4109000000.0 0.8867749920631851 0.5347259282781403
4112000000.0 0.9282771633581568 0.5015838289433385
4116000000.0 0.9195814080678459 0.5110769271642095
4119000000.0 0.9305598719735937 0.5052494769950348
4122000000.0 0.9246977890709163 0.5272434318050987
4125000000.0 0.927779737718524 0.4949391173932158
4128000000.0 0.9087150018409211 0.48271858463290584
4131000000.0 0.8899172042509667 0.4224565355386759
4134000000.0 0.8924084103994327 0.49747938521528934
4138000000.0 0.8911447495187921 0.43504901965859005
4141000000.0 0.9359672267664674 0.4543891357399733
4144000000.0 0.9578597940137785 0.469242746353918
4147000000.0 0.9238941922029823 0.4011597103905064
4150000000.0 0.9645213868518071 0.3980227414948387
4153000000.0 0.9256073769257914 0.39416702593226605
4156000000.0 0.9489826081586943 0.4389458297924427
4159000000.0 0.9125240717981737 0.4022514570205152
4162000000.0 0.9541754780098339 0.3741468077190371
4166000000.0 0.9682635240944242 0.3787777504301003
4169000000.0 0.9526754542368513 0.35572170767688127
4172000000.0 0.9486110965730129 0.3726732968792021
4175000000.0 0.9587042019020413 0.36310225010330616
4178000000.0 0.9870929427225358 0.3443687696129464
4181000000.0 0.9775513148212154 0.34221371166274284
4184000000.0 0.9680351576611891 0.34030116010284456
4188000000.0 0.9798168247535688 0.3225111028678016
4191000000.0 0.9653636493053956 0.3631770861718257
4194000000.0 0.9533656027829218 0.3132246888344409
4197000000.0 1.0098384909910438 0.3279117541747278
4200000000.0 0.9649551235744809 0.3197956200120029
4203000000.0 0.9982786040370016 0.2860803224976407
4206000000.0 1.0019590795205722 0.2961922416787776
4209000000.0 0.9726952821119744 0.2815938527028285
4212000000.0 1.008389515531771 0.25132407800670986
4216000000.0 1.000497142673839 0.26587004067968373
4219000000.0 1.0004169727276566 0.27265402546708994
4222000000.0 0.9877167145613868 0.2356309206625174
4225000000.0 0.9832638461208849 0.23831240169173237
4228000000.0 0.9901155965767754 0.22088920572543244
4231000000.0 0.9967641913690136 0.20681734724867207
4234000000.0 1.0113168350753436 0.21988814606454837
4238000000.0 1.0043420173995208 0.18719777351005
4241000000.0 0.9966333754145533 0.1562280978531495
4244000000.0 0.9826189838223335 0.1878889676407418
4247000000.0 0.9939874496480985 0.17618937817088953
4250000000.0 0.9782050235596496 0.1493654991163874
4253000000.0 0.9905340311361281 0.13946642399009435
4256000000.0 1.036924688815283 0.16495282938499195
4259000000.0 0.9673826985540317 0.1132928641003399
4262000000.0 1.0044777708626964 0.10276158286527576
4266000000.0 1.015355892479551 0.10026583070844344
4269000000.0 1.0200190455074047 0.11156004210860646
4272000000.0 1.0028719913878716 0.10207082597452838
4275000000.0 1.0069620598108269 0.10375174649091748
4278000000.0 1.0499491772417364 0.0941834167485617
4281000000.0 1.0156959911639922 0.06028538005362245
4284000000.0 1.0198449387274395 0.047213453200448396
4288000000.0 1.0202054588828877 0.06667123075279466
4291000000.0 0.9981468055689577 0.04611988101658203
4294000000.0 0.9808474598981197 0.04432541502425903
4297000000.0 0.9947550300908555 0.06615019411716148
4300000000.0 0.9913557109816606 0.004333833132521191
4303000000.0 0.9977075810053244 0.0009408802913383751
4306000000.0 1.0081382781379746 0.02205771108557228
4309000000.0 1.0351352100124838 -0.007011117154778368
4312000000.0 1.0252890006877313 0.04154040522943803
4316000000.0 1.0182543134595912 -0.012492259155137506
4319000000.0 0.9639727588567479 -0.028571339867401638
4322000000.0 0.9920594478686835 -0.06614855573272599
4325000000.0 1.0247030091551383 -0.042800267020377106
4328000000.0 1.015929921785884 -0.08410111930237735
4331000000.0 1.0345243101822594 -0.09128335667663742
4334000000.0 1.0190991439354709 -0.07879649452723853
4338000000.0 1.0394076742086087 -0.06563880067203248
4341000000.0 1.0300375284867533 -0.08868011524298675
4344000000.0 1.039947538816247 -0.08382103555546822
4347000000.0 1.0209363758640373 -0.11215580949875026
4350000000.0 0.9806502228422036 -0.10320597449846902
4353000000.0 1.0016139317714539 -0.11577179097136636
4356000000.0 0.9974896587908247 -0.15461607668234895
4359000000.0 0.9497837775875245 -0.14709815611276475
4362000000.0 1.0082163867835876 -0.2065361519371019
4366000000.0 1.0188767282018978 -0.1800060371755316
4369000000.0 0.9573948970089148 -0.17525480878078992
4372000000.0 0.9676146364512193 -0.19675675172068943
4375000000.0 0.9996114971656065 -0.1873687344943848
4378000000.0 0.9673895707705858 -0.19713962207430738
4381000000.0 0.9602216853624133 -0.18812030495824028
4384000000.0 1.042957186323731 -0.22347569433391992
4388000000.0 0.9922349384139242 -0.23163981317487678
4391000000.0 0.9847947674702036 -0.23290579142640436
4394000000.0 0.9566393984545425 -0.2645721794566616
4397000000.0 0.9496522891376267 -0.25871789778515486
4400000000.0 0.9976075683505174 -0.2695024025400598
4403000000.0 0.9852427102732113 -0.273307288019231
4406000000.0 0.9657469298370494 -0.28759892661811937
4409000000.0 0.9899827182703136 -0.30262440279307107
4412000000.0 0.943701615841881 -0.35104843046388473
4416000000.0 0.94804558789203 -0.3175930858751707
4419000000.0 0.9619901825091778 -0.34220021883267776
4422000000.0 0.9500996950417613 -0.3067169365600294
4425000000.0 0.9841581156913165 -0.3276242886584401
4428000000.0 0.9458643322972956 -0.34383198253158254
4431000000.0 0.9661947909436808 -0.34795397447103305
4434000000.0 0.9479269260898096 -0.3725491229066357
4438000000.0 0.9609649858999891 -0.37439053934040556
4441000000.0 0.9598930010280007 -0.3730405661873193
4444000000.0 0.9123697131732977 -0.37337212094332417
4447000000.0 0.911421898128337 -0.40049290627477846
4450000000.0 0.9095364399380417 -0.38816650112412276
4453000000.0 0.9284745788045474 -0.42124752771485163
4456000000.0 0.8853903645014994 -0.417458899475313
4459000000.0 0.8664739279017668 -0.4102277911328433
4462000000.0 0.9777958424561812 -0.46475508728343795
4466000000.0 0.9331464556019311 -0.47990322264469554
4469000000.0 0.9161329679853127 -0.4506525453504039
4472000000.0 0.8946599293704902 -0.486960935311851
4475000000.0 0.871803502313858 -0.4505106094301262
4478000000.0 0.9168260176080215 -0.5259659320692331
4481000000.0 0.8555074594788153 -0.47662056446784257
4484000000.0 0.8489431068563495 -0.5291714664298885
4488000000.0 0.8591966493425329 -0.506577120742574
4491000000.0 0.8783477574982232 -0.5125681148870564
4494000000.0 0.8475578912348314 -0.5142733269690914
4497000000.0 0.8625409353701969 -0.5058761424851439
4500000000.0 0.8556072689914691 -0.5404500236158605
4503000000.0 0.8855743196153552 -0.5373332631034236
4506000000.0 0.8389926590643926 -0.5590379536636164
4509000000.0 0.815722206865477 -0.5449288947046318
4512000000.0 0.8217312027302438 -0.555504013628553
4516000000.0 0.8568346468478821 -0.5764922859232546
4519000000.0 0.814298355302847 -0.5746904142473217
4522000000.0 0.8067312249372953 -0.5938971787350485
4525000000.0 0.8260587690232242 -0.5695976962744566
4528000000.0 0.8323109324300502 -0.6142801748082525
4531000000.0 0.833385527448621 -0.6067867654224212
4534000000.0 0.7945507303133875 -0.6147172646113545
4538000000.0 0.8088274517555618 -0.6007435616260712
4541000000.0 0.7579701259899612 -0.6513021344981818
4544000000.0 0.789618127924659 -0.6471049430610485
4547000000.0 0.7769598201126683 -0.6100653494200319
4550000000.0 0.7451866467202952 -0.6779749911100303
4553000000.0 0.7752132197551247 -0.6736462603715276
4556000000.0 0.7326191892432292 -0.6765324999793962
4559000000.0 0.7383585947350744 -0.6679297319752568
4562000000.0 0.7699104113980526 -0.6841067570806411
4566000000.0 0.7551477350782003 -0.70658386239722
4569000000.0 0.7230654752012562 -0.6928933046797789
4572000000.0 0.725712314952108 -0.6988139242464844
4575000000.0 0.7125702652120025 -0.7142761587324219
4578000000.0 0.734772994641899 -0.7246174273123148
4581000000.0 0.6799073173654324 -0.7389110197942658
4584000000.0 0.6904886291599355 -0.7241604739316526
4588000000.0 0.7130613976660656 -0.749055831953882
4591000000.0 0.7076397432367467 -0.7371240735830349
4594000000.0 0.6738472892625846 -0.7544232100099884
4597000000.0 0.6708346204125821 -0.7715895158712265
4600000000.0 0.6434917101187899 -0.768967747733511
4603000000.0 0.637114428404826 -0.7830171681065397
4606000000.0 0.6751511120108477 -0.783917479407302
4609000000.0 0.6468351051318548 -0.7632189476120971
4612000000.0 0.6372061221762307 -0.7889520932250182
4616000000.0 0.6292581958367782 -0.7798696484627401
4619000000.0 0.6382297253824282 -0.8097440972214524
4622000000.0 0.6167461181694641 -0.8173089090571932
4625000000.0 0.5807063124836269 -0.8023453077409655
4628000000.0 0.6051362529655633 -0.7957077909722373
4631000000.0 0.5851040064438893 -0.8183595742522322
4634000000.0 0.5930962704424892 -0.8277107544667139
4638000000.0 0.5857413716690208 -0.8352534014865906
4641000000.0 0.5833181739341263 -0.8377004702201915
4644000000.0 0.5622940602478044 -0.8452441300033549
4647000000.0 0.5628834323974695 -0.8526972230381996
4650000000.0 0.5538678129228656 -0.8558198795585416
4653000000.0 0.5529708023340736 -0.8757454052199335
4656000000.0 0.5303570918458957 -0.8577526035470286
4659000000.0 0.5045501555847549 -0.8805351005481082
4662000000.0 0.5334551977884769 -0.8791244229033733
4666000000.0 0.4947803068635993 -0.8756127109923899
4669000000.0 0.5098629679217093 -0.8877974201403233
4672000000.0 0.4885234961206037 -0.9020695060910128
4675000000.0 0.47179769582285236 -0.9097694377241575
4678000000.0 0.4672180187281747 -0.8723768886776607
4681000000.0 0.443907744158398 -0.9104963671306223
4684000000.0 0.4360676334340634 -0.9092656418923691
4688000000.0 0.39664410382645227 -0.910281380290121
4691000000.0 0.4728856726974461 -0.9059636837686171
4694000000.0 0.4401389457923055 -0.9103483840238196
4697000000.0 0.39365262072244056 -0.8809381821456386
4700000000.0 0.39823123473303806 -0.9153218054420795
4703000000.0 0.4287143136306219 -0.8698398464557389
4706000000.0 0.3891531125938833 -0.9582995392059543
4709000000.0 0.3679904509522423 -0.921164376348433
4712000000.0 0.3904432537820884 -0.9314917101373776
4716000000.0 0.3759636895254175 -0.9466163233109222
4719000000.0 0.3873690180605398 -0.931216974848594
4722000000.0 0.3704998796289561 -0.9372037844241814
4725000000.0 0.35109818400789206 -0.9342073274847218
4728000000.0 0.3486884945868221 -0.9530471688355471
4731000000.0 0.355129767594849 -0.9871106756378782
4734000000.0 0.3350026054001273 -0.973201894833162
4738000000.0 0.3395435980500097 -1.0099504355571072
4741000000.0 0.3092103288678323 -1.0050044066259656
4744000000.0 0.3078275814278025 -0.9860969819873504
4747000000.0 0.2883187201061362 -0.9350984077507117
4750000000.0 0.2640375186889536 -0.9935642787201644
4753000000.0 0.24868633206034924 -0.9646776680139717
4756000000.0 0.30267421172364306 -0.9845475768814118
4759000000.0 0.2655509602939298 -1.021035584760022
4762000000.0 0.22993997685717282 -1.0223242695558852
4766000000.0 0.20516130591109116 -0.986205319443243
4769000000.0 0.22973727753995515 -1.0192254842170279
4772000000.0 0.22713969521833202 -1.013603571982218
4775000000.0 0.20327623251388524 -1.0217964405389452
4778000000.0 0.21443287521286086 -1.0547946708370877
4781000000.0 0.2236862220682835 -1.0046646549688338
4784000000.0 0.2251934173531581 -0.9723669045025959
4788000000.0 0.1694790952492889 -1.037044874078356
4791000000.0 0.17024145883452374 -0.9818590717464003
4794000000.0 0.1926937602907887 -1.053555379067854
4797000000.0 0.14149904866197735 -1.0011919965899847
4800000000.0 0.13189222662549804 -1.0014354318403436
4803000000.0 0.09976195517385482 -1.0303079841886746
4806000000.0 0.1299147254795774 -1.0361431309408982
4809000000.0 0.07335956318158096 -1.015141385614884
4812000000.0 0.051877089671284335 -1.0057157836337298
4816000000.0 0.12648454329512554 -0.9961782784895798
4819000000.0 0.10239876363094114 -1.0422143818771974
4822000000.0 0.10559102046664691 -1.0452189205511035
4825000000.0 0.11992075460745039 -1.0453011931463987
4828000000.0 0.05874254430906907 -1.0262605639207996
4831000000.0 -0.0022518312780958755 -1.0540392749802427
4834000000.0 0.07027289962192906 -1.0412528986231924
4838000000.0 0.025140609843544756 -1.027897657746458
4841000000.0 0.004628909187971 -1.0302293454658473
4844000000.0 0.0548651657776242 -1.0267799727364477
4847000000.0 0.03374263363943959 -0.9707918539492619
4850000000.0 -0.0005236339260937389 -1.0688396313333086
4853000000.0 0.0003783728158855554 -1.0128849177117452
4856000000.0 -0.009066851738647491 -1.0112523418532802
4859000000.0 -0.01686370739966151 -1.0693702452794667
4862000000.0 -0.019345370136151938 -1.0175717641566306
4866000000.0 -0.07420510383795989 -1.0355411575160858
4869000000.0 -0.06706069761590278 -1.03657760343655
4872000000.0 -0.07029574197360038 -1.056653223205721
4875000000.0 -0.021855909024901213 -1.078014143532844
4878000000.0 -0.08111190045414093 -1.0343224587541004
4881000000.0 -0.10574091359206275 -1.063653352234629
4884000000.0 -0.08916205064538181 -1.0406719124922275
4888000000.0 -0.07015779353792619 -1.013579085367549
4891000000.0 -0.09993653209136863 -1.0371410048368606
4894000000.0 -0.15879314455665325 -1.0028225899594532
4897000000.0 -0.07621325618631232 -1.0162458540480288
4900000000.0 -0.1371640468598168 -1.0436634176518633
4903000000.0 -0.1241334404935795 -1.0728759400959016
4906000000.0 -0.17899625508344957 -1.029699662954
4909000000.0 -0.1495834809356679 -1.0175658324059629
4912000000.0 -0.1731844306087098 -1.0568821705396276
4916000000.0 -0.16415677591309288 -1.050070464028391
4919000000.0 -0.17639853400169087 -1.0385005495974438
4922000000.0 -0.17385514763237855 -1.0396714264630535
4925000000.0 -0.21762152106870616 -1.00841408409882
4928000000.0 -0.158766469081157 -0.9920676003809034
4931000000.0 -0.21608602800261234 -1.0005100182540616
4934000000.0 -0.21903918069201522 -0.9754126218375143
4938000000.0 -0.2614121128202343 -1.0080591779017833
4941000000.0 -0.25745432767161314 -0.953338741466217
4944000000.0 -0.22273920180419995 -0.9556169341197238
4947000000.0 -0.25865581716894437 -0.9688486408281188
4950000000.0 -0.2687105776594537 -0.9578765770322138
4953000000.0 -0.3347893924225576 -1.004337109610608
4956000000.0 -0.3085605194315947 -0.9854799779398153
4959000000.0 -0.3174019071349474 -0.9488807441980165
4962000000.0 -0.33950829131356874 -0.9794925621070569
4966000000.0 -0.32116950983677583 -1.0352078470239998
4969000000.0 -0.32101792908927346 -1.0407245617352872
4972000000.0 -0.3209713895919799 -0.958566955521051
4975000000.0 -0.3221085481844391 -0.9752429863098621
4978000000.0 -0.3858992695087655 -0.9723980094757545
4981000000.0 -0.3583084194742666 -0.9671537968647653
4984000000.0 -0.35005959686430266 -0.9479893846192055
4988000000.0 -0.3567007886463253 -0.9689077824108484
4991000000.0 -0.3519371075721563 -0.9933569607350373
4994000000.0 -0.3745644121198026 -0.949611001970845
4997000000.0 -0.43396293294045424 -0.9292486941054072
5000000000.0 -0.4349434366290097 -0.9974096227814166
5003000000.0 -0.4261794127641357 -0.9949719996460329
5006000000.0 -0.4443888060902681 -0.9992654199905973
5009000000.0 -0.40349162558781926 -0.9620439481372058
5012000000.0 -0.44559269598222145 -0.9317427568811933
5016000000.0 -0.41493136059905783 -0.9784230970493883
5019000000.0 -0.4430821755646994 -0.9442301492075222
5022000000.0 -0.4918201481196297 -0.9223557074522242
5025000000.0 -0.5149337398191229 -0.9699136685242999
5028000000.0 -0.4954877083993382 -0.9476150017014053
5031000000.0 -0.4952170824891039 -0.9213998206761468
5034000000.0 -0.5416022846578085 -0.9165554481731479
5038000000.0 -0.47493199376498885 -0.8824445044701186
5041000000.0 -0.5026644628982843 -0.9387950360805349
5044000000.0 -0.46247134376792487 -0.9052754634478567
5047000000.0 -0.5477141991967289 -0.9329313161250582
5050000000.0 -0.44495548683927155 -0.9399157137197058
5053000000.0 -0.5803048075619649 -0.8869056750920312
5056000000.0 -0.5005149102791913 -0.8765556919777167
5059000000.0 -0.5022499654259309 -0.8957158737173542
5062000000.0 -0.5657554428356023 -0.857816850486594
5066000000.0 -0.5190715347896045 -0.8780169197898204
5069000000.0 -0.5871777039035515 -0.8898605345869154
5072000000.0 -0.5798339655267164 -0.8561646909182867
5075000000.0 -0.5463274038847806 -0.8850211874180067
5078000000.0 -0.6392608626877991 -0.8533700842181906
5081000000.0 -0.6034461262362116 -0.8284917207015213
5084000000.0 -0.6294809373582025 -0.8622052445774144
5088000000.0 -0.6010092162688868 -0.8379802440913873
5091000000.0 -0.6472533074446616 -0.8220423495312505
5094000000.0 -0.6308598846607392 -0.8240834216488104
5097000000.0 -0.625107794974766 -0.8567930004041819
5100000000.0 -0.6374596551898785 -0.8521994616542697
5103000000.0 -0.685440559897029 -0.8359346598510521
5106000000.0 -0.6283688049720496 -0.8690505075884822
5109000000.0 -0.6278168693258572 -0.7681369538054192
5112000000.0 -0.678879415370988 -0.7648684456570187
5116000000.0 -0.6467361761216065 -0.7128178371402977
5119000000.0 -0.7100831910979312 -0.7909493126927745
5122000000.0 -0.6546314006807082 -0.7944849076840064
5125000000.0 -0.6499330510174156 -0.7788787680896703
5128000000.0 -0.7204099754905288 -0.7935210011645188
5131000000.0 -0.7058566868622725 -0.7477834312606569
5134000000.0 -0.727791050670184 -0.7179932580295023
5138000000.0 -0.7001701131693591 -0.7542820502527576
5141000000.0 -0.6938523382610471 -0.7949059532850049
5144000000.0 -0.7123362144554608 -0.724605573024739
5147000000.0 -0.7605845365432671 -0.7334854654637415
5150000000.0 -0.7544381941203495 -0.7188719645693041
5153000000.0 -0.797372016046149 -0.7412095278010311
5156000000.0 -0.7681396687629404 -0.7080076237339941
5159000000.0 -0.77575820787798 -0.7450090968377834
5162000000.0 -0.7872909904689044 -0.6563943518928887
5166000000.0 -0.7667767945045229 -0.7037253155055175
5169000000.0 -0.8079015787479463 -0.6941664174964998
5172000000.0 -0.7779688645968308 -0.6692132722509944
5175000000.0 -0.8254553322099506 -0.7434488041880917
5178000000.0 -0.8190651539815519 -0.6566557329645496
5181000000.0 -0.8645222463040647 -0.6632883876361283
5184000000.0 -0.795483534285954 -0.6213647569976545
5188000000.0 -0.8327327084490146 -0.6405343729175865
