! Created with skrf 1.8.0 (http://scikit-rf.org).
# Hz S RI R 50.0 
!freq ReS11 ImS11
4000000000.0 0.5819457136400501 0.8010009586675315
4003000000.0 0.6891834263178014 0.8540027659974267
4006000000.0 0.6693530844509985 0.7819846899209769
4009000000.0 0.6220411682534275 0.8239859331774845
4012000000.0 0.6336459095569899 0.8470583343313091
4016000000.0 0.6847530066900612 0.7828042965424116
4019000000.0 0.6543535309059243 0.7616710424097913
4022000000.0 0.6147212682263283 0.837998203608504
4025000000.0 0.7507871960448148 0.7589267697429656
4028000000.0 0.7184264995674677 0.7548809495954656
4031000000.0 0.6562540440639217 0.7277266763534618
4034000000.0 0.7129901809464075 0.7254074175471343
4038000000.0 0.7017055229618074 0.7219191283767776
4041000000.0 0.7149551971657898 0.7657261421911102
4044000000.0 0.7953066542564095 0.8058763836716202
4047000000.0 0.702178457326064 0.7434452248731986
4050000000.0 0.7676501663688133 0.7185598104483505
4053000000.0 0.7503150125883009 0.6618277601896339
4056000000.0 0.7475876324057452 0.676109689541299
4059000000.0 0.7301278878458963 0.6865916834827976
4062000000.0 0.7729438770004731 0.6896188197673585
4066000000.0 0.7041693174236738 0.6323200766371376
4069000000.0 0.8021867641543187 0.6505276879940656
4072000000.0 0.7439820498028744 0.7133466016048551
4075000000.0 0.8083350686497779 0.7455849067617517
4078000000.0 0.786619009031227 0.6395696464557685
4081000000.0 0.7730840295863598 0.711502180572032
4084000000.0 0.7826565784415079 0.6309605580376427
4088000000.0 0.7761828549482173 0.6450417661868911
4091000000.0 0.8465888441736218 0.6514881175537894
4094000000.0 0.8086437120554747 0.6297511138129562
4097000000.0 0.7982733167924967 0.6177434011241598
4100000000.0 0.8219704024838567 0.6154004299249549
4103000000.0 0.8414471703655926 0.6372317960468044
4106000000.0 0.82661062440013 0.6351806489080909
4109000000.0 0.875947329977355 0.5942602126936845
4112000000.0 0.8237622723644258 0.5976930364064665
4116000000.0 0.8169626324358791 0.6088085965324028
4119000000.0 0.8458352740447038 0.5673520229800177
4122000000.0 0.8395082667752375 0.5281939336797077
4125000000.0 0.8887001994337707 0.5254683687699213
4128000000.0 0.8338418739985232 0.5366288864076403
4131000000.0 0.8567405669733651 0.5144274267471871
4134000000.0 0.8707055978030896 0.5323200778243433
4138000000.0 0.8643047075081627 0.49458450737073617
4141000000.0 0.8714275594046929 0.5298413768048524
4144000000.0 0.8542801548668449 0.5519889739831465
4147000000.0 0.8656881878980682 0.4743698157927075
4150000000.0 0.9162888023910137 0.514820545009782
4153000000.0 0.8936093727321636 0.49930001620337705
4156000000.0 0.8851440334996237 0.519214558486815
4159000000.0 0.9146827753751856 0.5137809019604267
4162000000.0 0.9072795118902399 0.45775500253041157
4166000000.0 0.8948850318004078 0.46614573457500796
4169000000.0 0.8838794884346848 0.45751677260476054
4172000000.0 0.9383928425666458 0.4646174520390583
4175000000.0 0.9206300114588887 0.446033917499336
4178000000.0 0.9466253003686315 0.4330357283887112
4181000000.0 0.9198313911881262 0.42152126532708156
4184000000.0 0.9292174021283756 0.4533820667121546
4188000000.0 0.9061552557985486 0.3990518027893939
4191000000.0 0.918776355802107 0.43464398775797014
4194000000.0 0.917663358854595 0.3899147786517251
4197000000.0 0.9359288295262811 0.39517185801147153
4200000000.0 0.9244752868375399 0.399210727506472
4203000000.0 0.9387187943672749 0.3883861438772166
4206000000.0 0.9764217328132113 0.3649386899854618
4209000000.0 0.940183025307966 0.3665476644153522
4212000000.0 0.9862503442807344 0.3238664691088905
4216000000.0 0.969397057343554 0.3657658498326642
4219000000.0 0.9661832414806025 0.3383646875884203
4222000000.0 0.9740252008689205 0.3068838777210789
4225000000.0 0.9517229100955389 0.3377209522387322
4228000000.0 0.9899832944096489 0.307992791949798
4231000000.0 0.9699870010696825 0.30177905398424165
4234000000.0 0.990595367305996 0.2946555186821226
4238000000.0 0.9813679161231105 0.2699520448511832
4241000000.0 0.9932428848876516 0.28056060335107963
4244000000.0 0.9730222208836437 0.26512423914115185
4247000000.0 0.974640823470787 0.2669146482174125
4250000000.0 0.9658246171135119 0.24749166248203563
4253000000.0 0.9591038763101898 0.24264135253359437
4256000000.0 1.0147801875298215 0.22709346384327778
4259000000.0 0.947656111584741 0.21963522618493977
4262000000.0 0.9949948701683324 0.2195381268463896
4266000000.0 1.0024766402772574 0.20232386868746927
4269000000.0 0.9922742173278304 0.2262214607650436
4272000000.0 0.9931310784810067 0.2047629053176866
4275000000.0 1.0070870544757713 0.19894424981754916
4278000000.0 1.0093398660505735 0.20920018322828782
4281000000.0 1.0032583227507255 0.19171865356776702
4284000000.0 1.03151188147044 0.1424849543907773
4288000000.0 0.9810949283799765 0.1780469840170449
4291000000.0 0.9760329034591025 0.13194185209730797
4294000000.0 1.008880024603755 0.13089004407950905
4297000000.0 0.9869381217379443 0.1557944356462176
4300000000.0 1.0034892720307826 0.11781262525967745
4303000000.0 0.9993099775334013 0.09174304982951266
4306000000.0 0.9828731627689642 0.1273535051762824
4309000000.0 0.99728000644987 0.0924842566604686
4312000000.0 1.0186661088753002 0.12372193612701224
4316000000.0 1.0035735847853247 0.0833989657488665
4319000000.0 0.9800302467053121 0.09824706764017895
4322000000.0 0.9979177021602824 0.04684776100003875
4325000000.0 1.0181545277061783 0.0752974176395972
4328000000.0 1.016441857869471 0.058513700089335666
4331000000.0 1.005460730145287 0.017595530895526595
4334000000.0 1.0294910773064136 0.007138851644927086
4338000000.0 1.0192119525637395 0.04917639210573148
4341000000.0 1.0288598567285197 0.024410347299522572
4344000000.0 1.0287310831178034 0.0017658770452072814
4347000000.0 1.02077246113003 -0.02852363813433456
4350000000.0 0.9889888663877919 -0.027704360965103286
4353000000.0 0.9950037257526387 -0.01464813601508036
4356000000.0 0.9948203894713873 -0.043584890446978664
4359000000.0 0.9672824106617496 -0.02106280948618916
4362000000.0 1.013290117594441 -0.08476506602771036
4366000000.0 1.0351605499259613 -0.07644054862734766
4369000000.0 0.9646284201608425 -0.08547832641602275
4372000000.0 0.99109896052255 -0.11277477649401849
4375000000.0 1.0148297305140164 -0.06953287999353186
4378000000.0 0.9940723365561851 -0.0823112685283781
4381000000.0 0.9779509693667754 -0.0890409937433829
4384000000.0 1.0522901847548605 -0.13466930783763442
4388000000.0 0.9870753493147812 -0.09365245285299686
4391000000.0 1.0035688222214054 -0.11437858733958216
4394000000.0 0.9577704126722445 -0.14106441112337487
4397000000.0 0.9932035461035422 -0.14143246649808966
4400000000.0 1.0163003857225077 -0.16913323803895466
4403000000.0 0.998697801459596 -0.1704520664604312
4406000000.0 0.9913746408342151 -0.19858940531052977
4409000000.0 1.0128278999551021 -0.19117656206980901
4412000000.0 0.9700411715984727 -0.2402318764746638
4416000000.0 0.9781263324815501 -0.20272122961130448
4419000000.0 0.9894332980646265 -0.22662466132567444
4422000000.0 0.9862840591384723 -0.1930136138050133
4425000000.0 1.0099661821589154 -0.19979585743638295
4428000000.0 0.9762135457007167 -0.24566453880150677
4431000000.0 0.9879307515772571 -0.228080047545891
4434000000.0 0.9648977689154176 -0.25918865867964774
4438000000.0 1.0001116009003395 -0.2612679846688351
4441000000.0 0.9895246206118078 -0.27585428335806017
4444000000.0 0.9662924783769373 -0.2731836778477019
4447000000.0 0.9573820646193741 -0.300240461745055
4450000000.0 0.9478783281041258 -0.2682260201654335
4453000000.0 0.9819289538916065 -0.29839587326741157
4456000000.0 0.9187803563158322 -0.31493330896924177
4459000000.0 0.9116003856156703 -0.32480810078420064
4462000000.0 0.9999725064515157 -0.35803353013441197
4466000000.0 0.987845335085278 -0.3610211936673209
4469000000.0 0.9647336377262133 -0.32369517841665424
4472000000.0 0.958555000346851 -0.37513662729173525
4475000000.0 0.932480539797524 -0.3446790840112536
4478000000.0 0.9617985558374104 -0.38246103122788866
4481000000.0 0.9161386098104128 -0.3773114427084267
4484000000.0 0.9291207776989252 -0.4386532108754805
4488000000.0 0.9073668011370116 -0.40462020230890966
4491000000.0 0.9159824682570055 -0.4131285053263108
4494000000.0 0.9041262285162799 -0.40267816469844087
4497000000.0 0.9024207165617175 -0.3940237914281227
4500000000.0 0.9148097701317199 -0.4303921692706602
4503000000.0 0.95408771569504 -0.445818517903321
4506000000.0 0.9009040741883705 -0.4459114003032394
4509000000.0 0.8736828702619308 -0.4429599549038967
4512000000.0 0.8665017573608296 -0.4556027327753962
4516000000.0 0.8938907680395598 -0.4644283417516214
4519000000.0 0.8806649105938557 -0.4562199911788428
4522000000.0 0.8712259578592636 -0.4866527728513561
4525000000.0 0.9041707601096316 -0.4711276620647553
4528000000.0 0.9133109045516556 -0.5130023221809419
4531000000.0 0.8692961788806061 -0.4816698583725296
4534000000.0 0.8566076026935726 -0.5011297395862349
4538000000.0 0.8618001326117071 -0.5306659140144965
4541000000.0 0.833964328045992 -0.538299196477633
4544000000.0 0.8400238330210776 -0.5210235002438544
4547000000.0 0.8660720301425159 -0.5056555859749416
4550000000.0 0.8418838884506787 -0.5721017579612221
4553000000.0 0.8334303360851665 -0.5658358614067528
4556000000.0 0.8072094552648617 -0.5540613947032933
4559000000.0 0.8244662055032341 -0.581427850708911
4562000000.0 0.840669946788059 -0.5687773714173127
4566000000.0 0.8262420320952637 -0.5885557814639635
4569000000.0 0.7956649274515671 -0.5695289685163039
4572000000.0 0.7951404614385735 -0.5906301048554309
4575000000.0 0.7946219178919198 -0.6380931154472418
4578000000.0 0.8250611154800882 -0.6267201635096135
4581000000.0 0.7771275668420727 -0.6478609811456555
4584000000.0 0.7837053481579644 -0.6207661527483023
4588000000.0 0.8028775903332563 -0.6303194645959512
4591000000.0 0.776180325944863 -0.6310021483688943
4594000000.0 0.7542143392656919 -0.6676291547424497
4597000000.0 0.7785962042825876 -0.6638344408629048
4600000000.0 0.7280580991065498 -0.6776934820978936
4603000000.0 0.7587156029023066 -0.6829357575404884
4606000000.0 0.7556827587929188 -0.6812012418923759
4609000000.0 0.7462451062063232 -0.6857002915989443
4612000000.0 0.7431640559817523 -0.69990169408731
4616000000.0 0.7144927537726429 -0.6914078318338922
4619000000.0 0.7254008078460864 -0.6904679017604552
4622000000.0 0.7191972932394208 -0.7037731401241212
4625000000.0 0.6697925846771027 -0.7092528270609768
4628000000.0 0.7136792491785694 -0.7242324658151417
4631000000.0 0.6924898069986634 -0.7366111612625201
4634000000.0 0.6894254162945116 -0.7357145964749184
4638000000.0 0.6793781820250354 -0.7394813030783556
4641000000.0 0.694823459904223 -0.7520206602992106
4644000000.0 0.6722605434843628 -0.7592847133450547
4647000000.0 0.6772134092962967 -0.7560743005693351
4650000000.0 0.6458779371867116 -0.7524475901274897
4653000000.0 0.6734049231078407 -0.7712136510237896
4656000000.0 0.6398867838969879 -0.7848944357642218
4659000000.0 0.6379248839591901 -0.7693100204576092
4662000000.0 0.6297386544373095 -0.791254705412065
4666000000.0 0.600922736407789 -0.7878934091011424
4669000000.0 0.6544745269653238 -0.7844883035622282
4672000000.0 0.5955608433369668 -0.818856337585439
4675000000.0 0.5978646834264273 -0.8187739430164179
4678000000.0 0.592512154016047 -0.7872882010260271
4681000000.0 0.5666843089664492 -0.8431484789886299
4684000000.0 0.558359818170302 -0.8438992410974052
4688000000.0 0.5532604769623455 -0.8295889486185862
4691000000.0 0.5674992661809642 -0.8297374095306866
4694000000.0 0.5874512952187587 -0.8435367910047984
4697000000.0 0.5286927539129591 -0.8280383198773362
4700000000.0 0.5470650141558383 -0.8364921495967661
4703000000.0 0.5617828154725257 -0.8163142403028754
4706000000.0 0.5162396825062912 -0.8626419514017595
4709000000.0 0.5021972801285549 -0.8579026908905333
4712000000.0 0.5061396836159817 -0.858182035672081
4716000000.0 0.5020393240289283 -0.8862733301710763
4719000000.0 0.5155766082694799 -0.8793456562359718
4722000000.0 0.5162861668845113 -0.8618460400344259
4725000000.0 0.4719170170330338 -0.8594508885798703
4728000000.0 0.4804731121283565 -0.8989226305922031
4731000000.0 0.5013622187368426 -0.9233285918607859
4734000000.0 0.4802183586571845 -0.8830001368201603
4738000000.0 0.5002081624007255 -0.9267736991151531
4741000000.0 0.46835498419190114 -0.9347789932821252
4744000000.0 0.4429417978281986 -0.9202770778862451
4747000000.0 0.4495235383337921 -0.891785778686648
4750000000.0 0.42241799240990235 -0.9006835292725549
4753000000.0 0.44470332491515097 -0.931101425098844
4756000000.0 0.4015518149579553 -0.9205245276177723
4759000000.0 0.43531465336640557 -0.9421874767090921
4762000000.0 0.3842375003067915 -0.967438440244778
4766000000.0 0.38210298729365666 -0.9380105885318797
4769000000.0 0.3831724993943852 -0.9653787884248276
4772000000.0 0.3968067190247264 -0.9401837921544621
4775000000.0 0.36288598843983766 -1.008545629271635
4778000000.0 0.3641906977726215 -0.9581848216931804
4781000000.0 0.38058167442207197 -0.9364298811967433
4784000000.0 0.3436476278204113 -0.9212383812646697
4788000000.0 0.3256025914734437 -0.9564057134618678
4791000000.0 0.3014762329571731 -0.9455060578411266
4794000000.0 0.3421474493282528 -1.0054570020386493
4797000000.0 0.3105401661251596 -0.9687309582331788
4800000000.0 0.26690127747057946 -0.9684879322829134
4803000000.0 0.24905500655850502 -0.9840592314809204
4806000000.0 0.2726982001711076 -0.9826183168796903
4809000000.0 0.23829925641603947 -0.9771696269994278
4812000000.0 0.22811967752418497 -0.9821720985752622
4816000000.0 0.2851141343649788 -0.9574528020960213
4819000000.0 0.26539486661578093 -0.9951471924870077
4822000000.0 0.2729026614167177 -1.0259084881871636
4825000000.0 0.25399736378917515 -1.023655411094341
4828000000.0 0.2244248558951255 -1.0003455999498865
4831000000.0 0.1702807793294706 -1.0535494722282788
4834000000.0 0.21654468513991695 -1.0025026832789092
4838000000.0 0.20916434410417942 -1.0145513290199242
4841000000.0 0.17481357849988216 -0.9861731450543804
4844000000.0 0.2151665370466786 -0.9935325733568819
4847000000.0 0.2029524772761866 -0.9787560740181345
4850000000.0 0.17056487216783117 -1.0309820554708276
4853000000.0 0.1586220452745446 -0.9906438615126372
4856000000.0 0.15068825127662708 -1.0178974501410836
4859000000.0 0.12510580939768934 -1.0542523023721881
4862000000.0 0.14693823769229192 -0.9863405622071594
4866000000.0 0.10138715639282433 -1.0342792320842014
4869000000.0 0.08632253113831118 -1.0046771441408666
4872000000.0 0.0754507360963144 -1.0458200852287196
4875000000.0 0.1629278036015977 -1.0422438906043112
4878000000.0 0.08750687709339607 -1.0238374838778994
4881000000.0 0.04819280151827061 -1.089792369885365
4884000000.0 0.09039928203638803 -1.0245853738582986
4888000000.0 0.09220008159171098 -1.0215952907044796
4891000000.0 0.08796620967737956 -1.0572124013832778
4894000000.0 0.056834435325875655 -1.0140673217318485
4897000000.0 0.07156825823542935 -1.024425878426867
4900000000.0 0.03902011175487291 -1.0412338106226398
4903000000.0 0.03676864483997108 -1.039703963864599
4906000000.0 0.017489971330430933 -1.0774395304784148
4909000000.0 0.013309884297543175 -1.0097911081116646
4912000000.0 -0.0004843189680782678 -1.0701654783993357
4916000000.0 -0.020981711039203522 -1.0093401643264746
4919000000.0 0.03553288360267788 -1.0519111327970305
4922000000.0 0.010837858887628476 -1.042902166168491
4925000000.0 -0.08106254558247362 -1.0125720811284138
4928000000.0 0.02349251600790886 -1.0431494168456223
4931000000.0 -0.03495751323440768 -1.0449510454538142
4934000000.0 -0.034633203995445824 -0.9945243356178695
4938000000.0 -0.04798317692928185 -1.028867025500735
4941000000.0 -0.09192202588662939 -1.0204854829618575
4944000000.0 -0.03280820925238376 -0.9438361609389119
4947000000.0 -0.10920800966433725 -1.0211810303991842
4950000000.0 -0.11195146430262044 -0.981296553879612
4953000000.0 -0.1817959194041383 -1.0543974742432656
4956000000.0 -0.16387242882956338 -0.9963702711746423
4959000000.0 -0.1475990575574749 -0.9528243764770458
4962000000.0 -0.15576123541923845 -1.0284069762959342
4966000000.0 -0.08194908888570354 -1.0427817596668665
4969000000.0 -0.14544953138169653 -1.040555754438024
4972000000.0 -0.19017482416344186 -1.0107463081882293
4975000000.0 -0.1550412992758338 -0.9893644105804856
4978000000.0 -0.17887562327022855 -0.9913060014915869
4981000000.0 -0.2163534004432414 -1.0162019511688072
4984000000.0 -0.1534461430366114 -0.9826507998323535
4988000000.0 -0.20074734332138544 -0.9778283201668062
4991000000.0 -0.17350303691860386 -1.0460940657157431
4994000000.0 -0.19149441600877143 -0.9920946163490034
4997000000.0 -0.25861283647576955 -1.0196633070087524
5000000000.0 -0.21400637129949623 -1.029736334088263
5003000000.0 -0.22763970271076744 -1.038430434493166
5006000000.0 -0.26326221368756564 -1.0691259433104208
5009000000.0 -0.2533923225278022 -1.0045531551296687
5012000000.0 -0.2786174092329798 -1.0169369306510723
5016000000.0 -0.20375801783006786 -1.0454370751921185
5019000000.0 -0.2714795642854238 -0.9713240428850551
5022000000.0 -0.28645110677630914 -1.0408436047759495
5025000000.0 -0.31244897415921863 -1.0700057003398717
5028000000.0 -0.31599095438619373 -0.9978151856032846
5031000000.0 -0.3074437215042519 -0.9632321979181041
5034000000.0 -0.3394549757096953 -1.031945377239877
5038000000.0 -0.31056601358200797 -0.9483047740487818
5041000000.0 -0.31041891363878404 -0.9983331878788005
5044000000.0 -0.28081907353164104 -0.9642341201664301
5047000000.0 -0.2874968431214396 -1.0000562671068676
5050000000.0 -0.24785995284600068 -0.9698298725801013
5053000000.0 -0.38717492975190704 -1.0030854071349666
5056000000.0 -0.30319201619465286 -0.9961322948637008
5059000000.0 -0.35106048325552225 -0.9907478850233972
5062000000.0 -0.418875269749186 -0.979485360592985
5066000000.0 -0.3536071274630982 -0.9812312821646101
5069000000.0 -0.40538506582495104 -0.9850920003847111
5072000000.0 -0.3991626925578664 -0.9207359037617411
5075000000.0 -0.37103132348029044 -0.9765658733970775
5078000000.0 -0.42334446683937405 -0.9314040088452742
5081000000.0 -0.44151659286049855 -0.9277290866945401
5084000000.0 -0.426507934607152 -0.9930228376215899
5088000000.0 -0.4113434688602531 -0.9120141832287951
5091000000.0 -0.48978524911977156 -0.9340056129046417
5094000000.0 -0.4415570211151664 -0.8989754244553511
5097000000.0 -0.4433353221053632 -0.9426820149466608
5100000000.0 -0.4598963459741946 -0.9436469114793359
5103000000.0 -0.5133627049124911 -0.8868199467048411
5106000000.0 -0.4868369908894022 -0.9639684224571565
5109000000.0 -0.4377695148297293 -0.9332336382045694
5112000000.0 -0.5396517296929619 -0.8908005643628631
5116000000.0 -0.46750718579221606 -0.8232692305299315
5119000000.0 -0.5190235732455861 -0.8678969028418475
5122000000.0 -0.5025508626548258 -0.9424290405732179
5125000000.0 -0.469602493734052 -0.8769637030742907
5128000000.0 -0.5027922011720098 -0.8717136133575172
5131000000.0 -0.5493486867588601 -0.8560691962535248
5134000000.0 -0.5076679018742651 -0.8602298226641357
5138000000.0 -0.48680099925761855 -0.9031748944768867
5141000000.0 -0.5436224758589336 -0.9382815747714741
5144000000.0 -0.5491242170401424 -0.91228701083878
5147000000.0 -0.5630002153524708 -0.8709289043241928
5150000000.0 -0.5964605376748513 -0.8540893604164149
5153000000.0 -0.5898980117269894 -0.8680816872677315
5156000000.0 -0.6158692816758976 -0.8738248935891492
5159000000.0 -0.5899206146749323 -0.9012384430414825
5162000000.0 -0.6081430256586284 -0.792263914463328
5166000000.0 -0.6462442551271697 -0.8530317824020066
5169000000.0 -0.6401627085661914 -0.8802638100646124
5172000000.0 -0.6001351699719817 -0.8065371902904078
5175000000.0 -0.6345917354352658 -0.8515398078714572
5178000000.0 -0.6611558710588399 -0.8139293126462755
5181000000.0 -0.6179082285879781 -0.8639409324033227
5184000000.0 -0.626138588232765 -0.7855199412061554
5188000000.0 -0.6484119618830291 -0.7934270269980711
