! Created with skrf 1.8.0 (http://scikit-rf.org).
# Hz S RI R 50.0 
!freq ReS11 ImS11
4000000000.0 0.5931374354264378 0.8200320243210291
4003000000.0 0.6604766794781892 0.8776125715093629
4006000000.0 0.6407862768019784 0.7844492852925286
4009000000.0 0.6181781460292876 0.8098806192443996
4012000000.0 0.6192439102332354 0.845677613239493
4016000000.0 0.6905776494545752 0.7793925747307542
4019000000.0 0.6345718081674425 0.7560523785829741
4022000000.0 0.6306039012214937 0.8119356485042211
4025000000.0 0.7432642164052979 0.7292951963565165
4028000000.0 0.6864135407834184 0.7037838577667903
4031000000.0 0.6445284798766536 0.7095166437563358
4034000000.0 0.68233440509841 0.7124384135160463
4038000000.0 0.7299501563208777 0.7519441426704258
4041000000.0 0.7264221902219566 0.7751979482196643
4044000000.0 0.7787065893424996 0.776972497223845
4047000000.0 0.7309558448230601 0.7808937767976943
4050000000.0 0.7419572407625982 0.6948711997720065
4053000000.0 0.7556814897265595 0.7081884903010616
4056000000.0 0.7228344084038013 0.7179961505972452
4059000000.0 0.751895606745846 0.703647713130084
4062000000.0 0.7835175572199311 0.6541735105950142
4066000000.0 0.7265095561962138 0.6517118865836805
4069000000.0 0.8114955119057344 0.6860763260117756
4072000000.0 0.7368472260599004 0.7070023195171382
4075000000.0 0.7485368055386928 0.7150360281484534
4078000000.0 0.8485896658170411 0.6942441182412655
4081000000.0 0.7682727422316091 0.7213305279877776
4084000000.0 0.7935833029010922 0.6288213548451942
4088000000.0 0.7908291342636273 0.6794881358182367
4091000000.0 0.8847173104448165 0.679655963944819
4094000000.0 0.8304765801315876 0.6312473540610073
4097000000.0 0.8357364019587439 0.581918927201047
4100000000.0 0.8420100326768652 0.6324247806309464
4103000000.0 0.7901826624855923 0.6066246626578522
4106000000.0 0.8026987705159512 0.6060997673421022
4109000000.0 0.8151873102458305 0.5897602572482719
4112000000.0 0.8527886720309481 0.5659278417977145
4116000000.0 0.8585787755830874 0.5925812895201015
4119000000.0 0.8696468768794549 0.5695280011091094
4122000000.0 0.8791204522219458 0.5356170202960926
4125000000.0 0.8854663696245629 0.5482728857857628
4128000000.0 0.8185795256105668 0.5616616742161681
4131000000.0 0.8533603490851154 0.5165498566558455
4134000000.0 0.8195565127790763 0.5157444093960827
4138000000.0 0.8764670426355223 0.49769153136304395
4141000000.0 0.8861659671148201 0.4939579002469513
4144000000.0 0.8810650495521317 0.5348791988493264
4147000000.0 0.8899834310618752 0.4784293654309461
4150000000.0 0.92462086408636 0.5247361848073497
4153000000.0 0.8900234828890504 0.5144686216570086
4156000000.0 0.9067472365176559 0.524200602073747
4159000000.0 0.8725600101123112 0.4615486945112803
4162000000.0 0.8774967566275813 0.47824683915754873
4166000000.0 0.9248054612807044 0.4528992334113847
4169000000.0 0.9229766333951485 0.4320193610456847
4172000000.0 0.9246348949756069 0.46466302197152326
4175000000.0 0.9327598138660246 0.4494009662358563
4178000000.0 0.9468794285425197 0.43224810614848264
4181000000.0 0.9401157986335162 0.43579558963274223
4184000000.0 0.912007454098097 0.4289253242700957
4188000000.0 0.9557087134137772 0.4053003083130473
4191000000.0 0.9004775787523158 0.4224785675349155
4194000000.0 0.9349725140844987 0.3748897457022333
4197000000.0 0.9496535964224029 0.38814013054168645
4200000000.0 0.9589298164730318 0.40285861884738594
4203000000.0 0.9572079873129942 0.3855057699394153
4206000000.0 0.9609276246875227 0.3589045711142677
4209000000.0 0.9585072984319114 0.3575077181599405
4212000000.0 0.9731343161293193 0.3154426162569609
4216000000.0 0.9541340281357815 0.34311755706387465
4219000000.0 0.9742642753516831 0.35750481245998345
4222000000.0 0.9752798638498577 0.30827368487231904
4225000000.0 0.9409957611927953 0.32787630689584013
4228000000.0 0.9820012658664918 0.3111765856451746
4231000000.0 0.9656366983125216 0.28647278198857606
4234000000.0 0.9828877128556803 0.3025844423985033
4238000000.0 0.9830857997470955 0.27602404201985475
4241000000.0 0.9795576253413005 0.2644758637310037
4244000000.0 0.9780011067750554 0.2581529349125601
4247000000.0 0.9933148668693238 0.24697811086868
4250000000.0 0.961971012134391 0.23492251176667894
4253000000.0 0.9753161821462217 0.23375136865581442
4256000000.0 1.0039801335836158 0.22705772703867327
4259000000.0 0.9596591428534244 0.19791396806750208
4262000000.0 0.9952260871100838 0.21008539346289065
4266000000.0 1.025744784040157 0.2036835425521999
4269000000.0 0.9955385717295296 0.2043867184158609
4272000000.0 1.0018408703174382 0.18706151733500337
4275000000.0 1.0184782718880745 0.16924500194397035
4278000000.0 1.0127464668158435 0.18520321882373136
4281000000.0 1.0208929493183003 0.1833638002092916
4284000000.0 1.0224393725493557 0.13283255981251602
4288000000.0 1.0045309190486627 0.19816193837113208
4291000000.0 0.9901088589728807 0.12601587646589996
4294000000.0 0.9831070324571141 0.11712133120841973
4297000000.0 0.9662997066640323 0.15434354876117395
4300000000.0 0.9904057773755268 0.13654177987405644
4303000000.0 0.9729310609217784 0.0991570105930178
4306000000.0 0.996195947418801 0.1180592080720832
4309000000.0 0.9926889800709984 0.12570903674174644
4312000000.0 1.0291022366132436 0.12766604993448144
4316000000.0 1.0167413831833951 0.09501939074414838
4319000000.0 1.0028904221494277 0.07988462811210488
4322000000.0 0.9975261953123286 0.04580098741899043
4325000000.0 1.0001960869639146 0.06484767527629877
4328000000.0 0.99865650256633 0.03298435680617669
4331000000.0 1.0423996283229067 0.0039359575390633394
4334000000.0 1.017304416335045 0.029429666269584848
4338000000.0 1.0215684067027149 0.05286851071008865
4341000000.0 1.0255453013350675 0.03609090040416896
4344000000.0 1.0200739123910383 -0.0004368707642100622
4347000000.0 1.0104889541297928 -0.037790356933436686
4350000000.0 0.9682787857795104 -0.030731993051909753
4353000000.0 1.0003848361866505 -0.0006358333060612897
4356000000.0 1.0060236638306652 -0.05670429384611064
4359000000.0 0.9859141979995568 -0.043991147194675284
4362000000.0 1.0177139665828567 -0.09366403853791136
4366000000.0 1.0139684840800598 -0.05526869859722769
4369000000.0 0.9640432643428892 -0.060791125267031954
4372000000.0 1.0038272340958767 -0.13323064225489062
4375000000.0 1.0212127110996103 -0.08266354011527292
4378000000.0 0.9684932555426392 -0.090526911256275
4381000000.0 0.9910418057551247 -0.08702432313526541
4384000000.0 1.0720131767813654 -0.11880158456965746
4388000000.0 0.9866468594623186 -0.11132132354083428
4391000000.0 1.0077583494800075 -0.12632345706114767
4394000000.0 0.978132860765478 -0.1527781961366945
4397000000.0 0.9942850469257678 -0.14761815461930983
4400000000.0 1.0135331111053687 -0.17565322819263976
4403000000.0 0.9966787760219177 -0.170490925341785
4406000000.0 0.9989786608843176 -0.21218393853970613
4409000000.0 1.0258895028750445 -0.19245999455061447
4412000000.0 0.9669273152441924 -0.2466442944742694
4416000000.0 0.980759573383224 -0.21429795591374226
4419000000.0 0.9820871574270738 -0.24453869731750105
4422000000.0 0.9743688371807011 -0.2098801210188252
4425000000.0 1.0059444163680837 -0.2124823899930487
4428000000.0 0.9822660149533009 -0.22933725406062522
4431000000.0 0.9970280545633272 -0.24824759390839102
4434000000.0 0.9606054553287827 -0.2612000394654923
4438000000.0 0.9979178696519333 -0.2701559346098221
4441000000.0 0.9891392423775245 -0.27211519781018606
4444000000.0 0.9507047721242059 -0.27347988726494854
4447000000.0 0.9562235060783899 -0.3146056894653845
4450000000.0 0.9599502067270833 -0.27250998249862596
4453000000.0 0.9753823986811715 -0.3059097106310284
4456000000.0 0.9251260372257 -0.3214960984027063
4459000000.0 0.9127795343101819 -0.33341436645054245
4462000000.0 1.0007414749782826 -0.34477510654722265
4466000000.0 0.9846133334897786 -0.35350570967262035
4469000000.0 0.9565096033134236 -0.3231435001984621
4472000000.0 0.9720989441307438 -0.3774495675713785
4475000000.0 0.9086645602050989 -0.3563288840091492
4478000000.0 0.9773109794285312 -0.4063963851671649
4481000000.0 0.8991152931627701 -0.38633705932655293
4484000000.0 0.9152588191537421 -0.4248451014180191
4488000000.0 0.9145535260481076 -0.4054978636333165
4491000000.0 0.9231478663783436 -0.40876126732358953
4494000000.0 0.9120549321462806 -0.40182303243222406
4497000000.0 0.9089880681997367 -0.40142526335136436
4500000000.0 0.9078344044622655 -0.4143911401634968
4503000000.0 0.9145378068796794 -0.4478015113522799
4506000000.0 0.8909331310321364 -0.4535283742855437
4509000000.0 0.8675258786003555 -0.42508485115292516
4512000000.0 0.8759139284424831 -0.46942883834362925
4516000000.0 0.9197991662046423 -0.47644984888423964
4519000000.0 0.8855695962310314 -0.4451809553932554
4522000000.0 0.874623926938193 -0.48744493070523265
4525000000.0 0.8808646171438128 -0.4612586505854951
4528000000.0 0.9009069513704919 -0.5095687023817735
4531000000.0 0.8853836748316504 -0.47713536679737834
4534000000.0 0.8607090509540467 -0.48309093561059724
4538000000.0 0.8567465547668176 -0.5412528616581186
4541000000.0 0.827999348923943 -0.5634497314092753
4544000000.0 0.845912924019582 -0.5245154672267602
4547000000.0 0.8427190450705005 -0.5260011304823695
4550000000.0 0.8382543629089714 -0.5705295050826065
4553000000.0 0.836072355733813 -0.5818078572120018
4556000000.0 0.7976041160099017 -0.542146219635655
4559000000.0 0.82755090454408 -0.6019656450166622
4562000000.0 0.8434269178753975 -0.5709815006702434
4566000000.0 0.8193248483555404 -0.5913236089376919
4569000000.0 0.7814165144361963 -0.5881694975082583
4572000000.0 0.8068147742403652 -0.6117718793764937
4575000000.0 0.795313631956867 -0.6245474401698746
4578000000.0 0.8173853927633816 -0.6072987014246324
4581000000.0 0.7737086432695659 -0.626924455637506
4584000000.0 0.7833554921832162 -0.628726888343912
4588000000.0 0.7923846863424068 -0.6601075716165726
4591000000.0 0.7818880756184566 -0.622260825585114
4594000000.0 0.7559132345502813 -0.6609444065747776
4597000000.0 0.766780977853263 -0.677554271437268
4600000000.0 0.7261257743855289 -0.6745937801052037
4603000000.0 0.7437367864160204 -0.6877650976640556
4606000000.0 0.737424670397643 -0.6752871821755958
4609000000.0 0.7432245221296733 -0.6842207889862475
4612000000.0 0.727894879102554 -0.7005480504996254
4616000000.0 0.7230239112402801 -0.6945321019873727
4619000000.0 0.7180687445977944 -0.702140394544693
4622000000.0 0.7152140304097028 -0.7129113095578783
4625000000.0 0.657002977294974 -0.7110177893949368
4628000000.0 0.6952889679476657 -0.7282946848190069
4631000000.0 0.6861638654259472 -0.7428281371695598
4634000000.0 0.6752818205543211 -0.7296541442828965
4638000000.0 0.7006351202268424 -0.7499119669577348
4641000000.0 0.6762687132405204 -0.7374343576865231
4644000000.0 0.6512505825742494 -0.7437334013278792
4647000000.0 0.6628185409120502 -0.776521274111552
4650000000.0 0.6337718198081824 -0.7634368220224044
4653000000.0 0.6741199814161155 -0.7884854532753016
4656000000.0 0.6306251367790874 -0.7696497281602301
4659000000.0 0.6263350977347598 -0.7834310380010879
4662000000.0 0.6261937603292751 -0.8051812549373171
4666000000.0 0.5955551016416625 -0.7909073351127157
4669000000.0 0.6288978858487497 -0.8076520386250498
4672000000.0 0.5810289265114962 -0.8210591482965555
4675000000.0 0.5839444019993603 -0.8230962383715441
4678000000.0 0.5768947540072975 -0.8131100606426629
4681000000.0 0.5674421644750818 -0.8392061097519662
4684000000.0 0.5492873749868126 -0.8447802896272025
4688000000.0 0.5672208981526208 -0.8473871520333264
4691000000.0 0.5743089709080418 -0.8283461496369726
4694000000.0 0.5524331551076662 -0.8500632799625323
4697000000.0 0.5117441404546894 -0.841521945775515
4700000000.0 0.5527950823950921 -0.8539670801796986
4703000000.0 0.5498055560644728 -0.8268761568518097
4706000000.0 0.5191613997923927 -0.8862328199127897
4709000000.0 0.4848600211839994 -0.8611264851377906
4712000000.0 0.5189792353667577 -0.854999738333258
4716000000.0 0.49226046412739166 -0.8875043942927328
4719000000.0 0.5168679751899479 -0.8762201645094108
4722000000.0 0.5187739447268845 -0.8777798715501985
4725000000.0 0.4722592734012413 -0.8936009564036449
4728000000.0 0.47934341960212645 -0.8967841398389687
4731000000.0 0.5116070469707225 -0.9189648015302203
4734000000.0 0.47098425893530527 -0.8760220130288567
4738000000.0 0.49256039358294945 -0.9314867352057817
4741000000.0 0.4588345809368879 -0.9515070093420022
4744000000.0 0.4272051336488939 -0.9290963096158069
4747000000.0 0.430673646455819 -0.8984895575780035
4750000000.0 0.4437683780690165 -0.928711230088094
4753000000.0 0.41848960718517353 -0.9156870144751469
4756000000.0 0.4097875122231076 -0.935019638278419
4759000000.0 0.39912223040996425 -0.9139396496754427
4762000000.0 0.36336591684454933 -0.9506072754574671
4766000000.0 0.39236397155201336 -0.9400399268175287
4769000000.0 0.38609942105408773 -0.9759899242487126
4772000000.0 0.35849370677028797 -0.9580963090343765
4775000000.0 0.34783809100222884 -0.9930666655746712
4778000000.0 0.35530813746461953 -0.9636175532149135
4781000000.0 0.35721404427033127 -0.9574460500306718
4784000000.0 0.35181863999652213 -0.9460655338609475
4788000000.0 0.3239610789782538 -0.9783966064537808
4791000000.0 0.32906896321659496 -0.967896646064632
4794000000.0 0.33231806159423455 -0.9909792782478359
4797000000.0 0.2965629415693788 -0.9540615194910979
4800000000.0 0.3001205196700525 -0.9644871799883921
4803000000.0 0.2523942896146061 -0.9804741397693397
4806000000.0 0.2865271693646835 -1.0121836331052405
4809000000.0 0.24265872817596873 -0.9862178323187784
4812000000.0 0.21733480021086235 -0.971771447932122
4816000000.0 0.27021708837600683 -0.9573785038155576
4819000000.0 0.25423019151567816 -0.9892945260140285
4822000000.0 0.24285060454599997 -1.0162403507441102
4825000000.0 0.2706655881395537 -1.0085921536753109
4828000000.0 0.22646548618776952 -0.9798765822222061
4831000000.0 0.17378967036558526 -1.0291005060800378
4834000000.0 0.23337883551038646 -0.9992693136495945
4838000000.0 0.17866867270017114 -1.0162609045252207
4841000000.0 0.1869478104730354 -0.9766051592493002
4844000000.0 0.21840489563189638 -0.9916695590759447
4847000000.0 0.17882847858637158 -0.9713050950491839
4850000000.0 0.1502918318452436 -1.032135444445641
4853000000.0 0.162447113459058 -0.9922055039058899
4856000000.0 0.13656026167718677 -1.0013306785096467
4859000000.0 0.12543818465640955 -1.0436230983488968
4862000000.0 0.15692772818825446 -0.9911402385744416
4866000000.0 0.11985067741256705 -1.0325399675347842
4869000000.0 0.08158921548973236 -1.0208072249181948
4872000000.0 0.06640527154324452 -1.0156058257567997
4875000000.0 0.1295171409543336 -1.066999351516518
4878000000.0 0.07030135381427718 -1.0189047148779622
4881000000.0 0.04744126597677606 -1.0762849218144808
4884000000.0 0.08671122003135644 -1.0115916458391276
4888000000.0 0.0952399872043248 -1.017163544471248
4891000000.0 0.09634798064744753 -1.0309568639152125
4894000000.0 0.007974469293584491 -1.022813733397549
4897000000.0 0.07513350585726569 -1.0280949706930886
4900000000.0 0.04936770051233727 -1.0461476540321109
4903000000.0 0.024504948685125916 -1.0437354344329963
4906000000.0 0.0010575759720947465 -1.030017733866325
4909000000.0 -0.016921893491887906 -1.0520862994519167
4912000000.0 -0.03436193802158177 -1.058690789736679
4916000000.0 -0.0026127357640224197 -1.0401161531612808
4919000000.0 0.0059504749014555255 -1.0446696433748124
4922000000.0 -0.004901227560825158 -1.0585913739564632
4925000000.0 -0.07151657826748845 -1.0462062750837506
4928000000.0 0.02220651207165289 -1.0395105689236128
4931000000.0 -0.02799557426756709 -1.0709778736532667
4934000000.0 -0.07194986709490696 -0.9863118811114512
4938000000.0 -0.07135156187243795 -1.0367265755071864
4941000000.0 -0.05127672964468839 -0.9940293154227459
4944000000.0 -0.04349526724082592 -0.9619327723652331
4947000000.0 -0.08111182360784425 -0.9993272003031892
4950000000.0 -0.08636225090027398 -0.9996794408481848
4953000000.0 -0.14854384727724257 -1.0199293694656164
4956000000.0 -0.12346234869950778 -1.0243839297537851
4959000000.0 -0.15389276003358074 -0.9888060624103129
4962000000.0 -0.12978460383763887 -1.0498156998995074
4966000000.0 -0.13084564237719354 -1.0265313508408584
4969000000.0 -0.10350757909909136 -1.0699151858678424
4972000000.0 -0.18840730139214376 -1.021371657137522
4975000000.0 -0.16050269573604795 -1.0154412340509273
4978000000.0 -0.19868185359922685 -1.029254247620979
4981000000.0 -0.18340231687722722 -1.0370422473782126
4984000000.0 -0.1482631105864187 -0.992174132141265
4988000000.0 -0.18232074137304044 -1.0301388094627797
4991000000.0 -0.13586002393789864 -1.0149002582383402
4994000000.0 -0.20012658720590754 -0.9968264823301841
4997000000.0 -0.24022984323364377 -1.0240766840257949
5000000000.0 -0.24902357471108688 -1.0256633302294682
5003000000.0 -0.20588785582875524 -1.011912067917031
5006000000.0 -0.23337328491262663 -1.039390798630908
5009000000.0 -0.23961263113182632 -1.0237139914750373
5012000000.0 -0.27786158257179155 -1.0118368650488743
5016000000.0 -0.22683206111057092 -1.0311892635124005
5019000000.0 -0.30926027164457315 -0.9672925928370402
5022000000.0 -0.2936671399775319 -0.9866662634996235
5025000000.0 -0.3192759566199745 -1.0587373338332764
5028000000.0 -0.3528702859998982 -0.9673804081682236
5031000000.0 -0.33542745200764934 -0.9673730186494295
5034000000.0 -0.3648633554620515 -0.9903337715852474
5038000000.0 -0.34621570664650503 -0.9420556960753834
5041000000.0 -0.31918191380510963 -0.9772965908758732
5044000000.0 -0.29220563926179877 -0.9878598149630672
5047000000.0 -0.3405793282964716 -1.0067741574554754
5050000000.0 -0.25361529786598647 -0.9495835042491783
5053000000.0 -0.35903084580558764 -0.9716198021652738
5056000000.0 -0.35196494791034594 -0.9976172227194076
5059000000.0 -0.32273370010335617 -1.0076486823232442
5062000000.0 -0.3920154525990831 -0.9456724865201507
5066000000.0 -0.36243379893347216 -0.9955253010439304
5069000000.0 -0.39869997785625366 -0.9879398531738336
5072000000.0 -0.3782349075675375 -0.944751060589498
5075000000.0 -0.42441251739628816 -0.9907797378028356
5078000000.0 -0.4631820744629122 -0.897632682638174
5081000000.0 -0.4206852212132039 -0.9070599741208615
5084000000.0 -0.4702765426144423 -0.9624367897877741
5088000000.0 -0.4066193419102114 -0.908239317345441
5091000000.0 -0.49409192026552323 -0.9245718796821241
5094000000.0 -0.49571810340598216 -0.9404993042428499
5097000000.0 -0.40973016894151726 -0.9134486982986603
5100000000.0 -0.4771401495888972 -0.9004137807461955
5103000000.0 -0.5103850535517258 -0.9109582022275532
5106000000.0 -0.5055624879448664 -0.9669817433991252
5109000000.0 -0.46778746611986255 -0.8966015240476024
5112000000.0 -0.49578922517531204 -0.9074232325523452
5116000000.0 -0.5333252646560663 -0.819470405913372
5119000000.0 -0.5156950081422564 -0.9201776309828558
5122000000.0 -0.5024363207419535 -0.8381751083546563
5125000000.0 -0.4594391769054199 -0.8809719551239121
5128000000.0 -0.5279061309406845 -0.8912705926772584
5131000000.0 -0.5406085701973452 -0.8768955999486109
5134000000.0 -0.5140962525288679 -0.9136292867805142
5138000000.0 -0.5692521335259525 -0.9018110657587023
5141000000.0 -0.4725749164547708 -0.9049586016152293
5144000000.0 -0.5850559052593969 -0.8935227856855837
5147000000.0 -0.5808321215162034 -0.8647630435514964
5150000000.0 -0.5505937502926579 -0.885349958607362
5153000000.0 -0.6133253787691806 -0.8274087450714274
5156000000.0 -0.6103754962344621 -0.8646382374022311
5159000000.0 -0.5812456125379386 -0.8700660595157886
5162000000.0 -0.6211206424506834 -0.8142122578510387
5166000000.0 -0.6368904711488911 -0.8035949142638746
5169000000.0 -0.6531765794909576 -0.8211959261425918
5172000000.0 -0.6426515617098909 -0.8196300158902625
5175000000.0 -0.6601863392998485 -0.8512397756817912
5178000000.0 -0.6328644272112272 -0.8421524138565747
5181000000.0 -0.6417585452154002 -0.8294785997962572
5184000000.0 -0.6523860120695067 -0.8164722220632994
5188000000.0 -0.6255115961137228 -0.8118514162805641
