! Created with skrf 1.8.0 (http://scikit-rf.org).
# Hz S RI R 50.0 
!freq ReS11 ImS11
4000000000.0 0.7284177410723254 0.7044811989533526
4003000000.0 0.7454622796951598 0.7670673201761722
4006000000.0 0.7509432373082803 0.7082872763929827
4009000000.0 0.7392668782729936 0.7192005891795262
4012000000.0 0.7310337704311268 0.7385516628295693
4016000000.0 0.8077426309071764 0.6859843198954123
4019000000.0 0.7485850071161388 0.6982602490548083
4022000000.0 0.760190693412322 0.745043977784842
4025000000.0 0.81344984608266 0.6560621228633537
4028000000.0 0.8212120613538245 0.6791983917335456
4031000000.0 0.7542232216735572 0.6270485514254109
4034000000.0 0.7840844174303738 0.6522498475559935
4038000000.0 0.8110193378742113 0.6283505852031661
4041000000.0 0.7881276443284603 0.6628710480368665
4044000000.0 0.8447535431213609 0.6660806220160513
4047000000.0 0.8185539655662024 0.6357578922862024
4050000000.0 0.8306122557852437 0.6390789700171706
4053000000.0 0.8407128393278491 0.5829268982855382
4056000000.0 0.8543406253347124 0.6395509849103821
4059000000.0 0.8481676290537582 0.6097054244872584
4062000000.0 0.8324828597749638 0.6168902003836247
4066000000.0 0.786603649218965 0.5482553130086848
4069000000.0 0.8898065544140444 0.5556765644925641
4072000000.0 0.8787130570829864 0.6009953415286797
4075000000.0 0.9060508908359431 0.6046274992509988
4078000000.0 0.8741186264775387 0.5335948890122885
4081000000.0 0.7958645034777605 0.5996037530039017
4084000000.0 0.8753603082763934 0.5330250354439163
4088000000.0 0.8815711890525549 0.5759652193365883
4091000000.0 0.9416066488171789 0.5657308333300772
4094000000.0 0.8911938325617523 0.522426338045465
4097000000.0 0.8840878749135247 0.5260909576940185
4100000000.0 0.8788721453635938 0.4743266470121749
4103000000.0 0.9531631978711812 0.5153688538233583
4106000000.0 0.9357239373653321 0.490911253549541
4109000000.0 0.9150446372058043 0.43445972549683304
4112000000.0 0.9226441140656376 0.4584674879778982
4116000000.0 0.9199054099655553 0.4601022799745248
4119000000.0 0.9276612895358458 0.45436798342757023
4122000000.0 0.9483520523801111 0.4367032734525237
4125000000.0 0.9632362724823943 0.42890564824066274
4128000000.0 0.9287705165172029 0.4358355863994189
4131000000.0 0.9701369456300613 0.36142937007269893
4134000000.0 0.9254879385938853 0.43014380298439303
4138000000.0 0.9380881557029714 0.3682001577293736
4141000000.0 0.9460281659945843 0.3748344747688145
4144000000.0 0.9628280230620373 0.3929074589232994
4147000000.0 0.9350664518104166 0.35705898369089545
4150000000.0 0.9843563610886894 0.3804256591925946
4153000000.0 0.968080047466589 0.331921632148946
4156000000.0 0.9739769298491667 0.3681114739252672
4159000000.0 0.9293635582879216 0.3444268978144763
4162000000.0 0.9444742229293899 0.35943346085776606
4166000000.0 0.9759424329072461 0.3110975486304466
4169000000.0 0.9746857450813304 0.2888748168258346
4172000000.0 0.9539737296109427 0.31457178149365367
4175000000.0 0.994843002040967 0.2765654232167814
4178000000.0 0.9809174415714783 0.2880780768507386
4181000000.0 0.9660921320320537 0.2898055360478533
4184000000.0 0.9610767172759387 0.2839192526660868
4188000000.0 0.9863543290772139 0.25234748597033774
4191000000.0 0.9956777588734042 0.2749188380575546
4194000000.0 0.9927266118576453 0.25045659272941456
4197000000.0 1.0103672722140882 0.2636304171802449
4200000000.0 0.9886380326269952 0.26409101656462053
4203000000.0 0.9928695331190704 0.2546318604658403
4206000000.0 1.0068835611218447 0.21762398292673285
4209000000.0 1.0037432912356172 0.2011180740509057
4212000000.0 1.007501885783 0.16548561493006297
4216000000.0 1.014069806990309 0.2119216618954478
4219000000.0 1.023586572377821 0.1836223703138337
4222000000.0 0.9997508068027352 0.1755484987689802
4225000000.0 0.9941763698127613 0.16147523975366027
4228000000.0 1.0095527202886627 0.15325048548885642
4231000000.0 1.0190148176179363 0.1490449258957402
4234000000.0 1.0302291220902855 0.1401924927243383
4238000000.0 1.0094333477720698 0.1027010388576822
4241000000.0 1.0106065640422353 0.10954225936405376
4244000000.0 1.0045625134916165 0.11536723549852418
4247000000.0 1.0185628454155906 0.1030188009000941
4250000000.0 0.9970468409775122 0.06437119070136582
4253000000.0 0.9864799764430792 0.058625599537300704
4256000000.0 1.025761502090407 0.08241409042556361
4259000000.0 0.9844876839170918 0.04904011818822429
4262000000.0 1.0241557705607263 0.03161022232862684
4266000000.0 1.0333788027900457 0.022448121938185878
4269000000.0 1.0166230868540682 0.060642298864541005
4272000000.0 1.0091549158449733 0.029938669149858294
4275000000.0 1.01714005561496 0.03344167305216447
4278000000.0 1.035420540325801 0.02423396803726019
4281000000.0 1.0339164998091015 0.0044145993007703305
4284000000.0 1.0344341464882847 -0.04626874867791615
4288000000.0 1.0101342077184317 0.0009299228762487122
4291000000.0 0.9862254507332541 -0.024572760043810607
4294000000.0 0.9936480204575637 -0.04597125741648636
4297000000.0 1.0068582733858862 -0.026421878560789723
4300000000.0 0.9895209151388387 -0.03410039818478269
4303000000.0 1.0042322000626762 -0.0813048883050964
4306000000.0 1.0100875179298796 -0.04703538199803893
4309000000.0 1.0101322973629492 -0.06386324519046349
4312000000.0 1.022823421054828 -0.04557036603509773
4316000000.0 1.018750777831047 -0.098898063182466
4319000000.0 0.9877285005881816 -0.0874647179557667
4322000000.0 0.9759362085372929 -0.14149799585443523
4325000000.0 1.01370247809765 -0.1242324327834427
4328000000.0 0.9794541143105923 -0.12948712913459198
4331000000.0 1.017126401051191 -0.18861440686570452
4334000000.0 1.0095322227791281 -0.1395680554784775
4338000000.0 0.9957719790544657 -0.1588856961843011
4341000000.0 1.0269067182367793 -0.14237312363069135
4344000000.0 1.0245358231490322 -0.17367908796332784
4347000000.0 0.981664261189473 -0.20073578363181402
4350000000.0 0.9562865495101168 -0.2154127840773119
4353000000.0 0.9797479720188187 -0.18220967438881366
4356000000.0 0.961421395403797 -0.24463150168006348
4359000000.0 0.9397209159409203 -0.209068108125344
4362000000.0 0.9728738684647953 -0.2911019672810304
4366000000.0 0.9949531677071219 -0.2768101523075136
4369000000.0 0.9386464224195089 -0.2591972165902188
4372000000.0 0.9632123969521675 -0.3038975431163514
4375000000.0 0.9639981894406007 -0.25265217161099474
4378000000.0 0.9440713579780895 -0.27311845092501935
4381000000.0 0.9512263491356592 -0.27599840570344514
4384000000.0 1.0114652722584019 -0.3300747364899293
4388000000.0 0.9428173052925091 -0.30313039580300344
4391000000.0 0.9750768816260584 -0.3090379044583228
4394000000.0 0.9296402535583265 -0.33376058269761455
4397000000.0 0.9557579504199112 -0.34858093209974267
4400000000.0 0.9677471407841209 -0.3557362337754494
4403000000.0 0.9653426424601548 -0.3529253325925322
4406000000.0 0.9368486993003455 -0.39209161726308384
4409000000.0 0.9633558663103583 -0.4034353015802948
4412000000.0 0.9276850041292141 -0.42344384561535753
4416000000.0 0.9168772270340355 -0.39106071700193595
4419000000.0 0.9270096167944063 -0.4169045155681119
4422000000.0 0.9292793104648662 -0.38109231547371936
4425000000.0 0.9465601958393659 -0.40685079680573016
4428000000.0 0.9188959386798247 -0.4380108302070675
4431000000.0 0.9455621897828697 -0.44017860660616265
4434000000.0 0.9067069056499499 -0.45060384353812444
4438000000.0 0.9331028558271468 -0.45257721542264695
4441000000.0 0.9159835599003561 -0.46616128863477063
4444000000.0 0.8891242342922201 -0.45246197310152325
4447000000.0 0.8848303738028318 -0.4812258673588367
4450000000.0 0.8776426492608513 -0.47793391419199893
4453000000.0 0.9073796440489992 -0.5139740999191285
4456000000.0 0.8461992724678279 -0.4908469209041991
4459000000.0 0.8228816768943636 -0.5073635008088843
4462000000.0 0.9050591820387974 -0.568258806107163
4466000000.0 0.8875334978862139 -0.5592469784096238
4469000000.0 0.865022940016783 -0.535056188363312
4472000000.0 0.8630065879035593 -0.5844659435152679
4475000000.0 0.83362364017967 -0.5310183259158364
4478000000.0 0.869104327569273 -0.5765586340322356
4481000000.0 0.8071997423714001 -0.5711640054595147
4484000000.0 0.7964104201631992 -0.6126822824989865
4488000000.0 0.7932809209799665 -0.6036526712185246
4491000000.0 0.8205959549198845 -0.6023684021750827
4494000000.0 0.7994784347061075 -0.5869132102778531
4497000000.0 0.7980048634944097 -0.5943695432833497
4500000000.0 0.8053732379929577 -0.6123691329251282
4503000000.0 0.8334524828261534 -0.6397598405674256
4506000000.0 0.7747761296072854 -0.6557336422995607
4509000000.0 0.7639090022062922 -0.6382062309676688
4512000000.0 0.7510526079916907 -0.6529977794761503
4516000000.0 0.7933221813108494 -0.6724780885102252
4519000000.0 0.7477008050740477 -0.636111715254648
4522000000.0 0.7387298576272234 -0.6975019852885767
4525000000.0 0.7769877358585304 -0.6315476716248705
4528000000.0 0.7602374675929415 -0.7032686806022945
4531000000.0 0.7491812054839191 -0.6944190970488027
4534000000.0 0.7125446854236579 -0.7040413909174638
4538000000.0 0.7253083137253786 -0.7000714365661831
4541000000.0 0.6828495146077569 -0.7298220177533624
4544000000.0 0.7122483323056965 -0.7028786537737347
4547000000.0 0.7032416962293732 -0.7095630497061349
4550000000.0 0.6926558709640329 -0.7613287314256056
4553000000.0 0.6756331463606842 -0.7525321402288456
4556000000.0 0.6627427006829338 -0.7506667979715648
4559000000.0 0.6591940480732057 -0.772275217459018
4562000000.0 0.6830275952169254 -0.7569803524358366
4566000000.0 0.6462942121540048 -0.7816066723628536
4569000000.0 0.648775638705284 -0.789308722737531
4572000000.0 0.6580245783321523 -0.7710275992679334
4575000000.0 0.6268608309330628 -0.798770597140016
4578000000.0 0.6536144617539075 -0.8119225710851837
4581000000.0 0.6005341920390781 -0.7924760508847398
4584000000.0 0.6071496913528797 -0.804775474008275
4588000000.0 0.6153476642327294 -0.8121190885191822
4591000000.0 0.6174358523706761 -0.8199614233383329
4594000000.0 0.5836953978125542 -0.8131522269932693
4597000000.0 0.5930802730267686 -0.8569615732263894
4600000000.0 0.566474293247083 -0.8331689456814568
4603000000.0 0.5572130899011726 -0.8524660771865699
4606000000.0 0.5726917989346642 -0.8447182662704624
4609000000.0 0.5628382926516513 -0.854697387348044
4612000000.0 0.5475496662145357 -0.8559310184972315
4616000000.0 0.5185420271018629 -0.868598300153433
4619000000.0 0.5292855427115868 -0.8797449325202293
4622000000.0 0.5087069106430151 -0.886588504313255
4625000000.0 0.4912324060060874 -0.8726743157568404
4628000000.0 0.5271766144393448 -0.8884187004014876
4631000000.0 0.4848296608454214 -0.8743366068214787
4634000000.0 0.4836897160565021 -0.8952905933067093
4638000000.0 0.47320001550149504 -0.9014338953245231
4641000000.0 0.46479422936583825 -0.8823857170844163
4644000000.0 0.4537377965489281 -0.8975056585819773
4647000000.0 0.4629270671213691 -0.9136913417118429
4650000000.0 0.4209017966836829 -0.9114173352743977
4653000000.0 0.43069468065410504 -0.9151154520853763
4656000000.0 0.4167981038213311 -0.9086877270827334
4659000000.0 0.40446216746723773 -0.9389449548728784
4662000000.0 0.4023856774378856 -0.9560560690476613
4666000000.0 0.38402753817006274 -0.9428889666449634
4669000000.0 0.37560020877006456 -0.9208277098069415
4672000000.0 0.3548435196147506 -0.975318106363538
4675000000.0 0.3396909374902014 -0.9780322465784189
4678000000.0 0.3654901371997621 -0.932098735326522
4681000000.0 0.3298666171795551 -0.9642837149919112
4684000000.0 0.3178060268712188 -0.9914882401192038
4688000000.0 0.34268226900950516 -0.9739099694157848
4691000000.0 0.35929325997606265 -0.9852431530102652
4694000000.0 0.30812760406471507 -0.9541451383258268
4697000000.0 0.2510367324834215 -0.9408831654024965
4700000000.0 0.2820406155811167 -0.9816638048593618
4703000000.0 0.3346165300031858 -0.9290192204441765
4706000000.0 0.2790553787160639 -0.9981225713639809
4709000000.0 0.24046551258301396 -0.9623665411701956
4712000000.0 0.2735966073492079 -0.9833132332630928
4716000000.0 0.242680268577778 -1.0110343851508228
4719000000.0 0.2774241735916398 -1.0025008119720864
4722000000.0 0.22236520788261327 -0.9635574651728804
4725000000.0 0.2259783547642991 -0.9985113829388208
4728000000.0 0.21289992802725616 -0.985321347034767
4731000000.0 0.2126273556954376 -1.0557984186236178
4734000000.0 0.20785748012270577 -0.98538996491283
4738000000.0 0.2365926305467005 -1.079319517539292
4741000000.0 0.14074966863494343 -1.0377366263877206
4744000000.0 0.13809816023516625 -0.9985934907823004
4747000000.0 0.16410779037043638 -0.9941078722021042
4750000000.0 0.13824969100310447 -1.0128180345716284
4753000000.0 0.14731438661341026 -1.0152012066528975
4756000000.0 0.14158460276394605 -1.0151272142830634
4759000000.0 0.11845087481186511 -1.0307323831044934
4762000000.0 0.09039419145911881 -1.0617081537070268
4766000000.0 0.05116649525205477 -1.0043548980393069
4769000000.0 0.10055045296172052 -1.0365356844896079
4772000000.0 0.09290275109662305 -1.0227770145527428
4775000000.0 0.014815046034589524 -1.067566978111049
4778000000.0 0.05299426797385709 -1.056901932403764
4781000000.0 0.055745409764347637 -1.0056960549075151
4784000000.0 0.0653439034020015 -1.024750601174506
4788000000.0 0.015083796030776642 -1.0256613740927314
4791000000.0 0.012400041854534971 -1.0071559515751984
4794000000.0 0.04497650572768494 -1.051329537642349
4797000000.0 0.004935819870747649 -1.0067798663662428
4800000000.0 -0.024990745162650402 -1.0139337930425794
4803000000.0 -0.05450735803197734 -1.021121692651874
4806000000.0 -0.0453326019245788 -1.048359173829781
4809000000.0 -0.09885260773421822 -1.025539121305975
4812000000.0 -0.0888268103664292 -1.005762161960897
4816000000.0 -0.05844825701768358 -1.0006514637820667
4819000000.0 -0.06845866319809185 -1.050283721949152
4822000000.0 -0.05306714713849106 -1.0643509977170325
4825000000.0 -0.06738823918050801 -1.0510062789433654
4828000000.0 -0.08696192744035786 -1.0323331685372708
4831000000.0 -0.1603229818843041 -1.0141542752992136
4834000000.0 -0.08991179974366642 -1.0369512709083584
4838000000.0 -0.15771090185168124 -1.046683116973131
4841000000.0 -0.1235953962506972 -1.0123557520120032
4844000000.0 -0.12458954473622141 -1.0256707328682733
4847000000.0 -0.11874342283099276 -0.9741146629372837
4850000000.0 -0.21284435802939916 -1.0403815373000975
4853000000.0 -0.16831433636940832 -1.0003623752730477
4856000000.0 -0.20078609584521595 -0.9848007361727183
4859000000.0 -0.21716735558644415 -1.0736941338071841
4862000000.0 -0.18166123248285548 -0.9918499547857381
4866000000.0 -0.2531290407856601 -1.0034726319888274
4869000000.0 -0.2297289389496495 -1.0203337100706926
4872000000.0 -0.2702156381301281 -1.034711276896598
4875000000.0 -0.20916420285913429 -1.0476975505129147
4878000000.0 -0.2720805458849966 -1.0032555133246528
4881000000.0 -0.3077558262672305 -1.0360427039108717
4884000000.0 -0.2196898166837365 -1.0145529593997975
4888000000.0 -0.25511470311584433 -1.0035392179347045
4891000000.0 -0.2691715974991644 -0.9921012519484036
4894000000.0 -0.28028041098311546 -0.9931550489761362
4897000000.0 -0.27275775912861766 -0.9852051169183412
4900000000.0 -0.30792852349090294 -1.0165341398619463
4903000000.0 -0.29869641871191366 -1.0267032559805056
4906000000.0 -0.34566889218228747 -0.9999534564013137
4909000000.0 -0.35793417454901366 -0.9971243456317571
4912000000.0 -0.37571027072113267 -0.9941072241171586
4916000000.0 -0.3785724932015471 -0.9830825826076954
4919000000.0 -0.34056932957522795 -1.040562339594157
4922000000.0 -0.31082307129214737 -0.9974976231364537
4925000000.0 -0.4150773962725559 -0.9464156613367373
4928000000.0 -0.3411392500640134 -0.9296267973518655
4931000000.0 -0.3732204147283695 -0.9866795836983042
4934000000.0 -0.4115033575993003 -0.9527332321556264
4938000000.0 -0.4791262757422962 -0.9371260963998923
4941000000.0 -0.42047028775427275 -0.9317298170946954
4944000000.0 -0.3993112420118169 -0.9299706634190532
4947000000.0 -0.43905001048901493 -0.8856153376889924
4950000000.0 -0.4797328662357694 -0.9554135794530711
4953000000.0 -0.5377098175088179 -0.9510473910255466
4956000000.0 -0.5231386238908693 -0.9469400622910782
4959000000.0 -0.47865257317096 -0.8703666380655563
4962000000.0 -0.518048051073038 -0.9217913429131118
4966000000.0 -0.5116105969586541 -0.9245807166065748
4969000000.0 -0.525308873121036 -0.950619138703818
4972000000.0 -0.5337348177174811 -0.8764651153921872
4975000000.0 -0.497705929046525 -0.9157163375840915
4978000000.0 -0.5695329449063369 -0.8485593265316489
4981000000.0 -0.5855413402842988 -0.889562495672698
4984000000.0 -0.5546848606235817 -0.8460857314129049
4988000000.0 -0.5383271545560167 -0.8884032247414059
4991000000.0 -0.5290728993828273 -0.9241356483830064
4994000000.0 -0.5653342619420476 -0.8561224910000752
4997000000.0 -0.6034837303457046 -0.829528477280518
5000000000.0 -0.5720206322961804 -0.8904948843538951
5003000000.0 -0.6051734502101169 -0.8696435453749691
5006000000.0 -0.6453544121178104 -0.8703509708371598
5009000000.0 -0.6291582664111547 -0.8297121027688925
5012000000.0 -0.6537518608244026 -0.816292329317597
5016000000.0 -0.6062410034494259 -0.872913425915996
5019000000.0 -0.6350375442206714 -0.8283091109234108
5022000000.0 -0.6434112434020829 -0.807158661486657
5025000000.0 -0.7092629073793393 -0.8436959192671476
5028000000.0 -0.6733424958155586 -0.7733633385275674
5031000000.0 -0.6984723101696854 -0.7778136254762467
5034000000.0 -0.7563187061032575 -0.7904180315086311
5038000000.0 -0.7331533799669578 -0.7432360566851164
5041000000.0 -0.6808997524808147 -0.7780180784359488
5044000000.0 -0.6838359529065632 -0.769319942547317
5047000000.0 -0.6993569137303015 -0.7555485963204829
5050000000.0 -0.6909974125103671 -0.7774016538068678
5053000000.0 -0.7639245406572913 -0.7660976627230949
5056000000.0 -0.7011037318714457 -0.7658040811158479
5059000000.0 -0.7570959162234461 -0.7205315896330695
5062000000.0 -0.8020717506249352 -0.6990652982115155
5066000000.0 -0.7640279150627243 -0.7446546798006275
5069000000.0 -0.7707551948086746 -0.7219901465543359
5072000000.0 -0.7516488370347238 -0.7345700009935092
5075000000.0 -0.7204715898119104 -0.7226432795886564
5078000000.0 -0.7802888205200673 -0.7119211385248941
5081000000.0 -0.7612191994725499 -0.6770949611540862
5084000000.0 -0.8070383707585852 -0.6588137923148032
5088000000.0 -0.7863446164139806 -0.6940655010534063
5091000000.0 -0.8230783749662838 -0.6222860153641827
5094000000.0 -0.8600313567070225 -0.6176106574237302
5097000000.0 -0.7958701727127298 -0.6402709454063054
5100000000.0 -0.8217873934139539 -0.6307780652317032
5103000000.0 -0.9089820739927388 -0.619572690774144
5106000000.0 -0.7921938561662301 -0.6421725768845491
5109000000.0 -0.8243446150433897 -0.6558407647872166
5112000000.0 -0.8403792950260458 -0.5403726974093497
5116000000.0 -0.8581853996623707 -0.6076396992052688
5119000000.0 -0.9172943527470138 -0.5100354941053342
5122000000.0 -0.8631866894021779 -0.531212900709024
5125000000.0 -0.8238218806606992 -0.6132674424022669
5128000000.0 -0.9328295663746755 -0.5561338160104887
5131000000.0 -0.9281104630067436 -0.5694055614064029
5134000000.0 -0.9172881113390237 -0.5008249826553457
5138000000.0 -0.884705718447571 -0.5500909810793297
5141000000.0 -0.9143071547294757 -0.5301973411785623
5144000000.0 -0.8861131462884811 -0.50325234577889
5147000000.0 -0.9601022962505296 -0.49356065363598806
5150000000.0 -0.917741492996655 -0.5161530683113432
5153000000.0 -0.9725926328728332 -0.520089068416046
5156000000.0 -0.9306954959028138 -0.4525236761684666
5159000000.0 -0.9324882882945796 -0.4489834786990715
5162000000.0 -0.9576802772934647 -0.42509153934658633
5166000000.0 -0.9551816296110575 -0.44993673496832076
5169000000.0 -0.9797420706785156 -0.4199908723509791
5172000000.0 -0.9396666028640854 -0.43175420678141135
5175000000.0 -0.971320791410458 -0.42772000443867253
5178000000.0 -0.9895363227297618 -0.4284639366465448
5181000000.0 -0.9774257117080875 -0.3943162262771928
5184000000.0 -0.953766666020272 -0.4186147629748034
5188000000.0 -1.0191246268024905 -0.36082127408767306
