! Created with skrf 1.8.0 (http://scikit-rf.org).
# Hz S RI R 50.0 
!freq ReS11 ImS11
4000000000.0 0.7789305826934648 0.7198158952720219
4003000000.0 0.8017612330743391 0.7000038873875319
4006000000.0 0.804268997704901 0.650045726935992
4009000000.0 0.7757560681832292 0.6863450713895453
4012000000.0 0.778349264281353 0.6887170513847536
4016000000.0 0.828022831631488 0.6146573543241298
4019000000.0 0.8154859245866435 0.6283959662242283
4022000000.0 0.7877954569861314 0.6964443847356441
4025000000.0 0.8571651534131439 0.6087831779192107
4028000000.0 0.833001237740526 0.6526952198433986
4031000000.0 0.7717683264689988 0.6014103933714758
4034000000.0 0.7698645192858844 0.5942144396140937
4038000000.0 0.8338113308255445 0.6033610250800011
4041000000.0 0.8271683099599945 0.5770694911202802
4044000000.0 0.9095653835768693 0.586172910769777
4047000000.0 0.8636320182491428 0.6118838420905492
4050000000.0 0.8822767055147827 0.5695028730942725
4053000000.0 0.8416129774372602 0.5244478567793296
4056000000.0 0.8465499380615275 0.5399007006734357
4059000000.0 0.8683852042570018 0.5518005601362521
4062000000.0 0.8755336045313128 0.5377135006826121
4066000000.0 0.8491085621354535 0.48183745640025133
4069000000.0 0.9121867639387727 0.5238178498201023
4072000000.0 0.880441092439232 0.5559927477433231
4075000000.0 0.9317544118552304 0.5235944054078254
4078000000.0 0.9390704082477582 0.48301110757156973
4081000000.0 0.892344285522767 0.5453252421709847
4084000000.0 0.9051316621725907 0.45153546607735834
4088000000.0 0.9207737927369234 0.5348462357413176
4091000000.0 0.957088513772974 0.5291125114293844
4094000000.0 0.9084185135078701 0.4940005128542243
4097000000.0 0.939242164209325 0.46512468911888444
4100000000.0 0.929919997544481 0.42729312882221954
4103000000.0 0.9484669268610395 0.4473466344206119
4106000000.0 0.9368737950965668 0.3874092861730508
4109000000.0 0.9644589793425093 0.39234527222240717
4112000000.0 0.9399050784830256 0.4285564271896028
4116000000.0 0.9415127811433717 0.4084836361182209
4119000000.0 0.9720634969607388 0.3913262961684191
4122000000.0 0.9822279953331555 0.3427185287858814
4125000000.0 0.9836500710951798 0.37683733204134723
4128000000.0 0.9149667362018449 0.3633554923390693
4131000000.0 0.9485306831775057 0.34367343333007283
4134000000.0 0.9298783159405649 0.34471512262596926
4138000000.0 0.9636229520154493 0.3181539514649025
4141000000.0 0.9714459235603039 0.33101729865242535
4144000000.0 0.9730259301677066 0.3444033435420792
4147000000.0 0.9876135491241889 0.2792483426283188
4150000000.0 1.0101634957440342 0.3106280499309569
4153000000.0 0.9735000759832646 0.30845118395797055
4156000000.0 0.9900005058103596 0.30795764572664364
4159000000.0 0.969244623127774 0.2722014346157609
4162000000.0 0.9887634820452886 0.2831273297007071
4166000000.0 1.0037746147704727 0.23715322383333526
4169000000.0 0.9950989788402955 0.21340892096219277
4172000000.0 0.9668664239347295 0.25111860899073896
4175000000.0 0.9891139678905291 0.25368405469461935
4178000000.0 1.0083530782423344 0.2251826642872502
4181000000.0 0.9924224095905763 0.21092032033023178
4184000000.0 0.978277423873311 0.20579648663407812
4188000000.0 0.993591247036083 0.19760246747103483
4191000000.0 0.9634805037324896 0.21468347706215235
4194000000.0 0.99177029291172 0.17819438007353977
4197000000.0 1.0116062375538353 0.19286094233397466
4200000000.0 1.0099473136794346 0.19051624248572335
4203000000.0 1.023547045473728 0.1764004110927035
4206000000.0 1.034811047232321 0.14583560549784524
4209000000.0 0.9959919146735271 0.1426214954439431
4212000000.0 1.0048754517725742 0.10474197376978617
4216000000.0 1.022382285475195 0.13994490481758243
4219000000.0 1.0239503420369118 0.10876354773257893
4222000000.0 1.0053864549237057 0.09133803388405692
4225000000.0 0.9937606118566369 0.09833107418388018
4228000000.0 1.0135819339602024 0.09113692697990436
4231000000.0 1.0217628451512906 0.05940214816851752
4234000000.0 1.0292261086117158 0.052144826690082136
4238000000.0 1.0189102669523766 0.04454355304072566
4241000000.0 1.0051902020640644 0.027890298525109714
4244000000.0 1.010809294304224 0.033453675853770015
4247000000.0 1.0002792982617101 0.02590639454428656
4250000000.0 0.989001873625815 0.017124317290968777
4253000000.0 0.9927800452049071 -0.00941017833635402
4256000000.0 1.0412034066038944 -0.02489664127242759
4259000000.0 0.9809003509661415 -0.027110915062844285
4262000000.0 1.0087643144574887 -0.04074439770270484
4266000000.0 1.0008802662802487 -0.06961510275809274
4269000000.0 0.9954312942134569 -0.036607880058586395
4272000000.0 1.0211419359548404 -0.04239864493652248
4275000000.0 1.0009923190219754 -0.0626053226307133
4278000000.0 1.0323810409507415 -0.06868508409268385
4281000000.0 1.0015484131208867 -0.06956577207543217
4284000000.0 0.9982811078792173 -0.1361026407851097
4288000000.0 1.0110893457410233 -0.08172998256587166
4291000000.0 0.9895363923885256 -0.09514522387649202
4294000000.0 0.9994242870825492 -0.132085573406189
4297000000.0 1.002777150361311 -0.09874723631832147
4300000000.0 0.9672304281461375 -0.11582191029101098
4303000000.0 0.9745305358940908 -0.1782093496873092
4306000000.0 0.9899543947100423 -0.11846749201352527
4309000000.0 0.995630781849372 -0.15076073343715557
4312000000.0 1.008986207964359 -0.1545327717016587
4316000000.0 0.9949894348988316 -0.1769449517870108
4319000000.0 0.9662553196477414 -0.18347163065983435
4322000000.0 0.9716401163125958 -0.21892465708031786
4325000000.0 0.9859915795921098 -0.2106496414268177
4328000000.0 0.9586363018995336 -0.2299224884444223
4331000000.0 0.993377228692899 -0.257613083825284
4334000000.0 0.9884054514733485 -0.2670749855369101
4338000000.0 0.9819886932229736 -0.23563817258417308
4341000000.0 0.9905958588889788 -0.2261295638045076
4344000000.0 0.9809120390376994 -0.24540676276410264
4347000000.0 0.983451174473299 -0.30196296137734396
4350000000.0 0.9348276572821886 -0.2795946410932646
4353000000.0 0.9692641934887367 -0.27945800909197993
4356000000.0 0.9221059634359982 -0.3310578187970475
4359000000.0 0.907017740067797 -0.304968311478008
4362000000.0 0.9501466511543208 -0.36826645239690387
4366000000.0 0.9545071559216276 -0.356476017496716
4369000000.0 0.9249538465248712 -0.3531013828237899
4372000000.0 0.9084332758763218 -0.37641407640211744
4375000000.0 0.9332784436850867 -0.34095639520656373
4378000000.0 0.9159512100082037 -0.3553523259692263
4381000000.0 0.929323109025018 -0.368940301021059
4384000000.0 0.9730663323484284 -0.42567165089166853
4388000000.0 0.9022911769850277 -0.39285512178967374
4391000000.0 0.9311537480907477 -0.40632117702928117
4394000000.0 0.8867124474163635 -0.4136193712119618
4397000000.0 0.899136036100886 -0.43195049196167956
4400000000.0 0.9265742281500766 -0.45722025689720336
4403000000.0 0.9205383949075868 -0.44092263972090573
4406000000.0 0.8946126430177599 -0.4807746475242127
4409000000.0 0.9120650572463918 -0.4836717294717928
4412000000.0 0.8510605505930727 -0.515629701942123
4416000000.0 0.8698766859986904 -0.4923659317874809
4419000000.0 0.8521776875430879 -0.5279120151247227
4422000000.0 0.8829467648476514 -0.49417201444327175
4425000000.0 0.8940056889630927 -0.4948049670011342
4428000000.0 0.8548020831300299 -0.5221563776851801
4431000000.0 0.8734860591821214 -0.5260087193605616
4434000000.0 0.8451757598959535 -0.5396399223920104
4438000000.0 0.8540793974586787 -0.5465666463141439
4441000000.0 0.8517483237964747 -0.5582935626375641
4444000000.0 0.8205252717060194 -0.5605611259731238
4447000000.0 0.8112810586480173 -0.5809489345177173
4450000000.0 0.8254921915321052 -0.5666190830073503
4453000000.0 0.826350381403358 -0.5933039182077792
4456000000.0 0.7767327472967116 -0.5889608492952453
4459000000.0 0.7738618339778884 -0.5980875609060667
4462000000.0 0.8231572370772736 -0.6469966171832502
4466000000.0 0.8187547795725296 -0.6380949512965476
4469000000.0 0.7955306369779909 -0.6046630614795623
4472000000.0 0.7818154785754912 -0.6712715342598617
4475000000.0 0.7605371595247916 -0.6166580969152432
4478000000.0 0.7865685426463631 -0.696316668092097
4481000000.0 0.7326796545488649 -0.6496528681746846
4484000000.0 0.7381787502547256 -0.6985395391333905
4488000000.0 0.734180851868275 -0.6762488195966869
4491000000.0 0.7420380325083135 -0.685529652974641
4494000000.0 0.7271347426464354 -0.6914507227028679
4497000000.0 0.7248118098714148 -0.6763376991239258
4500000000.0 0.7176205637637044 -0.6918273333318345
4503000000.0 0.721378286985975 -0.7334789416272895
4506000000.0 0.6885960936505531 -0.726483548463688
4509000000.0 0.6797744902343172 -0.7310705749430514
4512000000.0 0.665011330180726 -0.7251863781887556
4516000000.0 0.6859383795280776 -0.7504425105521099
4519000000.0 0.6761356985781388 -0.7373098101954257
4522000000.0 0.6524040155797663 -0.7612220448310185
4525000000.0 0.6749884138302957 -0.7497264577406183
4528000000.0 0.6614372775924989 -0.7893698981033654
4531000000.0 0.6374801891058404 -0.7670757448412289
4534000000.0 0.6095551644574393 -0.7862539131026438
4538000000.0 0.6274391760253054 -0.7901756902055354
4541000000.0 0.593079426541187 -0.8005997779048206
4544000000.0 0.6007008130898315 -0.7807267645503083
4547000000.0 0.6130379098783939 -0.7928449622407345
4550000000.0 0.5931260175058121 -0.8336117155242058
4553000000.0 0.5723502020338339 -0.8210381300348604
4556000000.0 0.5615932365538012 -0.8194155523022525
4559000000.0 0.5776041947621863 -0.8461446107355406
4562000000.0 0.5741951274094524 -0.8435633201715839
4566000000.0 0.5548520984662263 -0.8573954486448743
4569000000.0 0.5302354413622783 -0.8360324278601197
4572000000.0 0.531093738922744 -0.8331837631826722
4575000000.0 0.5286664520051909 -0.8841012281798113
4578000000.0 0.5287237801940069 -0.8613573560265486
4581000000.0 0.4919525234792026 -0.8749326760259559
4584000000.0 0.48993571911051836 -0.8695321753086187
4588000000.0 0.49021861242351794 -0.8898231977577731
4591000000.0 0.4923169701151117 -0.895954645479057
4594000000.0 0.4469351899779853 -0.9049506611636645
4597000000.0 0.4404711145337386 -0.9217281861813394
4600000000.0 0.4306772300683708 -0.9031401094017153
4603000000.0 0.43618929834341047 -0.9098607102084717
4606000000.0 0.44269034579117494 -0.9414828049989843
4609000000.0 0.4338254417225582 -0.9176516325760482
4612000000.0 0.4159885835931623 -0.9035022384957633
4616000000.0 0.3855607382098791 -0.9255279401510724
4619000000.0 0.38932829970862665 -0.9150759343171435
4622000000.0 0.3455456666813479 -0.9347061835555729
4625000000.0 0.3395707271090581 -0.9427993637462255
4628000000.0 0.36892270747254285 -0.9691956329176588
4631000000.0 0.3357866121952808 -0.9537471140449421
4634000000.0 0.32562394588292415 -0.9644594821341677
4638000000.0 0.3356219699943668 -0.9727690449961762
4641000000.0 0.33035016761702396 -0.9599887850793006
4644000000.0 0.30017588158125935 -0.9498546209464865
4647000000.0 0.3170565176732768 -0.9667532487129212
4650000000.0 0.2854255052976935 -0.9796134285011898
4653000000.0 0.2882071370302809 -0.9747646054669086
4656000000.0 0.27781787425822263 -0.9564038794785588
4659000000.0 0.23576309670559306 -1.0136128643935085
4662000000.0 0.23207107966000648 -1.013861352479454
4666000000.0 0.20266706218321515 -1.0018008751862193
4669000000.0 0.2250074683747377 -1.0024558497556582
4672000000.0 0.20478749326420487 -1.0102973372688746
4675000000.0 0.19443507553182443 -1.0146560798940978
4678000000.0 0.18011509532021688 -0.9826131968508656
4681000000.0 0.15793249152416317 -1.0248184264456193
4684000000.0 0.14721152923034656 -1.0519494715258113
4688000000.0 0.11686072878131448 -1.008497354613715
4691000000.0 0.17466676939970205 -1.0393076024312171
4694000000.0 0.18242012807038566 -0.9896157323021071
4697000000.0 0.10825862754249112 -0.9515457964957901
4700000000.0 0.11707988101563926 -0.9925350928572962
4703000000.0 0.1811679983195611 -0.9394407058926892
4706000000.0 0.047654938908499284 -1.0346458103560823
4709000000.0 0.0914287198869527 -1.0217913868932709
4712000000.0 0.07662043292998522 -1.0096873530273673
4716000000.0 0.05545786361724542 -1.0538464425989176
4719000000.0 0.10473526563747279 -0.982954025018872
4722000000.0 0.0500381567069447 -0.9990227921335324
4725000000.0 0.07855944856392696 -1.017068497518979
4728000000.0 0.02172037336727964 -1.0030384004777604
4731000000.0 0.0672947618462825 -1.0571523367380244
4734000000.0 0.009611607359529817 -1.0026025842470268
4738000000.0 0.028068313322864802 -1.045763564615987
4741000000.0 -0.014668727570272433 -1.0451656156090148
4744000000.0 -0.010508358421636388 -1.007242575400649
4747000000.0 -0.001602831456357312 -0.9429139991791046
4750000000.0 -0.03067528415863119 -1.047394958090098
4753000000.0 -0.047324959737565175 -1.0436116266098354
4756000000.0 -0.044557625773812726 -1.0379131255879768
4759000000.0 -0.055675468507725034 -1.0259443809965916
4762000000.0 -0.10755847898427001 -1.0487648017030902
4766000000.0 -0.10108372410676175 -1.062224191006037
4769000000.0 -0.09613178982733511 -1.0112908190855419
4772000000.0 -0.12550620667743295 -0.9864677631185091
4775000000.0 -0.14274179985648366 -1.0694796089814047
4778000000.0 -0.1865431614603355 -1.0277273979544745
4781000000.0 -0.13166267732907805 -1.0087347002252092
4784000000.0 -0.14050844358101372 -1.012194619708011
4788000000.0 -0.2071318058561309 -1.0119655486952868
4791000000.0 -0.18558013377636617 -0.9944944489010591
4794000000.0 -0.1771132191639041 -1.0455729987419577
4797000000.0 -0.23180672089111087 -0.9675938654973811
4800000000.0 -0.2133130225488635 -0.9824162352479278
4803000000.0 -0.2966568409528139 -1.0069482213755094
4806000000.0 -0.26325830924236976 -1.0166101124855653
4809000000.0 -0.3047363180065947 -0.9819428649019492
4812000000.0 -0.29453952150365814 -0.9685148028436283
4816000000.0 -0.24075547838536338 -0.9866049103975618
4819000000.0 -0.2676266611159049 -1.0481658248031627
4822000000.0 -0.27643083275387337 -1.036446338683348
4825000000.0 -0.2729817214952175 -1.0177211231790382
4828000000.0 -0.3420291252059625 -0.9719623975872557
4831000000.0 -0.37983510212158095 -0.9822463893354445
4834000000.0 -0.330172120117592 -0.9902026968794286
4838000000.0 -0.360238277955288 -0.9573256976240619
4841000000.0 -0.3937264590336875 -0.9528504559405077
4844000000.0 -0.3465078950301602 -0.9679623123551949
4847000000.0 -0.3626247481374574 -0.9383029833170982
4850000000.0 -0.4247781525490785 -0.9646193938781584
4853000000.0 -0.3919282270468849 -0.9215463164581101
4856000000.0 -0.41482440932325165 -0.9394282512094702
4859000000.0 -0.48384901556437665 -0.9752685928202572
4862000000.0 -0.40442710568744356 -0.9194654127797014
4866000000.0 -0.45842687669012533 -0.9342396312235096
4869000000.0 -0.48736003518734156 -0.9143619369429612
4872000000.0 -0.48165609236178447 -0.9434377886387769
4875000000.0 -0.4359139780729535 -0.9888002363744427
4878000000.0 -0.47260088329905897 -0.9104972793517201
4881000000.0 -0.5738013995935068 -0.9602033691733217
4884000000.0 -0.4824196659118377 -0.9159620356408955
4888000000.0 -0.4937139251002988 -0.8870419128261927
4891000000.0 -0.509255513066866 -0.905866477084296
4894000000.0 -0.5541330860474258 -0.8685740879258561
4897000000.0 -0.5273438432837699 -0.8609591477184215
4900000000.0 -0.5782250633560941 -0.8913407779774607
4903000000.0 -0.5592562408895317 -0.8980069888055989
4906000000.0 -0.5690909149714094 -0.8676686528775447
4909000000.0 -0.6013545148801721 -0.8760354160756475
4912000000.0 -0.6336952408836385 -0.8514076879461105
4916000000.0 -0.6582196162519859 -0.8766941752870223
4919000000.0 -0.6412398052464983 -0.8714265272759352
4922000000.0 -0.6332144269535525 -0.8309170275006413
4925000000.0 -0.6501554121327028 -0.7692823496322622
4928000000.0 -0.602943860247109 -0.8074426741208242
4931000000.0 -0.6600799734824598 -0.8190303789779285
4934000000.0 -0.6595862711672288 -0.7753314275741008
4938000000.0 -0.6920705707526267 -0.7515032846004023
4941000000.0 -0.6779632588686849 -0.7578262214969637
4944000000.0 -0.6847716976103159 -0.7391551320860574
4947000000.0 -0.7052208908211892 -0.7627786646454919
4950000000.0 -0.7125654057831198 -0.7440865584269958
4953000000.0 -0.7703160374542386 -0.7261099637945156
4956000000.0 -0.6893913183364333 -0.7489536417721319
4959000000.0 -0.7438831464884464 -0.6622152629097413
4962000000.0 -0.7620512249282988 -0.7360868939737157
4966000000.0 -0.7470595907243912 -0.7523662416591479
4969000000.0 -0.759415602552593 -0.7635475210436586
4972000000.0 -0.7570094913883593 -0.6782507712406536
4975000000.0 -0.7480054162071573 -0.6887626641020493
4978000000.0 -0.7938962336468374 -0.675398418793308
4981000000.0 -0.8015112984030947 -0.646456420205384
4984000000.0 -0.7862683340867274 -0.656696981468867
4988000000.0 -0.7882072486213678 -0.6319201704576558
4991000000.0 -0.8202565209003054 -0.6780240807709352
4994000000.0 -0.8262312379825669 -0.6294124309688978
4997000000.0 -0.8548061097821793 -0.6105291769807496
5000000000.0 -0.8638810728267169 -0.5990843846023985
5003000000.0 -0.8444391105672282 -0.5743055228692876
5006000000.0 -0.9036197343040772 -0.6101695481882307
5009000000.0 -0.8621226229563774 -0.5638817069163562
5012000000.0 -0.8913510843068819 -0.5407947244776319
5016000000.0 -0.8904468511370867 -0.6062739517405719
5019000000.0 -0.8915410401594496 -0.5196599639267167
5022000000.0 -0.8847472795036181 -0.5121271679860384
5025000000.0 -0.9464631398845744 -0.5237472213116244
5028000000.0 -0.915591695051602 -0.5139188070325712
5031000000.0 -0.8889819677085067 -0.4974606709930688
5034000000.0 -0.9624558769454209 -0.5013777807701366
5038000000.0 -0.9321758160402123 -0.46029618509686904
5041000000.0 -0.9008271694339847 -0.4780154627978308
5044000000.0 -0.9021442525995061 -0.4597033236491094
5047000000.0 -0.8972928844449588 -0.459113622382855
5050000000.0 -0.8988643434647491 -0.4533528641110732
5053000000.0 -0.9572758487769617 -0.38593326005904477
5056000000.0 -0.9158284967530832 -0.43042770517271367
5059000000.0 -0.9939728150980107 -0.3909967330117585
5062000000.0 -0.9844117238274304 -0.31130939582772116
5066000000.0 -1.0058713552167058 -0.3573717938360377
5069000000.0 -0.9716050294040751 -0.389438437093669
5072000000.0 -0.9713324696689372 -0.3323171317790779
5075000000.0 -0.9448541133131048 -0.31830219271348004
5078000000.0 -0.9883671794019941 -0.2902475870837245
5081000000.0 -0.9878520818218743 -0.3019809181870051
5084000000.0 -0.9846918199747512 -0.2613777315611694
5088000000.0 -1.0189994782365024 -0.29601025300544215
5091000000.0 -0.9670174345629388 -0.20911584920153004
5094000000.0 -0.9766071441464166 -0.1368956722187148
5097000000.0 -0.9792892621256942 -0.2547519716148452
5100000000.0 -1.034817791810306 -0.2058602971828015
5103000000.0 -1.0562677244964056 -0.0852300822839197
5106000000.0 -1.0015957738272376 -0.1542270084288265
5109000000.0 -1.0028509572507442 -0.13691236744447677
5112000000.0 -0.9924704099139826 -0.10398842313432116
5116000000.0 -0.9958671600641079 -0.10004140596870273
5119000000.0 -0.9621635280405819 -0.061892124541449406
5122000000.0 -1.023430611438418 -0.04309280688984257
5125000000.0 -0.9729128784990548 -0.09036690287132854
5128000000.0 -1.023938567504961 -0.07166511310511142
5131000000.0 -1.0615263705387192 -0.012307810395117094
5134000000.0 -1.006727748031005 -0.012076015739488313
5138000000.0 -1.034255597366084 -0.013709464527766987
5141000000.0 -1.0667037336572887 -0.02537301319420253
5144000000.0 -0.9576010155464638 0.08027522326037889
5147000000.0 -1.0490371560661376 0.0445606610871873
5150000000.0 -1.0766210563570353 0.052489341840123424
5153000000.0 -1.0642371106507362 0.08104148224395571
5156000000.0 -0.9848890562755159 0.07943171792198961
5159000000.0 -1.0449963420911574 0.12511713171708777
5162000000.0 -0.9995566575964259 0.23093805952230576
5166000000.0 -0.9628357642994368 0.1024611571430207
5169000000.0 -1.0410705385990506 0.14696781461027975
5172000000.0 -1.0413178648277015 0.16923318585174002
5175000000.0 -1.033645353083343 0.18821972640766943
5178000000.0 -1.0176363153466124 0.26057084832290583
5181000000.0 -1.033819810871712 0.28558722870320175
5184000000.0 -0.9826294118712642 0.24278181335127225
