! Created with skrf 1.8.0 (http://scikit-rf.org).
# Hz S RI R 50.0 
!freq ReS11 ImS11
4000000000.0 0.651064622742141 0.7898192826351826
4003000000.0 0.6742082021890631 0.8425170254384261
4006000000.0 0.6706537948155099 0.7951199381015316
4009000000.0 0.65745063433432 0.8210876199267475
4012000000.0 0.6677609837625988 0.8125814374033683
4016000000.0 0.7001875432098432 0.7752996483667745
4019000000.0 0.6776924597144989 0.7567295150977508
4022000000.0 0.6394233337777432 0.8067199444350769
4025000000.0 0.7388661427636561 0.7040156343110147
4028000000.0 0.7279603572908175 0.7141928741254615
4031000000.0 0.6881634335897492 0.7326055058788848
4034000000.0 0.7134899666475137 0.7376227244928155
4038000000.0 0.7733317668159632 0.7429550443574611
4041000000.0 0.7727578943728576 0.739717174864869
4044000000.0 0.8001325167744288 0.7615760500969385
4047000000.0 0.738047058756914 0.8054043662625033
4050000000.0 0.7909938128284343 0.6734918926159954
4053000000.0 0.7712071517608354 0.6840895411054135
4056000000.0 0.7691351635496069 0.6851049383458111
4059000000.0 0.7097504410746551 0.6974189489572722
4062000000.0 0.7714141956660187 0.6697136529575456
4066000000.0 0.7523419032940126 0.6419116577499429
4069000000.0 0.8250867500374989 0.6949616973664674
4072000000.0 0.7474501648877557 0.7067494161192098
4075000000.0 0.7784244104819852 0.6782078436660968
4078000000.0 0.854379415924981 0.6587351183615053
4081000000.0 0.8397409887090379 0.7202322812036381
4084000000.0 0.8295140780781748 0.6325075989850808
4088000000.0 0.7870828308482791 0.648401851795623
4091000000.0 0.8766532050305876 0.6668429195954366
4094000000.0 0.8107640255659817 0.6683720705249715
4097000000.0 0.8080064215557872 0.6073557025122398
4100000000.0 0.835643385212696 0.604106569655938
4103000000.0 0.8776080672355784 0.6049446803113103
4106000000.0 0.8689361087157776 0.5887792527691634
4109000000.0 0.9011054730517296 0.558765078876732
4112000000.0 0.8707463076040589 0.6102358690012175
4116000000.0 0.8494028923025333 0.6150953804074354
4119000000.0 0.9094118127615043 0.537892225885124
4122000000.0 0.8875456487411794 0.5670716433626009
4125000000.0 0.9008424470090074 0.5204623015798524
4128000000.0 0.8364665413561965 0.5194454494445118
4131000000.0 0.876496477474371 0.5391572788787612
4134000000.0 0.87737817861307 0.518948433221812
4138000000.0 0.891815990785749 0.5074181817542947
4141000000.0 0.8784907798003779 0.49165662731867255
4144000000.0 0.8796847380609046 0.54232094881223
4147000000.0 0.8745974162621534 0.4845507199527322
4150000000.0 0.8964811788268559 0.48268690486860116
4153000000.0 0.9074351359382923 0.48215364838368646
4156000000.0 0.9408548764517983 0.48051717393623605
4159000000.0 0.8581974626966322 0.48755258610887003
4162000000.0 0.9127757919911701 0.478544667279846
4166000000.0 0.9382493716669091 0.47822223000817166
4169000000.0 0.9298444369962668 0.4365503435173179
4172000000.0 0.9137551561565213 0.4406823036411844
4175000000.0 0.925867252760526 0.46289222158959514
4178000000.0 0.9462705192623736 0.4395466675037958
4181000000.0 0.9559643215733431 0.41548236677776373
4184000000.0 0.9603886323066224 0.42690129214705624
4188000000.0 0.9316943869783745 0.37958766030263336
4191000000.0 0.9336467799153165 0.4148313926452661
4194000000.0 0.9318296916861889 0.39851347176372165
4197000000.0 0.9560257946530002 0.40566772109850263
4200000000.0 0.9265454748090918 0.42049120612831337
4203000000.0 0.9645151161845775 0.39200702699946743
4206000000.0 0.9754573192144994 0.36771551737512237
4209000000.0 0.9436221975540667 0.367724674927906
4212000000.0 0.9728806669825342 0.31797956282057993
4216000000.0 0.9616859467764819 0.3541439336443101
4219000000.0 0.9874928199885618 0.3479196658462711
4222000000.0 0.9769598832388238 0.3100928865469738
4225000000.0 0.9649500881692041 0.3049779241773476
4228000000.0 0.9811739045470025 0.2966944749154441
4231000000.0 0.9854756992671457 0.27803575081537046
4234000000.0 0.9824659842792706 0.28052220237510916
4238000000.0 0.9973371609448695 0.26796793285003306
4241000000.0 0.9943835475769427 0.26202982825024673
4244000000.0 0.9797894720245311 0.2617164346407796
4247000000.0 0.9797248412541305 0.2549042045641909
4250000000.0 0.9667065640835213 0.23120367459990288
4253000000.0 0.9680794098341181 0.22826114005582504
4256000000.0 1.0172771696474951 0.23749613888295562
4259000000.0 0.9715863516945616 0.19582803186631262
4262000000.0 0.9860631839703946 0.19616659733569122
4266000000.0 1.0287450383217793 0.18317684093586267
4269000000.0 1.0081094884979533 0.215842210148762
4272000000.0 1.015489689296277 0.18555030779928777
4275000000.0 1.0270730895004168 0.17243462476250193
4278000000.0 1.0227771132510641 0.17556574015580495
4281000000.0 1.020601085983877 0.1665008713741073
4284000000.0 1.0129912896848805 0.11678540848709276
4288000000.0 0.9904747159958572 0.18149950920478522
4291000000.0 0.9701775571088708 0.12733558604658224
4294000000.0 1.001647904324214 0.12426131069694758
4297000000.0 1.00317185528841 0.13987731665243158
4300000000.0 0.9975662379995867 0.14111696970524287
4303000000.0 1.0046094795612253 0.09753357187762741
4306000000.0 1.0187523192133567 0.09293939539485618
4309000000.0 1.0267488903359199 0.08706237806585625
4312000000.0 1.0479545495695772 0.1276694863364297
4316000000.0 1.0379474395074664 0.06825092836724307
4319000000.0 1.00478667994963 0.056630304863802425
4322000000.0 1.0096532978288315 0.021795497384233795
4325000000.0 1.0273045069405813 0.05743576912594282
4328000000.0 1.0177012601561695 0.0078071195296547935
4331000000.0 1.0078657413086356 -0.007310161627012923
4334000000.0 1.0236610462989257 0.004269339076796885
4338000000.0 1.0245849491971692 0.046073332962259225
4341000000.0 1.0473775529247311 0.03285808821317737
4344000000.0 1.0403582971252339 0.0014716324780662815
4347000000.0 1.0302424464686044 -0.030577573822885118
4350000000.0 0.9830150396345522 -0.03570106931099758
4353000000.0 1.0010365460028754 -0.010726877539920465
4356000000.0 0.987647884230189 -0.07176033529017155
4359000000.0 0.9590005484649314 -0.06032211234109061
4362000000.0 1.019390487419285 -0.11151720307774904
4366000000.0 1.0037527533815915 -0.08454451833443331
4369000000.0 0.9790425166649078 -0.09834776994537738
4372000000.0 1.0023088569442764 -0.12061726533241436
4375000000.0 1.0066120599558912 -0.08674669671362642
4378000000.0 0.9872679603402675 -0.11607630899651551
4381000000.0 1.000209858363755 -0.11325991731924005
4384000000.0 1.0707937177359965 -0.15582335051357626
4388000000.0 1.0002927468026634 -0.10960469422704318
4391000000.0 1.0040993504437354 -0.13541629588939708
4394000000.0 0.9808468832919613 -0.1466327639648798
4397000000.0 1.002398341336576 -0.15550670829446114
4400000000.0 1.0128841416364625 -0.1645196392797429
4403000000.0 0.9952797287245629 -0.17670016887911497
4406000000.0 0.995302018292698 -0.19841906416450117
4409000000.0 1.0296246179693567 -0.19799683957526032
4412000000.0 0.9871119423425843 -0.25327073497802693
4416000000.0 0.9647595810393856 -0.2249411346404597
4419000000.0 0.9771975990650971 -0.2529421482878023
4422000000.0 0.9851918700621112 -0.21628424651314743
4425000000.0 1.009197517947943 -0.2290658276475401
4428000000.0 0.9766362196838638 -0.24298053039161768
4431000000.0 1.0076149876753957 -0.2566993721425861
4434000000.0 0.9782300148971212 -0.2705547211761308
4438000000.0 0.9941110741387256 -0.2874810308201149
4441000000.0 0.9939014573849283 -0.2775501561619094
4444000000.0 0.9539174963154238 -0.2839884215020477
4447000000.0 0.9500773506661812 -0.3156468161222772
4450000000.0 0.9657747906464328 -0.28000619276746813
4453000000.0 0.9931199515108873 -0.32189473443338323
4456000000.0 0.9387903527498626 -0.33125157842168895
4459000000.0 0.9085010175364312 -0.33582336352489234
4462000000.0 1.0109992931154814 -0.3536945839473728
4466000000.0 0.9719237633244938 -0.37426056551191644
4469000000.0 0.9516767839842057 -0.3467410187927696
4472000000.0 0.9567383964761964 -0.407158350162348
4475000000.0 0.9158777524526188 -0.3688902522444605
4478000000.0 0.9832591166663603 -0.40426387458512714
4481000000.0 0.8998361803391296 -0.39769927501700425
4484000000.0 0.914408991619057 -0.45616605106632147
4488000000.0 0.9217796437512165 -0.40501445567872413
4491000000.0 0.922027248573356 -0.42357513390387586
4494000000.0 0.9076339271065225 -0.4242878214980016
4497000000.0 0.9065467814600805 -0.424167937932602
4500000000.0 0.9153859091519363 -0.4271237269156721
4503000000.0 0.9452548895064712 -0.4360869842050813
4506000000.0 0.899865388575785 -0.4628730007713118
4509000000.0 0.8778937446860535 -0.45004996796160923
4512000000.0 0.8631972738681551 -0.48470706952246
4516000000.0 0.8827290855591475 -0.4768602443310414
4519000000.0 0.8775013033602634 -0.4780043512478157
4522000000.0 0.8936193142183362 -0.5075895559523066
4525000000.0 0.8844526047689816 -0.460653509636209
4528000000.0 0.8938042436803935 -0.5254432410533495
4531000000.0 0.8857919823483573 -0.5048530230571863
4534000000.0 0.8569994033485906 -0.535904773903455
4538000000.0 0.8516639877056698 -0.5383933923405254
4541000000.0 0.8085930334065856 -0.5654910916714897
4544000000.0 0.8293678807983045 -0.5362294728594912
4547000000.0 0.8334107696512737 -0.5318050347629797
4550000000.0 0.8533297666222996 -0.5673465432873477
4553000000.0 0.8208490285875263 -0.5770407440824479
4556000000.0 0.7900289544903785 -0.5823321483511986
4559000000.0 0.8029456454475772 -0.5862459794117827
4562000000.0 0.8233607212191512 -0.5988899540255197
4566000000.0 0.8119908631092523 -0.6181255475791148
4569000000.0 0.778766936932454 -0.6066129032436618
4572000000.0 0.7996991716447228 -0.6107611254835748
4575000000.0 0.7816137038904831 -0.663959181120758
4578000000.0 0.8064908975409382 -0.6464756718695741
4581000000.0 0.7664392356499208 -0.6498272121940459
4584000000.0 0.7698830275896045 -0.6372628130336301
4588000000.0 0.7828253231103748 -0.6647758291574484
4591000000.0 0.7885748279645639 -0.6453502850059011
4594000000.0 0.7526044661099386 -0.6683287808857388
4597000000.0 0.7846967975011312 -0.6911965179278639
4600000000.0 0.7289452893135798 -0.696422239044985
4603000000.0 0.7424126880373247 -0.6898832606151838
4606000000.0 0.7693205010403555 -0.6819967853172249
4609000000.0 0.7411292904679784 -0.6851373326207981
4612000000.0 0.7492700553494761 -0.6872071386164706
4616000000.0 0.7080738310151236 -0.6932389551292222
4619000000.0 0.7108353702798724 -0.7138162539743153
4622000000.0 0.6885964718216251 -0.7113021438914753
4625000000.0 0.6788416651037796 -0.7163558358217058
4628000000.0 0.7153151082277268 -0.712127235436139
4631000000.0 0.6746907730318223 -0.7407416743642076
4634000000.0 0.6763188680741161 -0.7621246770965926
4638000000.0 0.6872585065525467 -0.7648124042255949
4641000000.0 0.6685197602875027 -0.7683881989922559
4644000000.0 0.657041885977571 -0.7711577885081996
4647000000.0 0.6882449054130981 -0.7800294592176835
4650000000.0 0.6394115892964373 -0.7772489878873897
4653000000.0 0.6600889720408816 -0.7809647493946851
4656000000.0 0.6407215023161221 -0.7927442393700941
4659000000.0 0.6220087476241759 -0.7987982638611146
4662000000.0 0.6217309902956704 -0.8107875474821026
4666000000.0 0.6101844906897919 -0.7987218862082979
4669000000.0 0.6299935285718508 -0.8122604045294068
4672000000.0 0.5698892926645489 -0.8451263110749145
4675000000.0 0.5805047915602854 -0.8297551562390743
4678000000.0 0.572993663093168 -0.806320010157155
4681000000.0 0.5792333486114174 -0.8461104554510374
4684000000.0 0.5479364876424716 -0.8509024736530688
4688000000.0 0.5550009940029095 -0.8555632103635759
4691000000.0 0.5788633474739696 -0.8363713856225399
4694000000.0 0.5539397639218991 -0.854703377812218
4697000000.0 0.5073680537831919 -0.8263453404321499
4700000000.0 0.561050831986849 -0.8791687011350198
4703000000.0 0.5411051958244248 -0.8290770697152174
4706000000.0 0.5108457677277057 -0.8870217210331407
4709000000.0 0.48604368610381526 -0.8969576493171253
4712000000.0 0.512381075617165 -0.880675672154461
4716000000.0 0.4942570347581644 -0.8851602630335991
4719000000.0 0.5210020340819418 -0.8869000930444453
4722000000.0 0.5064574441114952 -0.8911058556392968
4725000000.0 0.48180438555126076 -0.8987596201573587
4728000000.0 0.440424185180347 -0.9132113200644432
4731000000.0 0.5127008584781998 -0.9334784284783026
4734000000.0 0.44116854195845995 -0.8892757774962238
4738000000.0 0.48725137645160066 -0.9330699788428034
4741000000.0 0.44411330336697713 -0.923358448729845
4744000000.0 0.39875727183589715 -0.9514749765906251
4747000000.0 0.42806797227303184 -0.9151096287358674
4750000000.0 0.41300657619254183 -0.9333240233705684
4753000000.0 0.4462240069904482 -0.9301798454837027
4756000000.0 0.4039417878930336 -0.9590495493142173
4759000000.0 0.41329052307456793 -0.938761130301615
4762000000.0 0.36368189800737766 -1.0156478601362127
4766000000.0 0.37388362181094825 -0.9385900705547326
4769000000.0 0.3632165082522255 -0.9728449980269737
4772000000.0 0.35793985928788563 -0.9358630465136395
4775000000.0 0.3397846013576762 -1.0246052859982628
4778000000.0 0.358073210659426 -1.007750586192837
4781000000.0 0.36755133002037393 -0.9442188713099711
4784000000.0 0.3639091223901945 -0.979587047292649
4788000000.0 0.3318001884389128 -0.9979066905326837
4791000000.0 0.2846992065231239 -0.9694262556059919
4794000000.0 0.34832346226708627 -1.0083044028762869
4797000000.0 0.28770516369043697 -0.9765971599742479
4800000000.0 0.27196340523103474 -0.976746112555192
4803000000.0 0.24784771515715498 -0.9918191736308386
4806000000.0 0.2630309371417703 -1.0079936679767758
4809000000.0 0.20590688966527484 -1.0033195307578415
4812000000.0 0.20034485742961972 -0.9959070429581642
4816000000.0 0.26092916873303973 -0.9573615376456555
4819000000.0 0.27745912706184694 -1.0175619493402976
4822000000.0 0.24531382331368612 -1.0452776833557658
4825000000.0 0.23494428963135633 -1.0279881726648796
4828000000.0 0.20214828866607393 -0.9990093987567913
4831000000.0 0.16448994083788288 -1.0367105007773232
4834000000.0 0.201775560901215 -1.0245330307704452
4838000000.0 0.16071965274251154 -1.0317253354662137
4841000000.0 0.16435029205484725 -1.0045306280557176
4844000000.0 0.18881893725037874 -0.9956005647829488
4847000000.0 0.18242869440418893 -0.9869873345656619
4850000000.0 0.1366627338786615 -1.0355262809577799
4853000000.0 0.15264593358187606 -0.9917191624392943
4856000000.0 0.1381515941373116 -0.9998787905742245
4859000000.0 0.1403265451730632 -1.059870593164935
4862000000.0 0.14243015491648164 -0.9912445438100893
4866000000.0 0.09301795114418804 -1.043709060210134
4869000000.0 0.10204995311923609 -1.0317792966109236
4872000000.0 0.04656910415163516 -1.0553405439027401
4875000000.0 0.14378029908556472 -1.046847129523642
4878000000.0 0.06318815590682147 -1.0533612695078953
4881000000.0 0.03115595226455342 -1.098351732876003
4884000000.0 0.09071053097562214 -1.0310043030368015
4888000000.0 0.08201194541092001 -1.023584761504982
4891000000.0 0.05790891134250484 -1.043285274415066
4894000000.0 0.005529997010115226 -1.0334625806709725
4897000000.0 0.04441392409807528 -0.9925757626454833
4900000000.0 0.026188118010317125 -1.0493849592918805
4903000000.0 0.029381578415681644 -1.0465068572896663
4906000000.0 -0.013016067640576962 -1.0566285410603133
4909000000.0 -0.03067960053926131 -1.0515978688968273
4912000000.0 -0.044849998082736806 -1.0789682568680714
4916000000.0 -0.00951674631851903 -1.0656998364087322
4919000000.0 0.0227083626975539 -1.0777556511172852
4922000000.0 0.004347279855251712 -1.0343511118757212
4925000000.0 -0.04092636252413216 -1.01846833077159
4928000000.0 -0.024360475894202538 -1.0327317632622477
4931000000.0 -0.0031117927675862883 -1.085837829283489
4934000000.0 -0.05363091261512361 -0.9940953608775422
4938000000.0 -0.10691215495157629 -1.0278481797523462
4941000000.0 -0.07924003287017102 -1.023549511817863
4944000000.0 -0.04751930113904776 -0.9730637648859835
4947000000.0 -0.11031738892893597 -1.0047008889555218
4950000000.0 -0.12977400751185653 -1.010059681941763
4953000000.0 -0.1460051471976037 -1.0632371042222524
4956000000.0 -0.1574029274909018 -0.997974651442631
4959000000.0 -0.16296436026563102 -0.9708370616398001
4962000000.0 -0.13972228789741672 -1.0752096503958937
4966000000.0 -0.16520920072046869 -1.0715413180168551
4969000000.0 -0.14027048923730961 -1.0917091989758898
4972000000.0 -0.18548663740295399 -1.0492282761821639
4975000000.0 -0.14540162332312914 -1.0012938815396322
4978000000.0 -0.1851280639207264 -1.007121801367317
4981000000.0 -0.22440268620913292 -1.0383984382471705
4984000000.0 -0.2173691316855034 -0.9866688880612394
4988000000.0 -0.20799389451727296 -1.0071905940818173
4991000000.0 -0.18440152077286903 -1.073254278692798
4994000000.0 -0.1973431866546248 -1.0102008193344623
4997000000.0 -0.26869623077315047 -1.0196491459578696
5000000000.0 -0.24134835773048802 -1.0456909116371313
5003000000.0 -0.24728112751846681 -1.0333385659371408
5006000000.0 -0.27707464097605994 -1.0753263151246162
5009000000.0 -0.28240355196378375 -0.9951139939621821
5012000000.0 -0.2863453473206798 -0.9912260093355427
5016000000.0 -0.2522633434437708 -1.0437043250488172
5019000000.0 -0.2937046974746378 -0.9858906147604123
5022000000.0 -0.2913163543790178 -1.0018556716531837
5025000000.0 -0.30892292924210146 -1.048699940268497
5028000000.0 -0.33456019117012137 -1.0083628652282972
5031000000.0 -0.32376422996382814 -0.9991520226418474
5034000000.0 -0.35059901428516127 -0.9959128307534781
5038000000.0 -0.36527184900929266 -0.9512571344152763
5041000000.0 -0.3331501575693755 -1.0067544391102201
5044000000.0 -0.33113186751212453 -0.9499294986315155
5047000000.0 -0.33023205768244307 -1.0027475907224792
5050000000.0 -0.3261634996353392 -0.9790607550142851
5053000000.0 -0.43874683670392667 -1.0051493563856564
5056000000.0 -0.35754780553330123 -0.9993936910665278
5059000000.0 -0.3556999582311587 -1.0006992681287308
5062000000.0 -0.4105872851165846 -0.9606606893783063
5066000000.0 -0.3682320774728448 -0.956242880021027
5069000000.0 -0.4392592376079727 -0.941972170019124
5072000000.0 -0.4172598074314514 -0.9514663407190023
5075000000.0 -0.36244564396363976 -0.98917009351263
5078000000.0 -0.4317747287383174 -0.9044179286049983
5081000000.0 -0.4478672801783095 -0.9252390812704591
5084000000.0 -0.48146104081160157 -0.9345484920606741
5088000000.0 -0.46691980308691017 -0.9256242903693812
5091000000.0 -0.5258493277972791 -0.9302691328729866
5094000000.0 -0.47422967752105455 -0.9223693474120557
5097000000.0 -0.42668495657387884 -0.9221990199050523
5100000000.0 -0.4881646448318519 -0.9345829778144125
5103000000.0 -0.5611551245875519 -0.9193626136180842
5106000000.0 -0.5227837274077813 -0.9377673486809985
5109000000.0 -0.5343064266997108 -0.9402378366135342
5112000000.0 -0.5177317648434765 -0.889756719243187
5116000000.0 -0.4839193732374077 -0.8996164526424286
5119000000.0 -0.5261525643370744 -0.9372824204363228
5122000000.0 -0.49050046720214174 -0.8526086718435304
5125000000.0 -0.5063468184452132 -0.882958809234306
5128000000.0 -0.5608977010592826 -0.8646557312767942
5131000000.0 -0.540259828519518 -0.881986217866695
5134000000.0 -0.5278894542080605 -0.8525982128820933
5138000000.0 -0.5813657279549431 -0.8450153048302639
5141000000.0 -0.5840937655020246 -0.8856485604652404
5144000000.0 -0.5664853608830672 -0.8892673045999545
5147000000.0 -0.59688749662733 -0.8829111503720731
5150000000.0 -0.5879873213289577 -0.8941107530492779
5153000000.0 -0.6249173277691378 -0.8697841000079094
5156000000.0 -0.6403266201756996 -0.8484729132094009
5159000000.0 -0.6414276081946702 -0.9027604354978269
5162000000.0 -0.6455027651928661 -0.7915081643614643
5166000000.0 -0.6578527108998209 -0.8284617193860239
5169000000.0 -0.6446704989129401 -0.8515119962778179
5172000000.0 -0.645451102686587 -0.8056045552146597
5175000000.0 -0.6601493141985465 -0.8301292671883554
5178000000.0 -0.6790306019863235 -0.8214350867178393
5181000000.0 -0.6659998734149313 -0.8280768174232767
5184000000.0 -0.6557369555236388 -0.7988262514057735
5188000000.0 -0.6820706317309244 -0.8324492195144074
