! Created with skrf 1.8.0 (http://scikit-rf.org).
# Hz S RI R 50.0 
!freq ReS11 ImS11
4000000000.0 0.6214749698739872 0.8055275855482056
4003000000.0 0.6599743627465589 0.819126780581445
4006000000.0 0.6843094383092042 0.7960179626605915
4009000000.0 0.690462228087339 0.7919790847891964
4012000000.0 0.6401293057962356 0.8669635943074449
4016000000.0 0.6921588233557627 0.7833181793486725
4019000000.0 0.6628809108903138 0.7367115668142241
4022000000.0 0.594803668855973 0.8124975564206878
4025000000.0 0.7364887003313755 0.7320072046446319
4028000000.0 0.7112477005980415 0.7625982254492369
4031000000.0 0.6550954294838726 0.689915022574137
4034000000.0 0.7009714576530376 0.736250412141397
4038000000.0 0.7410719215768022 0.7303282155215017
4041000000.0 0.746454155296688 0.7260528193435763
4044000000.0 0.8280974989179158 0.7567421065416394
4047000000.0 0.7032370613666805 0.8040285229059309
4050000000.0 0.7707782949805796 0.6866825698888902
4053000000.0 0.7537344127250666 0.6910953008463003
4056000000.0 0.7499958584430602 0.7085897438763021
4059000000.0 0.736077119444229 0.7231781308216507
4062000000.0 0.7670767132223996 0.7046369757626083
4066000000.0 0.7345141209152364 0.6099119405593662
4069000000.0 0.823887794481969 0.6713240552399639
4072000000.0 0.8050912161634465 0.6896610371477663
4075000000.0 0.7771592926629466 0.7609065609755428
4078000000.0 0.7952158410929581 0.650056479169673
4081000000.0 0.7755947174940054 0.7384114943342069
4084000000.0 0.850858263036283 0.6396811744198432
4088000000.0 0.7753957585100726 0.6814498019562889
4091000000.0 0.8727157656447418 0.6668153847910285
4094000000.0 0.8280909761774229 0.6297261923523941
4097000000.0 0.8368545270103326 0.6310943315418951
4100000000.0 0.7990874802318353 0.6143382539101374
4103000000.0 0.8581886042412126 0.6454838430241612
4106000000.0 0.8540161297509743 0.6192161556575433
4109000000.0 0.833603932526908 0.5998312889435429
4112000000.0 0.8393408836132479 0.5775989843580507
4116000000.0 0.8438131319745555 0.6180282657075707
4119000000.0 0.8758734761712275 0.5522159188002584
4122000000.0 0.8673012914747512 0.5277711458321883
4125000000.0 0.9098823580256591 0.52337956452233
4128000000.0 0.8415963588889364 0.5570700662173139
4131000000.0 0.8773694568591061 0.5172997457284962
4134000000.0 0.8590505807227752 0.5549789880436525
4138000000.0 0.8737251433317985 0.46506560989629947
4141000000.0 0.8819294238618935 0.497705578749461
4144000000.0 0.8621407227184008 0.5549405354362138
4147000000.0 0.8797845123640954 0.48672687573868384
4150000000.0 0.9052333939933909 0.49349599858329934
4153000000.0 0.8995101258177061 0.46575947317405664
4156000000.0 0.9085878130790346 0.5389113644825152
4159000000.0 0.8740584072410378 0.48345030805495165
4162000000.0 0.8789890132541132 0.47803357842998384
4166000000.0 0.9154942163744699 0.47392550425927427
4169000000.0 0.8978759418763227 0.4304546935404089
4172000000.0 0.9420129471403534 0.42917406537483577
4175000000.0 0.9314612051234895 0.41335702508895483
4178000000.0 0.953318987970247 0.44485217250246556
4181000000.0 0.9594652674945805 0.4110783217336399
4184000000.0 0.957608802139494 0.44326022041915397
4188000000.0 0.9380053994793429 0.3979338717330795
4191000000.0 0.9095854781241569 0.44022155194368356
4194000000.0 0.9206750700220214 0.37606498399792365
4197000000.0 0.955390428798431 0.389149462717932
4200000000.0 0.9562763784781647 0.39593416683163196
4203000000.0 0.9581449521775561 0.3954887975549566
4206000000.0 0.9573389504493283 0.3503599193093126
4209000000.0 0.9466444005590877 0.3510628728262872
4212000000.0 0.9624635275119036 0.32492798093746966
4216000000.0 0.9814831090800077 0.351067807533116
4219000000.0 0.9811804725413448 0.35586515971041377
4222000000.0 0.9821521241264659 0.33171319852620634
4225000000.0 0.9750596130432745 0.3216826749961682
4228000000.0 0.9797715214855647 0.31875803999988184
4231000000.0 0.9736340902432904 0.29685773431799983
4234000000.0 0.9766421782481183 0.27632963319648085
4238000000.0 0.9905109963424384 0.26889588351551474
4241000000.0 0.9965226473139854 0.25683565285184395
4244000000.0 0.9787208848619094 0.27170436215253363
4247000000.0 0.9772264470570596 0.2683537841483007
4250000000.0 0.9743721243081556 0.22690058299404697
4253000000.0 0.9677821022087232 0.23335464749663887
4256000000.0 1.032809341439064 0.22765470176850627
4259000000.0 0.9503440782063203 0.21118502971048456
4262000000.0 1.0011301797072225 0.19996409576760013
4266000000.0 1.022955942152531 0.17191301642318757
4269000000.0 0.9877201764649803 0.22716110090862782
4272000000.0 0.9797401862034423 0.19299237870556046
4275000000.0 1.0106724655695696 0.20438668808936006
4278000000.0 1.0253378346564037 0.18223778434573673
4281000000.0 0.9917740756545068 0.16261433369736528
4284000000.0 1.0192312074961993 0.1349854621122981
4288000000.0 1.0103161877823625 0.15892500855911984
4291000000.0 0.9818718382930366 0.1252480427405262
4294000000.0 0.9988790159981398 0.12006646666232672
4297000000.0 0.9935150882041756 0.14985344842940557
4300000000.0 0.9984646475268963 0.1464865367538061
4303000000.0 0.9986965254653276 0.11005223173057872
4306000000.0 1.020778335520423 0.1526311642282157
4309000000.0 1.000939472061517 0.0986762684559528
4312000000.0 1.0419450556432226 0.12094850620810146
4316000000.0 1.0285763284911908 0.08632197145311714
4319000000.0 0.9902321123468055 0.06431163653115672
4322000000.0 0.9936862846340236 0.02872741990326523
4325000000.0 1.0103523871746165 0.06257467423124725
4328000000.0 1.0054518055262194 0.053655486151824264
4331000000.0 1.0210998924265606 0.006909548179647451
4334000000.0 1.0434628560405694 0.0007837970292825513
4338000000.0 1.0318133560285827 0.04933510253099464
4341000000.0 1.0331087090125022 0.034994269818815565
4344000000.0 1.0224482473582337 -0.010750547724271697
4347000000.0 1.0373221144208244 -0.037999339789350106
4350000000.0 0.9758162778420438 -0.023984684884345686
4353000000.0 0.9953175084175685 -0.02544463739425548
4356000000.0 0.9896569474886138 -0.05731835333266477
4359000000.0 0.9860554631168614 -0.04919418841225369
4362000000.0 1.0250115500261547 -0.09128197505188933
4366000000.0 1.028549811729255 -0.06638795802856351
4369000000.0 0.9493917111195117 -0.06688355158043435
4372000000.0 1.0100909126553586 -0.12528336462820155
4375000000.0 1.0107996132679316 -0.06942157479934713
4378000000.0 0.992414643836659 -0.09064533071523782
4381000000.0 0.9964481635726807 -0.1026043059283554
4384000000.0 1.0745997129268474 -0.13750674933982648
4388000000.0 0.9904941703660903 -0.113818853391748
4391000000.0 1.0242369824326487 -0.12376047488920291
4394000000.0 0.9685643963350801 -0.14542034800693346
4397000000.0 0.9842289094768744 -0.15786150795910894
4400000000.0 1.030446452746603 -0.15735308317743169
4403000000.0 1.0040489098347374 -0.16531336422618698
4406000000.0 0.9934736107220474 -0.21707998791662658
4409000000.0 1.0217860434093937 -0.19274721569901193
4412000000.0 0.971290226934568 -0.23990880418933863
4416000000.0 0.9824761442116865 -0.2106958359291929
4419000000.0 0.9810523655230105 -0.22652217347922715
4422000000.0 0.9896269989868047 -0.21021016122772257
4425000000.0 1.00980244966361 -0.21578567204769103
4428000000.0 0.9707378412582045 -0.2523338285730437
4431000000.0 1.005467261691228 -0.24914539130479613
4434000000.0 0.9569692177560513 -0.26061080585498797
4438000000.0 0.9923701385778332 -0.2746590153723779
4441000000.0 0.9936731307720454 -0.2693545150916932
4444000000.0 0.9522041206439931 -0.2729454397191954
4447000000.0 0.9575274379905969 -0.3061729410989552
4450000000.0 0.9544958261721284 -0.2916206832366923
4453000000.0 0.9857136491825641 -0.29428633388791886
4456000000.0 0.931616642213086 -0.32054606866823127
4459000000.0 0.9156328818083412 -0.3458776254936997
4462000000.0 1.0079497532036754 -0.35803570211327407
4466000000.0 0.986920946558252 -0.3643589906059614
4469000000.0 0.9642848351557459 -0.3235739346756384
4472000000.0 0.9718540166189729 -0.3925383635058963
4475000000.0 0.9258621632368906 -0.3504152310036629
4478000000.0 0.961315346142791 -0.41263317689683054
4481000000.0 0.9060473741557385 -0.38911380222603714
4484000000.0 0.8995712802144615 -0.4187395980001761
4488000000.0 0.909202841330573 -0.39372507413433594
4491000000.0 0.9269262170611684 -0.4246100342275813
4494000000.0 0.9051227942400856 -0.3950190946109479
4497000000.0 0.9131602030154253 -0.4151754301804291
4500000000.0 0.9192802453539473 -0.43657352433976027
4503000000.0 0.9293348701789077 -0.4376218311616524
4506000000.0 0.8883524107310146 -0.44750656155759433
4509000000.0 0.890297581901889 -0.4632025017765621
4512000000.0 0.8770914946864729 -0.4709054186453562
4516000000.0 0.9242478849189242 -0.47003344950188697
4519000000.0 0.8922411535326108 -0.4627042083861881
4522000000.0 0.8782847694640401 -0.49395635325346776
4525000000.0 0.8875493405953561 -0.4694917838988246
4528000000.0 0.886204118766603 -0.5222298796354751
4531000000.0 0.8872253981903649 -0.49896641400266883
4534000000.0 0.8516931820094146 -0.5064970686605259
4538000000.0 0.851949417749337 -0.5088048250569538
4541000000.0 0.8316935539075726 -0.5427521280138013
4544000000.0 0.842158563434021 -0.5171387207023143
4547000000.0 0.8483291279903545 -0.5169952352932019
4550000000.0 0.8424549922067148 -0.5718994647341987
4553000000.0 0.8446030364707104 -0.5714283221484349
4556000000.0 0.8019397923586797 -0.5639454228597187
4559000000.0 0.8296070546059088 -0.5923447181853216
4562000000.0 0.8246352184545418 -0.5716867240684322
4566000000.0 0.8180541396681107 -0.615694382871355
4569000000.0 0.7839610375343073 -0.5831520571324968
4572000000.0 0.7920247980579179 -0.6044544844888127
4575000000.0 0.8047489344164585 -0.6336863507263397
4578000000.0 0.8320206172656837 -0.6168969976457036
4581000000.0 0.7987380941682571 -0.6288999443348197
4584000000.0 0.7804055525816914 -0.6444163443413508
4588000000.0 0.812218400603199 -0.6506818511580953
4591000000.0 0.7867714132078601 -0.6468280611412979
4594000000.0 0.7575738379069685 -0.6604926386705523
4597000000.0 0.7481213540284763 -0.6744855760920121
4600000000.0 0.7378379414523406 -0.6690901740883733
4603000000.0 0.7546672192299855 -0.6871208084282262
4606000000.0 0.758936340243415 -0.7058639550667128
4609000000.0 0.734684033568886 -0.6968678262366226
4612000000.0 0.7352103374648404 -0.6984023316956126
4616000000.0 0.7125779756627897 -0.697314945981564
4619000000.0 0.7287713327671941 -0.7102783494871275
4622000000.0 0.7021817279267282 -0.7153004404177843
4625000000.0 0.6615168658241195 -0.7244507781137494
4628000000.0 0.6804123227351003 -0.7100861178513037
4631000000.0 0.6779521648324731 -0.7395378786759027
4634000000.0 0.6831034748849589 -0.737977368804387
4638000000.0 0.6850798122007745 -0.764790583824694
4641000000.0 0.6761774905659083 -0.7521329867701125
4644000000.0 0.6559445880999676 -0.7653226094210243
4647000000.0 0.6821951481395044 -0.7783166641949164
4650000000.0 0.6416162557344904 -0.7804875392419507
4653000000.0 0.6640405691735946 -0.7842540389282502
4656000000.0 0.6440012762086542 -0.7791244597202214
4659000000.0 0.616646234768357 -0.7903085436446332
4662000000.0 0.6302044398742663 -0.7961899530428705
4666000000.0 0.6174010504977715 -0.7951064852537776
4669000000.0 0.6228987522294085 -0.7936327406108458
4672000000.0 0.5908499132802165 -0.8280539050740061
4675000000.0 0.5767664016873373 -0.8279978564728282
4678000000.0 0.5988741512340665 -0.805308978025372
4681000000.0 0.5852014900930607 -0.8439371759268538
4684000000.0 0.5605167578346262 -0.8503858608022486
4688000000.0 0.5493722750657265 -0.8467798324880501
4691000000.0 0.5867573256103966 -0.8519026138962589
4694000000.0 0.5682268884704379 -0.8496890136135999
4697000000.0 0.5020174202009178 -0.8316842935636353
4700000000.0 0.5466863742731006 -0.848943825467019
4703000000.0 0.544014688587103 -0.8241562374059872
4706000000.0 0.5087351042240519 -0.8985450573106903
4709000000.0 0.5140047574232891 -0.8873535360667767
4712000000.0 0.49641685401176305 -0.871147633584222
4716000000.0 0.5222512936536514 -0.8809488190436985
4719000000.0 0.5205431000117997 -0.8626426721496937
4722000000.0 0.4990725843920411 -0.890546121201554
4725000000.0 0.4910706160264282 -0.9012291197543774
4728000000.0 0.4632718503317094 -0.8835984030718245
4731000000.0 0.49244133769007326 -0.9172757309901804
4734000000.0 0.4727282787128081 -0.8919140683437783
4738000000.0 0.47986400965197035 -0.9733420563094806
4741000000.0 0.46254110547176497 -0.933994663319057
4744000000.0 0.4193420284269529 -0.9335710848558741
4747000000.0 0.4159213646206476 -0.8895833923978743
4750000000.0 0.4300312457038974 -0.9302878086841816
4753000000.0 0.4091723818399014 -0.9337284455668895
4756000000.0 0.3686338293772755 -0.9398029468046738
4759000000.0 0.4018274141198511 -0.9491235087951169
4762000000.0 0.3730162045993908 -0.978334792650086
4766000000.0 0.36831940965813237 -0.9366357790148407
4769000000.0 0.37871168521250165 -0.9444451987162734
4772000000.0 0.39129598511776853 -0.9653005131700544
4775000000.0 0.3291714050401192 -0.9912231931193047
4778000000.0 0.3510797752332525 -0.9550446842438881
4781000000.0 0.3442709105236474 -0.9573967554458382
4784000000.0 0.3555845401831291 -0.9356731664411094
4788000000.0 0.31012774476612964 -0.9817985791215094
4791000000.0 0.30030420023544246 -0.9658034361118849
4794000000.0 0.321294839264759 -1.0018839061133387
4797000000.0 0.26342372085829296 -0.9582349077964013
4800000000.0 0.2837963425529746 -0.975868603162175
4803000000.0 0.24067877442717325 -0.9706986196266099
4806000000.0 0.2833342427681089 -1.0038899213961012
4809000000.0 0.23602811496573334 -0.9900147280342978
4812000000.0 0.2350510176560289 -0.995508661979084
4816000000.0 0.26701802928996077 -0.9611406103821305
4819000000.0 0.26014264189800146 -1.0077064941588325
4822000000.0 0.28002230502925457 -1.023143267235189
4825000000.0 0.25468305377452205 -0.995850372013297
4828000000.0 0.21957331779869027 -1.0011279502528305
4831000000.0 0.16242473133117008 -1.04560623803978
4834000000.0 0.20923754788781582 -1.0052042374222014
4838000000.0 0.14942018915413063 -1.038754806133829
4841000000.0 0.15320638427515876 -0.9895962969479734
4844000000.0 0.211449673016182 -1.0063621803958107
4847000000.0 0.17986977698902817 -0.9923081186619849
4850000000.0 0.1559207621582738 -1.0364226382700976
4853000000.0 0.15092356563829368 -0.9773670887269967
4856000000.0 0.12013967653943088 -0.9992090391668508
4859000000.0 0.1323012139169659 -1.0461728087035125
4862000000.0 0.13352887116485349 -1.0040540670362987
4866000000.0 0.10814814466780795 -1.0257668764265522
4869000000.0 0.09480845657907691 -1.0424944893693935
4872000000.0 0.078016482344983 -1.058346093400134
4875000000.0 0.14081546173933052 -1.0609589704381648
4878000000.0 0.08859968882704422 -1.0352891071311043
4881000000.0 0.05852369565294698 -1.099719571694694
4884000000.0 0.09196183912295808 -1.030725486708841
4888000000.0 0.07848360332561417 -1.0225157579912727
4891000000.0 0.05530711155149397 -1.0247153959300705
4894000000.0 0.012602940178701678 -1.0442446941083183
4897000000.0 0.061360696569284015 -1.0441382567441113
4900000000.0 0.02992841903342871 -1.0619111917921498
4903000000.0 0.030891739802335828 -1.0525984963663004
4906000000.0 0.0030425938875200346 -1.0650838509347633
4909000000.0 -0.02435776504903739 -1.0402638381390918
4912000000.0 -0.02468304337192704 -1.0569835647208727
4916000000.0 -0.006737627083194905 -1.0751846861428076
4919000000.0 0.01448812472402869 -1.0080689896721622
4922000000.0 0.015251628775524169 -1.0501851863761213
4925000000.0 -0.058970962457170636 -1.0250632963634898
4928000000.0 0.015159672524998558 -0.9916900982571377
4931000000.0 -0.04421911034214947 -1.023521313443729
4934000000.0 -0.053524314620888566 -0.9990405418145291
4938000000.0 -0.11852417835977881 -0.996839411694062
4941000000.0 -0.06765280098602038 -1.0067953999518742
4944000000.0 -0.0760367515638243 -0.9689347716179484
4947000000.0 -0.09109316206793294 -0.973177628945352
4950000000.0 -0.11667687820877058 -1.0159498750663538
4953000000.0 -0.16474438526992807 -1.0713825839749935
4956000000.0 -0.16884458926652318 -1.04861659402414
4959000000.0 -0.18772774754766627 -1.013223689452451
4962000000.0 -0.16243344214889485 -1.0711257554460953
4966000000.0 -0.1390301641490082 -1.0665716146853517
4969000000.0 -0.12789903892659488 -1.061362180647275
4972000000.0 -0.20499639701548658 -1.0066880803885436
4975000000.0 -0.1417929399103379 -1.018925605051423
4978000000.0 -0.19525280414293433 -0.9793947364202754
4981000000.0 -0.20873638681367865 -1.0226224559987134
4984000000.0 -0.18510554488967454 -0.9900154930599265
4988000000.0 -0.18713987645310048 -1.0173722253558943
4991000000.0 -0.16035655426728135 -1.0574017384120245
4994000000.0 -0.21390018502306934 -1.0249638401360288
4997000000.0 -0.24655107603203924 -0.99921948766091
5000000000.0 -0.2328513872306342 -1.0507212473271046
5003000000.0 -0.19430274602249242 -1.0442067328619273
5006000000.0 -0.2740902289139988 -1.050696745591432
5009000000.0 -0.2602467992008264 -1.009137770439535
5012000000.0 -0.3024237305658571 -1.0163155625664249
5016000000.0 -0.24205256945239523 -1.0293305128663814
5019000000.0 -0.28064770768911373 -0.9753251069659647
5022000000.0 -0.29070289823029105 -0.9896582714124762
5025000000.0 -0.29565381590360024 -1.0775500438307188
5028000000.0 -0.3485815890504699 -0.9849542582908697
5031000000.0 -0.33892131062463315 -0.9698253247184067
5034000000.0 -0.3574647642775005 -1.007032501026569
5038000000.0 -0.33780036795227875 -0.9591508098566706
5041000000.0 -0.3077831613366976 -0.9967356441739662
5044000000.0 -0.2979520672243998 -0.9634654293032171
5047000000.0 -0.3486574670339349 -1.0221980039983962
5050000000.0 -0.2854824033020861 -0.9741448024278421
5053000000.0 -0.3730214527656335 -1.0465594949119137
5056000000.0 -0.3534403714699186 -1.012002254036139
5059000000.0 -0.32154475212870587 -0.999006400937294
5062000000.0 -0.4209574175530043 -0.9699821287449584
5066000000.0 -0.335960787839488 -0.942892450661809
5069000000.0 -0.4207555982820752 -0.9494757188036062
5072000000.0 -0.40148526122318656 -0.917168062854901
5075000000.0 -0.3789831538356383 -0.9536733265125101
5078000000.0 -0.4790302876742743 -0.9070081140049329
5081000000.0 -0.46285190446970076 -0.8866507485232477
5084000000.0 -0.4666806511829743 -0.9532130761973416
5088000000.0 -0.4152466633077446 -0.9435252338909876
5091000000.0 -0.5045045179981593 -0.9177061533313524
5094000000.0 -0.4485770689533814 -0.9145377289364977
5097000000.0 -0.4410291486834633 -0.941737534887358
5100000000.0 -0.4644377629113258 -0.9646417249823854
5103000000.0 -0.5461355466274801 -0.9122011584308302
5106000000.0 -0.4848654942565008 -0.921417007276321
5109000000.0 -0.4730658655048134 -0.9344866153120752
5112000000.0 -0.5410668233466148 -0.8941329298599718
5116000000.0 -0.5030500451528797 -0.8335964713324835
5119000000.0 -0.5785168573395056 -0.9444195634838222
5122000000.0 -0.48496783876004507 -0.9167117374244167
5125000000.0 -0.4899107163984228 -0.9094197707311438
5128000000.0 -0.5479172155804662 -0.8862597205587641
5131000000.0 -0.5319124234274443 -0.8702482272979557
5134000000.0 -0.5529077575725287 -0.8716984617587006
5138000000.0 -0.5394439040590339 -0.8947790454183936
5141000000.0 -0.5014862880673354 -0.9202511113973542
5144000000.0 -0.5619132387279304 -0.9045614506939211
5147000000.0 -0.5689383064155558 -0.8947721172133737
5150000000.0 -0.5770921611968274 -0.8659713018001801
5153000000.0 -0.5435116350166265 -0.8541803179472278
5156000000.0 -0.6196512964234997 -0.8689866673470156
5159000000.0 -0.6161019910642094 -0.8796731943380701
5162000000.0 -0.6384833121067989 -0.8499749001638771
5166000000.0 -0.6726434543057956 -0.8665003432464272
5169000000.0 -0.603564646258597 -0.8761181350838739
5172000000.0 -0.6146503260996267 -0.8230792039218898
5175000000.0 -0.6516367746349575 -0.8409452560006259
5178000000.0 -0.6314151701989237 -0.8148904284427959
5181000000.0 -0.6666665729007849 -0.8341493013067431
5184000000.0 -0.6672041361241573 -0.8209069370761487
5188000000.0 -0.6610739688621065 -0.8092835646414445
