! Created with skrf 1.8.0 (http://scikit-rf.org).
# Hz S RI R 50.0 
!freq ReS11 ImS11
4000000000.0 -0.10062337090059646 1.0151633245237943
4003000000.0 -0.03661721049712312 1.077999998726415
4006000000.0 -0.04904899820987088 1.03226052673529
4009000000.0 -0.0534243613095493 1.0483948444486832
4012000000.0 -0.12760606743388053 1.0429012937618771
4016000000.0 -0.058129030832626924 1.0492096526790728
4019000000.0 0.002099613775327549 1.060727724328162
4022000000.0 -0.10905072233624177 1.047056100417456
4025000000.0 0.07207624697543263 1.0589726489572864
4028000000.0 0.040275737773680466 1.0385844048579616
4031000000.0 0.011779425604562719 0.9718979113664156
4034000000.0 0.06707000542398503 1.0205427544981571
4038000000.0 0.0829566834995719 1.0605104222174346
4041000000.0 0.07177971325727915 1.0896370149535077
4044000000.0 0.07588945762822412 1.1279101427896876
4047000000.0 0.015158566788267026 1.1023264536410309
4050000000.0 0.13508013390656376 1.0559298594861775
4053000000.0 0.16453571298725467 1.0272939738361153
4056000000.0 0.12465207489837912 1.0546963617613478
4059000000.0 0.08464732873729364 1.0181150068400937
4062000000.0 0.21081571344070316 1.0133569751911462
4066000000.0 0.15635423786389793 0.9482212420909127
4069000000.0 0.19967180334894485 1.0708362534058335
4072000000.0 0.11535760056153448 1.0646259918570602
4075000000.0 0.10376330916359065 1.0496847234805942
4078000000.0 0.19626841479405205 1.050481691655844
4081000000.0 0.11305007885663693 1.054941176537152
4084000000.0 0.24072998953979943 1.0214044994585745
4088000000.0 0.17490040101533852 1.0079131730282325
4091000000.0 0.31271613149430233 1.1289370342086589
4094000000.0 0.2198694136139296 1.0104143367174152
4097000000.0 0.2511654616758622 1.0018294353482802
4100000000.0 0.28341394601994113 1.0038828312259238
4103000000.0 0.24224227539914472 1.0450572642313032
4106000000.0 0.3164071508162677 1.0118018793433423
4109000000.0 0.3495114784355587 1.016639684360224
4112000000.0 0.333810902589891 0.9932314859416995
4116000000.0 0.21187633220841895 0.9904126808890059
4119000000.0 0.3940253563728749 0.9645018824903449
4122000000.0 0.3907035042574106 1.0153178969420769
4125000000.0 0.38825728381570324 1.0261885160948352
4128000000.0 0.3330236426633725 0.9909076716713141
4131000000.0 0.31652550736016793 0.9680267115279246
4134000000.0 0.374630386866445 0.9757669793680335
4138000000.0 0.3925026625938924 0.9525601374379766
4141000000.0 0.4257928879644668 0.9738608109890783
4144000000.0 0.3864143537751562 0.9800013208606828
4147000000.0 0.44781101774417825 0.9106766560248756
4150000000.0 0.43664604186334566 0.9992152915077113
4153000000.0 0.46958750016374434 0.9744345243470117
4156000000.0 0.43179754054993924 0.9538320972528391
4159000000.0 0.43707347010107334 0.9384379795120175
4162000000.0 0.43842930003899183 0.9257979738369371
4166000000.0 0.494353708143792 0.9052671290094669
4169000000.0 0.5111495055383936 0.9640809210895457
4172000000.0 0.46112597377565145 0.9098305301164344
4175000000.0 0.441916338497657 0.8608178789581771
4178000000.0 0.5259449265047392 0.9260884393287225
4181000000.0 0.5122334289624827 0.938303738506168
4184000000.0 0.5668178213869732 0.9238632320336988
4188000000.0 0.5103389475732147 0.8791757197221557
4191000000.0 0.48102415138746113 0.8610863507235167
4194000000.0 0.5427044827615162 0.8862336338910074
4197000000.0 0.5336984209378871 0.8789752937324478
4200000000.0 0.586938602124254 0.8689109822084474
4203000000.0 0.5211391803830995 0.8532997722055977
4206000000.0 0.5917241848197614 0.8564636213514838
4209000000.0 0.5739209276787186 0.8564183023384924
4212000000.0 0.5993918626575946 0.8335439637818437
4216000000.0 0.5698326239906983 0.8194885627750184
4219000000.0 0.598232746497547 0.8482361750852553
4222000000.0 0.636053036715311 0.8658603136907221
4225000000.0 0.5943235789905614 0.8111258906455098
4228000000.0 0.6253746504507739 0.8807057120827523
4231000000.0 0.6027061787013438 0.8464612894273266
4234000000.0 0.6049883846004219 0.8321617681404616
4238000000.0 0.6646419485538535 0.807584651236492
4241000000.0 0.6307002235116295 0.8287005191063685
4244000000.0 0.605306469499639 0.831116881179769
4247000000.0 0.6799390477713045 0.830648029668095
4250000000.0 0.6746271062715008 0.7692564088112493
4253000000.0 0.6584702325342304 0.7756791577390711
4256000000.0 0.6854216734832985 0.7438860628490331
4259000000.0 0.6931890552099407 0.753185323580231
4262000000.0 0.7060421584049 0.7685068081219651
4266000000.0 0.720448645537142 0.76035641345234
4269000000.0 0.7145823938546686 0.7698370109478997
4272000000.0 0.7453038250720203 0.7246775908547418
4275000000.0 0.7174919671005293 0.7178275645185643
4278000000.0 0.7303365738130785 0.7168624136646006
4281000000.0 0.7080315094213141 0.7100876017552891
4284000000.0 0.769635324837672 0.7107228738484984
4288000000.0 0.7145668380613505 0.7034165022625675
4291000000.0 0.7506764037299674 0.7120123680726765
4294000000.0 0.7741915767389306 0.6913423426660857
4297000000.0 0.7590895400851282 0.6807879567918004
4300000000.0 0.7564736537201768 0.6668115750611382
4303000000.0 0.8013528521961424 0.6325651162379295
4306000000.0 0.7890545258038191 0.6703229888418655
4309000000.0 0.7969105468156632 0.642687558806387
4312000000.0 0.8006820370853226 0.6676716261462303
4316000000.0 0.8262574842818095 0.6671560517019431
4319000000.0 0.7884010871525218 0.6479873720271903
4322000000.0 0.8133124314255267 0.5763057743844194
4325000000.0 0.8082496998649898 0.6427452579906934
4328000000.0 0.8203030659142003 0.6144164734623441
4331000000.0 0.8472291578717618 0.5599159005792173
4334000000.0 0.8525771024455683 0.6026149722049369
4338000000.0 0.809305177622104 0.6124811062331248
4341000000.0 0.8022792043752454 0.6044287678932377
4344000000.0 0.8606487726317914 0.5654993144505286
4347000000.0 0.8573001442557607 0.5320225126858672
4350000000.0 0.8584404204798809 0.505778082230659
4353000000.0 0.8185284728686157 0.5469745021702408
4356000000.0 0.8543829165906126 0.526927002371557
4359000000.0 0.8630622075699197 0.5319443056416708
4362000000.0 0.9175691511981525 0.4836144590945429
4366000000.0 0.9050942300027864 0.5014544155859599
4369000000.0 0.9051080996286327 0.4714034802096392
4372000000.0 0.9017234651766641 0.4359429578278501
4375000000.0 0.8879627610659195 0.4704289703275002
4378000000.0 0.8880017980682156 0.4775040918237342
4381000000.0 0.9242627738023694 0.48992200434361355
4384000000.0 0.9502546558127907 0.4537549688873497
4388000000.0 0.8967720995957761 0.4565326409059734
4391000000.0 0.9289883843047513 0.4664011819581787
4394000000.0 0.9120400843138209 0.4270816069595338
4397000000.0 0.9029880938279975 0.41644710457369405
4400000000.0 0.9594379218841236 0.4337676470085501
4403000000.0 0.9552699153219114 0.4285616596992957
4406000000.0 0.9397200584748504 0.3700147607972546
4409000000.0 0.9816069225273603 0.37482836692303495
4412000000.0 0.9721478137630725 0.33359296086164353
4416000000.0 0.9360485035754191 0.330368488084957
4419000000.0 0.9527748766237969 0.3224695249840564
4422000000.0 0.9564994635797823 0.35956545038184134
4425000000.0 0.9748044806220063 0.3862443841029187
4428000000.0 0.9736887966767033 0.32466490113841373
4431000000.0 0.990900253159452 0.34048559675257306
4434000000.0 0.9802803124502113 0.3157870512773759
4438000000.0 0.999632054503669 0.3207666653275944
4441000000.0 0.9921525623709875 0.30005123701994035
4444000000.0 0.9579519303336301 0.2972673494280542
4447000000.0 0.9597793650674608 0.25707488357939196
4450000000.0 0.963959950971384 0.2834545653719759
4453000000.0 1.0122833429645577 0.2708970013938356
4456000000.0 0.9664295615765154 0.24151169661435892
4459000000.0 0.9473660067022536 0.2090607442170677
4462000000.0 1.0444826665539235 0.24563167650374082
4466000000.0 1.0171140195964292 0.20978154260490764
4469000000.0 0.9945482988828228 0.2313563751288737
4472000000.0 1.028383789734232 0.17378708038839163
4475000000.0 0.9836119234141368 0.19108513485034226
4478000000.0 1.0404937587641216 0.16855226311663643
4481000000.0 0.9877069142616095 0.1378768616218064
4484000000.0 1.0051775905012494 0.11104798766140381
4488000000.0 1.0006918666614841 0.13931780877755467
4491000000.0 1.009338136852136 0.10768925911133523
4494000000.0 0.9871238309085352 0.1259946050000276
4497000000.0 0.9991282906224259 0.13302293912438123
4500000000.0 1.0087523133984007 0.1246349045118946
4503000000.0 1.0329457298025788 0.10707373979268633
4506000000.0 1.0030445227353368 0.09538369942517695
4509000000.0 0.9952831520422216 0.07611560884098269
4512000000.0 0.9983544955074221 0.058574299604313915
4516000000.0 1.0313505142604156 0.07579724141403013
4519000000.0 0.9863456987539079 0.061534333227032396
4522000000.0 1.0154981955591913 0.03715009021775122
4525000000.0 1.0157288238032929 0.08269194391241841
4528000000.0 1.0282846898952585 0.026365589879788903
4531000000.0 1.0112400201600238 0.03354089043770158
4534000000.0 0.9825007910953849 0.03160349532823735
4538000000.0 0.9987420336667769 -0.0053358550659415305
4541000000.0 0.9803377198325732 -0.048042028608927125
4544000000.0 0.981636887759388 -0.02028136868571402
4547000000.0 0.9797631343147819 0.010709436589813347
4550000000.0 1.0139788134698402 -0.06638232149847043
4553000000.0 1.0100415745183144 -0.032073358746260855
4556000000.0 0.9763640667568434 -0.08933565186662812
4559000000.0 1.010768795816717 -0.07503120710027211
4562000000.0 1.028223040372801 -0.07948708474693983
4566000000.0 1.0124289372567161 -0.09473083724523018
4569000000.0 0.9839032852896124 -0.08792209185390434
4572000000.0 0.9950245149681775 -0.10296507043496343
4575000000.0 1.0119623802620192 -0.14633774200854804
4578000000.0 1.0254926447441532 -0.11306915785623589
4581000000.0 1.0090067430122216 -0.15828157496807638
4584000000.0 0.9856924038064525 -0.13604982945359675
4588000000.0 1.0235510301307547 -0.13788035072488958
4591000000.0 1.000121564775917 -0.13851384198840522
4594000000.0 0.9924793071540453 -0.19432653470885838
4597000000.0 1.0047088864474305 -0.161421258400283
4600000000.0 0.9433845599493472 -0.2337367419077492
4603000000.0 0.9931610508354283 -0.2223424941222804
4606000000.0 0.9772039837106397 -0.19979297856929729
4609000000.0 0.9850302805605292 -0.23731442957664917
4612000000.0 0.9984398585685019 -0.23651011818567072
4616000000.0 0.9748992841213635 -0.2369755217780076
4619000000.0 0.9890149430092745 -0.23834617237787548
4622000000.0 0.9754071330637463 -0.24546656906686948
4625000000.0 0.9060512491118071 -0.26299929370124253
4628000000.0 0.9472888909904211 -0.2428875920242791
4631000000.0 0.938696262946171 -0.3008909560111471
4634000000.0 0.9662866054975839 -0.2813356845318909
4638000000.0 0.9665260961621052 -0.31168518468510154
4641000000.0 0.9820132648277204 -0.3014955585575028
4644000000.0 0.9531397358637906 -0.3224591338986922
4647000000.0 0.9684099231686286 -0.3331412307492564
4650000000.0 0.9448552244764995 -0.3604138957447443
4653000000.0 0.9800950212848478 -0.34426842601755453
4656000000.0 0.9476502292290432 -0.38497873563631296
4659000000.0 0.9329069125242759 -0.36038997248701243
4662000000.0 0.938932512759804 -0.38218839152473016
4666000000.0 0.9091536945692814 -0.3840578379761882
4669000000.0 0.9170237726043584 -0.37853987305097825
4672000000.0 0.8977367615557177 -0.420663881200661
4675000000.0 0.8677729462529475 -0.42365495221758376
4678000000.0 0.9010040085171833 -0.43058694344064863
4681000000.0 0.902988574502507 -0.4506198895476946
4684000000.0 0.8846946311924291 -0.4548952576609667
4688000000.0 0.8908001523098634 -0.44806113521787794
4691000000.0 0.892689817379784 -0.4451957136400654
4694000000.0 0.9057731138761739 -0.48057606920965684
4697000000.0 0.8772104345545164 -0.4660972440412783
4700000000.0 0.9022713303776658 -0.47660565971678787
4703000000.0 0.885227623454824 -0.504032381132707
4706000000.0 0.862213118054137 -0.49592660797763094
4709000000.0 0.8556627840826552 -0.5282169528642894
4712000000.0 0.8676939520613174 -0.5165764221312285
4716000000.0 0.8642499553919863 -0.5356608060380789
4719000000.0 0.882469907779268 -0.5365673185190644
4722000000.0 0.8831506544228849 -0.5196436378775999
4725000000.0 0.8321983441835946 -0.560190636554058
4728000000.0 0.8351166861409542 -0.5691764903144882
4731000000.0 0.8629583677961097 -0.5624042356790262
4734000000.0 0.8394985234537322 -0.5521187991580454
4738000000.0 0.8451279182671405 -0.5850667225630847
4741000000.0 0.8109874696213605 -0.5927751145355235
4744000000.0 0.804990345340331 -0.6096421224358831
4747000000.0 0.8056250741885417 -0.6030605303946126
4750000000.0 0.7893352184867961 -0.6309392161057075
4753000000.0 0.7918372728202767 -0.6400790531811376
4756000000.0 0.7793424828071036 -0.6597578481716517
4759000000.0 0.7767513650703797 -0.6402963136767956
4762000000.0 0.7820442404525889 -0.646223975066294
4766000000.0 0.767453870603196 -0.6344448777000659
4769000000.0 0.8013256667497703 -0.6708272269559054
4772000000.0 0.7566561327366408 -0.6922186381883312
4775000000.0 0.7603576597489645 -0.7028092867734227
4778000000.0 0.7413876097445506 -0.6769355375096718
4781000000.0 0.7462224156595667 -0.6912189249166161
4784000000.0 0.7376996141209017 -0.6579917051770496
4788000000.0 0.7556944009273608 -0.6771366060025971
4791000000.0 0.7237168254689605 -0.7221454499869873
4794000000.0 0.7295485226439452 -0.7143752165368125
4797000000.0 0.7000919929751103 -0.7398490707459353
4800000000.0 0.6795347420890767 -0.7433600186009806
4803000000.0 0.6903264133062008 -0.7590699705049764
4806000000.0 0.6978461283619024 -0.7468813715940159
4809000000.0 0.6727906829361519 -0.7688698490598436
4812000000.0 0.6564014174268485 -0.7571426196058768
4816000000.0 0.6687954933816654 -0.7647584311247053
4819000000.0 0.691823852821535 -0.776350031498482
4822000000.0 0.6774528078493575 -0.7793258200598194
4825000000.0 0.6593638031199096 -0.7958056945146856
4828000000.0 0.6346372824673293 -0.7917282128860627
4831000000.0 0.61768575691558 -0.8184347420100769
4834000000.0 0.6453828561545829 -0.8089115607683988
4838000000.0 0.6129084454378969 -0.8289726317674135
4841000000.0 0.6150860281015398 -0.8171188998688658
4844000000.0 0.6246625819013141 -0.7930084183842762
4847000000.0 0.6014788598085173 -0.7900835949852706
4850000000.0 0.6002642203759394 -0.8504815359370757
4853000000.0 0.5807999869374708 -0.823199173991698
4856000000.0 0.5644659926450504 -0.8233966181522848
4859000000.0 0.6079141340847158 -0.8810209813799549
4862000000.0 0.5761279611604699 -0.8272567971455264
4866000000.0 0.5582358818223717 -0.8658928889198074
4869000000.0 0.534801678563139 -0.8641315606027323
4872000000.0 0.5171833068080383 -0.8841703325138303
4875000000.0 0.5667448719254472 -0.8705189491996111
4878000000.0 0.5153872117627487 -0.8967899695051329
4881000000.0 0.5205503469234997 -0.9288102225884747
4884000000.0 0.5356457100601228 -0.8863000848914376
4888000000.0 0.537210754219802 -0.881548916600119
4891000000.0 0.5264681727371712 -0.9070648654336497
4894000000.0 0.48624788378206857 -0.9045860545726664
4897000000.0 0.5071989919371475 -0.8715865901865267
4900000000.0 0.465252291097503 -0.9241519412574096
4903000000.0 0.5010237447704989 -0.9178189793435607
4906000000.0 0.4623910244858224 -0.9195536321957862
4909000000.0 0.4566189611406649 -0.915494363971643
4912000000.0 0.4416498177257558 -0.9572490637396769
4916000000.0 0.4739489709495896 -0.9423688719263117
4919000000.0 0.4766901570597464 -0.9280451464441895
4922000000.0 0.44505189738234285 -0.9470442135840705
4925000000.0 0.3942869446083055 -0.9462985684808302
4928000000.0 0.4322565076342447 -0.9099126505861688
4931000000.0 0.40335893503112497 -0.9658651500872184
4934000000.0 0.33846778797407967 -0.9024440114874863
4938000000.0 0.3398138290763452 -0.9351017322745259
4941000000.0 0.34275273785549565 -0.934731750872853
4944000000.0 0.3724193792327969 -0.9044980601486605
4947000000.0 0.3291792572195472 -0.9133114711769706
4950000000.0 0.31763415841847303 -0.962813549816339
4953000000.0 0.2956141061360215 -1.0007567016705494
4956000000.0 0.3189487526653688 -0.9756206223891604
4959000000.0 0.26134914103270446 -0.9381398246686009
4962000000.0 0.2918460983592375 -1.011164777320964
4966000000.0 0.30122108764323696 -0.9977236006852476
4969000000.0 0.3440688463246844 -1.0253042000080967
4972000000.0 0.2811916476998623 -1.0172872192150786
4975000000.0 0.3216501424912965 -0.968315331839149
4978000000.0 0.2682843904588748 -0.9737162067568857
4981000000.0 0.23272242144779265 -0.9854778239185334
4984000000.0 0.26607208906939606 -0.9629838756397253
4988000000.0 0.24734051489420378 -0.9857262306425779
4991000000.0 0.2971671397671676 -0.9734081745287858
4994000000.0 0.26042821814964207 -1.0064079758269813
4997000000.0 0.19052876703794575 -1.013866344859637
5000000000.0 0.21883027837478758 -1.03365640413368
5003000000.0 0.22043973360083535 -1.0697355560022754
5006000000.0 0.1859594896802924 -1.0797652722961184
5009000000.0 0.16477868465230305 -1.0009105146200938
5012000000.0 0.1755031551789887 -1.0145407504199355
5016000000.0 0.22452022786397388 -1.0441162733845841
5019000000.0 0.13860539826966342 -1.0228237738139236
5022000000.0 0.14550825105349696 -1.0335228709950388
5025000000.0 0.11581957941785916 -1.0876707838210582
5028000000.0 0.09808608204776265 -1.03954023404992
5031000000.0 0.11946768389718503 -1.0055446048317513
5034000000.0 0.09601280971071281 -1.0788238070289047
5038000000.0 0.05455949398683238 -1.0144816614499348
5041000000.0 0.14943877526060434 -1.053264490226923
5044000000.0 0.1202272312212433 -1.0011270193057924
5047000000.0 0.1047530616470968 -1.0144957552624887
5050000000.0 0.18198074496975358 -0.9840167375547937
5053000000.0 0.046348966532741426 -1.0869122779540763
5056000000.0 0.1330095141588865 -1.0612477271237417
5059000000.0 0.11449704826587061 -1.0448668916459276
5062000000.0 0.025564423393565544 -1.0367096980526698
5066000000.0 0.08475850574579229 -1.007461216198472
5069000000.0 0.021890240417371434 -1.0515349088136994
5072000000.0 0.001892803933703252 -0.9775433301718435
5075000000.0 0.07722605512028857 -1.0471315733649385
5078000000.0 -0.06223062620811021 -1.0188993934583177
5081000000.0 -0.0146316012716044 -1.0107974442984025
5084000000.0 -0.024803140084209932 -1.0773897417964438
5088000000.0 -0.0024885591722742795 -1.0522311469412715
5091000000.0 -0.09070575484825144 -1.0854584426010494
5094000000.0 -0.052870435273543806 -1.052416782919178
5097000000.0 -0.001997250061839359 -1.057671572132331
5100000000.0 -0.03498041104585191 -1.0114344981682444
5103000000.0 -0.09611788369305321 -1.0311528804345187
5106000000.0 -0.0719674556528155 -1.1047750623115837
5109000000.0 -0.05565017495824602 -1.0500532723925051
5112000000.0 -0.10076776273402283 -1.0406981954651415
5116000000.0 -0.08764152210736262 -0.9903074646862511
5119000000.0 -0.05890273128054188 -1.048387953688758
5122000000.0 -0.08998670577886295 -1.0282415180810123
5125000000.0 -0.1016614991373336 -1.0517380517735044
5128000000.0 -0.14814910292797687 -1.0340220906126902
5131000000.0 -0.11048170350829378 -1.013524846120037
5134000000.0 -0.163426579820374 -1.015228476576358
5138000000.0 -0.1365581086547321 -1.0579019345177127
5141000000.0 -0.11475913499021943 -1.0203949137459674
5144000000.0 -0.1297540424858501 -1.062980439895358
5147000000.0 -0.22529539253675718 -1.0700719230184654
5150000000.0 -0.1472158727173679 -1.0503859127115245
5153000000.0 -0.18583807476759417 -1.0179459303490879
5156000000.0 -0.19107180905744606 -1.0588123819380042
5159000000.0 -0.22053943911888413 -1.0938030977722892
5162000000.0 -0.23812262623955754 -1.0182319019664372
5166000000.0 -0.2650289093295923 -1.054530310141405
5169000000.0 -0.25069239179047664 -1.0374962211432968
5172000000.0 -0.239388138719216 -0.9599177223324364
5175000000.0 -0.288693882703243 -1.0882862536105877
5178000000.0 -0.30706709711491137 -1.0135139301188594
5181000000.0 -0.27343600069013846 -1.0824497499965444
5184000000.0 -0.30573769176826526 -1.0054806807807486
5188000000.0 -0.24671599742681413 -0.9731538476765588
5191000000.0 -0.3221739932054482 -1.0017663962451524
5194000000.0 -0.3116396699528776 -1.0090388329721547
