! Created with skrf 1.8.0 (http://scikit-rf.org).
# Hz S RI R 50.0 
!freq ReS11 ImS11
4000000000.0 0.6457431320303966 0.767481867469447
4003000000.0 0.7202461002536791 0.8270285547094084
4006000000.0 0.7035527519477047 0.8022406476909145
4009000000.0 0.6975266309962237 0.8084690566236374
4012000000.0 0.6795588619957702 0.8141475790247288
4016000000.0 0.7269124523074371 0.7440304676200251
4019000000.0 0.6818143854919085 0.7438053758766331
4022000000.0 0.6498759230477568 0.8184760982025542
4025000000.0 0.7940002190818277 0.7402625054321327
4028000000.0 0.7806144558578001 0.7257186910400961
4031000000.0 0.676475863085846 0.696509151278889
4034000000.0 0.7432984813876118 0.6941025164373189
4038000000.0 0.7825845272966276 0.7137223392039966
4041000000.0 0.765073815571067 0.7166531040149436
4044000000.0 0.7940657205213576 0.725297845143123
4047000000.0 0.7207695475550547 0.7178451043195085
4050000000.0 0.805050178838086 0.6840836010208035
4053000000.0 0.795805465181448 0.621985676581096
4056000000.0 0.780327650161356 0.6939230039343389
4059000000.0 0.7834841256875439 0.6734396809551111
4062000000.0 0.8040716209106712 0.6058786484357388
4066000000.0 0.7150402129872284 0.6256567038621971
4069000000.0 0.8730698528941727 0.6801849509335994
4072000000.0 0.7469479090988502 0.6728842594776192
4075000000.0 0.8326134831925491 0.6625766626058014
4078000000.0 0.8065527792746643 0.6427782611153827
4081000000.0 0.8024021154113989 0.7381437553282576
4084000000.0 0.8490091047689854 0.5978841763869478
4088000000.0 0.8409568891489222 0.6555638901102905
4091000000.0 0.8910222775810113 0.6261829300743091
4094000000.0 0.8281527916421833 0.5755245039379018
4097000000.0 0.8402457049356981 0.5948213066892882
4100000000.0 0.850884345357675 0.5666546804015409
4103000000.0 0.8903829817144968 0.6438407523057437
4106000000.0 0.8917558453749228 0.6134658290004991
4109000000.0 0.8850536938295923 0.5483621843887434
4112000000.0 0.8510589023674018 0.5556049736822675
4116000000.0 0.8924892688420061 0.5659483352236777
4119000000.0 0.8968144335306774 0.5293886924067295
4122000000.0 0.885009263813112 0.48092692970237194
4125000000.0 0.9074879729259087 0.5288106774975232
4128000000.0 0.8724039812868611 0.4937481654280803
4131000000.0 0.8875485206539123 0.4724325805582752
4134000000.0 0.8821399858853023 0.48705867444986517
4138000000.0 0.8775282783468026 0.46717980679703824
4141000000.0 0.888015076893238 0.48237561653412175
4144000000.0 0.8975817624423365 0.49422561630395206
4147000000.0 0.9365270091145026 0.4505560024043595
4150000000.0 0.9381178524119874 0.463040023821543
4153000000.0 0.926593511526405 0.44564709731181285
4156000000.0 0.958037224967619 0.4892099364192929
4159000000.0 0.8824224237957772 0.4490368064089157
4162000000.0 0.9060982069997792 0.42248907441448547
4166000000.0 0.9491819333165301 0.4288272114973517
4169000000.0 0.9395709015542654 0.411313314407169
4172000000.0 0.9470336354838466 0.4059545368581779
4175000000.0 0.9303416402659431 0.40633082088217604
4178000000.0 0.9551005830352471 0.3961194819014846
4181000000.0 0.9581390865107282 0.3924383504326029
4184000000.0 0.9702034586090605 0.3904644680483151
4188000000.0 0.9503590870096894 0.3600310550395853
4191000000.0 0.9402624557010097 0.409929679361502
4194000000.0 0.9455675205628565 0.33451804519326334
4197000000.0 0.9811788581981532 0.36529416478340465
4200000000.0 0.9526743567559013 0.36900520234411915
4203000000.0 0.989559960599198 0.35956981463131177
4206000000.0 1.0030812610123228 0.32246290779455483
4209000000.0 0.9931306459520954 0.31660241391345106
4212000000.0 0.9852820517923654 0.27766539784040056
4216000000.0 0.9678583137709855 0.3135989559779228
4219000000.0 0.9678055985302534 0.3208623903450475
4222000000.0 0.9870834660142562 0.2928430874529244
4225000000.0 0.983163851086255 0.2854099628635185
4228000000.0 0.9859737092652325 0.27570731581437224
4231000000.0 0.9808414243905659 0.26077796562396865
4234000000.0 0.9996385131052241 0.2563703708452255
4238000000.0 0.9981611286369785 0.234915094305203
4241000000.0 0.9975855001769331 0.2120983979369806
4244000000.0 0.9816973540227077 0.21908229564576814
4247000000.0 1.0035630394087105 0.23346632820603408
4250000000.0 0.973757842145629 0.1932610061549479
4253000000.0 0.9791207986325798 0.18279135442108158
4256000000.0 1.031290861210459 0.19112256190486576
4259000000.0 0.9554139293612699 0.1674778094778909
4262000000.0 1.022395103641674 0.15245658920897573
4266000000.0 1.0303638762810816 0.15192190465355726
4269000000.0 0.9944425111354348 0.17882911673757482
4272000000.0 0.9960994841576076 0.13730584119713268
4275000000.0 1.013878811754846 0.14032937175866306
4278000000.0 1.0352830665180743 0.13710515235683762
4281000000.0 1.0244850508698646 0.13401619976785156
4284000000.0 1.0234255441084568 0.08049534010919976
4288000000.0 1.0152131281108123 0.14347423178891186
4291000000.0 0.9893617288863037 0.11458825847244657
4294000000.0 1.0109350146416642 0.07580086264108456
4297000000.0 1.018641803272436 0.08783809976830008
4300000000.0 1.0205278612896858 0.08181330876366213
4303000000.0 1.0088925621311797 0.05687782335436285
4306000000.0 1.0252902102838894 0.09106384578809087
4309000000.0 0.9785558197607875 0.05331577734514599
4312000000.0 1.0301266956317978 0.10516284036911
4316000000.0 1.0136335115907955 0.011032073819555371
4319000000.0 0.9857276686011207 0.06204044827598916
4322000000.0 1.0013054566752477 0.004802820901943325
4325000000.0 1.037780457638121 0.0062470510212882385
4328000000.0 1.0170295707423436 0.0045194763834654345
4331000000.0 1.0294707835263195 -0.03308534933326049
4334000000.0 1.0367245651436716 -0.03174990642640309
4338000000.0 1.0050235750034222 -0.00866578761928223
4341000000.0 1.0334656061749163 -0.0028233545814865257
4344000000.0 1.0527599766315636 -0.040479010052837064
4347000000.0 1.0115674479156411 -0.08984657560935237
4350000000.0 0.9843332678425588 -0.0642342527043421
4353000000.0 0.9800708760710948 -0.06775289342558784
4356000000.0 0.9918958341641776 -0.10910012720323761
4359000000.0 0.9610234442115492 -0.07946969587012953
4362000000.0 0.9980029292760069 -0.15464649025451332
4366000000.0 1.0548481222339459 -0.116844641217154
4369000000.0 0.9834461661899309 -0.12330688886672782
4372000000.0 0.9878016500196258 -0.18127701218233988
4375000000.0 1.0144742754716323 -0.11914502297765688
4378000000.0 0.9680258057700569 -0.1306667584863284
4381000000.0 0.9844753416984469 -0.13885453658811794
4384000000.0 1.0552975672925062 -0.1653604307955363
4388000000.0 0.9677056586574007 -0.16257658922631227
4391000000.0 1.0023452579133887 -0.18010692699741795
4394000000.0 0.9715583126431445 -0.19816225024860892
4397000000.0 0.9957482956527433 -0.2108712739251145
4400000000.0 1.0145157069255832 -0.20365027607853106
4403000000.0 0.9882310986631168 -0.22439011207510987
4406000000.0 0.9855324852692047 -0.23608539145928928
4409000000.0 1.0018231639107902 -0.24625177249881844
4412000000.0 0.9601797872638466 -0.2861637150001663
4416000000.0 0.9720905990249882 -0.2504508347775329
4419000000.0 0.9651144636199768 -0.2698434655363814
4422000000.0 0.9628082881749627 -0.24713232748877328
4425000000.0 1.0008484057180667 -0.2652982624245424
4428000000.0 0.9694619916807988 -0.2778645197963959
4431000000.0 0.9853797266555486 -0.29171347572111933
4434000000.0 0.9516318490529084 -0.3143659407857285
4438000000.0 0.9920037137170286 -0.32670989402714984
4441000000.0 0.9684870105124261 -0.3296286588552035
4444000000.0 0.94610019620687 -0.3223407055297007
4447000000.0 0.9412927467676978 -0.33995929592356366
4450000000.0 0.9540666703256272 -0.325333385872998
4453000000.0 0.9780105051023247 -0.35352069655575213
4456000000.0 0.9234470450884962 -0.3742085457797092
4459000000.0 0.9043085682830698 -0.3820745253635749
4462000000.0 0.9901287386931843 -0.40160647511220654
4466000000.0 0.9632344397332465 -0.41623851273338297
4469000000.0 0.9449055826056275 -0.3870936549953553
4472000000.0 0.9311531046801359 -0.41641548697518704
4475000000.0 0.9013245441383916 -0.4012016589702335
4478000000.0 0.9529790402193538 -0.4568668338584465
4481000000.0 0.8871865349068326 -0.4341654006979694
4484000000.0 0.8831548556164086 -0.4824693221358578
4488000000.0 0.8932318323473726 -0.4532044558042852
4491000000.0 0.9087954053226318 -0.4710029477366666
4494000000.0 0.8911925152391482 -0.45233660162538747
4497000000.0 0.8963425264698661 -0.46584533943092027
4500000000.0 0.883474018501673 -0.46564313463553964
4503000000.0 0.9091671338576668 -0.4924599926785729
4506000000.0 0.8684973083756924 -0.49262967873523905
4509000000.0 0.8508562374301156 -0.49576180127134073
4512000000.0 0.8439830335447522 -0.5004478922987875
4516000000.0 0.8801328622357663 -0.5245707160223665
4519000000.0 0.8681581956462059 -0.49539985992061797
4522000000.0 0.8427717660233902 -0.549419756875267
4525000000.0 0.8644484249385553 -0.5024400686553362
4528000000.0 0.8705612645349232 -0.5558811298508046
4531000000.0 0.8547144103816139 -0.5339897842616261
4534000000.0 0.8329062540193186 -0.560981571047758
4538000000.0 0.8478873531555109 -0.5514035870228752
4541000000.0 0.7994277136443707 -0.5935840568244868
4544000000.0 0.8233394218889305 -0.5778255559651165
4547000000.0 0.8295804834905902 -0.5742130814657365
4550000000.0 0.8017532015920925 -0.6131237001098325
4553000000.0 0.8168571622751353 -0.6160849649541977
4556000000.0 0.7784527902114775 -0.5952958156037811
4559000000.0 0.7852759571933621 -0.6319042136838617
4562000000.0 0.8121718956709196 -0.6200001410918649
4566000000.0 0.7687992176683021 -0.6461524323641266
4569000000.0 0.7806554943112134 -0.6392112083390904
4572000000.0 0.7766143034522329 -0.6564040169621501
4575000000.0 0.75208743382212 -0.6684323184391211
4578000000.0 0.7821536920168397 -0.6857607008833118
4581000000.0 0.7473543719871569 -0.680677622655134
4584000000.0 0.7417211675806108 -0.67166868122983
4588000000.0 0.7681449687233023 -0.6782732399614378
4591000000.0 0.7567849398369009 -0.6848668998991942
4594000000.0 0.7199941849418384 -0.7153373625767554
4597000000.0 0.7236456543722831 -0.7247805628227938
4600000000.0 0.6944742027445115 -0.7139618191482547
4603000000.0 0.7131248121073059 -0.7388893590072486
4606000000.0 0.7101982018094043 -0.7478848486145139
4609000000.0 0.7078837126623542 -0.7153427453325121
4612000000.0 0.6877151330344236 -0.7407646037470449
4616000000.0 0.673179620703489 -0.731386710498442
4619000000.0 0.6694746723635845 -0.7428904980767481
4622000000.0 0.6797605804968314 -0.7576070280246312
4625000000.0 0.633260973569208 -0.7571763990222433
4628000000.0 0.6676439505659926 -0.7524779051555034
4631000000.0 0.6385341967923244 -0.7767352264111742
4634000000.0 0.641527220032529 -0.7793081667648694
4638000000.0 0.6389976039791875 -0.8032916843918944
4641000000.0 0.6441728453266465 -0.8030305677610003
4644000000.0 0.613103360307459 -0.8042830581528142
4647000000.0 0.6190423697019247 -0.7946739601292258
4650000000.0 0.5904064644786792 -0.8053701536303163
4653000000.0 0.6150416865330904 -0.8031521211595279
4656000000.0 0.5928056399475481 -0.8062871619054142
4659000000.0 0.5881034428370684 -0.8371511237535149
4662000000.0 0.5838172547145146 -0.8350230545752574
4666000000.0 0.5682884640778988 -0.8256666096318098
4669000000.0 0.5882511585156553 -0.8358323135432855
4672000000.0 0.5692167475894356 -0.8601439336724792
4675000000.0 0.5370323265699734 -0.8706270943710849
4678000000.0 0.5123198133406568 -0.8344653472142781
4681000000.0 0.5312383918384725 -0.8509484220268434
4684000000.0 0.5201846111093469 -0.8933185627903526
4688000000.0 0.5126787806021408 -0.8741140981636333
4691000000.0 0.511582748929445 -0.9038279161576284
4694000000.0 0.49941268367102976 -0.8706469238959766
4697000000.0 0.47706595519457884 -0.8418366055962365
4700000000.0 0.524630226701841 -0.8857348268823888
4703000000.0 0.49466729849397556 -0.8472418077860429
4706000000.0 0.4663779635152577 -0.8776734431049894
4709000000.0 0.453893226873493 -0.8877498307487285
4712000000.0 0.48519892320481034 -0.8926547043212429
4716000000.0 0.44045048509397167 -0.9299971273096994
4719000000.0 0.497717994583344 -0.916410502053922
4722000000.0 0.45299799543208574 -0.905139320382818
4725000000.0 0.4264212299347581 -0.9112280243386074
4728000000.0 0.39045569176845596 -0.9280697867095575
4731000000.0 0.43252102386474967 -0.9536332704952373
4734000000.0 0.4417390464916227 -0.9255965413634916
4738000000.0 0.4358461605070394 -0.9379795273006277
4741000000.0 0.4059038083282549 -0.9570449851822812
4744000000.0 0.3669535179913504 -0.9434619251988628
4747000000.0 0.372464950434677 -0.903839361223106
4750000000.0 0.35026764662076604 -0.9487781984989327
4753000000.0 0.3688840320108797 -0.9610174093822227
4756000000.0 0.3426689428498145 -0.9794313857415473
4759000000.0 0.33626913945007475 -0.976840327985238
4762000000.0 0.3123338860889153 -0.989108150336739
4766000000.0 0.32029638448095776 -0.9855038767075565
4769000000.0 0.31534332104865287 -0.9973951725005147
4772000000.0 0.30698274736416536 -0.9858931056000294
4775000000.0 0.29895814717280206 -1.014973512338441
4778000000.0 0.29666703154389734 -0.9995190703348541
4781000000.0 0.29083726535248405 -0.9628421642770244
4784000000.0 0.28936582556873963 -0.9601771657130999
4788000000.0 0.2504139400706943 -0.9992461939261224
4791000000.0 0.25151065920191185 -0.9983244418033318
4794000000.0 0.31408817444201437 -1.01496629723748
4797000000.0 0.21597888932391834 -0.963736409556848
4800000000.0 0.2292850049007663 -0.9733048582198129
4803000000.0 0.17263031634984677 -0.991566260498222
4806000000.0 0.19816954857628505 -0.9972247362767943
4809000000.0 0.16813982787250714 -1.005130815382278
4812000000.0 0.15816128644393865 -1.0022364181958563
4816000000.0 0.21249208468175168 -0.9984222412917565
4819000000.0 0.21958963035157109 -1.0150510898527623
4822000000.0 0.2031474486242089 -1.0377339084930655
4825000000.0 0.1713627250528722 -1.0289164289452475
4828000000.0 0.1626484832984385 -0.9924767831516276
4831000000.0 0.10513995659968729 -1.05991271234478
4834000000.0 0.15693169688292805 -1.0093364288516824
4838000000.0 0.12565102544818646 -1.034198872027513
4841000000.0 0.11684969141486408 -1.0050435895626317
4844000000.0 0.1342195769429117 -1.0285438340389823
4847000000.0 0.13564374825374467 -1.0134718423226245
4850000000.0 0.08703865012353854 -1.0513312594983226
4853000000.0 0.09742991174093384 -0.9942945824468234
4856000000.0 0.0724021178780873 -1.0180547493173753
4859000000.0 0.06014282950931997 -1.0546697563870033
4862000000.0 0.06786840285187283 -1.0034174035615855
4866000000.0 0.031101798445253452 -1.0586983526899607
4869000000.0 0.02281145471739042 -1.0487071466113695
4872000000.0 0.002918607498710729 -1.0543572282654052
4875000000.0 0.08359345442300324 -1.0728096375890779
4878000000.0 0.010439071734751431 -1.0430496831539098
4881000000.0 -0.03432826696204458 -1.0973988834187136
4884000000.0 0.01439189561786286 -1.0468425656347384
4888000000.0 0.02155663571006266 -1.027929069715951
4891000000.0 0.008948068494266104 -1.0443549711983036
4894000000.0 -0.04499025477857842 -1.0283663778693508
4897000000.0 0.0208505003310143 -1.0375493130593283
4900000000.0 -0.06773923347464483 -1.0611416279453825
4903000000.0 -0.028498602709663534 -1.0498327503618277
4906000000.0 -0.04403115910844693 -1.0722750216584702
4909000000.0 -0.10272086646610978 -1.060942436010111
4912000000.0 -0.05565032895693367 -1.05074394627479
4916000000.0 -0.04457676969722709 -1.0359764982111466
4919000000.0 -0.04394512985757833 -1.0386634466090494
4922000000.0 -0.07291224661272117 -1.035251783468146
4925000000.0 -0.13470388357030558 -1.0365710517228113
4928000000.0 -0.06439194750561596 -1.0311102296059778
4931000000.0 -0.10580025535256295 -1.045722471547483
4934000000.0 -0.121592743582644 -0.9858123171194498
4938000000.0 -0.16808321271423488 -0.9972732894367251
4941000000.0 -0.13325352975108934 -0.9926684486564895
4944000000.0 -0.14573544000567343 -0.9589298100628008
4947000000.0 -0.17445666749284525 -1.0038571532147005
4950000000.0 -0.18333586283501574 -0.9930371075390485
4953000000.0 -0.19537058397064933 -1.0779606872594871
4956000000.0 -0.20845959700408273 -1.018865205603221
4959000000.0 -0.22869920555716391 -0.986373164092199
4962000000.0 -0.23670135948918256 -1.0602918787431939
4966000000.0 -0.18782601767042362 -1.0541808841626892
4969000000.0 -0.21464536869582668 -1.0615594527151415
4972000000.0 -0.2368267352092173 -1.0010696597912696
4975000000.0 -0.22346802538982655 -0.9827709208465585
4978000000.0 -0.26759368765309827 -1.0218412016141631
4981000000.0 -0.2712055925032465 -1.0515135569720264
4984000000.0 -0.27937653495242587 -0.9791199885815471
4988000000.0 -0.25970989210597345 -0.9825335779077042
4991000000.0 -0.21615546619313897 -1.0710746800319284
4994000000.0 -0.26231341620930754 -0.9942477165785346
4997000000.0 -0.3483569686387104 -0.9993017351679333
5000000000.0 -0.2984247704847651 -1.0303465110893921
5003000000.0 -0.3090194493295571 -1.016940773825558
5006000000.0 -0.3592431636091121 -1.03829890440308
5009000000.0 -0.3131603823912398 -0.9938884418369892
5012000000.0 -0.3559512694441385 -0.968129778647246
5016000000.0 -0.34609630534520347 -0.9922482925623881
5019000000.0 -0.3502067815450526 -0.9948686081132285
5022000000.0 -0.38943477411095784 -0.9697631252459757
5025000000.0 -0.3805996823417513 -1.0394608958243832
5028000000.0 -0.39965366997765017 -0.9706171190337547
5031000000.0 -0.43794419270896234 -0.9576941348884377
5034000000.0 -0.4372321460678935 -0.9684522322426332
5038000000.0 -0.3863058019787403 -0.9120461117244536
5041000000.0 -0.371276903193716 -0.9349445953335312
5044000000.0 -0.3685647222309154 -0.9404159866077787
5047000000.0 -0.44638758111905047 -0.9678959870395537
5050000000.0 -0.37929858392900817 -0.962716120180015
5053000000.0 -0.4615026411470683 -0.9368411014642368
5056000000.0 -0.41184469637318366 -0.9769734775919228
5059000000.0 -0.41671146410833787 -0.9761981602978799
5062000000.0 -0.5267894729711826 -0.9241957849337277
5066000000.0 -0.44105710191825476 -0.9407085019277697
5069000000.0 -0.4889342303621619 -0.9044358482310931
5072000000.0 -0.47820652546614306 -0.9420011369562507
5075000000.0 -0.5021277638716944 -0.9119354391401595
5078000000.0 -0.48500601870884114 -0.9010269367981625
5081000000.0 -0.4984400894698569 -0.8758559949166481
5084000000.0 -0.47003977666230645 -0.9158319379167623
5088000000.0 -0.47040529844411194 -0.8692446085781753
5091000000.0 -0.532719745168188 -0.8713665695217137
5094000000.0 -0.5463773521498263 -0.9118997784518276
5097000000.0 -0.5461802484374766 -0.9190515725933894
5100000000.0 -0.5821023049068176 -0.9130553935444509
5103000000.0 -0.5513516498606538 -0.9076353839052674
5106000000.0 -0.5601717432134566 -0.9356177091850029
5109000000.0 -0.5069211973453986 -0.9047148005444885
5112000000.0 -0.5907148628214224 -0.8714787711802854
5116000000.0 -0.5258879182637902 -0.8438361578715956
5119000000.0 -0.6256140705460872 -0.8476118315551082
5122000000.0 -0.5805129120346684 -0.8389164105627926
5125000000.0 -0.5554273154618812 -0.8556102512422499
5128000000.0 -0.5979519624876656 -0.8436605765762228
5131000000.0 -0.6351765492125894 -0.8373653818682617
5134000000.0 -0.6243836262785273 -0.8099809869376098
5138000000.0 -0.6317590056878164 -0.8536692645635073
5141000000.0 -0.5492152947781732 -0.872977692546218
5144000000.0 -0.6269966182425508 -0.8373507561308231
5147000000.0 -0.6499427473346138 -0.819172712163594
5150000000.0 -0.674890202587927 -0.8118694528959204
5153000000.0 -0.661936473901217 -0.8283902170933699
5156000000.0 -0.6554710869092313 -0.8231133444790523
5159000000.0 -0.682892347682271 -0.8365112700121338
5162000000.0 -0.700497264232343 -0.7563190534631336
5166000000.0 -0.7441672620750914 -0.8318413814608013
5169000000.0 -0.6926667092451211 -0.785025046092979
5172000000.0 -0.7130622478404041 -0.76952335781546
5175000000.0 -0.7160104071376969 -0.7950409046916602
5178000000.0 -0.7067908506702612 -0.7800781333433494
5181000000.0 -0.7400899314693994 -0.7918018026964824
5184000000.0 -0.7375989787784337 -0.7618789575853284
5188000000.0 -0.7167325909697047 -0.7386349354428121
