! Created with skrf 1.8.0 (http://scikit-rf.org).
# Hz S RI R 50.0 
!freq ReS11 ImS11
4000000000.0 0.5949548938705419 0.7692809526861399
4003000000.0 0.6644414081432347 0.8410969248662115
4006000000.0 0.6778713808259674 0.7597991419729903
4009000000.0 0.670084433883642 0.8270476766400423
4012000000.0 0.641997553798582 0.8294831724635922
4016000000.0 0.712451646511171 0.8123049613494784
4019000000.0 0.6877482542789952 0.7780242389065498
4022000000.0 0.6909466677901147 0.8318977088198081
4025000000.0 0.7355646928238363 0.7332407011855064
4028000000.0 0.7250652884037844 0.7783124904037455
4031000000.0 0.6586819298741117 0.7478093071006365
4034000000.0 0.7108569254688413 0.7395366583147127
4038000000.0 0.7371758962537573 0.7339615149068756
4041000000.0 0.7059706842084469 0.735744351495814
4044000000.0 0.7814007442943713 0.785811375056557
4047000000.0 0.7398672015572926 0.7150217345089792
4050000000.0 0.7308821232068128 0.6878361830901681
4053000000.0 0.7430523871337038 0.6910404757735007
4056000000.0 0.7572282245494019 0.711930955160934
4059000000.0 0.7295132880706737 0.6820598078205595
4062000000.0 0.7778898931177148 0.6689856645386529
4066000000.0 0.731453723023155 0.6433098143536401
4069000000.0 0.81011943658069 0.6697903365209437
4072000000.0 0.7485392649738284 0.6874221365876714
4075000000.0 0.783305755776773 0.7376918024626278
4078000000.0 0.7945801566617049 0.6493956485580578
4081000000.0 0.7436826204562204 0.6838608751311818
4084000000.0 0.8169926443884792 0.6460460610285514
4088000000.0 0.8041578220757902 0.6719303553230489
4091000000.0 0.8610311825981334 0.6755113450045753
4094000000.0 0.8116570284074077 0.6393075743205502
4097000000.0 0.7882925622379505 0.6055426055136437
4100000000.0 0.8406911815271599 0.6185339433219659
4103000000.0 0.8584354856351657 0.6294421769117362
4106000000.0 0.8767957096599116 0.6007270773997224
4109000000.0 0.8479180055405531 0.5422518924864626
4112000000.0 0.8250018630591289 0.569715212306007
4116000000.0 0.8642452951695204 0.5560647915578937
4119000000.0 0.8814512856610927 0.576421442252999
4122000000.0 0.8769465690571735 0.5329510978683418
4125000000.0 0.8948555175646598 0.5456270560578345
4128000000.0 0.8220585173164298 0.5524494026858204
4131000000.0 0.8740002168622472 0.5194643385833558
4134000000.0 0.8693326554652657 0.5825746858154695
4138000000.0 0.8503463553687649 0.4787333906439904
4141000000.0 0.881538473126751 0.5202050562853423
4144000000.0 0.8758627067336285 0.5537341913165283
4147000000.0 0.907551180771453 0.4967446064510655
4150000000.0 0.938555093171649 0.5354610400722555
4153000000.0 0.8863838943719813 0.48147868842708286
4156000000.0 0.9062073834462785 0.5112077913789514
4159000000.0 0.8700808033587495 0.45616503991981244
4162000000.0 0.9109952607478349 0.4617475228235467
4166000000.0 0.9235668123112197 0.45945939350123766
4169000000.0 0.9288133308301771 0.43155170905599616
4172000000.0 0.9043405620905223 0.48806873094721587
4175000000.0 0.9198643878522115 0.44643369499210345
4178000000.0 0.9452702556364707 0.464681344538149
4181000000.0 0.9222012810145244 0.4269708269582595
4184000000.0 0.9471749239173805 0.4168891941073363
4188000000.0 0.922769270755148 0.39341149505741224
4191000000.0 0.9141145414258098 0.4264914623941494
4194000000.0 0.9141354247648903 0.3875339042845145
4197000000.0 0.9334992899398138 0.38666690695954403
4200000000.0 0.9486607756054743 0.40876081173773793
4203000000.0 0.9402829797142468 0.3938618617246201
4206000000.0 0.9723616446648379 0.3661385331915005
4209000000.0 0.9420501129664367 0.3616671205485001
4212000000.0 0.966638363015872 0.32640011645304423
4216000000.0 0.9626501175166753 0.35339024066820385
4219000000.0 0.9746234433535834 0.34488222786592637
4222000000.0 0.9734654087462788 0.3194514957097096
4225000000.0 0.9654434266973295 0.3078713116478735
4228000000.0 0.981882055945112 0.3210131572417563
4231000000.0 0.9618235005090373 0.30799067623845766
4234000000.0 0.9768488265894606 0.29857239812658287
4238000000.0 0.9867610611155436 0.2749863360334306
4241000000.0 0.9709902025796933 0.2742242444443599
4244000000.0 0.9744545151832263 0.2651429117074869
4247000000.0 0.9732002503187862 0.2780238017078384
4250000000.0 0.961003884065528 0.25706332187940645
4253000000.0 0.9784561409089334 0.24347886068118602
4256000000.0 1.0051999090299482 0.22599560772457788
4259000000.0 0.973369393809308 0.2216294217451
4262000000.0 0.9885665777077286 0.2061900118552096
4266000000.0 1.02162616807677 0.18609350079139708
4269000000.0 1.00689706309142 0.22472944271187026
4272000000.0 0.9962335340847375 0.17285414085898776
4275000000.0 0.9878424495182616 0.18836794235184412
4278000000.0 1.023493153357005 0.192084650675158
4281000000.0 0.9984129417964474 0.19383539542267192
4284000000.0 1.0270747120052377 0.129720877020155
4288000000.0 1.015154695081323 0.18914750005188036
4291000000.0 0.9869195584709424 0.15188246381196135
4294000000.0 0.9855486524101459 0.12586575205416428
4297000000.0 0.9945285856877659 0.1626516992896182
4300000000.0 0.9998721708249743 0.12159945597070748
4303000000.0 0.991236540043605 0.07666452546330417
4306000000.0 0.9882173592851533 0.13184627067907864
4309000000.0 0.9931434699457915 0.11352097414044134
4312000000.0 1.0276581335568413 0.1460138193623147
4316000000.0 1.0262090441737288 0.08676272689731486
4319000000.0 0.9872028387385926 0.0932710585109597
4322000000.0 0.9795128393493405 0.055922812367638394
4325000000.0 0.9924031611331129 0.058413553196754966
4328000000.0 0.9932432270440111 0.03279991499629496
4331000000.0 1.025935229451865 -0.0025966407366853628
4334000000.0 1.0103121151171535 0.028082162541432365
4338000000.0 1.0271141869313238 0.04242242129965261
4341000000.0 1.0195125027119665 0.025574125267574438
4344000000.0 1.0335047011427434 -0.005554322911037801
4347000000.0 0.996624006658867 0.0066024564025082555
4350000000.0 0.9728213456490734 -0.02792366199040175
4353000000.0 0.9775320366012632 -0.015230607534239687
4356000000.0 1.0051022115076969 -0.037535318518952726
4359000000.0 0.968156647073582 -0.028183922978265635
4362000000.0 1.0151772847173026 -0.10794298862077155
4366000000.0 1.020933950921999 -0.06842349176773985
4369000000.0 0.9807226934698149 -0.072145336072449
4372000000.0 0.9921641524461551 -0.12322053456270739
4375000000.0 0.9905733328456332 -0.0699646847781492
4378000000.0 0.9791450833245751 -0.09468433992009788
4381000000.0 0.9893376106603617 -0.10368891220292066
4384000000.0 1.056900472565955 -0.10829787388031775
4388000000.0 0.9920766532198956 -0.11002085351860562
4391000000.0 1.0118943616677012 -0.1246201429967454
4394000000.0 0.9836537174495877 -0.13396041756187718
4397000000.0 0.9877275161875123 -0.16007229598085376
4400000000.0 1.0254307628567678 -0.15789121172506432
4403000000.0 0.9976789594899073 -0.16050669843367293
4406000000.0 0.9946029928096616 -0.20002301475350334
4409000000.0 1.0210855032830497 -0.17666688643126063
4412000000.0 0.974526284076917 -0.24266449855145444
4416000000.0 0.9609256079591828 -0.22079944498806892
4419000000.0 0.980619722772448 -0.2282698383944085
4422000000.0 0.9891344346673905 -0.19832673436012768
4425000000.0 1.0107728012224317 -0.21070037789503612
4428000000.0 0.9802683723985952 -0.2360703601036906
4431000000.0 0.9905003021954502 -0.24580901995895577
4434000000.0 0.9645637834729487 -0.26921249184099894
4438000000.0 0.9959538649241033 -0.25790024072799106
4441000000.0 0.9883427199898092 -0.2732284058919015
4444000000.0 0.9631791697499357 -0.27099000184577166
4447000000.0 0.956080478102514 -0.31709245267600356
4450000000.0 0.9580714636622664 -0.2717431242513525
4453000000.0 0.9864488709184182 -0.2974770069042317
4456000000.0 0.9353810228387583 -0.3120587369800111
4459000000.0 0.9099131940687955 -0.3193402056413557
4462000000.0 1.0069282525229344 -0.33214031926585286
4466000000.0 0.9856005156733113 -0.35680038852091506
4469000000.0 0.9562564606650663 -0.3316965005863984
4472000000.0 0.963567073348864 -0.3769650539878914
4475000000.0 0.9281363074865996 -0.34511734170733993
4478000000.0 0.9752245967353944 -0.39562813974549127
4481000000.0 0.898107339461836 -0.384974479745677
4484000000.0 0.9001980046988158 -0.4179816433150947
4488000000.0 0.9133058888722292 -0.4070731419491106
4491000000.0 0.9287938149111763 -0.4049710541919763
4494000000.0 0.8932507782775216 -0.4047884606562722
4497000000.0 0.9076579079303213 -0.4080201108838357
4500000000.0 0.9276285497331935 -0.41308364629373584
4503000000.0 0.9348547190785796 -0.41911197084346113
4506000000.0 0.9009792357246118 -0.43579475865468575
4509000000.0 0.8992192488454389 -0.43966443028666213
4512000000.0 0.8833888299097855 -0.45303448058043694
4516000000.0 0.9060282995720847 -0.4528679053946338
4519000000.0 0.8649933820705935 -0.4619242663360652
4522000000.0 0.8798419149396481 -0.5128877783848956
4525000000.0 0.8761272873602328 -0.45345748031291544
4528000000.0 0.9028812831501425 -0.5176808148065664
4531000000.0 0.8877594926539971 -0.48460321421979635
4534000000.0 0.8609676714535452 -0.5043468814426258
4538000000.0 0.8465334087970495 -0.5181548394430641
4541000000.0 0.8271616181768622 -0.5497166892703393
4544000000.0 0.8364684306102887 -0.5178557532245555
4547000000.0 0.8494114598460077 -0.5135454832785704
4550000000.0 0.8552968648550667 -0.5680786834296444
4553000000.0 0.8334220210230514 -0.573416836870801
4556000000.0 0.8207346248971035 -0.5583531367774546
4559000000.0 0.8341995876773054 -0.5711992157377777
4562000000.0 0.8409865274558315 -0.5815773337347391
4566000000.0 0.8020463471851507 -0.6002511306584188
4569000000.0 0.7937562422392631 -0.5737697656688843
4572000000.0 0.792381552222525 -0.6050765877478576
4575000000.0 0.7901327098427189 -0.6137622682741747
4578000000.0 0.8320945486893967 -0.6203763992527472
4581000000.0 0.7934530407385133 -0.6340754054773003
4584000000.0 0.7612235997558819 -0.6205314428584062
4588000000.0 0.8033348528428063 -0.6521489728342023
4591000000.0 0.7912848181702886 -0.6227882063043033
4594000000.0 0.7511860600597737 -0.658742535137562
4597000000.0 0.7626221109306 -0.6649532111806297
4600000000.0 0.7376271267195103 -0.670845353989645
4603000000.0 0.7579236088451113 -0.7008543969675598
4606000000.0 0.7571266410319087 -0.6761621536599137
4609000000.0 0.7444597926299151 -0.6707358135917699
4612000000.0 0.7425332245717022 -0.6942828973113574
4616000000.0 0.7056769367700819 -0.681772352848308
4619000000.0 0.7315203274484083 -0.7084730336426273
4622000000.0 0.713764046617955 -0.7013183273359109
4625000000.0 0.6801879311227341 -0.705143234271181
4628000000.0 0.7116056887975499 -0.7064127857181901
4631000000.0 0.6736835101529097 -0.7303066527544335
4634000000.0 0.6904105980864242 -0.7345364013035084
4638000000.0 0.6925765178032842 -0.7395497717006214
4641000000.0 0.6811040730596668 -0.765385031592655
4644000000.0 0.6709904107699298 -0.7527766324503449
4647000000.0 0.6703619450509142 -0.7571127299190757
4650000000.0 0.6404241712026224 -0.7694273118102292
4653000000.0 0.6743709810329782 -0.7571074931717064
4656000000.0 0.6274249745770222 -0.7887074331120276
4659000000.0 0.6273715335972663 -0.7713273806718552
4662000000.0 0.6190657488354551 -0.7962197071281444
4666000000.0 0.628305061105412 -0.810779584128745
4669000000.0 0.6257089882815281 -0.8112331447026485
4672000000.0 0.6081835563584798 -0.8129973174040093
4675000000.0 0.5785126695938574 -0.8284100863925694
4678000000.0 0.5910753871053858 -0.7905764705081738
4681000000.0 0.5749140696396882 -0.8491925793827222
4684000000.0 0.5539149226933695 -0.8269348985677886
4688000000.0 0.546652152445793 -0.8418783824303046
4691000000.0 0.5880666873151394 -0.8295705589926441
4694000000.0 0.5626679434951214 -0.8388242142071272
4697000000.0 0.5345852359470507 -0.819292849598902
4700000000.0 0.536996543210685 -0.8480912310389619
4703000000.0 0.5663687966843984 -0.7941691743446435
4706000000.0 0.5181831757197681 -0.8724389106504977
4709000000.0 0.5155759926569303 -0.8608934066936607
4712000000.0 0.5093138272872999 -0.869844337602058
4716000000.0 0.5017213353687692 -0.8735771257780209
4719000000.0 0.5217350177177125 -0.8933650008643349
4722000000.0 0.49095573328679487 -0.8781673793963896
4725000000.0 0.49775756569572593 -0.8841674294342651
4728000000.0 0.45322573047444864 -0.8870811302410446
4731000000.0 0.4970889817928823 -0.8947937553321064
4734000000.0 0.4651706620632522 -0.880788572214446
4738000000.0 0.4919708762735904 -0.9301232551258791
4741000000.0 0.4445755509592024 -0.928150813132226
4744000000.0 0.4060607281725023 -0.9204457809286293
4747000000.0 0.4468987557601548 -0.8894498309150062
4750000000.0 0.43163686639464965 -0.9063637468029742
4753000000.0 0.44436035352035314 -0.9301539034450567
4756000000.0 0.42898905081704475 -0.9601679446802844
4759000000.0 0.4102390708353788 -0.928546782317747
4762000000.0 0.35988198943322974 -0.956588903247512
4766000000.0 0.38521020943139395 -0.9298345009158169
4769000000.0 0.3908461447391993 -0.9410134674623906
4772000000.0 0.3747431205217966 -0.9488054104300732
4775000000.0 0.34819027396426816 -1.0054882460915686
4778000000.0 0.34994871533686944 -0.9658979785292404
4781000000.0 0.37140393115018244 -0.9269471042467612
4784000000.0 0.3521008195485991 -0.9450469219105998
4788000000.0 0.31367795476326754 -0.9695150232061307
4791000000.0 0.3049057205327787 -0.9547057385196617
4794000000.0 0.345819551523522 -0.9923020275805483
4797000000.0 0.2836936718179066 -0.9507527059019435
4800000000.0 0.271043722277645 -0.9694281305245818
4803000000.0 0.24683596971916805 -0.9868264192539569
4806000000.0 0.2971023202772275 -0.9777512358115439
4809000000.0 0.2336078494380811 -0.9672939749697981
4812000000.0 0.23896164295846364 -0.9734033738583447
4816000000.0 0.27017013929035927 -0.9650120428316453
4819000000.0 0.273052170626198 -0.9986662358445644
4822000000.0 0.2760295351733929 -1.0270069135432098
4825000000.0 0.26222753799722875 -1.0043924323996738
4828000000.0 0.2349474198864519 -0.9925351739268836
4831000000.0 0.18536877919519656 -1.017605353805705
4834000000.0 0.2321525076327778 -0.9880454049131684
4838000000.0 0.1864619756171825 -1.0183265885888741
4841000000.0 0.18643964551966358 -0.9592264686488724
4844000000.0 0.2236125616558487 -1.0216005623578794
4847000000.0 0.18582978981731513 -0.9732704577960907
4850000000.0 0.14398326550283796 -1.0136530659233651
4853000000.0 0.18348241132914722 -0.9792458304919229
4856000000.0 0.15167359926941398 -1.0020426211749132
4859000000.0 0.12502293869394057 -1.059470471387911
4862000000.0 0.16767426296496096 -0.9912948416027841
4866000000.0 0.13413866877739994 -1.0279357051710396
4869000000.0 0.10212939451164328 -1.0113727255903275
4872000000.0 0.09011544336976274 -1.0392526182048343
4875000000.0 0.15195528370516673 -1.0457885938218587
4878000000.0 0.08028965664620771 -1.0145121289859393
4881000000.0 0.06204548913790107 -1.0578092497342682
4884000000.0 0.08049507847442042 -1.0389922966531786
4888000000.0 0.1108464482158277 -1.0175240461560302
4891000000.0 0.08853914907714523 -1.0476113462263152
4894000000.0 0.018829856929678312 -1.0321323101830835
4897000000.0 0.05371920444076701 -1.0069971367580537
4900000000.0 0.030324627664237755 -1.0495886636494796
4903000000.0 0.03588604709118142 -1.0662206639464258
4906000000.0 0.018311425823692662 -1.071620031933771
4909000000.0 -0.0024469977539079563 -1.0047272904377
4912000000.0 -0.011153163328244224 -1.0722596090517427
4916000000.0 0.002628608786536757 -1.0310008431103745
4919000000.0 0.003320832769951383 -1.0674941953866983
4922000000.0 0.00908816902524727 -1.0486854195499036
4925000000.0 -0.07430026299855577 -1.0363117757850642
4928000000.0 0.01595177740146035 -0.9975464118846382
4931000000.0 -0.022073011625363695 -1.036772962619152
4934000000.0 -0.06067727950874087 -0.9554109224982623
4938000000.0 -0.06832893237001104 -1.0274113278769994
4941000000.0 -0.0660952698730843 -1.000060554177796
4944000000.0 -0.034762690854103384 -0.9436411803694105
4947000000.0 -0.10422164811111417 -0.9992242859669165
4950000000.0 -0.12312862881800378 -1.0105880821022273
4953000000.0 -0.13276642946135728 -1.052405493047384
4956000000.0 -0.15551543829875153 -1.0088188621985654
4959000000.0 -0.17609827847269047 -0.9976387705013434
4962000000.0 -0.13707990692725283 -1.0237751972748599
4966000000.0 -0.11861884945095374 -1.0354589660506435
4969000000.0 -0.1520202658871878 -1.0637052621802012
4972000000.0 -0.1505424037339738 -1.0216485630399008
4975000000.0 -0.13170763682094436 -1.002025864636919
4978000000.0 -0.19567074017477082 -1.0345124610661105
4981000000.0 -0.21390916263521306 -1.0452194673824873
4984000000.0 -0.15656659927768482 -1.013040532702491
4988000000.0 -0.15169425179021884 -0.9932864214681929
4991000000.0 -0.16511991156664751 -1.0420373957796898
4994000000.0 -0.22585690204358316 -1.025434791569631
4997000000.0 -0.2826759185621901 -0.9984417543510958
5000000000.0 -0.2120471133303652 -1.052311409420438
5003000000.0 -0.22317198467015603 -1.0433195027103215
5006000000.0 -0.25806718095504355 -1.0520070996854083
5009000000.0 -0.24460649971228518 -0.9983629220411706
5012000000.0 -0.2599923128256996 -0.989479386529764
5016000000.0 -0.21790429075014145 -1.0564535087015219
5019000000.0 -0.2604452994054147 -0.987373241822656
5022000000.0 -0.27401746061554455 -1.0007686590955134
5025000000.0 -0.29124855915610676 -1.0519806782456225
5028000000.0 -0.3193087546683495 -1.0110055278573866
5031000000.0 -0.3114680292002451 -0.9991141269346443
5034000000.0 -0.35668630775690824 -1.0062937032581225
5038000000.0 -0.3212775807212289 -0.945316743686502
5041000000.0 -0.2945275215627132 -0.9959464186754013
5044000000.0 -0.27759200223133107 -0.9783068767757707
5047000000.0 -0.29890896954000706 -0.9938053534607126
5050000000.0 -0.2769457843692781 -0.9590226858087068
5053000000.0 -0.3835904024960447 -1.0015100752401092
5056000000.0 -0.30206858287872873 -0.9505061599064502
5059000000.0 -0.3368669778406274 -0.9765806986559337
5062000000.0 -0.39831597035612276 -0.9738670333084456
5066000000.0 -0.29131255608531714 -0.9622355927950883
5069000000.0 -0.4012632288526713 -0.9519640396954839
5072000000.0 -0.3854361120373385 -0.9325612828265566
5075000000.0 -0.3483188955723575 -0.9850462757326324
5078000000.0 -0.4625655340654639 -0.9454725092014633
5081000000.0 -0.40411883516411545 -0.918346812153798
5084000000.0 -0.44914977435649395 -0.9609107744070502
5088000000.0 -0.41184816293321613 -0.9395411147402888
5091000000.0 -0.48437102200417764 -0.9540889587257155
5094000000.0 -0.455444935258916 -0.8828069177719239
5097000000.0 -0.40854193299100705 -0.9459502633897654
5100000000.0 -0.46319241756885543 -0.9009742868833067
5103000000.0 -0.5024904409261242 -0.962863292091913
5106000000.0 -0.5018654541813682 -0.9793039040657459
5109000000.0 -0.4867056228664416 -0.9081774016956514
5112000000.0 -0.5078687948367484 -0.88534201425655
5116000000.0 -0.5004040102345977 -0.8378120169644216
5119000000.0 -0.5215520556043131 -0.9400326004396105
5122000000.0 -0.5000869063650061 -0.8516028664909059
5125000000.0 -0.49643129291126753 -0.8924795108790156
5128000000.0 -0.5155363500605785 -0.8636080811636919
5131000000.0 -0.5119447471983175 -0.8626228255399153
5134000000.0 -0.5165079499829813 -0.8848464312636589
5138000000.0 -0.5023733841073483 -0.893441303920225
5141000000.0 -0.47908797034936706 -0.9206599826182096
5144000000.0 -0.48908118974236015 -0.8547066866642272
5147000000.0 -0.5672978100765446 -0.8911237784177782
5150000000.0 -0.5507906612817995 -0.8920944879978258
5153000000.0 -0.6063201341900726 -0.8716390999874087
5156000000.0 -0.5669374821745852 -0.8593315570906285
5159000000.0 -0.6259379204932641 -0.8945056584919843
5162000000.0 -0.562099004714596 -0.8243843618803238
5166000000.0 -0.6351370900622508 -0.809892995328832
5169000000.0 -0.6090298209942476 -0.8613656821404146
5172000000.0 -0.5878957855110977 -0.8211722675816859
5175000000.0 -0.646089538285618 -0.8706989552004959
5178000000.0 -0.6393745711891683 -0.838142134103566
5181000000.0 -0.6427894903150393 -0.8160636209416444
5184000000.0 -0.6490902299533989 -0.780690875084704
5188000000.0 -0.6381494679474201 -0.7940631924166123
