! Created with skrf 1.8.0 (http://scikit-rf.org).
# Hz S RI R 50.0 
!freq ReS11 ImS11
4000000000.0 0.6634473778762973 0.7779196914575983
4003000000.0 0.7000458171690603 0.8306065133249714
4006000000.0 0.6910144087318535 0.7540110081110649
4009000000.0 0.6940266750535463 0.7532044316706785
4012000000.0 0.6626373519496307 0.7705281369401874
4016000000.0 0.7022009963819518 0.75728717173891
4019000000.0 0.7147099521923872 0.7261707987355394
4022000000.0 0.698051368192442 0.7850663900560177
4025000000.0 0.7580157434744047 0.697176495493617
4028000000.0 0.7702326827713029 0.7164565368392584
4031000000.0 0.7063220300519023 0.6833501478738899
4034000000.0 0.7584155202983511 0.7002698809386415
4038000000.0 0.7867634858362169 0.6940054113631267
4041000000.0 0.7452944883953734 0.700466926004305
4044000000.0 0.82769736408521 0.7240782069743635
4047000000.0 0.7875870736850189 0.7017615545755949
4050000000.0 0.8143141656767952 0.6810329314790295
4053000000.0 0.8111553859143779 0.6586478709557335
4056000000.0 0.7812544652849872 0.6781304803013776
4059000000.0 0.7799073518789823 0.6532663569631172
4062000000.0 0.8042279815065656 0.6398577858444134
4066000000.0 0.7333106443929593 0.6212278968805723
4069000000.0 0.8352942203530522 0.6377326383641327
4072000000.0 0.7795178798364565 0.6439524589129844
4075000000.0 0.8373455008106686 0.6384727086002242
4078000000.0 0.8425027623352569 0.6171347978253648
4081000000.0 0.8292244831214262 0.7023406896771887
4084000000.0 0.8440655221524768 0.6084871506302059
4088000000.0 0.8148048030471245 0.631031179068769
4091000000.0 0.8866927243317209 0.6166146128201546
4094000000.0 0.850427535751919 0.5919024195907074
4097000000.0 0.8731365173300512 0.546799028135698
4100000000.0 0.862175312998704 0.5570584208699985
4103000000.0 0.8427515124634057 0.5831589560164061
4106000000.0 0.8296961639003536 0.5438170588791238
4109000000.0 0.9078848715012002 0.5301438919880932
4112000000.0 0.8546258048023021 0.5032582180926686
4116000000.0 0.891343797065821 0.5748467592276381
4119000000.0 0.8854242924084352 0.4905411102127526
4122000000.0 0.907979941564898 0.5047710039908567
4125000000.0 0.9180856740872848 0.5275885528598154
4128000000.0 0.8554956634824606 0.48310685134779674
4131000000.0 0.9069118715135226 0.4673389394100823
4134000000.0 0.8985743482918777 0.45651635884123654
4138000000.0 0.9040637146093229 0.4441767591144041
4141000000.0 0.9267589903983846 0.47784990461522703
4144000000.0 0.8883494240853286 0.5029052195691268
4147000000.0 0.9276085890962552 0.44810433268111033
4150000000.0 0.9063125658654703 0.45645431140227105
4153000000.0 0.9240796209263573 0.45622860875923243
4156000000.0 0.9475355874828411 0.46343084977690674
4159000000.0 0.8860791817478169 0.43265830313543757
4162000000.0 0.9268192586255801 0.4236759564180691
4166000000.0 0.9410480172181264 0.39052080586604654
4169000000.0 0.948799811340651 0.3626463290304939
4172000000.0 0.934423751955426 0.39803997704642896
4175000000.0 0.9465557179479805 0.3845430442758599
4178000000.0 0.9689326892187918 0.39780023005685583
4181000000.0 0.9495777723522709 0.35601180920152864
4184000000.0 0.9314736247500054 0.34374702883776903
4188000000.0 0.9594297973911265 0.35146967845225263
4191000000.0 0.9474585322079059 0.3702551585563964
4194000000.0 0.9500004880534348 0.32935345303307806
4197000000.0 0.9574317864307151 0.3539241023569519
4200000000.0 0.973175063500521 0.3440807947316161
4203000000.0 0.9714066784596976 0.35244391164299727
4206000000.0 0.9757122079211586 0.2949232878144192
4209000000.0 0.9539147388882963 0.3046892876332156
4212000000.0 0.9866952680354261 0.26435615350320996
4216000000.0 0.9773069557088322 0.28860398569100515
4219000000.0 0.9978483192530204 0.2992473700711066
4222000000.0 0.9804000216116795 0.2474371170736055
4225000000.0 0.9879234621559418 0.25646108688097224
4228000000.0 1.0005915585260898 0.2589595718577562
4231000000.0 0.9933021696125883 0.24728005097873063
4234000000.0 1.000634212521891 0.22655847837684917
4238000000.0 0.9996605604833665 0.2000523201068755
4241000000.0 0.9953377187365413 0.1987213320703884
4244000000.0 0.9942740596543844 0.20518326200935144
4247000000.0 0.9969976008764893 0.19750477835059937
4250000000.0 0.9836259306497952 0.18285917328759066
4253000000.0 0.9653571567795409 0.17463169745816232
4256000000.0 1.0262439441824138 0.1707766997187048
4259000000.0 0.9861788084897684 0.13995467477650966
4262000000.0 0.995363490652919 0.14339366637128073
4266000000.0 1.0183459178494452 0.10535340882537159
4269000000.0 0.9995309664094969 0.12537933013723096
4272000000.0 1.002182941474912 0.13199871409995728
4275000000.0 1.007116665304058 0.12428491348088402
4278000000.0 1.0290569272080525 0.11965687493420044
4281000000.0 1.01724685650098 0.10867580128585631
4284000000.0 1.0057723898419288 0.0622918569165018
4288000000.0 1.0252380543463218 0.1241956805131802
4291000000.0 0.9744667189195072 0.07149340670391223
4294000000.0 1.0053937013760095 0.06367181196488526
4297000000.0 0.9941251089835679 0.07721387944797455
4300000000.0 1.0027339613405784 0.0658172683307818
4303000000.0 1.0012263173685239 0.04647623356868329
4306000000.0 0.9941486106729475 0.06224874245612902
4309000000.0 1.0277316670033503 0.03686390294108022
4312000000.0 1.0080105518580469 0.05271630456945775
4316000000.0 1.0181999040198073 0.023497650558332403
4319000000.0 0.997255500602434 0.006289081413863612
4322000000.0 1.0030261421554016 -0.040719592741503205
4325000000.0 0.991789000280089 -0.0014391572344738118
4328000000.0 1.0057926781354445 -0.03417140538144732
4331000000.0 1.0144600673078457 -0.05701118129320196
4334000000.0 1.011378493404667 -0.0693928459234622
4338000000.0 1.0094045599496793 -0.03544264353069938
4341000000.0 1.0049420613957543 -0.04431253104460668
4344000000.0 1.0305255983743313 -0.060092580730377876
4347000000.0 1.0139210960023841 -0.13762824744492863
4350000000.0 0.9778590784511415 -0.10459920939330487
4353000000.0 0.9885444765352136 -0.07948421952916619
4356000000.0 0.9731877979346673 -0.1312153467088037
4359000000.0 0.9508455386756363 -0.13178013474971345
4362000000.0 0.9991702099710351 -0.1694440788149829
4366000000.0 1.0244027305908436 -0.1619042960808863
4369000000.0 0.9591356486783419 -0.13766224420128198
4372000000.0 0.9750397617045012 -0.19306036973029156
4375000000.0 1.0111655486027986 -0.1368958858178071
4378000000.0 0.9679914880160378 -0.1538523675795131
4381000000.0 0.9781318645894896 -0.16496015250203278
4384000000.0 1.0578950757773629 -0.20437982349583514
4388000000.0 0.9873984693784962 -0.16731813374462162
4391000000.0 1.0030647569464626 -0.20215180998843557
4394000000.0 0.9531970691764329 -0.22409520422629348
4397000000.0 0.9788803268451847 -0.23911476645869184
4400000000.0 1.0081198513935672 -0.23568241994426084
4403000000.0 0.9893760778504466 -0.23999280490901445
4406000000.0 0.9606043479502464 -0.2758558452516372
4409000000.0 1.002371855033649 -0.27649216360800205
4412000000.0 0.9452575550577837 -0.31388269538600844
4416000000.0 0.9584332277206453 -0.2794291966724385
4419000000.0 0.9689610519152193 -0.2975938719386955
4422000000.0 0.9667833153560468 -0.27869432582531073
4425000000.0 0.9874160004807724 -0.27517265014868103
4428000000.0 0.9480080636731562 -0.31564106197550634
4431000000.0 0.9726865275477015 -0.31069972007680396
4434000000.0 0.9386933658995351 -0.3268365822781532
4438000000.0 0.9654527148316119 -0.3436672148803022
4441000000.0 0.9609671210211221 -0.35619390085750635
4444000000.0 0.9255826916713679 -0.34058953961537947
4447000000.0 0.936283565971077 -0.36259072197413533
4450000000.0 0.9419289880527922 -0.3514827951885325
4453000000.0 0.9412320911000543 -0.382319107483284
4456000000.0 0.9030856224144952 -0.40410590632182586
4459000000.0 0.8721124700064911 -0.39108275174223855
4462000000.0 0.9733853960823491 -0.4246166135084425
4466000000.0 0.9566581569355129 -0.4350201250216681
4469000000.0 0.9307837314604003 -0.41788491722968857
4472000000.0 0.9193987126604559 -0.45741897633166567
4475000000.0 0.8703120118472146 -0.4153902345554271
4478000000.0 0.9115479633316671 -0.4657524750293086
4481000000.0 0.8649064416532892 -0.4590487101065566
4484000000.0 0.8859469178557682 -0.5175731199685011
4488000000.0 0.8724806433113567 -0.4818218514393692
4491000000.0 0.8885046129669648 -0.4802092887405558
4494000000.0 0.873768112673501 -0.4749212848785936
4497000000.0 0.8859514901382866 -0.48325513261443553
4500000000.0 0.8781369814290239 -0.5054873500126876
4503000000.0 0.8893620250484084 -0.5210910520447127
4506000000.0 0.8581880283909169 -0.5242650409128595
4509000000.0 0.8300444154677906 -0.5208003317964943
4512000000.0 0.8307288982217863 -0.5310854721439824
4516000000.0 0.8576410702242718 -0.5627264690110895
4519000000.0 0.8284096334049152 -0.5256608951592127
4522000000.0 0.8484343229981743 -0.5596000008062133
4525000000.0 0.8476428330804082 -0.5167245640268344
4528000000.0 0.8557583881840791 -0.5712233879769263
4531000000.0 0.8508453433500361 -0.5490847435242953
4534000000.0 0.8049477254865707 -0.5853605646439515
4538000000.0 0.8022702947128395 -0.5833840227747208
4541000000.0 0.7742835934319596 -0.6253195166393384
4544000000.0 0.7983550921933329 -0.5970679310830109
4547000000.0 0.826451343140296 -0.6025030209278921
4550000000.0 0.7827301167672496 -0.6570283673580756
4553000000.0 0.7899139098402959 -0.6343322049509472
4556000000.0 0.7684579649299734 -0.6327514357758494
4559000000.0 0.7728692735836016 -0.6509925341178815
4562000000.0 0.7773933802010646 -0.6602940920029824
4566000000.0 0.7522343652324484 -0.68030608979826
4569000000.0 0.7517266291018172 -0.6399576693291089
4572000000.0 0.7456795838237281 -0.6679362941813789
4575000000.0 0.7353835752888296 -0.6958970064328184
4578000000.0 0.7602079210852621 -0.683755847896757
4581000000.0 0.7269109178928523 -0.7108621083073515
4584000000.0 0.7185098959984807 -0.6924003469032932
4588000000.0 0.7352794579220332 -0.6977241497606277
4591000000.0 0.720048318644139 -0.718765600992306
4594000000.0 0.6736398731129666 -0.7261427560948179
4597000000.0 0.7187725928832456 -0.741418489622394
4600000000.0 0.6791324331307852 -0.7321095482210618
4603000000.0 0.6711516088837827 -0.7471687174823175
4606000000.0 0.7109050691114169 -0.7450030475942008
4609000000.0 0.6839845333672278 -0.7518806125988627
4612000000.0 0.6619058712333712 -0.7618704860935547
4616000000.0 0.6510476829895611 -0.7483637839806245
4619000000.0 0.6534314800295214 -0.7582079630631268
4622000000.0 0.6294395442918839 -0.7833818672540768
4625000000.0 0.5984317572077014 -0.7808986563276497
4628000000.0 0.6437948679685951 -0.7681427987194489
4631000000.0 0.6137300613440879 -0.8037990542077559
4634000000.0 0.6155303302953847 -0.7832108471174998
4638000000.0 0.6266274764743998 -0.8097622743060839
4641000000.0 0.6099357256009741 -0.8237014175136497
4644000000.0 0.5785808217602938 -0.8167779447308005
4647000000.0 0.6129153274135014 -0.8180936524735289
4650000000.0 0.5737359725024977 -0.8396344092401026
4653000000.0 0.5920141173166307 -0.8455504821322901
4656000000.0 0.5654347453171802 -0.8398497774480025
4659000000.0 0.5537628172915858 -0.8532741422914082
4662000000.0 0.560908148851454 -0.8545449456948216
4666000000.0 0.5299047348834491 -0.8377861259761656
4669000000.0 0.5458709996017082 -0.8756209668870445
4672000000.0 0.5114833193637959 -0.8757020035176366
4675000000.0 0.5110675353598566 -0.8702304407489528
4678000000.0 0.49549940910007867 -0.8506174600606277
4681000000.0 0.4984233320246481 -0.8874200255273593
4684000000.0 0.4777752192787292 -0.9005682669551399
4688000000.0 0.4460064266229685 -0.8742528568274657
4691000000.0 0.48231713085924277 -0.8704322097065491
4694000000.0 0.47921438068466626 -0.8888430989562668
4697000000.0 0.4288856920666767 -0.8534113796728133
4700000000.0 0.4559753852375529 -0.8915753365954335
4703000000.0 0.46013318597595804 -0.8780762297890339
4706000000.0 0.4267586612783238 -0.9233650997411995
4709000000.0 0.420654092170091 -0.9244818343735223
4712000000.0 0.42877956098316417 -0.9400889322332946
4716000000.0 0.4338781183343806 -0.9447626307752621
4719000000.0 0.44152987581204195 -0.9369901915974278
4722000000.0 0.40324718147866795 -0.9273750987535172
4725000000.0 0.39295904951745325 -0.917298090514299
4728000000.0 0.36329646556335393 -0.9353908037083059
4731000000.0 0.3967907792469286 -0.9710628277120572
4734000000.0 0.3926050254003779 -0.9227967181097001
4738000000.0 0.3780125433266049 -0.9875460025003236
4741000000.0 0.3497335244240699 -0.9670809496063223
4744000000.0 0.33865025051247566 -0.9637393660902506
4747000000.0 0.327365081877701 -0.9076147065332212
4750000000.0 0.3477553463584391 -0.9520134851155747
4753000000.0 0.3488161257723283 -0.9783895497124708
4756000000.0 0.3118974345294914 -0.9805852393553687
4759000000.0 0.3870801327372936 -0.9835675897751185
4762000000.0 0.2825885597468641 -0.9845390777295514
4766000000.0 0.27905010289196824 -0.9831702073666878
4769000000.0 0.25980916046605435 -0.9975704391501309
4772000000.0 0.2942824998414177 -0.9995025450020915
4775000000.0 0.2543103154373992 -1.0010291631200139
4778000000.0 0.25339417441807144 -0.9976852874514891
4781000000.0 0.24363804979361994 -0.9836824234661645
4784000000.0 0.25139840213976333 -0.9918291530058007
4788000000.0 0.21839779181515218 -1.000176381884299
4791000000.0 0.2365478271197413 -0.9835586077454871
4794000000.0 0.22749376343027408 -1.0148402571306672
4797000000.0 0.1789320240013537 -0.977835579318194
4800000000.0 0.17909076694064907 -0.9986168635340402
4803000000.0 0.12370935108016994 -0.9890302921144227
4806000000.0 0.181645755161699 -1.0198397180754344
4809000000.0 0.12636735787920148 -0.9950849707202644
4812000000.0 0.12733526303882264 -1.0032393005987923
4816000000.0 0.17977599081649182 -0.9803945488632417
4819000000.0 0.15471838291105033 -1.0276564965225452
4822000000.0 0.15672857612515173 -1.0421511169587003
4825000000.0 0.15059595484232471 -1.0440325103863304
4828000000.0 0.09766870844732453 -1.0184338579224366
4831000000.0 0.0703632134471886 -1.0410642534738144
4834000000.0 0.12241114875723065 -1.0247891261508741
4838000000.0 0.06979354964436447 -1.037921782125523
4841000000.0 0.05379492549481264 -1.0082140096142047
4844000000.0 0.11189146770198097 -1.0215733153193653
4847000000.0 0.11312499728254462 -0.9679310051292909
4850000000.0 0.044078591011968454 -1.0223672166668143
4853000000.0 0.06653338152447291 -1.004559831467433
4856000000.0 0.03317235063814171 -1.0248826096003123
4859000000.0 0.014065105022957707 -1.0772791486393611
4862000000.0 0.038651561345031255 -1.0095437046038367
4866000000.0 -0.017730577947014207 -1.0264682749301446
4869000000.0 -0.0160547284613729 -1.0346321187295402
4872000000.0 -0.02482608562293844 -1.0542084596600212
4875000000.0 0.04200908861247915 -1.0764312532204507
4878000000.0 -0.03660182567882354 -1.057370518296748
4881000000.0 -0.06875455898397773 -1.103158428975184
4884000000.0 -0.026154559005433405 -1.0199130975191832
4888000000.0 -0.021473522183031488 -0.990219897821561
4891000000.0 -0.016391506500486965 -1.0387963313794877
4894000000.0 -0.07601469372352618 -0.99387737355085
4897000000.0 -0.024057906264231956 -1.0035302812373252
4900000000.0 -0.08168585602505389 -1.042917591354839
4903000000.0 -0.0652574098732934 -1.0501802920574135
4906000000.0 -0.11529530321206026 -1.0437022642514087
4909000000.0 -0.11237033369954913 -1.0298207621070075
4912000000.0 -0.14272733497493034 -1.054421670834294
4916000000.0 -0.11617610562257427 -1.0539344659917873
4919000000.0 -0.08615009153841528 -1.0637670261867753
4922000000.0 -0.13018866723397393 -1.043394778064402
4925000000.0 -0.1759280952853901 -0.9796191647289193
4928000000.0 -0.07477346996410018 -1.0241801475209902
4931000000.0 -0.13517597566187683 -1.0490801033131858
4934000000.0 -0.1726119975264253 -0.9752769894743055
4938000000.0 -0.21996764920665435 -0.9863380199533673
4941000000.0 -0.1974424518292946 -1.0014589978085406
4944000000.0 -0.1646755024312089 -0.9671430633903018
4947000000.0 -0.20180550164442426 -1.0032577223862613
4950000000.0 -0.22099588790715452 -0.997611945317259
4953000000.0 -0.25233180974631314 -1.024611954265434
4956000000.0 -0.22239140927779444 -0.9669333968741766
4959000000.0 -0.2650397761507344 -0.9705474466760586
4962000000.0 -0.27563234418081617 -1.0266564318781513
4966000000.0 -0.22865274444514422 -1.064320032193195
4969000000.0 -0.2641536924105813 -1.0471444603677744
4972000000.0 -0.27789387453556547 -0.9860320641264317
4975000000.0 -0.24469300143589448 -0.9848375186571556
4978000000.0 -0.29717439375920374 -0.9967868068958946
4981000000.0 -0.31201623810778367 -0.9750465659253175
4984000000.0 -0.3140913247944259 -0.969849909334743
4988000000.0 -0.33410129952984574 -0.9692263954405063
4991000000.0 -0.27795345734056903 -0.9808139334476609
4994000000.0 -0.2988349351268894 -0.9773606129136834
4997000000.0 -0.3667316215192535 -0.9597832825696883
5000000000.0 -0.3437276097171018 -0.9831478086809609
5003000000.0 -0.3602100787172244 -1.0198946053906097
5006000000.0 -0.39270829085662995 -1.0191562118286446
5009000000.0 -0.35278110264989526 -0.9527978929083666
5012000000.0 -0.38510304216941366 -0.911830553901742
5016000000.0 -0.38266469485474147 -1.0036866469591534
5019000000.0 -0.4092900261422199 -0.9491506946092068
5022000000.0 -0.4106383978821586 -0.9581659038617258
5025000000.0 -0.44953500781079186 -1.0029639130056671
5028000000.0 -0.45509410499762537 -0.9274504427457239
5031000000.0 -0.43962334217153 -0.9263695723551478
5034000000.0 -0.4625682377283732 -0.947558836208765
5038000000.0 -0.47049243825770926 -0.8975553893262096
5041000000.0 -0.41014775453419916 -0.9454582207823271
5044000000.0 -0.40036620449764304 -0.930095522313238
5047000000.0 -0.4275848086554375 -0.9473524627702411
5050000000.0 -0.3870833599946264 -0.9290054995081187
5053000000.0 -0.48877451100115477 -0.9511025253494314
5056000000.0 -0.4533842027306346 -0.9371113186267133
5059000000.0 -0.5040809542177029 -0.9587275468432109
5062000000.0 -0.5608386935794848 -0.9023992066587045
5066000000.0 -0.4390028848032722 -0.9272459773022022
5069000000.0 -0.532801876295018 -0.9057419846340155
5072000000.0 -0.49206093871580603 -0.8622297434733079
5075000000.0 -0.5146573840802501 -0.8812963646847389
5078000000.0 -0.5475315091710806 -0.8658718406821135
5081000000.0 -0.5569763050030427 -0.8474037974042076
5084000000.0 -0.569956417566116 -0.915727242337782
5088000000.0 -0.5459066375040043 -0.8824839759678464
5091000000.0 -0.5860881459390674 -0.8448321160109511
5094000000.0 -0.6053293310842294 -0.8629587254772103
5097000000.0 -0.56580251776506 -0.8810637647795858
5100000000.0 -0.6117773195327906 -0.8358835915977719
5103000000.0 -0.6299225922898228 -0.8567132190038295
5106000000.0 -0.5854141518562589 -0.8911438822589177
5109000000.0 -0.576549047664473 -0.8404036141752742
5112000000.0 -0.6562660380222248 -0.83985565860824
5116000000.0 -0.6035781050010447 -0.7876246144198468
5119000000.0 -0.6497492932033458 -0.8434613621619844
5122000000.0 -0.5657756324566634 -0.8145840606474788
5125000000.0 -0.57427588838342 -0.8300066504622416
5128000000.0 -0.6667924587750126 -0.8032112306437509
5131000000.0 -0.6493977809742117 -0.8233795647554125
5134000000.0 -0.6708163472144628 -0.8027648962237478
5138000000.0 -0.6583540345606436 -0.8519961447204168
5141000000.0 -0.6264161707566731 -0.8181183353088033
5144000000.0 -0.6256304907035766 -0.8221487505490519
5147000000.0 -0.7178876562470647 -0.7495429740314061
5150000000.0 -0.6917772722415538 -0.7790572169822051
5153000000.0 -0.6833044814984062 -0.8013481029779239
5156000000.0 -0.7002652392838572 -0.774267407991418
5159000000.0 -0.7380360106446959 -0.8009008256374328
5162000000.0 -0.7526084122404838 -0.7426784844244751
5166000000.0 -0.69753341086334 -0.7561041488192602
5169000000.0 -0.7527895225307243 -0.7311006149383957
5172000000.0 -0.7349427646862253 -0.7517716629289636
5175000000.0 -0.7560245093161053 -0.7663967814433159
5178000000.0 -0.7356478037827507 -0.7286520082552451
5181000000.0 -0.7826976222595783 -0.733544013320946
5184000000.0 -0.7706173200808721 -0.7064663447747476
5188000000.0 -0.7355475330907709 -0.6877660145902609
