! Created with skrf 1.8.0 (http://scikit-rf.org).
# Hz S RI R 50.0 
!freq ReS11 ImS11
4000000000.0 0.744027304052494 0.6572270679884147
4003000000.0 0.7809533744884528 0.7036290749421527
4006000000.0 0.8062973414709412 0.5900168447158081
4009000000.0 0.8177459829603376 0.6559935053338863
4012000000.0 0.8056577793202022 0.6886310328255674
4016000000.0 0.8632775201718903 0.6121887973727647
4019000000.0 0.8114831450815199 0.6482791265142573
4022000000.0 0.790014649481492 0.6957875964819822
4025000000.0 0.8699365032155587 0.5777163959792747
4028000000.0 0.8453894944041245 0.6119563092331219
4031000000.0 0.8060350013116097 0.5707892458007697
4034000000.0 0.849406397645323 0.5790051915027932
4038000000.0 0.8788279885932309 0.5422307558374078
4041000000.0 0.8713183667259757 0.5297491314265809
4044000000.0 0.9038387189425795 0.5932564082431183
4047000000.0 0.9289452501352637 0.5762868340069139
4050000000.0 0.8962544674272427 0.5396263317625557
4053000000.0 0.8812821968322556 0.47268178795653987
4056000000.0 0.9070079669220987 0.507040628693771
4059000000.0 0.8636115107929399 0.5087701341466895
4062000000.0 0.9037716304432852 0.49081580569589106
4066000000.0 0.8184242034880718 0.48243373133680423
4069000000.0 0.9502816851012099 0.4853714902273025
4072000000.0 0.8806240162187497 0.49477338591861303
4075000000.0 0.9678482040665971 0.5089044194370516
4078000000.0 0.9510569822280203 0.4442430904361011
4081000000.0 0.8896535974296571 0.48845744135455493
4084000000.0 0.9101609591018494 0.45032337538947725
4088000000.0 0.9036357254135133 0.4722736971403638
4091000000.0 0.9462982090137219 0.4511778815769097
4094000000.0 0.9182256954416393 0.4266381790575461
4097000000.0 0.95857259203442 0.4117925857059383
4100000000.0 0.9488370151977435 0.3613550691384824
4103000000.0 0.9669616241966013 0.4055954146006499
4106000000.0 0.9279243482634614 0.3896115771784351
4109000000.0 0.954163662051976 0.32668491029542984
4112000000.0 0.9520571704858616 0.3495713349826109
4116000000.0 0.9585890474476277 0.36673912292896005
4119000000.0 0.980061839932877 0.3471969389153414
4122000000.0 0.9380822805985332 0.29627842212864186
4125000000.0 0.9545792024814699 0.31116098488933813
4128000000.0 0.9391590530737552 0.31662626371807046
4131000000.0 0.9490276206307762 0.27061688264131856
4134000000.0 0.9975803907431096 0.3085330546207903
4138000000.0 0.9542935659888658 0.27534782169286215
4141000000.0 1.0040642594287417 0.2905266032020305
4144000000.0 0.9794826268762167 0.29091167138414425
4147000000.0 0.9983921835133915 0.24150636184811797
4150000000.0 1.0054919568587453 0.257036639810671
4153000000.0 0.974350913829117 0.2430705218282817
4156000000.0 0.9968018101305092 0.2791333313186063
4159000000.0 0.9673854080330493 0.237622351686476
4162000000.0 0.9921736608667935 0.2199788853589657
4166000000.0 1.0149388174498086 0.19196495014058979
4169000000.0 0.9722983812545629 0.17601284749690116
4172000000.0 0.9984218084777925 0.19567952100677538
4175000000.0 1.0217440804469229 0.19569471611129546
4178000000.0 1.019813173378874 0.17643647516339817
4181000000.0 1.0059095919576109 0.14773991065210818
4184000000.0 0.97741758168299 0.16605527900588146
4188000000.0 0.9979649166526874 0.12878010414244773
4191000000.0 0.9936596562799777 0.16585197167136395
4194000000.0 1.008045510449898 0.12195419635752491
4197000000.0 1.0240586670204506 0.11888320373473649
4200000000.0 1.0189860178575714 0.1216679940843835
4203000000.0 1.0390083318578065 0.09842667175589193
4206000000.0 1.0406973590079627 0.09546499288699095
4209000000.0 0.9897924679478529 0.08021365379049977
4212000000.0 1.0051479515487531 0.03600083721212627
4216000000.0 1.0189207081107958 0.0727535305534297
4219000000.0 1.0187327148404641 0.06626972136874379
4222000000.0 1.013622470249024 0.03383263290426394
4225000000.0 0.9994340339814372 0.03335044772116694
4228000000.0 1.019372281542562 0.007016005938000919
4231000000.0 1.0143727675365835 0.006072206828465709
4234000000.0 1.0280445222037808 -0.01758079146893432
4238000000.0 1.0153754167950448 -0.02615530837379995
4241000000.0 1.0016598451246153 -0.02118175625751742
4244000000.0 1.0000959005294472 -0.019141160014536973
4247000000.0 1.0146766323375491 -0.03917208009282294
4250000000.0 0.9887476636905068 -0.04458459763014326
4253000000.0 0.9847680051299932 -0.06682691745723987
4256000000.0 1.0466215145845164 -0.07438201656773932
4259000000.0 0.9653160020000808 -0.0814937735362064
4262000000.0 1.0108025738814008 -0.13519669811783058
4266000000.0 1.0234794709785038 -0.1339354113035703
4269000000.0 1.004333524635979 -0.10192053814270659
4272000000.0 1.0031029715042776 -0.10303876042688269
4275000000.0 1.0247436936649874 -0.11423047012204973
4278000000.0 1.0302536357567842 -0.13882815883900235
4281000000.0 1.0187793465531947 -0.13057942273426396
4284000000.0 0.9865963397771119 -0.21017534511029914
4288000000.0 0.9866355279498051 -0.1325840179490293
4291000000.0 0.9889382667927188 -0.18191547225582194
4294000000.0 0.978833290527601 -0.21564599538341706
4297000000.0 0.986958603952081 -0.18345398340747282
4300000000.0 0.973986011374556 -0.18423338604601197
4303000000.0 0.9617565464325863 -0.23897394366090713
4306000000.0 0.9865469539354507 -0.19382355911915075
4309000000.0 0.9642553473700887 -0.21433944846099906
4312000000.0 1.0082908268139033 -0.22526726073563333
4316000000.0 0.9786850318358334 -0.24052919078248564
4319000000.0 0.9661481597454034 -0.244556327473183
4322000000.0 0.9436218103977889 -0.3000189893795154
4325000000.0 0.9679991834908417 -0.3020292993019322
4328000000.0 0.9537603411993278 -0.2943841883062826
4331000000.0 0.9438357261829002 -0.3330111597439851
4334000000.0 0.9492992125243218 -0.320839905267673
4338000000.0 0.96389630026027 -0.3062594373429293
4341000000.0 0.980462032089391 -0.3229618225077816
4344000000.0 0.9758292721821845 -0.33260632145260977
4347000000.0 0.9228346721814956 -0.37279431351255
4350000000.0 0.9118814181931034 -0.3666725346279538
4353000000.0 0.919278376636125 -0.3295479842252626
4356000000.0 0.9244297547557884 -0.40043372643474306
4359000000.0 0.8971458676136017 -0.3810736515122476
4362000000.0 0.9241088930265062 -0.4687860904883332
4366000000.0 0.9303547164719821 -0.43519111539470345
4369000000.0 0.8761421221784551 -0.42000510078172615
4372000000.0 0.8988730147395809 -0.4571162163761415
4375000000.0 0.9239495768588328 -0.4330820303746936
4378000000.0 0.8697083015954358 -0.4475673592440035
4381000000.0 0.8739148320224661 -0.4435729051303552
4384000000.0 0.9412929024154814 -0.5050141481360391
4388000000.0 0.8939426379733264 -0.47019564768552996
4391000000.0 0.8955069653040608 -0.4909230633099544
4394000000.0 0.8601196590098623 -0.4871903678862861
4397000000.0 0.8686995350122422 -0.5141028334141633
4400000000.0 0.8742871530031335 -0.5340912284883683
4403000000.0 0.8717287774438702 -0.5278172613822532
4406000000.0 0.8457022690907594 -0.5491638206601387
4409000000.0 0.8650968144863407 -0.5599200879142255
4412000000.0 0.8009758454154438 -0.5947479882026687
4416000000.0 0.8257850520668233 -0.5675429775375442
4419000000.0 0.8283695763150767 -0.5717090919647463
4422000000.0 0.8214681679214195 -0.554306786995507
4425000000.0 0.8282692338199007 -0.5820158498481307
4428000000.0 0.8149120756231342 -0.5947328845621579
4431000000.0 0.8202967849980465 -0.6036354272218661
4434000000.0 0.7790302917959216 -0.6208323050547231
4438000000.0 0.8224012785122381 -0.6305618823830591
4441000000.0 0.7929121117062379 -0.63886101820614
4444000000.0 0.7673407064669797 -0.6233071104672202
4447000000.0 0.7559711912713571 -0.6461717055761624
4450000000.0 0.7608111993916874 -0.6419880513335567
4453000000.0 0.7746551917876356 -0.6507957900838788
4456000000.0 0.748573157475426 -0.6738279455894807
4459000000.0 0.713711720938109 -0.6788222818249856
4462000000.0 0.7723758460605907 -0.7252792513662368
4466000000.0 0.7592767090218175 -0.7263147056244326
4469000000.0 0.7322441587471752 -0.6990342873847157
4472000000.0 0.7152640559836265 -0.7474152803203061
4475000000.0 0.6904183983147281 -0.7099822611108988
4478000000.0 0.702792694134301 -0.7487067767483608
4481000000.0 0.658240925307798 -0.7207990992829197
4484000000.0 0.6595630761832298 -0.7825184982784981
4488000000.0 0.6668310812404186 -0.7500843345303296
4491000000.0 0.6807052254965914 -0.7576625876730121
4494000000.0 0.6710024015055857 -0.7319525004797405
4497000000.0 0.6417355538389737 -0.7473349383803122
4500000000.0 0.6452660808472475 -0.7790796489721001
4503000000.0 0.6561438439855282 -0.8175694173858268
4506000000.0 0.6224576140236516 -0.794364123045758
4509000000.0 0.6114824132135359 -0.799342457364304
4512000000.0 0.6066294288506339 -0.7878522207111922
4516000000.0 0.6094777268394584 -0.8360972161331423
4519000000.0 0.5924942873960755 -0.8148655639063563
4522000000.0 0.5769876838355585 -0.8334313696162698
4525000000.0 0.59214534814287 -0.8243007250122593
4528000000.0 0.5791093277688378 -0.871603284068735
4531000000.0 0.5708974823887683 -0.8420029436774389
4534000000.0 0.5106374921689512 -0.8490689188540054
4538000000.0 0.5434449189167833 -0.8595196650883694
4541000000.0 0.47534662735310135 -0.8614426591248634
4544000000.0 0.49850388419411434 -0.8668989115243071
4547000000.0 0.4993003815683492 -0.8647511955884128
4550000000.0 0.49696351221651297 -0.8784434230645426
4553000000.0 0.4538783111642167 -0.8909945838449098
4556000000.0 0.46898060726076657 -0.8977037949425777
4559000000.0 0.46130660433197057 -0.9028972480920052
4562000000.0 0.4535390866258034 -0.9173376724638975
4566000000.0 0.42466154151647584 -0.9098282076406436
4569000000.0 0.43277641247728815 -0.9420373647464453
4572000000.0 0.40596379134412475 -0.9190629124117715
4575000000.0 0.39935678627305465 -0.9184367907836885
4578000000.0 0.4158515397662751 -0.9488060984093732
4581000000.0 0.36848110108638976 -0.9235019947977684
4584000000.0 0.3863187905101694 -0.9446085816032151
4588000000.0 0.38305798884125525 -0.9280705475514174
4591000000.0 0.3483594424914858 -0.9584230205428632
4594000000.0 0.34198595262652287 -0.9609041138840383
4597000000.0 0.32656336430255584 -0.9544379689951356
4600000000.0 0.3180088618520195 -0.9676832458049784
4603000000.0 0.31336582790598877 -0.9609044732615885
4606000000.0 0.322181683722458 -1.0045058087801835
4609000000.0 0.3009830284508809 -0.9668962621288684
4612000000.0 0.2654595929665667 -0.9711680685316519
4616000000.0 0.2566446103755777 -0.9795620638964672
4619000000.0 0.24274261886763226 -0.97683127722165
4622000000.0 0.22543751211023272 -0.9868038841165119
4625000000.0 0.19799952762646295 -1.0068452663595433
4628000000.0 0.22908385131129821 -1.0335995603111472
4631000000.0 0.22029301071386811 -1.0006546976158774
4634000000.0 0.18236999567345757 -1.0136259070250808
4638000000.0 0.18990666535052525 -1.003917781938056
4641000000.0 0.17322091957341065 -0.9971185463246839
4644000000.0 0.17981347587643037 -0.9999243166222608
4647000000.0 0.13983789552308157 -1.00665085685888
4650000000.0 0.11956972939515076 -0.9967943046670227
4653000000.0 0.12657507397641282 -1.0055006094399794
4656000000.0 0.1441493679517174 -1.011598633994859
4659000000.0 0.09836645105779636 -1.0144192477109177
4662000000.0 0.0823497071587503 -1.0215991489441156
4666000000.0 0.03407925735522838 -1.0574434199575797
4669000000.0 0.08587743867311487 -1.023591902575688
4672000000.0 0.05446166336894285 -1.0413539931021425
4675000000.0 0.048593818961985766 -1.0511087249877349
4678000000.0 0.038533334354845475 -0.9761696648744073
4681000000.0 -0.0010343630188001385 -0.9847136329622858
4684000000.0 -0.059879240657976146 -1.0339173740596546
4688000000.0 -0.03925953059255341 -1.0321357491482088
4691000000.0 0.031760902196532326 -1.0809302247412962
4694000000.0 0.009816676102733457 -0.9905171557372505
4697000000.0 -0.08847540510984347 -0.9798083671746853
4700000000.0 -0.052289627642630815 -1.016186992093882
4703000000.0 -0.0331576531061038 -0.9375263765248041
4706000000.0 -0.13312866584210153 -1.0032440891497931
4709000000.0 -0.07147499748945008 -1.0056547394247206
4712000000.0 -0.06989856724802018 -1.0058103233256455
4716000000.0 -0.13001939510924607 -1.049735524776557
4719000000.0 -0.08318963002987328 -1.010345740319624
4722000000.0 -0.12424218029614353 -1.0141392367374804
4725000000.0 -0.11539059338375851 -0.977196593084271
4728000000.0 -0.21695848194399187 -1.0120249127150958
4731000000.0 -0.1649652231938833 -1.036975746771966
4734000000.0 -0.13351461585089608 -1.0212695124979965
4738000000.0 -0.19460459861683782 -1.0706283150956057
4741000000.0 -0.22214012051401583 -1.0409771209761518
4744000000.0 -0.22839433629909622 -0.9897398469618943
4747000000.0 -0.17681917974996048 -0.9544588495385782
4750000000.0 -0.24850264886914025 -1.043688415667175
4753000000.0 -0.23545100459447454 -1.027190332634419
4756000000.0 -0.28760765342132866 -1.0055626911231246
4759000000.0 -0.2655471877133357 -1.0273533282598897
4762000000.0 -0.33335482286926144 -1.0140149413333117
4766000000.0 -0.3082034722414287 -1.0107367188681375
4769000000.0 -0.31051660544871307 -0.9674115294468354
4772000000.0 -0.35504057266831124 -0.9847001028918793
4775000000.0 -0.3533761902834126 -1.008937582214468
4778000000.0 -0.38915146544723483 -0.9422351874695091
4781000000.0 -0.34171832244719824 -0.9421721417293658
4784000000.0 -0.34676081009538995 -0.9656189177620443
4788000000.0 -0.42581356969199924 -0.9389366198608886
4791000000.0 -0.3999761384474658 -0.9446108210202736
4794000000.0 -0.40034604844406324 -0.9882833141773837
4797000000.0 -0.4269526347779525 -0.911135662587851
4800000000.0 -0.42056124091693425 -0.8977751230495168
4803000000.0 -0.5142659319036302 -0.9030932812667218
4806000000.0 -0.4767038043532821 -0.9359309749200142
4809000000.0 -0.5344613511892975 -0.9025711427952002
4812000000.0 -0.5166648382797272 -0.8814817094159164
4816000000.0 -0.4597361014870368 -0.8906520708641621
4819000000.0 -0.503739394852968 -0.9204304632113547
4822000000.0 -0.5126505306476747 -0.9331338463657116
4825000000.0 -0.5139728014618421 -0.9242075291946681
4828000000.0 -0.5415332621598477 -0.8742940171308714
4831000000.0 -0.5837443609190932 -0.8652660478325782
4834000000.0 -0.5437174288293299 -0.8776410977816489
4838000000.0 -0.6341661368789476 -0.8356011026869921
4841000000.0 -0.5907377723640692 -0.8385063514871705
4844000000.0 -0.6036775350137724 -0.8753143720511137
4847000000.0 -0.5757468744334705 -0.8316302905500802
4850000000.0 -0.6576769248559411 -0.8431522619175138
4853000000.0 -0.6277554232269033 -0.7953902757091778
4856000000.0 -0.6241677000023265 -0.7700496907095616
4859000000.0 -0.7063644285323084 -0.7899849050077413
4862000000.0 -0.6293607688920486 -0.7862080658333916
4866000000.0 -0.7234444893993953 -0.7683975270449533
4869000000.0 -0.7245185574753856 -0.7697550263590809
4872000000.0 -0.7393222604342089 -0.7777521737371974
4875000000.0 -0.7189167046461665 -0.7933168055799643
4878000000.0 -0.7253277000840973 -0.7165148508954493
4881000000.0 -0.8081097878499914 -0.7409513773264572
4884000000.0 -0.7185872470231418 -0.7232509045894365
4888000000.0 -0.7109718712197256 -0.7545825248069549
4891000000.0 -0.7768255954241943 -0.7194179935914775
4894000000.0 -0.7841376659795629 -0.6684468131663567
4897000000.0 -0.7629776455800182 -0.6898281449976227
4900000000.0 -0.8310890661624463 -0.6882748887135484
4903000000.0 -0.7813398440488252 -0.6996262302852249
4906000000.0 -0.8098543278005341 -0.6476687281389152
4909000000.0 -0.7849546197925625 -0.6609151547794555
4912000000.0 -0.8517580328415136 -0.6165726439100883
4916000000.0 -0.8412807913700995 -0.6180291806437748
4919000000.0 -0.8609321123190735 -0.6785157932824177
4922000000.0 -0.8283880399037942 -0.5589917058395537
4925000000.0 -0.9133742291231534 -0.5325848526751854
4928000000.0 -0.8444522178732488 -0.5623551425233367
4931000000.0 -0.8981705432138298 -0.5559911834029788
4934000000.0 -0.8560803678321584 -0.5225318101081154
4938000000.0 -0.9153092590142162 -0.4865115763795088
4941000000.0 -0.8817936362525264 -0.5123885327898772
4944000000.0 -0.8894301613820997 -0.48741397672904396
4947000000.0 -0.8975591847150022 -0.4768331415757373
4950000000.0 -0.8959974726731761 -0.45850276155597447
4953000000.0 -0.9447838210877342 -0.44667109726179
4956000000.0 -0.9426047322150843 -0.41498665465375484
4959000000.0 -0.933197898251517 -0.3958305168077729
4962000000.0 -1.0030770503429192 -0.3771416451673676
4966000000.0 -0.9636817474072916 -0.4167124071824255
4969000000.0 -0.9696821969249211 -0.40375686019758605
4972000000.0 -0.961733747938814 -0.3670555860052874
4975000000.0 -0.9859209574691139 -0.33712127008382897
4978000000.0 -0.9933237663343877 -0.30535605842517055
4981000000.0 -0.9769849124250031 -0.2881696889416622
4984000000.0 -1.0039761824607245 -0.29890752260630116
4988000000.0 -1.032346512097908 -0.30836108773509924
4991000000.0 -1.0134597065220645 -0.2857227404177324
4994000000.0 -1.0132048783272762 -0.2660788717742839
4997000000.0 -1.0013003904034143 -0.18052934840718013
5000000000.0 -1.0195208706450303 -0.21844389791391497
5003000000.0 -1.012148103678237 -0.20250702725122502
5006000000.0 -1.0345770073850356 -0.19562097002368906
5009000000.0 -1.0112835541953717 -0.11732382442244504
5012000000.0 -1.0602801928707435 -0.13052582541616034
5016000000.0 -1.0414532925944908 -0.0978792329920171
5019000000.0 -1.0524300072322443 -0.06958732079787965
5022000000.0 -1.0527919927541984 -0.042855570681090555
5025000000.0 -1.0139346075732982 -0.03151740090463931
5028000000.0 -1.036557372675618 -0.04876786498706741
5031000000.0 -1.0526823277174984 0.027976405161462922
5034000000.0 -1.045795794003757 0.018523352755763042
5038000000.0 -1.013809056580039 0.03102221932392782
5041000000.0 -1.0181879134096603 0.04395920370496595
5044000000.0 -0.9724249350327648 0.038272254134323835
5047000000.0 -0.9813393031347537 0.1432282587541409
5050000000.0 -1.0265148481217992 0.08555844855524784
5053000000.0 -0.9891936833711272 0.14200016117570524
5056000000.0 -1.0163193003373996 0.16049750264774043
5059000000.0 -1.001640306066489 0.22484761359748137
5062000000.0 -1.0182441456789686 0.22748546125435776
5066000000.0 -1.0353998018876074 0.274850159333775
5069000000.0 -0.9988293517218904 0.21901800342551198
5072000000.0 -1.0863091311331186 0.23529373152566346
5075000000.0 -0.92615128099123 0.27807063032957624
5078000000.0 -1.010715082718003 0.2976566181912323
5081000000.0 -0.9913742180509504 0.3346268223746247
5084000000.0 -0.8961768664934893 0.3882906670881838
5088000000.0 -0.9751176363909267 0.3959165083009143
5091000000.0 -0.9050061087066505 0.41629768206911294
5094000000.0 -0.8733960019549157 0.43531076879803243
5097000000.0 -0.8588298108854545 0.4399500861636072
5100000000.0 -0.9316690050294043 0.46563600470027044
5103000000.0 -0.9190708474228314 0.5759282197531224
5106000000.0 -0.8116632080138935 0.5572883221120222
5109000000.0 -0.842485290114308 0.5510523493219535
5112000000.0 -0.8750769208846049 0.615105038952786
5116000000.0 -0.8693366806504629 0.5865312306078155
5119000000.0 -0.7516929609293058 0.6696896023752275
5122000000.0 -0.7411414027955098 0.6550847964733477
5125000000.0 -0.8195550128056746 0.53007592252405
5128000000.0 -0.7946450995314565 0.6476546415168793
5131000000.0 -0.8059647829528943 0.7214729060739603
5134000000.0 -0.6719062579618053 0.685036232551582
5138000000.0 -0.7385526205284175 0.669868662309
5141000000.0 -0.7506515773347044 0.7902692499035153
5144000000.0 -0.6393469949975379 0.7606349372412639
5147000000.0 -0.6673037784276632 0.8137038962510078
5150000000.0 -0.6505145735814452 0.8425150318929057
5153000000.0 -0.7045058730828664 0.8869610392643499
5156000000.0 -0.533072685235773 0.7862876961571147
5159000000.0 -0.5801678491395096 0.8437153890381358
5162000000.0 -0.5345777472215241 0.8971642606062838
5166000000.0 -0.5163346046177043 0.7660389159628119
5169000000.0 -0.5015121110559606 0.8633300888240771
5172000000.0 -0.5141849107367619 0.912783768846174
5175000000.0 -0.44953839638955523 0.892008410122729
5178000000.0 -0.4124771611185606 0.9785278049241442
5181000000.0 -0.3478170786531947 0.9445959246000462
5184000000.0 -0.35035723789814766 0.9564777722226134
