! Created with skrf 1.8.0 (http://scikit-rf.org).
# Hz S RI R 50.0 
!freq ReS11 ImS11
4000000000.0 0.6744843431202163 0.7625041763278018
4003000000.0 0.7248602807157297 0.7958647444710479
4006000000.0 0.7304446306413866 0.6948847092017117
4009000000.0 0.6969822798635973 0.777304564211229
4012000000.0 0.6759336528822987 0.789470270777497
4016000000.0 0.7678402045058516 0.7143468040199312
4019000000.0 0.7255115655222328 0.7352382558205993
4022000000.0 0.7095715133138449 0.7901143713121467
4025000000.0 0.8101257663895999 0.6723297796693313
4028000000.0 0.7809966432675021 0.7162637811902346
4031000000.0 0.7222944479568799 0.7061522218610469
4034000000.0 0.7525169014334222 0.7150048155659479
4038000000.0 0.8162491131453139 0.6845253349775932
4041000000.0 0.766124764813074 0.6629628784300754
4044000000.0 0.8603811416597045 0.7261463514314763
4047000000.0 0.8182734485427341 0.7052967045575447
4050000000.0 0.8367563110901698 0.6595337576395174
4053000000.0 0.8196482940957555 0.600703037014245
4056000000.0 0.8173957632317861 0.643540730865705
4059000000.0 0.8331719826129131 0.6176989266057762
4062000000.0 0.8360189093420027 0.6209502923603425
4066000000.0 0.8056135548215033 0.5618260076152504
4069000000.0 0.8626288050346419 0.5977232448068713
4072000000.0 0.8303775554697767 0.6263417050942468
4075000000.0 0.8424779482960859 0.6112468777642046
4078000000.0 0.8806884223460149 0.5989180598140078
4081000000.0 0.8235214371414401 0.6510116903836501
4084000000.0 0.871214410947249 0.5957214523070169
4088000000.0 0.7995940602922038 0.5944640069581533
4091000000.0 0.9057718688911103 0.5819648160263455
4094000000.0 0.8628437940704374 0.5734073364729403
4097000000.0 0.8980770025317947 0.5418044162720874
4100000000.0 0.8833371191225283 0.5154281725941974
4103000000.0 0.8805277867916639 0.600363063094965
4106000000.0 0.9131346840312909 0.5216914090348939
4109000000.0 0.9204738712067468 0.4929171380576374
4112000000.0 0.918730402416351 0.5187507989933651
4116000000.0 0.8879116426685121 0.565174179737337
4119000000.0 0.9381783696500308 0.48660248454678556
4122000000.0 0.9192313961298013 0.43834517092325676
4125000000.0 0.9154403798675275 0.45832154735039715
4128000000.0 0.8858983063651948 0.48578305456901405
4131000000.0 0.9063157775596955 0.440909218173154
4134000000.0 0.8996400505015805 0.48757273322428385
4138000000.0 0.9190127340917358 0.4124717004633562
4141000000.0 0.9309835321494861 0.4310968422171908
4144000000.0 0.9203947495947048 0.46178825847227417
4147000000.0 0.9163147018235187 0.41560746701087464
4150000000.0 0.972760808581573 0.42524140047448583
4153000000.0 0.9471704662594028 0.4399307148917112
4156000000.0 0.9436320662367008 0.4151028592100261
4159000000.0 0.9266437327778516 0.4242168015120273
4162000000.0 0.9408177490346201 0.4254338268302431
4166000000.0 0.9305764989873622 0.3913299135115639
4169000000.0 0.9413005677318201 0.33363284411251715
4172000000.0 0.9502088457323029 0.3782111570942757
4175000000.0 0.9721987060773839 0.380912509517418
4178000000.0 0.9707355715555165 0.33465445342718325
4181000000.0 0.9874065137548871 0.3244124779287718
4184000000.0 0.9541555635512744 0.35896911924084546
4188000000.0 0.9631271544956488 0.29861142033781507
4191000000.0 0.9632670283409952 0.3361116582968083
4194000000.0 0.9686520940963348 0.30689410367418235
4197000000.0 0.9739668572476236 0.314473982618007
4200000000.0 0.9918688483449047 0.30631766693861284
4203000000.0 0.989239698644578 0.29467378624465035
4206000000.0 1.001950111914574 0.2820412449341568
4209000000.0 0.9665765970628962 0.2514402230713611
4212000000.0 0.9999278818332977 0.2227011635054244
4216000000.0 1.0012685242074282 0.25873057637923996
4219000000.0 1.0143631197986105 0.25916960793995536
4222000000.0 1.0015990532887906 0.2218698298886888
4225000000.0 0.9746653086289663 0.21143832464043852
4228000000.0 1.0003488668229792 0.22438947963522812
4231000000.0 1.0090757439956413 0.20550487871652012
4234000000.0 1.001383223676558 0.17743260556572882
4238000000.0 1.0159984881902315 0.17519214994214463
4241000000.0 1.0113477145826806 0.16396549106240993
4244000000.0 0.9881601274839895 0.16387133421177424
4247000000.0 1.0157890123701248 0.16840692786057404
4250000000.0 0.9879312080272735 0.13561281981910456
4253000000.0 0.9877849243957197 0.12258335576691787
4256000000.0 1.0285543617923991 0.1365984979661219
4259000000.0 0.962268894036487 0.10322627746106475
4262000000.0 1.0249748267841532 0.09020885905722023
4266000000.0 1.0359397246620998 0.08430641423024046
4269000000.0 1.0218579396848746 0.12077026248999956
4272000000.0 0.9928042338234913 0.08854912518022123
4275000000.0 1.0299835384727496 0.08666844977497595
4278000000.0 1.0528617203057606 0.0631917686475541
4281000000.0 1.0263769214023615 0.06707791046975396
4284000000.0 1.0108567452371608 0.031310894875888284
4288000000.0 1.0183006610364027 0.083628952900387
4291000000.0 0.9888248127704583 0.03259087705080069
4294000000.0 1.0247017275538 0.02878409206009451
4297000000.0 1.0171440281932371 0.0391163615935176
4300000000.0 0.9985739259320214 0.008535286767881282
4303000000.0 0.9867046440411555 -0.010764635874749295
4306000000.0 1.0132635262921084 0.01219654963107833
4309000000.0 0.9978385093488985 -0.014917173907828346
4312000000.0 1.0303000211328286 -0.010529908239291418
4316000000.0 1.0353470788376402 -0.019904876230572452
4319000000.0 0.9981507203058082 -0.05134309237526124
4322000000.0 0.9836267862101553 -0.0795702134876581
4325000000.0 1.0134462559994488 -0.036246769552539665
4328000000.0 0.993372952095894 -0.06797940115994919
4331000000.0 1.013143171641539 -0.10243553518456736
4334000000.0 1.018900676098133 -0.11834438501058063
4338000000.0 1.0130080168262614 -0.06205190518307379
4341000000.0 1.0410049188007333 -0.07133541047424694
4344000000.0 1.0262336025208194 -0.11838200738677986
4347000000.0 1.0175080927392481 -0.16567696002005677
4350000000.0 0.9711725287719897 -0.14169632528039053
4353000000.0 0.9891430894556101 -0.13548394870893857
4356000000.0 0.9945209841212698 -0.18051197506131317
4359000000.0 0.9535660846150323 -0.15415666608055262
4362000000.0 1.0014712958859922 -0.21729484458468873
4366000000.0 1.0263865363191107 -0.18912219489861892
4369000000.0 0.9620143341983214 -0.18330467569074357
4372000000.0 0.9643144794692642 -0.22957616882513002
4375000000.0 0.9942982661001369 -0.18964922402420897
4378000000.0 0.9837403316889473 -0.20196056736455908
4381000000.0 0.9623761920010758 -0.19982672218812061
4384000000.0 1.0245928429075688 -0.2644519295875342
4388000000.0 0.9790565298184664 -0.23301620168402085
4391000000.0 0.9736082166721989 -0.24588222315544475
4394000000.0 0.9400742304263379 -0.2650590240855334
4397000000.0 0.9634577443397117 -0.27219285632079776
4400000000.0 1.0017088634639597 -0.2899980589772238
4403000000.0 0.9620660991266331 -0.2831572808573691
4406000000.0 0.9528154267788367 -0.32252281031946606
4409000000.0 1.001547623309127 -0.3129402170437239
4412000000.0 0.9290451271885616 -0.3680203198440524
4416000000.0 0.9361290196348511 -0.3371108224550897
4419000000.0 0.9490230655016215 -0.3500398374567134
4422000000.0 0.9489632341852816 -0.32158555293743474
4425000000.0 0.9712677630004997 -0.3285457093883688
4428000000.0 0.9588533299972525 -0.35887291882475514
4431000000.0 0.9672552372625789 -0.35994407129626815
4434000000.0 0.9199513041216398 -0.3771357877749248
4438000000.0 0.9705588150331566 -0.40494780959269294
4441000000.0 0.950581271577974 -0.3854133272753345
4444000000.0 0.9127188871467553 -0.3828085219570385
4447000000.0 0.9213102030132353 -0.4221290446091457
4450000000.0 0.9131082977286799 -0.3935197819433144
4453000000.0 0.9374636434331443 -0.4399243450084363
4456000000.0 0.8815828104635547 -0.42534162791725916
4459000000.0 0.8646360093404717 -0.44213668273561346
4462000000.0 0.9433238909652684 -0.4838986562913802
4466000000.0 0.9379358035692674 -0.49599673433989044
4469000000.0 0.9127777386905932 -0.46367657001817025
4472000000.0 0.8961136616000945 -0.4993834540909462
4475000000.0 0.879340648572995 -0.4586556315334108
4478000000.0 0.9106797437916406 -0.5257940683485967
4481000000.0 0.8578153347061663 -0.48542554253592174
4484000000.0 0.8494112645442595 -0.5527960740545014
4488000000.0 0.8671538314074455 -0.5338281740373361
4491000000.0 0.8636972970076681 -0.5347252397139011
4494000000.0 0.8549294737214739 -0.5397143317899837
4497000000.0 0.8541581286266577 -0.5062075956699928
4500000000.0 0.836014069844714 -0.5521672294462621
4503000000.0 0.8562301824558995 -0.5705250997899547
4506000000.0 0.8153517067437352 -0.5575174184689713
4509000000.0 0.8110307840076318 -0.561121127859682
4512000000.0 0.8134536628005853 -0.5845699965289505
4516000000.0 0.8585987614586083 -0.6006041463774802
4519000000.0 0.8149125158911419 -0.5749072455700523
4522000000.0 0.7935682344489929 -0.5994972991038336
4525000000.0 0.8173578550590546 -0.5824700549894146
4528000000.0 0.8164808052320915 -0.6266404099828615
4531000000.0 0.8269445106159617 -0.613339845671568
4534000000.0 0.7713232085858046 -0.6266605297806289
4538000000.0 0.773896733773664 -0.6442471904176306
4541000000.0 0.7438149662698146 -0.6597932778323987
4544000000.0 0.7717446517419764 -0.6479318433431484
4547000000.0 0.7866006167222015 -0.6459093078657303
4550000000.0 0.7460965330838412 -0.6754353441982736
4553000000.0 0.7510445924585842 -0.6912047621840498
4556000000.0 0.719123013828646 -0.6670581220818874
4559000000.0 0.7337726097581624 -0.6977234000556753
4562000000.0 0.7477698161073818 -0.7041583912566854
4566000000.0 0.7333305254087141 -0.7185644571584071
4569000000.0 0.7074287472680266 -0.6997127678238098
4572000000.0 0.7058663783399954 -0.7075717757343266
4575000000.0 0.6991439821404386 -0.7339088554391985
4578000000.0 0.7231389511917174 -0.7250399997507793
4581000000.0 0.6681703571541625 -0.7409019110921334
4584000000.0 0.6769657405333988 -0.7493846832704036
4588000000.0 0.6972511794190462 -0.7463009962875591
4591000000.0 0.7016582510024414 -0.750793672786386
4594000000.0 0.6513688321801872 -0.7686199059540311
4597000000.0 0.6753441450169613 -0.7671437552513622
4600000000.0 0.6427152726072545 -0.7801612481917619
4603000000.0 0.6441430242921227 -0.8006962270206249
4606000000.0 0.6525756091161479 -0.78548581451135
4609000000.0 0.62441351046327 -0.7869419621295859
4612000000.0 0.6253720866435732 -0.7896715713682092
4616000000.0 0.6067504040222214 -0.7983187139873197
4619000000.0 0.6011777918924649 -0.7958197850415607
4622000000.0 0.6004368999483239 -0.8119909656085729
4625000000.0 0.5577747580274407 -0.8142052041522962
4628000000.0 0.6047007230124476 -0.8383066133104405
4631000000.0 0.5645172604815027 -0.8383610103921686
4634000000.0 0.5548498915577106 -0.8404992024503493
4638000000.0 0.5706570431574134 -0.8365602523345506
4641000000.0 0.5521775715424659 -0.8590687251622644
4644000000.0 0.5464031534290847 -0.8385943831781573
4647000000.0 0.5480968072620737 -0.8508891312212642
4650000000.0 0.5201312453638846 -0.8764379397112335
4653000000.0 0.5322637286142331 -0.8741381485050809
4656000000.0 0.5063055122901293 -0.8784803099438561
4659000000.0 0.49927536492072155 -0.8708089781159002
4662000000.0 0.4952997823388335 -0.8818012327500732
4666000000.0 0.47315571525900735 -0.8803137402874992
4669000000.0 0.4744304178478279 -0.8925282949724375
4672000000.0 0.4610191476640856 -0.9455673992851178
4675000000.0 0.4633628746346163 -0.9103523551293091
4678000000.0 0.44897911325023193 -0.8878685284900256
4681000000.0 0.438509664779899 -0.9304381868910513
4684000000.0 0.4160584007950979 -0.9289151546410727
4688000000.0 0.41086129923631776 -0.895028586034419
4691000000.0 0.4548307557316017 -0.9169255961100311
4694000000.0 0.40640165836075465 -0.9217489815648869
4697000000.0 0.3612208930460279 -0.8831005586005494
4700000000.0 0.39291758165192664 -0.9189743289540282
4703000000.0 0.41015887877189244 -0.878589627213926
4706000000.0 0.36816019142700196 -0.959459549897562
4709000000.0 0.3641547775229531 -0.9446454680437112
4712000000.0 0.39783188167990285 -0.9375940243049039
4716000000.0 0.3591119691592044 -0.9551589174451356
4719000000.0 0.3799145056428762 -0.94216092553997
4722000000.0 0.3409745576653883 -0.9583199632430188
4725000000.0 0.3491458780217769 -0.9610408381517722
4728000000.0 0.32632580064881944 -0.9601237501197497
4731000000.0 0.31155342495810456 -1.0107902478401174
4734000000.0 0.32296017468533 -0.9488283058124537
4738000000.0 0.32393492148261366 -0.9958179337887852
4741000000.0 0.2989526369841352 -1.0189399615576005
4744000000.0 0.27653963592668035 -0.9851865893322841
4747000000.0 0.2803056497488465 -0.9311244197446795
4750000000.0 0.24372689026842917 -0.996847069670136
4753000000.0 0.267186807627204 -1.0283301067563029
4756000000.0 0.24917039584639628 -1.0218154467279634
4759000000.0 0.26599484819000113 -1.010849572553715
4762000000.0 0.19988045107098337 -1.0317276531174762
4766000000.0 0.22876715015633878 -0.9889313450721956
4769000000.0 0.2010639390144436 -1.010540728098762
4772000000.0 0.20660486472514816 -1.0341865403257304
4775000000.0 0.18857843142066383 -1.0500810713129938
4778000000.0 0.1479692907332576 -1.0431880636800233
4781000000.0 0.17528918563777646 -1.01291841650771
4784000000.0 0.18647384640494186 -1.0031645577398227
4788000000.0 0.1333833357308447 -1.0390722642111323
4791000000.0 0.16136772540194927 -1.0244530126387312
4794000000.0 0.1787701943795659 -1.0305102844640806
4797000000.0 0.11472152333607774 -0.973673456353683
4800000000.0 0.13301111915070585 -0.9980850633981899
4803000000.0 0.055514690306609604 -1.0185249073007625
4806000000.0 0.0934867774238925 -1.0445335188269096
4809000000.0 0.045204869565192346 -1.0175233474833696
4812000000.0 0.03724615402996756 -1.0114467016152124
4816000000.0 0.10195298388177827 -0.9746568924599706
4819000000.0 0.09908623093872873 -1.0498096606702247
4822000000.0 0.07522704265220102 -1.0716071632204742
4825000000.0 0.07344933996269776 -1.0362624298046583
4828000000.0 0.022383653112936067 -1.0265443741960554
4831000000.0 -0.017740083382094485 -1.0471493338841558
4834000000.0 0.04279284715275415 -1.0312578596614035
4838000000.0 -0.009089228269376456 -1.0290419694838129
4841000000.0 -0.03661066912080148 -1.0058736471126877
4844000000.0 0.03578729486271745 -1.0392767444864837
4847000000.0 0.014271656949648368 -0.9919001840237056
4850000000.0 -0.03696825331240662 -1.0559352214155093
4853000000.0 -0.035370979771798886 -0.9931118593652051
4856000000.0 -0.026759342213101847 -0.9990224036339225
4859000000.0 -0.05495886178795526 -1.073692463927626
4862000000.0 -0.021573800103288965 -1.007183328980046
4866000000.0 -0.0948339637028092 -1.036480557523972
4869000000.0 -0.09286740342585564 -1.0346652684823305
4872000000.0 -0.11821504712121561 -1.0438949798627382
4875000000.0 -0.047267045539929706 -1.072204380038579
4878000000.0 -0.1074282676672296 -1.021350638090575
4881000000.0 -0.159370387622123 -1.081113412860299
4884000000.0 -0.11698113068296989 -1.0200332098552038
4888000000.0 -0.09988776614050517 -1.0061446294051328
4891000000.0 -0.1335734396269843 -1.0436968289630284
4894000000.0 -0.14058840932659153 -0.9943505453463873
4897000000.0 -0.12184981738989148 -1.010463980615245
4900000000.0 -0.17231960500506 -1.0590413969708838
4903000000.0 -0.16151509392455493 -1.0368480674306806
4906000000.0 -0.16844621484128536 -1.0336396352783956
4909000000.0 -0.23008463594545023 -1.0504803363124702
4912000000.0 -0.2438062431160073 -1.050239360167508
4916000000.0 -0.20303484886732087 -1.039506840772829
4919000000.0 -0.1979203051630517 -1.0296382206057961
4922000000.0 -0.2322253097504596 -1.051348678518491
4925000000.0 -0.2780632979056188 -0.9772330431694218
4928000000.0 -0.18045369582716014 -1.0034103339981477
4931000000.0 -0.22127422727090434 -0.9989400843650555
4934000000.0 -0.2506212103266995 -0.9953773492698303
4938000000.0 -0.25915678535744263 -0.9730754987745067
4941000000.0 -0.25542841353216694 -0.9682245286469743
4944000000.0 -0.23404616600115816 -0.9594918912022321
4947000000.0 -0.2727312931864815 -0.9834061693750659
4950000000.0 -0.2960557640561588 -0.9850965361324066
4953000000.0 -0.3636153427612086 -1.0118974538216863
4956000000.0 -0.34061140091932024 -1.0131644460330713
4959000000.0 -0.36252078338275195 -0.918883262340423
4962000000.0 -0.35426323654288816 -0.9791710130685725
4966000000.0 -0.3484568747598342 -1.0046738747056376
4969000000.0 -0.31761448072610465 -1.0413118087643332
4972000000.0 -0.358910967357553 -0.9722353166828309
4975000000.0 -0.3238442176970894 -0.9715630976213279
4978000000.0 -0.41721469478125617 -0.9772509010805575
4981000000.0 -0.43343842045338077 -0.9466695285963368
4984000000.0 -0.4078804867862359 -0.9295116209530103
4988000000.0 -0.381245700712941 -0.9913013948297239
4991000000.0 -0.3760986892045541 -0.9726883843251479
4994000000.0 -0.39070160084592775 -0.9517086283495694
4997000000.0 -0.4703558475252985 -0.9338411539999616
5000000000.0 -0.4594884054959685 -0.9891521398719847
5003000000.0 -0.463221288634934 -1.0010883188873554
5006000000.0 -0.5002834893484248 -0.9788649011779661
5009000000.0 -0.47178429550359435 -0.9506869777386425
5012000000.0 -0.48127583696632764 -0.9150074191735889
5016000000.0 -0.465782783606229 -0.9591334736552853
5019000000.0 -0.5091218620182683 -0.9292680616704
5022000000.0 -0.4915527859338489 -0.9137684270660418
5025000000.0 -0.5404451322192634 -0.9833089871690435
5028000000.0 -0.5198949185952627 -0.8903813678054792
5031000000.0 -0.5452145289443255 -0.8985355853614776
5034000000.0 -0.5565900365516698 -0.9071192895267837
5038000000.0 -0.5431153501328458 -0.8495591648080221
5041000000.0 -0.5127297372148824 -0.908400705828983
5044000000.0 -0.5025858571989223 -0.885174950762149
5047000000.0 -0.5198056423953958 -0.8818465957050557
5050000000.0 -0.5106469624196076 -0.9038334422056098
5053000000.0 -0.5891153761050555 -0.8918385473621957
5056000000.0 -0.508523365457799 -0.9157457529878232
5059000000.0 -0.5697234204001735 -0.8820457272337475
5062000000.0 -0.6433064396459302 -0.8810447455577826
5066000000.0 -0.559030449477263 -0.8989817761900047
5069000000.0 -0.618706662340023 -0.8578773893723558
5072000000.0 -0.6153624675600223 -0.8750068008622192
5075000000.0 -0.5897378945743467 -0.8385088882022302
5078000000.0 -0.662844039504757 -0.8012203000271139
5081000000.0 -0.6361050932766648 -0.8216249064813906
5084000000.0 -0.657167871538286 -0.8186993345613294
5088000000.0 -0.6411214655460861 -0.8144430447878848
5091000000.0 -0.6693847757306735 -0.7665886740735595
5094000000.0 -0.6748618939725439 -0.7647849273108623
5097000000.0 -0.6418984891907265 -0.8400710217132117
5100000000.0 -0.672791468875993 -0.7530959450023867
5103000000.0 -0.704136851480769 -0.7999116124234483
5106000000.0 -0.7060815805152386 -0.8150002922222501
5109000000.0 -0.6808302314884374 -0.7699260744320303
5112000000.0 -0.7058430853163828 -0.7371628137026973
5116000000.0 -0.7022315376703242 -0.7404441463108945
5119000000.0 -0.7237966219099267 -0.7625992919410793
5122000000.0 -0.7088321896719204 -0.7037352439597051
5125000000.0 -0.7026164721604335 -0.7326033212318438
5128000000.0 -0.7710355857554566 -0.7125489164453092
5131000000.0 -0.7350735975294415 -0.7363586584733826
5134000000.0 -0.7714845666480693 -0.6955374354397753
5138000000.0 -0.7260347010832617 -0.711701089174974
5141000000.0 -0.7174411679332078 -0.7068769736703466
5144000000.0 -0.6964100895625966 -0.6794931646123076
5147000000.0 -0.7711224937890764 -0.7339157450826026
5150000000.0 -0.7888432256269617 -0.6590976395625879
5153000000.0 -0.8209454439933561 -0.7464064648459907
5156000000.0 -0.7724579223631218 -0.6886784919608273
5159000000.0 -0.819903076753074 -0.6798419797125174
5162000000.0 -0.8225515361196032 -0.6365555187060197
5166000000.0 -0.7681419231297525 -0.675137295041973
5169000000.0 -0.8042335327232198 -0.6944816433309406
5172000000.0 -0.8080892797334952 -0.6564351721506694
5175000000.0 -0.843541876908848 -0.7050525494853073
5178000000.0 -0.8343204047985564 -0.6412386629064972
5181000000.0 -0.8538305438468861 -0.617255521733459
5184000000.0 -0.860279274671618 -0.6532488170505104
5188000000.0 -0.8626151374201504 -0.5916643596902058
