! Created with skrf 1.8.0 (http://scikit-rf.org).
# Hz S RI R 50.0 
!freq ReS11 ImS11
4000000000.0 0.700316579672772 0.7482917038308334
4003000000.0 0.7627900994677809 0.7682513274954413
4006000000.0 0.7417281916553496 0.6982358689737753
4009000000.0 0.7502540817073907 0.754086770170106
4012000000.0 0.7309022177693701 0.7785236341204311
4016000000.0 0.7975363214024692 0.7218298654716686
4019000000.0 0.7594556552847327 0.7161615021680842
4022000000.0 0.7184673045978136 0.7649419077577981
4025000000.0 0.8121579929156142 0.6646782503295076
4028000000.0 0.7421357675274282 0.6699741351126522
4031000000.0 0.7413749365302187 0.626153716857103
4034000000.0 0.789857322571186 0.6524285412612205
4038000000.0 0.8164502367428087 0.6449128613587167
4041000000.0 0.7888461874826673 0.6570557284554672
4044000000.0 0.841510986643383 0.7037829283742901
4047000000.0 0.8255589256687916 0.6835228126942635
4050000000.0 0.7986080264830578 0.6455917151549481
4053000000.0 0.8294092691728783 0.612064163436566
4056000000.0 0.8034776195132979 0.6415830466045234
4059000000.0 0.7970967300305427 0.6123125579254403
4062000000.0 0.8185985842233537 0.57843758316661
4066000000.0 0.7673838349041242 0.5814630060214133
4069000000.0 0.8630722964457247 0.6106599097170049
4072000000.0 0.8371007278751879 0.6153764237344295
4075000000.0 0.8685055329123736 0.6320174703530834
4078000000.0 0.87778960140855 0.5816910052017333
4081000000.0 0.8876782622790912 0.6503695901188782
4084000000.0 0.8871350467530723 0.5131122726929374
4088000000.0 0.842080165376824 0.5956653708270875
4091000000.0 0.9441174523068503 0.567910842382632
4094000000.0 0.8759891888468717 0.5464095078773101
4097000000.0 0.8529201121753864 0.5171051091513459
4100000000.0 0.8970643891362938 0.49967297284353024
4103000000.0 0.8887173882440893 0.5682336781863011
4106000000.0 0.9159243663408907 0.5108281138845535
4109000000.0 0.9027968198555805 0.4885587003594501
4112000000.0 0.9037893153015601 0.5096194419930973
4116000000.0 0.9448337335918062 0.476163091052047
4119000000.0 0.9378138510809805 0.47738014234363424
4122000000.0 0.9070448424352877 0.47803229999553776
4125000000.0 0.9294885387198278 0.424816335335729
4128000000.0 0.875739599311523 0.4639862095356686
4131000000.0 0.931683434863233 0.4065095640216735
4134000000.0 0.9227420628110512 0.46575371960345346
4138000000.0 0.9394430724481462 0.44109751967988015
4141000000.0 0.91781753264075 0.40553582624744267
4144000000.0 0.9427158664558303 0.4354378204677723
4147000000.0 0.9576894814831711 0.3823120224484639
4150000000.0 0.9822767890120858 0.3989754075202731
4153000000.0 0.9379608291015746 0.37705731955520294
4156000000.0 0.9780185809153692 0.424547238585147
4159000000.0 0.9574937369351999 0.381931946233748
4162000000.0 0.9385245262891284 0.3876166256187754
4166000000.0 0.9643580729237213 0.33841211571528884
4169000000.0 0.9573782170477333 0.3290311229676621
4172000000.0 0.9700669227355363 0.31201998875482945
4175000000.0 0.9729865068651261 0.3323918155564943
4178000000.0 0.9621698617077116 0.3164806281911864
4181000000.0 0.9654033031088327 0.31241442750301396
4184000000.0 0.9555331378342723 0.30418066275316885
4188000000.0 0.9715499865927495 0.3030475838587129
4191000000.0 0.9600764158940239 0.30278287048237457
4194000000.0 0.9671045356772583 0.261990593341616
4197000000.0 0.9951275631952418 0.29951627154092614
4200000000.0 0.989959652665088 0.2782276838824729
4203000000.0 0.9863981814882355 0.26797734896345804
4206000000.0 0.9977039792756796 0.26590998431525087
4209000000.0 0.9738608256788129 0.245265585020567
4212000000.0 1.004619554767731 0.1994815740578726
4216000000.0 0.9986234175478642 0.23699778533077115
4219000000.0 1.0078340012874587 0.23041084161803596
4222000000.0 0.9940264293645673 0.21326106504758768
4225000000.0 0.991620901609408 0.20821918454323993
4228000000.0 1.0072014352902667 0.1776154341604432
4231000000.0 1.001535260040544 0.1678279318374306
4234000000.0 1.0255716300633755 0.16428794374779698
4238000000.0 1.0021089911345418 0.1292194303657607
4241000000.0 0.9870424249876322 0.14259565162193866
4244000000.0 1.019816194311899 0.1443073425405979
4247000000.0 0.9937926947865524 0.13611933130368847
4250000000.0 0.9955349139538336 0.1253212249979347
4253000000.0 0.9919960732050008 0.09977322888028714
4256000000.0 1.0458557156368675 0.11309950267377156
4259000000.0 0.9661180104340369 0.08335393924936649
4262000000.0 0.9981803651812364 0.0764113749147955
4266000000.0 1.0265032091806205 0.06371986705100399
4269000000.0 1.0064416314492304 0.07920343802646507
4272000000.0 1.0282622909800958 0.05601094141853863
4275000000.0 1.0283047267821854 0.05226360117548007
4278000000.0 1.0482694248276767 0.046739012818024395
4281000000.0 1.0147296554184964 0.05603678713686709
4284000000.0 1.014371631798718 0.004404313874908389
4288000000.0 1.0214459735978165 0.04496045347329274
4291000000.0 0.9821243354888244 0.005939495186880264
4294000000.0 1.0097048486593998 -0.019975862662367394
4297000000.0 1.000536169162159 0.007198907464587817
4300000000.0 0.990104267820552 -0.03173666623545729
4303000000.0 0.9956362609978656 -0.06270381883064223
4306000000.0 1.0079594988865872 0.0016192434252033788
4309000000.0 1.0099770940243125 -0.047914773430670146
4312000000.0 1.0429598945314664 -0.00804995399979154
4316000000.0 1.0247869446673898 -0.044786696204806166
4319000000.0 0.9623900844102324 -0.06516954948783857
4322000000.0 0.998825066946956 -0.10843013411752987
4325000000.0 0.9968289526979868 -0.11182533114572127
4328000000.0 0.9951372350210899 -0.1166753585622892
4331000000.0 1.0081199893884938 -0.13470743319472003
4334000000.0 1.0346674226546304 -0.13514373460427878
4338000000.0 1.0027103021060828 -0.11929293832988985
4341000000.0 1.0257969786896637 -0.09798221083851141
4344000000.0 1.0175979772989083 -0.1288159635693727
4347000000.0 0.9977199099346402 -0.17548200463063698
4350000000.0 0.969061641509745 -0.17327446452961492
4353000000.0 0.9847637580230775 -0.1352541290948835
4356000000.0 0.9730422955925591 -0.18949074610384392
4359000000.0 0.9479344007737885 -0.19645479134808988
4362000000.0 0.9816391147297985 -0.24611510902443734
4366000000.0 1.0002859686317676 -0.21757584789554063
4369000000.0 0.9497475835737761 -0.24414782785874223
4372000000.0 0.962207331261002 -0.25743296098764756
4375000000.0 0.9768746412945779 -0.21778725755063172
4378000000.0 0.948794941859549 -0.2255748219745503
4381000000.0 0.9658305728189611 -0.23971367636267354
4384000000.0 1.035807179669829 -0.28817939023228095
4388000000.0 0.973082658252294 -0.24770214227266465
4391000000.0 0.9708108391224666 -0.27252182801253205
4394000000.0 0.9408454978441742 -0.2881764382673799
4397000000.0 0.9496465687294726 -0.2899319403302788
4400000000.0 0.9784906483579472 -0.3179315326658524
4403000000.0 0.9729413781851198 -0.3162358104138019
4406000000.0 0.9693130935816029 -0.3452044990833233
4409000000.0 0.99210942587836 -0.3491144592279492
4412000000.0 0.924167674097835 -0.38431612893580636
4416000000.0 0.9292957399707709 -0.3542947030226842
4419000000.0 0.9478821641739977 -0.37895519596626115
4422000000.0 0.936021752921107 -0.34400255765314713
4425000000.0 0.9564762329019787 -0.3611663152644208
4428000000.0 0.9257555301291295 -0.3910892778565689
4431000000.0 0.9502598533351341 -0.39322803656825867
4434000000.0 0.9143923800162734 -0.40228514012440875
4438000000.0 0.9485996717562022 -0.4129485712377917
4441000000.0 0.942735135281709 -0.41922915837215713
4444000000.0 0.8992647974545331 -0.4228520616753423
4447000000.0 0.9002331360610716 -0.44372104282014124
4450000000.0 0.8950374952516796 -0.4237293439034807
4453000000.0 0.9345805591524897 -0.4628100376263396
4456000000.0 0.8587433081203912 -0.47118990142362027
4459000000.0 0.8711818451635642 -0.4520210957600106
4462000000.0 0.939106203760735 -0.5237158526363154
4466000000.0 0.9264997491046774 -0.5216962065723594
4469000000.0 0.9010923415162456 -0.47632612463082397
4472000000.0 0.8954276653839394 -0.5188755196815085
4475000000.0 0.8479634074419478 -0.5101281912958656
4478000000.0 0.8943738670682759 -0.5497085117625772
4481000000.0 0.8298705772939308 -0.5245910555024049
4484000000.0 0.8308122498009356 -0.5731037249981326
4488000000.0 0.8195047205021317 -0.5453968579023623
4491000000.0 0.8406651909830947 -0.5502014590902274
4494000000.0 0.8351712990564222 -0.5533538664146953
4497000000.0 0.8499753438087227 -0.5531599848357285
4500000000.0 0.8248636533306615 -0.5623959640478207
4503000000.0 0.8435915750740814 -0.5857694605241432
4506000000.0 0.7930736194339405 -0.5769914216465826
4509000000.0 0.7910098658226098 -0.5848703888725044
4512000000.0 0.7878521823267477 -0.617707469309849
4516000000.0 0.812506203475325 -0.617333569374776
4519000000.0 0.7932213630270475 -0.6108179772030535
4522000000.0 0.7815319860349716 -0.6487976266342654
4525000000.0 0.7998774878799775 -0.6269058250903157
4528000000.0 0.7987382705466786 -0.6547815310882594
4531000000.0 0.7738485016816687 -0.6323050639084357
4534000000.0 0.7424913324882926 -0.6592545163272473
4538000000.0 0.7497594780696402 -0.6541877279471385
4541000000.0 0.7214095871238648 -0.6955812644770858
4544000000.0 0.7309926141658167 -0.6705593048256854
4547000000.0 0.7439431618642839 -0.6756099749222182
4550000000.0 0.7309187515737392 -0.7083957860059213
4553000000.0 0.724158716372497 -0.7124389996596833
4556000000.0 0.6997562389023853 -0.7028293793803516
4559000000.0 0.7071297622018213 -0.7227876480518911
4562000000.0 0.7094504419026606 -0.7353798317275401
4566000000.0 0.7078275010064767 -0.7344139960964557
4569000000.0 0.6663048617887953 -0.7141695525566145
4572000000.0 0.6927346418242999 -0.7510745175328288
4575000000.0 0.666855953471905 -0.7705343666731478
4578000000.0 0.6855012551319943 -0.7522280805818721
4581000000.0 0.6536603536320779 -0.7758781956409423
4584000000.0 0.6484261033275852 -0.7597562804359653
4588000000.0 0.6641355969082737 -0.7797198112917582
4591000000.0 0.6559754572097627 -0.7688436768719645
4594000000.0 0.6250879324527225 -0.7890624313534846
4597000000.0 0.6508675609183325 -0.8034189374826323
4600000000.0 0.6177054812525212 -0.8072049140696588
4603000000.0 0.5941639384259405 -0.8047661835883098
4606000000.0 0.6197040984913731 -0.8199653862077018
4609000000.0 0.5969503818776185 -0.8072650005500056
4612000000.0 0.5855691723982058 -0.8366942551186011
4616000000.0 0.56120997766607 -0.8282966051686826
4619000000.0 0.5693366103748676 -0.8313939516827022
4622000000.0 0.5667747867659991 -0.8492245680021341
4625000000.0 0.5271065325117026 -0.8536374911298238
4628000000.0 0.5675488278397414 -0.8389995813888051
4631000000.0 0.5352874647912997 -0.8625899933528394
4634000000.0 0.5184919141694957 -0.8776652633400122
4638000000.0 0.5328034666996364 -0.8774456778016696
4641000000.0 0.5222428761597886 -0.8576518113228929
4644000000.0 0.49209631726985764 -0.8583444732066476
4647000000.0 0.5146413331148599 -0.9009223624306578
4650000000.0 0.4790215507096185 -0.8641488590846211
4653000000.0 0.5172751459344901 -0.8889104482251604
4656000000.0 0.46764148704892705 -0.8949368544149581
4659000000.0 0.454686706307442 -0.8932605834867638
4662000000.0 0.48023497250487895 -0.9033351348528977
4666000000.0 0.4459617767158661 -0.9049017171636535
4669000000.0 0.4824655170778394 -0.9197093427347744
4672000000.0 0.43086930917063004 -0.9575902414932562
4675000000.0 0.3972292897621623 -0.9396227109366533
4678000000.0 0.40606372348676445 -0.9024350947360084
4681000000.0 0.3620347757346243 -0.9702563534459342
4684000000.0 0.369216643975246 -0.9504860246759442
4688000000.0 0.3818796345093567 -0.9514131446234724
4691000000.0 0.4110797863905925 -0.9530877600954337
4694000000.0 0.3570983717609096 -0.9373338893672138
4697000000.0 0.3336364685129739 -0.907766982155185
4700000000.0 0.3729863916772085 -0.9452603846926977
4703000000.0 0.3887260429450021 -0.9063165618700841
4706000000.0 0.31001790092370196 -1.000622248977673
4709000000.0 0.2994004207213663 -0.9700885566336419
4712000000.0 0.3441587675750445 -0.9720223670346071
4716000000.0 0.2877601812173529 -0.9827573411344559
4719000000.0 0.3289201474659432 -0.9665620857656191
4722000000.0 0.31642830108592523 -0.9873110124441975
4725000000.0 0.27720835934188 -0.9942311063602313
4728000000.0 0.2518359782835624 -0.9763867048092787
4731000000.0 0.28453121037730533 -1.022252282257587
4734000000.0 0.2735150318647209 -0.9473164548237463
4738000000.0 0.2825268207712651 -1.0489614688286437
4741000000.0 0.2587916725756042 -1.0250248548658316
4744000000.0 0.1988248402730789 -0.9908072642826545
4747000000.0 0.23523003206277854 -0.9614663935902912
4750000000.0 0.20981009507998866 -1.0140315105463475
4753000000.0 0.20911036421163784 -0.9926357319089703
4756000000.0 0.20379431668884326 -1.0147653187128751
4759000000.0 0.2161453499673734 -1.0389369943582394
4762000000.0 0.1499617608579586 -1.0409006110566315
4766000000.0 0.17188667513279476 -1.0087609802501847
4769000000.0 0.1558893130022141 -1.0206492695011142
4772000000.0 0.1582954092560833 -1.0021905514923664
4775000000.0 0.12890283734790206 -1.0703072545194507
4778000000.0 0.0943030933951669 -1.0477881061785266
4781000000.0 0.1527052751921754 -1.0207958290557226
4784000000.0 0.15913197607777083 -1.028711222393307
4788000000.0 0.11692199356737394 -1.0363535434171651
4791000000.0 0.09456761985289439 -1.0197655985715148
4794000000.0 0.1422722823962229 -1.0482907924679534
4797000000.0 0.0631682359745144 -0.974889553972509
4800000000.0 0.06054500145263614 -1.0078728965025026
4803000000.0 0.02077113230913674 -1.0011533763866303
4806000000.0 0.05189606809428651 -1.0528169062229398
4809000000.0 -0.00679655907064583 -1.0375014562269718
4812000000.0 -0.0282346582384424 -1.0149403405057253
4816000000.0 0.04654666751239339 -1.0014054562712071
4819000000.0 0.04022858370346141 -1.0477483075617848
4822000000.0 0.03139514865814219 -1.0767562103999584
4825000000.0 0.034302263498823996 -1.0360699695620108
4828000000.0 -0.019461034851703474 -1.0106404783176406
4831000000.0 -0.058154275550421616 -1.061305814022061
4834000000.0 -0.01075301244838553 -1.0290861924756052
4838000000.0 -0.06625369975553173 -1.045383382986893
4841000000.0 -0.06274170597020882 -1.020859194594653
4844000000.0 -0.014429816545396795 -1.0251773936517437
4847000000.0 -0.042951077697840206 -1.0064398283981983
4850000000.0 -0.11660141699475887 -1.042101703332311
4853000000.0 -0.07765024418179728 -0.9804234974789059
4856000000.0 -0.12357406155077794 -0.9930627206721666
4859000000.0 -0.13722384261928663 -1.070321365375115
4862000000.0 -0.09084132530435175 -1.014393954004309
4866000000.0 -0.1493863318675474 -1.0326072968449722
4869000000.0 -0.1518997557332558 -1.021058635512621
4872000000.0 -0.1843844872804177 -1.0577762495584249
4875000000.0 -0.09154194808185785 -1.0580016140870925
4878000000.0 -0.1368876154313846 -1.033081184473368
4881000000.0 -0.2121152506649978 -1.0883671695402868
4884000000.0 -0.17293361199186186 -1.0125985438550587
4888000000.0 -0.1828299847678328 -1.0230686120615973
4891000000.0 -0.18274459557662048 -1.0408599770753189
4894000000.0 -0.2144650366453378 -0.9955360791622142
4897000000.0 -0.17924983433231786 -1.0246222807186378
4900000000.0 -0.2041800689541594 -1.0487102832977726
4903000000.0 -0.2245815218140349 -1.031577665271801
4906000000.0 -0.27139939071361013 -1.017525571245345
4909000000.0 -0.26953795815153664 -0.9925546636791976
4912000000.0 -0.28010787630699896 -1.0317305700955979
4916000000.0 -0.2588623930377658 -1.031393597848559
4919000000.0 -0.2629220527687932 -1.0141020857695926
4922000000.0 -0.26248859231162236 -1.018314963459059
4925000000.0 -0.35390421757865176 -0.975426998334051
4928000000.0 -0.27061390533872137 -0.993836244317328
4931000000.0 -0.26465781867092125 -1.019461308884128
4934000000.0 -0.3034227062958257 -0.9405235322689844
4938000000.0 -0.36396882586267426 -0.9482909072469606
4941000000.0 -0.3223980321049719 -0.9366003587385026
4944000000.0 -0.32697603200404846 -0.9496664302234512
4947000000.0 -0.320311513309091 -0.9595422837323676
4950000000.0 -0.36581625276180835 -0.9717706468828193
4953000000.0 -0.3977481755487955 -0.9770800374532945
4956000000.0 -0.43015239896635143 -0.944643940031912
4959000000.0 -0.42144274010088145 -0.9256225141659428
4962000000.0 -0.407677360684813 -0.9679835266641998
4966000000.0 -0.3823223667567258 -0.9863141111013953
4969000000.0 -0.4119632659105418 -0.9871590751359713
4972000000.0 -0.42102156480980335 -0.951953651569201
4975000000.0 -0.37618932138271755 -0.9547273762060788
4978000000.0 -0.48630704598469987 -0.9616256566352621
4981000000.0 -0.47327342810593664 -0.9453293658055374
4984000000.0 -0.43306694613830043 -0.9309608259145946
4988000000.0 -0.48644954433132565 -0.9239587167113982
4991000000.0 -0.46840670613337926 -0.9859161169727317
4994000000.0 -0.4542439586175221 -0.9316491805062521
4997000000.0 -0.5356773566606867 -0.9040025933357946
5000000000.0 -0.4952122724696878 -0.9594087174978625
5003000000.0 -0.5175093569335809 -0.9473463669372428
5006000000.0 -0.5610063324753121 -0.9639787443631938
5009000000.0 -0.541285805320507 -0.8700210633917076
5012000000.0 -0.5429424554933193 -0.9017428413476096
5016000000.0 -0.48186006779062945 -0.9405201469172241
5019000000.0 -0.5347282444508137 -0.8844359457301975
5022000000.0 -0.575480124716744 -0.8937899513558134
5025000000.0 -0.5980230800136559 -0.9359708825487454
5028000000.0 -0.5955894368551908 -0.8484638214932847
5031000000.0 -0.5772794841288932 -0.8347270603825714
5034000000.0 -0.6250966687221733 -0.8864699971000582
5038000000.0 -0.5864127558133749 -0.8019322742762598
5041000000.0 -0.5753464829282279 -0.8621915284051512
5044000000.0 -0.5629808214806385 -0.8374767613696704
5047000000.0 -0.6141645445217916 -0.8474888689600759
5050000000.0 -0.5509587945209816 -0.8860591817543952
5053000000.0 -0.6732352728280259 -0.8530168135241827
5056000000.0 -0.6211728554366373 -0.8209891467643469
5059000000.0 -0.6321246751685696 -0.8643887776410358
5062000000.0 -0.673453742110237 -0.7822575755233457
5066000000.0 -0.6398728255388068 -0.8019647137735597
5069000000.0 -0.6723910189189886 -0.8179047653779473
5072000000.0 -0.6415265731413577 -0.7907071694870556
5075000000.0 -0.6205481144873916 -0.7876353693672051
5078000000.0 -0.7076827535925907 -0.7984913229957059
5081000000.0 -0.6959424093436415 -0.7337269681648538
5084000000.0 -0.7385114911654285 -0.7619909014350648
5088000000.0 -0.6870357873911205 -0.744077474452677
5091000000.0 -0.6871738635032578 -0.7409097758614227
5094000000.0 -0.7340273505491887 -0.7693010500138249
5097000000.0 -0.689246918443592 -0.7617340923435818
5100000000.0 -0.7044560896330652 -0.7458975146042198
5103000000.0 -0.7402451450254239 -0.7045920231140741
5106000000.0 -0.7530457197255928 -0.7875707947903907
5109000000.0 -0.7601805056074331 -0.7531615541707671
5112000000.0 -0.7440347748681737 -0.694075626641353
5116000000.0 -0.7595090878654914 -0.6924424135489169
5119000000.0 -0.7628079521356875 -0.6550006838103277
5122000000.0 -0.7631071016945659 -0.6211490746318873
5125000000.0 -0.7463942720130885 -0.6792281442727233
5128000000.0 -0.8099632166674736 -0.6956171025245308
5131000000.0 -0.8169670230534372 -0.6754475223516161
5134000000.0 -0.7948527788701722 -0.6272764941431483
5138000000.0 -0.7634244644840052 -0.6800101461705848
5141000000.0 -0.8315312995670114 -0.7057584843474938
5144000000.0 -0.7767169379364439 -0.6457280193666328
5147000000.0 -0.8309292170057381 -0.6454743927371364
5150000000.0 -0.8511513854424188 -0.7012125634271142
5153000000.0 -0.8157825146148714 -0.636529149887293
5156000000.0 -0.8263816025697258 -0.6076311288079727
5159000000.0 -0.8995047958023719 -0.6590011002525686
5162000000.0 -0.8745985162999347 -0.5659497600896689
5166000000.0 -0.8816057604621002 -0.5894798177682657
5169000000.0 -0.8474717089685486 -0.6082402666423576
5172000000.0 -0.8945173197568095 -0.598157573088037
5175000000.0 -0.8815560744580401 -0.5615052311102479
5178000000.0 -0.9107276079397979 -0.5413162485292355
5181000000.0 -0.9016592787748342 -0.5534956938259674
5184000000.0 -0.8931256001024194 -0.5314085690769554
5188000000.0 -0.9352964200399442 -0.5074894062709024
