! Created with skrf 1.8.0 (http://scikit-rf.org).
# Hz S RI R 50.0 
!freq ReS11 ImS11
4000000000.0 0.9187910654964817 0.4517047325056071
4003000000.0 0.9738897934151751 0.42149146892616673
4006000000.0 0.9496264842829085 0.3748854304763568
4009000000.0 0.9548009170476461 0.36609667731708107
4012000000.0 0.9783984936730727 0.4443715317812338
4016000000.0 0.9690247974175357 0.3928440282968321
4019000000.0 0.9238861931541886 0.3618625389233583
4022000000.0 0.9476055453165986 0.380860249203538
4025000000.0 0.9914297974709766 0.33463812682224103
4028000000.0 0.9475739481643352 0.2953876874804311
4031000000.0 0.9438632733220639 0.3027210683907736
4034000000.0 0.9391512040795152 0.2881174003718114
4038000000.0 0.9638509621291019 0.28602074987143067
4041000000.0 0.9593906091582415 0.26507816560134023
4044000000.0 1.030258566669522 0.27403819301925025
4047000000.0 1.062327814013485 0.26568155296299667
4050000000.0 1.0360169138376245 0.2863261843892112
4053000000.0 0.9782350431432661 0.24199193434745303
4056000000.0 1.0076006308373269 0.2642071907185253
4059000000.0 0.9996206753375045 0.19219488782767835
4062000000.0 0.982355323204211 0.20457244222025
4066000000.0 0.9974693335179308 0.18591966792108872
4069000000.0 1.0230555786538926 0.1740476985693677
4072000000.0 1.0100461701706613 0.1746576253529712
4075000000.0 1.029785776756077 0.19792288063293179
4078000000.0 1.0016891727354702 0.15720071474556313
4081000000.0 1.0436098371779132 0.14182104192801348
4084000000.0 1.0181380602376127 0.1457925796161344
4088000000.0 1.005574634540397 0.10478307643465418
4091000000.0 1.0331018802725438 0.12399744362205795
4094000000.0 1.0169059443092634 0.07898456112587643
4097000000.0 1.0128610601740127 0.07040327973233884
4100000000.0 1.0146601259128334 0.0630775272514616
4103000000.0 1.0321301461866665 0.08206260312795399
4106000000.0 1.031626955798656 0.02716746053280583
4109000000.0 1.0357420726200677 -0.007064710483941694
4112000000.0 1.0127385573304923 0.013405858729650943
4116000000.0 1.0002027776295042 -0.012260310528184326
4119000000.0 1.031619512037892 -0.020014132311621635
4122000000.0 1.0174350995304633 -0.062036369250043466
4125000000.0 1.0068405668666511 -0.03803615009428396
4128000000.0 1.0126907158034681 -0.0343664649549858
4131000000.0 0.9889586497862567 -0.0731225240111047
4134000000.0 0.9881040108500903 -0.05573331899880396
4138000000.0 1.000321583934188 -0.09350348240088718
4141000000.0 1.0012797819175303 -0.08720627331723596
4144000000.0 1.0098497425494835 -0.08535013933637337
4147000000.0 1.0210620718509436 -0.14425054570550822
4150000000.0 1.0177508408911287 -0.15275624482629935
4153000000.0 1.0052320506677033 -0.13105071913398228
4156000000.0 1.0202968055399657 -0.1496214136698305
4159000000.0 0.9687011230698033 -0.1697439522641195
4162000000.0 0.9764774820032456 -0.17163042756810584
4166000000.0 1.0133149563445192 -0.19915543710014894
4169000000.0 0.9876685884407788 -0.2246988213464615
4172000000.0 0.9998187670288138 -0.22649164602763738
4175000000.0 1.041102226137801 -0.22022666819307588
4178000000.0 0.9972798874349463 -0.2249792663169028
4181000000.0 0.9508092132580523 -0.28484283362008367
4184000000.0 0.9591976812349176 -0.2595782244256402
4188000000.0 0.9407226563270388 -0.30135608714197937
4191000000.0 0.968972106490735 -0.2757607154599474
4194000000.0 0.9673025313029675 -0.3209736693801296
4197000000.0 0.9770669139250956 -0.3145484083833258
4200000000.0 0.9870825004981476 -0.30924676983646743
4203000000.0 0.9855568616233029 -0.3525710519241432
4206000000.0 0.9583967464949209 -0.34887513945279625
4209000000.0 0.9414346332770669 -0.37488299926677876
4212000000.0 0.9108452170338969 -0.41293634903252474
4216000000.0 0.9699299637951972 -0.37956347952580405
4219000000.0 0.938676383960697 -0.4035982098878246
4222000000.0 0.8981027044715497 -0.41498409013508125
4225000000.0 0.9040432274684136 -0.43923241671298907
4228000000.0 0.8865219241919515 -0.4619273776952887
4231000000.0 0.888278247348935 -0.4859189776157649
4234000000.0 0.8817250365297362 -0.4962788559867117
4238000000.0 0.8697622974449489 -0.5067881766652881
4241000000.0 0.8239645693732107 -0.5000661366015862
4244000000.0 0.8455452893722917 -0.5123224248381322
4247000000.0 0.8350737619444467 -0.5303675417405876
4250000000.0 0.8416781957684734 -0.5252077209877328
4253000000.0 0.8147927215664061 -0.5650615160646575
4256000000.0 0.879553948737438 -0.5992883890614071
4259000000.0 0.7680846155574408 -0.5690752250760459
4262000000.0 0.7956082077356652 -0.6104118533429719
4266000000.0 0.8093366708168303 -0.6376870894351114
4269000000.0 0.778320962277747 -0.6084748607567927
4272000000.0 0.7748742632373868 -0.6043532794577591
4275000000.0 0.7854436695458176 -0.6290865751211805
4278000000.0 0.7994237490912223 -0.680528706005198
4281000000.0 0.7713183165314274 -0.654318172986382
4284000000.0 0.6973303760166029 -0.7050845246026053
4288000000.0 0.724001469913779 -0.6521805284830589
4291000000.0 0.6935270212580212 -0.7034584497893505
4294000000.0 0.6918245388079655 -0.7127880930517058
4297000000.0 0.7150001851524475 -0.7083946018763069
4300000000.0 0.6930694914993261 -0.7078389428208954
4303000000.0 0.6617567174832794 -0.7582289117907086
4306000000.0 0.6989759376441915 -0.7371960869179326
4309000000.0 0.6615436261865224 -0.7552130103817698
4312000000.0 0.6753839071916431 -0.7785218159322161
4316000000.0 0.6416379418172956 -0.7855464828494815
4319000000.0 0.6077831626417187 -0.7757211191539578
4322000000.0 0.6015633348850455 -0.8183886074990462
4325000000.0 0.5925508519426481 -0.8170994405549274
4328000000.0 0.5683423061538599 -0.8205221004215505
4331000000.0 0.5470993354462652 -0.8484301706432107
4334000000.0 0.5393682962164149 -0.8674282917977799
4338000000.0 0.5557082574221215 -0.8437262050334668
4341000000.0 0.5350182353037816 -0.8781852783635827
4344000000.0 0.5092275820328264 -0.8811819313752742
4347000000.0 0.4664796894847746 -0.894473640967652
4350000000.0 0.4404474964409766 -0.8760635442519253
4353000000.0 0.4506367913094121 -0.8966937644922525
4356000000.0 0.3974575190438997 -0.9121810014931048
4359000000.0 0.40360005493984186 -0.8817717107163987
4362000000.0 0.382525204586864 -0.9459414254528751
4366000000.0 0.380432515990892 -0.9547501440434956
4369000000.0 0.3565427312269314 -0.9252401927789257
4372000000.0 0.324831338676411 -0.9369467483463504
4375000000.0 0.3492851793814954 -0.9331508074174999
4378000000.0 0.3076761295256576 -0.9673121811231054
4381000000.0 0.275048922249117 -0.9548241363485207
4384000000.0 0.2716205606193101 -1.007164734560976
4388000000.0 0.25968239206596566 -0.974331453349162
4391000000.0 0.24329889688976888 -0.9846123154107074
4394000000.0 0.2102315142517276 -0.9902219994720931
4397000000.0 0.1980638150645604 -1.0133110918935289
4400000000.0 0.16171007497447884 -1.0068054477304067
4403000000.0 0.1541599939108419 -1.0208404337221664
4406000000.0 0.14485107489379023 -1.008552773278438
4409000000.0 0.11496322612673963 -0.9976826127185738
4412000000.0 0.08212276097329572 -1.005298945867089
4416000000.0 0.09270914290572516 -1.0070425399559493
4419000000.0 0.056578100958181304 -1.0163388614518905
4422000000.0 0.05785841145707632 -1.0213267441249911
4425000000.0 0.0037704937795225713 -1.0066689479174882
4428000000.0 -0.01515013308336785 -1.0241532465017744
4431000000.0 -0.039637638723410806 -1.0002619711754595
4434000000.0 -0.05107349763220753 -1.0291105446320727
4438000000.0 -0.04980788524005292 -0.991312568499884
4441000000.0 -0.11488077076868197 -1.0060927891160634
4444000000.0 -0.13680843987665486 -1.0419376283538289
4447000000.0 -0.14629160111669604 -1.0283532115953156
4450000000.0 -0.18312258009735627 -1.0255367644980746
4453000000.0 -0.17135835429638485 -1.000083443500405
4456000000.0 -0.1867972996139627 -1.0276783132410445
4459000000.0 -0.23563492849062656 -1.0236315261958784
4462000000.0 -0.26534366482155175 -0.9341099432821697
4466000000.0 -0.2685189182016078 -1.0067111957453545
4469000000.0 -0.28404822028163423 -0.9691441666524738
4472000000.0 -0.30366926422869744 -0.9340192829121834
4475000000.0 -0.36151720205719173 -0.9577852590978009
4478000000.0 -0.3348676720022927 -0.9329008457188288
4481000000.0 -0.39900995217063495 -0.9782527640618098
4484000000.0 -0.43761938417435337 -0.9325390791943164
4488000000.0 -0.4561059738067945 -0.960776859150253
4491000000.0 -0.41516013642515304 -0.9326152493817529
4494000000.0 -0.4635969851790225 -0.9198547219096813
4497000000.0 -0.4981269590618493 -0.9023994917604147
4500000000.0 -0.5264425867746358 -0.8762817357033508
4503000000.0 -0.5493125060050197 -0.8661315670909018
4506000000.0 -0.5924138107881338 -0.8494931081239184
4509000000.0 -0.5823809541960745 -0.8085700143280904
4512000000.0 -0.5885915641259822 -0.8158331807559139
4516000000.0 -0.6587127366626648 -0.8208893257953285
4519000000.0 -0.6768797107121693 -0.7729893823615754
4522000000.0 -0.6452144548675194 -0.7741424513954497
4525000000.0 -0.7540939193108158 -0.7768848915748032
4528000000.0 -0.7110965000950753 -0.7547377582705069
4531000000.0 -0.7568677115306413 -0.6916080021227337
4534000000.0 -0.7998855702790221 -0.7025740534788314
4538000000.0 -0.7869209626372355 -0.6610318389443217
4541000000.0 -0.767295486111604 -0.658555320520803
4544000000.0 -0.86476551891044 -0.6483175305157483
4547000000.0 -0.8551506988964306 -0.5686054888031897
4550000000.0 -0.864486881593131 -0.6126463847708865
4553000000.0 -0.8652667590072292 -0.5202260728979766
4556000000.0 -0.9173073063521031 -0.5815273494082185
4559000000.0 -0.9129954758588746 -0.5101792908295066
4562000000.0 -0.9193865329279736 -0.47540014201438396
4566000000.0 -0.9144014199764885 -0.4742390032387442
4569000000.0 -0.9898619437199238 -0.45893310249415514
4572000000.0 -0.9593314618710966 -0.3671943257109156
4575000000.0 -0.9125619056131022 -0.3575018431365647
4578000000.0 -0.9645564626816621 -0.3400865206622638
4581000000.0 -0.9418905524859048 -0.31707962943896345
4584000000.0 -1.0030493576288197 -0.28917034821309734
4588000000.0 -0.9959401666439359 -0.22198963907352462
4591000000.0 -1.0328851836554815 -0.18311019035070208
4594000000.0 -1.0155620755470391 -0.21767758317548144
4597000000.0 -1.0154370656605576 -0.14025777205075096
4600000000.0 -1.0709272726075765 -0.17328633578002806
4603000000.0 -0.9826755404805035 -0.079969941756319
4606000000.0 -1.0924691534888382 -0.08938055690175754
4609000000.0 -1.0509749244278102 -0.04808157660552329
4612000000.0 -0.9745219981578448 -0.016523089832643122
4616000000.0 -1.0099704930351743 0.06399885454175797
4619000000.0 -0.998506686762617 0.10524609747746076
4622000000.0 -1.01428214826271 0.18142185093662294
4625000000.0 -1.099775865889674 0.18452661434584056
4628000000.0 -1.1073122927057588 0.24665837382980324
4631000000.0 -1.0563175577134407 0.18661377501939125
4634000000.0 -0.9857276927251432 0.27314195782720907
4638000000.0 -1.0180654473262625 0.2561498334161951
4641000000.0 -0.985632138816035 0.3092197005204761
4644000000.0 -0.9562737429437645 0.3081533779454824
4647000000.0 -0.9399082210031882 0.3337119123522502
4650000000.0 -0.953786417684538 0.3858986070240101
4653000000.0 -0.9092542607921967 0.4237885154077946
4656000000.0 -0.9538176084982675 0.38077640009126607
4659000000.0 -0.9204293129196894 0.5017394982529821
4662000000.0 -0.8726277110778876 0.4877108085968148
4666000000.0 -0.8678339211008751 0.5400964001292927
4669000000.0 -0.9398665035567915 0.598594756267698
4672000000.0 -0.8647915373870484 0.6888406998129006
4675000000.0 -0.8136623869969546 0.6612575950670818
4678000000.0 -0.7487338530490375 0.6002641473399128
4681000000.0 -0.6971363321466952 0.6565327346295129
4684000000.0 -0.7535458197579291 0.6703997437376897
4688000000.0 -0.7209699312756723 0.7713479992112267
4691000000.0 -0.736066302945264 0.7767806229695675
4694000000.0 -0.6559188480330033 0.7823507823375335
4697000000.0 -0.6211665784442206 0.808114980467793
4700000000.0 -0.6304053660451291 0.8222946068434964
4703000000.0 -0.6200764028621322 0.8321005862038071
4706000000.0 -0.6035754437159859 0.7859699989072157
4709000000.0 -0.5560016252961486 0.8586275441884663
4712000000.0 -0.48886954257267884 0.9271770457388644
4716000000.0 -0.45773723084695284 0.9146172462842825
4719000000.0 -0.4506842775857318 0.8983100938883752
4722000000.0 -0.4140022232919575 0.9801487936262434
4725000000.0 -0.37163337613767333 0.9491867507401575
4728000000.0 -0.32144567195366974 0.9912110244256354
4731000000.0 -0.3256732969847886 0.9692050770687664
4734000000.0 -0.3288999516266442 0.9811605555958972
4738000000.0 -0.26548403686921235 0.9555034503936521
4741000000.0 -0.2305777623348932 0.9853040039155545
4744000000.0 -0.15801943274796404 0.984808050704482
4747000000.0 -0.1538711827129886 1.0390811342310513
4750000000.0 -0.07975951320246621 0.9676234751019082
4753000000.0 -0.0465962898144085 1.0562823477705654
4756000000.0 0.0009320354718498347 0.9923259145198866
4759000000.0 0.007676494001388368 1.0081247070990975
4762000000.0 0.004762262012289187 1.0174311543674193
4766000000.0 0.08913370930658701 0.9892866006926218
4769000000.0 0.11778914765592965 1.0624509224036776
4772000000.0 0.14036041003914237 1.0247315819732092
4775000000.0 0.14808409233358993 0.9909142516984174
4778000000.0 0.1614814605915173 0.9945154353663461
4781000000.0 0.21342951627467538 1.0079398194055085
4784000000.0 0.24432200839490326 1.0290360695859717
4788000000.0 0.2468366026687042 0.9772072528824534
4791000000.0 0.344145514797068 0.9853059236720972
4794000000.0 0.3580003487030642 0.921585910617194
4797000000.0 0.3668825888217029 0.99234450751228
4800000000.0 0.4624082417073096 0.9219635555714222
4803000000.0 0.40301304240854474 0.9269006758623042
4806000000.0 0.4602840956224871 0.8925587149507099
4809000000.0 0.4563746568648936 0.9002609026143656
4812000000.0 0.5047192907141342 0.9081550048358986
4816000000.0 0.5609409702847519 0.8833425267204879
4819000000.0 0.5904868550707598 0.8098194859664121
4822000000.0 0.6123619279101233 0.7962554147791817
4825000000.0 0.6267432282942437 0.7741972810232004
4828000000.0 0.6283597319911922 0.7895023914433531
4831000000.0 0.6027934613850059 0.8020220724019838
4834000000.0 0.7116008886541807 0.7254018322170809
4838000000.0 0.7070241484566351 0.7211799534718571
4841000000.0 0.7298342854322408 0.7135513786519051
4844000000.0 0.7593424730834593 0.6774154731835157
4847000000.0 0.7942521264217176 0.6861175917982024
4850000000.0 0.7543926424027392 0.633479746609181
4853000000.0 0.8124838120192706 0.6365639719119935
4856000000.0 0.8281572574078335 0.6098730361736495
4859000000.0 0.8044047065229245 0.5447940901045404
4862000000.0 0.8476829716259464 0.5417175420760917
4866000000.0 0.8511398628046147 0.5575523291108696
4869000000.0 0.8876954084230937 0.5462148040004139
4872000000.0 0.8357804596165544 0.4950210823235649
4875000000.0 0.9044184201979621 0.4412213722033077
4878000000.0 0.9013196247085896 0.44588632369829445
4881000000.0 0.8500711007775607 0.4233709646899039
4884000000.0 0.9258666483564649 0.4154232039558294
4888000000.0 0.9745788465907814 0.39283397061279846
4891000000.0 0.9128990295358064 0.3251309636578828
4894000000.0 0.9496456161280046 0.3448289357671716
4897000000.0 0.9566684497790382 0.3036779332622759
4900000000.0 0.9610559224021374 0.25111732640272755
4903000000.0 0.9690065557764844 0.26756888830729025
4906000000.0 0.9818767190068772 0.23510362823199232
4909000000.0 0.9696675504670482 0.21879628624192649
4912000000.0 0.9524141084183928 0.16774368686758998
4916000000.0 0.9849960303121468 0.17590924115989118
4919000000.0 0.9868435744805375 0.14694504115990487
4922000000.0 1.0018964965209918 0.11674642008639015
4925000000.0 0.9934718169351805 0.12714886696342842
4928000000.0 1.012765266809894 0.05579615279900334
4931000000.0 1.0327227025624894 0.06711828734913236
4934000000.0 1.0053654190642045 0.04729621970477007
4938000000.0 1.015301838521787 0.023388007283648857
4941000000.0 1.0040357222944032 -0.008055186292230787
4944000000.0 1.0320944711351363 -0.03162996419379399
4947000000.0 1.009685580357937 -0.040949582365879644
4950000000.0 1.0162426168804082 -0.05202999751322443
4953000000.0 0.9914182134613959 -0.11863538566919152
4956000000.0 1.0074969567755907 -0.10691340111300067
4959000000.0 0.98934207145119 -0.13911022921806537
4962000000.0 0.986548794370645 -0.16172284133348339
4966000000.0 0.9834048924907044 -0.16513819049899153
4969000000.0 0.9920888979065609 -0.19993964782703855
4972000000.0 0.9958275065954711 -0.22338473336719566
4975000000.0 0.9581691311599033 -0.22587590754926676
4978000000.0 0.963573379289396 -0.2231031844150156
4981000000.0 0.9494366166038899 -0.262484946913863
4984000000.0 0.9761600214886358 -0.2843427580369663
4988000000.0 0.9347601453521059 -0.3129434812152199
4991000000.0 0.9669607669581137 -0.30170082814374755
4994000000.0 0.9703532529996365 -0.3126601912153521
4997000000.0 0.9327066311799181 -0.35183936688558637
5000000000.0 0.9663929914998223 -0.3784396215216867
5003000000.0 0.9527414596896902 -0.39892052684331614
5006000000.0 0.9576529013497185 -0.43226394614131375
5009000000.0 0.9269827277679417 -0.433414668038201
5012000000.0 0.893376884738678 -0.46046034628575144
5016000000.0 0.9299586553305821 -0.4548753220256149
5019000000.0 0.8797962698746968 -0.485047765169927
5022000000.0 0.8709265390654186 -0.5048035684525538
5025000000.0 0.9260396904856607 -0.5075931576229825
5028000000.0 0.8592315627226174 -0.5473865213290122
5031000000.0 0.8372550882935077 -0.5494164912466082
5034000000.0 0.8332418716578631 -0.6048216991308923
5038000000.0 0.8282641440641867 -0.5642049709606021
5041000000.0 0.8478277820911769 -0.5426003134787286
5044000000.0 0.8404994344320543 -0.5748285460195482
5047000000.0 0.833505166280857 -0.5998713750145594
5050000000.0 0.8477322087968078 -0.5610047608762119
5053000000.0 0.8354371151187602 -0.6592724994939554
5056000000.0 0.7961695896978261 -0.6126358611759781
5059000000.0 0.8242262003372909 -0.6051000124640604
5062000000.0 0.7662980343424686 -0.6679991853421101
5066000000.0 0.7661360656882397 -0.6453152596219469
5069000000.0 0.7447962643765658 -0.7004372867577554
5072000000.0 0.6920874020242029 -0.688218877797907
5075000000.0 0.7537248013430491 -0.71749766359179
5078000000.0 0.6923110153131253 -0.7743801068040945
5081000000.0 0.7063775892415289 -0.7106693681032291
5084000000.0 0.7163649691779715 -0.7800886784285415
5088000000.0 0.6856256848607083 -0.7371600318731908
5091000000.0 0.669824029044696 -0.7859538824302694
5094000000.0 0.6696404809837446 -0.7698518211084934
5097000000.0 0.6911155531110581 -0.776527276988892
5100000000.0 0.6421992694616954 -0.7671068165404211
5103000000.0 0.647396057984856 -0.7817921097622649
5106000000.0 0.6373119665258272 -0.8493333755163516
5109000000.0 0.6393238972572617 -0.7860169278659885
5112000000.0 0.5861455741613556 -0.7751478756088954
5116000000.0 0.5436963177849498 -0.7569811828845694
5119000000.0 0.5966030691171591 -0.8374432226988318
5122000000.0 0.5818127180071782 -0.8407808516865991
5125000000.0 0.5494031975091858 -0.8564043738740403
5128000000.0 0.5593600902968371 -0.8987541035343607
5131000000.0 0.5056912095792577 -0.8536525641701023
5134000000.0 0.5196857727568115 -0.9001534364317999
5138000000.0 0.49896060243665674 -0.888046582031694
5141000000.0 0.533899417768859 -0.8522876087308588
5144000000.0 0.5248719486542711 -0.9606173927364511
5147000000.0 0.4995188088714259 -0.9089069383456101
5150000000.0 0.48067289791789375 -0.8921563744124981
5153000000.0 0.409258727747603 -0.8809756871623192
5156000000.0 0.447422506888323 -0.9601589946316116
5159000000.0 0.4748508312912935 -0.9614428921244444
5162000000.0 0.3812627733935386 -0.9038895152579549
5166000000.0 0.3627509672559813 -1.0397615106678728
5169000000.0 0.40418334964125613 -1.0098878965484992
5172000000.0 0.3336890050203839 -0.9224103838012565
5175000000.0 0.3983585695823155 -0.963635182194447
5178000000.0 0.32165466524296615 -0.9656095949656749
5181000000.0 0.4021088605271941 -0.97332529878293
5184000000.0 0.30922828793210616 -1.004948898263341
5188000000.0 0.3447145313854211 -0.9512748845404932
5191000000.0 0.310591104162866 -1.0273427100901367
