! Created with skrf 1.8.0 (http://scikit-rf.org).
# Hz S RI R 50.0 
!freq ReS11 ImS11
4000000000.0 0.2370462737028971 0.9817291175498883
4003000000.0 0.210205165605855 1.0571626016496682
4006000000.0 0.2928971165255213 0.9952574463111254
4009000000.0 0.21628098111468813 1.0366913302918712
4012000000.0 0.23165743286981116 1.0308482555727716
4016000000.0 0.34995340461785784 0.9691247645383472
4019000000.0 0.32689443523828354 0.9672644588610552
4022000000.0 0.19046857532149508 0.9990113363008079
4025000000.0 0.4020955254363462 1.009494843330028
4028000000.0 0.37304001774603884 0.985812199584269
4031000000.0 0.30057348652337723 0.96173852065656
4034000000.0 0.3592314981468784 0.9971182044869454
4038000000.0 0.3901008370001942 0.9697047175756567
4041000000.0 0.3441786710294939 0.9697448746380962
4044000000.0 0.40448858688825057 1.0490662170636456
4047000000.0 0.3363611968742931 1.0619632997548412
4050000000.0 0.4401332312328436 0.9255927191331385
4053000000.0 0.40992260608344394 0.9061792639200024
4056000000.0 0.387148412843067 0.9749816568628366
4059000000.0 0.386369302319467 0.947252295325804
4062000000.0 0.4728121040795792 0.909908462195079
4066000000.0 0.38040393147658286 0.8668663244313101
4069000000.0 0.4539114807027692 0.9500576573246716
4072000000.0 0.3527122017801035 0.9800735996390584
4075000000.0 0.41131912787270347 1.0018399344642133
4078000000.0 0.45585235086375114 0.9313799948673029
4081000000.0 0.4030917238486785 1.0260522261669467
4084000000.0 0.49221632867509346 0.969909549522652
4088000000.0 0.45314616984472766 0.9260020649062249
4091000000.0 0.5172312888560269 0.967823741663475
4094000000.0 0.49280947880684606 0.9172552107613939
4097000000.0 0.499532051327899 0.9116047374007428
4100000000.0 0.4784021041477745 0.8899469580284614
4103000000.0 0.5180233538597747 0.9582460293052086
4106000000.0 0.5022051129684381 0.8988963929868126
4109000000.0 0.624980337864748 0.8762638719089793
4112000000.0 0.54307300294775 0.8772321816681157
4116000000.0 0.4994017244407767 0.8919190667288133
4119000000.0 0.5792330767091176 0.8576252268961606
4122000000.0 0.5784976145627341 0.8928825684858908
4125000000.0 0.5867929503110741 0.8883140108108025
4128000000.0 0.5672383028182862 0.8429617622217058
4131000000.0 0.5342388138031595 0.8456422594710682
4134000000.0 0.5871940339610193 0.8408602169737474
4138000000.0 0.5605744718936019 0.8318954547357351
4141000000.0 0.5690858132334959 0.8366962989981221
4144000000.0 0.5970963960588082 0.8457898567400406
4147000000.0 0.5983296878853009 0.7664656123794973
4150000000.0 0.6264636989729818 0.9052717387662206
4153000000.0 0.6498860835788621 0.8478210641432306
4156000000.0 0.632180056944422 0.8664608125148798
4159000000.0 0.6057516843736183 0.830600707095795
4162000000.0 0.6962774839280232 0.7365836721333008
4166000000.0 0.7293048457352236 0.7443696653411573
4169000000.0 0.6850137598737087 0.7907616290711755
4172000000.0 0.6663782967136271 0.8184596116406988
4175000000.0 0.6552851747593824 0.7779731496434148
4178000000.0 0.6644257746322416 0.8155348649379395
4181000000.0 0.6883344433810277 0.7711971999787745
4184000000.0 0.718715781564355 0.7337869238079797
4188000000.0 0.7022969631607227 0.7692804109179223
4191000000.0 0.6603993193962884 0.7742322523057761
4194000000.0 0.6950200740324903 0.7197218260731263
4197000000.0 0.7375123156072134 0.7232479000452741
4200000000.0 0.725352027108211 0.7351559654948318
4203000000.0 0.6959991563423885 0.7229884577328569
4206000000.0 0.7331342788627151 0.7248047726811653
4209000000.0 0.70617957025216 0.721744908253783
4212000000.0 0.7419939863494961 0.6923333928982334
4216000000.0 0.7260724852421301 0.7125855712594955
4219000000.0 0.7402605709848971 0.7129361925272705
4222000000.0 0.7957374924400726 0.6850245415925476
4225000000.0 0.7626408826785562 0.6789973305467141
4228000000.0 0.7595071199795895 0.6915986538508422
4231000000.0 0.7947098742568119 0.674455006340419
4234000000.0 0.7969128333193157 0.6817936392385586
4238000000.0 0.7823069603506082 0.6607443813622995
4241000000.0 0.8048058115735626 0.6704600022740914
4244000000.0 0.7941991071491651 0.6525423282947345
4247000000.0 0.8084341533333058 0.6791338024323614
4250000000.0 0.8098539777002167 0.6277827328694984
4253000000.0 0.7991825314749059 0.6143022968540993
4256000000.0 0.8162831632143512 0.6147908698454627
4259000000.0 0.8091698233859607 0.5922851885488178
4262000000.0 0.8267342413879941 0.5968100304758336
4266000000.0 0.8290229025714321 0.5885256285761449
4269000000.0 0.8333183118648052 0.6187710084797372
4272000000.0 0.8591352434947315 0.5753762897262422
4275000000.0 0.8565033113641112 0.5640513074972249
4278000000.0 0.8360571330468165 0.5927347961163895
4281000000.0 0.8453420794606618 0.5557833899812397
4284000000.0 0.8785233890544949 0.5367197027523557
4288000000.0 0.8640870409538585 0.567576653652484
4291000000.0 0.8507496459466706 0.5427572110602819
4294000000.0 0.8734509909968524 0.527701174979134
4297000000.0 0.8769042882329525 0.5305988959422148
4300000000.0 0.8618953870803077 0.5300462926649085
4303000000.0 0.8903920933970191 0.5023489626552623
4306000000.0 0.8954796601965379 0.4946577022548272
4309000000.0 0.880189059354898 0.5030791087538934
4312000000.0 0.9112143269979055 0.517145119845615
4316000000.0 0.9187779694448795 0.4789067025178491
4319000000.0 0.8925910123428934 0.4718995459925767
4322000000.0 0.8829940213384692 0.4281215275305265
4325000000.0 0.8959068094259491 0.4575970955303408
4328000000.0 0.9299115981534921 0.4577800044258573
4331000000.0 0.9305240601279546 0.37754504137920175
4334000000.0 0.9350602741778405 0.4197245628504169
4338000000.0 0.9010623886299498 0.45576879263852327
4341000000.0 0.9306365962364309 0.443125670945554
4344000000.0 0.9408887602999004 0.4352932042321521
4347000000.0 0.9519616431518299 0.40413654923844156
4350000000.0 0.899505545825877 0.38098220043135117
4353000000.0 0.9269377342637952 0.41718952848368507
4356000000.0 0.956563666046577 0.3790345334028836
4359000000.0 0.919402861103118 0.3301326415924959
4362000000.0 0.979281808501379 0.324460780872761
4366000000.0 0.9696824683843266 0.3660134374561236
4369000000.0 0.9392843552460267 0.3165608803948692
4372000000.0 0.9852210331105875 0.282643919466527
4375000000.0 0.9777431945469495 0.3212359690418276
4378000000.0 0.9308162754749197 0.3087738001817584
4381000000.0 0.9586993120676599 0.339670852809002
4384000000.0 1.0229828737933486 0.30863515396118946
4388000000.0 0.9749343110165215 0.284123582322431
4391000000.0 1.0043925629298787 0.30410404228293453
4394000000.0 0.9521743447041181 0.2658115477686134
4397000000.0 0.972353953101927 0.24331579008389512
4400000000.0 1.0064725161406893 0.2818753857717611
4403000000.0 0.985878871393261 0.24973845432182007
4406000000.0 0.9951912545459562 0.21197812103253352
4409000000.0 1.0145901065112295 0.23755706817595174
4412000000.0 1.0063968167007735 0.1636286317638077
4416000000.0 0.9921887933728708 0.1879141724435721
4419000000.0 1.0032457708664126 0.16721238864267463
4422000000.0 0.9881097386304873 0.18041935400003245
4425000000.0 1.006685037960045 0.22281685077546576
4428000000.0 0.9965649497095226 0.17111525118052345
4431000000.0 1.0269944143803362 0.18447852646082605
4434000000.0 1.0022479138412752 0.16698556123896352
4438000000.0 1.0260968959873635 0.1651080669967092
4441000000.0 1.0216677480445415 0.16141008749899227
4444000000.0 0.9996672404488756 0.14047568701636534
4447000000.0 1.0158850129283632 0.11740410179261457
4450000000.0 0.98738433369048 0.13200635868034438
4453000000.0 1.0316669527200952 0.11121567651243625
4456000000.0 0.9838435276835569 0.081466216173017
4459000000.0 0.9523382033703325 0.05026667373707519
4462000000.0 1.067907570070021 0.07810524342356484
4466000000.0 1.0479967670341064 0.049313425229592533
4469000000.0 1.0270615275142698 0.07084650339323945
4472000000.0 1.03962977158392 0.028500342032708265
4475000000.0 0.9944481938597273 0.03208298246185173
4478000000.0 1.0598595804642459 0.01782479656515884
4481000000.0 0.9802154249414377 0.006349236176679346
4484000000.0 1.0084320618980362 -0.03284630873513669
4488000000.0 1.0008092467168357 -0.007760805881911317
4491000000.0 1.0174496671412978 -0.025783875155154304
4494000000.0 0.9892149292946929 0.005906861510431266
4497000000.0 0.9832322314753228 -0.01455322971608522
4500000000.0 1.0098772692439797 -0.010544891475749808
4503000000.0 1.034511913944327 -0.025575786471336365
4506000000.0 1.0144266204330967 -0.059394744292362404
4509000000.0 0.9726857966825408 -0.09014960592621277
4512000000.0 0.9801707183765008 -0.13858924428298341
4516000000.0 1.012698647781241 -0.056133719928898845
4519000000.0 0.9937506745246341 -0.06507420128168181
4522000000.0 0.9986392413038552 -0.11398915321201879
4525000000.0 0.9933134260335208 -0.08622987079833569
4528000000.0 1.0162460436137817 -0.11545708556211631
4531000000.0 1.0069842835413103 -0.09284442666983665
4534000000.0 0.9681459808455696 -0.11199842002381828
4538000000.0 0.9823990801516485 -0.14389406618151285
4541000000.0 0.9964249240959877 -0.1870198886176301
4544000000.0 0.9655505779274589 -0.14120946855291622
4547000000.0 0.9744430739089065 -0.12146903215999189
4550000000.0 1.0034058887614579 -0.19513432675007322
4553000000.0 0.9933496033984635 -0.17672845691592995
4556000000.0 0.9638250196210192 -0.21703391407321918
4559000000.0 0.994966761828945 -0.2296232994414355
4562000000.0 1.016391443822562 -0.21107024335427718
4566000000.0 0.9973422601873059 -0.22762210957685025
4569000000.0 0.9448903097519906 -0.21695405688511665
4572000000.0 0.9801114502219921 -0.2422785151985714
4575000000.0 0.9782875489624814 -0.2838859318983218
4578000000.0 1.0046990322939509 -0.24171930714249312
4581000000.0 0.9732035186205932 -0.29847841485666243
4584000000.0 0.9459067196313908 -0.2851598840295923
4588000000.0 0.9939499304005135 -0.2651342446449292
4591000000.0 0.9733408164630224 -0.25760648584631113
4594000000.0 0.960997473564437 -0.30146017282052723
4597000000.0 0.982469521130932 -0.32395748544819175
4600000000.0 0.9030910070014813 -0.33997412829463697
4603000000.0 0.9768000241752643 -0.3314288933186953
4606000000.0 0.9664940441671281 -0.3393295854605609
4609000000.0 0.9597923701180591 -0.36341474135150625
4612000000.0 0.9717744977970978 -0.35397460515133083
4616000000.0 0.9318661680355707 -0.36201305757806057
4619000000.0 0.9486587167646876 -0.35126593558818
4622000000.0 0.9407359927050369 -0.36293488497431997
4625000000.0 0.8843317720669613 -0.37623381869748385
4628000000.0 0.8962503354415788 -0.35325117877245105
4631000000.0 0.896779094302067 -0.40822906775721485
4634000000.0 0.9267381131578137 -0.3985882905025465
4638000000.0 0.9250934492143476 -0.42318634130681243
4641000000.0 0.9204839628106 -0.42162898623898176
4644000000.0 0.9038056439212722 -0.44346647444190335
4647000000.0 0.9041599732737088 -0.45067090226647666
4650000000.0 0.9098071656334261 -0.4733466199286258
4653000000.0 0.9210075966195854 -0.45119007333789907
4656000000.0 0.8710772878397113 -0.4909960940550769
4659000000.0 0.8876200430528807 -0.4661683419710735
4662000000.0 0.8914730206937013 -0.5017977047938146
4666000000.0 0.875070125494647 -0.4858876031427715
4669000000.0 0.8803083052550857 -0.4900382034976521
4672000000.0 0.838716212803943 -0.5339911265671837
4675000000.0 0.8418412580112775 -0.5225912787775244
4678000000.0 0.8392253116620971 -0.5359569019776392
4681000000.0 0.8681222794803207 -0.5818999454631563
4684000000.0 0.8320643853209637 -0.5290394100403419
4688000000.0 0.8265590708402983 -0.5395814730808869
4691000000.0 0.8340516657751077 -0.5381751008806235
4694000000.0 0.847943673972521 -0.5748413988420509
4697000000.0 0.820233903231463 -0.5776449682662486
4700000000.0 0.8438107823724732 -0.5831564454465461
4703000000.0 0.8274652339314084 -0.5849824018410248
4706000000.0 0.836923164947843 -0.6043479924137047
4709000000.0 0.806924661135185 -0.6017911214421551
4712000000.0 0.7821342465533587 -0.6198362950575644
4716000000.0 0.8045056785357718 -0.6231491744435556
4719000000.0 0.8039028275506731 -0.6260654782708384
4722000000.0 0.7929941643087952 -0.6388876510972645
4725000000.0 0.7772937894719444 -0.6341527868859363
4728000000.0 0.7476125937179097 -0.6508422247086698
4731000000.0 0.7817783854026874 -0.6536864779160327
4734000000.0 0.7909564795707392 -0.6202890029378745
4738000000.0 0.7619483001392322 -0.6796483437669464
4741000000.0 0.777602144653417 -0.6767886901835308
4744000000.0 0.727561531450296 -0.6946286687588455
4747000000.0 0.7335953233625161 -0.6630378063229276
4750000000.0 0.7386807477412023 -0.7127566106574011
4753000000.0 0.7412507841168163 -0.7077514457604741
4756000000.0 0.7052868136606194 -0.7141764980739311
4759000000.0 0.7391560610067444 -0.7300813266065614
4762000000.0 0.707424017207112 -0.7488129282280728
4766000000.0 0.6996633111068284 -0.7204793125528031
4769000000.0 0.7256741774317454 -0.7462021988240561
4772000000.0 0.6932595870639441 -0.7384638701746875
4775000000.0 0.6639873050566193 -0.7638768860707417
4778000000.0 0.695950563482848 -0.7298534490053157
4781000000.0 0.6899643512433178 -0.742761415169742
4784000000.0 0.6988673346117225 -0.7483210609262917
4788000000.0 0.6514612325231404 -0.7785656583993531
4791000000.0 0.6387153101245893 -0.793292612844378
4794000000.0 0.6824875545606985 -0.7930064924360796
4797000000.0 0.6221447621514429 -0.7990332797986452
4800000000.0 0.6330306860097092 -0.7847223378441369
4803000000.0 0.5841682606298099 -0.8196572162457203
4806000000.0 0.5950153094382635 -0.809273834538657
4809000000.0 0.5463477782319386 -0.8394940458274501
4812000000.0 0.5978244773710992 -0.8336336218617161
4816000000.0 0.6089710225268515 -0.8028837857045235
4819000000.0 0.6199318093793622 -0.8554923896503847
4822000000.0 0.6187390316832486 -0.8445592214854153
4825000000.0 0.5916559619755724 -0.8398081937844518
4828000000.0 0.5698859208333668 -0.8375825340876059
4831000000.0 0.5396515082868308 -0.8841031390690814
4834000000.0 0.5650001772027196 -0.851177912449202
4838000000.0 0.5709352340983144 -0.8865211269291461
4841000000.0 0.5227186490182256 -0.8613640436399234
4844000000.0 0.5442386655532285 -0.8591111036900825
4847000000.0 0.5374759536296665 -0.8604303619942062
4850000000.0 0.5191914088232632 -0.8984505234923574
4853000000.0 0.5136908016619156 -0.8587627266793132
4856000000.0 0.485528113400128 -0.9033744805632319
4859000000.0 0.4963895060496769 -0.9323761631456439
4862000000.0 0.4866331252276965 -0.8742148260650761
4866000000.0 0.48161330363032157 -0.9189479618058333
4869000000.0 0.451210459295304 -0.9154375200389143
4872000000.0 0.4483253674999917 -0.9453774796776548
4875000000.0 0.49740830139769815 -0.9297213912715728
4878000000.0 0.44719339899960253 -0.9254810173222943
4881000000.0 0.4327389930596325 -0.9803027164967166
4884000000.0 0.4389753207989552 -0.9266384447274484
4888000000.0 0.4469982177278713 -0.8973586316067509
4891000000.0 0.4321462724711843 -0.944880628131708
4894000000.0 0.3889731278176738 -0.9455800209998589
4897000000.0 0.4210224441178248 -0.9282904556931435
4900000000.0 0.4005857485539279 -0.9492428604009354
4903000000.0 0.43632151889660703 -0.9596778519369472
4906000000.0 0.3907598114338263 -0.9709490269057475
4909000000.0 0.3826105383170944 -0.9663284293195462
4912000000.0 0.378281482326124 -1.0189157508352784
4916000000.0 0.37612557700359467 -0.9885809354042865
4919000000.0 0.3766773062021047 -0.9742104623835496
4922000000.0 0.3659580338838314 -0.982025938049863
4925000000.0 0.31991869186209254 -0.9620904944267827
4928000000.0 0.37519211932000707 -0.9512869727898756
4931000000.0 0.37371481754807634 -0.9968925971498899
4934000000.0 0.28489029645163066 -0.9411592775123598
4938000000.0 0.2879629932429964 -0.960049191966834
4941000000.0 0.3202395990633172 -0.9748862359233835
4944000000.0 0.28240420514735654 -0.9203253963866316
4947000000.0 0.2628035386267241 -0.9436134739724921
4950000000.0 0.23341816752263267 -0.9866207129954303
4953000000.0 0.24392301310587297 -1.0523995041976382
4956000000.0 0.23023606157718682 -0.9937662189180823
4959000000.0 0.19365311569647822 -0.9683621909327967
4962000000.0 0.23237052352601895 -1.0143735578689876
4966000000.0 0.24619922115293089 -1.0298054081724246
4969000000.0 0.24224440253557586 -1.0595533079562949
4972000000.0 0.2040692727068806 -1.03914202273702
4975000000.0 0.22292776074370563 -1.0168115216425662
4978000000.0 0.16254908235117732 -1.0159996984364763
4981000000.0 0.1688498976446856 -1.0343101370888832
4984000000.0 0.17861278639256545 -0.9808477321184167
4988000000.0 0.18712091255920105 -1.0122107295046119
4991000000.0 0.2037401711941484 -1.0409676117792837
4994000000.0 0.14376467383566272 -1.0154468894951219
4997000000.0 0.0919215684333897 -1.056406085999992
5000000000.0 0.16864732909529162 -1.032147412310607
5003000000.0 0.15766495759030866 -1.0525579176929951
5006000000.0 0.11708689130954629 -1.0840149028245185
5009000000.0 0.11207805117282804 -1.01956830063695
5012000000.0 0.10768190522696514 -1.019662160846849
5016000000.0 0.0882215164131894 -1.0684414258630908
5019000000.0 0.08723667156183512 -1.0311684539310892
5022000000.0 0.0761801466825793 -1.0431317500019508
5025000000.0 0.060870963438348136 -1.1177641936538796
5028000000.0 0.04617219950167378 -1.04575201865219
5031000000.0 0.03538357969462011 -1.0204938810548143
5034000000.0 0.004786687064756295 -1.0652682509936238
5038000000.0 0.002691944169151722 -1.0164542697504042
5041000000.0 0.06535627259296525 -1.0327910353391063
5044000000.0 0.06739634490060417 -0.9990942637985599
5047000000.0 0.011179825144986638 -1.0188230905598048
5050000000.0 0.10263576742132366 -0.996744860790653
5053000000.0 -0.018633923259431195 -1.0903202565692478
5056000000.0 0.03456636095275045 -1.0336642534834375
5059000000.0 0.04310320798145634 -1.025799489081559
5062000000.0 -0.05739959982931181 -1.083828425122175
5066000000.0 0.0034464126868138933 -1.0033694135467177
5069000000.0 -0.04604698561660167 -1.0652059758321744
5072000000.0 -0.052932759938285376 -0.9810442131537633
5075000000.0 -0.0164605402521103 -1.035464688319974
5078000000.0 -0.14973220034090898 -1.0303859554176262
5081000000.0 -0.08010781394334783 -0.998245356250088
5084000000.0 -0.11600038761792572 -1.0645043748574787
5088000000.0 -0.06905360993343004 -0.9956679998912092
5091000000.0 -0.14663968033773378 -1.0369955767316985
5094000000.0 -0.08153951075054601 -1.0341482756008715
5097000000.0 -0.06346481665343898 -1.082130656478411
5100000000.0 -0.10300921486567094 -1.015057670304286
5103000000.0 -0.1577197664469753 -1.0157074083282436
5106000000.0 -0.09905478870633046 -1.082330060454509
5109000000.0 -0.13079269071014077 -1.0485261747887757
5112000000.0 -0.17963001490512678 -1.010796861324349
5116000000.0 -0.1694858697801902 -0.9697157266035845
5119000000.0 -0.16376276189229738 -1.0113180914632987
5122000000.0 -0.1635286794684701 -0.9901413163459349
5125000000.0 -0.19955936351708173 -1.0572757209449812
5128000000.0 -0.2038918835053494 -1.0288008093816334
5131000000.0 -0.2482792211398414 -0.9898065305881595
5134000000.0 -0.22773700874583164 -0.9735660307980754
5138000000.0 -0.22305281143498887 -1.0688659614951792
5141000000.0 -0.15866836251429298 -1.0132662168740192
5144000000.0 -0.17978872346328867 -1.0180453316006668
5147000000.0 -0.2684240862638083 -1.020772576086938
5150000000.0 -0.22081834423352997 -1.0027091444427734
5153000000.0 -0.2660542659736982 -1.0352332567935838
5156000000.0 -0.2662040993715882 -1.032326482043935
5159000000.0 -0.30199110264715817 -1.0173064959425364
5162000000.0 -0.2586491165570209 -0.9957554607362049
5166000000.0 -0.3285973270531982 -1.0130128177884299
5169000000.0 -0.31029755165824924 -1.029290645949024
5172000000.0 -0.2955823270261585 -0.9539763570133798
5175000000.0 -0.3012563206669909 -1.0224416456680585
5178000000.0 -0.3185256387229055 -0.9665991949911619
5181000000.0 -0.3324538698469614 -1.0031062343600774
5184000000.0 -0.3477593824554628 -0.9810479937602287
5188000000.0 -0.31764664689579375 -0.9607105033778335
5191000000.0 -0.35944651163703056 -0.9702507394915808
5194000000.0 -0.3610977649762249 -0.9860306240613192
