! Created with skrf 1.8.0 (http://scikit-rf.org).
# Hz S RI R 50.0 
!freq ReS11 ImS11
4000000000.0 0.5985321529684825 0.7882305351954877
4003000000.0 0.660567526481126 0.8840743690949696
4006000000.0 0.7068339405622583 0.7948348039336443
4009000000.0 0.6575314025260812 0.7642904230514858
4012000000.0 0.6315441573696222 0.804926210747723
4016000000.0 0.6993667101439185 0.7733815982428704
4019000000.0 0.6794933026630341 0.7582888819279631
4022000000.0 0.6236898493764308 0.8225461164929242
4025000000.0 0.721394555869548 0.70879446892792
4028000000.0 0.709769949713031 0.7370757643090609
4031000000.0 0.6729770847968068 0.7648566837179038
4034000000.0 0.7026493965337549 0.7100172977195227
4038000000.0 0.7829753425097578 0.7215673586110224
4041000000.0 0.7093353686243706 0.7487399936066284
4044000000.0 0.7439999571300697 0.7676068604066877
4047000000.0 0.7230314960968507 0.7713389538854168
4050000000.0 0.7949541325449846 0.7225666276371647
4053000000.0 0.7393844414713896 0.665888957335766
4056000000.0 0.7528565192881896 0.7210737771190846
4059000000.0 0.7360431540967527 0.6980689686724977
4062000000.0 0.7743488765770137 0.6647968928881598
4066000000.0 0.7160828832245518 0.6741458062565442
4069000000.0 0.8037438063687068 0.6585325487300714
4072000000.0 0.7486379819146789 0.7008328290879982
4075000000.0 0.7788171804990455 0.6921963023900242
4078000000.0 0.7860902604827148 0.6676308691023286
4081000000.0 0.8195754879068232 0.7613101557990147
4084000000.0 0.8189038050175714 0.6589269507428506
4088000000.0 0.7859499282466653 0.6803139406717508
4091000000.0 0.8854689338733251 0.6627158253895422
4094000000.0 0.8175041906438093 0.5914108755926867
4097000000.0 0.8295603153865511 0.6144489240702145
4100000000.0 0.8174350325845897 0.6166470670943822
4103000000.0 0.8441258711248352 0.6680280206109803
4106000000.0 0.8308728763466006 0.579647806459688
4109000000.0 0.82978746736731 0.5793181918439769
4112000000.0 0.8750308815443 0.5573399996581538
4116000000.0 0.8342333244484474 0.5775649887169723
4119000000.0 0.8744243434761412 0.5367625873593529
4122000000.0 0.9039454010790761 0.5355362352481808
4125000000.0 0.9129679234016491 0.5645351471008131
4128000000.0 0.8122812928316057 0.5125435093591006
4131000000.0 0.853611357796022 0.532899873225235
4134000000.0 0.8349796380306421 0.5599100605377039
4138000000.0 0.8401511111916404 0.48257848185177193
4141000000.0 0.9016943895716171 0.5160888656213032
4144000000.0 0.8686702115841096 0.5198011071056114
4147000000.0 0.8852614486415379 0.47400782038073136
4150000000.0 0.9066171331442879 0.4929830480346295
4153000000.0 0.9247530571676487 0.4708073414587711
4156000000.0 0.9209403323466061 0.5034026613974434
4159000000.0 0.8988258697847642 0.48968368545981117
4162000000.0 0.902012159169262 0.4646466047412119
4166000000.0 0.9416163635772172 0.4397893199613999
4169000000.0 0.9248172083696222 0.40704248610460947
4172000000.0 0.9295630865013865 0.4480637733774537
4175000000.0 0.9173340372097917 0.43223967726916507
4178000000.0 0.9424012788466097 0.4515512867904885
4181000000.0 0.9111666997302845 0.4141980026615032
4184000000.0 0.9329415044528706 0.4374403347269343
4188000000.0 0.933370541472714 0.4011881355822722
4191000000.0 0.9194060313849085 0.41077496310179423
4194000000.0 0.9423497428174719 0.37241022269686985
4197000000.0 0.9626014888330832 0.3789746269130427
4200000000.0 0.9654432060177527 0.3544744225755321
4203000000.0 0.9419668665132886 0.390166007793721
4206000000.0 0.9765210689387458 0.38056425858761506
4209000000.0 0.9366176985233714 0.3581899267930673
4212000000.0 0.9748825543264643 0.31354701157585274
4216000000.0 0.9751080698729397 0.35259469922660064
4219000000.0 0.975445219928818 0.3414190424657786
4222000000.0 0.9736464342870457 0.32200949158546616
4225000000.0 0.9488062141627127 0.29927780234194057
4228000000.0 0.9967602081653941 0.3087086212952195
4231000000.0 0.9775610602974901 0.2804753422994078
4234000000.0 1.0015304838400634 0.2827964652643105
4238000000.0 0.9857298084737218 0.25860631749927465
4241000000.0 0.9780679108418442 0.26155571567805264
4244000000.0 0.9708841662212204 0.26744692982585083
4247000000.0 0.9735687500937467 0.2568825047622564
4250000000.0 0.9708198457536932 0.24415430648740138
4253000000.0 0.9690662628346371 0.21324578414157808
4256000000.0 1.0141380998638045 0.22137292162973604
4259000000.0 0.9568463225336375 0.19320753843778268
4262000000.0 0.9941240618347398 0.1749852100369065
4266000000.0 1.000111758889403 0.1829165229259695
4269000000.0 0.9976545613160055 0.19795488632578026
4272000000.0 0.9875795569301925 0.18396096437172688
4275000000.0 1.0104058690481452 0.1875534745081478
4278000000.0 1.025835461907379 0.15873501758918984
4281000000.0 1.0052719745596097 0.1782046762779771
4284000000.0 1.0000345162152224 0.11006557170440029
4288000000.0 1.0043055761999848 0.1705874249031917
4291000000.0 0.9628250252827587 0.13199609224539516
4294000000.0 1.0061453981764124 0.14387844075739736
4297000000.0 0.9762048818037876 0.14547292811390422
4300000000.0 0.9943915360672633 0.12571023397598124
4303000000.0 0.9655729306387201 0.07382485192965886
4306000000.0 1.0009206897431038 0.1233022047314972
4309000000.0 1.002632563168982 0.09573497639973476
4312000000.0 1.0152576971889913 0.10758672442117032
4316000000.0 1.0008056526363858 0.07912483603078536
4319000000.0 1.0020227492145197 0.09024524367872049
4322000000.0 0.9816866526403953 0.02215007958279054
4325000000.0 1.0095193230174861 0.06029000748932099
4328000000.0 1.0001234252500313 0.03012021095184407
4331000000.0 1.026220096443137 -0.004285752380902383
4334000000.0 1.0233699154303875 0.022089860750455353
4338000000.0 1.0118355032553539 0.02233200864389835
4341000000.0 1.0269596968563952 0.016331631873472335
4344000000.0 1.0385235116378793 -0.0008748858794751235
4347000000.0 1.0267896192355899 -0.013741888682514108
4350000000.0 0.9554227692940895 -0.036705731653929624
4353000000.0 0.9961677790067107 -0.010793136295331296
4356000000.0 0.9885962517222124 -0.06174253808920448
4359000000.0 0.9677826111473452 -0.05072158157303676
4362000000.0 1.0146267754915437 -0.11069821577365016
4366000000.0 1.0281866231812988 -0.07853448453182077
4369000000.0 0.9818762778439295 -0.07792643955082111
4372000000.0 0.9730972355573688 -0.13201218265589176
4375000000.0 1.005521665752169 -0.09091982762247343
4378000000.0 0.9797806843510235 -0.10567693014705451
4381000000.0 0.9869854395963835 -0.09350389617525641
4384000000.0 1.0687032026492735 -0.12631172634500024
4388000000.0 0.9798757633555812 -0.09550527457962685
4391000000.0 1.0019258827819686 -0.12983823574177425
4394000000.0 0.9499169422177847 -0.149553350217729
4397000000.0 1.0022381603233927 -0.158314338092729
4400000000.0 1.0281544003048961 -0.18865994338498077
4403000000.0 1.0014978721175571 -0.18256049073011307
4406000000.0 0.9948389437671592 -0.1915420653730764
4409000000.0 1.0146008048190753 -0.20559714566196266
4412000000.0 0.9683440391010799 -0.2568795860420465
4416000000.0 0.9611760480178901 -0.22733587707589162
4419000000.0 0.9850373534850645 -0.24720879160154705
4422000000.0 0.983401550500022 -0.20916819661392624
4425000000.0 1.0161180225366482 -0.22340999384160026
4428000000.0 0.977502367712304 -0.24647388850867713
4431000000.0 0.9942377763111203 -0.24777598949958568
4434000000.0 0.954186021442667 -0.28009154198283426
4438000000.0 0.9961428112663011 -0.2652419466573315
4441000000.0 0.9876290962117784 -0.2907656708478978
4444000000.0 0.9656248090070483 -0.2723164955128066
4447000000.0 0.9510761375029718 -0.3036424347396053
4450000000.0 0.9501197816589391 -0.28189141945120727
4453000000.0 0.9752364960680805 -0.31459203535774644
4456000000.0 0.9287212796377361 -0.33283410793925283
4459000000.0 0.8935321023791474 -0.3302038636861336
4462000000.0 1.019517591199247 -0.3804750790709396
4466000000.0 0.9776026304677378 -0.3625290627402631
4469000000.0 0.9635803985291931 -0.3426365927226868
4472000000.0 0.934312041567182 -0.40219508800036907
4475000000.0 0.8928536368162409 -0.38147321361803777
4478000000.0 0.9726423441318484 -0.42793661572344976
4481000000.0 0.8955868585838692 -0.3813643187702633
4484000000.0 0.9130956934617198 -0.4405299719642001
4488000000.0 0.9095395175963684 -0.4158557505122994
4491000000.0 0.9211075005706193 -0.42766948469554394
4494000000.0 0.9179155636872229 -0.41005786366754465
4497000000.0 0.9066834350465738 -0.41751573441143225
4500000000.0 0.9194911897732079 -0.43129195828845157
4503000000.0 0.9177961974654028 -0.4559299076026981
4506000000.0 0.8994140628754284 -0.434734236761373
4509000000.0 0.8808316828543807 -0.4451437832725246
4512000000.0 0.8812986957267014 -0.48043386254203346
4516000000.0 0.9244651095179213 -0.46646816449761264
4519000000.0 0.8561716416506931 -0.47094043923864487
4522000000.0 0.8620034608405254 -0.5150803888251461
4525000000.0 0.8891670025337708 -0.46855722950131773
4528000000.0 0.8975509142442522 -0.5069205633080003
4531000000.0 0.862535123098217 -0.49588637490741105
4534000000.0 0.8337881586718221 -0.48584312209642766
4538000000.0 0.8566771444325909 -0.5188676611329778
4541000000.0 0.8161783302616018 -0.54329972541568
4544000000.0 0.8315083900173756 -0.5372153275081505
4547000000.0 0.8510117038499672 -0.5192131664589463
4550000000.0 0.8350921562862907 -0.5895307814149042
4553000000.0 0.839315091665332 -0.5659998635734237
4556000000.0 0.7967758326380485 -0.5905406737240904
4559000000.0 0.8181972498645346 -0.5851948637783981
4562000000.0 0.8225985237915947 -0.5933744733393645
4566000000.0 0.8242005565844026 -0.596317186738998
4569000000.0 0.7920192877468469 -0.5869568337027935
4572000000.0 0.7907879647703497 -0.6066467536749915
4575000000.0 0.7983041317145096 -0.6304824064053814
4578000000.0 0.8323996374765037 -0.6328764328362725
4581000000.0 0.7745585981016159 -0.6444183598768197
4584000000.0 0.7767402271120901 -0.6407054790652359
4588000000.0 0.7927220499503252 -0.6433593672802306
4591000000.0 0.7704515693784725 -0.6397962601448431
4594000000.0 0.7379299377251426 -0.673695167956179
4597000000.0 0.7629722448946172 -0.6781113247829595
4600000000.0 0.7275254318293514 -0.6766409505534531
4603000000.0 0.7385123997533171 -0.7040260253821986
4606000000.0 0.7356956027353834 -0.6971332601359793
4609000000.0 0.7471889857959991 -0.703136255785731
4612000000.0 0.723995710150068 -0.7107824130694625
4616000000.0 0.7108620285023113 -0.7104461221202989
4619000000.0 0.7049620127376083 -0.7162474903100767
4622000000.0 0.6974811800902987 -0.7110397327871061
4625000000.0 0.6574327680116557 -0.7062186152449933
4628000000.0 0.7114276984840654 -0.7257711880814733
4631000000.0 0.6646060376290714 -0.7496036904919382
4634000000.0 0.6757146408180489 -0.7224177996059503
4638000000.0 0.6847064928685807 -0.7310162537584215
4641000000.0 0.6729904735122537 -0.7439110432504852
4644000000.0 0.6585353559131706 -0.7495277085222041
4647000000.0 0.6709882169164381 -0.7589962365652172
4650000000.0 0.6353615658552266 -0.775539209788928
4653000000.0 0.6486201987170803 -0.7796751862942203
4656000000.0 0.6189006411884375 -0.7922035338134219
4659000000.0 0.6196555611327756 -0.7860034701753038
4662000000.0 0.6434246194431839 -0.7988081796868169
4666000000.0 0.5829004367862146 -0.8007218901043864
4669000000.0 0.6103041125382032 -0.816987170629442
4672000000.0 0.5770832030332501 -0.8423942897027894
4675000000.0 0.5671873624471995 -0.8007506921821818
4678000000.0 0.5723926372626527 -0.7952967899795429
4681000000.0 0.5627946773051354 -0.8454791104324516
4684000000.0 0.5436481007937651 -0.8536487815686749
4688000000.0 0.536360879245645 -0.8597701164035909
4691000000.0 0.5696385904530314 -0.8377650193789998
4694000000.0 0.5714650022619457 -0.8329974901443147
4697000000.0 0.4882600799300963 -0.8325757938607004
4700000000.0 0.5277698471898922 -0.8353486660865037
4703000000.0 0.5267793680384645 -0.8256789778838138
4706000000.0 0.4907560049340017 -0.8752162001686979
4709000000.0 0.501764129315085 -0.8900987981617339
4712000000.0 0.501335433925153 -0.8743983932072694
4716000000.0 0.5024949193380821 -0.9020472971491078
4719000000.0 0.5049201712741804 -0.8876269183936922
4722000000.0 0.4764791584031077 -0.8768201787254932
4725000000.0 0.4875276218723014 -0.8774986557004681
4728000000.0 0.4649491049999126 -0.8969904774920543
4731000000.0 0.45938314617548964 -0.9368006272694236
4734000000.0 0.46802728462699505 -0.8779366804226557
4738000000.0 0.46518280949761914 -0.9127897774346625
4741000000.0 0.44617646662147636 -0.957725041204127
4744000000.0 0.40787530740646827 -0.9507479511884153
4747000000.0 0.4261752580174986 -0.8935518099529065
4750000000.0 0.42645911726885627 -0.9373287518712907
4753000000.0 0.41482602863245843 -0.9476746914941063
4756000000.0 0.399268776743376 -0.9567602049661994
4759000000.0 0.4088301633747267 -0.9210732578973317
4762000000.0 0.38186339013409576 -0.9470693288267449
4766000000.0 0.3584241996877534 -0.9020187894294589
4769000000.0 0.3915964496185021 -0.9586685524757265
4772000000.0 0.36775882487507355 -0.9544940180743344
4775000000.0 0.3378505681459862 -1.031102282508031
4778000000.0 0.3379768903351283 -0.9626607369760746
4781000000.0 0.31788718289356305 -0.9481553996602792
4784000000.0 0.35912914590253064 -0.9797500068366561
4788000000.0 0.3070366897385472 -0.9881063343418512
4791000000.0 0.3002678240935002 -0.977196639712813
4794000000.0 0.3328491539123016 -0.9901904161805473
4797000000.0 0.2675997978834537 -0.9620648878981121
4800000000.0 0.2587121818211927 -0.9692967670776789
4803000000.0 0.2424825499906922 -0.9659490495637877
4806000000.0 0.25407144930266695 -0.9885535293271257
4809000000.0 0.20381264059574475 -0.9720856808669015
4812000000.0 0.22214195146064292 -0.9809442673032576
4816000000.0 0.25882631533465655 -0.9675574158066234
4819000000.0 0.2605024248933258 -1.0004469109974579
4822000000.0 0.2430125865020823 -1.0321591825812475
4825000000.0 0.2506626657046571 -1.0040037747057093
4828000000.0 0.2091231202414378 -0.9913593138301221
4831000000.0 0.16395101150652933 -1.0484674507765301
4834000000.0 0.21661983130913315 -1.002498231146483
4838000000.0 0.1662495405977175 -1.017424796341424
4841000000.0 0.13128403045861128 -1.0061889529360388
4844000000.0 0.20511947512716824 -1.015736407825508
4847000000.0 0.1659309850300587 -0.9852351726204316
4850000000.0 0.14311347255667894 -1.032970284394526
4853000000.0 0.13227103342648083 -0.9829687045559079
4856000000.0 0.12187830836614151 -1.0188091027525754
4859000000.0 0.13107348526070783 -1.0579466351552873
4862000000.0 0.11821767143791848 -1.0029919015390776
4866000000.0 0.10891784388891249 -1.0448435942105168
4869000000.0 0.08921184666582818 -1.0287518664624737
4872000000.0 0.06662096805662777 -1.0364243299926998
4875000000.0 0.14025024527572738 -1.0656499535024682
4878000000.0 0.0732731198507642 -1.0465438189929355
4881000000.0 0.03370593055495326 -1.0900039537591395
4884000000.0 0.07795345850344867 -1.0248937522134074
4888000000.0 0.08742336106989293 -1.0015797606060841
4891000000.0 0.041717745105026474 -1.0300388362286825
4894000000.0 0.01655269165752492 -1.0140203197750954
4897000000.0 0.06375240970596546 -1.0347333818665172
4900000000.0 0.037103881053082446 -1.0569515059759953
4903000000.0 0.0354264306392483 -1.0363667773934915
4906000000.0 0.006759793969003806 -1.0645929043180309
4909000000.0 -0.030130038282894893 -1.006514708142657
4912000000.0 -0.03247176905783415 -1.066730798236943
4916000000.0 -0.0409182730606454 -1.0748638321607369
4919000000.0 -0.00981339144890922 -1.0190782513427052
4922000000.0 0.009676279847159845 -1.0571730873615799
4925000000.0 -0.07155798402000949 -1.0254678476825692
4928000000.0 -0.006984541833371216 -1.0281712594818768
4931000000.0 -0.033990357199741986 -1.0467057424143333
4934000000.0 -0.06093272938801832 -0.9901556320818875
4938000000.0 -0.11524750658654136 -1.0061435941854895
4941000000.0 -0.09670208890606154 -0.9972428564347483
4944000000.0 -0.09332274873700655 -0.9541482343197429
4947000000.0 -0.10670223806286211 -0.9957270583667076
4950000000.0 -0.11788697062959126 -0.9903280138291347
4953000000.0 -0.21020068166184552 -1.042159231082477
4956000000.0 -0.1331254861358579 -1.0298619365549102
4959000000.0 -0.17367511149066114 -0.970896790033936
4962000000.0 -0.15300084820795604 -1.0406896719564025
4966000000.0 -0.1428976842349992 -1.0638714527122481
4969000000.0 -0.16479468433445665 -1.0513335757750373
4972000000.0 -0.1703379785133167 -1.0100061943413172
4975000000.0 -0.12856823347946536 -1.0168916929115188
4978000000.0 -0.19685807111627207 -1.0275617129381178
4981000000.0 -0.20760394868715767 -1.0260153223189366
4984000000.0 -0.19561311536910883 -0.9928713770134874
4988000000.0 -0.20556115793654883 -1.0251873139414085
4991000000.0 -0.12641530839134307 -1.0537587306650342
4994000000.0 -0.20999593750481504 -0.9829732482587398
4997000000.0 -0.2746510814604776 -0.986442975349404
5000000000.0 -0.20668522103871406 -1.025442044165
5003000000.0 -0.2097579891426048 -1.038648987816663
5006000000.0 -0.27058960192553194 -1.0438851754639247
5009000000.0 -0.24664543809597897 -0.9771831706438128
5012000000.0 -0.26294532969056883 -1.0055963337996694
5016000000.0 -0.25667341594891685 -1.0374043607929977
5019000000.0 -0.2959369150716571 -0.9796783815553833
5022000000.0 -0.3057953283270831 -1.0000992912309614
5025000000.0 -0.3438074481067627 -1.032493525071612
5028000000.0 -0.3498130217633223 -0.9912792494845508
5031000000.0 -0.3263984397307367 -0.9891523434863035
5034000000.0 -0.3498777087260828 -1.001760335549576
5038000000.0 -0.33412653826358174 -0.9642577882151673
5041000000.0 -0.3095735806182327 -0.9543597778020568
5044000000.0 -0.31472746668074947 -0.9601895980235421
5047000000.0 -0.36581556495479145 -0.9816813945474504
5050000000.0 -0.28360437002716987 -0.9592545077409964
5053000000.0 -0.3910291892009463 -1.0397133611135654
5056000000.0 -0.3456526604973347 -1.0032063590168736
5059000000.0 -0.3486624932676999 -0.9933144474691539
5062000000.0 -0.4210141301008963 -0.9502695146002194
5066000000.0 -0.39030357831732965 -0.9545298169561225
5069000000.0 -0.43406029307889304 -0.9672499903286834
5072000000.0 -0.39218320050763883 -0.9407367334316901
5075000000.0 -0.4045362202449956 -0.9369759706755554
5078000000.0 -0.44974746100302937 -0.9452212266399915
5081000000.0 -0.4220268202751987 -0.8862428416956715
5084000000.0 -0.4901566787862949 -0.9695620637554938
5088000000.0 -0.4528382591651019 -0.923609581074085
5091000000.0 -0.5203974470239185 -0.943590836098632
5094000000.0 -0.499210279758966 -0.9040479020462734
5097000000.0 -0.4423306787717629 -0.915988056956127
5100000000.0 -0.44858921333702084 -0.9179740333605023
5103000000.0 -0.5033889573003287 -0.9299484299714315
5106000000.0 -0.4925501299492007 -0.9406668049589335
5109000000.0 -0.4420244043575143 -0.9032954660975183
5112000000.0 -0.5194052507317723 -0.8795161735200385
5116000000.0 -0.5431639262112103 -0.8726999081070832
5119000000.0 -0.5311860885345148 -0.8977894363825072
5122000000.0 -0.5018732243968055 -0.8569056986185941
5125000000.0 -0.5121953518924964 -0.8902920771913071
5128000000.0 -0.5659193126601264 -0.8701089005908176
5131000000.0 -0.5493948471247501 -0.8534572730715689
5134000000.0 -0.5275910437363598 -0.8475866893959072
5138000000.0 -0.5347925853849183 -0.8828294857368215
5141000000.0 -0.5282209811424079 -0.8857736058195678
5144000000.0 -0.5450502158263513 -0.9327922236179753
5147000000.0 -0.5790394246587246 -0.8797253354048897
5150000000.0 -0.5236253130033506 -0.8654597173322327
5153000000.0 -0.6295973376344626 -0.895425007190551
5156000000.0 -0.6063348263370448 -0.8491343279444045
5159000000.0 -0.6067810009145979 -0.8686125674203687
5162000000.0 -0.6034796790996315 -0.7816185865573825
5166000000.0 -0.63011682489723 -0.858747409940658
5169000000.0 -0.6869580359233837 -0.8450649504154404
5172000000.0 -0.6501363665655727 -0.7931770514792914
5175000000.0 -0.6583801312264574 -0.8395115701977572
5178000000.0 -0.6753792964820795 -0.7935973028658495
5181000000.0 -0.6770587869601071 -0.8172617792340857
5184000000.0 -0.657743571279965 -0.8337635903174785
5188000000.0 -0.6579089307745914 -0.7734264536826425
