! Created with skrf 1.8.0 (http://scikit-rf.org).
# Hz S RI R 50.0 
!freq ReS11 ImS11
4000000000.0 0.6220562155175611 0.7966411830927811
4003000000.0 0.6574625704184623 0.8240234284083591
4006000000.0 0.6578102504981919 0.7242919233451708
4009000000.0 0.6739046879356249 0.8297941567573361
4012000000.0 0.6235324920336632 0.8554376454905316
4016000000.0 0.6849511992422862 0.7704063367354685
4019000000.0 0.699038890353249 0.7703349209542739
4022000000.0 0.5922938821487841 0.8142495683748011
4025000000.0 0.7434980849392272 0.7569509997827834
4028000000.0 0.7334473472198755 0.7676453794230969
4031000000.0 0.6970537170295907 0.7364686253575837
4034000000.0 0.7210004228519443 0.7073065810659106
4038000000.0 0.7525309201327676 0.7013001040788241
4041000000.0 0.7327035203912441 0.7171556944859089
4044000000.0 0.776620559044414 0.7478459951658394
4047000000.0 0.7653646205409631 0.774994603167804
4050000000.0 0.7508150961950641 0.6994866904336511
4053000000.0 0.7664626758138962 0.6593340757586834
4056000000.0 0.7306901903292342 0.6957166161641483
4059000000.0 0.7582599210171326 0.6948811311018848
4062000000.0 0.7662738587375413 0.663377951587431
4066000000.0 0.7319182943987208 0.625366102359453
4069000000.0 0.8381803929818492 0.6782106984375283
4072000000.0 0.7538227679612747 0.6878762607035926
4075000000.0 0.8235450600270068 0.7187900576933297
4078000000.0 0.8439040322369006 0.6430055469611977
4081000000.0 0.7749500737159568 0.701014384878904
4084000000.0 0.8272859206024997 0.6508371046114882
4088000000.0 0.8173572334006789 0.650040934562964
4091000000.0 0.8956480808650225 0.6601801881386038
4094000000.0 0.8112589763657031 0.6236884183334449
4097000000.0 0.8503597889353248 0.6167480258918376
4100000000.0 0.8240085815026416 0.6063188415089311
4103000000.0 0.8203312474079465 0.6123425784376331
4106000000.0 0.8478241500091374 0.5646699311926381
4109000000.0 0.8666940760140609 0.5647492643735634
4112000000.0 0.8671788173485682 0.5516010106122105
4116000000.0 0.8487429570161023 0.5722070920524028
4119000000.0 0.8700673422071629 0.5620037265260852
4122000000.0 0.8905129207008775 0.552356478381246
4125000000.0 0.8763891291891703 0.5374158894481975
4128000000.0 0.853401703927021 0.5483933228228262
4131000000.0 0.8667602179738042 0.5098781452505241
4134000000.0 0.8909068996683167 0.5599505761179171
4138000000.0 0.8864057646574568 0.48902697325337857
4141000000.0 0.8743801638277353 0.5304312169451336
4144000000.0 0.9110110316842798 0.5058588806156994
4147000000.0 0.9147296262290432 0.4980404059680123
4150000000.0 0.9183951002417389 0.4897445623154299
4153000000.0 0.9116649566494218 0.5221771348632448
4156000000.0 0.9189853354766413 0.5271631001021924
4159000000.0 0.8922224355919193 0.4753724702783801
4162000000.0 0.8787460924645161 0.4521875405709178
4166000000.0 0.8980927346323198 0.4592368662210633
4169000000.0 0.933931872883009 0.42343326976633144
4172000000.0 0.9225075881299499 0.47107038658402994
4175000000.0 0.9181525721083487 0.42508303852117274
4178000000.0 0.9450448257031632 0.44063772421361824
4181000000.0 0.9248045093015866 0.39920955312990336
4184000000.0 0.9332733648460304 0.4291374442963662
4188000000.0 0.9395785711169466 0.38909186597917866
4191000000.0 0.9211627543863071 0.42006902183998246
4194000000.0 0.9431347652507506 0.37482085411438226
4197000000.0 0.9585885116009629 0.38621620301677545
4200000000.0 0.9346423947459539 0.38769548927137876
4203000000.0 0.9496340349378924 0.37705524350670594
4206000000.0 0.9722273428690562 0.36826300168009357
4209000000.0 0.9616047629833427 0.35458194686716543
4212000000.0 0.9682207444104202 0.3163366958474685
4216000000.0 0.957241303146051 0.3453845691278314
4219000000.0 0.9757602531816469 0.3526895921261233
4222000000.0 0.968116607023799 0.30843136718027114
4225000000.0 0.9690358420683891 0.3027981998743582
4228000000.0 0.9689144895942123 0.2886653177730456
4231000000.0 0.9884661052057366 0.2913572878967867
4234000000.0 0.9877151714766292 0.2831504087600062
4238000000.0 0.991720490368073 0.254855676861622
4241000000.0 0.9913167161792613 0.249375354789863
4244000000.0 0.978710860574959 0.2464995864161093
4247000000.0 0.9854325572824952 0.25310175826022735
4250000000.0 0.9707007548145443 0.21703619814207542
4253000000.0 0.968920583154371 0.2275018428866753
4256000000.0 1.015711846258301 0.2331994440059313
4259000000.0 0.9866110419512529 0.17221637254630065
4262000000.0 0.9843839613642089 0.19432458073486172
4266000000.0 1.029582738810296 0.17335645998307075
4269000000.0 1.0180084303823262 0.19627652039127277
4272000000.0 1.0022600715152294 0.18100434189360015
4275000000.0 1.0017954252087475 0.17774775533907344
4278000000.0 1.025580681682409 0.17234001803251253
4281000000.0 1.0031011316098428 0.16264978927339396
4284000000.0 1.0071686599542313 0.09558584935328052
4288000000.0 0.9814110767200832 0.13884617438772673
4291000000.0 1.0029720250791554 0.13316888392308762
4294000000.0 1.014734650987045 0.08984385279206668
4297000000.0 0.9954985387592791 0.13597228402854133
4300000000.0 0.9977643243932173 0.12116816752323586
4303000000.0 1.0153835924839416 0.0441823244571737
4306000000.0 1.0268960357074985 0.11310352974184415
4309000000.0 1.0067697644380798 0.044329859341258396
4312000000.0 1.0179860721000564 0.1115513887846239
4316000000.0 1.0114024237654535 0.07572478288646252
4319000000.0 1.0041583286810798 0.05844805883076944
4322000000.0 0.987241649571855 0.019224335948122687
4325000000.0 0.9945080053689154 0.03608230200929306
4328000000.0 1.0057536726651812 0.012960675431715918
4331000000.0 0.9859789885795243 0.019187742351428727
4334000000.0 1.0306799167785239 0.0017050595155184978
4338000000.0 1.0312575944421543 0.04186034309874377
4341000000.0 1.0195889642703837 0.00644294353788491
4344000000.0 1.0543851695661184 -0.02773615693892384
4347000000.0 1.025470590190217 -0.023403455328166095
4350000000.0 0.9897203312934331 -0.054169246149888176
4353000000.0 0.9870593942653811 -0.025544973361120576
4356000000.0 0.9969782198509302 -0.07462260830643229
4359000000.0 0.9642859829646568 -0.05173711094538182
4362000000.0 0.9882053827220321 -0.13365161824184912
4366000000.0 1.0448470620406873 -0.11176104782604686
4369000000.0 0.9704363608589328 -0.08639861978936793
4372000000.0 0.9953720330611033 -0.1529295135198363
4375000000.0 1.0011690836781557 -0.09225876261768373
4378000000.0 0.9775435168305777 -0.1180447876639258
4381000000.0 0.9880896534829366 -0.11054515707696655
4384000000.0 1.0635212339699038 -0.13889807889018507
4388000000.0 0.9977389064915241 -0.10445053782102687
4391000000.0 0.9954194770509879 -0.1440021121244433
4394000000.0 0.9512090078167592 -0.15136900563532651
4397000000.0 0.9890253103143136 -0.17936277757767968
4400000000.0 1.0234548679047604 -0.19385382779185073
4403000000.0 1.0098533673716021 -0.19066017357773107
4406000000.0 0.9737016228087542 -0.2165070693742919
4409000000.0 1.0202344226461848 -0.20923739477557304
4412000000.0 0.9700209902123679 -0.2673579190329992
4416000000.0 0.9735215668757757 -0.2339182715965536
4419000000.0 0.9872147321521846 -0.24214039048505828
4422000000.0 0.9708300457238896 -0.21489538233721095
4425000000.0 0.998254333728937 -0.2116598978481935
4428000000.0 0.9697160069674989 -0.26409470082240266
4431000000.0 0.9823041498690404 -0.26477931097700946
4434000000.0 0.9672685578233292 -0.28182777515898827
4438000000.0 0.9922282058496328 -0.281507632761539
4441000000.0 0.9954116479398922 -0.3019518767231177
4444000000.0 0.9448088405281934 -0.28679097082310934
4447000000.0 0.9476119344295592 -0.30769133032035667
4450000000.0 0.9636783287181013 -0.3019729194080077
4453000000.0 0.9936336884784642 -0.31613971310259353
4456000000.0 0.9121839844486384 -0.3336305425312992
4459000000.0 0.907564051524713 -0.35090085250750924
4462000000.0 1.0134857672501443 -0.37370551695716303
4466000000.0 0.9736879854336514 -0.38297867385135476
4469000000.0 0.9402888459938337 -0.3520135003137676
4472000000.0 0.9549679041148387 -0.40577069314629366
4475000000.0 0.901776498693654 -0.35414185983157653
4478000000.0 0.9560409592259856 -0.41422625272475166
4481000000.0 0.8924716606286652 -0.3993036052320429
4484000000.0 0.9016025692012986 -0.45401093749295707
4488000000.0 0.9064055324186061 -0.4251785048349425
4491000000.0 0.926093557811302 -0.4169566320470874
4494000000.0 0.8964333754325153 -0.39509357769961084
4497000000.0 0.9068288816501144 -0.4211060079031816
4500000000.0 0.9172959665320715 -0.44425564766552467
4503000000.0 0.931088510791872 -0.4648985675423553
4506000000.0 0.890832104527046 -0.46630488797095343
4509000000.0 0.8753281220895266 -0.467630112767743
4512000000.0 0.8679129566221668 -0.4776572587077591
4516000000.0 0.8996195749164996 -0.4897195857071767
4519000000.0 0.853795955001136 -0.4770936181886331
4522000000.0 0.8649757026882219 -0.5163013756167669
4525000000.0 0.8726408501250651 -0.4921339142926566
4528000000.0 0.8982063405070426 -0.5336686094016581
4531000000.0 0.8820898800081692 -0.5021493842881833
4534000000.0 0.8421538265283811 -0.5269534614873129
4538000000.0 0.8445926452089243 -0.5414478110441092
4541000000.0 0.8392081974236691 -0.5490620174480848
4544000000.0 0.841281086573409 -0.5543569078620508
4547000000.0 0.8463228421226012 -0.5497414757373784
4550000000.0 0.8147222776616276 -0.5861036179347974
4553000000.0 0.8319266922802091 -0.592427001521196
4556000000.0 0.801469945106712 -0.5801719305061359
4559000000.0 0.8273767285646422 -0.6156331192164082
4562000000.0 0.8209423234072395 -0.5999233300730098
4566000000.0 0.8110301043150414 -0.6220406854587808
4569000000.0 0.8038051129023713 -0.6269463740267831
4572000000.0 0.7960482922732218 -0.6153049921049646
4575000000.0 0.7810008730400615 -0.640760582643042
4578000000.0 0.8216917936383441 -0.6487506451981221
4581000000.0 0.7746059827664514 -0.6681001282974105
4584000000.0 0.7523144643366177 -0.6523609405954444
4588000000.0 0.7820227520861195 -0.6685545163775166
4591000000.0 0.7765775465113581 -0.6396767130165069
4594000000.0 0.7277925471734333 -0.6878736453440021
4597000000.0 0.7657582321420011 -0.7092968567987136
4600000000.0 0.7245033357249827 -0.6989615558882595
4603000000.0 0.7441768417050232 -0.7083711087517985
4606000000.0 0.7472670762712816 -0.7234429279607852
4609000000.0 0.7307861984777844 -0.6996461967756695
4612000000.0 0.7149049306135298 -0.7200347458893896
4616000000.0 0.6994164401411209 -0.6949677422843484
4619000000.0 0.7099505556649754 -0.7154640803072772
4622000000.0 0.6910419775525578 -0.7287496097998597
4625000000.0 0.6679155122288346 -0.7317088286923311
4628000000.0 0.6987929623283129 -0.7231786400463175
4631000000.0 0.6707179184618437 -0.7438080598094768
4634000000.0 0.6722588591894966 -0.7676511295016222
4638000000.0 0.6859868099929596 -0.7728356547458276
4641000000.0 0.6751190089572807 -0.7735862915336039
4644000000.0 0.6450972347498203 -0.7711513854147829
4647000000.0 0.6652738369371354 -0.761243651322827
4650000000.0 0.6260709874265792 -0.7914611129020281
4653000000.0 0.6395653367736848 -0.7894474587549949
4656000000.0 0.6307544412676975 -0.789871689013498
4659000000.0 0.6254572278009793 -0.8052314238614338
4662000000.0 0.6111559399012874 -0.8119292514160757
4666000000.0 0.5871763983967287 -0.82532994074447
4669000000.0 0.6169506815915502 -0.8156545755324305
4672000000.0 0.5706724680246971 -0.8559961895052042
4675000000.0 0.5699065955993525 -0.8477482180290556
4678000000.0 0.5764135145306509 -0.819996817991256
4681000000.0 0.5500499717451142 -0.8688768956251492
4684000000.0 0.5534574111388559 -0.8663439937281507
4688000000.0 0.5671731468088759 -0.8449750542858026
4691000000.0 0.5525923503696012 -0.8462131664633905
4694000000.0 0.5506432595655073 -0.8484810292543139
4697000000.0 0.4883966107322249 -0.8516484389212955
4700000000.0 0.5216812139541342 -0.8595311777865888
4703000000.0 0.5153308002667716 -0.8271318040335023
4706000000.0 0.5099546674590754 -0.8833074824667169
4709000000.0 0.4858283207373021 -0.8757177608636258
4712000000.0 0.5226273904397454 -0.8905719347997817
4716000000.0 0.46034563644071164 -0.9055443847940339
4719000000.0 0.50786802694561 -0.8942056662587187
4722000000.0 0.4752804668573485 -0.9052900331257685
4725000000.0 0.4699737750481169 -0.9003250459736092
4728000000.0 0.4449336933272733 -0.9031562150739199
4731000000.0 0.4641947351550928 -0.9288454212558355
4734000000.0 0.4514809061079909 -0.9160558060083995
4738000000.0 0.45186907247102925 -0.9329239885718885
4741000000.0 0.451953014920069 -0.9516720474250463
4744000000.0 0.40499599318613144 -0.9266920223500378
4747000000.0 0.4045369676509533 -0.9124798098418542
4750000000.0 0.40914864699898124 -0.953344368055964
4753000000.0 0.40135189590785725 -0.9358491170881703
4756000000.0 0.3896340288364464 -0.9406879845322429
4759000000.0 0.4115216145067515 -0.9490579803244402
4762000000.0 0.3607968143109141 -0.9875625832486431
4766000000.0 0.34988341413890717 -0.9672865255054284
4769000000.0 0.35683799563040897 -0.9610475545446505
4772000000.0 0.36270725874796617 -0.9826234926524381
4775000000.0 0.3539698961861213 -0.9974563519361501
4778000000.0 0.32050485786359867 -0.9577165078789788
4781000000.0 0.3566630202062223 -0.9787909331846141
4784000000.0 0.34763733462825186 -0.9470214473600383
4788000000.0 0.2954450909578792 -1.005785576078565
4791000000.0 0.27064581089563045 -0.9896225483042881
4794000000.0 0.29507648187744256 -1.0033040759279437
4797000000.0 0.2763136826527937 -0.9615484245058171
4800000000.0 0.25481970699173684 -0.9817649953979333
4803000000.0 0.21838139252973027 -0.9869541689341408
4806000000.0 0.28144264179059486 -1.0276099633645217
4809000000.0 0.2023809084009287 -0.9919220323706622
4812000000.0 0.19228032152095892 -0.9870198907688208
4816000000.0 0.25848084438418517 -0.9893378678101425
4819000000.0 0.2483872567660138 -1.0324393100635942
4822000000.0 0.22757847602921327 -1.03295598861549
4825000000.0 0.23235524992074794 -1.0144391993691226
4828000000.0 0.20422754674491322 -1.0009593290856365
4831000000.0 0.17008782579017817 -1.037267136901883
4834000000.0 0.1982945900258566 -0.9892236107945418
4838000000.0 0.14466746191695046 -1.0172305524271705
4841000000.0 0.1523988989855661 -1.0080731698425534
4844000000.0 0.19697787190959248 -1.028365923056666
4847000000.0 0.16374549253428378 -0.9927973085516073
4850000000.0 0.136966813634045 -1.0348098955525464
4853000000.0 0.12337198054134865 -0.9891972961033224
4856000000.0 0.10842949117168371 -1.0175002216665263
4859000000.0 0.11394637510876271 -1.048339147202416
4862000000.0 0.11861397597314563 -1.0043830380325003
4866000000.0 0.05471887018533925 -1.026390839358649
4869000000.0 0.06435865134421226 -1.0305003552662342
4872000000.0 0.0502998361063414 -1.0698016854932
4875000000.0 0.12044048421497514 -1.0774062021807411
4878000000.0 0.06020625545985809 -1.019484101116193
4881000000.0 0.02382899692223967 -1.1005355348644161
4884000000.0 0.06750670812312085 -1.0411373092376248
4888000000.0 0.07901609393271888 -1.028520658481092
4891000000.0 0.04950686704787822 -1.036829827746494
4894000000.0 0.0010792747416752558 -1.004066327390963
4897000000.0 0.04024548516424306 -1.005347947039079
4900000000.0 0.004349498633135869 -1.058996971277289
4903000000.0 -0.0003383553401121106 -1.049517753763806
4906000000.0 -0.005135049036715508 -1.042219833481129
4909000000.0 -0.02485691165441864 -1.0238234423823567
4912000000.0 -0.028998319352029345 -1.064650091808752
4916000000.0 -0.03617657901580346 -1.0469570735038356
4919000000.0 -0.03679990386702299 -1.0547762040169517
4922000000.0 -0.011566938642223176 -1.059059764499452
4925000000.0 -0.09814087628292653 -1.029271890013332
4928000000.0 -0.015524848680649586 -1.0079914613581658
4931000000.0 -0.05773205842231184 -1.0559711322863428
4934000000.0 -0.0760877756021038 -0.9782317359933315
4938000000.0 -0.12231761508751947 -1.0376590312257097
4941000000.0 -0.09669330266604605 -1.0024611976416806
4944000000.0 -0.07699736160948276 -0.970517270840231
4947000000.0 -0.09376398225107938 -0.9869323588313788
4950000000.0 -0.11026835371084544 -0.999634030572364
4953000000.0 -0.18848750418092147 -1.0522203008921256
4956000000.0 -0.15804232922942246 -0.9913330765348256
4959000000.0 -0.19814734322383362 -0.9823435860645974
4962000000.0 -0.16839602734960654 -1.0287559924533998
4966000000.0 -0.15880096829991375 -1.0406892305399051
4969000000.0 -0.1748711120991701 -1.045978291238993
4972000000.0 -0.1982150873413763 -1.0505604747786077
4975000000.0 -0.14836757774591733 -1.007111980957441
4978000000.0 -0.23037103115793073 -1.0179568444088998
4981000000.0 -0.23190542934652528 -1.0173942951960797
4984000000.0 -0.1964740421858168 -0.9658418339484458
4988000000.0 -0.2053934434002675 -0.9948155252225778
4991000000.0 -0.16593492721771552 -1.0524008707179975
4994000000.0 -0.22312947573281522 -1.0129599453275209
4997000000.0 -0.2728468786105353 -1.0015880953829106
5000000000.0 -0.2412862945942022 -1.0259172838273176
5003000000.0 -0.24900467445362257 -1.0446876696188327
5006000000.0 -0.28259306020876396 -1.066032217720386
5009000000.0 -0.26896193888487196 -1.005485256493703
5012000000.0 -0.2848943871577661 -0.9831405327391056
5016000000.0 -0.2649329663228987 -1.0473707620123827
5019000000.0 -0.31522543660131774 -0.9876029310238787
5022000000.0 -0.3073851602926786 -1.0070589984667406
5025000000.0 -0.3362501849322342 -1.049027257171659
5028000000.0 -0.3673684067198526 -0.9869350982383047
5031000000.0 -0.34402471750546315 -1.0015281671670258
5034000000.0 -0.3858381052453017 -0.9926458111427021
5038000000.0 -0.3819686770651831 -0.9435359073447944
5041000000.0 -0.33083653874259844 -1.0112700977190876
5044000000.0 -0.31428516878942814 -0.9696026901663138
5047000000.0 -0.37187965247782123 -0.9784893422596551
5050000000.0 -0.298258229382242 -0.9763070651246089
5053000000.0 -0.4258726915946658 -0.9937402322407589
5056000000.0 -0.32657450056669435 -0.9793918480229564
5059000000.0 -0.36382796997034145 -1.0319147489827563
5062000000.0 -0.4523756424341846 -0.9430730295614773
5066000000.0 -0.37448803117961216 -0.9565633388143817
5069000000.0 -0.42963551525786914 -0.9862345093468831
5072000000.0 -0.39122022687186686 -0.9083178287129996
5075000000.0 -0.4113978126475948 -0.9774685356673052
5078000000.0 -0.48013473387824207 -0.9151344184885917
5081000000.0 -0.4469233545490396 -0.8812884953986154
5084000000.0 -0.4956930785981436 -0.9605633543932224
5088000000.0 -0.45738701077641186 -0.9455471988233013
5091000000.0 -0.5043028681635717 -0.9016784670190472
5094000000.0 -0.46767089336362594 -0.9028200018653204
5097000000.0 -0.4070645056347221 -0.9252629906069356
5100000000.0 -0.4937579036812216 -0.9133345583588349
5103000000.0 -0.5197006994608447 -0.875065748786419
5106000000.0 -0.514823017833692 -0.947147142823451
5109000000.0 -0.4810286271544805 -0.933156884897959
5112000000.0 -0.47086823039073245 -0.8653385156509856
5116000000.0 -0.5072324932309641 -0.8486056301748919
5119000000.0 -0.5537460602432622 -0.893354310476014
5122000000.0 -0.525188975666618 -0.8793656018626799
5125000000.0 -0.5379001690248327 -0.861773265931859
5128000000.0 -0.5721335782968311 -0.8709297044134809
5131000000.0 -0.5494772600360709 -0.8203559835841916
5134000000.0 -0.5898862875711761 -0.8432147871978983
5138000000.0 -0.5755665025685096 -0.8739655047004778
5141000000.0 -0.5173537114814187 -0.9029005965636676
5144000000.0 -0.5975133353272711 -0.8392529206171939
5147000000.0 -0.6378664079833802 -0.9015271596277475
5150000000.0 -0.578712762331699 -0.8660139857445182
5153000000.0 -0.6330464252398071 -0.8856730277829374
5156000000.0 -0.5911821830386684 -0.8362305500026714
5159000000.0 -0.673444330596318 -0.885140473438555
5162000000.0 -0.6608716759971814 -0.8106801787245853
5166000000.0 -0.6705765511059697 -0.830826912709855
5169000000.0 -0.6758726862683453 -0.8293338263036839
5172000000.0 -0.6666221601862096 -0.7805516681903315
5175000000.0 -0.655404937716121 -0.8181456150915233
5178000000.0 -0.6859280975399171 -0.7771318526555413
5181000000.0 -0.6745987326820921 -0.8084399916185695
5184000000.0 -0.683655514990695 -0.7941663487982272
5188000000.0 -0.696061456680822 -0.7863125107495867
