! Created with skrf 1.8.0 (http://scikit-rf.org).
# Hz S RI R 50.0 
!freq ReS11 ImS11
4000000000.0 0.6683036560660456 0.799642023447714
4003000000.0 0.7033974295507299 0.8543418211574197
4006000000.0 0.6856379149586442 0.7602658038386915
4009000000.0 0.676327556004753 0.8251739262435966
4012000000.0 0.6413364825039648 0.8229832713129284
4016000000.0 0.699373660854139 0.7902158701356168
4019000000.0 0.6816937109907146 0.7421355362893447
4022000000.0 0.6567212673645271 0.8020915380944872
4025000000.0 0.7966148455503516 0.7239632230298668
4028000000.0 0.7018139139079927 0.7079877585102072
4031000000.0 0.7086275332541627 0.7446851959388133
4034000000.0 0.7237963852544751 0.6983242252072369
4038000000.0 0.7461812082038712 0.6977760310506724
4041000000.0 0.7763305794959284 0.6925819558484816
4044000000.0 0.8056074949584764 0.7618415808851507
4047000000.0 0.7903873547308099 0.7090610862268443
4050000000.0 0.8471087190624158 0.6789300469725283
4053000000.0 0.7468520182413735 0.677301863336337
4056000000.0 0.7304041907043988 0.689508264224747
4059000000.0 0.7267808366930444 0.6382290333060925
4062000000.0 0.7756289800575191 0.6527387277956134
4066000000.0 0.7490582023405585 0.6371249093260721
4069000000.0 0.847042092428088 0.6755383449405705
4072000000.0 0.7568766653661935 0.6816200472773952
4075000000.0 0.7940972092438023 0.7206988934485632
4078000000.0 0.861802217077326 0.6689974510778348
4081000000.0 0.8006096406701142 0.6942794750962735
4084000000.0 0.7967776830599942 0.6008253456663513
4088000000.0 0.8045163801971437 0.6767171896966654
4091000000.0 0.8877874188043736 0.6601773347699338
4094000000.0 0.8113333293630636 0.6411637931191853
4097000000.0 0.8508344820138305 0.5650175252305023
4100000000.0 0.8562161428417121 0.5510783990065997
4103000000.0 0.8506074300431472 0.6229176036922408
4106000000.0 0.8384947282363523 0.5858654836876607
4109000000.0 0.8418137946402462 0.5614078069409523
4112000000.0 0.837232624732732 0.5575331869613531
4116000000.0 0.8640670997236398 0.5585899716401331
4119000000.0 0.8738177032680846 0.5160223462923919
4122000000.0 0.8692999312296096 0.5306736323835282
4125000000.0 0.909434182507325 0.5344516463323088
4128000000.0 0.8644400998358358 0.5388545936207307
4131000000.0 0.8674161370160952 0.4945045059665769
4134000000.0 0.8876772809310182 0.5242284936937135
4138000000.0 0.8991094272438485 0.48216495133391707
4141000000.0 0.9346938736747734 0.4797710937995725
4144000000.0 0.9148162010205767 0.517800892474831
4147000000.0 0.8916997207155396 0.4756291464973434
4150000000.0 0.9385263887105765 0.5116406994216007
4153000000.0 0.9174567001770745 0.4320283241748415
4156000000.0 0.8888059376370494 0.4871733213849877
4159000000.0 0.9133091599798724 0.44847765419115354
4162000000.0 0.936631387264832 0.44864080129340334
4166000000.0 0.9624539128197156 0.4312099255492954
4169000000.0 0.9195316126229751 0.4291819470768269
4172000000.0 0.9489907555232383 0.43013696848993804
4175000000.0 0.9539860303048078 0.43110845272823844
4178000000.0 0.9454918582491549 0.42581117468969776
4181000000.0 0.9609794819152773 0.39659100463451424
4184000000.0 0.9499700875897765 0.4067915351386678
4188000000.0 0.967358180804867 0.37196066795982397
4191000000.0 0.9495412952740514 0.4015668526507375
4194000000.0 0.9578073834510443 0.3428965381629715
4197000000.0 0.9614817434782241 0.3729329511779536
4200000000.0 0.9742219156612901 0.375108490156138
4203000000.0 0.9737976558066296 0.36068350997725895
4206000000.0 0.9828825746253468 0.3413712005385428
4209000000.0 0.9564128759684554 0.34519866731953347
4212000000.0 0.974313153527456 0.30095401969134117
4216000000.0 0.9820305908101814 0.3139881030988613
4219000000.0 0.9731741004924602 0.3327124127151878
4222000000.0 0.9817432522334499 0.30976063669632187
4225000000.0 0.9622636516553549 0.2839560641502412
4228000000.0 0.9897028410806628 0.2865677703554853
4231000000.0 0.9931418868474572 0.25971507365655
4234000000.0 1.0042050950450139 0.2625899249971956
4238000000.0 0.9989342632679773 0.23870589011423252
4241000000.0 0.9859801311710568 0.22033879071256296
4244000000.0 0.9854503279999913 0.24164783655344607
4247000000.0 0.9800889716782786 0.24092472830280648
4250000000.0 0.9901656007631472 0.21648743219651545
4253000000.0 0.9624128392188527 0.19554885179018477
4256000000.0 1.0274154403702045 0.20493593866768117
4259000000.0 0.9672712352109281 0.17457306821685906
4262000000.0 0.9853791676001693 0.16545307207637275
4266000000.0 1.0107126268005742 0.17367565288152348
4269000000.0 1.0017758292793002 0.17670834423760137
4272000000.0 0.9921335248698993 0.1726431414838041
4275000000.0 1.019308613096897 0.15125567627279043
4278000000.0 1.0277602506305155 0.14962335491072015
4281000000.0 1.0183303545153435 0.15181846124343362
4284000000.0 1.0359882386135415 0.1047085186307132
4288000000.0 0.9974719133524867 0.15658110980283518
4291000000.0 0.9861820831143017 0.12770033874817766
4294000000.0 0.9927152785228675 0.09706990708221232
4297000000.0 1.0181267303381283 0.14544529792472516
4300000000.0 0.9914967046738976 0.09700126968227327
4303000000.0 1.0037917887521897 0.044361952737369106
4306000000.0 1.012926056389684 0.0938469713202186
4309000000.0 0.9918961715464817 0.06774835937688752
4312000000.0 1.0026924677330928 0.10085964032754868
4316000000.0 1.0358336810959008 0.06762446219898093
4319000000.0 1.0226936428796853 0.05647459152870575
4322000000.0 1.0069092865501446 -0.0005734619968097432
4325000000.0 1.0217171479458718 0.02552104337678547
4328000000.0 0.985526178723764 0.01279885711902741
4331000000.0 1.0215554589999292 -0.03286011282092355
4334000000.0 1.0237003145567083 -0.0069178409467273855
4338000000.0 1.0198128330381522 -0.01179666471743808
4341000000.0 1.035990403688714 0.01987198049771416
4344000000.0 1.0445466917936674 -0.022914652830761814
4347000000.0 1.0115932208233605 -0.08651225873239539
4350000000.0 0.9667775403912071 -0.06268936016385433
4353000000.0 0.9983293457010818 -0.04473205230160594
4356000000.0 0.9971376513902502 -0.08220966112521028
4359000000.0 0.9689240722241647 -0.08001727419180311
4362000000.0 1.0081034720852748 -0.15159710014360603
4366000000.0 1.0152953237023794 -0.11970719274013221
4369000000.0 0.9639618489501024 -0.11543527639157111
4372000000.0 1.0025548782493527 -0.1487327863055421
4375000000.0 1.013633986498631 -0.10160209026417844
4378000000.0 0.9784528265292751 -0.12483173603536012
4381000000.0 0.9844052726407142 -0.13449339405862726
4384000000.0 1.0556542331067853 -0.1752473292598474
4388000000.0 0.9928832822445516 -0.15569914840805013
4391000000.0 0.9968170210438021 -0.15897001015858486
4394000000.0 0.9721614056684413 -0.17662203638959145
4397000000.0 0.9848282052129469 -0.1907461141088571
4400000000.0 0.9999075226210155 -0.21130996571254618
4403000000.0 1.003972973955563 -0.20788765303231055
4406000000.0 0.9851447140833894 -0.225760014621891
4409000000.0 1.0138964278235094 -0.22947078175777827
4412000000.0 0.9686701900819521 -0.29421197793749687
4416000000.0 0.9589684343429006 -0.2514521916960127
4419000000.0 0.9763940887864212 -0.2702759054105931
4422000000.0 0.9768307790972393 -0.22998197381834715
4425000000.0 1.0032647610509402 -0.24379983884957332
4428000000.0 0.9751735981881405 -0.2900535209314317
4431000000.0 0.9921456959816264 -0.29002175093655413
4434000000.0 0.9547082348076191 -0.2963545855544539
4438000000.0 0.9977308814396018 -0.3032302615158942
4441000000.0 0.984294079364098 -0.3095090713035706
4444000000.0 0.9407248995792674 -0.31026675547881744
4447000000.0 0.950148660469038 -0.35096209690064745
4450000000.0 0.9412527098111 -0.3142384175690899
4453000000.0 0.9761215127282162 -0.34546783084164917
4456000000.0 0.9151912863235382 -0.3451597781065134
4459000000.0 0.8951992087643155 -0.3724078851480409
4462000000.0 0.983734109692318 -0.3866121256644997
4466000000.0 0.9761987008774131 -0.4028486185597294
4469000000.0 0.9485248795342719 -0.3679958351161935
4472000000.0 0.930317113557855 -0.4244304692892121
4475000000.0 0.9083568522128662 -0.37109509398196616
4478000000.0 0.9532163842314384 -0.4385195286917145
4481000000.0 0.8960145224983295 -0.41906645496604256
4484000000.0 0.8881397676277689 -0.4794666884779418
4488000000.0 0.8966686556335254 -0.4318018122684683
4491000000.0 0.90259486128192 -0.4531632940732128
4494000000.0 0.9018189788525927 -0.4432017561981377
4497000000.0 0.8853802330772189 -0.43929483191853147
4500000000.0 0.9013447761189699 -0.4628395994270319
4503000000.0 0.8960748621223917 -0.4707164706171598
4506000000.0 0.8845303586462692 -0.49017860194198826
4509000000.0 0.8584862987305797 -0.4897092040245018
4512000000.0 0.8507407864097812 -0.5078917790979739
4516000000.0 0.8893583347662305 -0.5114273877525558
4519000000.0 0.8617761579150842 -0.48392848945899514
4522000000.0 0.8629102733911727 -0.5294847711655803
4525000000.0 0.8701933469557614 -0.49623374608203974
4528000000.0 0.8662887571581874 -0.5404644686261547
4531000000.0 0.8616481408824683 -0.5191711310302302
4534000000.0 0.849421265800881 -0.5492599648916621
4538000000.0 0.8475828291172538 -0.553979002293935
4541000000.0 0.8144398075602501 -0.585509217654122
4544000000.0 0.8349632576686323 -0.5783193808184072
4547000000.0 0.82930833490042 -0.5614726714925897
4550000000.0 0.8127106052654045 -0.6033582165952462
4553000000.0 0.8068209803266873 -0.6113453608291218
4556000000.0 0.7941663167611144 -0.6080843200620393
4559000000.0 0.7980573994046307 -0.60959193704387
4562000000.0 0.8238994809188434 -0.6334082162102239
4566000000.0 0.7932224977434912 -0.6542005634087982
4569000000.0 0.7697800854023772 -0.6399207804808675
4572000000.0 0.7922137451562901 -0.6406651336774437
4575000000.0 0.7592618751287763 -0.6821010482202712
4578000000.0 0.782927171299888 -0.6383980087994366
4581000000.0 0.7764610512237929 -0.6819651760708835
4584000000.0 0.7637370290361108 -0.6597004789500412
4588000000.0 0.7514795223215206 -0.6857736273130693
4591000000.0 0.7586085283645897 -0.658637091079735
4594000000.0 0.7181516646590265 -0.6839652360083904
4597000000.0 0.7313267616446135 -0.7178867902214447
4600000000.0 0.7038154001431014 -0.7161204371210113
4603000000.0 0.7104914323712065 -0.7145698736163713
4606000000.0 0.72567435120492 -0.7269879404537201
4609000000.0 0.7038681128558973 -0.7132590489931423
4612000000.0 0.6965305725959895 -0.7180063250763103
4616000000.0 0.680140886512006 -0.7291382957152943
4619000000.0 0.6871200566390225 -0.7449430575047147
4622000000.0 0.6744260335775804 -0.7546880346316927
4625000000.0 0.6591391672268139 -0.7438753897371968
4628000000.0 0.6705237892168198 -0.7475075926665214
4631000000.0 0.6668626150677568 -0.7705178570303239
4634000000.0 0.6411425872987125 -0.787968052919375
4638000000.0 0.6438228632032768 -0.7683628135174508
4641000000.0 0.6554102902203445 -0.7845424816036476
4644000000.0 0.6441253054224911 -0.7851452272592574
4647000000.0 0.6357661435072218 -0.8013508913807498
4650000000.0 0.5858238373043946 -0.8016342548271916
4653000000.0 0.6276344049643588 -0.7962028303134141
4656000000.0 0.6200438941030129 -0.8374377390756094
4659000000.0 0.5698197979771276 -0.8340190525724691
4662000000.0 0.5967665336106912 -0.8291953905206784
4666000000.0 0.5636791025595655 -0.8403333551607622
4669000000.0 0.5750703526977117 -0.8317451106847846
4672000000.0 0.5429886878953495 -0.8626000544824589
4675000000.0 0.5696318194185866 -0.8579780336834942
4678000000.0 0.5419854127529746 -0.8334714174979057
4681000000.0 0.5203011398061175 -0.8591435365320931
4684000000.0 0.5175000929965616 -0.8757772568160188
4688000000.0 0.5277794996292222 -0.8773599993256093
4691000000.0 0.5394608132169302 -0.8684504015316401
4694000000.0 0.5049529062264675 -0.8716964417798096
4697000000.0 0.48136723779168206 -0.8567285862810121
4700000000.0 0.5108086197674895 -0.8806005502094185
4703000000.0 0.5130242373247598 -0.8196855932280644
4706000000.0 0.473250447603839 -0.8977432720594429
4709000000.0 0.45342026862886725 -0.8991978589673935
4712000000.0 0.4652348031855922 -0.8905438073254501
4716000000.0 0.4529057410488123 -0.9100176300458087
4719000000.0 0.49084809386236805 -0.9033251740241618
4722000000.0 0.45809850330268365 -0.9250925183887861
4725000000.0 0.4323830324138923 -0.9110702455762462
4728000000.0 0.4224118988758382 -0.915789018880985
4731000000.0 0.4355075964791302 -0.94891565960039
4734000000.0 0.44819863917121705 -0.9161878939318622
4738000000.0 0.4431564799481851 -0.9515555094200981
4741000000.0 0.39935080981062143 -0.9478891622602388
4744000000.0 0.35257653176870973 -0.9311686865826383
4747000000.0 0.4105986640061048 -0.9267975117166387
4750000000.0 0.37003162184783217 -0.970649376725089
4753000000.0 0.38089172282919836 -0.9353328003930369
4756000000.0 0.34179566618015467 -0.9571920347935308
4759000000.0 0.3750921527999492 -0.9823907219348066
4762000000.0 0.3256721640585802 -0.9881997120531806
4766000000.0 0.3262143041933134 -0.9561644225628525
4769000000.0 0.3154359870375561 -0.9846550062639957
4772000000.0 0.3502837831524658 -0.973877751965388
4775000000.0 0.2854224203694076 -1.0122547566076434
4778000000.0 0.31452943763648966 -0.9846683891297762
4781000000.0 0.30762586631869354 -0.9768192529017667
4784000000.0 0.32038136262176153 -0.9580059509240079
4788000000.0 0.2799918737846308 -1.0171064913851153
4791000000.0 0.27365498031280294 -0.9647747419379856
4794000000.0 0.29473148726959675 -1.019529720558215
4797000000.0 0.2558800361439708 -0.9751237054598866
4800000000.0 0.22833351754776104 -0.9837986240196404
4803000000.0 0.18779821247810072 -0.9805440030523687
4806000000.0 0.2184008476595088 -1.0142817776720647
4809000000.0 0.1673749147914959 -1.0111890001850163
4812000000.0 0.16306699063945093 -1.0122725338244412
4816000000.0 0.20259476749001812 -0.9741672231111378
4819000000.0 0.20805420651585202 -1.0380520936680893
4822000000.0 0.19824848955889351 -1.0439976250374958
4825000000.0 0.1959526080709748 -1.0134248525827305
4828000000.0 0.16512790866181612 -1.007365750163642
4831000000.0 0.11166584267392282 -1.049300605459635
4834000000.0 0.1763048454267918 -1.0004470369199108
4838000000.0 0.12795159266734277 -1.0399322924452679
4841000000.0 0.14531794810177714 -1.0158297849172429
4844000000.0 0.18535852721136165 -0.9998109469675803
4847000000.0 0.14606167965286396 -0.9893141141944792
4850000000.0 0.08967627035238206 -1.0502806124046635
4853000000.0 0.11024692100013306 -1.004551294360108
4856000000.0 0.06626474481933503 -1.0233210180610999
4859000000.0 0.10616570258242602 -1.0766002392117056
4862000000.0 0.10076621682895111 -1.0191330744014016
4866000000.0 0.05475304372988861 -1.0350127515158238
4869000000.0 0.04448005034185113 -1.0132632944998734
4872000000.0 0.021351525286121505 -1.0515667883785589
4875000000.0 0.09493959343177302 -1.072048777446446
4878000000.0 0.040825874629194854 -1.0424273153624097
4881000000.0 -0.007879558378210309 -1.0885676630129066
4884000000.0 0.025500252968642813 -1.0334035095826295
4888000000.0 0.040211963533225994 -1.0449290024620244
4891000000.0 0.014273860239644689 -1.0533961089659025
4894000000.0 -0.0023362308555986283 -1.016224883182542
4897000000.0 0.011631929628706815 -1.0194312882400816
4900000000.0 -0.03903326440150258 -1.0533553612971358
4903000000.0 -0.022258149500746158 -1.0495815056678572
4906000000.0 -0.02182102525134047 -1.0645067162480373
4909000000.0 -0.05035594588483735 -1.017823198781554
4912000000.0 -0.0561645511462652 -1.0736036347254538
4916000000.0 -0.04015839811725521 -1.0582864226228965
4919000000.0 -0.01928826939522034 -1.0878762908653221
4922000000.0 -0.07120137884385958 -1.041609464166418
4925000000.0 -0.11839252686640847 -1.0167057454176809
4928000000.0 -0.07218733215508226 -1.011979053337969
4931000000.0 -0.06930713957550312 -1.0280198034172692
4934000000.0 -0.10450527799291719 -0.9598839129311894
4938000000.0 -0.13178743406435578 -1.0036014999712224
4941000000.0 -0.1141362505941909 -1.0150502470999458
4944000000.0 -0.10637858947350984 -0.9849250967633838
4947000000.0 -0.15806368931530504 -0.999297937124785
4950000000.0 -0.17755769296207186 -1.0054905325706986
4953000000.0 -0.23178362156023768 -1.0559792968694937
4956000000.0 -0.18774262868194963 -1.0071208566296814
4959000000.0 -0.20858911822939571 -0.9917261678472309
4962000000.0 -0.1970832494555704 -1.0484504959169372
4966000000.0 -0.20491939036405182 -1.0360190011340145
4969000000.0 -0.19740809068678905 -1.0463490184753712
4972000000.0 -0.25930226372827947 -1.0549400615290003
4975000000.0 -0.18388534246942703 -1.000667369525697
4978000000.0 -0.25323113867222163 -1.0120207959981014
4981000000.0 -0.26644706349636804 -1.0204621014071644
4984000000.0 -0.2253424881143735 -0.993749950255484
4988000000.0 -0.24352157537253866 -0.989564444551363
4991000000.0 -0.24240695601491008 -1.0187253987191776
4994000000.0 -0.25334919035124354 -0.9974032933586551
4997000000.0 -0.33095640632132256 -1.0125540646750175
5000000000.0 -0.27889811305362533 -1.0297222221532507
5003000000.0 -0.2728543365489852 -1.0375874017422424
5006000000.0 -0.3323513576449054 -1.0295247536708516
5009000000.0 -0.2896878470475647 -1.0025869932618878
5012000000.0 -0.33820830985239175 -1.0056746047920693
5016000000.0 -0.3068765987704412 -1.06572310106102
5019000000.0 -0.32486095418832306 -0.9805819117548731
5022000000.0 -0.33216623580522064 -0.9949138961143269
5025000000.0 -0.3802602816252671 -1.0680811931126246
5028000000.0 -0.37708146998471004 -0.9895083309107917
5031000000.0 -0.387049809775981 -0.9777480732195737
5034000000.0 -0.41525793975112435 -0.9854663412087956
5038000000.0 -0.39385428887076024 -0.9306661365435891
5041000000.0 -0.35117482589405236 -0.9602916418881281
5044000000.0 -0.34040658908806554 -0.9614291213092049
5047000000.0 -0.3944670255210631 -0.9417926527462485
5050000000.0 -0.337266005678319 -0.9522253664383893
5053000000.0 -0.43612682788584445 -0.9919878092543677
5056000000.0 -0.3836039087466484 -0.9741183758779262
5059000000.0 -0.38360144907682164 -0.9794872036680974
5062000000.0 -0.4744607911158253 -0.959165243569227
5066000000.0 -0.42763957563844857 -0.9157671640345721
5069000000.0 -0.48007785152717963 -0.9542442652095541
5072000000.0 -0.46917861328697186 -0.8925239120132922
5075000000.0 -0.4359532473048924 -0.9359152723134854
5078000000.0 -0.5047506022359509 -0.8958053663934513
5081000000.0 -0.5000426215632 -0.8795123205748819
5084000000.0 -0.5129058433450316 -0.9492487700569066
5088000000.0 -0.4305886096995719 -0.9418028111098795
5091000000.0 -0.6059775200332194 -0.904701335806191
5094000000.0 -0.5165918484788299 -0.9187392928213628
5097000000.0 -0.4541011348265056 -0.9381342018179739
5100000000.0 -0.5147472618052348 -0.8835701719777852
5103000000.0 -0.5685726607298693 -0.8939691201147734
5106000000.0 -0.507295366960231 -0.9244552449303638
5109000000.0 -0.5637626128498342 -0.927643972748236
5112000000.0 -0.5395730107214717 -0.8571098313225474
5116000000.0 -0.49964859861960836 -0.8230778400382825
5119000000.0 -0.600545447278373 -0.8988339844767033
5122000000.0 -0.5696632902200167 -0.8549661605710712
5125000000.0 -0.5445574687690846 -0.837657234240133
5128000000.0 -0.6119035025596131 -0.8730845544970303
5131000000.0 -0.5839754582779546 -0.8197679601805966
5134000000.0 -0.5641390386746252 -0.8546946188197192
5138000000.0 -0.5942566920370455 -0.8471648501628115
5141000000.0 -0.5757165318708479 -0.8595697395776876
5144000000.0 -0.6279143020853202 -0.8561138052205186
5147000000.0 -0.6435615920895684 -0.8570630179739746
5150000000.0 -0.6182633889962148 -0.8127901879977485
5153000000.0 -0.6760933175578594 -0.8248709780227375
5156000000.0 -0.6773558507834617 -0.8309366002174126
5159000000.0 -0.6526848824862652 -0.8454242284885085
5162000000.0 -0.6702885835958564 -0.7868435419257355
5166000000.0 -0.6925548938497628 -0.7549430845203857
5169000000.0 -0.7024051331304302 -0.8212848202703623
5172000000.0 -0.6750565011544896 -0.7797503482236828
5175000000.0 -0.6910077884008156 -0.7938167015623571
5178000000.0 -0.6694230029646588 -0.767118438116019
5181000000.0 -0.7179655278625554 -0.7946452119942357
5184000000.0 -0.7036420470411949 -0.7963931599697837
5188000000.0 -0.6932260426863844 -0.769746543573821
