! Created with skrf 1.8.0 (http://scikit-rf.org).
# Hz S RI R 50.0 
!freq ReS11 ImS11
4000000000.0 0.9453519703754518 0.3120952768009606
4003000000.0 1.0063410635142267 0.3419797627452872
4006000000.0 0.9792930441674884 0.2590511820763576
4009000000.0 1.0086154666236646 0.3115034100172054
4012000000.0 0.9929385621455441 0.3365616202147699
4016000000.0 0.9993113715062918 0.23883758126336974
4019000000.0 0.9783718382937572 0.2745275948070204
4022000000.0 1.0107588781219214 0.29608297330596434
4025000000.0 0.9992147539248024 0.22827073838081077
4028000000.0 0.9988579210729714 0.21945221734212422
4031000000.0 0.9709552663503781 0.22100335767803156
4034000000.0 0.9846880609849784 0.19733595600458437
4038000000.0 1.0144460297378362 0.19114175542088313
4041000000.0 0.9810133092790252 0.17907663951742622
4044000000.0 1.0252715854727463 0.1828258482957626
4047000000.0 1.051790436646526 0.17843360398789895
4050000000.0 1.027629821778438 0.12300624091730636
4053000000.0 1.011964672891443 0.10519745398105784
4056000000.0 1.0174633486013178 0.13067547842658536
4059000000.0 0.9772268512365601 0.09412088576173361
4062000000.0 1.0334541528971408 0.0786096895296226
4066000000.0 0.9766717102076368 0.09711638881536633
4069000000.0 1.0256098010364725 0.016811574462909568
4072000000.0 0.9974382492048811 0.03287428941497056
4075000000.0 1.036045556575654 0.04305134730664201
4078000000.0 1.020047980748481 -0.00908388983794603
4081000000.0 1.0135986137695456 -0.010487113810337872
4084000000.0 1.0320983607690632 -0.0495938242248333
4088000000.0 0.9974752483823396 0.013075449076867862
4091000000.0 0.9990000489044809 -0.03870049205042575
4094000000.0 1.010939140228371 -0.060261545253114696
4097000000.0 1.020450384766465 -0.06388713045229805
4100000000.0 0.9935862947567395 -0.10896702434320277
4103000000.0 1.0155609311641962 -0.07277729772735128
4106000000.0 1.0553544875852081 -0.12770420162791069
4109000000.0 1.0256162070177102 -0.09436004692999936
4112000000.0 1.019678770665298 -0.12569429333356505
4116000000.0 1.0372019340285434 -0.14755930620145025
4119000000.0 1.0353700887856807 -0.14009224279668206
4122000000.0 0.9810165870149041 -0.20643940021161136
4125000000.0 0.9805151485785465 -0.19720415459156024
4128000000.0 0.9651101766401594 -0.18620235665054893
4131000000.0 0.9828948034728182 -0.23036534792322919
4134000000.0 0.9938058805477764 -0.23283968463444377
4138000000.0 0.9782282659071053 -0.25780816415883523
4141000000.0 0.9833981129317486 -0.2662061922177512
4144000000.0 0.9778199000940715 -0.23926943787558905
4147000000.0 0.9927739047067197 -0.2869542274070895
4150000000.0 0.9798340910098658 -0.3244973950002153
4153000000.0 0.9457697493385582 -0.28417394835850784
4156000000.0 0.971460326360434 -0.3156672884042511
4159000000.0 0.9252781574671953 -0.3322449214864578
4162000000.0 0.9601901586572241 -0.3412651273860748
4166000000.0 0.9649383193230725 -0.3884579295509813
4169000000.0 0.9111728624510917 -0.3794837523971528
4172000000.0 0.9238331861783445 -0.41515243361778137
4175000000.0 0.9574897108781734 -0.42358027792024017
4178000000.0 0.9285219614137138 -0.42348616667573163
4181000000.0 0.8737940414592751 -0.46792182809630173
4184000000.0 0.8697497447194825 -0.4189592276223
4188000000.0 0.871059938216137 -0.4677448725702845
4191000000.0 0.8976408678229101 -0.46395460398997934
4194000000.0 0.8707613662452522 -0.5117045017825161
4197000000.0 0.8981668642095741 -0.511515263622761
4200000000.0 0.889099488616216 -0.5142997958927117
4203000000.0 0.9012137113594905 -0.5544381399955672
4206000000.0 0.8562017268190901 -0.5458689285369247
4209000000.0 0.8134474989648853 -0.5784747358337137
4212000000.0 0.7991206989068508 -0.605066613349255
4216000000.0 0.8701189087784053 -0.5822601904454139
4219000000.0 0.8129917543274916 -0.6089327476038568
4222000000.0 0.7788896236724996 -0.5988337056497426
4225000000.0 0.7808937776175551 -0.6374067143624212
4228000000.0 0.7663588609100143 -0.6517408354543163
4231000000.0 0.7611876662443394 -0.6911917471479905
4234000000.0 0.7270449093248854 -0.6969194181295373
4238000000.0 0.7349912419317933 -0.7133815902659287
4241000000.0 0.6778609290827162 -0.7055779190971054
4244000000.0 0.7001441460484517 -0.6997029492213684
4247000000.0 0.679328931516092 -0.71854831933785
4250000000.0 0.6651206742598754 -0.7210729316872344
4253000000.0 0.6386948692580792 -0.7634431387498234
4256000000.0 0.6905273096767036 -0.8249392693678634
4259000000.0 0.6112475972401049 -0.7720585034549137
4262000000.0 0.612192014715045 -0.809966285507954
4266000000.0 0.5918814224359802 -0.8295162861633376
4269000000.0 0.5974222470498094 -0.8260692171537524
4272000000.0 0.5757668834081298 -0.8001540664436095
4275000000.0 0.587540238938813 -0.8204994299697512
4278000000.0 0.5594779680745439 -0.8705229732719555
4281000000.0 0.5319737350729892 -0.8614690948974688
4284000000.0 0.4940541977991711 -0.8883305362135174
4288000000.0 0.5135814347765818 -0.8626290299661964
4291000000.0 0.4605854599233026 -0.8534664208620271
4294000000.0 0.456108411842401 -0.9312578409385727
4297000000.0 0.46956427979109205 -0.8888769624528191
4300000000.0 0.4170087651408304 -0.8936434713567382
4303000000.0 0.38169781272341813 -0.9201628083153822
4306000000.0 0.39759546728988615 -0.9398813973181563
4309000000.0 0.3760607087199965 -0.9306226731343814
4312000000.0 0.37749744104142313 -0.9610914067403387
4316000000.0 0.32821467536196247 -0.9385331441867798
4319000000.0 0.33445884088575323 -0.9507267880934228
4322000000.0 0.27612158516453955 -0.9783918568344596
4325000000.0 0.2701471502568646 -0.9924283077403883
4328000000.0 0.24118864074010238 -0.9722996139660817
4331000000.0 0.20419684716785336 -0.9910948557929845
4334000000.0 0.19966633795354952 -1.0126454393617899
4338000000.0 0.1949185650597768 -0.9970656188679868
4341000000.0 0.15663523932253956 -0.9874602016801052
4344000000.0 0.13258485424298766 -1.010131355923969
4347000000.0 0.1040422892824025 -1.017327816234968
4350000000.0 0.07027050209816109 -0.9915829848123483
4353000000.0 0.05766999748511688 -0.9988749787761813
4356000000.0 0.01938786050105818 -1.020757869963159
4359000000.0 0.0014348288847766885 -1.0323702500569105
4362000000.0 -0.012577512557125803 -1.0257539554074668
4366000000.0 -0.052963023336749654 -1.0293903001587243
4369000000.0 -0.06681305461397878 -1.0189475045692098
4372000000.0 -0.10178019234795752 -1.0059795173279635
4375000000.0 -0.10424389187049424 -0.9981794331479656
4378000000.0 -0.14555080607631316 -1.025824406974228
4381000000.0 -0.1697667533661717 -1.0211056367273372
4384000000.0 -0.19115750309175406 -1.0037736177978498
4388000000.0 -0.22583108039174526 -1.0108927843706028
4391000000.0 -0.23132016946758382 -0.9879634921148713
4394000000.0 -0.28425238136165565 -1.011001269864537
4397000000.0 -0.3151800875367486 -1.0001169264235104
4400000000.0 -0.3162272670766483 -0.9586377775307133
4403000000.0 -0.36780578498791705 -0.9545474814694455
4406000000.0 -0.3976940720953577 -0.9519144091357814
4409000000.0 -0.37715884010508544 -0.9031624438482027
4412000000.0 -0.3755539936224237 -0.9480039361133408
4416000000.0 -0.4159828056170591 -0.9377154228333763
4419000000.0 -0.45324885154928807 -0.9164957503470947
4422000000.0 -0.5076303712462686 -0.8761157094195
4425000000.0 -0.5318623637612682 -0.8287539958633945
4428000000.0 -0.5438443306791901 -0.8571336731452079
4431000000.0 -0.5593164171245004 -0.8215688926821627
4434000000.0 -0.6282494565678627 -0.820096486961331
4438000000.0 -0.6135574545440212 -0.8049393328460501
4441000000.0 -0.6480982146425653 -0.7776410828212506
4444000000.0 -0.6907215654869663 -0.7931219808109886
4447000000.0 -0.6895868575150503 -0.8172128483037332
4450000000.0 -0.7596747861576243 -0.7686650619996125
4453000000.0 -0.688293615555193 -0.7143024418929996
4456000000.0 -0.7727801771789801 -0.6665430505133166
4459000000.0 -0.8075769647815085 -0.7862178538440356
4462000000.0 -0.8002313175790203 -0.6048089858059994
4466000000.0 -0.8035454351848142 -0.6880701559444388
4469000000.0 -0.8395066547211762 -0.5907261277733442
4472000000.0 -0.8365764771647225 -0.5736843128172618
4475000000.0 -0.9228636126975039 -0.5436709520222689
4478000000.0 -0.8388087696413555 -0.5037882268393162
4481000000.0 -0.9019094304072632 -0.5086330398783651
4484000000.0 -0.9773448253913062 -0.5068830105252624
4488000000.0 -0.9590635832874042 -0.42179710788059466
4491000000.0 -0.9594481254163907 -0.4795752265872404
4494000000.0 -0.9877754884572896 -0.4170901191311315
4497000000.0 -1.0059591129365537 -0.3611370089270963
4500000000.0 -1.0132332850905974 -0.24569189576081135
4503000000.0 -1.0204616852548323 -0.28183546011194205
4506000000.0 -1.0532083603101086 -0.26001989202718173
4509000000.0 -1.0309568115892311 -0.16971642741188084
4512000000.0 -1.0257553226123237 -0.21444749653476203
4516000000.0 -1.0552729355307142 -0.08277508707212856
4519000000.0 -1.0773430748869495 -0.10911014200993148
4522000000.0 -1.0478563957647282 -0.10984920179146318
4525000000.0 -1.0996830155531583 -0.024798929478824575
4528000000.0 -1.0262554718427286 0.013735359916155203
4531000000.0 -1.0351580510315548 0.09996102516258701
4534000000.0 -1.0786235994444504 0.10826061868188777
4538000000.0 -1.0639189368547175 0.12740792178055566
4541000000.0 -1.0201588662647185 0.10523862423218455
4544000000.0 -1.0684546674826414 0.18905366035029855
4547000000.0 -1.0385888008494462 0.25707947121714425
4550000000.0 -1.045036576628926 0.22426519044098195
4553000000.0 -0.9776492469097489 0.2929903870906098
4556000000.0 -1.0399299974756129 0.31438272772409426
4559000000.0 -0.996819669345235 0.3234150836669996
4562000000.0 -0.9441115716061821 0.3737230029074655
4566000000.0 -0.958752591016949 0.3808541276455151
4569000000.0 -0.9971688740706274 0.481080419902925
4572000000.0 -0.9272442051423593 0.5184640074534939
4575000000.0 -0.8834720384179828 0.4725532775547163
4578000000.0 -0.8937002848124445 0.5255496744343059
4581000000.0 -0.8388332920800875 0.5466485764352359
4584000000.0 -0.8406149217799751 0.60117271768412
4588000000.0 -0.8038163196309076 0.6099384406721621
4591000000.0 -0.8078216091651902 0.6757537103500603
4594000000.0 -0.8303618904354576 0.6583242954788874
4597000000.0 -0.7663152779554903 0.7283970742670123
4600000000.0 -0.7706032261403217 0.7285043574921026
4603000000.0 -0.7027844948669585 0.742605456005553
4606000000.0 -0.7216875622417195 0.7672935526692463
4609000000.0 -0.6603279203269959 0.7794978010545499
4612000000.0 -0.608923202850569 0.8086565311572084
4616000000.0 -0.5988046493879373 0.875367694905069
4619000000.0 -0.6094359426043566 0.8759836757875218
4622000000.0 -0.5470300280509698 0.8838952404852501
4625000000.0 -0.5241161244536225 0.894466760740925
4628000000.0 -0.4948005458082317 0.9579180645932276
4631000000.0 -0.4951874476471578 0.9232598594479882
4634000000.0 -0.43716815405195963 0.9567094993404259
4638000000.0 -0.3876983195320096 0.9640328947160003
4641000000.0 -0.3236142125858553 0.9671593406625218
4644000000.0 -0.3417490542098764 0.9597635874819619
4647000000.0 -0.2866386135711787 1.0034078797321933
4650000000.0 -0.22156612452268734 1.0076034856153362
4653000000.0 -0.1981984455347206 0.9826166480210428
4656000000.0 -0.2096584479380006 1.0363827965995782
4659000000.0 -0.17104921641910403 0.9797785717264234
4662000000.0 -0.1810707556984617 0.9944786295476366
4666000000.0 -0.10686322618935941 1.0476203274643703
4669000000.0 -0.09201552929246037 1.0509700377208144
4672000000.0 -0.010170850967176764 1.0633703113624713
4675000000.0 0.0036227929557948457 1.0133002249649683
4678000000.0 0.02064011004783177 1.0563934420668473
4681000000.0 0.1355121340027125 0.9932881565094579
4684000000.0 0.08358110385259543 0.9593411174422786
4688000000.0 0.06436164811499635 1.0208548976843201
4691000000.0 0.12221946902629002 1.0036566796075024
4694000000.0 0.19593750979137498 1.0075805926757655
4697000000.0 0.18996232902243623 1.0183416149187927
4700000000.0 0.1916413590675506 1.0366363170026107
4703000000.0 0.2969050951481033 1.0420196241818191
4706000000.0 0.2143659344862524 0.9510051611563602
4709000000.0 0.3031824593296706 0.9621325907157207
4712000000.0 0.3388468411112678 0.9279311508669652
4716000000.0 0.34982847793550453 0.9638212893777223
4719000000.0 0.4311150770411093 0.9273855627800998
4722000000.0 0.4667889232635549 0.9801032219353454
4725000000.0 0.46303379413211754 0.9010577932239974
4728000000.0 0.4873801308439534 0.8996469313766717
4731000000.0 0.459664589287912 0.8646027523642092
4734000000.0 0.5266165599747534 0.8765249924113203
4738000000.0 0.5149407740710756 0.81767928859609
4741000000.0 0.5292890122608109 0.8435103761507723
4744000000.0 0.5970707792649774 0.8502755683061872
4747000000.0 0.6552891346504257 0.8635583495337341
4750000000.0 0.636721702022724 0.7677795976199261
4753000000.0 0.7063143341886422 0.7742085386023104
4756000000.0 0.6775483414309982 0.7131677956552687
4759000000.0 0.6930865665800472 0.7304091879037378
4762000000.0 0.6653362880170626 0.7513044352409678
4766000000.0 0.7355345767377051 0.6995583933713687
4769000000.0 0.7812040702430649 0.7247958752779262
4772000000.0 0.7755107351468553 0.666337006823513
4775000000.0 0.7532799593098733 0.6358857168059109
4778000000.0 0.738387778369166 0.6882139493336821
4781000000.0 0.8152880890235891 0.6509510268080603
4784000000.0 0.8135297577501437 0.6457247037656992
4788000000.0 0.7968282835452657 0.6202141613232309
4791000000.0 0.854903169852063 0.548272438581358
4794000000.0 0.8439729793128745 0.5140112298945736
4797000000.0 0.9137981141980802 0.530571697135213
4800000000.0 0.922012950109213 0.4765480124761255
4803000000.0 0.8597484936602239 0.5095935765075872
4806000000.0 0.9038463497344833 0.4605202004140636
4809000000.0 0.89521223610665 0.4610001332958644
4812000000.0 0.9248340683618332 0.45994478146985956
4816000000.0 0.946384345465261 0.358312818416779
4819000000.0 0.9525104723234694 0.3447267058260735
4822000000.0 0.956995638487919 0.3360303406789206
4825000000.0 0.9487961521306356 0.32070296957260297
4828000000.0 0.9643670831466948 0.32159732725606716
4831000000.0 0.9575101249847429 0.32329907070354325
4834000000.0 0.9740381408688858 0.24568126788813727
4838000000.0 0.9714506636401309 0.23036749021387942
4841000000.0 0.9879450996521965 0.2139094446830238
4844000000.0 0.9913452836380707 0.19282588927991717
4847000000.0 1.0186822675755316 0.18106505632870476
4850000000.0 0.9718609436757366 0.16415752710623932
4853000000.0 1.0203008914854883 0.14164935066889364
4856000000.0 1.010340623883674 0.11386305175800307
4859000000.0 0.97872003083457 0.1156100202068854
4862000000.0 1.0008269915208075 0.10331085193868957
4866000000.0 1.0023417476915846 0.04926602882105494
4869000000.0 1.0134905988915666 0.05217962463788024
4872000000.0 0.9854938748932166 0.03479462443366928
4875000000.0 1.0294656783564464 -0.0016581401135098983
4878000000.0 1.0025259490519474 -0.024128052912892883
4881000000.0 0.9923724531163332 -0.02976226602125449
4884000000.0 0.9981619080544106 -0.033549967111372675
4888000000.0 1.026187136033138 -0.05067349980380337
4891000000.0 1.0061214984702131 -0.07237219055174036
4894000000.0 1.0119561107014357 -0.11930851252851125
4897000000.0 0.9927364871500926 -0.10890249474225512
4900000000.0 0.9922822971724656 -0.15991541106390358
4903000000.0 1.0090272126983415 -0.16024327689608425
4906000000.0 1.0148330978023736 -0.17742047324265464
4909000000.0 0.9977826506337759 -0.2007254687415549
4912000000.0 0.9775610116698009 -0.20127887780384918
4916000000.0 1.0042077086883316 -0.2196342848194209
4919000000.0 0.9894186030596286 -0.25879433980837985
4922000000.0 1.0162815007125399 -0.25872855886432555
4925000000.0 0.9692588085671783 -0.2691985361125204
4928000000.0 0.9711600332387795 -0.2990037830193344
4931000000.0 1.0007394314852438 -0.30699839466208234
4934000000.0 0.9323178222804239 -0.30696089718676617
4938000000.0 0.9317130776959285 -0.3619559642884708
4941000000.0 0.9418832444685482 -0.3700826745872434
4944000000.0 0.9522310330995833 -0.36905629305943355
4947000000.0 0.9395769630927089 -0.38277666384925063
4950000000.0 0.918673123913391 -0.3935125037851539
4953000000.0 0.9203537246855812 -0.4378149255116886
4956000000.0 0.9461527343322507 -0.4645450310429453
4959000000.0 0.8929313023448174 -0.44716644504833725
4962000000.0 0.8935788322582915 -0.46627349287419445
4966000000.0 0.9043206265555035 -0.4801262646765204
4969000000.0 0.8948436861918778 -0.4861555461470658
4972000000.0 0.9017544159808716 -0.5322057830019347
4975000000.0 0.8721732863186459 -0.5224591011476275
4978000000.0 0.8475552008878261 -0.5477858828329399
4981000000.0 0.8261893354045174 -0.5423878922921925
4984000000.0 0.8431891911331859 -0.5329674978743995
4988000000.0 0.83944452494885 -0.5594265686070647
4991000000.0 0.8963619335346544 -0.5583582496986348
4994000000.0 0.8445534676460335 -0.5810216361267124
4997000000.0 0.8185402450020429 -0.6143008472561431
5000000000.0 0.8237802090058803 -0.6261173384430991
5003000000.0 0.8047306973352417 -0.6597920559690766
5006000000.0 0.8122977710881246 -0.6647221196401629
5009000000.0 0.8041000755354458 -0.6584000387607939
5012000000.0 0.7451101627482448 -0.6796680191297342
5016000000.0 0.7731486898146396 -0.6722176709952007
5019000000.0 0.7326374265364728 -0.692573346553757
5022000000.0 0.748966558729803 -0.697180746953227
5025000000.0 0.7953085428680298 -0.7571015575376187
5028000000.0 0.7051242189847522 -0.7557462920403417
5031000000.0 0.6789558427685888 -0.730310287692069
5034000000.0 0.7172392371919437 -0.7922002777997282
5038000000.0 0.646235044060085 -0.7265828765190311
5041000000.0 0.7256028020231379 -0.7132943195618081
5044000000.0 0.6874369498141055 -0.7563858004793446
5047000000.0 0.6675620644705054 -0.7814589393279023
5050000000.0 0.7097760340918211 -0.7142101347275909
5053000000.0 0.6537800301357115 -0.8566428528660366
5056000000.0 0.6593076259413593 -0.7634779836095038
5059000000.0 0.6534281666859072 -0.7810432352226028
5062000000.0 0.6010448473762564 -0.8409874424244421
5066000000.0 0.6147201625017429 -0.7934711839887554
5069000000.0 0.5861338536315683 -0.845818281319663
5072000000.0 0.5723827883802298 -0.8166011234432198
5075000000.0 0.598918467494032 -0.8954288285357064
5078000000.0 0.5363549043386058 -0.928383751987653
5081000000.0 0.5209908744417439 -0.8513917026578289
5084000000.0 0.576711986214133 -0.9199770172964263
5088000000.0 0.5421806640340977 -0.8881264530736868
5091000000.0 0.5051699767597403 -0.9293342717015523
5094000000.0 0.5223381876059502 -0.8922667537227665
5097000000.0 0.5779240537931382 -0.9295814555809851
5100000000.0 0.49125688351271646 -0.9191860433185538
5103000000.0 0.4353844716543365 -0.8817314587057533
5106000000.0 0.5257926138431225 -0.9566165460106832
5109000000.0 0.46392597562200183 -0.926529002177755
5112000000.0 0.46231736906640253 -0.9380389335763886
5116000000.0 0.40231746401438695 -0.865385837676433
5119000000.0 0.4456181909864467 -0.9307659431695914
5122000000.0 0.45794036342026584 -0.9460724650448404
5125000000.0 0.38881122960593667 -0.9734761476320856
5128000000.0 0.387705563685009 -0.97760683961518
5131000000.0 0.39140644913439787 -0.9278538719186579
5134000000.0 0.3663977390589285 -0.9756905297070668
5138000000.0 0.3550671117695343 -0.9633146544327585
5141000000.0 0.41866571423225735 -0.9147316565002623
5144000000.0 0.3966522676173292 -0.9359615114486244
5147000000.0 0.3524144704701371 -0.9800727807326369
5150000000.0 0.3450266177646203 -0.9738312748490866
5153000000.0 0.2874543342479182 -0.9539943349506226
5156000000.0 0.3300557623611914 -1.0635971070811312
5159000000.0 0.2718904277278879 -1.0180851258495303
5162000000.0 0.2631409337724604 -0.9916588062395486
5166000000.0 0.23155290233316614 -1.1023048150501527
5169000000.0 0.2441994606255975 -1.045288650371007
5172000000.0 0.20616371719949597 -0.965868448008529
5175000000.0 0.23376075510816463 -1.0528807553056314
5178000000.0 0.1775277251598495 -0.9948737930027437
5181000000.0 0.22283851304993696 -1.0232345938455436
5184000000.0 0.15495883727572227 -1.0008975693099709
5188000000.0 0.2074320651047806 -0.9935130919673021
