! Created with skrf 1.8.0 (http://scikit-rf.org).
# Hz S RI R 50.0 
!freq ReS11 ImS11
4000000000.0 0.6377613450231879 0.7957634180200599
4003000000.0 0.7219182094459465 0.8029213198844024
4006000000.0 0.716437683536757 0.7137099511795535
4009000000.0 0.7099462392213313 0.7318935288828016
4012000000.0 0.7294370466400295 0.8061089399577875
4016000000.0 0.7544389653521587 0.729226801996038
4019000000.0 0.7074687988713264 0.7292746376991509
4022000000.0 0.6945512397790109 0.7603396672396376
4025000000.0 0.7317486105906371 0.6750239755882579
4028000000.0 0.7294253184604707 0.7031962760891786
4031000000.0 0.7372837052384815 0.6955342744237266
4034000000.0 0.7526750302302071 0.6205550488993207
4038000000.0 0.7566616780381676 0.705517818120546
4041000000.0 0.7545176836704278 0.6843082922234245
4044000000.0 0.795885970750537 0.727106389819151
4047000000.0 0.7511051965837346 0.7412543625311959
4050000000.0 0.8138944101977672 0.6661221408277327
4053000000.0 0.7998173888396636 0.6249613337844093
4056000000.0 0.7610860014838946 0.6489695223862286
4059000000.0 0.786365432594397 0.6459824567054449
4062000000.0 0.8009320528670486 0.6165742542963488
4066000000.0 0.7547289267921469 0.6128477042211463
4069000000.0 0.8662047394953383 0.6150628922885143
4072000000.0 0.7717204253678527 0.6251316041798989
4075000000.0 0.8421197780346034 0.6933635803199913
4078000000.0 0.845334093430334 0.6506848416055979
4081000000.0 0.8181485591356956 0.6429185556693059
4084000000.0 0.8408289640900423 0.5800707440448607
4088000000.0 0.802197204413159 0.6537301958662447
4091000000.0 0.8473385572130488 0.6338425176431872
4094000000.0 0.8641719900751712 0.6028959049784413
4097000000.0 0.826365245495228 0.5833590367155903
4100000000.0 0.8466023965352573 0.554328732789177
4103000000.0 0.8618697634627883 0.5778675849713117
4106000000.0 0.9213515822349223 0.5469964268846537
4109000000.0 0.8582408121966416 0.4917590522050775
4112000000.0 0.8520052077290854 0.5117964028412645
4116000000.0 0.8755721863523648 0.5492144322262296
4119000000.0 0.871921372900454 0.49886254187715284
4122000000.0 0.9140409168497708 0.4849766515552427
4125000000.0 0.8728419753594716 0.5036959535486218
4128000000.0 0.8520850957266615 0.4735129796146641
4131000000.0 0.8624192563236435 0.4853476123243806
4134000000.0 0.8801877299618305 0.4727385541467538
4138000000.0 0.8766175446527342 0.4482539562298839
4141000000.0 0.9146683183315355 0.45074497454553997
4144000000.0 0.9222959321897686 0.4900426063796685
4147000000.0 0.9515970371103012 0.45131835905119394
4150000000.0 0.9344505731127272 0.4611850488993681
4153000000.0 0.9074898616748844 0.4341321221861919
4156000000.0 0.9541906097257762 0.47579934156069537
4159000000.0 0.9059291837918875 0.43536065509310523
4162000000.0 0.9138527932957461 0.42201152015045895
4166000000.0 0.9720394069381348 0.40087687263523075
4169000000.0 0.9242802086796246 0.36763729619421814
4172000000.0 0.9480890959566306 0.42000881872582546
4175000000.0 0.931990513984498 0.381939052917393
4178000000.0 0.9410939348990268 0.38217906156818704
4181000000.0 0.951762636799603 0.3647707607522185
4184000000.0 0.9387982563327111 0.38927837747723776
4188000000.0 0.9562144569601276 0.3196779271423309
4191000000.0 0.9334290101950683 0.3699376035672269
4194000000.0 0.9568673374857699 0.3201952220057278
4197000000.0 0.9816876730655222 0.3379192511815285
4200000000.0 0.9597923353376578 0.31263845729587014
4203000000.0 0.9945500095634051 0.3379092979302468
4206000000.0 0.9915180450386588 0.3187681085572243
4209000000.0 0.9615379089878915 0.28682962213768787
4212000000.0 0.9916725919937432 0.27513648367882515
4216000000.0 0.9858250701950029 0.28435002267843895
4219000000.0 0.9950467500559322 0.30111422758072337
4222000000.0 0.9793462483029562 0.23663155881534276
4225000000.0 0.9789110572699975 0.25955269916858603
4228000000.0 0.9863752615853496 0.24115083782205923
4231000000.0 0.9863331721530478 0.20145447615562811
4234000000.0 1.019763109917007 0.22414989030965105
4238000000.0 1.0024908097251557 0.20542159627376946
4241000000.0 0.9890880652035348 0.20003867062038122
4244000000.0 0.9976003305788492 0.1951447085694622
4247000000.0 0.9925436587845714 0.19325259283607799
4250000000.0 0.983444074318073 0.17886254466449614
4253000000.0 0.9720235401123394 0.1574333048804284
4256000000.0 1.0263008076666933 0.1542270542207591
4259000000.0 0.9725205765173885 0.14542309374977166
4262000000.0 1.0000210269696548 0.13040152294018523
4266000000.0 1.0276209835365255 0.10845335244044371
4269000000.0 0.9887531296287055 0.14338184270610588
4272000000.0 0.9977366408488533 0.11466305396855625
4275000000.0 1.0245948436630652 0.11118850038451517
4278000000.0 1.0323609153708413 0.10794724888838722
4281000000.0 1.0131655106081825 0.1025328659672342
4284000000.0 1.0188703834938908 0.06074473025177121
4288000000.0 0.99275466154924 0.1093139845485904
4291000000.0 0.9803926313845409 0.06349116606102943
4294000000.0 0.9724068073810357 0.06330091058444758
4297000000.0 0.9934710169483022 0.07707378770106803
4300000000.0 1.0013181581333388 0.05591341316200147
4303000000.0 1.0110428278283892 0.024167736099230855
4306000000.0 1.0188891615502689 0.04125613859718899
4309000000.0 1.0054718538151255 0.013834825691962496
4312000000.0 1.0209703153298773 0.049119120787084386
4316000000.0 1.0517380167774104 0.009417989853731962
4319000000.0 0.9992735468230511 -0.014753763509645718
4322000000.0 0.9902229588942828 -0.008340410328560283
4325000000.0 1.018753672313578 -0.01575599229117114
4328000000.0 1.0138678313923108 -0.04406161798508724
4331000000.0 1.0150986516869696 -0.08166077461420158
4334000000.0 1.0148751391836313 -0.042078123635553036
4338000000.0 0.9919751036326461 -0.05695557601082182
4341000000.0 1.018264054986041 -0.03193612163038667
4344000000.0 1.0117512082001943 -0.07746093097899957
4347000000.0 0.9985641318824308 -0.10855255052436927
4350000000.0 0.9829489149520082 -0.09418899456887722
4353000000.0 0.9999103708012071 -0.08346756644762594
4356000000.0 0.9853103472618581 -0.14513381639988465
4359000000.0 0.9552259379186998 -0.10180689840987199
4362000000.0 1.0026197335437455 -0.1763895414491021
4366000000.0 1.003760736733877 -0.1547320691294007
4369000000.0 0.9677700668264337 -0.14531147106805245
4372000000.0 0.9679913418868897 -0.18998209016627765
4375000000.0 0.9848774925287922 -0.15385058411720565
4378000000.0 0.9507531576046071 -0.17355686722098904
4381000000.0 0.9825003572161379 -0.1708397182942623
4384000000.0 1.0443197840127156 -0.2094120042148355
4388000000.0 0.9756650390290864 -0.19925334333506256
4391000000.0 0.9769747017612391 -0.2239422495030251
4394000000.0 0.9526580140340128 -0.2301401906120058
4397000000.0 0.9753957003489853 -0.24664949127631092
4400000000.0 0.9957486534102022 -0.2530719966160124
4403000000.0 0.997990846280013 -0.2564055095288774
4406000000.0 0.9659505944775798 -0.27501739935521574
4409000000.0 0.9847663641803099 -0.28531323894392047
4412000000.0 0.9595674116409185 -0.3318222797614345
4416000000.0 0.945833112539165 -0.3027442910586742
4419000000.0 0.9649538188162713 -0.3230064855526835
4422000000.0 0.9450146889770847 -0.2834454039334522
4425000000.0 0.9755092069139656 -0.29862399501192965
4428000000.0 0.9514357677330157 -0.32604325966267106
4431000000.0 0.9722428645775529 -0.3224080809796589
4434000000.0 0.9348407203039493 -0.3511394409662556
4438000000.0 0.962688905263021 -0.35693760347491854
4441000000.0 0.9693521701918191 -0.3576011114916642
4444000000.0 0.9359106943431506 -0.3455762771266898
4447000000.0 0.9234222905172768 -0.3803925937659717
4450000000.0 0.9362285538998361 -0.3771474450443443
4453000000.0 0.9482379991059203 -0.4067583823159907
4456000000.0 0.8977579173367561 -0.39938642766873067
4459000000.0 0.8715735120542154 -0.4019229439749144
4462000000.0 0.9706239694369725 -0.43952102019502093
4466000000.0 0.9441150650743596 -0.4370790024118989
4469000000.0 0.9277956238502787 -0.40861091290173
4472000000.0 0.9059607165722311 -0.4471789669737583
4475000000.0 0.8827650383911595 -0.426076804173812
4478000000.0 0.9198336419786871 -0.4891041459267945
4481000000.0 0.8551358260769577 -0.4673294021867701
4484000000.0 0.8570979218396642 -0.5156318463407444
4488000000.0 0.865139683870748 -0.48873089058035407
4491000000.0 0.8758666201593404 -0.5088341817729232
4494000000.0 0.865049433423515 -0.4892502196772389
4497000000.0 0.8644792393846021 -0.48660840096489694
4500000000.0 0.8679100476415937 -0.4987340599376908
4503000000.0 0.8851486315242636 -0.519636227467553
4506000000.0 0.8385978060517847 -0.541688409779384
4509000000.0 0.8438906210903505 -0.5230859541882958
4512000000.0 0.8326400791769195 -0.5419740214424088
4516000000.0 0.8696588404071877 -0.5584890943828464
4519000000.0 0.8433351401830215 -0.5287522262366202
4522000000.0 0.8132078844019455 -0.5686528508291928
4525000000.0 0.8440247818533824 -0.5502071214374181
4528000000.0 0.8478215558156119 -0.572160234762158
4531000000.0 0.8323682900991356 -0.5795677298095976
4534000000.0 0.8041916009295997 -0.5842248462305804
4538000000.0 0.8013180509804803 -0.5977095771252867
4541000000.0 0.7772945764606447 -0.6178493199963675
4544000000.0 0.800639525402359 -0.6048720996914119
4547000000.0 0.7828981437236205 -0.6060509263449938
4550000000.0 0.770724568375843 -0.6536258467594924
4553000000.0 0.7756495303698578 -0.6446691636144412
4556000000.0 0.7386381280456356 -0.6347408357935085
4559000000.0 0.7663199808951259 -0.6578029144644102
4562000000.0 0.7716584864964178 -0.6596501858634227
4566000000.0 0.7604430247369178 -0.6787422659428759
4569000000.0 0.726515839331133 -0.6654538175754823
4572000000.0 0.7258018970491495 -0.6643633309998653
4575000000.0 0.7318787259990578 -0.6965248152637262
4578000000.0 0.72653407087208 -0.6949012792550378
4581000000.0 0.7116932922825944 -0.7142961958350094
4584000000.0 0.7062072723165487 -0.7065204226632296
4588000000.0 0.7190411261219758 -0.7136845328417453
4591000000.0 0.7162075488668218 -0.7112343573039311
4594000000.0 0.6859093705125663 -0.730612198499914
4597000000.0 0.6884464804611214 -0.7563096936094216
4600000000.0 0.668942100570092 -0.7435334529778983
4603000000.0 0.6729712659104101 -0.7546642381651765
4606000000.0 0.6868762162837093 -0.7719864692189733
4609000000.0 0.6723205340966854 -0.7558186424417324
4612000000.0 0.6613476787897519 -0.7608559309729477
4616000000.0 0.6339326224328614 -0.7506860894435186
4619000000.0 0.6340985309760716 -0.7881170904194171
4622000000.0 0.6399560268847717 -0.7802035967622363
4625000000.0 0.5998887347966563 -0.7940333402948399
4628000000.0 0.5977022881576008 -0.7909133877887314
4631000000.0 0.6142347103248917 -0.8107341918556282
4634000000.0 0.5977873315106207 -0.8094026793748933
4638000000.0 0.5891359813264991 -0.8152583994967971
4641000000.0 0.6062581637495911 -0.8125106775718338
4644000000.0 0.5884723605445142 -0.816496778444275
4647000000.0 0.5802872825815336 -0.8381212723123433
4650000000.0 0.552885362479768 -0.8363784518068873
4653000000.0 0.5870540465703141 -0.8506272411435775
4656000000.0 0.5388631773918047 -0.856908461849383
4659000000.0 0.5441529400363669 -0.8468284518450404
4662000000.0 0.5270606941240523 -0.8745806369338895
4666000000.0 0.5315932669710605 -0.865329514131107
4669000000.0 0.519947964109051 -0.8728243277276762
4672000000.0 0.5166077066670778 -0.8670274173735474
4675000000.0 0.5127269560874748 -0.8676505099775601
4678000000.0 0.4801372176420043 -0.8684449499811949
4681000000.0 0.4688430037768945 -0.8888338804818686
4684000000.0 0.44649983996650155 -0.9292915971709494
4688000000.0 0.4448094333261752 -0.8813801942169457
4691000000.0 0.4776627949253984 -0.9052514773847737
4694000000.0 0.46456461970492446 -0.8826697886349271
4697000000.0 0.4177111204008582 -0.8789879267092455
4700000000.0 0.46400132136673666 -0.8953911706158266
4703000000.0 0.46804965773162466 -0.8588197333417409
4706000000.0 0.41430998783895445 -0.9471517460725741
4709000000.0 0.42803020205169484 -0.9237423223369619
4712000000.0 0.4226042290842339 -0.9018470647055212
4716000000.0 0.40728836140338787 -0.9588793796401851
4719000000.0 0.42964020802200553 -0.9358024552094982
4722000000.0 0.40048800293827747 -0.9330911587058006
4725000000.0 0.40506204886807573 -0.922066325540114
4728000000.0 0.3341562887356261 -0.9331242796864281
4731000000.0 0.3927349305179274 -0.9607238287763187
4734000000.0 0.3590568143808295 -0.9276989319620526
4738000000.0 0.38588976207093995 -0.9630722611106052
4741000000.0 0.33340466445452366 -0.9934857052606139
4744000000.0 0.34409180747060514 -0.9786179948165448
4747000000.0 0.3531004900103072 -0.9371174172632559
4750000000.0 0.3282315830381437 -0.9808448177853278
4753000000.0 0.3196778471633818 -0.9802300805252114
4756000000.0 0.26286410386067616 -0.9792373331891768
4759000000.0 0.29859916246279766 -1.0081064966522801
4762000000.0 0.2670605710144842 -1.002802675200856
4766000000.0 0.2633621817994912 -0.9906477990596559
4769000000.0 0.26525718000503873 -1.0056602696479882
4772000000.0 0.25473469242159497 -0.9854939990744706
4775000000.0 0.2514725096946211 -1.0171909917834832
4778000000.0 0.23624935633768848 -0.9994452286174468
4781000000.0 0.25690746749258775 -0.9800042952222325
4784000000.0 0.23925260613659435 -0.9741499946285693
4788000000.0 0.19158283911498025 -1.0303285110347051
4791000000.0 0.1921030632386212 -1.0001527582023522
4794000000.0 0.21503265105588495 -1.0167079003900987
4797000000.0 0.1864745976003194 -0.9809705706100541
4800000000.0 0.18045869071617843 -0.9953388192061543
4803000000.0 0.1447127996703143 -0.9880601915346667
4806000000.0 0.15143785871297047 -1.0237131139617979
4809000000.0 0.09875224906666173 -1.0095153943816053
4812000000.0 0.1110970307066967 -0.9898340325236474
4816000000.0 0.14969213242205426 -0.999598627771249
4819000000.0 0.13782323699956364 -1.0319888786029703
4822000000.0 0.12930762466880896 -1.0701297071499105
4825000000.0 0.1493894394336442 -1.0380595384400066
4828000000.0 0.09111524541601088 -1.0085168241108118
4831000000.0 0.03865337190569394 -1.0194679966326965
4834000000.0 0.11950106697459228 -1.0372396793773635
4838000000.0 0.04116159944640205 -1.03603341592442
4841000000.0 0.02784973633022568 -1.0140417379081073
4844000000.0 0.09180192733547426 -1.014703608174321
4847000000.0 0.06740199064901076 -0.9771390109905089
4850000000.0 0.019179394016931313 -1.054955376868684
4853000000.0 0.024858405745735418 -0.9911559870121378
4856000000.0 0.033488796958390785 -1.0174592713975716
4859000000.0 0.016483950239750085 -1.0639286275986248
4862000000.0 0.051200925234253236 -0.9874095944156708
4866000000.0 -0.03148229542097849 -1.039978604740327
4869000000.0 -0.0214650778615456 -1.0261656402930617
4872000000.0 -0.05306812269845947 -1.0433825500612364
4875000000.0 6.300420813974694e-05 -1.0732663134462241
4878000000.0 -0.035795683461849616 -1.0310589377275412
4881000000.0 -0.08573848660183554 -1.0731639105344355
4884000000.0 -0.03204731879051542 -1.0127227017376663
4888000000.0 -0.039230737689636086 -1.012847828443719
4891000000.0 -0.06718947542303333 -1.0617857717596637
4894000000.0 -0.10796172878519458 -1.0124659615886196
4897000000.0 -0.04373326157212351 -1.0122490750854574
4900000000.0 -0.10674803382767871 -1.0452983670724036
4903000000.0 -0.0717481052615914 -1.0780228436725228
4906000000.0 -0.11974318890666973 -1.0392246409814865
4909000000.0 -0.13318397601309612 -1.0253672452195939
4912000000.0 -0.15974855551248862 -1.0199519564911859
4916000000.0 -0.122560076035889 -1.019123019509771
4919000000.0 -0.15693539448088123 -1.0415707427416763
4922000000.0 -0.11811506416910578 -1.032667193309406
4925000000.0 -0.18465478806291946 -0.9799600367469506
4928000000.0 -0.12138713924437718 -1.045989699423935
4931000000.0 -0.17623500731567637 -1.0397538445110392
4934000000.0 -0.179879167998714 -0.9672141397268842
4938000000.0 -0.19913594069006196 -0.97864626299682
4941000000.0 -0.19309650395451894 -0.997750511829011
4944000000.0 -0.18683960385333173 -0.9674467119523034
4947000000.0 -0.215032561030314 -0.9743666067853165
4950000000.0 -0.2331165332043817 -0.9812245144994483
4953000000.0 -0.2692620302131053 -1.016501904166545
4956000000.0 -0.2583391072300231 -0.9815759510564839
4959000000.0 -0.2866180202812857 -0.9634632975381073
4962000000.0 -0.27808928421506507 -1.0166533301490535
4966000000.0 -0.2712487454248811 -1.0389177551063657
4969000000.0 -0.28902197048811235 -1.0505918999769575
4972000000.0 -0.29535637282904825 -0.9819675071289841
4975000000.0 -0.25811035077042477 -0.9924627340305053
4978000000.0 -0.33937374480242477 -0.9806479467850749
4981000000.0 -0.3658603443559302 -0.9963714417379184
4984000000.0 -0.3136406625515872 -0.9485813657646279
4988000000.0 -0.3333712198939313 -0.9810930081392151
4991000000.0 -0.30268859454113545 -0.983107520876429
4994000000.0 -0.30626024794854834 -0.9842035385556138
4997000000.0 -0.36118127610974354 -0.9646608467016724
5000000000.0 -0.40652743914987155 -0.9895379662310482
5003000000.0 -0.38396656942024204 -1.002579381479966
5006000000.0 -0.395084275687119 -0.9911154501464955
5009000000.0 -0.39835109314740635 -0.9556550212497149
5012000000.0 -0.40066036519539333 -0.9598072073655142
5016000000.0 -0.3971883351248832 -1.0028658415259082
5019000000.0 -0.4395703724055715 -0.9204370865114189
5022000000.0 -0.43700852340266394 -0.9455501450291963
5025000000.0 -0.4623177921528642 -0.9949102922967843
5028000000.0 -0.453614003884808 -0.9382764390004135
5031000000.0 -0.45708143494455356 -0.9382665255469688
5034000000.0 -0.49057075599234845 -0.9476263820324546
5038000000.0 -0.4594591175606203 -0.906626962385594
5041000000.0 -0.4180887061843922 -0.9627549804433612
5044000000.0 -0.42795447583540736 -0.9202510069947173
5047000000.0 -0.4581534764094192 -0.9257353747250184
5050000000.0 -0.4103576599280596 -0.9301058659322388
5053000000.0 -0.5408748965132097 -0.9417709628848134
5056000000.0 -0.450354921110671 -0.9339593501063232
5059000000.0 -0.47330991612689116 -0.9522689136101089
5062000000.0 -0.5687685269932178 -0.9162339655478107
5066000000.0 -0.5124633426237684 -0.8967258151704354
5069000000.0 -0.5578710022824402 -0.9023194979249837
5072000000.0 -0.5064614533583166 -0.8935052588564065
5075000000.0 -0.5174908207253793 -0.9190996358653103
5078000000.0 -0.5523561165474464 -0.8515870480251244
5081000000.0 -0.5817407821613417 -0.8414070214382686
5084000000.0 -0.5959880999259174 -0.8651678801083691
5088000000.0 -0.5443956472952868 -0.8891951636768642
5091000000.0 -0.6524590890440385 -0.8154447168779984
5094000000.0 -0.5710512117069595 -0.8059995808644608
5097000000.0 -0.6060923533436101 -0.8676778186200713
5100000000.0 -0.5763574781267596 -0.8527925217268283
5103000000.0 -0.6630868539875402 -0.8317274566966918
5106000000.0 -0.5586858744434064 -0.7932270777377518
5109000000.0 -0.5732314546216267 -0.8114266000011967
5112000000.0 -0.6023711843455428 -0.7735814439098054
5116000000.0 -0.603932711880483 -0.809057828272768
5119000000.0 -0.7133450067806099 -0.8024770795407168
5122000000.0 -0.6207101374857903 -0.8259678480910873
5125000000.0 -0.6421290674082266 -0.8095422328997568
5128000000.0 -0.6047804252131831 -0.8122853741114902
5131000000.0 -0.6558943887334598 -0.8188662123158831
5134000000.0 -0.6370417000640034 -0.740073535632356
5138000000.0 -0.647041729194715 -0.7947240180875731
5141000000.0 -0.6603454551932741 -0.7887263277091723
5144000000.0 -0.6738464367427937 -0.7532949172412751
5147000000.0 -0.6751785932333623 -0.7668385673218429
5150000000.0 -0.6910157322580058 -0.7863329342123461
5153000000.0 -0.7371606759552813 -0.7547704629884082
5156000000.0 -0.7271858238382923 -0.7695490691570906
5159000000.0 -0.7124415916327842 -0.7443162547569204
5162000000.0 -0.7521590392287577 -0.72062664559067
5166000000.0 -0.733066530205205 -0.7300146345807816
5169000000.0 -0.794989871052035 -0.7317052801135739
5172000000.0 -0.7478887320797675 -0.7045890346726837
5175000000.0 -0.7832335259505273 -0.747685609891741
5178000000.0 -0.8057492790929179 -0.6979203012069369
5181000000.0 -0.7442540860319705 -0.7170395380728415
5184000000.0 -0.7747139067855194 -0.668646473278831
5188000000.0 -0.7671222328063786 -0.6833920804506225
