! Created with skrf 1.8.0 (http://scikit-rf.org).
# Hz S RI R 50.0 
!freq ReS11 ImS11
4000000000.0 -0.9138581827501793 0.4270185857923325
4003000000.0 -0.9339709819691763 0.43831132696460384
4006000000.0 -0.8853928730364398 0.5325310294502108
4009000000.0 -0.9073528859142768 0.49960439511062726
4012000000.0 -0.9768341387170326 0.5650272218858379
4016000000.0 -0.8636102170116243 0.5407931599180125
4019000000.0 -0.8546936929721616 0.601886564533477
4022000000.0 -0.8758442417604752 0.5322155716014217
4025000000.0 -0.7769332519323565 0.687164113345429
4028000000.0 -0.8403514516055045 0.6533005807014982
4031000000.0 -0.7926674816783741 0.6032725032464761
4034000000.0 -0.7771575630958067 0.6643383332432159
4038000000.0 -0.8067904681783604 0.7703321962273162
4041000000.0 -0.736699582276539 0.7083202651685148
4044000000.0 -0.7595192717421279 0.7995041583279896
4047000000.0 -0.7755953461381725 0.6735472275174889
4050000000.0 -0.6636061654044133 0.7769387586061607
4053000000.0 -0.6628115679111514 0.7783763537700612
4056000000.0 -0.6876001144934007 0.8244597340803418
4059000000.0 -0.7285471367674053 0.8125155365580192
4062000000.0 -0.5941005133154543 0.8968651024718839
4066000000.0 -0.5428276257135585 0.7911780662354869
4069000000.0 -0.6294462771269675 0.8953371782044465
4072000000.0 -0.6766049351125485 0.7960803621613297
4075000000.0 -0.6790549512188473 0.8347607627195996
4078000000.0 -0.6070120752451933 0.9089963229810238
4081000000.0 -0.6527323068960474 0.8758414887134334
4084000000.0 -0.5110254228516056 0.9110344878046914
4088000000.0 -0.5437435740339059 0.8985165327661456
4091000000.0 -0.5752566273478983 1.0182551251997294
4094000000.0 -0.5241023788236179 0.9740944868238816
4097000000.0 -0.4552015175232329 0.9252722139205578
4100000000.0 -0.44250138284728513 0.9808186670973926
4103000000.0 -0.49566660232345344 0.9701580139161274
4106000000.0 -0.4758932452847876 0.9699181913460975
4109000000.0 -0.3664937760363565 0.9987430135789903
4112000000.0 -0.39275045951949517 0.9878482183584285
4116000000.0 -0.4275627170336524 0.9771529496554787
4119000000.0 -0.32318801781878426 1.0090279573128524
4122000000.0 -0.3127354578802959 1.0429145608614467
4125000000.0 -0.26788697777284276 1.0805756281614454
4128000000.0 -0.3219972633103476 0.9377495541304461
4131000000.0 -0.2920709366419595 0.9748126928623688
4134000000.0 -0.2748937316664929 1.0127063764810376
4138000000.0 -0.24064845286893455 1.004920050214727
4141000000.0 -0.19696982933957982 0.9876973061722498
4144000000.0 -0.15794059482129236 1.0588735595890733
4147000000.0 -0.12704522901802284 0.9657618742972311
4150000000.0 -0.21122835882230076 1.0633315868051578
4153000000.0 -0.16155669284818847 1.074515897014126
4156000000.0 -0.16146183460603647 1.0867401063001367
4159000000.0 -0.10726227969447341 1.0694195167928853
4162000000.0 -0.0909317931624242 1.0172900556313336
4166000000.0 -0.03634621717479253 1.025768440402255
4169000000.0 -0.04274764481056778 1.0431904213578167
4172000000.0 -0.12230319823357616 1.0743147025473259
4175000000.0 -0.06489534826216886 1.061981089982624
4178000000.0 -0.023613986569557655 1.0794124316052747
4181000000.0 -0.05861679075755516 1.094906197100126
4184000000.0 0.0017565745511611275 1.090880172259071
4188000000.0 0.022971875375832923 1.0527742825752622
4191000000.0 -0.02275977305624735 1.0256494398159732
4194000000.0 0.07232795931597363 1.0214032134225968
4197000000.0 0.07387948013048037 1.0435991084629024
4200000000.0 0.09543057447104977 0.9896944425942426
4203000000.0 0.06254326614431077 1.0167999255266222
4206000000.0 0.09538323188148196 1.033423994922971
4209000000.0 0.08294117170310594 1.0510446751815248
4212000000.0 0.11664406226555579 1.031781729052724
4216000000.0 0.174529972960159 0.9990973232988132
4219000000.0 0.12832473870180763 1.0594445473895675
4222000000.0 0.17999109993193968 1.067684704199078
4225000000.0 0.18847360239113245 0.9619017635588752
4228000000.0 0.13485652118485675 1.0447741918920468
4231000000.0 0.17742432822458287 1.0308420329624766
4234000000.0 0.15462644605701314 1.025242938344363
4238000000.0 0.21977152981263764 1.0314269911786416
4241000000.0 0.2268574499639734 1.0440703885272147
4244000000.0 0.22163269447486483 1.0068854623000176
4247000000.0 0.24041558523731604 1.055797465068505
4250000000.0 0.2934439564692899 1.0236232730661219
4253000000.0 0.24077228250472735 1.0149960345474918
4256000000.0 0.31076571367696293 0.9489997365710823
4259000000.0 0.32849935295942834 1.008977832786474
4262000000.0 0.32573039121104025 0.996275515375847
4266000000.0 0.30931306382147544 0.9933911989565128
4269000000.0 0.35179448486538284 1.0038534907926022
4272000000.0 0.38422867369103075 0.9734301006385664
4275000000.0 0.38671667907712015 0.9569273304753849
4278000000.0 0.37733488310942803 0.9342873508907673
4281000000.0 0.3902710280166565 0.9423354823136694
4284000000.0 0.43354532052119243 0.949456223611578
4288000000.0 0.432809662027447 0.9526873469186121
4291000000.0 0.41947470406001564 0.9419405796296952
4294000000.0 0.45893584765341194 0.9342036957645333
4297000000.0 0.47911643667380654 0.9135663371810184
4300000000.0 0.5190762122575625 0.9421077710681877
4303000000.0 0.48385008647641264 0.9299854062897103
4306000000.0 0.5356109265244235 0.9061103157619561
4309000000.0 0.4899593012168872 0.9080874974895903
4312000000.0 0.5317888198724647 0.8866604608721259
4316000000.0 0.49599765880485946 0.903520594530976
4319000000.0 0.5364225638950366 0.8925302223352974
4322000000.0 0.5521732279061374 0.8392871476469983
4325000000.0 0.5309199914247472 0.8691509199197966
4328000000.0 0.5799557498703003 0.8625420271606541
4331000000.0 0.6068100376948374 0.8507199044637438
4334000000.0 0.5830511794089681 0.8625585445103902
4338000000.0 0.6048639994349402 0.8410596283864814
4341000000.0 0.6025269504125011 0.784013375488023
4344000000.0 0.6306305266030078 0.8128203072488772
4347000000.0 0.625935239958145 0.8098775349190486
4350000000.0 0.6529750325501736 0.7927829193680276
4353000000.0 0.6487276427694253 0.8052796451393035
4356000000.0 0.658923187345398 0.8254446256961221
4359000000.0 0.6528332262202482 0.7694663573991253
4362000000.0 0.6789448782446168 0.7570611798204423
4366000000.0 0.7187827410214194 0.7612569314136162
4369000000.0 0.6786760790667276 0.743131352434403
4372000000.0 0.7156164392638031 0.741264855874566
4375000000.0 0.6661850377511607 0.6955777236369873
4378000000.0 0.7094849136507401 0.736059648845675
4381000000.0 0.7170812067975916 0.7573801554237611
4384000000.0 0.7397077806882874 0.7379583510090812
4388000000.0 0.7254038019615249 0.6703838092498182
4391000000.0 0.756588629952275 0.6968024334753422
4394000000.0 0.7432522806517515 0.7004913653546025
4397000000.0 0.7537776418839843 0.6721197777646175
4400000000.0 0.7582627918878744 0.7118602566186238
4403000000.0 0.7825570310080624 0.6891839250800087
4406000000.0 0.8153028897826933 0.6043614744551545
4409000000.0 0.7952743975516057 0.6671970725981329
4412000000.0 0.8187569167811815 0.6214053017559802
4416000000.0 0.8195594663855139 0.6178280272365989
4419000000.0 0.804930781315057 0.6099010303993699
4422000000.0 0.8155848303776791 0.6121406013641042
4425000000.0 0.8114320354733512 0.6326434232964803
4428000000.0 0.820849807753238 0.5624256442030748
4431000000.0 0.8527015535252234 0.5903560877925048
4434000000.0 0.8666693860213245 0.5478251126840263
4438000000.0 0.8819708097358205 0.5576481626248757
4441000000.0 0.8659688696147758 0.5671122313243087
4444000000.0 0.8511111673296656 0.5450579610967343
4447000000.0 0.8708044413917653 0.5301310655878207
4450000000.0 0.8559034096514974 0.5333913957346375
4453000000.0 0.9037769416403413 0.5325327934409468
4456000000.0 0.8504799179703315 0.49041983254287314
4459000000.0 0.868015687520099 0.44606545918358387
4462000000.0 0.9378129133799751 0.511206618581457
4466000000.0 0.923782006736052 0.48580590163545845
4469000000.0 0.9077053525114468 0.4759873456085804
4472000000.0 0.9578662575085012 0.4452776150577714
4475000000.0 0.8879978105794369 0.4265020369107647
4478000000.0 0.978160700352285 0.4587882604378879
4481000000.0 0.9365290354489023 0.38450336466074053
4484000000.0 0.9361172228623857 0.3714318854007872
4488000000.0 0.913200508260463 0.37708050164747164
4491000000.0 0.9436589966994016 0.3607082903361406
4494000000.0 0.9359626166805263 0.3705920567346539
4497000000.0 0.939094111727961 0.3842803897558315
4500000000.0 0.9303403820057103 0.3771249959961699
4503000000.0 0.9748618746256894 0.37224704840363637
4506000000.0 0.9534979023844412 0.32159371582008417
4509000000.0 0.957254601795144 0.32229182496947684
4512000000.0 0.9366664943226839 0.3058850439083559
4516000000.0 0.9762910630741072 0.33680806449340467
4519000000.0 0.9595584998023666 0.28330033275186567
4522000000.0 0.9790689512460737 0.27701348249720853
4525000000.0 0.9357339011724863 0.30926347946782606
4528000000.0 1.020314371598145 0.27123823880868364
4531000000.0 0.983293658192161 0.26642776435248444
4534000000.0 0.9567998587309969 0.24497155381745989
4538000000.0 0.9760271979751367 0.20251499275981358
4541000000.0 0.9985751383535924 0.17992363398340563
4544000000.0 0.9663022379649135 0.20955220493776103
4547000000.0 0.9908146183075326 0.2221651114405384
4550000000.0 0.9958798489807654 0.1643927993660474
4553000000.0 0.9972658914963182 0.17338462492504572
4556000000.0 0.9653022923839727 0.13017633081313418
4559000000.0 1.0172929651269502 0.12285479052932172
4562000000.0 1.0273684400517313 0.15199824137529094
4566000000.0 0.9992881520544541 0.11862278984690815
4569000000.0 0.9637923905063203 0.13975296043691848
4572000000.0 0.9918670664782097 0.1269276058668909
4575000000.0 1.0090567712937697 0.08002883222147625
4578000000.0 1.0440100072624758 0.10485576567257848
4581000000.0 1.0355188146907022 0.05896174278965534
4584000000.0 1.0000671651175945 0.04873173197091374
4588000000.0 1.0309815930353343 0.05976093182782084
4591000000.0 1.005146068400663 0.06530982059063972
4594000000.0 1.0053414844474509 0.017010599487447976
4597000000.0 1.0332066597709444 0.008113035724538878
4600000000.0 0.9765322954304707 -0.024686308383384585
4603000000.0 1.0413614253245207 0.007158126768415472
4606000000.0 0.9960192024568294 0.0031909959085438862
4609000000.0 1.034211698889689 -0.04789680856092817
4612000000.0 1.0391482653760868 -0.03184276839191221
4616000000.0 1.0053494702555366 -0.05183269861403219
4619000000.0 1.0070405645649345 -0.024062647364893615
4622000000.0 0.9944832283026405 -0.040782916550577836
4625000000.0 0.9417057565529344 -0.07996221202792224
4628000000.0 0.9521629131649151 -0.04874576925798975
4631000000.0 0.9870322499894648 -0.11730427692495046
4634000000.0 0.9840937167240053 -0.08852830705265498
4638000000.0 0.9925227818852446 -0.13661442997648085
4641000000.0 1.0205239137518674 -0.10817535256840412
4644000000.0 1.0022271678855625 -0.15457853040099354
4647000000.0 1.0048380675849315 -0.14577702196171202
4650000000.0 1.0030865324135625 -0.20299954192909336
4653000000.0 1.0216651716177956 -0.18233492999231937
4656000000.0 0.9736040123604301 -0.2197306146426155
4659000000.0 0.9861577757802815 -0.18167369989682275
4662000000.0 0.964657044019143 -0.18806326633769754
4666000000.0 0.9979908728569193 -0.19412125525645332
4669000000.0 0.9744019288468144 -0.20620350727248263
4672000000.0 0.9672517080561095 -0.2588128928954213
4675000000.0 0.9439574866712417 -0.2689191240016672
4678000000.0 0.9634212757458485 -0.24614770594767316
4681000000.0 0.9858152568704284 -0.2955156749639094
4684000000.0 0.9287754124884416 -0.30608097253724914
4688000000.0 0.9462084013391381 -0.2694565623925781
4691000000.0 0.9423751527393464 -0.2798886341386966
4694000000.0 0.954658015788661 -0.31798415824556703
4697000000.0 0.9597949848350216 -0.327953508596954
4700000000.0 0.9691501572991612 -0.3217317584370759
4703000000.0 0.953243654138229 -0.36821546603516564
4706000000.0 0.9576923871049041 -0.34106085503256045
4709000000.0 0.9455585577923771 -0.36479324059735363
4712000000.0 0.9147002610202593 -0.3694484365869992
4716000000.0 0.9388878029001381 -0.3758835029737597
4719000000.0 0.9475378416181308 -0.41086483562322723
4722000000.0 0.9385695170813126 -0.3798015986533753
4725000000.0 0.9041590216235676 -0.42569398167239825
4728000000.0 0.9044041459109928 -0.4171679673138428
4731000000.0 0.9052482645564472 -0.4221220388738273
4734000000.0 0.9142972597031456 -0.4091689501457318
4738000000.0 0.9137324260863036 -0.44415299287416465
4741000000.0 0.8941388802972844 -0.4740217634565978
4744000000.0 0.8772465651388928 -0.4762150080948985
4747000000.0 0.90871526564972 -0.4912592864163441
4750000000.0 0.8675737082525452 -0.49330359332574875
4753000000.0 0.8923564249724976 -0.502468988273382
4756000000.0 0.8849107260345642 -0.5049528294468435
4759000000.0 0.8812975248960637 -0.5234926888764254
4762000000.0 0.8665593120670766 -0.5428747296350858
4766000000.0 0.839747119651242 -0.5421753287467935
4769000000.0 0.9085288611061693 -0.549390974219365
4772000000.0 0.8628331418055516 -0.5541074962357987
4775000000.0 0.8494486854776806 -0.5718648369126826
4778000000.0 0.8728843958033345 -0.5304630091887653
4781000000.0 0.8516419568467274 -0.5572224494070772
4784000000.0 0.852492846271407 -0.550407889837391
4788000000.0 0.8415666893871829 -0.5847810150864267
4791000000.0 0.8067578140554561 -0.6221571210310658
4794000000.0 0.8084624431069529 -0.6189865548311542
4797000000.0 0.8024391366651236 -0.6269071378260107
4800000000.0 0.7928580263459725 -0.6312978743744062
4803000000.0 0.7749859982112409 -0.6451582742821727
4806000000.0 0.7863832811244934 -0.6355092891510351
4809000000.0 0.7642823482404689 -0.666534330275993
4812000000.0 0.7625583422387319 -0.6545529765054663
4816000000.0 0.7782198768208819 -0.6592253713993809
4819000000.0 0.7738356928864327 -0.6758286805147741
4822000000.0 0.7776458922489853 -0.668643808089988
4825000000.0 0.753775646869028 -0.6942468380296012
4828000000.0 0.736212096198978 -0.6894651124723787
4831000000.0 0.7070684491285333 -0.7146007887663705
4834000000.0 0.7168973109300675 -0.7015017196534982
4838000000.0 0.7361177574419238 -0.7161626490196261
4841000000.0 0.7079598406304642 -0.7262632715782591
4844000000.0 0.7246913183925876 -0.7033182227441157
4847000000.0 0.6977055146616958 -0.7185407197789665
4850000000.0 0.7135462131332071 -0.7536418977503885
4853000000.0 0.6886006142552203 -0.727334664433166
4856000000.0 0.6745761674174386 -0.7536670407747709
4859000000.0 0.6978192950909559 -0.7871187352847778
4862000000.0 0.6673053381052715 -0.7417035719865451
4866000000.0 0.659155663408858 -0.7948341913154884
4869000000.0 0.637387313112344 -0.8113263244598369
4872000000.0 0.6248406932575856 -0.8172005379660181
4875000000.0 0.6699591173323972 -0.7986604373809945
4878000000.0 0.6267951011394912 -0.8061528547833492
4881000000.0 0.6380801310878322 -0.8571713069493678
4884000000.0 0.6208820749359897 -0.8067773928723481
4888000000.0 0.6421600319277477 -0.8193459721255053
4891000000.0 0.6296706618491085 -0.8223399224044724
4894000000.0 0.5842737268771175 -0.8304668953486781
4897000000.0 0.5831072578509287 -0.8199419987665567
4900000000.0 0.5736704717874095 -0.8550404721985616
4903000000.0 0.5821305357785856 -0.8585698795873584
4906000000.0 0.5710085358591545 -0.863849816783607
4909000000.0 0.5559306425289465 -0.8698050394486022
4912000000.0 0.5439150040714212 -0.8769599881490561
4916000000.0 0.5603227053684252 -0.8759155754832104
4919000000.0 0.5657321858481837 -0.8735228700224322
4922000000.0 0.5426376351706782 -0.8624857836455727
4925000000.0 0.4983111210278599 -0.9045879177880578
4928000000.0 0.5155406295611666 -0.8690355161065432
4931000000.0 0.520866322916769 -0.9114636647936536
4934000000.0 0.4817365285304684 -0.852262879362827
4938000000.0 0.4473205111857571 -0.903036218500661
4941000000.0 0.4634520534495125 -0.8885267788193101
4944000000.0 0.47071180380299804 -0.8570897573624616
4947000000.0 0.4681444098570895 -0.89642187070883
4950000000.0 0.42492562703616266 -0.9334420942901521
4953000000.0 0.40991242248433696 -0.9727432552282705
4956000000.0 0.3769595403806247 -0.9222250545585349
4959000000.0 0.3582341382774112 -0.9388682688780892
4962000000.0 0.40735653667033866 -0.9539274809689507
4966000000.0 0.4296632905541384 -0.9565209424371731
4969000000.0 0.4327131032133219 -1.0038106856013764
4972000000.0 0.3666511960480712 -0.988724881775807
4975000000.0 0.381521145572596 -0.9311768223726117
4978000000.0 0.3810037505717933 -0.9662985226162064
4981000000.0 0.35132796214677375 -0.954184512867304
4984000000.0 0.3689838056626866 -0.9231279033621764
4988000000.0 0.3517205251988874 -0.9868178435583209
4991000000.0 0.38344729502315045 -0.9883501162851229
4994000000.0 0.3678834816860985 -0.9751431220691249
4997000000.0 0.31434088006390126 -0.9972284893405677
5000000000.0 0.31578967642243927 -0.9986436676470192
5003000000.0 0.3261848728027405 -1.0206989950533414
5006000000.0 0.3011309564409549 -1.0478586612328409
5009000000.0 0.3042714866725958 -0.9847798240762432
5012000000.0 0.24428091744909364 -0.9687725066356483
5016000000.0 0.2921478407200202 -1.0144202926348225
5019000000.0 0.22526690200806399 -1.0133440185941474
5022000000.0 0.25876462775109205 -1.006966827311362
5025000000.0 0.26364899578735795 -1.073117318265133
5028000000.0 0.18665349469215248 -1.034861957247333
5031000000.0 0.19786574682977973 -0.9980281768963356
5034000000.0 0.20141568279565664 -1.0765398522641272
5038000000.0 0.17468955648302076 -0.9869893492635307
5041000000.0 0.21749628508293373 -1.0099854179554435
5044000000.0 0.2142404744627197 -0.9834589198386113
5047000000.0 0.20263530877934155 -1.0242072263814452
5050000000.0 0.2739012454726017 -0.9972346791928985
5053000000.0 0.14926556681921568 -1.0743851585804292
5056000000.0 0.1948462293993619 -1.0160759876779681
5059000000.0 0.22517417829792857 -1.00620424083061
5062000000.0 0.13243877531514447 -1.0342500252452551
5066000000.0 0.15966586604758035 -0.967073721591442
5069000000.0 0.1304778068527586 -1.07408044761155
5072000000.0 0.08130685463144954 -0.9761693052609983
5075000000.0 0.15928237737195397 -1.033400598814549
5078000000.0 0.014319257872395033 -1.0462215836840316
5081000000.0 0.06189457815017716 -0.9866025747054868
5084000000.0 0.07202755791239238 -1.0618747040210113
5088000000.0 0.07656032465683663 -1.0155286951872957
5091000000.0 0.0198749892082535 -1.0759317396881745
5094000000.0 0.04019601948815578 -1.0391002940518774
5097000000.0 0.09093664640512064 -1.0869098817353162
5100000000.0 0.08427429328893554 -1.0528862215552692
5103000000.0 0.018419616685834566 -1.0562880594913229
5106000000.0 0.015224550459927495 -1.0839342433805377
5109000000.0 0.052461430519424576 -1.0566343734747299
5112000000.0 -0.014781496223764831 -1.0093771944792185
5116000000.0 -0.004069230920313534 -1.001349915337879
5119000000.0 -0.01869054834418837 -1.1006834875323306
5122000000.0 0.01150268161463583 -1.0444334599824208
5125000000.0 -0.06057889629998786 -1.0699101491891123
5128000000.0 -0.0712338659921701 -1.0421579311282938
5131000000.0 -0.07921471458435493 -1.0249425926705498
5134000000.0 -0.05862268683387347 -1.0131780680142852
5138000000.0 -0.08164637270453054 -1.030421577245641
5141000000.0 -0.014481818427623118 -1.005428807925379
5144000000.0 -0.04391665085844962 -1.08659876208437
5147000000.0 -0.039592463010919975 -1.0507597222193834
5150000000.0 -0.07226182378085338 -1.0315677216561168
5153000000.0 -0.13997227401814732 -1.0092848323519887
5156000000.0 -0.10163479492652441 -1.0931203492165422
5159000000.0 -0.09026126745232074 -1.0948316559203835
5162000000.0 -0.15132119240560768 -1.0063283908534695
5166000000.0 -0.2159262557619435 -1.0507083244882436
5169000000.0 -0.18229095346318866 -1.0740431629495173
5172000000.0 -0.15880072113171873 -0.9563478596609368
5175000000.0 -0.1514914658798176 -1.0663684372185263
5178000000.0 -0.21152211065573193 -1.0033198349915309
5181000000.0 -0.1815398741923164 -1.0873004611799828
5184000000.0 -0.2101049964506305 -1.0271517071280605
5188000000.0 -0.17011364276294827 -1.023967074630746
5191000000.0 -0.23948743995669 -1.0270627597246116
