! Created with skrf 1.8.0 (http://scikit-rf.org).
# Hz S RI R 50.0 
!freq ReS11 ImS11
4000000000.0 0.6210309789538209 0.8521703051528571
4003000000.0 0.7055402227814037 0.8863294481845457
4006000000.0 0.6653575051537133 0.7267721111482863
4009000000.0 0.6284971131306364 0.7777977609730172
4012000000.0 0.6330049901694074 0.8567021198112632
4016000000.0 0.6682351301920919 0.7840178115632803
4019000000.0 0.6788303185218305 0.7490629956404308
4022000000.0 0.6093919648831181 0.8112333121254316
4025000000.0 0.7101316119965952 0.733008456906886
4028000000.0 0.7152819665172095 0.7661400622598742
4031000000.0 0.6776892655446607 0.7394501818316813
4034000000.0 0.7053783799327407 0.7221691848795214
4038000000.0 0.7224860302522031 0.7417046939133743
4041000000.0 0.7037309052067725 0.7444205766206828
4044000000.0 0.740902424873754 0.7477636748870891
4047000000.0 0.7631161987740698 0.754525639171748
4050000000.0 0.7839303850584671 0.694051460357305
4053000000.0 0.7466335536798552 0.6633359191170645
4056000000.0 0.7424908366585855 0.7071695011059741
4059000000.0 0.7408396864437025 0.6732888758939239
4062000000.0 0.7908039744231589 0.659932927227723
4066000000.0 0.7521246470335408 0.6197174596598668
4069000000.0 0.8130565966464587 0.6722685318690569
4072000000.0 0.7577281088231591 0.683351754618468
4075000000.0 0.7959499586554085 0.7324076306207292
4078000000.0 0.816396926287687 0.6707677419595626
4081000000.0 0.7545581313015304 0.6937482270922875
4084000000.0 0.8477679711402416 0.5974157382232443
4088000000.0 0.7481800941229853 0.6810693189085378
4091000000.0 0.8539755924550618 0.6332548688585857
4094000000.0 0.7948480377427358 0.6244087624030485
4097000000.0 0.8532517095572058 0.6119469811554592
4100000000.0 0.8458339031677337 0.6392765517823196
4103000000.0 0.8263931058189855 0.6171287881629097
4106000000.0 0.8480273634097829 0.6084759709127575
4109000000.0 0.8401667680812019 0.5408136866096362
4112000000.0 0.8394049666661856 0.5908360281059639
4116000000.0 0.8047152491844126 0.5758900666740476
4119000000.0 0.8796597934829544 0.5640532031869442
4122000000.0 0.8546194584821026 0.5389155314385353
4125000000.0 0.9164369161267212 0.537694597930582
4128000000.0 0.8182354112767687 0.5458867389605353
4131000000.0 0.8329846163711544 0.5284164713646368
4134000000.0 0.8731026342888936 0.5331312735349656
4138000000.0 0.8519093510827633 0.47598197867844655
4141000000.0 0.8631315263889173 0.4835632675501925
4144000000.0 0.8938505548108767 0.5191462264903559
4147000000.0 0.8657099843047698 0.4806516051700654
4150000000.0 0.9211330976014641 0.5117895501603029
4153000000.0 0.9027764655447471 0.4766193897199694
4156000000.0 0.9202154687083548 0.49242325736501513
4159000000.0 0.914702880109366 0.4517631842706608
4162000000.0 0.9124847789367214 0.4601582705544889
4166000000.0 0.948166947192356 0.4836483730373079
4169000000.0 0.9134471486645666 0.41239447835092125
4172000000.0 0.9350668138769088 0.4577149249055947
4175000000.0 0.9293813176402034 0.4630018158114286
4178000000.0 0.9373702016477738 0.45345047102177427
4181000000.0 0.9176217568754275 0.42710476639652806
4184000000.0 0.9482482998680936 0.41068586500934273
4188000000.0 0.941948975267692 0.41564435370459807
4191000000.0 0.9311524792802877 0.4296084929305675
4194000000.0 0.9268109320214283 0.37552799092599254
4197000000.0 0.9489441023423019 0.393249363258041
4200000000.0 0.9444060023168037 0.40013634385726504
4203000000.0 0.9663165730604327 0.3917182566213776
4206000000.0 0.9689121445342365 0.3655655503027458
4209000000.0 0.9425967734844581 0.3530927199954737
4212000000.0 0.9667472311605496 0.2990558141026679
4216000000.0 0.9491654798655578 0.3443308597363233
4219000000.0 0.9721337707297228 0.326297722736829
4222000000.0 0.9726789826039419 0.3140061856283643
4225000000.0 0.9650631869364164 0.3091289531619382
4228000000.0 0.9744413197543405 0.30620427899947567
4231000000.0 0.965737943485009 0.29987414653558475
4234000000.0 0.9951067521009694 0.28764040139387026
4238000000.0 0.9794093072847228 0.27660293167239214
4241000000.0 0.9816693456883347 0.2505753151934986
4244000000.0 0.9523540318163511 0.2841938190992238
4247000000.0 0.976914488614364 0.2590155581439991
4250000000.0 0.9690129629009492 0.22627071300689489
4253000000.0 0.9674359293545582 0.22684374297505888
4256000000.0 1.0063736000119226 0.23001900725270363
4259000000.0 0.9627845916885761 0.19954163190308158
4262000000.0 0.9833331653074902 0.1944047715022513
4266000000.0 1.0093482843149322 0.18190394786638409
4269000000.0 1.004987960026247 0.21460892448982147
4272000000.0 0.9979966132439236 0.2001322710954092
4275000000.0 0.9963937661141193 0.18293273688172845
4278000000.0 1.0110198615471508 0.17255273827650125
4281000000.0 0.9962511607150397 0.17792451926397745
4284000000.0 1.0030279701467797 0.14010867680402808
4288000000.0 1.0084918781042607 0.18512555337315295
4291000000.0 0.9778468226657764 0.12670292950258344
4294000000.0 0.9788825612094524 0.11820240998745078
4297000000.0 0.9728203467995009 0.16601104200365419
4300000000.0 0.971006482565044 0.1200393713331355
4303000000.0 0.9827964117977415 0.0650760230474056
4306000000.0 1.0056900031399445 0.12256109786897909
4309000000.0 0.9938269436580947 0.09898410779625368
4312000000.0 1.0312258219046029 0.11428410005501821
4316000000.0 1.0138477336782508 0.07817710873244636
4319000000.0 1.0076096380791895 0.0794945166852495
4322000000.0 0.9645098885317757 0.011251971440063693
4325000000.0 1.015414435262166 0.05711500957110556
4328000000.0 0.9913822312838729 0.036410486508402604
4331000000.0 0.9984679974122553 0.007463464366455008
4334000000.0 1.0134519952220413 0.012530455320488826
4338000000.0 1.0220656865004956 0.030178802356692694
4341000000.0 1.006592134599175 0.029995503011146424
4344000000.0 1.0317800702986943 0.02035466901235089
4347000000.0 1.0105845595417042 -0.04330717066471254
4350000000.0 0.9843936011111134 -0.050374168062484265
4353000000.0 0.9866039589753048 -0.023619061112934603
4356000000.0 0.9940935971226563 -0.0688652320127768
4359000000.0 0.9499761699396984 -0.052989135174994706
4362000000.0 0.9845187934276347 -0.10256213773889414
4366000000.0 1.0293204665654727 -0.06519219111687322
4369000000.0 0.9692085317480722 -0.08294461814304202
4372000000.0 0.9910669026188932 -0.11803255717450545
4375000000.0 1.0110399820151112 -0.06003978515746719
4378000000.0 0.9844751846101035 -0.09155156139829886
4381000000.0 0.993510405253283 -0.08467580066820972
4384000000.0 1.0722023431468264 -0.12765195773314741
4388000000.0 0.9740499175870682 -0.10172199503074722
4391000000.0 1.0101006801407055 -0.12882478098925743
4394000000.0 0.9668911158923351 -0.15775757899738752
4397000000.0 0.9851437579053663 -0.16492509476110445
4400000000.0 1.0209249891521652 -0.1623623066491801
4403000000.0 0.9915097586837425 -0.1653026668297079
4406000000.0 0.9900165170280164 -0.19627781359172472
4409000000.0 1.0251322151618318 -0.19816699245396077
4412000000.0 0.9725993718391949 -0.24342759503825018
4416000000.0 0.9766261845783899 -0.22043059705542145
4419000000.0 0.9733974589276589 -0.23118588861502593
4422000000.0 0.9736293930677138 -0.2021335821012311
4425000000.0 1.003317779718969 -0.22133388280449215
4428000000.0 0.9746762881381267 -0.2452432468916969
4431000000.0 0.9951879050910786 -0.25126704085175244
4434000000.0 0.957190393713149 -0.2573281469150139
4438000000.0 0.9958635945910519 -0.2695286959162876
4441000000.0 0.9933240306608413 -0.2762258059621455
4444000000.0 0.9486160029053476 -0.27619127254515685
4447000000.0 0.9522022273555857 -0.3094208311946811
4450000000.0 0.9565354073850474 -0.28054212958860647
4453000000.0 0.9909083905850042 -0.3222435644424949
4456000000.0 0.9295377721022486 -0.31853928660304887
4459000000.0 0.9040904430452803 -0.332621166490791
4462000000.0 1.0088994797911663 -0.3550614571023909
4466000000.0 0.9713100150887829 -0.3627347941076037
4469000000.0 0.9550809591947788 -0.3308573055563202
4472000000.0 0.9627086795869101 -0.39373426398296724
4475000000.0 0.9243874408936062 -0.3507057611303036
4478000000.0 0.9510505301230262 -0.4041087541982049
4481000000.0 0.9132328603655122 -0.3791557241231707
4484000000.0 0.8965015049958664 -0.4339179266787767
4488000000.0 0.9110855555386677 -0.4097894767865898
4491000000.0 0.9242790807421878 -0.4158041228614749
4494000000.0 0.8938788129774807 -0.4150867460107738
4497000000.0 0.9217531065311497 -0.39743328731555166
4500000000.0 0.9228846689974763 -0.4341669220763712
4503000000.0 0.9335172484626391 -0.4394674432635262
4506000000.0 0.905404502478087 -0.4526229276788459
4509000000.0 0.8752630356699582 -0.4424700011940963
4512000000.0 0.8632609423038617 -0.45970028905155713
4516000000.0 0.9140453561830516 -0.4683178501228092
4519000000.0 0.8664140756259826 -0.48460299703649157
4522000000.0 0.8699953505538234 -0.5097463774862583
4525000000.0 0.8890018705181648 -0.46153987369333854
4528000000.0 0.8991855455247231 -0.5129171168851222
4531000000.0 0.8733083782738373 -0.49018969510950916
4534000000.0 0.8400471047102749 -0.5044861202403357
4538000000.0 0.8566525292753455 -0.5179489882788572
4541000000.0 0.8187600545921566 -0.5610124179138903
4544000000.0 0.8320581719367881 -0.536890483230223
4547000000.0 0.8540519848759991 -0.5135662028391692
4550000000.0 0.8244455613446566 -0.5725713516766131
4553000000.0 0.8413054079090188 -0.57792372835289
4556000000.0 0.8074878085633976 -0.584990106586046
4559000000.0 0.8252230752738878 -0.565403094030704
4562000000.0 0.8383927295332378 -0.5836032425481927
4566000000.0 0.8067153950486112 -0.6044160849376066
4569000000.0 0.7875023415846089 -0.5881722291031923
4572000000.0 0.7860163945166061 -0.6019385010466203
4575000000.0 0.786071740628733 -0.6379500173758647
4578000000.0 0.8125814429329627 -0.6136880888419217
4581000000.0 0.7958336056495187 -0.6569088103294305
4584000000.0 0.7705893517787166 -0.6340507619859296
4588000000.0 0.7931707861135954 -0.6322737445907223
4591000000.0 0.7779143407441302 -0.6263137521447761
4594000000.0 0.754074353185583 -0.6805979352750492
4597000000.0 0.7660479522990653 -0.676552849623989
4600000000.0 0.724051254796598 -0.6847286221934039
4603000000.0 0.750370287954316 -0.6984254474151571
4606000000.0 0.7597174896680272 -0.6878054526888026
4609000000.0 0.7249567208335396 -0.6925769871824187
4612000000.0 0.7319860272876273 -0.7062196983807252
4616000000.0 0.7174952739914151 -0.6940567303886714
4619000000.0 0.7110441307609336 -0.7096174688396072
4622000000.0 0.6871226625373331 -0.7179449525005631
4625000000.0 0.6794196586141866 -0.7093721848780434
4628000000.0 0.7061562620214475 -0.7134653082650484
4631000000.0 0.662587025498715 -0.7313007030812437
4634000000.0 0.6883619074633686 -0.7457749647536924
4638000000.0 0.6788115125747195 -0.752768400686503
4641000000.0 0.6753166134103147 -0.7455623392455724
4644000000.0 0.6607662172302747 -0.7613928048937114
4647000000.0 0.6725038326670885 -0.7587726586896897
4650000000.0 0.6332988356745267 -0.7733337050981034
4653000000.0 0.6614377090149801 -0.7916089961276463
4656000000.0 0.6411612991657378 -0.7824270265532407
4659000000.0 0.6081427010343593 -0.7935336917674897
4662000000.0 0.6252481741549862 -0.8060396360748651
4666000000.0 0.6070211336874792 -0.8036946201094665
4669000000.0 0.6206252664465599 -0.8030559442491735
4672000000.0 0.5870656973861588 -0.8108655800029118
4675000000.0 0.5762190178592586 -0.8293047097136386
4678000000.0 0.5823161192049647 -0.8045610814075007
4681000000.0 0.5695665567295766 -0.8410002850474085
4684000000.0 0.543570807660402 -0.8671719610080403
4688000000.0 0.541764436888503 -0.8290864952281706
4691000000.0 0.5628828005651674 -0.8249752494927569
4694000000.0 0.5526695276313901 -0.8611394383477724
4697000000.0 0.49541820475495396 -0.8361404628492666
4700000000.0 0.557740461602467 -0.8471042702457183
4703000000.0 0.5394143042872909 -0.8145789704580142
4706000000.0 0.4919295883309232 -0.8804927467650518
4709000000.0 0.5159574258995027 -0.8542355944520514
4712000000.0 0.5171117052374179 -0.8683790115417444
4716000000.0 0.47301543702982285 -0.8996686569670771
4719000000.0 0.5243100048204916 -0.8892903626674579
4722000000.0 0.5015065134620894 -0.870083172018203
4725000000.0 0.49267853466531697 -0.8784404939408885
4728000000.0 0.4441819683967473 -0.8653434366637265
4731000000.0 0.4844967682882372 -0.9058964354399499
4734000000.0 0.46189273592725666 -0.8799050194527497
4738000000.0 0.45486965326031503 -0.9506697867101859
4741000000.0 0.455061353647897 -0.9258886663134691
4744000000.0 0.39435136312868474 -0.9423540590373185
4747000000.0 0.43145967901010684 -0.8853253913253475
4750000000.0 0.4223496115081403 -0.9307491965351332
4753000000.0 0.42630935117736857 -0.9229031235800844
4756000000.0 0.41313225034391626 -0.9617265142754388
4759000000.0 0.39492977011042235 -0.940932611854781
4762000000.0 0.3581687690944593 -0.9498683665464659
4766000000.0 0.37005272196277367 -0.9199068884256264
4769000000.0 0.37771200620740286 -0.9655675519575445
4772000000.0 0.3604401046124178 -0.9398379662931877
4775000000.0 0.34825928732904404 -0.9771473692079602
4778000000.0 0.34710242843880756 -0.9758947423986194
4781000000.0 0.3700941972670204 -0.9497161029044998
4784000000.0 0.34108659156727394 -0.9303848209051356
4788000000.0 0.3124486915268885 -0.9806450645883096
4791000000.0 0.3098864154571935 -0.9586242530306134
4794000000.0 0.33641142372694416 -0.9827187846262568
4797000000.0 0.28408694456011163 -0.9505494982805968
4800000000.0 0.2688343257069986 -0.956481009781939
4803000000.0 0.20310629069669897 -0.9946442852167079
4806000000.0 0.2658287603348753 -0.9979939921184267
4809000000.0 0.23020730624924673 -0.9637842051665487
4812000000.0 0.2112526813168079 -0.9696793379454136
4816000000.0 0.2651929263781768 -0.9820151622875446
4819000000.0 0.27675286410059513 -1.0035813980961303
4822000000.0 0.2428096345737757 -1.020634681546041
4825000000.0 0.24829708756698562 -1.0158676537358275
4828000000.0 0.20345963697226088 -0.975952792381496
4831000000.0 0.15842068008873772 -1.0334513308065638
4834000000.0 0.2202633748883234 -0.9977602535456218
4838000000.0 0.1746437121086033 -1.023408474373984
4841000000.0 0.16158295105773246 -0.994522225757326
4844000000.0 0.19582208487627162 -1.0016307989036963
4847000000.0 0.19535110231438535 -0.9945638023833367
4850000000.0 0.16023167606366787 -1.0373262261067107
4853000000.0 0.13255354248591344 -0.9818101373636559
4856000000.0 0.14220611764964353 -0.995530378086911
4859000000.0 0.11898857043006922 -1.0532860915820743
4862000000.0 0.15450589305726603 -0.9888123558029621
4866000000.0 0.1078360961880051 -1.0383658300052678
4869000000.0 0.09328898772969783 -1.042390078658622
4872000000.0 0.0770132844018696 -1.0478005196950255
4875000000.0 0.14134236239919135 -1.0511030298163782
4878000000.0 0.08552467044631024 -1.0199801800683495
4881000000.0 0.040142914593394814 -1.0941675112854299
4884000000.0 0.09449316719166942 -1.0196373434277177
4888000000.0 0.0950586953421218 -1.0100021333943767
4891000000.0 0.07717953969686793 -1.0091347300361106
4894000000.0 0.027950245998541293 -1.0356767237417819
4897000000.0 0.05719563301217577 -0.9884108859728994
4900000000.0 0.030485262285315964 -1.0592915212175549
4903000000.0 0.04534682492766566 -1.0625035508799214
4906000000.0 0.014572611796183906 -1.023686901561423
4909000000.0 -0.03423562429880787 -1.060033596607128
4912000000.0 0.002893655136895039 -1.047996633127564
4916000000.0 -0.004479749167970462 -1.0521211574193767
4919000000.0 0.03160356466021593 -1.0528668343633236
4922000000.0 0.0036191500814452687 -1.0464644696159018
4925000000.0 -0.0858571203640959 -1.025522991493365
4928000000.0 0.0045318668613981705 -1.0063943641306878
4931000000.0 -0.033626508543750266 -1.0539029985749568
4934000000.0 -0.03992779187089823 -0.9818297447079336
4938000000.0 -0.12467689164780422 -1.0375001696443238
4941000000.0 -0.0907910001757906 -1.0132036930628288
4944000000.0 -0.062384434455723836 -0.980041259921407
4947000000.0 -0.09133243862895762 -0.9980251828189524
4950000000.0 -0.10831065699664981 -0.9756881918495893
4953000000.0 -0.14750060026573392 -1.0527129278494343
4956000000.0 -0.1721654790667162 -1.01087812674499
4959000000.0 -0.1602595418376281 -0.9886967603734339
4962000000.0 -0.1538559125659343 -1.038994428233096
4966000000.0 -0.12266037310937322 -1.0766815570552026
4969000000.0 -0.13435574544995293 -1.0655781071425299
4972000000.0 -0.20531226353000823 -1.0128361643373018
4975000000.0 -0.12271347281082154 -0.9660728603145008
4978000000.0 -0.18454752760923904 -1.0371921217118099
4981000000.0 -0.21023974291861877 -1.0022306704184805
4984000000.0 -0.21227730847848955 -0.9939763762549727
4988000000.0 -0.16874450733097207 -1.0115574445050077
4991000000.0 -0.13421716217219914 -1.053282027983167
4994000000.0 -0.21610805098135244 -0.9974445121996097
4997000000.0 -0.2958409010642102 -1.0128755888024898
5000000000.0 -0.24031468285698493 -1.018172938846666
5003000000.0 -0.22529754628938592 -1.0556690329452891
5006000000.0 -0.27658635588809954 -1.0568217123709263
5009000000.0 -0.24101020212459276 -0.9979904048673184
5012000000.0 -0.28314720555598766 -0.9698283057869506
5016000000.0 -0.2367962601109601 -1.0278021446246848
5019000000.0 -0.3085549048477074 -0.9653751538104349
5022000000.0 -0.30522338413999284 -0.9992489830101261
5025000000.0 -0.322340477344261 -1.0293494048247038
5028000000.0 -0.3440495396504403 -0.9990759350913703
5031000000.0 -0.2976912544890088 -0.9961745904123683
5034000000.0 -0.3665372367571499 -1.0027913394680656
5038000000.0 -0.3612652049049335 -0.9715013357651474
5041000000.0 -0.3209950215254975 -0.9718394252651182
5044000000.0 -0.30407471982569545 -0.957799272032284
5047000000.0 -0.3092130666846011 -0.9885688929464408
5050000000.0 -0.31031521782845994 -0.9677273997026101
5053000000.0 -0.38904865726099436 -1.0150130199725007
5056000000.0 -0.3285844794563114 -0.9678913734226859
5059000000.0 -0.35351400639129765 -0.9848259294189493
5062000000.0 -0.43424985253727366 -1.0034586526147795
5066000000.0 -0.3373378653086079 -0.9700331466237337
5069000000.0 -0.4174624546545753 -0.993839456382032
5072000000.0 -0.4081916767004361 -0.932120104487075
5075000000.0 -0.37336950170619665 -0.9522679848673252
5078000000.0 -0.45305159957474234 -0.92734240725783
5081000000.0 -0.4632930680566784 -0.9038694223744977
5084000000.0 -0.4616747299763555 -0.9643529164794671
5088000000.0 -0.41557290330167596 -0.9570275109716189
5091000000.0 -0.5044420771653955 -0.9119786065774538
5094000000.0 -0.48568806408883797 -0.9414307796936715
5097000000.0 -0.46052575077548186 -0.9574086830903845
5100000000.0 -0.46714551522855857 -0.8844688784304519
5103000000.0 -0.48061063293806383 -0.9160792812640267
5106000000.0 -0.497320127971938 -0.976453161683603
5109000000.0 -0.4403219796796162 -0.9188055253001146
5112000000.0 -0.5098831625723055 -0.880308987127908
5116000000.0 -0.49348794340419255 -0.8389640678363208
5119000000.0 -0.5365118822278225 -0.8852692777853082
5122000000.0 -0.5385654787617306 -0.8752282846212958
5125000000.0 -0.547133686208782 -0.9026709608355207
5128000000.0 -0.5428233333820836 -0.8718921286635564
5131000000.0 -0.5221924993001943 -0.871957905961448
5134000000.0 -0.5382132496033484 -0.8260041229343311
5138000000.0 -0.505757308832147 -0.8983827224998101
5141000000.0 -0.5114570839807958 -0.8983496754841
5144000000.0 -0.5689202197521249 -0.8791298063893669
5147000000.0 -0.5706038195598115 -0.8564943765508065
5150000000.0 -0.5521206182748305 -0.9309060658806481
5153000000.0 -0.5822378986099457 -0.8711032676170667
5156000000.0 -0.6006664490465534 -0.8980533148353189
5159000000.0 -0.6124793213497867 -0.8588018701308953
5162000000.0 -0.6334191358556658 -0.8082112981053486
5166000000.0 -0.6340515248099287 -0.8051721765288121
5169000000.0 -0.6184496235834023 -0.8902916876577609
5172000000.0 -0.6309612448744504 -0.7805234954314507
5175000000.0 -0.6457429329999747 -0.8189283737812107
5178000000.0 -0.645933539532664 -0.7985163288929633
5181000000.0 -0.6615675984806041 -0.8603077731644617
5184000000.0 -0.6456844549737173 -0.7503812410829145
5188000000.0 -0.6717608906712319 -0.8245250369266925
