! Created with skrf 1.8.0 (http://scikit-rf.org).
# Hz S RI R 50.0 
!freq ReS11 ImS11
4000000000.0 0.6381106850436206 0.7827440510880321
4003000000.0 0.6670830405721527 0.8797349435002321
4006000000.0 0.6694061356622563 0.7780608007480867
4009000000.0 0.7078176954579363 0.7964214038924667
4012000000.0 0.6185321228250995 0.8476964205182904
4016000000.0 0.7010987309666697 0.7801568051964634
4019000000.0 0.6873693639064862 0.7619319290070086
4022000000.0 0.6558720236673601 0.8635677746184739
4025000000.0 0.741973103665111 0.7761752214814616
4028000000.0 0.7812267029870932 0.7614048973186682
4031000000.0 0.6799937345739545 0.7491431293751813
4034000000.0 0.724458937831826 0.7262279716703633
4038000000.0 0.7761623473424915 0.695043647062385
4041000000.0 0.7192495326466081 0.7348389129552051
4044000000.0 0.7798488040438818 0.7598661313959234
4047000000.0 0.7047868010139096 0.7510186528706017
4050000000.0 0.7734444884852647 0.7111390471715289
4053000000.0 0.7525165695881393 0.6835352758685029
4056000000.0 0.8043820636608416 0.7255160479889501
4059000000.0 0.7342926842696936 0.7286232092982159
4062000000.0 0.8168135177342928 0.7092180669991028
4066000000.0 0.7493451600572487 0.6268023722085942
4069000000.0 0.8082421368522194 0.6799602408304398
4072000000.0 0.7770780512306078 0.7176026028930469
4075000000.0 0.7864136268250461 0.692769417803119
4078000000.0 0.8176082324677125 0.6377544425473082
4081000000.0 0.7597618135715549 0.6829390331294872
4084000000.0 0.8367975402580252 0.6617839541024189
4088000000.0 0.7694299859531996 0.6857459647740242
4091000000.0 0.8525634312286378 0.6520430435337232
4094000000.0 0.8423179194942451 0.6524389094057985
4097000000.0 0.8617956603090786 0.6084197632608446
4100000000.0 0.8491476501763687 0.6027480683927795
4103000000.0 0.8581471775667342 0.6110598212041174
4106000000.0 0.8451116824111609 0.5984456740843299
4109000000.0 0.8643994281160061 0.5624521581435908
4112000000.0 0.8471198294199467 0.5724791084613092
4116000000.0 0.8639730618221847 0.6076918315675579
4119000000.0 0.8809939749563548 0.5289536812148329
4122000000.0 0.909051339296863 0.5624473548516616
4125000000.0 0.9091347614127093 0.5466478688637815
4128000000.0 0.860274844719845 0.5415411152345548
4131000000.0 0.8645905659156156 0.5336644430922612
4134000000.0 0.8598694003041184 0.5679642286850461
4138000000.0 0.8921423776192341 0.5054496180421517
4141000000.0 0.9091805203686358 0.5066756234460755
4144000000.0 0.8963501723798097 0.528205343289802
4147000000.0 0.8981891080162089 0.4963183224352375
4150000000.0 0.9328926108729078 0.5008907424709219
4153000000.0 0.8961006739533875 0.4975569963083366
4156000000.0 0.9111804528170417 0.49371952865631685
4159000000.0 0.9188293009726045 0.4812110234255121
4162000000.0 0.890795743790723 0.48037474776324707
4166000000.0 0.9661775178622267 0.4611342296493216
4169000000.0 0.9406687497519902 0.4114917529473673
4172000000.0 0.905469786504958 0.47775591982868354
4175000000.0 0.9317345348266985 0.43921511678543806
4178000000.0 0.9304282502241445 0.43189453363011077
4181000000.0 0.9532266873746988 0.395613191409914
4184000000.0 0.9512507066625792 0.41142727608312574
4188000000.0 0.9308770791319223 0.3794095983036686
4191000000.0 0.9218324049361514 0.4238562604839195
4194000000.0 0.9265619626638032 0.4052715182868606
4197000000.0 0.9550297363783016 0.3797004434303282
4200000000.0 0.9577342114549798 0.3905973337885543
4203000000.0 0.9689541154526139 0.3605629591173065
4206000000.0 0.9547958321177568 0.3656918476147288
4209000000.0 0.9485748080998022 0.3581295086025827
4212000000.0 0.9605559905919394 0.31443703715535865
4216000000.0 0.9730245009545728 0.3419197446901366
4219000000.0 0.9752502388032097 0.34024565977056775
4222000000.0 0.9816863861437077 0.3184886784144831
4225000000.0 0.9692770211557338 0.3110805708974642
4228000000.0 0.9971893586552862 0.2913162959404494
4231000000.0 0.9784087435621505 0.2885847824735508
4234000000.0 0.9882526869014724 0.28773469542144525
4238000000.0 0.9907906751578468 0.2558285236714849
4241000000.0 0.9808265663917706 0.23968520893549605
4244000000.0 0.9965673794289447 0.2724975297672031
4247000000.0 0.9710928192055609 0.2618658108381201
4250000000.0 0.985993151340516 0.23556775384953976
4253000000.0 0.9692954320869274 0.22675408628970395
4256000000.0 1.0216457948218969 0.21862196871004352
4259000000.0 0.9725689870672699 0.2049002355144616
4262000000.0 0.9885305110455913 0.20970105544017395
4266000000.0 1.0120217173562145 0.19125287991983503
4269000000.0 1.0078044554017818 0.21185648109825037
4272000000.0 1.0065176307999675 0.1809529234899684
4275000000.0 1.001047472595377 0.1747021085148336
4278000000.0 1.0031721108045528 0.1817374458164816
4281000000.0 1.0207550976511777 0.17295780294494717
4284000000.0 1.0034132722042122 0.12395472495274965
4288000000.0 1.0021296667001882 0.1662067898709169
4291000000.0 0.9894403808167092 0.12919642634434653
4294000000.0 1.0063150938592058 0.13824896470243103
4297000000.0 0.985265253809125 0.14635714939707262
4300000000.0 1.0058255655439488 0.08969513090759723
4303000000.0 0.9900237734608016 0.09661718277731664
4306000000.0 1.0159104700100077 0.0976242271931663
4309000000.0 1.0086635443829925 0.0841527779626972
4312000000.0 1.0207028164470269 0.12236297176730335
4316000000.0 1.043729555229382 0.09285319380908542
4319000000.0 1.0030379176332702 0.062336881500295996
4322000000.0 1.0203205147018823 0.019157365066304402
4325000000.0 1.0168723880895285 0.056814974933465476
4328000000.0 1.0217577230906523 0.012099589882594103
4331000000.0 1.044653904071757 -0.012043414665222602
4334000000.0 1.009791409833508 0.010278026220246123
4338000000.0 1.005785500172443 0.025013025649151657
4341000000.0 1.02353208561747 0.013684246880321133
4344000000.0 1.028343682278822 -0.0013402271901105378
4347000000.0 1.0132116626367254 -0.04877053369283564
4350000000.0 0.9801550816131382 -0.048642425802088524
4353000000.0 0.980999290164188 -0.006394071782214683
4356000000.0 1.0094930833731377 -0.06600673417653403
4359000000.0 0.9652819824393654 -0.04476465855257836
4362000000.0 1.0245217618396292 -0.12044867921601482
4366000000.0 1.0431944181356587 -0.08876500643572446
4369000000.0 0.9702501638449207 -0.08807175882740512
4372000000.0 0.9909850954226103 -0.13870353745077482
4375000000.0 1.0137356382169656 -0.07547671052590886
4378000000.0 0.9920662677893527 -0.11079260203648475
4381000000.0 0.9938583304675346 -0.10300259261550868
4384000000.0 1.0667720750652812 -0.13966521235197504
4388000000.0 0.9853596367164715 -0.128712325776201
4391000000.0 1.0235786031634275 -0.13472067454035777
4394000000.0 0.9706286371089912 -0.14894693830863082
4397000000.0 1.0001824770075096 -0.1638217247391719
4400000000.0 1.0247072237665469 -0.18346079936742432
4403000000.0 1.0000106474086863 -0.16897774511182267
4406000000.0 0.9940995895017259 -0.20323321506406583
4409000000.0 1.0122867376365237 -0.21081266243584593
4412000000.0 0.9744919262388297 -0.2566819091737711
4416000000.0 0.9736491900793771 -0.22871745162768337
4419000000.0 0.9877015796496047 -0.24156304301902976
4422000000.0 0.9779492366873643 -0.2175831466438445
4425000000.0 0.9973406540088566 -0.2217645942002649
4428000000.0 0.9798595347993196 -0.25202473360142896
4431000000.0 1.0062403304424707 -0.2554221897277211
4434000000.0 0.9679038976284056 -0.2741026673826002
4438000000.0 0.9948586554706236 -0.2630744156058121
4441000000.0 0.9744519390683364 -0.26899266359668916
4444000000.0 0.9473904005953524 -0.2748984279249489
4447000000.0 0.9659773926829703 -0.311155378906028
4450000000.0 0.9486530059690458 -0.29714844168307
4453000000.0 0.9809784988267009 -0.32210693937513846
4456000000.0 0.9455393636363512 -0.3372218528802393
4459000000.0 0.9106984231641255 -0.33303470121398826
4462000000.0 1.0067743966649543 -0.3597151848674113
4466000000.0 0.9934082075497526 -0.35861225187030527
4469000000.0 0.9636098300565653 -0.3493067273329181
4472000000.0 0.9595074279931904 -0.4067639974330475
4475000000.0 0.9115966032457467 -0.3560164172692343
4478000000.0 0.9742743968320478 -0.4042338858476636
4481000000.0 0.9016091846982157 -0.38821280154022764
4484000000.0 0.9138106803491977 -0.4478471845844725
4488000000.0 0.916107318007463 -0.41769954847277263
4491000000.0 0.9206297752590321 -0.4262599693792562
4494000000.0 0.9107398312739604 -0.42565833431411826
4497000000.0 0.9161004463783959 -0.42116932605551216
4500000000.0 0.8985295078108957 -0.4389637088050799
4503000000.0 0.9382960014214821 -0.45717347172667555
4506000000.0 0.8719352276062422 -0.46454555566116756
4509000000.0 0.8652077142189047 -0.46049442664462625
4512000000.0 0.8725466687920118 -0.47870502230584167
4516000000.0 0.9034594379509613 -0.47958592548769396
4519000000.0 0.8681481299000472 -0.4697729989443517
4522000000.0 0.8748530111580419 -0.49915491880315604
4525000000.0 0.9081659819795822 -0.4536943569266807
4528000000.0 0.9124991188773199 -0.5204395780780323
4531000000.0 0.9034795691658823 -0.5087260678675956
4534000000.0 0.8524310372139389 -0.5058254352707113
4538000000.0 0.8710301856707645 -0.5211680824389082
4541000000.0 0.8326161557221579 -0.5661285965251182
4544000000.0 0.8313749992750423 -0.5324240877094109
4547000000.0 0.837531286204573 -0.5255496896790333
4550000000.0 0.8518995783121801 -0.5657121545479239
4553000000.0 0.8297945734400378 -0.5864783282200146
4556000000.0 0.7860836212104789 -0.5823689082696549
4559000000.0 0.8156795030593189 -0.593795265941574
4562000000.0 0.8296305998286411 -0.5983164194722009
4566000000.0 0.8066829699581588 -0.6019941020490025
4569000000.0 0.7828581277666178 -0.594638210514514
4572000000.0 0.8047087159824047 -0.620107139796037
4575000000.0 0.7943275880614407 -0.6362386763226728
4578000000.0 0.8254121076682099 -0.6322151279979424
4581000000.0 0.7863016966463845 -0.6505845114924911
4584000000.0 0.7848862904641789 -0.6498012955034651
4588000000.0 0.7954580168267686 -0.6489758403599943
4591000000.0 0.7762871475183583 -0.6317330571539789
4594000000.0 0.735544182297482 -0.6846492385446121
4597000000.0 0.755036505710154 -0.6922653348670544
4600000000.0 0.7120939152725361 -0.6875118297188432
4603000000.0 0.7498069361555033 -0.6948574190056893
4606000000.0 0.7476899843289545 -0.6908529586335855
4609000000.0 0.7384143878134826 -0.7013877443958878
4612000000.0 0.7310904369720993 -0.700067639984124
4616000000.0 0.7036091359555543 -0.7059994994613957
4619000000.0 0.720118349319008 -0.7232767949802574
4622000000.0 0.7128168537994238 -0.7260021541335565
4625000000.0 0.6595198363930265 -0.7255895127293374
4628000000.0 0.6993756568217839 -0.7162608430049724
4631000000.0 0.6677572372064957 -0.738358406975833
4634000000.0 0.6791848197432936 -0.7458856674002843
4638000000.0 0.6716592420231793 -0.7527594847539018
4641000000.0 0.6728986238239747 -0.7527852434851013
4644000000.0 0.6613757031807258 -0.7661758024096613
4647000000.0 0.6633225085496349 -0.7730681328033698
4650000000.0 0.6160017095600437 -0.788607958576107
4653000000.0 0.6518285636346539 -0.7972790224231077
4656000000.0 0.630327740515743 -0.785923892354528
4659000000.0 0.6118881647147641 -0.7983644832125818
4662000000.0 0.633187950058118 -0.7980981482616493
4666000000.0 0.6001047338380223 -0.821150860465415
4669000000.0 0.6236337727473926 -0.7956624961082598
4672000000.0 0.5909440185569029 -0.8377519463299398
4675000000.0 0.567538501683983 -0.8568260295275768
4678000000.0 0.5870878807145906 -0.8261159129265983
4681000000.0 0.5471330598654371 -0.8573377913346026
4684000000.0 0.5443992151274237 -0.8546961631838741
4688000000.0 0.5383201069841894 -0.8561201256955251
4691000000.0 0.5755114218560519 -0.8473874348094819
4694000000.0 0.5603402050017444 -0.83649381925444
4697000000.0 0.5256050055721391 -0.845818943558535
4700000000.0 0.5318870759819145 -0.8543287879930064
4703000000.0 0.5282998425565474 -0.8484956601579656
4706000000.0 0.4967477253328825 -0.9058894305682067
4709000000.0 0.4985746637493589 -0.884598769338294
4712000000.0 0.5121269424808719 -0.8769878824778524
4716000000.0 0.4970910550031752 -0.9248675345714017
4719000000.0 0.5282707115255936 -0.8870349014877414
4722000000.0 0.5173725772846576 -0.8836484414532317
4725000000.0 0.4680843819396981 -0.9111029808082124
4728000000.0 0.45371599720563066 -0.9073009419403706
4731000000.0 0.5019893755457285 -0.9376196305661375
4734000000.0 0.45008138122217356 -0.91902745002681
4738000000.0 0.46836601913996434 -0.9301380112907319
4741000000.0 0.4351867968592121 -0.9437306246270252
4744000000.0 0.4039667094153864 -0.947971803618099
4747000000.0 0.4411212561286509 -0.8956834376582633
4750000000.0 0.429599349898959 -0.9395024155238437
4753000000.0 0.4328468207661461 -0.9557034760161935
4756000000.0 0.403286752111444 -0.9314203228294087
4759000000.0 0.3941990932454923 -0.9525122263724544
4762000000.0 0.3612480371783766 -0.9527000013354906
4766000000.0 0.3572430306042207 -0.9395816235862681
4769000000.0 0.36846041690899933 -0.9785354970994248
4772000000.0 0.36621362577465305 -0.9450983140392859
4775000000.0 0.34533378135740145 -1.0141970983974755
4778000000.0 0.34021499601487704 -0.9674470942832724
4781000000.0 0.3278221605426786 -0.9594578271063756
4784000000.0 0.3352411013607033 -0.9527154258384994
4788000000.0 0.3259448133954765 -0.9972155691973283
4791000000.0 0.3007952693770625 -0.9306211432938952
4794000000.0 0.3229825547598411 -1.0090994216921358
4797000000.0 0.25754015078906745 -0.9572813206198411
4800000000.0 0.28519294716867016 -0.9610964035071505
4803000000.0 0.23106570147729044 -0.9834375413620347
4806000000.0 0.26253231289389545 -0.9905947828388895
4809000000.0 0.1967737548808717 -1.0050027867015996
4812000000.0 0.20786770094435922 -0.9961227111952569
4816000000.0 0.26561302697941536 -0.9765402373538798
4819000000.0 0.2553942205759602 -1.015643537469185
4822000000.0 0.2569474539498671 -1.0449244501029138
4825000000.0 0.24815443305751822 -1.0112301284372855
4828000000.0 0.19161038862622182 -0.9876178204350262
4831000000.0 0.1472899126658584 -1.0384721506229562
4834000000.0 0.22658721630009554 -1.0041731045385538
4838000000.0 0.16773135456979688 -1.025027203781162
4841000000.0 0.15105085799530577 -0.995435438037077
4844000000.0 0.18591654674890767 -1.0215919299941627
4847000000.0 0.16723201592472003 -0.9957597036349297
4850000000.0 0.14840192303621214 -1.0348510130205235
4853000000.0 0.16458422178570084 -0.9923456584853239
4856000000.0 0.14162798207922472 -0.9933563428659803
4859000000.0 0.1251102955334006 -1.0415027162283002
4862000000.0 0.13052331252492955 -1.0123299795824927
4866000000.0 0.09523241529385515 -1.0541438101662342
4869000000.0 0.08890426151942053 -1.0256191532644425
4872000000.0 0.06965687557420545 -1.049919838052466
4875000000.0 0.13677655233538172 -1.059377646280615
4878000000.0 0.05446237997847386 -1.031738542047078
4881000000.0 0.02708734658874179 -1.089992923313497
4884000000.0 0.08190456279856992 -1.0386723845357497
4888000000.0 0.08359244502052099 -1.0315132363080008
4891000000.0 0.05888422060828111 -1.040942417507067
4894000000.0 0.0132858780115841 -1.0278839377766298
4897000000.0 0.06528143383837247 -1.0238972433997122
4900000000.0 0.0128902866533479 -1.02385318440362
4903000000.0 0.06085406565556986 -1.0768848111335552
4906000000.0 -0.010115941477348258 -1.0793214328681886
4909000000.0 -0.030172584606656262 -1.031060453982273
4912000000.0 -0.05926851972201433 -1.1072183887416156
4916000000.0 0.0017832238937111125 -1.060073234222422
4919000000.0 0.0028656394128160484 -1.0607382295898988
4922000000.0 -0.012441889249043075 -1.0547008509078613
4925000000.0 -0.06287451186759757 -1.0134379469185288
4928000000.0 -0.03808522704311525 -1.0289807622993252
4931000000.0 -0.04200434613546809 -1.0441737328179026
4934000000.0 -0.06963009146265149 -1.031059922090371
4938000000.0 -0.12204798341607785 -1.004623110426761
4941000000.0 -0.06438957875423905 -1.0056775373787672
4944000000.0 -0.06672463634789902 -0.9715218745983782
4947000000.0 -0.11381249400815979 -1.0178626548244754
4950000000.0 -0.11085953851473472 -1.014827080877283
4953000000.0 -0.1684028454773197 -1.057123441775495
4956000000.0 -0.14283416678781385 -1.0274459017688808
4959000000.0 -0.1748974436149496 -0.9910233762442575
4962000000.0 -0.14582332573623422 -1.063117382604272
4966000000.0 -0.17042868220916307 -1.0479769297430568
4969000000.0 -0.1473665787860033 -1.087773868923017
4972000000.0 -0.17069832878996558 -1.0502332395163059
4975000000.0 -0.16620299316519668 -0.9954029331349957
4978000000.0 -0.21889048018222113 -1.0337496431850344
4981000000.0 -0.2108246150918858 -1.0371487486355784
4984000000.0 -0.19449425998506772 -0.9792085503740497
4988000000.0 -0.23129614541015375 -1.0064650700907218
4991000000.0 -0.1688051116478354 -1.0417847430978764
4994000000.0 -0.2329786314724021 -1.0100734360306474
4997000000.0 -0.2791545938964396 -1.0020015872709565
5000000000.0 -0.2584659775339347 -1.0568026272726097
5003000000.0 -0.2512126133566014 -1.0527627912978172
5006000000.0 -0.2711897902036471 -1.0735418483674846
5009000000.0 -0.28809357256273194 -0.995419541046752
5012000000.0 -0.30935260395593395 -0.9854222834123938
5016000000.0 -0.2828071177981408 -1.0235410307083728
5019000000.0 -0.2898490305766891 -1.0072152100950673
5022000000.0 -0.30942858870507073 -1.0021457270087777
5025000000.0 -0.35458226660333875 -1.0636808575159806
5028000000.0 -0.3416495322623939 -1.0080309164139067
5031000000.0 -0.3368270779745438 -0.9836894084167792
5034000000.0 -0.39207418193456556 -1.0151509622874213
5038000000.0 -0.3337537866996233 -0.9444878194886501
5041000000.0 -0.31702751785931327 -1.0177402303148542
5044000000.0 -0.33568314785395414 -0.9475792202723486
5047000000.0 -0.3475852184338379 -1.017039198486461
5050000000.0 -0.2816038638919496 -0.979391276757736
5053000000.0 -0.3985854431962145 -0.9951839380313565
5056000000.0 -0.37161859001076014 -0.9967819969312344
5059000000.0 -0.33301669290983443 -0.9953264629917874
5062000000.0 -0.44328351263340315 -0.9486341893939805
5066000000.0 -0.38628268143914346 -0.9440295227105069
5069000000.0 -0.4070008927272907 -0.9675566396321006
5072000000.0 -0.414146000638561 -0.934445798252139
5075000000.0 -0.3756258121651026 -0.956501316431263
5078000000.0 -0.48596332587320895 -0.9362442120329788
5081000000.0 -0.4366886802907572 -0.8880917426429266
5084000000.0 -0.47946563055105984 -0.9589843411152488
5088000000.0 -0.4281904785544999 -0.9475270348461966
5091000000.0 -0.5018393894563993 -0.9093915271162254
5094000000.0 -0.47423799760001645 -0.9455318841151593
5097000000.0 -0.45930704335068595 -0.9669018251486621
5100000000.0 -0.49365091564287683 -0.9006295574052717
5103000000.0 -0.5437768612414123 -0.9353906159874313
5106000000.0 -0.5228040956920871 -0.9441200599066815
5109000000.0 -0.4866886053010068 -0.9210845687299092
5112000000.0 -0.550429091032488 -0.905622362840159
5116000000.0 -0.4935756527835232 -0.8440982487175761
5119000000.0 -0.5717979327654571 -0.9245365941909653
5122000000.0 -0.4885886420094071 -0.8577837584261083
5125000000.0 -0.5302157044972291 -0.884298966007233
5128000000.0 -0.5527466426309298 -0.8942761685029368
5131000000.0 -0.5828500563573421 -0.8677276966947578
5134000000.0 -0.4722896973725593 -0.88853056182822
5138000000.0 -0.5398170469761783 -0.883813497520694
5141000000.0 -0.5336346713957121 -0.9062348836059744
5144000000.0 -0.5652552898420843 -0.8809671581971122
5147000000.0 -0.6148678470610844 -0.8859138382923565
5150000000.0 -0.5405982968832336 -0.8791265378580212
5153000000.0 -0.5915170532278333 -0.8693417496146563
5156000000.0 -0.5882380005077481 -0.8879355690585653
5159000000.0 -0.6437721067320066 -0.880134465675971
5162000000.0 -0.6154704505752389 -0.8287472866699012
5166000000.0 -0.6729418349150147 -0.8468825905489769
5169000000.0 -0.6234950763411725 -0.8539979596588146
5172000000.0 -0.6348806455956791 -0.8184658712926627
5175000000.0 -0.6348326627878054 -0.8437867453298801
5178000000.0 -0.6562331747579504 -0.7747306621535794
5181000000.0 -0.675832900674733 -0.8295367523441135
5184000000.0 -0.6648352765576069 -0.7858405295880816
5188000000.0 -0.654289597671381 -0.7966129610437674
