! Created with skrf 1.8.0 (http://scikit-rf.org).
# Hz S RI R 50.0 
!freq ReS11 ImS11
4000000000.0 0.9365780254346591 0.36113053223219577
4003000000.0 1.001434566112749 0.3038896597341807
4006000000.0 0.9558141646645756 0.29979046349771027
4009000000.0 0.9684376972567769 0.2872037961720011
4012000000.0 0.9519513068920264 0.30816721505287803
4016000000.0 0.9912508053958295 0.2712959632278576
4019000000.0 0.949658269541056 0.28702855563979
4022000000.0 1.0095665234402713 0.27961184146331575
4025000000.0 1.0388363338358075 0.2503753469570008
4028000000.0 1.0136198390685782 0.2066989992669857
4031000000.0 0.9458727602573129 0.2295320077183086
4034000000.0 0.9903444861722555 0.1765316617476423
4038000000.0 0.9843426618209585 0.2051471708478435
4041000000.0 0.971644321329135 0.17641568264827392
4044000000.0 1.00692141217902 0.1977818094356557
4047000000.0 1.0474155599872814 0.1596793693326913
4050000000.0 1.0247100841900447 0.1739948282386631
4053000000.0 1.0112194352373272 0.10841418023333776
4056000000.0 1.015758457180694 0.13030529568645619
4059000000.0 0.9882290142271855 0.11178746860326161
4062000000.0 0.9927572274372927 0.11683160885979355
4066000000.0 0.9868067549788031 0.09275373251667135
4069000000.0 1.0189959223476113 0.07726893282268349
4072000000.0 1.0317117590340557 0.06844090146051524
4075000000.0 1.011086908140234 0.06189762542653582
4078000000.0 0.9984733618236933 0.04005121231937031
4081000000.0 0.9957552075994018 0.013571397206751379
4084000000.0 1.031643779494729 0.009056332991207672
4088000000.0 1.0047533420416153 0.025734731227942398
4091000000.0 1.004748470261849 0.006289525819327235
4094000000.0 1.0004528799257848 -0.045173419674179066
4097000000.0 1.0055468464675148 -0.05122174356848183
4100000000.0 1.0055299919857439 -0.06194304813449156
4103000000.0 1.0512438769829278 -0.05766049743539642
4106000000.0 1.0294399785278574 -0.11726826308695884
4109000000.0 1.0095805788446588 -0.094688761487146
4112000000.0 0.9827732056922303 -0.09729216813262404
4116000000.0 1.014738350207676 -0.14613779853645698
4119000000.0 1.0246954164883038 -0.13448292995554129
4122000000.0 0.9712338075017465 -0.1768323429919707
4125000000.0 0.9967247888228425 -0.17313839356495922
4128000000.0 1.0020283482246533 -0.1856908384565323
4131000000.0 0.9934903634920728 -0.221061284113855
4134000000.0 0.9918968633388022 -0.20441277132764535
4138000000.0 0.9838251929756003 -0.21970206671718823
4141000000.0 0.9940281950783533 -0.2222186679856879
4144000000.0 0.9808058361348115 -0.22611167337271917
4147000000.0 0.9994864107006606 -0.28989889640223576
4150000000.0 0.9633440400538306 -0.30286506534624325
4153000000.0 0.9490798404873253 -0.28815143571353097
4156000000.0 0.9784085003741538 -0.30000621780457853
4159000000.0 0.9211558613874014 -0.3155054102299905
4162000000.0 0.9483426024779744 -0.3287163838269797
4166000000.0 0.9751043803998785 -0.3563462668175211
4169000000.0 0.9127916233223078 -0.36560958053933923
4172000000.0 0.9370041424538943 -0.4014221568385822
4175000000.0 0.9580772268235648 -0.40559649722267743
4178000000.0 0.9339990763006988 -0.39578501102381075
4181000000.0 0.8789515049776937 -0.4305636721250061
4184000000.0 0.8850416536374638 -0.41295587489695884
4188000000.0 0.8755918103842439 -0.4555754224487048
4191000000.0 0.9108343675324458 -0.4413824418253406
4194000000.0 0.8929307916095658 -0.4877997289564473
4197000000.0 0.9054143583663171 -0.4916290958200502
4200000000.0 0.91867360418905 -0.4831141717049393
4203000000.0 0.9049139436275219 -0.5250572182896962
4206000000.0 0.8746030646602879 -0.5232464648020194
4209000000.0 0.8241476712978092 -0.5524113543359375
4212000000.0 0.8127440915748745 -0.5984340262922645
4216000000.0 0.8731419562929085 -0.5713189505306303
4219000000.0 0.8361242181176184 -0.6021398911845186
4222000000.0 0.8023194766926531 -0.5864410796345008
4225000000.0 0.7922791682566779 -0.626271768256302
4228000000.0 0.7872777590272082 -0.6396206243544945
4231000000.0 0.7679629791498872 -0.6716251181805282
4234000000.0 0.7632926440531467 -0.6948963375345978
4238000000.0 0.7336772750066102 -0.6854462816511442
4241000000.0 0.697151589132529 -0.6652443265745338
4244000000.0 0.7129308167194002 -0.6920171254686889
4247000000.0 0.6998105695746528 -0.6881958891228261
4250000000.0 0.6945016418857306 -0.7005607826663726
4253000000.0 0.6591563480289775 -0.7273333181905368
4256000000.0 0.7292709280519742 -0.7656534000379238
4259000000.0 0.6389711156955252 -0.7281224354041614
4262000000.0 0.6424787202588447 -0.7753586036230995
4266000000.0 0.6327550225428861 -0.8119836220955112
4269000000.0 0.6071934879510028 -0.7675276792829433
4272000000.0 0.6147718593791998 -0.7893406553752935
4275000000.0 0.5886527039849506 -0.8197330656338011
4278000000.0 0.5867327052335845 -0.8377297088398608
4281000000.0 0.5614975635962515 -0.839231506775828
4284000000.0 0.517933897247742 -0.8724726376567908
4288000000.0 0.5244086848828752 -0.8424525404008674
4291000000.0 0.48762280813809394 -0.8745056984853037
4294000000.0 0.4843003516047316 -0.8887190179220448
4297000000.0 0.5063728976796612 -0.8814884136949434
4300000000.0 0.45380277065569136 -0.8582836681567042
4303000000.0 0.4210311050240129 -0.8984849101166235
4306000000.0 0.44736663753315475 -0.874394821620409
4309000000.0 0.4069112788676931 -0.9134961678304325
4312000000.0 0.4201708649634105 -0.9420062059199714
4316000000.0 0.3853013199305801 -0.9322729046731361
4319000000.0 0.3541119329790778 -0.9373914593936362
4322000000.0 0.3152647258128819 -0.976671436378415
4325000000.0 0.28850390966880973 -0.9759261787847615
4328000000.0 0.28608492615959613 -0.977632939436444
4331000000.0 0.24516937037818431 -0.9751743793047163
4334000000.0 0.22650910214874875 -0.9822270183529601
4338000000.0 0.23621617200419542 -0.9790177190274284
4341000000.0 0.21408946199361878 -0.995780987405016
4344000000.0 0.18965225177059902 -0.9919894594127966
4347000000.0 0.1561901036393545 -0.9994962244555589
4350000000.0 0.12468925746971306 -1.0107850464261017
4353000000.0 0.11445641380253971 -1.0121967511888537
4356000000.0 0.06965755041011819 -1.005739715145734
4359000000.0 0.04706662566106637 -1.0085957773266407
4362000000.0 0.0292083554569086 -1.024661161516644
4366000000.0 0.010154110972873012 -1.040596376030408
4369000000.0 0.0028996311504828204 -1.0085426913412712
4372000000.0 -0.04064153057297237 -1.015929581193548
4375000000.0 -0.05177966519352056 -0.9972118706914778
4378000000.0 -0.09046966207828537 -1.0108250632134097
4381000000.0 -0.11851623783861753 -1.0134998950825023
4384000000.0 -0.13249610288561736 -1.0080702198299907
4388000000.0 -0.16241238397655322 -0.9955225410688759
4391000000.0 -0.18005846947988874 -1.0084051583007951
4394000000.0 -0.22873378205548647 -1.01134394147376
4397000000.0 -0.2525595747919309 -0.995111912598089
4400000000.0 -0.2551502312139844 -0.9750971658919455
4403000000.0 -0.2709664154381763 -0.9724146923228598
4406000000.0 -0.3151808455636934 -0.9667744054865972
4409000000.0 -0.34924736426579 -0.9460711338585819
4412000000.0 -0.3274871061564003 -0.9447089545374925
4416000000.0 -0.36248714306948476 -0.9368823194798139
4419000000.0 -0.3966932801440489 -0.9613236790203636
4422000000.0 -0.424848379009477 -0.934465075737064
4425000000.0 -0.45086991260888143 -0.8976235495410482
4428000000.0 -0.48090505631136127 -0.9358119065712038
4431000000.0 -0.5110734945185262 -0.8445093069697993
4434000000.0 -0.554442491087688 -0.8719333277099091
4438000000.0 -0.5173423609111767 -0.8494512662376121
4441000000.0 -0.6109262161825217 -0.8111310902825177
4444000000.0 -0.6110346397142534 -0.833985152793565
4447000000.0 -0.6289847743153658 -0.8262094198033059
4450000000.0 -0.7141074029101443 -0.7895866185558154
4453000000.0 -0.6600123241475163 -0.7510072315626656
4456000000.0 -0.7296764505385049 -0.7595688357750296
4459000000.0 -0.7587238697287089 -0.8069718694102402
4462000000.0 -0.7648579313474417 -0.663507934400573
4466000000.0 -0.7078950523670987 -0.7081074763589414
4469000000.0 -0.795942057242947 -0.6478339295363855
4472000000.0 -0.8278413406213584 -0.6233307075565198
4475000000.0 -0.8819770841862625 -0.65587979279393
4478000000.0 -0.807783109864231 -0.5942030241573879
4481000000.0 -0.8488562505564976 -0.5766055413724105
4484000000.0 -0.9245416338703429 -0.550706559589006
4488000000.0 -0.9462776607651708 -0.5128642234752911
4491000000.0 -0.8853906896114172 -0.5048870232760876
4494000000.0 -0.9102117011332789 -0.4822076570312162
4497000000.0 -0.9873329479312785 -0.41713019747833746
4500000000.0 -0.9641467897727309 -0.36707307385638765
4503000000.0 -1.000957983902299 -0.32903534846923843
4506000000.0 -0.9955002028205686 -0.3453475223967892
4509000000.0 -1.0044958432306401 -0.27100056291852914
4512000000.0 -0.9766931210605848 -0.26949687770936315
4516000000.0 -1.0217827259183712 -0.16904769678527923
4519000000.0 -1.01914369891571 -0.196237723739694
4522000000.0 -1.0329084562538113 -0.2102663910542041
4525000000.0 -1.0692063890366053 -0.10850759042551998
4528000000.0 -1.0408103419493298 -0.10486622564708822
4531000000.0 -1.0163073705235235 -0.02347167258900537
4534000000.0 -1.0517580023569724 0.020830072301438258
4538000000.0 -1.051421319711101 0.004798692671003531
4541000000.0 -1.0248808726348932 0.004906021269167005
4544000000.0 -1.0709208152119556 0.1342180275747058
4547000000.0 -0.9985925375988112 0.1804443032857526
4550000000.0 -1.052158004746123 0.14683826236134534
4553000000.0 -1.0114795747400034 0.19605737217632715
4556000000.0 -1.066324764462297 0.22195305964009673
4559000000.0 -1.0477616361459887 0.2283898757140211
4562000000.0 -1.002439435220207 0.30387523993370763
4566000000.0 -0.970245738457916 0.34331684359007647
4569000000.0 -1.0144059466400779 0.3758978332964909
4572000000.0 -0.9459264598466066 0.365091265187395
4575000000.0 -0.8818515197193919 0.39403905764442826
4578000000.0 -0.9017457722593738 0.4141778412128647
4581000000.0 -0.8879068478710083 0.4552986406215704
4584000000.0 -0.9331173418548396 0.5298398708550784
4588000000.0 -0.8682762729814064 0.5245539419279416
4591000000.0 -0.851596785315653 0.6060161371570961
4594000000.0 -0.9130957435350324 0.61112548118546
4597000000.0 -0.8322045358361612 0.6940232451080971
4600000000.0 -0.7992415362649345 0.6755303416611204
4603000000.0 -0.7547112490578745 0.6548511087899841
4606000000.0 -0.8456157892968399 0.7202285790851695
4609000000.0 -0.7432561173306063 0.7636542778600125
4612000000.0 -0.674390142047171 0.8005786880849437
4616000000.0 -0.637550887787957 0.7885382486946243
4619000000.0 -0.6935279655580181 0.8315780469836987
4622000000.0 -0.6066249439321851 0.8491662091786826
4625000000.0 -0.5894202582230745 0.8401036835010623
4628000000.0 -0.5790812018468013 0.9096047819148437
4631000000.0 -0.5517292759772834 0.9015867729811108
4634000000.0 -0.4880618817554214 0.9393182338183974
4638000000.0 -0.4989881506081132 0.9028268884951198
4641000000.0 -0.39631191045115133 0.9472125713136712
4644000000.0 -0.42394300401082496 0.9529843854052225
4647000000.0 -0.38507785183968735 0.9563729208661631
4650000000.0 -0.3281567307822746 0.9651929050500994
4653000000.0 -0.3174909139854443 0.9902583922184633
4656000000.0 -0.3170056712252565 1.0053232955027473
4659000000.0 -0.2651282045998607 0.9773026780646727
4662000000.0 -0.23835373776830432 0.9971183961508164
4666000000.0 -0.1866942829735752 0.9920938181604508
4669000000.0 -0.16679530747170557 1.0318266189495242
4672000000.0 -0.07435365013432586 1.0177771293282476
4675000000.0 -0.05715294719860278 0.952808873855973
4678000000.0 -0.08671862091223023 1.0063458836566301
4681000000.0 0.03527060723211603 1.0093987094412298
4684000000.0 -0.0071765642686763 0.9728433114779198
4688000000.0 -0.028888915135893783 1.019888846010469
4691000000.0 0.0680315704805516 0.9881883835930572
4694000000.0 0.11213763253367731 1.0342783834179268
4697000000.0 0.15359842022642464 1.038654672911617
4700000000.0 0.13261561126638444 1.008995872451954
4703000000.0 0.2059965194086969 1.0612854958447437
4706000000.0 0.155282376772587 0.9840522082786264
4709000000.0 0.22969170657389446 0.979523930045704
4712000000.0 0.2910955459902835 0.9479839020549541
4716000000.0 0.3069246555129601 0.9656153892997297
4719000000.0 0.35146076330278053 0.933097142529119
4722000000.0 0.3830318003924368 0.9854939056015208
4725000000.0 0.400643192723098 0.927842299325061
4728000000.0 0.42647966062711357 0.9241903244192462
4731000000.0 0.3984495666799794 0.8967535501469843
4734000000.0 0.4408001686494555 0.9116750456367684
4738000000.0 0.4665888994099666 0.8615812201709052
4741000000.0 0.4990837194423958 0.8822608325782686
4744000000.0 0.5327808556292507 0.8648929209809669
4747000000.0 0.5963019018928339 0.8482712004737023
4750000000.0 0.5687522735349343 0.7924277996936524
4753000000.0 0.6459995419179789 0.8095177986397618
4756000000.0 0.6259888068100123 0.7641320066570392
4759000000.0 0.6609816768995498 0.756780997224485
4762000000.0 0.6127144076024428 0.7812389706142056
4766000000.0 0.6730489923311476 0.7199365555596897
4769000000.0 0.7276895769672782 0.7839298854486132
4772000000.0 0.740461614159911 0.7346637360094085
4775000000.0 0.722363547305934 0.6836430220850632
4778000000.0 0.6854059120367062 0.713984265296093
4781000000.0 0.7955553956848007 0.671309691692679
4784000000.0 0.7851961325891696 0.6592956600582653
4788000000.0 0.7528236642673821 0.6293761914939443
4791000000.0 0.8330008818503392 0.5922489989545459
4794000000.0 0.7731716705640803 0.5320463587324186
4797000000.0 0.899869166545368 0.5739326205593583
4800000000.0 0.8688030335890999 0.495587695910812
4803000000.0 0.8572185347958207 0.5326110259206157
4806000000.0 0.8583843658901307 0.4922414172245094
4809000000.0 0.8663420110883224 0.483290341979283
4812000000.0 0.9188228787956596 0.4840123969480178
4816000000.0 0.9284774378130967 0.4287572241974715
4819000000.0 0.9320558480508994 0.37144879474918574
4822000000.0 0.914195309181539 0.3949619739258745
4825000000.0 0.9247544502347538 0.34361573091642716
4828000000.0 0.9477438998863358 0.34106478049712907
4831000000.0 0.9401556588756402 0.37539230392721
4834000000.0 0.9600864992896236 0.287113807421823
4838000000.0 0.9621739418385995 0.30336085123035444
4841000000.0 0.9764301251484896 0.26844407552112964
4844000000.0 0.9641782631603932 0.2580614232010684
4847000000.0 1.0042304477463242 0.2279685650016774
4850000000.0 0.973417632504308 0.1873351844119467
4853000000.0 0.999629789037431 0.1673394554773533
4856000000.0 0.9901195972975643 0.16497814419191553
4859000000.0 0.9583543872892749 0.16101234651261453
4862000000.0 1.0065709432610228 0.10245911068240841
4866000000.0 1.014433357751744 0.11921162948154138
4869000000.0 1.0064158082670946 0.06228356707858765
4872000000.0 0.9758465426831063 0.07495824181878756
4875000000.0 1.0061898160767628 0.03000599248496366
4878000000.0 1.019423405871683 0.011754456459283816
4881000000.0 0.9796910817662977 0.0163785139296887
4884000000.0 1.0160249904354322 -0.005723003896958644
4888000000.0 1.0312615735165491 -0.007921867662141965
4891000000.0 1.0057056168896266 -0.03117235774922566
4894000000.0 1.011012891353265 -0.07528532454169339
4897000000.0 0.9874847955282233 -0.08899628148694756
4900000000.0 0.997311604865838 -0.12428147004757004
4903000000.0 0.9984193371235753 -0.13413314527886577
4906000000.0 0.9914375043292536 -0.1426698625337946
4909000000.0 1.0073355544775677 -0.16289976695630493
4912000000.0 0.9728546974966981 -0.19659033091816933
4916000000.0 0.9875894583757334 -0.19225086301148495
4919000000.0 0.9924133322164407 -0.22588991973044137
4922000000.0 1.0022762093928546 -0.23022222256336056
4925000000.0 0.9527465638983057 -0.23574843377633242
4928000000.0 0.9929582828020328 -0.26398745157665643
4931000000.0 0.9941264269203443 -0.27506193313822414
4934000000.0 0.9561365613797599 -0.31061477878916893
4938000000.0 0.968498987439371 -0.3284298958029129
4941000000.0 0.9533303782100127 -0.338245119152307
4944000000.0 0.9429948838609403 -0.34185644613326416
4947000000.0 0.935177236009772 -0.35435502846860184
4950000000.0 0.9290326438807577 -0.3834478057404551
4953000000.0 0.9266098190026532 -0.4213793071373676
4956000000.0 0.9084170090931849 -0.44069413089287746
4959000000.0 0.9236292615645364 -0.45201526500778905
4962000000.0 0.8958634367942172 -0.4573613429037619
4966000000.0 0.8981833538828284 -0.45734293915324165
4969000000.0 0.9314506680232889 -0.49890249270970954
4972000000.0 0.8909149994749566 -0.5079780663014938
4975000000.0 0.881388548003627 -0.48037671388270337
4978000000.0 0.8628085287886798 -0.518573883576382
4981000000.0 0.8532852127202596 -0.5210214261921083
4984000000.0 0.8622454531717718 -0.5332905299957662
4988000000.0 0.8500799290614993 -0.5304806640944897
4991000000.0 0.8805753219814743 -0.573461462192827
4994000000.0 0.8342855553831046 -0.5726023920783492
4997000000.0 0.8506560770599729 -0.5768088327445127
5000000000.0 0.8294019057809494 -0.5847907265888139
5003000000.0 0.8082985580442501 -0.6395821347211076
5006000000.0 0.7936500999344316 -0.6469638279792076
5009000000.0 0.7635211407512514 -0.6403879313872015
5012000000.0 0.7414195685264715 -0.666200418294735
5016000000.0 0.8104580912532473 -0.6635642508753234
5019000000.0 0.7259499190306973 -0.6526975176499159
5022000000.0 0.7569909400381479 -0.7065707170881239
5025000000.0 0.8043382943355326 -0.7305365036591909
5028000000.0 0.7316664941889408 -0.7461870191633226
5031000000.0 0.7173885981026047 -0.7139988412977768
5034000000.0 0.7194457835341717 -0.7712701282802904
5038000000.0 0.6702101044381406 -0.7297357667641134
5041000000.0 0.7282419467962745 -0.7039430167373488
5044000000.0 0.681381224436602 -0.7269268691998123
5047000000.0 0.7101791222609397 -0.7495376616730168
5050000000.0 0.7162882960408232 -0.7006979291147049
5053000000.0 0.6927770357738263 -0.8318067024549449
5056000000.0 0.6743468008809798 -0.7925727234652438
5059000000.0 0.7135108646689259 -0.766038948782967
5062000000.0 0.6259611461116208 -0.8177947772038986
5066000000.0 0.6004907095478077 -0.7588040467276943
5069000000.0 0.5949915115435228 -0.8351192736763867
5072000000.0 0.566748713907743 -0.8119528079921201
5075000000.0 0.6173379007649928 -0.8218245016359766
5078000000.0 0.5390201117572975 -0.8888944560947931
5081000000.0 0.548142401849833 -0.8186933932004726
5084000000.0 0.5548565858868457 -0.9235663419680409
5088000000.0 0.5542779476237989 -0.8457441393640137
5091000000.0 0.5099586226340709 -0.9426379583350124
5094000000.0 0.5534802106214849 -0.9001282943072836
5097000000.0 0.5546458413722279 -0.9055181808972441
5100000000.0 0.487216971574767 -0.8504780625958407
5103000000.0 0.5102963843257581 -0.8800522506641094
5106000000.0 0.5106426950258941 -0.954727210761495
5109000000.0 0.49671706087009776 -0.896924595986931
5112000000.0 0.46979718148420646 -0.9165754984915113
5116000000.0 0.42203693722729346 -0.8910072899197377
5119000000.0 0.4606395001264154 -0.954334389528964
5122000000.0 0.45014554962187037 -0.9163195252746026
5125000000.0 0.36886898341850183 -0.9687871493271486
5128000000.0 0.4100448126924884 -0.9546182837154578
5131000000.0 0.4125293651752895 -0.9103138639455047
5134000000.0 0.35273695284127216 -0.9765289611463672
5138000000.0 0.3665765429552663 -0.9815768189550448
5141000000.0 0.42881516853865265 -0.9447007827810394
5144000000.0 0.40968816857801493 -0.9908957156840529
5147000000.0 0.3874712225429927 -0.9605505192092648
5150000000.0 0.33928930771593224 -0.931194873302646
5153000000.0 0.30251141561981826 -0.9832711664582114
5156000000.0 0.30436637421985013 -1.0334253308307682
5159000000.0 0.3098110596572702 -0.9935253100931851
5162000000.0 0.28004812913164157 -0.9441915636837211
5166000000.0 0.24295090076640855 -1.0203161513486518
5169000000.0 0.2640784887310555 -1.035121593894327
5172000000.0 0.24264717082930745 -0.9603668337316624
5175000000.0 0.25242144476751077 -1.0479679038377232
5178000000.0 0.21988760117792822 -1.025396995775787
5181000000.0 0.27923626117168004 -1.0344524567815
5184000000.0 0.1943147839006874 -1.0036205648459517
5188000000.0 0.24749613971170847 -0.9613994287013259
5191000000.0 0.1916668445678781 -1.0376268025149036
