! Created with skrf 1.8.0 (http://scikit-rf.org).
# Hz S RI R 50.0 
!freq ReS11 ImS11
4000000000.0 0.5792705447443867 0.7972576932180178
4003000000.0 0.6493185569365839 0.8470696307318041
4006000000.0 0.66530259070167 0.7798371934954137
4009000000.0 0.6776733046370879 0.7788317344909377
4012000000.0 0.6844582095584333 0.804734079802188
4016000000.0 0.6989858265383192 0.7360776772318822
4019000000.0 0.653454869985427 0.7744586266109824
4022000000.0 0.6890555251416568 0.7987101182323959
4025000000.0 0.7327912973623054 0.7273515656390834
4028000000.0 0.6957495126264132 0.7460407453092297
4031000000.0 0.6577151835542236 0.7392930016401893
4034000000.0 0.7143517051413308 0.7785189788925504
4038000000.0 0.7239056944998894 0.8106604043268381
4041000000.0 0.6985404850682713 0.7100157955138985
4044000000.0 0.7584370188126718 0.7372509891122935
4047000000.0 0.7524805033977615 0.7449249691422719
4050000000.0 0.7676600022715939 0.7062856226325702
4053000000.0 0.7640315521046593 0.6743132559765359
4056000000.0 0.7545585617256244 0.6876322683189517
4059000000.0 0.7511780629805641 0.6721020911252447
4062000000.0 0.7606469959123231 0.6807345401080105
4066000000.0 0.6993370553464942 0.6281544513594618
4069000000.0 0.8369651649401291 0.6556144827305999
4072000000.0 0.7373046612338962 0.7312508566789946
4075000000.0 0.8004845251121488 0.7400288195582503
4078000000.0 0.8057073697345255 0.6841679306056359
4081000000.0 0.7610251258489636 0.682374698535711
4084000000.0 0.8665949905894916 0.6578496646695244
4088000000.0 0.7466009861619806 0.6662375300250544
4091000000.0 0.8498710865939086 0.7167635433640656
4094000000.0 0.820193184143718 0.6585221538557355
4097000000.0 0.8158527594381245 0.6336966406244386
4100000000.0 0.8628679864086631 0.6011327075307289
4103000000.0 0.8505686386390001 0.6036215002014746
4106000000.0 0.8547942139300226 0.6012752788856403
4109000000.0 0.8940923761044608 0.5907220506775623
4112000000.0 0.8552026109439677 0.5871208690866045
4116000000.0 0.8207997379811403 0.6067186304373853
4119000000.0 0.8472195364492852 0.5649386460605759
4122000000.0 0.884762551256507 0.5510764040634821
4125000000.0 0.8859606095705567 0.551788126722597
4128000000.0 0.8110342300753373 0.5324521594600338
4131000000.0 0.8592882157198873 0.5294468521692489
4134000000.0 0.8734333122197282 0.5697037934171286
4138000000.0 0.8535800185011677 0.51240582284875
4141000000.0 0.8646336343016547 0.535075635526429
4144000000.0 0.9120361772805418 0.5441154714967058
4147000000.0 0.9008248108698912 0.5275322714740569
4150000000.0 0.9511395371570631 0.5306533096252581
4153000000.0 0.8914341070728601 0.4919358039988213
4156000000.0 0.9242223653015815 0.5476626335717516
4159000000.0 0.9003152025297292 0.4863157438808828
4162000000.0 0.8858025744926894 0.47365067228029367
4166000000.0 0.9461242821672406 0.46353132188658763
4169000000.0 0.8912227380549309 0.42684918032078956
4172000000.0 0.9333013969724538 0.4573936505993684
4175000000.0 0.8935345575999443 0.4736894473579429
4178000000.0 0.928069169413388 0.4415482616822922
4181000000.0 0.9179853858628595 0.43438581693251377
4184000000.0 0.9399394032354508 0.4068916839776539
4188000000.0 0.9305168848900323 0.39926144709289957
4191000000.0 0.9231988257605842 0.4175374191762166
4194000000.0 0.9290332937053378 0.3803736600840242
4197000000.0 0.956844358175638 0.39677783834129016
4200000000.0 0.9228517320934602 0.40126096809031797
4203000000.0 0.9544966508197111 0.39536508873306486
4206000000.0 0.9807860501364788 0.3787745616408447
4209000000.0 0.9574504210321559 0.3789710573014808
4212000000.0 0.9733651373220555 0.3256527956682147
4216000000.0 0.9675344118288258 0.35994522726719863
4219000000.0 0.9680721745056157 0.34476790325876805
4222000000.0 0.9653201904812416 0.31938959097323755
4225000000.0 0.9757761140936159 0.3239431931260235
4228000000.0 0.9763777186149589 0.32552220595072845
4231000000.0 0.961912881569704 0.29986918674777413
4234000000.0 0.9742338930571359 0.3248175645741625
4238000000.0 0.992537613779113 0.2904114839935711
4241000000.0 0.9768383524056994 0.2725180531216002
4244000000.0 0.9828750492488446 0.2705768974990692
4247000000.0 0.9852603264079235 0.27451977115433623
4250000000.0 0.9719097788216735 0.2468427495974101
4253000000.0 0.9792586430990449 0.23175401313204652
4256000000.0 1.0141736511635846 0.21946089790639417
4259000000.0 0.9715888218840558 0.22592365795674826
4262000000.0 1.0051656124567485 0.2072253801652593
4266000000.0 1.0385572027944878 0.18792759998800013
4269000000.0 1.0104875832499636 0.21028315109644477
4272000000.0 0.9926478722614158 0.19544526765861497
4275000000.0 0.994769825759632 0.1962225606613986
4278000000.0 1.0134064687974818 0.18013795633164076
4281000000.0 0.9778945544904474 0.19818556129507897
4284000000.0 1.010241717629804 0.14316683677454603
4288000000.0 0.9878086668211922 0.18903655977174702
4291000000.0 1.0053496615192332 0.15314902750951886
4294000000.0 1.0151965244008863 0.13389704784480744
4297000000.0 1.0122491975902923 0.13743275094540602
4300000000.0 0.9951799672201223 0.13229402746229038
4303000000.0 0.9821592020972818 0.10227039438846049
4306000000.0 0.9975676538067062 0.13691087414366498
4309000000.0 0.9895361991667198 0.09208576830342767
4312000000.0 1.033939997755981 0.09026565220756042
4316000000.0 1.0158902675887764 0.10521153145806929
4319000000.0 1.0075367143240654 0.08233363928850675
4322000000.0 1.0104611320977086 0.025984663307021136
4325000000.0 1.0277660207588748 0.05867875765375617
4328000000.0 0.9901135466345166 0.03276078865060304
4331000000.0 1.0160408375653633 0.010074158323212595
4334000000.0 1.0187933570385617 0.034813977973930876
4338000000.0 1.0161315903021018 0.03473431990575278
4341000000.0 1.0522359286127843 0.023887533878247408
4344000000.0 1.037814038951053 -0.008082509461132287
4347000000.0 1.0473148529354455 -0.03384741524963156
4350000000.0 1.0005197067510463 -0.015061273447266571
4353000000.0 0.9870391074085252 -0.005316994731990848
4356000000.0 1.0300279090372026 -0.0641318393581573
4359000000.0 0.9557119460330789 -0.048855935218434496
4362000000.0 1.012486783892806 -0.11194268027128416
4366000000.0 1.030799590861472 -0.06329414538545525
4369000000.0 0.9771463477093814 -0.0775084116646438
4372000000.0 0.9968842016521924 -0.10197407410803958
4375000000.0 0.9930606334882037 -0.073976662234606
4378000000.0 0.9930359509500454 -0.09106586559733969
4381000000.0 0.9910352385958836 -0.08479128495719489
4384000000.0 1.065621274200976 -0.12320467791400137
4388000000.0 0.9871119563082656 -0.11327240290375443
4391000000.0 1.0117651454367238 -0.1370853292759795
4394000000.0 0.9831923919662529 -0.13396943691120056
4397000000.0 0.994137478296256 -0.15577156121634614
4400000000.0 1.031109164068582 -0.15897777331971963
4403000000.0 1.0075125255933015 -0.17522463640561148
4406000000.0 0.9926943216046216 -0.1860003228965626
4409000000.0 1.0330517153956562 -0.19841751336885416
4412000000.0 0.9804213241057128 -0.24657606630517526
4416000000.0 0.9658829499782624 -0.21292934178552697
4419000000.0 0.9840281792309926 -0.24283968750946228
4422000000.0 0.9802424039941451 -0.20122801491194114
4425000000.0 0.9985625313723498 -0.2069888385537318
4428000000.0 0.9735904353179622 -0.2535796125139668
4431000000.0 1.0032712120712144 -0.24190303922427733
4434000000.0 0.9656760435715744 -0.261618407741032
4438000000.0 0.9960285202124197 -0.27448791610055073
4441000000.0 0.9772747944491285 -0.25576376285281827
4444000000.0 0.9525200977458761 -0.2712332414127604
4447000000.0 0.9592044705276078 -0.29185338636415253
4450000000.0 0.9599369437751702 -0.2708486406832612
4453000000.0 0.9942079854820445 -0.31270806064045376
4456000000.0 0.9188610965244612 -0.3041543959330609
4459000000.0 0.9107164904277028 -0.3287333098125491
4462000000.0 1.0157280319540323 -0.3302968938416996
4466000000.0 0.9860027224121606 -0.36770027325590815
4469000000.0 0.9510618944659815 -0.33895651398219573
4472000000.0 0.971691101390502 -0.39058909351923987
4475000000.0 0.9322117435247236 -0.36473793359736895
4478000000.0 0.9871774693511314 -0.39854141631016116
4481000000.0 0.9077843774741935 -0.3736418452771309
4484000000.0 0.9174766198678022 -0.4302455807032036
4488000000.0 0.9198123356395562 -0.4253593932243549
4491000000.0 0.9270769715097603 -0.41278728923620744
4494000000.0 0.9193821116722428 -0.40292705986187527
4497000000.0 0.9234751006831237 -0.40544917604637465
4500000000.0 0.9262849747012818 -0.42397135019429616
4503000000.0 0.9316671030891339 -0.4291533156102887
4506000000.0 0.8997788629702008 -0.44947841519081677
4509000000.0 0.8803295358260979 -0.4448563756110645
4512000000.0 0.8834624780703585 -0.4736882053245127
4516000000.0 0.9176216765082185 -0.47490657944494263
4519000000.0 0.8906752593401088 -0.47144404744048723
4522000000.0 0.8804517885368679 -0.4806408796538218
4525000000.0 0.8879620448173113 -0.4452569981075243
4528000000.0 0.9029890790223905 -0.5230382217907017
4531000000.0 0.8883326162407913 -0.4904784318414035
4534000000.0 0.86471248401621 -0.5036319795537422
4538000000.0 0.8490533931531687 -0.5188763136522977
4541000000.0 0.8556296973327768 -0.5561713452439212
4544000000.0 0.8472248164035006 -0.5039330340678867
4547000000.0 0.8418803539039159 -0.5232252582969465
4550000000.0 0.8362696144287809 -0.574808733401856
4553000000.0 0.8501217182184431 -0.5668517522722185
4556000000.0 0.8092294223806786 -0.5544096559118833
4559000000.0 0.8160819003584383 -0.6047735401905288
4562000000.0 0.83336080026798 -0.5884123161591244
4566000000.0 0.8146277629936611 -0.6079070032696927
4569000000.0 0.7993643062784388 -0.5814348051936817
4572000000.0 0.7967311253965409 -0.601104241762361
4575000000.0 0.7948254324424986 -0.6320954605461412
4578000000.0 0.810700022961276 -0.6114489946518663
4581000000.0 0.8048932615166797 -0.6452149981518188
4584000000.0 0.7773046603420668 -0.6312064308935947
4588000000.0 0.7966577588533188 -0.6374785317155534
4591000000.0 0.7774914557397781 -0.6233867451110395
4594000000.0 0.7481329178377706 -0.6659127551283375
4597000000.0 0.7779550566615276 -0.6815454774469468
4600000000.0 0.7334808300323666 -0.6830241846453836
4603000000.0 0.7560268269933381 -0.6794045895417367
4606000000.0 0.771004734770019 -0.6813159672611929
4609000000.0 0.7342151375331247 -0.6931123770817375
4612000000.0 0.7517777519740879 -0.7049962030486779
4616000000.0 0.7188268027529403 -0.6925024751181867
4619000000.0 0.747210741510654 -0.7110409746499265
4622000000.0 0.7349626841193917 -0.7332059513758664
4625000000.0 0.6849868688838682 -0.7218581066712938
4628000000.0 0.6897901004716676 -0.7086588535821685
4631000000.0 0.6679448062180775 -0.7364074450473722
4634000000.0 0.6809518466957076 -0.7309414948039886
4638000000.0 0.6825019212299099 -0.7570471806168015
4641000000.0 0.6774917367977679 -0.746608206536802
4644000000.0 0.678388504239114 -0.7469270821047045
4647000000.0 0.681318050336259 -0.752397551977479
4650000000.0 0.6608545055503936 -0.7763393940704132
4653000000.0 0.6710379628852655 -0.7860045469075432
4656000000.0 0.6367742232218698 -0.7919364187616338
4659000000.0 0.6304725066391593 -0.7888401041579823
4662000000.0 0.6442533931519212 -0.798064856086187
4666000000.0 0.6221535635585378 -0.8164061731304747
4669000000.0 0.6285533443882725 -0.7948034569580149
4672000000.0 0.6127149048175475 -0.8225480359910631
4675000000.0 0.5928266086743389 -0.8231645741234973
4678000000.0 0.5854504179758493 -0.8136602404149686
4681000000.0 0.5828136395880585 -0.8530185945638136
4684000000.0 0.5504598113175814 -0.8479669848048519
4688000000.0 0.5503848767807296 -0.8479321131452188
4691000000.0 0.5818712972130993 -0.8421254259417774
4694000000.0 0.5697434012939642 -0.8246216706090879
4697000000.0 0.5287013104623206 -0.8080311241086875
4700000000.0 0.5514135166388252 -0.8515742481354123
4703000000.0 0.556226428640313 -0.832516047578886
4706000000.0 0.5248021541643726 -0.883661313810816
4709000000.0 0.49347689090152114 -0.8615969684497715
4712000000.0 0.5193588404198635 -0.8721126410553758
4716000000.0 0.48267239458485545 -0.8863308504030407
4719000000.0 0.5202590908067503 -0.8638803538641484
4722000000.0 0.5146001755574579 -0.8630308368926616
4725000000.0 0.4804600978154028 -0.8946219908663343
4728000000.0 0.4843268683471609 -0.8945653751555964
4731000000.0 0.4955949386712474 -0.9336843189474706
4734000000.0 0.4826252761354576 -0.8724625133980931
4738000000.0 0.4924979038884271 -0.9410481335232241
4741000000.0 0.43825766912710634 -0.956651117725664
4744000000.0 0.4382137702213549 -0.9304742996267441
4747000000.0 0.45180664636173284 -0.8840749712835119
4750000000.0 0.4419226856279971 -0.9154345961037667
4753000000.0 0.4316357644474401 -0.906861760821252
4756000000.0 0.39965924120690843 -0.9316507193350256
4759000000.0 0.3950238886656138 -0.9608772968279914
4762000000.0 0.3745977308794772 -0.9678227921476782
4766000000.0 0.3723160104876102 -0.9423568692091117
4769000000.0 0.38816507991971777 -0.9711927860921993
4772000000.0 0.3556317887206634 -0.960557306177091
4775000000.0 0.33850752448723437 -1.0084182289363552
4778000000.0 0.3355490541141837 -0.9578857810327134
4781000000.0 0.37333849279771186 -0.9601158319678988
4784000000.0 0.343698501758712 -0.9708830335280182
4788000000.0 0.31395966478907217 -0.9865128792239704
4791000000.0 0.3402062076306808 -0.9686511530099068
4794000000.0 0.35245201009799937 -1.0029071265185274
4797000000.0 0.26245202549692676 -0.9567406533087749
4800000000.0 0.2850393698098479 -0.9637241314059066
4803000000.0 0.2544805331748495 -1.0007304604857383
4806000000.0 0.29603388311766615 -0.9841085864006001
4809000000.0 0.22223901152427655 -1.0028795480637385
4812000000.0 0.215780978650389 -0.9666743513343814
4816000000.0 0.26380184038367693 -0.9763766585262372
4819000000.0 0.27813906832871305 -1.0039787471230575
4822000000.0 0.270170072088774 -1.0214332647968445
4825000000.0 0.2588738013526246 -1.0055251285103135
4828000000.0 0.20183625095921467 -1.0013621852531038
4831000000.0 0.1820284586946461 -1.0264846626573825
4834000000.0 0.21986368610285434 -1.0038140516307381
4838000000.0 0.19233574276955434 -1.0409294090952435
4841000000.0 0.18843631273791156 -0.9846216247567247
4844000000.0 0.2115720801729243 -1.0095939590251786
4847000000.0 0.192095087735847 -0.9875285045131137
4850000000.0 0.147995697094369 -1.0300980108808422
4853000000.0 0.1499660323076301 -1.0068219799147933
4856000000.0 0.13161530327499638 -0.9948101163633748
4859000000.0 0.1259755137104194 -1.0710216593536872
4862000000.0 0.15268640951753254 -0.9959557198577159
4866000000.0 0.09180406402248945 -1.0226294603655148
4869000000.0 0.08867411287451644 -1.015896283509012
4872000000.0 0.09370576371603248 -1.0496465187164348
4875000000.0 0.15157291423962516 -1.054410091475265
4878000000.0 0.08237310876756909 -1.033667629026529
4881000000.0 0.061048887753750065 -1.100617809348499
4884000000.0 0.08765023343573214 -1.0178843659876133
4888000000.0 0.08900272617077887 -1.0368577231320273
4891000000.0 0.0886705259700711 -1.0484811689350115
4894000000.0 0.04402779092459846 -1.0239985451506115
4897000000.0 0.05163661630161112 -1.0236097547103005
4900000000.0 0.0503266085950446 -1.0610487077058106
4903000000.0 0.05162633425383232 -1.0504712207161948
4906000000.0 0.0070814296819657644 -1.0531066504890592
4909000000.0 -0.025558872928141498 -1.0412035479298336
4912000000.0 -0.012838028746408166 -1.0599617610925784
4916000000.0 -0.003527287421170429 -1.0558982280705536
4919000000.0 0.025027496769209526 -1.1027584037774076
4922000000.0 -0.0020762258615705798 -1.0640243714837985
4925000000.0 -0.03599689531590766 -1.0548873170415656
4928000000.0 0.013402700230472103 -1.0077160764923525
4931000000.0 -0.03961256526708194 -1.0380844942004213
4934000000.0 -0.021796990871427155 -0.9556166924938051
4938000000.0 -0.1250122036665321 -1.0098040837066722
4941000000.0 -0.0808623426549598 -1.0222973584334338
4944000000.0 -0.0736139935448002 -0.9489517031818655
4947000000.0 -0.06426054931940767 -1.014441613334957
4950000000.0 -0.10466107169784779 -1.0211343814321228
4953000000.0 -0.16051060042424414 -1.090698914740265
4956000000.0 -0.12491552159886521 -1.0488314568240233
4959000000.0 -0.15415097476469605 -0.9794366083125606
4962000000.0 -0.1737071428083161 -1.0368474345243546
4966000000.0 -0.1405252756974244 -1.030412320609338
4969000000.0 -0.14051424097732318 -1.0580280577258665
4972000000.0 -0.18298562533686444 -1.0222522104560527
4975000000.0 -0.11244344400555947 -1.0087853825846445
4978000000.0 -0.1969862507383019 -1.040285954881677
4981000000.0 -0.20718538560659214 -1.0167858714478533
4984000000.0 -0.18267359240075579 -0.9941892621620596
4988000000.0 -0.18953475699644684 -1.0091586272635311
4991000000.0 -0.13829536650228108 -1.0749721524589668
4994000000.0 -0.20046489481166013 -1.004594603988899
4997000000.0 -0.25662018571186823 -1.024095608043205
5000000000.0 -0.2080450861349718 -1.0539111688637897
5003000000.0 -0.25464093533601323 -1.0531695543735167
5006000000.0 -0.24420826576554608 -1.0471373302340912
5009000000.0 -0.2696938963470801 -0.9996330741184348
5012000000.0 -0.28910179064969926 -0.9776242297103515
5016000000.0 -0.2432232677517545 -1.0457377226875952
5019000000.0 -0.2714249136078772 -1.010098935598557
5022000000.0 -0.2770202507666206 -1.026139030003686
5025000000.0 -0.30872446753599975 -1.0645232036284598
5028000000.0 -0.3301095121775379 -0.9947740665516205
5031000000.0 -0.3110642584467196 -1.0091441185968515
5034000000.0 -0.36113779682593394 -1.0020073248925911
5038000000.0 -0.34094915337333054 -0.9463590379432272
5041000000.0 -0.2789896483005735 -1.0170088147447411
5044000000.0 -0.32178709791146587 -0.9682783879595561
5047000000.0 -0.3198560096067096 -1.0049018770515556
5050000000.0 -0.27455538807104984 -0.9831411412547366
5053000000.0 -0.3731843001488939 -0.9788872355528726
5056000000.0 -0.33276299680749044 -0.9924315702789348
5059000000.0 -0.3275726004937278 -0.9987487927205857
5062000000.0 -0.41220946270856085 -0.9546034478215444
5066000000.0 -0.34990646497421074 -0.9757490380723468
5069000000.0 -0.41074012391860726 -0.9721941945875029
5072000000.0 -0.38533400624775954 -0.9019541721881468
5075000000.0 -0.41595976122363854 -0.9839720895220216
5078000000.0 -0.4333000164615101 -0.9427237507685231
5081000000.0 -0.419724343241965 -0.9078548535735501
5084000000.0 -0.45300735220342103 -0.9540547081955677
5088000000.0 -0.4202749352906384 -0.9587869801168665
5091000000.0 -0.4734435613838878 -0.9267346128854705
5094000000.0 -0.4453060274633966 -0.9563015640684892
5097000000.0 -0.4505191633275828 -0.9361497510477244
5100000000.0 -0.47776813343661556 -0.9316453783837989
5103000000.0 -0.5063492661494602 -0.8900033950888883
5106000000.0 -0.4920503708331693 -0.9836203002941426
5109000000.0 -0.48271721762922665 -0.9078087251107652
5112000000.0 -0.5350660564026395 -0.9052456653747989
5116000000.0 -0.4890399825991399 -0.8566989525240223
5119000000.0 -0.5826097415700757 -0.8991359833770189
5122000000.0 -0.47819374560112027 -0.8990717477499797
5125000000.0 -0.4768985800326175 -0.9306354992376672
5128000000.0 -0.49071326689038763 -0.907614616725956
5131000000.0 -0.5598816296634139 -0.9229230746136566
5134000000.0 -0.54411052280186 -0.8979303292495616
5138000000.0 -0.5390870928339985 -0.8983916483074528
5141000000.0 -0.48813931142513695 -0.9394310440481668
5144000000.0 -0.5404931580307367 -0.9190004618989317
5147000000.0 -0.5908208255183338 -0.8871245920837437
5150000000.0 -0.5696436270727231 -0.9121088727417166
5153000000.0 -0.589312792149546 -0.8870421967495502
5156000000.0 -0.572724882402154 -0.8527693341027541
5159000000.0 -0.6030857824141825 -0.906535022234719
5162000000.0 -0.589672046909643 -0.8656378720886714
5166000000.0 -0.6343713243412652 -0.858076558295466
5169000000.0 -0.6301979717858311 -0.865251088364717
5172000000.0 -0.6151745710441376 -0.847361188859324
5175000000.0 -0.6326248101718261 -0.8719616761038018
5178000000.0 -0.650551992094019 -0.8336222380899371
5181000000.0 -0.675713265196827 -0.8470743137553547
5184000000.0 -0.6583945305066136 -0.8175541627784891
5188000000.0 -0.6464379887675671 -0.7927577015322675
