! Created with skrf 1.8.0 (http://scikit-rf.org).
# Hz S RI R 50.0 
!freq ReS11 ImS11
4000000000.0 0.618353593993997 0.8299291741966917
4003000000.0 0.6948058225798918 0.8628169424792799
4006000000.0 0.6722493668169278 0.8230392178731906
4009000000.0 0.6471621511922916 0.8108411255024428
4012000000.0 0.652788937401332 0.882065379319455
4016000000.0 0.7080486186814771 0.7720360040246601
4019000000.0 0.6734921308290125 0.7570260642959031
4022000000.0 0.6309931651025246 0.8003536110317819
4025000000.0 0.743637269929426 0.7449161193650529
4028000000.0 0.7300863631021903 0.7503412383376271
4031000000.0 0.7144925180085042 0.7405902913691356
4034000000.0 0.7018751305587223 0.7376782072101709
4038000000.0 0.7506249918480651 0.7282465782604064
4041000000.0 0.7227609338655182 0.7360419127116773
4044000000.0 0.7579493449814079 0.7912768087897599
4047000000.0 0.7330481262282726 0.7638587683872805
4050000000.0 0.797541697352425 0.7092621487864945
4053000000.0 0.7296126550463027 0.6714940161616374
4056000000.0 0.7530006170479173 0.7064216088291012
4059000000.0 0.7532164866267156 0.6932296658626724
4062000000.0 0.8053234746773845 0.6942900039143101
4066000000.0 0.6949706665751696 0.6295854477710455
4069000000.0 0.8074881568148647 0.703830128959942
4072000000.0 0.7525254335279956 0.7309309354780475
4075000000.0 0.7795713943124986 0.747589787355466
4078000000.0 0.7850521145561994 0.6822517404952199
4081000000.0 0.7657720918899981 0.6836609230852828
4084000000.0 0.8087334222635275 0.6559856924541132
4088000000.0 0.7724744761402375 0.6318536707738514
4091000000.0 0.8552765831928039 0.6719525985523318
4094000000.0 0.7932104454265196 0.637955989163906
4097000000.0 0.8418013673518246 0.6187243874505104
4100000000.0 0.8530280597868314 0.583350184480673
4103000000.0 0.813578568387169 0.6426044841467815
4106000000.0 0.8451646075998849 0.6077084457279409
4109000000.0 0.8512951946362641 0.5922916439877803
4112000000.0 0.8484567798367029 0.6052553763678497
4116000000.0 0.8155321816557766 0.5620832963008838
4119000000.0 0.919113526661694 0.5684485809881806
4122000000.0 0.892612928875576 0.5491152776762669
4125000000.0 0.8813205111760194 0.557549900808807
4128000000.0 0.8539214789875329 0.5493664183040001
4131000000.0 0.8648233724341664 0.5747840862228325
4134000000.0 0.8607316514396544 0.5782557239481011
4138000000.0 0.8643418282053055 0.5179251671690259
4141000000.0 0.910009133705817 0.5347359692650878
4144000000.0 0.9210938559663691 0.5396028478831709
4147000000.0 0.9121585072348678 0.523938798602108
4150000000.0 0.9084965471874239 0.501438103593205
4153000000.0 0.9166750234962973 0.5023486072214106
4156000000.0 0.9077599872738045 0.5158258360739245
4159000000.0 0.8825307488076 0.47406689805701213
4162000000.0 0.9056056651073672 0.4929280862035249
4166000000.0 0.9508886204340992 0.4849354443131294
4169000000.0 0.9310334827640852 0.4343006462497233
4172000000.0 0.9019443823219256 0.47221949829767723
4175000000.0 0.9386675258598275 0.45310442172152704
4178000000.0 0.9254700863877945 0.4572384985148499
4181000000.0 0.9236622373823851 0.4281893468168875
4184000000.0 0.9567463061411883 0.4159895312910811
4188000000.0 0.9194044135023525 0.4144057769307782
4191000000.0 0.9320309598825212 0.46542390821134455
4194000000.0 0.919975214653761 0.3755382064968352
4197000000.0 0.9615042715446487 0.4078425151545005
4200000000.0 0.9732777530553931 0.4108473951148256
4203000000.0 0.9752965499671173 0.37842707550672583
4206000000.0 0.9615896699014611 0.38823118706684906
4209000000.0 0.9553206843360786 0.3797708597456812
4212000000.0 0.9710163966366195 0.3404504398553875
4216000000.0 0.9762141048866483 0.35442328564780906
4219000000.0 0.9836091527816357 0.34813453867790023
4222000000.0 0.9763840570611504 0.32318457850477916
4225000000.0 0.9666847545047865 0.3316392581149138
4228000000.0 0.9677156262622233 0.3192818696925286
4231000000.0 0.9798058238925874 0.3071431392324191
4234000000.0 0.9983654513587374 0.30249642785527925
4238000000.0 0.9955860407655123 0.2644488642488274
4241000000.0 0.9907513947123501 0.26844437893191014
4244000000.0 0.9793260150600778 0.2927443031183521
4247000000.0 0.981872832270814 0.2589957348975928
4250000000.0 0.969511898506882 0.24185882012413623
4253000000.0 0.9847852024808199 0.2239871142517622
4256000000.0 1.01361146822677 0.22748359632899562
4259000000.0 0.9661768904566044 0.20808352447639913
4262000000.0 0.9815616200610353 0.21238957351347712
4266000000.0 1.0088278767018777 0.17729154635562272
4269000000.0 0.9828747166414117 0.21001975855103142
4272000000.0 1.0050576136003402 0.19492278239761412
4275000000.0 1.020493334281325 0.19594730206292504
4278000000.0 1.0263425760969294 0.17538739281434712
4281000000.0 1.0170583613569768 0.19019356439564877
4284000000.0 1.004816510336836 0.12101889364010929
4288000000.0 0.9971649210518893 0.18548552960401435
4291000000.0 0.998149982335906 0.1501922891260673
4294000000.0 1.004069692319915 0.111917749873807
4297000000.0 0.9833989103568347 0.13937633116130838
4300000000.0 0.994257192725007 0.12480004142183063
4303000000.0 1.0105446961680875 0.09407896664638159
4306000000.0 1.0420524680717498 0.12854507726190367
4309000000.0 1.0018166851418053 0.09688266186282267
4312000000.0 1.0380703558806088 0.1357212814980037
4316000000.0 1.0133336577950314 0.09014056456930829
4319000000.0 0.9960353248199181 0.08835101474861044
4322000000.0 1.008967686580055 0.034660212221229544
4325000000.0 0.997760730788518 0.07333856957768116
4328000000.0 1.0137287708712377 0.057618448462279134
4331000000.0 1.024658119044064 0.014816818473742749
4334000000.0 1.037112874618288 0.01245481670196627
4338000000.0 1.034852367003304 0.043279035165770266
4341000000.0 1.0395584598693333 0.02363781697481923
4344000000.0 1.0450217225870317 0.018455325626055202
4347000000.0 1.034766838762124 -0.027978565686857748
4350000000.0 0.9767768822864349 -0.028183645578668426
4353000000.0 0.9777527300279669 -0.02061325545518769
4356000000.0 1.0240208106220232 -0.03009401142670312
4359000000.0 0.9683159560320045 -0.029650617604159324
4362000000.0 1.038154821590288 -0.10946509719428704
4366000000.0 1.0171711884847354 -0.0641963532974309
4369000000.0 0.992024644602012 -0.07147859690981752
4372000000.0 0.9984886242165383 -0.11023740468673154
4375000000.0 0.9985780589189441 -0.10031266236154222
4378000000.0 0.9903406968642162 -0.09110112496841447
4381000000.0 0.99975518384589 -0.07875011221793995
4384000000.0 1.0745285779873526 -0.1276124553450991
4388000000.0 0.9741449544574745 -0.09580467232008891
4391000000.0 1.0217429806517178 -0.11666213140542633
4394000000.0 0.9738106728391367 -0.13606593479529458
4397000000.0 0.9869038043166929 -0.1522469588660246
4400000000.0 1.019551755563365 -0.1554509934032534
4403000000.0 1.0117872106032033 -0.15341437646809086
4406000000.0 1.0038311694873086 -0.18840356409549347
4409000000.0 1.0340436179707833 -0.18454026355187123
4412000000.0 0.9594608555336628 -0.25012289509531493
4416000000.0 0.9683145823636321 -0.2110769225863176
4419000000.0 0.9859561398504384 -0.2362254311449696
4422000000.0 0.9826126004501365 -0.20920529483160508
4425000000.0 1.0236549035660438 -0.21362444156431437
4428000000.0 0.9710367786110642 -0.24681183586711808
4431000000.0 1.0013949392020127 -0.2430063709124558
4434000000.0 0.9753921796468576 -0.24406312296428626
4438000000.0 1.0077459684606904 -0.2575287178824769
4441000000.0 0.9867281405890089 -0.275491979836671
4444000000.0 0.9503584684364528 -0.2737089653927755
4447000000.0 0.9499964446390281 -0.2988364962116515
4450000000.0 0.9563011170104682 -0.27770771387799775
4453000000.0 0.9863791884182397 -0.3129758735458762
4456000000.0 0.9372391532982367 -0.31147551512045546
4459000000.0 0.9072337290679657 -0.3113476656977825
4462000000.0 0.9919201877047221 -0.3289102951976893
4466000000.0 0.9811683641035793 -0.36938526481510814
4469000000.0 0.9514533178311253 -0.33656363435216435
4472000000.0 0.9624765867318253 -0.36874478015211165
4475000000.0 0.9194731815870693 -0.3456248252459484
4478000000.0 0.9761115444541686 -0.4073551917284761
4481000000.0 0.9137437433546302 -0.380761064644889
4484000000.0 0.912226243241476 -0.4318009650501423
4488000000.0 0.914291989346869 -0.39799766801253744
4491000000.0 0.948867338908079 -0.421687543751252
4494000000.0 0.9093194680489316 -0.40110271885201265
4497000000.0 0.9240054480242972 -0.40161527350577736
4500000000.0 0.9297745586349022 -0.41125436084863165
4503000000.0 0.9325394218794241 -0.4474129440968114
4506000000.0 0.917161420741978 -0.46931179956938207
4509000000.0 0.8880577517638062 -0.43519121437984865
4512000000.0 0.8963131248210028 -0.45440072689951805
4516000000.0 0.9197911451899933 -0.48031555020424194
4519000000.0 0.885375732264135 -0.4483402222710427
4522000000.0 0.8771576467130644 -0.5009862571272219
4525000000.0 0.8843326023573124 -0.45856741129370227
4528000000.0 0.9092171370621456 -0.49922540719763275
4531000000.0 0.8763517447977396 -0.4943092666809463
4534000000.0 0.8629948486327627 -0.5051943880337734
4538000000.0 0.858985978728646 -0.5216933073117244
4541000000.0 0.8379014105005589 -0.5563518485569598
4544000000.0 0.8511318895732614 -0.5306769180106949
4547000000.0 0.8597953200428797 -0.524472697596368
4550000000.0 0.860332042833591 -0.5655975999939533
4553000000.0 0.863122171853774 -0.5714767427997334
4556000000.0 0.8241424928927932 -0.562422464261439
4559000000.0 0.816154334024463 -0.5788151003424213
4562000000.0 0.8578387580888931 -0.5702101090825004
4566000000.0 0.7997160906769705 -0.591662367814882
4569000000.0 0.8050018955781039 -0.5971332335743016
4572000000.0 0.8012385874855955 -0.6011473154187527
4575000000.0 0.792157480750957 -0.6348212368375482
4578000000.0 0.8186531345946708 -0.6174550195082198
4581000000.0 0.7801182162541337 -0.6415196067078673
4584000000.0 0.7906304409888746 -0.6227976012148705
4588000000.0 0.7965743469568777 -0.6378570584551372
4591000000.0 0.7979705997216331 -0.6271286619972488
4594000000.0 0.7491483733246533 -0.6778752339961333
4597000000.0 0.7803935270222977 -0.6663722884840964
4600000000.0 0.7461824935488272 -0.6915879896604945
4603000000.0 0.7766046620019169 -0.6879254728433779
4606000000.0 0.7569233856850506 -0.6787879672796658
4609000000.0 0.7624210822225944 -0.681685285004104
4612000000.0 0.7375023976882583 -0.7077410148853327
4616000000.0 0.7183930238735416 -0.6956894393179691
4619000000.0 0.7463644771616836 -0.6961557299207869
4622000000.0 0.719149211821195 -0.7078748385839984
4625000000.0 0.6822185170666749 -0.7191410713414439
4628000000.0 0.7132542578750332 -0.7039385966541801
4631000000.0 0.681202895245612 -0.7543149918253403
4634000000.0 0.6710084708812086 -0.7371426282605876
4638000000.0 0.6869599904752007 -0.7599065477171739
4641000000.0 0.6943808499208383 -0.7618087742614476
4644000000.0 0.6643597251784876 -0.7453300653140184
4647000000.0 0.668683749776014 -0.7511898019508226
4650000000.0 0.624195232927278 -0.7739528744484813
4653000000.0 0.6668055243088776 -0.7902379078472411
4656000000.0 0.6460170375735299 -0.7963555804792706
4659000000.0 0.6322478959184118 -0.794887998125268
4662000000.0 0.6395687219345919 -0.8053270637149037
4666000000.0 0.6165417031619634 -0.7887647941370951
4669000000.0 0.6197932906400849 -0.7908669035136753
4672000000.0 0.6055824222124425 -0.8450033426662683
4675000000.0 0.5845528231351323 -0.8307457666551262
4678000000.0 0.5909768485328477 -0.7939074012609597
4681000000.0 0.5946974982236778 -0.8401108385761988
4684000000.0 0.5718192197693287 -0.8525085815662587
4688000000.0 0.5636725109243576 -0.8340841578099039
4691000000.0 0.5922746955445712 -0.8197798502135283
4694000000.0 0.5813750130744519 -0.8228434282098422
4697000000.0 0.5179365195931458 -0.8405979013566838
4700000000.0 0.544639485750966 -0.8337360082826157
4703000000.0 0.5405444829905006 -0.8349348296991084
4706000000.0 0.5170330337111988 -0.8951791227556946
4709000000.0 0.5168595139577521 -0.868518578492959
4712000000.0 0.4965087706905994 -0.8779577874215009
4716000000.0 0.5102633201239783 -0.8816428297650554
4719000000.0 0.5376614419426707 -0.8954754998373956
4722000000.0 0.5244635736977583 -0.870105149420408
4725000000.0 0.5204324688684379 -0.9023738634772274
4728000000.0 0.4841918545206207 -0.8797356683362307
4731000000.0 0.4982042805674187 -0.9360405945962511
4734000000.0 0.464615347684909 -0.9002697338078123
4738000000.0 0.5051293109026435 -0.9566407642206076
4741000000.0 0.44596637003149175 -0.9181120843547943
4744000000.0 0.44438196213862696 -0.9040400706112116
4747000000.0 0.4470885360689324 -0.9067045501279664
4750000000.0 0.43605340392149494 -0.9155672348098789
4753000000.0 0.4233094413299151 -0.9365778037811249
4756000000.0 0.4095291771546492 -0.9265100789102454
4759000000.0 0.4236468832181755 -0.9506618670856929
4762000000.0 0.3585163659988049 -0.9604825951356037
4766000000.0 0.3610949221772962 -0.9577916704120295
4769000000.0 0.3587599378527898 -0.9427278335479371
4772000000.0 0.37496487996031636 -0.9672687931239053
4775000000.0 0.35233801920190877 -1.0173640921069336
4778000000.0 0.33819913237638594 -0.9665793186619512
4781000000.0 0.38091426291542757 -0.9532517199007977
4784000000.0 0.34944472972694346 -0.9561595456363247
4788000000.0 0.3389002148387321 -1.0084085231725481
4791000000.0 0.30817045517754976 -0.9459880620241018
4794000000.0 0.3480107624997718 -0.972057637974437
4797000000.0 0.29691044994756166 -0.987779718426148
4800000000.0 0.29004700579725384 -0.9737321966713948
4803000000.0 0.2530685006930543 -0.9948817810472499
4806000000.0 0.27396318657374896 -0.9981879666761422
4809000000.0 0.22815490808862382 -1.0038946208570065
4812000000.0 0.22851923887335768 -0.9838798936213202
4816000000.0 0.2710676988963781 -0.9913681949991813
4819000000.0 0.261405972964535 -1.0197361820940605
4822000000.0 0.27168558580169383 -1.0351401261996973
4825000000.0 0.2666652445039632 -1.0073006755443312
4828000000.0 0.225776023037958 -0.977353543865744
4831000000.0 0.16047728426447588 -1.0338243834110017
4834000000.0 0.22458487030154994 -1.0148233892764726
4838000000.0 0.17968653639444335 -1.0251845589804753
4841000000.0 0.18667184418438926 -1.0069862936537373
4844000000.0 0.22364939681169516 -0.9946226270434769
4847000000.0 0.18825374873252207 -0.9879341627307594
4850000000.0 0.15193344140454235 -1.0410248005057061
4853000000.0 0.14685810970229393 -0.9741136428008286
4856000000.0 0.13147241248166427 -0.9962629991911914
4859000000.0 0.15004887928090765 -1.0725496029003856
4862000000.0 0.15245078400892254 -0.9915730165940725
4866000000.0 0.0975263167783266 -1.050192747527734
4869000000.0 0.10253727190567949 -1.0331824628177118
4872000000.0 0.09128126533180901 -1.0577076477934235
4875000000.0 0.1596382824862317 -1.0616661582180569
4878000000.0 0.08414065501806778 -1.0283531576433302
4881000000.0 0.046534611780033625 -1.0747465024814127
4884000000.0 0.07838839756160604 -1.0329490220695887
4888000000.0 0.10143545205567082 -1.0285382334932034
4891000000.0 0.08712931531525146 -1.0576119150007008
4894000000.0 0.04284396668517776 -1.0262346791333743
4897000000.0 0.08287164211363561 -1.0306653218927408
4900000000.0 0.07412788270739736 -1.049976797610303
4903000000.0 0.03939711138179094 -1.0580826781491468
4906000000.0 0.019447369554169973 -1.042999533318006
4909000000.0 0.004267816956628947 -1.036114262079095
4912000000.0 -0.03336202814903452 -1.0852932993885418
4916000000.0 0.010577409831686778 -1.0876118385913571
4919000000.0 0.002458521108078142 -1.0626186365843444
4922000000.0 0.01182498336656778 -1.0292642791822009
4925000000.0 -0.0777985303072404 -1.0149495807936457
4928000000.0 0.0026971788940004376 -1.036618992409698
4931000000.0 -0.033606394684221816 -1.0429479049795234
4934000000.0 -0.049046889392820356 -0.9963690708792606
4938000000.0 -0.0871349615057166 -0.9958649593298643
4941000000.0 -0.09857459879011533 -1.0460993514334054
4944000000.0 -0.04812738784723625 -0.9543748354172914
4947000000.0 -0.08650245248902497 -1.0001503932770286
4950000000.0 -0.07782637398346336 -1.0335932386763802
4953000000.0 -0.17287614198648232 -1.0641552293768026
4956000000.0 -0.17225526731734503 -1.0505429758001619
4959000000.0 -0.1082353074662405 -0.9994634162733997
4962000000.0 -0.18002158273694238 -1.037432855891129
4966000000.0 -0.139220063488469 -1.07238420560472
4969000000.0 -0.1554038597794315 -1.0830878831893953
4972000000.0 -0.18340128216407756 -1.062902631579151
4975000000.0 -0.13509025032046681 -1.0022513959457058
4978000000.0 -0.1592917748451002 -1.0299229668454528
4981000000.0 -0.18648562981640895 -1.021844236915846
4984000000.0 -0.1910966705240902 -1.0151399151167182
4988000000.0 -0.18176978145201977 -1.0157525400160377
4991000000.0 -0.14260241333118506 -1.0527586801517397
4994000000.0 -0.15299093775615324 -1.0509146664337263
4997000000.0 -0.2652967759587137 -0.9923369478710243
5000000000.0 -0.20446856396713647 -1.0327275092491737
5003000000.0 -0.2761292981909271 -1.0328447161126426
5006000000.0 -0.23683766124360175 -1.0437046194773403
5009000000.0 -0.26058033887761567 -1.027896031714758
5012000000.0 -0.3082644172161448 -0.9964269340217653
5016000000.0 -0.26738633327074585 -1.0184027657165156
5019000000.0 -0.28164709988618797 -1.0010890580806104
5022000000.0 -0.28915607329705606 -1.0225163055185238
5025000000.0 -0.31614556203435457 -1.0680867615823537
5028000000.0 -0.31162578502975313 -0.988987488225904
5031000000.0 -0.3413018502881594 -0.9908564145303039
5034000000.0 -0.3510891413623881 -1.0067040069026543
5038000000.0 -0.35363627222226657 -0.926021434999007
5041000000.0 -0.29950142503487764 -0.9950888823902951
5044000000.0 -0.3103780890196315 -0.985977080135583
5047000000.0 -0.32501854388005075 -1.0069142111365421
5050000000.0 -0.30428311569471667 -0.9945357016929905
5053000000.0 -0.3866664101542191 -1.039061869379676
5056000000.0 -0.32379286880525926 -0.9970683916226883
5059000000.0 -0.32829627218627927 -0.9933807038555457
5062000000.0 -0.40676332169808815 -1.000228866243995
5066000000.0 -0.3399368687675203 -1.0046273712006335
5069000000.0 -0.3753731682303362 -0.960325896559281
5072000000.0 -0.40032881976565565 -0.9621711954939751
5075000000.0 -0.3923982163288966 -0.9576640079014791
5078000000.0 -0.45386548301584556 -0.9674870986421098
5081000000.0 -0.43597290309783404 -0.9368283855557672
5084000000.0 -0.41332347771876676 -0.9364823607920254
5088000000.0 -0.40902854578257825 -0.9725272742456219
5091000000.0 -0.4928384729881035 -0.9410413609668966
5094000000.0 -0.4780106400638025 -0.9613613903436223
5097000000.0 -0.4413167676842674 -0.953373287368074
5100000000.0 -0.47643796209143646 -0.9122342936158737
5103000000.0 -0.5174468119440649 -0.9346727984532736
5106000000.0 -0.48859344454381487 -0.9846692305781817
5109000000.0 -0.42411504026973207 -0.9297648183235163
5112000000.0 -0.4840412064318002 -0.907919294449892
5116000000.0 -0.4786086070709971 -0.8797096981865888
5119000000.0 -0.5247507045248782 -0.911979511585828
5122000000.0 -0.5150106846150746 -0.9064020667802266
5125000000.0 -0.4933014393355773 -0.8814569753941072
5128000000.0 -0.5643997422056816 -0.9084514648556616
5131000000.0 -0.5229473198905669 -0.8660870957703892
5134000000.0 -0.5498586686428306 -0.8922669690470654
5138000000.0 -0.5197190072649366 -0.8715888896224021
5141000000.0 -0.49966907792837867 -0.8804828028683618
5144000000.0 -0.5503314655045173 -0.8809955457303813
5147000000.0 -0.5731345063348987 -0.9171875315512855
5150000000.0 -0.5247170811567219 -0.8907173482079972
5153000000.0 -0.5885012836887422 -0.8873850090523511
5156000000.0 -0.5875823259291031 -0.8823597809171075
5159000000.0 -0.6208248083287912 -0.8718327968678017
5162000000.0 -0.5967803676282726 -0.8085560025322032
5166000000.0 -0.637691868871045 -0.8229919139760264
5169000000.0 -0.6166766637685287 -0.8542015485234499
5172000000.0 -0.6274065010010771 -0.8316987051556144
5175000000.0 -0.6274808672208246 -0.8587078045773274
5178000000.0 -0.6739319302842368 -0.8153437454915832
5181000000.0 -0.6770009891024485 -0.8265804630635651
5184000000.0 -0.6692961421585345 -0.8060136306176175
5188000000.0 -0.6819582985725656 -0.818811171148112
