! Created with skrf 1.8.0 (http://scikit-rf.org).
# Hz S RI R 50.0 
!freq ReS11 ImS11
4000000000.0 0.6063342269632686 0.773119784056562
4003000000.0 0.6753625967997126 0.8488850640410832
4006000000.0 0.6948875974736247 0.7756409307613077
4009000000.0 0.6585355357678958 0.7759657757480363
4012000000.0 0.6256431502372177 0.8617705325449491
4016000000.0 0.7567034949355377 0.814037923844203
4019000000.0 0.676616808235347 0.717448823494113
4022000000.0 0.6367908640820203 0.7759291379687556
4025000000.0 0.7524083768868598 0.7378863117019135
4028000000.0 0.7139384454764454 0.7526824851066558
4031000000.0 0.6762743201195495 0.7056987024114622
4034000000.0 0.7545715779558212 0.6860681390033058
4038000000.0 0.7102916098736421 0.7004949720454284
4041000000.0 0.7740245180895263 0.704505334236943
4044000000.0 0.7418805696861475 0.7453936971344735
4047000000.0 0.7495161198246818 0.7394502831315681
4050000000.0 0.7743122881967953 0.6931606011530842
4053000000.0 0.7510856675647909 0.6414776210949891
4056000000.0 0.7724096772324743 0.6828098897365514
4059000000.0 0.7275864629262618 0.6972810463978762
4062000000.0 0.7845647554578679 0.689312140381962
4066000000.0 0.7381617065104091 0.6030911630664676
4069000000.0 0.835528929970995 0.6693532023956121
4072000000.0 0.7369000995042535 0.698381677678247
4075000000.0 0.7801249315249922 0.717358696074069
4078000000.0 0.8119100599416456 0.6329189827419762
4081000000.0 0.7858939516054926 0.6802441461007792
4084000000.0 0.8476236978290052 0.5917208406876997
4088000000.0 0.7729042606817014 0.6416084393676659
4091000000.0 0.8616449403988081 0.6822634416383919
4094000000.0 0.7888588670606241 0.6070013438584627
4097000000.0 0.8283568223616048 0.6276061041774241
4100000000.0 0.835896077615434 0.5940111201291676
4103000000.0 0.8363299059821456 0.6324458213017472
4106000000.0 0.825961558065419 0.584587401029811
4109000000.0 0.8792603220621988 0.5762994530413261
4112000000.0 0.8745523003710454 0.5432328660726806
4116000000.0 0.8520472775799613 0.6127660287303546
4119000000.0 0.8760020909088045 0.5712750503448694
4122000000.0 0.8663200837390019 0.5312244894110109
4125000000.0 0.8784911899683903 0.5370196125051863
4128000000.0 0.8469573423418084 0.539941066643971
4131000000.0 0.8313832724537951 0.46550624171716937
4134000000.0 0.8659471961880804 0.5092342325304079
4138000000.0 0.8681030649677905 0.46741657212529825
4141000000.0 0.8792049246286215 0.4808150832405873
4144000000.0 0.8883138333470679 0.5195105721376381
4147000000.0 0.8903076057218036 0.46359408684182485
4150000000.0 0.9608423321273495 0.5132764561229795
4153000000.0 0.9012336688688877 0.4780754182169612
4156000000.0 0.9371964557527217 0.49823345321357126
4159000000.0 0.8784985395288363 0.4639024153657459
4162000000.0 0.8967125422504942 0.4609830272320534
4166000000.0 0.9346941648021088 0.43421116019472816
4169000000.0 0.9293684464921188 0.4111265580167014
4172000000.0 0.9122608674689503 0.44365120464762403
4175000000.0 0.921055314029093 0.43030861336482057
4178000000.0 0.9498289821847098 0.4045263825786233
4181000000.0 0.9209778635403605 0.40086663230949615
4184000000.0 0.945113735981359 0.3990772763926523
4188000000.0 0.9393347539562837 0.37039592146459355
4191000000.0 0.919367096958449 0.40399976245926456
4194000000.0 0.9298871892294228 0.36576334327628424
4197000000.0 0.9672651270930578 0.37203338765841715
4200000000.0 0.9554309424710747 0.38191032648288303
4203000000.0 0.9677691520604838 0.377700423626941
4206000000.0 0.9569646589609141 0.3497226827774564
4209000000.0 0.9476427723161487 0.3370992484977832
4212000000.0 0.9789186537339115 0.30674322634388085
4216000000.0 0.9697393081710102 0.33563897624890654
4219000000.0 0.9690559112515477 0.32107523344070865
4222000000.0 0.96921978160569 0.2823614590932665
4225000000.0 0.9596695906661943 0.28997232346881807
4228000000.0 0.9959425361294063 0.2895654300564072
4231000000.0 0.9938828165910746 0.27170519721534186
4234000000.0 0.9817037192466181 0.2659041787882264
4238000000.0 0.9846338399374006 0.24904083646299027
4241000000.0 0.9899448196914145 0.24180809318155133
4244000000.0 0.9819850263726393 0.243623085104894
4247000000.0 0.9971980644094114 0.23583840196964606
4250000000.0 0.9593860742892508 0.22212282874864064
4253000000.0 0.9804732897211228 0.19944543372535534
4256000000.0 1.024528215187123 0.22424748358732915
4259000000.0 0.9577723805913347 0.19334984313986583
4262000000.0 0.9879014578035841 0.19558949668661682
4266000000.0 1.0088635758530042 0.1741889644929972
4269000000.0 0.9801760269962099 0.18768227873758167
4272000000.0 0.9849077648799709 0.16534218182381943
4275000000.0 1.0144398233046303 0.1565033506108807
4278000000.0 1.0221332813219257 0.16422779797317638
4281000000.0 1.0042187710246036 0.14443015031229295
4284000000.0 1.0001267975812038 0.09654704097677766
4288000000.0 0.9985797562927606 0.1500070835018038
4291000000.0 0.9665683998064486 0.11039563711999216
4294000000.0 0.9892087510131327 0.0968703266537574
4297000000.0 0.9848591915005528 0.125978793439667
4300000000.0 0.9773028293348403 0.11272156066200872
4303000000.0 0.999692269545315 0.07050461842888366
4306000000.0 1.0340963136389028 0.11492083285584834
4309000000.0 0.9784821284505578 0.082268437920175
4312000000.0 1.0059444122710581 0.0873631379181351
4316000000.0 1.0186997290165558 0.0538969563877023
4319000000.0 0.9907741336512303 0.038558827625504735
4322000000.0 0.9859863360530742 0.014268865573264261
4325000000.0 1.0060087719487045 0.05710209424934455
4328000000.0 0.9966966190746077 -0.008848126854027097
4331000000.0 1.0091843936269569 -0.021927668595391803
4334000000.0 1.0192677966109653 0.01174219532005899
4338000000.0 1.0199107245206007 0.01916603222869022
4341000000.0 1.0228965264917298 0.021086713736206797
4344000000.0 1.034011016363665 -0.003670427174832208
4347000000.0 1.0077917287753722 -0.05607332885542243
4350000000.0 0.9840921777134864 -0.034748220156409784
4353000000.0 0.9859611866640026 -0.04656446045741676
4356000000.0 0.9964084731980443 -0.07312775693102283
4359000000.0 0.9467464707638145 -0.05929091377489869
4362000000.0 1.001906596220233 -0.12073317804512702
4366000000.0 1.0145061119284098 -0.11121079059986735
4369000000.0 0.9589614155994195 -0.08977080737138284
4372000000.0 0.9865495074956299 -0.14768715814485875
4375000000.0 1.0026597724026347 -0.10922203796433354
4378000000.0 0.9808200091899665 -0.10287916496016661
4381000000.0 0.986771646294569 -0.10630681926226457
4384000000.0 1.0449417735200082 -0.16039785692119196
4388000000.0 0.9914457239900324 -0.13738614038874025
4391000000.0 1.002072653062244 -0.14336583664031582
4394000000.0 0.965688687958044 -0.18055285782816208
4397000000.0 0.9716720478865684 -0.18207784795119872
4400000000.0 1.014112031222659 -0.18282423372950946
4403000000.0 1.0110489057084924 -0.19473111818315963
4406000000.0 0.993479564616073 -0.2224859861579622
4409000000.0 1.0245191420634296 -0.2336700951778248
4412000000.0 0.9748073377986526 -0.27662078411833196
4416000000.0 0.9695228827161755 -0.24035098783283526
4419000000.0 0.9758340184820279 -0.2590071849080707
4422000000.0 0.982380751019506 -0.23286321187796846
4425000000.0 0.9989905034995843 -0.24044757105194398
4428000000.0 0.9699426400607576 -0.27294500439216546
4431000000.0 0.9842185641221581 -0.272359522584889
4434000000.0 0.9421880939732464 -0.28629996923330425
4438000000.0 1.002639092207363 -0.29701599512536403
4441000000.0 0.9917945660584857 -0.29996449872399433
4444000000.0 0.9438196759298838 -0.2849705106785245
4447000000.0 0.938274275591667 -0.3274361834438556
4450000000.0 0.9417427891930549 -0.30495292787195094
4453000000.0 0.9699506742906208 -0.3257495340773618
4456000000.0 0.9145316440266225 -0.34753055739992267
4459000000.0 0.8889452015929304 -0.3547160150850177
4462000000.0 0.9811475139465944 -0.39044899819632206
4466000000.0 0.9804672052508319 -0.37184570635777225
4469000000.0 0.9385904060172089 -0.3637101162985952
4472000000.0 0.9547116387460008 -0.4097615638627567
4475000000.0 0.9086899655349149 -0.37542261877996463
4478000000.0 0.9534623621734938 -0.4322958026592968
4481000000.0 0.8987432356349124 -0.4119697485549286
4484000000.0 0.8867370530892225 -0.4409933138277313
4488000000.0 0.898573082844573 -0.41816058675536194
4491000000.0 0.9209097648230844 -0.44449241665256334
4494000000.0 0.9189369094851126 -0.4371329488471925
4497000000.0 0.9017978888446931 -0.4265597646344667
4500000000.0 0.9138678736090917 -0.45577830060486185
4503000000.0 0.9184082085571252 -0.45663683136058897
4506000000.0 0.8862861446098291 -0.4756973898651708
4509000000.0 0.8700697471481487 -0.4814469352054448
4512000000.0 0.859282549656048 -0.48272083147038336
4516000000.0 0.8865027544430213 -0.49393155862563753
4519000000.0 0.8554057640493185 -0.46962778038437286
4522000000.0 0.8603284437391339 -0.5165804492845818
4525000000.0 0.885053741203921 -0.47628351328709706
4528000000.0 0.8753809862324162 -0.5232687481500788
4531000000.0 0.8821313211096219 -0.5070840395966466
4534000000.0 0.8403240993057923 -0.5222969497666887
4538000000.0 0.8307028019276839 -0.5555032894259128
4541000000.0 0.832464027370815 -0.5829272400418687
4544000000.0 0.8271794990763266 -0.5490384743981348
4547000000.0 0.8187888017686219 -0.5315401877192203
4550000000.0 0.8208107772302475 -0.5989787237155971
4553000000.0 0.8104865282811393 -0.5941250786545131
4556000000.0 0.7808771657233231 -0.5953843546417287
4559000000.0 0.8147741336341987 -0.6077629667450262
4562000000.0 0.8226482148566223 -0.6011992655854335
4566000000.0 0.8017268678479907 -0.6096562693149166
4569000000.0 0.769224273004239 -0.611771115498688
4572000000.0 0.7827202478217218 -0.6165448448564708
4575000000.0 0.770244275377943 -0.6519361070243759
4578000000.0 0.7904947404245142 -0.6409474324915689
4581000000.0 0.7669375181228748 -0.6607131837505263
4584000000.0 0.7735723216271791 -0.6501739818144159
4588000000.0 0.7682983349586885 -0.6617683194757448
4591000000.0 0.7510970251741246 -0.6599588981442004
4594000000.0 0.7441522881208735 -0.6800419213312456
4597000000.0 0.7499339356219235 -0.6942902802943028
4600000000.0 0.7035076189846963 -0.6972057806138713
4603000000.0 0.7406769663487864 -0.7162786668217673
4606000000.0 0.7366526444448752 -0.7126946618850242
4609000000.0 0.7224955170312801 -0.7102260585456732
4612000000.0 0.7143046783917811 -0.7203832055789172
4616000000.0 0.6854024327830002 -0.7222464131062288
4619000000.0 0.7073525804911363 -0.7171571405910396
4622000000.0 0.6889464929373531 -0.7295531786415748
4625000000.0 0.6456871168024209 -0.7439295865734559
4628000000.0 0.6748376386662139 -0.7370087455179805
4631000000.0 0.6575167543594402 -0.7596458970247651
4634000000.0 0.6456759756289885 -0.764549823892505
4638000000.0 0.6652789946714434 -0.7581909329431896
4641000000.0 0.6488676446623005 -0.76207095303708
4644000000.0 0.6411002818775877 -0.7836969514587555
4647000000.0 0.628539608034699 -0.7964252026544402
4650000000.0 0.6174942912738675 -0.7854861556669597
4653000000.0 0.6281140067676765 -0.7993643000607619
4656000000.0 0.6155045295974211 -0.8134402935734071
4659000000.0 0.6139967117169639 -0.8098135391661725
4662000000.0 0.6013163558512468 -0.7998525386978151
4666000000.0 0.5818253694393253 -0.8176979475905071
4669000000.0 0.5950012047868249 -0.8182981992684537
4672000000.0 0.559598982655667 -0.8543933078601608
4675000000.0 0.5413762544942256 -0.83857008096896
4678000000.0 0.5492761410146247 -0.8366554071549717
4681000000.0 0.5316449895941826 -0.8560537072490793
4684000000.0 0.5519522228491756 -0.8642647804669469
4688000000.0 0.5285781576070907 -0.860414704946494
4691000000.0 0.5485436142939389 -0.8718460854416512
4694000000.0 0.5313733530722221 -0.8429336906107128
4697000000.0 0.4935422712063139 -0.8398116809183696
4700000000.0 0.5099229362814439 -0.8735004820618246
4703000000.0 0.5227220611691836 -0.8278145232748066
4706000000.0 0.4971630782319961 -0.8858989591641027
4709000000.0 0.47530431677027624 -0.8858905253017973
4712000000.0 0.4721453636138305 -0.867113470014531
4716000000.0 0.4719480213659768 -0.913624731669785
4719000000.0 0.49033875302005825 -0.9008584075005733
4722000000.0 0.4536004647220617 -0.899288093244234
4725000000.0 0.45658870599474166 -0.8914687583792924
4728000000.0 0.4254556254928917 -0.9117370488126866
4731000000.0 0.4509146733587237 -0.9297470604558034
4734000000.0 0.43395213018486584 -0.8808803180068384
4738000000.0 0.447466842177036 -0.9514762489323272
4741000000.0 0.4161402706041889 -0.9433238938924698
4744000000.0 0.3977566962601963 -0.9433341745823545
4747000000.0 0.4040404337382502 -0.900486387260291
4750000000.0 0.39320562614587945 -0.9395651081249564
4753000000.0 0.3934657149382438 -0.9174851419463453
4756000000.0 0.3797241803945744 -0.9749381298711715
4759000000.0 0.35873632804711275 -0.9883387431440697
4762000000.0 0.3452785969968416 -0.9700890619152646
4766000000.0 0.343421228195446 -0.9761550742351561
4769000000.0 0.3711519371750635 -0.9630523161845675
4772000000.0 0.33057131910882126 -0.976369698347643
4775000000.0 0.3333464148150561 -1.014365077128898
4778000000.0 0.32768632766044825 -0.9632325490283854
4781000000.0 0.31771919909458185 -0.9548004284081937
4784000000.0 0.3510604672208249 -0.9567436518855658
4788000000.0 0.2631948204593743 -0.9691264059499465
4791000000.0 0.2592660149200871 -0.9660337597728815
4794000000.0 0.32078936009422454 -0.999814861828461
4797000000.0 0.22653472290966692 -0.9552915294013057
4800000000.0 0.2388338957168693 -0.9638822110431402
4803000000.0 0.20666369227582093 -0.9817296069723331
4806000000.0 0.23806964324801286 -0.9982343198164632
4809000000.0 0.18653642892056121 -1.003501205091963
4812000000.0 0.17214020528858756 -0.9783091724080148
4816000000.0 0.23037755651199973 -0.9662823599478616
4819000000.0 0.22452616756091398 -1.0150728096767616
4822000000.0 0.26667150512012705 -1.0096442810875645
4825000000.0 0.22844850628373375 -1.0235192328184495
4828000000.0 0.19416167616873267 -0.9968767200912821
4831000000.0 0.13627209207833985 -1.0465208930594974
4834000000.0 0.17438244806884806 -1.0127194508293555
4838000000.0 0.15268292758634597 -1.032391672468841
4841000000.0 0.12124429010793739 -1.018531050385648
4844000000.0 0.15076672099997462 -1.0068922672827396
4847000000.0 0.13942193310246287 -0.971017435468742
4850000000.0 0.13372761901451657 -1.027116200424068
4853000000.0 0.1350506956421768 -0.9807412454786839
4856000000.0 0.10508408071104505 -0.9949175128146598
4859000000.0 0.10118713539362106 -1.0611899109846399
4862000000.0 0.13343786471316396 -0.998858881782651
4866000000.0 0.05739239283560654 -1.0388903864239445
4869000000.0 0.06923521528862091 -1.0009672331227604
4872000000.0 0.05154292358073751 -1.0653276884031626
4875000000.0 0.09992778558484211 -1.0525536485712153
4878000000.0 0.04545767304591179 -1.0285302442576603
4881000000.0 -0.002101343697634825 -1.060320017890487
4884000000.0 0.05249161247609693 -1.008338974737584
4888000000.0 0.06904548980945252 -1.0249159231776437
4891000000.0 0.011712390873793697 -1.0778051801532265
4894000000.0 -0.010142440057901925 -1.0279799360101223
4897000000.0 0.026868189298119106 -1.0296174756869165
4900000000.0 0.0013284200354813647 -1.0374339682725053
4903000000.0 -0.008180264810606165 -1.0574049560872512
4906000000.0 -0.022905087327550464 -1.037652473635968
4909000000.0 -0.05217395984359217 -1.0290440421607612
4912000000.0 -0.05062385147151456 -1.0676711096838827
4916000000.0 -0.04798744495595251 -1.073278184934465
4919000000.0 -0.016858674668475335 -1.0592169106895404
4922000000.0 -0.04832281861318978 -1.0533933894731706
4925000000.0 -0.11521907942295048 -1.0197353811228758
4928000000.0 -0.023141589525180348 -0.996246911688212
4931000000.0 -0.07803934850409654 -1.0400207169025917
4934000000.0 -0.08566136896657679 -0.9776977176580951
4938000000.0 -0.15083967045403912 -0.9989452481433755
4941000000.0 -0.11662473617441933 -1.0163484468841162
4944000000.0 -0.08828571211619451 -0.9718120116995836
4947000000.0 -0.1086941181127905 -0.9906190873585485
4950000000.0 -0.12373439346901167 -1.000390861066519
4953000000.0 -0.18325006829300883 -1.04643630208902
4956000000.0 -0.17381445122266337 -1.0034770362135503
4959000000.0 -0.17450240146523352 -0.9673944697748222
4962000000.0 -0.1958517296857614 -1.0457798163299536
4966000000.0 -0.13488765928836793 -1.047191358679364
4969000000.0 -0.18654716444748043 -1.041371740697423
4972000000.0 -0.22447543814363466 -0.9973762831558302
4975000000.0 -0.1638276844035589 -0.9973061251951535
4978000000.0 -0.22984463801657495 -1.000217026341148
4981000000.0 -0.2487240057072546 -1.0163123438811241
4984000000.0 -0.2005590279246102 -0.9949708439519647
4988000000.0 -0.2184909433992116 -0.9804119477168995
4991000000.0 -0.1935883087873954 -1.0493310371458315
4994000000.0 -0.2385441973135164 -0.9831834202778986
4997000000.0 -0.31082354774173143 -0.9891337029532637
5000000000.0 -0.2799100473619952 -1.0375143518931642
5003000000.0 -0.2825482689681043 -1.0238959005097585
5006000000.0 -0.27925244693394347 -1.0453520206327407
5009000000.0 -0.28589029486357553 -0.996331798025543
5012000000.0 -0.32993743019418637 -0.9760214626980876
5016000000.0 -0.2863588603774731 -1.045810732737922
5019000000.0 -0.3092320303384871 -0.9523472706173879
5022000000.0 -0.31843911098248334 -0.9658475545717895
5025000000.0 -0.3545278239679939 -1.0403921369799887
5028000000.0 -0.3465491835468395 -0.9828232826904013
5031000000.0 -0.36992900995181643 -0.9848270062512064
5034000000.0 -0.4028668850770396 -0.9901831725405779
5038000000.0 -0.3670860853211474 -0.9310595929046435
5041000000.0 -0.373801040420196 -1.0059275116216422
5044000000.0 -0.34319937100299047 -0.9566766656446682
5047000000.0 -0.3791905222984972 -0.9752718062083533
5050000000.0 -0.2909328052861081 -0.9677681956669424
5053000000.0 -0.3994366259015586 -0.9794092997542363
5056000000.0 -0.34573683310512626 -0.989194944341488
5059000000.0 -0.3676704909619028 -0.9741561769959807
5062000000.0 -0.48168204705843165 -0.9498748624006077
5066000000.0 -0.41941627396996706 -0.9451448269213698
5069000000.0 -0.4343942168691871 -0.9220864227192239
5072000000.0 -0.4371580099871146 -0.9258869539764822
5075000000.0 -0.40800731458912187 -0.9556648201527211
5078000000.0 -0.4840331837818546 -0.9197882688820129
5081000000.0 -0.5084758672609433 -0.9271293480525434
5084000000.0 -0.4693685688144632 -0.938318404381844
5088000000.0 -0.46132137692862407 -0.8927853016721039
5091000000.0 -0.49491510760898844 -0.857750546044316
5094000000.0 -0.512196904040922 -0.9281562028586249
5097000000.0 -0.4728292240218338 -0.8591029160733596
5100000000.0 -0.4880380434822849 -0.851424628302421
5103000000.0 -0.5255755155361371 -0.9205835220467399
5106000000.0 -0.5446070990366453 -0.9350357595056444
5109000000.0 -0.49330948076649517 -0.9289265727143989
5112000000.0 -0.5658455330974109 -0.8774642547975293
5116000000.0 -0.499717057214148 -0.8554690919172523
5119000000.0 -0.572561843395559 -0.9284126621238493
5122000000.0 -0.5540398406015998 -0.8855172729631138
5125000000.0 -0.5218719130099163 -0.8912358399833268
5128000000.0 -0.5688875763236293 -0.8264722938890097
5131000000.0 -0.5569419289859148 -0.8267115454995232
5134000000.0 -0.5581061655328781 -0.8969838517904414
5138000000.0 -0.5873367445967814 -0.8569271686121632
5141000000.0 -0.5506440763317608 -0.8659961615098308
5144000000.0 -0.5558166768489724 -0.8380067332558451
5147000000.0 -0.5903390978014393 -0.8535509533554675
5150000000.0 -0.6163643506836274 -0.8372207311347246
5153000000.0 -0.6255635063662475 -0.8184573961492804
5156000000.0 -0.6194146000688682 -0.8340885160759122
5159000000.0 -0.6587479535287484 -0.8558463310039849
5162000000.0 -0.6418642999219436 -0.7996819753149591
5166000000.0 -0.6682663907256452 -0.8342704058143409
5169000000.0 -0.6987579851626584 -0.8014980153513215
5172000000.0 -0.6427011772304331 -0.7752482470042955
5175000000.0 -0.6913214984243738 -0.8328324383494
5178000000.0 -0.7060355505091549 -0.7985690108868772
5181000000.0 -0.7067746379781706 -0.8072098450376942
5184000000.0 -0.7130741020119797 -0.7784153729628681
5188000000.0 -0.6703096684162416 -0.7822660616256802
