! Created with skrf 1.8.0 (http://scikit-rf.org).
# Hz S RI R 50.0 
!freq ReS11 ImS11
4000000000.0 0.6784028019203759 0.6988472225481739
4003000000.0 0.7861702552975404 0.760739034188335
4006000000.0 0.7359868807799218 0.6724044970009179
4009000000.0 0.7157674629614582 0.730308253945348
4012000000.0 0.7008673028212795 0.747499948871896
4016000000.0 0.7457654379495993 0.682280521425483
4019000000.0 0.7966896434010657 0.6947497201840371
4022000000.0 0.7206374313384121 0.7121319900400755
4025000000.0 0.7930092932087125 0.6547838769085763
4028000000.0 0.8217169307509924 0.6687355891981339
4031000000.0 0.7318823957574894 0.642628939180986
4034000000.0 0.7882003245757937 0.6505324664977905
4038000000.0 0.8298430256171858 0.6413288342403533
4041000000.0 0.7980551549922748 0.6434231859439412
4044000000.0 0.8313467232846189 0.6741799363043005
4047000000.0 0.8441422432385144 0.6927988734711189
4050000000.0 0.8728167711883298 0.5879354188009732
4053000000.0 0.8058504015693799 0.5809964383517041
4056000000.0 0.8287155362781952 0.6126926882729844
4059000000.0 0.8444664207196267 0.6076082805924845
4062000000.0 0.8549399118143022 0.5953496763637505
4066000000.0 0.8091779365357095 0.5438471168966615
4069000000.0 0.8494694679010579 0.5811834537213577
4072000000.0 0.8185400263396697 0.6061539574580423
4075000000.0 0.869657864322126 0.5978872565957911
4078000000.0 0.9128516312371732 0.5659854725542713
4081000000.0 0.8792730264828909 0.632292552468184
4084000000.0 0.8652953788200849 0.531461150512974
4088000000.0 0.8343136657986656 0.5483106871763032
4091000000.0 0.8799675963751168 0.574205361839619
4094000000.0 0.8549190546279823 0.5263275816343918
4097000000.0 0.8620290731326328 0.49626789043882574
4100000000.0 0.8920938346514696 0.5052907293859281
4103000000.0 0.9137096000183771 0.5066411067546344
4106000000.0 0.9298259167689753 0.4921779215140829
4109000000.0 0.9084827515363265 0.47182203129245187
4112000000.0 0.8961500830364915 0.4663350001863003
4116000000.0 0.9178337822697836 0.473190800610753
4119000000.0 0.9309218242222878 0.4281244729156076
4122000000.0 0.9399381284847879 0.4569541451541007
4125000000.0 0.9557162677740685 0.42742506861658575
4128000000.0 0.9033997294928113 0.42196152640364115
4131000000.0 0.9358232350022073 0.40266771416429104
4134000000.0 0.9287108158779871 0.406362333248242
4138000000.0 0.931364078671574 0.3742162710237988
4141000000.0 0.9168698377395003 0.3949357743211066
4144000000.0 0.939346863350777 0.4085261045658331
4147000000.0 0.949888489104726 0.36959579897038203
4150000000.0 0.9796790192580835 0.3974785035716864
4153000000.0 0.9707198652002047 0.3876702263715641
4156000000.0 0.9508835626273471 0.37106470521928236
4159000000.0 0.9209504467211906 0.353208559204434
4162000000.0 0.952978975088272 0.36779440148041853
4166000000.0 0.9927645139461954 0.3431594707822624
4169000000.0 0.9716718778616092 0.2993129189065552
4172000000.0 0.9595625540842082 0.3250871634067272
4175000000.0 0.9905873930060204 0.3280691403264809
4178000000.0 0.9839863984717349 0.3206984774904935
4181000000.0 0.9919920055099685 0.278804323035053
4184000000.0 0.9525653054273404 0.27614090675253106
4188000000.0 0.9721867405035509 0.29462854160429475
4191000000.0 0.9667549654909431 0.29768355024566345
4194000000.0 0.9650884001394634 0.2562460609082071
4197000000.0 1.008616420018745 0.2668294714406145
4200000000.0 0.9967668219193204 0.2628048437876437
4203000000.0 0.9881164413390188 0.25389300117026814
4206000000.0 1.0077433346669884 0.2367031271963082
4209000000.0 0.9848417844323782 0.21591265792248188
4212000000.0 0.9863421559364564 0.1932271454730758
4216000000.0 1.00322844151352 0.23515598017896366
4219000000.0 1.0107937129584985 0.2034491504897817
4222000000.0 0.9977765183630796 0.17203244913448001
4225000000.0 0.9947820185596385 0.18036576422340847
4228000000.0 1.0285810812074223 0.15281800572323814
4231000000.0 1.0179571664511031 0.15589745343926764
4234000000.0 1.0208128162418204 0.13148416533417046
4238000000.0 1.0082081117167891 0.12398532324106806
4241000000.0 0.9961228871433667 0.11888188954281487
4244000000.0 1.0019956254388358 0.12216391438472818
4247000000.0 0.9951630473592674 0.11761435405801207
4250000000.0 0.9820054343645794 0.09189694021211953
4253000000.0 0.9922152552756085 0.08936506100215644
4256000000.0 1.0256709256142835 0.065870173279508
4259000000.0 0.9673384174339934 0.057803647166670996
4262000000.0 1.0113678703955187 0.03906031903090412
4266000000.0 1.0384185923021765 0.03293542309698344
4269000000.0 1.0224508497014941 0.08020235522871585
4272000000.0 1.0014834685692553 0.037905918526163235
4275000000.0 1.0230482482200844 0.025330840770358465
4278000000.0 1.0296656574214258 0.010960576910319444
4281000000.0 1.0045072995370379 0.03360325477089714
4284000000.0 1.027940590812928 -0.024110621915663363
4288000000.0 1.0327155560924282 0.011579240912330722
4291000000.0 1.0115487809615682 -0.01567924664112122
4294000000.0 0.9804488650962374 -0.03406476314672328
4297000000.0 1.0058682322337842 -0.009645850602486641
4300000000.0 0.9890300064796975 -0.04229973764242885
4303000000.0 0.9854689347586442 -0.05573909076978008
4306000000.0 1.0093753260022775 -0.024026859557938526
4309000000.0 1.0151498692365395 -0.07349580996363517
4312000000.0 1.0511217306424447 -0.038473631259112885
4316000000.0 1.0222372664338095 -0.06919290550354142
4319000000.0 0.9753300224903177 -0.0787709311732248
4322000000.0 0.9962166069375388 -0.1195737441565883
4325000000.0 1.002383818076958 -0.08864442159998495
4328000000.0 1.0018329317440162 -0.10354437634202164
4331000000.0 1.0139068411304577 -0.17775383723073407
4334000000.0 1.0022253210306988 -0.12679478083961343
4338000000.0 0.9951739719405661 -0.1366403756819584
4341000000.0 1.0317857160756352 -0.13908527586899616
4344000000.0 1.0006844511538553 -0.15057577351170184
4347000000.0 0.9939900992527076 -0.20686169803559776
4350000000.0 0.9563541324960343 -0.1801774387333593
4353000000.0 0.9856635354177985 -0.1678317238974405
4356000000.0 0.9649539892588381 -0.2289382093967885
4359000000.0 0.9381705682045334 -0.1965416761531135
4362000000.0 0.9740061588557418 -0.2753582720919221
4366000000.0 0.981547060889093 -0.2481575702319173
4369000000.0 0.9469054245844726 -0.22840902277830588
4372000000.0 0.9615345457750815 -0.27803913891380583
4375000000.0 0.983716532232005 -0.24668385496676926
4378000000.0 0.955925922711384 -0.2717756968152283
4381000000.0 0.9335889303661158 -0.2717696941205744
4384000000.0 1.0217138307582028 -0.31112885235722193
4388000000.0 0.9529346223440137 -0.27138000758018505
4391000000.0 0.9769789201281804 -0.3068602772115364
4394000000.0 0.9218221140501414 -0.30815645483368204
4397000000.0 0.9471815266117865 -0.33555768804348646
4400000000.0 0.9506204110780909 -0.34601707979994667
4403000000.0 0.9544897547602299 -0.34153950135394695
4406000000.0 0.9386015224832995 -0.3591141573790786
4409000000.0 0.9622004346545914 -0.37166740183864455
4412000000.0 0.9155645309799734 -0.42031508937635653
4416000000.0 0.9275141383376089 -0.387376479503161
4419000000.0 0.9250121209351494 -0.4122119033813168
4422000000.0 0.9330137535668517 -0.37747365499313723
4425000000.0 0.9538633852500439 -0.39512976066688593
4428000000.0 0.917045757194753 -0.4203256222727828
4431000000.0 0.9423050128989279 -0.4174151932472919
4434000000.0 0.9012756913632203 -0.4236531556394255
4438000000.0 0.9241698448633511 -0.44209688961937366
4441000000.0 0.9147532439054569 -0.453777916266332
4444000000.0 0.8823933424162922 -0.45521580553922425
4447000000.0 0.8706545481032355 -0.48274027084210036
4450000000.0 0.8862659597404249 -0.4604007140554799
4453000000.0 0.9133711360844263 -0.4922941039358585
4456000000.0 0.8473237523811115 -0.48677400016511907
4459000000.0 0.8401092133374506 -0.50177484001169
4462000000.0 0.915100256497891 -0.5356028740460538
4466000000.0 0.8971542962859417 -0.5317034013036224
4469000000.0 0.8800255888873384 -0.520269533816479
4472000000.0 0.8556935499395886 -0.578399852286652
4475000000.0 0.8252235894370639 -0.5118024306391119
4478000000.0 0.861055840019975 -0.5788975764228786
4481000000.0 0.8161287618281127 -0.5523566625972874
4484000000.0 0.8202729904522312 -0.605923585695994
4488000000.0 0.8100600485426215 -0.5669618293347276
4491000000.0 0.8374458929114228 -0.588991941932779
4494000000.0 0.8171591980559708 -0.5713931465211275
4497000000.0 0.8086375854524781 -0.5738736271919566
4500000000.0 0.8039411651364383 -0.6057360216973444
4503000000.0 0.8234258009742776 -0.6115722464127822
4506000000.0 0.7953544688598373 -0.6167052565373778
4509000000.0 0.7762913001452809 -0.6016741629209494
4512000000.0 0.7779296698357395 -0.6381234448856
4516000000.0 0.7920484560589695 -0.6436651536546114
4519000000.0 0.744799867066457 -0.6122067061935086
4522000000.0 0.745017511476276 -0.6541698313718914
4525000000.0 0.7691207293220759 -0.6325563453829431
4528000000.0 0.7706053930781138 -0.6753191403732549
4531000000.0 0.7660383929578428 -0.6644795945481166
4534000000.0 0.710447295371383 -0.672347526640727
4538000000.0 0.736434542138942 -0.6952323694611613
4541000000.0 0.6842122405012743 -0.6958525615118307
4544000000.0 0.7097067583692005 -0.6751500170352329
4547000000.0 0.6949097361437225 -0.6661767307447872
4550000000.0 0.69776115305731 -0.7356540925581992
4553000000.0 0.6844736022054303 -0.7115387916310559
4556000000.0 0.6823724515162444 -0.7543998974646654
4559000000.0 0.6888646308017168 -0.7345467767148459
4562000000.0 0.6953171894972392 -0.7645575305050246
4566000000.0 0.674188568876307 -0.7538363854626406
4569000000.0 0.6453265212275439 -0.7608661468168667
4572000000.0 0.6549032574051906 -0.7695851182979399
4575000000.0 0.6324655254068823 -0.7920301789460688
4578000000.0 0.6684075607290103 -0.7767539553728352
4581000000.0 0.6355425847072426 -0.7940350824464076
4584000000.0 0.6207836336629553 -0.793386761194364
4588000000.0 0.6331357239769638 -0.8135738534875442
4591000000.0 0.6288007686082688 -0.8041298942498092
4594000000.0 0.5894273873341528 -0.8142160301928705
4597000000.0 0.6045788630993918 -0.8372154736605162
4600000000.0 0.5717246758701086 -0.8269954057796538
4603000000.0 0.5772630551820495 -0.8201648285736693
4606000000.0 0.586546712879432 -0.852218006213693
4609000000.0 0.5594555415977996 -0.8347229900593034
4612000000.0 0.5602130304871371 -0.8534119036509441
4616000000.0 0.5257184829654327 -0.8467736679930493
4619000000.0 0.5396438481814136 -0.8534217002638094
4622000000.0 0.5313646878279711 -0.8664073812356314
4625000000.0 0.47851840318580596 -0.8649807508708464
4628000000.0 0.5187669091117573 -0.8808652174476996
4631000000.0 0.520650944603047 -0.8733379500921247
4634000000.0 0.4852052071841324 -0.909203809976319
4638000000.0 0.49203823056640783 -0.8994237658510076
4641000000.0 0.4765972886872464 -0.8843540175471455
4644000000.0 0.458860280446695 -0.8794604069504747
4647000000.0 0.489398309732058 -0.9057385863430082
4650000000.0 0.4516959824702719 -0.9016715690052783
4653000000.0 0.4500305664264277 -0.9103779157321064
4656000000.0 0.4319634992547976 -0.9008586674617329
4659000000.0 0.4337532166074677 -0.9166711105511247
4662000000.0 0.41455589413663685 -0.9287083603035949
4666000000.0 0.3732919247314355 -0.9464298535517558
4669000000.0 0.41632285744844066 -0.9269131542375474
4672000000.0 0.3783272093401148 -0.9505481906292057
4675000000.0 0.3597229126566579 -0.9298327928321729
4678000000.0 0.3700060305240702 -0.9180316191558859
4681000000.0 0.3349196541689474 -0.9433023731097573
4684000000.0 0.3578468972235708 -0.968782459457253
4688000000.0 0.29717234711201024 -0.9473685988587699
4691000000.0 0.3744610440362307 -0.9625370958880552
4694000000.0 0.3510577521318411 -0.9392956158255819
4697000000.0 0.28107659335768365 -0.9144124954249084
4700000000.0 0.3053694750032581 -0.9362383178684408
4703000000.0 0.3332894361836101 -0.9270250759302596
4706000000.0 0.27963217282642133 -0.9681311805786724
4709000000.0 0.2556591622303458 -0.9820655436205452
4712000000.0 0.2726770379779159 -0.9833035911505353
4716000000.0 0.2623747630041628 -1.00694498189913
4719000000.0 0.30621594725828 -0.9715609978921266
4722000000.0 0.2723439045754758 -0.9747222165097711
4725000000.0 0.25257646215001583 -0.9789461545824142
4728000000.0 0.2379982382063883 -0.9991853325845206
4731000000.0 0.23304209845450516 -1.026758755903334
4734000000.0 0.2018551026068999 -0.9802787435639296
4738000000.0 0.18081804231655804 -1.0628695765084302
4741000000.0 0.1835357264945624 -1.0207757896739509
4744000000.0 0.1550339698527036 -1.012191600276049
4747000000.0 0.18370176912263897 -0.9744898399884339
4750000000.0 0.16743142018922866 -1.010578283304877
4753000000.0 0.16462291505613375 -0.991934422432359
4756000000.0 0.15183654797963184 -1.0213772847315452
4759000000.0 0.14966804834680708 -1.014335541117946
4762000000.0 0.11014276190743744 -1.0303160392112154
4766000000.0 0.09595105354607181 -1.017017188596228
4769000000.0 0.09443901798857024 -1.0249308405314452
4772000000.0 0.1082472385934985 -1.017975262403333
4775000000.0 0.08994963501888406 -1.085734504200918
4778000000.0 0.06697015843795837 -1.043238209410019
4781000000.0 0.09844680845764422 -1.041954000383997
4784000000.0 0.07665471600861387 -0.9927302590348231
4788000000.0 0.03586068082909771 -1.008887021511229
4791000000.0 0.04576993396156154 -1.0006299972955772
4794000000.0 0.08112906274408241 -1.0502490897883856
4797000000.0 0.014901056026249165 -1.0229967676329201
4800000000.0 0.025615108559959188 -1.007205517305964
4803000000.0 -0.01977641980139569 -1.0225493901383509
4806000000.0 -0.0040098928927115585 -1.028864525293756
4809000000.0 -0.06980096812003286 -1.026658699128767
4812000000.0 -0.07547197683834261 -1.0027225830212336
4816000000.0 -0.009548389579628447 -1.0069688837978858
4819000000.0 -0.020463094596415737 -1.0472228823998437
4822000000.0 -0.024654165149923885 -1.0700266086054127
4825000000.0 -0.03520098515201606 -1.0497694898484873
4828000000.0 -0.07828447276250941 -1.0187154657668085
4831000000.0 -0.12980640682777372 -1.041678651159356
4834000000.0 -0.07335834624557527 -1.043134155573207
4838000000.0 -0.1371914737337111 -1.0424989153624036
4841000000.0 -0.12039896870122606 -1.0210611468369382
4844000000.0 -0.0830460510409794 -1.0382362918648
4847000000.0 -0.08479039236501545 -0.9976130529587097
4850000000.0 -0.15771463591839624 -1.0327286785324652
4853000000.0 -0.11440021842032708 -0.9901620762115151
4856000000.0 -0.15467962745966626 -0.9970495302299095
4859000000.0 -0.16859074188040327 -1.079924503831481
4862000000.0 -0.1375748468641797 -0.9891852083071192
4866000000.0 -0.203171350551945 -1.0315902574455627
4869000000.0 -0.19984637596522373 -0.9882816963006186
4872000000.0 -0.2507236291568861 -1.007471416076813
4875000000.0 -0.1576886088935514 -1.0584648209208858
4878000000.0 -0.23082756467333673 -1.0044839514107007
4881000000.0 -0.26971110621684485 -1.047048851892855
4884000000.0 -0.21925894320708506 -0.9988140075502927
4888000000.0 -0.21344207866060377 -0.9753351437224155
4891000000.0 -0.2540628383120417 -1.0252586084292874
4894000000.0 -0.2973622790149344 -0.9831030648341083
4897000000.0 -0.2443139907111451 -0.9638153230557985
4900000000.0 -0.2672339928748184 -0.9902301300017218
4903000000.0 -0.2772236590271847 -0.9834461980828488
4906000000.0 -0.3053609514028967 -1.03913047577742
4909000000.0 -0.31547880701597647 -0.9871989128272003
4912000000.0 -0.324310290174679 -0.9743124765153875
4916000000.0 -0.3296833142958069 -1.0188382336686161
4919000000.0 -0.32120164016846253 -1.027464918559903
4922000000.0 -0.3326274428369609 -0.9858588761220379
4925000000.0 -0.40184095023331035 -0.950990730082656
4928000000.0 -0.2687542250153806 -0.9757146247259738
4931000000.0 -0.38031699543866493 -0.9723200733599211
4934000000.0 -0.34662519273824827 -0.9482032045888773
4938000000.0 -0.42046399032846743 -0.9282566607817369
4941000000.0 -0.39600538489516096 -0.9092187194591731
4944000000.0 -0.4141865604968932 -0.919931744338345
4947000000.0 -0.38671114685439933 -0.9259553572006687
4950000000.0 -0.40573367584647213 -0.8856509433245812
4953000000.0 -0.49921575243052463 -0.9323017341525929
4956000000.0 -0.4543458293791713 -0.9252120460573776
4959000000.0 -0.4822354337117267 -0.8773364985568979
4962000000.0 -0.468389536355553 -0.9376478669596984
4966000000.0 -0.4495322186874139 -0.942001133936957
4969000000.0 -0.48016719296289234 -0.9796033914157922
4972000000.0 -0.47158477117419206 -0.9174941140502885
4975000000.0 -0.45017126631390936 -0.9082309266880028
4978000000.0 -0.5170083066520769 -0.8708757509326471
4981000000.0 -0.5434876089192802 -0.9103918605718866
4984000000.0 -0.5105825935166214 -0.8814765300924765
4988000000.0 -0.5191851476135254 -0.9041020905913004
4991000000.0 -0.4818449229877783 -0.9394469848676222
4994000000.0 -0.5542294164665165 -0.8988616735819923
4997000000.0 -0.5700997846176243 -0.8478282216154673
5000000000.0 -0.5726319415569173 -0.9129078680376108
5003000000.0 -0.583384863212552 -0.8688155115535933
5006000000.0 -0.589512150217111 -0.8915196294972663
5009000000.0 -0.592757084041567 -0.8545467455552402
5012000000.0 -0.6094399746926229 -0.8257877494280517
5016000000.0 -0.6035318681877997 -0.8732128195584925
5019000000.0 -0.6103739839206722 -0.8357701219040334
5022000000.0 -0.6047597856605854 -0.8414064665926693
5025000000.0 -0.6509299754717364 -0.880752423652752
5028000000.0 -0.6612258172235731 -0.8261611987002377
5031000000.0 -0.6232818221186027 -0.7916602052547574
5034000000.0 -0.6577225264262644 -0.8298691401710944
5038000000.0 -0.6409365335554322 -0.7838905451071105
5041000000.0 -0.6539677395441228 -0.8204105892514628
5044000000.0 -0.6342882541431772 -0.7917562699064572
5047000000.0 -0.6835927947426286 -0.756011221955586
5050000000.0 -0.6307011771075499 -0.8113080259862362
5053000000.0 -0.7126342259066267 -0.8066023080810156
5056000000.0 -0.6538254063259847 -0.8072487269874017
5059000000.0 -0.7037953017320691 -0.7841303682888818
5062000000.0 -0.7385912701793969 -0.7627823270363644
5066000000.0 -0.7182730371192426 -0.7763998858822911
5069000000.0 -0.6948523322164549 -0.7724798745890553
5072000000.0 -0.7098212595934184 -0.730651905955193
5075000000.0 -0.6804477869904729 -0.7552736116447889
5078000000.0 -0.7731429424101282 -0.7082332315805931
5081000000.0 -0.7116278336105754 -0.659554371230301
5084000000.0 -0.781901256599235 -0.6940791264351847
5088000000.0 -0.7564213713736099 -0.7069477012184562
5091000000.0 -0.775130228297366 -0.7048460507088903
5094000000.0 -0.8014619518739865 -0.6701713083744651
5097000000.0 -0.7552638706371614 -0.6859084093492716
5100000000.0 -0.7887497251723864 -0.6330138501075289
5103000000.0 -0.833020483007009 -0.6483545732203323
5106000000.0 -0.7984003031257674 -0.6767287107393972
5109000000.0 -0.8057664577009299 -0.6388529507998361
5112000000.0 -0.8005432809985151 -0.6594282685905235
5116000000.0 -0.7766310625955026 -0.6281197395555174
5119000000.0 -0.867633728367027 -0.6245840689213462
5122000000.0 -0.850486828505746 -0.5503754061708095
5125000000.0 -0.8040831643332789 -0.6579798477612547
5128000000.0 -0.8881114689630812 -0.5981331254916709
5131000000.0 -0.8546260007198466 -0.5855751756045064
5134000000.0 -0.8486681201712867 -0.548070628318382
5138000000.0 -0.8242117355561777 -0.5339284451810196
5141000000.0 -0.8601115962147825 -0.6210022725818354
5144000000.0 -0.8476174296296777 -0.5343154986220426
5147000000.0 -0.915992180507618 -0.5668649801207122
5150000000.0 -0.918374493541727 -0.5557978991234682
5153000000.0 -0.945675059235245 -0.5671862299279907
5156000000.0 -0.9025383013526888 -0.530282215124977
5159000000.0 -0.9071567477914966 -0.5043355420514997
5162000000.0 -0.9207868528930148 -0.45714499732010494
5166000000.0 -0.8644116583530633 -0.4652945666424683
5169000000.0 -0.9299411973320948 -0.4705712290024117
5172000000.0 -0.9109487152679405 -0.531693960390768
5175000000.0 -0.966644944535234 -0.4665253440691627
5178000000.0 -0.9664931532525987 -0.47431342977350976
5181000000.0 -0.943967388689788 -0.4259985161748996
5184000000.0 -0.9296387833172799 -0.42493303253722003
5188000000.0 -0.978246503711034 -0.43305231342314465
