! Created with skrf 1.8.0 (http://scikit-rf.org).
# Hz S RI R 50.0 
!freq ReS11 ImS11
4000000000.0 0.6215420407241529 0.8086973857638178
4003000000.0 0.6382108961119184 0.8889630058990957
4006000000.0 0.6998264307131669 0.7685528583063232
4009000000.0 0.615946737289242 0.8273152161571585
4012000000.0 0.6488328791073837 0.8510886959673987
4016000000.0 0.711715683571305 0.8024219318590831
4019000000.0 0.6530991102387682 0.7958489149140361
4022000000.0 0.6093834033828897 0.855430526247099
4025000000.0 0.7356238073105282 0.7422817547253652
4028000000.0 0.7187507633476067 0.7741739449172953
4031000000.0 0.6502080617880434 0.7427465428470803
4034000000.0 0.6899224828937167 0.7431329034096104
4038000000.0 0.700023696346517 0.7478582829424412
4041000000.0 0.7394174878353832 0.741285029496089
4044000000.0 0.7609005645536929 0.7866305329328145
4047000000.0 0.729814974497415 0.7606494444819322
4050000000.0 0.756003155617136 0.7457952652040948
4053000000.0 0.7340680421737276 0.7025825328538022
4056000000.0 0.7707489781484137 0.6735889270332447
4059000000.0 0.6966548843024691 0.6865937123016503
4062000000.0 0.8042814221205922 0.6801523176678297
4066000000.0 0.7290579522119751 0.6549101676735581
4069000000.0 0.8096644019894954 0.6643822045551574
4072000000.0 0.7320369913116691 0.7183645105275149
4075000000.0 0.761106100300251 0.6890870131260018
4078000000.0 0.8140657377370587 0.6820174650191433
4081000000.0 0.7673523022818245 0.7292774810665154
4084000000.0 0.8134882306334277 0.6493235956811776
4088000000.0 0.7849059781700253 0.6642974870433839
4091000000.0 0.8803247621845903 0.6738226800707536
4094000000.0 0.8169661646224038 0.6358515227509761
4097000000.0 0.8124347924155508 0.618707572338818
4100000000.0 0.8623458031368312 0.6140978916604802
4103000000.0 0.8493789007258685 0.6531113248895588
4106000000.0 0.8604946244970467 0.6156560259158412
4109000000.0 0.8704777576756546 0.5744934242283302
4112000000.0 0.8628417265025357 0.5986932616047425
4116000000.0 0.8615543495232335 0.6141413795310366
4119000000.0 0.8973685616213742 0.5758930125070285
4122000000.0 0.9086265592540904 0.5507315799151443
4125000000.0 0.8982592852750019 0.5392748815294253
4128000000.0 0.8476139722997909 0.554122870631818
4131000000.0 0.8547436558566044 0.5322982106950455
4134000000.0 0.8860372545820384 0.5418764281756271
4138000000.0 0.888532333662003 0.520659439810446
4141000000.0 0.8885016788415128 0.5361064690940441
4144000000.0 0.8663373060841579 0.5362766478356007
4147000000.0 0.9098875395690331 0.5140490078062425
4150000000.0 0.9575626194612403 0.5101686090566657
4153000000.0 0.9012435182257023 0.4880159635763035
4156000000.0 0.924382780397978 0.5139282365807334
4159000000.0 0.8524017395124388 0.4871756463412619
4162000000.0 0.8887544596054224 0.4824978978022918
4166000000.0 0.9313942645890945 0.4474361016574333
4169000000.0 0.9299784680869713 0.4187524394324681
4172000000.0 0.9262125625637235 0.49096621054799733
4175000000.0 0.9428631905735418 0.44397961320012574
4178000000.0 0.9432255152526131 0.4517289056146282
4181000000.0 0.9575959589749801 0.4390286631576781
4184000000.0 0.940065210327639 0.44253824427565763
4188000000.0 0.9295907888111297 0.4078388423923235
4191000000.0 0.9310620808775821 0.4414959625120553
4194000000.0 0.9407429911544424 0.39685372012827846
4197000000.0 0.9437671028299371 0.3845765071119814
4200000000.0 0.9451854892514742 0.4109127412160798
4203000000.0 0.9434996369844882 0.40200080777093594
4206000000.0 0.9639371884812654 0.37273808616611975
4209000000.0 0.9341614941074889 0.36145491695511606
4212000000.0 0.9703333227413615 0.33620285347290824
4216000000.0 0.9549183709374481 0.36885876213703167
4219000000.0 0.9722126304473094 0.35255042010436366
4222000000.0 0.971839214444036 0.32520636556259336
4225000000.0 0.9806649206325095 0.3431421629321366
4228000000.0 0.978470614221238 0.31343774748202047
4231000000.0 0.9728456626489973 0.29546745061333657
4234000000.0 0.9819908932997236 0.30216303951917506
4238000000.0 0.9925540986371065 0.28784968475793293
4241000000.0 0.9825701338017598 0.2638436550276456
4244000000.0 0.9858489988315746 0.2799862073412126
4247000000.0 1.0044301521325818 0.2645750911922773
4250000000.0 0.9744772023148953 0.2524738139741176
4253000000.0 0.9460534811586636 0.22884397337098195
4256000000.0 1.0121407940945195 0.25279636158666174
4259000000.0 0.9645147304990906 0.21581398814243627
4262000000.0 0.9964001326950995 0.1983326262362954
4266000000.0 1.0195503580545258 0.19944799514029676
4269000000.0 1.0027026334430993 0.2266316230865343
4272000000.0 1.009272193391044 0.18857059060743853
4275000000.0 0.9914395849351076 0.19405456117639974
4278000000.0 1.0264754015628097 0.2013830166903201
4281000000.0 1.014308379370302 0.19351795344861145
4284000000.0 1.018003232148827 0.13795839371251647
4288000000.0 0.9978924391816955 0.1781459355568974
4291000000.0 0.9852737008128807 0.14951490123286154
4294000000.0 1.0112262465533002 0.13853510323252122
4297000000.0 0.9976409557717302 0.14803810335263734
4300000000.0 0.9934023468079853 0.1161443921823053
4303000000.0 1.0150825747508219 0.09052908615711709
4306000000.0 1.0072930000582527 0.16344437127327077
4309000000.0 1.0194134596083047 0.09011933437788854
4312000000.0 1.0187069493943042 0.1281984117972127
4316000000.0 1.0137503190921522 0.09485446684371392
4319000000.0 0.9883084465063218 0.0907739978051997
4322000000.0 1.002810361123074 0.026341825293574303
4325000000.0 1.042689887206387 0.054430802333710795
4328000000.0 0.9928849652537131 0.03655439317996188
4331000000.0 1.0238545080210806 0.008981302118645756
4334000000.0 1.0181771604043488 0.04946434842042824
4338000000.0 1.0368165807563112 0.041587438428991805
4341000000.0 1.0462775627489587 0.03573458809496971
4344000000.0 1.0356117770866478 0.016101946085579966
4347000000.0 1.0034486111518728 -0.03711191584177437
4350000000.0 0.9894940134590197 -0.009365710381831649
4353000000.0 0.9937306603474663 -0.01155476021227056
4356000000.0 1.019803681114693 -0.04532553759794486
4359000000.0 0.9713458179299815 -0.030202644107114485
4362000000.0 1.0220545486330734 -0.08863764575709675
4366000000.0 1.0237720130030599 -0.08454850627648999
4369000000.0 0.9902505217631311 -0.07598177801077041
4372000000.0 0.974590194122281 -0.09665621203946492
4375000000.0 1.017750562691383 -0.04403237987273789
4378000000.0 0.9959309286216856 -0.08353388928740432
4381000000.0 1.0023126079001383 -0.09395442179834984
4384000000.0 1.094242859130758 -0.12881513277106893
4388000000.0 0.9964665267615064 -0.1158682970816701
4391000000.0 1.0141060385860985 -0.12780197796481618
4394000000.0 0.9699120194111301 -0.14587541572518198
4397000000.0 0.9869830642797943 -0.15484765624757763
4400000000.0 1.015974428777617 -0.16677661165985624
4403000000.0 1.0066008211696702 -0.15273423743777337
4406000000.0 1.0055181049055102 -0.18467283562381365
4409000000.0 1.024628921552253 -0.19682119567693346
4412000000.0 0.9760244902479766 -0.23444137429818823
4416000000.0 0.9818823981303717 -0.20651589044640536
4419000000.0 0.9984411542922909 -0.23387281842766458
4422000000.0 0.9848889082240029 -0.20712437598717404
4425000000.0 1.0005000989552353 -0.20273223411983193
4428000000.0 0.9793401591166522 -0.2413263763485142
4431000000.0 0.9930132187182115 -0.24770742479871222
4434000000.0 0.9712894868160704 -0.2554756224831305
4438000000.0 0.9960005629897426 -0.2598598611219788
4441000000.0 0.9835599489920808 -0.2727746226545331
4444000000.0 0.9553034927407857 -0.2508398120844146
4447000000.0 0.952769381805201 -0.30067672279384333
4450000000.0 0.9475143320145634 -0.26343676227059837
4453000000.0 0.990441761109112 -0.28746954485733867
4456000000.0 0.9345002910567454 -0.30730162615378076
4459000000.0 0.9300920700505266 -0.3225537956353338
4462000000.0 1.002316972581802 -0.34417459639865644
4466000000.0 0.9931973078560666 -0.34656078069145
4469000000.0 0.9533473579865845 -0.33682094662642204
4472000000.0 0.944219823439967 -0.38386565015117036
4475000000.0 0.9362812768240917 -0.3505421407657534
4478000000.0 0.9741663479697508 -0.38550606128884035
4481000000.0 0.9112627517739958 -0.37805703832574544
4484000000.0 0.9177781238770917 -0.43882916806526284
4488000000.0 0.9150549787861197 -0.38557325742347276
4491000000.0 0.934003148634046 -0.4295404754554927
4494000000.0 0.9158624733502789 -0.3995402361786751
4497000000.0 0.9244592393452482 -0.3882248969641622
4500000000.0 0.9130828155199004 -0.402697990126842
4503000000.0 0.9380954812970657 -0.4380854879744725
4506000000.0 0.893179899756201 -0.4329624959672946
4509000000.0 0.8939788407615181 -0.4536155402928478
4512000000.0 0.8663294602861478 -0.4597820877777449
4516000000.0 0.9131695392844441 -0.468038388349035
4519000000.0 0.8836994434224105 -0.46002155729758604
4522000000.0 0.8768275960954062 -0.4874704892367739
4525000000.0 0.9066566771801052 -0.4442386006100198
4528000000.0 0.8852058150275646 -0.5072845469566519
4531000000.0 0.8860212182571383 -0.4875434500958855
4534000000.0 0.8593060454979145 -0.49688731619584026
4538000000.0 0.8580470563032057 -0.5279547081308735
4541000000.0 0.8189302714674143 -0.5549408676292217
4544000000.0 0.8399522602581957 -0.5284599907926869
4547000000.0 0.8395348645591115 -0.5218119333512579
4550000000.0 0.8607432526830703 -0.5647420949021769
4553000000.0 0.84968287626379 -0.5660842512777863
4556000000.0 0.8037226667203339 -0.5538022329155151
4559000000.0 0.8257834885918451 -0.581644465482605
4562000000.0 0.848247668912379 -0.5828652109949934
4566000000.0 0.8267939163651541 -0.5826677862970004
4569000000.0 0.8115187322506972 -0.5824682537498671
4572000000.0 0.8159582247878187 -0.6091586454755052
4575000000.0 0.8045684550287766 -0.6418958175943997
4578000000.0 0.824191254163688 -0.6192749015441692
4581000000.0 0.7990149125353943 -0.6356187172421581
4584000000.0 0.7922610310519422 -0.6353380994650364
4588000000.0 0.819686624569294 -0.6585146713562768
4591000000.0 0.779668836160714 -0.6232490178181291
4594000000.0 0.7584037203125334 -0.6555103828651054
4597000000.0 0.7752865604399621 -0.6772767553858422
4600000000.0 0.7444834707488708 -0.6816457182942154
4603000000.0 0.747517601552836 -0.6884494294524232
4606000000.0 0.7526806612136374 -0.6817932253708913
4609000000.0 0.7506089858716642 -0.6883634959555225
4612000000.0 0.7296783691479422 -0.7141897782209391
4616000000.0 0.7282604395970602 -0.6970399290579663
4619000000.0 0.7291224895558177 -0.7083631019797075
4622000000.0 0.7124318609892427 -0.7213620939449816
4625000000.0 0.6827076976538976 -0.7092797556991497
4628000000.0 0.7024285063893283 -0.7192396755026852
4631000000.0 0.6690054590368775 -0.7424265141174745
4634000000.0 0.6852643786727586 -0.7298131500894727
4638000000.0 0.6868354269536333 -0.7377843261887189
4641000000.0 0.6708656692937799 -0.7494168320235471
4644000000.0 0.6708162390373579 -0.7636935480541311
4647000000.0 0.6674137866775425 -0.76565283486758
4650000000.0 0.6589438326370982 -0.7757282560695202
4653000000.0 0.6725545624872616 -0.775804306296611
4656000000.0 0.6488070273482998 -0.7965972750333166
4659000000.0 0.6190577667455657 -0.7894728385508629
4662000000.0 0.6113001541994716 -0.7947145684398945
4666000000.0 0.6250772664081173 -0.7814192616261513
4669000000.0 0.6263839271715923 -0.7815824639121507
4672000000.0 0.6004746920011895 -0.8120763088079216
4675000000.0 0.6014190603763118 -0.8267933925346673
4678000000.0 0.5951200609877103 -0.8182677792011206
4681000000.0 0.5777842326845982 -0.8498372290286952
4684000000.0 0.5593801054480638 -0.8480185747202535
4688000000.0 0.5706765162867724 -0.8555019633232465
4691000000.0 0.5796662057801277 -0.8331443416753124
4694000000.0 0.5733785131122183 -0.830055434780705
4697000000.0 0.5115966260219786 -0.8273409168757786
4700000000.0 0.5580550413088944 -0.8599955240646657
4703000000.0 0.522604325335716 -0.8317262419108624
4706000000.0 0.5094640722299069 -0.8691903651079634
4709000000.0 0.5206909804311293 -0.8815002007084957
4712000000.0 0.511041308069931 -0.8858913676055498
4716000000.0 0.5168983776064454 -0.8880332038920737
4719000000.0 0.5392869374585777 -0.8724848825235583
4722000000.0 0.5290318736398166 -0.8807698409188722
4725000000.0 0.49933991680063994 -0.8823708409873434
4728000000.0 0.4806152245015763 -0.8883100860464344
4731000000.0 0.4927162070572092 -0.9254560967739855
4734000000.0 0.47140341838291167 -0.877747980903167
4738000000.0 0.4868871189456062 -0.9475650079356612
4741000000.0 0.4437382154154091 -0.9381181786923702
4744000000.0 0.43736346491930167 -0.9160769640319695
4747000000.0 0.4381683977439176 -0.8887921028364889
4750000000.0 0.44129948142716646 -0.9246167468505619
4753000000.0 0.42284854295349683 -0.9448172804680295
4756000000.0 0.4060335540366005 -0.9544941911253473
4759000000.0 0.39662122283996853 -0.9552914867918617
4762000000.0 0.3774839714567061 -0.9750662444655616
4766000000.0 0.37270567500697804 -0.9484519392627968
4769000000.0 0.4028081642971068 -0.9637409734426573
4772000000.0 0.37711002771176866 -0.9767272098206657
4775000000.0 0.3619367249204086 -0.983568771575227
4778000000.0 0.3566053411224126 -0.9753193937369545
4781000000.0 0.3594964386790369 -0.9539630891817577
4784000000.0 0.3476083282640998 -0.9327226542702599
4788000000.0 0.3067469200253069 -1.0046059715224587
4791000000.0 0.34154990044861766 -0.9530713746522238
4794000000.0 0.33128338848338945 -0.9897039793407207
4797000000.0 0.2870702566011338 -1.0058919543847262
4800000000.0 0.2889148045078836 -0.9681530924256365
4803000000.0 0.24725424230077256 -0.95789434495208
4806000000.0 0.27053134280892993 -0.9926200575155262
4809000000.0 0.23102692990768012 -0.9780972095067021
4812000000.0 0.23252797631172992 -0.9800511936306993
4816000000.0 0.26805895128746643 -0.976140847060972
4819000000.0 0.26894826349353573 -1.0019023126931477
4822000000.0 0.261517537988258 -1.0210303943153736
4825000000.0 0.27014649765375454 -1.020210017832763
4828000000.0 0.21806410178350316 -1.0048744982096727
4831000000.0 0.15935988916346724 -1.023410347429183
4834000000.0 0.22804981551469491 -1.0086015792067655
4838000000.0 0.1905619764852644 -1.0381586910493332
4841000000.0 0.16735145917052852 -1.0053557893419671
4844000000.0 0.21205369159171975 -1.0089937365594361
4847000000.0 0.19605294556449898 -0.9640395440907521
4850000000.0 0.15035235687005724 -1.0337033732002412
4853000000.0 0.16221503898209477 -1.006207804053232
4856000000.0 0.1444499531448264 -1.0013199607354821
4859000000.0 0.15880549558356422 -1.0699527007966654
4862000000.0 0.1528823497631372 -0.9922005773076666
4866000000.0 0.10264822165419746 -1.057806160672697
4869000000.0 0.11968892685207415 -1.030950627913021
4872000000.0 0.09802239366347677 -1.0578234162182372
4875000000.0 0.15225410483474583 -1.062097161358038
4878000000.0 0.09735196528259119 -1.0346711538145419
4881000000.0 0.0533613091573724 -1.0993609660471222
4884000000.0 0.09780943399508489 -1.0213411962322538
4888000000.0 0.11376569677863488 -1.0361199092686288
4891000000.0 0.07247897843744916 -1.0702862411240524
4894000000.0 0.021933869019743476 -1.029567572688952
4897000000.0 0.06910517600405022 -1.0135059734353982
4900000000.0 0.0580266574986323 -1.0457116480942383
4903000000.0 0.058668576680089346 -1.0652049748150156
4906000000.0 0.005018608013521716 -1.0734219291649645
4909000000.0 -0.027001190137918817 -1.0152864903984997
4912000000.0 -0.013280109333230976 -1.0664842773643206
4916000000.0 0.006143822593932813 -1.0440507360312494
4919000000.0 0.02406195174349659 -1.0621269926910442
4922000000.0 0.011991389884506307 -1.0416489840876624
4925000000.0 -0.06988208786157542 -1.0248640111529845
4928000000.0 0.036455155450021585 -1.055810148317921
4931000000.0 -0.03472857293466389 -1.0418329708133873
4934000000.0 -0.052237551692997056 -0.9920667317760623
4938000000.0 -0.09403727140105105 -1.0291440013258573
4941000000.0 -0.06861303250326824 -1.016923911225813
4944000000.0 -0.061111444908533125 -0.9820503761736665
4947000000.0 -0.11417319735802295 -1.0094804297264717
4950000000.0 -0.09940566546705355 -1.0008475669236587
4953000000.0 -0.129658425701304 -1.0589654841434053
4956000000.0 -0.15928312845759712 -1.042573814385417
4959000000.0 -0.12449159474189678 -0.9695779065783766
4962000000.0 -0.1310863969825223 -1.0232665293768708
4966000000.0 -0.12350752912240393 -1.063095518025828
4969000000.0 -0.1074193807922817 -1.086984869560939
4972000000.0 -0.1608303824692395 -1.0426170169427533
4975000000.0 -0.1330550535897527 -1.0350820556286
4978000000.0 -0.18287794490200499 -1.0252349727779069
4981000000.0 -0.21042415486004443 -1.0103219691019054
4984000000.0 -0.15354732913586103 -0.9791570819899716
4988000000.0 -0.1718266992942244 -1.0018328357082609
4991000000.0 -0.1858237875655282 -1.0382684632370176
4994000000.0 -0.18753973198744756 -1.0162421078883153
4997000000.0 -0.24873752604773147 -1.0351751452433104
5000000000.0 -0.21687502583100354 -1.0402289304254189
5003000000.0 -0.21782441703574335 -1.0455236160588641
5006000000.0 -0.27796875409992594 -1.076088949336713
5009000000.0 -0.2539913685390983 -1.0001349032084126
5012000000.0 -0.2731435315806776 -0.9951454982880596
5016000000.0 -0.2132885541616148 -1.048624750579472
5019000000.0 -0.28639165720761295 -0.9816826343689735
5022000000.0 -0.27565790504054277 -1.006219385503088
5025000000.0 -0.30061003126466473 -1.0503729937109603
5028000000.0 -0.303984028273256 -1.0029184263583317
5031000000.0 -0.33160564764065814 -0.9832904841446911
5034000000.0 -0.3425704240153433 -1.009579416220467
5038000000.0 -0.34976896995514983 -0.9463056253201081
5041000000.0 -0.3146114741898467 -1.0047985387855625
5044000000.0 -0.3165172448459197 -0.9847712680503454
5047000000.0 -0.32185971065891 -0.9894549084059568
5050000000.0 -0.29301223568681933 -0.9962402460150361
5053000000.0 -0.39767472633536805 -1.0067189090989157
5056000000.0 -0.3344438509598512 -0.9938842457378956
5059000000.0 -0.33137823517752146 -0.9958875464881979
5062000000.0 -0.4156151866871065 -0.9861289869470957
5066000000.0 -0.36454402004732644 -0.9506810062657769
5069000000.0 -0.4235977333857026 -0.9695772025992154
5072000000.0 -0.3880246266140287 -0.9671867324816434
5075000000.0 -0.3577416152355726 -0.9501781862709577
5078000000.0 -0.44166855293958357 -0.9641922555170215
5081000000.0 -0.3955603113311381 -0.9054233248401923
5084000000.0 -0.44317604893751117 -0.9810338236259855
5088000000.0 -0.4177846347018033 -0.9424168044080767
5091000000.0 -0.5024961386718763 -0.9448001945797313
5094000000.0 -0.46450434483464703 -0.9179831344808783
5097000000.0 -0.4113213139178702 -0.9190715431124983
5100000000.0 -0.4571953973943472 -0.9367076736412839
5103000000.0 -0.5026622200486471 -0.9250181743466944
5106000000.0 -0.4800026674679147 -0.9597601380779799
5109000000.0 -0.42826411113348656 -0.9213730283788335
5112000000.0 -0.5232013505761357 -0.8896856753682874
5116000000.0 -0.4622625867714963 -0.8727225825545641
5119000000.0 -0.5483411531162565 -0.8896377972062433
5122000000.0 -0.49466605564948046 -0.9123217225369413
5125000000.0 -0.49336085748704683 -0.8827080664632513
5128000000.0 -0.5191447147490263 -0.9444290321713558
5131000000.0 -0.5529106969679225 -0.8745094531806247
5134000000.0 -0.5724588189424861 -0.898864889530888
5138000000.0 -0.5404837246124308 -0.8675916960984874
5141000000.0 -0.5241654473571246 -0.8998169283955308
5144000000.0 -0.5409618526136962 -0.9216721271143946
5147000000.0 -0.5984523364708245 -0.8673161307106838
5150000000.0 -0.585850143971427 -0.9229410967540342
5153000000.0 -0.6310818239937337 -0.9014999650919133
5156000000.0 -0.5806988671669655 -0.8660703546156298
5159000000.0 -0.6110016800919967 -0.8673689866064578
5162000000.0 -0.5912569395395246 -0.8531642627188458
5166000000.0 -0.6269821962708378 -0.865072166487745
5169000000.0 -0.6267361109163816 -0.871354229585766
5172000000.0 -0.6025023965075932 -0.8487802870821513
5175000000.0 -0.5960606347956835 -0.873091128213207
5178000000.0 -0.6422231749175789 -0.7978879112108801
5181000000.0 -0.6951814871619468 -0.8558074680549785
5184000000.0 -0.6376329779208486 -0.8050637060466996
5188000000.0 -0.6693959816699697 -0.7783366415282134
