! Created with skrf 1.8.0 (http://scikit-rf.org).
# Hz S RI R 50.0 
!freq ReS11 ImS11
4000000000.0 0.6241869472887438 0.7415598217990498
4003000000.0 0.7350599238134031 0.7729301485436469
4006000000.0 0.7286428704227323 0.7418453025484948
4009000000.0 0.6736723609717483 0.7260186006666864
4012000000.0 0.7015004519243386 0.8032993121410335
4016000000.0 0.7030429313129456 0.733472569427388
4019000000.0 0.7115406543546954 0.7181230220745772
4022000000.0 0.6535602565297262 0.7907852434107829
4025000000.0 0.7841978393707818 0.7274913946013074
4028000000.0 0.7686513895493974 0.72465694698212
4031000000.0 0.7035682293881912 0.7038181394017798
4034000000.0 0.7248386683922946 0.6900551877594959
4038000000.0 0.7814350595410299 0.6685251909994144
4041000000.0 0.7632178267964564 0.648755262227358
4044000000.0 0.8026252043315397 0.7547194528794706
4047000000.0 0.7614335644572278 0.7454058876496262
4050000000.0 0.8025714107312436 0.6596472295931174
4053000000.0 0.7841060737838607 0.6448932960571203
4056000000.0 0.7847957160498644 0.6532277377710137
4059000000.0 0.7932799770582649 0.6377021388959698
4062000000.0 0.8125606064524599 0.6662446054131279
4066000000.0 0.7632426684091642 0.6099923673915578
4069000000.0 0.8536584547139257 0.6145571702896905
4072000000.0 0.8045185640682826 0.646756664789458
4075000000.0 0.819100513559296 0.6870747860226221
4078000000.0 0.7986877739650207 0.6138811306542148
4081000000.0 0.8549912717839411 0.6645822051905813
4084000000.0 0.8531320849428073 0.5505083953278458
4088000000.0 0.8044780541679554 0.6357390490309558
4091000000.0 0.8963912092101708 0.5939508306351073
4094000000.0 0.8220437726175145 0.5989749815605385
4097000000.0 0.8537145615940573 0.5488097517462558
4100000000.0 0.848564588906056 0.5041293348860727
4103000000.0 0.8740862516390986 0.5818993867667697
4106000000.0 0.8608816618900035 0.5471144159324642
4109000000.0 0.8698674594804612 0.5473844336015676
4112000000.0 0.8646671513890409 0.5372518245602309
4116000000.0 0.8689542308224927 0.5278282236520638
4119000000.0 0.8687670461839683 0.48520185527242754
4122000000.0 0.9010429682742033 0.5137021303254474
4125000000.0 0.9108812931018921 0.4623947806401098
4128000000.0 0.8640392631024874 0.5095977872342748
4131000000.0 0.887251244461183 0.482396055731123
4134000000.0 0.8846253133870112 0.47842654856017697
4138000000.0 0.8891580330922046 0.44725728196307296
4141000000.0 0.8871794518499506 0.43261747778945836
4144000000.0 0.9132426883078851 0.4714223565126648
4147000000.0 0.9044932950215654 0.4339054358257047
4150000000.0 0.9293557205599768 0.4625887762895105
4153000000.0 0.9076812058156258 0.4158512354456262
4156000000.0 0.9301141198369207 0.4488506021397205
4159000000.0 0.9307558097006172 0.4145704827747791
4162000000.0 0.946806275731787 0.4307194678543884
4166000000.0 0.9343125525252212 0.3860438702312964
4169000000.0 0.9287669526815623 0.37043185704696635
4172000000.0 0.9432635015890248 0.38796534140498334
4175000000.0 0.9730135882465601 0.37763977392702536
4178000000.0 0.9594694079976316 0.35687497200786766
4181000000.0 0.9366487289931078 0.38496730661480727
4184000000.0 0.9517072026351981 0.3697910750417744
4188000000.0 0.9425862038551327 0.36817351060479453
4191000000.0 0.9132574819730239 0.3790187025617892
4194000000.0 0.9567043954781028 0.33264665654985404
4197000000.0 0.968106263544007 0.3349018427434732
4200000000.0 0.9730191775454611 0.3175394151075889
4203000000.0 0.9781142137310068 0.3347260218104593
4206000000.0 0.9834062666962841 0.31359829048481264
4209000000.0 0.9564244827107838 0.2884246989220432
4212000000.0 0.9800637502592321 0.2603294442933649
4216000000.0 0.9889179036585493 0.29167154373051823
4219000000.0 0.9904157548651744 0.2858839265973825
4222000000.0 0.9972984391364597 0.26740259579765235
4225000000.0 0.9765991814743005 0.27089898704074344
4228000000.0 0.9829918946106095 0.24829822087501272
4231000000.0 0.980365949584178 0.23782954458386235
4234000000.0 1.003957182222304 0.22344130268428103
4238000000.0 1.000606160822809 0.19890651903423004
4241000000.0 0.9993238742247932 0.1765099102228947
4244000000.0 0.9851865195034654 0.20270408154654407
4247000000.0 1.0017184552405216 0.18958342014345542
4250000000.0 0.9601598672849805 0.17333946413512713
4253000000.0 0.9676033684281578 0.16438576386156922
4256000000.0 1.0422054395182918 0.16361634199897263
4259000000.0 0.9686366066916137 0.12826641288122068
4262000000.0 0.9955542118950682 0.12289997251274096
4266000000.0 1.027212348101856 0.12096054075576798
4269000000.0 0.9834887747886728 0.13016740727444867
4272000000.0 1.0176727277222666 0.11574660856330471
4275000000.0 1.0090299755584577 0.12134554028797237
4278000000.0 1.0324747953231697 0.11079185713478917
4281000000.0 1.0244016799034945 0.1132577332679071
4284000000.0 1.0139603947327527 0.07259523214192373
4288000000.0 1.0193749500180116 0.10614875079479869
4291000000.0 0.9941666503238175 0.05722334065342273
4294000000.0 1.016110139439038 0.058591778698876565
4297000000.0 0.9834300128033343 0.07733672586637423
4300000000.0 1.0118277031386138 0.05688501989640823
4303000000.0 1.0178136337312371 0.04883242769498487
4306000000.0 0.9967245361194552 0.078498655525474
4309000000.0 0.9847888502198039 0.047081930213916254
4312000000.0 1.0338808658495968 0.04799054862345058
4316000000.0 1.0228170997385673 0.04571169091279621
4319000000.0 0.989399338032884 0.02718254027274343
4322000000.0 0.9962078300014396 -0.03386535378125734
4325000000.0 1.017973219422014 -0.042491655182071084
4328000000.0 0.9967981147834837 -0.024094373657306448
4331000000.0 1.0228677742319576 -0.049678359157862936
4334000000.0 1.0106938856966527 -0.07165290289828652
4338000000.0 1.0081990849943026 -0.012290188585546494
4341000000.0 1.024011047989953 -0.04257592397755475
4344000000.0 1.0364185611633945 -0.05197566014386382
4347000000.0 1.013145099477471 -0.0910208435385959
4350000000.0 0.9707271213003943 -0.08748852518702331
4353000000.0 0.9800585555255779 -0.06921226690125366
4356000000.0 0.9845749762794546 -0.1331473784906661
4359000000.0 0.9652189928547554 -0.1318247668264443
4362000000.0 0.9892304222511938 -0.18513174741317223
4366000000.0 1.006263090027709 -0.17485991667975975
4369000000.0 0.9631832334318293 -0.14211255385838736
4372000000.0 0.9765536507451653 -0.18739179500440467
4375000000.0 0.987710039537028 -0.14711195303643246
4378000000.0 0.9592585383720977 -0.1612929273054707
4381000000.0 0.9798098663076535 -0.17062053861172935
4384000000.0 1.0548094494665357 -0.21250832742346726
4388000000.0 0.9728757082473725 -0.18701922593459366
4391000000.0 1.0028817373008838 -0.20113603440935204
4394000000.0 0.9617943554162679 -0.2289259356883142
4397000000.0 0.9760292133751074 -0.2277505529868445
4400000000.0 1.0019556106697463 -0.24836660308588193
4403000000.0 0.9768609669563498 -0.23578992110138358
4406000000.0 0.97137155187775 -0.2800333505119452
4409000000.0 1.0071608638412775 -0.2704446164213098
4412000000.0 0.9552168894378501 -0.31773097084420454
4416000000.0 0.957856558666107 -0.2879592077758681
4419000000.0 0.956261601969569 -0.3158689629899968
4422000000.0 0.9580984116610596 -0.26757389570100776
4425000000.0 0.9746217197851423 -0.2837180596272988
4428000000.0 0.9500522366083535 -0.32065528259620124
4431000000.0 0.9720964027487109 -0.3264627348337934
4434000000.0 0.9483465298556522 -0.330675843959334
4438000000.0 0.9711747911993192 -0.3563036910492447
4441000000.0 0.9691394006767124 -0.3595086963844819
4444000000.0 0.923742267919063 -0.34485448202169383
4447000000.0 0.9100901834295204 -0.37725001720674844
4450000000.0 0.9213884672232376 -0.35145624887885174
4453000000.0 0.935970096578625 -0.3859924208180112
4456000000.0 0.8927054660095455 -0.3967677932159057
4459000000.0 0.8804380691239408 -0.3990413359381116
4462000000.0 0.9672989452223975 -0.4279318306009945
4466000000.0 0.9466055989847522 -0.44436752011204106
4469000000.0 0.9220148465994349 -0.41100078977311066
4472000000.0 0.9236174114038334 -0.4664634699622799
4475000000.0 0.8690685972832722 -0.42163657571776936
4478000000.0 0.9241073178177923 -0.4847393909790597
4481000000.0 0.8701214596070814 -0.453241672089231
4484000000.0 0.8842748727310927 -0.493843892924682
4488000000.0 0.8782881526884839 -0.4777930894922686
4491000000.0 0.8827551007202895 -0.4820000311885076
4494000000.0 0.8729802742020378 -0.4799418364508599
4497000000.0 0.8588443486805517 -0.4809406661748402
4500000000.0 0.8743160755048118 -0.4943077499250425
4503000000.0 0.8729594855856289 -0.5131654392756133
4506000000.0 0.8700137448166951 -0.5389177013416572
4509000000.0 0.8248960627895754 -0.5066056390733711
4512000000.0 0.8349342961497561 -0.5193849832180802
4516000000.0 0.8730032895901845 -0.5482682434990859
4519000000.0 0.8303026185835783 -0.5380195476846364
4522000000.0 0.8461925081303809 -0.5660966580444704
4525000000.0 0.825161876799102 -0.539581916962701
4528000000.0 0.8568094854968733 -0.582394265519983
4531000000.0 0.8204095456166117 -0.5879950141214964
4534000000.0 0.7809945961290443 -0.5616063811734482
4538000000.0 0.7921505299745424 -0.5921452963782925
4541000000.0 0.7775111147939964 -0.6236022906770816
4544000000.0 0.7831554289319096 -0.604747812839726
4547000000.0 0.7925143740927 -0.6009189407746194
4550000000.0 0.7806930946122619 -0.638996645873405
4553000000.0 0.7886357047081505 -0.6279189881333989
4556000000.0 0.7470607556494453 -0.6497061142295445
4559000000.0 0.7596527743845932 -0.6532557154382015
4562000000.0 0.7870560196284977 -0.659513740841764
4566000000.0 0.7446560050010349 -0.6643568194866274
4569000000.0 0.7214446291467553 -0.673806362085072
4572000000.0 0.7575020920701067 -0.6754773766640954
4575000000.0 0.719834304906604 -0.7113846176567282
4578000000.0 0.7583623204001273 -0.684359566696126
4581000000.0 0.7135884845136362 -0.6990603453862794
4584000000.0 0.7182885458988906 -0.7161796837437089
4588000000.0 0.7533243024177642 -0.7158363687331337
4591000000.0 0.7132718203933193 -0.7146153524789886
4594000000.0 0.6591467839781645 -0.7373899485104788
4597000000.0 0.6894296757539065 -0.7439147817243092
4600000000.0 0.6605194949215235 -0.7436451383946103
4603000000.0 0.6707575275903529 -0.7466654105648496
4606000000.0 0.6826231195199296 -0.7810687368380391
4609000000.0 0.6687447273810394 -0.7599728002538442
4612000000.0 0.6591043367246292 -0.7765090762037441
4616000000.0 0.6429317812414965 -0.7535898649377525
4619000000.0 0.6628369550937525 -0.7758796309769829
4622000000.0 0.6367827311678287 -0.7818085641088616
4625000000.0 0.5977064550212816 -0.7911600460329511
4628000000.0 0.6451294873536999 -0.8038870095580712
4631000000.0 0.6134152500854504 -0.7980174421420004
4634000000.0 0.588265606473008 -0.8033853311006028
4638000000.0 0.6088254537433663 -0.8013753814482358
4641000000.0 0.5986868317175287 -0.8173780853876746
4644000000.0 0.5814069525593009 -0.8050078976318477
4647000000.0 0.596600213671824 -0.837478773447179
4650000000.0 0.567525648636111 -0.813477452468598
4653000000.0 0.5730295332598409 -0.8335903491098183
4656000000.0 0.5507372307266506 -0.8482226292653912
4659000000.0 0.5470125003571962 -0.8467329114954372
4662000000.0 0.5419650098056006 -0.8482574388315915
4666000000.0 0.5309066415708098 -0.8678347509675305
4669000000.0 0.5369089022114728 -0.8463845502503127
4672000000.0 0.529878040274064 -0.9073555512775882
4675000000.0 0.4959854402412016 -0.8862461986142997
4678000000.0 0.4850451166662933 -0.8538554002425917
4681000000.0 0.4815902527624254 -0.8809491267772345
4684000000.0 0.4559648163017263 -0.8927836644823408
4688000000.0 0.45809390704999364 -0.9011757329671843
4691000000.0 0.4872731610187859 -0.916936699923339
4694000000.0 0.4715259661224249 -0.8969737867721173
4697000000.0 0.42506087510236557 -0.9016670579954449
4700000000.0 0.47021332056282517 -0.8952981578188592
4703000000.0 0.4623848858345003 -0.8486881638561741
4706000000.0 0.42447912374318636 -0.9087869874686211
4709000000.0 0.43837362839716554 -0.91624606954701
4712000000.0 0.4228403287653335 -0.9238895199014978
4716000000.0 0.40773353457512584 -0.9701470174846869
4719000000.0 0.4253191384106174 -0.9314191506246143
4722000000.0 0.41697923957400723 -0.9131600409802325
4725000000.0 0.38764922120819184 -0.9217309842833472
4728000000.0 0.3757468623509016 -0.9512535738419121
4731000000.0 0.4087183630463947 -0.9491267883285273
4734000000.0 0.3679197286506577 -0.9294200479639451
4738000000.0 0.39602048161562947 -0.9886329199090943
4741000000.0 0.3079972619704751 -0.9754257872116242
4744000000.0 0.3400940275977635 -0.9683840141708326
4747000000.0 0.35057718463857707 -0.9315414733752483
4750000000.0 0.32697182536303315 -0.9715671161629491
4753000000.0 0.32267630026121663 -0.9331443269536353
4756000000.0 0.29856938608265465 -0.9828888583411324
4759000000.0 0.28540006968836135 -0.9888996011248429
4762000000.0 0.2599951476282134 -0.9994846684861366
4766000000.0 0.2962397684098932 -0.9995401180536306
4769000000.0 0.27147166460784206 -1.0039626495950604
4772000000.0 0.29415194412747436 -0.9947828019305568
4775000000.0 0.24783464742878789 -1.0179213486352399
4778000000.0 0.2546625701099451 -1.008619161131841
4781000000.0 0.2402047974221391 -0.9825835163835839
4784000000.0 0.24355872730089578 -0.9809579760691679
4788000000.0 0.20904651110788772 -1.0016113981227832
4791000000.0 0.21335805526499269 -1.0089759550111546
4794000000.0 0.22750374812208993 -1.0255341406073557
4797000000.0 0.17758815197154385 -0.972504020331504
4800000000.0 0.1673652899224109 -0.9869895788017475
4803000000.0 0.1091135134014183 -0.9774171397269471
4806000000.0 0.14570142041981557 -1.0013726315771878
4809000000.0 0.13369192062818536 -1.032738780762227
4812000000.0 0.09249148540188384 -0.9950085673018692
4816000000.0 0.14723192771061644 -0.9971532238166934
4819000000.0 0.13924413799926655 -1.045066614456699
4822000000.0 0.1431346540208203 -1.0268282514007574
4825000000.0 0.13711662970457966 -1.0574801386005357
4828000000.0 0.1119461574233438 -0.9980255081276906
4831000000.0 0.07587908236884544 -1.0416703984592472
4834000000.0 0.09602471347707614 -1.0099194675787744
4838000000.0 0.04608451248391819 -1.0397587534841894
4841000000.0 0.06739060711956046 -1.0210422169628868
4844000000.0 0.08475309837213393 -1.0354970776778316
4847000000.0 0.09028911407703026 -0.9942592633541971
4850000000.0 0.045393594624230274 -1.049582703796473
4853000000.0 0.053880761836225456 -1.0074420303458127
4856000000.0 0.024202439087431978 -0.9998334093714106
4859000000.0 -0.014122626016739186 -1.0299286824087486
4862000000.0 0.03138593845956858 -0.9868493129635557
4866000000.0 -0.013055420447661434 -1.0287311380098376
4869000000.0 -0.020496795232707848 -1.0325332912219947
4872000000.0 -0.048070574332945086 -1.0601796756711168
4875000000.0 0.02324820124121922 -1.05843981961088
4878000000.0 -0.03865465865625294 -1.047022174425139
4881000000.0 -0.08283726877538714 -1.082858748623896
4884000000.0 -0.032577270098846756 -1.0316170144794348
4888000000.0 -0.02521483333508375 -1.002529135859373
4891000000.0 -0.06398374916418118 -1.0542840202412007
4894000000.0 -0.06909928272719199 -1.008644099599994
4897000000.0 -0.05730190247677425 -1.0276534177204895
4900000000.0 -0.10441572016429768 -1.0603730635631905
4903000000.0 -0.08988685823510156 -1.0358449908326672
4906000000.0 -0.1147361945750615 -1.061620541359932
4909000000.0 -0.13192920196173116 -1.011984372347874
4912000000.0 -0.1421666336371747 -1.056496582826333
4916000000.0 -0.12848626326028859 -1.0486872093547228
4919000000.0 -0.10870236778099572 -1.0604917825380857
4922000000.0 -0.13867418571908774 -1.0277971128642378
4925000000.0 -0.1819839405538746 -1.0007257153552251
4928000000.0 -0.1023310898683265 -1.0303608312398937
4931000000.0 -0.196168007923538 -1.0496289592314714
4934000000.0 -0.18818545470673953 -0.9481957441328193
4938000000.0 -0.2141782985640444 -0.9933082366020777
4941000000.0 -0.18266959306779829 -0.9781024650498148
4944000000.0 -0.20376597754685946 -0.977902573260774
4947000000.0 -0.21938795704210926 -0.9708701590690325
4950000000.0 -0.2284791717812248 -0.9799173257346763
4953000000.0 -0.27814789099398746 -0.9983101506088431
4956000000.0 -0.2646496289067166 -0.9991262284589895
4959000000.0 -0.25196566557291555 -0.9549288799344318
4962000000.0 -0.2458271143190404 -1.017039264041792
4966000000.0 -0.26471573923548297 -1.0059176841369855
4969000000.0 -0.24845943723903635 -1.0342074829273464
4972000000.0 -0.28000095473566167 -1.0257259865591517
4975000000.0 -0.26723286367982735 -0.9766477258775382
4978000000.0 -0.3257597280873533 -1.0112461347593007
4981000000.0 -0.340870149048336 -0.9773851440074758
4984000000.0 -0.3083222258549917 -0.9727932683526331
4988000000.0 -0.3048546625669282 -0.954706945425042
4991000000.0 -0.2961034278647569 -1.0139940737767816
4994000000.0 -0.3480589458721419 -0.976290995152043
4997000000.0 -0.3774569645118518 -0.973754678457994
5000000000.0 -0.3337580642947279 -0.9780788533127307
5003000000.0 -0.3554434310724918 -0.9945341477528961
5006000000.0 -0.4027987713297566 -1.0133278691974015
5009000000.0 -0.373041959774021 -0.9694851930657448
5012000000.0 -0.4030261867639721 -0.9590772158634067
5016000000.0 -0.38272482607800645 -0.9961156752416618
5019000000.0 -0.4059675015247053 -0.9605973496225897
5022000000.0 -0.4098541660196129 -0.9807798729493626
5025000000.0 -0.43407388903487304 -1.0055963744102077
5028000000.0 -0.4443706633217337 -0.9207709791457089
5031000000.0 -0.4597490094697073 -0.9449429920726174
5034000000.0 -0.4777436890328788 -0.9448040112187082
5038000000.0 -0.46048084129586475 -0.8728987607433467
5041000000.0 -0.4335291353187385 -0.9192327191150508
5044000000.0 -0.40724447234229555 -0.9370937985355127
5047000000.0 -0.47606054507229084 -0.9242326515235734
5050000000.0 -0.40724752687054144 -0.9580364876336951
5053000000.0 -0.5377273315950161 -0.911252221589355
5056000000.0 -0.44574666875029945 -0.9400101239136969
5059000000.0 -0.46293333203443604 -0.917082912017707
5062000000.0 -0.5381602412249049 -0.9232756659680614
5066000000.0 -0.47835610019421393 -0.9239146474643003
5069000000.0 -0.5314245454521669 -0.8777336974775992
5072000000.0 -0.5072140945437054 -0.8695203578948483
5075000000.0 -0.5071063219609612 -0.8819510650497231
5078000000.0 -0.5674089168185703 -0.8683773778012305
5081000000.0 -0.5491333355272928 -0.8437369574213739
5084000000.0 -0.5769188861603658 -0.8691660613616436
5088000000.0 -0.571094811135679 -0.8302749773997995
5091000000.0 -0.6771373057854029 -0.8517257102859714
5094000000.0 -0.5815598397458557 -0.837204794339896
5097000000.0 -0.5501152461953219 -0.8615982947602152
5100000000.0 -0.6212440034860588 -0.834790202426999
5103000000.0 -0.6192712843592216 -0.8456866329509151
5106000000.0 -0.5957879432942043 -0.8924925320020578
5109000000.0 -0.5926649285290798 -0.8229731292336607
5112000000.0 -0.6656701615156057 -0.8543258610149944
5116000000.0 -0.6084529624014764 -0.7950033926114014
5119000000.0 -0.6716003043823592 -0.8190048446977007
5122000000.0 -0.5889202871691275 -0.7934992939971757
5125000000.0 -0.6446824309463646 -0.8447324304468524
5128000000.0 -0.6346676040438657 -0.7604184769482663
5131000000.0 -0.657560815765179 -0.8243833959632167
5134000000.0 -0.6946676675644409 -0.8033201084667254
5138000000.0 -0.6656428121351642 -0.830324621593907
5141000000.0 -0.6461159580541775 -0.8596593925999712
5144000000.0 -0.6361490058642627 -0.7883837962721272
5147000000.0 -0.6803803118482902 -0.7619590020102388
5150000000.0 -0.7065665340185174 -0.8081323194857122
5153000000.0 -0.7628516323076457 -0.7797318110895793
5156000000.0 -0.7094611908637809 -0.7548144122376079
5159000000.0 -0.7566973916371548 -0.8103776126011223
5162000000.0 -0.724767856896703 -0.7212827267417614
5166000000.0 -0.7593664865072279 -0.7479456554017752
5169000000.0 -0.7648365502297922 -0.769739279586145
5172000000.0 -0.74686684206565 -0.7259595412098817
5175000000.0 -0.7598898190715927 -0.7902897724283766
5178000000.0 -0.7679677538739682 -0.7345133036791623
5181000000.0 -0.7662921907290327 -0.7234317548706178
5184000000.0 -0.7897308175733758 -0.7044530746119411
5188000000.0 -0.752076109166787 -0.6801392440375789
