! Created with skrf 1.8.0 (http://scikit-rf.org).
# Hz S RI R 50.0 
!freq ReS11 ImS11
4000000000.0 0.6199266697880014 0.7989743420138538
4003000000.0 0.6581481098326716 0.8516457182701797
4006000000.0 0.7089623084799206 0.7430758439724657
4009000000.0 0.6572306542247107 0.7979115910812178
4012000000.0 0.6264167767193041 0.8397331395552651
4016000000.0 0.6810079369342928 0.7818391837248517
4019000000.0 0.6820399605426357 0.7699553311667393
4022000000.0 0.617869470017697 0.8357678664565896
4025000000.0 0.7371628481318914 0.7435627495299995
4028000000.0 0.7298810750742425 0.7433272998345182
4031000000.0 0.6517487121952157 0.7302657155272985
4034000000.0 0.6758945159972921 0.7555454290777404
4038000000.0 0.7526872167643536 0.7010175685892804
4041000000.0 0.7406111746974572 0.7260501891697791
4044000000.0 0.7740018241266289 0.7508213706424607
4047000000.0 0.7293134575977211 0.7794133303687683
4050000000.0 0.7844733618406908 0.6997555857313462
4053000000.0 0.7743352912971195 0.7093817561765474
4056000000.0 0.7308598177510841 0.7219999177492314
4059000000.0 0.7278977540197668 0.7081983071755191
4062000000.0 0.7705444251082032 0.7020919795847191
4066000000.0 0.7365558099700782 0.6247774812930063
4069000000.0 0.8269129921145222 0.6847274366471024
4072000000.0 0.7591035369071792 0.6907842688531998
4075000000.0 0.7731878556523711 0.6486902146385207
4078000000.0 0.7934590788196387 0.661870405150956
4081000000.0 0.7555507065691732 0.7349575932146234
4084000000.0 0.8143411491274946 0.6383402290792015
4088000000.0 0.8000062985037482 0.6289622042549959
4091000000.0 0.8459621161555195 0.6741212890257209
4094000000.0 0.7770252635568418 0.6497542667561726
4097000000.0 0.816055676992924 0.6255271290148516
4100000000.0 0.8496121979930985 0.5973869531865965
4103000000.0 0.8167854393098943 0.6374728569854782
4106000000.0 0.8244794546690459 0.586530198177702
4109000000.0 0.8548923297108981 0.5542780258014817
4112000000.0 0.8293964744560345 0.5867921307655148
4116000000.0 0.8426111588376693 0.5762440070606161
4119000000.0 0.888640969750176 0.5302950132846446
4122000000.0 0.895915212183377 0.5379091327120054
4125000000.0 0.893361488470411 0.5654718902738032
4128000000.0 0.8434867187239861 0.5552144100437679
4131000000.0 0.8607813428212285 0.5659294894683987
4134000000.0 0.8579258715821458 0.5735738025671479
4138000000.0 0.8675301174548846 0.4706555604562423
4141000000.0 0.8710064362380723 0.501974621955673
4144000000.0 0.88606661275758 0.5197493565609594
4147000000.0 0.8765598662326674 0.456566176747871
4150000000.0 0.9147020180910757 0.5004620874302286
4153000000.0 0.8710639733104167 0.48684736945390916
4156000000.0 0.9468622574470356 0.52602449804478
4159000000.0 0.8713549948919084 0.502353890514232
4162000000.0 0.901924413480919 0.44895406909855473
4166000000.0 0.9135007572096501 0.42944282257655597
4169000000.0 0.9316429951695923 0.4266629144929127
4172000000.0 0.9082202614747192 0.4593703879192678
4175000000.0 0.9282536353410372 0.4381425798442789
4178000000.0 0.9358561678166271 0.44193730412165855
4181000000.0 0.9453890280999815 0.41663916458909567
4184000000.0 0.9323730335675976 0.42176051999562075
4188000000.0 0.9428904104837075 0.38984990794547614
4191000000.0 0.9130306929696191 0.42551934368969196
4194000000.0 0.9196528084058186 0.3637560892559393
4197000000.0 0.9446846792677067 0.39891765314148125
4200000000.0 0.940190380156178 0.377241044771889
4203000000.0 0.9557845937962465 0.3800145956702541
4206000000.0 0.9564038638728712 0.36804337794174863
4209000000.0 0.9220491960945331 0.35242991887920133
4212000000.0 0.9543403744682452 0.3049642526177334
4216000000.0 0.9585241256671376 0.35124225968693973
4219000000.0 0.9699058241226683 0.34580962734168785
4222000000.0 0.9691546117411869 0.3235013581455188
4225000000.0 0.9639354268970926 0.29712946256182715
4228000000.0 0.974220546784091 0.3008797042080186
4231000000.0 0.9595127217067129 0.2755032632799431
4234000000.0 0.9897247453864166 0.282961129616066
4238000000.0 0.9770738203745883 0.2788588862801762
4241000000.0 0.9824518323317732 0.2361354872487444
4244000000.0 0.9895788122818573 0.2624096141469267
4247000000.0 0.9708372354249386 0.2624682455933471
4250000000.0 0.9778943237393494 0.26129000979287154
4253000000.0 0.9671978072657146 0.2286983254234376
4256000000.0 0.9929581885516083 0.22907286064567506
4259000000.0 0.9601217825102972 0.20755111711827998
4262000000.0 0.9909942826063038 0.18383213815763608
4266000000.0 0.9986395895249921 0.17937295079668003
4269000000.0 1.0207021224826835 0.21495536331391216
4272000000.0 1.0037629616953332 0.1877980300682197
4275000000.0 0.9972626575321253 0.1943966558617637
4278000000.0 1.029074568630421 0.16182014036637776
4281000000.0 0.9958808165413402 0.15802970241638126
4284000000.0 1.0046189822984246 0.12029317061501946
4288000000.0 1.0052974060121411 0.185367626839585
4291000000.0 0.9844254489412203 0.1394653698130774
4294000000.0 0.9985829762804939 0.11664720260590562
4297000000.0 1.0062694175391254 0.14656015014869683
4300000000.0 0.9980193086020552 0.10017265708098064
4303000000.0 0.9993869133931376 0.07533980607419456
4306000000.0 1.0065686194554107 0.11809177949508096
4309000000.0 1.006818217727714 0.09638166015540935
4312000000.0 1.0269264254580028 0.12946995353335913
4316000000.0 1.0131490673099772 0.09418436476538596
4319000000.0 1.0029890425647205 0.06817555184364234
4322000000.0 1.0044393461963665 0.023822623205832352
4325000000.0 1.0178725264968125 0.04251990354700931
4328000000.0 1.005909993470987 0.03417408780350108
4331000000.0 1.0241455563630166 0.010083372876297597
4334000000.0 1.0228749798564343 -0.02296657998477933
4338000000.0 1.001765619753598 0.04966723707946864
4341000000.0 1.0169465475854558 0.009658255279475642
4344000000.0 1.032987904706153 -0.01462880487578902
4347000000.0 1.0231012204105054 -0.003856883966299879
4350000000.0 0.985868276859862 -0.03402700004169121
4353000000.0 0.986248668045469 -0.018584517364957726
4356000000.0 0.9965040487286022 -0.06436658392934567
4359000000.0 0.969133397717589 -0.05046637809583296
4362000000.0 1.007279494899787 -0.11161854273692873
4366000000.0 1.0137215133845552 -0.06728802401288614
4369000000.0 0.9899478186270482 -0.0762402068237684
4372000000.0 1.0043530503802316 -0.13574196446740955
4375000000.0 1.0100723860824603 -0.0740023559220198
4378000000.0 0.9701136451128586 -0.09563366015747195
4381000000.0 0.9674710363237315 -0.10122881151319589
4384000000.0 1.0596593420925275 -0.14349139768571018
4388000000.0 0.9761838653160312 -0.11253404057493628
4391000000.0 1.0033307804883573 -0.12170567792344907
4394000000.0 0.9685750580041855 -0.16008475592441124
4397000000.0 0.9829781340221393 -0.15721369046839612
4400000000.0 1.0200069866026535 -0.17262789433307074
4403000000.0 1.000330170611818 -0.18379984051657422
4406000000.0 0.9959360019756242 -0.18631329763792326
4409000000.0 1.0272999219858125 -0.18611718176406417
4412000000.0 0.9754520522362208 -0.24110014082914002
4416000000.0 0.9617672044681329 -0.21869065970659538
4419000000.0 0.9705223311973142 -0.24533726410237117
4422000000.0 0.9755870873747687 -0.2161923785727976
4425000000.0 1.0055941733056777 -0.22021234417264376
4428000000.0 0.9789773341436984 -0.25115071554275425
4431000000.0 1.003433634863921 -0.25929860379461356
4434000000.0 0.9845851560458457 -0.26530726899922025
4438000000.0 0.9834457526210487 -0.2652170035864077
4441000000.0 0.9802819190886789 -0.2781099126530393
4444000000.0 0.9494380467357459 -0.27203273242913945
4447000000.0 0.9517146435249422 -0.3074065595092451
4450000000.0 0.9522331841370834 -0.274867526082487
4453000000.0 0.9787992903351116 -0.31945269117061004
4456000000.0 0.9296376131300479 -0.3251950808655051
4459000000.0 0.9132957160384108 -0.3388427633903073
4462000000.0 1.0041865615748329 -0.3634254831386384
4466000000.0 0.9739609129997555 -0.3681896206411818
4469000000.0 0.9485510084104657 -0.3430573485287867
4472000000.0 0.9598976790266134 -0.3893895028264661
4475000000.0 0.9208779740233357 -0.361034702406387
4478000000.0 0.9694738267806464 -0.4139945676276061
4481000000.0 0.8972288161767802 -0.4108321906537049
4484000000.0 0.906709005779303 -0.4312248946575046
4488000000.0 0.9103933166839534 -0.43297113708447504
4491000000.0 0.930245342675703 -0.4286660007226214
4494000000.0 0.8992585325971083 -0.4082215548634618
4497000000.0 0.9107697511633326 -0.41745631387851073
4500000000.0 0.9046253218739002 -0.4188180975753186
4503000000.0 0.9377952002940588 -0.45082048448640943
4506000000.0 0.8759560808749154 -0.45060274231779796
4509000000.0 0.8863826220514925 -0.4459690153078274
4512000000.0 0.8610382126514812 -0.4664945051150585
4516000000.0 0.9182719925751727 -0.47387927743926067
4519000000.0 0.8630656939152388 -0.45589087332020606
4522000000.0 0.8797606951067309 -0.5155979636219088
4525000000.0 0.8878882452134325 -0.45303299881283626
4528000000.0 0.9115904177048797 -0.5194372242161384
4531000000.0 0.860323902214387 -0.4884727243912914
4534000000.0 0.846497243666829 -0.5139376595250861
4538000000.0 0.8419979922846614 -0.5385681619907833
4541000000.0 0.831288752362311 -0.5666302539560161
4544000000.0 0.8323946988527846 -0.5158242643856515
4547000000.0 0.8535754187003427 -0.5389966731028211
4550000000.0 0.8248107885858584 -0.5882131545518466
4553000000.0 0.8350225925592509 -0.5655708394764769
4556000000.0 0.7972637549245916 -0.5735142944299675
4559000000.0 0.8198814266847506 -0.5964591204263561
4562000000.0 0.8344805093957188 -0.6006028342862287
4566000000.0 0.8340857229328402 -0.6014670735932999
4569000000.0 0.773349661517553 -0.5915136116319188
4572000000.0 0.7891935877896836 -0.6129246129972344
4575000000.0 0.7767464979168686 -0.6354896263047805
4578000000.0 0.823187976051724 -0.6244894494836919
4581000000.0 0.7861594291157289 -0.6479378911375675
4584000000.0 0.7842697406774817 -0.6296596975781055
4588000000.0 0.7975167446326549 -0.6455978204846804
4591000000.0 0.7701324213237747 -0.6343187427136481
4594000000.0 0.7615364380017974 -0.6696016442090934
4597000000.0 0.7546552931239041 -0.6854391524119056
4600000000.0 0.7344552078234324 -0.6959800554543676
4603000000.0 0.7538979715640173 -0.6827724698897681
4606000000.0 0.732258422713566 -0.6761379150634079
4609000000.0 0.7293475701272296 -0.6969744785983153
4612000000.0 0.7336690540739177 -0.6946098892170285
4616000000.0 0.7093243735261359 -0.692282792767355
4619000000.0 0.7245635830359166 -0.7158547589663807
4622000000.0 0.7074709062465775 -0.707755387527927
4625000000.0 0.6663504215675289 -0.7280421267935648
4628000000.0 0.697221852735501 -0.7025752147253453
4631000000.0 0.677812719438857 -0.7355649991640998
4634000000.0 0.6700512673509484 -0.7446980531162842
4638000000.0 0.6867665633899727 -0.7577435362313883
4641000000.0 0.6788008007960128 -0.7491289192215308
4644000000.0 0.6456326640557025 -0.7557919679031065
4647000000.0 0.6614061338840694 -0.7803135817720211
4650000000.0 0.6463009590043743 -0.7874065972098766
4653000000.0 0.6508432919772548 -0.7870236105165866
4656000000.0 0.6368896012284564 -0.7912784050808972
4659000000.0 0.622265780963653 -0.7972596850578093
4662000000.0 0.6236492081704774 -0.8090369320149169
4666000000.0 0.606128698040508 -0.806915656389516
4669000000.0 0.6100592245387106 -0.7964776635792963
4672000000.0 0.5894636014188025 -0.8211503371490934
4675000000.0 0.5822700249963904 -0.8301104683410485
4678000000.0 0.5875151574829837 -0.7955183027140819
4681000000.0 0.5644082574828204 -0.8418900066094805
4684000000.0 0.5512906250929716 -0.8274199834939794
4688000000.0 0.5161807744689199 -0.8401881768288678
4691000000.0 0.5615432371830782 -0.8310620320858082
4694000000.0 0.5832854378945805 -0.8503588722546962
4697000000.0 0.4963486021193618 -0.8342609514307195
4700000000.0 0.5346838390236578 -0.8613527440202358
4703000000.0 0.5142034855069919 -0.8457132845482953
4706000000.0 0.4976849057689308 -0.8813162535808078
4709000000.0 0.5120865505839864 -0.8515568001253077
4712000000.0 0.4922166186096395 -0.8486488382583904
4716000000.0 0.4946275906637593 -0.8921773963145079
4719000000.0 0.5104607656980222 -0.8756896446408414
4722000000.0 0.5009504697702725 -0.8483195340227137
4725000000.0 0.5013277455010106 -0.9019254834810105
4728000000.0 0.46343264856034505 -0.8888192591711948
4731000000.0 0.4910254178098017 -0.8978597580056298
4734000000.0 0.4613273785347266 -0.8802707728756759
4738000000.0 0.4535647737168371 -0.9289836301075306
4741000000.0 0.43154462111712005 -0.959115964226451
4744000000.0 0.41681281887960964 -0.9306533052239647
4747000000.0 0.426291511676944 -0.9040676431043967
4750000000.0 0.4144372527664284 -0.9459305988315913
4753000000.0 0.3907544331674388 -0.945804297346042
4756000000.0 0.41522378513624725 -0.9351322973047476
4759000000.0 0.41895693304339454 -0.9801336943066241
4762000000.0 0.38229140882152046 -0.9543812365538162
4766000000.0 0.34935420625041214 -0.9566001829077339
4769000000.0 0.35006702341837936 -0.9574915407616321
4772000000.0 0.3653442772648799 -0.9588468981858876
4775000000.0 0.3487543011074201 -1.0042674866732941
4778000000.0 0.3252635911108365 -0.9584467361337622
4781000000.0 0.3429490654843594 -0.9375880367735345
4784000000.0 0.3621817106975009 -0.9436894810846969
4788000000.0 0.30884962395986454 -0.9950451429245213
4791000000.0 0.30181352520324883 -0.9633739578879191
4794000000.0 0.3215125038908879 -0.9742451562951011
4797000000.0 0.2691477165414975 -0.959268337865062
4800000000.0 0.26386002108260975 -0.9517874395169108
4803000000.0 0.24800885650066704 -0.9848234479580333
4806000000.0 0.26260172437580204 -1.0107297774488724
4809000000.0 0.2194752516624144 -0.9825752889759921
4812000000.0 0.2292298988641157 -0.9925281611493395
4816000000.0 0.27043528883805634 -0.9756993013691049
4819000000.0 0.26727199833555515 -0.9989351945935125
4822000000.0 0.24799544817239863 -1.0330162282495632
4825000000.0 0.2734133263126714 -1.0087748009157915
4828000000.0 0.22127149189794884 -0.9685559268771321
4831000000.0 0.1699031941306866 -1.0374182922218935
4834000000.0 0.20923754788781582 -1.0052042374222014
4838000000.0 0.18515556562207147 -1.0129345070434466
4841000000.0 0.15707370851716673 -0.9970866565756805
4844000000.0 0.21467284183773788 -1.0052837560572727
4847000000.0 0.16621823287834603 -0.9770679939117248
4850000000.0 0.15204860058316416 -1.0619657619720542
4853000000.0 0.1423212045548047 -0.9962911503843037
4856000000.0 0.13873081400490594 -0.9897267536555311
4859000000.0 0.12738717750490922 -1.0411003905628853
4862000000.0 0.12348937235813764 -0.9888181259499554
4866000000.0 0.07735660053519139 -1.0333563457337718
4869000000.0 0.09440306281424687 -1.0402340115610023
4872000000.0 0.07566789892536674 -1.056970754816453
4875000000.0 0.13304212154133105 -1.036628401347806
4878000000.0 0.08269818959324293 -1.0199211278077427
4881000000.0 0.040688742350515866 -1.089561966411058
4884000000.0 0.0815360299982478 -1.0110789759088308
4888000000.0 0.07531872463701769 -1.0165756884077848
4891000000.0 0.05851397797263108 -1.0138607224049268
4894000000.0 0.023049171349787012 -1.0411848085070046
4897000000.0 0.06955901740123002 -1.0089056840961035
4900000000.0 0.0239045039969347 -1.0324765199371797
4903000000.0 0.03509680759957987 -1.0454201396295046
4906000000.0 -0.015426797820931443 -1.036757609113783
4909000000.0 0.008882826857174344 -1.0221466217893795
4912000000.0 -0.04514913311715289 -1.0520967041762876
4916000000.0 0.011494593252474983 -1.0154705594088338
4919000000.0 0.0007206976749662072 -1.0771296111650628
4922000000.0 0.0013727497133726313 -1.0184356576038474
4925000000.0 -0.10923016360132451 -1.0091274767146756
4928000000.0 0.014072277238040234 -1.0150626477347764
4931000000.0 -0.06321718718498377 -1.0348317278730517
4934000000.0 -0.05775647951262071 -0.9720982370617343
4938000000.0 -0.09899590669478019 -1.0039358006351005
4941000000.0 -0.0696742017458399 -1.0101416944139125
4944000000.0 -0.05087690177510337 -0.958639204277441
4947000000.0 -0.11224082169214589 -0.9988372235039815
4950000000.0 -0.1161231847175629 -1.0235917348157464
4953000000.0 -0.16149504736407871 -1.0755882750483385
4956000000.0 -0.15864442587922212 -1.0026226019875102
4959000000.0 -0.18178142587055826 -0.9956317088835568
4962000000.0 -0.16294614585799747 -1.0595823933256057
4966000000.0 -0.12598249079918317 -1.0340964534062722
4969000000.0 -0.13193199094558267 -1.0803931640415079
4972000000.0 -0.18302200940479527 -1.0081283242004477
4975000000.0 -0.16940308635623288 -0.9777585363576616
4978000000.0 -0.20776943859558267 -1.0134202219405013
4981000000.0 -0.18608682319380307 -0.9995245637984681
4984000000.0 -0.1851836065959863 -0.981853759331902
4988000000.0 -0.20664689895438154 -1.0081471098577512
4991000000.0 -0.17101160824204942 -1.062503245521358
4994000000.0 -0.22783807147372565 -1.0142927376984503
4997000000.0 -0.2538134748026143 -0.9885120618458288
5000000000.0 -0.2148108641288481 -1.0291273689663722
5003000000.0 -0.2707618437434815 -1.0293271452536943
5006000000.0 -0.27162350618910014 -1.0433157125363077
5009000000.0 -0.2526394696154638 -1.0174637302522935
5012000000.0 -0.2914471436176615 -0.9779872009797912
5016000000.0 -0.24433808258860595 -1.0351089519306247
5019000000.0 -0.29434922094836524 -0.9778549005539456
5022000000.0 -0.28323829077037477 -0.9843770773007214
5025000000.0 -0.3163165061167838 -1.0807927879876522
5028000000.0 -0.33990299701726945 -0.9768348424092033
5031000000.0 -0.30690451022111853 -0.9685971027960539
5034000000.0 -0.38066084749302653 -1.013852872255537
5038000000.0 -0.32043888148211086 -0.9448892416533483
5041000000.0 -0.3164878917509447 -0.9736616695302772
5044000000.0 -0.3077653736665654 -0.9490307493490572
5047000000.0 -0.3095046671934297 -0.9506082614295587
5050000000.0 -0.27954753312780223 -0.9708844546038713
5053000000.0 -0.4022031039535924 -1.0084330583364514
5056000000.0 -0.34712762202367975 -1.010590723663904
5059000000.0 -0.34559931844481256 -0.9740835246412688
5062000000.0 -0.42117791965039053 -0.9655269243243736
5066000000.0 -0.3683500323500538 -0.9472561719182675
5069000000.0 -0.39248836261811715 -0.9510453231997135
5072000000.0 -0.4027757127140508 -0.9332908927974133
5075000000.0 -0.3899291592524934 -0.9779527915667834
5078000000.0 -0.49336903820268213 -0.8931546128278334
5081000000.0 -0.45511346409556047 -0.8888256427565854
5084000000.0 -0.46038432219053593 -0.9613293923427149
5088000000.0 -0.40527180566598653 -0.9612196130787278
5091000000.0 -0.514855113054588 -0.9488492554661478
5094000000.0 -0.4794842434869509 -0.9250266422150947
5097000000.0 -0.4143661093533556 -0.9326654476167353
5100000000.0 -0.49799644677499405 -0.907697386430332
5103000000.0 -0.5122126127160062 -0.8782417660180036
5106000000.0 -0.5091989032026537 -0.9499208116365156
5109000000.0 -0.4796627009610051 -0.9483301836808782
5112000000.0 -0.5138426547885275 -0.8193018968548664
5116000000.0 -0.5261816959267887 -0.8808567520399502
5119000000.0 -0.49524092521873736 -0.9411847038732168
5122000000.0 -0.48088250961893275 -0.9079473874932575
5125000000.0 -0.5035681449104117 -0.8827744968537389
5128000000.0 -0.5892393088374022 -0.8305904487864617
5131000000.0 -0.5518852141882403 -0.8046205960571394
5134000000.0 -0.5602266867347772 -0.8688839979314763
5138000000.0 -0.5486140682099883 -0.88007042511177
5141000000.0 -0.5404381832120078 -0.9288344645315658
5144000000.0 -0.5084349371671739 -0.9048581929622592
5147000000.0 -0.5736289393182562 -0.8701516956519109
5150000000.0 -0.5628548171183609 -0.8944763096288155
5153000000.0 -0.6229340535651107 -0.8647726361176206
5156000000.0 -0.6008776036801105 -0.8590348102735832
5159000000.0 -0.6364350418666272 -0.853248299687433
5162000000.0 -0.5967248894740461 -0.8295883254228106
5166000000.0 -0.6545905041001291 -0.8550674249486325
5169000000.0 -0.6313556130670095 -0.8305162122249625
5172000000.0 -0.6452042692356141 -0.8265889785118077
5175000000.0 -0.6475077430069527 -0.8619682466470552
5178000000.0 -0.6611619060623768 -0.8172372117809329
5181000000.0 -0.6301916677932423 -0.835611291871407
5184000000.0 -0.6502211877137495 -0.775301009103916
5188000000.0 -0.6615412161644098 -0.7675533490372581
