! Created with skrf 1.8.0 (http://scikit-rf.org).
# Hz S RI R 50.0 
!freq ReS11 ImS11
4000000000.0 0.6004436403288267 0.798756737601855
4003000000.0 0.6948191955522546 0.8137743917904873
4006000000.0 0.7014580893698837 0.7358340044386205
4009000000.0 0.671808283597129 0.7939707027838936
4012000000.0 0.6173954298551956 0.8270455925620984
4016000000.0 0.7223541164257523 0.7937031058462327
4019000000.0 0.7118162189793029 0.7709634104665042
4022000000.0 0.6277132702127649 0.8435787178205078
4025000000.0 0.7821317275289502 0.759477237135595
4028000000.0 0.7204757052435035 0.7566176817014647
4031000000.0 0.7125127104496284 0.7139820188722023
4034000000.0 0.7322957906945965 0.7116522257194452
4038000000.0 0.7334090814416283 0.7206278155996511
4041000000.0 0.7162861479416041 0.7377467309882179
4044000000.0 0.8025012884180195 0.7522233139524584
4047000000.0 0.7325410298761508 0.7384990814267146
4050000000.0 0.8290166822078553 0.694171659060844
4053000000.0 0.7394490504393477 0.6773777525007898
4056000000.0 0.7421859412083843 0.6955014660062169
4059000000.0 0.8018276853646792 0.6834328566776635
4062000000.0 0.8036432517835801 0.6542202799727048
4066000000.0 0.7622078710231273 0.6286979270336661
4069000000.0 0.830267089064558 0.6319101252132452
4072000000.0 0.7690538829349721 0.6971334651920995
4075000000.0 0.8025462125856178 0.6827771557944309
4078000000.0 0.8244351832152187 0.6354401437122333
4081000000.0 0.7564806049390336 0.7243343888385653
4084000000.0 0.8208432364146852 0.6233003578962137
4088000000.0 0.7601914761381946 0.6602718853495251
4091000000.0 0.8399059548339227 0.6520566025930563
4094000000.0 0.8204300803222251 0.5965705775955725
4097000000.0 0.8129711307340656 0.5968523233845908
4100000000.0 0.82352760815786 0.6091815482813618
4103000000.0 0.8518083974469779 0.6171624146397112
4106000000.0 0.8321178202526571 0.5572610880572441
4109000000.0 0.8631655877555857 0.577283702834055
4112000000.0 0.846292992021358 0.5356042313995397
4116000000.0 0.8447140917132959 0.5595565000112432
4119000000.0 0.885487906154491 0.5436519203382133
4122000000.0 0.9146283663689594 0.5350711810024108
4125000000.0 0.9070010162974761 0.5047682038511319
4128000000.0 0.8342782464125558 0.524504908621269
4131000000.0 0.8442979377742786 0.5028028148755822
4134000000.0 0.9002698886704651 0.5290264563320999
4138000000.0 0.8538988489778556 0.48223326688714047
4141000000.0 0.8889870819182739 0.4864169267170211
4144000000.0 0.883806340266685 0.487405443981547
4147000000.0 0.8855332977649265 0.47179852690608365
4150000000.0 0.8990954217329296 0.46480370647190355
4153000000.0 0.8964360891438646 0.468644741942169
4156000000.0 0.8912468490480137 0.485373901955674
4159000000.0 0.8759923656432684 0.4752049817973523
4162000000.0 0.9102068168474582 0.41943160884298514
4166000000.0 0.9430839421898851 0.4255706229793751
4169000000.0 0.9358866150228397 0.42875828297089336
4172000000.0 0.9297444770962044 0.4325733619482354
4175000000.0 0.929302170081122 0.4660104815538811
4178000000.0 0.9594852950344619 0.42527163849360816
4181000000.0 0.94177506346688 0.4127376201193561
4184000000.0 0.9206242221421316 0.40513836425186406
4188000000.0 0.9382568085967902 0.38998346993043853
4191000000.0 0.9349663917545886 0.40856242071136123
4194000000.0 0.9377729642411732 0.3767529170412327
4197000000.0 0.9554603018563007 0.37842423799011743
4200000000.0 0.9457699224815697 0.36646579866017515
4203000000.0 0.9578741189614784 0.35690956788600026
4206000000.0 0.975036421813751 0.3365906337599635
4209000000.0 0.9430959664169601 0.33927214252402155
4212000000.0 0.9663421436669112 0.30280740159414643
4216000000.0 0.9487195438105575 0.34570745419346344
4219000000.0 0.9756443289298321 0.3318142415123775
4222000000.0 0.9862971625045935 0.2954164053419757
4225000000.0 0.9717243992810158 0.3097584887365865
4228000000.0 0.9785135529971545 0.2969478271569024
4231000000.0 0.9870417773473992 0.27876705561496323
4234000000.0 1.0030786391822415 0.25229580305558436
4238000000.0 0.9801878560516727 0.23389000202428498
4241000000.0 0.9883425698504789 0.24535975496058088
4244000000.0 1.002125085295739 0.2599648980660798
4247000000.0 0.9866178927646745 0.24621533026115283
4250000000.0 0.9807046865918951 0.21768889399910368
4253000000.0 0.968402932215112 0.22709836452812454
4256000000.0 1.004864827855291 0.20618175292487634
4259000000.0 0.961975817353092 0.19359259653180969
4262000000.0 1.0080374861629056 0.15955213644005553
4266000000.0 1.008960541741244 0.14720522145208653
4269000000.0 1.006335131988374 0.17914652653193577
4272000000.0 0.9786567553896206 0.1592798707267225
4275000000.0 1.0080487562522884 0.16249881062802057
4278000000.0 1.03116668717268 0.16814443072316837
4281000000.0 0.9941450846249923 0.15458753890249605
4284000000.0 1.0244040715685503 0.10226960877366106
4288000000.0 1.0165119185471065 0.15721916272283545
4291000000.0 0.9875855774169753 0.10222471839684945
4294000000.0 0.9997328644946877 0.09089580345938365
4297000000.0 0.9821702408912811 0.11782426733581162
4300000000.0 0.9958240817903528 0.12596355840533205
4303000000.0 0.9992535055640619 0.05620583917528783
4306000000.0 1.0282619251150966 0.10451909823588479
4309000000.0 1.0056191083652042 0.06399500660648975
4312000000.0 1.0388851725125479 0.10533282806638142
4316000000.0 1.0349146214699372 0.06170974219846005
4319000000.0 0.9921423808110679 0.06481722492939292
4322000000.0 0.972670397226478 0.03259867426925629
4325000000.0 1.0039048285568057 0.0213635054261017
4328000000.0 1.0046539121850793 0.01052967411386907
4331000000.0 1.0138050495523456 -0.006950031023413419
4334000000.0 1.0159750190819115 -0.026620911034768907
4338000000.0 1.0253770953328774 0.008782444920033564
4341000000.0 1.0213490585784901 0.040780499262398434
4344000000.0 1.0527259274664473 -0.02396918300953095
4347000000.0 1.0298574043507838 -0.051138985774551976
4350000000.0 0.9891762707214614 -0.03729019161202618
4353000000.0 0.9955731272842334 -0.04341294760543174
4356000000.0 0.9914255992540957 -0.08507940708811379
4359000000.0 0.9773625778755828 -0.06000604133767719
4362000000.0 1.0341750477162353 -0.11248240760887969
4366000000.0 1.019387859905485 -0.10043201357862613
4369000000.0 0.9846644250023449 -0.09643154998255028
4372000000.0 0.9942648154126581 -0.15644332698674532
4375000000.0 0.9793406434102794 -0.09654681431442552
4378000000.0 0.9754544249359621 -0.1157609174892672
4381000000.0 0.9975616702704164 -0.12153589175935187
4384000000.0 1.068022733658722 -0.1693972546777314
4388000000.0 0.9934153827886537 -0.11952791416355948
4391000000.0 1.0064353837907922 -0.1584634792911863
4394000000.0 0.9671095033073489 -0.1701462812493909
4397000000.0 0.999013028890883 -0.17168678936332077
4400000000.0 1.0261835804241723 -0.20023087298022976
4403000000.0 1.000020095376494 -0.18437098138421026
4406000000.0 0.9770410313757425 -0.22019549637219776
4409000000.0 1.0182159648737736 -0.22144098130878354
4412000000.0 0.9611021784193577 -0.2656255124165286
4416000000.0 0.966044629361595 -0.23956195565982621
4419000000.0 0.9728345181196478 -0.2526127370165854
4422000000.0 0.9825210922047316 -0.22893638921799705
4425000000.0 0.9863211295461385 -0.2317769681436948
4428000000.0 0.9587477550969938 -0.28363181263265924
4431000000.0 0.9978160707733936 -0.26516545016102433
4434000000.0 0.9534605664945479 -0.2796721847856518
4438000000.0 0.9847200386328154 -0.29501933265237323
4441000000.0 0.9942033338997458 -0.30589491325561485
4444000000.0 0.9457030757476832 -0.2961524383402039
4447000000.0 0.9435640608884762 -0.3442846794352749
4450000000.0 0.9395895552798391 -0.3043243827110524
4453000000.0 0.9768055111768562 -0.3467352376657766
4456000000.0 0.9250378711452841 -0.33006612508670197
4459000000.0 0.8900568452036297 -0.3496354480715145
4462000000.0 1.0022520016028988 -0.37361049601878504
4466000000.0 0.9580416497324666 -0.398745478384708
4469000000.0 0.9424560732735959 -0.3626585889002271
4472000000.0 0.9380600497435133 -0.41637018725171765
4475000000.0 0.9000956795159205 -0.3748569028191271
4478000000.0 0.9668895270545785 -0.439953404333284
4481000000.0 0.9010816014412586 -0.40776158438681026
4484000000.0 0.9031967099654015 -0.441285259480385
4488000000.0 0.902075957025871 -0.431037598131558
4491000000.0 0.922397946533647 -0.43218086300632336
4494000000.0 0.8933996857370283 -0.455199696411979
4497000000.0 0.8965853909779118 -0.43058451900366035
4500000000.0 0.8913665629764249 -0.4445256833518593
4503000000.0 0.9156830917589156 -0.4651869426776393
4506000000.0 0.8795106215350181 -0.477003341222534
4509000000.0 0.8582343983895755 -0.47720119595689614
4512000000.0 0.8531524623330229 -0.4865831886565043
4516000000.0 0.9022785252015448 -0.49450119853147034
4519000000.0 0.8512045210302681 -0.4737240490491954
4522000000.0 0.8667329257833596 -0.5012068899193821
4525000000.0 0.8788213943365606 -0.48950144420371644
4528000000.0 0.8883192785409448 -0.5248493538895984
4531000000.0 0.8611878252225317 -0.5104980095821247
4534000000.0 0.8353556123569019 -0.521419435077449
4538000000.0 0.8400555782809163 -0.5354669512183237
4541000000.0 0.8017294693832665 -0.584054816475589
4544000000.0 0.8160811805332584 -0.5641794981627157
4547000000.0 0.8309914352990795 -0.545096385628937
4550000000.0 0.8175624567834581 -0.5929787615387488
4553000000.0 0.8293461959118091 -0.5819232285420246
4556000000.0 0.7823172845034272 -0.5738949313716644
4559000000.0 0.7980308984576583 -0.616328629411766
4562000000.0 0.8179608852613323 -0.6171496971921246
4566000000.0 0.7929902277877934 -0.6218198320669441
4569000000.0 0.7687245665976785 -0.6092825189244182
4572000000.0 0.7858908276877974 -0.6147426966288824
4575000000.0 0.7705980870230678 -0.6617922733861245
4578000000.0 0.8023120526394423 -0.6456768734856395
4581000000.0 0.7448320617277199 -0.6482518383974789
4584000000.0 0.7550627808974139 -0.6487427858808674
4588000000.0 0.7985927843816893 -0.6648678278615088
4591000000.0 0.7515781494864618 -0.6595568134015032
4594000000.0 0.7397261252575903 -0.6753554496440077
4597000000.0 0.7399691769854464 -0.6844136470716882
4600000000.0 0.7125539508839747 -0.7017941073041194
4603000000.0 0.7279251529351359 -0.7053720997972301
4606000000.0 0.7372941268907377 -0.7009345440535819
4609000000.0 0.7288532718208945 -0.7104940525687437
4612000000.0 0.7261518664143933 -0.7255269238826187
4616000000.0 0.6917167707110079 -0.7161671443093909
4619000000.0 0.6976808652390977 -0.7103851347439055
4622000000.0 0.6968766193751699 -0.7545200572027502
4625000000.0 0.6590928393186135 -0.7283485419585383
4628000000.0 0.6867580669262107 -0.7319064696357583
4631000000.0 0.6561659009548646 -0.7527168265249452
4634000000.0 0.6751962305338842 -0.7614993696915625
4638000000.0 0.6508342871179307 -0.7514361030784711
4641000000.0 0.67677530728243 -0.7691884742471117
4644000000.0 0.624956380796647 -0.7699654980226031
4647000000.0 0.6441501004303689 -0.7726013805436962
4650000000.0 0.6386385732028443 -0.7860919142280148
4653000000.0 0.6302442809884118 -0.7900525790676755
4656000000.0 0.6162901826114642 -0.805129953616063
4659000000.0 0.5906153070889538 -0.8157205083578043
4662000000.0 0.5886753948749295 -0.8169477517693928
4666000000.0 0.5822771760645884 -0.8163012534086079
4669000000.0 0.6015430351708593 -0.806643035362614
4672000000.0 0.5684890398735839 -0.8418373208382315
4675000000.0 0.5613461455528539 -0.8676689034297448
4678000000.0 0.5538320909518915 -0.8276344417646933
4681000000.0 0.5392552788601122 -0.872683986306766
4684000000.0 0.5265014988221566 -0.8706610496202926
4688000000.0 0.5020617506777303 -0.8603974178701161
4691000000.0 0.5660835822002666 -0.8679734046251879
4694000000.0 0.5285210903533515 -0.8463629884101822
4697000000.0 0.48622139121587166 -0.8444089383043947
4700000000.0 0.5278734070360861 -0.8499317558648145
4703000000.0 0.5183225143925285 -0.83775422810351
4706000000.0 0.48492996492242496 -0.9140224635228564
4709000000.0 0.48460213507240696 -0.890649750906958
4712000000.0 0.47215360341093926 -0.8850141295056126
4716000000.0 0.46923483534646304 -0.902318235829281
4719000000.0 0.47993648227486796 -0.8721081177512098
4722000000.0 0.4972969359660491 -0.8997736776424352
4725000000.0 0.44801854715995265 -0.9001404798006932
4728000000.0 0.4393269446201389 -0.8780054414124252
4731000000.0 0.4545737027182094 -0.9354416624663617
4734000000.0 0.4306770666264336 -0.9216202842331446
4738000000.0 0.4458166031130456 -0.9671371160005091
4741000000.0 0.41552047152110383 -0.9413706140981086
4744000000.0 0.3804360166275589 -0.9352178567645636
4747000000.0 0.40036957988233557 -0.9021057656734489
4750000000.0 0.37725121062974654 -0.9404715505265031
4753000000.0 0.3943258741710722 -0.9413660192170471
4756000000.0 0.3854806033058189 -0.9449373817364477
4759000000.0 0.3951378212499591 -0.9356765406168998
4762000000.0 0.33262154924936627 -0.9512313634008375
4766000000.0 0.3475072738202344 -0.9484439150356183
4769000000.0 0.3570541950846026 -0.9517935824022986
4772000000.0 0.33116560532807815 -0.9578165404915695
4775000000.0 0.34427748664520275 -1.0114461464699496
4778000000.0 0.3185899283391388 -0.9824668469698851
4781000000.0 0.33110775230246026 -0.9660272134376311
4784000000.0 0.32572567297857674 -0.969260837295438
4788000000.0 0.28415730805369865 -0.9758839994605608
4791000000.0 0.29897239851955704 -0.9577464713209672
4794000000.0 0.29103567752705334 -0.9962752710102172
4797000000.0 0.2546372016046845 -0.9877686235793061
4800000000.0 0.22739475860829259 -0.9737678067625639
4803000000.0 0.21753598384730208 -0.9864236278977208
4806000000.0 0.26112537801178454 -1.0033725420770652
4809000000.0 0.18197629607485394 -1.0005213298465752
4812000000.0 0.20641752663096818 -1.0014775015397839
4816000000.0 0.2549874956050714 -0.9527143920637187
4819000000.0 0.2271524527977404 -1.024878144781363
4822000000.0 0.21430937953449505 -1.0292294898460255
4825000000.0 0.23829951574381752 -1.0192591055989533
4828000000.0 0.16601059598019702 -1.0123309377739553
4831000000.0 0.13068865623592268 -1.0356247886698693
4834000000.0 0.18151718249796495 -0.9834000968686598
4838000000.0 0.12583920295883833 -1.0015609669807128
4841000000.0 0.13193105516287018 -0.9777028918627307
4844000000.0 0.1921641516692705 -1.0065461485007778
4847000000.0 0.15570665228478003 -0.9882198533913207
4850000000.0 0.10283209534624993 -1.0223003261879515
4853000000.0 0.1235140431646998 -0.9946943216136963
4856000000.0 0.11550080120186475 -1.0028762628488908
4859000000.0 0.08198067083067519 -1.061879341797873
4862000000.0 0.10623029451373596 -0.9972542517903037
4866000000.0 0.057418115038048084 -1.0294522579674115
4869000000.0 0.055508689863240486 -1.0072940799199357
4872000000.0 0.04708554274447573 -1.0522723240910266
4875000000.0 0.10873718297823808 -1.061576228016452
4878000000.0 0.053087721097127595 -1.0371238717621711
4881000000.0 -0.010958814167722503 -1.0882321427786203
4884000000.0 0.03279780300245685 -1.041709076964907
4888000000.0 0.056766441468003484 -1.0349587495560766
4891000000.0 0.05243303876478366 -1.0335796686805316
4894000000.0 -0.014776455659648066 -1.0230842114188539
4897000000.0 0.039758271471536974 -1.013257687355401
4900000000.0 0.01373881166509552 -1.0434405680731742
4903000000.0 0.00406842926677381 -1.0675607016493271
4906000000.0 -0.0584410465338355 -1.008748585196738
4909000000.0 -0.07875152032736832 -1.0331323632632288
4912000000.0 -0.04768455719081087 -1.0722260414750748
4916000000.0 -0.03273194733064915 -1.046665226524738
4919000000.0 -0.0060373074242098534 -1.0402927016116665
4922000000.0 -0.029281203127734426 -1.0610957608551361
4925000000.0 -0.1122092165559321 -1.0270721890198233
4928000000.0 -0.04072149789431993 -1.009226950595241
4931000000.0 -0.08358649704828462 -1.032275336814528
4934000000.0 -0.09887541841269616 -1.0049689325690985
4938000000.0 -0.1564954915790312 -1.0400012477079648
4941000000.0 -0.10702893605353204 -0.9990397520124585
4944000000.0 -0.09204080835986883 -0.9490165848624725
4947000000.0 -0.13574163873426795 -0.9663965196251907
4950000000.0 -0.13253382107535672 -1.0047753024623283
4953000000.0 -0.16196625627928518 -1.027910789968741
4956000000.0 -0.19084436504635044 -0.9988457079545049
4959000000.0 -0.18098530363915874 -1.0133807709197606
4962000000.0 -0.19123912049000805 -1.0484339393369213
4966000000.0 -0.13752912643900617 -0.9974436205591988
4969000000.0 -0.18662954249043578 -1.038471749757245
4972000000.0 -0.21831032622538468 -1.030920597270426
4975000000.0 -0.15118964164217405 -0.9972410876459166
4978000000.0 -0.22695253825615913 -1.0106080631312278
4981000000.0 -0.21547836068573875 -0.9902953313143287
4984000000.0 -0.19237375994656028 -0.9774852787205902
4988000000.0 -0.2240104757443197 -1.0163429731863594
4991000000.0 -0.19103266567095706 -1.02860724339481
4994000000.0 -0.22581326318036338 -1.021875731837376
4997000000.0 -0.31692549686516264 -0.9806511958953815
5000000000.0 -0.22584653137313881 -1.036257197806816
5003000000.0 -0.28587433801602063 -1.0387637137523966
5006000000.0 -0.27469471907020504 -1.0516132682638224
5009000000.0 -0.26462304105088363 -0.9923946322366316
5012000000.0 -0.3023995836183108 -0.9843027517895762
5016000000.0 -0.2842924681298031 -1.0305302883877623
5019000000.0 -0.3477982549908333 -0.958087734249403
5022000000.0 -0.3228440594783335 -0.9842951451608377
5025000000.0 -0.36027730457043033 -1.0279760515406078
5028000000.0 -0.3564717740679716 -0.9804127711815385
5031000000.0 -0.36967972166186613 -0.9615804190176819
5034000000.0 -0.39594204261136845 -0.984583704099127
5038000000.0 -0.33345480923719806 -0.9272007894589445
5041000000.0 -0.3283269676810362 -0.9726007400410951
5044000000.0 -0.36649370723730446 -0.9667886557286013
5047000000.0 -0.3814146240361516 -0.9783499975919113
5050000000.0 -0.3110219060991768 -0.9722422585580819
5053000000.0 -0.410332131902843 -0.9650301398678027
5056000000.0 -0.36824516933795537 -0.9680999705818631
5059000000.0 -0.3577551991976972 -0.9668760385241971
5062000000.0 -0.4886089904773053 -0.9506319596017045
5066000000.0 -0.42128502466535667 -0.965838679893213
5069000000.0 -0.43234995083184014 -0.9377391651169457
5072000000.0 -0.4419115488485912 -0.913282543029986
5075000000.0 -0.44319526414080535 -0.9436056397510919
5078000000.0 -0.5102191556312448 -0.913452839544336
5081000000.0 -0.44790675244336026 -0.8847460647100197
5084000000.0 -0.4966612890881422 -0.9588319768269216
5088000000.0 -0.43977433646456454 -0.9249202655562245
5091000000.0 -0.5051874379236974 -0.9105823704787164
5094000000.0 -0.5159705766986653 -0.932723032283325
5097000000.0 -0.4752770341757573 -0.9184380879609835
5100000000.0 -0.536948916603776 -0.8912880382327971
5103000000.0 -0.5710896316881546 -0.880584353180876
5106000000.0 -0.5083864062624774 -0.912501565995117
5109000000.0 -0.5106266895994288 -0.904366936453495
5112000000.0 -0.5462924016359942 -0.8604064742887394
5116000000.0 -0.5210892519501661 -0.8388631380693792
5119000000.0 -0.5192101118944971 -0.8826565637525581
5122000000.0 -0.5549616218683825 -0.8201078514224935
5125000000.0 -0.524046326592096 -0.878158094260708
5128000000.0 -0.5768668140430099 -0.8663684599462498
5131000000.0 -0.5761745868241784 -0.8186315493829377
5134000000.0 -0.5822248817791943 -0.8521898362202441
5138000000.0 -0.58227130929316 -0.8642962768612577
5141000000.0 -0.5572933648983085 -0.8922326707328021
5144000000.0 -0.5437109575999538 -0.8710497676928107
5147000000.0 -0.6491951193634288 -0.8784789210971898
5150000000.0 -0.5836011602732664 -0.8435545385166344
5153000000.0 -0.6288464421897331 -0.8621811844059425
5156000000.0 -0.6239162430616836 -0.843354509128579
5159000000.0 -0.6434016247403453 -0.8816337773672763
5162000000.0 -0.6564891514717133 -0.8030113027471772
5166000000.0 -0.6701649809623449 -0.7941527420498263
5169000000.0 -0.6556835462926494 -0.827072081718615
5172000000.0 -0.639224466045578 -0.8330450744056513
5175000000.0 -0.7221686630297061 -0.8175893905236742
5178000000.0 -0.6836159181420898 -0.7620453542315427
5181000000.0 -0.6576606275964209 -0.7939232569656987
5184000000.0 -0.6872398613382849 -0.7531543278398841
5188000000.0 -0.6889115550308877 -0.7679390924229049
