! Created with skrf 1.8.0 (http://scikit-rf.org).
# Hz S RI R 50.0 
!freq ReS11 ImS11
4000000000.0 0.5915559537738543 0.8198808151477708
4003000000.0 0.6626397771509756 0.8170108286204308
4006000000.0 0.6975799670667135 0.7327560127149084
4009000000.0 0.6955590190729286 0.8143281562520697
4012000000.0 0.6203664634271269 0.8227818651217548
4016000000.0 0.7409213098760173 0.7486901444562872
4019000000.0 0.7271784903788605 0.7628202230720749
4022000000.0 0.6567438135579374 0.832933245041865
4025000000.0 0.7417044385668288 0.7087968936980126
4028000000.0 0.7255551487269845 0.7077212940451123
4031000000.0 0.6753092089201849 0.7016227193872928
4034000000.0 0.7134974362540148 0.705839484508877
4038000000.0 0.749868669788065 0.7397807837633964
4041000000.0 0.7546592430056765 0.6966432885087837
4044000000.0 0.77061789048718 0.769057453706716
4047000000.0 0.7604294877703675 0.7543138967671674
4050000000.0 0.7978856994840606 0.6773672176523475
4053000000.0 0.7292495406299747 0.6815017208609149
4056000000.0 0.7389898649215723 0.7204660226522632
4059000000.0 0.7307339475098368 0.7239223418026128
4062000000.0 0.7937553830294621 0.6684501649624583
4066000000.0 0.7247351802324031 0.6351699982919026
4069000000.0 0.8318613761876761 0.6888494836444031
4072000000.0 0.7863084875253717 0.7209367331012952
4075000000.0 0.7988284687113575 0.7214224928709683
4078000000.0 0.8341356734156039 0.671077961374703
4081000000.0 0.7741023802204345 0.7088215001438137
4084000000.0 0.8055593366199303 0.6542715457606485
4088000000.0 0.8196253037438307 0.6534443896741761
4091000000.0 0.8708920747863386 0.66332904196244
4094000000.0 0.8031091231952568 0.6145574749624633
4097000000.0 0.8302591236208092 0.6275485769236269
4100000000.0 0.8570881301598184 0.6160355529181367
4103000000.0 0.8625336105791088 0.6343764210029108
4106000000.0 0.8446199332174574 0.5848334970947145
4109000000.0 0.8762669675771761 0.5787893968764859
4112000000.0 0.8447800313470295 0.574461611871818
4116000000.0 0.8520499135864963 0.5884404014879419
4119000000.0 0.8978661096266565 0.5512773421811746
4122000000.0 0.9029553950788474 0.5147379018934449
4125000000.0 0.8972155267570943 0.5395370744878831
4128000000.0 0.8413559116414442 0.5796775402927021
4131000000.0 0.8623910882796658 0.5335603236879142
4134000000.0 0.903299010010737 0.5430323463203868
4138000000.0 0.8754795629008809 0.5033587802600379
4141000000.0 0.8693882181753322 0.4948213680919792
4144000000.0 0.8838902976778151 0.5495578527704048
4147000000.0 0.9034452341704994 0.48034660170179905
4150000000.0 0.9075706471550326 0.5288125043691916
4153000000.0 0.9218317855326378 0.44910549369884845
4156000000.0 0.9346401365158854 0.5073368560874502
4159000000.0 0.9012823925682638 0.47899718250070117
4162000000.0 0.9077105286524323 0.46790045333846453
4166000000.0 0.9517306274108803 0.4323016450485555
4169000000.0 0.9317594484845637 0.4324657921146353
4172000000.0 0.9186395538021833 0.45290691444713144
4175000000.0 0.9212099446259367 0.4350545659604164
4178000000.0 0.9388285890370629 0.4197312947167636
4181000000.0 0.9655674734116815 0.3907971461351849
4184000000.0 0.9532171811119176 0.4299196713217411
4188000000.0 0.922778885997535 0.40588016055819554
4191000000.0 0.9081818425284917 0.4372893062013217
4194000000.0 0.9481680112648393 0.36626437151087343
4197000000.0 0.9718488244937571 0.39181932433757777
4200000000.0 0.9683463684710845 0.3816317278999406
4203000000.0 0.9489286121825846 0.36983422391016874
4206000000.0 0.9579012116646779 0.36559315901216866
4209000000.0 0.941567180110566 0.35524796333339453
4212000000.0 0.952386046704846 0.31955321338463216
4216000000.0 0.980557248649574 0.34378801270095055
4219000000.0 0.975151807885729 0.3242497259683862
4222000000.0 0.9933644054234207 0.31136725017912686
4225000000.0 0.9516805445044574 0.3077939568839836
4228000000.0 0.9832857368385552 0.314126927292383
4231000000.0 0.9796962011788178 0.28589180838588574
4234000000.0 0.9961004995636962 0.2864288784430092
4238000000.0 1.0051639956947875 0.2591627791984473
4241000000.0 0.9784349154129572 0.2525238708541919
4244000000.0 0.982139603790598 0.25552141009646834
4247000000.0 0.9899783727927607 0.2606517253928434
4250000000.0 0.9731253198891461 0.23729989394514656
4253000000.0 0.9635258952469783 0.21772798832927653
4256000000.0 1.0040607196421762 0.20875033517664265
4259000000.0 0.9670970824631612 0.20338949107053791
4262000000.0 0.996960844888747 0.19335847460750352
4266000000.0 1.0177264821410512 0.18317194822151256
4269000000.0 0.9972759428121818 0.21101861082408732
4272000000.0 0.9987895428288318 0.17535709680170625
4275000000.0 1.0034400224195423 0.17867752948529136
4278000000.0 1.0018618474155785 0.17916092571671632
4281000000.0 0.9911920625617615 0.15169143667279117
4284000000.0 1.0137488059694701 0.11449694343143463
4288000000.0 1.0122251047432616 0.15879726359731988
4291000000.0 0.9892226082178379 0.13986333728254463
4294000000.0 1.0112522433124658 0.10408293715461307
4297000000.0 1.000305404801692 0.1201018023059522
4300000000.0 1.0024088780329012 0.08779309599959892
4303000000.0 1.017085938834999 0.08147228686726395
4306000000.0 1.0013179374278356 0.09854947340299505
4309000000.0 1.024916341405565 0.09968831706896171
4312000000.0 1.0290788252094227 0.09947599880179242
4316000000.0 1.035491344333495 0.07913930823789027
4319000000.0 1.0055982730665791 0.06992966808331534
4322000000.0 1.0091635591945183 0.025385569216555645
4325000000.0 1.0070617907714077 0.04710443220681833
4328000000.0 0.9954282268038197 0.05312083784918077
4331000000.0 1.0194765047965677 -0.021491518837498377
4334000000.0 1.0292790386171267 0.019923033372374915
4338000000.0 1.0034380307879478 0.009652433439179167
4341000000.0 1.0284894760422512 0.04432060278808972
4344000000.0 1.031563469202137 -0.013880752745131508
4347000000.0 1.0265929050513027 -0.046568893150301424
4350000000.0 0.9791885792131271 -0.027374419532465694
4353000000.0 1.0045299570490558 -0.024817966463985958
4356000000.0 1.0093277879671072 -0.07475519147633651
4359000000.0 0.9667473745828674 -0.057779287013681485
4362000000.0 1.0113709533302049 -0.12713362749617735
4366000000.0 1.0228114933174757 -0.0777242527589663
4369000000.0 0.973573140134069 -0.10687691945021072
4372000000.0 0.9882444949282096 -0.11807584406006195
4375000000.0 1.0246874438251228 -0.08965918660124074
4378000000.0 0.9695344501957895 -0.10313396543647614
4381000000.0 0.9927069104111519 -0.09511617458001363
4384000000.0 1.06392087204869 -0.13574094670700693
4388000000.0 0.9831784933785255 -0.1238644900266975
4391000000.0 1.0179736632587277 -0.14676892005068953
4394000000.0 0.9869163645148262 -0.1507730878176572
4397000000.0 0.9864618440569517 -0.18155399522504648
4400000000.0 1.010704332545022 -0.19064972114979617
4403000000.0 1.0037536950231245 -0.1883650901777888
4406000000.0 0.9912480712539246 -0.211584562551034
4409000000.0 1.028284487952772 -0.20884730041077043
4412000000.0 0.973369310559025 -0.25790270691506256
4416000000.0 0.9674393483707506 -0.22754915675216605
4419000000.0 0.9823999383754045 -0.25100204789355307
4422000000.0 0.9801139347698451 -0.1990528926799699
4425000000.0 0.9968809700865129 -0.22281028026179178
4428000000.0 0.9811432038840415 -0.25972240100412525
4431000000.0 0.9967026762400453 -0.24781944056051997
4434000000.0 0.9678957734224408 -0.26182868589745134
4438000000.0 0.9895126264372522 -0.27464144618039044
4441000000.0 0.9824005816652333 -0.28377539074880875
4444000000.0 0.9507735938590953 -0.30150753988267726
4447000000.0 0.9645680759236693 -0.3082464600489472
4450000000.0 0.9591535485095976 -0.3102631185848129
4453000000.0 0.9889626866260698 -0.3156622832292255
4456000000.0 0.9194483976754642 -0.31657937102141764
4459000000.0 0.9098371917783301 -0.33258187882013257
4462000000.0 1.0079833792628208 -0.3636821423834627
4466000000.0 0.97679152342749 -0.37572754821860677
4469000000.0 0.9557975254173091 -0.34497375667781305
4472000000.0 0.9463874959659911 -0.40169075788154457
4475000000.0 0.9187143258862402 -0.3533916594186297
4478000000.0 0.9726575707176474 -0.41867852802028316
4481000000.0 0.901452049752771 -0.40332113411869525
4484000000.0 0.9008483254380182 -0.43925172261729417
4488000000.0 0.9089722714155632 -0.4191695249445659
4491000000.0 0.9301944963189273 -0.4264415797143086
4494000000.0 0.9126510295475062 -0.43118430389494494
4497000000.0 0.9082695881805989 -0.42424560253207594
4500000000.0 0.9252044962286823 -0.4333222387927596
4503000000.0 0.9321576601929706 -0.4558149744414295
4506000000.0 0.8841577856275962 -0.4751587530927457
4509000000.0 0.8680246777781513 -0.4656179771814355
4512000000.0 0.8692746193195507 -0.4719306887372675
4516000000.0 0.9106305508881795 -0.5117369793117136
4519000000.0 0.8624404443883879 -0.48831062849208107
4522000000.0 0.8709438915739514 -0.5114312115030509
4525000000.0 0.8885380691665814 -0.463260839240106
4528000000.0 0.8955950084226951 -0.5391291834712424
4531000000.0 0.8893821253893748 -0.5031558430337637
4534000000.0 0.8496818109643918 -0.5092293668891259
4538000000.0 0.8515223308503457 -0.5380692557849088
4541000000.0 0.8274754708186709 -0.5708853004015498
4544000000.0 0.8536746897669198 -0.552337769509097
4547000000.0 0.850020994445446 -0.5384167214247186
4550000000.0 0.822032843163603 -0.5834748786437556
4553000000.0 0.8227993150420667 -0.5796621267551576
4556000000.0 0.8075736429677243 -0.5765960394658783
4559000000.0 0.8168193257664841 -0.5980561307542209
4562000000.0 0.8144710867734146 -0.606788556393587
4566000000.0 0.8181090968093427 -0.6112071738748706
4569000000.0 0.7943832409586404 -0.6208073571318837
4572000000.0 0.7958598536127981 -0.6186869352586265
4575000000.0 0.7837039637607861 -0.640255382756886
4578000000.0 0.8112473792484136 -0.6169104259773739
4581000000.0 0.7710329140132999 -0.6578926873430471
4584000000.0 0.7700815589322206 -0.6407027492299961
4588000000.0 0.7970022367106034 -0.6539940850252708
4591000000.0 0.7778879631532571 -0.6377841210982071
4594000000.0 0.728579621672707 -0.6701007665626224
4597000000.0 0.7481039379076033 -0.696323051268365
4600000000.0 0.7072888354755001 -0.6901439225514893
4603000000.0 0.736539457976069 -0.6981977242656745
4606000000.0 0.7587142138432107 -0.6913876691763278
4609000000.0 0.7240413956273047 -0.702170283708079
4612000000.0 0.714654939642957 -0.7168349676218649
4616000000.0 0.6955632118382209 -0.7031307604090165
4619000000.0 0.7227422718428073 -0.7175889949814059
4622000000.0 0.7195966515621661 -0.7416529188457439
4625000000.0 0.6643309245207883 -0.7292243149205042
4628000000.0 0.6824026416350807 -0.7172238225598725
4631000000.0 0.6665592261005138 -0.7563075130681602
4634000000.0 0.665114307266208 -0.7641371129517538
4638000000.0 0.6613090932343684 -0.7624253850491765
4641000000.0 0.6674073430736969 -0.7678971027706615
4644000000.0 0.6409912476685722 -0.7718805679594971
4647000000.0 0.6656595052794546 -0.7938203586815545
4650000000.0 0.6314785366420772 -0.7851894169130769
4653000000.0 0.6543011629035987 -0.7915169247822765
4656000000.0 0.6199476442541645 -0.7946350678121206
4659000000.0 0.6076296094124578 -0.8070973833668981
4662000000.0 0.6201524715058073 -0.8114566758500531
4666000000.0 0.6129328125628707 -0.7985329570644647
4669000000.0 0.6007476287185427 -0.8088466053843172
4672000000.0 0.5822320394604276 -0.849455741233073
4675000000.0 0.5824993664812177 -0.835684093161907
4678000000.0 0.5581908852673019 -0.8201137565399323
4681000000.0 0.5699270225004873 -0.8483595545375099
4684000000.0 0.532329598585633 -0.8682568688276207
4688000000.0 0.5214399705319187 -0.8607476831660102
4691000000.0 0.5712764680579157 -0.8269388304814826
4694000000.0 0.5460176005208071 -0.8358742288292762
4697000000.0 0.4989657775668837 -0.842679679475919
4700000000.0 0.537952375240456 -0.8740536636159628
4703000000.0 0.5308225380341063 -0.8067746591516218
4706000000.0 0.47793535555329725 -0.8992344623260758
4709000000.0 0.5170457172635226 -0.906243493649726
4712000000.0 0.5078289623277102 -0.8790905374236676
4716000000.0 0.5016588228461825 -0.9115255039783559
4719000000.0 0.5018691899405122 -0.8968653209389764
4722000000.0 0.4932158958796826 -0.9096241478711762
4725000000.0 0.4764114049591424 -0.9008848754199966
4728000000.0 0.4373728993831852 -0.8832792806549803
4731000000.0 0.47727669348566293 -0.948286718098454
4734000000.0 0.4634754212365779 -0.8838941519483805
4738000000.0 0.4615404918956588 -0.9331690639005218
4741000000.0 0.4214927769819059 -0.9509541872842122
4744000000.0 0.4208744763248819 -0.9329780194661539
4747000000.0 0.43573760236852066 -0.8855792659478692
4750000000.0 0.40411839594575927 -0.9505624681910931
4753000000.0 0.41020727689243963 -0.9369276066409571
4756000000.0 0.3985364012053882 -0.9560407557096191
4759000000.0 0.4194432324339327 -0.9376581274114896
4762000000.0 0.36691605997101145 -0.9510540289570028
4766000000.0 0.3709682053083193 -0.9518027883545077
4769000000.0 0.37174027199953236 -0.9947097405411885
4772000000.0 0.3518767306472069 -1.0010028946529725
4775000000.0 0.3388486546607221 -1.0280931205424984
4778000000.0 0.3311704492669602 -0.9532170989784147
4781000000.0 0.3361134986620694 -0.9591160005461548
4784000000.0 0.3476512132738619 -0.9441548372471152
4788000000.0 0.3181458613568987 -0.9969989915442004
4791000000.0 0.28040133870566725 -0.954807020757123
4794000000.0 0.3177272377547636 -1.0093885437314376
4797000000.0 0.2704300601152435 -0.9715816950434427
4800000000.0 0.2542728699814265 -0.9665075956864839
4803000000.0 0.23320459416929545 -0.9841697074210907
4806000000.0 0.2676223301265781 -1.0236564302818403
4809000000.0 0.2282742281532004 -0.9980009726311471
4812000000.0 0.21306171146444636 -0.9651640484518
4816000000.0 0.2568931464000861 -1.0007655663671053
4819000000.0 0.2445617464215908 -1.002546218979058
4822000000.0 0.22941372602493587 -1.0256558309251762
4825000000.0 0.23321019462551607 -1.0309703655402598
4828000000.0 0.20698155781165078 -1.0022200723632402
4831000000.0 0.1621146419483807 -1.0355703313607028
4834000000.0 0.1900332502091225 -1.015477876748101
4838000000.0 0.15079454099244075 -1.0368569975587443
4841000000.0 0.1528063043654867 -1.0026482009562332
4844000000.0 0.1940162362599997 -1.0208336070762902
4847000000.0 0.18196421480685537 -0.9776630815174574
4850000000.0 0.1184516888986839 -1.0333413468025652
4853000000.0 0.1242832250134964 -0.9996819038460758
4856000000.0 0.12712961080716764 -1.0013596146512944
4859000000.0 0.09813655295673976 -1.061328401247339
4862000000.0 0.14692670214984765 -0.9803975341107657
4866000000.0 0.06777651812732086 -1.0397289098481257
4869000000.0 0.0674236476774727 -1.0397945075356125
4872000000.0 0.07648704943643331 -1.0508387016692318
4875000000.0 0.14363601530832132 -1.0594593024613268
4878000000.0 0.05929136180253732 -1.0233240503020984
4881000000.0 0.01473930657555198 -1.1021686694309893
4884000000.0 0.07604450744237623 -1.0351082068571678
4888000000.0 0.09098063841914483 -1.0310176434893399
4891000000.0 0.07035044918353264 -1.039335630971365
4894000000.0 -0.020059570099476783 -1.0188619911434968
4897000000.0 0.054967515402183045 -1.030749723787284
4900000000.0 0.007482732260451262 -1.0457846986044752
4903000000.0 0.02619622202068944 -1.0602288229878705
4906000000.0 -0.003606058874082916 -1.0372537565583435
4909000000.0 -0.02355361933934852 -1.025510918306006
4912000000.0 -0.05272065012734822 -1.0270417041706548
4916000000.0 -0.0157110696565606 -1.0560490348119767
4919000000.0 -0.014121684038261181 -1.0612070372019207
4922000000.0 -0.01680498012439509 -1.0555719788292994
4925000000.0 -0.0626151734612302 -1.0477309823230327
4928000000.0 -0.014014343128154763 -1.0296446183378554
4931000000.0 -0.06418667433265023 -1.0719588865715028
4934000000.0 -0.07787101479436549 -0.9666577560425084
4938000000.0 -0.10931838202543533 -1.0207929355750531
4941000000.0 -0.10045239612363056 -1.0166404459016094
4944000000.0 -0.04731338103703503 -0.9606465808892592
4947000000.0 -0.14757215653918657 -0.9829053028089427
4950000000.0 -0.13531684244100345 -1.0228545573251
4953000000.0 -0.17530388927257767 -1.0419808882270245
4956000000.0 -0.16193240669529768 -1.0373168794062562
4959000000.0 -0.1783569920337215 -0.9882678551003738
4962000000.0 -0.16110149486330552 -1.0582506710467707
4966000000.0 -0.1842685705604329 -1.0449569350443098
4969000000.0 -0.14802560545804494 -1.060784606300093
4972000000.0 -0.1938691343181234 -1.0293716671177056
4975000000.0 -0.1721642673693304 -0.9978206007836046
4978000000.0 -0.1880520706330968 -1.045760111566593
4981000000.0 -0.20354019798095832 -1.002399254719693
4984000000.0 -0.19599395179791698 -0.9578419272705627
4988000000.0 -0.19767084151564318 -1.0174589522658415
4991000000.0 -0.1662802354625107 -1.0558544562598746
4994000000.0 -0.2077562746111144 -1.0132493264485836
4997000000.0 -0.2751807816962825 -1.004122665068975
5000000000.0 -0.2741936709560905 -1.0262175527630086
5003000000.0 -0.2421409672282847 -0.9964083394581933
5006000000.0 -0.25205607508683825 -1.0677509976503943
5009000000.0 -0.2674996706015019 -0.9904049837428605
5012000000.0 -0.321791242608577 -1.0052213197663127
5016000000.0 -0.25104769891313916 -1.036384953499336
5019000000.0 -0.33096544727945654 -0.9909223181778939
5022000000.0 -0.30493463097841833 -1.0223552747063678
5025000000.0 -0.3516306987957845 -1.0741379819618164
5028000000.0 -0.3502985697601151 -1.0053654365731681
5031000000.0 -0.32893794835200596 -0.9794321494944828
5034000000.0 -0.3697507905015074 -0.9847295931856688
5038000000.0 -0.36084616966384786 -0.9067884125488364
5041000000.0 -0.3132543781341771 -0.9803904261348623
5044000000.0 -0.35225197820818344 -0.9475738232983314
5047000000.0 -0.34711534757571477 -0.9747098195742935
5050000000.0 -0.30609303178951686 -0.9870098523884738
5053000000.0 -0.3953948453508105 -0.9989685573153879
5056000000.0 -0.36114051734561237 -0.9800108295414671
5059000000.0 -0.32633945772026957 -0.9607186807942064
5062000000.0 -0.4323807987909545 -0.9964701724828557
5066000000.0 -0.36175338742025964 -0.963268743983825
5069000000.0 -0.4585432133925207 -0.9384428342944403
5072000000.0 -0.39747987272524227 -0.9196792404591214
5075000000.0 -0.43189956379117933 -0.9459593364937366
5078000000.0 -0.4987083312457898 -0.9353092526048774
5081000000.0 -0.4154664026226607 -0.9013895268975834
5084000000.0 -0.47338417229941165 -0.9387121767735391
5088000000.0 -0.41909926873053344 -0.9466544589805916
5091000000.0 -0.5056339583931824 -0.9115844753579807
5094000000.0 -0.4792144175833462 -0.9405678688480906
5097000000.0 -0.4379560904609092 -0.9245703767799325
5100000000.0 -0.48204987038804864 -0.9100909219401384
5103000000.0 -0.509743331122399 -0.9096946839141532
5106000000.0 -0.5314801534651462 -0.9309558737570782
5109000000.0 -0.49932736363325325 -0.9376186306610688
5112000000.0 -0.5637735165341541 -0.9192342484511051
5116000000.0 -0.5153543709962162 -0.8564720075091963
5119000000.0 -0.49519248810006766 -0.8982315959994427
5122000000.0 -0.5396452879600468 -0.8649438064993658
5125000000.0 -0.5255593512935701 -0.8750666714508046
5128000000.0 -0.5380731267548255 -0.8699511443446348
5131000000.0 -0.5501076196036566 -0.8438789336913908
5134000000.0 -0.5296455102327375 -0.8901303040584041
5138000000.0 -0.5566640657025705 -0.8709461840290255
5141000000.0 -0.5349397514542833 -0.8907475399778009
5144000000.0 -0.5639994021947474 -0.859096832159317
5147000000.0 -0.5911390802480032 -0.8838472524577481
5150000000.0 -0.6026442124616049 -0.9001376441993004
5153000000.0 -0.5816196583152207 -0.8739786564452523
5156000000.0 -0.6114705636328162 -0.8835409045423634
5159000000.0 -0.6251358342527431 -0.8560340930706084
5162000000.0 -0.6716906357135947 -0.8042765170519564
5166000000.0 -0.67459780268166 -0.8416822861057655
5169000000.0 -0.6322751925331538 -0.8383647157967691
5172000000.0 -0.6186599521017726 -0.8531279205097051
5175000000.0 -0.6506759734259103 -0.8501394957484126
5178000000.0 -0.6856084578386754 -0.797294192894623
5181000000.0 -0.6758319888969212 -0.8359938510125056
5184000000.0 -0.6482295556479489 -0.746001259483852
5188000000.0 -0.6666674134444054 -0.8246536750389604
