! Created with skrf 1.8.0 (http://scikit-rf.org).
# Hz S RI R 50.0 
!freq ReS11 ImS11
4000000000.0 0.6891070178579591 0.7447664520770214
4003000000.0 0.7044784559111287 0.8257130049410616
4006000000.0 0.7309032245515646 0.6975316797217848
4009000000.0 0.7312923398797295 0.741467377850076
4012000000.0 0.7062964325165838 0.7714387508626757
4016000000.0 0.8048166555393219 0.7458321770276644
4019000000.0 0.7651533059464681 0.707300562135325
4022000000.0 0.7224796200217751 0.777938076763281
4025000000.0 0.7944616335719019 0.7063527397674123
4028000000.0 0.7944757651162424 0.638766734265112
4031000000.0 0.7198455653126764 0.6612018552084141
4034000000.0 0.7492242418821854 0.6795104040545429
4038000000.0 0.8222544109597203 0.6730161128517022
4041000000.0 0.8022682025089493 0.6696004462736437
4044000000.0 0.8175556177539335 0.7241664599103403
4047000000.0 0.8101537984259725 0.6881752985020895
4050000000.0 0.8298183976024119 0.6467394293962964
4053000000.0 0.7803139579768951 0.6082549727259257
4056000000.0 0.7960960090224172 0.6305151681426926
4059000000.0 0.7926426233881233 0.6468491817853517
4062000000.0 0.8281613406752125 0.6097255485803399
4066000000.0 0.7643756528843411 0.5630077102649139
4069000000.0 0.864507056082677 0.6073049052263911
4072000000.0 0.8129595503754641 0.6294874739217928
4075000000.0 0.8233062466383123 0.6376722444736018
4078000000.0 0.8850855450412976 0.5937696923639351
4081000000.0 0.8562703692373864 0.6096185399845637
4084000000.0 0.874825005147974 0.5616929591594646
4088000000.0 0.8165399936815457 0.5837625165315965
4091000000.0 0.9103711485144055 0.5702672670698428
4094000000.0 0.8995234902659985 0.5472733796118285
4097000000.0 0.8721736305533107 0.5326864409135337
4100000000.0 0.8939890652196039 0.5073006352686242
4103000000.0 0.8927511504392232 0.5732857866974559
4106000000.0 0.915359652493245 0.4848328439164379
4109000000.0 0.9119839919196808 0.4733021141265665
4112000000.0 0.918392107579701 0.4710250169753491
4116000000.0 0.8962204733431207 0.5071111601090869
4119000000.0 0.9358865914230533 0.4430280077988529
4122000000.0 0.9363211500871218 0.4588526110464116
4125000000.0 0.9335501512318665 0.49131202875263763
4128000000.0 0.8853661700184079 0.47601003953818066
4131000000.0 0.8991402548783326 0.4309058161340379
4134000000.0 0.895570657612261 0.48553698412256685
4138000000.0 0.9186678940441833 0.40788078886556994
4141000000.0 0.9035278746864399 0.3978145815328439
4144000000.0 0.9398335713283131 0.40685207041423294
4147000000.0 0.9764735849239752 0.3605808109692528
4150000000.0 0.9472187009518561 0.4060406644111125
4153000000.0 0.945919067792 0.3643842474290223
4156000000.0 0.961519193855406 0.40775008985294503
4159000000.0 0.9310741802399254 0.3679733936139559
4162000000.0 0.9515424809653241 0.3861080166265908
4166000000.0 0.9831753928731553 0.3622673054375537
4169000000.0 0.9816479317614043 0.3344020044735214
4172000000.0 0.9487577373698151 0.34814251316850137
4175000000.0 0.9841676475664883 0.3353140786465009
4178000000.0 0.9917174551920775 0.32924873047989156
4181000000.0 0.9932375877972952 0.3114020772594739
4184000000.0 0.9562140400477032 0.31278294167212767
4188000000.0 0.9890735563362949 0.32136102171837044
4191000000.0 0.9739697697391446 0.2970869726312018
4194000000.0 0.9517054705220952 0.30136904663718933
4197000000.0 0.9882962973034839 0.2770448844001528
4200000000.0 0.99322729161172 0.31198524605917777
4203000000.0 0.988808406676651 0.28266694389003566
4206000000.0 1.0111131163473916 0.27101883815184885
4209000000.0 0.9819026391012301 0.2790989835998961
4212000000.0 0.9918655436300629 0.2242058214878026
4216000000.0 1.0123151012230018 0.2532657745304326
4219000000.0 1.0112578494924684 0.24271927186443362
4222000000.0 1.000572773730637 0.19818191683169717
4225000000.0 0.9922346186094424 0.20647189501825944
4228000000.0 1.0127941733360233 0.2036967776708621
4231000000.0 0.9963600846351612 0.18446663688212017
4234000000.0 1.0043888586813745 0.16344972978530575
4238000000.0 1.0147822282769674 0.1668904326879911
4241000000.0 0.9984746161843929 0.14367918446349226
4244000000.0 0.9997695158613075 0.15496672023711439
4247000000.0 1.0042190668302713 0.15023896932390907
4250000000.0 0.9891922844112044 0.12955837031258866
4253000000.0 0.9923815481628089 0.12344507169424507
4256000000.0 1.0523706194433542 0.11327822345915961
4259000000.0 0.9877611100392383 0.09350129208490074
4262000000.0 0.9943390851298217 0.08914303262063122
4266000000.0 1.0458906042650824 0.061966951828066275
4269000000.0 1.0103555458567248 0.09388102423965569
4272000000.0 1.0068305851907433 0.07312484610035053
4275000000.0 1.0198669146145738 0.07160136557371027
4278000000.0 1.0423455718753285 0.049604044362823174
4281000000.0 1.022318182253599 0.05122799181894096
4284000000.0 1.0202390816273645 -0.015606147097614709
4288000000.0 1.0072057323938706 0.04491715935533553
4291000000.0 0.9778599334763306 0.022953072230608912
4294000000.0 1.0014358741879263 -0.01289428360443337
4297000000.0 1.0196781704399986 0.013435121737165642
4300000000.0 0.994564024111382 0.0011686326612360826
4303000000.0 0.9747583242097348 -0.0368130890554922
4306000000.0 1.0162773684940816 -0.02480069030080853
4309000000.0 1.013342379570222 -0.01806200548287068
4312000000.0 1.0678159966105407 -0.002669404550655105
4316000000.0 1.0257293871576763 -0.045742888950784814
4319000000.0 0.9891862847315304 -0.03456828214600292
4322000000.0 1.0035140547404076 -0.08855497273312192
4325000000.0 1.0281995085027866 -0.07177141496994899
4328000000.0 1.004781474203704 -0.09612872755337602
4331000000.0 1.0221365232338937 -0.1030691750743088
4334000000.0 1.0270830563813123 -0.1322124733351012
4338000000.0 0.9985747375988275 -0.10174426400695032
4341000000.0 1.0315246473643838 -0.09669761933586489
4344000000.0 1.034922000510559 -0.12169437167160517
4347000000.0 1.0083635316744142 -0.17898096417290288
4350000000.0 0.9765783681050019 -0.15422573934241535
4353000000.0 0.9833470327207812 -0.12438375192821897
4356000000.0 0.9843543162407121 -0.20348003118424388
4359000000.0 0.961499078871575 -0.16287650492965133
4362000000.0 0.9895401288056733 -0.2492307681301539
4366000000.0 0.9909656059429852 -0.22179391933740547
4369000000.0 0.9539254246691646 -0.22028446292160664
4372000000.0 0.9810971476764168 -0.23246803146217496
4375000000.0 0.9654526101965792 -0.21415420849477027
4378000000.0 0.9547216206385938 -0.21739088271029622
4381000000.0 0.9652430120553481 -0.2237343476450745
4384000000.0 1.0476769612467773 -0.26978740751881336
4388000000.0 0.9574652494541527 -0.24827297743826712
4391000000.0 0.9866034249536522 -0.2722023923484952
4394000000.0 0.9451812640960556 -0.26446520507203225
4397000000.0 0.9695129107696139 -0.3017097185587943
4400000000.0 0.9831330942489114 -0.2944426868127059
4403000000.0 0.9740025204519106 -0.3017483030867184
4406000000.0 0.9492906510259738 -0.33093611577199245
4409000000.0 0.9952340590139093 -0.3365671130445339
4412000000.0 0.9312336357515621 -0.3750673031680284
4416000000.0 0.9302581918636403 -0.3566717916630755
4419000000.0 0.9525732094770768 -0.37190439408151976
4422000000.0 0.9468395426442899 -0.33325103058373773
4425000000.0 0.9659359090972729 -0.35354271212588795
4428000000.0 0.9317924009104206 -0.39398169244673953
4431000000.0 0.9533663992318635 -0.38913522929165717
4434000000.0 0.9195462622107544 -0.39394450247474055
4438000000.0 0.9448977009597423 -0.4155170897455024
4441000000.0 0.9465857848162085 -0.41148915844489165
4444000000.0 0.8972659786854442 -0.40532149662779254
4447000000.0 0.9139241006313426 -0.42522834537251963
4450000000.0 0.8965313726113554 -0.43064023275922747
4453000000.0 0.9351736642006735 -0.46027384607983285
4456000000.0 0.8788479601004512 -0.442914004527749
4459000000.0 0.8526498807982241 -0.4539423440291276
4462000000.0 0.931278062141147 -0.48142101217799116
4466000000.0 0.9088547420297121 -0.5098122597975124
4469000000.0 0.9064561381957026 -0.48046117917146536
4472000000.0 0.8920775730373016 -0.5325832614448518
4475000000.0 0.8709286861984812 -0.49401214698996976
4478000000.0 0.8905337048582751 -0.5676498595203815
4481000000.0 0.8315759944962411 -0.5269612681054767
4484000000.0 0.8424116938405077 -0.5743986825386945
4488000000.0 0.8458463221367786 -0.5350390234648534
4491000000.0 0.8408024208335583 -0.5512472129933591
4494000000.0 0.8225789598183778 -0.5423511658418514
4497000000.0 0.8459831083223717 -0.5422262607070315
4500000000.0 0.8472105408661703 -0.5598592061493803
4503000000.0 0.847158226671211 -0.5852225811493081
4506000000.0 0.8124979771904408 -0.5955496503596189
4509000000.0 0.7902658258508153 -0.5802051579371841
4512000000.0 0.7864727207092429 -0.5970032859796761
4516000000.0 0.8132500092414623 -0.6076746623921992
4519000000.0 0.7851853334291997 -0.5831035468624923
4522000000.0 0.804084145837342 -0.6275445274973582
4525000000.0 0.8226128217460191 -0.616284564688724
4528000000.0 0.7859565008062106 -0.6581326108637052
4531000000.0 0.7932234531239254 -0.6245974232838677
4534000000.0 0.7463146047732881 -0.6375135152037826
4538000000.0 0.7707972873230864 -0.6606088874103206
4541000000.0 0.7213944931977491 -0.6658539076391662
4544000000.0 0.7452935264564535 -0.6705380226940267
4547000000.0 0.750891338227503 -0.6631835957874255
4550000000.0 0.7448646814592279 -0.6934075600853933
4553000000.0 0.7511374215734801 -0.6990635216149554
4556000000.0 0.7092842844517826 -0.6873373886074013
4559000000.0 0.7370048758996118 -0.7072410287268431
4562000000.0 0.7313185086490421 -0.7214537384618133
4566000000.0 0.7045601502458041 -0.7203044391599214
4569000000.0 0.6846079707673917 -0.7156776965914833
4572000000.0 0.6993463531251549 -0.7363969714655253
4575000000.0 0.674204508201595 -0.7443076368153141
4578000000.0 0.7034664586323733 -0.7586589184071384
4581000000.0 0.6645188571504568 -0.7659052180870178
4584000000.0 0.6699666209179675 -0.7629346545142655
4588000000.0 0.6605947118154388 -0.749562684467072
4591000000.0 0.6457380560282026 -0.7807443622830716
4594000000.0 0.6400849094696792 -0.7776003742215327
4597000000.0 0.6499170250504882 -0.7978898815555416
4600000000.0 0.6146021872190319 -0.7870043071316847
4603000000.0 0.6249665006254701 -0.7976408149592279
4606000000.0 0.621221822476155 -0.8046599467419895
4609000000.0 0.6276936223480729 -0.8152871998733854
4612000000.0 0.6047448870605411 -0.8203705009991578
4616000000.0 0.5831076683206331 -0.809742041317422
4619000000.0 0.5855647676368799 -0.8135313240767271
4622000000.0 0.5765576094628933 -0.8433644214418898
4625000000.0 0.5421956308898321 -0.8450082958511462
4628000000.0 0.5843308921336829 -0.8408778716748565
4631000000.0 0.5441319655617536 -0.850882024518351
4634000000.0 0.5518563335460881 -0.8705606728175236
4638000000.0 0.538213792149884 -0.8441619541893757
4641000000.0 0.5313712140851584 -0.8664023208856577
4644000000.0 0.5132713923708291 -0.8585398271362253
4647000000.0 0.5360508554850594 -0.8861059939175385
4650000000.0 0.4911352324257806 -0.8752623709865718
4653000000.0 0.5363976149484158 -0.9004439639553438
4656000000.0 0.472918500741206 -0.8852467781862159
4659000000.0 0.48084845633814016 -0.9045006475515185
4662000000.0 0.46827433087696235 -0.9078581447058581
4666000000.0 0.46255960378624505 -0.9016808043355513
4669000000.0 0.4715238551796586 -0.9071231462081313
4672000000.0 0.434739017089774 -0.9248649857876649
4675000000.0 0.43215115763122824 -0.9146259211565505
4678000000.0 0.42679828997825725 -0.912483605666609
4681000000.0 0.4057086005495619 -0.9254233860746429
4684000000.0 0.39635023910615724 -0.9477304309183817
4688000000.0 0.3836329969951401 -0.9402566828689005
4691000000.0 0.43334795459582354 -0.9556254172077283
4694000000.0 0.40418419363678953 -0.9095393300206305
4697000000.0 0.343978903552723 -0.9197097826431415
4700000000.0 0.35797297191646005 -0.9513288697033908
4703000000.0 0.3742848653437323 -0.9035317982399111
4706000000.0 0.32578384574325703 -0.9755864670851438
4709000000.0 0.3304621902330474 -0.9477169010995387
4712000000.0 0.3475540999074861 -0.9405344655941464
4716000000.0 0.3452877124430579 -0.9494949597276194
4719000000.0 0.3710519290296709 -0.993145737389222
4722000000.0 0.3522785557799967 -0.9588936331060531
4725000000.0 0.2635230007975973 -0.9602058342344643
4728000000.0 0.3075264570367227 -0.9569690379197795
4731000000.0 0.3004714321025323 -1.0109943486728217
4734000000.0 0.29902433261089534 -0.9530683572148071
4738000000.0 0.2961831300239132 -1.0424109262108123
4741000000.0 0.2567207162531237 -1.0211255956550647
4744000000.0 0.23176037666574706 -1.0218562793087638
4747000000.0 0.2378998319441164 -0.9702136186513338
4750000000.0 0.2742585055701729 -1.0054471453086364
4753000000.0 0.2517781741848196 -1.0274162431184233
4756000000.0 0.20982868801085786 -1.0200391631968115
4759000000.0 0.2048805992194232 -1.0299061987863252
4762000000.0 0.12779487230100472 -1.027078888153531
4766000000.0 0.17312600135372602 -0.9929900278718958
4769000000.0 0.19462845825151043 -1.0464533087841472
4772000000.0 0.18172133254973175 -1.0099997038717283
4775000000.0 0.18134202507081243 -1.0311942365725901
4778000000.0 0.15560152880107686 -1.0276804977791993
4781000000.0 0.16803082115009274 -0.9905891121435115
4784000000.0 0.16371588321655386 -0.9845594987715914
4788000000.0 0.09310228084424221 -1.039708695595921
4791000000.0 0.10111489919295444 -1.0126387290575354
4794000000.0 0.13202697100499866 -1.0430084949214302
4797000000.0 0.08683882591249764 -1.0122645855881538
4800000000.0 0.056071529285188576 -0.9932416380312863
4803000000.0 0.01771417981558082 -1.0210994584919262
4806000000.0 0.04350951569837011 -1.0470012794067423
4809000000.0 0.03247826115463556 -1.031967499697562
4812000000.0 0.027507990863837928 -1.0009503366971815
4816000000.0 0.05678333218628148 -0.9978311989537743
4819000000.0 0.026029350220605568 -1.045650491261126
4822000000.0 0.045097194821343084 -1.070536416001074
4825000000.0 0.05426081689802817 -1.0623982607905218
4828000000.0 -0.008289923481268724 -1.0392115426706705
4831000000.0 -0.04444240747723412 -1.0352692263036811
4834000000.0 0.0031437898373759265 -1.0246764021505312
4838000000.0 -0.040935247077016026 -1.0292141017256708
4841000000.0 -0.048079191391230416 -1.0334260665027277
4844000000.0 -0.0184587621934751 -1.0368964631040962
4847000000.0 -0.006497693080985675 -0.9945176631211037
4850000000.0 -0.09007277335195676 -1.04420383752411
4853000000.0 -0.0722979208999392 -1.0081220289760744
4856000000.0 -0.06466704546647584 -0.9904814625410835
4859000000.0 -0.07895236717304963 -1.0755097288996818
4862000000.0 -0.061108615654975856 -1.0290847080004606
4866000000.0 -0.1145389720052562 -1.0521956316689334
4869000000.0 -0.11598546957707169 -1.0020687205772922
4872000000.0 -0.17284796297365224 -1.0449855442553473
4875000000.0 -0.0624604533130233 -1.069204433043666
4878000000.0 -0.16137686137811036 -1.0258352135894953
4881000000.0 -0.21676758860143952 -1.0332304102764114
4884000000.0 -0.14417662758763275 -1.0389573295807486
4888000000.0 -0.12643095066665372 -1.02663129005785
4891000000.0 -0.18470943931577108 -1.0303236580809805
4894000000.0 -0.19146176598567882 -0.9948702005441258
4897000000.0 -0.1694549877691215 -1.0015940563466288
4900000000.0 -0.21472958894317834 -1.0324820645508672
4903000000.0 -0.19949253965886538 -1.0198213966384468
4906000000.0 -0.23956404788073488 -1.047796911816013
4909000000.0 -0.24212704404397026 -0.9915411125663389
4912000000.0 -0.2703964842255135 -1.030646389660375
4916000000.0 -0.24930318949731534 -1.0401592333680312
4919000000.0 -0.20527001421975205 -1.028723995137787
4922000000.0 -0.23401304384572832 -1.0141283171551392
4925000000.0 -0.28892241556327225 -1.0416415666313896
4928000000.0 -0.2256951826290765 -1.0116327545798067
4931000000.0 -0.2703421380109486 -0.9949521056917925
4934000000.0 -0.27902442810428585 -0.9366281093316704
4938000000.0 -0.3299160371654317 -0.9593996076770105
4941000000.0 -0.3250229884673966 -0.9516025817215733
4944000000.0 -0.26407465916142736 -0.9436068392450954
4947000000.0 -0.3133796942115966 -0.975564894021918
4950000000.0 -0.352202763525585 -0.9487008699356001
4953000000.0 -0.39628406874720545 -1.0175650512508643
4956000000.0 -0.3906795047799065 -0.9641176204773668
4959000000.0 -0.3881851105498131 -0.9110918750339965
4962000000.0 -0.3645215383706638 -0.9914635260539556
4966000000.0 -0.3860859851024173 -0.9852306662292595
4969000000.0 -0.3712685875714974 -1.0183297417811201
4972000000.0 -0.4380107344739934 -0.9743571576041062
4975000000.0 -0.40397715174550664 -0.9543528196490213
4978000000.0 -0.4214751155447416 -0.9468504402631832
4981000000.0 -0.45739967236515966 -0.9380984287951815
4984000000.0 -0.4136203807641755 -0.9300592490902251
4988000000.0 -0.4489534337128907 -0.9699599902200362
4991000000.0 -0.4330212252877313 -0.9838851200849512
4994000000.0 -0.4456464211006629 -0.962750289690934
4997000000.0 -0.5207197307750571 -0.9176640114793962
5000000000.0 -0.505264789312626 -0.9614842252970839
5003000000.0 -0.4773266113192887 -0.955758196757174
5006000000.0 -0.5108382124126225 -0.9582912603801689
5009000000.0 -0.49351969122316086 -0.908955699586745
5012000000.0 -0.5318370914045436 -0.9108173746494843
5016000000.0 -0.47613689562834255 -0.9549645691468122
5019000000.0 -0.5227001590454764 -0.8626255021045806
5022000000.0 -0.5619419374380971 -0.917095316575796
5025000000.0 -0.5672555296643071 -0.9377003666833408
5028000000.0 -0.5613301776301377 -0.8803293763976924
5031000000.0 -0.5630227739050337 -0.8718589313066009
5034000000.0 -0.6046298226531341 -0.9076281454347046
5038000000.0 -0.5802058230883395 -0.8380871023895404
5041000000.0 -0.5624950989277524 -0.8924015544967333
5044000000.0 -0.5661085203907449 -0.8618737457373014
5047000000.0 -0.586803971508715 -0.8198097836314765
5050000000.0 -0.5577960619962811 -0.8996624497511085
5053000000.0 -0.6375036321218476 -0.8660228862080313
5056000000.0 -0.5909191754879816 -0.8579851932938523
5059000000.0 -0.5789460429763629 -0.852474749741544
5062000000.0 -0.6780907024997517 -0.8228927358589668
5066000000.0 -0.6209606006757846 -0.8745953975426903
5069000000.0 -0.6461000308723739 -0.8250963483468667
5072000000.0 -0.6251362879546692 -0.7982079866071519
5075000000.0 -0.6462897400567366 -0.8429742435098837
5078000000.0 -0.6614060509909554 -0.7796473012603542
5081000000.0 -0.6770300432916555 -0.7971059390851274
5084000000.0 -0.6628855844692874 -0.7806687079129764
5088000000.0 -0.6579861377052314 -0.7884800718192388
5091000000.0 -0.7063069091719141 -0.744455755491698
5094000000.0 -0.6926377238901696 -0.718097810130741
5097000000.0 -0.651822820792358 -0.785605292830317
5100000000.0 -0.7399526184721166 -0.7593251955232018
5103000000.0 -0.773913607212719 -0.7166134116090769
5106000000.0 -0.7271024261881996 -0.7506082857747781
5109000000.0 -0.6784688330977484 -0.7513923041742792
5112000000.0 -0.7192250759297925 -0.7140376664037109
5116000000.0 -0.7424939158121074 -0.7263351324993603
5119000000.0 -0.7871115458667814 -0.6928422166191348
5122000000.0 -0.7329164635998952 -0.7083067137145582
5125000000.0 -0.7067374207514818 -0.7320866549735243
5128000000.0 -0.743509418322429 -0.6953222202340703
5131000000.0 -0.7612995586391117 -0.6686359071920185
5134000000.0 -0.7646058858549126 -0.6400654106084179
5138000000.0 -0.8228177811048638 -0.6692848612226653
5141000000.0 -0.7875664510197953 -0.7177880087748936
5144000000.0 -0.715075018016031 -0.6998122774501633
5147000000.0 -0.8540811806788552 -0.652776417387966
5150000000.0 -0.8268882640236747 -0.701301281585448
5153000000.0 -0.8110886123381016 -0.6610141894353725
5156000000.0 -0.7934822191085177 -0.6123866801044474
5159000000.0 -0.8282277886656216 -0.6412422957006804
5162000000.0 -0.8511398140283959 -0.5651171167666491
5166000000.0 -0.8749924232303126 -0.6239807884509917
5169000000.0 -0.8552052491950742 -0.6173358844301443
5172000000.0 -0.8294065462044558 -0.6002972185881651
5175000000.0 -0.8731256895295495 -0.6700262106098271
5178000000.0 -0.88823050178146 -0.6051181017946119
5181000000.0 -0.8974501480761099 -0.578938252493302
5184000000.0 -0.8756020793778594 -0.5562511932922773
