! Created with skrf 1.8.0 (http://scikit-rf.org).
# Hz S RI R 50.0 
!freq ReS11 ImS11
4000000000.0 0.6488415631219433 0.7965389248098986
4003000000.0 0.6595329940058178 0.8538143730052445
4006000000.0 0.6848869107263377 0.7790963890680067
4009000000.0 0.691463120590564 0.7443699520778211
4012000000.0 0.6039934481240801 0.8076123900530632
4016000000.0 0.7155170355301578 0.7296646479635718
4019000000.0 0.69185867478683 0.8085368456720142
4022000000.0 0.5876776412055542 0.828689046129427
4025000000.0 0.763191561518229 0.7473987349707877
4028000000.0 0.7397141784238306 0.7573304646370602
4031000000.0 0.6977761868211635 0.7122025261046381
4034000000.0 0.7723564950090991 0.7272435420781921
4038000000.0 0.7247165015137821 0.749479614070579
4041000000.0 0.7485824972869592 0.7408117985205195
4044000000.0 0.8072017825709042 0.7441275256368446
4047000000.0 0.7487789035478621 0.7303854186027742
4050000000.0 0.7971338305288838 0.7075208745736651
4053000000.0 0.7237530336695269 0.6603987186008502
4056000000.0 0.7604021154668185 0.6897008291997845
4059000000.0 0.7754810227478443 0.7114760900114083
4062000000.0 0.7828511764090568 0.6686157408526545
4066000000.0 0.721030428981237 0.6457872454119213
4069000000.0 0.8036701935488989 0.6576338720305244
4072000000.0 0.7144698031577814 0.7071428718249864
4075000000.0 0.8048707012389718 0.725862954414209
4078000000.0 0.8408071907307357 0.6150590428498882
4081000000.0 0.782257730724434 0.6787841726897396
4084000000.0 0.8555397205038341 0.6097244022400359
4088000000.0 0.8037769209325476 0.6546877390742114
4091000000.0 0.849538036127778 0.6683877406522982
4094000000.0 0.81701803946287 0.6372587529122872
4097000000.0 0.8247097546074439 0.6203178680004302
4100000000.0 0.8468487114488532 0.5935079676327597
4103000000.0 0.8142787113518377 0.6212702122924312
4106000000.0 0.862379879899084 0.5970863498960953
4109000000.0 0.8509199162312948 0.5678393500853327
4112000000.0 0.8706483526091482 0.610273589552164
4116000000.0 0.8566258615611657 0.5475014230131954
4119000000.0 0.863293795333579 0.5582372804394151
4122000000.0 0.8720723003406682 0.5383703249028947
4125000000.0 0.8847749477522161 0.5510849205039894
4128000000.0 0.840113439440853 0.5481554750068028
4131000000.0 0.8545699791240062 0.5142105421903763
4134000000.0 0.8797554653571759 0.5523536367237322
4138000000.0 0.8785083170854098 0.49201218442136324
4141000000.0 0.8792006367230157 0.49819766183936054
4144000000.0 0.9178735729560551 0.5464839996455344
4147000000.0 0.8591881226735488 0.4726926757235996
4150000000.0 0.909878447508845 0.5237825520602533
4153000000.0 0.912929435798173 0.4518798302943794
4156000000.0 0.8910078788039406 0.5244993967063428
4159000000.0 0.9238634706643936 0.44351883095323114
4162000000.0 0.9173416816299358 0.44702063630710676
4166000000.0 0.9303412159855591 0.4317744750973067
4169000000.0 0.9054821536544085 0.4123773226662205
4172000000.0 0.9255114479744904 0.44549078417121607
4175000000.0 0.9262695982777233 0.41894644080760285
4178000000.0 0.941358221165273 0.4278460583232697
4181000000.0 0.9312233201831221 0.3828591123001508
4184000000.0 0.9333481733589372 0.41404514597133396
4188000000.0 0.9360577294854553 0.39946495749282607
4191000000.0 0.9460204595265499 0.4211705615956402
4194000000.0 0.9394132119029747 0.3488170163199864
4197000000.0 0.964627670260392 0.37357661500154055
4200000000.0 0.9430093653932141 0.3647521414809233
4203000000.0 0.9413920657315311 0.35254709967979614
4206000000.0 0.9551405384870846 0.3647418029648422
4209000000.0 0.9455201889341792 0.33607354404690654
4212000000.0 0.9693999743745084 0.2967426168418943
4216000000.0 0.9653728935072388 0.34799105165650207
4219000000.0 0.9670236848290032 0.3169244521323137
4222000000.0 0.9749322491607559 0.2818379333873738
4225000000.0 0.9455851198059597 0.2920186940619224
4228000000.0 0.983763697936658 0.3000700479906496
4231000000.0 0.9766189836999118 0.2717557839555517
4234000000.0 0.989577373081341 0.29363802566888014
4238000000.0 0.9891242105139513 0.25039636141298005
4241000000.0 0.9817911548525495 0.24642973903255433
4244000000.0 0.9724690762109647 0.26377777738603886
4247000000.0 0.9961953759259653 0.24925643753594262
4250000000.0 0.9630564388569036 0.2212137957513408
4253000000.0 0.9752812373107922 0.2067084406704532
4256000000.0 0.9959640783814607 0.20816510256799065
4259000000.0 0.9646443150687078 0.1904426430046983
4262000000.0 0.9952429588219593 0.18233512008722355
4266000000.0 1.0225512850372032 0.1477868303351263
4269000000.0 1.0002181042976437 0.2007409886857758
4272000000.0 0.9974651576332362 0.18366141861056307
4275000000.0 0.9956648541570072 0.18019721335795474
4278000000.0 1.0392853694467832 0.16245859435858245
4281000000.0 1.0249544544698368 0.16383289338392348
4284000000.0 1.021152272745666 0.1134094643906034
4288000000.0 1.0047445732413844 0.1798856276551356
4291000000.0 1.0030959523582204 0.11755586629603433
4294000000.0 0.9902073135969754 0.08982786793951937
4297000000.0 0.9818304901617373 0.13768222737783692
4300000000.0 0.9900500047853797 0.10651996631966154
4303000000.0 0.989716211706257 0.07478692800079188
4306000000.0 1.01144642873875 0.11187308518186617
4309000000.0 0.9800783705145472 0.0733155798456782
4312000000.0 1.0620909127917955 0.11400931835563616
4316000000.0 1.0259727123313604 0.06801802726745641
4319000000.0 0.9925749636223484 0.037410085592123735
4322000000.0 1.0046387967226016 0.027580319545751728
4325000000.0 0.9977362849279421 0.032124135880655144
4328000000.0 0.993320729545678 0.03417845715110897
4331000000.0 0.9990478164410999 -0.016125863162510495
4334000000.0 1.012606678347346 0.024859556468832034
4338000000.0 0.9995746713036823 0.03666151963316329
4341000000.0 1.0253397555831458 0.022683594496371223
4344000000.0 1.015427698129527 -0.021875815900483278
4347000000.0 1.0175750212682626 -0.045164823019867156
4350000000.0 0.9633407673260084 -0.048184562772125086
4353000000.0 0.9776290643926882 -0.017952017846158796
4356000000.0 1.0008472672406623 -0.09375975086806834
4359000000.0 0.945507616192048 -0.07945794720050228
4362000000.0 1.0077507230762786 -0.11119849365214514
4366000000.0 1.0246447430411716 -0.06814345383927223
4369000000.0 0.9593505054260638 -0.1225826794976148
4372000000.0 0.9970848024854062 -0.14095096433565657
4375000000.0 1.007782201287256 -0.0968979551095469
4378000000.0 0.9680315333541674 -0.1062145091268072
4381000000.0 0.9740676805215571 -0.10455124728121082
4384000000.0 1.0666346615733708 -0.1515360274758849
4388000000.0 0.9993974528408726 -0.12142782105282952
4391000000.0 1.0081122596886882 -0.14024826618060743
4394000000.0 0.9659622112282011 -0.15806826044946481
4397000000.0 0.9817654198899908 -0.16259876372883575
4400000000.0 1.019542585638698 -0.17590647751277083
4403000000.0 0.9829561658895544 -0.174635043567738
4406000000.0 0.9802905279081795 -0.21085761172612158
4409000000.0 1.0264471138745936 -0.20598836860135739
4412000000.0 0.9610432092593204 -0.2524931424584321
4416000000.0 0.9622054622556167 -0.23580840450572063
4419000000.0 0.9828322243009049 -0.2623083894792858
4422000000.0 0.980725013544959 -0.2159496748299547
4425000000.0 1.010173166173212 -0.22287355096015735
4428000000.0 0.9695883001316421 -0.2595861708767444
4431000000.0 1.0074533754847146 -0.2616287793926938
4434000000.0 0.9581308633667125 -0.2761963265521041
4438000000.0 0.9643070160625209 -0.27339495414887505
4441000000.0 0.9969850804516411 -0.29606205652797385
4444000000.0 0.9408282159869379 -0.2887595441792363
4447000000.0 0.946928411570113 -0.3333552568797651
4450000000.0 0.942749304793422 -0.29768510612893134
4453000000.0 0.9737734055085715 -0.326409247184062
4456000000.0 0.9232022853710544 -0.32045672032277484
4459000000.0 0.8971735544022386 -0.33802716155429824
4462000000.0 0.9862109861212629 -0.36050606480249675
4466000000.0 0.986653012725933 -0.37761226347312715
4469000000.0 0.9465905649139299 -0.3566616272680584
4472000000.0 0.9432048721721659 -0.4078011589888904
4475000000.0 0.9087522201856189 -0.36841260104824236
4478000000.0 0.9544333133542325 -0.4161848926945507
4481000000.0 0.8927167008452311 -0.4085942343793101
4484000000.0 0.9050615712445302 -0.46046680074000756
4488000000.0 0.8989776304767884 -0.4184988703317855
4491000000.0 0.8973587084314361 -0.4242134127402865
4494000000.0 0.8935510348886914 -0.42678591506510094
4497000000.0 0.901904131473118 -0.4261815732753002
4500000000.0 0.8951291291981789 -0.4283948984610607
4503000000.0 0.9473542660577685 -0.46031084610511863
4506000000.0 0.9063626760677996 -0.4727924787959039
4509000000.0 0.8733974195428218 -0.4513997814897859
4512000000.0 0.8944005708114514 -0.4686352490388854
4516000000.0 0.9031099904484128 -0.4948565155215291
4519000000.0 0.8514099903396367 -0.46339821247009344
4522000000.0 0.8591000475848269 -0.5116208330624222
4525000000.0 0.9040621995554687 -0.46388309185733
4528000000.0 0.9040709637689635 -0.52626362012452
4531000000.0 0.8564740660561952 -0.5384841160381667
4534000000.0 0.8492471980888457 -0.5231548916393274
4538000000.0 0.8685444188896212 -0.5212354726938965
4541000000.0 0.8175897733181918 -0.5770483749647218
4544000000.0 0.8286089150824525 -0.5419738401772263
4547000000.0 0.8508872340934298 -0.5367913434087337
4550000000.0 0.8209637009276514 -0.5888807956046254
4553000000.0 0.8177185640762836 -0.5812484742301576
4556000000.0 0.7990610725474416 -0.5793053128671046
4559000000.0 0.7879270024153788 -0.5798500850855488
4562000000.0 0.8127321076268639 -0.5923995091429809
4566000000.0 0.7999416617125963 -0.62268413409722
4569000000.0 0.7967096794891406 -0.6058464720887144
4572000000.0 0.778372990422439 -0.6050476483506202
4575000000.0 0.7875300556394247 -0.6529913647428078
4578000000.0 0.8065880851533023 -0.6436396024166472
4581000000.0 0.7749981059696611 -0.6390322714672916
4584000000.0 0.756231558424132 -0.6367219179543318
4588000000.0 0.7797815939533281 -0.6636018247929308
4591000000.0 0.7663962831507349 -0.6464213660250119
4594000000.0 0.7487389615686645 -0.6873765634093378
4597000000.0 0.7467934453241412 -0.695962186507093
4600000000.0 0.7183043895085357 -0.691526376142422
4603000000.0 0.7302216575896218 -0.7005080898490929
4606000000.0 0.7413741007640002 -0.6928400727711107
4609000000.0 0.7246861772281942 -0.7072084665092235
4612000000.0 0.7184971496045339 -0.7186219281113443
4616000000.0 0.7053382956896199 -0.7056048556150075
4619000000.0 0.6935598799017868 -0.707898160762903
4622000000.0 0.6846804119597464 -0.7270457881389949
4625000000.0 0.6529156007667513 -0.7331453562370976
4628000000.0 0.6717006108315985 -0.7217228784139872
4631000000.0 0.6603911392532826 -0.753393584156428
4634000000.0 0.6629210067939877 -0.7506832852228383
4638000000.0 0.6837039492157501 -0.7735137147376276
4641000000.0 0.6642339043504664 -0.7618421925592495
4644000000.0 0.6557549484767897 -0.7722816299618618
4647000000.0 0.6476828944286859 -0.8014089031981869
4650000000.0 0.6141261634616754 -0.7759318905742796
4653000000.0 0.6626181662334375 -0.79855584578227
4656000000.0 0.6130340492394597 -0.7942538060816962
4659000000.0 0.6051456135221409 -0.8193615541364019
4662000000.0 0.6269716464163083 -0.7975629416655282
4666000000.0 0.6117626811625535 -0.8185770649688505
4669000000.0 0.5938986393454453 -0.8103717249514274
4672000000.0 0.5955163635334652 -0.8649668183108197
4675000000.0 0.5643204567455801 -0.8316595186863545
4678000000.0 0.5692723041940222 -0.8194444979840284
4681000000.0 0.5305198123568339 -0.8702134540460211
4684000000.0 0.5399488137946832 -0.8575899437180842
4688000000.0 0.5270796384908876 -0.8527196753762034
4691000000.0 0.5657203414473126 -0.8562087164286609
4694000000.0 0.5566569245905061 -0.8400520772781912
4697000000.0 0.4907515365368635 -0.8287365731868634
4700000000.0 0.5147728603735834 -0.8348169994838297
4703000000.0 0.521606165185169 -0.8085380299682499
4706000000.0 0.4866912130051655 -0.8904926598502577
4709000000.0 0.49401246998337883 -0.8713630676466504
4712000000.0 0.5155818089274333 -0.8600910035147236
4716000000.0 0.4849429123906448 -0.906899676046552
4719000000.0 0.5017012250674032 -0.8784493444281882
4722000000.0 0.501385965291072 -0.8844028128852335
4725000000.0 0.47873389167448155 -0.8981148209697213
4728000000.0 0.4129253245292789 -0.9000669452242016
4731000000.0 0.45279341598537376 -0.9268016399629511
4734000000.0 0.4475167575995342 -0.8831602554575425
4738000000.0 0.4657459184364049 -0.9347798699851861
4741000000.0 0.45076307778903535 -0.9644913989615937
4744000000.0 0.4235442176527881 -0.9292847815095878
4747000000.0 0.4211768395683626 -0.9035716875784777
4750000000.0 0.3905700686486322 -0.9622812359425704
4753000000.0 0.41341571593195986 -0.917499948836292
4756000000.0 0.37005459644394734 -0.9538564464956354
4759000000.0 0.382114805857429 -0.9364772425087204
4762000000.0 0.3804972696218927 -0.9790044080748516
4766000000.0 0.3324954441413481 -0.9607452307800941
4769000000.0 0.3802934490393748 -0.9513501638930931
4772000000.0 0.3435757783504283 -0.9647874173896954
4775000000.0 0.33619206960743464 -1.007697024340287
4778000000.0 0.3146442923879031 -0.9797189240292404
4781000000.0 0.3268563687456483 -0.944506616317365
4784000000.0 0.33440203406180047 -0.9701497554994801
4788000000.0 0.2989424811466435 -0.9893773632605785
4791000000.0 0.2650604893405818 -0.9916057414052007
4794000000.0 0.3256754733772449 -0.991778026773874
4797000000.0 0.2743205012307382 -0.9825479028871359
4800000000.0 0.2426736399260397 -0.987038578507947
4803000000.0 0.20820939248473877 -1.006996941555173
4806000000.0 0.25986223158653804 -0.9987657800081744
4809000000.0 0.19797494624185402 -0.9898388014661733
4812000000.0 0.18867627569980328 -0.9733762883620847
4816000000.0 0.22987950016582134 -0.9669348833540758
4819000000.0 0.24296370102409381 -1.0245620884288344
4822000000.0 0.2219895532778787 -1.031013995491868
4825000000.0 0.24322319553470978 -1.0171356555507454
4828000000.0 0.17176912705364772 -0.9947794558280011
4831000000.0 0.159585058050461 -1.0469095398406076
4834000000.0 0.19743621489725055 -0.9976068017470847
4838000000.0 0.1453699511656254 -1.02868501763471
4841000000.0 0.14301560068526895 -0.990434339918297
4844000000.0 0.15990668024152566 -1.0177091232166933
4847000000.0 0.16861971671712211 -0.9726067554336868
4850000000.0 0.13607362626101988 -1.0244822186170368
4853000000.0 0.11752636304784135 -0.978928624038971
4856000000.0 0.10881659513777409 -0.995624647234863
4859000000.0 0.09951146071008746 -1.0491911856789349
4862000000.0 0.12855353330889024 -0.9867181355538662
4866000000.0 0.06631337700121251 -1.0475591776619197
4869000000.0 0.06846267370554393 -0.9980168842519644
4872000000.0 0.053179136395199174 -1.0537779312556463
4875000000.0 0.11839906332218177 -1.0697402960362237
4878000000.0 0.05163556570255741 -1.0440535684857206
4881000000.0 0.0417241345896202 -1.1041536378822807
4884000000.0 0.06422886284946513 -1.0410686100544413
4888000000.0 0.05735115107551436 -1.0024713099040063
4891000000.0 0.06534321011991287 -1.0360442543436
4894000000.0 0.0007714752121780744 -1.0013323229833828
4897000000.0 0.03017930912945598 -1.022719930897041
4900000000.0 -0.0042224704644710925 -1.0281782858708797
4903000000.0 0.027264171883022582 -1.0462235566497653
4906000000.0 -0.010055793987075845 -1.0341992542667466
4909000000.0 -0.017643551722444972 -1.0519584684517251
4912000000.0 -0.02999356456490447 -1.038214834382233
4916000000.0 -0.031890644959715296 -1.0383122782016947
4919000000.0 -0.034956532078501315 -1.0584735422092393
4922000000.0 -0.020914031143238532 -1.0552943189188586
4925000000.0 -0.07863942971361729 -1.0156379676435607
4928000000.0 0.0038421474597454125 -1.0274707155602814
4931000000.0 -0.05935230959535194 -1.0354910020572379
4934000000.0 -0.08753608976621781 -0.978129382254451
4938000000.0 -0.12204156415260851 -1.0245642113865638
4941000000.0 -0.09244884637633903 -0.9911992628785293
4944000000.0 -0.052876255844909736 -0.9913251698372119
4947000000.0 -0.14252722479703933 -0.9687920514067782
4950000000.0 -0.14686108881014054 -0.9887672351844308
4953000000.0 -0.19966114846272803 -1.0386385854606233
4956000000.0 -0.143459151783977 -1.008806696361707
4959000000.0 -0.20476555109994635 -0.9948185126034991
4962000000.0 -0.14901936420565146 -1.0388916319143253
4966000000.0 -0.14687114300885662 -1.018271428305867
4969000000.0 -0.15792960549357649 -1.04905939296944
4972000000.0 -0.20018608975830102 -1.0172045289803655
4975000000.0 -0.17136039282440066 -1.007881857492278
4978000000.0 -0.22149526651227025 -1.0145227384552196
4981000000.0 -0.2339328591131878 -1.0259598350608548
4984000000.0 -0.21098011449706042 -0.9779852074871416
4988000000.0 -0.1992394789920014 -1.0260434660053728
4991000000.0 -0.1941170694712399 -1.0469662708287928
4994000000.0 -0.20843430698165716 -1.0219812727487676
4997000000.0 -0.31466734226219933 -1.0071704333789169
5000000000.0 -0.26234914705489304 -1.060964336753819
5003000000.0 -0.24458381912924776 -1.0285748389417473
5006000000.0 -0.29480704447391337 -1.0417432757657519
5009000000.0 -0.27788255647887583 -0.9939218524905024
5012000000.0 -0.30435613537209244 -0.9730469314799413
5016000000.0 -0.2926402646696325 -1.0093345983702287
5019000000.0 -0.2766694248497704 -0.9677942895556539
5022000000.0 -0.31825139991209483 -0.9689036048882846
5025000000.0 -0.2992926712434814 -1.0513574386563713
5028000000.0 -0.3313185924201276 -0.973468014350181
5031000000.0 -0.3146854021904252 -0.9445755584524359
5034000000.0 -0.3933517828242583 -0.9990732529557393
5038000000.0 -0.36164781486113884 -0.9500409261400473
5041000000.0 -0.3305433955814725 -0.9999972264551983
5044000000.0 -0.3414745602340016 -0.9557114163745365
5047000000.0 -0.37511664499242753 -0.9877710974835979
5050000000.0 -0.31872121745029136 -0.961726415723424
5053000000.0 -0.3887739030938907 -0.9610027040383349
5056000000.0 -0.3507973695068033 -0.9573913123965625
5059000000.0 -0.36424896971972603 -0.9609309785839931
5062000000.0 -0.46604265125368893 -0.9699721252189073
5066000000.0 -0.3983785728206187 -0.9541998464628629
5069000000.0 -0.44644534329031427 -0.9523460715863795
5072000000.0 -0.42667273243598547 -0.9224885768872333
5075000000.0 -0.44228585570548795 -0.9352875330953192
5078000000.0 -0.45851470441055747 -0.9243548844228391
5081000000.0 -0.49190163078844434 -0.8945244245198548
5084000000.0 -0.49514449324659093 -0.9546648381457468
5088000000.0 -0.43341541271994855 -0.910994706064586
5091000000.0 -0.5257042706064614 -0.857590310197923
5094000000.0 -0.4540829449079378 -0.9064324167837475
5097000000.0 -0.4663628965545654 -0.8983260230615742
5100000000.0 -0.4976993010657385 -0.8871171334637838
5103000000.0 -0.5746730884148719 -0.9029720698295979
5106000000.0 -0.5020017905589478 -0.9412450873109248
5109000000.0 -0.5034728297672963 -0.9533155689558304
5112000000.0 -0.567647899022255 -0.8955576834694052
5116000000.0 -0.5218455838449159 -0.8256811045053914
5119000000.0 -0.5614406365161139 -0.8813419789102983
5122000000.0 -0.5326042679842847 -0.8243986653368736
5125000000.0 -0.5205542339967137 -0.8746331782373933
5128000000.0 -0.5564491899297969 -0.8028131163524534
5131000000.0 -0.528355808827623 -0.8684663070836786
5134000000.0 -0.543407441172789 -0.872427192980915
5138000000.0 -0.5912701861186619 -0.9182924180658553
5141000000.0 -0.5686553504354719 -0.8602660324045208
5144000000.0 -0.5758002596531219 -0.8399279118096614
5147000000.0 -0.5879473644229027 -0.8281010682192874
5150000000.0 -0.60451043329138 -0.8812968623163079
5153000000.0 -0.6088555921185794 -0.852150214503448
5156000000.0 -0.611190216408521 -0.8635964415132754
5159000000.0 -0.6217907557448326 -0.8321091291421792
5162000000.0 -0.6196775831820565 -0.7562004598902592
5166000000.0 -0.641964920395307 -0.8093151761840907
5169000000.0 -0.6640858554877945 -0.7850609309774517
5172000000.0 -0.6352268600564235 -0.8106158083708136
5175000000.0 -0.6849392946686162 -0.8405675445261038
5178000000.0 -0.7094030328752314 -0.7763278731969824
5181000000.0 -0.6901247516689025 -0.799067832593682
5184000000.0 -0.6909445727398655 -0.7508079032413602
5188000000.0 -0.695411285357772 -0.7749148851439123
