! Created with skrf 1.8.0 (http://scikit-rf.org).
# Hz S RI R 50.0 
!freq ReS11 ImS11
4000000000.0 0.5964084601272659 0.7831404181132293
4003000000.0 0.649654403546378 0.836140974607189
4006000000.0 0.6785572154415561 0.776021341974968
4009000000.0 0.6460156522887809 0.7915876319102475
4012000000.0 0.6186040632219347 0.8400881566773518
4016000000.0 0.7165779417334588 0.7832004004579529
4019000000.0 0.6852090101024368 0.7782180350342722
4022000000.0 0.6366085079250984 0.8155567179741057
4025000000.0 0.7244400646562692 0.7861037509132113
4028000000.0 0.7022536181930338 0.7348145409657698
4031000000.0 0.6657292600131496 0.7019361709175344
4034000000.0 0.6912477935973597 0.7293336770709296
4038000000.0 0.7425004799061434 0.7277588587150369
4041000000.0 0.7253016918309254 0.7424062306661956
4044000000.0 0.7733501297888705 0.7857270527681087
4047000000.0 0.7161129797475417 0.8113342567736498
4050000000.0 0.7392508540414731 0.7120537374770683
4053000000.0 0.7498501361642901 0.675344284568723
4056000000.0 0.7611409958865899 0.6614682975673242
4059000000.0 0.7179912516197869 0.6834718936101467
4062000000.0 0.7465472981405833 0.6688810505181007
4066000000.0 0.7184832582593075 0.6401226138231617
4069000000.0 0.8225631327879168 0.6769037911026748
4072000000.0 0.7254613578664261 0.699318349252255
4075000000.0 0.7750624928818152 0.7292821820893665
4078000000.0 0.7896490595135742 0.6761044309168653
4081000000.0 0.7677816025331603 0.7309348770826137
4084000000.0 0.796547575025724 0.6499022377507779
4088000000.0 0.7736137659403615 0.679028183381933
4091000000.0 0.8583402315997183 0.668286526322788
4094000000.0 0.8068924792793055 0.6479533006715312
4097000000.0 0.8117755657714577 0.6073578272292455
4100000000.0 0.8185921305800229 0.6342697360133414
4103000000.0 0.8160068458129071 0.618092001548276
4106000000.0 0.8540971043417401 0.6238600651782583
4109000000.0 0.8602293245958519 0.605364745987929
4112000000.0 0.8338062137260671 0.6084610181353607
4116000000.0 0.8299311628531266 0.6130677287886835
4119000000.0 0.851044071627184 0.5885612556183842
4122000000.0 0.8831455906196096 0.5294510554378703
4125000000.0 0.8810907879357893 0.5480152648624463
4128000000.0 0.8128569604266518 0.5336025107074397
4131000000.0 0.8218731011672932 0.5464163259244383
4134000000.0 0.8318402877445589 0.5582466818220397
4138000000.0 0.8389851316644663 0.5269015719532413
4141000000.0 0.8801338829984454 0.5151734550226199
4144000000.0 0.8945367408191678 0.5507319307227185
4147000000.0 0.8793788200020669 0.47214997195658553
4150000000.0 0.9096273246940622 0.5192320639115118
4153000000.0 0.8854145634088018 0.4679481189943173
4156000000.0 0.9031319223846337 0.5173774146744748
4159000000.0 0.8527977661454185 0.4814862887424575
4162000000.0 0.9105718186022751 0.4358915033232208
4166000000.0 0.9058597185176425 0.45155923903601414
4169000000.0 0.9009184254911158 0.44655350850761
4172000000.0 0.9568671293190489 0.4470962456893301
4175000000.0 0.9156452439798534 0.46333081343325294
4178000000.0 0.9214603766794313 0.42483058023196874
4181000000.0 0.9293633050015231 0.4284689028445833
4184000000.0 0.9145623463692999 0.42531265435177384
4188000000.0 0.9294633316954093 0.40125940266288307
4191000000.0 0.9017254400465404 0.44056192764317775
4194000000.0 0.9180045143571773 0.40010048939714016
4197000000.0 0.9448081132654093 0.4033079348601248
4200000000.0 0.949196001911029 0.4093456143689511
4203000000.0 0.929238330252776 0.38009036000893204
4206000000.0 0.9879644803466011 0.37186700101352005
4209000000.0 0.9291474468419044 0.3434672093357019
4212000000.0 0.9578833401603603 0.3520710364955737
4216000000.0 0.9564995255752256 0.3509395510105667
4219000000.0 0.9696243271298108 0.3278847282755474
4222000000.0 0.965936024433879 0.33045207343207034
4225000000.0 0.9525721177359971 0.3184691562187081
4228000000.0 0.9836578017864412 0.3216483443818785
4231000000.0 0.9587078651378079 0.3196016725414622
4234000000.0 0.9900402634565577 0.29987498708638033
4238000000.0 0.9868896283681744 0.26778045734836964
4241000000.0 0.9833556611176546 0.264390569018288
4244000000.0 0.9648930624799352 0.28275629223452975
4247000000.0 0.971974679956976 0.2665025518827124
4250000000.0 0.9700133053946374 0.25866618674189135
4253000000.0 0.9801102390307779 0.24881964691629155
4256000000.0 1.0078422286098696 0.24264481479369832
4259000000.0 0.9565048495852405 0.21592031943749088
4262000000.0 0.9900913991219595 0.1895885072444848
4266000000.0 1.005986231303703 0.2018115239011768
4269000000.0 0.9862936529976033 0.21523702311307205
4272000000.0 0.9872990140495375 0.1898344891295064
4275000000.0 0.9915144386871653 0.2018024278862317
4278000000.0 1.0006985286534826 0.1697345548086885
4281000000.0 1.009929425937495 0.18489803595658644
4284000000.0 1.0159508565579531 0.13575350836406277
4288000000.0 1.005039404214544 0.20381538378869432
4291000000.0 0.9815698796571812 0.15178015152538477
4294000000.0 0.9999443285778805 0.13267075482979657
4297000000.0 0.9687472830667146 0.1646261952801774
4300000000.0 1.0058677681321408 0.11133756773388859
4303000000.0 0.9890032175180821 0.11019397694901452
4306000000.0 1.004058663621338 0.1500662945794935
4309000000.0 0.9852322387971253 0.1291178392015936
4312000000.0 1.0324772011505015 0.11950739975227809
4316000000.0 1.0057600324693907 0.0805152369273046
4319000000.0 0.9847440299755601 0.09782492666595731
4322000000.0 0.9968917431442679 0.06496455828536037
4325000000.0 1.0078838089370017 0.06441556070073763
4328000000.0 1.0068779410835733 0.061751573060326734
4331000000.0 0.9879584012596772 0.015314566726060658
4334000000.0 1.0109946746990137 0.040799444731565965
4338000000.0 1.004819420758882 0.03164206396818546
4341000000.0 1.0140229704684116 0.053426848385125986
4344000000.0 1.0135733705845977 0.03010259238727314
4347000000.0 1.028861255936691 -0.017784486587188064
4350000000.0 0.9927276641570726 -0.0358611507140619
4353000000.0 0.987432299742248 0.014462502427768475
4356000000.0 1.0211644103660595 -0.037610743176289735
4359000000.0 0.9521709393203556 -0.023898261029505236
4362000000.0 1.0220114727299257 -0.07587741745784057
4366000000.0 1.0250717621496073 -0.0695821170290104
4369000000.0 0.9698962530048603 -0.07475608611084227
4372000000.0 0.9883102237570545 -0.10434752080907507
4375000000.0 1.0026542213740355 -0.07844413966455846
4378000000.0 0.9848222243505084 -0.07951599168491531
4381000000.0 0.982354136316931 -0.09093508561193561
4384000000.0 1.057622458841871 -0.11555091303186711
4388000000.0 0.9910806270850656 -0.1135301154342041
4391000000.0 1.0149671803376432 -0.13073350914563764
4394000000.0 0.9725069663405064 -0.1414562136584017
4397000000.0 0.9956936493894972 -0.1394463879092738
4400000000.0 1.015100071789017 -0.1737266811732664
4403000000.0 1.0021769972984815 -0.15787476502621983
4406000000.0 1.0072583688179966 -0.19740565489697764
4409000000.0 1.019637435190829 -0.19557128625964104
4412000000.0 0.9784969152939207 -0.23528504496748529
4416000000.0 0.9759979486898631 -0.21606979819419592
4419000000.0 0.9895068327431674 -0.22837884475944992
4422000000.0 0.9824358758491951 -0.19536547397170798
4425000000.0 1.0078130950008188 -0.21230101289668996
4428000000.0 0.9689672226058079 -0.2355849787614292
4431000000.0 1.0095961032252219 -0.23728252961821975
4434000000.0 0.9665017218600324 -0.24562031165321072
4438000000.0 1.0024351966486968 -0.2558857593354244
4441000000.0 1.0017190087258185 -0.2645838690785647
4444000000.0 0.9473266621630327 -0.2677534660191426
4447000000.0 0.9462470922141469 -0.2982275104261897
4450000000.0 0.9552823415810188 -0.2816682214488588
4453000000.0 0.992392013091105 -0.3264283595557852
4456000000.0 0.932799110855456 -0.30995907205759343
4459000000.0 0.907648908374524 -0.3166934630266516
4462000000.0 1.004137901413329 -0.3384123716396239
4466000000.0 0.9915874161905617 -0.3747555934159632
4469000000.0 0.9618647381513601 -0.31823769179793887
4472000000.0 0.9672030675576146 -0.3742471961135912
4475000000.0 0.913067193592598 -0.337962429404887
4478000000.0 0.9758603107167906 -0.39023346421483107
4481000000.0 0.9130541740647611 -0.396316425159451
4484000000.0 0.9060421166826784 -0.4222685307701842
4488000000.0 0.9043478508404131 -0.3955634642593271
4491000000.0 0.919861339784714 -0.4069460025719079
4494000000.0 0.9231118076503997 -0.400498716490168
4497000000.0 0.9147376094409387 -0.3917236492050862
4500000000.0 0.9147566481947818 -0.4212839765708079
4503000000.0 0.9248349262040578 -0.42392018208073046
4506000000.0 0.8965297569500688 -0.4407515842174199
4509000000.0 0.8836600859223362 -0.4468733400327961
4512000000.0 0.8599700166260195 -0.45890329891611625
4516000000.0 0.9238135655893411 -0.46627544223160977
4519000000.0 0.8816961993699771 -0.44582675251851867
4522000000.0 0.8743560949431266 -0.4930376358082264
4525000000.0 0.8861834545105611 -0.43929480642782004
4528000000.0 0.8948134976209103 -0.506224465850381
4531000000.0 0.872647597446644 -0.483945045744161
4534000000.0 0.8415148950486917 -0.5004493606095336
4538000000.0 0.856443042996254 -0.5199246593709355
4541000000.0 0.8219761672811714 -0.5515565314201998
4544000000.0 0.8352317998667942 -0.5194920365681355
4547000000.0 0.8428789974812585 -0.5112652778882987
4550000000.0 0.8320634177724799 -0.573442342346916
4553000000.0 0.844842494754825 -0.5614197868048179
4556000000.0 0.8008793742204681 -0.559245472669844
4559000000.0 0.8265287563103927 -0.5876667095252583
4562000000.0 0.8331842479456626 -0.5798362759856891
4566000000.0 0.8302384316540343 -0.5864638118892112
4569000000.0 0.8006095464253543 -0.5840354734582391
4572000000.0 0.8113453653472021 -0.5970671805399567
4575000000.0 0.7880026723165974 -0.6019682965817762
4578000000.0 0.837797449999653 -0.6165514488915809
4581000000.0 0.7791394700860246 -0.6155023040427764
4584000000.0 0.777415404053442 -0.6311479805873517
4588000000.0 0.7987122979631575 -0.6281994592387232
4591000000.0 0.7775785460453573 -0.6445797152762363
4594000000.0 0.7545444620127935 -0.661595099924405
4597000000.0 0.7666151086603485 -0.666924376023561
4600000000.0 0.7287800741523593 -0.6723982303987383
4603000000.0 0.749435662574552 -0.6719907215684052
4606000000.0 0.7585743324026909 -0.6806569517037204
4609000000.0 0.74361620563635 -0.6764291853900032
4612000000.0 0.752413160539833 -0.7019998407020441
4616000000.0 0.7120216918852669 -0.693093332342964
4619000000.0 0.7168091502096954 -0.6810156180942812
4622000000.0 0.7295442293182426 -0.7017144092600226
4625000000.0 0.6602010520843069 -0.6987863184260515
4628000000.0 0.6954104110712919 -0.7112165564437515
4631000000.0 0.6815274082290248 -0.7389663284105078
4634000000.0 0.6974751643185501 -0.7249769693533062
4638000000.0 0.697698825255881 -0.744765929928952
4641000000.0 0.6938206006990031 -0.7398716135487827
4644000000.0 0.6559521647659824 -0.7600208840030608
4647000000.0 0.6642215741556831 -0.7599256214627141
4650000000.0 0.6469103064992512 -0.7678677820679864
4653000000.0 0.6648932749718499 -0.760707930589318
4656000000.0 0.6326750836726898 -0.7846456211568069
4659000000.0 0.6395767123764929 -0.7818878004079328
4662000000.0 0.6214699103446769 -0.7925214578544452
4666000000.0 0.6161717697284332 -0.7989073552079297
4669000000.0 0.6222793120338654 -0.7751577512720086
4672000000.0 0.581744084801317 -0.816585751366412
4675000000.0 0.5875395423206884 -0.8191370644190363
4678000000.0 0.5841804365958974 -0.8003767540930807
4681000000.0 0.5733784499991574 -0.8354858352549259
4684000000.0 0.5640338963602722 -0.8293667654166093
4688000000.0 0.5512203790908362 -0.8327847651228056
4691000000.0 0.5840534253253425 -0.8359634357153336
4694000000.0 0.5433907441483812 -0.8307236894140522
4697000000.0 0.539333450725777 -0.8181422791223505
4700000000.0 0.5685291668212856 -0.8518135474958639
4703000000.0 0.5515136616072635 -0.8327312628420251
4706000000.0 0.5161607555021768 -0.8509382866080921
4709000000.0 0.5069466978174267 -0.8532567011357369
4712000000.0 0.5067570101046854 -0.8693080826125199
4716000000.0 0.49371541374371775 -0.900287736535788
4719000000.0 0.5237178800125599 -0.8911086529674846
4722000000.0 0.5186979256757125 -0.8683486372121594
4725000000.0 0.48900416026518134 -0.8707943622387478
4728000000.0 0.46895858898509885 -0.8837622056545384
4731000000.0 0.47685983295312806 -0.9425098787104147
4734000000.0 0.46174915381000425 -0.9173889601010377
4738000000.0 0.48143583319207184 -0.9269526076902024
4741000000.0 0.4414596720482522 -0.9326972652312713
4744000000.0 0.40597104047579863 -0.9083626323574189
4747000000.0 0.4703511727643203 -0.863757153219786
4750000000.0 0.4362167055566541 -0.9392035293888861
4753000000.0 0.41344334348655354 -0.9232283766881364
4756000000.0 0.38921283034007736 -0.9321794825204817
4759000000.0 0.40063096315641167 -0.925129071118721
4762000000.0 0.3573575367968335 -0.9567223154670199
4766000000.0 0.36732732102528454 -0.9613356356003361
4769000000.0 0.383745921408963 -0.9672790915923565
4772000000.0 0.38716690431776135 -0.9547496814771346
4775000000.0 0.3662290410957333 -1.0145807687149642
4778000000.0 0.36162531676371146 -0.9446507076215215
4781000000.0 0.39349944851471264 -0.9286020227896497
4784000000.0 0.3532334049122707 -0.9390672114647166
4788000000.0 0.31479785372835123 -0.9625691873228683
4791000000.0 0.31090185723141756 -0.9440815406201969
4794000000.0 0.33544099542230266 -0.9929016128329999
4797000000.0 0.306723424592147 -0.9776888625269485
4800000000.0 0.2825227726973498 -0.9658155443682546
4803000000.0 0.2420152472454784 -0.9491295882124615
4806000000.0 0.25368758686964393 -0.9647457633846208
4809000000.0 0.23908036126991922 -0.9806700238140557
4812000000.0 0.24334547652450528 -0.9739000882253495
4816000000.0 0.29026878342139906 -0.9765292137657098
4819000000.0 0.27124658327414103 -1.017109882220844
4822000000.0 0.27571116992521955 -0.9925940595659898
4825000000.0 0.2531621767319101 -1.0383449673086846
4828000000.0 0.22368451341205686 -0.9802018661709911
4831000000.0 0.17504551160812828 -1.036293534993234
4834000000.0 0.21977520641047954 -1.0023120195461048
4838000000.0 0.17816578851352785 -0.9955866349304917
4841000000.0 0.17064066717873255 -0.9795097614032301
4844000000.0 0.21138139735182657 -0.99517593487289
4847000000.0 0.20292057547983797 -0.9684724363781974
4850000000.0 0.145888336813927 -1.0171818792831366
4853000000.0 0.15251258105605386 -0.9761059139972739
4856000000.0 0.13242059923467242 -0.9984390549211272
4859000000.0 0.15745878165013577 -1.049019165043533
4862000000.0 0.16189823512601217 -0.9957498319391523
4866000000.0 0.09015388755120768 -1.0260752094219445
4869000000.0 0.09799217543633598 -1.015708885034193
4872000000.0 0.05722467520206339 -1.0452137521032265
4875000000.0 0.16376382206717602 -1.0548706774290404
4878000000.0 0.087992096256787 -1.015452391353735
4881000000.0 0.04921972314955938 -1.0885654180199007
4884000000.0 0.08991436323149568 -1.0352382405491152
4888000000.0 0.1231218111583488 -1.018531843993694
4891000000.0 0.08725413688461597 -1.0444899822767733
4894000000.0 0.03952786194353482 -1.0425097229068172
4897000000.0 0.0568137638664656 -1.0282506117308057
4900000000.0 0.04911017393153777 -1.0513797545431685
4903000000.0 0.060697812957456534 -1.0500971132382058
4906000000.0 0.02016855646823581 -1.037228442958772
4909000000.0 0.004492412140578932 -1.0446015814213498
4912000000.0 -0.02504745532857882 -1.0806640651343524
4916000000.0 0.01513164140180491 -1.0663082595775852
4919000000.0 -0.0039969535707771175 -1.0457094610189506
4922000000.0 -0.022151005728015025 -1.0651293808482236
4925000000.0 -0.07782185917656861 -1.011981617376442
4928000000.0 0.027621939169987092 -1.0092248813972668
4931000000.0 -0.015656575044480786 -1.0328641274124333
4934000000.0 -0.05999185891205601 -0.9902030305231417
4938000000.0 -0.09564962559228575 -1.0229166460002501
4941000000.0 -0.0348154705627554 -1.013540919932431
4944000000.0 -0.015225563839734252 -0.9644420677927945
4947000000.0 -0.09754381925083805 -0.971024128543229
4950000000.0 -0.09567163010297776 -0.9960997224188913
4953000000.0 -0.11633709270094089 -1.0356128092843324
4956000000.0 -0.15503021759230873 -1.018618445612861
4959000000.0 -0.1715935525990295 -0.9895011677922444
4962000000.0 -0.11224050208988737 -1.037131752125727
4966000000.0 -0.15679839881391344 -1.0410996214941288
4969000000.0 -0.15678134344048877 -1.0644180780695154
4972000000.0 -0.16402137557134114 -1.0292182256514433
4975000000.0 -0.12995958595152166 -1.018527890929944
4978000000.0 -0.15413792846962004 -1.0042610933673142
4981000000.0 -0.18507513071090667 -1.0299989334145998
4984000000.0 -0.17392487052226283 -1.0070969985537128
4988000000.0 -0.16721030287530042 -0.9980385981244588
4991000000.0 -0.16844579743273896 -1.0108599906616011
4994000000.0 -0.19102141190127603 -0.9804420510444668
4997000000.0 -0.263934930835056 -1.0229827506956162
5000000000.0 -0.21540767619907414 -1.0455593388144355
5003000000.0 -0.24079507137187728 -1.0439160608369096
5006000000.0 -0.26300610174182226 -1.0642710880344888
5009000000.0 -0.2329797512416952 -1.0008652263612035
5012000000.0 -0.25452419552701583 -0.9921575995602048
5016000000.0 -0.23048699520812937 -1.0052137077773162
5019000000.0 -0.2648929872548575 -0.9948600569325055
5022000000.0 -0.26135516320799357 -0.9780361063325846
5025000000.0 -0.3126050885303077 -1.0488906313857647
5028000000.0 -0.32410021423723745 -0.9835262298876433
5031000000.0 -0.31303010353135785 -0.9878925147230381
5034000000.0 -0.34124467528265434 -0.9936806072420201
5038000000.0 -0.3507021882450718 -0.922412393348327
5041000000.0 -0.2758031560340125 -0.9746538912426054
5044000000.0 -0.2881317945800307 -0.9984561360679821
5047000000.0 -0.31353351031714843 -1.0111232996551078
5050000000.0 -0.2963214267648264 -0.9639241985519122
5053000000.0 -0.3898850366460065 -1.005595081022367
5056000000.0 -0.3319542859691066 -0.9440164201321317
5059000000.0 -0.32166255488494794 -0.9884017670982547
5062000000.0 -0.4134341021596831 -0.9574317463978723
5066000000.0 -0.373530558498685 -0.9596269489909368
5069000000.0 -0.39390812581556434 -0.9671504170970596
5072000000.0 -0.35897507806706 -0.9074487521484329
5075000000.0 -0.39674699397654134 -0.9109035713658193
5078000000.0 -0.44375019353871764 -0.9231161764157678
5081000000.0 -0.4264266017783623 -0.8789591375226834
5084000000.0 -0.4294355541070072 -0.9842628763296788
5088000000.0 -0.40929107339285914 -0.9318631313417316
5091000000.0 -0.4970771121359853 -0.8971907121475573
5094000000.0 -0.48221941103727933 -0.9242229858238843
5097000000.0 -0.43184392269435745 -0.9670742891968462
5100000000.0 -0.48377118426052784 -0.9307620045224515
5103000000.0 -0.5132596080660922 -0.909942013980923
5106000000.0 -0.4887820215808097 -0.9498793177512419
5109000000.0 -0.486466459298323 -0.9459258872744845
5112000000.0 -0.5182627217016 -0.8881472015971377
5116000000.0 -0.45689606175063435 -0.8725107881853018
5119000000.0 -0.5244206965949068 -0.9256159819104879
5122000000.0 -0.4486131096568387 -0.8612085161386449
5125000000.0 -0.48814338393300666 -0.9073648868108422
5128000000.0 -0.5354669909965464 -0.8367120544723434
5131000000.0 -0.521941181748357 -0.856315153519304
5134000000.0 -0.5660995631478996 -0.8800722901466065
5138000000.0 -0.5354180284718397 -0.9174084547700712
5141000000.0 -0.474897937927276 -0.9006441244564201
5144000000.0 -0.5522539292870167 -0.8675798357385586
5147000000.0 -0.6080268041557295 -0.8860471821098108
5150000000.0 -0.5425469376835677 -0.9204824935772865
5153000000.0 -0.5905528582312694 -0.8577695564242409
5156000000.0 -0.6158301742575918 -0.8904878247070999
5159000000.0 -0.6429015362171521 -0.8813853600635121
5162000000.0 -0.6014653944632963 -0.8360829330119004
5166000000.0 -0.6297706959702677 -0.8312866637335707
5169000000.0 -0.6294318410714809 -0.854908004902687
5172000000.0 -0.570455240362976 -0.8569413689687178
5175000000.0 -0.6329793211627345 -0.8473010675673637
5178000000.0 -0.6503408457982875 -0.812356000179577
5181000000.0 -0.6554902462740485 -0.8583438576222228
5184000000.0 -0.6551658191360206 -0.784618728063288
5188000000.0 -0.6428072437123881 -0.8196882088845585
5191000000.0 -0.6681972191582698 -0.8078267669024332
