! Created with skrf 1.8.0 (http://scikit-rf.org).
# Hz S RI R 50.0 
!freq ReS11 ImS11
4000000000.0 0.6418630570033573 0.7997092657548781
4003000000.0 0.7138919792727493 0.846110856104184
4006000000.0 0.7288844174138177 0.7897072121094032
4009000000.0 0.6887292751651851 0.7773704505090342
4012000000.0 0.6868953955047836 0.8297929388235714
4016000000.0 0.721540368560533 0.7302909723500535
4019000000.0 0.7106855521632913 0.7676695819335866
4022000000.0 0.6471287261141935 0.7954732747089668
4025000000.0 0.7967872820147419 0.7484520180860869
4028000000.0 0.724712130874468 0.7243749289820309
4031000000.0 0.6911661401120411 0.6657028953423249
4034000000.0 0.7852056854020233 0.7085607399908856
4038000000.0 0.7938608388685399 0.7029050567414223
4041000000.0 0.7383364666511696 0.7039277507879768
4044000000.0 0.769426980667204 0.7429928538182108
4047000000.0 0.8062980990642642 0.7190996201646161
4050000000.0 0.7861629795473408 0.7056280076871386
4053000000.0 0.7728061678716486 0.6811653914058058
4056000000.0 0.7744895977238999 0.6317497248758158
4059000000.0 0.7522856020773517 0.6660549348255589
4062000000.0 0.8131086493697356 0.6551847469549552
4066000000.0 0.7822584143899016 0.6330506757867295
4069000000.0 0.8876835606051696 0.6314628388502505
4072000000.0 0.8032466605538563 0.6540361288166083
4075000000.0 0.8369992342696694 0.7196112086967286
4078000000.0 0.8466461416745142 0.6175859885537348
4081000000.0 0.8097091650238202 0.6549625807985064
4084000000.0 0.8337787215656531 0.5761720291937735
4088000000.0 0.8233867028551181 0.6435462848978372
4091000000.0 0.9214084754449704 0.6086747142120794
4094000000.0 0.8817218059077171 0.5926535261340404
4097000000.0 0.8490896277330297 0.5493373727233293
4100000000.0 0.8456952807226319 0.5587648342300031
4103000000.0 0.867650766029177 0.594085974247109
4106000000.0 0.9208839433913861 0.5636490238698851
4109000000.0 0.9041472945042293 0.5559798949927031
4112000000.0 0.8610418272235769 0.5321208203906345
4116000000.0 0.8791484896722808 0.5338670455936271
4119000000.0 0.9012056230081921 0.5388447744145448
4122000000.0 0.9407106631671085 0.5200042402753914
4125000000.0 0.9112306430898107 0.5182270656930552
4128000000.0 0.8732341257941719 0.5299707083575587
4131000000.0 0.8780145146496436 0.5002245698948479
4134000000.0 0.91526926971077 0.5139814951192359
4138000000.0 0.8872698487277995 0.4399530026860919
4141000000.0 0.9073382582407471 0.4831718427620787
4144000000.0 0.9127899834337188 0.4864785164095106
4147000000.0 0.918911941069199 0.4465728151244706
4150000000.0 0.9589741181268305 0.4612416483746609
4153000000.0 0.9395216089359236 0.44636088493516857
4156000000.0 0.9492938620445157 0.4555731230972512
4159000000.0 0.9102134050029227 0.41895900664883806
4162000000.0 0.9265689398442085 0.4252536976310951
4166000000.0 0.9696677638860038 0.42712825806756116
4169000000.0 0.9234366453878223 0.3650154724384611
4172000000.0 0.9391010386359178 0.40602274718179315
4175000000.0 0.9446068475160376 0.3893402604080916
4178000000.0 0.9550834257855196 0.38056193433812757
4181000000.0 0.9660388738551118 0.3724950827616973
4184000000.0 0.9551415924196727 0.3675337601335476
4188000000.0 0.9430945434156217 0.3613274400024924
4191000000.0 0.9573344082941694 0.3678304798423003
4194000000.0 0.9684495361297651 0.3310665724390979
4197000000.0 0.9739362421696682 0.3450163549420073
4200000000.0 0.9871819139836366 0.33094129364161573
4203000000.0 0.985225786384144 0.3429800859589859
4206000000.0 0.9758108019733491 0.3055249824816037
4209000000.0 0.9733295531856891 0.3110777363633293
4212000000.0 0.9820506537720424 0.26301960034180727
4216000000.0 0.9904738647765347 0.3073820994239766
4219000000.0 0.99214701102429 0.2843616229483623
4222000000.0 0.9805290040962775 0.27177631105118677
4225000000.0 0.9690075728292953 0.25899604965186407
4228000000.0 0.9942299469627436 0.26525890791447027
4231000000.0 0.9815065629979289 0.22467656902310107
4234000000.0 1.0121092082139127 0.23024117950971862
4238000000.0 1.0076495434512265 0.20867146377063114
4241000000.0 0.9892892850514432 0.21613603332536596
4244000000.0 0.9893143334636378 0.20307878293858278
4247000000.0 0.9795835030873039 0.19730015211525131
4250000000.0 0.9914998742967926 0.18437734796067773
4253000000.0 0.975394629889315 0.17796734099219147
4256000000.0 1.0253754565148359 0.17150046998586888
4259000000.0 0.9742109237264545 0.16261382128799404
4262000000.0 1.0119852227264936 0.14184510838888623
4266000000.0 1.0230166107212693 0.13340954286682521
4269000000.0 1.0267700643145292 0.1459905382987109
4272000000.0 1.0070475619509693 0.12143416826017414
4275000000.0 1.0238272869692975 0.11581491595197091
4278000000.0 1.0359958545172512 0.12246014024589999
4281000000.0 1.0120322175594108 0.1165109179444457
4284000000.0 1.0279483861302365 0.06167663619517022
4288000000.0 1.0071328275462939 0.11765216885609048
4291000000.0 0.9799019751382165 0.065516384668503
4294000000.0 1.0135507459396507 0.0710534607236107
4297000000.0 1.0260681615597322 0.08710310733293057
4300000000.0 1.014793056023397 0.04756657029864842
4303000000.0 1.014012112416351 0.0357007452714659
4306000000.0 1.0118564838327124 0.06034458963343259
4309000000.0 1.0175422486367607 0.03375103397760644
4312000000.0 1.0316786573264018 0.06256333187364091
4316000000.0 1.0404222431093686 0.03714254587434487
4319000000.0 1.028451291844765 0.018853687736520283
4322000000.0 0.9935701791425389 -0.0432066912466465
4325000000.0 1.0243361375099467 -0.02748382123198609
4328000000.0 0.9986368964755318 -0.0575261755115089
4331000000.0 0.9973659020842007 -0.07057538069760386
4334000000.0 1.0306423745939333 -0.03161443740435345
4338000000.0 0.9959162867451122 -0.04682034677809613
4341000000.0 1.0421125381496015 -0.035198331713952355
4344000000.0 1.0233866819102881 -0.05486440901732631
4347000000.0 1.008719132177464 -0.08707789891810168
4350000000.0 0.9786792483471801 -0.09467031689419916
4353000000.0 0.9878319899043615 -0.0767628065004528
4356000000.0 0.9881926875691863 -0.12370040445555983
4359000000.0 0.97941731491576 -0.10458273483502659
4362000000.0 1.0080180103533964 -0.16210832087068894
4366000000.0 1.0319450044603027 -0.14282068341889478
4369000000.0 0.9489595565278753 -0.1418039612668507
4372000000.0 0.9829186960100369 -0.1789959017298815
4375000000.0 1.0008616846411018 -0.14038904122375664
4378000000.0 0.9704107502518449 -0.17105080704455805
4381000000.0 0.9958272783307469 -0.17106984840292985
4384000000.0 1.0621671437252722 -0.2150739798947067
4388000000.0 0.9870524533416151 -0.18185477981500106
4391000000.0 1.0032516811610048 -0.20085967129225277
4394000000.0 0.9631852432646953 -0.2100362949913986
4397000000.0 0.9795031571233566 -0.22699977790985296
4400000000.0 1.01574507423697 -0.24902865794115323
4403000000.0 0.9971512282679255 -0.24969485329036634
4406000000.0 0.9723050068612867 -0.2659176612448512
4409000000.0 1.0037957469969234 -0.2594527117607395
4412000000.0 0.953153018789027 -0.3284128050402382
4416000000.0 0.9578907715625973 -0.26849949412084007
4419000000.0 0.9650935771770465 -0.2994551566211342
4422000000.0 0.9695409444114094 -0.2748078831400937
4425000000.0 0.9938796928634804 -0.28173829864626876
4428000000.0 0.9648030592923965 -0.3057263887200968
4431000000.0 0.9900119630932351 -0.31888931633462025
4434000000.0 0.9441891519321557 -0.3195855744609338
4438000000.0 0.9836509053657994 -0.33821545512852563
4441000000.0 0.9556426376924849 -0.3474213697172337
4444000000.0 0.9369564362560774 -0.3472602989722142
4447000000.0 0.9351940217340808 -0.3716099123727819
4450000000.0 0.9305482486657164 -0.35012198145045725
4453000000.0 0.9693335109891787 -0.38794401062131356
4456000000.0 0.9197883010948099 -0.39503846871041304
4459000000.0 0.8824267763668989 -0.39244688774546
4462000000.0 0.9933295043063188 -0.41725080366740697
4466000000.0 0.9533198187008058 -0.4413164744280872
4469000000.0 0.9287944093574971 -0.3875924817250849
4472000000.0 0.9381221898411332 -0.4613325494951218
4475000000.0 0.8997782735296317 -0.42593185212573226
4478000000.0 0.9455922030924466 -0.4691774361840969
4481000000.0 0.8838173249417323 -0.44739747356167553
4484000000.0 0.8751389410536174 -0.4962752406136941
4488000000.0 0.8774021586411964 -0.4716654423337707
4491000000.0 0.8974822260242888 -0.4991302601734052
4494000000.0 0.8663804607868013 -0.46192685583630794
4497000000.0 0.8929117247404814 -0.47896557220253533
4500000000.0 0.9051663564731298 -0.4867400523074863
4503000000.0 0.8955302341971756 -0.5208825050468152
4506000000.0 0.8532324777587439 -0.5177321980679908
4509000000.0 0.8340435580808951 -0.5099151452279985
4512000000.0 0.8593512570136528 -0.534292141395421
4516000000.0 0.8815671441837791 -0.5384863115546258
4519000000.0 0.8483898288434062 -0.5315491363470173
4522000000.0 0.8397181797066369 -0.5597309212350939
4525000000.0 0.8689931075043624 -0.5331167677784966
4528000000.0 0.8627536256240624 -0.5747925771533556
4531000000.0 0.8247150804867092 -0.5706265554949003
4534000000.0 0.7982692742275826 -0.5593397338864001
4538000000.0 0.8059159673127372 -0.5994870315490044
4541000000.0 0.7840324618777577 -0.6290882871297379
4544000000.0 0.810585028122752 -0.6115798538010496
4547000000.0 0.8097924575831988 -0.5899530772418529
4550000000.0 0.8029421154136023 -0.6457975590355526
4553000000.0 0.7821787250737116 -0.6214620147100935
4556000000.0 0.7613952833552646 -0.6447578924890782
4559000000.0 0.7738736081641381 -0.6580418118532962
4562000000.0 0.791251665519263 -0.6693312248549254
4566000000.0 0.7716511341889543 -0.6800724636577875
4569000000.0 0.7453393369317082 -0.6508152038977935
4572000000.0 0.7556982431400416 -0.6670266444477816
4575000000.0 0.7388068697893257 -0.6930538602064092
4578000000.0 0.7648535156844514 -0.682239872425937
4581000000.0 0.7288246509699094 -0.688055876316972
4584000000.0 0.7256373381837906 -0.6927148108037041
4588000000.0 0.7340137631897518 -0.6974745368079324
4591000000.0 0.7368708734384554 -0.7175398841495364
4594000000.0 0.7007883481386274 -0.7387534065979361
4597000000.0 0.7070630102735089 -0.7373650759321261
4600000000.0 0.6816732378114012 -0.7453872090497616
4603000000.0 0.6864150698234133 -0.7328503597825655
4606000000.0 0.6902268246225342 -0.7568803091913544
4609000000.0 0.6778620007563528 -0.7509894642572387
4612000000.0 0.6939949267600338 -0.7571631605096029
4616000000.0 0.6663904808849848 -0.7426298184216454
4619000000.0 0.6589553458578267 -0.7848069396654115
4622000000.0 0.6518813328014252 -0.7822071126464873
4625000000.0 0.6007585400352486 -0.7712549169546189
4628000000.0 0.6401089204811403 -0.764172041762453
4631000000.0 0.6179136507925376 -0.7862952287885097
4634000000.0 0.6222197557277422 -0.8047313720982402
4638000000.0 0.6132460403170571 -0.7971365037906192
4641000000.0 0.6254154331193315 -0.7953630528406491
4644000000.0 0.6042729554551954 -0.802195379817822
4647000000.0 0.610419754528459 -0.8266768330573699
4650000000.0 0.5689483981742846 -0.8113871388691534
4653000000.0 0.6037538018481892 -0.844696965563333
4656000000.0 0.555893385124135 -0.8520289636900842
4659000000.0 0.5522635615345608 -0.842952879543677
4662000000.0 0.5449603809632786 -0.8478334067436684
4666000000.0 0.5539747298063771 -0.8645370368102621
4669000000.0 0.5305616472306753 -0.8618898049514161
4672000000.0 0.5234778152660841 -0.870602528916581
4675000000.0 0.5263464447703363 -0.8832748353597389
4678000000.0 0.5107203900506778 -0.8435932935213566
4681000000.0 0.49808072779642193 -0.8820822502373952
4684000000.0 0.46969209799242245 -0.8987286712958232
4688000000.0 0.4710985428550531 -0.8897051673916623
4691000000.0 0.5187025176002065 -0.8648978201651354
4694000000.0 0.47216774207495216 -0.8813400601027457
4697000000.0 0.41054653207960035 -0.8822920266418881
4700000000.0 0.4572581419794437 -0.8987409010543768
4703000000.0 0.48103068006812694 -0.8744875307852598
4706000000.0 0.44270998085050217 -0.9224637686675975
4709000000.0 0.42122515834299595 -0.9153190463481626
4712000000.0 0.4522259131822709 -0.9203124880913346
4716000000.0 0.4256525263400217 -0.9326517041917464
4719000000.0 0.41886294230185905 -0.9240643790158447
4722000000.0 0.4089753582624709 -0.9384848214991568
4725000000.0 0.39854722025001676 -0.936379997753588
4728000000.0 0.3846143858016297 -0.9658683142376701
4731000000.0 0.38948533410952624 -0.9802770865907224
4734000000.0 0.3851092728108486 -0.940207698060844
4738000000.0 0.3973225405269408 -0.9654267165474664
4741000000.0 0.381587759289718 -0.9683086533015448
4744000000.0 0.34914361671255967 -0.9750443039859336
4747000000.0 0.37564737070201015 -0.9167381300025965
4750000000.0 0.33461847309404197 -0.9740486594675656
4753000000.0 0.3302855583963402 -0.9983041105447552
4756000000.0 0.30437112995651755 -0.9622539905804242
4759000000.0 0.3408261644924174 -0.9780306814446861
4762000000.0 0.26167295714989347 -0.9876953134631637
4766000000.0 0.2847735007276222 -0.9876634712771858
4769000000.0 0.3072084970734084 -1.0015628244711445
4772000000.0 0.27296204739251473 -1.018851192590929
4775000000.0 0.250154868142146 -1.0349821464204076
4778000000.0 0.2448677237639432 -0.986088336859048
4781000000.0 0.29614681842884516 -0.9883858756628523
4784000000.0 0.27640350973079103 -0.9978447818053423
4788000000.0 0.21278370623744228 -1.016278896158248
4791000000.0 0.2150050109476588 -1.0035980034753016
4794000000.0 0.25383744695324506 -1.0115529722433994
4797000000.0 0.1920213440117124 -0.9781060183292912
4800000000.0 0.17237915461840025 -0.98902479136372
4803000000.0 0.1517394147095393 -1.0286024667200016
4806000000.0 0.17609651369973164 -1.0473914829567952
4809000000.0 0.099509650568604 -0.9992414963707966
4812000000.0 0.12616666604157392 -0.998974726039892
4816000000.0 0.18465699600773536 -1.014023141019116
4819000000.0 0.15686689400451825 -1.0295891680347884
4822000000.0 0.15747510367859602 -1.0353042647890058
4825000000.0 0.17324995103218016 -1.0564919963117156
4828000000.0 0.11218955696349803 -1.0021084553588513
4831000000.0 0.07120648348940002 -1.0424466924481592
4834000000.0 0.13441855932962038 -1.0269447696301193
4838000000.0 0.06899525857804709 -1.0709080275502392
4841000000.0 0.06002863563389145 -1.0074232176214948
4844000000.0 0.11073249679774544 -1.0235482699157827
4847000000.0 0.0756530020815682 -1.000705611282293
4850000000.0 0.044531180597679326 -1.0367464523045073
4853000000.0 0.06401312255413294 -1.0210230124088295
4856000000.0 0.0447252242346933 -1.016436358937303
4859000000.0 0.021187990013705797 -1.0561515147855225
4862000000.0 0.037474019192449394 -1.0052476346566384
4866000000.0 0.009389774469231563 -1.0465233439212267
4869000000.0 -0.012098930787285442 -1.024181418507221
4872000000.0 -0.017861382578624158 -1.0509827462631893
4875000000.0 0.0383038433049117 -1.0865318962549046
4878000000.0 -0.022833098178659583 -1.0422138278594608
4881000000.0 -0.05926267605209326 -1.1003373918486772
4884000000.0 -0.017682954283015993 -1.0392035344289514
4888000000.0 -0.006763442757928992 -1.0233542243965494
4891000000.0 -0.022413837243845623 -1.039659241474315
4894000000.0 -0.08080194965513574 -1.0385961112204394
4897000000.0 -0.048453267157563554 -1.0108936045311991
4900000000.0 -0.07304015116449615 -1.0544450743132556
4903000000.0 -0.06277963628437513 -1.0598299452397322
4906000000.0 -0.11150589286466471 -1.082213106376523
4909000000.0 -0.10649735884712233 -1.0316270691547385
4912000000.0 -0.11481419092152885 -1.0739242578824069
4916000000.0 -0.1112892638967869 -1.0399834912932622
4919000000.0 -0.11078072292038334 -1.0767531218086073
4922000000.0 -0.08368701301007467 -1.0444414218980274
4925000000.0 -0.1653432412076816 -1.0177637980802716
4928000000.0 -0.13538190325412852 -1.014673229348914
4931000000.0 -0.15913810987644572 -1.0618205971996935
4934000000.0 -0.17848694747718358 -0.9884055884531717
4938000000.0 -0.22396403609276888 -0.9913297743992782
4941000000.0 -0.1807677992151328 -1.0039927569057798
4944000000.0 -0.1682028842321193 -0.9635624449384697
4947000000.0 -0.18517994305252802 -0.9917855344429047
4950000000.0 -0.22515215121282944 -1.0217174257805888
4953000000.0 -0.2597273981479454 -1.0490996872426068
4956000000.0 -0.28886520346453554 -0.9979690155450599
4959000000.0 -0.2957502475269337 -0.9580630536220837
4962000000.0 -0.27661068519537557 -1.0104905963724058
4966000000.0 -0.2511081581914242 -1.0329214952689616
4969000000.0 -0.24571369606269877 -1.0734016373252788
4972000000.0 -0.2885514480579848 -1.0148446466777339
4975000000.0 -0.24754198858690976 -0.9917096396877279
4978000000.0 -0.32733995984103326 -0.9710537334699415
4981000000.0 -0.3235898002896477 -0.9858484749262929
4984000000.0 -0.32701241010659543 -0.9766396949071917
4988000000.0 -0.28456324302779346 -0.9798263628597831
4991000000.0 -0.280339144033761 -1.035450388371652
4994000000.0 -0.30004366910373825 -0.9525803254196696
4997000000.0 -0.37795124535374175 -0.9760775121671527
5000000000.0 -0.35505406620665003 -1.0220410817630676
5003000000.0 -0.36555737665026605 -1.039434620059819
5006000000.0 -0.3794836423387803 -1.0381827587329293
5009000000.0 -0.3453810390549643 -0.9615662057605191
5012000000.0 -0.38380038126070076 -0.9628388467717865
5016000000.0 -0.3773098448748416 -1.0096978914635355
5019000000.0 -0.4156352233950341 -0.9615120461645641
5022000000.0 -0.4017608146952605 -0.9643808041507678
5025000000.0 -0.42277413821639026 -0.9903726596867279
5028000000.0 -0.438452168909355 -0.9263557526718645
5031000000.0 -0.46629452659209647 -0.9288375176383677
5034000000.0 -0.46129857025900456 -0.9693042854382699
5038000000.0 -0.44791406347053164 -0.9166997897221363
5041000000.0 -0.44925109646744366 -0.9612698910785403
5044000000.0 -0.41708356403631 -0.9300464474045428
5047000000.0 -0.45718321055919103 -0.9519650864440546
5050000000.0 -0.3984241855875028 -0.9207646355957222
5053000000.0 -0.4869681695316791 -0.979776685829949
5056000000.0 -0.4900043458340635 -0.9570748804496942
5059000000.0 -0.4616477664595207 -0.9728802445143264
5062000000.0 -0.5122635780233501 -0.9151770264336527
5066000000.0 -0.4752941488472956 -0.902408438987713
5069000000.0 -0.5265881091329936 -0.907630677800681
5072000000.0 -0.5166040427054553 -0.8892610351876256
5075000000.0 -0.4715429088690849 -0.9101660991654634
5078000000.0 -0.5735967605392194 -0.8791623125358077
5081000000.0 -0.5345078876193221 -0.8210380785729438
5084000000.0 -0.5449856411805092 -0.8900593541371964
5088000000.0 -0.5289391075706122 -0.8423366581570968
5091000000.0 -0.6148830473778819 -0.8394217760620089
5094000000.0 -0.5920227230404764 -0.8599748140649724
5097000000.0 -0.6002251829521111 -0.8888153965651453
5100000000.0 -0.5926407677575323 -0.8598936597955461
5103000000.0 -0.6245431392335838 -0.8549729821474167
5106000000.0 -0.642098724118231 -0.8957051962946656
5109000000.0 -0.558998690436145 -0.8687230944091904
5112000000.0 -0.6376214346997087 -0.8359113495583896
5116000000.0 -0.606916814206647 -0.822724842232415
5119000000.0 -0.6375634932685135 -0.8240667064408176
5122000000.0 -0.5963305735708571 -0.8076759249881755
5125000000.0 -0.6428741088378701 -0.8048740049710191
5128000000.0 -0.6849963610906455 -0.8377019333856717
5131000000.0 -0.696460994540562 -0.7782425541525958
5134000000.0 -0.637860005912238 -0.8077279407176818
5138000000.0 -0.6651854082389551 -0.777274163594147
5141000000.0 -0.6733278676596437 -0.8813037678535902
5144000000.0 -0.6287365211690613 -0.8152552705848787
5147000000.0 -0.6772005881913534 -0.8177042521643618
5150000000.0 -0.662389446087549 -0.8292452037429512
5153000000.0 -0.7043391862375477 -0.7906060126672679
5156000000.0 -0.6596377263054458 -0.7732549820948854
5159000000.0 -0.747884089362556 -0.8207547976752385
5162000000.0 -0.7075379648635861 -0.7388922541484922
5166000000.0 -0.7431932208424772 -0.7728448138441683
5169000000.0 -0.7384015823941602 -0.7488503755805719
5172000000.0 -0.7160311902848253 -0.7406686695813703
5175000000.0 -0.7591044191382433 -0.7938335203999622
5178000000.0 -0.7838573647540199 -0.761199066765574
5181000000.0 -0.7654543994327914 -0.7507062312973858
5184000000.0 -0.766090441759248 -0.729763172242655
5188000000.0 -0.7467850497687487 -0.7111682872012147
