! Created with skrf 1.8.0 (http://scikit-rf.org).
# Hz S RI R 50.0 
!freq ReS11 ImS11
4000000000.0 0.6090234563266544 0.8150318336301934
4003000000.0 0.7043119026696716 0.8121834032280035
4006000000.0 0.6866046220871747 0.7666390430242253
4009000000.0 0.6543191344034403 0.8427937029207908
4012000000.0 0.6518974955925209 0.8629804468551076
4016000000.0 0.7125069704437461 0.7889053024843407
4019000000.0 0.6755268972135815 0.7738270826176794
4022000000.0 0.6350065047155128 0.766024910120366
4025000000.0 0.7356142343450673 0.7522581820158771
4028000000.0 0.7124561277593466 0.7700239404503462
4031000000.0 0.6925245562234946 0.7527759970258215
4034000000.0 0.7312137520689934 0.7628154305497614
4038000000.0 0.7523238470430376 0.737018734767984
4041000000.0 0.7381029697650642 0.7557789831924885
4044000000.0 0.8008936867894405 0.7792922689352045
4047000000.0 0.7506594039540309 0.7840757306588394
4050000000.0 0.8012737067118837 0.7074304044612615
4053000000.0 0.7710305473460917 0.6939541360274915
4056000000.0 0.7384551582137177 0.7152147986311461
4059000000.0 0.7343455110911897 0.6821863219375446
4062000000.0 0.7657227786056371 0.6930643063851041
4066000000.0 0.7339597658217836 0.6093411080109572
4069000000.0 0.8142951353881008 0.6867516514008883
4072000000.0 0.7593621543380197 0.6868784271163477
4075000000.0 0.7850819995803491 0.7551553285368375
4078000000.0 0.7917827557960782 0.6715212188003208
4081000000.0 0.795753444288536 0.7416485760161375
4084000000.0 0.8089161925896803 0.6598068931806857
4088000000.0 0.7988349841613475 0.6896375099065452
4091000000.0 0.8843864687272699 0.7025686333922567
4094000000.0 0.7989359554447185 0.6662429584516509
4097000000.0 0.8191498178374516 0.6545201372984157
4100000000.0 0.8203790109748825 0.6328093172252387
4103000000.0 0.832601033276944 0.6543498414404552
4106000000.0 0.8810543938321042 0.5889680037254439
4109000000.0 0.851319466723538 0.6092900145204343
4112000000.0 0.8534252027608202 0.604504484739901
4116000000.0 0.8450834047567648 0.591665519409107
4119000000.0 0.8905638631462575 0.5925366141520255
4122000000.0 0.9000163779341022 0.5518911651629949
4125000000.0 0.8980700742155123 0.5601923781432414
4128000000.0 0.8235659479480029 0.5716158799370672
4131000000.0 0.8814741264238991 0.5533520099930476
4134000000.0 0.8798443849045414 0.5509145528694198
4138000000.0 0.8382834457106736 0.4976534581879602
4141000000.0 0.8848676126128998 0.49126151308704324
4144000000.0 0.8873802047322931 0.5523662803514056
4147000000.0 0.8828767896219133 0.4929124406681184
4150000000.0 0.900242592970878 0.519338613457875
4153000000.0 0.9291895628103621 0.5004095745656808
4156000000.0 0.9297416036513471 0.507686949779295
4159000000.0 0.8938092278069858 0.4804305069420309
4162000000.0 0.8805268543790075 0.5124314869351
4166000000.0 0.9297452622592606 0.46339985437357656
4169000000.0 0.9212023010590366 0.4324100999566316
4172000000.0 0.9162733553385616 0.4795041971610526
4175000000.0 0.9349960232188896 0.4629659111492494
4178000000.0 0.963863386494749 0.45601065467731694
4181000000.0 0.9407831740044781 0.4187258387670325
4184000000.0 0.9562055568821193 0.43274124370012507
4188000000.0 0.9418675480780374 0.39479933422672464
4191000000.0 0.885643052049736 0.45895933099558045
4194000000.0 0.9237164956029164 0.4038555155680129
4197000000.0 0.9575734277918512 0.39610519548646556
4200000000.0 0.9513256154964234 0.3806811307932719
4203000000.0 0.9443477663058504 0.37569185233709634
4206000000.0 0.9697968841501869 0.3734832112044845
4209000000.0 0.9371706814579344 0.39016857724892356
4212000000.0 0.9611988978309024 0.33666321456510906
4216000000.0 0.9661192450817081 0.352653143566993
4219000000.0 0.9747660310040102 0.3536104769674875
4222000000.0 0.9854842010313094 0.33655922305297353
4225000000.0 0.9518742471202057 0.3300877175314343
4228000000.0 0.9906948921088077 0.31946221354938487
4231000000.0 0.980380714342332 0.29315084481242637
4234000000.0 1.002705851912619 0.29560516306071866
4238000000.0 0.9766577805358209 0.27641553965066445
4241000000.0 0.9768348698771891 0.25493871475920626
4244000000.0 0.9866502640318405 0.27558259613915553
4247000000.0 0.9878838579154855 0.278415609207326
4250000000.0 0.9763043244060228 0.247327810669844
4253000000.0 0.9791819367239167 0.22375662595678314
4256000000.0 1.0150305843570715 0.24769308841650867
4259000000.0 0.9704741267188907 0.21734294966056047
4262000000.0 1.0070363409331893 0.2083449819960805
4266000000.0 1.010000860948992 0.18012375723922425
4269000000.0 0.9940510141337099 0.22820179198073734
4272000000.0 0.9905770061608571 0.17947970399242852
4275000000.0 1.007736557030456 0.1655090483624208
4278000000.0 1.022359854414559 0.1945877197629402
4281000000.0 1.0187656976678596 0.19010650540763496
4284000000.0 1.011690343725184 0.11943739559432581
4288000000.0 1.0194935377005323 0.18210585578582256
4291000000.0 1.0072638371782268 0.14188895398538703
4294000000.0 0.9968589246975434 0.13301223726886935
4297000000.0 0.9831220684912336 0.15940183205770153
4300000000.0 1.0062057731790317 0.1338118846018005
4303000000.0 0.962455523339518 0.09777442000261073
4306000000.0 1.00689952272131 0.11375750314308541
4309000000.0 1.0226450741112505 0.10924731396998798
4312000000.0 1.0191461006614317 0.12573975275728425
4316000000.0 1.0161395159496285 0.0943496340822673
4319000000.0 1.0042297661300037 0.09125371526523483
4322000000.0 0.9897056721602374 0.02077149593410378
4325000000.0 1.0252482393626743 0.037137748181375455
4328000000.0 1.022121881139915 0.040954376949652385
4331000000.0 1.0056717542187843 -0.004480170093941721
4334000000.0 1.02481056929212 0.025037636809660008
4338000000.0 1.029634330873666 0.04824432370010946
4341000000.0 1.0570289361536687 0.04493943501892694
4344000000.0 1.0541559684588935 -0.008634955787936605
4347000000.0 1.0237035480986536 -0.024621718654912528
4350000000.0 0.9971197795276593 -0.052985347293718565
4353000000.0 0.9928131011476788 -0.03639375927012217
4356000000.0 1.021486397285761 -0.04041345182018882
4359000000.0 0.9781173242786576 -0.053941975256896355
4362000000.0 1.0272315347595762 -0.11151493869400293
4366000000.0 1.032618171742264 -0.06805598464775803
4369000000.0 0.9818367943021667 -0.06967472479403343
4372000000.0 1.0122802434683618 -0.12784051468137225
4375000000.0 0.9930691046081233 -0.06566177542562379
4378000000.0 0.9815977061659047 -0.06576255250616334
4381000000.0 1.0029435194161704 -0.10598116525455714
4384000000.0 1.0549048859249952 -0.10502816274023141
4388000000.0 0.9884000350677985 -0.13218408914234642
4391000000.0 1.0112190177558134 -0.12449894270927878
4394000000.0 0.9769409175156409 -0.14369676867160058
4397000000.0 1.003055823032608 -0.15612229627181096
4400000000.0 1.02827437518384 -0.16922456813585973
4403000000.0 1.0082470843738187 -0.16676174542364675
4406000000.0 0.9975221042854963 -0.19843576952706898
4409000000.0 1.029480858813497 -0.1939080444665306
4412000000.0 0.9708528895472541 -0.2489267846807872
4416000000.0 0.9798691524465668 -0.21707431342465416
4419000000.0 0.986554101889318 -0.2305911686209557
4422000000.0 0.9783320712853503 -0.19667195787653385
4425000000.0 1.0083540689611024 -0.21406267196767045
4428000000.0 0.9844445848037986 -0.23473115458957988
4431000000.0 1.0046481449318405 -0.23927036928283613
4434000000.0 0.9677846451139211 -0.26601018511545804
4438000000.0 1.0115482251446395 -0.2652478729250507
4441000000.0 0.9925592856804755 -0.2716111878318054
4444000000.0 0.957481747508268 -0.27260414995866356
4447000000.0 0.964899968533359 -0.30641331298552527
4450000000.0 0.9632411196176373 -0.28938718794527707
4453000000.0 0.9920170794203091 -0.3078132006426626
4456000000.0 0.9445201403562776 -0.30542660585643183
4459000000.0 0.9002894373895975 -0.3173254521430371
4462000000.0 1.0142588148870175 -0.3450719057850415
4466000000.0 1.0036747489986357 -0.3701319430503973
4469000000.0 0.957019832515814 -0.32572411461464357
4472000000.0 0.9568369489609779 -0.3820405811793486
4475000000.0 0.920259890774857 -0.3526786450047933
4478000000.0 0.9754829452752364 -0.40065253709867155
4481000000.0 0.8936573271256647 -0.38435529509964983
4484000000.0 0.9168394171395642 -0.4375399283781043
4488000000.0 0.9131811535932923 -0.3935328469238724
4491000000.0 0.9377078433607994 -0.42586867444933446
4494000000.0 0.9087322347029482 -0.4106043730774161
4497000000.0 0.9148330930879018 -0.40329825755442267
4500000000.0 0.9078316342597199 -0.43941812371608413
4503000000.0 0.940109362996606 -0.43205064404403376
4506000000.0 0.9050393985374576 -0.457167946775591
4509000000.0 0.8904761755637323 -0.413781566957545
4512000000.0 0.8739986530727515 -0.4728650680874267
4516000000.0 0.9075516625197215 -0.4808408574075335
4519000000.0 0.8742544886064276 -0.4590740587274674
4522000000.0 0.8840007348699321 -0.49368697638161496
4525000000.0 0.8737642297754595 -0.46469027175374567
4528000000.0 0.8831238939045389 -0.5147416159841218
4531000000.0 0.8838988578650766 -0.49860270646537397
4534000000.0 0.8598872619150218 -0.5053298109207335
4538000000.0 0.8675433827004491 -0.5049513024174032
4541000000.0 0.8336627311777515 -0.5473998805906132
4544000000.0 0.8384197963127824 -0.5302988348756102
4547000000.0 0.8494437517190337 -0.5395005852836607
4550000000.0 0.8513573577975708 -0.5637645573938443
4553000000.0 0.8565016004997708 -0.5732301720814021
4556000000.0 0.8031670958231409 -0.5647498956251449
4559000000.0 0.8311339749311398 -0.5979066532651387
4562000000.0 0.8445751844670129 -0.5813855850391694
4566000000.0 0.8308420686897628 -0.5934733193210422
4569000000.0 0.7934272805803044 -0.5771942473121503
4572000000.0 0.8156293610068484 -0.5940689617154467
4575000000.0 0.7947710143314675 -0.631033755847722
4578000000.0 0.8298721732003158 -0.6266524960344138
4581000000.0 0.7967689832616143 -0.6330014095902826
4584000000.0 0.8008181377707277 -0.6428001758032396
4588000000.0 0.8140888946010663 -0.6541220502835879
4591000000.0 0.7950428672746134 -0.6522538538260644
4594000000.0 0.7565310506851433 -0.6739747043149393
4597000000.0 0.775015436250045 -0.6820558782103061
4600000000.0 0.7202190689306228 -0.6727755665239474
4603000000.0 0.7507624825661682 -0.687750513058823
4606000000.0 0.7557566912147711 -0.6837136210310424
4609000000.0 0.754910302212283 -0.6746659998897834
4612000000.0 0.737407142797632 -0.6858435519614423
4616000000.0 0.7123730001261732 -0.6946543924339414
4619000000.0 0.7372647052589134 -0.7101636867077175
4622000000.0 0.7091179212330061 -0.7128869296231473
4625000000.0 0.6887883008756263 -0.7289916473196079
4628000000.0 0.7059142860483074 -0.7093331854166907
4631000000.0 0.6931907802908825 -0.7263897960833037
4634000000.0 0.67589052610994 -0.7242281398085738
4638000000.0 0.6877563260093047 -0.7388241638388966
4641000000.0 0.6938033272959239 -0.733388021105851
4644000000.0 0.6754730858908405 -0.7583839238853138
4647000000.0 0.6678436088688977 -0.7687252472196135
4650000000.0 0.647839550384195 -0.7794938072993662
4653000000.0 0.642065532234776 -0.7836452570500075
4656000000.0 0.6377313861932572 -0.7949792047984579
4659000000.0 0.6398167667356495 -0.7965712462842116
4662000000.0 0.6075598777892385 -0.8043116290823475
4666000000.0 0.6138653082837036 -0.8122514113830915
4669000000.0 0.6315253063231159 -0.8100404889039436
4672000000.0 0.6049812082589823 -0.8337274597721698
4675000000.0 0.5886732105857904 -0.839185335568922
4678000000.0 0.5922467067244753 -0.8322050058422191
4681000000.0 0.5680262916208776 -0.8615271598330543
4684000000.0 0.5658312189606437 -0.8517405916034341
4688000000.0 0.5613529571457107 -0.847254586190143
4691000000.0 0.5942920741778658 -0.8235116503189832
4694000000.0 0.5470016537343342 -0.8377219017269404
4697000000.0 0.5021706113997808 -0.8246174145363501
4700000000.0 0.5602535486407312 -0.8534043004653331
4703000000.0 0.5501653407599876 -0.8268178276344909
4706000000.0 0.5307374525542281 -0.8825981784796865
4709000000.0 0.4995564433698005 -0.8748587398178912
4712000000.0 0.5347315602458441 -0.8750823003620866
4716000000.0 0.49004834715634293 -0.8960063585255169
4719000000.0 0.5209016504372049 -0.8994148951099188
4722000000.0 0.540991538186977 -0.8871977938668021
4725000000.0 0.4919622886215802 -0.8878461740711178
4728000000.0 0.43308136628505844 -0.886901609811187
4731000000.0 0.4880643914942443 -0.9213905123192447
4734000000.0 0.4792905303747378 -0.8886108878577383
4738000000.0 0.4708326336684755 -0.928233215181001
4741000000.0 0.44387699196274577 -0.9315138278666493
4744000000.0 0.4183152169892344 -0.9238071691797911
4747000000.0 0.4245837083390472 -0.8935184461872039
4750000000.0 0.4116230556801629 -0.9280660367138557
4753000000.0 0.4229257917790662 -0.9360190503216524
4756000000.0 0.4189402914735704 -0.9348536806467891
4759000000.0 0.4200379322260994 -0.949880545930657
4762000000.0 0.3824276627495752 -0.9661645367892626
4766000000.0 0.37207437934451115 -0.9454315107021978
4769000000.0 0.37045308354349626 -0.9498556464829985
4772000000.0 0.37420815065786206 -0.9718052043828224
4775000000.0 0.3766117006288834 -0.9721459464324771
4778000000.0 0.33926768146084957 -0.9576784906134982
4781000000.0 0.3596876375856774 -0.9670613577013956
4784000000.0 0.3440101638049573 -0.9727279179292668
4788000000.0 0.3433591473504359 -0.9913026623662378
4791000000.0 0.3346526682726725 -0.9800902972650528
4794000000.0 0.3435281540549051 -1.0249483625926699
4797000000.0 0.29579451972783966 -0.9823728464660896
4800000000.0 0.2875926085700847 -0.9838243831096187
4803000000.0 0.26152191192182284 -0.9783868174900043
4806000000.0 0.30145781830106894 -0.9860635344421087
4809000000.0 0.2471256997795438 -0.9886099744457754
4812000000.0 0.24382629678515777 -1.0199843820591696
4816000000.0 0.26459592392434916 -0.9644275281709616
4819000000.0 0.27089307586165223 -1.0288105346263121
4822000000.0 0.24340514956694598 -1.032296017713021
4825000000.0 0.255657294200601 -1.0282856947361096
4828000000.0 0.2248470810342077 -0.988412607411873
4831000000.0 0.1638460763645729 -1.0238581035380223
4834000000.0 0.21983234979593658 -0.9955225947045905
4838000000.0 0.18886064122685078 -1.0341598127170157
4841000000.0 0.17513331870525495 -0.9815379765279691
4844000000.0 0.22396427452615425 -1.0185769620540408
4847000000.0 0.19366755592209065 -0.9724164725749529
4850000000.0 0.15433224988139663 -1.0391955635190264
4853000000.0 0.16171791637052843 -0.9771231868072732
4856000000.0 0.1472755535537106 -0.9940882911525569
4859000000.0 0.12790945039008736 -1.059528398798093
4862000000.0 0.14302430885314402 -1.002979808591182
4866000000.0 0.10403232370752835 -1.041554050798462
4869000000.0 0.11407366096052565 -1.029481357709987
4872000000.0 0.07771211827726882 -1.0685440739000516
4875000000.0 0.14527445096262293 -1.0788645494490452
4878000000.0 0.08386431847766747 -1.0359793312445615
4881000000.0 0.0659897949502166 -1.1038459684991146
4884000000.0 0.0899843564344885 -1.0563203370544296
4888000000.0 0.10112181004849696 -1.0351434107256325
4891000000.0 0.08891456643689578 -1.054893220798734
4894000000.0 0.02647369542067207 -1.0100477655272808
4897000000.0 0.06653841579463678 -1.0508879488266833
4900000000.0 -6.961332513980012e-05 -1.041823715373742
4903000000.0 0.05092722525330363 -1.051942049646803
4906000000.0 0.004934703226783242 -1.058150955447594
4909000000.0 -0.03767276091739598 -1.0606860677398118
4912000000.0 -0.004601537414581615 -1.075646436700785
4916000000.0 0.012827449557954465 -1.0577674157219212
4919000000.0 -0.0007745174431799326 -1.0772327574401674
4922000000.0 -0.0006923346525411211 -1.0340448592164593
4925000000.0 -0.046771140302415165 -1.0176334972245167
4928000000.0 0.015240761792834193 -1.0094859997460655
4931000000.0 -0.019971767623447795 -1.0724553255377902
4934000000.0 -0.0683895957968617 -1.016623294089798
4938000000.0 -0.12126062940477549 -1.033836491525154
4941000000.0 -0.07458241494032224 -1.0137483768705209
4944000000.0 -0.04944395183666242 -0.9570847323816936
4947000000.0 -0.08279984927869075 -0.990000960683679
4950000000.0 -0.10231961712135636 -1.0022270656310839
4953000000.0 -0.15798390990305877 -1.0655728309188723
4956000000.0 -0.17158752175519842 -1.023356326495045
4959000000.0 -0.16545069427524964 -1.0117660992167148
4962000000.0 -0.129606118396716 -1.067593537986349
4966000000.0 -0.11786351633720055 -1.0890659485789298
4969000000.0 -0.1311452478391062 -1.0853839387411217
4972000000.0 -0.18194718986342348 -1.0337336688275252
4975000000.0 -0.1445484932426324 -1.0173995133448732
4978000000.0 -0.1652971367042792 -1.028393074289678
4981000000.0 -0.20166952174919442 -1.0128320823363766
4984000000.0 -0.1631634068869788 -1.014713578434241
4988000000.0 -0.16899087824408332 -1.0190500139814243
4991000000.0 -0.17772691205044766 -1.0434824685025743
4994000000.0 -0.21015751571617863 -1.0119872419120102
4997000000.0 -0.2522751349980629 -0.9907201299014661
5000000000.0 -0.23782142760721098 -1.0625300447166934
5003000000.0 -0.24072421076111805 -1.044240083012916
5006000000.0 -0.27844981944469827 -1.0620511328060556
5009000000.0 -0.25254514729053457 -1.0003260448260778
5012000000.0 -0.32208780306800827 -1.0040628186549867
5016000000.0 -0.2570713671038429 -1.0622042425494964
5019000000.0 -0.2776572356654345 -0.987572590099576
5022000000.0 -0.2947588376091349 -0.9926903382829799
5025000000.0 -0.34602014973622824 -1.0611439500805624
5028000000.0 -0.30641594772240743 -0.9819780072359083
5031000000.0 -0.33521042357666175 -0.992356001271217
5034000000.0 -0.3564396725526061 -1.0273519864644391
5038000000.0 -0.336818821440665 -0.9349399402908967
5041000000.0 -0.28836385617589333 -1.0041689777560379
5044000000.0 -0.304118179933794 -0.9636752241139644
5047000000.0 -0.33808864167528657 -0.9861747072809258
5050000000.0 -0.2507267708912144 -0.9776985075587037
5053000000.0 -0.3742831244055862 -1.0160316933217384
5056000000.0 -0.3190419393974355 -1.0295818997339774
5059000000.0 -0.3094706763947797 -0.95384792219293
5062000000.0 -0.447229004612145 -0.9427792014089409
5066000000.0 -0.3503289547045748 -0.9873554479561972
5069000000.0 -0.3976625476685579 -0.9727925458196608
5072000000.0 -0.3890914076499984 -0.9476623902575323
5075000000.0 -0.3949175825895649 -0.935328803320643
5078000000.0 -0.43124430155453625 -0.9188676597842813
5081000000.0 -0.41436068197886705 -0.904260376079615
5084000000.0 -0.4437348281355449 -0.9709838199069549
5088000000.0 -0.4122688643843173 -0.9378103503030781
5091000000.0 -0.5017239823079052 -0.9473486625338776
5094000000.0 -0.45969383016160476 -0.9480656272052917
5097000000.0 -0.4624322830498374 -0.9431662724393024
5100000000.0 -0.5011199082967496 -0.9511041647813215
5103000000.0 -0.5062476430071354 -0.9143175410865839
5106000000.0 -0.523235679562412 -0.9485604110398012
5109000000.0 -0.49596446353491364 -0.9432805525458212
5112000000.0 -0.5159092724017459 -0.8678708491784204
5116000000.0 -0.4743595582930916 -0.8745646611148246
5119000000.0 -0.5654733966158898 -0.9196742171681198
5122000000.0 -0.5149158581045595 -0.8700718196560842
5125000000.0 -0.48202876502386827 -0.8719357191246545
5128000000.0 -0.5560556827980568 -0.8796455264801482
5131000000.0 -0.5666564906164365 -0.8884466149397446
5134000000.0 -0.5646470235680252 -0.8837761548231741
5138000000.0 -0.5347558563650622 -0.913585009962546
5141000000.0 -0.556759502438162 -0.8752240116462258
5144000000.0 -0.5515560744444926 -0.9341253603862406
5147000000.0 -0.5862957054211589 -0.8740546007003064
5150000000.0 -0.5673040878476967 -0.871804370776446
5153000000.0 -0.5753431296382678 -0.8290825529927215
5156000000.0 -0.6181861942012075 -0.8724262949178022
5159000000.0 -0.5813129131866728 -0.8851785576984529
5162000000.0 -0.655451528693783 -0.8240312848728654
5166000000.0 -0.679932049233232 -0.8299720591095519
5169000000.0 -0.6333295125963339 -0.8455705985145182
5172000000.0 -0.6463541256689788 -0.8264425365639251
5175000000.0 -0.6321169465265422 -0.8510760294440408
5178000000.0 -0.6714133444657169 -0.8129141654291526
5181000000.0 -0.6848533780780705 -0.853916498161876
5184000000.0 -0.667055953197593 -0.8098198957715195
5188000000.0 -0.6267864909893459 -0.804272796578184
