! Created with skrf 1.8.0 (http://scikit-rf.org).
# Hz S RI R 50.0 
!freq ReS11 ImS11
4000000000.0 -0.1311548571086903 1.001461867158192
4003000000.0 -0.16999829390854515 1.0422266728888518
4006000000.0 -0.09102890097647975 1.0168921012406082
4009000000.0 -0.13670125651678885 0.9794102225293051
4012000000.0 -0.19020439561207225 1.0519295950888585
4016000000.0 -0.08648410912767021 1.0411063469098865
4019000000.0 -0.13418475548733613 1.003851776913187
4022000000.0 -0.1815077765669023 0.9701962201715616
4025000000.0 0.02648682740801148 1.030597439884074
4028000000.0 -0.05728222303919416 1.033600003038253
4031000000.0 -0.07690106436455735 0.9665598509761096
4034000000.0 -0.03832932446050469 1.0100700929469473
4038000000.0 -0.007781342495817504 1.0701641554345773
4041000000.0 -0.005921552153303398 1.0458071924557093
4044000000.0 -0.02915966960046908 1.1559786008562294
4047000000.0 -0.016789856049132548 1.041669095947585
4050000000.0 0.08548011530564675 1.0347896345263374
4053000000.0 0.10161307888391913 1.031509029290232
4056000000.0 0.06025835154665812 1.0181313509690346
4059000000.0 0.02202489905722925 1.0363413929545822
4062000000.0 0.13467746954146553 0.9783449279499201
4066000000.0 0.08764040463178183 0.9290845379180862
4069000000.0 0.08006300144219095 1.0834073026155933
4072000000.0 -0.005101937432414938 1.0268603557441798
4075000000.0 0.03755320119623472 1.0686156765179444
4078000000.0 0.13050061296121807 1.0520025078761508
4081000000.0 -0.0009948647810400502 1.080400686307703
4084000000.0 0.1231359946427773 1.0481108002738497
4088000000.0 0.11028607645057603 1.0663316162416572
4091000000.0 0.15146016214140762 1.1411219475409116
4094000000.0 0.1663093014407342 1.0356460656676827
4097000000.0 0.16597767132350563 1.016223197394484
4100000000.0 0.24025755968845872 1.0252386244705316
4103000000.0 0.22701014016429102 1.0707345703440942
4106000000.0 0.22148512169053586 1.0207486903244363
4109000000.0 0.2669797730371657 1.0184798142788314
4112000000.0 0.26288108789760617 0.9844552626361123
4116000000.0 0.2369781633016918 0.9946231474480081
4119000000.0 0.3191968134562412 0.981962029674893
4122000000.0 0.28854041240895556 1.0724706302258835
4125000000.0 0.3214096198768563 1.0498624854106322
4128000000.0 0.22482607278170577 0.9974751009127139
4131000000.0 0.2611795596084292 0.9661076044953301
4134000000.0 0.335812456888938 0.982459823772819
4138000000.0 0.35092888604402833 0.9017651816144987
4141000000.0 0.39237097888083217 0.9737834768960032
4144000000.0 0.307545742673268 0.9693516044630481
4147000000.0 0.3735518841515069 0.8940606607784713
4150000000.0 0.3832432717170292 1.008465464749219
4153000000.0 0.4146528655036013 0.9786143423205219
4156000000.0 0.38037072736526634 0.9916640583293128
4159000000.0 0.37141364515543585 0.9539491785523859
4162000000.0 0.4055220245153669 0.921998686631802
4166000000.0 0.45569514522694565 0.9317607401401196
4169000000.0 0.42470044677137786 0.9307402062686166
4172000000.0 0.456369885348504 0.9485370940656208
4175000000.0 0.41888164602205424 0.9217566468048266
4178000000.0 0.44743513071163066 0.939097279838248
4181000000.0 0.40822052140267506 0.9727085664859131
4184000000.0 0.46691445180921576 0.9667181741416098
4188000000.0 0.44836196465400546 0.9420317545636177
4191000000.0 0.43694929428915336 0.9190902067244582
4194000000.0 0.46428983054785267 0.8962202181433455
4197000000.0 0.5175079887027969 0.9048549901526235
4200000000.0 0.5302484677518601 0.8606048903711813
4203000000.0 0.47514055649236275 0.8938292001805901
4206000000.0 0.5508601373355788 0.8660329929010218
4209000000.0 0.49074109490405804 0.9106977205472477
4212000000.0 0.5354534735018261 0.8663156801771489
4216000000.0 0.5348609291077183 0.82242684835126
4219000000.0 0.5326085025339877 0.8525474770952101
4222000000.0 0.5812906973283843 0.8550396158921938
4225000000.0 0.5609569147160955 0.8512605743823555
4228000000.0 0.5788338160094053 0.8822501964241448
4231000000.0 0.584830051765326 0.8185464455771257
4234000000.0 0.5655026180325694 0.8811590642948313
4238000000.0 0.5926713363565129 0.8212424736273367
4241000000.0 0.5903237155131856 0.8678784417813203
4244000000.0 0.5959627387493769 0.8152021858471271
4247000000.0 0.6339930240534106 0.8377890998858021
4250000000.0 0.6223335851287537 0.8006168545643517
4253000000.0 0.6271519585389973 0.8121746595545812
4256000000.0 0.6309518284251272 0.7636145365673899
4259000000.0 0.6648470887739513 0.7884945058801693
4262000000.0 0.6603685933768594 0.783569604380712
4266000000.0 0.6574079188446773 0.7883788278078713
4269000000.0 0.6651637659176963 0.8037212798973192
4272000000.0 0.7050542035992333 0.7629557477373816
4275000000.0 0.6786407673633612 0.7391832952157114
4278000000.0 0.7090973974748412 0.7737994279763647
4281000000.0 0.7083239206929602 0.7487906715557199
4284000000.0 0.711506479567515 0.7389889259461013
4288000000.0 0.6966833295664114 0.7594161877574085
4291000000.0 0.7108203913573604 0.7067393634451632
4294000000.0 0.7226891173900288 0.7142723376328809
4297000000.0 0.7409850750226182 0.6851055977179551
4300000000.0 0.7666086018007092 0.7086118485577759
4303000000.0 0.733652131598097 0.7107708280544527
4306000000.0 0.7366410448637073 0.7045715987787678
4309000000.0 0.7370324401972895 0.683258568102287
4312000000.0 0.7648601500651356 0.695877924482754
4316000000.0 0.7596729143770551 0.6952009858491626
4319000000.0 0.7891276450240864 0.6674916718658829
4322000000.0 0.7823126323597539 0.6302830498394093
4325000000.0 0.7918466670503244 0.6426687046143307
4328000000.0 0.7876163026812388 0.633987041491817
4331000000.0 0.8202255188366346 0.5927176246871164
4334000000.0 0.8135364010454714 0.6193741381759753
4338000000.0 0.8012615858032708 0.6237528511050398
4341000000.0 0.8157685586303219 0.6149442326865451
4344000000.0 0.8445743465983176 0.6026683554726824
4347000000.0 0.8152220692218922 0.5962351805904551
4350000000.0 0.7948401248696668 0.5392758160478544
4353000000.0 0.8173534058172089 0.564811575755741
4356000000.0 0.8473166083321699 0.5534808703605719
4359000000.0 0.8273820552744989 0.5450783470385456
4362000000.0 0.897239580998247 0.5025160143464934
4366000000.0 0.8826216367767024 0.543378486657728
4369000000.0 0.837130766079678 0.49903581647665585
4372000000.0 0.8703448145161647 0.48317955758158815
4375000000.0 0.8729407907813993 0.5026617321792191
4378000000.0 0.8722767719435348 0.4945565719759307
4381000000.0 0.8649925169036812 0.5164903825926064
4384000000.0 0.9229320599699232 0.510641021905874
4388000000.0 0.861938431942557 0.47533124531791865
4391000000.0 0.8978862506528293 0.4769674826732716
4394000000.0 0.8826761525827973 0.4403163012683644
4397000000.0 0.8777185012757287 0.4395477250330285
4400000000.0 0.9252367213523982 0.443271938250164
4403000000.0 0.9250202431289805 0.44737882350039204
4406000000.0 0.9336363915125954 0.39233956671617964
4409000000.0 0.9459078103108229 0.44251058867935683
4412000000.0 0.9266436499079218 0.3721222015955558
4416000000.0 0.9257337925684364 0.38645507541148016
4419000000.0 0.9358156631673148 0.3763041833815505
4422000000.0 0.9329760975237027 0.37375883566854823
4425000000.0 0.9448298102462885 0.39539250544474003
4428000000.0 0.943437796455382 0.35332531058627525
4431000000.0 0.9669152261736778 0.3641245770950938
4434000000.0 0.9484341582311901 0.3620852524808695
4438000000.0 0.9894828953327526 0.341282672074446
4441000000.0 0.9755655424542757 0.3391982353910868
4444000000.0 0.9415418362185324 0.3159129296365213
4447000000.0 0.9651384157386471 0.2899720080216069
4450000000.0 0.9408102797562247 0.32963609422921314
4453000000.0 0.9974442725487377 0.30938508723171293
4456000000.0 0.9450149020611919 0.27433999126570985
4459000000.0 0.9257638694867933 0.23989946044596624
4462000000.0 1.0406439454931629 0.25604258340790187
4466000000.0 1.0220735259305296 0.24981996212063737
4469000000.0 0.9847478697012116 0.25463053155319937
4472000000.0 1.024726951188585 0.20729961602076602
4475000000.0 0.9618644996032205 0.21478739971839098
4478000000.0 1.0630452395493748 0.21734973638019292
4481000000.0 0.9699996547546097 0.18300996555306925
4484000000.0 0.9892268866157452 0.1482940528230989
4488000000.0 0.9858888522409406 0.16019740138059696
4491000000.0 0.9842703521049252 0.1557264405457945
4494000000.0 0.9875771739492792 0.16337420527661659
4497000000.0 0.9876252568040134 0.15727898416302355
4500000000.0 0.9838136276161136 0.153291566876926
4503000000.0 1.0171140630091071 0.1572619464047855
4506000000.0 0.9793803253237254 0.11955073651743668
4509000000.0 1.0011142119026537 0.1190499942145189
4512000000.0 0.9832498142301183 0.10325571763495936
4516000000.0 1.0111827351836118 0.1157180847424173
4519000000.0 0.9671402903298927 0.0974918244635184
4522000000.0 1.0015875767043085 0.047149154633119604
4525000000.0 0.9891318065317181 0.10304900333640668
4528000000.0 1.0491468530873116 0.058452593750369895
4531000000.0 1.0127347916172165 0.07625854371697614
4534000000.0 0.9886813886766553 0.05841017325594758
4538000000.0 1.001415570523226 0.027570853812984894
4541000000.0 1.0064586678273284 -0.021301418507640446
4544000000.0 0.9952734596511106 0.012392175795847157
4547000000.0 0.9851051068843013 0.009998223207100525
4550000000.0 1.0178866888184663 -0.033870087109164934
4553000000.0 1.012768866422948 -0.029822092087056176
4556000000.0 0.9736483812906613 -0.0644425282645877
4559000000.0 0.9912743275891694 -0.04167059178083743
4562000000.0 1.016978077384237 -0.039613057906342605
4566000000.0 1.0183054018904907 -0.0801264674268706
4569000000.0 0.9765414193189565 -0.0699098558566082
4572000000.0 0.9925235464097375 -0.08757728070397026
4575000000.0 1.0087398524244802 -0.13624689296108905
4578000000.0 1.0383684111348999 -0.06595274889478436
4581000000.0 1.0110667044138961 -0.11287947502280164
4584000000.0 0.971569102759046 -0.10439214087332158
4588000000.0 0.9968509140855338 -0.11164432865115123
4591000000.0 1.0020393153075386 -0.10183179214708131
4594000000.0 0.997287298353617 -0.15387909389334425
4597000000.0 1.009774948306696 -0.16759830860393016
4600000000.0 0.9677220082087366 -0.18778911375304203
4603000000.0 1.003958999716414 -0.1774980898682058
4606000000.0 0.982995121822121 -0.16625903058038935
4609000000.0 0.9959777778529502 -0.20346060742789918
4612000000.0 1.007602619321077 -0.21164676458124143
4616000000.0 0.9613631621596719 -0.21160011374669482
4619000000.0 0.9962699760778185 -0.20664735980977061
4622000000.0 0.9937154047029925 -0.20664767658133207
4625000000.0 0.9332903288229999 -0.22487873906477585
4628000000.0 0.9288299637813111 -0.21394313084048713
4631000000.0 0.9409984537242961 -0.28483874141276105
4634000000.0 0.9433993413085181 -0.27107761491754834
4638000000.0 0.9743556674040204 -0.2789432486815988
4641000000.0 0.9955644934783547 -0.2797985102470847
4644000000.0 0.9620802492383786 -0.3031175856553452
4647000000.0 0.9797335924949022 -0.302434148875844
4650000000.0 0.9455661034649089 -0.326858681699548
4653000000.0 0.9776277021012587 -0.3294252313245379
4656000000.0 0.9288567194821187 -0.36625547768900235
4659000000.0 0.9284526246237186 -0.350869807036405
4662000000.0 0.9486522611766999 -0.3467599417816126
4666000000.0 0.9392620159329996 -0.34603829359737726
4669000000.0 0.9493776867307211 -0.36235836330478494
4672000000.0 0.9210760903042515 -0.41816471803328215
4675000000.0 0.8909978941467454 -0.42366350052705315
4678000000.0 0.9240930683490749 -0.3992309689118493
4681000000.0 0.9058833526890435 -0.43003782527266754
4684000000.0 0.8756131429519443 -0.4307941646172539
4688000000.0 0.8986444484369893 -0.4167929181277187
4691000000.0 0.8987427038696438 -0.4052188070547531
4694000000.0 0.9033651378296826 -0.44778103500132627
4697000000.0 0.8853116103171565 -0.45870347214284796
4700000000.0 0.9093559965380636 -0.4436534354981483
4703000000.0 0.8793853771269058 -0.48147011814074797
4706000000.0 0.8810357063591527 -0.4783549197796485
4709000000.0 0.874068687998399 -0.4714959745905981
4712000000.0 0.8529743680195454 -0.5141737583811921
4716000000.0 0.860177025950628 -0.532712323980179
4719000000.0 0.8582977243522705 -0.5255836419760288
4722000000.0 0.8635732025231153 -0.5071235088326513
4725000000.0 0.858466132583757 -0.5472986171549156
4728000000.0 0.8494441041844032 -0.5433338992681099
4731000000.0 0.8585262398864903 -0.5448976849238785
4734000000.0 0.8457567975985337 -0.5312174998490429
4738000000.0 0.8382030676175012 -0.5756809998527599
4741000000.0 0.8487392055468046 -0.5645425201932344
4744000000.0 0.8314096542297109 -0.593913096130415
4747000000.0 0.8181576539120139 -0.5962846925752393
4750000000.0 0.8108993379005733 -0.6052652343203795
4753000000.0 0.810102863149328 -0.6208769741886001
4756000000.0 0.780348657109782 -0.6326549752739787
4759000000.0 0.763068464261849 -0.6322435855210664
4762000000.0 0.7770002965043965 -0.6242643899291572
4766000000.0 0.7740717668081909 -0.6249864121859094
4769000000.0 0.7966130853521277 -0.6760809297175414
4772000000.0 0.7904011668205301 -0.6661909673362663
4775000000.0 0.7741831029176025 -0.7094947505240196
4778000000.0 0.7701614968616757 -0.6449873573317603
4781000000.0 0.764056353537006 -0.6756873039103168
4784000000.0 0.7924222424941091 -0.6709692765935049
4788000000.0 0.7455695749862037 -0.6931746175534814
4791000000.0 0.724018507711238 -0.6998300459411412
4794000000.0 0.7367746349934634 -0.7086206224898668
4797000000.0 0.7082108085780264 -0.7184409353673445
4800000000.0 0.7012943246036938 -0.7139388697387901
4803000000.0 0.6693185633292297 -0.7399061760561203
4806000000.0 0.7253410611601662 -0.7321982242681108
4809000000.0 0.6536041697194259 -0.7344173508580368
4812000000.0 0.6659779983583846 -0.747882923655047
4816000000.0 0.6839033319295995 -0.744399597339417
4819000000.0 0.6875961510435188 -0.7642004941679773
4822000000.0 0.6774394659449736 -0.7711841488864459
4825000000.0 0.6762518564505946 -0.7518474642866436
4828000000.0 0.6517514020571833 -0.7627247844625933
4831000000.0 0.6066186696777672 -0.8030500110829597
4834000000.0 0.6450745517399705 -0.7821761697106682
4838000000.0 0.6407513672868971 -0.8132387537681608
4841000000.0 0.6125884255456426 -0.800055731995711
4844000000.0 0.6336057854374861 -0.7883572430292607
4847000000.0 0.6238827065331671 -0.775165335710334
4850000000.0 0.591100182633953 -0.8189894181265986
4853000000.0 0.5941183850260382 -0.8127605761175982
4856000000.0 0.5798911408035998 -0.8248021737427503
4859000000.0 0.5913053071214168 -0.8425481388151227
4862000000.0 0.5785390827112998 -0.7984361352896623
4866000000.0 0.5707763424437698 -0.866753941504275
4869000000.0 0.5491241464238302 -0.8451930846354464
4872000000.0 0.5493097703185972 -0.8793555305812332
4875000000.0 0.6001787075976504 -0.8658932211613722
4878000000.0 0.5202575509999589 -0.8654757286038751
4881000000.0 0.5480218096039469 -0.9186143898986885
4884000000.0 0.540925324961226 -0.8636005517394867
4888000000.0 0.5415748927798881 -0.8667088660215432
4891000000.0 0.5305066542072872 -0.8766001125511856
4894000000.0 0.4956366443991128 -0.883703302660547
4897000000.0 0.5126375836664975 -0.8729587424551822
4900000000.0 0.48022760294673844 -0.8929292090913452
4903000000.0 0.5236734493362948 -0.9092879538989298
4906000000.0 0.47071683833393724 -0.9284008510496372
4909000000.0 0.4391370527132602 -0.9075739959544127
4912000000.0 0.4425594397601376 -0.9299320481861741
4916000000.0 0.4765649226377717 -0.9349966499976232
4919000000.0 0.46728825799634854 -0.927515965322427
4922000000.0 0.4641930122929847 -0.9465052992958537
4925000000.0 0.42206479302947664 -0.918161101367349
4928000000.0 0.46344511902645547 -0.9107463136822079
4931000000.0 0.4322224723897678 -0.9222362909790935
4934000000.0 0.3818904797789513 -0.9211501997715053
4938000000.0 0.34723669080879216 -0.9293053427188854
4941000000.0 0.376654361553733 -0.9436736853280097
4944000000.0 0.38975183617093556 -0.8912909759152683
4947000000.0 0.35175204262655 -0.9286750160312304
4950000000.0 0.321561584979988 -0.9329548392375597
4953000000.0 0.30409336996380737 -1.0286943703977522
4956000000.0 0.3074287657351773 -0.968307526603287
4959000000.0 0.28432894911123074 -0.9463465372225565
4962000000.0 0.3329164189135692 -0.9527068393814209
4966000000.0 0.3458389576335537 -0.986674121115729
4969000000.0 0.31928988983290313 -0.9998650944872425
4972000000.0 0.2762138335462984 -0.9987981655730929
4975000000.0 0.3328701646402036 -0.9450769398884358
4978000000.0 0.2675094734075455 -0.9993734961872983
4981000000.0 0.2731831211512599 -1.0182405270190347
4984000000.0 0.25061928367171316 -0.9455347401085816
4988000000.0 0.2617147526778654 -0.9505089347560096
4991000000.0 0.3013007958817508 -0.9940921693476369
4994000000.0 0.25460517147917205 -0.9789411666151753
4997000000.0 0.18619700322647287 -1.0120047443878057
5000000000.0 0.2193971966514091 -1.0019652637362546
5003000000.0 0.2558374701044185 -1.004826526131857
5006000000.0 0.19803289702888707 -1.0547429785789986
5009000000.0 0.22379388645648954 -1.0103972689841632
5012000000.0 0.184701196822687 -1.01396152449154
5016000000.0 0.22231780388758565 -1.0348693029715932
5019000000.0 0.1306253116877638 -0.9858721480024832
5022000000.0 0.1752682995682561 -1.030415539307085
5025000000.0 0.15001885924372405 -1.07707071526604
5028000000.0 0.11912801451149144 -1.0137810636670623
5031000000.0 0.12160175302973825 -1.0029352695460532
5034000000.0 0.0974167720417535 -1.0083381530552407
5038000000.0 0.08327572858655921 -0.9948105402375109
5041000000.0 0.14604857485834183 -1.0431487344536605
5044000000.0 0.14109555871935817 -0.9659434251150455
5047000000.0 0.11506003739671847 -1.0346469126040594
5050000000.0 0.17040819690702474 -0.9861712974827568
5053000000.0 0.07210268211388782 -1.077315803824914
5056000000.0 0.12871595312533585 -1.0140269229764618
5059000000.0 0.1353172167435935 -1.0413655699165112
5062000000.0 0.021002286285025734 -1.0705757839713008
5066000000.0 0.09314504589695659 -1.0045658240732727
5069000000.0 0.04280405744921735 -1.0875632125006187
5072000000.0 0.012008028187107736 -0.9988444790406279
5075000000.0 0.06078805686253949 -1.0178094704636056
5078000000.0 -0.05100746107730633 -1.0595297780911104
5081000000.0 -0.02336735306709281 -1.017389102527918
5084000000.0 -0.043014911097955355 -1.0492295518642103
5088000000.0 -0.018436571876992977 -1.0194143418374975
5091000000.0 -0.025410353932196733 -1.0408907574877517
5094000000.0 -0.015571668139922543 -1.074583314940723
5097000000.0 -0.006195092623283757 -1.0414295720261648
5100000000.0 -0.06146870020873723 -0.9982754816950791
5103000000.0 -0.058850559847894085 -1.0066252463362217
5106000000.0 -0.04988100634929146 -1.1018019488633841
5109000000.0 -0.02604746613870489 -1.0125729790592033
5112000000.0 -0.04080480785998736 -1.0187099305442298
5116000000.0 -0.09739971589050354 -0.9689480389503746
5119000000.0 -0.08212821051971093 -1.061931163064052
5122000000.0 -0.0763584496470647 -0.9898747159209274
5125000000.0 -0.08374486258351055 -0.9877637868913224
5128000000.0 -0.16877425853085 -1.0274045077751317
5131000000.0 -0.1466337762920044 -0.9923964906699946
5134000000.0 -0.1392517641318462 -1.0278635051552778
5138000000.0 -0.1236955140048836 -1.0358787671850584
5141000000.0 -0.12092279947203166 -1.0185741015853258
5144000000.0 -0.13934711526876736 -1.0487692577919443
5147000000.0 -0.2105605634977159 -1.0559049250882249
5150000000.0 -0.13925563850362654 -1.0229545474541661
5153000000.0 -0.17205005643055843 -0.9977320213673428
5156000000.0 -0.1403197430724149 -1.0485187365845328
5159000000.0 -0.1648353518755438 -1.0544302100282086
5162000000.0 -0.2109378688014067 -1.024498463962931
5166000000.0 -0.26254991171802833 -1.0443497810801035
5169000000.0 -0.2382364172572269 -1.0606855676275995
5172000000.0 -0.2535820911741087 -0.9647064727185679
5175000000.0 -0.23419732276083222 -1.0637442219184812
5178000000.0 -0.22994907424904756 -1.0055696904818843
5181000000.0 -0.2506886061943509 -1.04279865122128
5184000000.0 -0.2861452515407035 -0.9706613693728088
5188000000.0 -0.2423015618237178 -0.994320531015501
5191000000.0 -0.31818771210402474 -0.976043161173295
5194000000.0 -0.2727935028681681 -0.9866335092403649
