! Created with skrf 1.8.0 (http://scikit-rf.org).
# Hz S RI R 50.0 
!freq ReS11 ImS11
4000000000.0 0.6491208925626613 0.8135988287283051
4003000000.0 0.6532576138464041 0.8277985503916231
4006000000.0 0.6695358525946834 0.7508648625568636
4009000000.0 0.6747250447400762 0.8262258934200787
4012000000.0 0.6680447993509476 0.8485757942005975
4016000000.0 0.7093588743504206 0.7427987041357265
4019000000.0 0.6238210930754351 0.7540719469844591
4022000000.0 0.6645062042062608 0.8100622461280004
4025000000.0 0.7625748135690901 0.6902844066957942
4028000000.0 0.7136945953352071 0.7497813109411311
4031000000.0 0.6671816875553227 0.6983036674587453
4034000000.0 0.7353860168825751 0.7378747318194755
4038000000.0 0.7220193467030784 0.7110240183054155
4041000000.0 0.7627539858932695 0.717832461657993
4044000000.0 0.7666320069907449 0.746149649601479
4047000000.0 0.7283303511625538 0.7726385576094321
4050000000.0 0.769044352507923 0.695075271500417
4053000000.0 0.7743638383634913 0.6331715514898684
4056000000.0 0.7504322044920121 0.706587554855122
4059000000.0 0.7593098214761067 0.6559374081332241
4062000000.0 0.7674755813233537 0.639650095456372
4066000000.0 0.7315580375616422 0.5986778172079454
4069000000.0 0.8470658819196764 0.6664359211744796
4072000000.0 0.7522051069226231 0.6733357964102806
4075000000.0 0.8012060403496605 0.6737415180461594
4078000000.0 0.8406825649866996 0.631173823920194
4081000000.0 0.7871902914805643 0.6767565027047976
4084000000.0 0.8663457159331992 0.6658111998655427
4088000000.0 0.7909972690478188 0.6703225016097769
4091000000.0 0.8891959581003059 0.6227622052604633
4094000000.0 0.8458122143014515 0.6109282560640223
4097000000.0 0.8461556571589023 0.5683282438273443
4100000000.0 0.8377960885808409 0.5398233120836109
4103000000.0 0.8879399662432201 0.6038216120515325
4106000000.0 0.8681476918899632 0.5718134187282717
4109000000.0 0.8771471424572848 0.5328558169214814
4112000000.0 0.8509061017447332 0.5589519713578164
4116000000.0 0.8820639332278482 0.5531990054279257
4119000000.0 0.8781236746801551 0.507757673308776
4122000000.0 0.867406301178975 0.5217025349762929
4125000000.0 0.9174075924827627 0.48339262454563164
4128000000.0 0.8453300209187908 0.526812449095423
4131000000.0 0.8960468399348452 0.5149772553368857
4134000000.0 0.8622897700254233 0.5147704404189261
4138000000.0 0.8829961757927216 0.49669510208931505
4141000000.0 0.8968090384521266 0.4757953116963485
4144000000.0 0.8988127545314345 0.50039184661069
4147000000.0 0.8734582026093469 0.43712880578551155
4150000000.0 0.9293121300018884 0.47033320753951385
4153000000.0 0.917384680024751 0.4504982543822257
4156000000.0 0.927554364517545 0.50051019334068
4159000000.0 0.9254445398593181 0.44151081967835887
4162000000.0 0.8963101335982961 0.4250425324073088
4166000000.0 0.9605776461131941 0.4345431914656097
4169000000.0 0.9350539626562955 0.40953923123749814
4172000000.0 0.9317701462271015 0.44593491375528455
4175000000.0 0.9471777918739122 0.39362052778422724
4178000000.0 0.9797832474220853 0.4177210669282724
4181000000.0 0.9658427655536133 0.366318699941677
4184000000.0 0.9320688954651378 0.3823867298017248
4188000000.0 0.943208925438932 0.36762867380347175
4191000000.0 0.9384082779464917 0.40537276203627853
4194000000.0 0.939402618271916 0.36670468385977084
4197000000.0 0.9686434528307999 0.345531719783653
4200000000.0 0.9631715002131462 0.34315344178447105
4203000000.0 0.974165639285904 0.37145245698493057
4206000000.0 0.9668225747150011 0.3295974769313936
4209000000.0 0.9593462072379229 0.3171521488165164
4212000000.0 0.9826967218919517 0.2789078506956034
4216000000.0 0.9692041281111382 0.3233696053855479
4219000000.0 0.9829357468101139 0.29697717429799786
4222000000.0 0.988978664340836 0.27103597865899026
4225000000.0 0.9755454885873625 0.28169811917154686
4228000000.0 0.9973052719523847 0.2830310889587727
4231000000.0 0.9998354571096403 0.25216465927457077
4234000000.0 0.9759766335579863 0.2638434045875482
4238000000.0 0.9911925578586166 0.2291884795022762
4241000000.0 0.9744418368698582 0.2211253797971418
4244000000.0 1.0006422407424993 0.22778584744520575
4247000000.0 0.9783980479398742 0.23283158264760745
4250000000.0 0.9767885420249109 0.20571684793238543
4253000000.0 0.9869850368697688 0.17884131862484176
4256000000.0 1.0200648512662078 0.19632397152053116
4259000000.0 0.9679125892528149 0.16880247950610497
4262000000.0 1.0055752600055208 0.1536693718037905
4266000000.0 1.0162558980484446 0.15723876281528038
4269000000.0 1.0010737242053067 0.15674249665479353
4272000000.0 1.0021887275612562 0.15864332358202957
4275000000.0 1.0240427632681026 0.15176857073468975
4278000000.0 1.0236081904636096 0.12144910873974935
4281000000.0 1.0171979949956755 0.11598008461157998
4284000000.0 1.0217728530822745 0.08548672769067583
4288000000.0 0.9775305408690824 0.13232540000984122
4291000000.0 0.9802279999821789 0.10029792354613985
4294000000.0 0.9882525198844407 0.07248657745560207
4297000000.0 0.9920216638871269 0.10528776006863648
4300000000.0 0.9950061886681965 0.07613139205910119
4303000000.0 1.008037397453834 0.05475610643170099
4306000000.0 0.9898276799790124 0.07934000735530769
4309000000.0 1.008044045413002 0.05313010417473303
4312000000.0 1.0168921214129785 0.09400483445921234
4316000000.0 1.0227818470503278 0.07210212632951439
4319000000.0 0.9960650508506841 0.043767397513027176
4322000000.0 0.9885899688917134 -0.014280865165089376
4325000000.0 0.985177593520582 0.020855414727108598
4328000000.0 1.008165926241982 0.005158009851730788
4331000000.0 1.0102293177024622 -0.042963936085115395
4334000000.0 1.0302531858212172 -0.03351174518399905
4338000000.0 1.0181918148321254 0.004278892604010112
4341000000.0 1.0392964365856103 -0.018494209880069196
4344000000.0 1.021853776723212 -0.025420698839364986
4347000000.0 1.016505235271686 -0.09418244165366646
4350000000.0 0.9642744953560008 -0.07359557862031522
4353000000.0 0.9857564389947537 -0.05844537874576536
4356000000.0 0.9912300270998734 -0.09689519453722373
4359000000.0 0.9487886912612704 -0.08288685918209918
4362000000.0 0.98978324226046 -0.149170972154254
4366000000.0 1.011335946795818 -0.11799507162657794
4369000000.0 0.9724086217253141 -0.10716111817966717
4372000000.0 0.9679748499522587 -0.16275210691909764
4375000000.0 1.0107988093087914 -0.10807875481857757
4378000000.0 0.9767453351640253 -0.1461655505321489
4381000000.0 0.9883778380948876 -0.12680612477961267
4384000000.0 1.0559942425973528 -0.17342551988681723
4388000000.0 0.9783885777671092 -0.1665535932174696
4391000000.0 1.005777543415834 -0.17526672777480531
4394000000.0 0.9535543148693025 -0.1696738463467019
4397000000.0 0.9879056489659039 -0.19394284327305733
4400000000.0 1.0046037236942755 -0.20681176919018135
4403000000.0 0.9981993345662912 -0.21153644165421423
4406000000.0 0.9699577691121662 -0.24798821291920856
4409000000.0 0.9947848345315924 -0.2503142020945477
4412000000.0 0.9605699684936768 -0.293626415154989
4416000000.0 0.9497437708174374 -0.2639323174473338
4419000000.0 0.9646763628557704 -0.2742446483531717
4422000000.0 0.97060672859276 -0.24776243088004635
4425000000.0 0.9987889866111146 -0.2597439464322705
4428000000.0 0.9634107896077422 -0.2806851194087729
4431000000.0 0.9946596648626906 -0.2871334719290266
4434000000.0 0.9408262251974118 -0.3194784051794555
4438000000.0 0.9828524851647018 -0.3051091138146593
4441000000.0 0.9648577677393473 -0.32910757208779073
4444000000.0 0.9371294083700517 -0.3083217346000231
4447000000.0 0.9428674294318559 -0.3495541242077882
4450000000.0 0.9372044346442377 -0.31649325206387746
4453000000.0 0.9728460540429056 -0.35332425430981884
4456000000.0 0.9159665981638054 -0.36531633315556766
4459000000.0 0.8894968697332402 -0.36315809703002233
4462000000.0 0.9848765283859027 -0.3976038166826887
4466000000.0 0.9743926749825705 -0.41947398817355197
4469000000.0 0.9323199833800966 -0.3787624982836354
4472000000.0 0.9322077589498254 -0.4268783967017989
4475000000.0 0.8905039938850169 -0.3914439074422672
4478000000.0 0.9526858484610624 -0.4409674432109436
4481000000.0 0.8784922114805139 -0.42844855910223995
4484000000.0 0.8870226500923188 -0.48005137586840474
4488000000.0 0.8869309097993783 -0.43951418760953376
4491000000.0 0.8922736112264013 -0.4579486848172363
4494000000.0 0.8931483444195646 -0.4616625111616982
4497000000.0 0.8931176677364734 -0.43885637227794055
4500000000.0 0.885087456325895 -0.465268273347289
4503000000.0 0.9054950382277611 -0.4899572663283618
4506000000.0 0.8616963059461458 -0.49137264261341224
4509000000.0 0.8543572328396063 -0.48905383961303217
4512000000.0 0.8759799816103463 -0.5063390730071601
4516000000.0 0.8986795244534903 -0.5046822575838552
4519000000.0 0.8495178292203222 -0.5014894070533152
4522000000.0 0.8577819278171721 -0.5289369056452812
4525000000.0 0.8525064576957013 -0.5006367074134213
4528000000.0 0.8546005987830569 -0.5577675407111922
4531000000.0 0.8502647292740314 -0.5381347778139512
4534000000.0 0.8350512816860628 -0.546217577847067
4538000000.0 0.8239236871034812 -0.5734673305427739
4541000000.0 0.8049110775088004 -0.5982542940545529
4544000000.0 0.8125443233698397 -0.5647566127172823
4547000000.0 0.8128870098801335 -0.5426370343633249
4550000000.0 0.8112925319953113 -0.6045938169622634
4553000000.0 0.8222234791715843 -0.6021530494919528
4556000000.0 0.7825597699469569 -0.5974423159250775
4559000000.0 0.7824675626226891 -0.6262357238838858
4562000000.0 0.8023154531419379 -0.6190796836764091
4566000000.0 0.7785890938870277 -0.6318690924582122
4569000000.0 0.7563779704178947 -0.6178057804448023
4572000000.0 0.767429741973841 -0.6288861229500982
4575000000.0 0.7618718718276096 -0.6631558722942172
4578000000.0 0.7860064053026843 -0.6465868981255181
4581000000.0 0.7471781249496054 -0.6932223337891659
4584000000.0 0.7376971843088841 -0.6660189759682468
4588000000.0 0.7549968247001515 -0.6814224820671992
4591000000.0 0.7367638966496217 -0.6803000144166862
4594000000.0 0.7229442741417662 -0.7100364414287992
4597000000.0 0.7289172998623807 -0.7059379369022759
4600000000.0 0.696106356975731 -0.726281392820947
4603000000.0 0.7099327665232635 -0.7212374447441208
4606000000.0 0.7170437544467673 -0.738439815583378
4609000000.0 0.6840734469901841 -0.718030951627193
4612000000.0 0.6946391614100351 -0.7601259840645246
4616000000.0 0.6730422843623032 -0.7225147822200813
4619000000.0 0.6722075044119323 -0.7426249586799525
4622000000.0 0.6809400517882044 -0.749831518327296
4625000000.0 0.6396267607135524 -0.7465404987123974
4628000000.0 0.664814331013157 -0.7481568919549793
4631000000.0 0.636391929515137 -0.7764832817375913
4634000000.0 0.6589579978872487 -0.7664387943134007
4638000000.0 0.6330007453433459 -0.782071623818879
4641000000.0 0.642195597320755 -0.7837791744390874
4644000000.0 0.6257424847076296 -0.7715525585048025
4647000000.0 0.6234892792265883 -0.8133072167294652
4650000000.0 0.5907123404882447 -0.8263244250944514
4653000000.0 0.6063328949708314 -0.8125315108893669
4656000000.0 0.5948113241389593 -0.8241925548276114
4659000000.0 0.5732427242913433 -0.823340746137783
4662000000.0 0.5728204704678055 -0.8269636602465844
4666000000.0 0.5590358138661973 -0.8417645437201174
4669000000.0 0.5570281134536633 -0.8292578446662383
4672000000.0 0.5410338321057757 -0.8682410676466666
4675000000.0 0.533677849700887 -0.8609386529512084
4678000000.0 0.541917106475965 -0.8396398065959596
4681000000.0 0.5204571276299048 -0.8679160193817066
4684000000.0 0.5070382555169353 -0.8908682470501876
4688000000.0 0.4731958475475854 -0.8579700880147593
4691000000.0 0.5265171820693028 -0.8805545914998998
4694000000.0 0.5155054853173843 -0.8705705961197456
4697000000.0 0.4493041607118646 -0.8655612759025038
4700000000.0 0.4928142295547756 -0.8979585055563908
4703000000.0 0.4968072486267051 -0.8522660637858268
4706000000.0 0.4781462832668822 -0.9008370285278995
4709000000.0 0.46889879340645313 -0.8953583708927882
4712000000.0 0.4756533076870848 -0.9129280035193633
4716000000.0 0.44044921282851224 -0.9244679651700112
4719000000.0 0.46147133160182485 -0.9342244259236521
4722000000.0 0.46034282284073186 -0.899266376936291
4725000000.0 0.4424258330423076 -0.9224036178228491
4728000000.0 0.42421993903386046 -0.9186061251369715
4731000000.0 0.4267088432906991 -0.9419810131381505
4734000000.0 0.42201137375586933 -0.883247730565609
4738000000.0 0.41885987994650997 -0.9294153154539978
4741000000.0 0.3974474328415414 -0.9745875646191297
4744000000.0 0.34375905405358 -0.9491783702632867
4747000000.0 0.380875279792806 -0.9405507945460285
4750000000.0 0.35677185640593606 -0.9402099886921439
4753000000.0 0.3738496532729917 -0.9547255191594649
4756000000.0 0.34453588649829076 -0.9886487530801285
4759000000.0 0.357975689826182 -0.964630205048955
4762000000.0 0.3085020106556831 -0.9953147161748738
4766000000.0 0.34537934987106655 -0.9709012574172523
4769000000.0 0.327509203694207 -0.995186331179969
4772000000.0 0.300752111500475 -0.9570815840566973
4775000000.0 0.2952129105947899 -0.9979430163013567
4778000000.0 0.3070953174528425 -1.0009357331101534
4781000000.0 0.29255550430829713 -0.957226431906582
4784000000.0 0.2916703687967894 -0.9760332772647914
4788000000.0 0.24384628538396289 -1.0317231417565107
4791000000.0 0.2339401649965512 -0.970156262996637
4794000000.0 0.281156758574471 -1.0133783952787851
4797000000.0 0.233584392020874 -0.9716604988689491
4800000000.0 0.21600245607748242 -0.9953027623240154
4803000000.0 0.20247857915749926 -0.9813356696981788
4806000000.0 0.20142991096834856 -1.0239985174552353
4809000000.0 0.14681762696235093 -1.0033449929517042
4812000000.0 0.14624603117779245 -0.999802993530921
4816000000.0 0.2073249710905178 -0.9713056018813164
4819000000.0 0.19467089257919365 -1.015922904438336
4822000000.0 0.16769438763228048 -1.0272741561658794
4825000000.0 0.21859638963237452 -1.0135359124701682
4828000000.0 0.15043048265870698 -0.9977361965332775
4831000000.0 0.1210323311931806 -1.028067896388369
4834000000.0 0.14815114043137803 -1.0160395859717901
4838000000.0 0.13542869423170262 -1.0338425549781736
4841000000.0 0.1324912725402482 -0.9860060812962762
4844000000.0 0.1449207778858106 -1.005394548662106
4847000000.0 0.13788500577164267 -0.9977233211116987
4850000000.0 0.07742265991349369 -1.047091617047418
4853000000.0 0.10406100958869191 -0.9690957007942518
4856000000.0 0.08632464940713802 -0.9958120419607371
4859000000.0 0.08779937107865542 -1.0175405036874658
4862000000.0 0.0772536007544541 -1.0060945413302154
4866000000.0 0.04589257356611061 -1.0409706327004895
4869000000.0 0.022357446963145948 -1.0245539742013525
4872000000.0 0.015901914502984997 -1.0340798179633683
4875000000.0 0.08561021255984858 -1.0612729095015816
4878000000.0 0.0023044597136410473 -1.0060057761718182
4881000000.0 -0.005821354947418157 -1.0870442376597296
4884000000.0 0.030763460106073667 -1.0313697199426444
4888000000.0 0.03598236105388344 -1.01465098991074
4891000000.0 -0.000975618126279075 -1.0509622806289691
4894000000.0 -0.06537586495487618 -1.0133670275467763
4897000000.0 0.0028049696223052915 -1.0031420965075064
4900000000.0 -0.03830727299107942 -1.0651973226055074
4903000000.0 -0.030648383892328088 -1.0178329347381385
4906000000.0 -0.0725078683959454 -1.0435842638743904
4909000000.0 -0.06359549608144399 -1.0378491161641485
4912000000.0 -0.0908940849204463 -1.064988020135187
4916000000.0 -0.07981679183479551 -1.045495393290322
4919000000.0 -0.02914716029110151 -1.0682082672173792
4922000000.0 -0.04645113183334777 -1.0506091510496374
4925000000.0 -0.1469298619303972 -1.0353590955948682
4928000000.0 -0.07810977955952607 -1.0445678114962302
4931000000.0 -0.1295397352348877 -1.0484775549459793
4934000000.0 -0.10278292305150948 -0.9759237979655279
4938000000.0 -0.195305527592172 -1.021772083905722
4941000000.0 -0.12906653258531453 -1.0008031692058066
4944000000.0 -0.10958003635276464 -0.9895836035863819
4947000000.0 -0.15962771304549503 -0.9633119937923497
4950000000.0 -0.18630889252572858 -0.9864550355368273
4953000000.0 -0.21624072749818746 -1.0432870868802955
4956000000.0 -0.22188281892114942 -0.9919517864342655
4959000000.0 -0.2535279133087266 -0.9819287813980523
4962000000.0 -0.23753823170726793 -1.0300148918815577
4966000000.0 -0.221192739101159 -1.0606960149625375
4969000000.0 -0.2246443678625354 -1.034154083868657
4972000000.0 -0.2405370669820451 -1.0331073493922724
4975000000.0 -0.1996534481929582 -0.9925670904251892
4978000000.0 -0.2740446845676312 -1.0017909750538938
4981000000.0 -0.2454019112765551 -0.9961781141330953
4984000000.0 -0.22227280009128283 -0.9501834212301946
4988000000.0 -0.26320216232210547 -0.9712678161242114
4991000000.0 -0.2239751162773128 -1.031901173254792
4994000000.0 -0.24879727892461767 -0.9743128336565174
4997000000.0 -0.31984961126390704 -1.003563432707423
5000000000.0 -0.3178279972364262 -1.0382661402760516
5003000000.0 -0.2610623914785365 -0.9833323349662215
5006000000.0 -0.33012398986440905 -1.0345571078619347
5009000000.0 -0.3116932928536241 -0.9824391410292846
5012000000.0 -0.36461604399367503 -1.0052713214751656
5016000000.0 -0.32569058550804936 -1.0312574464703792
5019000000.0 -0.35923392009023525 -0.9628267075604418
5022000000.0 -0.3641692633636101 -0.9897605914212722
5025000000.0 -0.37141790561855553 -1.0411686056044243
5028000000.0 -0.40171114050177215 -0.9545915939587444
5031000000.0 -0.3930767512740967 -0.9690709584015996
5034000000.0 -0.44039059181782125 -0.9847289237522452
5038000000.0 -0.38407579465727415 -0.9164404631966276
5041000000.0 -0.36307422461800665 -0.977797970710356
5044000000.0 -0.3715578814841125 -0.9338947219566752
5047000000.0 -0.4218472177106765 -0.9579014523727315
5050000000.0 -0.33511921689217217 -0.9638680949723009
5053000000.0 -0.45685925058202603 -0.9863431591724046
5056000000.0 -0.41554601863868135 -0.9702987377511862
5059000000.0 -0.37429621279079867 -0.98857532968475
5062000000.0 -0.5111682457501268 -0.9422703153456209
5066000000.0 -0.43734726005901414 -0.9095358651689773
5069000000.0 -0.5072894989801552 -0.8967315896902049
5072000000.0 -0.43240226195124654 -0.9008552325563841
5075000000.0 -0.45531326008556194 -0.9061213682964713
5078000000.0 -0.5253045097409277 -0.9132602580218665
5081000000.0 -0.5072168477593367 -0.8540860267477194
5084000000.0 -0.5004815478895518 -0.9308817074695119
5088000000.0 -0.5325677114851063 -0.9429719766442279
5091000000.0 -0.5459600890607859 -0.908570055657212
5094000000.0 -0.5687085226176251 -0.8836874897770656
5097000000.0 -0.5067769029957847 -0.8762336271229172
5100000000.0 -0.5182473326621369 -0.8379709212880381
5103000000.0 -0.559707953877765 -0.853586893554828
5106000000.0 -0.5656674454964825 -0.9038248842812475
5109000000.0 -0.5364169531115062 -0.8939442789287322
5112000000.0 -0.5936050518422777 -0.7988599895711814
5116000000.0 -0.5275177999331869 -0.8252946058870797
5119000000.0 -0.6145574544416457 -0.8279202068759621
5122000000.0 -0.5833731287056457 -0.8496764349045678
5125000000.0 -0.5892149170469498 -0.8294167930492596
5128000000.0 -0.6485913196205254 -0.8303552305727471
5131000000.0 -0.5701346318288059 -0.7883799467094409
5134000000.0 -0.6045624268783465 -0.8347051997224176
5138000000.0 -0.605915134123019 -0.809687164336646
5141000000.0 -0.5724317637731966 -0.8740917894065523
5144000000.0 -0.6308726800148675 -0.8367086064066787
5147000000.0 -0.656605604800341 -0.8426657135213247
5150000000.0 -0.6303337091624021 -0.8089127165825066
5153000000.0 -0.6420531271520697 -0.8393900540087321
5156000000.0 -0.6847922149546245 -0.8128443439550512
5159000000.0 -0.6449976706340572 -0.8334241549355407
5162000000.0 -0.6463885505422433 -0.7800597584754037
5166000000.0 -0.7142918307756236 -0.7609489208597253
5169000000.0 -0.658326079403367 -0.8070675878134778
5172000000.0 -0.6814597932265747 -0.7896717759391918
5175000000.0 -0.6887652450091734 -0.7913623301486179
5178000000.0 -0.7227605007626394 -0.7642159348304118
5181000000.0 -0.728647816891936 -0.7747981155413588
5184000000.0 -0.7287784931591559 -0.7567707303156037
5188000000.0 -0.7157263826389917 -0.7739671358575719
