! Created with skrf 1.8.0 (http://scikit-rf.org).
# Hz S RI R 50.0 
!freq ReS11 ImS11
4000000000.0 0.6232388797092099 0.7948706755735166
4003000000.0 0.6673531055831542 0.8618504962085873
4006000000.0 0.6794133354471111 0.7717489871626769
4009000000.0 0.7254561274172375 0.7735942639492251
4012000000.0 0.6204272202160237 0.8237141848087329
4016000000.0 0.7462400207347379 0.7012484975824445
4019000000.0 0.6364149043828873 0.7433077036075799
4022000000.0 0.642597903635333 0.7672378742308812
4025000000.0 0.7363101894896056 0.7341237829009787
4028000000.0 0.7167110107013649 0.7478297201055781
4031000000.0 0.6695121543290334 0.7227788688530634
4034000000.0 0.7124531444991092 0.691382197119867
4038000000.0 0.7356211630495397 0.7017695415001265
4041000000.0 0.739716986574174 0.7078764806741334
4044000000.0 0.7685004226987212 0.7557511739628539
4047000000.0 0.7455780562640792 0.7729982207058039
4050000000.0 0.7666169042880346 0.7050269201710767
4053000000.0 0.7400791774358877 0.666328888428841
4056000000.0 0.746210472299684 0.7056222557281729
4059000000.0 0.7387116962556564 0.708296022251043
4062000000.0 0.798515986979368 0.6538256925540573
4066000000.0 0.7231093667908859 0.5842515418647738
4069000000.0 0.8064310360314216 0.6801110518017385
4072000000.0 0.7796226304009818 0.7029768584767908
4075000000.0 0.7870853160638128 0.6944273109093955
4078000000.0 0.8169319768258554 0.6296604421001911
4081000000.0 0.7914446278314774 0.7332009209331332
4084000000.0 0.8670314237208331 0.6128511923964821
4088000000.0 0.775288083868994 0.6640156878793025
4091000000.0 0.8715206068819206 0.6416804679529082
4094000000.0 0.7662813329285175 0.5964764264774801
4097000000.0 0.8341517508463058 0.5615962058784538
4100000000.0 0.8387356012855902 0.5916443943701335
4103000000.0 0.8496598592081095 0.6031292374566144
4106000000.0 0.8528265049936747 0.5814835667471588
4109000000.0 0.8465743726085606 0.5738753444475064
4112000000.0 0.8245130412820867 0.5502616505275619
4116000000.0 0.8290764389565539 0.6014736831033052
4119000000.0 0.8774167338494254 0.5497491773853366
4122000000.0 0.8718849630779134 0.5011461343224057
4125000000.0 0.8910306304404645 0.5341719394334052
4128000000.0 0.8613966957313166 0.5478821988569613
4131000000.0 0.8827567312792031 0.5490593163699002
4134000000.0 0.8656112590148072 0.5282402934932419
4138000000.0 0.8967318851824826 0.47089242156442096
4141000000.0 0.8927194781160863 0.49343167156727585
4144000000.0 0.8846612689814881 0.47833884195220683
4147000000.0 0.9118967548332598 0.4736718516679225
4150000000.0 0.9339768737856572 0.47768675486609474
4153000000.0 0.9137326670992506 0.48320436679077594
4156000000.0 0.8983358530323848 0.47192781480869717
4159000000.0 0.8981075568836168 0.43238089729149715
4162000000.0 0.919926962091643 0.4429241664616579
4166000000.0 0.9335393442458237 0.4206290177538087
4169000000.0 0.9227544815943018 0.4135009236490288
4172000000.0 0.9294698350675058 0.4436981653884449
4175000000.0 0.9376844282338622 0.4321672930937233
4178000000.0 0.9254745513034695 0.431011849698668
4181000000.0 0.9433052608358112 0.41204621449446444
4184000000.0 0.9071766437279027 0.41562148504151514
4188000000.0 0.9246748838998529 0.39168411623879373
4191000000.0 0.9017436759670683 0.41072403756477877
4194000000.0 0.9318925021162067 0.3649508639288247
4197000000.0 0.9369478187326598 0.385368625403912
4200000000.0 0.9553624225386668 0.3938701813383142
4203000000.0 0.9651435074042195 0.3722167039199441
4206000000.0 0.9590691249201698 0.3423844431514545
4209000000.0 0.9392610306390073 0.3435585009473036
4212000000.0 0.9655959299033535 0.31338399475559464
4216000000.0 0.9668471540343271 0.33741050987922633
4219000000.0 0.9752887606737052 0.3142013021381732
4222000000.0 0.9646345539461074 0.31714287820702464
4225000000.0 0.9584098435497799 0.30056237687790477
4228000000.0 0.9897737421918595 0.2979223641967157
4231000000.0 0.9586105254864042 0.26186569756990674
4234000000.0 0.9940165099148182 0.27112161765790127
4238000000.0 0.986646983114986 0.24272083303356087
4241000000.0 0.9723717213193903 0.23526128997157464
4244000000.0 0.9752837112818716 0.2545232108621446
4247000000.0 0.9911928017638713 0.23547267288262713
4250000000.0 0.9841268811938657 0.23430934652072255
4253000000.0 0.9576476926297508 0.2031608228311328
4256000000.0 1.0122967648350036 0.20981334297506476
4259000000.0 0.9576969695211582 0.20345718626840012
4262000000.0 0.979644397779944 0.16264957572015923
4266000000.0 1.0081320208893922 0.16123155074843631
4269000000.0 0.9948309222831307 0.1832089547418906
4272000000.0 1.005822186760384 0.18109136513638352
4275000000.0 1.0287932542348717 0.15259054326773636
4278000000.0 1.0055270757167736 0.1610052118193102
4281000000.0 1.0280365886380742 0.1365226003557155
4284000000.0 1.0194814966071508 0.09914612689431127
4288000000.0 1.0010590059092477 0.15699140552185767
4291000000.0 0.9769824326197147 0.10201362404474885
4294000000.0 0.997017287508608 0.12346254966229821
4297000000.0 0.9913718818519488 0.11609524143809667
4300000000.0 0.9922542270547943 0.10031672900944305
4303000000.0 0.9985782973737997 0.0563271637503185
4306000000.0 1.0283126325004108 0.11176141145959625
4309000000.0 1.0051581609120592 0.08389733192460001
4312000000.0 1.01913046440759 0.07713159045110202
4316000000.0 1.0253524215795067 0.04442107679499725
4319000000.0 0.9906906876441465 0.057698196561659296
4322000000.0 0.9726985077691462 0.009386975581603826
4325000000.0 1.025334479396128 0.054241277836102844
4328000000.0 1.003162009625966 0.02571040777993401
4331000000.0 1.0151791271496684 -0.02123584419814685
4334000000.0 0.9922623642662309 -0.0019487854878727229
4338000000.0 1.0204144686322558 0.026398901250023102
4341000000.0 1.0035235131838198 0.009336226358798688
4344000000.0 1.0136752997959584 -0.04436312708523485
4347000000.0 1.030269422379061 -0.05170323594684219
4350000000.0 0.9672447555799951 -0.05925711782756568
4353000000.0 0.988710777471336 -0.043603828936362984
4356000000.0 0.9741475479978562 -0.08282420515834267
4359000000.0 0.9712669894429032 -0.08808923961021067
4362000000.0 1.014147331060609 -0.12459227373573419
4366000000.0 1.0172322487397008 -0.09340424632099005
4369000000.0 0.9645330840562278 -0.10293264305743062
4372000000.0 0.9832162205171444 -0.1444310471932205
4375000000.0 1.0045670843714358 -0.1102283668632708
4378000000.0 0.9651304152343976 -0.11272792479616324
4381000000.0 0.9888649366445645 -0.12810603278437116
4384000000.0 1.0370904629484585 -0.15469659834169525
4388000000.0 0.9863678801997915 -0.13784018381815227
4391000000.0 0.9862186659956069 -0.1590596212144167
4394000000.0 0.9669154254581772 -0.17387683185042135
4397000000.0 0.9982139429564998 -0.17783629458496059
4400000000.0 1.011727046030261 -0.19436998217588397
4403000000.0 0.9804174435331795 -0.18880095587701043
4406000000.0 0.9964049360740802 -0.20792843200867028
4409000000.0 1.0076190852545799 -0.22336382534405427
4412000000.0 0.9640495237391844 -0.2713921937397795
4416000000.0 0.9629064591524712 -0.24200916738122705
4419000000.0 0.9672831769749096 -0.2562816150724521
4422000000.0 0.9778795918448875 -0.22794525533643703
4425000000.0 0.9930971287365785 -0.24608774251444238
4428000000.0 0.9618301689734213 -0.27527872820142724
4431000000.0 0.9989562629468338 -0.2856490604335301
4434000000.0 0.9535661813526025 -0.2915990339544707
4438000000.0 0.9868073505867911 -0.29596719832065016
4441000000.0 0.9831700097286291 -0.29794277671004854
4444000000.0 0.9496211685019993 -0.3043397784435412
4447000000.0 0.940104007222202 -0.3407711957623045
4450000000.0 0.9530813613811202 -0.31351936571748334
4453000000.0 0.9818951299352575 -0.33855669849816156
4456000000.0 0.9389581931206997 -0.3446144002466891
4459000000.0 0.8985732327546743 -0.351623120985751
4462000000.0 0.9983687845365417 -0.3792812954164362
4466000000.0 0.9808276256901406 -0.3776876474096197
4469000000.0 0.9449997213337479 -0.36110857627122933
4472000000.0 0.9439812100886886 -0.41991100409424464
4475000000.0 0.91114464660587 -0.36847866668239093
4478000000.0 0.955463574500562 -0.4306595982500595
4481000000.0 0.8875902090286546 -0.4188118941891112
4484000000.0 0.8804059163288112 -0.45218570128067537
4488000000.0 0.9134012991616254 -0.427116425667066
4491000000.0 0.916617739424431 -0.4410755046831211
4494000000.0 0.8901037096344545 -0.4331145414860445
4497000000.0 0.9062204502382281 -0.41505603786865325
4500000000.0 0.8850263118432862 -0.43735816318107457
4503000000.0 0.9118614202244886 -0.47185024463817743
4506000000.0 0.8727405006860618 -0.4842870337161855
4509000000.0 0.8615744759300425 -0.465039649277057
4512000000.0 0.865823094940949 -0.4893475812886192
4516000000.0 0.8849903768295025 -0.5100395380442836
4519000000.0 0.8610429135272109 -0.46975661483275266
4522000000.0 0.8598516353267904 -0.5220883558254525
4525000000.0 0.8686428675450426 -0.4995413574162523
4528000000.0 0.8819373107664812 -0.5395952903418315
4531000000.0 0.853157033954958 -0.5224496043694783
4534000000.0 0.8435242651851415 -0.5456435499384019
4538000000.0 0.8207293152642714 -0.5593052114898233
4541000000.0 0.7972440128072894 -0.5782370799070874
4544000000.0 0.8347980338234484 -0.5435264683250524
4547000000.0 0.8293177349534727 -0.5511828556098095
4550000000.0 0.8116196376707794 -0.5886602071329127
4553000000.0 0.8201327842947201 -0.5865004872448301
4556000000.0 0.7985141100426312 -0.5910358174693043
4559000000.0 0.8051679781174272 -0.6180017162744542
4562000000.0 0.8013917525205123 -0.6286018674753113
4566000000.0 0.8006618838581943 -0.6303563635854861
4569000000.0 0.774745233549404 -0.6216348892206727
4572000000.0 0.7975619029650894 -0.6244779222760836
4575000000.0 0.7507364166542507 -0.6529984046043116
4578000000.0 0.8065723485214611 -0.6534601363370718
4581000000.0 0.7515357534017696 -0.6503682592101113
4584000000.0 0.7517970201310712 -0.648365654168786
4588000000.0 0.7782332074437839 -0.6897513661066798
4591000000.0 0.7739562443228859 -0.6647531428753883
4594000000.0 0.7252477631049713 -0.6837142581261048
4597000000.0 0.7414808975655198 -0.7110055967880159
4600000000.0 0.7033421900290234 -0.6799136150843762
4603000000.0 0.7189032312969214 -0.700746213957636
4606000000.0 0.7157848514122704 -0.7004353090650436
4609000000.0 0.7151048762618448 -0.7147954464153563
4612000000.0 0.7056266906820268 -0.7194059892693879
4616000000.0 0.6798513219715567 -0.7121736915874782
4619000000.0 0.6940413525690141 -0.7300491720793737
4622000000.0 0.6745707435057579 -0.7286933667451487
4625000000.0 0.6355736280208653 -0.7362505341071853
4628000000.0 0.682618918200645 -0.7140715095303468
4631000000.0 0.670874380400267 -0.7671224679037899
4634000000.0 0.6474437165336707 -0.7602829458965431
4638000000.0 0.662492279923264 -0.7727349876885351
4641000000.0 0.6463329902665961 -0.7703047179136103
4644000000.0 0.6322242021693916 -0.7755480934800068
4647000000.0 0.6329904557489091 -0.7834667072445939
4650000000.0 0.6039384403854918 -0.7928685767217633
4653000000.0 0.649619788528377 -0.8010622982195574
4656000000.0 0.6001841476482848 -0.8051407971192845
4659000000.0 0.5989937461326829 -0.7970959717692505
4662000000.0 0.5819720234719792 -0.8120513348003936
4666000000.0 0.5839689658321655 -0.8244070046161
4669000000.0 0.5954076567017862 -0.8262233591156959
4672000000.0 0.5568629930806837 -0.8545996838320266
4675000000.0 0.5447318202238349 -0.8527335118980545
4678000000.0 0.5395200384672356 -0.8081539757924275
4681000000.0 0.533740047252569 -0.8710300528048472
4684000000.0 0.5392057751826443 -0.8548491146159659
4688000000.0 0.5070416979457971 -0.8770874062479159
4691000000.0 0.5613258662019786 -0.864426554786025
4694000000.0 0.539835849151314 -0.8619534330108392
4697000000.0 0.4756415426409428 -0.8430060610879242
4700000000.0 0.5094475301082468 -0.8440668861327869
4703000000.0 0.514161837021355 -0.8318090376953475
4706000000.0 0.46769949012375295 -0.8872393601275131
4709000000.0 0.4764841079221138 -0.8919004722663473
4712000000.0 0.4934986545804175 -0.8817883293329664
4716000000.0 0.4726006430237953 -0.8893286901309989
4719000000.0 0.46890178798892646 -0.8900776335520006
4722000000.0 0.4701070848303973 -0.8743093556580497
4725000000.0 0.4419810729923113 -0.8850631770066999
4728000000.0 0.4248385692952608 -0.9075017422640614
4731000000.0 0.4372521371285156 -0.9124635327366664
4734000000.0 0.41515609153619615 -0.9194662099517941
4738000000.0 0.44427930922251535 -0.9683640296617915
4741000000.0 0.39257983355896786 -0.9638101411616096
4744000000.0 0.3858256865282345 -0.9648113969088564
4747000000.0 0.4124479549854728 -0.8922832998007514
4750000000.0 0.3823853553587606 -0.939590038905565
4753000000.0 0.37899649204956865 -0.9548896988804821
4756000000.0 0.3633303306560713 -0.9347466211304927
4759000000.0 0.3609632428629127 -0.9481408354081334
4762000000.0 0.34959354232605055 -0.9680167756465722
4766000000.0 0.3317988078054815 -0.9837035778434745
4769000000.0 0.3486694716800822 -0.9595438314867709
4772000000.0 0.32307671911943 -0.9783363973567575
4775000000.0 0.30976951280127196 -0.9985560683206915
4778000000.0 0.3258637377828861 -0.9800846905119392
4781000000.0 0.31479379936187146 -0.9630859212435299
4784000000.0 0.3104062616203377 -0.9737160339356464
4788000000.0 0.2729633895388577 -0.9885096415642551
4791000000.0 0.2804898954305568 -0.9747148122576766
4794000000.0 0.31533446591815345 -0.9942923272981967
4797000000.0 0.24781029019223322 -0.9773041273443018
4800000000.0 0.25892030409149214 -0.9711236939253811
4803000000.0 0.2132363952944732 -0.9757990379798354
4806000000.0 0.25253894459711446 -0.9875993324527084
4809000000.0 0.1813905317120167 -0.9943068679319803
4812000000.0 0.19651621812457398 -0.9883946506569319
4816000000.0 0.21855823637703875 -0.9925610396805333
4819000000.0 0.22581524482927803 -0.999385176653417
4822000000.0 0.23586479727354484 -1.006725913547234
4825000000.0 0.22926079273936695 -1.0495801655751344
4828000000.0 0.16364830937400532 -0.9829713120050373
4831000000.0 0.1426461778102326 -1.0443599723291428
4834000000.0 0.17113785542001947 -1.0303779786772578
4838000000.0 0.12795352534755308 -1.0468490970562927
4841000000.0 0.13748928019094184 -0.9978428447196047
4844000000.0 0.16296601815584813 -1.0205109936820698
4847000000.0 0.1378650479973384 -0.9856057031478715
4850000000.0 0.12448654052592245 -1.045504201730431
4853000000.0 0.11233258836567782 -0.9784225809450173
4856000000.0 0.08842029011117228 -0.999461135363176
4859000000.0 0.0853940844602214 -1.0503591439685231
4862000000.0 0.11420134010135012 -0.970989952795659
4866000000.0 0.07570666852905353 -1.0265360392566336
4869000000.0 0.06964216517164253 -1.0304949545466071
4872000000.0 0.028488956187939563 -1.0444680575796266
4875000000.0 0.09394910849856537 -1.0568996181923047
4878000000.0 0.028720555946207045 -1.0314480424940253
4881000000.0 0.010614746302418385 -1.0968602415065112
4884000000.0 0.05801087658882462 -1.0202985236306938
4888000000.0 0.06470727624744378 -1.0145990140446277
4891000000.0 0.047051608510250746 -1.0427095374829232
4894000000.0 -0.02143340820429611 -1.0219924969492018
4897000000.0 0.02961076477161798 -1.0209807833745839
4900000000.0 -0.006974485812404018 -1.066542868509513
4903000000.0 0.027800869252593226 -1.035947211237465
4906000000.0 -0.013128133069966835 -1.0364825172265926
4909000000.0 -0.06761769718148564 -1.0428229069530006
4912000000.0 -0.07911478652204672 -1.0496965997503729
4916000000.0 -0.03371337937157189 -1.0482062958757654
4919000000.0 0.0008083393068449296 -1.0418628695330967
4922000000.0 -0.05616204433804592 -1.018032400161992
4925000000.0 -0.12984695331934104 -1.0130450686167811
4928000000.0 -0.03143000885654755 -1.0072757391013858
4931000000.0 -0.07951308459517052 -1.0429356576432294
4934000000.0 -0.060729882273187805 -0.9843237525848525
4938000000.0 -0.1407424635888026 -1.04516213240288
4941000000.0 -0.1141443045459425 -1.0011126508470354
4944000000.0 -0.0725846765610792 -0.9589683271046876
4947000000.0 -0.14381814467010254 -0.9996959199527483
4950000000.0 -0.17351357724997946 -0.9831976179975169
4953000000.0 -0.1745677987738734 -1.0639233326610587
4956000000.0 -0.18828458574051338 -1.010435937589416
4959000000.0 -0.2159615919654129 -0.9862997865434191
4962000000.0 -0.18352916925032378 -1.026674666367418
4966000000.0 -0.16448304437530142 -1.0373682160211959
4969000000.0 -0.15937340859371452 -1.0561303194208613
4972000000.0 -0.21727419206791967 -1.0224269174117038
4975000000.0 -0.1450368036927416 -1.01851117696111
4978000000.0 -0.2423507753192946 -0.9864001011309401
4981000000.0 -0.21795706517000576 -1.0142743796995703
4984000000.0 -0.20267181662323044 -0.975705396503981
4988000000.0 -0.23068115753574336 -1.001288751832577
4991000000.0 -0.2040224241241485 -1.0439167520728305
4994000000.0 -0.25479031582062683 -0.9796437410293127
4997000000.0 -0.30315010872957565 -0.9747288299479838
5000000000.0 -0.25983857700837054 -1.025882670046641
5003000000.0 -0.25693097488172123 -1.0024693615186204
5006000000.0 -0.3149482823667529 -1.0367856079466211
5009000000.0 -0.28538052006159587 -0.9583552552106452
5012000000.0 -0.3290638038540458 -1.0041215189796964
5016000000.0 -0.28814298424518453 -1.0286381929065374
5019000000.0 -0.31491455207953634 -0.9487350436193143
5022000000.0 -0.31129149192249195 -0.968816970370012
5025000000.0 -0.35101368913081193 -1.0476283281012384
5028000000.0 -0.3741737742377236 -0.9964498251724216
5031000000.0 -0.3454055031355734 -0.9295441175756206
5034000000.0 -0.40332051893009857 -0.9888631230069147
5038000000.0 -0.39849195164346807 -0.9486864192133166
5041000000.0 -0.3271531612410369 -0.9717795422374172
5044000000.0 -0.36244775849672217 -0.9475928366144987
5047000000.0 -0.36649664867191684 -0.9589062016802387
5050000000.0 -0.31739575072639237 -0.9865281286518173
5053000000.0 -0.4380248349763597 -0.9837312659984014
5056000000.0 -0.3534350236213696 -0.9641805172258506
5059000000.0 -0.39841707061353177 -0.9932739375718759
5062000000.0 -0.4627602618794886 -0.9876819450547574
5066000000.0 -0.4103010339838492 -0.9468600460591894
5069000000.0 -0.48540703156871556 -0.9370091240841197
5072000000.0 -0.43535125034002 -0.9114929966634158
5075000000.0 -0.43806061653899997 -0.9236761684939727
5078000000.0 -0.4860954632936359 -0.9489505802468707
5081000000.0 -0.4544521371442634 -0.8726624760592955
5084000000.0 -0.5032324723569056 -0.9232577066296741
5088000000.0 -0.4631588500397966 -0.9285984902275313
5091000000.0 -0.5454387869731327 -0.9087441691659808
5094000000.0 -0.49906049241142564 -0.8868116589392164
5097000000.0 -0.4585012571074242 -0.9248427804220634
5100000000.0 -0.5290441112107949 -0.906997571951753
5103000000.0 -0.5461997074211472 -0.863721825326483
5106000000.0 -0.48280809928451013 -0.8978424184955209
5109000000.0 -0.4351542707885554 -0.9162190958898784
5112000000.0 -0.5584962101136527 -0.8568232424834585
5116000000.0 -0.5280593571782006 -0.8094755415505501
5119000000.0 -0.5847911637545196 -0.8846986435782835
5122000000.0 -0.510661509941226 -0.8722337202015955
5125000000.0 -0.5423169241462249 -0.8550219935867386
5128000000.0 -0.6234261240265792 -0.8530015116151834
5131000000.0 -0.5812966582586856 -0.8541141277893674
5134000000.0 -0.5941941870940618 -0.824930039849809
5138000000.0 -0.5714651744892055 -0.829451540506945
5141000000.0 -0.5765451004921918 -0.8784242454709805
5144000000.0 -0.6146186115743552 -0.8646406832839576
5147000000.0 -0.6430396187069846 -0.8783976477999786
5150000000.0 -0.5812912289217096 -0.8315773563498103
5153000000.0 -0.6488448650156466 -0.8679550488227759
5156000000.0 -0.620758393323406 -0.84956996529762
5159000000.0 -0.6296732889740718 -0.8438420384014093
5162000000.0 -0.6556016118364323 -0.8012005647366597
5166000000.0 -0.7043493091771071 -0.7901004033029156
5169000000.0 -0.6594048780996273 -0.8256945646387669
5172000000.0 -0.6886129064987867 -0.7896993329770519
5175000000.0 -0.659158143765165 -0.795485129930476
5178000000.0 -0.6809079968934617 -0.7426720457748858
5181000000.0 -0.6764610670715894 -0.8027468089297941
5184000000.0 -0.6912143357231089 -0.7525650077583153
5188000000.0 -0.6623262343146358 -0.768642182268786
