! Created with skrf 1.8.0 (http://scikit-rf.org).
# Hz S RI R 50.0 
!freq ReS11 ImS11
4000000000.0 0.6448481223011898 0.7989704661334793
4003000000.0 0.6285575578950341 0.8510721774450967
4006000000.0 0.6678191590716291 0.798313565608096
4009000000.0 0.6645281806503405 0.7763563133759719
4012000000.0 0.6167344273503713 0.8785929333477392
4016000000.0 0.6994989105944552 0.7686263055105518
4019000000.0 0.6474544506370574 0.7595515631386874
4022000000.0 0.6331073621079426 0.789819484587726
4025000000.0 0.7408994430970054 0.7184052988131374
4028000000.0 0.7304123333739946 0.7419598480182479
4031000000.0 0.6982588271126198 0.76971448527796
4034000000.0 0.7430098576564992 0.712664669023271
4038000000.0 0.7473213322828144 0.7631883676093669
4041000000.0 0.7182121913799973 0.7207813001576746
4044000000.0 0.7445767997203775 0.7630699492088219
4047000000.0 0.709079518424081 0.7805811794333007
4050000000.0 0.7930565245828978 0.6942626665672251
4053000000.0 0.7610345745928153 0.6613531219408704
4056000000.0 0.7768311372916944 0.6701018691827227
4059000000.0 0.7506861673299204 0.727605267675254
4062000000.0 0.7927782299070572 0.6611240849274072
4066000000.0 0.7172152059344687 0.6465926796542234
4069000000.0 0.8384206908974361 0.6518608287029799
4072000000.0 0.7540189526359433 0.71604102582479
4075000000.0 0.7927921824386217 0.7504368395504961
4078000000.0 0.8198394922848026 0.6545203701642065
4081000000.0 0.7706346815519336 0.6929585298292309
4084000000.0 0.8303376991440499 0.6642904577170161
4088000000.0 0.7983019663200059 0.6637015214879998
4091000000.0 0.8512720223411762 0.6758367519526545
4094000000.0 0.7952852038591511 0.6486026093085486
4097000000.0 0.8089990831447408 0.6054035870998993
4100000000.0 0.8335630035858785 0.6169902280862858
4103000000.0 0.8231686569427874 0.6642655942377045
4106000000.0 0.8229408958216226 0.5930975833688117
4109000000.0 0.8367800224887121 0.5775518666003399
4112000000.0 0.8576100385238239 0.6040396702538056
4116000000.0 0.8321027464437869 0.6203142540271604
4119000000.0 0.8410373495903591 0.5567706638258456
4122000000.0 0.8628638274266706 0.5364241035594944
4125000000.0 0.8906186706153952 0.5615954091195392
4128000000.0 0.8264839069850748 0.5423174531162775
4131000000.0 0.8743158789866343 0.5384027804717088
4134000000.0 0.8461478064453871 0.5554529477574374
4138000000.0 0.8460375485713445 0.5126891050811242
4141000000.0 0.8591046215287685 0.5044156397040533
4144000000.0 0.8917953626166236 0.5422488111023893
4147000000.0 0.8802517494722729 0.45199215421134903
4150000000.0 0.9362866549193926 0.5459678538189094
4153000000.0 0.876066554767684 0.47653443971511733
4156000000.0 0.8877780552523955 0.5036801048298767
4159000000.0 0.8841073125412118 0.47931996072916944
4162000000.0 0.890359479658694 0.5035787834616129
4166000000.0 0.9198962825862242 0.4600876443185391
4169000000.0 0.9244065585466235 0.4665662602803974
4172000000.0 0.9161112112368395 0.4565272694493055
4175000000.0 0.9369906791841157 0.4618937118232375
4178000000.0 0.9362233864600535 0.43286259628338586
4181000000.0 0.9199349071548997 0.41963057336314735
4184000000.0 0.9270431950868574 0.42600835287818134
4188000000.0 0.9146223948123067 0.40477225030926134
4191000000.0 0.9059159065502351 0.47446025452020696
4194000000.0 0.9216754732438222 0.3859884524782763
4197000000.0 0.9559769677032594 0.40571296126246886
4200000000.0 0.9385502773211378 0.4014902916457259
4203000000.0 0.9368538305884413 0.39919727051072695
4206000000.0 0.9802410849596751 0.3557075118434377
4209000000.0 0.9528509897623011 0.3583775969515666
4212000000.0 0.9644230880826747 0.3195360524662991
4216000000.0 0.9613346757472844 0.3569774463650473
4219000000.0 0.9748143084257479 0.34538571644397154
4222000000.0 0.9761176759665067 0.3342871653261206
4225000000.0 0.9586134042488701 0.3296400129887729
4228000000.0 0.9987227313898184 0.3306685922379793
4231000000.0 0.9687398572243593 0.29624528516219145
4234000000.0 0.992801873160551 0.2979934136496019
4238000000.0 0.9872651990495598 0.27211882764830864
4241000000.0 0.9873633834828972 0.26295848629950536
4244000000.0 0.968434826071671 0.2756541743140709
4247000000.0 0.9783677864160367 0.27838636005171447
4250000000.0 0.9504301863309537 0.23124347249071314
4253000000.0 0.9568090358326047 0.24312678436962692
4256000000.0 0.9909955366528522 0.24734702547280474
4259000000.0 0.9476268981774949 0.20037823495486431
4262000000.0 0.9640188676618886 0.21535765699057394
4266000000.0 1.004876253452728 0.1850449757202765
4269000000.0 0.98246779712588 0.21671937013645723
4272000000.0 0.9802495860559949 0.19587955776854227
4275000000.0 0.9913442139473687 0.17872418753026753
4278000000.0 1.015609149078104 0.16998764242158315
4281000000.0 0.9996564655370666 0.1703924439771593
4284000000.0 1.017195072189867 0.13205566790384124
4288000000.0 1.0048563988919703 0.18838454334395355
4291000000.0 0.9556222297703658 0.14030540109259032
4294000000.0 0.9816036678611705 0.10932953398326058
4297000000.0 0.9932705952166674 0.14131847271954523
4300000000.0 0.9807889936223262 0.13198954392062673
4303000000.0 0.9764364626770667 0.08122634514292597
4306000000.0 1.012051110999371 0.12809319670106686
4309000000.0 0.9906869753411854 0.1021548026610825
4312000000.0 1.0270508878879325 0.12097748985544646
4316000000.0 1.0304196587493557 0.08817820534540556
4319000000.0 1.0081560132874103 0.09387047813968398
4322000000.0 0.9996915446730654 0.035284493998996344
4325000000.0 1.0316041439882646 0.05842992582929048
4328000000.0 1.0016297934082479 0.04719787544766678
4331000000.0 1.0407581967913513 0.016944538594434705
4334000000.0 1.0263848345632456 0.007839301629554318
4338000000.0 1.014680582704701 0.05458817373914328
4341000000.0 1.0064840001013737 0.0473391338846087
4344000000.0 1.0227467299426523 -0.006848831387394727
4347000000.0 1.01265166970432 -0.03939683995161403
4350000000.0 0.9678967477678263 -0.02073236817435628
4353000000.0 0.9946875857954738 0.006298039015545404
4356000000.0 0.9848324238674693 -0.07512106299576685
4359000000.0 0.9566557794445053 -0.0538382482112013
4362000000.0 1.0149602483463491 -0.07884032594199444
4366000000.0 1.0316423805252468 -0.07078975251024633
4369000000.0 0.9731454972035741 -0.07039385369202744
4372000000.0 0.978055529492946 -0.11195467783139908
4375000000.0 1.0052605723485954 -0.06585643091205384
4378000000.0 0.9854626368792219 -0.10188245587090196
4381000000.0 0.9589429082443912 -0.08276979699863521
4384000000.0 1.0622644265946897 -0.12363160751259034
4388000000.0 0.9735949610624962 -0.10898885510945225
4391000000.0 1.003418557168035 -0.12521601623840722
4394000000.0 0.9737275761049367 -0.15753564976404427
4397000000.0 0.9814379405814262 -0.14673590264783057
4400000000.0 1.012572348227765 -0.15889593978797112
4403000000.0 0.9966951595722748 -0.15864766510385458
4406000000.0 1.010314698531682 -0.18570271689005846
4409000000.0 1.0204838018522964 -0.18177448963946202
4412000000.0 0.9702805769237586 -0.2502711495630719
4416000000.0 0.9720746360023267 -0.20569142545171457
4419000000.0 0.9793167568996544 -0.23291216744814744
4422000000.0 0.9811668181795095 -0.20336582562512784
4425000000.0 1.0094608201753457 -0.20185565596008564
4428000000.0 0.9842585361732488 -0.24415703650979698
4431000000.0 0.9933293766291682 -0.2282346314356846
4434000000.0 0.9682635677382375 -0.24471079754664318
4438000000.0 1.0083978554131479 -0.2683123285189854
4441000000.0 0.9898638051098188 -0.265427357808839
4444000000.0 0.9465730128783114 -0.2537261387093301
4447000000.0 0.9665730675057387 -0.298339434305285
4450000000.0 0.9647136622901412 -0.2773942358893137
4453000000.0 0.9863003199818637 -0.30326459320345944
4456000000.0 0.9289117925720657 -0.3023466177670866
4459000000.0 0.921034371223842 -0.3102359995966313
4462000000.0 1.016255578292035 -0.3526849407312358
4466000000.0 0.9953124269026299 -0.3632994677391433
4469000000.0 0.9489454171561876 -0.3181510452643861
4472000000.0 0.9572865854731849 -0.38207743997106675
4475000000.0 0.9188830017580419 -0.3523186132957571
4478000000.0 0.9682215994364698 -0.40709716215381986
4481000000.0 0.8998675452176673 -0.3664402753774738
4484000000.0 0.9055093256550826 -0.43024522635282425
4488000000.0 0.9098068190115538 -0.3949852476234071
4491000000.0 0.9209900651554588 -0.41514698470056616
4494000000.0 0.9306627402165495 -0.3975539452814964
4497000000.0 0.9238583575812616 -0.3844043953238967
4500000000.0 0.9269859100536686 -0.40423325107319674
4503000000.0 0.937908890647712 -0.4295714470940729
4506000000.0 0.8926469627822482 -0.44099630873865014
4509000000.0 0.8575129369810823 -0.4337992134801175
4512000000.0 0.8624133349096188 -0.4558150622146222
4516000000.0 0.9069200265010703 -0.4698373679834087
4519000000.0 0.8742671590349718 -0.45204994984903907
4522000000.0 0.8706335122432709 -0.486542202240194
4525000000.0 0.8903132628974813 -0.45417109066723627
4528000000.0 0.8668338930655917 -0.4995315174741718
4531000000.0 0.8742682976590936 -0.47489408015853884
4534000000.0 0.845607865034549 -0.5066357294762308
4538000000.0 0.8605558919982994 -0.5141052679559106
4541000000.0 0.8180513684851972 -0.5529781283715459
4544000000.0 0.8500590371703871 -0.5233633265058169
4547000000.0 0.8449130784123577 -0.5262461666634581
4550000000.0 0.8393165543791561 -0.5737265131854691
4553000000.0 0.8385888787932008 -0.5697270656439778
4556000000.0 0.8235578179765306 -0.5604968496335457
4559000000.0 0.8298446430055162 -0.5912392720591879
4562000000.0 0.8384787397379097 -0.5904984505973725
4566000000.0 0.8031130090742669 -0.6004978690913652
4569000000.0 0.7978070380824985 -0.5974473069870683
4572000000.0 0.8120110026480019 -0.5989873457520709
4575000000.0 0.7970358920641409 -0.6209226043640331
4578000000.0 0.8268664148003109 -0.61214843343765
4581000000.0 0.7694265597129916 -0.6181416148278667
4584000000.0 0.779713116110441 -0.6363021401730502
4588000000.0 0.8071453639898098 -0.6378839179583291
4591000000.0 0.7701109027706662 -0.6187534217750297
4594000000.0 0.7493343979627616 -0.6660973328962997
4597000000.0 0.7690201105060741 -0.671513054953523
4600000000.0 0.7184532979121152 -0.6638610572680891
4603000000.0 0.744870616738705 -0.689316285271286
4606000000.0 0.7728474318703787 -0.6786777644980669
4609000000.0 0.7435017697875276 -0.6750839225035203
4612000000.0 0.7384279507365666 -0.7025693985692547
4616000000.0 0.725013307449047 -0.6963134864242728
4619000000.0 0.7293578262597694 -0.7065578832433881
4622000000.0 0.708773148678292 -0.7123322744208535
4625000000.0 0.6826496748160449 -0.7003127237128726
4628000000.0 0.6976717440491131 -0.6981418924326002
4631000000.0 0.686357294023942 -0.7337539695536031
4634000000.0 0.685617667575816 -0.7251908869451343
4638000000.0 0.6958443707813335 -0.7524246217025917
4641000000.0 0.6974431852641342 -0.7418382269771232
4644000000.0 0.6503680975608694 -0.7639414616762755
4647000000.0 0.6582633038466598 -0.7791100529840429
4650000000.0 0.6388684749843183 -0.7611319411807369
4653000000.0 0.6697528065912494 -0.7659726732961472
4656000000.0 0.6307808631216483 -0.7683742559322084
4659000000.0 0.634331079381164 -0.7766083906883101
4662000000.0 0.6363449212728237 -0.8013678005905569
4666000000.0 0.6144036183455179 -0.7821697747911817
4669000000.0 0.6322254248636547 -0.7926495542283754
4672000000.0 0.5916460564740151 -0.824186420129742
4675000000.0 0.5782144051672894 -0.8321835618223231
4678000000.0 0.5947345006228679 -0.7947872916517099
4681000000.0 0.5554512477586586 -0.8680208030890039
4684000000.0 0.5487525203429 -0.8610983819586894
4688000000.0 0.5608157982613609 -0.8439026701526492
4691000000.0 0.5804698901579575 -0.844003472457477
4694000000.0 0.5660918922705037 -0.8189782953357034
4697000000.0 0.5101435499516738 -0.8355028754439682
4700000000.0 0.5684395340667906 -0.8374985852783092
4703000000.0 0.5652748177251823 -0.8227451988575485
4706000000.0 0.5191514566289184 -0.8786162843548506
4709000000.0 0.5142737374172534 -0.8647718658728495
4712000000.0 0.5162738141923693 -0.8711170456390422
4716000000.0 0.524322739386939 -0.8837550169564958
4719000000.0 0.507333305325026 -0.8515877003555871
4722000000.0 0.5192420571507681 -0.8627178878886457
4725000000.0 0.5016819568888365 -0.8821593086175482
4728000000.0 0.44577528383719744 -0.8912055585169585
4731000000.0 0.501269227639039 -0.9060099723746775
4734000000.0 0.45463613020475213 -0.8856074158987681
4738000000.0 0.4692129827037998 -0.9275596863122535
4741000000.0 0.44845689708353753 -0.909728414370201
4744000000.0 0.43928695431256604 -0.9212630991453261
4747000000.0 0.4387432360298739 -0.9038088005340512
4750000000.0 0.42812288940760124 -0.9288050268099017
4753000000.0 0.44449295591292337 -0.9225055882327465
4756000000.0 0.40941306880996964 -0.9495168524341331
4759000000.0 0.3885046058075925 -0.9475804586192689
4762000000.0 0.36292852637346873 -0.950817132674945
4766000000.0 0.39762314322772846 -0.9332909325706743
4769000000.0 0.38187316028993457 -0.9673781947896031
4772000000.0 0.3659715674466251 -0.950606181101985
4775000000.0 0.3495179761180472 -1.003391322469336
4778000000.0 0.3383951216064664 -0.9665681482670915
4781000000.0 0.37503039211878214 -0.9370713997862645
4784000000.0 0.36028047485309816 -0.9450792644840477
4788000000.0 0.312113203742169 -0.9794527842360035
4791000000.0 0.31912410847362516 -0.9317520293737523
4794000000.0 0.33768594316218864 -0.9859733971016988
4797000000.0 0.2931277401457062 -0.9737823902886132
4800000000.0 0.2670976190163798 -0.9249618369257713
4803000000.0 0.2582717432109251 -0.9750356057373235
4806000000.0 0.2752422400580635 -0.9982182884467583
4809000000.0 0.23064101472967388 -0.9600652615776485
4812000000.0 0.22702154486273984 -0.9779106076847528
4816000000.0 0.253159236183977 -0.9630914786041447
4819000000.0 0.266826116047579 -0.9964214831747271
4822000000.0 0.25773796799817283 -1.0082529569250485
4825000000.0 0.24517350377477426 -1.0007893322490418
4828000000.0 0.2215833815283549 -0.9686096565113006
4831000000.0 0.1837673438027863 -1.0394307433200427
4834000000.0 0.24363602384875893 -0.9971958209709222
4838000000.0 0.1913842786262138 -1.0228943717327599
4841000000.0 0.18243547646321553 -0.9973489045563152
4844000000.0 0.21711687231508486 -1.0086623162114272
4847000000.0 0.18238109167679678 -0.9758516665842432
4850000000.0 0.16396289809384867 -1.0233669905139062
4853000000.0 0.17238933542932156 -0.9824837443633248
4856000000.0 0.1495079612944687 -1.0027636491586291
4859000000.0 0.134400443885691 -1.0396546111829923
4862000000.0 0.1523118623557241 -0.9975359104247922
4866000000.0 0.10510878267670437 -1.0216685354525108
4869000000.0 0.08726011246147437 -1.0370334736904956
4872000000.0 0.08651454100744688 -1.0683406296455376
4875000000.0 0.137757052784678 -1.058493812097232
4878000000.0 0.09689667838519192 -1.0346634680663613
4881000000.0 0.059113673628167496 -1.0990097642747
4884000000.0 0.06334602629572424 -1.0511179892626599
4888000000.0 0.09420354430160748 -1.0110180822817958
4891000000.0 0.09854642530871717 -1.0382651971598793
4894000000.0 0.016559987111875563 -1.0392990583837158
4897000000.0 0.06539562769568759 -1.0216691561739908
4900000000.0 0.034838971048952096 -1.0665238679966653
4903000000.0 0.05915661193478271 -1.04194824175367
4906000000.0 0.013296055008015183 -1.0428123890293033
4909000000.0 -0.032439339819655466 -1.0262855073160795
4912000000.0 -0.005258123365669748 -1.0673231471692997
4916000000.0 0.03491757481830053 -1.0305801395939433
4919000000.0 0.018483316097676325 -1.0338000601053619
4922000000.0 0.02266514950256976 -1.0489332747305102
4925000000.0 -0.03775267546613906 -1.0340052396696977
4928000000.0 0.02237203662487615 -1.03728798508147
4931000000.0 -0.025559493120864044 -1.04060440367852
4934000000.0 -0.0655412076587129 -1.0064508851492537
4938000000.0 -0.11486492395986801 -0.9913847541113182
4941000000.0 -0.07274771046217111 -1.026389041216923
4944000000.0 -0.04312109783332396 -0.9957393184466283
4947000000.0 -0.09689241114836858 -0.9906925125662047
4950000000.0 -0.09907852339194044 -0.965880827074941
4953000000.0 -0.14532025249148794 -1.0443409529678633
4956000000.0 -0.16569356495746795 -1.0181550478382069
4959000000.0 -0.14285933032241308 -0.9649004220910165
4962000000.0 -0.11966233921410921 -1.0075377849624838
4966000000.0 -0.08670991735162015 -1.076777046231999
4969000000.0 -0.1171252168599794 -1.0635646309344557
4972000000.0 -0.17824846661859264 -1.034461570821463
4975000000.0 -0.15365446003174468 -0.9962115212438937
4978000000.0 -0.18193424623704446 -1.0384168281201362
4981000000.0 -0.1708953313690754 -1.033003494059487
4984000000.0 -0.14438718771295925 -0.981702936895396
4988000000.0 -0.1638189335121325 -1.0013144512614522
4991000000.0 -0.1752127180814848 -1.0575789598289111
4994000000.0 -0.2080210100547798 -1.0141075675570363
4997000000.0 -0.24401174339498016 -1.0086029102237803
5000000000.0 -0.2108715245270823 -1.0475690490599066
5003000000.0 -0.21557338841015294 -1.035316011830156
5006000000.0 -0.26496146572169443 -1.069446566783603
5009000000.0 -0.22919117696666877 -1.0165602412421133
5012000000.0 -0.2593230349634652 -1.007723762579884
5016000000.0 -0.2361016631373356 -1.0378220663722726
5019000000.0 -0.274575440960706 -0.9630496124220205
5022000000.0 -0.260435980286952 -1.0044726505031647
5025000000.0 -0.30730582519204 -1.0633914049088926
5028000000.0 -0.32995089798047617 -1.0141029555128327
5031000000.0 -0.33323211695094646 -0.9784296707272516
5034000000.0 -0.3599559998211258 -1.0047656492387262
5038000000.0 -0.3236022149708393 -0.959187881256238
5041000000.0 -0.2887998816004745 -0.9918164531325516
5044000000.0 -0.2978266900961697 -0.9636116639373834
5047000000.0 -0.3018819777545941 -0.96815028401122
5050000000.0 -0.26913616892762215 -1.0018518824071496
5053000000.0 -0.39710616850295777 -0.9854368658209534
5056000000.0 -0.3276761294932803 -1.0251879097918446
5059000000.0 -0.3558383603478294 -1.0110399150240763
5062000000.0 -0.4418335340942916 -0.9491694489585556
5066000000.0 -0.36382465570097944 -0.9392922561256083
5069000000.0 -0.3856688645717633 -0.9945922745876118
5072000000.0 -0.376155079107479 -0.9348032347008468
5075000000.0 -0.36895545224752724 -0.9784517084818658
5078000000.0 -0.4570485662776101 -0.9561218171048682
5081000000.0 -0.4107125574757983 -0.8768515621671388
5084000000.0 -0.45276459972455485 -0.9615237320924597
5088000000.0 -0.4133686045185187 -0.9454677902688056
5091000000.0 -0.47075465937965516 -0.897916114426673
5094000000.0 -0.4703349412443106 -0.951763323707299
5097000000.0 -0.4633458837953157 -0.9489345869920047
5100000000.0 -0.492757564356153 -0.8886581719472214
5103000000.0 -0.4803414509706504 -0.8930739144129777
5106000000.0 -0.4364295878378384 -0.9631960782622377
5109000000.0 -0.43290817081875016 -0.9059951685105163
5112000000.0 -0.561292358864319 -0.8648737810670921
5116000000.0 -0.43058539175629235 -0.8869718169507936
5119000000.0 -0.4703409968679175 -0.9378452552024525
5122000000.0 -0.487863175397091 -0.8782170729255172
5125000000.0 -0.5317962604869754 -0.9036723540288297
5128000000.0 -0.529409209948031 -0.8561358102966923
5131000000.0 -0.5416536854560836 -0.8910109648471959
5134000000.0 -0.5351241154536917 -0.9195462571491719
5138000000.0 -0.5197815140781493 -0.870065252399227
5141000000.0 -0.5022279715279594 -0.9212604732010348
5144000000.0 -0.5606258251831173 -0.8979241051768004
5147000000.0 -0.5881398325945725 -0.8950446488117474
5150000000.0 -0.5903780614998587 -0.8803489297904096
5153000000.0 -0.586687723576373 -0.8716475207158524
5156000000.0 -0.5924112292935134 -0.9001388387498451
5159000000.0 -0.5818889243445476 -0.8579459480965187
5162000000.0 -0.6111454877358059 -0.821258260507788
5166000000.0 -0.6101358192159804 -0.8237749338560167
5169000000.0 -0.6440969648939248 -0.81767179584556
5172000000.0 -0.6096048700772759 -0.841365156275755
5175000000.0 -0.6504856085570174 -0.842281256137619
5178000000.0 -0.6302338176636078 -0.8164239692546161
5181000000.0 -0.659280542037252 -0.8553994613277925
5184000000.0 -0.6515584116407903 -0.8129906945746278
5188000000.0 -0.636752622730411 -0.7880112884307762
5191000000.0 -0.6947456792753768 -0.8162569130846739
