! Created with skrf 1.8.0 (http://scikit-rf.org).
# Hz S RI R 50.0 
!freq ReS11 ImS11
4000000000.0 0.6578315683410314 0.7781773745435605
4003000000.0 0.7058899488692534 0.824299596228039
4006000000.0 0.6796598132958589 0.7590161516935473
4009000000.0 0.6723943047910507 0.7770974358887371
4012000000.0 0.6591614029873175 0.805689474441858
4016000000.0 0.7492110046691164 0.7198560068503095
4019000000.0 0.6940769249895968 0.7286675693348541
4022000000.0 0.7008909293890279 0.7909495702391431
4025000000.0 0.790997186194516 0.7100888697682216
4028000000.0 0.7568313862786821 0.70722977850129
4031000000.0 0.7308941689876497 0.6945144248224322
4034000000.0 0.7312479877557464 0.6632599946274794
4038000000.0 0.7621674121980463 0.662337646537953
4041000000.0 0.7724951812215896 0.6890468662937426
4044000000.0 0.7615541051389407 0.719619472327272
4047000000.0 0.7744152664055539 0.7336261969377759
4050000000.0 0.8299329772535365 0.6914017527228867
4053000000.0 0.7955617318117572 0.6411602798592186
4056000000.0 0.8027373810274853 0.6499597278395712
4059000000.0 0.7570900105562294 0.6661448910573555
4062000000.0 0.7961434595477006 0.6577703378542274
4066000000.0 0.7651725693650115 0.6263435699280134
4069000000.0 0.8924030815562559 0.6097993088882869
4072000000.0 0.7662943306094596 0.637047196094976
4075000000.0 0.8440334401513087 0.650296249603616
4078000000.0 0.8612136046709127 0.6142590454344858
4081000000.0 0.8332502122375632 0.6969427002702862
4084000000.0 0.8798346054556321 0.5845222279801872
4088000000.0 0.818657019106801 0.6174525613047391
4091000000.0 0.8862364007138395 0.6186616482174265
4094000000.0 0.8556197060651647 0.6002220044132552
4097000000.0 0.8369802925892698 0.5578307881694484
4100000000.0 0.8625638325779995 0.5273057378060189
4103000000.0 0.9069481527913443 0.5939820646763034
4106000000.0 0.8879799404710134 0.5294483779907031
4109000000.0 0.8688336851020553 0.5216621001076229
4112000000.0 0.8720855432301793 0.5673272422099525
4116000000.0 0.881157782562122 0.5436314825753356
4119000000.0 0.900992954181145 0.533630528190193
4122000000.0 0.9359542635154497 0.4923905427592219
4125000000.0 0.9195575250507076 0.49013194067062177
4128000000.0 0.8767597732686094 0.5263842834076181
4131000000.0 0.9078203918305617 0.47592282145741416
4134000000.0 0.8960984505051791 0.48110121292494645
4138000000.0 0.8943092701004571 0.4472685423215614
4141000000.0 0.9200961867993885 0.45420222054192505
4144000000.0 0.9120871279325512 0.4482072309525657
4147000000.0 0.9622782815395965 0.4412770184784091
4150000000.0 0.9649232745557393 0.4764243328678321
4153000000.0 0.9506585997124817 0.421303743618457
4156000000.0 0.9572435766811909 0.4571473016671198
4159000000.0 0.9134619951155576 0.4292350573514429
4162000000.0 0.9182323668211203 0.3980666194367004
4166000000.0 0.9930772013976183 0.3894180975947522
4169000000.0 0.9358577775910385 0.39144929599387435
4172000000.0 0.9683385912816864 0.4152862638718015
4175000000.0 0.9657623182321501 0.40057765156361463
4178000000.0 0.9700713504650755 0.3860781152749915
4181000000.0 0.9817124809492599 0.36955613867210935
4184000000.0 0.9417751150270647 0.3474585987152142
4188000000.0 0.9661013175984459 0.3318408438743463
4191000000.0 0.9307306556624839 0.36773750523206655
4194000000.0 0.9521091825189584 0.34925949865798467
4197000000.0 0.9692503100291117 0.3432644438368622
4200000000.0 0.9831291204981549 0.34137571921596765
4203000000.0 0.9895571234086534 0.32993545152620407
4206000000.0 0.989377119030407 0.30688707394694065
4209000000.0 0.9665923999906165 0.30001073359214186
4212000000.0 0.9804426049936533 0.2587390075661603
4216000000.0 0.9828763565977119 0.2978309207858673
4219000000.0 0.9925525250603041 0.29556910795603464
4222000000.0 0.9931359758467297 0.2418251891627236
4225000000.0 0.9839321776402223 0.25850481779272216
4228000000.0 0.9936399834540752 0.2545243575433037
4231000000.0 0.9938750489495107 0.2411062958264612
4234000000.0 1.0139877459917916 0.22171610176604534
4238000000.0 1.0012876317338835 0.1867108216526078
4241000000.0 0.9811639493477562 0.18093646620170012
4244000000.0 1.0042672967044652 0.2047508811769549
4247000000.0 0.985253622564606 0.19040193548575285
4250000000.0 0.9851786994710148 0.18286050250561542
4253000000.0 0.9752678507598822 0.17212686336717542
4256000000.0 1.053939785200018 0.1448973920914322
4259000000.0 0.9472466212763047 0.12374118693258512
4262000000.0 0.9864372786562494 0.12944958416227992
4266000000.0 1.0147263959815953 0.10046220737115824
4269000000.0 1.0128749223054703 0.1488605630414464
4272000000.0 0.9972623356724633 0.12677768978861817
4275000000.0 1.0191087232858909 0.11531420692698074
4278000000.0 1.028230922888511 0.11005847630859314
4281000000.0 1.0233044698342075 0.12010985879289744
4284000000.0 1.0252635602539377 0.06295357773877305
4288000000.0 1.0000116765258351 0.10306718460495864
4291000000.0 0.997671524085788 0.0642779335635587
4294000000.0 1.0208929198451844 0.05512800938880617
4297000000.0 1.016083124123268 0.07676538707812393
4300000000.0 0.9867213052860964 0.035820134752115936
4303000000.0 1.0000851778623394 0.014301782341807165
4306000000.0 1.012646537390709 0.06007640774643855
4309000000.0 1.0177014097775525 0.016929795262291367
4312000000.0 1.047294508454233 0.046314836588456615
4316000000.0 1.0138106715917585 0.010258243622668778
4319000000.0 1.0360578884412248 0.005089064095836135
4322000000.0 0.9945904209078493 -0.03346993734405895
4325000000.0 1.0244493592113537 -0.004582192648580452
4328000000.0 1.0130128410826598 -0.04990125121837884
4331000000.0 1.0072237702231919 -0.0627793357011048
4334000000.0 1.0199087517444734 -0.03707473660279631
4338000000.0 1.0073570179462341 -0.056641171132779375
4341000000.0 1.0435600809578665 -0.027797020904529027
4344000000.0 1.01595800118409 -0.0537366002037033
4347000000.0 1.0404337958003391 -0.12916327427351718
4350000000.0 0.9733430769951823 -0.11187189165203551
4353000000.0 0.9765730142894911 -0.07960688525607094
4356000000.0 0.985209237888569 -0.14655336541526048
4359000000.0 0.9609299500906572 -0.10505907054241066
4362000000.0 1.0040547462414904 -0.17415519645624017
4366000000.0 1.0253140643277259 -0.16887353089024218
4369000000.0 0.975056921416024 -0.17067940713026425
4372000000.0 0.9750377932891432 -0.19295313240641654
4375000000.0 1.015107935738315 -0.161359069785593
4378000000.0 0.9761255529686399 -0.17117742952936887
4381000000.0 0.9754262589207163 -0.1647436472945235
4384000000.0 1.0521230608297372 -0.22623527385289027
4388000000.0 0.9944765250295828 -0.18828734685720847
4391000000.0 1.0036186825538218 -0.212082731019133
4394000000.0 0.9598350499095398 -0.2199640561683963
4397000000.0 0.9753208594101985 -0.2306094792998555
4400000000.0 1.0092970459178494 -0.2523258649936788
4403000000.0 0.994230449428058 -0.2640845873191041
4406000000.0 0.9820222010468967 -0.27572538429262616
4409000000.0 0.9982592201224192 -0.2835094214645367
4412000000.0 0.9428682515134352 -0.3244487824308334
4416000000.0 0.9575400381186299 -0.2903939266161716
4419000000.0 0.9573484234023835 -0.3071709220320524
4422000000.0 0.9593364382659608 -0.2828706634443089
4425000000.0 0.9857350599877229 -0.2986507323930995
4428000000.0 0.9578278364862141 -0.3396805429195154
4431000000.0 0.9758848486641492 -0.32821814600699384
4434000000.0 0.9371470241515479 -0.34835057548291465
4438000000.0 0.9646642321970895 -0.3639455965982318
4441000000.0 0.9614207675206472 -0.35940374896715416
4444000000.0 0.9396639349918507 -0.3477339062487911
4447000000.0 0.9292686029028066 -0.38229182634624953
4450000000.0 0.9341047480212495 -0.3672796225249882
4453000000.0 0.9488021655205099 -0.39298524169607596
4456000000.0 0.9082875479435758 -0.3986428029695783
4459000000.0 0.8841558935463181 -0.39572511403408783
4462000000.0 0.976962255302561 -0.43837250007405903
4466000000.0 0.9613473251766056 -0.4519260179655149
4469000000.0 0.9094011679801676 -0.40495907246071877
4472000000.0 0.9119835677397421 -0.4631716798436138
4475000000.0 0.8846388444974816 -0.44467445942586126
4478000000.0 0.9214110436030286 -0.4787638017486806
4481000000.0 0.8852685888922366 -0.47311391752854765
4484000000.0 0.8913999007162854 -0.5251081935371881
4488000000.0 0.8652883263253119 -0.49198306071205183
4491000000.0 0.9009679500142969 -0.503176970133085
4494000000.0 0.8634506889771135 -0.47793239831001044
4497000000.0 0.878266625594984 -0.48803171738749634
4500000000.0 0.8794864708397743 -0.4900163362019301
4503000000.0 0.88313827629073 -0.5179536933336732
4506000000.0 0.8630126602709463 -0.5204389459548321
4509000000.0 0.8399382043392376 -0.5145149485318437
4512000000.0 0.8247794767221533 -0.531726737080927
4516000000.0 0.8564391009161144 -0.5569019768577553
4519000000.0 0.8373034035847418 -0.5517159005834008
4522000000.0 0.8173523095558497 -0.5795578806888889
4525000000.0 0.8544529939254093 -0.5640435218155287
4528000000.0 0.8407257892719295 -0.5860204731582819
4531000000.0 0.8397829780564555 -0.5900889210091343
4534000000.0 0.8236684502138814 -0.6092287278965233
4538000000.0 0.8056606605820702 -0.6066660988952566
4541000000.0 0.7774997247516836 -0.6306232951350744
4544000000.0 0.7920542161588955 -0.6019930223523973
4547000000.0 0.7954501248230491 -0.5907314019416352
4550000000.0 0.7821274594851659 -0.6521964237136101
4553000000.0 0.7600650085253633 -0.6566406356748633
4556000000.0 0.7576017879885861 -0.6486278261130813
4559000000.0 0.7680375018906622 -0.6729116676098934
4562000000.0 0.7698673823571873 -0.6557938823973133
4566000000.0 0.755139467118263 -0.6702413074118994
4569000000.0 0.737929109504842 -0.6619393975969523
4572000000.0 0.7532697823266511 -0.6754772990356828
4575000000.0 0.7329498998776145 -0.7019393704324953
4578000000.0 0.7804817267248665 -0.6912090088433447
4581000000.0 0.7187715615482299 -0.7200016362853237
4584000000.0 0.7262992748957654 -0.7266484182150006
4588000000.0 0.7499299142273377 -0.7231314743373265
4591000000.0 0.7355960976610421 -0.7227878804546399
4594000000.0 0.6707981649365942 -0.753784897758388
4597000000.0 0.7071797840044602 -0.7465069407271785
4600000000.0 0.6788573230631069 -0.7580568983223162
4603000000.0 0.6795853848914384 -0.7421260652166954
4606000000.0 0.6804292682304547 -0.7646047520961508
4609000000.0 0.6714374485221263 -0.7472193545633696
4612000000.0 0.6547835161812443 -0.7805680763234577
4616000000.0 0.6341271856834698 -0.7769168502160639
4619000000.0 0.6453056382596398 -0.7598429338827197
4622000000.0 0.6354425226912838 -0.789112811002623
4625000000.0 0.5983381659144403 -0.7934151521555766
4628000000.0 0.6377321488121253 -0.7853798158428454
4631000000.0 0.6126769287594098 -0.8070091239749535
4634000000.0 0.6051020738721201 -0.8134308208983579
4638000000.0 0.6083518753717617 -0.8294232627892617
4641000000.0 0.60823645650251 -0.812184614493289
4644000000.0 0.5907585693827229 -0.8130326008995263
4647000000.0 0.5922351918107237 -0.8270895655779662
4650000000.0 0.560908792191506 -0.8260825185856273
4653000000.0 0.6044314416653356 -0.8600087939566323
4656000000.0 0.5391164869187618 -0.8477472554887395
4659000000.0 0.5509198172296759 -0.8434712548238196
4662000000.0 0.5447595977258195 -0.8778693629056488
4666000000.0 0.5437762340209579 -0.851371618530919
4669000000.0 0.541857806166239 -0.8613760198458649
4672000000.0 0.4974841716398908 -0.9029326649341907
4675000000.0 0.505580393786627 -0.8766142210039449
4678000000.0 0.5013483784416795 -0.8735782245278867
4681000000.0 0.47636498531063864 -0.9031652996925205
4684000000.0 0.49372166141352053 -0.9238646272929476
4688000000.0 0.46435088857473666 -0.886439766186166
4691000000.0 0.49959797282292084 -0.9029944956496507
4694000000.0 0.49268999942177705 -0.8904404566920185
4697000000.0 0.4300094151962065 -0.8864824797296011
4700000000.0 0.46688389865458424 -0.8889596845147587
4703000000.0 0.4614528544838802 -0.8798133542033497
4706000000.0 0.43735680467299526 -0.9471167229321392
4709000000.0 0.4309694007069026 -0.9088104153717498
4712000000.0 0.4280409693770215 -0.9345161084289653
4716000000.0 0.42279097355064876 -0.952819138238693
4719000000.0 0.42806746335584067 -0.9535522532881073
4722000000.0 0.4278547633031337 -0.9494635471857047
4725000000.0 0.4082662271084533 -0.9366190527027548
4728000000.0 0.3728403038356034 -0.9525587825536095
4731000000.0 0.3842360728180705 -0.987735311659413
4734000000.0 0.3879688445658206 -0.9456629480985439
4738000000.0 0.4056570554948502 -0.9991603299573479
4741000000.0 0.3338783631942458 -0.9890484464624462
4744000000.0 0.3314776604913864 -0.9663094913890654
4747000000.0 0.335912539335891 -0.9515251462168962
4750000000.0 0.3190810055397303 -0.960564115335324
4753000000.0 0.32518132400057426 -0.9728140962530639
4756000000.0 0.30045318319310954 -0.9952035141787416
4759000000.0 0.31072743484249055 -0.9930017178211894
4762000000.0 0.2781408272185196 -1.032998094967997
4766000000.0 0.2595019707747389 -0.9846647143316446
4769000000.0 0.275361116569157 -0.9979693670709008
4772000000.0 0.26406944808643606 -1.003637427535397
4775000000.0 0.25873774444294184 -1.0317157391593323
4778000000.0 0.24362872879896644 -1.0251807025947872
4781000000.0 0.25919524577623065 -0.973946298926224
4784000000.0 0.24810052046368705 -0.9896519142439871
4788000000.0 0.18694828256490817 -0.994513346747065
4791000000.0 0.202432026084039 -0.9888504801230141
4794000000.0 0.2361859093839336 -1.04770348586719
4797000000.0 0.19719917100180698 -0.9894806609014649
4800000000.0 0.16715476011649189 -1.012979188767276
4803000000.0 0.10628701767035417 -1.0283418657656964
4806000000.0 0.15429657471251235 -1.0385781209396232
4809000000.0 0.1174416548931311 -1.0149250379350025
4812000000.0 0.10595321103290703 -0.9841719921544096
4816000000.0 0.16800823550907612 -1.0192687050941218
4819000000.0 0.15502957223007413 -1.0302565775067198
4822000000.0 0.15916680180047735 -1.0394352544383776
4825000000.0 0.15851494491843968 -1.0678421872396493
4828000000.0 0.07084905840064457 -1.0159305037730633
4831000000.0 0.055138085213843877 -1.0266212828810946
4834000000.0 0.10545802610336627 -1.0337536001142444
4838000000.0 0.06484285132217207 -1.0420852694751024
4841000000.0 0.0655399988641264 -1.035397082961715
4844000000.0 0.0809148903464148 -1.0453583748388326
4847000000.0 0.07865118505489695 -0.9998651697803891
4850000000.0 0.015564541658357765 -1.0685740991529922
4853000000.0 0.049720616036747524 -1.0118919346168624
4856000000.0 0.03947639002129074 -1.0106339331636478
4859000000.0 -0.004689025830314539 -1.043096320865501
4862000000.0 0.03428726954419388 -1.0030793053854365
4866000000.0 -0.03388867673932209 -1.0397057851525022
4869000000.0 -0.02123224601627705 -1.030327793643794
4872000000.0 -0.04949680638636319 -1.0606673276271827
4875000000.0 0.015007082757736843 -1.0861785864059006
4878000000.0 -0.04362687980212134 -1.0406476110819256
4881000000.0 -0.0838981469945518 -1.0933359437900805
4884000000.0 -0.032779366946458666 -1.0513027508320603
4888000000.0 -0.039632711080054436 -1.04959295208988
4891000000.0 -0.04998451604503104 -1.0644935932957518
4894000000.0 -0.09356628149579346 -1.036729403941205
4897000000.0 -0.06438621127031904 -1.014068379116818
4900000000.0 -0.08865245724863148 -1.023975856228835
4903000000.0 -0.07809324542369137 -1.0225107085236413
4906000000.0 -0.1181698606583511 -1.0650526143914083
4909000000.0 -0.14299241197487275 -1.050353080000515
4912000000.0 -0.13285460800799093 -1.0645241282532005
4916000000.0 -0.1278751180342007 -1.043090766820374
4919000000.0 -0.12328000602509039 -1.0878514599211369
4922000000.0 -0.1022786335516567 -1.034458532516142
4925000000.0 -0.1976167216626357 -1.024200371584341
4928000000.0 -0.09286514434040856 -1.0431185189242824
4931000000.0 -0.1640162463048947 -1.0213782080264295
4934000000.0 -0.15718042765393087 -0.9565045114689333
4938000000.0 -0.22462656043266122 -0.9856907774934576
4941000000.0 -0.16880918035325632 -0.9989872783193956
4944000000.0 -0.18466166898186884 -0.9658151276735536
4947000000.0 -0.21729250760922766 -1.0040734953140635
4950000000.0 -0.21687257527211123 -0.9863072518714107
4953000000.0 -0.3134566024606035 -1.0238826915819472
4956000000.0 -0.2638626794996829 -0.967394149669705
4959000000.0 -0.2876266586458758 -0.9640064081811621
4962000000.0 -0.2944722327152547 -1.0043563013851267
4966000000.0 -0.2718025001364839 -1.010470980506106
4969000000.0 -0.2933109143191427 -1.0511067428371974
4972000000.0 -0.3089030380397676 -1.0001904514270812
4975000000.0 -0.2949953918883572 -0.983730744248945
4978000000.0 -0.29539842161091745 -0.9768314039521968
4981000000.0 -0.348076105865909 -1.007415994890334
4984000000.0 -0.30900720623862177 -0.9940187025670932
4988000000.0 -0.31327428202162894 -0.9947861236775988
4991000000.0 -0.3149000729487254 -1.0216937285810699
4994000000.0 -0.37378274736552886 -0.9693368787409634
4997000000.0 -0.3937668251816781 -0.963268951670355
5000000000.0 -0.34333373853798166 -0.9993958103362335
5003000000.0 -0.378332198377969 -1.0134381564600883
5006000000.0 -0.41607973300072054 -0.9877831507042165
5009000000.0 -0.38560992989559806 -0.9523166384679099
5012000000.0 -0.3962980273838274 -0.9719422369411681
5016000000.0 -0.4037340252453367 -1.0176032766559846
5019000000.0 -0.40966653918656404 -0.9410597906796918
5022000000.0 -0.41037444838718284 -0.9278562196037481
5025000000.0 -0.4489420465020611 -0.9955243923680721
5028000000.0 -0.4616192899309899 -0.9737467224686434
5031000000.0 -0.45802439023302 -0.9243206680851478
5034000000.0 -0.5042456689307184 -0.9712700885853613
5038000000.0 -0.4481024650427422 -0.893163152009717
5041000000.0 -0.43663637564881297 -0.9614756753742252
5044000000.0 -0.46247134376792487 -0.9052754634478567
5047000000.0 -0.4711764634276742 -0.9348595950667159
5050000000.0 -0.4178087935688982 -0.9311439044421073
5053000000.0 -0.5439172942162348 -0.9615679798778736
5056000000.0 -0.46623912477180485 -0.9457730802568034
5059000000.0 -0.48107885973965897 -0.9198025993196876
5062000000.0 -0.5819948055948851 -0.9033567051164801
5066000000.0 -0.466282323966955 -0.9441831315346012
5069000000.0 -0.5402395985827421 -0.912047208524068
5072000000.0 -0.5223310891306012 -0.9042781677436851
5075000000.0 -0.5202052824775852 -0.9046009688414334
5078000000.0 -0.5607498515526363 -0.8448877719406087
5081000000.0 -0.5272826146625038 -0.8638989118051817
5084000000.0 -0.5884272007702889 -0.913514841892813
5088000000.0 -0.5623568488876544 -0.8552080199312992
5091000000.0 -0.556085014528894 -0.8866012698072416
5094000000.0 -0.6027974039272362 -0.8581926457686412
5097000000.0 -0.6046459918423919 -0.8954799794421078
5100000000.0 -0.598157213943708 -0.8311220437569525
5103000000.0 -0.6272469044326165 -0.7895632578459277
5106000000.0 -0.6771256730408058 -0.8699527173963073
5109000000.0 -0.5988850403679747 -0.8559854216393434
5112000000.0 -0.644104310123209 -0.8186137076820668
5116000000.0 -0.6458819683113264 -0.8202245360234042
5119000000.0 -0.6855460466398513 -0.8365071089843319
5122000000.0 -0.6494868557399124 -0.8202164134995884
5125000000.0 -0.5930220214316511 -0.8285889413229053
5128000000.0 -0.641332294163008 -0.7674765947155571
5131000000.0 -0.6435371923699448 -0.7713747374279595
5134000000.0 -0.6958578341359519 -0.7941898791025076
5138000000.0 -0.6307850162939782 -0.7989101411211986
5141000000.0 -0.6451837376659975 -0.8361140225405346
5144000000.0 -0.6637663563264062 -0.801529413392775
5147000000.0 -0.721124066305092 -0.8181288786114818
5150000000.0 -0.6836829525353995 -0.7737521451202531
5153000000.0 -0.7231846067780112 -0.7841849101454162
5156000000.0 -0.7428910814323676 -0.785915757455591
5159000000.0 -0.7339668848857175 -0.8095086961852562
5162000000.0 -0.7555361974316062 -0.7181472813127358
5166000000.0 -0.7517870468020741 -0.7581181351587315
5169000000.0 -0.7350154570290021 -0.7419636934945021
5172000000.0 -0.7296086525207657 -0.7272146741029674
5175000000.0 -0.7659580402149475 -0.7815335804496512
5178000000.0 -0.7706993649481353 -0.7072246829653852
5181000000.0 -0.7757146002200184 -0.7080541145926204
5184000000.0 -0.7890215601677079 -0.712232289721487
5188000000.0 -0.781876609432526 -0.6781691991999891
