! Created with skrf 1.8.0 (http://scikit-rf.org).
# Hz S RI R 50.0 
!freq ReS11 ImS11
4000000000.0 0.6330258696116527 0.7783703918721121
4003000000.0 0.7075577394509168 0.8612601748689253
4006000000.0 0.6751826917811586 0.7206075264490236
4009000000.0 0.7262143424937308 0.7905435223900055
4012000000.0 0.6546587880025332 0.8952845828761214
4016000000.0 0.7464147819913327 0.7797418217924081
4019000000.0 0.6523566636308196 0.7567199611214809
4022000000.0 0.6574433479085212 0.7902091539402385
4025000000.0 0.8036250862546515 0.7150614946132896
4028000000.0 0.7320578842933694 0.7644385161415286
4031000000.0 0.6969267988837695 0.7033112644268248
4034000000.0 0.7268735765731533 0.6901296891107913
4038000000.0 0.7764626522991127 0.7046396664175294
4041000000.0 0.7247567622688437 0.7199050377985631
4044000000.0 0.7926171211354665 0.7636523192809322
4047000000.0 0.7993753693587325 0.7713088779823458
4050000000.0 0.7932602174928499 0.6859626767786079
4053000000.0 0.751278465968115 0.6583459673100194
4056000000.0 0.7936216648789666 0.7164534404776303
4059000000.0 0.7899911756327443 0.6838844984681505
4062000000.0 0.7893550511856936 0.6881251507450552
4066000000.0 0.7733415434909094 0.6389532029743944
4069000000.0 0.8632289194138468 0.6557447245255942
4072000000.0 0.7955012399806102 0.6905287851761848
4075000000.0 0.8538578906947073 0.6921019289140653
4078000000.0 0.8671497885206376 0.6339151150291827
4081000000.0 0.8331333531548379 0.6884097291354176
4084000000.0 0.8484724310526561 0.6464681041515921
4088000000.0 0.8073859895461426 0.6505046080450805
4091000000.0 0.9016991401432073 0.6724530270303974
4094000000.0 0.8379792610047812 0.6339181806802378
4097000000.0 0.873173017322098 0.5933634793915648
4100000000.0 0.8488457601308866 0.5844041320544633
4103000000.0 0.8508947204601469 0.6557027318919659
4106000000.0 0.8949152212937969 0.5857654581261273
4109000000.0 0.8816800292711371 0.5549406366841221
4112000000.0 0.8461131661206356 0.579478049646649
4116000000.0 0.8819041175905541 0.6031530220279816
4119000000.0 0.8923793737635901 0.5504711234999471
4122000000.0 0.908259862768753 0.5307889241230251
4125000000.0 0.9295393243416361 0.5514997327321394
4128000000.0 0.855355458639699 0.5434740943184526
4131000000.0 0.8867939497237395 0.49705848466331115
4134000000.0 0.9053344449455911 0.5552005485585816
4138000000.0 0.9296484251422139 0.4815561422981686
4141000000.0 0.9053283833166649 0.484431975244927
4144000000.0 0.9150136713811728 0.48272174951187524
4147000000.0 0.9314210553558201 0.48240558353911706
4150000000.0 0.972476526002734 0.4798752313661691
4153000000.0 0.9140144634101577 0.4841140104612506
4156000000.0 0.9469610443273575 0.4886508415318709
4159000000.0 0.9287213881829379 0.46383917762341326
4162000000.0 0.9280530749073339 0.47012257519126
4166000000.0 0.9944303713703286 0.4356836668322185
4169000000.0 0.9618960769193426 0.44688710123147235
4172000000.0 0.9381438837321177 0.4160997388098045
4175000000.0 0.9698551986551138 0.43791155968174605
4178000000.0 0.9571170789710038 0.3924825464129691
4181000000.0 0.9784712206175119 0.3684155997153036
4184000000.0 0.9611890397211478 0.4076353441772605
4188000000.0 0.9589891397445511 0.37221296375667245
4191000000.0 0.9558762165265172 0.40496688068535897
4194000000.0 0.965976427956869 0.38264015993757206
4197000000.0 0.98423096283013 0.36507704155763937
4200000000.0 0.9594013785664497 0.3652625245701393
4203000000.0 0.9585359339260078 0.37300787952490744
4206000000.0 0.9991526203537171 0.3635371853017824
4209000000.0 0.9812210096693971 0.3390324205395409
4212000000.0 0.9909651070499976 0.28443145432142136
4216000000.0 0.9818294819381299 0.3205758765656887
4219000000.0 1.0020962411351673 0.3336040788449066
4222000000.0 0.998716374737735 0.3011830893727851
4225000000.0 0.9820319870055185 0.28910615245615634
4228000000.0 0.9957736692266623 0.28195301519546323
4231000000.0 0.997090459590467 0.26302902914205
4234000000.0 1.0184722261643921 0.2695475902889898
4238000000.0 1.0048097554602526 0.2368733311161305
4241000000.0 0.9987448374043761 0.2224695008931315
4244000000.0 1.014507783754684 0.22383559405891285
4247000000.0 0.9921736013743635 0.23919553779887986
4250000000.0 0.9816182656963435 0.20543777909811284
4253000000.0 0.978791083586821 0.19681397565944353
4256000000.0 1.0334462524583912 0.18806709625568718
4259000000.0 0.9837907474056153 0.1683380813384057
4262000000.0 1.0144261947155864 0.17725439731082485
4266000000.0 1.0355064739466746 0.16026234472923273
4269000000.0 1.0084511395192335 0.17266990341639973
4272000000.0 1.0075469670844652 0.16951654585744724
4275000000.0 1.0157633221360345 0.1604921920290558
4278000000.0 1.0211306552831623 0.1236067362299415
4281000000.0 1.0218157463122635 0.15483748359588762
4284000000.0 1.05195277011895 0.10730705057456297
4288000000.0 1.0120260305933304 0.1558695328608874
4291000000.0 0.9795472890275305 0.10346772788673951
4294000000.0 1.0241895153888936 0.08703806505557836
4297000000.0 1.0203497037483382 0.10115205836705642
4300000000.0 1.007949974162866 0.09441752254312744
4303000000.0 1.0039299168724405 0.05474179233249861
4306000000.0 1.0241032427692116 0.08445375064904562
4309000000.0 1.033912895875989 0.07779609962399765
4312000000.0 1.034482094659085 0.07441158317875984
4316000000.0 1.0442387851825052 0.06027435702149066
4319000000.0 0.9989189295845111 0.009309952187402992
4322000000.0 1.0161049589806255 -0.016456426401054325
4325000000.0 1.026358149056501 0.017119473711536007
4328000000.0 1.0112284553469308 -0.005461829151451575
4331000000.0 1.036479579493406 0.003844615809701274
4334000000.0 1.0253375227107984 -0.03137932580761629
4338000000.0 1.031849234531819 0.02182247830250285
4341000000.0 1.0493044828988216 -0.003054687759966826
4344000000.0 1.034708711990907 -0.025952792373406433
4347000000.0 1.0439287485894015 -0.07761604642636129
4350000000.0 0.998761674788908 -0.07791432573151814
4353000000.0 1.0101213961356745 -0.04697481637708166
4356000000.0 1.0094716083245263 -0.09335510861513052
4359000000.0 0.9729606944912884 -0.08288091648253107
4362000000.0 1.025036723769255 -0.13489504976115146
4366000000.0 1.0411626136809067 -0.09923665219291372
4369000000.0 0.9814179577978046 -0.1250871026214087
4372000000.0 0.990419779068366 -0.1538587521419233
4375000000.0 1.0007722433870385 -0.11989987895801495
4378000000.0 1.0139143175241876 -0.1499957012254135
4381000000.0 0.9942869634208977 -0.12663532293862245
4384000000.0 1.0726541009749977 -0.17082867825037037
4388000000.0 0.9860498084523146 -0.155691352734471
4391000000.0 1.0043351495153323 -0.17806465891535256
4394000000.0 0.9705905293859003 -0.17245077707414583
4397000000.0 1.0027641670293368 -0.19383741952977113
4400000000.0 1.0185439550130155 -0.20636854796554338
4403000000.0 1.0030776758308042 -0.19504523216135972
4406000000.0 1.0000986145208255 -0.2322258578585042
4409000000.0 1.010597894549889 -0.2474341345467468
4412000000.0 0.969950212243178 -0.28566653023492605
4416000000.0 0.968976887109483 -0.2562626492376469
4419000000.0 0.9722628336317092 -0.2862780559696225
4422000000.0 0.985110059689529 -0.24572162623715982
4425000000.0 0.9994293836635165 -0.2508332186885742
4428000000.0 0.9617448451221463 -0.2759512740544296
4431000000.0 0.9918923877054882 -0.2820528330916295
4434000000.0 0.9575462780178217 -0.3016932741843394
4438000000.0 0.9899457973470918 -0.31459708612385584
4441000000.0 0.9919036948075262 -0.3232533932251812
4444000000.0 0.9435924233854069 -0.3113141274842699
4447000000.0 0.9430717472595417 -0.3342527204132415
4450000000.0 0.9561254193330067 -0.3332525659593424
4453000000.0 0.9893053135298303 -0.3408985635944182
4456000000.0 0.9187028040698412 -0.34927260437537505
4459000000.0 0.9049076232072142 -0.36728520452360763
4462000000.0 1.0045748308397386 -0.38677286795662447
4466000000.0 0.9825045084078693 -0.40998471177927165
4469000000.0 0.9636533277867974 -0.3699103219126686
4472000000.0 0.944803904089967 -0.40383867601647655
4475000000.0 0.9019665228272061 -0.3962659706142062
4478000000.0 0.9582398300488144 -0.4450930127307271
4481000000.0 0.8887282547379671 -0.42293840236219965
4484000000.0 0.8974501291524934 -0.4625643171745648
4488000000.0 0.8955775709953258 -0.4555627036619647
4491000000.0 0.9169303120529607 -0.46312907561999117
4494000000.0 0.8927232913431172 -0.450918119751313
4497000000.0 0.9065106879278424 -0.43893172098011857
4500000000.0 0.8872739773019471 -0.4767248325403139
4503000000.0 0.8953999873965106 -0.46884979989504844
4506000000.0 0.9025162703490375 -0.4900453305310998
4509000000.0 0.8505136676241385 -0.498641367254396
4512000000.0 0.8587367930683484 -0.5045707529083563
4516000000.0 0.9028565499129654 -0.5170415456382494
4519000000.0 0.8651244499434714 -0.4972363608961763
4522000000.0 0.836898755976607 -0.5406951781383252
4525000000.0 0.8727846170298554 -0.5181326892490672
4528000000.0 0.8752167189631503 -0.5483527328714353
4531000000.0 0.8797934661422828 -0.5422548984288537
4534000000.0 0.8215234228005946 -0.5762166978993817
4538000000.0 0.8405706950905103 -0.5672682887822448
4541000000.0 0.8062612987654305 -0.5927698631509218
4544000000.0 0.8245384163909097 -0.5959161281989916
4547000000.0 0.8119934664735041 -0.5753086805359484
4550000000.0 0.8066806032898965 -0.6141919456815712
4553000000.0 0.8162602100343079 -0.6137827969326802
4556000000.0 0.7885599459480672 -0.6289997938521774
4559000000.0 0.8088830147642416 -0.6230455852154804
4562000000.0 0.824918676595414 -0.6308493344420072
4566000000.0 0.8094658545227584 -0.6385096079852561
4569000000.0 0.7863374210703362 -0.6385607797292434
4572000000.0 0.7894142231654576 -0.6196121351240005
4575000000.0 0.756834522894738 -0.6787685040514594
4578000000.0 0.7906078572108606 -0.6577897572182685
4581000000.0 0.7511292517705328 -0.6799789895264086
4584000000.0 0.7625742838338827 -0.689373213683098
4588000000.0 0.7703877712508381 -0.6928484690962563
4591000000.0 0.7595972344045014 -0.6759165791816472
4594000000.0 0.7148855082696236 -0.7031255713255867
4597000000.0 0.7504027160072011 -0.7309759454252648
4600000000.0 0.7150244951661 -0.7247646701615044
4603000000.0 0.7239863753409115 -0.7277305298936576
4606000000.0 0.7320207641221939 -0.7197780844230786
4609000000.0 0.717125439544134 -0.733501535744267
4612000000.0 0.7028641731257079 -0.7331061361533717
4616000000.0 0.6821214683079082 -0.7466265354465902
4619000000.0 0.7035805569763461 -0.7553425131560263
4622000000.0 0.689607044256211 -0.7611769498503531
4625000000.0 0.642505275887757 -0.7705237243044513
4628000000.0 0.6794632773581311 -0.7374760079922379
4631000000.0 0.6620544815513596 -0.7700380475046553
4634000000.0 0.6627860127614581 -0.777017427954842
4638000000.0 0.6655872186884799 -0.7668291919962905
4641000000.0 0.6480112033520402 -0.7867548058573084
4644000000.0 0.6441248597136625 -0.801181912844941
4647000000.0 0.6263954237839576 -0.8014084725794154
4650000000.0 0.632803102480469 -0.8070577793041052
4653000000.0 0.6205545394172964 -0.8249949637017694
4656000000.0 0.6132344470872562 -0.8141325878730916
4659000000.0 0.6000003300829224 -0.8195998619038033
4662000000.0 0.5902217459833025 -0.8649999781692832
4666000000.0 0.5800502462289475 -0.8503796594288793
4669000000.0 0.5937063004073801 -0.8416779872706609
4672000000.0 0.5702674368969006 -0.83885093124428
4675000000.0 0.5377587916589537 -0.863778913655378
4678000000.0 0.5363209438950468 -0.8287671972808017
4681000000.0 0.5243079626659539 -0.8957208255398732
4684000000.0 0.5302594307539883 -0.8931583610001456
4688000000.0 0.500830783103521 -0.8586751267257444
4691000000.0 0.5633150596208611 -0.8763053540261165
4694000000.0 0.5372776254944016 -0.850060086933575
4697000000.0 0.4857780168680089 -0.8740519902654913
4700000000.0 0.52079470303326 -0.8886845153781624
4703000000.0 0.4882952033849266 -0.8472777646607725
4706000000.0 0.5011975644899485 -0.9247391645587512
4709000000.0 0.4724581287657284 -0.9159922786777138
4712000000.0 0.48659765516965325 -0.9185267837551601
4716000000.0 0.501213640285 -0.9186944912556592
4719000000.0 0.48351250327283024 -0.9111437632184038
4722000000.0 0.46870047923614366 -0.9142382729862943
4725000000.0 0.4372572615312754 -0.9094883810628289
4728000000.0 0.40257538935441606 -0.9447206939252337
4731000000.0 0.458671361287799 -0.9545756731319868
4734000000.0 0.4386600652293735 -0.92250569032814
4738000000.0 0.44935474676544707 -0.9808184656188668
4741000000.0 0.4053516590735159 -0.9773824706636538
4744000000.0 0.37728368553152014 -0.9519134087545751
4747000000.0 0.3956809554743149 -0.9266825166128231
4750000000.0 0.36242901887173173 -0.9635599607062764
4753000000.0 0.386808031383031 -0.9515108766681885
4756000000.0 0.3767341489054451 -0.9798413734410691
4759000000.0 0.32695396656685743 -0.9821711728398248
4762000000.0 0.3178194058106874 -1.0106135617686436
4766000000.0 0.32531722255444695 -0.9907024886645791
4769000000.0 0.32060989818525043 -0.9858827353474199
4772000000.0 0.2897493578373766 -0.9773556372481514
4775000000.0 0.2903337067530532 -1.021210816030337
4778000000.0 0.29127566422490564 -1.0117527550243106
4781000000.0 0.30173281185214396 -1.0031738550987095
4784000000.0 0.3132663699736105 -0.9740267654067271
4788000000.0 0.2720120362936656 -1.038549551393042
4791000000.0 0.26590702764004875 -0.9913051975804471
4794000000.0 0.3204994631310931 -1.01311573996657
4797000000.0 0.23658123826934824 -0.99213501706248
4800000000.0 0.22359052912450333 -0.9925469246738774
4803000000.0 0.18149841625189722 -0.9897121680717871
4806000000.0 0.18834457202242552 -1.0098659636301004
4809000000.0 0.1691628993439387 -1.013526818665079
4812000000.0 0.16372331461944678 -0.9999979871820948
4816000000.0 0.23640419093127166 -0.998700009461218
4819000000.0 0.20882171418759776 -1.0314886906526946
4822000000.0 0.19090379807913593 -1.0494272173154506
4825000000.0 0.21160170202262804 -1.0369508361060802
4828000000.0 0.1499580538045612 -1.0394767047443065
4831000000.0 0.12215276039003223 -1.061310014770802
4834000000.0 0.16154622103514182 -1.0401558219492615
4838000000.0 0.10734113302809947 -1.0468124553000477
4841000000.0 0.1312014950416139 -1.038242781192146
4844000000.0 0.15673873440162323 -1.0284642902500092
4847000000.0 0.13557225061167646 -1.0151252638701418
4850000000.0 0.08746596196443904 -1.0616021264846733
4853000000.0 0.12474647345697397 -1.028288875108043
4856000000.0 0.109410897548061 -1.0356417594995924
4859000000.0 0.07961717958973533 -1.0846508276495879
4862000000.0 0.11486777548161362 -1.0039111272769332
4866000000.0 0.04178481197088511 -1.0569918995226772
4869000000.0 0.051611687402720735 -1.0307136551956992
4872000000.0 0.00792229388988331 -1.0434354947851106
4875000000.0 0.08812554830038144 -1.077253305414166
4878000000.0 0.03233575531495691 -1.0493626525985191
4881000000.0 -0.007056391146352106 -1.1028778249188802
4884000000.0 0.034153949056601046 -1.0413948533895456
4888000000.0 0.01452615396354957 -1.0129578912791244
4891000000.0 0.027221785014129585 -1.0539731150235827
4894000000.0 -0.014258008278876536 -1.0302926026110966
4897000000.0 0.01416487508824776 -1.0317424079737947
4900000000.0 -0.014009138175895518 -1.0572572141295744
4903000000.0 -0.023422778516305087 -1.0504472749095017
4906000000.0 -0.05172872935135679 -1.0811153492099035
4909000000.0 -0.0810786861638638 -1.0510076757766122
4912000000.0 -0.0925395001649681 -1.0731331587887205
4916000000.0 -0.0764345529500238 -1.0563819992794454
4919000000.0 -0.0691268305938663 -1.0896821709248576
4922000000.0 -0.03669216247710798 -1.0548705610035534
4925000000.0 -0.12914825262057236 -1.0580128113244347
4928000000.0 -0.03808204329632138 -1.041040932289681
4931000000.0 -0.10444060111549462 -1.100469764009083
4934000000.0 -0.11289506332761771 -1.0095948029634991
4938000000.0 -0.1626569135231734 -1.0064701029309784
4941000000.0 -0.13370674476231692 -1.032086890194888
4944000000.0 -0.10112242313893016 -0.9668364241498424
4947000000.0 -0.1640763589470622 -1.0284040052814858
4950000000.0 -0.17562356297214954 -0.9872239444889167
4953000000.0 -0.24864271816090533 -1.0246387512582098
4956000000.0 -0.19903220934577598 -1.077342424390452
4959000000.0 -0.2271603154158062 -0.9765126001819178
4962000000.0 -0.22580275492653354 -1.0302380241430837
4966000000.0 -0.19824513331378302 -1.0433876532632427
4969000000.0 -0.20473832784742857 -1.0807970840679362
4972000000.0 -0.24233476843579696 -1.028604266620636
4975000000.0 -0.18246029268762112 -0.9950780765862444
4978000000.0 -0.2703648986127345 -0.9828780517040333
4981000000.0 -0.28695789125063587 -1.0143805129173522
4984000000.0 -0.2430549137420642 -0.9956898383726592
4988000000.0 -0.2360302263356565 -1.0252782182330247
4991000000.0 -0.21293896105606985 -1.0339257452194044
4994000000.0 -0.2532530818217311 -1.012374277629075
4997000000.0 -0.3020600808886464 -0.9994094422775122
5000000000.0 -0.3132882879436355 -1.024514205792408
5003000000.0 -0.32337928053568427 -1.094553252677111
5006000000.0 -0.3386209681610072 -1.0411167280410485
5009000000.0 -0.3060765973134364 -1.0160241830799346
5012000000.0 -0.34687091054227087 -0.9987865882876046
5016000000.0 -0.30875792192090196 -1.0501993700066712
5019000000.0 -0.3566732953186238 -0.9741281777950461
5022000000.0 -0.3649773248766611 -1.0019092463921333
5025000000.0 -0.3445443026453499 -1.0716640717214199
5028000000.0 -0.37385835508231857 -0.9966792965801521
5031000000.0 -0.4027956731467428 -1.0164868334291408
5034000000.0 -0.4390652005582395 -1.0042249382153787
5038000000.0 -0.40563311757726617 -0.9472266291352083
5041000000.0 -0.370618576462861 -1.0375423726022204
5044000000.0 -0.3650334393479504 -0.9729673128783026
5047000000.0 -0.43404904105369296 -1.0026322069069478
5050000000.0 -0.3463837077312215 -0.9709855625014998
5053000000.0 -0.4774602266386476 -1.012771801624186
5056000000.0 -0.3940299152483411 -1.0074593880060803
5059000000.0 -0.35701104359250196 -1.001973133484761
5062000000.0 -0.4789627780900124 -0.9663428275652091
5066000000.0 -0.43654327617220223 -0.9252032983572125
5069000000.0 -0.4766042397593876 -0.974309554880103
5072000000.0 -0.48033838434526976 -0.9224781050829811
5075000000.0 -0.4589835368152414 -0.9425626502144575
5078000000.0 -0.4949877423591414 -0.9227904463299985
5081000000.0 -0.4848182350007047 -0.9011907723404636
5084000000.0 -0.5260634135096718 -0.9499163892940488
5088000000.0 -0.4969218218882695 -0.9247233563500235
5091000000.0 -0.552394817134833 -0.9087387791544033
5094000000.0 -0.5240948810186065 -0.966801422014537
5097000000.0 -0.49682215618358216 -0.8867730164069125
5100000000.0 -0.5101822503496576 -0.8815207549565062
5103000000.0 -0.6383260084689052 -0.8905067282164582
5106000000.0 -0.5665595188373931 -0.9870258535107574
5109000000.0 -0.5248284694113682 -0.8809748530223567
5112000000.0 -0.5640279193184727 -0.8783950622096008
5116000000.0 -0.5784293839470479 -0.8653021772738592
5119000000.0 -0.5807978149645145 -0.9024652312021493
5122000000.0 -0.5945207984064339 -0.8980585403667047
5125000000.0 -0.5730323370005376 -0.8659267886383823
5128000000.0 -0.5838901324011332 -0.8585904852408905
5131000000.0 -0.6182436374769763 -0.880155681832352
5134000000.0 -0.6105080157721053 -0.8661419571274904
5138000000.0 -0.6242842169241566 -0.9018339519618475
5141000000.0 -0.5830887209579176 -0.8658806978549014
5144000000.0 -0.6203726437263126 -0.8688634307966296
5147000000.0 -0.6962861476440679 -0.8544325919959204
5150000000.0 -0.6573585503526709 -0.8412839797494465
5153000000.0 -0.6552878887295392 -0.7880811326057644
5156000000.0 -0.6624558416027037 -0.8602413187159351
5159000000.0 -0.6822277393822253 -0.8686613440696904
5162000000.0 -0.6843460665924016 -0.8078750841802385
5166000000.0 -0.7124636433213075 -0.7979352458112758
5169000000.0 -0.6733175939672748 -0.8077867052890828
5172000000.0 -0.6524943650624742 -0.7786204998854295
5175000000.0 -0.6722196348045831 -0.8689523851673805
5178000000.0 -0.7182493975601087 -0.7929527593905968
5181000000.0 -0.703867997302334 -0.7789470175886406
5184000000.0 -0.7100557570513467 -0.7699486159567507
5188000000.0 -0.7399026523746248 -0.7906492115826153
5191000000.0 -0.6987846482885247 -0.7431679548992333
