! Created with skrf 1.8.0 (http://scikit-rf.org).
# Hz S RI R 50.0 
!freq ReS11 ImS11
4000000000.0 0.6016894617727369 0.7927299959202077
4003000000.0 0.6947953520444187 0.8277762044221212
4006000000.0 0.6510736870825926 0.7674840214030633
4009000000.0 0.6266639132110041 0.8271666355006523
4012000000.0 0.647635944630926 0.8389224162127127
4016000000.0 0.7055985808326624 0.7908186225489588
4019000000.0 0.6686137081975645 0.7845397349859213
4022000000.0 0.654662604217024 0.7933781927851711
4025000000.0 0.6977313818367755 0.7502180859586214
4028000000.0 0.709190624348884 0.7629013035295613
4031000000.0 0.6736326007472782 0.7342939385276005
4034000000.0 0.7099921402185193 0.7577248586067182
4038000000.0 0.7367313047905213 0.7381216665868242
4041000000.0 0.7409407545532917 0.7697584902119256
4044000000.0 0.796194827716892 0.7740910243482744
4047000000.0 0.7442197856841508 0.7691096120848993
4050000000.0 0.7941835352179958 0.7056719962762765
4053000000.0 0.7893054196985306 0.6804683516774066
4056000000.0 0.7725548434056011 0.6530722512584476
4059000000.0 0.7234732400783337 0.7129496191501945
4062000000.0 0.7703861006880781 0.7234764577459267
4066000000.0 0.696474843172102 0.6425926750592018
4069000000.0 0.8101071596183055 0.7350453563018193
4072000000.0 0.7823131092683777 0.7019114700966886
4075000000.0 0.8025036890201321 0.7623560206167876
4078000000.0 0.8274686002037501 0.6441663293751629
4081000000.0 0.773788888432613 0.7319562339556752
4084000000.0 0.8499509693060425 0.6546728715615662
4088000000.0 0.7801032447275111 0.7129078017868505
4091000000.0 0.8663973740407871 0.6732504596257269
4094000000.0 0.8041577630491369 0.6497531912757386
4097000000.0 0.7892724988328126 0.6321370348865165
4100000000.0 0.8333262636103279 0.634621140390679
4103000000.0 0.8209921800852122 0.6508565355926543
4106000000.0 0.82119523339242 0.6171155332378323
4109000000.0 0.887323069571071 0.6336109339006257
4112000000.0 0.863846897721563 0.5827090268618209
4116000000.0 0.8227336777344786 0.581968185196937
4119000000.0 0.8641072940777603 0.5412080356506204
4122000000.0 0.8885203448360982 0.5211632985553619
4125000000.0 0.9098958585987001 0.5732561495056729
4128000000.0 0.803261535838531 0.5384005083334663
4131000000.0 0.8868074329166608 0.5292833746353013
4134000000.0 0.9028608435475308 0.5406348397654748
4138000000.0 0.836116161249816 0.5250426648918347
4141000000.0 0.8697782800514018 0.5296487192306717
4144000000.0 0.8953245544304931 0.5381334769869881
4147000000.0 0.9140793403600337 0.5155466559364972
4150000000.0 0.9397482548730421 0.5114823730928995
4153000000.0 0.912663192975932 0.5188082100423443
4156000000.0 0.9433004744287226 0.5225194283224335
4159000000.0 0.8773211378537984 0.47848810569503436
4162000000.0 0.8817275821349706 0.48313792702830916
4166000000.0 0.9133280399477814 0.4635534451463411
4169000000.0 0.911290572186018 0.424705644913012
4172000000.0 0.9251466369775679 0.4522350996466506
4175000000.0 0.9339839045696857 0.4370488742292448
4178000000.0 0.9563192955596731 0.4662018000583492
4181000000.0 0.9427457039239342 0.4477908618944676
4184000000.0 0.9325898215723416 0.41201772495180417
4188000000.0 0.9405934795288364 0.38999134723689344
4191000000.0 0.919420333283308 0.4291810587768237
4194000000.0 0.9196754352747352 0.3880539231452964
4197000000.0 0.9680847660222016 0.4181380049080304
4200000000.0 0.9359554349897499 0.4057716898601039
4203000000.0 0.9445644294579078 0.3922863846012764
4206000000.0 0.9689454714547279 0.37067523069889213
4209000000.0 0.9478397844683151 0.37102399589381435
4212000000.0 0.96950903024684 0.3376153728683261
4216000000.0 0.9568540394951408 0.37576244634981865
4219000000.0 0.9803671048902616 0.3470600104557633
4222000000.0 0.9853839626882255 0.33755554013461103
4225000000.0 0.9633563317189762 0.3148031184705673
4228000000.0 0.981492609758281 0.3267767749497701
4231000000.0 0.9846581242922522 0.2911887914731325
4234000000.0 0.9975371740447145 0.2959442069925566
4238000000.0 1.001804036445877 0.27233390092284726
4241000000.0 0.9875369068217232 0.270436115832255
4244000000.0 0.9807037555227929 0.28126626866177323
4247000000.0 0.9766238586919141 0.2681013610128344
4250000000.0 0.9841268811938657 0.23430934652072255
4253000000.0 0.9647107121695324 0.2459109839128643
4256000000.0 1.0113411896487685 0.23324621531632617
4259000000.0 0.9709985964586959 0.2328601246735398
4262000000.0 1.0096911569715978 0.19800251574174285
4266000000.0 1.0090339620733737 0.1964414974689513
4269000000.0 0.997715692445452 0.21853496548683568
4272000000.0 1.0055612517425785 0.20235510411263014
4275000000.0 0.999373925873511 0.18055462040200054
4278000000.0 1.007231330679021 0.20583239971261336
4281000000.0 1.0033868075866046 0.1794501870723323
4284000000.0 1.0220446484803274 0.13309747914465977
4288000000.0 0.9779613344127568 0.167565533334845
4291000000.0 0.9773763402655246 0.16248712742685645
4294000000.0 0.9947392605159742 0.11837437479953992
4297000000.0 0.9938099981086623 0.14077837071476257
4300000000.0 0.9983778408545629 0.13344795676914786
4303000000.0 0.9951130985879932 0.09103970823342923
4306000000.0 0.9911176669954083 0.1221422868040386
4309000000.0 0.9865606032281532 0.10084010898986583
4312000000.0 1.0250796259921462 0.12463564843473945
4316000000.0 1.0188427389662018 0.11213067740916415
4319000000.0 0.991977485553262 0.09898666448628775
4322000000.0 1.0038434902038662 0.03854546086342399
4325000000.0 1.0094688684788027 0.060151594975971764
4328000000.0 0.9970389549069589 0.04690164342999624
4331000000.0 1.0047511574601233 0.0177033204088414
4334000000.0 0.9997786334623112 0.03783297560184287
4338000000.0 1.0237784550800564 0.025005530888839653
4341000000.0 1.0343680114944749 0.054644970734608334
4344000000.0 1.0197396430022327 0.009854693513636131
4347000000.0 1.0109571769862142 -0.0052268667688507575
4350000000.0 0.9891648859533693 -0.03141884569188355
4353000000.0 0.9911051240419215 0.02357728645726717
4356000000.0 0.9922995339357651 -0.062388627845470584
4359000000.0 0.9734237884009473 -0.05282760094406802
4362000000.0 1.0169647031449636 -0.09611861178889919
4366000000.0 1.0488579521272023 -0.08290205539160173
4369000000.0 1.0011289513314996 -0.0667812945170991
4372000000.0 1.0024551188562336 -0.11023451669752836
4375000000.0 1.0109089256759833 -0.07470240901374756
4378000000.0 0.9784738163131849 -0.08601455432978249
4381000000.0 0.9922425096640177 -0.08030456453202824
4384000000.0 1.0643785755005324 -0.1244402404352243
4388000000.0 0.9931203321793066 -0.11168414821375255
4391000000.0 1.0301850450129417 -0.13078007100617933
4394000000.0 0.9857273663624169 -0.14845479102574152
4397000000.0 0.9917362409667101 -0.14567979686190957
4400000000.0 1.0349439596091023 -0.1486269191229988
4403000000.0 1.0045774477423088 -0.17424454623509877
4406000000.0 0.9813604142571217 -0.18683894093736375
4409000000.0 1.026568956814055 -0.19626753525972984
4412000000.0 0.9728396518378657 -0.24230265053830707
4416000000.0 0.9873988914590988 -0.19847201490211325
4419000000.0 0.9848094563691723 -0.22338004580485354
4422000000.0 0.9919685399391087 -0.19515244974011314
4425000000.0 1.008030403522805 -0.20398150268916554
4428000000.0 0.9692213760816439 -0.23430241383672973
4431000000.0 1.0165839171372126 -0.23907706677612098
4434000000.0 0.9697177744131112 -0.26032591474691064
4438000000.0 0.9859120447867964 -0.2492480074447129
4441000000.0 0.9849423337250336 -0.27585283424992807
4444000000.0 0.9540549755323862 -0.26663384754230984
4447000000.0 0.9598590395642338 -0.30481794520346145
4450000000.0 0.9598500211286004 -0.2715190519559407
4453000000.0 1.0000314720850958 -0.31647746477840044
4456000000.0 0.9247330200781713 -0.3055633812444666
4459000000.0 0.9114518473041298 -0.3129125854434547
4462000000.0 1.005277202863909 -0.35211121869217
4466000000.0 0.9937073816623118 -0.35639722522393646
4469000000.0 0.9629465350176297 -0.32841276584925194
4472000000.0 0.9470257915713817 -0.37554691770247084
4475000000.0 0.9369539756571781 -0.3492769845061691
4478000000.0 0.9724337399592525 -0.39143201370792446
4481000000.0 0.9048530055271589 -0.37470286017229926
4484000000.0 0.9190565789197898 -0.42264927085310144
4488000000.0 0.9142092811472736 -0.4137392531876688
4491000000.0 0.9341120088590427 -0.4177759576650535
4494000000.0 0.9121290625983572 -0.4073552863235075
4497000000.0 0.9221715737810654 -0.3940271072018458
4500000000.0 0.9044043790990239 -0.43363715292192045
4503000000.0 0.936864169941154 -0.4378692580101839
4506000000.0 0.8876724396206173 -0.453199200249988
4509000000.0 0.8711826029046139 -0.42970342041251197
4512000000.0 0.8924558336699681 -0.45142218755892294
4516000000.0 0.9194229930518093 -0.4663068878337204
4519000000.0 0.8794592227679676 -0.45440353592729715
4522000000.0 0.8763007023453073 -0.48000354633197273
4525000000.0 0.8909246757142633 -0.4494175288752176
4528000000.0 0.8940254241318388 -0.5035939056404373
4531000000.0 0.8816236110398639 -0.4850711990171115
4534000000.0 0.8595742264466066 -0.5020244888555534
4538000000.0 0.8570796593244348 -0.511633766084245
4541000000.0 0.8195441429699816 -0.5376192132064311
4544000000.0 0.851949287541059 -0.5287207066826123
4547000000.0 0.859751756185673 -0.5303220039050571
4550000000.0 0.8423864417122005 -0.5704954339760693
4553000000.0 0.8520402838233998 -0.565755062340702
4556000000.0 0.8205960667286236 -0.5599434827980125
4559000000.0 0.8329633808488871 -0.5737256634698511
4562000000.0 0.8442547495399184 -0.5955404462624088
4566000000.0 0.8381053311863069 -0.5999821884105268
4569000000.0 0.7914781978753842 -0.5875892614054399
4572000000.0 0.8105811847016002 -0.6032060414513826
4575000000.0 0.79953275052287 -0.6241556543461454
4578000000.0 0.8268893685118128 -0.6191548510205958
4581000000.0 0.7744281040018459 -0.6506375952562952
4584000000.0 0.7789455383246726 -0.6239699130386653
4588000000.0 0.8332310799298566 -0.6566164322041885
4591000000.0 0.799785297705239 -0.6126761522166786
4594000000.0 0.774109910212918 -0.643673244468774
4597000000.0 0.7904955001986766 -0.6760080207669432
4600000000.0 0.7368725313769722 -0.6818475694301978
4603000000.0 0.7558873768676159 -0.6818494634413443
4606000000.0 0.7627135839365371 -0.6789742215499488
4609000000.0 0.7466078277762032 -0.6813398125618028
4612000000.0 0.7369769528159837 -0.6974055806956219
4616000000.0 0.7259101520936007 -0.6898442219874383
4619000000.0 0.7094388851277855 -0.6999449340060426
4622000000.0 0.7166023459666266 -0.7022424886611132
4625000000.0 0.6904813981133764 -0.7192614815224327
4628000000.0 0.7017984227676982 -0.6861796540222918
4631000000.0 0.6835147431454809 -0.7338696964748601
4634000000.0 0.6892058550509182 -0.73962249232594
4638000000.0 0.6812602700802846 -0.7349452781355774
4641000000.0 0.6930946337989515 -0.7527854719571758
4644000000.0 0.6883711046257563 -0.7472171931847856
4647000000.0 0.6792354332875244 -0.7633022564136638
4650000000.0 0.6483082932146579 -0.7734590915689165
4653000000.0 0.6680488550775691 -0.7928625280695463
4656000000.0 0.6407403559338347 -0.7808763044089719
4659000000.0 0.6320240433885657 -0.7864050211417618
4662000000.0 0.6266241288483279 -0.7971083801613318
4666000000.0 0.6238699650244435 -0.8047821823600377
4669000000.0 0.6249639648279759 -0.7988963904299331
4672000000.0 0.6205758495470212 -0.8293216197606653
4675000000.0 0.5837226677410234 -0.8191063627167436
4678000000.0 0.5942205529860364 -0.8180411613253628
4681000000.0 0.5867305594668122 -0.8422707348849673
4684000000.0 0.5505757479151625 -0.8620745117467014
4688000000.0 0.5523702206776259 -0.838478857702698
4691000000.0 0.5814254380389313 -0.820105379708784
4694000000.0 0.5754880597896366 -0.8362015582410085
4697000000.0 0.548292655104053 -0.8353601422934029
4700000000.0 0.5663904544500208 -0.818919551277679
4703000000.0 0.56098346539229 -0.838600641319244
4706000000.0 0.5131168968656028 -0.8518806180540064
4709000000.0 0.5332114186083445 -0.8794971751303126
4712000000.0 0.5301039238332639 -0.865878964760349
4716000000.0 0.49049907197969567 -0.9224614502947486
4719000000.0 0.5306430284023612 -0.8714437942581954
4722000000.0 0.5282108206149696 -0.8841181713306812
4725000000.0 0.4825983734913139 -0.8812680689712267
4728000000.0 0.4518996954880708 -0.8876570545735478
4731000000.0 0.4972042641548325 -0.9039565350224081
4734000000.0 0.46961095091699967 -0.885921284646518
4738000000.0 0.4952626597169433 -0.9371401910392704
4741000000.0 0.43904492414991925 -0.9657900853977137
4744000000.0 0.4358178656913483 -0.9302507440038377
4747000000.0 0.45908023962057226 -0.8701955138124109
4750000000.0 0.4286097912098411 -0.9525172865347953
4753000000.0 0.4082348339450303 -0.9460526684688394
4756000000.0 0.3965535893373013 -0.9355410572529681
4759000000.0 0.40259740958524537 -0.9467734728321467
4762000000.0 0.4008433510520842 -0.9711433127663422
4766000000.0 0.388279469460193 -0.9343345658572674
4769000000.0 0.3798280410253926 -0.9835908238203454
4772000000.0 0.3541811974003862 -0.9687355644303487
4775000000.0 0.36843813832581007 -0.9891639381537365
4778000000.0 0.3343412450415333 -0.9608994052631677
4781000000.0 0.35766207372359315 -0.9464450851777544
4784000000.0 0.35685696231210723 -0.9458651380629223
4788000000.0 0.3091357620685104 -0.9815769027774095
4791000000.0 0.32157784398640776 -0.9667789473662444
4794000000.0 0.34387105296985954 -1.008845146592415
4797000000.0 0.2952745728669914 -0.9636957170615671
4800000000.0 0.26864821880336964 -0.9733293539965286
4803000000.0 0.2570679577498115 -1.0011307829559375
4806000000.0 0.299312775196402 -0.9805412221105483
4809000000.0 0.2270774260039477 -0.987592794732639
4812000000.0 0.2133022067323907 -0.9790922513883382
4816000000.0 0.2747857987000199 -0.9736137926538406
4819000000.0 0.2930995662642963 -0.9995656298360962
4822000000.0 0.2832586866974946 -1.0269152068468348
4825000000.0 0.24166088714145256 -1.014323598262747
4828000000.0 0.22962270927493103 -1.00601844445853
4831000000.0 0.1865049711392382 -1.0269411028801305
4834000000.0 0.23476881198837007 -0.9931725156512137
4838000000.0 0.1913701780920664 -1.0241698963385168
4841000000.0 0.20565462123846417 -1.0034548746927507
4844000000.0 0.20141888097627858 -1.0174307950807615
4847000000.0 0.1979982265530586 -0.9860595950415898
4850000000.0 0.15548869541827398 -1.0347792021336553
4853000000.0 0.18032341648994699 -0.9991062058977098
4856000000.0 0.14459456873530044 -1.0013198789820805
4859000000.0 0.11319418360575835 -1.05316582540418
4862000000.0 0.16708782681023304 -0.9811254276561278
4866000000.0 0.10837639932788606 -1.0462672896744185
4869000000.0 0.1036595196537457 -1.0310342850257734
4872000000.0 0.07243030928559799 -1.060127022945363
4875000000.0 0.16112553538940944 -1.0654984335161422
4878000000.0 0.08732979082700917 -1.0177280982279249
4881000000.0 0.04777639305119658 -1.0628665100379173
4884000000.0 0.08852366264805789 -1.013636693650401
4888000000.0 0.11156120303664734 -1.0175162074575106
4891000000.0 0.0795607832561959 -1.0471817020804448
4894000000.0 0.0172047152242466 -1.0264279275897554
4897000000.0 0.06702399403329179 -1.0172205988464955
4900000000.0 0.05349213732287848 -1.0585697366635736
4903000000.0 0.028667014511802365 -1.026193617296174
4906000000.0 0.03512433994278283 -1.0438803477333825
4909000000.0 -0.01969484479367698 -1.0711964509330025
4912000000.0 -0.0030129950941243794 -1.0677247141434334
4916000000.0 0.02668811689288009 -1.0384484172742503
4919000000.0 0.020326694164951108 -1.0626274381641734
4922000000.0 0.02817278806352963 -1.053718598792536
4925000000.0 -0.0477515230551088 -1.0383620745956073
4928000000.0 0.009842768395465037 -1.0405604408789944
4931000000.0 -0.036483984768855296 -1.0722190017103201
4934000000.0 -0.06741853484086964 -0.9906772236100596
4938000000.0 -0.11549048777786185 -0.9984792446836392
4941000000.0 -0.08619092759035867 -1.0118161205313958
4944000000.0 -0.05355119891614754 -0.9844000607941534
4947000000.0 -0.06571154568026616 -1.0090649257868383
4950000000.0 -0.11821737419259283 -1.0040927352447981
4953000000.0 -0.1542644075270473 -1.0784862985298842
4956000000.0 -0.11514898857698116 -1.029022165037753
4959000000.0 -0.14343482506482105 -0.9724997788960598
4962000000.0 -0.11533407788627373 -1.035826197838631
4966000000.0 -0.11622661588073141 -1.0390263604651704
4969000000.0 -0.12168788396834046 -1.0526114792603363
4972000000.0 -0.17221133499636518 -1.008349789190236
4975000000.0 -0.13699836821559006 -1.038509657741665
4978000000.0 -0.1845127372213355 -1.0119918307469147
4981000000.0 -0.19466612448757212 -1.0097169683083698
4984000000.0 -0.19548944804898497 -0.9952384634190966
4988000000.0 -0.1804559815171175 -1.0243278991819842
4991000000.0 -0.16021115511862688 -1.0481516390701495
4994000000.0 -0.19603782601987363 -1.0434377915621156
4997000000.0 -0.2542809052714253 -1.0020820025587298
5000000000.0 -0.24120453869088815 -1.0443837786210317
5003000000.0 -0.22421512184732734 -1.045245627784912
5006000000.0 -0.26849404683403766 -1.0263442830080471
5009000000.0 -0.25453404371441946 -0.9928515792981442
5012000000.0 -0.2688431283665373 -0.9964185512544277
5016000000.0 -0.2235051765961078 -1.0557139190087326
5019000000.0 -0.2865464393471302 -0.9936116705711857
5022000000.0 -0.29380117492803304 -0.9851055137547879
5025000000.0 -0.3071044987032823 -1.0349055226040567
5028000000.0 -0.3141218206411277 -1.0051662919497835
5031000000.0 -0.3430566297044877 -0.9654840489237425
5034000000.0 -0.3693654645442823 -1.0268480908850113
5038000000.0 -0.31946875860492097 -0.9451343328018829
5041000000.0 -0.3163075954037402 -1.0045072548047527
5044000000.0 -0.3067744034117351 -0.9635395870341744
5047000000.0 -0.34682675277228897 -0.9922597414956552
5050000000.0 -0.27793860284704053 -0.9981449739609609
5053000000.0 -0.38716631189187733 -1.0264021266701262
5056000000.0 -0.3365209034401415 -0.9788588780582157
5059000000.0 -0.2943888569929574 -1.0265929733065593
5062000000.0 -0.4139642044951569 -0.9725323493124536
5066000000.0 -0.30688578343510076 -0.9915003740993233
5069000000.0 -0.43164425554958485 -0.9378309526937935
5072000000.0 -0.41029548671142035 -0.9540727359193144
5075000000.0 -0.385195152588764 -0.9960162458567707
5078000000.0 -0.43678251618044567 -0.9654250982311412
5081000000.0 -0.4158062269390394 -0.9449385049203315
5084000000.0 -0.44493123502384857 -0.9801522266892386
5088000000.0 -0.40697470992678725 -0.9681216645804878
5091000000.0 -0.4819643147423492 -0.9090754708358837
5094000000.0 -0.45193795028851375 -0.9226589824696484
5097000000.0 -0.4054719458623053 -0.9740445236285198
5100000000.0 -0.43642080773438613 -0.8979464155129461
5103000000.0 -0.5320285396346689 -0.9014571698278041
5106000000.0 -0.4866082887726247 -0.960995516946427
5109000000.0 -0.44069003884352165 -0.9093106089989444
5112000000.0 -0.4954821777293486 -0.8875575376559084
5116000000.0 -0.4870820231262542 -0.8793825211193493
5119000000.0 -0.5329621962851013 -0.9094256822955209
5122000000.0 -0.5113197569869401 -0.8735167601392848
5125000000.0 -0.4879998801841833 -0.9199991714818353
5128000000.0 -0.5242979339493837 -0.8860500728204608
5131000000.0 -0.5117415402372255 -0.8939633143132532
5134000000.0 -0.5506061969950841 -0.8960049222036611
5138000000.0 -0.541298598779474 -0.9272927433829281
5141000000.0 -0.5196097424075166 -0.9136670181262874
5144000000.0 -0.5384275292811758 -0.9253496278048517
5147000000.0 -0.5963976494290427 -0.8784594970301083
5150000000.0 -0.5979429987941446 -0.8887838413073518
5153000000.0 -0.6146836980298283 -0.8798821511259632
5156000000.0 -0.5611163902394962 -0.9098937931547725
5159000000.0 -0.5977288795812599 -0.9255787888719693
5162000000.0 -0.609451836408343 -0.8283619693965327
5166000000.0 -0.6517038443024888 -0.8613054108404615
5169000000.0 -0.6128099792347693 -0.9057291019061483
5172000000.0 -0.6199054081308993 -0.8398241089164685
5175000000.0 -0.5902040062400723 -0.871720178340925
5178000000.0 -0.6365204482990581 -0.817154472415892
5181000000.0 -0.6284382280616698 -0.8748721927718173
5184000000.0 -0.6774801585781817 -0.8368556794216736
5188000000.0 -0.6647242596090023 -0.7952680782688208
