! Created with skrf 1.8.0 (http://scikit-rf.org).
# Hz S RI R 50.0 
!freq ReS11 ImS11
4000000000.0 0.6370142669250295 0.811235294016929
4003000000.0 0.7152437046704138 0.9033262375634649
4006000000.0 0.6282879532792521 0.7964948554018157
4009000000.0 0.6652133176347281 0.7946503799832557
4012000000.0 0.6525964656372956 0.8342446896434124
4016000000.0 0.7278423623560553 0.7549829896007301
4019000000.0 0.7009311577233865 0.772727056664596
4022000000.0 0.6424621783253744 0.8181536633126963
4025000000.0 0.77731469840155 0.7700781256209196
4028000000.0 0.7286677365047776 0.7441217021619491
4031000000.0 0.6764891859101724 0.7073313171294132
4034000000.0 0.6686566259209613 0.7183896362541108
4038000000.0 0.7660379889230583 0.7153632583686448
4041000000.0 0.7234881728388767 0.7043021151798622
4044000000.0 0.7710033022267916 0.7399127949824028
4047000000.0 0.7609650654844085 0.7415725604780947
4050000000.0 0.7769369730468673 0.7208108582778938
4053000000.0 0.7701035073751944 0.6578836262256882
4056000000.0 0.7666619548762656 0.7079418785440267
4059000000.0 0.7339484715923948 0.6829623106312985
4062000000.0 0.7768630746842555 0.6886628442092861
4066000000.0 0.7442031748250924 0.6094225257813706
4069000000.0 0.8174517883544712 0.680999564776147
4072000000.0 0.7842279303578246 0.691572824501143
4075000000.0 0.7850654496233007 0.7004331148959091
4078000000.0 0.8098027663474735 0.6364134353931898
4081000000.0 0.8306914412234132 0.7070776357723348
4084000000.0 0.827040040444102 0.6218747706794603
4088000000.0 0.7908542358706259 0.6599131823192025
4091000000.0 0.857851843181497 0.6871074973149631
4094000000.0 0.7941077034440842 0.6108413128498866
4097000000.0 0.8323571953753895 0.6167715025546825
4100000000.0 0.8563122405551549 0.5793331683713032
4103000000.0 0.8758817883538901 0.6188048497134251
4106000000.0 0.8482443193878271 0.6223677662124775
4109000000.0 0.8763897838037493 0.5697194854449816
4112000000.0 0.8614562412892262 0.5880723344877041
4116000000.0 0.8502164301337047 0.5982245108843595
4119000000.0 0.9054366636687455 0.5782418155408311
4122000000.0 0.8860212016124833 0.5491464007329853
4125000000.0 0.9088819946828389 0.5308624680952185
4128000000.0 0.8478257783852972 0.5853596184183246
4131000000.0 0.886706893645769 0.5321458707783165
4134000000.0 0.8709293125832255 0.4959921580172961
4138000000.0 0.8824689184461252 0.5122418547656986
4141000000.0 0.9004496642218425 0.4816547396857378
4144000000.0 0.9153200840800395 0.47490448423939374
4147000000.0 0.8965399392229413 0.4516781759496486
4150000000.0 0.9687983563842587 0.4915139550679532
4153000000.0 0.9099564103270441 0.47740746527288735
4156000000.0 0.9229540630770212 0.49869555635618923
4159000000.0 0.9179263824433084 0.46805945285016953
4162000000.0 0.9119483268166304 0.44751974991775656
4166000000.0 0.9364585587842384 0.434736930043056
4169000000.0 0.9376331849852901 0.4048927416741186
4172000000.0 0.9425391092161243 0.43123559891704694
4175000000.0 0.936503797323026 0.45328442168822386
4178000000.0 0.9523982642653824 0.4449984934108776
4181000000.0 0.9601247801149264 0.40064952500230955
4184000000.0 0.9120578204822961 0.4036202879817556
4188000000.0 0.9325523582276423 0.3769011137507078
4191000000.0 0.9129608217577095 0.419852880109487
4194000000.0 0.9418492776111902 0.3765102964255449
4197000000.0 0.9574404295584293 0.3766212045889134
4200000000.0 0.9498812965937453 0.40101628849074966
4203000000.0 0.9586775730554562 0.3681132307462104
4206000000.0 0.9704230872584526 0.3493928386763849
4209000000.0 0.956445021670769 0.35349252332751174
4212000000.0 0.9862609867625027 0.3100200116371714
4216000000.0 0.9776069901851824 0.3441520804911629
4219000000.0 0.9825458852772451 0.3409793085888121
4222000000.0 0.9676747170380386 0.3044167004270398
4225000000.0 0.9656646251674439 0.30040084336887485
4228000000.0 0.985291051446249 0.29773992452666753
4231000000.0 0.9799261476017042 0.28692497878664125
4234000000.0 0.9988968441548632 0.2867580283486581
4238000000.0 0.9861320866878156 0.26075328315944657
4241000000.0 0.9815952641979111 0.23278611061446652
4244000000.0 0.9853402066816858 0.2575280745000845
4247000000.0 1.002916293968108 0.25732791251402093
4250000000.0 0.9806678828312632 0.23586580269224727
4253000000.0 0.9690197671211072 0.21679484804016314
4256000000.0 1.0164294520450017 0.21750828143059914
4259000000.0 0.9670609611113734 0.19898116433164695
4262000000.0 0.993793684035265 0.16888070886875758
4266000000.0 1.015695426999164 0.15874190125890303
4269000000.0 1.0096979442627703 0.20174516536663892
4272000000.0 1.0085535231511802 0.16802066547092537
4275000000.0 1.0195867491355288 0.17010634987263307
4278000000.0 1.033208839357869 0.15817555115112852
4281000000.0 0.9957552811653805 0.1774529878358327
4284000000.0 1.004670907248646 0.11704514923013326
4288000000.0 0.9949300943363372 0.1654491532848673
4291000000.0 0.9863955322358584 0.12180485382376195
4294000000.0 0.9865901321704275 0.12397155890509524
4297000000.0 0.9953590702297305 0.12439204475069117
4300000000.0 1.0280527438334177 0.10310795370747561
4303000000.0 0.9954838945805202 0.0693923681109802
4306000000.0 1.0258568777135681 0.11504792860712162
4309000000.0 0.988367519206292 0.08229275338849106
4312000000.0 1.04609718133256 0.09934945767092651
4316000000.0 1.0237477281459055 0.06788542689690398
4319000000.0 0.996047243942623 0.06300097321523017
4322000000.0 0.9882649384844711 0.018457322242876453
4325000000.0 1.0393844232099374 0.020779573263551718
4328000000.0 1.0023143097908835 0.033519215793037196
4331000000.0 0.9967567478598489 -0.016561056851341197
4334000000.0 1.0369275848342416 0.007710871898253008
4338000000.0 1.0311789642087583 0.003592164004555573
4341000000.0 1.0184565816993933 0.019370214819152798
4344000000.0 1.0507563894045922 0.007566406825969957
4347000000.0 1.028333813106599 -0.034218527910004515
4350000000.0 0.9914593277879707 -0.04469403198148118
4353000000.0 1.002048021646116 -0.0228595203418743
4356000000.0 1.0066394642482184 -0.04351419805263543
4359000000.0 0.9774241976934349 -0.07307795841429428
4362000000.0 1.0137127508389323 -0.11773086252466594
4366000000.0 1.030002609283999 -0.09726508909422413
4369000000.0 0.9898798962613179 -0.09267426207366966
4372000000.0 0.9787357631408049 -0.13828351783141413
4375000000.0 0.9975047688352645 -0.09176926465429273
4378000000.0 0.9920395239378439 -0.10796843915429076
4381000000.0 0.972960673661518 -0.1170603305531881
4384000000.0 1.0532656336990183 -0.16469899907528573
4388000000.0 0.9898580152183647 -0.11787414128388057
4391000000.0 1.021771868357866 -0.16205821903768353
4394000000.0 0.9790159727537925 -0.16691394221248967
4397000000.0 0.9979495454680234 -0.17548706236003966
4400000000.0 1.0270758236739062 -0.1906673957037422
4403000000.0 0.9999858184925825 -0.19353017861470795
4406000000.0 0.9890665294289996 -0.21600759340589012
4409000000.0 1.0317637043183563 -0.20745852320203495
4412000000.0 0.9720568664447631 -0.25297620265797993
4416000000.0 0.9493229979502567 -0.22971476760608103
4419000000.0 0.9896906348408842 -0.2447450405650754
4422000000.0 0.9801990825697033 -0.21855925561184603
4425000000.0 1.0016166192603109 -0.230250388356403
4428000000.0 0.9730018732072845 -0.25932669704691613
4431000000.0 0.9819574159743458 -0.26442278843656847
4434000000.0 0.9699771326033341 -0.26980470898049136
4438000000.0 1.0035288471547965 -0.2902143731987126
4441000000.0 0.9817110744205504 -0.2782530337150299
4444000000.0 0.9427527643858775 -0.2774824207607298
4447000000.0 0.9570621801389165 -0.3168368218557006
4450000000.0 0.9631821458302017 -0.30819706957245235
4453000000.0 0.9843215723064085 -0.33112819111848457
4456000000.0 0.9301456164870836 -0.3371557473180084
4459000000.0 0.9170171426624778 -0.34345323815297907
4462000000.0 0.9920375039138243 -0.36861962880598387
4466000000.0 0.977858354712501 -0.38376059406522
4469000000.0 0.9546881979920191 -0.346650274283519
4472000000.0 0.955973074074351 -0.40735003450257173
4475000000.0 0.9319722063893154 -0.38640722342553824
4478000000.0 0.979839356458989 -0.4280149969162076
4481000000.0 0.9008923715830083 -0.400677457119464
4484000000.0 0.8971335289292426 -0.4513001689814372
4488000000.0 0.9146376828491419 -0.42978218619914393
4491000000.0 0.9248579135458841 -0.42394375588693406
4494000000.0 0.905352912992475 -0.42248982939341145
4497000000.0 0.8991112270401456 -0.4340906749080735
4500000000.0 0.9150034832817473 -0.43153141260361944
4503000000.0 0.9225224363084423 -0.46250652327388003
4506000000.0 0.8954007415014718 -0.4636953871682485
4509000000.0 0.8878449963710786 -0.45620281702625387
4512000000.0 0.8774412796018844 -0.4784115201113195
4516000000.0 0.9012914160811532 -0.49465876511666956
4519000000.0 0.8645033604312429 -0.47562067138010655
4522000000.0 0.8559481131382924 -0.5156454047998335
4525000000.0 0.8757562922220217 -0.4959696952603383
4528000000.0 0.890838236576734 -0.5311113204405311
4531000000.0 0.8751647680717639 -0.5140365289990159
4534000000.0 0.8373132365976469 -0.5332196506083511
4538000000.0 0.8656523463357952 -0.5301593860993109
4541000000.0 0.8211650336823308 -0.5700975622212753
4544000000.0 0.8282824567000648 -0.5509346153256298
4547000000.0 0.8335909659930524 -0.5504233859463414
4550000000.0 0.8237484265794723 -0.5828594264996579
4553000000.0 0.8102680303429206 -0.5774503899217145
4556000000.0 0.8040620080008845 -0.6014371492839212
4559000000.0 0.8190082872452348 -0.6070207896329229
4562000000.0 0.8173585197637818 -0.6080031968044366
4566000000.0 0.8303270901377819 -0.6357730678251337
4569000000.0 0.7843859963468571 -0.612235762837815
4572000000.0 0.8008253700936819 -0.6219998755239441
4575000000.0 0.7896410624985415 -0.662483509261768
4578000000.0 0.8117732551175083 -0.6357147645028812
4581000000.0 0.7664325746139875 -0.6722738277352962
4584000000.0 0.7606007500107993 -0.6521624983933951
4588000000.0 0.807505137470819 -0.6571439912965591
4591000000.0 0.7704478259202698 -0.6496372749528063
4594000000.0 0.7182965451459006 -0.6848799674694193
4597000000.0 0.749602638552259 -0.6701292492164649
4600000000.0 0.7129396293268995 -0.6959795006707603
4603000000.0 0.7387385228509821 -0.7115428996460805
4606000000.0 0.7567680615174488 -0.7130960230774199
4609000000.0 0.7330281652087314 -0.7102701806626756
4612000000.0 0.7361069188748738 -0.7211357488983824
4616000000.0 0.6922178839333795 -0.7308492666987982
4619000000.0 0.7110429313809734 -0.7256155271419068
4622000000.0 0.6867720997935925 -0.7173892643385906
4625000000.0 0.6630048916222484 -0.7303260148129981
4628000000.0 0.6783158455325868 -0.7312148385168298
4631000000.0 0.6761976603214099 -0.7602431285791816
4634000000.0 0.6535228127244451 -0.7503070028860103
4638000000.0 0.6825942657621112 -0.7666877295568071
4641000000.0 0.6615890829762812 -0.7738007362501421
4644000000.0 0.6497752297264009 -0.7598831772648892
4647000000.0 0.6516891884792014 -0.7668690886902989
4650000000.0 0.6244267142657565 -0.7935190817264305
4653000000.0 0.6494584932385912 -0.7874461605704647
4656000000.0 0.6226818227527915 -0.810563515380998
4659000000.0 0.607352650381895 -0.8017683384709681
4662000000.0 0.6059493045172436 -0.7995477084000566
4666000000.0 0.5898610468470625 -0.8053526320221878
4669000000.0 0.6070846711624138 -0.8164406200302257
4672000000.0 0.5773987582785524 -0.8588828426035313
4675000000.0 0.5676463087141973 -0.8376022450641316
4678000000.0 0.5795270501524449 -0.8291399819270487
4681000000.0 0.5306589245216558 -0.8585854074389466
4684000000.0 0.5402085320637309 -0.8607398747924492
4688000000.0 0.5401927516303382 -0.8258458744212507
4691000000.0 0.5608834519561949 -0.8627947008587524
4694000000.0 0.5551961426447742 -0.8553362305136147
4697000000.0 0.47297572721381687 -0.8188542323925037
4700000000.0 0.5096622557841107 -0.8735979736728643
4703000000.0 0.5349855891340886 -0.8372120897067798
4706000000.0 0.48247933986917835 -0.9025276595714496
4709000000.0 0.5120149904405271 -0.8631423324121926
4712000000.0 0.48863896410676694 -0.8943719520275911
4716000000.0 0.47632921614975215 -0.918354524031521
4719000000.0 0.49520036380643284 -0.9017093728886042
4722000000.0 0.501221378788803 -0.8876262297539372
4725000000.0 0.45348048751124664 -0.9172982188488793
4728000000.0 0.4212321554053645 -0.9199317179241429
4731000000.0 0.4390191668506188 -0.8942144440299695
4734000000.0 0.44930332406433104 -0.8799969417711897
4738000000.0 0.4599787416451373 -0.9684192017051271
4741000000.0 0.42298363573021786 -0.9740460587286854
4744000000.0 0.4124612197076406 -0.9508303036546872
4747000000.0 0.39573087026015474 -0.9019269497540425
4750000000.0 0.3654598717901424 -0.9424795124527537
4753000000.0 0.3837955099942435 -0.931315752846074
4756000000.0 0.3820061327285682 -0.9770912159716136
4759000000.0 0.39052435371728267 -0.9539714104471965
4762000000.0 0.3617157624556242 -0.9751665812087389
4766000000.0 0.34782837279483636 -0.9380031321397886
4769000000.0 0.36527367434035346 -0.9806429614735684
4772000000.0 0.3449957226975974 -0.9695869604007626
4775000000.0 0.3271227164691776 -1.0016511919901088
4778000000.0 0.33432787445107276 -0.9865068433888294
4781000000.0 0.3063990787312045 -0.9509447485846569
4784000000.0 0.324671827556064 -0.9743035282009954
4788000000.0 0.3037089889981118 -1.0050345244507175
4791000000.0 0.29624958732220574 -0.9976296097638419
4794000000.0 0.3058397041055284 -1.015290974608371
4797000000.0 0.27251432363466793 -0.9784907303649591
4800000000.0 0.247700108536284 -1.001533245026084
4803000000.0 0.2350304269458927 -0.9805454815613113
4806000000.0 0.24870128806919675 -1.0177407130875007
4809000000.0 0.21676750098857017 -1.0234517507176264
4812000000.0 0.18107268729338027 -0.9679279114330825
4816000000.0 0.2450512083804304 -0.9925407853588237
4819000000.0 0.26334750725076506 -1.0350847301961268
4822000000.0 0.22212969884185585 -1.039002427260738
4825000000.0 0.2389281174960443 -1.0273900103499047
4828000000.0 0.17730780115825415 -1.0085463290629035
4831000000.0 0.15053013071572413 -1.0389008782712175
4834000000.0 0.18084414171060734 -1.0274364355506633
4838000000.0 0.15526849246651667 -1.0218287347306618
4841000000.0 0.14239689588158294 -1.0027985292399064
4844000000.0 0.17553477463820522 -1.0230625358965018
4847000000.0 0.16734110661958623 -1.0132869249892273
4850000000.0 0.13478164023524433 -1.0265550093421942
4853000000.0 0.1342671555216919 -1.002789570115021
4856000000.0 0.11117599661744575 -0.9992601535818807
4859000000.0 0.12131483105985069 -1.0668957691477319
4862000000.0 0.12730597280730555 -0.9952811775359459
4866000000.0 0.07866196048316978 -1.0357167220708694
4869000000.0 0.07593055457396511 -1.0226116211669534
4872000000.0 0.041645141067475855 -1.0445212248967128
4875000000.0 0.12252648867107564 -1.0522850402018793
4878000000.0 0.08038846360617614 -1.038983138532997
4881000000.0 0.024093717714012614 -1.077058247064319
4884000000.0 0.055965650863545394 -1.021573410608789
4888000000.0 0.06501844074143084 -1.0212660344101532
4891000000.0 0.05661299885922401 -1.0533414704743704
4894000000.0 -0.005155575701849739 -1.0452425138099624
4897000000.0 0.05396511265412425 -1.0347617838596914
4900000000.0 0.0024277843087902942 -1.0705086638558576
4903000000.0 0.012547944081114353 -1.0661877374752857
4906000000.0 -0.043425813989311265 -1.0653796439696144
4909000000.0 -0.0235917548537585 -1.0497827305078737
4912000000.0 -0.061083045862377144 -1.0436274127201386
4916000000.0 -0.006172228168663765 -1.0407962660184327
4919000000.0 -0.012295805329872414 -1.0685774799529881
4922000000.0 -0.01876432101991253 -1.048319776924525
4925000000.0 -0.0845182190584047 -1.043877628990903
4928000000.0 -0.028116971653721137 -1.045048871392698
4931000000.0 -0.038738999833768675 -1.0719270255646756
4934000000.0 -0.06859602947484976 -1.0231533568292905
4938000000.0 -0.11953833566548581 -1.0065525477099602
4941000000.0 -0.08950406937196605 -1.0228340747720275
4944000000.0 -0.07245946985211141 -0.9635805848754986
4947000000.0 -0.1266965656587096 -1.0087094101668004
4950000000.0 -0.11414792150804297 -1.0062651513435046
4953000000.0 -0.21081739663974802 -1.034971376766956
4956000000.0 -0.13728960230575465 -1.0497465553680687
4959000000.0 -0.164465797648059 -0.9947061480827617
4962000000.0 -0.16318743907029784 -1.0243376173542829
4966000000.0 -0.1723384679755084 -1.0519630921553786
4969000000.0 -0.1359440380596224 -1.0729223950283626
4972000000.0 -0.1851198835486532 -1.0125019608511516
4975000000.0 -0.1750745931547585 -0.9838775229424688
4978000000.0 -0.19401708651678468 -0.9763058644351896
4981000000.0 -0.22237040878142408 -0.9899361126289828
4984000000.0 -0.23677048201692333 -0.9963303898475651
4988000000.0 -0.20314376044384896 -1.0218530431254103
4991000000.0 -0.1558365451934195 -1.0380458358222777
4994000000.0 -0.19663960172110384 -1.0029907700184366
4997000000.0 -0.2601405432897559 -1.0042813937140564
5000000000.0 -0.2797557531850995 -1.0204898338521693
5003000000.0 -0.2624420283162835 -1.043857504243599
5006000000.0 -0.288462828789381 -1.037754721188434
5009000000.0 -0.27905586206716226 -1.0094712395831573
5012000000.0 -0.31307606122168347 -0.9875108611471242
5016000000.0 -0.2816008867795167 -1.0380490647531966
5019000000.0 -0.3298449445971058 -0.9620628420147312
5022000000.0 -0.30978136977207926 -1.0274719566468853
5025000000.0 -0.3386431005939656 -1.0301381650408303
5028000000.0 -0.34713333004511515 -0.971565699508385
5031000000.0 -0.3688906228718998 -0.9880278430135164
5034000000.0 -0.37800263714504023 -0.980853606764045
5038000000.0 -0.3649329606666666 -0.9643572670376082
5041000000.0 -0.3372523954707841 -0.986473028270154
5044000000.0 -0.3391882336145564 -0.9389879618941429
5047000000.0 -0.3637834803206637 -0.9517151773446012
5050000000.0 -0.2973695896747679 -0.9456223506203694
5053000000.0 -0.4351039965260962 -1.014229707606305
5056000000.0 -0.3507413397424445 -0.9784318745344451
5059000000.0 -0.32933051313162914 -1.0053263791715437
5062000000.0 -0.45082450908172833 -0.9513469648480231
5066000000.0 -0.36051443310812714 -0.9684498210817771
5069000000.0 -0.42601971978597686 -0.9498258357820512
5072000000.0 -0.39789690844280196 -0.9192786343301642
5075000000.0 -0.4002747291064426 -0.9315806521046275
5078000000.0 -0.47790615891009486 -0.9168791142426944
5081000000.0 -0.45963005778192195 -0.9167613752146301
5084000000.0 -0.46855719981823785 -0.9694524637877528
5088000000.0 -0.4716148032723372 -0.9007328798032954
5091000000.0 -0.4931126410100138 -0.9225982745186467
5094000000.0 -0.511952566149026 -0.9306250785652203
5097000000.0 -0.43358046437428344 -0.9250031648913357
5100000000.0 -0.5050365069258316 -0.9186301583943731
5103000000.0 -0.554349077440927 -0.8555006204510179
5106000000.0 -0.5448226716748099 -0.9156232797273902
5109000000.0 -0.5308002149514146 -0.9406342644907022
5112000000.0 -0.5055277592416703 -0.8905339645368899
5116000000.0 -0.49896745764610273 -0.8501287456359365
5119000000.0 -0.5775629169953225 -0.9035032797642928
5122000000.0 -0.5335768218775429 -0.8667499823965306
5125000000.0 -0.5137926936426958 -0.9084705028068817
5128000000.0 -0.5693440256006449 -0.8466992124087658
5131000000.0 -0.550378641444043 -0.8314331779526848
5134000000.0 -0.5562892655981362 -0.8328913394704329
5138000000.0 -0.5786134770749425 -0.8897891520705301
5141000000.0 -0.5402365542425502 -0.8897215728030496
5144000000.0 -0.5513180086152267 -0.8855350418164165
5147000000.0 -0.6145361639966825 -0.8645786290023734
5150000000.0 -0.629153717019393 -0.8839749602636543
5153000000.0 -0.6375885345214845 -0.8169627647982123
5156000000.0 -0.6211046936305981 -0.8710384939484159
5159000000.0 -0.6205794599310424 -0.8901361266170101
5162000000.0 -0.6799036480747809 -0.7910475527818958
5166000000.0 -0.6798654336397282 -0.8118565137499035
5169000000.0 -0.667792544507027 -0.8292511803404973
5172000000.0 -0.6245106306297477 -0.8210995132532549
5175000000.0 -0.6885205513513297 -0.8425234117036663
5178000000.0 -0.6639737053983261 -0.8047766806208193
5181000000.0 -0.669786613590596 -0.8072709244348734
5184000000.0 -0.6846686807187584 -0.7890858618637601
5188000000.0 -0.7247568247177542 -0.780938629117328
