! Created with skrf 1.8.0 (http://scikit-rf.org).
# Hz S RI R 50.0 
!freq ReS11 ImS11
4000000000.0 0.608404170160119 0.8047213260538615
4003000000.0 0.691159126439278 0.8437627903763939
4006000000.0 0.669214447200655 0.7771696624463138
4009000000.0 0.6864933159312779 0.793651008988835
4012000000.0 0.6939049941981262 0.8841083395982393
4016000000.0 0.7025152256894461 0.7462546529839009
4019000000.0 0.7062030711321372 0.7748377163372997
4022000000.0 0.6673421012713582 0.8056892756581262
4025000000.0 0.7296967814792025 0.7833640507189011
4028000000.0 0.6779883175027736 0.7380514069287898
4031000000.0 0.7099147486718228 0.7412815286518765
4034000000.0 0.7408835897586358 0.7152820074731046
4038000000.0 0.7364325850041341 0.7657779521064618
4041000000.0 0.7549029255317975 0.7609480269166409
4044000000.0 0.7699772650147372 0.7842730663807318
4047000000.0 0.7520823844640642 0.7796790553818803
4050000000.0 0.766830362816148 0.7181493612059001
4053000000.0 0.754895779772118 0.6898505019584458
4056000000.0 0.8048646005785848 0.7372883933444575
4059000000.0 0.7514467890329644 0.7241271647581387
4062000000.0 0.8098160417660374 0.7118759514911195
4066000000.0 0.7553663958568095 0.678584531910673
4069000000.0 0.8474372405241074 0.6983784919382832
4072000000.0 0.7489516268611875 0.7240080665142778
4075000000.0 0.8207163240005539 0.7535576818571217
4078000000.0 0.7964111975582289 0.6567724757605807
4081000000.0 0.8217421676253319 0.6968193050052304
4084000000.0 0.8560691086867425 0.6395628111983795
4088000000.0 0.7786939563521875 0.6585116453688867
4091000000.0 0.81865698110233 0.6881353592871879
4094000000.0 0.7770392464506367 0.6381847915918627
4097000000.0 0.8353507490757803 0.6606527721094955
4100000000.0 0.8535997018219718 0.5692812830254677
4103000000.0 0.8650686772390144 0.6520533488019284
4106000000.0 0.8293297183203197 0.6197440454929792
4109000000.0 0.8716744359035846 0.5567574314629602
4112000000.0 0.850951451084794 0.5876200767307544
4116000000.0 0.8361377268876418 0.6091246300136638
4119000000.0 0.861436825774267 0.5756203123350199
4122000000.0 0.8613213065283482 0.5407072974595832
4125000000.0 0.9064278484964498 0.5431470855474838
4128000000.0 0.8369782104115776 0.5482713318957603
4131000000.0 0.8761527296296862 0.5732936270592804
4134000000.0 0.8771374032668902 0.5394275775487035
4138000000.0 0.9077276877192046 0.5485600846583587
4141000000.0 0.8941474253184137 0.5124907043165908
4144000000.0 0.8872014265280281 0.5328598583772841
4147000000.0 0.8836711433599921 0.5171692704567372
4150000000.0 0.9491757842419397 0.5298091603924762
4153000000.0 0.9362974146596273 0.4850335738174275
4156000000.0 0.9092059482152637 0.5051360214537566
4159000000.0 0.8974136136694562 0.5012732079919431
4162000000.0 0.9007820798471806 0.45934382937667206
4166000000.0 0.9144265687362896 0.4766235514450564
4169000000.0 0.9370715782234333 0.43480901989952914
4172000000.0 0.9246871882092527 0.4791517334533581
4175000000.0 0.9428316529602 0.4776297611327494
4178000000.0 0.9761687323879034 0.4797164428118038
4181000000.0 0.9456013044047054 0.4211753163095662
4184000000.0 0.9534837796574055 0.43124693698098543
4188000000.0 0.9519929395471076 0.420357173744042
4191000000.0 0.9274202848366457 0.44021116397931986
4194000000.0 0.9425871051987383 0.4058291921159517
4197000000.0 0.9397362849743658 0.3980128216266208
4200000000.0 0.9495301010869506 0.40720634293435276
4203000000.0 0.9663719542192033 0.3958940321851525
4206000000.0 0.9538250554718888 0.3856301321108308
4209000000.0 0.9513667022295298 0.35592801173622773
4212000000.0 0.977292317371648 0.3285751155803709
4216000000.0 0.9659025207529244 0.3577795846523078
4219000000.0 1.0040200049336834 0.3630981201553116
4222000000.0 0.9996486917345615 0.31867142679382016
4225000000.0 0.9648637842144328 0.3515710969479834
4228000000.0 0.9938626327986722 0.3143562905672168
4231000000.0 0.9897268266069746 0.32260751283815914
4234000000.0 0.9891382010844965 0.3078403143475336
4238000000.0 0.9950497586011978 0.26920065963413486
4241000000.0 0.9797576530454131 0.26901298815830355
4244000000.0 0.9782735471588335 0.2880343959673313
4247000000.0 1.003823534442378 0.290106610845488
4250000000.0 0.9855831960167123 0.2585428700771277
4253000000.0 0.9664882161061548 0.24154155119548337
4256000000.0 1.0072137981041307 0.23054736783623647
4259000000.0 0.9632776338989575 0.2297150486662967
4262000000.0 1.005762930237776 0.20453301926212966
4266000000.0 1.0223255827949307 0.17813546229359856
4269000000.0 1.0180626829749397 0.208898304864002
4272000000.0 1.0052543924203894 0.1955346635064651
4275000000.0 1.0052726467573465 0.17502473088099724
4278000000.0 1.0499773665677732 0.17822756514711485
4281000000.0 1.0184816114471753 0.19588207347318126
4284000000.0 1.017396309100746 0.1390824279357593
4288000000.0 1.0327588029105486 0.1708493503962392
4291000000.0 0.9819820353693564 0.13835658279569119
4294000000.0 1.022901679747703 0.10915312703142015
4297000000.0 1.0046978374306061 0.14487311732734331
4300000000.0 0.9983719635688086 0.11490345678879887
4303000000.0 1.019694677749386 0.12066779726335465
4306000000.0 1.030346785216886 0.13968620642530385
4309000000.0 1.0099804127673428 0.115827176265562
4312000000.0 1.0377421087222054 0.1132856746162482
4316000000.0 1.0366545382542214 0.08400409547199626
4319000000.0 1.0180621808037493 0.08051622412130154
4322000000.0 1.0059148948687358 0.05874879133996268
4325000000.0 1.0464055907560588 0.0789420607051632
4328000000.0 1.004360635384227 0.0480389344523572
4331000000.0 1.0103276216968793 -0.0062660617758687615
4334000000.0 1.0324652082260135 0.025397297500486637
4338000000.0 1.0361058049715335 0.05057236524872398
4341000000.0 1.0372985377149344 0.04551745383409697
4344000000.0 1.0409107888777598 0.018298942439776367
4347000000.0 1.0429052321867098 -0.029598793848341243
4350000000.0 0.9916309246238366 -0.013142878998447044
4353000000.0 0.9941902186651885 0.003820242600781787
4356000000.0 0.9874212245996367 -0.06406287622485608
4359000000.0 0.97747236336402 -0.046367776218629225
4362000000.0 1.0236183691969247 -0.06589099441300292
4366000000.0 1.04029642946031 -0.07009608100405319
4369000000.0 0.9836609814633355 -0.08985894525547747
4372000000.0 1.0034434749283718 -0.1199016386043662
4375000000.0 0.9952381409113016 -0.06089394734303788
4378000000.0 0.9709851647580001 -0.08147156207662916
4381000000.0 1.0205196923289708 -0.09357718869495149
4384000000.0 1.0497129065709463 -0.1124071295213785
4388000000.0 1.0055066531136854 -0.11249419185392816
4391000000.0 1.016957531714726 -0.12170615162748499
4394000000.0 0.9771617968599158 -0.14063810323497516
4397000000.0 1.009520093077556 -0.16951748285858537
4400000000.0 1.0392435685789978 -0.1538068973446859
4403000000.0 1.018773889552055 -0.1500934737918424
4406000000.0 1.0079980017099286 -0.19009211545396681
4409000000.0 1.0366791567284168 -0.18175089343783057
4412000000.0 0.9853063837886581 -0.23386954376834784
4416000000.0 0.9897214187799273 -0.2142587309040145
4419000000.0 0.9944222447565937 -0.23245251981284906
4422000000.0 0.9784115734884873 -0.18855856606728458
4425000000.0 1.0207819315151978 -0.20161402574013076
4428000000.0 0.9927346751295753 -0.24098695726247493
4431000000.0 1.0147413594496097 -0.2596303101210586
4434000000.0 0.9725718892536686 -0.24986766037354713
4438000000.0 1.0050188955081574 -0.2626531549064574
4441000000.0 0.9979522137467034 -0.28536743374594464
4444000000.0 0.9611705086156199 -0.25409721435290733
4447000000.0 0.9509075938162678 -0.284279014701215
4450000000.0 0.9580896461544937 -0.26848657034863604
4453000000.0 0.989354809534754 -0.2958143493497024
4456000000.0 0.9362591527638091 -0.31793923884514075
4459000000.0 0.9207138053948867 -0.31667735072942027
4462000000.0 1.0105381453582376 -0.3479009380067971
4466000000.0 1.0014995485134852 -0.3387575396845834
4469000000.0 0.9735462001677007 -0.31615363533826746
4472000000.0 0.9553891149218487 -0.3772429926128148
4475000000.0 0.9128254515043374 -0.34526666600079303
4478000000.0 0.9823412289118785 -0.38871345597996854
4481000000.0 0.920002083937127 -0.3742933614388742
4484000000.0 0.9135123552594049 -0.4285990487483792
4488000000.0 0.9144374003979293 -0.41057022953349454
4491000000.0 0.9370599563793156 -0.427117381452757
4494000000.0 0.915367238273751 -0.4090922084851997
4497000000.0 0.9295998207250364 -0.4142981708047959
4500000000.0 0.9355964777827868 -0.41934289285286047
4503000000.0 0.9389659490547284 -0.44121221955494244
4506000000.0 0.8864618632122501 -0.43748757564792207
4509000000.0 0.8885809040118438 -0.42917824317814
4512000000.0 0.89625425608291 -0.465289016727369
4516000000.0 0.9170004723399083 -0.47606333988181704
4519000000.0 0.8655028974577951 -0.46232419481311515
4522000000.0 0.8909871475680069 -0.4883378736608635
4525000000.0 0.9022186574595115 -0.45807640074756906
4528000000.0 0.8979848202571998 -0.49969737775677336
4531000000.0 0.8797176076555027 -0.4944116198519918
4534000000.0 0.8468092983757974 -0.5217768565233064
4538000000.0 0.8723241994286113 -0.5130852504796155
4541000000.0 0.8467696497736512 -0.547518891284908
4544000000.0 0.8652435887957799 -0.5345799555317206
4547000000.0 0.8590940193626451 -0.5142708338398008
4550000000.0 0.8459928077303638 -0.5820632003394037
4553000000.0 0.8520799975475932 -0.5694070551973843
4556000000.0 0.8113879829430823 -0.5720949789084223
4559000000.0 0.8335536960306649 -0.5772645298789387
4562000000.0 0.8541420929325436 -0.581744914819021
4566000000.0 0.836251071829271 -0.5737283448807222
4569000000.0 0.8019301269812906 -0.58553438562435
4572000000.0 0.8225651648803584 -0.6022306008900128
4575000000.0 0.7958977849204789 -0.6487829507104778
4578000000.0 0.8140730347556984 -0.6258810027141809
4581000000.0 0.8041262680454399 -0.6497267764071264
4584000000.0 0.7772237435726189 -0.6220411445419827
4588000000.0 0.8164920618154274 -0.6403667878045516
4591000000.0 0.7937116634346758 -0.624076730113748
4594000000.0 0.7649258579736689 -0.6869360583428149
4597000000.0 0.781004997153053 -0.6827053692163181
4600000000.0 0.7428380531090452 -0.6767999353545872
4603000000.0 0.7529200099310273 -0.6932405497852506
4606000000.0 0.7590140767895319 -0.6811127913586339
4609000000.0 0.741382067926992 -0.6995961992588653
4612000000.0 0.7521446034513323 -0.7127060109083311
4616000000.0 0.7139044548242222 -0.7042004694113192
4619000000.0 0.7436297365574999 -0.7104754831998714
4622000000.0 0.6998855987881983 -0.724334417766478
4625000000.0 0.6632839557071013 -0.7257454989754051
4628000000.0 0.719841633784961 -0.7264819533217705
4631000000.0 0.687386448694538 -0.7396830729360578
4634000000.0 0.6911367440336428 -0.7511494963137816
4638000000.0 0.7027386933148508 -0.7440572989260513
4641000000.0 0.6824084799009945 -0.7649730022569499
4644000000.0 0.6895503080962301 -0.7620273064986327
4647000000.0 0.686962784859718 -0.7682333844983501
4650000000.0 0.6509112739645884 -0.7717559858664126
4653000000.0 0.6740982447131514 -0.7790597247573086
4656000000.0 0.6502410142376633 -0.7940443866191791
4659000000.0 0.6309253460910742 -0.7927489336455502
4662000000.0 0.6467739352114146 -0.8117509608144692
4666000000.0 0.6355211204071632 -0.7968613120961514
4669000000.0 0.6271657866727698 -0.7916677944333829
4672000000.0 0.599053461752487 -0.8130650393037434
4675000000.0 0.591977390200461 -0.819182301510505
4678000000.0 0.5977424810010612 -0.8202976569461236
4681000000.0 0.5947131501289027 -0.8612647622378168
4684000000.0 0.5559540474383902 -0.8492132926052944
4688000000.0 0.5489271850511395 -0.8522901768998625
4691000000.0 0.6100762487860553 -0.859370985281434
4694000000.0 0.5603263796670848 -0.8214396185772861
4697000000.0 0.5228929864410268 -0.830757486205228
4700000000.0 0.5639265586343243 -0.8427069797961624
4703000000.0 0.540222947171768 -0.8034920933473901
4706000000.0 0.5238087303867301 -0.8741295498144952
4709000000.0 0.5343087134272745 -0.887947406044116
4712000000.0 0.5404861316866135 -0.9057954762740246
4716000000.0 0.49107265774548736 -0.9106986589363897
4719000000.0 0.5265023839937037 -0.9022436646355882
4722000000.0 0.5456570687870967 -0.8821156009687743
4725000000.0 0.46289187143317 -0.8722504342005453
4728000000.0 0.48117697580800173 -0.9030150920394757
4731000000.0 0.506100784889931 -0.9256084746349171
4734000000.0 0.5066182974189956 -0.9005229811159406
4738000000.0 0.4906160840960191 -0.9381758888914743
4741000000.0 0.4624037004540822 -0.9272931140625658
4744000000.0 0.4258985016219513 -0.9129506982636572
4747000000.0 0.46638180669114015 -0.8951864388825792
4750000000.0 0.43813717536808044 -0.954397067681799
4753000000.0 0.42985625534210603 -0.9620285313823077
4756000000.0 0.4410052090624529 -0.9579582470625567
4759000000.0 0.4077597276996315 -0.9582672028797508
4762000000.0 0.3805577847013404 -0.9713988574872436
4766000000.0 0.4018721702081681 -0.9787370333259251
4769000000.0 0.3773980282447489 -0.9714799508709909
4772000000.0 0.3607280846486848 -0.9759272516431937
4775000000.0 0.3662994095444313 -0.9868256987650363
4778000000.0 0.3734016529199905 -0.9889945900916693
4781000000.0 0.3999023270381086 -0.9816659520456592
4784000000.0 0.36887764453159755 -0.9717236273733622
4788000000.0 0.295662531727925 -1.0114029620339486
4791000000.0 0.3326850846275129 -0.9751179699095321
4794000000.0 0.33320846753446254 -1.0246660414263051
4797000000.0 0.30754767801335137 -0.9643074181017709
4800000000.0 0.30634769702189757 -0.9729841613811341
4803000000.0 0.2477165128460436 -0.9965022842407172
4806000000.0 0.27963937891683827 -1.0056325981677927
4809000000.0 0.2342323006556602 -0.9954312276182488
4812000000.0 0.22903125041348066 -0.9855778848147945
4816000000.0 0.25349410152251095 -0.986267376223614
4819000000.0 0.26248098687356386 -1.0309393825337032
4822000000.0 0.2617944020640258 -1.0413427930897763
4825000000.0 0.24830082513361634 -1.0281547385021041
4828000000.0 0.22090506456013814 -0.9965508930774786
4831000000.0 0.17457011488108898 -1.0438717189922873
4834000000.0 0.23543241586524805 -1.003664071626396
4838000000.0 0.186564545755329 -1.021973533724017
4841000000.0 0.18023868657133058 -1.0046694419485713
4844000000.0 0.2255418532527228 -0.9969930526085337
4847000000.0 0.19491582226215542 -0.9987522160695634
4850000000.0 0.14905568999729202 -1.0481890985181377
4853000000.0 0.14597942173801476 -1.0091133487453394
4856000000.0 0.1527721904370407 -1.0171710865392727
4859000000.0 0.1301631869895874 -1.0757535472040454
4862000000.0 0.14730498110147916 -1.0047986745517752
4866000000.0 0.110542110840148 -1.0659160662777647
4869000000.0 0.10689354372669124 -1.0311665162806554
4872000000.0 0.06636923389951997 -1.0768505718579175
4875000000.0 0.1603827100485961 -1.0651338708070783
4878000000.0 0.10413238262557273 -1.0536903321173376
4881000000.0 0.07744362791042714 -1.1070385931165656
4884000000.0 0.12838923128786184 -1.0402865177363925
4888000000.0 0.06654874494877464 -1.033549903992477
4891000000.0 0.10535482049248522 -1.0480238959708261
4894000000.0 0.028538679783934207 -1.0479686808670974
4897000000.0 0.06624429720598285 -1.0414092446857626
4900000000.0 0.03719288677767148 -1.0376220734789603
4903000000.0 0.051521288826957584 -1.0588745130521429
4906000000.0 0.011921509230093752 -1.0505875751595632
4909000000.0 -0.019071813581950203 -1.0750391021833534
4912000000.0 -0.0003984537293863777 -1.0754569362263782
4916000000.0 0.020705402157977552 -1.0697457160741723
4919000000.0 0.028839029691714146 -1.0650551427197383
4922000000.0 0.00793337035078518 -1.0719946253070094
4925000000.0 -0.09478984748906102 -1.039372091747887
4928000000.0 0.007382923676816561 -1.0206646103084223
4931000000.0 0.011119368053473064 -1.0611328406309224
4934000000.0 -0.04519709707670781 -0.9810948380970594
4938000000.0 -0.09018211050574594 -1.0518731554891063
4941000000.0 -0.06964909063208376 -1.0108137200426686
4944000000.0 -0.03796651017535274 -0.9960801463039046
4947000000.0 -0.11985105286515482 -1.0054672910277636
4950000000.0 -0.09119676584015517 -1.0186139328437829
4953000000.0 -0.14597624248208413 -1.0590302898374127
4956000000.0 -0.15451713987707605 -1.001044048090044
4959000000.0 -0.1644020344605844 -1.0005598654258034
4962000000.0 -0.14677711341608576 -1.045837696796806
4966000000.0 -0.10355550321225715 -1.0977614203294637
4969000000.0 -0.15333206887706852 -1.079292155884982
4972000000.0 -0.16624040653123326 -1.035747951476055
4975000000.0 -0.1222825508675329 -1.0122718083006803
4978000000.0 -0.15727565901976404 -1.032126323508426
4981000000.0 -0.21286630213102967 -1.0263435645329106
4984000000.0 -0.17088897340810374 -0.9858815071068799
4988000000.0 -0.2190168268964991 -1.0460083918603182
4991000000.0 -0.14184625148775948 -1.0666653287051258
4994000000.0 -0.20109133676142693 -1.0192163213349335
4997000000.0 -0.2528344982402746 -0.9949096783624315
5000000000.0 -0.23341999516662754 -1.0389808305718482
5003000000.0 -0.24462916591462802 -1.0739216780705945
5006000000.0 -0.27060081125982194 -1.0638599191181373
5009000000.0 -0.24836454419860363 -1.0183999267702564
5012000000.0 -0.28136198010561203 -1.0448947108061517
5016000000.0 -0.24651109810498517 -1.066353893210136
5019000000.0 -0.3082244885252452 -0.9893429029151528
5022000000.0 -0.3113734671844345 -1.0087521045268895
5025000000.0 -0.32423412111013533 -1.0547654305289562
5028000000.0 -0.3301713415388793 -1.0031365740653762
5031000000.0 -0.33164459292323945 -1.0173036873240875
5034000000.0 -0.375047919823127 -1.026408392911821
5038000000.0 -0.33700563620337853 -0.9712407141909181
5041000000.0 -0.3011174774572203 -1.0153107941295367
5044000000.0 -0.3300434907680947 -0.9749896406231543
5047000000.0 -0.3679426222872553 -0.9940784398248773
5050000000.0 -0.2783473175258222 -0.9953738834679444
5053000000.0 -0.3850302043149557 -1.0229060381425628
5056000000.0 -0.32348832187379883 -0.9821571694764961
5059000000.0 -0.3320687945340636 -1.0259754657951912
5062000000.0 -0.43289364878483205 -0.97657614821773
5066000000.0 -0.3660273337508766 -0.9924796750424749
5069000000.0 -0.4120858771451862 -0.997545536054253
5072000000.0 -0.40422134916515795 -0.9518631875510568
5075000000.0 -0.38641473697859086 -0.9756498617618075
5078000000.0 -0.44965011283469297 -0.951663772113063
5081000000.0 -0.44957910148595587 -0.9171774782054954
5084000000.0 -0.4482274401321442 -0.9540406190505397
5088000000.0 -0.414181740455011 -0.9255264595340391
5091000000.0 -0.4966582166379346 -0.9650586853635701
5094000000.0 -0.47865659646825104 -0.950705656694364
5097000000.0 -0.44941365273539 -0.9537792157228386
5100000000.0 -0.46413934313992783 -0.9617680052141441
5103000000.0 -0.4796206055658472 -0.9560737261324516
5106000000.0 -0.4925549410789168 -0.9706251357515996
5109000000.0 -0.4496166109035054 -0.9541350657467895
5112000000.0 -0.4666487702625252 -0.9138462077041023
5116000000.0 -0.4603075723475859 -0.877747502340301
5119000000.0 -0.5441005461152172 -0.9208980901720643
5122000000.0 -0.4999259526483558 -0.9202264879742137
5125000000.0 -0.48907037308049417 -0.9015091582771472
5128000000.0 -0.5445853172617031 -0.9114937916019801
5131000000.0 -0.5204360273508162 -0.8448698188580839
5134000000.0 -0.5781835388082633 -0.893496623541804
5138000000.0 -0.5043910498631153 -0.9301390578204914
5141000000.0 -0.4894372208800196 -0.9511402815301415
5144000000.0 -0.5635478818679288 -0.8949052747145154
5147000000.0 -0.5775457121400167 -0.9080395508931315
5150000000.0 -0.593437954465094 -0.931811658570561
5153000000.0 -0.6032452003128013 -0.8842344103010884
5156000000.0 -0.615024025278155 -0.8739280307008956
5159000000.0 -0.6083827458412355 -0.8858862905176771
5162000000.0 -0.6244943333704873 -0.838854157793592
5166000000.0 -0.6366066395800729 -0.8654126652201016
5169000000.0 -0.6111408700449458 -0.8439338640872186
5172000000.0 -0.6183856432060288 -0.8384865832901902
5175000000.0 -0.6393584074109615 -0.8989818361905222
5178000000.0 -0.6564648774962072 -0.8334682779742807
5181000000.0 -0.6356709702508568 -0.8853193887501442
5184000000.0 -0.6385215703484386 -0.816592875546594
5188000000.0 -0.6299087624470192 -0.8312203148819683
5191000000.0 -0.6963614949476563 -0.797652940882738
