! Created with skrf 1.8.0 (http://scikit-rf.org).
# Hz S RI R 50.0 
!freq ReS11 ImS11
4000000000.0 0.6069889606205757 0.8044880127445202
4003000000.0 0.6789881779974464 0.8470052427776267
4006000000.0 0.7058725627262594 0.7629130120230851
4009000000.0 0.7365607520705117 0.7206573766657066
4012000000.0 0.661423194329001 0.800586015974239
4016000000.0 0.7160783144628479 0.7228457455799864
4019000000.0 0.6968862221694032 0.7326242687342882
4022000000.0 0.68154343455475 0.8412244037145972
4025000000.0 0.7277739244004527 0.7101877100348494
4028000000.0 0.7234057639115036 0.6812000014909416
4031000000.0 0.7177776721455396 0.7113580181498786
4034000000.0 0.7751354792282946 0.72430653641767
4038000000.0 0.7744153066005114 0.6999550416848027
4041000000.0 0.7624111609457298 0.6988090271373872
4044000000.0 0.7969346727357208 0.7376427867268559
4047000000.0 0.7407420257174978 0.7226295282371111
4050000000.0 0.7902246987439756 0.6670083861537692
4053000000.0 0.7612850466584004 0.6367768309846316
4056000000.0 0.7681243928205659 0.6810150544379984
4059000000.0 0.7493811689685766 0.6488117213999536
4062000000.0 0.7835175572199311 0.6541735105950142
4066000000.0 0.7455966847899491 0.5794697551442493
4069000000.0 0.84509517156202 0.6368026533211673
4072000000.0 0.8190234235293721 0.658738161127068
4075000000.0 0.7924593478615998 0.6856540058995022
4078000000.0 0.8312085590537736 0.6470833057829298
4081000000.0 0.7997956161655077 0.6736850471079887
4084000000.0 0.8252093772772539 0.5928432974421212
4088000000.0 0.8019816114601452 0.6380923006343661
4091000000.0 0.8882792547554801 0.6346415322458046
4094000000.0 0.8426888615299988 0.5809343014688432
4097000000.0 0.8411619355392242 0.5966194672885625
4100000000.0 0.8536287644565078 0.5729559412884595
4103000000.0 0.8426566533971398 0.5596823870487078
4106000000.0 0.8297133609959847 0.5631217967651053
4109000000.0 0.8587236026066936 0.5100286261767055
4112000000.0 0.84228474614446 0.5382077382036763
4116000000.0 0.8638916552622632 0.5149324582069629
4119000000.0 0.8937974399573632 0.534314268217856
4122000000.0 0.8877009992570586 0.49452812690957404
4125000000.0 0.9080051761970636 0.5321850147913034
4128000000.0 0.868545864667797 0.5035635917290301
4131000000.0 0.8936408935693997 0.5221396690861257
4134000000.0 0.9012405832447967 0.5173254927342043
4138000000.0 0.8750846549684279 0.4571956916315601
4141000000.0 0.8718390326049592 0.4703324262732689
4144000000.0 0.9240683365261025 0.48074457376769314
4147000000.0 0.8987818748257167 0.4403856353814531
4150000000.0 0.9239761383089643 0.45200488133611566
4153000000.0 0.9086712580111942 0.4222382175937598
4156000000.0 0.9213276108939448 0.46357877896994126
4159000000.0 0.8814843000235693 0.44101265522505056
4162000000.0 0.9311900130938142 0.43204007817976753
4166000000.0 0.9361676202419393 0.44135380040289574
4169000000.0 0.9146474593145757 0.3907322604809531
4172000000.0 0.936742921527793 0.414070421647085
4175000000.0 0.943040393009459 0.40341059135397156
4178000000.0 0.9581042976973685 0.4133339587743583
4181000000.0 0.9348348027466331 0.3767919799150027
4184000000.0 0.9390774201324834 0.36022423241485263
4188000000.0 0.9543405340232505 0.34936369758120434
4191000000.0 0.9164820442485067 0.3850830162787238
4194000000.0 0.9467819399956288 0.3314409725829971
4197000000.0 0.9769252062671906 0.3465880153736673
4200000000.0 0.9847617294052091 0.3497679341256089
4203000000.0 0.9713197105772979 0.33832786636009926
4206000000.0 0.9676032167293932 0.3307255226644696
4209000000.0 0.9722747077721721 0.29673333930221674
4212000000.0 0.9930113107244156 0.26590414633430215
4216000000.0 0.9678079689281052 0.29521856376601047
4219000000.0 0.9949325682512157 0.2928058458803252
4222000000.0 0.983706564607219 0.2689695063228349
4225000000.0 0.9759235576734886 0.26462550078255975
4228000000.0 0.994177798402156 0.26097755973303915
4231000000.0 0.983692330364061 0.23368876496507773
4234000000.0 1.0108657804054426 0.2267390338611846
4238000000.0 0.9991996380395716 0.20930099902230467
4241000000.0 0.9904227797032756 0.20183081212689447
4244000000.0 0.9798426563586504 0.20451994831392184
4247000000.0 0.992387557508935 0.2121503639015983
4250000000.0 0.9903274038546424 0.17774243824154856
4253000000.0 0.9968649155232048 0.18132220903861357
4256000000.0 1.0165100650199475 0.18385257787817771
4259000000.0 0.9734869216711736 0.1608077575800889
4262000000.0 1.0050927560819578 0.13979123083894532
4266000000.0 1.0210120272492695 0.12564278563935133
4269000000.0 0.9968577005375359 0.15854450046207075
4272000000.0 1.001742886524072 0.12646343572867877
4275000000.0 1.0287083443844647 0.1436324882923791
4278000000.0 1.0214502847599587 0.13811793602503086
4281000000.0 1.039439165716919 0.12129222527551044
4284000000.0 1.0201604474072914 0.06377632300524314
4288000000.0 0.999967559379791 0.10659493135682377
4291000000.0 0.9792247869267796 0.07356497684889422
4294000000.0 1.0016982233717628 0.06774816906934546
4297000000.0 0.9875303576398129 0.09392896330559426
4300000000.0 0.9831253229903965 0.041629738803299544
4303000000.0 0.9874093392074547 0.026265995320997396
4306000000.0 1.0050504003689316 0.08952286864357872
4309000000.0 1.0200925913122894 0.051700412444656244
4312000000.0 1.0381108886516226 0.0619291180257841
4316000000.0 1.0163702742512477 0.04774884671149433
4319000000.0 0.9742327976501093 0.030433000375665917
4322000000.0 0.9730220244677669 -0.045610626256557374
4325000000.0 1.009602711545576 0.009466749346964148
4328000000.0 1.0055384345735785 -0.024628160533630997
4331000000.0 1.0124827376196261 -0.04261509164614381
4334000000.0 0.9949851095638723 -0.0322697294517648
4338000000.0 1.0100235344184145 -0.025982933699764107
4341000000.0 1.0173621343023531 -0.013000014646264393
4344000000.0 1.0197437305399841 -0.038131573372707825
4347000000.0 1.0183656475059064 -0.09932976970627615
4350000000.0 0.9792830863903164 -0.0972827130881164
4353000000.0 0.9738979508297165 -0.04639484591276094
4356000000.0 0.9935821596743676 -0.12387697046672491
4359000000.0 0.9508881605246224 -0.10199208139408804
4362000000.0 1.0077287498361511 -0.17336161577497072
4366000000.0 1.016347363925601 -0.11581338201241773
4369000000.0 0.986426992385646 -0.1352818282065649
4372000000.0 0.9588044446282844 -0.16936628475985366
4375000000.0 0.9902139040632496 -0.14177155520502205
4378000000.0 0.9633776333611435 -0.14063450495822566
4381000000.0 0.982846348743897 -0.15329870585746028
4384000000.0 1.0451808936744227 -0.20759087364727213
4388000000.0 0.9834696472765319 -0.1694343750531913
4391000000.0 1.0071252444806151 -0.2014261378824393
4394000000.0 0.9727031288381125 -0.213169913088492
4397000000.0 0.9791636050046559 -0.22204014837739847
4400000000.0 1.0051837625057016 -0.21580649757037756
4403000000.0 1.0034259529545622 -0.22167987803672862
4406000000.0 0.9720599230537803 -0.2673043469893495
4409000000.0 1.0092209131110244 -0.26001237675875916
4412000000.0 0.9531082248842756 -0.32313958060378467
4416000000.0 0.9483719602411587 -0.2742625400466149
4419000000.0 0.9573023286965193 -0.2889432298108979
4422000000.0 0.9654313672041952 -0.2705481071461197
4425000000.0 0.985506344600201 -0.2734302332047619
4428000000.0 0.9538616928117694 -0.3046430103044867
4431000000.0 0.9725881327895431 -0.31418091627077777
4434000000.0 0.9369539709170854 -0.3192996496609322
4438000000.0 0.9695262185419065 -0.31933661172437555
4441000000.0 0.9682683183575842 -0.3437851994246736
4444000000.0 0.9274934160902717 -0.3457653698240438
4447000000.0 0.928277086729886 -0.3594448219623939
4450000000.0 0.9374459500728269 -0.3639825619821214
4453000000.0 0.9724297113140571 -0.366124329765266
4456000000.0 0.9061900593047765 -0.3780735135308104
4459000000.0 0.8962389265222093 -0.38667938552548803
4462000000.0 0.9717850145064877 -0.40794386211253897
4466000000.0 0.9599940162591025 -0.4396462951261245
4469000000.0 0.9319385707523651 -0.39905760170723464
4472000000.0 0.9208923241191035 -0.4366633017025046
4475000000.0 0.8788000852160035 -0.4223422388004018
4478000000.0 0.9306218343598318 -0.4559070188612364
4481000000.0 0.8797089138953017 -0.4449066952238485
4484000000.0 0.8722900738695583 -0.4982630582679314
4488000000.0 0.8691624923955577 -0.4780880961049822
4491000000.0 0.8947381937528508 -0.48235143136109737
4494000000.0 0.8738086888529761 -0.463477563944142
4497000000.0 0.8884998018177261 -0.471204830875821
4500000000.0 0.884802705704965 -0.49142173344450124
4503000000.0 0.8976522384483547 -0.5101677175084777
4506000000.0 0.8630916572655016 -0.5047252271454994
4509000000.0 0.8575620996181068 -0.5035966469925575
4512000000.0 0.8534469036943084 -0.5267535560556036
4516000000.0 0.8769487355300616 -0.5462836435873866
4519000000.0 0.8476391925838498 -0.5140333791890113
4522000000.0 0.8285475136397675 -0.5566795760012458
4525000000.0 0.8706215987770594 -0.5266526118587654
4528000000.0 0.8494857614084486 -0.5766590810439083
4531000000.0 0.8442507649586543 -0.5599387024989204
4534000000.0 0.8205960726964111 -0.5596515396588038
4538000000.0 0.8143209607102402 -0.594855934739305
4541000000.0 0.7997255780495168 -0.6200254201336615
4544000000.0 0.799097223985187 -0.5841948730587999
4547000000.0 0.8123531917079784 -0.5775873708945927
4550000000.0 0.7928202631707002 -0.6416680200624287
4553000000.0 0.80233424750041 -0.6425766763200862
4556000000.0 0.7688371357206243 -0.6110112718312066
4559000000.0 0.773674689689568 -0.6282894176939284
4562000000.0 0.7813999370258276 -0.6411441444943423
4566000000.0 0.7774263261596239 -0.663567580317223
4569000000.0 0.7583158028321954 -0.6568758600567732
4572000000.0 0.7511590838347102 -0.666395908297077
4575000000.0 0.7550778824485103 -0.6802337607054746
4578000000.0 0.7664282810668508 -0.6810234258850804
4581000000.0 0.7353038919577447 -0.698195055199091
4584000000.0 0.7262837281344761 -0.6909225683908348
4588000000.0 0.7478399452667372 -0.7006095443310145
4591000000.0 0.7335417434544903 -0.6913411578082173
4594000000.0 0.7021364545129929 -0.7303984051436783
4597000000.0 0.7149586581192076 -0.727341894930957
4600000000.0 0.6735784998466383 -0.7309761223513792
4603000000.0 0.6877643397138989 -0.7364039909557076
4606000000.0 0.7010479992488501 -0.7371603581485614
4609000000.0 0.6870686573181618 -0.7363505563670051
4612000000.0 0.6795034532736834 -0.7666218211733467
4616000000.0 0.6693664375247181 -0.7462302468720338
4619000000.0 0.6589110021727911 -0.766689168820098
4622000000.0 0.6398458584207832 -0.763574447582918
4625000000.0 0.6184201378313087 -0.7563198464703716
4628000000.0 0.6495301698252032 -0.7561728387993933
4631000000.0 0.6232610626439423 -0.7869998895095585
4634000000.0 0.6233913591689473 -0.7863151974560847
4638000000.0 0.6357747042524271 -0.7942820829315341
4641000000.0 0.6161395400091141 -0.7978530687441577
4644000000.0 0.6024171320395525 -0.7990607102887253
4647000000.0 0.59758217107987 -0.8220865376037663
4650000000.0 0.5837397765254871 -0.8205629263039493
4653000000.0 0.6028314517942772 -0.8256913711747231
4656000000.0 0.5686943513093548 -0.8190550514504742
4659000000.0 0.5636417554608998 -0.8353519098252674
4662000000.0 0.5625209627609029 -0.8554316900476207
4666000000.0 0.547664338050724 -0.8423309483267992
4669000000.0 0.534207585834568 -0.8426295929362209
4672000000.0 0.5177325363011304 -0.8634803489015249
4675000000.0 0.5123722547907803 -0.8661961998918368
4678000000.0 0.5152010614696563 -0.8579918282777768
4681000000.0 0.49256544944106834 -0.8893596435663687
4684000000.0 0.49020801116125007 -0.8897273150772629
4688000000.0 0.49162857433262025 -0.8851154314451927
4691000000.0 0.5165205736138389 -0.9110365209095386
4694000000.0 0.4807304575447061 -0.874484519918328
4697000000.0 0.43978254266211414 -0.8474184193746876
4700000000.0 0.4723582601682714 -0.8975174134829085
4703000000.0 0.47079795599045815 -0.8654264645896659
4706000000.0 0.42861470585489914 -0.8948529234444397
4709000000.0 0.43009802191049695 -0.915640748051225
4712000000.0 0.43048962128187857 -0.9072316717570414
4716000000.0 0.40407674100094226 -0.9084328756958859
4719000000.0 0.43803094265436293 -0.9221650522262187
4722000000.0 0.44899637876538057 -0.9061252852388813
4725000000.0 0.4124113333714563 -0.9052013948647255
4728000000.0 0.38288084002701384 -0.9249648188291419
4731000000.0 0.41952259156381 -0.9423434241389035
4734000000.0 0.37627249915972166 -0.9313290754831787
4738000000.0 0.4190253093413079 -0.9739935907555519
4741000000.0 0.34094636503411574 -0.979958831381951
4744000000.0 0.37753060938177707 -0.9455628621758346
4747000000.0 0.3732367977369545 -0.9193032805300672
4750000000.0 0.33806561595245593 -0.9762924474374908
4753000000.0 0.3494352119566029 -0.9639538301917417
4756000000.0 0.3211609361866061 -0.9618468129747926
4759000000.0 0.3242225518962634 -0.9478632017538483
4762000000.0 0.310923289370601 -0.9647044502084844
4766000000.0 0.28827977509178687 -0.9690923578437222
4769000000.0 0.29761991550380906 -0.9962572522423404
4772000000.0 0.2831416077327021 -0.9963646788548973
4775000000.0 0.2607440268455943 -1.0037161660219112
4778000000.0 0.292441142654165 -0.9898099089350835
4781000000.0 0.27089191878662805 -0.9819731937816374
4784000000.0 0.2635993051727323 -0.9726570715608028
4788000000.0 0.22481199706172042 -1.0208931158697525
4791000000.0 0.2202892759573687 -0.9778042757110422
4794000000.0 0.25984668161911734 -1.032785282565544
4797000000.0 0.21827109837219488 -0.9805824235274206
4800000000.0 0.2103546046920075 -0.9850890797169936
4803000000.0 0.14708822988475564 -0.9952960384024296
4806000000.0 0.17725104503407202 -1.000364581460713
4809000000.0 0.1228295033851693 -1.0166778081266838
4812000000.0 0.12568789237389233 -0.9789118171958291
4816000000.0 0.19508554532774988 -0.9820523221743054
4819000000.0 0.17755726942260716 -1.03832332837356
4822000000.0 0.16645976852468483 -1.040159672470157
4825000000.0 0.1666936941297123 -1.0165151781004216
4828000000.0 0.13616560821695958 -1.0026937180611606
4831000000.0 0.0649519924246036 -1.04246052573219
4834000000.0 0.14975196029138335 -1.0029674988386088
4838000000.0 0.0688009185268019 -1.050039722832749
4841000000.0 0.08870648327545219 -0.9964705973789904
4844000000.0 0.10986916412517361 -1.0264418894408827
4847000000.0 0.09922986788754913 -1.0041024049080214
4850000000.0 0.06835778793949472 -1.0350676635309246
4853000000.0 0.06153719224753008 -0.9770954843752415
4856000000.0 0.058572811582688004 -1.014649845581915
4859000000.0 0.02518684230572179 -1.0525497999017746
4862000000.0 0.04966940025249173 -0.9947816036627773
4866000000.0 -0.004931842189273873 -1.0422330292514046
4869000000.0 0.003510160863030201 -1.0158281701111371
4872000000.0 -0.025798182867026814 -1.0596849520151994
4875000000.0 0.045789374603176905 -1.0729165227670123
4878000000.0 -0.011731779292836343 -1.035102456103975
4881000000.0 -0.04924409224347817 -1.1124502357440174
4884000000.0 -0.009565683217039024 -1.029695524199557
4888000000.0 -0.012544520013368261 -1.0306631436210627
4891000000.0 -0.04487750138064922 -1.0561221143474195
4894000000.0 -0.06529318203789947 -1.0133917405483566
4897000000.0 -0.02572079604485217 -1.0036730719982576
4900000000.0 -0.07037604247136436 -1.0260245111061255
4903000000.0 -0.043476541841696144 -1.035828398280956
4906000000.0 -0.0784203236023217 -1.0600542238920896
4909000000.0 -0.09773884826126505 -1.0321443287631842
4912000000.0 -0.13784161985495924 -1.0276290154286143
4916000000.0 -0.08134882037628854 -1.0580755651572562
4919000000.0 -0.10428418415563763 -1.0675318138313394
4922000000.0 -0.08379237400921721 -1.0476845451638845
4925000000.0 -0.1534295403373369 -1.007944239091283
4928000000.0 -0.11622671909353331 -1.02668896119029
4931000000.0 -0.09811215260194077 -1.0470826573165273
4934000000.0 -0.12043278357796759 -0.9656738607916714
4938000000.0 -0.1949908309215339 -1.0206756982443683
4941000000.0 -0.1409076073852183 -1.0120561128832264
4944000000.0 -0.1564107454346779 -0.9711212772455728
4947000000.0 -0.19454022705895693 -0.9882833045237301
4950000000.0 -0.17922265549688104 -1.0342988963323063
4953000000.0 -0.268016474417826 -1.0025784882823507
4956000000.0 -0.23678363856219042 -1.0130846979755455
4959000000.0 -0.23741016074357288 -0.9356569779234987
4962000000.0 -0.2709280552356287 -1.0315069798163123
4966000000.0 -0.24502917807568747 -1.0372413798275646
4969000000.0 -0.23660376188229632 -1.0341417880439818
4972000000.0 -0.27116733426138295 -1.00348505737326
4975000000.0 -0.22604844339384325 -0.9684988076945137
4978000000.0 -0.2876007902356116 -0.9989611379911152
4981000000.0 -0.32182180647156566 -0.9946665720129991
4984000000.0 -0.2711477815150679 -0.9697524038980327
4988000000.0 -0.2858778043357601 -0.978686164254184
4991000000.0 -0.25767607433999484 -1.0221158847036904
4994000000.0 -0.2896333287983378 -0.9741855458084329
4997000000.0 -0.3433166922603785 -0.9688663136682133
5000000000.0 -0.30329969344441676 -0.9892343825353587
5003000000.0 -0.3272978925481474 -1.0173842033334215
5006000000.0 -0.33795183454380284 -1.009994682576985
5009000000.0 -0.3308211117231259 -0.9699346047934909
5012000000.0 -0.36334726166338965 -0.9529809865565928
5016000000.0 -0.3698985054735234 -1.0112558755711447
5019000000.0 -0.3784328257280726 -0.9516575313792544
5022000000.0 -0.3816969313205397 -0.9979153740344298
5025000000.0 -0.4043429359622736 -1.0161102546740512
5028000000.0 -0.4222685746340964 -0.9540464309062613
5031000000.0 -0.4032757940758763 -0.9454789484125256
5034000000.0 -0.46458876555247597 -0.9499390966936387
5038000000.0 -0.4469993907169779 -0.9247919420999
5041000000.0 -0.4289668887783392 -0.9503465401614138
5044000000.0 -0.4168161130922162 -0.9318743047569987
5047000000.0 -0.4263977114587962 -0.9358993689343987
5050000000.0 -0.3931577292095362 -0.9168883012864271
5053000000.0 -0.4880498540085182 -0.9403106539616579
5056000000.0 -0.4264179804551872 -0.9325090278068879
5059000000.0 -0.4410421547300591 -0.9372522915259202
5062000000.0 -0.5350756654977894 -0.951208439110504
5066000000.0 -0.474930360695341 -0.9323068936782928
5069000000.0 -0.5127860719157343 -0.9282279387691988
5072000000.0 -0.48537436079714047 -0.8755499458775535
5075000000.0 -0.5031193336545245 -0.9234740104428121
5078000000.0 -0.547085091897906 -0.8544817791645205
5081000000.0 -0.540251998419708 -0.851614749853656
5084000000.0 -0.5415764974658902 -0.8718466321456764
5088000000.0 -0.5152057176975666 -0.8874956938820857
5091000000.0 -0.5852048821130205 -0.9000311195663508
5094000000.0 -0.5763492692745386 -0.8782023432557994
5097000000.0 -0.526182116438532 -0.8739568361227428
5100000000.0 -0.5828354232088993 -0.8297865515863526
5103000000.0 -0.6213529394619767 -0.843428476875956
5106000000.0 -0.593939784351324 -0.9216853634914637
5109000000.0 -0.5628881307878233 -0.9017133288090888
5112000000.0 -0.6303441631881679 -0.7900705199497333
5116000000.0 -0.5799752050063025 -0.7992998338911725
5119000000.0 -0.6529278579365363 -0.8298058360456628
5122000000.0 -0.5998875671621526 -0.8136848097562475
5125000000.0 -0.571602525080432 -0.8048167082208453
5128000000.0 -0.6500207490129323 -0.8096536339440936
5131000000.0 -0.6042663963100455 -0.7986101311448971
5134000000.0 -0.6579612287757687 -0.8040243279520451
5138000000.0 -0.65176747141782 -0.8100326205377609
5141000000.0 -0.6056544401340447 -0.8377904875243272
5144000000.0 -0.6279481987227026 -0.7962868198288098
5147000000.0 -0.7025127082170651 -0.804575339651629
5150000000.0 -0.6349849094672441 -0.8173223902941221
5153000000.0 -0.6918135954497564 -0.798797259528375
5156000000.0 -0.7253517369289515 -0.7657839613845452
5159000000.0 -0.7209300636646085 -0.8086513725701179
5162000000.0 -0.7064368744092033 -0.7348212848469027
5166000000.0 -0.752289586767744 -0.7766480543016708
5169000000.0 -0.726335878682881 -0.7514985826069841
5172000000.0 -0.7167572264536161 -0.7205657620576829
5175000000.0 -0.7395167221748338 -0.7786587807409905
5178000000.0 -0.7175222827089636 -0.7323390360163528
5181000000.0 -0.7846062966092348 -0.7477851857854452
5184000000.0 -0.7654013632001827 -0.7255248504946364
5188000000.0 -0.7343645685259053 -0.7277338154151012
