! Created with skrf 1.8.0 (http://scikit-rf.org).
# Hz S RI R 50.0 
!freq ReS11 ImS11
4000000000.0 0.7194552366547076 0.739139721418357
4003000000.0 0.6880078671946385 0.7958754041458438
4006000000.0 0.7299115030721135 0.7315801997238378
4009000000.0 0.7111587770584354 0.6978682943557554
4012000000.0 0.6646966280397636 0.7406425158456327
4016000000.0 0.7779264461698955 0.7103552384241048
4019000000.0 0.6883044976660209 0.718280045353963
4022000000.0 0.700893047375391 0.7669195040280284
4025000000.0 0.798315612302192 0.6832417770220731
4028000000.0 0.7616984698563712 0.6808690390233743
4031000000.0 0.7220521982416075 0.6575988664216511
4034000000.0 0.7457006890381976 0.678314613783586
4038000000.0 0.7891718063890313 0.6608829905863801
4041000000.0 0.770930809828479 0.6298399480586426
4044000000.0 0.868507849731881 0.6911020924652195
4047000000.0 0.7801394245313727 0.6800503629907073
4050000000.0 0.8449749204963076 0.6541034744275781
4053000000.0 0.8108294355169545 0.6133281162717306
4056000000.0 0.833922451892216 0.624601297723988
4059000000.0 0.7887374058690245 0.6489639620304899
4062000000.0 0.8354428414749344 0.6219292009297694
4066000000.0 0.7868059151963409 0.5565928311449121
4069000000.0 0.884149393526761 0.5917006238581851
4072000000.0 0.8443839221398033 0.6051087510590512
4075000000.0 0.8457971705452215 0.6449771649573546
4078000000.0 0.8371238238236969 0.5762233441664175
4081000000.0 0.833672311994844 0.6162223321428971
4084000000.0 0.8684266145592072 0.559532678843762
4088000000.0 0.8073214059490741 0.5868774864162438
4091000000.0 0.914641948623216 0.5720099749661465
4094000000.0 0.8373062848716916 0.5324547523397193
4097000000.0 0.8860815956411119 0.5451613753779503
4100000000.0 0.8775937933493265 0.5143164981142785
4103000000.0 0.8942010367910742 0.5176655345931049
4106000000.0 0.9209755537428638 0.4929040974751361
4109000000.0 0.9117200840985573 0.4711138821995898
4112000000.0 0.8621186535193579 0.5371499249924998
4116000000.0 0.8960926857859344 0.5186058280044198
4119000000.0 0.9107066469366211 0.48436050429375277
4122000000.0 0.9067316839753774 0.45654914788869805
4125000000.0 0.908327250800569 0.4660393660738547
4128000000.0 0.9192813825154185 0.4446238976006268
4131000000.0 0.9020577370761196 0.4432584141588277
4134000000.0 0.9273188481706626 0.43919464300645694
4138000000.0 0.8854930702120758 0.4073109520152897
4141000000.0 0.9237007461213045 0.38385863037106327
4144000000.0 0.9322656730080906 0.43955901587338336
4147000000.0 0.9427980608403367 0.3596745467848467
4150000000.0 0.9326608668810886 0.4678349479394887
4153000000.0 0.9239462211188779 0.3948804592723091
4156000000.0 0.9599623541878075 0.41185656996508857
4159000000.0 0.9060871947490723 0.38122853653368133
4162000000.0 0.9168218784537263 0.3906686759152357
4166000000.0 0.99068958886612 0.37270347370783663
4169000000.0 0.969112448204665 0.3182015404156737
4172000000.0 0.9812137850416988 0.3561593933378034
4175000000.0 0.9677703792902371 0.3581670721387104
4178000000.0 0.9616761802497601 0.36278978237915493
4181000000.0 0.9483065011195735 0.3258845938520918
4184000000.0 0.9608753834523914 0.32996312696020574
4188000000.0 0.9755299433904938 0.2936582783086664
4191000000.0 0.9610483364268808 0.31740346576332873
4194000000.0 0.9569083169851398 0.2810172165281838
4197000000.0 0.9915083579997177 0.28880501746480897
4200000000.0 0.9739191399538543 0.29043514364792966
4203000000.0 0.987340177078141 0.3034570573755412
4206000000.0 1.0088222794902262 0.24996314528503
4209000000.0 0.9717820826911637 0.2489372978550945
4212000000.0 0.998104098785516 0.19143639665345247
4216000000.0 0.9927382960658644 0.25251691449427066
4219000000.0 1.0004999381031041 0.24210401917019572
4222000000.0 1.0011632953233474 0.18716788835671527
4225000000.0 0.9788600987953353 0.2089644721072931
4228000000.0 1.0033640840014402 0.21098064206874342
4231000000.0 1.016550147849341 0.16834285019119744
4234000000.0 1.0103689818871926 0.16295610054246917
4238000000.0 1.0046554656819002 0.156120047419443
4241000000.0 0.9798715747503719 0.12518631199029234
4244000000.0 0.9967666150915474 0.15946234664649228
4247000000.0 0.9916713784732548 0.14236926051243637
4250000000.0 1.00037021153791 0.12020613774508576
4253000000.0 0.9885223737030968 0.1144205988727609
4256000000.0 1.0371180722646745 0.1194668038641496
4259000000.0 0.9644594990385237 0.09134140360218315
4262000000.0 1.0154753227595519 0.09389898157524723
4266000000.0 1.0329051830415863 0.058743635354222196
4269000000.0 1.0099422377304625 0.08560252241917662
4272000000.0 1.0011844799825258 0.08105607053559416
4275000000.0 1.0192851700962753 0.07033015516022373
4278000000.0 1.0290345103262608 0.04054573424113542
4281000000.0 1.0078878392910346 0.06637386190612078
4284000000.0 1.0131120713388109 -0.0007776178828310248
4288000000.0 1.0190152083908457 0.05316000529206568
4291000000.0 0.9903387058558027 0.01851603902297809
4294000000.0 1.000563215924751 0.01678743361001557
4297000000.0 1.0212321036173115 0.026349684202078866
4300000000.0 0.99601581255369 0.009796994364382298
4303000000.0 0.9949698437419515 -0.0445455130358716
4306000000.0 1.000098876760438 -0.005611948755218553
4309000000.0 1.0055095900823339 -0.022810391302049177
4312000000.0 1.0351239371706669 -0.0108954702750855
4316000000.0 1.0089254729789685 -0.04238248425234853
4319000000.0 0.9913413224506382 -0.07516581888077853
4322000000.0 1.001357996758134 -0.08443299387521433
4325000000.0 1.0181761111648975 -0.08642804441803922
4328000000.0 0.9996261543854613 -0.0845689097635583
4331000000.0 0.9858995149619246 -0.11834056970589198
4334000000.0 0.9990121203179206 -0.11598793892729667
4338000000.0 1.0061799810390717 -0.08525728207986291
4341000000.0 1.0211714163402432 -0.10578537769546234
4344000000.0 1.0121305820385225 -0.11299356156712045
4347000000.0 0.9971652188789367 -0.16134946503011596
4350000000.0 0.9607916193502491 -0.15420161386242934
4353000000.0 0.9593065919468169 -0.1450472143463748
4356000000.0 0.9717563503568817 -0.19583714934193489
4359000000.0 0.9518140763862981 -0.16190929006881574
4362000000.0 0.9866043404611462 -0.23235289250384594
4366000000.0 1.014058081551579 -0.20871080183663676
4369000000.0 0.9515489001011379 -0.18870640863373225
4372000000.0 0.9635947638162583 -0.2534228751210942
4375000000.0 0.9758356276858648 -0.19320475217907693
4378000000.0 0.9518907637632821 -0.22010465366865467
4381000000.0 0.946470325103937 -0.22628563022699863
4384000000.0 1.0346069811530327 -0.26785013904563176
4388000000.0 0.9634094478164654 -0.24821331712095013
4391000000.0 0.9712267408034643 -0.2744868900847715
4394000000.0 0.9444128592867822 -0.2739732586204062
4397000000.0 0.9709840392966609 -0.28906225135294167
4400000000.0 0.9794057533776495 -0.30310078129835694
4403000000.0 0.9735091877753019 -0.29885336683712643
4406000000.0 0.9564466529891529 -0.33375348902306906
4409000000.0 0.988158640666333 -0.3329949032192431
4412000000.0 0.9337253873047364 -0.3701177252804471
4416000000.0 0.9350592381074363 -0.34277549047659783
4419000000.0 0.9416185910290318 -0.3705311663008247
4422000000.0 0.9354246438370868 -0.33932731663241167
4425000000.0 0.9582758091729062 -0.3553963024577912
4428000000.0 0.9382502290540203 -0.3863708828439664
4431000000.0 0.9504219910595513 -0.39113043827714195
4434000000.0 0.9174727433203597 -0.3785603037186267
4438000000.0 0.9451608105041478 -0.39775308768417916
4441000000.0 0.9334615600518608 -0.4144558721272385
4444000000.0 0.8990904497168772 -0.4044439901415098
4447000000.0 0.9036769571486825 -0.4378337641954803
4450000000.0 0.9085717984810583 -0.40885401867004356
4453000000.0 0.9308262925549755 -0.4352056576192948
4456000000.0 0.8683175763800756 -0.44065184461620266
4459000000.0 0.8476429463256201 -0.4637792561358932
4462000000.0 0.9359802196814049 -0.5058646074197993
4466000000.0 0.9138315314035362 -0.4989605321021562
4469000000.0 0.8937347688590939 -0.45649661843362804
4472000000.0 0.8878798723424317 -0.4998074141460589
4475000000.0 0.8448102827509365 -0.4917091100233416
4478000000.0 0.8949277180243093 -0.5284815657388878
4481000000.0 0.8470207201130358 -0.5118447333749818
4484000000.0 0.8310977986706951 -0.5379645101951923
4488000000.0 0.8333492478300817 -0.5282100290188048
4491000000.0 0.8647113389991498 -0.5510757603183458
4494000000.0 0.8332036739288116 -0.5587898281602528
4497000000.0 0.8418029883744875 -0.5422516332080939
4500000000.0 0.8298992926667068 -0.5602903259270289
4503000000.0 0.8201309152703491 -0.5733164837566229
4506000000.0 0.8165424204465819 -0.5851120110593868
4509000000.0 0.7900137380068667 -0.5777357018870571
4512000000.0 0.7924818042232704 -0.586637818848427
4516000000.0 0.8323713413241306 -0.6038552698907328
4519000000.0 0.8095969738443085 -0.5709734771606096
4522000000.0 0.7945961344656589 -0.6274139522387782
4525000000.0 0.8038370393898451 -0.5980376758125419
4528000000.0 0.8137249853751045 -0.648416566768365
4531000000.0 0.7844735901436952 -0.6405165145506243
4534000000.0 0.7536808645231704 -0.6228796735775132
4538000000.0 0.7441036334541973 -0.6450443987164648
4541000000.0 0.7068995393775226 -0.6800062090100053
4544000000.0 0.7574486390117279 -0.6528004225979046
4547000000.0 0.7557485810778808 -0.6411168936278806
4550000000.0 0.748040560540177 -0.6899791171711377
4553000000.0 0.737354123868728 -0.6800681064715631
4556000000.0 0.7133186680967847 -0.6965291772268537
4559000000.0 0.7322801625513762 -0.7030109937322457
4562000000.0 0.7311236182965031 -0.709085010202393
4566000000.0 0.721694618652257 -0.7244661538635286
4569000000.0 0.708253433119935 -0.7135703688309967
4572000000.0 0.6979961890924423 -0.7325866117838484
4575000000.0 0.6810766745892431 -0.7430882552662553
4578000000.0 0.7063999359856001 -0.7392663759912397
4581000000.0 0.6639063350666717 -0.7559706606246329
4584000000.0 0.6473030038187959 -0.7560438657174382
4588000000.0 0.6716050978832497 -0.7748644633301386
4591000000.0 0.6815210173554418 -0.7662152547370602
4594000000.0 0.6340099045305868 -0.7710032954847995
4597000000.0 0.6302235613612384 -0.7884450051209426
4600000000.0 0.6095870817918264 -0.7981978781287745
4603000000.0 0.6119196149246531 -0.7931292879184555
4606000000.0 0.6379457098265284 -0.8115791404551903
4609000000.0 0.6182263708254957 -0.7840802299738951
4612000000.0 0.5888919945277914 -0.8156699713484823
4616000000.0 0.5910008127210236 -0.8107499347106751
4619000000.0 0.5815350906459869 -0.8283367301782978
4622000000.0 0.5790808529579831 -0.8375397477330654
4625000000.0 0.5511584839918526 -0.835016501867114
4628000000.0 0.5899724948717054 -0.8237467013202457
4631000000.0 0.5498107513541548 -0.8427491635363024
4634000000.0 0.5381978927621656 -0.8523248568579217
4638000000.0 0.540975622143699 -0.8531531808956012
4641000000.0 0.548716727655541 -0.8463810149522168
4644000000.0 0.5196006099247894 -0.8527257884564373
4647000000.0 0.5274686689652115 -0.8721240002877898
4650000000.0 0.4900625774421431 -0.8692011509235524
4653000000.0 0.5123313635151839 -0.8784709404751664
4656000000.0 0.4633941160362001 -0.8964700627629079
4659000000.0 0.4642308687999952 -0.8859737063904097
4662000000.0 0.4766770649671269 -0.9123327547311988
4666000000.0 0.4530861615583878 -0.9085111539867157
4669000000.0 0.46633948374792783 -0.8898851538642325
4672000000.0 0.44829173823379037 -0.9361641227164579
4675000000.0 0.42014794310250164 -0.934756365080464
4678000000.0 0.43664359120581964 -0.8916205021774676
4681000000.0 0.412254326564172 -0.9370645233076527
4684000000.0 0.39251569460257013 -0.9598741333100567
4688000000.0 0.3419609056480002 -0.9355537644877995
4691000000.0 0.4134753934106872 -0.9214158954438891
4694000000.0 0.4083365567065826 -0.9136566074952368
4697000000.0 0.33894758204603515 -0.9120078854784928
4700000000.0 0.3707873841249343 -0.9380915508972283
4703000000.0 0.3747837998795501 -0.8736238866772765
4706000000.0 0.34644032816522896 -0.9479664488313554
4709000000.0 0.3295520553528304 -0.9569518600867971
4712000000.0 0.373092799556076 -0.9483065850703523
4716000000.0 0.34127865937797625 -0.9888273785505342
4719000000.0 0.34431946489977266 -0.9714974557531663
4722000000.0 0.34675793953946665 -0.9405123943998137
4725000000.0 0.3431946434951809 -0.9534855402666802
4728000000.0 0.2605976507572162 -0.9716091505178501
4731000000.0 0.3125916427811361 -0.970111186074115
4734000000.0 0.3088872966888988 -0.958547968172974
4738000000.0 0.2918795600010542 -1.0073246555358133
4741000000.0 0.24879267559151136 -1.033086755621645
4744000000.0 0.24214740270374488 -0.9963546096215591
4747000000.0 0.2631618147458519 -0.9346859300157392
4750000000.0 0.21845978303221453 -1.003789195032388
4753000000.0 0.28172638739845796 -0.9940881414210276
4756000000.0 0.21184595374116955 -1.0245176888298233
4759000000.0 0.25257641632769745 -1.006721779667327
4762000000.0 0.1861561562894969 -1.0380136288334723
4766000000.0 0.2031389778310394 -1.0216441740206987
4769000000.0 0.1847243794408788 -1.0198428648403386
4772000000.0 0.18256665510551973 -1.0226368113099762
4775000000.0 0.1417836928504592 -1.0126414603797553
4778000000.0 0.14904488757284962 -1.0096265825335502
4781000000.0 0.1413456661572473 -1.0095002359255434
4784000000.0 0.16057436282884274 -1.0244628116170562
4788000000.0 0.0952175951803168 -1.033980441757038
4791000000.0 0.11566450964815664 -0.9979089459798242
4794000000.0 0.13512751157205288 -1.0370974924660659
4797000000.0 0.11614392543221458 -1.0112739613748294
4800000000.0 0.07524500969394865 -0.9803991765583915
4803000000.0 0.03872016546710341 -1.0089729230466813
4806000000.0 0.06400706369678918 -1.022357987938053
4809000000.0 -0.01162404755716806 -1.016288293253693
4812000000.0 0.03343389383973833 -0.9986492346865932
4816000000.0 0.07539408511353249 -0.9896191360631288
4819000000.0 0.0558056580585676 -1.0392443107406681
4822000000.0 0.0384649405880059 -1.0521939640138724
4825000000.0 0.04809032075211338 -1.0418760706015033
4828000000.0 0.02364547908963137 -1.021845592354309
4831000000.0 -0.03124000975860418 -1.044369913249306
4834000000.0 0.00724339686409084 -1.0336633316793358
4838000000.0 -0.036191679929951995 -1.0197603324099656
4841000000.0 -0.03702442897323628 -0.9909756873185874
4844000000.0 -0.01708197540004512 -1.0275182548362771
4847000000.0 -0.016796482360136047 -0.9902599511061521
4850000000.0 -0.07609141286318555 -1.038525249416241
4853000000.0 -0.037340366460308014 -0.9958021208898824
4856000000.0 -0.09119403209066837 -0.9977169644884555
4859000000.0 -0.09968795613095321 -1.0450808922713661
4862000000.0 -0.06707227455789612 -1.0028311722733578
4866000000.0 -0.10430674239344545 -1.0106257403381251
4869000000.0 -0.1150647816750217 -1.019353223704834
4872000000.0 -0.13661813566412606 -1.0523028020646228
4875000000.0 -0.08302849855658705 -1.0700051415851872
4878000000.0 -0.13235803629569978 -1.0189618197982697
4881000000.0 -0.18794298079915106 -1.0916815451311692
4884000000.0 -0.13186175468958078 -1.0448621108909615
4888000000.0 -0.12638352480695153 -0.9963782085866627
4891000000.0 -0.15533311062416574 -1.0652941868000496
4894000000.0 -0.1936783779345579 -1.0150041584686544
4897000000.0 -0.15123272236246024 -0.9974585433124066
4900000000.0 -0.24181173521275418 -1.0110315884829486
4903000000.0 -0.17971782097097735 -1.0104191459621767
4906000000.0 -0.22255225616656732 -1.0230124845176884
4909000000.0 -0.2343279463326153 -1.0067557567750158
4912000000.0 -0.24461584234388084 -1.0392815934843793
4916000000.0 -0.23346606554739424 -1.0007185115788158
4919000000.0 -0.2519939365884937 -1.0538685191304036
4922000000.0 -0.221908673443003 -0.9929079682709523
4925000000.0 -0.28632677130329165 -1.007502550411045
4928000000.0 -0.21327511884213007 -0.9907302825131633
4931000000.0 -0.27637141071041355 -1.022258398450726
4934000000.0 -0.2761339251122463 -0.9376073390124448
4938000000.0 -0.32191019147970323 -0.974968409120817
4941000000.0 -0.278181553013396 -0.991552697156097
4944000000.0 -0.28917723360699776 -0.9451135079848623
4947000000.0 -0.3113475119311969 -0.967694982996739
4950000000.0 -0.3276429700785173 -0.9611911483827599
4953000000.0 -0.36675700669170413 -0.9659416686870157
4956000000.0 -0.3430745878822367 -0.9426189891544291
4959000000.0 -0.37903092083394296 -0.950767801114271
4962000000.0 -0.3644222126513017 -0.9756275686861322
4966000000.0 -0.36654622843279483 -0.9657538915321422
4969000000.0 -0.4005627285648089 -1.0120542139313873
4972000000.0 -0.40419436884210025 -0.9641730819326423
4975000000.0 -0.38798747031397873 -0.9633198699547033
4978000000.0 -0.43811108328050774 -0.9177457647849122
4981000000.0 -0.4383695249592485 -0.9475555476386642
4984000000.0 -0.40290833258504277 -0.9335421993441222
4988000000.0 -0.40552406084526066 -0.940932704581627
4991000000.0 -0.40601206495067205 -0.9956345463897122
4994000000.0 -0.40833215624497265 -0.9088509681325512
4997000000.0 -0.5043756208078354 -0.898932232564119
5000000000.0 -0.4929459050286187 -0.934289006089773
5003000000.0 -0.47144772984884936 -0.9483659807593198
5006000000.0 -0.49060765506163195 -0.9653500919948708
5009000000.0 -0.4891203200485701 -0.905454846965644
5012000000.0 -0.5084135633936369 -0.8790068694578588
5016000000.0 -0.471745867002434 -0.9558617090135592
5019000000.0 -0.5021869931760194 -0.8774003429570597
5022000000.0 -0.5396015766384653 -0.9048280530261974
5025000000.0 -0.558372851797132 -0.9239552741253728
5028000000.0 -0.544704912392966 -0.8632575049067052
5031000000.0 -0.5837443085873737 -0.853426764493714
5034000000.0 -0.5841022876205323 -0.8837475038245549
5038000000.0 -0.5523262610536652 -0.8526878454976152
5041000000.0 -0.5428564893836454 -0.8633691736148266
5044000000.0 -0.5277039815453425 -0.8363707656575117
5047000000.0 -0.58558071157675 -0.828391034319022
5050000000.0 -0.5158089165976459 -0.8536781107929396
5053000000.0 -0.6423359828018236 -0.8636336840265957
5056000000.0 -0.548507928685281 -0.8657302622230616
5059000000.0 -0.5893143899969926 -0.8287094121464236
5062000000.0 -0.66526604814152 -0.7935851728830909
5066000000.0 -0.6066103826349711 -0.8329409971662547
5069000000.0 -0.6076758586757156 -0.8298107755962755
5072000000.0 -0.5871952554754666 -0.8056489454661326
5075000000.0 -0.5850719757633472 -0.8087122769882535
5078000000.0 -0.6840667296340093 -0.804145035386212
5081000000.0 -0.6370320027316795 -0.7533421838052563
5084000000.0 -0.6550432537393746 -0.7657865979214753
5088000000.0 -0.6613075364969123 -0.7889118141413498
5091000000.0 -0.7012899566216648 -0.7296058772060388
5094000000.0 -0.7072802818734244 -0.7749180673220818
5097000000.0 -0.6231255299590279 -0.7742735760626875
5100000000.0 -0.6995332673444191 -0.7528146594259989
5103000000.0 -0.7525120452077424 -0.7483946299593028
5106000000.0 -0.7255391413400706 -0.7793191728685445
5109000000.0 -0.7235891864897143 -0.7248428842475971
5112000000.0 -0.7247906507879158 -0.734916844746154
5116000000.0 -0.7062192140774873 -0.7243785794653589
5119000000.0 -0.7418501856528656 -0.6961287087886088
5122000000.0 -0.72689875816016 -0.68642144195041
5125000000.0 -0.7484785023406835 -0.7041048686395186
5128000000.0 -0.7753617507738693 -0.7061156739674042
5131000000.0 -0.7686150940315367 -0.6773672654858417
5134000000.0 -0.7627961561756827 -0.6715193373427355
5138000000.0 -0.7388743337009126 -0.6632385509564643
5141000000.0 -0.7376849835333514 -0.7128372392140971
5144000000.0 -0.7964239973808216 -0.6789763069163728
5147000000.0 -0.7896357476054945 -0.6731457323698143
5150000000.0 -0.8321762968408025 -0.6752793763873042
5153000000.0 -0.8850186248651783 -0.6333716999430745
5156000000.0 -0.8005178628003757 -0.6440425955940476
5159000000.0 -0.8398459432536824 -0.6706248764403874
5162000000.0 -0.8749694729960156 -0.6044241717550866
5166000000.0 -0.8378147363777498 -0.6077749597136702
5169000000.0 -0.8287703207959843 -0.609331052610139
5172000000.0 -0.8580173287788889 -0.6275529067135444
5175000000.0 -0.8870633624934583 -0.6334993075972807
5178000000.0 -0.8709327314115518 -0.5976742042113687
5181000000.0 -0.9118358450368554 -0.5759301436839256
5184000000.0 -0.8641728023707582 -0.5693799450154944
5188000000.0 -0.8643584358315776 -0.5424174278788034
