! Created with skrf 1.8.0 (http://scikit-rf.org).
# Hz S RI R 50.0 
!freq ReS11 ImS11
4000000000.0 0.8742714007184126 0.4659317175880167
4003000000.0 0.934047246202957 0.4785134098778794
4006000000.0 0.923080682061427 0.4717401050166672
4009000000.0 0.9295505189512939 0.40173825667716534
4012000000.0 0.933404213147073 0.48090153530529933
4016000000.0 0.9450770928659592 0.3979560897934766
4019000000.0 0.8937711765741434 0.4100483407355323
4022000000.0 0.9775418401967614 0.41714238012932014
4025000000.0 0.9510261631311434 0.351684178798068
4028000000.0 0.9584151174960938 0.3824676977095732
4031000000.0 0.9454072300354455 0.4007496816232793
4034000000.0 0.9028419304749696 0.33875061522663635
4038000000.0 0.9913329613336411 0.3390727044303042
4041000000.0 0.9345614267058042 0.30936052726611774
4044000000.0 0.9948991876282003 0.37918699966994696
4047000000.0 0.9670650900504931 0.3324398061486563
4050000000.0 0.9629921535362759 0.3009524349426729
4053000000.0 0.9925237501523363 0.2947632210430179
4056000000.0 0.9889327702771148 0.2830706445027732
4059000000.0 0.951702639718133 0.25373911430599894
4062000000.0 0.9911882199611703 0.292265711743506
4066000000.0 0.9314997522173512 0.2491706721139645
4069000000.0 1.037184192648442 0.2348625577843514
4072000000.0 0.9651154155474194 0.2263321502767371
4075000000.0 1.0067377586066448 0.2470651367712654
4078000000.0 0.9904908766140333 0.19139578467627916
4081000000.0 0.9710911163566998 0.21062303786556286
4084000000.0 1.008536521416046 0.15948793211303963
4088000000.0 0.9583686541007334 0.2129152497476131
4091000000.0 1.0164480586745979 0.1759117241486124
4094000000.0 0.991978899992536 0.17744816679849307
4097000000.0 0.9857552120910482 0.13780555667993205
4100000000.0 1.0119978163616508 0.12740021151775738
4103000000.0 1.0451211498475923 0.16151371483111782
4106000000.0 1.0234920822703193 0.08643203404838035
4109000000.0 1.0479369821813553 0.0860094905525648
4112000000.0 0.9785201466237445 0.10688227900087371
4116000000.0 1.0309963637913744 0.09014203684906752
4119000000.0 1.0428200929861209 0.04017633810193244
4122000000.0 1.0156705823275791 -0.0002216924085504668
4125000000.0 1.0125608927621017 0.05568378318458456
4128000000.0 0.9727940105329128 0.046411753063824335
4131000000.0 0.9947342886822018 0.011926359374247408
4134000000.0 1.0099851749251472 0.003366143480623751
4138000000.0 0.9940342733886129 -0.013516480090073446
4141000000.0 1.0045054448989148 -0.024854490750577996
4144000000.0 1.0174196885856683 0.027318251309873587
4147000000.0 1.0156580782615945 -0.05406881315363776
4150000000.0 1.0260112209974028 -0.07538480861964308
4153000000.0 1.0030968372164182 -0.051269447238336596
4156000000.0 1.0378081918126307 -0.07136079365901765
4159000000.0 0.9667486667804788 -0.08683490734337135
4162000000.0 1.0156111028729298 -0.08990104373553154
4166000000.0 1.0416374794796661 -0.12688750591382114
4169000000.0 0.9906907470605237 -0.14708982014620595
4172000000.0 1.0027474478881748 -0.1473605040729633
4175000000.0 1.0530202802771251 -0.1674357765930897
4178000000.0 1.0125930756971757 -0.1647785666319913
4181000000.0 0.9691462884227049 -0.19701250732111975
4184000000.0 0.9713247437474897 -0.16441877394874269
4188000000.0 0.9582786143695978 -0.20362389521873667
4191000000.0 0.9908711800791312 -0.17664672534155534
4194000000.0 0.9861348469962062 -0.2166947011974518
4197000000.0 0.9797731657248989 -0.22487460109666033
4200000000.0 1.0022785104873364 -0.22639398252517473
4203000000.0 1.016612355612061 -0.24872626386627544
4206000000.0 0.9748101478307122 -0.27630123809807644
4209000000.0 0.9546313583332935 -0.2758197987333794
4212000000.0 0.9490969129901581 -0.3296951596455263
4216000000.0 1.0047917055335356 -0.30679143623232585
4219000000.0 0.9880582214630592 -0.3238880444792618
4222000000.0 0.9438173775543246 -0.32871989050635914
4225000000.0 0.9346508557244007 -0.3351726215803257
4228000000.0 0.9384406461247272 -0.3761908218486988
4231000000.0 0.9555196032688389 -0.3920017119670306
4234000000.0 0.9349100775630463 -0.4252278192590064
4238000000.0 0.9252019761156398 -0.4108499520020119
4241000000.0 0.8953513143004022 -0.4288355764959795
4244000000.0 0.9084356527287295 -0.40864452493731385
4247000000.0 0.8901874703989638 -0.4212072368337109
4250000000.0 0.878118423949636 -0.4400409102181555
4253000000.0 0.8749864944146994 -0.4833696632539973
4256000000.0 0.9333607263403585 -0.4943788448646121
4259000000.0 0.8441335630991543 -0.5009139060702189
4262000000.0 0.8572959748516662 -0.4863125721009016
4266000000.0 0.8657691367463488 -0.5558810404717618
4269000000.0 0.8747859903484462 -0.5123527751585626
4272000000.0 0.8335583214931647 -0.49933515149519697
4275000000.0 0.8572021962153826 -0.5459212122436307
4278000000.0 0.8600552887346887 -0.5769894092320043
4281000000.0 0.8430450287864358 -0.5587810514184709
4284000000.0 0.8162649470445471 -0.6196181018148361
4288000000.0 0.8210125737658219 -0.5706162699424865
4291000000.0 0.7846844293257424 -0.5796972376226821
4294000000.0 0.8114818515525382 -0.6306600680362576
4297000000.0 0.8117339423459332 -0.577156112611962
4300000000.0 0.7695128441639132 -0.6173510405872528
4303000000.0 0.7518271575386594 -0.6402441908232558
4306000000.0 0.7764038349771631 -0.6362069664572608
4309000000.0 0.7615143304642761 -0.6610023264296124
4312000000.0 0.7670345170684819 -0.6690682982538889
4316000000.0 0.7404091175769832 -0.6881368143195417
4319000000.0 0.7298595653284432 -0.6819543022343352
4322000000.0 0.7024829698019359 -0.723909323765117
4325000000.0 0.7030468688514239 -0.7281712026895275
4328000000.0 0.6852568770955993 -0.7270627109494622
4331000000.0 0.6646623808065065 -0.7596947792593981
4334000000.0 0.6586032454520238 -0.7651163729538152
4338000000.0 0.6696408814157405 -0.757580175041911
4341000000.0 0.6478687141723394 -0.784681643805973
4344000000.0 0.6526937891934101 -0.7953035764195004
4347000000.0 0.6097537071749597 -0.8081025625286747
4350000000.0 0.5819172514052442 -0.7949164302059062
4353000000.0 0.5938898945028663 -0.7974909120732061
4356000000.0 0.5445514352897945 -0.8301684950714228
4359000000.0 0.5466294474430541 -0.7988237745829095
4362000000.0 0.525258457548976 -0.8582121696898173
4366000000.0 0.5423288649874495 -0.8633641787932225
4369000000.0 0.5060547709983444 -0.842845420220323
4372000000.0 0.4863471805491482 -0.8668085285128125
4375000000.0 0.5099633162799055 -0.8625033144349797
4378000000.0 0.4702810889218908 -0.8763409325430732
4381000000.0 0.4458600246109421 -0.8884807351493155
4384000000.0 0.4560961231110121 -0.9545729288119795
4388000000.0 0.43271679796687207 -0.9148310623789779
4391000000.0 0.42001581889428635 -0.9326762023128349
4394000000.0 0.38693102829794146 -0.9332009613495265
4397000000.0 0.3907606061660156 -0.9585053066391447
4400000000.0 0.3716020711798072 -0.9448684940304386
4403000000.0 0.365283792612327 -0.9593836912801156
4406000000.0 0.32198734094828974 -0.9529028590945547
4409000000.0 0.32157536794714847 -0.9630696611488576
4412000000.0 0.27812543822184604 -0.9516525822581727
4416000000.0 0.28912623899298884 -0.9711056240038805
4419000000.0 0.258554551735432 -0.9789888223527576
4422000000.0 0.26342159696760237 -0.985872294088521
4425000000.0 0.21626608204283926 -0.9865803415450689
4428000000.0 0.20208520817399417 -1.0087060439091204
4431000000.0 0.2177109321582973 -0.97167338269578
4434000000.0 0.18871282876929243 -1.006145695086181
4438000000.0 0.16686822597821155 -0.9941331904345123
4441000000.0 0.11915174607313322 -1.0028044382421453
4444000000.0 0.13471463059705527 -1.0053117200803
4447000000.0 0.09987870799225865 -1.0002213174342134
4450000000.0 0.07563190649564083 -1.0012803118048381
4453000000.0 0.07609958017576615 -1.0046536780782256
4456000000.0 0.0699269428670149 -1.0265337367516056
4459000000.0 0.017627513064603084 -1.0416186529812381
4462000000.0 0.0028199331823154927 -1.0180816184949484
4466000000.0 -0.019513017201335414 -1.0426567518834107
4469000000.0 -0.0526843853864879 -1.034126222132842
4472000000.0 -0.09699994553422187 -0.9824228503345357
4475000000.0 -0.09459354050530272 -1.0056203729638915
4478000000.0 -0.08628474928425134 -0.9892859195893068
4481000000.0 -0.11367024330952369 -1.0131551052750978
4484000000.0 -0.1613790617795859 -1.0290872132173128
4488000000.0 -0.14497905381343706 -1.0261152034338625
4491000000.0 -0.16119246818631233 -1.0250382529262223
4494000000.0 -0.21219633780938174 -1.0059986231843294
4497000000.0 -0.21595773964653792 -1.0109095215826995
4500000000.0 -0.25875068864703904 -0.9857330303213596
4503000000.0 -0.26566998357672206 -0.995211115162183
4506000000.0 -0.2772922643597891 -0.9703962801024871
4509000000.0 -0.33111867789163535 -0.9639981019641364
4512000000.0 -0.30067869248013923 -0.9585349778834557
4516000000.0 -0.3769574266484923 -0.976028794424563
4519000000.0 -0.37299442335992516 -0.9450745939816547
4522000000.0 -0.37707242249324285 -0.966770048291699
4525000000.0 -0.4542874325093624 -0.9599493185679726
4528000000.0 -0.4146306859054925 -0.9244473009287177
4531000000.0 -0.4782773568487748 -0.8868299328076903
4534000000.0 -0.5125935286456285 -0.9075686427571572
4538000000.0 -0.5020348576892262 -0.9100481531401815
4541000000.0 -0.5176948510685716 -0.872088294808264
4544000000.0 -0.5532779345662115 -0.8919223648371646
4547000000.0 -0.5949633879340642 -0.8543485591885294
4550000000.0 -0.601090481665217 -0.8439780070378652
4553000000.0 -0.5973582102516379 -0.7763057294626796
4556000000.0 -0.6449958405907135 -0.8424246587318144
4559000000.0 -0.6219269495919156 -0.8103736812131113
4562000000.0 -0.6764426122842919 -0.7677321352739268
4566000000.0 -0.6544827272889102 -0.7963932713777429
4569000000.0 -0.7263527351743068 -0.7748430027072923
4572000000.0 -0.7102461477710155 -0.7308792984284073
4575000000.0 -0.6932406638753714 -0.6978398196972883
4578000000.0 -0.7385121542787854 -0.7031662370936075
4581000000.0 -0.7505642078739213 -0.6785621088247078
4584000000.0 -0.8103457437160035 -0.6626749787261147
4588000000.0 -0.8052639498748905 -0.6182054210911399
4591000000.0 -0.8773706816851177 -0.589206871701994
4594000000.0 -0.836124483266784 -0.5944983866967962
4597000000.0 -0.8842417648372116 -0.5383786368287464
4600000000.0 -0.8704437080505684 -0.6116246640079771
4603000000.0 -0.8548149284026527 -0.5139060953463345
4606000000.0 -0.9485597178828609 -0.5457171542903113
4609000000.0 -0.8934099714992181 -0.5103428432935874
4612000000.0 -0.8954342580798114 -0.4133325457129855
4616000000.0 -0.902859509819 -0.4257425531602207
4619000000.0 -0.9686983454287278 -0.3515737631377493
4622000000.0 -0.9941187286018444 -0.2945272546848072
4625000000.0 -1.0313762674962341 -0.3400543497078651
4628000000.0 -1.1225943970104488 -0.32004514771546044
4631000000.0 -1.0021725619120205 -0.3097019328442767
4634000000.0 -1.0177568335634382 -0.22438226874965958
4638000000.0 -1.027149277749357 -0.2509917214933989
4641000000.0 -1.024368607332148 -0.15713739978834174
4644000000.0 -1.0167775284837242 -0.1715588921827067
4647000000.0 -1.021587249670192 -0.1567286468043806
4650000000.0 -1.033551466686885 -0.10229547302856622
4653000000.0 -1.0019494753733302 -0.09953103808646131
4656000000.0 -1.0534697653610776 -0.08712554443166388
4659000000.0 -1.0253209209123695 -0.0025129566605725517
4662000000.0 -1.0579242958936663 0.043588023184972624
4666000000.0 -1.0278357185288716 0.10111003998989669
4669000000.0 -1.0730352387274613 0.11978221928933327
4672000000.0 -1.1222987677479455 0.12122651707157969
4675000000.0 -1.0685283620564416 0.17119936173168412
4678000000.0 -0.9844677932464125 0.14405203356997778
4681000000.0 -0.9660147577069198 0.2225181838253489
4684000000.0 -1.0853716152318413 0.26691001806104186
4688000000.0 -1.018946947185655 0.2977852783194367
4691000000.0 -1.0452018413804853 0.24839802120513493
4694000000.0 -0.9963171936120884 0.3165466985696215
4697000000.0 -0.941585688629748 0.3826212806877046
4700000000.0 -0.9473391171354526 0.38778647874065425
4703000000.0 -0.8918086299159922 0.3639822104936166
4706000000.0 -0.9098005352354364 0.3984221009365714
4709000000.0 -0.9017601523919062 0.4578799239825455
4712000000.0 -0.8883444049824141 0.5020745899150282
4716000000.0 -0.9064862717407607 0.5534629427445887
4719000000.0 -0.8941726030088537 0.5278755815820252
4722000000.0 -0.9109563391047737 0.6038881076391494
4725000000.0 -0.8221732503945307 0.6041303541392116
4728000000.0 -0.8046208391959195 0.7041422116870526
4731000000.0 -0.7696062489415796 0.6470215107538153
4734000000.0 -0.7711659362420088 0.6936647562272065
4738000000.0 -0.7688377536794453 0.7282773426164689
4741000000.0 -0.6807980013145446 0.7596050317593555
4744000000.0 -0.680029674282849 0.771983017835222
4747000000.0 -0.6857274325001917 0.8040813532855628
4750000000.0 -0.5757313503108099 0.8174073795594565
4753000000.0 -0.5926775414424195 0.8771620684819127
4756000000.0 -0.5626274067866647 0.8816106942024899
4759000000.0 -0.5619332023514392 0.8607162570141574
4762000000.0 -0.5416990082836702 0.9114042960239835
4766000000.0 -0.4326876789853877 0.8945475743572664
4769000000.0 -0.451288843418739 0.9518839992570315
4772000000.0 -0.41575530241764747 0.9482170899850692
4775000000.0 -0.38028629992016505 0.9481614221507133
4778000000.0 -0.3845673018707287 0.953342256308192
4781000000.0 -0.3038987585269448 0.9944607195297512
4784000000.0 -0.29127904942268257 1.013227011397359
4788000000.0 -0.2464292186289957 0.9896149455015636
4791000000.0 -0.2228248147310808 1.0259037316637882
4794000000.0 -0.1764722048405823 0.9866227924363737
4797000000.0 -0.1597787355992482 1.0425436020012555
4800000000.0 -0.06975946746875714 1.0361255906351952
4803000000.0 -0.119208094817635 1.0110284002173853
4806000000.0 -0.05221197249996351 1.0291775492035744
4809000000.0 -0.02977480885386205 1.023427270105693
4812000000.0 -0.025746777305558022 1.009953757428013
4816000000.0 0.11349773112673602 1.0439575942286836
4819000000.0 0.147026018914068 0.9861245463173515
4822000000.0 0.15514374441190484 0.9844282124837564
4825000000.0 0.20841490725739145 0.9812718649750982
4828000000.0 0.20527288170501712 0.9968196423252308
4831000000.0 0.1651202164405788 0.9792476551094101
4834000000.0 0.2938884432609963 0.9508080442840748
4838000000.0 0.30451658141785437 0.9644562555253835
4841000000.0 0.34238022915572325 0.9678261668770248
4844000000.0 0.3918187784165344 0.9166671316318801
4847000000.0 0.4213762200559229 0.9483398458546647
4850000000.0 0.4174001111608508 0.8999278774183195
4853000000.0 0.47685939125943366 0.9154398137727264
4856000000.0 0.501527522504661 0.882854534824214
4859000000.0 0.5141171410581216 0.8383934256409736
4862000000.0 0.5464782738910897 0.8859166217676527
4866000000.0 0.543989423865623 0.8561670824761834
4869000000.0 0.5801259192972302 0.8151920327026644
4872000000.0 0.5681076331445901 0.7995931374058581
4875000000.0 0.6747013231383087 0.7712701450198334
4878000000.0 0.6689854044599853 0.758182328791748
4881000000.0 0.6113468914671729 0.7091875719114314
4884000000.0 0.685240067972572 0.7357536357889759
4888000000.0 0.7690175991422189 0.7250290522877154
4891000000.0 0.7442469782809249 0.6384342006035776
4894000000.0 0.7460898461289948 0.6609602988448878
4897000000.0 0.7824256585288001 0.620690073215148
4900000000.0 0.7953336612349803 0.581439543060289
4903000000.0 0.8262321120369669 0.5872056004861034
4906000000.0 0.8435576824096536 0.5558645689405468
4909000000.0 0.8402016355932403 0.5490643295675763
4912000000.0 0.8348945962246783 0.4694068069931254
4916000000.0 0.8700377037802419 0.47729953535904895
4919000000.0 0.8932374359283244 0.4373245079301763
4922000000.0 0.9194954996346058 0.4356428965503364
4925000000.0 0.9010379500764945 0.4307554171191388
4928000000.0 0.9603761891134311 0.37602577054905273
4931000000.0 0.9403566023993074 0.36704000589444474
4934000000.0 0.9484785981268226 0.35869820141118103
4938000000.0 0.9347778632027568 0.3527186483405982
4941000000.0 0.9643723022346583 0.27928859022158614
4944000000.0 0.9960762866655707 0.28534311659407563
4947000000.0 0.9682514822632157 0.24879007506222223
4950000000.0 1.0136136895989933 0.22570343941580376
4953000000.0 0.9509738208339565 0.17138945627756313
4956000000.0 0.9820708516287726 0.19466379769923498
4959000000.0 0.9908757058931082 0.15604759749770064
4962000000.0 0.9845049241563825 0.14550125753823484
4966000000.0 0.971770435851363 0.09772497644083222
4969000000.0 0.9712990159524284 0.077152330938805
4972000000.0 1.0098305585572318 0.04409389077131981
4975000000.0 0.9976892860903988 0.012216848644112425
4978000000.0 1.0105326652731539 0.015499384641177907
4981000000.0 0.9710574605618859 -0.007041655789541926
4984000000.0 1.0091766455663458 -0.029210590466022063
4988000000.0 1.0058240470071365 -0.08956509161781871
4991000000.0 1.023851753533089 -0.09235203415471673
4994000000.0 0.9917640562949119 -0.05896967267075413
4997000000.0 0.992516598797204 -0.1227132612521694
5000000000.0 0.9979813718283098 -0.13470190937734108
5003000000.0 0.9855855101288147 -0.14773493627906992
5006000000.0 0.9954074019409282 -0.20152392293073124
5009000000.0 0.9871489186352553 -0.20847170296843442
5012000000.0 0.9661344458220558 -0.22586659933875275
5016000000.0 0.997553617460124 -0.25780914938241095
5019000000.0 0.9739425605331252 -0.29146310128428365
5022000000.0 0.9662028753316756 -0.27790470926517996
5025000000.0 0.9953044715100752 -0.32264929538939247
5028000000.0 0.9572734518439152 -0.37677512193275786
5031000000.0 0.9360139668554117 -0.3534907611083701
5034000000.0 0.9458695350504724 -0.3842584864794296
5038000000.0 0.9033172717700818 -0.4055075580633816
5041000000.0 0.9647963191940317 -0.3526879643840553
5044000000.0 0.908143639774883 -0.38245377384492607
5047000000.0 0.9468179207424223 -0.4270892376103741
5050000000.0 0.9300618076180367 -0.37841174473654343
5053000000.0 0.9279049712542233 -0.4784610767429775
5056000000.0 0.9148236872021192 -0.476531380138266
5059000000.0 0.8957476703502985 -0.45687194779529006
5062000000.0 0.8580928122029391 -0.5562048366796278
5066000000.0 0.8542852778259347 -0.49928907492340335
5069000000.0 0.8517032081186696 -0.5576792678796525
5072000000.0 0.8127107830339313 -0.561590674753214
5075000000.0 0.8673498779677202 -0.5984934400426078
5078000000.0 0.8295835666161004 -0.6330805561287968
5081000000.0 0.7853940375520467 -0.6048495484378166
5084000000.0 0.8297954333080655 -0.6507365884075651
5088000000.0 0.7701849881221322 -0.6021179001914028
5091000000.0 0.7893149140058171 -0.7139013079105814
5094000000.0 0.8018897890092219 -0.6812098360648902
5097000000.0 0.8335900385302699 -0.6779986598444798
5100000000.0 0.7688144873946356 -0.6324948635042267
5103000000.0 0.7364240921684037 -0.6619801784548671
5106000000.0 0.785592026490278 -0.7260287585432352
5109000000.0 0.7258763055077615 -0.6842267420539568
5112000000.0 0.711533203318511 -0.726991565519715
5116000000.0 0.6445821505117242 -0.6702637587027818
5119000000.0 0.7301889280816626 -0.7140708155431561
5122000000.0 0.7001226767136539 -0.7331754629665068
5125000000.0 0.6424649445457836 -0.8084906439214551
5128000000.0 0.6498940871108535 -0.8069609789209065
5131000000.0 0.6256990415203125 -0.7857449698538564
5134000000.0 0.650606455867221 -0.8346118667548129
5138000000.0 0.6232700202928958 -0.8459762181082515
5141000000.0 0.6335821619212445 -0.823084651072234
5144000000.0 0.6570341808279818 -0.8411896529707283
5147000000.0 0.6192570593954277 -0.8550443925518622
5150000000.0 0.5749797284779786 -0.8222035645469737
5153000000.0 0.5153949909433588 -0.8502654019568526
5156000000.0 0.5344833684879282 -0.9455047708366772
5159000000.0 0.5559354842475888 -0.8875648301182685
5162000000.0 0.5343105959985862 -0.8521083310433876
5166000000.0 0.4825686394300704 -0.9971767496920843
5169000000.0 0.5107804908463827 -0.8919648109507552
5172000000.0 0.4375536166022225 -0.8845631815123489
5175000000.0 0.5399280756927156 -0.9413694173887468
5178000000.0 0.44349375248906464 -0.9055441894465291
5181000000.0 0.48252166045292694 -0.9205497397579916
5184000000.0 0.37962294403311553 -0.9934511039016763
5188000000.0 0.46032930748773104 -0.8673662597678243
