! Created with skrf 1.8.0 (http://scikit-rf.org).
# Hz S RI R 50.0 
!freq ReS11 ImS11
4000000000.0 0.6181370713949801 0.7777429037372696
4003000000.0 0.668974781307984 0.8497239650954069
4006000000.0 0.6561086360776848 0.791599266599284
4009000000.0 0.6821550237789513 0.8000065065726834
4012000000.0 0.5803207093243449 0.8000918524710251
4016000000.0 0.7102512045589613 0.7951549138205238
4019000000.0 0.6950567110643857 0.7842687583533711
4022000000.0 0.6575226083052468 0.8415660361616254
4025000000.0 0.7475649939726416 0.7472872452598589
4028000000.0 0.7227255861031708 0.7695231671560137
4031000000.0 0.6989145618624207 0.7542665518877844
4034000000.0 0.7108092252672656 0.7529310003876728
4038000000.0 0.7384029369524903 0.7384900866533782
4041000000.0 0.7309301969184906 0.7466745688041959
4044000000.0 0.7141507373714304 0.8031078325479958
4047000000.0 0.7650364516415937 0.7697768855889081
4050000000.0 0.7640716470970828 0.7202136225268478
4053000000.0 0.7586132209881056 0.6973563293944312
4056000000.0 0.7836741244830061 0.703400176592477
4059000000.0 0.721771312612655 0.6837593669603961
4062000000.0 0.7917637632806662 0.6740011687268248
4066000000.0 0.7260961114701703 0.6509580504740762
4069000000.0 0.8060560688534212 0.675586623069364
4072000000.0 0.7769788770447497 0.6706359152126009
4075000000.0 0.7690267444487786 0.6984303000425287
4078000000.0 0.801901095395312 0.6618263062217379
4081000000.0 0.7505752461470987 0.65793380004072
4084000000.0 0.8346102404572673 0.6431363542712656
4088000000.0 0.8070012232040146 0.6780063659957307
4091000000.0 0.8706354473284826 0.666335357115724
4094000000.0 0.8115827389195897 0.6629555879145147
4097000000.0 0.8109756861246925 0.6380460688162051
4100000000.0 0.8348750918260307 0.6109387459476117
4103000000.0 0.8387663358588682 0.6497077765925479
4106000000.0 0.8624022149366599 0.6405068341503
4109000000.0 0.8607218556207505 0.5868049725303601
4112000000.0 0.8698144642540633 0.599372108433943
4116000000.0 0.835277968900254 0.634693843483921
4119000000.0 0.8846321485641897 0.5671528926361822
4122000000.0 0.8832170139545577 0.5293413313994687
4125000000.0 0.878189158095467 0.5505843474542598
4128000000.0 0.844155821505306 0.5724442701606157
4131000000.0 0.8418231434791518 0.5274132349510334
4134000000.0 0.8733679946943009 0.5560388224380782
4138000000.0 0.8688223555956842 0.4870466189447972
4141000000.0 0.8786752253849799 0.4950272160477628
4144000000.0 0.8849262470888147 0.5531042238132655
4147000000.0 0.8933225323654875 0.4950977761014424
4150000000.0 0.9245052692522986 0.527601213576141
4153000000.0 0.8949319752011446 0.5241913681575182
4156000000.0 0.9091909120383135 0.47967771370182655
4159000000.0 0.8905861399089459 0.4775797030184023
4162000000.0 0.8642200221896856 0.47470944141988236
4166000000.0 0.9555597944320866 0.5156798321833747
4169000000.0 0.9232152987542315 0.40614475601654565
4172000000.0 0.9406915927870335 0.4517216570711435
4175000000.0 0.9630842508901749 0.4387603257587425
4178000000.0 0.9509227938349423 0.4413844605452283
4181000000.0 0.9513208529587696 0.4316061376378363
4184000000.0 0.9318073336443752 0.4082172406951076
4188000000.0 0.9300713458707432 0.40968836614827797
4191000000.0 0.914909642677083 0.4382938157655378
4194000000.0 0.9170870064859171 0.4132088786920399
4197000000.0 0.9518666636727176 0.39595892189635135
4200000000.0 0.9523458982193058 0.3819585221579602
4203000000.0 0.9575331387652474 0.388817910430158
4206000000.0 0.9781975437420187 0.3668083354324166
4209000000.0 0.9353906285652986 0.3598212214070407
4212000000.0 0.9722219580006033 0.3383744593617064
4216000000.0 0.9563684572177514 0.376148972283001
4219000000.0 0.9787742174035536 0.3546819896113108
4222000000.0 0.9751748640762348 0.30526930242618605
4225000000.0 0.948643473474803 0.3211041778746897
4228000000.0 0.9800768378754523 0.32406238042087177
4231000000.0 0.9764834628484752 0.3051530285091264
4234000000.0 0.990882808930919 0.3011141429894174
4238000000.0 0.9876498596147775 0.2765987012055813
4241000000.0 0.9751345961990099 0.2656314220724461
4244000000.0 0.9923668134706214 0.2690314615991013
4247000000.0 0.9934646406626039 0.27508329020453165
4250000000.0 0.9771686373322128 0.2439291532084133
4253000000.0 0.9757245370966527 0.2183192165054691
4256000000.0 1.0219420844718037 0.23026202081679104
4259000000.0 0.9567673832562548 0.20816953843823802
4262000000.0 1.003521268509701 0.2019139722464465
4266000000.0 1.0154919797758428 0.1787159609671416
4269000000.0 0.9951472434735658 0.20953836377385196
4272000000.0 1.0022035437883807 0.20928608804760068
4275000000.0 1.0012061104966763 0.19772277120904108
4278000000.0 1.0171243453568222 0.20524287060415058
4281000000.0 1.0070780340098766 0.1662556033780606
4284000000.0 1.014391597518229 0.11899178502304075
4288000000.0 0.9858117789598945 0.19469488790051778
4291000000.0 1.0012804786069809 0.1354569587040631
4294000000.0 1.0109303109381655 0.1364204191365057
4297000000.0 0.9824360030789636 0.13751238885184197
4300000000.0 1.007560396857095 0.14954475243776913
4303000000.0 0.9917679336589967 0.10125232331216506
4306000000.0 1.011222115522562 0.13272112008569883
4309000000.0 1.011788997874884 0.11160471417394234
4312000000.0 1.020775075141646 0.1100360796640262
4316000000.0 1.0357317000696533 0.0947566843351146
4319000000.0 0.9732524117524917 0.07967489744641791
4322000000.0 1.013568190646235 0.027884339680620332
4325000000.0 1.0179028436093225 0.053222807709568484
4328000000.0 1.010345887397582 0.04713542919952361
4331000000.0 1.0173734960732184 -0.010075110469921364
4334000000.0 1.0314941117059506 0.004273301536711793
4338000000.0 1.0455546605181127 0.04615985108665609
4341000000.0 1.0431558177125484 0.04053645362649705
4344000000.0 1.0191821984861313 0.008566086563266684
4347000000.0 1.033124480584377 -0.015544337420675375
4350000000.0 0.9863906731209516 -0.036363199410968564
4353000000.0 1.014450239297066 -0.012999089089916982
4356000000.0 1.00237260310335 -0.054342334866850056
4359000000.0 0.9690509655061755 -0.041030455556858164
4362000000.0 1.019277532038462 -0.11008201666057933
4366000000.0 1.0356388885152985 -0.0819477726408064
4369000000.0 0.9851177689329818 -0.07663426768946037
4372000000.0 0.9960811843500224 -0.12526894823293738
4375000000.0 1.0307760636624352 -0.07732744552470219
4378000000.0 0.987931044342097 -0.08707459710975289
4381000000.0 0.9825758973859624 -0.09619596273679895
4384000000.0 1.0382381159910907 -0.11762140078477927
4388000000.0 0.9809695374344534 -0.10072842738681687
4391000000.0 1.0082500415550961 -0.1354365265061183
4394000000.0 0.9642595939997143 -0.12685002652887606
4397000000.0 0.9894181752528397 -0.1475072620240481
4400000000.0 1.0188843234020994 -0.15744304186555735
4403000000.0 1.0116675256333116 -0.16247453251887856
4406000000.0 1.0034105916280713 -0.18962388014796402
4409000000.0 1.0349398857602297 -0.18901137304012267
4412000000.0 0.9841326079285756 -0.2456355487636753
4416000000.0 0.9736391118107919 -0.21629900907328264
4419000000.0 0.9918458449297289 -0.2446461061315281
4422000000.0 0.9820205480210469 -0.216336169843956
4425000000.0 1.0073083626044188 -0.2124295484470698
4428000000.0 0.9743391939968109 -0.2524455553620404
4431000000.0 0.9946082194853665 -0.2359130256962769
4434000000.0 0.9647904650618271 -0.25313507764127985
4438000000.0 0.9916329951681071 -0.27676559392922795
4441000000.0 1.0008125896666595 -0.27074038485077623
4444000000.0 0.9598054484239973 -0.25942643174519686
4447000000.0 0.9531591318099144 -0.3060646181485521
4450000000.0 0.9698966281795168 -0.2732719575013113
4453000000.0 0.9917697899813599 -0.3092584798931004
4456000000.0 0.9361131427311377 -0.3119467949198072
4459000000.0 0.9263652634728472 -0.32622036343704863
4462000000.0 1.0012278543396294 -0.35136867943897304
4466000000.0 1.008986765364189 -0.3608280904681104
4469000000.0 0.9679943602629795 -0.3400226556002748
4472000000.0 0.9563721251066596 -0.3808271195636782
4475000000.0 0.9124856359818063 -0.3627283245517247
4478000000.0 0.967780148524825 -0.4074501841186101
4481000000.0 0.8972488749849173 -0.39198953107998485
4484000000.0 0.9101740959649347 -0.4310574093412045
4488000000.0 0.9198159337259874 -0.4152154845428302
4491000000.0 0.9239446943093852 -0.4061151183847169
4494000000.0 0.9104660471073514 -0.41145462038089997
4497000000.0 0.898983303045291 -0.41590334096641446
4500000000.0 0.9039283816087085 -0.4158285532338559
4503000000.0 0.9522451531221416 -0.4253750543244514
4506000000.0 0.8953770892848489 -0.43679235304306935
4509000000.0 0.8657139079209795 -0.4439374261190294
4512000000.0 0.8972102858449358 -0.46998738811906426
4516000000.0 0.9121534651630798 -0.48075342322495745
4519000000.0 0.882162021337317 -0.46306817349422164
4522000000.0 0.884255117616157 -0.4924231703616273
4525000000.0 0.8813199848797095 -0.4545303739002857
4528000000.0 0.8927239889462288 -0.5183265597212459
4531000000.0 0.8812689391930641 -0.4826603148391623
4534000000.0 0.8525623973078229 -0.5111046572138753
4538000000.0 0.8784389123634897 -0.5194657404835953
4541000000.0 0.8330425844704434 -0.5422375813836553
4544000000.0 0.8471231786080213 -0.5464916106880481
4547000000.0 0.8627100966964569 -0.5392335451061281
4550000000.0 0.8633873893720014 -0.575897916921379
4553000000.0 0.8405283602319835 -0.5723478728655114
4556000000.0 0.7998208257299895 -0.5666986793170523
4559000000.0 0.8235256076332494 -0.6017223939129714
4562000000.0 0.8342352045798811 -0.5920833139090108
4566000000.0 0.8243943552082238 -0.5935735765498036
4569000000.0 0.7867812297183339 -0.5839274882859227
4572000000.0 0.7902841075022997 -0.5954121638532431
4575000000.0 0.798519124762272 -0.634726230402709
4578000000.0 0.8122976289073389 -0.6369553724278108
4581000000.0 0.7963482677712533 -0.6397275499752233
4584000000.0 0.7771078586558542 -0.6298941865240114
4588000000.0 0.8028119096795642 -0.6545370138732927
4591000000.0 0.7645584712231547 -0.6323296897181119
4594000000.0 0.7615712460176363 -0.6636237130648995
4597000000.0 0.7672705411081382 -0.6671129816222868
4600000000.0 0.7246104981871138 -0.6754396766772077
4603000000.0 0.7537430001483224 -0.6908163212106672
4606000000.0 0.7596009779819326 -0.710646384541304
4609000000.0 0.747014541321442 -0.6752098532963469
4612000000.0 0.7374689117290765 -0.7070961325188563
4616000000.0 0.709869127575188 -0.6966190248203701
4619000000.0 0.7315284202190016 -0.7045128330887361
4622000000.0 0.7065720911454992 -0.7219223797043836
4625000000.0 0.6649685337872528 -0.7179076418929973
4628000000.0 0.7083125431964323 -0.7210329589431598
4631000000.0 0.6743627561649506 -0.7242616872184607
4634000000.0 0.6708879152662343 -0.7416732913299251
4638000000.0 0.6963843651515101 -0.7492403151354624
4641000000.0 0.6693683803606739 -0.7389705632511114
4644000000.0 0.6776491923527368 -0.7381028820661759
4647000000.0 0.6797909331661444 -0.7589418684502146
4650000000.0 0.6519298687178029 -0.7629070432968066
4653000000.0 0.6672399997903387 -0.7742809656470502
4656000000.0 0.6485056836165544 -0.7820198581552131
4659000000.0 0.6189916748933469 -0.776856652871132
4662000000.0 0.6392250834093508 -0.8071651025159041
4666000000.0 0.6233241968991345 -0.8205898887928462
4669000000.0 0.6100165833146398 -0.8090221395156864
4672000000.0 0.6091605788292229 -0.8361448720501592
4675000000.0 0.5997167999303321 -0.8384333958171658
4678000000.0 0.5657524173390469 -0.7997428959729853
4681000000.0 0.5677609684085858 -0.8598689920253638
4684000000.0 0.5393731502713065 -0.8371430647143032
4688000000.0 0.5414604723643355 -0.8299974999385377
4691000000.0 0.5662053424712712 -0.8260309212664565
4694000000.0 0.5552643446053044 -0.8529523152203786
4697000000.0 0.5289048354927773 -0.8348492842242341
4700000000.0 0.5499878030646925 -0.8506445576054862
4703000000.0 0.5456810731398815 -0.838501612024269
4706000000.0 0.5101138003039984 -0.8755739075043921
4709000000.0 0.526203422905317 -0.8718878928186549
4712000000.0 0.5060083556328965 -0.8690311808237002
4716000000.0 0.5148936544479893 -0.9057171051865092
4719000000.0 0.5151850941777474 -0.8696404323475777
4722000000.0 0.5150776084214754 -0.8502739735429916
4725000000.0 0.4883407181752536 -0.8923642830282317
4728000000.0 0.489572752968379 -0.8992467190631905
4731000000.0 0.4950097673058783 -0.9173250897967193
4734000000.0 0.4776713824582049 -0.8946931700094255
4738000000.0 0.47484568671353866 -0.9478564379494042
4741000000.0 0.4526835411354651 -0.946988137026268
4744000000.0 0.4152865044015056 -0.9308868296934092
4747000000.0 0.43189433327978627 -0.8953046332787566
4750000000.0 0.4327608288234481 -0.9216008613049979
4753000000.0 0.4279353544770219 -0.926462725388022
4756000000.0 0.3985835417756812 -0.9473573769948989
4759000000.0 0.4199536884039671 -0.9498462233420825
4762000000.0 0.39066333468815084 -0.9794144636171916
4766000000.0 0.3748309792768523 -0.9461579043873133
4769000000.0 0.3849616876719078 -0.9778889686885953
4772000000.0 0.3764197323442519 -0.9683457823773666
4775000000.0 0.36084161086719896 -1.003001658323387
4778000000.0 0.3361046463546258 -0.9814694488119372
4781000000.0 0.33589496299800176 -0.9551125125505289
4784000000.0 0.37009724375980546 -0.9447240164753913
4788000000.0 0.3471544023027418 -0.9726577173973352
4791000000.0 0.30883812582714437 -0.9599415515717914
4794000000.0 0.3506083867012448 -1.0051965153946103
4797000000.0 0.29493181462165713 -0.9618800624773008
4800000000.0 0.27965121221864253 -0.9855870214791806
4803000000.0 0.22933203694151022 -0.9801173055604588
4806000000.0 0.2746612681080035 -1.015576630106037
4809000000.0 0.2230172173393411 -0.9977375256258693
4812000000.0 0.2007610640116495 -0.9923839278249682
4816000000.0 0.26126677396479375 -0.9728962282483187
4819000000.0 0.2613736930029167 -1.0081594459580479
4822000000.0 0.29106824532116415 -1.0261565226432983
4825000000.0 0.26661309281475454 -1.0224052762297136
4828000000.0 0.24413356739200642 -1.0084728806707424
4831000000.0 0.15929961166350987 -1.0440562477324478
4834000000.0 0.22022098439701576 -1.009818736949064
4838000000.0 0.1590823087458092 -1.027479766079389
4841000000.0 0.1607414039273225 -1.0167619886724983
4844000000.0 0.21326240798265494 -1.0007284911905008
4847000000.0 0.19275852005099878 -0.9808314521439625
4850000000.0 0.14922154123104917 -1.0350220646840158
4853000000.0 0.1545624049817061 -0.9975801213494366
4856000000.0 0.12190580506426392 -1.0137324463011859
4859000000.0 0.13004798570346482 -1.063114445528797
4862000000.0 0.14546040793876777 -0.9978722156451615
4866000000.0 0.09348913213164245 -1.0405409720213852
4869000000.0 0.10987908570597557 -1.0151679857975002
4872000000.0 0.08420640986381106 -1.0661960246185898
4875000000.0 0.15043447893334697 -1.0512831729043581
4878000000.0 0.086771637236461 -1.040592695517287
4881000000.0 0.048141559436774874 -1.088541311444405
4884000000.0 0.08559535544346294 -1.0378363009568699
4888000000.0 0.09100142798617705 -1.0074770531785424
4891000000.0 0.0840373714916334 -1.032026087700968
4894000000.0 0.02933007077476828 -1.0213397845140693
4897000000.0 0.08215966891275017 -1.0120991886974249
4900000000.0 0.024047475403738118 -1.0572340310600499
4903000000.0 0.03542642353182121 -1.0515614076449626
4906000000.0 -0.003228494959824614 -1.0774176100844255
4909000000.0 -0.0031127822426832777 -1.0570956309181807
4912000000.0 -0.0037462667024968158 -1.0425014341204744
4916000000.0 0.004488569531551474 -1.0827668367107548
4919000000.0 -0.009022288260173122 -1.0861952721031862
4922000000.0 0.006671662540305684 -1.0304426357972547
4925000000.0 -0.07014353264773293 -1.0273809835576393
4928000000.0 8.284781074723024e-05 -1.024992558357016
4931000000.0 -0.04008999838439052 -1.0316876505300692
4934000000.0 -0.06892731147769256 -0.9754397414112691
4938000000.0 -0.1344205195159311 -1.0133557343572346
4941000000.0 -0.03530515500752758 -1.0138684276323964
4944000000.0 -0.026827248929213066 -0.9675327001512104
4947000000.0 -0.10554812635908983 -0.9975673343983087
4950000000.0 -0.09686111785571148 -1.0028973704715503
4953000000.0 -0.1304829429854472 -1.055977338108344
4956000000.0 -0.15007047851575117 -1.005786472941037
4959000000.0 -0.16245965070392734 -0.9757897907753621
4962000000.0 -0.135464562549965 -1.0358122669028331
4966000000.0 -0.13990595840315945 -1.0525531460901651
4969000000.0 -0.15502126194747712 -1.068810349944242
4972000000.0 -0.17161728346060998 -1.055201021340428
4975000000.0 -0.14121265559653565 -1.0234132574561006
4978000000.0 -0.20423013101275983 -1.015111535867918
4981000000.0 -0.19113135509968773 -1.0363783200481804
4984000000.0 -0.14539310652382711 -1.0022073442258714
4988000000.0 -0.17241691620650706 -1.0038706421478263
4991000000.0 -0.1708924453656046 -1.0485907198803848
4994000000.0 -0.2332637346820754 -1.0404838123986397
4997000000.0 -0.25736289444235816 -0.9968868062881505
5000000000.0 -0.24572750709628632 -1.0607990343990017
5003000000.0 -0.2066376722407134 -1.049578095569759
5006000000.0 -0.264346571362597 -1.0460714262264583
5009000000.0 -0.2674928454654606 -1.0166291363294213
5012000000.0 -0.28978255344620435 -1.0157800388944802
5016000000.0 -0.2319431975603763 -1.023898476388519
5019000000.0 -0.2926869195137549 -0.9800225868282237
5022000000.0 -0.27474075243374585 -1.0085589719122685
5025000000.0 -0.3194096060153588 -1.070373757247018
5028000000.0 -0.3257428670654783 -0.9955416862404223
5031000000.0 -0.33656972532554863 -0.979301871223356
5034000000.0 -0.3945992243875537 -1.0128652086577956
5038000000.0 -0.3288297252624164 -0.9714922595061675
5041000000.0 -0.3111760284105174 -1.0105207449514504
5044000000.0 -0.29614800168328015 -0.9729589144603491
5047000000.0 -0.36073226475764936 -0.9734782143282191
5050000000.0 -0.28103235754277245 -0.9523488689700725
5053000000.0 -0.3737475493297666 -1.031832751088426
5056000000.0 -0.3303945694528385 -0.9820481370852969
5059000000.0 -0.3516091754535123 -0.9975123288858679
5062000000.0 -0.438050620202194 -1.0020926611011898
5066000000.0 -0.3135119654558829 -0.963830195537015
5069000000.0 -0.38670992344652566 -0.9527984421958781
5072000000.0 -0.3632571312949204 -0.9019575671325728
5075000000.0 -0.39479665932865626 -0.9701157291407239
5078000000.0 -0.4510303062068414 -0.9378513195973581
5081000000.0 -0.4192793671498339 -0.9098513707419799
5084000000.0 -0.4342081517688152 -0.989183153488371
5088000000.0 -0.42737477887651487 -0.934854370906983
5091000000.0 -0.4797572789467304 -0.9406940544384734
5094000000.0 -0.48320770618769654 -0.9246020330324777
5097000000.0 -0.4074121980466181 -0.9437382306288669
5100000000.0 -0.4844153922541375 -0.9365177211775971
5103000000.0 -0.4624589744464193 -0.8833903377643731
5106000000.0 -0.4883606265732246 -0.9612279341429104
5109000000.0 -0.4300202532797519 -0.9195425030183866
5112000000.0 -0.5379817512440508 -0.9105233362239344
5116000000.0 -0.47262680286614345 -0.8700199041432239
5119000000.0 -0.517188684871759 -0.9197194898635868
5122000000.0 -0.493040356294271 -0.9236346230782129
5125000000.0 -0.4946510738709106 -0.8755453129145568
5128000000.0 -0.5677519507956562 -0.8721702929085147
5131000000.0 -0.5184307048428285 -0.8539564120511822
5134000000.0 -0.5247712582316575 -0.8695592978758204
5138000000.0 -0.5390261455687931 -0.9023021294463011
5141000000.0 -0.5094925306420537 -0.8846272245488724
5144000000.0 -0.5117890624923132 -0.8538637750367971
5147000000.0 -0.560406600344779 -0.8897965855657829
5150000000.0 -0.5454328761223112 -0.8992500439426743
5153000000.0 -0.6058316348387751 -0.8629100751288885
5156000000.0 -0.5999085971548506 -0.8822690310397777
5159000000.0 -0.5727973976166476 -0.8785733878464373
5162000000.0 -0.5947287179697651 -0.8112102310644108
5166000000.0 -0.643099338993652 -0.840076780122362
5169000000.0 -0.654753094795519 -0.8653208810330056
5172000000.0 -0.6399368228644496 -0.82218063280646
5175000000.0 -0.6611297843909979 -0.8897354081489657
5178000000.0 -0.6609214634523168 -0.8330991118276774
5181000000.0 -0.6779309578950341 -0.8398154720891823
5184000000.0 -0.646527019101901 -0.782822706026673
5188000000.0 -0.6641318083918831 -0.8310444974474721
5191000000.0 -0.6965704006853932 -0.7845564787802511
