! Created with skrf 1.8.0 (http://scikit-rf.org).
# Hz S RI R 50.0 
!freq ReS11 ImS11
4000000000.0 0.6200707868305202 0.78188428223175
4003000000.0 0.6825332356637082 0.8557276029879999
4006000000.0 0.6722268311535773 0.7362359983104385
4009000000.0 0.6788790091312015 0.77060982808487
4012000000.0 0.6280392967070535 0.7794209664484085
4016000000.0 0.7060420997522175 0.7825022768575292
4019000000.0 0.6594801494422311 0.8014472436164595
4022000000.0 0.6267583039134043 0.8045184534932076
4025000000.0 0.7670859373391685 0.7388972688757669
4028000000.0 0.7244051155684469 0.7397773146845856
4031000000.0 0.6679135360982138 0.7289937972513831
4034000000.0 0.6911199369320961 0.7196787217183572
4038000000.0 0.718808099684946 0.705183412191903
4041000000.0 0.742052174844842 0.7009252453420027
4044000000.0 0.7599582003451144 0.7614738825398029
4047000000.0 0.7623629795859611 0.7451500533239171
4050000000.0 0.8138902051960487 0.6946405506666329
4053000000.0 0.7587159994735277 0.6788372371078364
4056000000.0 0.7710126116508085 0.6824999298518553
4059000000.0 0.7296668013999155 0.6932313125996685
4062000000.0 0.7861702703694227 0.6855271371628295
4066000000.0 0.7424929343065931 0.6251025715314481
4069000000.0 0.8000627157678619 0.6354027500464179
4072000000.0 0.7690123322611856 0.6909942576166177
4075000000.0 0.7680850265057565 0.7142123813438424
4078000000.0 0.8448712694968826 0.6574802824636394
4081000000.0 0.7647030092580293 0.7085145112751752
4084000000.0 0.8183204367672312 0.641660141551055
4088000000.0 0.7800036035356992 0.6651914830557351
4091000000.0 0.8335026343629881 0.6710860967583563
4094000000.0 0.8123823382209138 0.6121323702912478
4097000000.0 0.8309920259512302 0.5863374025590407
4100000000.0 0.8325758621222838 0.5906110317656195
4103000000.0 0.8577798217105268 0.6177885931262395
4106000000.0 0.84203498107595 0.6070844722407824
4109000000.0 0.850120505920205 0.578456349680863
4112000000.0 0.8621423097041694 0.5667577133734703
4116000000.0 0.8645977195180911 0.5820510328793082
4119000000.0 0.8796562881861548 0.5779036344221473
4122000000.0 0.8722591584336421 0.5420650166274086
4125000000.0 0.9014044111917888 0.4890790828751233
4128000000.0 0.8417904126709599 0.5156664088348053
4131000000.0 0.8487327821172124 0.5008732421043706
4134000000.0 0.8846233637931635 0.5375497727841213
4138000000.0 0.9007857024366785 0.5046270574611305
4141000000.0 0.8760930363286078 0.5187916047385175
4144000000.0 0.9074828590186782 0.5136721430515854
4147000000.0 0.8945220178151861 0.4967431463851563
4150000000.0 0.8892118814871703 0.5031172293915462
4153000000.0 0.9146419121479533 0.4829225067032894
4156000000.0 0.9174509682595513 0.5154777657967812
4159000000.0 0.9129053126173825 0.47304565104322566
4162000000.0 0.9186360138275402 0.466888387995646
4166000000.0 0.9240778784217536 0.4319962016588803
4169000000.0 0.9112654407048538 0.43407413813251305
4172000000.0 0.9163601893506282 0.42291993302472913
4175000000.0 0.9204105689720284 0.4510286282108276
4178000000.0 0.9492603035590246 0.395833350439763
4181000000.0 0.9654761726705352 0.3944874700302461
4184000000.0 0.9371883020201199 0.41857801840164083
4188000000.0 0.959965544723731 0.38691444033280964
4191000000.0 0.9082928981458307 0.4267301308936526
4194000000.0 0.9388613810641769 0.370113424674965
4197000000.0 0.9399863078101022 0.39958170576676516
4200000000.0 0.9568433376074281 0.3962706905925468
4203000000.0 0.9541666773967354 0.380880973133914
4206000000.0 0.9625432688701941 0.349427943765041
4209000000.0 0.9414435190599268 0.36669908224274966
4212000000.0 0.9748130702672252 0.33283494826170423
4216000000.0 0.9713994740460539 0.3392253195092057
4219000000.0 0.9746372841861551 0.3260440724872875
4222000000.0 0.9682326146304259 0.3151870333922901
4225000000.0 0.9660223820073006 0.3197264199615457
4228000000.0 0.9938481106613273 0.3179974464029245
4231000000.0 0.9892441397703067 0.27603609472263596
4234000000.0 0.9991519121516563 0.27159114934552864
4238000000.0 0.9879184189703609 0.2621586462687754
4241000000.0 0.9704063940398262 0.252968000244489
4244000000.0 0.9622418875471277 0.2610322410946732
4247000000.0 0.9778719196464468 0.2453023290132152
4250000000.0 0.9889305902949914 0.23583178237550406
4253000000.0 0.9738998464154556 0.22622944710274318
4256000000.0 1.0098502107296659 0.23392129242378484
4259000000.0 0.9622781156332021 0.19991386492789556
4262000000.0 0.9902499602170807 0.20280090240138268
4266000000.0 1.0376348165227933 0.17537020198127884
4269000000.0 0.9908865286660616 0.19227890761065905
4272000000.0 0.9835674923302704 0.1763571272695787
4275000000.0 1.0126836949059097 0.1759505598624197
4278000000.0 1.0035649590188012 0.15454264738778395
4281000000.0 0.9980160646891122 0.13706059375654228
4284000000.0 1.030489411767229 0.11458134482040355
4288000000.0 1.0093623315517364 0.16684939041001917
4291000000.0 0.9903521970037924 0.1393955081785122
4294000000.0 1.0142857095767788 0.0919748080347239
4297000000.0 1.0140609414149668 0.14046855911206735
4300000000.0 1.0053633500313073 0.12073677690230808
4303000000.0 0.9795149358198414 0.08554563815915246
4306000000.0 1.0294231714119664 0.11262914123294446
4309000000.0 1.0076672101701323 0.10247975171838601
4312000000.0 1.0205218734843882 0.086423010763722
4316000000.0 1.0205137095144792 0.06887320619154381
4319000000.0 0.9661446133158137 0.0604390531419992
4322000000.0 0.9894078427086542 0.03016377007434158
4325000000.0 1.0031722908977263 0.02999863820957953
4328000000.0 1.0187792926432466 0.022675474354209135
4331000000.0 1.0022192075349623 0.002038060991887247
4334000000.0 1.0235558513292173 -0.004242621394830129
4338000000.0 0.9998437799489768 0.018343543185480135
4341000000.0 1.043190564177995 0.005437763197897322
4344000000.0 1.0523741445120502 0.020941213052479812
4347000000.0 1.0296389867725033 -0.03808248353825214
4350000000.0 0.9666178796606338 -0.03747219810754211
4353000000.0 1.0082235684821625 -0.00876079405362254
4356000000.0 0.9915129755800369 -0.07287745465973032
4359000000.0 0.9488606514485252 -0.06258797224952076
4362000000.0 1.0141591392872402 -0.12217014578924332
4366000000.0 1.0257109538883589 -0.08836759790228199
4369000000.0 0.9654190806951786 -0.09310200219348055
4372000000.0 1.0120709507600874 -0.1393526227716531
4375000000.0 1.0001385805857022 -0.09001923872767757
4378000000.0 0.9835403464724409 -0.09768844604520344
4381000000.0 0.9734256764797273 -0.11729736472945171
4384000000.0 1.0556928218368364 -0.13706883418451724
4388000000.0 0.9785958174503524 -0.11667945659233571
4391000000.0 1.0029181946658339 -0.13625480151749259
4394000000.0 0.9641289268669231 -0.16664365217472418
4397000000.0 0.9897531181650117 -0.1732216748494917
4400000000.0 1.0053002273682081 -0.17612060988217787
4403000000.0 1.00578107897974 -0.17386679753032774
4406000000.0 0.9791744687237011 -0.21247909407656054
4409000000.0 1.0074458297384525 -0.21733331699344127
4412000000.0 0.9713526750906261 -0.2606833489612085
4416000000.0 0.969556811976505 -0.23829792481809345
4419000000.0 0.9753863916129765 -0.25264061079504607
4422000000.0 0.9692843729474381 -0.2212622502208684
4425000000.0 1.000707863220885 -0.22422499520141903
4428000000.0 0.9731438245600629 -0.2630160324630491
4431000000.0 0.9969361392927718 -0.2676710996957954
4434000000.0 0.9636399416585087 -0.2663887946005511
4438000000.0 0.9830406002406733 -0.29412944396465346
4441000000.0 0.987922095232197 -0.2838522478886861
4444000000.0 0.9559017296609362 -0.2916477779546487
4447000000.0 0.9425265961400929 -0.315745744177159
4450000000.0 0.9524667879122464 -0.3057332765647123
4453000000.0 0.9785084885741538 -0.3295085157061091
4456000000.0 0.9309358015067114 -0.33810724259366765
4459000000.0 0.8940547026469949 -0.3400337500344671
4462000000.0 1.0077724116096287 -0.3680701361855627
4466000000.0 0.9820682170908468 -0.39381224131670634
4469000000.0 0.948211159711442 -0.3590770574801907
4472000000.0 0.9451707746402795 -0.408006400963297
4475000000.0 0.9011071626636183 -0.37790099081955886
4478000000.0 0.9657492038051423 -0.42361298279218385
4481000000.0 0.9046738143014122 -0.41272055072801933
4484000000.0 0.9045278879100571 -0.46030747565165675
4488000000.0 0.9054378747239308 -0.4142276572182847
4491000000.0 0.9269004859761781 -0.4281438904939516
4494000000.0 0.8899352959655639 -0.42333706662119086
4497000000.0 0.9069152187209402 -0.4105992233745904
4500000000.0 0.8952455387419496 -0.42449859978630056
4503000000.0 0.9117093827164058 -0.45697411582838804
4506000000.0 0.8964611343138462 -0.4576321370658716
4509000000.0 0.8891176354319603 -0.4707962383759342
4512000000.0 0.8632428495521522 -0.47764414101464037
4516000000.0 0.917664151455575 -0.48975727444786776
4519000000.0 0.8593595427679758 -0.47168793786419
4522000000.0 0.8818921253390088 -0.4919855175750464
4525000000.0 0.8799031061224758 -0.475049330298821
4528000000.0 0.87304209844645 -0.5129775237933075
4531000000.0 0.887976204910537 -0.5195650339283802
4534000000.0 0.8488811120763654 -0.5262015891566836
4538000000.0 0.853286671723769 -0.5268445608402924
4541000000.0 0.8153593785851079 -0.5598983672201616
4544000000.0 0.8400617956867764 -0.5366833792247107
4547000000.0 0.8593010427685941 -0.5268355758908079
4550000000.0 0.8154348750638922 -0.5872836566944892
4553000000.0 0.8311906089215899 -0.5905092054049873
4556000000.0 0.8026968231864349 -0.5756545873246407
4559000000.0 0.814880017774825 -0.6105040132072759
4562000000.0 0.8238748097848421 -0.6019788012610215
4566000000.0 0.807141012108274 -0.5975736588519114
4569000000.0 0.7940163204007442 -0.6100365611150147
4572000000.0 0.7936766188763247 -0.6075825099503284
4575000000.0 0.7844952277123145 -0.6551427383112238
4578000000.0 0.8045018107943724 -0.6463956118541377
4581000000.0 0.7830520836935071 -0.6574744475469001
4584000000.0 0.7548268360405739 -0.6445976714808612
4588000000.0 0.8019337668939692 -0.6615824189466964
4591000000.0 0.7679579453325933 -0.645131804049718
4594000000.0 0.7399127970979532 -0.6974949412260764
4597000000.0 0.7597809061490295 -0.7078102189174126
4600000000.0 0.7183275680082116 -0.6897998963801031
4603000000.0 0.7353997720836013 -0.6831193464771237
4606000000.0 0.7532284479644614 -0.7088794835553148
4609000000.0 0.7288055558694747 -0.6985556455264235
4612000000.0 0.7067761563037142 -0.711346770844683
4616000000.0 0.6904537339327013 -0.7127104890503155
4619000000.0 0.7152830984916269 -0.7191435763125612
4622000000.0 0.703909982524332 -0.7192462387615856
4625000000.0 0.6537304601363536 -0.7286954941380789
4628000000.0 0.6873444736737859 -0.7273805589320045
4631000000.0 0.664496383062092 -0.7543666343254866
4634000000.0 0.6672578674997629 -0.7577845212582028
4638000000.0 0.6693366702101278 -0.7534873572069776
4641000000.0 0.6653334831307572 -0.7586614868873214
4644000000.0 0.6545987353287962 -0.7664478314822541
4647000000.0 0.6570418821836699 -0.7733952639866607
4650000000.0 0.6169778311130308 -0.7938242340113392
4653000000.0 0.6600806651539947 -0.7906034325542215
4656000000.0 0.6016292604431053 -0.7878400575145399
4659000000.0 0.6104559249328388 -0.8107230488150571
4662000000.0 0.6153866746312503 -0.8111642810671151
4666000000.0 0.5937855733894299 -0.825854403559744
4669000000.0 0.6185776466625594 -0.8039331671193557
4672000000.0 0.5703293480653139 -0.8499297493753858
4675000000.0 0.5686135106199723 -0.8229601891012823
4678000000.0 0.5792598482545084 -0.800041508438356
4681000000.0 0.5459121808908896 -0.8411591634125508
4684000000.0 0.5630140930884943 -0.8749594570269515
4688000000.0 0.5157357778472718 -0.8591809956819965
4691000000.0 0.5721074739414107 -0.8552878243820652
4694000000.0 0.5345060868778376 -0.8392142412522983
4697000000.0 0.4996966221501308 -0.8379399972844055
4700000000.0 0.5229808291638681 -0.8686286503512592
4703000000.0 0.5261706009899754 -0.8443504767990628
4706000000.0 0.5044467477066084 -0.8798173880988982
4709000000.0 0.4942135460544634 -0.874862740341048
4712000000.0 0.48302062022600334 -0.878772765730481
4716000000.0 0.49161989397761974 -0.8833329574175
4719000000.0 0.47834977138618395 -0.8900532463816127
4722000000.0 0.4961671843976282 -0.8968571685366773
4725000000.0 0.48389311330172396 -0.8987466003939009
4728000000.0 0.4333640032083794 -0.9028688446265241
4731000000.0 0.4921240803287013 -0.9195087988351494
4734000000.0 0.45360059583108114 -0.9177116474989361
4738000000.0 0.44670591822456485 -0.9551763840442345
4741000000.0 0.446256220490455 -0.9499759219687824
4744000000.0 0.39237071241659094 -0.9384259181054827
4747000000.0 0.40523378480848476 -0.895250639977398
4750000000.0 0.40548113760169824 -0.9364903293041599
4753000000.0 0.4205935595402989 -0.9203063709758545
4756000000.0 0.38839781278268765 -0.969109619797307
4759000000.0 0.42826710635777077 -0.9477357121651776
4762000000.0 0.3475297391675991 -0.9560290966627729
4766000000.0 0.32232264831608376 -0.9396897635876503
4769000000.0 0.35450930418856885 -0.9580103954466307
4772000000.0 0.3356078137449523 -0.955534245062351
4775000000.0 0.3417963757655452 -0.984168824957155
4778000000.0 0.342508973618927 -0.9879932139043134
4781000000.0 0.3281169340550009 -0.94010983256018
4784000000.0 0.36031342661406685 -0.937450372052553
4788000000.0 0.28358792768206886 -0.9844188867701833
4791000000.0 0.29527567669730775 -0.9628422679184859
4794000000.0 0.29615078011299084 -1.009401718470295
4797000000.0 0.29252636527391357 -0.9481810446675077
4800000000.0 0.25723475543577073 -0.9805306692988687
4803000000.0 0.2386117536941553 -0.9813704050555203
4806000000.0 0.24766943739032765 -0.981064233764557
4809000000.0 0.21813231198984165 -0.9677499895822393
4812000000.0 0.20272852657396867 -0.9852384445840987
4816000000.0 0.24147066371484022 -0.9692870206714144
4819000000.0 0.22966390049235721 -0.997119233217274
4822000000.0 0.23516559180089458 -1.03471198499898
4825000000.0 0.23201871848022176 -1.0023244502901174
4828000000.0 0.19781393442686596 -0.9846408381094253
4831000000.0 0.15585758767660882 -1.027310619263746
4834000000.0 0.18941139443201543 -1.021567870618084
4838000000.0 0.14502430542129813 -1.0343551197320913
4841000000.0 0.1457490523679485 -0.9867414664934334
4844000000.0 0.18080615957306068 -1.013181976188137
4847000000.0 0.14614761306019247 -0.9585731984879158
4850000000.0 0.12767839269022047 -1.0078422480497633
4853000000.0 0.1254735625146623 -0.9996511868589792
4856000000.0 0.13748093338435413 -1.015073673492945
4859000000.0 0.09678732659208009 -1.0592231156060126
4862000000.0 0.1244078884926163 -0.9728232274476935
4866000000.0 0.07379064294991053 -1.0324368274154503
4869000000.0 0.036400248839852885 -1.014549367725949
4872000000.0 0.06097956178439687 -1.0644482230529373
4875000000.0 0.10719135627775828 -1.0513098392147582
4878000000.0 0.03466999464437222 -1.0283977529254729
4881000000.0 0.02907012451007561 -1.057565102717063
4884000000.0 0.06827487292364477 -1.0188584936485998
4888000000.0 0.06641585386535856 -1.0196784194576534
4891000000.0 0.04584376848778418 -1.0518159236306233
4894000000.0 0.004272514136384029 -0.9812766602616152
4897000000.0 0.007804185729337668 -1.0201592779284179
4900000000.0 0.010283495247481112 -1.053930979503388
4903000000.0 0.013011484019656225 -1.0498098454820706
4906000000.0 -0.02109954120767818 -1.0345504202081466
4909000000.0 -0.04944537272408909 -1.0286485177374523
4912000000.0 -0.05154186449172106 -1.0270438450509372
4916000000.0 -0.03842108436612026 -1.0320147616485233
4919000000.0 -0.017608116744736044 -1.0464058246255385
4922000000.0 -0.015707198461698935 -1.0291926924253558
4925000000.0 -0.08135661452475612 -0.9999476890183441
4928000000.0 -0.012457848555773199 -1.0222872454335075
4931000000.0 -0.06459695147115731 -1.0370039400859694
4934000000.0 -0.05168898884442509 -0.9849383200262878
4938000000.0 -0.13181324306709058 -1.0277187292096361
4941000000.0 -0.0908303647073329 -1.0146889817969937
4944000000.0 -0.08921150847968942 -0.980342033214658
4947000000.0 -0.09755428636032795 -1.0231464197042142
4950000000.0 -0.10715230569991514 -0.9971394980166437
4953000000.0 -0.1647281153968818 -1.05442418690982
4956000000.0 -0.1298146901560676 -1.0326390837316342
4959000000.0 -0.1916039422590878 -0.9789864394975669
4962000000.0 -0.18464590240165082 -1.049762268552501
4966000000.0 -0.16295410821388323 -1.0259022516367737
4969000000.0 -0.1569775541770781 -1.074523482148117
4972000000.0 -0.21145735897570253 -1.0203451675517097
4975000000.0 -0.15613721944642575 -0.9885081768902345
4978000000.0 -0.22938980675077214 -1.013286135885936
4981000000.0 -0.22299669454072504 -0.9853460774666245
4984000000.0 -0.20467845724085446 -1.0054893890463317
4988000000.0 -0.19990671116724534 -0.9895076923802586
4991000000.0 -0.16565291346357264 -1.0396877836491276
4994000000.0 -0.2319340980235452 -1.0033196246052398
4997000000.0 -0.2667119650902682 -0.9664372262439882
5000000000.0 -0.24854806582448657 -1.0231926502691917
5003000000.0 -0.2360669543257493 -1.0132066067099508
5006000000.0 -0.2748090419182547 -1.0403112600987123
5009000000.0 -0.25649160099887636 -1.021599298308614
5012000000.0 -0.2880213164390439 -0.9832719077501519
5016000000.0 -0.272242984207453 -1.0114056847408912
5019000000.0 -0.30221277606483143 -0.9909744849062279
5022000000.0 -0.2967429820692765 -0.9921140063012872
5025000000.0 -0.3534845065644819 -1.028722063132187
5028000000.0 -0.3539352247994475 -0.9943002663357969
5031000000.0 -0.3325965686945118 -0.9651147700827648
5034000000.0 -0.36439549140022476 -0.9960700863614058
5038000000.0 -0.3432958456955346 -0.9376022836610465
5041000000.0 -0.3431195599296547 -0.9988493466296632
5044000000.0 -0.29788742472424257 -0.9679783399876579
5047000000.0 -0.3665473423462235 -0.9682169583938972
5050000000.0 -0.3177622653495439 -0.9774883959137783
5053000000.0 -0.4066280155362555 -0.9634614275203235
5056000000.0 -0.35087179541797053 -0.9923560935131224
5059000000.0 -0.3919241250132292 -0.9622211341563572
5062000000.0 -0.4371924551004942 -0.9530760497585304
5066000000.0 -0.37537446467056557 -0.97296893629649
5069000000.0 -0.42571294802924464 -0.9047975764018833
5072000000.0 -0.38398779655682735 -0.9366051025572095
5075000000.0 -0.4031668970571729 -0.9327896892710064
5078000000.0 -0.47863273087114083 -0.929136597077515
5081000000.0 -0.4456126654175145 -0.8703036829177316
5084000000.0 -0.45463729920404305 -0.9397477590892074
5088000000.0 -0.464729915299115 -0.9672277187060823
5091000000.0 -0.5264911418268339 -0.9011935260674107
5094000000.0 -0.4682333400587792 -0.9262254521212564
5097000000.0 -0.4377768289777113 -0.9630367104955442
5100000000.0 -0.4803322741577399 -0.9101290287208407
5103000000.0 -0.5454747818152442 -0.8802982784758832
5106000000.0 -0.5228040956920871 -0.9441200599066815
5109000000.0 -0.5151991430550652 -0.9482704737795973
5112000000.0 -0.5141310713253181 -0.8741388062366944
5116000000.0 -0.4980466142739104 -0.8382148206733953
5119000000.0 -0.546398155134203 -0.8726044870403231
5122000000.0 -0.49254273015782474 -0.8744615298339384
5125000000.0 -0.5107392227697585 -0.8807347254148273
5128000000.0 -0.5884182738018879 -0.8931142125879874
5131000000.0 -0.5589477185794242 -0.8547695959198047
5134000000.0 -0.5514716641047699 -0.8511050904406949
5138000000.0 -0.5302273777694378 -0.8490744099711088
5141000000.0 -0.5737752760347703 -0.891043076156584
5144000000.0 -0.5625125605254557 -0.8529700694731976
5147000000.0 -0.617822010081982 -0.8697752963780334
5150000000.0 -0.6283886305860733 -0.892095074438545
5153000000.0 -0.6296701943695693 -0.8300103981662756
5156000000.0 -0.6064111852564759 -0.840069919901278
5159000000.0 -0.6445966345319047 -0.8669061333745779
5162000000.0 -0.6572291280839649 -0.8206222152809888
5166000000.0 -0.660158397617453 -0.8407678582634549
5169000000.0 -0.6563378013411907 -0.7914349931055232
5172000000.0 -0.6052131278923526 -0.8276340004067648
5175000000.0 -0.6560951880659867 -0.85293273920495
5178000000.0 -0.6725566735727275 -0.7939020179674433
5181000000.0 -0.6574534351620833 -0.8017491344039802
5184000000.0 -0.6819648398318369 -0.7870436230053834
5188000000.0 -0.679485353752891 -0.7801312530080393
