! Created with skrf 1.8.0 (http://scikit-rf.org).
# Hz S RI R 50.0 
!freq ReS11 ImS11
4000000000.0 0.5741773726211075 0.8075597173478681
4003000000.0 0.7032966182527537 0.8869279324555274
4006000000.0 0.6854504799727671 0.7856973820379342
4009000000.0 0.6574053521781836 0.8054231922699262
4012000000.0 0.6473960784684354 0.8049822131342054
4016000000.0 0.6987933410725458 0.7910185511953831
4019000000.0 0.6455949876244034 0.8274305465226668
4022000000.0 0.6345322356573593 0.8307050642848971
4025000000.0 0.6999864235602029 0.6951010258769389
4028000000.0 0.6858760780803084 0.727077285339168
4031000000.0 0.6843405961464283 0.720232918234383
4034000000.0 0.6925106865605519 0.7147550555347129
4038000000.0 0.7120620235563864 0.712080875016094
4041000000.0 0.7283970673803501 0.7588255541141721
4044000000.0 0.743803853905181 0.7138713002887166
4047000000.0 0.7459932108086809 0.7617872216662266
4050000000.0 0.7816320054387554 0.7399615965561593
4053000000.0 0.7384435604876863 0.7047086516453638
4056000000.0 0.7655838832710412 0.6893240161200906
4059000000.0 0.7196306641911404 0.6916992589172009
4062000000.0 0.7701251495338024 0.6818378864578498
4066000000.0 0.7095671505955061 0.6087765083512964
4069000000.0 0.839683954038394 0.6844602725245316
4072000000.0 0.7597562329691043 0.7260875524033406
4075000000.0 0.7679806862996575 0.7466524381288573
4078000000.0 0.7756007710538861 0.674259592226268
4081000000.0 0.7696296452628776 0.6817741961678417
4084000000.0 0.8059360114896127 0.6434668029472184
4088000000.0 0.7774693946216269 0.6692896329531449
4091000000.0 0.8599292433318771 0.6708562085562451
4094000000.0 0.7972909602005747 0.6403894492124956
4097000000.0 0.8238662798160398 0.6153766653072672
4100000000.0 0.8555909681656734 0.5960753398196255
4103000000.0 0.8370761055067009 0.6337324716521513
4106000000.0 0.8358314275494761 0.5930756559331453
4109000000.0 0.8309817148753844 0.5900234674240896
4112000000.0 0.8093750163442281 0.6050824077162871
4116000000.0 0.8395767907902798 0.5814532414187822
4119000000.0 0.8746338727713711 0.6134903369260708
4122000000.0 0.8910908974074188 0.5534950741927823
4125000000.0 0.906193109378902 0.527392011642104
4128000000.0 0.8033087163119165 0.5311521463319328
4131000000.0 0.8198651401142728 0.5435099667840039
4134000000.0 0.8686057130675952 0.5543230591671493
4138000000.0 0.8547831817736438 0.494536549342561
4141000000.0 0.8768186203997695 0.5008033321341062
4144000000.0 0.883926943975757 0.536156529022314
4147000000.0 0.9115793380541029 0.45801403215844866
4150000000.0 0.9254022402307781 0.5229886398064933
4153000000.0 0.8743226175016267 0.49488137022921197
4156000000.0 0.9233037030357583 0.5033633286819815
4159000000.0 0.8881149210202584 0.4966237682801466
4162000000.0 0.8964874117783559 0.4481275491285347
4166000000.0 0.9473276798864887 0.4553186875815488
4169000000.0 0.9081393606584628 0.4509423168894686
4172000000.0 0.9268131765891976 0.45792882413971364
4175000000.0 0.9250037536536344 0.44082400756493584
4178000000.0 0.9427001604831646 0.43708167314091795
4181000000.0 0.9264989792339324 0.4325285339792594
4184000000.0 0.9162143255239441 0.41453114143269393
4188000000.0 0.9486399086321242 0.3967304609869938
4191000000.0 0.9124047317552334 0.4309180776253409
4194000000.0 0.9343684694124192 0.3933552902878209
4197000000.0 0.9430808772162305 0.38519348242412693
4200000000.0 0.9316091592175504 0.4091472584424988
4203000000.0 0.9465190486546541 0.38217420819394854
4206000000.0 0.9570164335200269 0.36975772427628667
4209000000.0 0.9263656907652666 0.3545539860945976
4212000000.0 0.9536878113927681 0.3439602956308808
4216000000.0 0.9433495971699761 0.3716855164899539
4219000000.0 0.971131451585489 0.3453676740436893
4222000000.0 0.94007565937185 0.3162073261945955
4225000000.0 0.9469369848925111 0.3279172308442668
4228000000.0 0.9819234523790552 0.31017330295044454
4231000000.0 0.9779046456189585 0.3030623117257667
4234000000.0 0.9908478878447914 0.31568632739451746
4238000000.0 0.9776577513916445 0.25414929897133076
4241000000.0 0.9618687916423314 0.2643111456770678
4244000000.0 0.9997229391585348 0.27139824678451013
4247000000.0 0.9818857657221524 0.2614724106546962
4250000000.0 0.9804491488502558 0.24731118612122488
4253000000.0 0.9578578509358833 0.2365827258226978
4256000000.0 1.002125760323731 0.2381688415897446
4259000000.0 0.9515625240672423 0.22879028813775484
4262000000.0 0.9968003458641634 0.19750190413805677
4266000000.0 1.0081096808124672 0.1898412463211756
4269000000.0 0.9959912755534375 0.22135127767696997
4272000000.0 0.987159286721137 0.19004440221563462
4275000000.0 0.9704785034103933 0.1894584453673061
4278000000.0 1.023960179587772 0.1901757219523995
4281000000.0 1.000992493605202 0.1765419903846278
4284000000.0 1.0074204340935875 0.14505922887532474
4288000000.0 1.001926615474287 0.1737870453123503
4291000000.0 1.017254538735784 0.14048841132739553
4294000000.0 0.987487914605757 0.1421766414270348
4297000000.0 0.9740513215363606 0.16215763087473034
4300000000.0 0.9928326037538742 0.13436520982501612
4303000000.0 0.9976765209062455 0.09726020203537163
4306000000.0 1.0216794110042298 0.14501032741619285
4309000000.0 0.9866611635815755 0.0998078820481386
4312000000.0 1.037967315391192 0.12484061920746264
4316000000.0 1.015146180601866 0.07908138594520452
4319000000.0 0.9881741776277317 0.08000316590281233
4322000000.0 0.983255439422663 0.03047838701834936
4325000000.0 1.0210835022775682 0.07682506992140146
4328000000.0 1.0137987609373489 0.04187207571681713
4331000000.0 1.0047353901529454 0.014760528706853376
4334000000.0 1.0094719392966602 0.02306816939837303
4338000000.0 0.9995249796169599 0.035844412800377826
4341000000.0 1.0425760368185004 0.04397665634681436
4344000000.0 1.0468306434375734 -0.0023894652493337
4347000000.0 1.0148150151488047 -0.011504380913031104
4350000000.0 0.9745328071630439 -0.03815116323728057
4353000000.0 0.9844737122233389 0.012658159944076125
4356000000.0 0.9957443291731963 -0.05512280764315894
4359000000.0 0.94432847458407 -0.03246257499671312
4362000000.0 1.0190292298616763 -0.08210423531446681
4366000000.0 1.0289899055948923 -0.044456834682238155
4369000000.0 0.9890136960993625 -0.06202071823134797
4372000000.0 1.005172435441176 -0.11722521465832098
4375000000.0 1.0094080555278298 -0.07035561288659668
4378000000.0 0.9858463770269824 -0.059093955951624005
4381000000.0 0.9980060389021794 -0.09083713808854262
4384000000.0 1.0424956999332826 -0.11777385096511288
4388000000.0 0.9972777641485008 -0.12007073397972128
4391000000.0 0.9984298433891998 -0.11558776544920953
4394000000.0 0.967473121626901 -0.13413809511951436
4397000000.0 0.9766004965598531 -0.14864154789844683
4400000000.0 1.03879873565883 -0.1578620562939278
4403000000.0 1.0036839692895607 -0.1704622055003313
4406000000.0 0.988859692581916 -0.18533830328761144
4409000000.0 1.019224822752257 -0.20333269373947782
4412000000.0 0.971676567436957 -0.2367433313559933
4416000000.0 0.9756082893245137 -0.20611647638875974
4419000000.0 0.9687883140868863 -0.232279009252012
4422000000.0 0.9835462669548518 -0.18466908186032935
4425000000.0 1.0164334662019432 -0.21390583451912423
4428000000.0 0.9762729694978941 -0.25190390565276916
4431000000.0 1.0014804768266008 -0.2252244442854753
4434000000.0 0.9727463362678527 -0.2532745410205182
4438000000.0 0.9978813294644684 -0.252343087260029
4441000000.0 0.9905197618322847 -0.27945600634457285
4444000000.0 0.9503174379395163 -0.2666172800717683
4447000000.0 0.9625119735408464 -0.299597749122964
4450000000.0 0.9632452420688681 -0.26916734451493085
4453000000.0 0.9800293938684705 -0.30938759242983016
4456000000.0 0.931688797779196 -0.3132032822071421
4459000000.0 0.9062275759730822 -0.33780730088051103
4462000000.0 1.0020202644020448 -0.3453977865022359
4466000000.0 0.9870770695922276 -0.3471052623215555
4469000000.0 0.953640568407806 -0.324141346604521
4472000000.0 0.961587677235411 -0.37519343960521595
4475000000.0 0.9165928624615143 -0.3456853100154952
4478000000.0 0.9723503381129194 -0.40839582490903403
4481000000.0 0.8930389641026137 -0.3750279458247774
4484000000.0 0.9105447611033992 -0.41843021944020153
4488000000.0 0.9093105168931898 -0.39348636246832863
4491000000.0 0.9197750112207803 -0.4013984301313714
4494000000.0 0.902038794762756 -0.40666529215579933
4497000000.0 0.9048508855203112 -0.39765430431154153
4500000000.0 0.8998740805273429 -0.4285110051507358
4503000000.0 0.9314165378551416 -0.4411603188499578
4506000000.0 0.9016210072323914 -0.4360369244543406
4509000000.0 0.8778232830357537 -0.4402853739216933
4512000000.0 0.8852436965396367 -0.4654765851618605
4516000000.0 0.9023112715844748 -0.4811377255036876
4519000000.0 0.8763148924567044 -0.46061281317438757
4522000000.0 0.8795890579745049 -0.47632511608507366
4525000000.0 0.8815732675592167 -0.4586413836634415
4528000000.0 0.9140482564712034 -0.5002205716263238
4531000000.0 0.879879649932406 -0.4829479983669489
4534000000.0 0.8440056772852504 -0.4883040176632768
4538000000.0 0.8513628743235475 -0.5167098747555968
4541000000.0 0.8186490686380583 -0.5415433130977659
4544000000.0 0.8376295378430962 -0.5191235282408247
4547000000.0 0.8524528925411902 -0.4978814608761531
4550000000.0 0.8453241577049144 -0.5815878278621046
4553000000.0 0.826903484786379 -0.5748736872877056
4556000000.0 0.7999277648588565 -0.5628370981257615
4559000000.0 0.8216054021650636 -0.5820383530082096
4562000000.0 0.8314433119461806 -0.5873003311755614
4566000000.0 0.817857013482634 -0.5852686328141681
4569000000.0 0.7913749536690597 -0.5724792679538466
4572000000.0 0.8152760437904695 -0.597870039286748
4575000000.0 0.7908149524124666 -0.6264877285890239
4578000000.0 0.8282368579108694 -0.6187452783310059
4581000000.0 0.7994155653871424 -0.6231183770998421
4584000000.0 0.7545474137840108 -0.6347721208690967
4588000000.0 0.7980113077202432 -0.6253911744413573
4591000000.0 0.7788191833122368 -0.6223055757718986
4594000000.0 0.7519428486343518 -0.6637541856949483
4597000000.0 0.7667771059675357 -0.6694511991472588
4600000000.0 0.7433116700032727 -0.6847008158721685
4603000000.0 0.7567407530576488 -0.6971789416938249
4606000000.0 0.7318944832721659 -0.6820668569869192
4609000000.0 0.7373949932472132 -0.6772500100123838
4612000000.0 0.7493764304189295 -0.6977465576916252
4616000000.0 0.7187828374558183 -0.6887422943331964
4619000000.0 0.7261020476746457 -0.6993265670508685
4622000000.0 0.7010833223326539 -0.7136411073764676
4625000000.0 0.6689476730750002 -0.7146683603492713
4628000000.0 0.695285540258966 -0.7021473701082545
4631000000.0 0.6744956845085033 -0.7182108656918351
4634000000.0 0.6854722100906125 -0.7252711277009289
4638000000.0 0.6920777375771582 -0.7268060454969035
4641000000.0 0.6852496601734722 -0.7370372426818794
4644000000.0 0.6780798477028825 -0.7550656390698629
4647000000.0 0.6733758119606105 -0.7530710480778728
4650000000.0 0.6475687142808249 -0.7617776025295397
4653000000.0 0.6657252452207358 -0.7722863747400168
4656000000.0 0.6342124945806722 -0.7736911884354396
4659000000.0 0.6313488818282943 -0.7806450645749613
4662000000.0 0.626856862205775 -0.7923008134035375
4666000000.0 0.6210315819314525 -0.7898643728038555
4669000000.0 0.6291378013528681 -0.8052461458144247
4672000000.0 0.6015660846825638 -0.8316830210471378
4675000000.0 0.5888092708887046 -0.8559863493019432
4678000000.0 0.5864550694312873 -0.8085525231668982
4681000000.0 0.5570291228550507 -0.8565392599583621
4684000000.0 0.5672702128214209 -0.8340889106251222
4688000000.0 0.552881719829993 -0.8292443478686901
4691000000.0 0.5898700371906085 -0.8531470674576178
4694000000.0 0.5667476685519364 -0.8388458853324565
4697000000.0 0.5146307142229186 -0.8252129955626921
4700000000.0 0.5486274125888766 -0.8337688165716903
4703000000.0 0.5500435669955495 -0.8357777610377186
4706000000.0 0.5222479955957245 -0.8532284551956083
4709000000.0 0.5102556057813552 -0.8587189099499385
4712000000.0 0.518864590165015 -0.8609094294324896
4716000000.0 0.4926606009834231 -0.8802867883768306
4719000000.0 0.5108234981155972 -0.8722329976245724
4722000000.0 0.5151246346728744 -0.8786703214801372
4725000000.0 0.5044154204997648 -0.8863495514964925
4728000000.0 0.4857382411686548 -0.9053717851100218
4731000000.0 0.48956534151749787 -0.9290139787339811
4734000000.0 0.493800292730166 -0.8771065826552182
4738000000.0 0.48712012717896774 -0.9151627429074303
4741000000.0 0.4435952093724958 -0.9478838029907067
4744000000.0 0.4360246411849067 -0.9440545292177908
4747000000.0 0.4364249099400137 -0.8768437546333054
4750000000.0 0.4194564419394975 -0.922122562228234
4753000000.0 0.4354917749039027 -0.9177268988056619
4756000000.0 0.39778355806855087 -0.9640173127364144
4759000000.0 0.41577121210088597 -0.9244589161280029
4762000000.0 0.372433975808382 -0.9753684032307119
4766000000.0 0.4010330376904847 -0.9595852602786851
4769000000.0 0.3695888137606951 -0.9379426346469668
4772000000.0 0.35215741013919843 -0.9518409589974601
4775000000.0 0.35749720418307734 -1.0034348198778786
4778000000.0 0.3664298421107662 -0.9531586765132284
4781000000.0 0.3558667290830363 -0.92656721232832
4784000000.0 0.35305824089517546 -0.9486443906750642
4788000000.0 0.30902544225090595 -0.9597635994289642
4791000000.0 0.3264672994703725 -0.9688231062300737
4794000000.0 0.36331576671302585 -0.9910389574057787
4797000000.0 0.3139325661917688 -0.9520398541566396
4800000000.0 0.2850718096689276 -0.9690567175182487
4803000000.0 0.2434446332644273 -0.9686819054266751
4806000000.0 0.27861132516437026 -1.0147498230629364
4809000000.0 0.23605991095750464 -1.0051812739067465
4812000000.0 0.20664632232016372 -0.9909999458787024
4816000000.0 0.2727052238873907 -0.9589250223552201
4819000000.0 0.2731879445606564 -1.0235372286293576
4822000000.0 0.2647279213380454 -1.0221580497545664
4825000000.0 0.26719312770314274 -1.0154509621704995
4828000000.0 0.21111648328364896 -0.969221657852842
4831000000.0 0.19474195218280965 -1.024339211963691
4834000000.0 0.23312637370396092 -0.9947689099298282
4838000000.0 0.19778698348674983 -1.0199205038546861
4841000000.0 0.1800935753395174 -0.9880169307833523
4844000000.0 0.22290318529591374 -0.9815453358635665
4847000000.0 0.19304177565189837 -0.9783017912731817
4850000000.0 0.1514493484829867 -1.0362643692566056
4853000000.0 0.16922591130503767 -1.0024382828357732
4856000000.0 0.13764245517604762 -0.9984302151149606
4859000000.0 0.12282656331987715 -1.04701126245218
4862000000.0 0.1625543692137281 -0.988197076130022
4866000000.0 0.11667923527372545 -1.0300860808918144
4869000000.0 0.09906589836866185 -1.019296803668074
4872000000.0 0.08638390858927962 -1.0596383297721776
4875000000.0 0.14779860878198875 -1.0401696049186553
4878000000.0 0.07781202952558383 -1.0374210221301419
4881000000.0 0.05790236456599246 -1.0678400510650419
4884000000.0 0.09474268116114436 -1.0252494609562504
4888000000.0 0.08853819065064879 -1.0226927243637007
4891000000.0 0.07639658777011774 -1.0346438500897466
4894000000.0 0.03482077005599743 -1.0212476280429497
4897000000.0 0.05915757325571912 -1.010374568232905
4900000000.0 0.027830728644011468 -1.039759144557859
4903000000.0 0.04935089339490365 -1.0420019709886934
4906000000.0 -0.016638734295181888 -1.0445888499679563
4909000000.0 0.03850507906042723 -1.0278131972575393
4912000000.0 0.009991427847803092 -1.0575487826584273
4916000000.0 0.015385284782996028 -1.0833166178541764
4919000000.0 0.003944732298635081 -1.056366642453222
4922000000.0 0.004838855803321523 -1.0313160882603933
4925000000.0 -0.04967747462012376 -1.0186835478752811
4928000000.0 -0.005132742317256453 -1.0242725999082638
4931000000.0 -0.027327839729358108 -1.0347178130884134
4934000000.0 -0.07039880704444283 -0.9971420764218394
4938000000.0 -0.1074156841768538 -1.015792996836056
4941000000.0 -0.06409031668179994 -0.9977439071039742
4944000000.0 -0.05206950367358329 -0.9602007944508133
4947000000.0 -0.10326183286208937 -0.9901779217569342
4950000000.0 -0.1132823766481957 -0.9963126180514952
4953000000.0 -0.13474404472970908 -1.0777487148348488
4956000000.0 -0.14929759327034048 -0.9933824178995811
4959000000.0 -0.1599300743678935 -0.9606869923485648
4962000000.0 -0.1257221309435931 -1.0482361828809812
4966000000.0 -0.1150239130337744 -1.0352790524047666
4969000000.0 -0.10263990275822743 -1.0342203035585542
4972000000.0 -0.16776892685383568 -1.0187667874036848
4975000000.0 -0.12606672548846673 -1.001802116787179
4978000000.0 -0.19956979661306684 -1.0160557240985848
4981000000.0 -0.2081729243480753 -0.9955747411697264
4984000000.0 -0.16585934004917205 -0.9826555045181591
4988000000.0 -0.1818098271738447 -1.0243355082503123
4991000000.0 -0.1442771372898491 -1.0238550068625543
4994000000.0 -0.2099284384660518 -1.0169622321538243
4997000000.0 -0.2246021048648903 -1.0306579003123086
5000000000.0 -0.2408965719214778 -1.0389535633515874
5003000000.0 -0.24678454966401508 -1.0345875025982023
5006000000.0 -0.23480373779202943 -1.0584631418807315
5009000000.0 -0.24220051278341378 -0.9712533338465404
5012000000.0 -0.269382663869926 -0.9781953626626383
5016000000.0 -0.23770313196089182 -1.0499800384080986
5019000000.0 -0.26559234547925464 -0.9987630434605415
5022000000.0 -0.2826430150396597 -0.9949351360128511
5025000000.0 -0.30154370193786756 -1.05464075809855
5028000000.0 -0.3376032987188974 -0.9905326216434265
5031000000.0 -0.3205262791430893 -0.9860959322650867
5034000000.0 -0.3525440096605217 -1.0126366874707269
5038000000.0 -0.3186796738276393 -0.937972203485538
5041000000.0 -0.29586538685990704 -1.00493393696518
5044000000.0 -0.2708360225561415 -0.9817365319147017
5047000000.0 -0.3440521679965676 -0.9933238299303829
5050000000.0 -0.23915581999449634 -0.995753294066029
5053000000.0 -0.37664960827532146 -1.0322649223513451
5056000000.0 -0.3456297195596413 -0.9717738301599868
5059000000.0 -0.3295384996305662 -0.9889362508951015
5062000000.0 -0.39716063295531345 -0.9579456416270977
5066000000.0 -0.35869102211438797 -0.9813854966470861
5069000000.0 -0.3947488709938253 -0.9914698515747248
5072000000.0 -0.3841374189175124 -0.9231556254357107
5075000000.0 -0.3839464659821963 -0.9744477468805686
5078000000.0 -0.4521558019090938 -0.9522688584705963
5081000000.0 -0.4081781460287018 -0.8803904736153246
5084000000.0 -0.42302389375853267 -0.9522084083251641
5088000000.0 -0.4113497900845993 -0.9353775603581558
5091000000.0 -0.4926787487120568 -0.9135645441341209
5094000000.0 -0.5003730540949418 -0.93348637614128
5097000000.0 -0.4377959661900557 -0.942047398630308
5100000000.0 -0.45187513527001966 -0.9275007313295603
5103000000.0 -0.5087498308820225 -0.9047549307279176
5106000000.0 -0.4520246112090234 -0.9295772748664917
5109000000.0 -0.45148779897898594 -0.9142236382340656
5112000000.0 -0.48631001417754105 -0.8561915098584576
5116000000.0 -0.4961661243639291 -0.8554174787741742
5119000000.0 -0.5421099071946728 -0.9011278751684935
5122000000.0 -0.5046755502221876 -0.8981283829461009
5125000000.0 -0.49451898767961155 -0.892742810493458
5128000000.0 -0.5533128873294856 -0.8838753838041205
5131000000.0 -0.543403977109438 -0.8760147113205378
5134000000.0 -0.5519994167007346 -0.8796103273470931
5138000000.0 -0.5264961386427188 -0.8948281212574055
5141000000.0 -0.5005753361050351 -0.8973801719623558
5144000000.0 -0.5290884076329265 -0.8992158576529958
5147000000.0 -0.5759275481894733 -0.8529360320752544
5150000000.0 -0.5735719330357552 -0.8667452488995123
5153000000.0 -0.5882888528771828 -0.838101931155502
5156000000.0 -0.5493442129624678 -0.8782369764202914
5159000000.0 -0.5873402840244183 -0.895880690971245
5162000000.0 -0.6144639070391692 -0.8227728971790788
5166000000.0 -0.6446393427116123 -0.8448490366473531
5169000000.0 -0.6427090249378475 -0.8309311679867744
5172000000.0 -0.6184639057059359 -0.8235178734803039
5175000000.0 -0.6309815703922564 -0.8649163172153042
5178000000.0 -0.6538351811876324 -0.82263490023001
5181000000.0 -0.6342855374206533 -0.8396602731067437
5184000000.0 -0.6445678855665694 -0.8039518737353992
5188000000.0 -0.6466426114455384 -0.7877052870009771
5191000000.0 -0.6545084974208176 -0.7857092338564143
