! Created with skrf 1.8.0 (http://scikit-rf.org).
# Hz S RI R 50.0 
!freq ReS11 ImS11
4000000000.0 0.6652123845571779 0.7396287247309528
4003000000.0 0.693891780931148 0.8204489626250162
4006000000.0 0.7032224400532375 0.735042883996762
4009000000.0 0.6490987999094077 0.7608099848191677
4012000000.0 0.6499731149334138 0.807340571378849
4016000000.0 0.7488052785219236 0.8047341868589828
4019000000.0 0.7264172599150682 0.7637355462052744
4022000000.0 0.636833733630026 0.7837579585007706
4025000000.0 0.7874097813671513 0.6910204250692845
4028000000.0 0.7718776163426213 0.7265554562770749
4031000000.0 0.7230275543597395 0.6616547938805801
4034000000.0 0.7272865751383503 0.7101119561589406
4038000000.0 0.7940416886709345 0.6770270689912612
4041000000.0 0.7550121768954625 0.699069937859367
4044000000.0 0.790267893673268 0.7076553312916903
4047000000.0 0.7748948711969361 0.7208836519215355
4050000000.0 0.8134527680035052 0.6980536756625519
4053000000.0 0.790510096614717 0.64506071128631
4056000000.0 0.8150917947379284 0.6806039592791945
4059000000.0 0.7681568186488672 0.6363138190903355
4062000000.0 0.8156171489100799 0.6419962908573396
4066000000.0 0.7886216394295131 0.6352995606822002
4069000000.0 0.836102223947966 0.6367583897520971
4072000000.0 0.7929894364494366 0.6939500586663756
4075000000.0 0.8281692229802387 0.6963412244813578
4078000000.0 0.8421237885208667 0.6205890468690088
4081000000.0 0.8165202053216327 0.6503788289548805
4084000000.0 0.8652997204293238 0.6251778340097731
4088000000.0 0.796268233639094 0.6139895660339862
4091000000.0 0.871406039665843 0.6252123263766667
4094000000.0 0.8605742160688606 0.6014523788729997
4097000000.0 0.8376456212093255 0.5789548942640916
4100000000.0 0.8770722384050307 0.5777449279336757
4103000000.0 0.864826649446101 0.6131321310326072
4106000000.0 0.8724453121593846 0.5636188581560524
4109000000.0 0.8754498420945802 0.5376064756309542
4112000000.0 0.8553268015032218 0.49869505568746314
4116000000.0 0.875298229978385 0.5810229250393509
4119000000.0 0.8890090165499949 0.540714599389731
4122000000.0 0.9225387156411614 0.4957152879375928
4125000000.0 0.9333575243931765 0.49017597614312886
4128000000.0 0.8491755665330208 0.5259446494032497
4131000000.0 0.9159957949281685 0.5017969470690594
4134000000.0 0.89422070907867 0.5462634383443641
4138000000.0 0.8667509779542584 0.46915970620513897
4141000000.0 0.9098868781601787 0.46414748645739556
4144000000.0 0.9454805692277308 0.5197202219498946
4147000000.0 0.8969728286948646 0.4494215135318586
4150000000.0 0.9379243026269442 0.4946310200652578
4153000000.0 0.9070348887140843 0.4743369579730311
4156000000.0 0.9272199135456749 0.458220389166059
4159000000.0 0.9172692111425791 0.4432401922926011
4162000000.0 0.9517457310220718 0.4479767345656098
4166000000.0 0.9432515092407792 0.4438036679412197
4169000000.0 0.9434421688482723 0.4242871432787325
4172000000.0 0.9495719441773174 0.4319357799026116
4175000000.0 0.9506406762085646 0.4136340411971349
4178000000.0 0.9617915946475931 0.39902002201400255
4181000000.0 0.965847370616493 0.37978615643719427
4184000000.0 0.9524512168235482 0.3771789962015551
4188000000.0 0.9647461390463741 0.36534481860242873
4191000000.0 0.936041332897476 0.3778046265158361
4194000000.0 0.9798659627281554 0.33622177630531247
4197000000.0 0.9712263271995899 0.3727876908808235
4200000000.0 0.9783471750976092 0.3452317020837311
4203000000.0 0.9766188580238662 0.36462142359757854
4206000000.0 0.9860297172882148 0.33083370605336987
4209000000.0 0.9575708591017703 0.3236839590488311
4212000000.0 0.9797158620765068 0.2717684853643346
4216000000.0 0.9852185317941007 0.3200301469493931
4219000000.0 0.9791218425646819 0.29580434264148425
4222000000.0 0.9902794508640456 0.26825595206190345
4225000000.0 0.9899040455328587 0.27875964504385053
4228000000.0 0.9954563216124139 0.2647641586796141
4231000000.0 0.9813553577477887 0.24745641425892256
4234000000.0 1.0021925763208621 0.23967207590089978
4238000000.0 0.9840262269077187 0.20934746645530353
4241000000.0 1.0001880392400864 0.21404721777907793
4244000000.0 0.9935627134797704 0.2131245563967447
4247000000.0 1.0131753690635945 0.21607711602930313
4250000000.0 0.9967493807008787 0.1867876771248984
4253000000.0 0.968017806407635 0.1687315149122094
4256000000.0 1.0267180617470981 0.1993339559244926
4259000000.0 0.9827888633728487 0.16484046714501685
4262000000.0 1.010974387888756 0.13455599985918162
4266000000.0 1.0310096419089931 0.1268679539777104
4269000000.0 1.007443393043146 0.17124271502732172
4272000000.0 1.0057493020526658 0.12594707268467517
4275000000.0 1.0077515901000595 0.11744940095930637
4278000000.0 1.0282989787109007 0.14618650592236046
4281000000.0 1.0061355900971272 0.1322308270171207
4284000000.0 1.0267281724662394 0.06410424237548581
4288000000.0 1.020962198817498 0.1188729638741087
4291000000.0 0.9869122195360145 0.08930688897146115
4294000000.0 1.0031384397981928 0.09782493886317427
4297000000.0 1.0179221083262102 0.0909247326109641
4300000000.0 1.012272624605941 0.07671948422890451
4303000000.0 1.025249844238253 0.05600925846607367
4306000000.0 1.0370194752751534 0.07070489008889702
4309000000.0 1.002834603407109 0.04890899673735212
4312000000.0 1.0216936819800742 0.06556329140233993
4316000000.0 1.0316376838222987 0.02319825201082082
4319000000.0 0.99926308417429 0.018701314233745728
4322000000.0 1.0104763047850749 -0.019505143963075122
4325000000.0 1.0009258724646837 0.013174949162044938
4328000000.0 0.9898683159077222 -0.028587893182506305
4331000000.0 1.0055698655576213 -0.058129349295185456
4334000000.0 1.031196783465841 -0.02256416481369894
4338000000.0 1.0150762826081068 -0.0413026787050277
4341000000.0 1.0380835903191363 -0.03453597445642437
4344000000.0 1.0317380797473499 -0.05174112744530114
4347000000.0 1.0164361939678055 -0.1008187017428178
4350000000.0 0.9789664844450537 -0.08776871950196952
4353000000.0 1.0190941891669245 -0.061770349596056776
4356000000.0 0.9935821596743676 -0.12387697046672491
4359000000.0 0.9495402569889535 -0.1163012694206156
4362000000.0 0.9983568303661219 -0.16575745505897363
4366000000.0 1.0186805540961206 -0.12118626994010157
4369000000.0 0.9788656124872627 -0.1266024314613013
4372000000.0 0.9785808282928743 -0.17839730583317673
4375000000.0 0.9907862229145135 -0.1328264238071725
4378000000.0 0.9975729824944713 -0.15342808356524146
4381000000.0 0.9974674210591905 -0.16020072936265656
4384000000.0 1.0537537155605894 -0.19648926060349048
4388000000.0 0.984729589742985 -0.1645165520335452
4391000000.0 1.0196278186907333 -0.18483154371906774
4394000000.0 0.9677874504306146 -0.21652987827729012
4397000000.0 0.9814098258074586 -0.2147300119111249
4400000000.0 1.0088510975920324 -0.2373329835890643
4403000000.0 0.9931704724413432 -0.24459502503038294
4406000000.0 0.9746542960866702 -0.2525747797925434
4409000000.0 1.0006601783892013 -0.2636650577836568
4412000000.0 0.957383000291956 -0.30458056626929497
4416000000.0 0.9653706616159541 -0.2852227473966543
4419000000.0 0.9633864838810513 -0.30041620877762926
4422000000.0 0.9592177950664131 -0.2594255275547597
4425000000.0 0.9960530144711198 -0.26862689934453104
4428000000.0 0.9647602670948248 -0.31191219311448204
4431000000.0 0.9924111821768964 -0.31087745685131185
4434000000.0 0.9558348960556298 -0.30741066849402277
4438000000.0 0.971728516223969 -0.3266116573973892
4441000000.0 0.9809414977514748 -0.32644676799168515
4444000000.0 0.938486223210959 -0.31850861621043386
4447000000.0 0.9406338335153921 -0.3578486782560694
4450000000.0 0.930227085943706 -0.33343328226416236
4453000000.0 0.9738498926277388 -0.3824803032435454
4456000000.0 0.9154054813827728 -0.37939117306291925
4459000000.0 0.8879033232249205 -0.38665451036348364
4462000000.0 0.982251863630921 -0.4161556497660044
4466000000.0 0.9584514938912991 -0.42060678501815985
4469000000.0 0.9354084131016974 -0.39612140551188935
4472000000.0 0.9324434672005689 -0.4515350490631189
4475000000.0 0.9021540964811319 -0.41389975245663946
4478000000.0 0.9375621843980365 -0.47394015028473013
4481000000.0 0.893029070287846 -0.46171033623755914
4484000000.0 0.8887200902805543 -0.5017867960884712
4488000000.0 0.874690170159052 -0.47314662559679393
4491000000.0 0.8981439645456216 -0.4475554573680562
4494000000.0 0.8709529723612194 -0.46203781730507865
4497000000.0 0.8957783568527544 -0.4569961724510599
4500000000.0 0.8726350823603954 -0.48965401175995066
4503000000.0 0.8993705127912843 -0.5011522248784905
4506000000.0 0.8498312158745855 -0.5001272836940712
4509000000.0 0.8741521416185223 -0.5012982954259517
4512000000.0 0.8549271130145484 -0.5278672885940788
4516000000.0 0.8823324805782293 -0.5301087024872013
4519000000.0 0.8433822887202991 -0.5301283844378621
4522000000.0 0.8406872740808642 -0.5387305854648047
4525000000.0 0.8657953019373783 -0.5239857544005767
4528000000.0 0.8548388239835285 -0.576515810819995
4531000000.0 0.855923948638494 -0.5543782622074309
4534000000.0 0.8106842247415339 -0.5633933662189411
4538000000.0 0.808302728037851 -0.5687274670412289
4541000000.0 0.7775749884057167 -0.6225281380002966
4544000000.0 0.811163653512732 -0.5927489814766519
4547000000.0 0.8051310719600104 -0.5914835922290349
4550000000.0 0.7959816608246724 -0.6404833162797481
4553000000.0 0.7982298412654587 -0.6260763292168294
4556000000.0 0.767179844717176 -0.6250721047667612
4559000000.0 0.7807230189459264 -0.6431628673387451
4562000000.0 0.7842573530795318 -0.6432515600408995
4566000000.0 0.7665981369052077 -0.6678358631456909
4569000000.0 0.7530663902653721 -0.6663859451056608
4572000000.0 0.7593063986156189 -0.6664606217091528
4575000000.0 0.753785536520077 -0.6868168699938291
4578000000.0 0.7672824731057677 -0.6926992905641238
4581000000.0 0.73514874164715 -0.6862726390493701
4584000000.0 0.7351869941777063 -0.6859748125224499
4588000000.0 0.7560561729217655 -0.705396122732781
4591000000.0 0.7334407107349183 -0.6939192426497108
4594000000.0 0.6940544033889322 -0.7066831469866965
4597000000.0 0.7114713576913143 -0.7267212306300207
4600000000.0 0.6789053126964926 -0.7315805465364111
4603000000.0 0.7050602742938347 -0.7362684940345554
4606000000.0 0.7090762135987625 -0.7368202784082231
4609000000.0 0.6873989655849734 -0.7464835322304317
4612000000.0 0.6876669054156208 -0.7488776314321461
4616000000.0 0.6741364176227242 -0.7485623166493316
4619000000.0 0.6613544243593404 -0.759262628472915
4622000000.0 0.6398147761272821 -0.7713119826643999
4625000000.0 0.6205266887476478 -0.7778164915097912
4628000000.0 0.6803225149496568 -0.7708624721579608
4631000000.0 0.605176005263862 -0.7874890283939328
4634000000.0 0.6293037465917461 -0.7892674301422797
4638000000.0 0.6271657392197073 -0.7967451063489838
4641000000.0 0.6271802990152879 -0.8036233401631925
4644000000.0 0.6113078897919845 -0.7962747652516972
4647000000.0 0.5959189143643085 -0.8126845472986081
4650000000.0 0.5808757175550575 -0.820270831273548
4653000000.0 0.6126580999511626 -0.8342371282622963
4656000000.0 0.5763136953449564 -0.8445358134018164
4659000000.0 0.5747092445839094 -0.8352185230025548
4662000000.0 0.5662070003521678 -0.8388690175614609
4666000000.0 0.5636050708595641 -0.8456839636881269
4669000000.0 0.5640823421302141 -0.8561709622320471
4672000000.0 0.5492173649492437 -0.8782197084177628
4675000000.0 0.5101905551386678 -0.8793613564354316
4678000000.0 0.5077168611763385 -0.8520774337659688
4681000000.0 0.5042653007998261 -0.9013778169901943
4684000000.0 0.5078353638119382 -0.912975311906285
4688000000.0 0.4920715546542044 -0.9070340268079388
4691000000.0 0.5266504608179059 -0.9060226791893153
4694000000.0 0.4970765714252865 -0.8736975655130019
4697000000.0 0.4503834101052955 -0.8568458343472003
4700000000.0 0.4718401731087939 -0.8923953466360068
4703000000.0 0.468474302775351 -0.8699915585716049
4706000000.0 0.453946945387946 -0.9068184078436651
4709000000.0 0.4204676422916328 -0.905751755037323
4712000000.0 0.42435089118504743 -0.9224316720639216
4716000000.0 0.45693467328089366 -0.9374133583252922
4719000000.0 0.45963863672862904 -0.9410598954294086
4722000000.0 0.43584147442464827 -0.9175906160355884
4725000000.0 0.4291947133051943 -0.95171034524541
4728000000.0 0.3864891364577335 -0.9381109951243596
4731000000.0 0.403709728157723 -0.9674852359661195
4734000000.0 0.4303778876475438 -0.9249048449862152
4738000000.0 0.42166089709349697 -0.9762130718310185
4741000000.0 0.3783006580315242 -0.970482887763204
4744000000.0 0.3524315096393677 -0.9806331171992472
4747000000.0 0.374818910080251 -0.9324998783272378
4750000000.0 0.3558309759055365 -0.9797735227615502
4753000000.0 0.3858404979858907 -0.9518576317777476
4756000000.0 0.3459727661527572 -0.9793253532652413
4759000000.0 0.3510879138668713 -1.003642891155207
4762000000.0 0.288944962321517 -1.0145415878520887
4766000000.0 0.28909521691202983 -0.9654184068067423
4769000000.0 0.2992987807749708 -0.977874068459153
4772000000.0 0.27790494539045985 -1.0042668980548228
4775000000.0 0.27783690507677894 -1.0610234435455315
4778000000.0 0.2443898706951088 -0.9861087729057642
4781000000.0 0.264053532531834 -0.992462799981213
4784000000.0 0.26562540702635384 -0.9722077709338325
4788000000.0 0.24254370659121732 -1.016254229096015
4791000000.0 0.23954701300501266 -1.0265112759494432
4794000000.0 0.23761495823782286 -1.0394061331058975
4797000000.0 0.20824145954767137 -0.9978129290081247
4800000000.0 0.18872804411374292 -0.9739104461115196
4803000000.0 0.16264511664999926 -1.0080141076326392
4806000000.0 0.19850364073482782 -1.029455359349134
4809000000.0 0.12367112247699781 -1.0168528458855335
4812000000.0 0.1617011189204002 -1.0106489716845288
4816000000.0 0.19857378324097125 -1.0062065957836934
4819000000.0 0.18407514849942427 -1.0197405960259718
4822000000.0 0.17988002815782336 -1.0589152762515022
4825000000.0 0.18618296207924942 -1.0501731572616422
4828000000.0 0.13115999406188136 -1.0164100822430098
4831000000.0 0.07511608041678661 -1.0381349337359096
4834000000.0 0.15361952604947207 -1.0240247886472211
4838000000.0 0.10038605380354337 -1.042471431566777
4841000000.0 0.09005788707903464 -1.0092426438812554
4844000000.0 0.13264267712503752 -1.0351493787841313
4847000000.0 0.11350520982953383 -0.984877028681137
4850000000.0 0.050312915640516695 -1.074173700489845
4853000000.0 0.06598605086319867 -1.0059719214892793
4856000000.0 0.039426528050164444 -1.00172690644913
4859000000.0 0.027344755097044867 -1.082411159994673
4862000000.0 0.07201905979865636 -0.9991842490396882
4866000000.0 -0.0004838377511369313 -1.0400311746304367
4869000000.0 -0.017444777068794427 -1.0233585837857386
4872000000.0 -0.007928911553728159 -1.0549903060069166
4875000000.0 0.05750827825084333 -1.0839659633996113
4878000000.0 -0.0069276602883452665 -1.0398561116370053
4881000000.0 -0.04042896666694269 -1.0815677265472126
4884000000.0 0.005437388281185718 -1.0338277093576966
4888000000.0 0.008972212760623845 -1.0309909034398224
4891000000.0 0.013767267954992099 -1.059417758307065
4894000000.0 -0.04865151594943625 -1.0326492669956373
4897000000.0 -0.03669602471089384 -1.0264815658419728
4900000000.0 -0.057661293509277595 -1.0744223983443977
4903000000.0 -0.07063218226229162 -1.04660678866452
4906000000.0 -0.08755368005369242 -1.0483467552543255
4909000000.0 -0.09430757983758767 -1.0448299431941974
4912000000.0 -0.11187320114019843 -1.0409248974055294
4916000000.0 -0.08421991932380607 -1.0675405768294939
4919000000.0 -0.08797005089983854 -1.0790697722496891
4922000000.0 -0.10915001045866402 -1.0273979369668274
4925000000.0 -0.16314221674357615 -1.012759983886768
4928000000.0 -0.08718243934170879 -1.0423414032239788
4931000000.0 -0.1256954272968982 -1.0443873488643542
4934000000.0 -0.12394457192273607 -0.9870405780019106
4938000000.0 -0.165852680749962 -1.0336499023362584
4941000000.0 -0.153651314790329 -0.9885602197657795
4944000000.0 -0.14132543575119907 -0.9781095974194136
4947000000.0 -0.21222408873755313 -1.0238765758728514
4950000000.0 -0.20518677333377944 -0.9830731247638664
4953000000.0 -0.2789859879284268 -1.0058824549761485
4956000000.0 -0.24805634725376496 -1.0023063025030912
4959000000.0 -0.24311317466251695 -0.9762726628118025
4962000000.0 -0.23391842248096525 -1.0545613778039633
4966000000.0 -0.234092744027104 -1.0405741588742596
4969000000.0 -0.24542863252555064 -1.047515008354852
4972000000.0 -0.2622478450174276 -1.0177789825087684
4975000000.0 -0.25584352116207043 -1.0061392148133015
4978000000.0 -0.26782172081306815 -0.9726338388778726
4981000000.0 -0.28018615232059907 -1.0175408344265797
4984000000.0 -0.2722390738532826 -0.9599850792727757
4988000000.0 -0.29266831930805975 -1.0140479132031277
4991000000.0 -0.23348203122660555 -1.0533854295460192
4994000000.0 -0.2929827114028867 -0.9871832690704501
4997000000.0 -0.342726595323477 -0.9733057085058091
5000000000.0 -0.28491849072622966 -1.0393718396858869
5003000000.0 -0.32765800647268734 -1.0128061603153193
5006000000.0 -0.33808878464911385 -1.0036276659012413
5009000000.0 -0.3446647040675217 -0.9800040581340818
5012000000.0 -0.40570388299433385 -0.9917470575575402
5016000000.0 -0.33085810903642826 -1.0274480952046268
5019000000.0 -0.3926724805814277 -0.9711463001216238
5022000000.0 -0.39252317267857695 -0.9767465209012702
5025000000.0 -0.435249966485541 -1.0226056689397254
5028000000.0 -0.4187225229071101 -0.9639205369895707
5031000000.0 -0.39963493660163096 -0.95744029446799
5034000000.0 -0.4571067543165759 -0.9757343169007968
5038000000.0 -0.4233129212005473 -0.9083587811444891
5041000000.0 -0.3955692928821136 -0.9927866049431836
5044000000.0 -0.41513838750338483 -0.9429133077163766
5047000000.0 -0.45280431305967744 -0.9531045150411689
5050000000.0 -0.36527489649451117 -0.9282023952785303
5053000000.0 -0.4639990180711133 -0.9574270538567251
5056000000.0 -0.4291124924905044 -0.960764017523021
5059000000.0 -0.3891705765400029 -0.911771120828691
5062000000.0 -0.4967603310551638 -0.9221128275157571
5066000000.0 -0.4213510809723091 -0.9172460902849686
5069000000.0 -0.503632205522965 -0.8868430550751786
5072000000.0 -0.5035511590537831 -0.8894696441143586
5075000000.0 -0.46562697239755957 -0.9067149336939797
5078000000.0 -0.5411093151570949 -0.8761745510862446
5081000000.0 -0.5228182078435568 -0.8603433252740406
5084000000.0 -0.5464366632240139 -0.8842755917729013
5088000000.0 -0.504752695382799 -0.8859227771536144
5091000000.0 -0.6179579146753955 -0.8348120592777417
5094000000.0 -0.5476534738972816 -0.9056666411672515
5097000000.0 -0.519644960805898 -0.8959640972183724
5100000000.0 -0.5812375347594463 -0.8760607470676444
5103000000.0 -0.6004530230474875 -0.8413689524994749
5106000000.0 -0.5879556146707322 -0.9053457218715879
5109000000.0 -0.5546975424645038 -0.9008858954019325
5112000000.0 -0.640021961294069 -0.8401691322310625
5116000000.0 -0.5762738624174423 -0.8370992847796586
5119000000.0 -0.5833903531476848 -0.9140006842296822
5122000000.0 -0.6007769812202618 -0.8303431797616607
5125000000.0 -0.616933495139124 -0.799141275473269
5128000000.0 -0.6124194670048647 -0.8404823967718529
5131000000.0 -0.6119255371719662 -0.8177703395029079
5134000000.0 -0.6547282174044723 -0.802515469602111
5138000000.0 -0.6247850483840813 -0.8175439789432173
5141000000.0 -0.5978827711632662 -0.856840492568939
5144000000.0 -0.674056374936465 -0.7935740100006413
5147000000.0 -0.6959958510160604 -0.8132900434226015
5150000000.0 -0.7079117879616352 -0.840822933884085
5153000000.0 -0.6861118134605957 -0.8082209274660493
5156000000.0 -0.6956225135820917 -0.8079264010677627
5159000000.0 -0.7267215693874004 -0.8299612673046278
5162000000.0 -0.7325859309458098 -0.7429802603381527
5166000000.0 -0.7095745440338369 -0.7515941970582448
5169000000.0 -0.7320745874925467 -0.7474524466493697
5172000000.0 -0.696253101871264 -0.7786147693664034
5175000000.0 -0.729722916440452 -0.8095957736535233
5178000000.0 -0.7608228238250521 -0.7589959984532344
5181000000.0 -0.7608764495384506 -0.7208467089284112
5184000000.0 -0.7543004582090911 -0.7283680911411384
5188000000.0 -0.740323199885607 -0.7602630857591506
