! Created with skrf 1.8.0 (http://scikit-rf.org).
# Hz S RI R 50.0 
!freq ReS11 ImS11
4000000000.0 0.6624583054156085 0.8043391880028423
4003000000.0 0.7110423266568945 0.8274752532570494
4006000000.0 0.7007054794877688 0.7779325173527246
4009000000.0 0.6954086529209365 0.816649158811198
4012000000.0 0.708293737073902 0.8000617855927309
4016000000.0 0.7154303881474022 0.7832641488274592
4019000000.0 0.6745521796145857 0.7359351367922045
4022000000.0 0.6332793064432167 0.8088821337036607
4025000000.0 0.7481927667351361 0.7603816036964275
4028000000.0 0.7162207345573772 0.7268519515935559
4031000000.0 0.6796249295667971 0.692874444571965
4034000000.0 0.7262135659215878 0.66782026702517
4038000000.0 0.7587828901550424 0.7508464953445473
4041000000.0 0.7345934166252893 0.7428031042298462
4044000000.0 0.7664024420937305 0.7321711121577457
4047000000.0 0.7632926938924007 0.7691281216288174
4050000000.0 0.7902411844441417 0.6902897399863276
4053000000.0 0.7732598388217616 0.7103334932842031
4056000000.0 0.7908938505323192 0.6407754320876071
4059000000.0 0.7405196286513456 0.685434312100965
4062000000.0 0.8104997863626398 0.6349497962752972
4066000000.0 0.7355074349056523 0.6223151028249951
4069000000.0 0.835066456985345 0.6449552190915434
4072000000.0 0.8007276697116497 0.6698395940173383
4075000000.0 0.8032201885947602 0.7014564009626791
4078000000.0 0.8194515479420584 0.6419012262672505
4081000000.0 0.8310586406789298 0.706049501707109
4084000000.0 0.8640146881712849 0.6005510813752895
4088000000.0 0.8080230572377067 0.6601750686833308
4091000000.0 0.8820375279679721 0.6527753388750213
4094000000.0 0.8509941685955071 0.6253050830088683
4097000000.0 0.8638087730221886 0.5819802294651641
4100000000.0 0.8508361669321359 0.5988417989870376
4103000000.0 0.8202242139398501 0.5852604764769298
4106000000.0 0.8868401943620619 0.5728561993210147
4109000000.0 0.8857473916440011 0.56398168768855
4112000000.0 0.878730012978753 0.5891983081465599
4116000000.0 0.8354783627149939 0.5409547170455102
4119000000.0 0.8926658620594982 0.5472306883161125
4122000000.0 0.9253974184276188 0.5075209753499911
4125000000.0 0.8998802772910564 0.5576312870543647
4128000000.0 0.8753015665203151 0.5129687495935978
4131000000.0 0.9005536246255693 0.510073490817785
4134000000.0 0.8740693922082975 0.5041518987839486
4138000000.0 0.89941201517446 0.4737250072937303
4141000000.0 0.8971106071806096 0.47908442825141795
4144000000.0 0.8871363778338291 0.4935114576523078
4147000000.0 0.9137539532901858 0.4824366836703233
4150000000.0 0.9374262193599101 0.49315884474815513
4153000000.0 0.9128631037678363 0.454833377254549
4156000000.0 0.9248406355563812 0.5080227607093332
4159000000.0 0.8919367792866779 0.4577634650420927
4162000000.0 0.898024849727735 0.46751837522626416
4166000000.0 0.953312902017859 0.4121622739391345
4169000000.0 0.9409527266525073 0.39262991960477756
4172000000.0 0.9318489682582373 0.44061631791567796
4175000000.0 0.9359764641786263 0.43114267635961473
4178000000.0 0.927599395506038 0.42474221839274495
4181000000.0 0.9472596267355675 0.39651393989127315
4184000000.0 0.9434153114096966 0.37913945504073193
4188000000.0 0.933857291659089 0.35185426006017395
4191000000.0 0.9287202843981385 0.3879749256250801
4194000000.0 0.9302832618030714 0.3569650379778686
4197000000.0 0.9928852069882476 0.3745978646080647
4200000000.0 0.9650259013645317 0.383318020336438
4203000000.0 0.9812756769073753 0.36687014375262395
4206000000.0 0.9732726298176008 0.34147424243211916
4209000000.0 0.9404442643497479 0.3520617312417968
4212000000.0 0.9760087669499178 0.2889184778856311
4216000000.0 0.9698885594572629 0.3387543028788636
4219000000.0 0.9779907662794979 0.3144250980716674
4222000000.0 0.9705673415652569 0.29321187502336526
4225000000.0 0.9717639519820198 0.2744159804928338
4228000000.0 1.0043177041233269 0.2750784652877959
4231000000.0 0.9884926203089872 0.2683208031383032
4234000000.0 1.0071193573344541 0.25764856091400457
4238000000.0 0.9949669373341871 0.2515938848522149
4241000000.0 0.980256604880186 0.22070928966521652
4244000000.0 0.986535375830994 0.2551463139128518
4247000000.0 0.9923034245812756 0.233325750340322
4250000000.0 0.9776515643407038 0.20601551183317274
4253000000.0 0.9894506879441525 0.20128161034715697
4256000000.0 1.0171298690176025 0.20940645091984134
4259000000.0 0.9639232898715074 0.1752342700863603
4262000000.0 1.0009751198977888 0.16103640781845355
4266000000.0 1.028912443845181 0.14697847688595012
4269000000.0 1.0099310318461046 0.18189891155430918
4272000000.0 0.9911701821418634 0.1767859034203198
4275000000.0 1.0169336833125695 0.1470267869545528
4278000000.0 1.0519609931911322 0.15424255276499854
4281000000.0 1.000886705221904 0.1440228581133508
4284000000.0 1.0174778028474987 0.09934028990414057
4288000000.0 1.0162356657369678 0.15625192164308568
4291000000.0 1.0006823921893817 0.12765017205166423
4294000000.0 1.009001600198338 0.10819111755820678
4297000000.0 0.9842953054638982 0.11181721480142613
4300000000.0 0.9706083317767038 0.10647963597687957
4303000000.0 1.0042868541226677 0.059232833811054805
4306000000.0 1.030043172949319 0.08246263688336813
4309000000.0 1.0124288251266214 0.05877294692125508
4312000000.0 1.0221374179196037 0.07520990768563213
4316000000.0 1.0341407481969682 0.06513863334934113
4319000000.0 1.004382914384731 0.013375822503256751
4322000000.0 0.9958935958187829 0.009576651721506929
4325000000.0 1.0134533300018338 -0.007270814044694804
4328000000.0 1.0240904774991768 0.007446561324029613
4331000000.0 1.0401404084866384 -0.03655358734847479
4334000000.0 1.0030133083625186 -0.02054027078446169
4338000000.0 1.0204458044662426 -0.022202723891906195
4341000000.0 1.0193751755592222 -0.0028313521670772362
4344000000.0 1.0341945613175085 -0.027683579399233632
4347000000.0 1.0456435488116866 -0.08833238328030993
4350000000.0 0.9891465896540499 -0.06302507684132062
4353000000.0 0.9877205652377186 -0.06565902829272045
4356000000.0 1.015687756327735 -0.10287773277799468
4359000000.0 0.9727413643866838 -0.08355370790194362
4362000000.0 1.025341784718655 -0.13787638848214384
4366000000.0 1.0349246399845424 -0.08275071439404906
4369000000.0 0.97922766505787 -0.1122873876625081
4372000000.0 0.9816055106264128 -0.15312066134407376
4375000000.0 1.0043829366670876 -0.11227498756238756
4378000000.0 0.9648537114243422 -0.12839252468828427
4381000000.0 0.9750011061518922 -0.12452402499353214
4384000000.0 1.0524303354478017 -0.17576779500295883
4388000000.0 0.9796923457867333 -0.15190487243663964
4391000000.0 1.0014444053361686 -0.15560949925204398
4394000000.0 0.9659319429070781 -0.17553686261001494
4397000000.0 0.9942245388011473 -0.2000782941266889
4400000000.0 1.0151273214568939 -0.21045548650655727
4403000000.0 0.9918595770454094 -0.20057361426174727
4406000000.0 0.989641266102169 -0.22384577593499416
4409000000.0 1.0096001869132543 -0.23767607970787538
4412000000.0 0.9752992156121862 -0.2844025485910986
4416000000.0 0.9725468333617595 -0.24472361955439922
4419000000.0 0.9829037460654847 -0.27908823358913326
4422000000.0 0.9778704073073377 -0.2396150180568184
4425000000.0 1.0002120400648395 -0.24688191182097058
4428000000.0 0.9670544312379251 -0.2666483455724462
4431000000.0 0.9855868739227194 -0.28085518625447714
4434000000.0 0.9566248476831476 -0.3004181026639123
4438000000.0 0.9922680425031105 -0.29146265839350494
4441000000.0 0.9867585610247407 -0.31692032920035196
4444000000.0 0.9434366091500357 -0.30835195465159837
4447000000.0 0.9399442335069289 -0.33891278156213356
4450000000.0 0.9354808328694061 -0.31155553076450265
4453000000.0 0.9812092571560964 -0.35534376511009846
4456000000.0 0.9213268099297799 -0.3542291287611321
4459000000.0 0.889927402712239 -0.3632739677054077
4462000000.0 0.9934851626837711 -0.39741005687698927
4466000000.0 0.9652537148217984 -0.39351799451826464
4469000000.0 0.9369072251474934 -0.3756147686390909
4472000000.0 0.9485896528678515 -0.41670423711981724
4475000000.0 0.9125940956441997 -0.39228617917126596
4478000000.0 0.9455611508714035 -0.44348959963821033
4481000000.0 0.8806563640205904 -0.4195472166716569
4484000000.0 0.8938904937525702 -0.45036509288009685
4488000000.0 0.9020419324407798 -0.4362536549100513
4491000000.0 0.915447673667172 -0.4612761599932762
4494000000.0 0.8964087289639483 -0.41924496993503263
4497000000.0 0.902720305399344 -0.4421398835560398
4500000000.0 0.9030989154282516 -0.4530972955516294
4503000000.0 0.9100312332816518 -0.46846154208123386
4506000000.0 0.8632994605934312 -0.4769547806093113
4509000000.0 0.8787777879708201 -0.49234449056875773
4512000000.0 0.8612059265487035 -0.49229251758444126
4516000000.0 0.8949510578586851 -0.5192385243816671
4519000000.0 0.8706104282654402 -0.47619134163176274
4522000000.0 0.8431486055080835 -0.5249526709573572
4525000000.0 0.8787294019937131 -0.505658336525563
4528000000.0 0.8763237492133562 -0.5515898859341768
4531000000.0 0.8587920903954075 -0.527363402402945
4534000000.0 0.8328434645152903 -0.5446204719913958
4538000000.0 0.8184511491134181 -0.5531001611392994
4541000000.0 0.8220336147330245 -0.5966298051728762
4544000000.0 0.8278803617049184 -0.5638442253257128
4547000000.0 0.8166670949403656 -0.5575286347921165
4550000000.0 0.8288305127904978 -0.6025210107481007
4553000000.0 0.8255379643639178 -0.6223725560664296
4556000000.0 0.7831047936025792 -0.6032335524549581
4559000000.0 0.7964670637127671 -0.6340199529102546
4562000000.0 0.7887317134348553 -0.6414069944422428
4566000000.0 0.7836535576260049 -0.6177785317406392
4569000000.0 0.7918097801837424 -0.6248800253856379
4572000000.0 0.7743017903678749 -0.6460182642168695
4575000000.0 0.77242376510462 -0.6729239321040278
4578000000.0 0.7947508813023898 -0.6515626797318308
4581000000.0 0.7771754142092164 -0.6611111421751993
4584000000.0 0.7542269926459642 -0.6662675765869515
4588000000.0 0.8009857907742812 -0.6873343236151291
4591000000.0 0.7615543741096976 -0.670987097773349
4594000000.0 0.7150072270550673 -0.6964298174469316
4597000000.0 0.7549513724838854 -0.7023216017451986
4600000000.0 0.7060731116408567 -0.7185384847170341
4603000000.0 0.7208651640587698 -0.721480580316068
4606000000.0 0.7327090452214884 -0.7233114518344933
4609000000.0 0.7053761636752214 -0.7212071262789507
4612000000.0 0.7078719892372702 -0.7448707651972067
4616000000.0 0.67977520874688 -0.7274196226666751
4619000000.0 0.7116052356586408 -0.737869378114416
4622000000.0 0.672319877817725 -0.7578762349211217
4625000000.0 0.6469066383512007 -0.7461398516311403
4628000000.0 0.672989892476976 -0.750742730422033
4631000000.0 0.6531835714643079 -0.7638609574754587
4634000000.0 0.6584023176611594 -0.7693312990086447
4638000000.0 0.6577348361419415 -0.778898787143318
4641000000.0 0.6556424370677424 -0.790295617932598
4644000000.0 0.6150573025552967 -0.779739402585294
4647000000.0 0.6355211037094841 -0.7988481923958483
4650000000.0 0.5888319504082907 -0.7963658003574787
4653000000.0 0.6307391672598909 -0.8132707516033336
4656000000.0 0.588757664124445 -0.8123122657905422
4659000000.0 0.5962082651126083 -0.8183410600292951
4662000000.0 0.5987408204797223 -0.8416028550273934
4666000000.0 0.5939315230593697 -0.8308110318225934
4669000000.0 0.5832697229047143 -0.8270837665539607
4672000000.0 0.5574818825962387 -0.8774618046775517
4675000000.0 0.5467063562383064 -0.8478251780102224
4678000000.0 0.5560180896275679 -0.8204942500491791
4681000000.0 0.5279490495672147 -0.8926526690696966
4684000000.0 0.5224550112268889 -0.8818437216287048
4688000000.0 0.5142787814494694 -0.8609475718481313
4691000000.0 0.539739256176107 -0.8456311959148688
4694000000.0 0.5234130335478178 -0.853683618969977
4697000000.0 0.48838084598712456 -0.8421205199500528
4700000000.0 0.5043490139436592 -0.8636827152212414
4703000000.0 0.5032420898216291 -0.8377506688448937
4706000000.0 0.4709514750936905 -0.8896132817721988
4709000000.0 0.46204347999056733 -0.9012957078974659
4712000000.0 0.48324272720825234 -0.9197761265246127
4716000000.0 0.45678011513128214 -0.9303569341497335
4719000000.0 0.4818354084430726 -0.9074703538116793
4722000000.0 0.45976468893807915 -0.9271180221324093
4725000000.0 0.44952487666163976 -0.9448958519048476
4728000000.0 0.4392293674791128 -0.9119464048878354
4731000000.0 0.4527955466225788 -0.9305222512040439
4734000000.0 0.4399491418119774 -0.9022400673931237
4738000000.0 0.43396160646541065 -0.9428355627294002
4741000000.0 0.3899883147097933 -0.9550938215494351
4744000000.0 0.3787152633090796 -0.9528554008561072
4747000000.0 0.38023538276447444 -0.9175376167233715
4750000000.0 0.39127275129556605 -0.9742630955574983
4753000000.0 0.3735312875751385 -0.957419536667629
4756000000.0 0.35911316210631716 -0.9380285824801418
4759000000.0 0.3753640129361634 -0.9756098292798133
4762000000.0 0.34216095435808747 -0.9585888856193711
4766000000.0 0.3081708502064836 -0.9667452751968941
4769000000.0 0.32027364464237057 -0.9746108838522974
4772000000.0 0.3046750475179806 -0.97157774232408
4775000000.0 0.2765769893289143 -1.0235330528121263
4778000000.0 0.3204124408666302 -0.9972060513849511
4781000000.0 0.3297392306497736 -0.9781518892765677
4784000000.0 0.29503913530965187 -0.9666054560963239
4788000000.0 0.26532108567559604 -1.009962542399099
4791000000.0 0.25481924165282815 -0.9866534217625541
4794000000.0 0.2773817359857212 -0.9987122579815619
4797000000.0 0.23982291116632592 -0.9564376353761274
4800000000.0 0.22989487552058205 -0.9761205822852768
4803000000.0 0.18767879308020627 -0.9737514141896155
4806000000.0 0.2375424213396296 -0.9973041818898645
4809000000.0 0.19100095741382112 -1.0022458255217621
4812000000.0 0.15956655284874624 -1.0003661099065917
4816000000.0 0.23133187012296907 -0.9955947056067245
4819000000.0 0.19977629724149615 -1.0320646974580294
4822000000.0 0.21270013522727746 -1.031321211912658
4825000000.0 0.20056123863311856 -1.0219814064523178
4828000000.0 0.17244634554980703 -0.9940863935854279
4831000000.0 0.1317777620625566 -1.016101997426297
4834000000.0 0.16362216165821 -1.025596775999436
4838000000.0 0.12480795878174067 -1.038495653037979
4841000000.0 0.12939706592480058 -0.9897979147175834
4844000000.0 0.15080843987764425 -1.0301542156238184
4847000000.0 0.130963893680004 -1.0006422850577876
4850000000.0 0.10060067848690044 -1.0485224997786686
4853000000.0 0.09345616210522965 -0.996602425562886
4856000000.0 0.07962892274343958 -1.0201213904179705
4859000000.0 0.09829661007879943 -1.0559455149310515
4862000000.0 0.10166496526628227 -1.0151096699260391
4866000000.0 0.04646188237569863 -1.0335057815078412
4869000000.0 0.03093119095736112 -1.026343831464382
4872000000.0 0.03518885319469594 -1.0453237512692473
4875000000.0 0.10290793778779307 -1.0647544562179878
4878000000.0 0.03755594948638062 -1.0447312513671223
4881000000.0 -0.016596244055609347 -1.0760808801149606
4884000000.0 0.038130303902277424 -1.0379879291897414
4888000000.0 0.04835033914598786 -1.0299698317645996
4891000000.0 0.03901561590413533 -1.0588710377310135
4894000000.0 -0.03339449019878747 -1.0246577528725247
4897000000.0 -0.016157697981736458 -1.026348896887999
4900000000.0 -0.004893433549428682 -1.0200804442491413
4903000000.0 -0.023218112225349072 -1.0675790857689387
4906000000.0 -0.04418917544124336 -1.0625584456185622
4909000000.0 -0.07826775141747003 -1.0490854044530646
4912000000.0 -0.08886423482449037 -1.0644169835270443
4916000000.0 -0.06947314144202338 -1.0480972305883083
4919000000.0 -0.06695020570033229 -1.082384930200556
4922000000.0 -0.030311262906112052 -1.035167412552013
4925000000.0 -0.10737791523769347 -1.0392611281122037
4928000000.0 -0.020096402060743368 -1.0196260538574942
4931000000.0 -0.06275525808157882 -1.050653363549984
4934000000.0 -0.1223911563740706 -0.9950966886782473
4938000000.0 -0.17157267855320307 -1.0205457567208829
4941000000.0 -0.12343318000608387 -1.0132305455209474
4944000000.0 -0.12240163897049977 -0.9805520838005697
4947000000.0 -0.1423581055917687 -1.0145927597092428
4950000000.0 -0.16760805946609797 -1.012716659617304
4953000000.0 -0.23233099304842225 -1.1086360914721838
4956000000.0 -0.2021041790274236 -1.0177104745789136
4959000000.0 -0.21070001280061942 -0.9826261135943068
4962000000.0 -0.19864370071836537 -1.020022935718678
4966000000.0 -0.15988502827237328 -1.040487107104222
4969000000.0 -0.2051391181981259 -1.0524430088798933
4972000000.0 -0.23229491535742694 -1.0117754446022056
4975000000.0 -0.20474620261201867 -0.9980578661862167
4978000000.0 -0.2563898035837587 -0.9820580371609094
4981000000.0 -0.2503316921770927 -0.9986809925443503
4984000000.0 -0.2509743927901211 -1.0063615297170612
4988000000.0 -0.253691025421556 -1.007292994936731
4991000000.0 -0.24658999389426278 -1.0711878909600807
4994000000.0 -0.22750179343746185 -0.9767936062198187
4997000000.0 -0.31846205889484097 -0.9984726331452644
5000000000.0 -0.26727598556667587 -1.0187321297444771
5003000000.0 -0.29082681145787254 -1.0556136140402916
5006000000.0 -0.3232291423910899 -1.051020842711517
5009000000.0 -0.31720601857952335 -0.9979529494145655
5012000000.0 -0.3584854616271577 -0.9920661307194307
5016000000.0 -0.3015069744340109 -1.0349896094892372
5019000000.0 -0.34294653667129815 -0.9786293119572875
5022000000.0 -0.3265475514303655 -0.996299892232505
5025000000.0 -0.37206625376807184 -1.0337905846495656
5028000000.0 -0.3936876965640306 -0.9882721598291484
5031000000.0 -0.3736658651592243 -0.9466750544779935
5034000000.0 -0.40676418225339006 -0.963986685738039
5038000000.0 -0.3943207462005245 -0.9360126282535401
5041000000.0 -0.3544340168033122 -0.9803589015332496
5044000000.0 -0.3679887119683257 -0.9710193558857326
5047000000.0 -0.4267338621621746 -0.9807814741511959
5050000000.0 -0.33988272695915955 -0.9604627339317389
5053000000.0 -0.42979553312063545 -0.9953575752613015
5056000000.0 -0.4062704894611785 -0.9610078790026959
5059000000.0 -0.37169041710308875 -0.9634067475277391
5062000000.0 -0.45235663576081087 -0.9452807936607424
5066000000.0 -0.42466147648952435 -0.937958073658465
5069000000.0 -0.49689818113966355 -0.9417306423265465
5072000000.0 -0.45409831644962284 -0.9070020702110668
5075000000.0 -0.44250644424809316 -0.9414956824740368
5078000000.0 -0.518113332345268 -0.9420816622327419
5081000000.0 -0.4745124002040004 -0.8694729706660856
5084000000.0 -0.5308849733374668 -0.9087744059907097
5088000000.0 -0.4613061420830288 -0.9181661527511007
5091000000.0 -0.5552664433582073 -0.9309997655620832
5094000000.0 -0.49061236407399816 -0.9138016128788419
5097000000.0 -0.48902366519922813 -0.9075952558074551
5100000000.0 -0.5408785128806501 -0.9215797240827549
5103000000.0 -0.5430467764302706 -0.8899362835052472
5106000000.0 -0.5557410822998538 -0.9342883611975967
5109000000.0 -0.476577772303495 -0.8717842159300213
5112000000.0 -0.5763176153202059 -0.8680014302290349
5116000000.0 -0.5341721819254693 -0.8439368001767844
5119000000.0 -0.6108396251059085 -0.8747332336922997
5122000000.0 -0.5326344218610788 -0.8654407174443752
5125000000.0 -0.583663374496711 -0.8680428548685647
5128000000.0 -0.5670488745565382 -0.8635396440477145
5131000000.0 -0.6068218755892734 -0.8498705725015352
5134000000.0 -0.6197613703493526 -0.8662369771737897
5138000000.0 -0.6305822980945518 -0.8744876395785083
5141000000.0 -0.6208419724536056 -0.8811839036766029
5144000000.0 -0.5522987082295994 -0.8835320340476588
5147000000.0 -0.6451787613728207 -0.8586118866631762
5150000000.0 -0.6362068878493694 -0.8380342853016285
5153000000.0 -0.6762735371366464 -0.8289089675711121
5156000000.0 -0.662926690889274 -0.8044885059302382
5159000000.0 -0.6645575549491604 -0.8650438228327374
5162000000.0 -0.6756039629298706 -0.7916454488767134
5166000000.0 -0.6369688882389887 -0.801229419844164
5169000000.0 -0.6994586118202513 -0.8153719634842181
5172000000.0 -0.6444068126313266 -0.8057949940711918
5175000000.0 -0.7098292074423719 -0.8341301068407907
5178000000.0 -0.7118025833684407 -0.7843650895553286
5181000000.0 -0.7184697665111253 -0.8027667257807959
5184000000.0 -0.7145949528428724 -0.7723352277885883
5188000000.0 -0.7033808189378815 -0.790381841214769
