! Created with skrf 1.8.0 (http://scikit-rf.org).
# Hz S RI R 50.0 
!freq ReS11 ImS11
4000000000.0 0.28196690463129653 0.9535496564078016
4003000000.0 0.33393171328647264 1.0380205502669015
4006000000.0 0.2761360019417417 0.9494459020714916
4009000000.0 0.2618842510387579 0.975112647500334
4012000000.0 0.2331404593649416 1.0610913755295106
4016000000.0 0.32003222716747104 1.001790275351945
4019000000.0 0.2829511256761496 0.9997272325954077
4022000000.0 0.20280038037544829 0.9895061006492071
4025000000.0 0.3840286385421373 1.006880636993979
4028000000.0 0.34299198461490643 1.0260604395966566
4031000000.0 0.3050012468714565 0.9267876130332796
4034000000.0 0.37532047704485644 0.9544197118382817
4038000000.0 0.3313504291450995 1.015942326391829
4041000000.0 0.36072999854582466 0.9639864326661048
4044000000.0 0.4020625766580387 0.9937604833366572
4047000000.0 0.3021468697166615 1.0272810714312484
4050000000.0 0.4208223005854677 0.9853590095783987
4053000000.0 0.4031702993468379 0.9421469448477977
4056000000.0 0.4617265426850339 0.9717053872015403
4059000000.0 0.3449537570242457 0.9746158268618532
4062000000.0 0.4864005417480929 0.9058009047915148
4066000000.0 0.46333299103367503 0.8528724019840882
4069000000.0 0.47373503959425534 0.9981356925024846
4072000000.0 0.36234506923980836 1.0006474466499646
4075000000.0 0.3736519048912517 0.9810617975550151
4078000000.0 0.469124688000424 0.9381230107192458
4081000000.0 0.36746802617851615 1.0515905231028215
4084000000.0 0.5062348811519982 0.9037334094167282
4088000000.0 0.432505524308744 0.9790110831205553
4091000000.0 0.5584868304934478 0.9975959673402979
4094000000.0 0.4672831485313919 0.9323267808928054
4097000000.0 0.48293295199287567 0.9278563128485209
4100000000.0 0.5453446201774296 0.9024865857480124
4103000000.0 0.5211597380282504 0.9593920706517995
4106000000.0 0.5585377661903813 0.9175107757787413
4109000000.0 0.5493675412639047 0.8934964010747566
4112000000.0 0.5515282095258573 0.9385749054570685
4116000000.0 0.47654456439356135 0.9110579019980647
4119000000.0 0.5934872401689879 0.8540425453361591
4122000000.0 0.5666467811172079 0.9111647919156025
4125000000.0 0.6250763677542469 0.8950260738701763
4128000000.0 0.5184614910567186 0.8410818357893248
4131000000.0 0.5134783770776158 0.8085509516529403
4134000000.0 0.561895315120307 0.8634506366133565
4138000000.0 0.5768956164275041 0.7932836999908885
4141000000.0 0.5784858235298546 0.8252346599380631
4144000000.0 0.6148204530430383 0.8901581737316062
4147000000.0 0.6162104206565809 0.825441244932374
4150000000.0 0.6127849172964479 0.9067300473039419
4153000000.0 0.6623948315968047 0.8277707649815252
4156000000.0 0.6601765965675825 0.8570389847524598
4159000000.0 0.584159576463069 0.8048927774370815
4162000000.0 0.6475215024372425 0.7858104194350854
4166000000.0 0.6760469122442643 0.7957582719107317
4169000000.0 0.6617481855068492 0.7927572523548799
4172000000.0 0.6877957753631561 0.8509899346140073
4175000000.0 0.6440854158606315 0.7857683821688493
4178000000.0 0.6721880374902436 0.8064884585028111
4181000000.0 0.7163971773152489 0.7936892827229157
4184000000.0 0.7239269521542 0.7897500270656066
4188000000.0 0.7240109927028586 0.7468345204121996
4191000000.0 0.6598606147178132 0.7962087226521422
4194000000.0 0.6644456592234281 0.7456110269395503
4197000000.0 0.7060783047282575 0.7452588639285298
4200000000.0 0.7070205942940915 0.7219502413444056
4203000000.0 0.6857304302622182 0.7482167491627334
4206000000.0 0.7293998040975687 0.742353378287052
4209000000.0 0.7023802610836486 0.7485458219367092
4212000000.0 0.7379518877059872 0.7023807325401847
4216000000.0 0.739950539591591 0.7109744532108664
4219000000.0 0.7426919726008877 0.7228894020280207
4222000000.0 0.7826225387719512 0.6801143097806064
4225000000.0 0.7475969581972053 0.6904403036234188
4228000000.0 0.7640993684037847 0.6874007772354238
4231000000.0 0.7696987816031058 0.691343522527046
4234000000.0 0.7721293138621981 0.7303755591917589
4238000000.0 0.7867474111427014 0.6591121680800878
4241000000.0 0.8062545923032265 0.6789294110680293
4244000000.0 0.7852541450238744 0.6779555479676558
4247000000.0 0.7887096175015311 0.6806623830821784
4250000000.0 0.8102854924974316 0.6451860690887326
4253000000.0 0.7888329068755089 0.6248901456190221
4256000000.0 0.8143271088411754 0.6122817655788342
4259000000.0 0.809397412048922 0.6081090703996951
4262000000.0 0.8270285049620543 0.6092177881811958
4266000000.0 0.8149194653161056 0.6238546842454686
4269000000.0 0.8307068717922628 0.6373233751396914
4272000000.0 0.8403150761164702 0.5742992766307036
4275000000.0 0.842635832531252 0.5994361710082603
4278000000.0 0.8727039656665987 0.5873728890520387
4281000000.0 0.8627044699293497 0.5582636579141372
4284000000.0 0.8682657553987536 0.5550197725046547
4288000000.0 0.8570048828732089 0.5593704462629451
4291000000.0 0.84847612628174 0.5358664425943065
4294000000.0 0.860175134249174 0.5167220452334753
4297000000.0 0.8610707875981742 0.5344323151612607
4300000000.0 0.8722210842321156 0.5277441443973062
4303000000.0 0.8838495482283867 0.5063609311703822
4306000000.0 0.8995553959664994 0.5216468177798086
4309000000.0 0.8861425990536506 0.49817228189434337
4312000000.0 0.9246935108794794 0.5473447552191778
4316000000.0 0.8810483425367497 0.5141659728231125
4319000000.0 0.8885004826574119 0.4776169425479558
4322000000.0 0.900238406472025 0.4569463179381303
4325000000.0 0.8957686212287 0.45546285160881417
4328000000.0 0.9041819425219836 0.4423119342841363
4331000000.0 0.9321630268393825 0.4369878980879568
4334000000.0 0.9364166083326636 0.4262141785203232
4338000000.0 0.9267384235746594 0.4349431258961944
4341000000.0 0.9382720264454931 0.4386804511314265
4344000000.0 0.9433579455573141 0.4354553771434443
4347000000.0 0.9519389637402513 0.39196498292002313
4350000000.0 0.8976158067853125 0.36913407145088767
4353000000.0 0.8931856927960065 0.4029940228983693
4356000000.0 0.9485497047472602 0.3789016821588761
4359000000.0 0.9129638601213529 0.32526808648971917
4362000000.0 0.981974047002196 0.3342837018374044
4366000000.0 0.9710808496586818 0.3428061599910198
4369000000.0 0.9356198082251761 0.33888797107343727
4372000000.0 0.9657215719028849 0.29212527575183433
4375000000.0 0.9549659466175997 0.3057877708943548
4378000000.0 0.9431066967077902 0.3354526905057732
4381000000.0 0.9561505079370036 0.31874054727144985
4384000000.0 1.026328228466995 0.29714904050611757
4388000000.0 0.9746040882117577 0.2933028994314058
4391000000.0 0.9675871314614028 0.2832850971925205
4394000000.0 0.9346548977191842 0.27469943051566115
4397000000.0 0.9794234659118941 0.27770876591464866
4400000000.0 0.9866941581686384 0.2769393658259929
4403000000.0 0.9690166282610572 0.2647838185366288
4406000000.0 0.9868654902753828 0.21266394704012356
4409000000.0 1.0074558489267886 0.2505990638517681
4412000000.0 1.0012465364566658 0.19843850762756732
4416000000.0 0.9666559552700207 0.18987320605950855
4419000000.0 0.9989098836417707 0.2007490331859324
4422000000.0 1.0047020422355526 0.21386756559767184
4425000000.0 1.0250569219793766 0.22594058486726792
4428000000.0 0.9977660418680245 0.17831434978563543
4431000000.0 1.0225282673794625 0.19015100882055183
4434000000.0 1.0033762563522013 0.1602635982541894
4438000000.0 1.0342880516546753 0.15651056498163285
4441000000.0 1.0092618558873745 0.14741739238174223
4444000000.0 0.9818142375384853 0.14903101528609516
4447000000.0 0.996840530063867 0.115849887140619
4450000000.0 0.9966703155381446 0.13971152873422799
4453000000.0 1.039177615797353 0.1276670275408796
4456000000.0 0.9921694102865501 0.0895424325315344
4459000000.0 0.9499318626307749 0.0696659014438574
4462000000.0 1.0750029068141258 0.08687828208140666
4466000000.0 1.0485562081334399 0.08136369767881022
4469000000.0 1.01118818444685 0.07852384414247121
4472000000.0 1.038582137911001 0.03638073010711995
4475000000.0 0.980164853746429 0.05135817629251019
4478000000.0 1.0578609716457694 0.028177032892736154
4481000000.0 0.9924974063086301 0.007678651376926929
4484000000.0 0.9990066969018621 -0.035325022214153484
4488000000.0 0.991833042769434 0.013237322140092586
4491000000.0 1.0158718386766874 -0.007723416024054727
4494000000.0 0.9954362353909033 -0.011286805849266925
4497000000.0 1.0093415494004028 -0.011314174346144575
4500000000.0 1.0091290253923921 -0.0051828689492319155
4503000000.0 1.0280817778748166 -0.02214455346065424
4506000000.0 0.9979578824830058 -0.04110813103602627
4509000000.0 0.9963330037722571 -0.043107866309631114
4512000000.0 1.0058489593740711 -0.05912731572489379
4516000000.0 1.0282231853601584 -0.04364277203708846
4519000000.0 0.9987977625269736 -0.07021615781870767
4522000000.0 1.0013907077548285 -0.08633615877009816
4525000000.0 1.0029776778267412 -0.051927865499808795
4528000000.0 1.0311578461755395 -0.09080425726809582
4531000000.0 0.9951161686866038 -0.09572284433573829
4534000000.0 0.99190895036396 -0.11432181637919726
4538000000.0 1.0043784626226446 -0.1429290414073895
4541000000.0 0.9783763597731774 -0.1776108812209143
4544000000.0 0.9785480174974239 -0.14914237611958744
4547000000.0 0.9869456406832418 -0.14805433518194225
4550000000.0 0.9894106699960572 -0.17762890266150938
4553000000.0 0.9979767521462803 -0.18482583198312796
4556000000.0 0.9436788358082251 -0.20028690770789231
4559000000.0 0.994436709725047 -0.22674176239264282
4562000000.0 1.0022690093955922 -0.2050810868378087
4566000000.0 0.9758324147196049 -0.21101687308199457
4569000000.0 0.9588785749397655 -0.21561845301011662
4572000000.0 0.9669001976061319 -0.21114014504637174
4575000000.0 0.9842926138859669 -0.25747189781238267
4578000000.0 1.0194179733622768 -0.2520429132577014
4581000000.0 0.9810458550094039 -0.2867695776111678
4584000000.0 0.9597942891818577 -0.2915732554660027
4588000000.0 1.0048631299143294 -0.25783279918206514
4591000000.0 0.9714120545093133 -0.27829157310228486
4594000000.0 0.9723437810153513 -0.3072485665255352
4597000000.0 0.9829764963144001 -0.310980687319189
4600000000.0 0.9125097997158402 -0.33666284139611663
4603000000.0 0.9622183189394019 -0.3202201880298036
4606000000.0 0.9619865315832116 -0.32036709878733066
4609000000.0 0.9451975037457607 -0.3413734830133173
4612000000.0 0.968348190512873 -0.35098885027063653
4616000000.0 0.9232516160600863 -0.34887693514549084
4619000000.0 0.9517002661795713 -0.3384150697830175
4622000000.0 0.952728984305236 -0.3607689745873834
4625000000.0 0.8943667487910488 -0.3713498436902546
4628000000.0 0.9012116797910579 -0.3589477764491275
4631000000.0 0.9019156025589334 -0.4212133499322484
4634000000.0 0.9276884648222988 -0.41251780734672017
4638000000.0 0.942554360663652 -0.4213744089227335
4641000000.0 0.9341531760422123 -0.4059955949285642
4644000000.0 0.9053983432137611 -0.4236123605347319
4647000000.0 0.928027120168097 -0.4380646280397056
4650000000.0 0.8920402126299214 -0.4662514423333398
4653000000.0 0.9225214076991402 -0.4491349954343664
4656000000.0 0.8800832811121606 -0.49231657841643356
4659000000.0 0.8910648612542643 -0.46589805143796625
4662000000.0 0.8846226374414384 -0.47756714228405894
4666000000.0 0.8905561239640101 -0.4697355257239986
4669000000.0 0.8860634990711118 -0.4695426912765817
4672000000.0 0.8518482266174506 -0.5283168394971378
4675000000.0 0.8430472756837444 -0.5146694806406883
4678000000.0 0.8392440017389013 -0.5068742101015178
4681000000.0 0.8634473699803528 -0.5597747893323983
4684000000.0 0.8254152189099901 -0.5556276642723887
4688000000.0 0.8408195434183874 -0.5341938859102588
4691000000.0 0.8300062475152798 -0.5255823757047653
4694000000.0 0.8362533797448437 -0.5676436251694482
4697000000.0 0.8225883057105932 -0.5493342735071913
4700000000.0 0.8420439069305082 -0.5697871818455874
4703000000.0 0.8244595656262623 -0.5804930613736656
4706000000.0 0.8271337922973787 -0.5859127349245558
4709000000.0 0.7880268115506234 -0.6013685279262035
4712000000.0 0.808350782766476 -0.6114987853306105
4716000000.0 0.7941081895157834 -0.5983438754018604
4719000000.0 0.8093782454465238 -0.6458318145820956
4722000000.0 0.8168371418882101 -0.6322722729877679
4725000000.0 0.7761200118968985 -0.6465645221939992
4728000000.0 0.764420918061026 -0.6407515950854878
4731000000.0 0.789829374452069 -0.6697233947834786
4734000000.0 0.7935341617416516 -0.6447904167433348
4738000000.0 0.7875659148708352 -0.6644051016341808
4741000000.0 0.7578275803689541 -0.6852432745106171
4744000000.0 0.7448160262181998 -0.702428556033533
4747000000.0 0.7436345519978319 -0.6857987500202798
4750000000.0 0.7062273759698261 -0.6928774922206501
4753000000.0 0.7352897514031838 -0.7084257969228619
4756000000.0 0.7107393946114349 -0.6936997409859023
4759000000.0 0.7327653576820438 -0.7319250508821833
4762000000.0 0.7263299149622994 -0.6985119087512218
4766000000.0 0.7143620822462278 -0.7454374241625662
4769000000.0 0.7203458869570026 -0.7393446276639004
4772000000.0 0.7199905774826987 -0.7415034863791187
4775000000.0 0.6906635083698369 -0.7881676162626413
4778000000.0 0.7291847863103246 -0.7324101762070251
4781000000.0 0.6846201443958906 -0.7327025285926583
4784000000.0 0.6942801517774659 -0.7467603952409199
4788000000.0 0.6833949686632039 -0.7749093046756199
4791000000.0 0.6374251731302785 -0.7729987701688573
4794000000.0 0.6674725665390244 -0.8155807554932577
4797000000.0 0.6283635461941255 -0.8006803584871087
4800000000.0 0.614013483703259 -0.800024056542323
4803000000.0 0.6028533600058814 -0.8216122058428401
4806000000.0 0.6372900557073822 -0.8149847890284345
4809000000.0 0.6102573836085764 -0.8098654714305944
4812000000.0 0.5668096848048486 -0.8237287128785139
4816000000.0 0.6018227653073179 -0.8035044946183479
4819000000.0 0.6318262871019882 -0.8321991430862148
4822000000.0 0.619409871480121 -0.8550162081677934
4825000000.0 0.6062396974810536 -0.8211569469733302
4828000000.0 0.5436418334737723 -0.8467975399705934
4831000000.0 0.5542729073246315 -0.8938426013201703
4834000000.0 0.5597903228871087 -0.8445680803950733
4838000000.0 0.5429023624732758 -0.8794038022736234
4841000000.0 0.5262447161717648 -0.8615813037422063
4844000000.0 0.5600776045233364 -0.8498386956849366
4847000000.0 0.5357591714721665 -0.8574845277275502
4850000000.0 0.5161229139811101 -0.9029905182472431
4853000000.0 0.517844059527229 -0.8649851289175985
4856000000.0 0.49845382304476393 -0.9140878349160034
4859000000.0 0.5042672022892518 -0.9331244172160232
4862000000.0 0.50209692588236 -0.8514662498458221
4866000000.0 0.47754340386121596 -0.9228720330298902
4869000000.0 0.4718733897335018 -0.8899043685625354
4872000000.0 0.47240376946491397 -0.9344098084013335
4875000000.0 0.523775480555639 -0.9203217637599946
4878000000.0 0.4230106108435161 -0.9270048613729857
4881000000.0 0.45846722139430846 -0.9911968292808362
4884000000.0 0.44900401740087853 -0.9175144878192765
4888000000.0 0.4635676769239133 -0.9281305928571922
4891000000.0 0.4618875898032311 -0.9510256859494937
4894000000.0 0.3880035647946089 -0.9501302131488149
4897000000.0 0.4291360508462367 -0.9104431479835313
4900000000.0 0.37034181113954906 -0.9402736630813381
4903000000.0 0.4137847521545827 -0.9623204399671783
4906000000.0 0.3646889779706318 -0.9796231375774062
4909000000.0 0.2992422268970973 -0.9836921168796579
4912000000.0 0.3719750357187913 -0.9954642020263761
4916000000.0 0.3784675811558983 -0.9685971702581071
4919000000.0 0.36016809247662673 -0.9662408624408682
4922000000.0 0.3597414316127868 -0.9843197812583153
4925000000.0 0.32314269136042617 -0.9631977798213861
4928000000.0 0.38104882209740226 -0.9460671405486895
4931000000.0 0.3825119675418603 -0.9802351251725583
4934000000.0 0.3099363101042642 -0.94694420968042
4938000000.0 0.27117413792554246 -0.9725327890951675
4941000000.0 0.2865948505115657 -0.9577135319752776
4944000000.0 0.27473210713635876 -0.9196484701919263
4947000000.0 0.27023088672291845 -0.9562669311613974
4950000000.0 0.2342362230640755 -0.9805952801360039
4953000000.0 0.25296637442966086 -1.0484935374236564
4956000000.0 0.23298388304626266 -0.9939271060113867
4959000000.0 0.21503441419202973 -0.9573333534197442
4962000000.0 0.2596231096202305 -1.0202465827710212
4966000000.0 0.22335172444495657 -1.0231050307717862
4969000000.0 0.2778340380112689 -1.0080091730525484
4972000000.0 0.1851924048292799 -1.0248477350940064
4975000000.0 0.2566861187019337 -0.9504176502657213
4978000000.0 0.2036816179600247 -0.9862484981788785
4981000000.0 0.18208869062712177 -1.002910107990016
4984000000.0 0.17726724665125562 -1.0070488584403978
4988000000.0 0.19322778404451157 -0.9658080282047741
4991000000.0 0.23080256444715574 -1.040126285454733
4994000000.0 0.18820665783804408 -1.0278976691167148
4997000000.0 0.13246578416713334 -1.0454552128621746
5000000000.0 0.16301852642470077 -1.0305737012161358
5003000000.0 0.1694322918061286 -1.065750163646677
5006000000.0 0.1286303745293137 -1.0730633250175954
5009000000.0 0.12880464474308712 -1.045540477138447
5012000000.0 0.07979653823953217 -1.0243405238984733
5016000000.0 0.14628679233180875 -1.0597370393462546
5019000000.0 0.08241288060150431 -1.000030413438743
5022000000.0 0.08571177022811294 -1.0074694276239369
5025000000.0 0.09710936631085837 -1.0998066172167833
5028000000.0 0.02973459613297122 -1.060843496787552
5031000000.0 0.06954752212904339 -1.0247994522288129
5034000000.0 0.02097639707425708 -1.0918239269299517
5038000000.0 0.02501321693440617 -1.017319964550818
5041000000.0 0.07992918740834648 -1.069978198593522
5044000000.0 0.04799608062753977 -1.0263338697732598
5047000000.0 0.03701783511768822 -1.0284632834063014
5050000000.0 0.08189431847143042 -0.9925584358098436
5053000000.0 -0.016566584731393608 -1.0818539957710993
5056000000.0 0.010579354173777117 -1.0337063046355897
5059000000.0 0.04779097439756777 -1.0484906348898537
5062000000.0 -0.047959645826737174 -1.0665379737118916
5066000000.0 0.00577345896563855 -0.999226251251818
5069000000.0 -0.04729365958704235 -1.0316577500298665
5072000000.0 -0.03786078479206394 -0.9800210044499185
5075000000.0 -0.05006632974395378 -1.051120088893507
5078000000.0 -0.08335095743900234 -1.0386768323705005
5081000000.0 -0.08687637927060836 -0.9695818906593544
5084000000.0 -0.10925574672316937 -1.078873281321391
5088000000.0 -0.06760642346108822 -1.0211684144489308
5091000000.0 -0.16216207730961749 -1.0788884341179406
5094000000.0 -0.10666536980671106 -1.0435929905971322
5097000000.0 -0.04655786763032985 -1.0662431338429113
5100000000.0 -0.09836438388139446 -1.0014495456525112
5103000000.0 -0.1194375775938463 -1.0424763036538138
5106000000.0 -0.10146969180038805 -1.0802128221695189
5109000000.0 -0.10931655414421496 -1.061110785013804
5112000000.0 -0.1127536733667012 -1.0004104206228492
5116000000.0 -0.13188329870398596 -1.0076194274147483
5119000000.0 -0.15542814046628034 -1.0503360904499535
5122000000.0 -0.15308999009880148 -1.0229311883669072
5125000000.0 -0.16679785425760374 -1.0477875676564494
5128000000.0 -0.19320225071376168 -1.0050996944236972
5131000000.0 -0.21972954930400235 -1.026348893568361
5134000000.0 -0.21371172586440038 -0.9782074037728823
5138000000.0 -0.16611613205149497 -1.028290255746748
5141000000.0 -0.15445055197961613 -1.0009660061173364
5144000000.0 -0.20898995869127993 -1.0565647055278304
5147000000.0 -0.22500302392820537 -1.0276466479395054
5150000000.0 -0.2605734674691365 -1.0038346162257468
5153000000.0 -0.2695761470239851 -1.0085680790092553
5156000000.0 -0.2486965862604482 -1.0397611409052596
5159000000.0 -0.27539946079542066 -1.0098119738249478
5162000000.0 -0.27039284136610064 -1.001570365832062
5166000000.0 -0.3485956590564792 -1.0209652171036132
5169000000.0 -0.324542904493753 -0.9880360914450697
5172000000.0 -0.2988890389035901 -0.9311603808767003
5175000000.0 -0.3145081431241494 -1.0046300182678172
5178000000.0 -0.3415531282450087 -0.9924791065619641
5181000000.0 -0.31866894712068455 -1.0270188376536444
5184000000.0 -0.3266258507510428 -0.9778123028144111
5188000000.0 -0.3064259784470887 -0.997050043036369
5191000000.0 -0.3599483274956262 -1.0071228086009363
5194000000.0 -0.3471704366598674 -0.9711939109455614
