! Created with skrf 1.8.0 (http://scikit-rf.org).
# Hz S RI R 50.0 
!freq ReS11 ImS11
4000000000.0 0.5757873351632223 0.7876778936219202
4003000000.0 0.6674071710719284 0.8684592352572679
4006000000.0 0.6930501740167115 0.7862521230489298
4009000000.0 0.6591693376997647 0.8416657620349041
4012000000.0 0.6413834661138571 0.8210880175477973
4016000000.0 0.7059313862907673 0.7536303186275888
4019000000.0 0.6806254312531359 0.7506174158725123
4022000000.0 0.7025010617297028 0.8313507529390561
4025000000.0 0.7255171869094247 0.754292175663613
4028000000.0 0.6823836554774247 0.7272646016528557
4031000000.0 0.6589900879516001 0.7187532944579337
4034000000.0 0.7048427503137574 0.7759137791747042
4038000000.0 0.7224288147844135 0.7384656676765142
4041000000.0 0.7366329954473715 0.7274443071651615
4044000000.0 0.7908432865843354 0.7802723007810345
4047000000.0 0.7516043338841603 0.7524909388037141
4050000000.0 0.7368206716645247 0.7301569719556938
4053000000.0 0.73334959901333 0.666974941904489
4056000000.0 0.7761642634489615 0.7111871177203627
4059000000.0 0.7504150330796799 0.7124483794694985
4062000000.0 0.7775707799896922 0.657297776944656
4066000000.0 0.7288910393069306 0.6314572526459101
4069000000.0 0.84003477378064 0.6689293838325674
4072000000.0 0.7806268037844364 0.710825978772597
4075000000.0 0.8023944130612211 0.7006403595040793
4078000000.0 0.7813546168874564 0.6249208476389333
4081000000.0 0.806389341108356 0.7273675468167714
4084000000.0 0.8052576705003122 0.6350268153305689
4088000000.0 0.7840690583855904 0.6568336151136871
4091000000.0 0.8947280613725118 0.6682861433242342
4094000000.0 0.8300017121370484 0.6303493862339391
4097000000.0 0.8341884351472236 0.6204047911654809
4100000000.0 0.7894000722014555 0.5965370212434526
4103000000.0 0.8395011545388877 0.6271986363157653
4106000000.0 0.8734625785498282 0.5979140683155152
4109000000.0 0.87871913137951 0.5545070620111077
4112000000.0 0.8615660730935877 0.6115025893151333
4116000000.0 0.8345712600140458 0.5813197425412994
4119000000.0 0.87238554218837 0.5731641510764821
4122000000.0 0.8404461198936881 0.5597896981565899
4125000000.0 0.8886874194668631 0.5634001662027139
4128000000.0 0.8509027991225249 0.5389940993481259
4131000000.0 0.8733390421299956 0.5353784120910794
4134000000.0 0.8752522421449341 0.5341378242939275
4138000000.0 0.879141245084168 0.5129506946562008
4141000000.0 0.8809874273646611 0.4971135996762467
4144000000.0 0.928535848195094 0.5438440840249164
4147000000.0 0.8899985156103473 0.4847617834766001
4150000000.0 0.9176819090198306 0.5117401405979101
4153000000.0 0.905293615244327 0.4947901214991519
4156000000.0 0.935066535522779 0.5049428022069873
4159000000.0 0.9019359382046368 0.46937310058453324
4162000000.0 0.8997259661809338 0.4710279517150813
4166000000.0 0.9164778167227263 0.4560852382085523
4169000000.0 0.8978253858206635 0.4223947984753075
4172000000.0 0.9163351739112444 0.46482510099556
4175000000.0 0.9204262648409098 0.4432203154544722
4178000000.0 0.94960144281228 0.43460119941344943
4181000000.0 0.9602736249804384 0.40885483169782644
4184000000.0 0.9469985832923261 0.42108451985393486
4188000000.0 0.9449349618610281 0.3829436490157764
4191000000.0 0.9407949169325144 0.42788007377366505
4194000000.0 0.9446469919671151 0.39224931836752064
4197000000.0 0.9656327350226852 0.37707080781759234
4200000000.0 0.9529849243214557 0.3818174743078989
4203000000.0 0.971091564721187 0.3717505814719183
4206000000.0 0.9592781112436958 0.3668796022368496
4209000000.0 0.9372898187196652 0.3412785577596718
4212000000.0 0.9859555871061243 0.3158320352105758
4216000000.0 0.9806792927185497 0.3459094037056149
4219000000.0 0.9770880195379997 0.33856503491635015
4222000000.0 0.9831157233762626 0.30222192254555463
4225000000.0 0.9675789813616644 0.30988670937675244
4228000000.0 0.9982622898066278 0.2969594437583234
4231000000.0 0.9777171672427921 0.2768686393539956
4234000000.0 1.000837286411127 0.289627917853607
4238000000.0 0.9784755586137678 0.27750465353933174
4241000000.0 0.9810610798683443 0.26504145782204896
4244000000.0 0.9886169787546538 0.27373349822625725
4247000000.0 0.9803230429492548 0.25515910537136255
4250000000.0 0.9762459558088605 0.20752793494312533
4253000000.0 0.9861942937043999 0.2314215665258319
4256000000.0 0.9967514633863546 0.2473597516623568
4259000000.0 0.9751197114588035 0.20266873682413458
4262000000.0 0.9933053487577592 0.18872999153515294
4266000000.0 1.0276159774035742 0.183255575509448
4269000000.0 0.9902344575745503 0.2093894745563589
4272000000.0 1.0003366270433727 0.18750826158335843
4275000000.0 0.9934906720858208 0.18636175737546123
4278000000.0 1.0212358886030566 0.16278890294656867
4281000000.0 0.9991112877559417 0.17399223827441096
4284000000.0 1.036776710792528 0.12820331145337882
4288000000.0 1.0001332229181499 0.15958514008371205
4291000000.0 0.9905804129693372 0.14313964495453424
4294000000.0 1.0166066478398714 0.11408238122321211
4297000000.0 1.0041407640731794 0.1524043543573944
4300000000.0 1.019177218093444 0.11296176568088656
4303000000.0 0.993961684726787 0.0939608199636477
4306000000.0 1.0325044629807052 0.13860175681713727
4309000000.0 0.9961339669699808 0.08228959933612957
4312000000.0 1.0560084721476632 0.11657158308503712
4316000000.0 1.0470479053155635 0.0712653005173579
4319000000.0 1.0021760153664574 0.07264144754544567
4322000000.0 1.0041648308514615 0.02244855399825775
4325000000.0 1.0381057057744452 0.05269605312457955
4328000000.0 1.0120779324242504 0.04683011653454176
4331000000.0 1.0121948072875135 0.000936351857607931
4334000000.0 1.0327439206655769 -0.002495871268474753
4338000000.0 1.0072932966790118 0.0377718520374478
4341000000.0 1.042524406072149 0.04797923901692622
4344000000.0 1.0329038296655653 0.0009290389555502154
4347000000.0 1.032310979877926 -0.05895478257910931
4350000000.0 0.9938818305062749 -0.03818411539185611
4353000000.0 0.9839526086689465 -0.017634846895635714
4356000000.0 1.009755717354264 -0.061170070190548806
4359000000.0 0.9621414928391757 -0.05249915356038805
4362000000.0 1.0092492756132603 -0.11497857303767704
4366000000.0 1.0358115458639374 -0.08065897139864751
4369000000.0 0.9691343776764458 -0.08603538578477976
4372000000.0 0.9916116275747799 -0.1214173399806616
4375000000.0 0.9977476276541242 -0.09235038192878799
4378000000.0 0.9858862388441274 -0.10131307997029992
4381000000.0 0.9811002750321918 -0.1205888618126918
4384000000.0 1.083519250952262 -0.1435716963805178
4388000000.0 0.9777529197355654 -0.13100801103073745
4391000000.0 1.0206397618325391 -0.14141405624628814
4394000000.0 0.9821891858808725 -0.1470052066160159
4397000000.0 0.9883753383304337 -0.15735376483499475
4400000000.0 1.0201548248060746 -0.18350794955978367
4403000000.0 0.989793157994849 -0.16752608219872026
4406000000.0 0.998751037927052 -0.21600461473504198
4409000000.0 1.023736326355954 -0.21408636391359084
4412000000.0 0.9729048998773488 -0.2461348458511971
4416000000.0 0.9773842853378749 -0.22108041472471088
4419000000.0 0.9795942658041016 -0.23880769558890613
4422000000.0 0.9887717672759302 -0.20672807747589927
4425000000.0 1.0098608041064203 -0.2325696263693827
4428000000.0 0.9759669664074337 -0.25735767270728355
4431000000.0 0.9993312553193974 -0.2511040731412174
4434000000.0 0.9773637331661508 -0.26621037196516023
4438000000.0 0.9879806113037872 -0.27731537001879447
4441000000.0 0.9942426182241864 -0.2849173556870279
4444000000.0 0.9543142887473568 -0.2944708346972792
4447000000.0 0.9516679587447096 -0.30858050920948243
4450000000.0 0.957563469701614 -0.28871619441166463
4453000000.0 0.9896339520379691 -0.3221196075407548
4456000000.0 0.9353792323379635 -0.3265881984197962
4459000000.0 0.9108348033020002 -0.33449616512357794
4462000000.0 1.0139187851615363 -0.35762018687044195
4466000000.0 0.9874055339710736 -0.36435653975883364
4469000000.0 0.9485545872261181 -0.33498420211940705
4472000000.0 0.949012481252902 -0.3949255318635271
4475000000.0 0.920546064044118 -0.36322808779423554
4478000000.0 0.9669278223088044 -0.42994775889434345
4481000000.0 0.9061330066041867 -0.3934305559040494
4484000000.0 0.9131085104171417 -0.4454339993243337
4488000000.0 0.9069102468662803 -0.42997753257499344
4491000000.0 0.9197039426563001 -0.4350625786845873
4494000000.0 0.9123522596610882 -0.42013133602016894
4497000000.0 0.9166837683713982 -0.4150189751828725
4500000000.0 0.8999522102285311 -0.4295904319057029
4503000000.0 0.9265348679607472 -0.4553329053898425
4506000000.0 0.8915243514621773 -0.46649992152385084
4509000000.0 0.8881407066099261 -0.4747077197396915
4512000000.0 0.8836953433944461 -0.4674464669594748
4516000000.0 0.9132603873311718 -0.4808428764618432
4519000000.0 0.8655440442361332 -0.46647161565767253
4522000000.0 0.8711123956963736 -0.5073747123809285
4525000000.0 0.8872457007368026 -0.4629811104503392
4528000000.0 0.8723457674760915 -0.5172904998442208
4531000000.0 0.8744620187345334 -0.516923692252991
4534000000.0 0.8396662107290667 -0.514761303065675
4538000000.0 0.8687106775503253 -0.5294807208423313
4541000000.0 0.8169591280603904 -0.565966246460517
4544000000.0 0.8465013833166621 -0.5327625808517811
4547000000.0 0.8604203713669845 -0.5348489681030348
4550000000.0 0.8455451820133202 -0.5993418381610911
4553000000.0 0.8562004880290619 -0.5683663102338746
4556000000.0 0.8008833426725674 -0.582796279255277
4559000000.0 0.8254971611350902 -0.576669823989227
4562000000.0 0.837292172230192 -0.5914281287048848
4566000000.0 0.8153806805681523 -0.6059930111974614
4569000000.0 0.791021155575058 -0.5972766912950738
4572000000.0 0.7936821174187452 -0.6109412420064732
4575000000.0 0.7808101507138385 -0.638743936545994
4578000000.0 0.8253138723213937 -0.6259423454961899
4581000000.0 0.7688516006216356 -0.6595878779103552
4584000000.0 0.7774619835798783 -0.6332470284688987
4588000000.0 0.7918416447174578 -0.6473956031615241
4591000000.0 0.7812134945708133 -0.6473118912135756
4594000000.0 0.7712961180900648 -0.6697369124158105
4597000000.0 0.7560454593251027 -0.6811908068191644
4600000000.0 0.7238639522759022 -0.676723391675693
4603000000.0 0.7488957738327365 -0.7007856261522676
4606000000.0 0.7342348492072693 -0.706698632103381
4609000000.0 0.7345603642752103 -0.7023512768638643
4612000000.0 0.7314406140709634 -0.7224824193863268
4616000000.0 0.7142154199575248 -0.7018394388407015
4619000000.0 0.7193640009079029 -0.732757378364784
4622000000.0 0.7066105067631269 -0.733626017735125
4625000000.0 0.6792709228511167 -0.7217697753827297
4628000000.0 0.6964218059861375 -0.7174850973803851
4631000000.0 0.6880428631734392 -0.7552556264083057
4634000000.0 0.6746648494847003 -0.748447417847076
4638000000.0 0.68666282986456 -0.7550461055494548
4641000000.0 0.6757799975475101 -0.7781415704676591
4644000000.0 0.6728044722881291 -0.7742299141402323
4647000000.0 0.6689281205509674 -0.7699912435178359
4650000000.0 0.648148956675969 -0.7864081364231248
4653000000.0 0.6609028154876234 -0.7956148764788701
4656000000.0 0.6389073485250141 -0.8091951683627185
4659000000.0 0.6126899750053498 -0.780297162259516
4662000000.0 0.6158597166687321 -0.8224018414010281
4666000000.0 0.613033262205722 -0.7981764990416699
4669000000.0 0.6279180697596325 -0.8163164144234829
4672000000.0 0.5821181457212057 -0.8501018134088428
4675000000.0 0.5768673203778847 -0.8385206840956337
4678000000.0 0.5506986661396692 -0.8008090300189464
4681000000.0 0.5715775577036711 -0.8502656315691486
4684000000.0 0.5591355643086221 -0.8673809452289784
4688000000.0 0.5471669485011479 -0.8322199950110921
4691000000.0 0.5908637544205836 -0.8452619659893914
4694000000.0 0.5556628029625392 -0.8329693726441176
4697000000.0 0.5147974582521835 -0.8309282940365736
4700000000.0 0.5396846849842717 -0.8704729708581984
4703000000.0 0.5187471708638499 -0.8276690371483093
4706000000.0 0.5233901768174454 -0.9023550698118777
4709000000.0 0.4947505664853894 -0.8948281634543968
4712000000.0 0.5128370509662987 -0.8891127118190284
4716000000.0 0.4913202610522879 -0.9000682098647459
4719000000.0 0.503612630534227 -0.8886763753027206
4722000000.0 0.5200050590941742 -0.8916889495329454
4725000000.0 0.45857749518905194 -0.9038880101682614
4728000000.0 0.4556948777257902 -0.9162394670371117
4731000000.0 0.4808944950896907 -0.94255260510827
4734000000.0 0.46488702100679496 -0.8660896254088098
4738000000.0 0.4790630177898066 -0.9471299645405251
4741000000.0 0.43931385871142054 -0.9688399910323789
4744000000.0 0.41456166709143 -0.9274697330566749
4747000000.0 0.4079235138214905 -0.9274622420363043
4750000000.0 0.4371097836387426 -0.928100911032416
4753000000.0 0.4306185163108238 -0.9488546533213766
4756000000.0 0.3859314291331815 -0.9457533982058763
4759000000.0 0.3993993902996556 -0.972270671055969
4762000000.0 0.3729460650051486 -0.9870529893313641
4766000000.0 0.38199323048386 -0.9679936428176446
4769000000.0 0.3835661521609941 -0.9594252142969225
4772000000.0 0.3744556504015943 -0.977374511428012
4775000000.0 0.3339075328480523 -1.0011581086973358
4778000000.0 0.3303180920873242 -0.9768730406015348
4781000000.0 0.33755294730717844 -0.9449787911430252
4784000000.0 0.34357877137204224 -0.9555935922525746
4788000000.0 0.2959237018770277 -0.992158527013246
4791000000.0 0.3129423903298379 -0.9651137533911226
4794000000.0 0.34703493740823643 -1.0050526254896908
4797000000.0 0.2942577297605317 -0.9751905979696985
4800000000.0 0.27742111547322035 -0.9726505898887166
4803000000.0 0.21233527473429062 -0.9844794984607188
4806000000.0 0.2565443027619803 -0.9812933657601612
4809000000.0 0.21945488370996313 -0.9845608838898888
4812000000.0 0.19612526745208253 -0.9954038577985154
4816000000.0 0.26573090387854753 -0.9680033551280791
4819000000.0 0.25004716534833665 -1.0166633241222014
4822000000.0 0.2726911462891583 -1.0135292038237058
4825000000.0 0.26184423780298394 -1.015943242646321
4828000000.0 0.2059726583978007 -0.9948387787536522
4831000000.0 0.14830203138440615 -1.0397023123146933
4834000000.0 0.20711754323417303 -0.9924866775942065
4838000000.0 0.16612862402674253 -1.018718652890544
4841000000.0 0.15836754254337976 -1.0013545692595014
4844000000.0 0.18438488511869217 -1.0106158454192804
4847000000.0 0.1837704246069153 -0.9799150860995625
4850000000.0 0.12338959722437409 -1.0374778453863176
4853000000.0 0.1538953409407723 -1.0036596640065039
4856000000.0 0.1342409840647108 -1.0013361665552094
4859000000.0 0.13180374214304344 -1.0379357867899666
4862000000.0 0.15029081615354498 -1.0017764001688314
4866000000.0 0.1024462687119877 -1.0228800015742383
4869000000.0 0.10111545081311779 -1.017541587489233
4872000000.0 0.06588354805998962 -1.071985274555253
4875000000.0 0.1480663145747934 -1.0763120004838056
4878000000.0 0.0737571017206147 -1.0320068751254459
4881000000.0 0.023715769732055317 -1.1126704904904452
4884000000.0 0.08075809633844885 -1.0430051903035675
4888000000.0 0.05197178140082992 -1.010693000703505
4891000000.0 0.07743239203320268 -1.0547456893995828
4894000000.0 0.016345861293646617 -1.0314017409310854
4897000000.0 0.046323764206624686 -1.0061423523450643
4900000000.0 0.020234086025682965 -1.0482052481420174
4903000000.0 0.01507084568551557 -1.0560470852022243
4906000000.0 0.014706318463793859 -1.0511848121277985
4909000000.0 0.005193928123917571 -1.0529290234612398
4912000000.0 -0.03601966181683902 -1.0796083531702354
4916000000.0 -0.0016886917248262329 -1.0340595765281502
4919000000.0 0.009168459367778457 -1.0502563584061138
4922000000.0 0.003304851341645071 -1.0565089836811634
4925000000.0 -0.11582123507137171 -1.0104360055848969
4928000000.0 -0.023009249860974496 -1.0560204761902694
4931000000.0 -0.002836334223290174 -1.0452112533092273
4934000000.0 -0.06984451837963294 -1.0078309911902186
4938000000.0 -0.09608690047203534 -1.0514961251650103
4941000000.0 -0.030206859148546414 -1.0199372540480403
4944000000.0 -0.048099336424805045 -0.9816355964813108
4947000000.0 -0.09714639338139919 -0.9938755985078331
4950000000.0 -0.0884797366726127 -1.019284364956863
4953000000.0 -0.16925198672313724 -1.0618692266196443
4956000000.0 -0.17232746709176833 -0.9834989593391639
4959000000.0 -0.1657656906190564 -1.0005732960388038
4962000000.0 -0.16512270330695003 -1.0627982726164058
4966000000.0 -0.16389132472418239 -1.0624011726970224
4969000000.0 -0.17893751752150222 -1.071257012247011
4972000000.0 -0.19473674026827345 -1.0182603239061474
4975000000.0 -0.13676003361842662 -1.030629335075363
4978000000.0 -0.2014913507094102 -1.0125856369062787
4981000000.0 -0.2257168552391325 -1.015180126491136
4984000000.0 -0.1891565867648958 -0.9784011266124409
4988000000.0 -0.2007006441707141 -1.0183671148194613
4991000000.0 -0.15104450695212202 -1.047599677242382
4994000000.0 -0.20655490539678478 -0.9790230359411463
4997000000.0 -0.28111968359759093 -0.9971233467003705
5000000000.0 -0.24443867850159534 -1.0490106595446393
5003000000.0 -0.259997614808688 -1.0682017665392511
5006000000.0 -0.30223262257657313 -1.032598806978264
5009000000.0 -0.2625623167972494 -0.991877667724704
5012000000.0 -0.29649516378994517 -0.9498363235677318
5016000000.0 -0.2748173816177914 -1.055050911408976
5019000000.0 -0.30256030160424185 -1.0019091425596125
5022000000.0 -0.30013218659015506 -1.0058036628862985
5025000000.0 -0.34976326915251393 -1.0560332631273726
5028000000.0 -0.32332480409842845 -1.0032974963584702
5031000000.0 -0.34816945195015203 -0.9968840566411789
5034000000.0 -0.37637172149721865 -1.0037097026482886
5038000000.0 -0.35225658157469353 -0.9301941004251861
5041000000.0 -0.341459777919483 -1.0125399625684341
5044000000.0 -0.31550691055411384 -0.9473926685615327
5047000000.0 -0.3419158996857942 -0.9871588753065282
5050000000.0 -0.2900509320345447 -0.9721443011893156
5053000000.0 -0.417535663994856 -1.0266090971850779
5056000000.0 -0.3431694767335911 -1.0219188979210196
5059000000.0 -0.3538279236807009 -0.9692599319780365
5062000000.0 -0.46429144972818703 -0.947474166998943
5066000000.0 -0.3567293979839241 -0.9700551971022886
5069000000.0 -0.4461845100206604 -0.9657350642497161
5072000000.0 -0.4180793501914205 -0.9240081058723035
5075000000.0 -0.401860541698156 -0.991139125900965
5078000000.0 -0.45226902966513355 -0.9598174887528843
5081000000.0 -0.4487950560100962 -0.9329739386962214
5084000000.0 -0.4700351263581076 -0.956415209703549
5088000000.0 -0.4238931815194612 -0.9614442500632698
5091000000.0 -0.4965785270693172 -0.9283487883553962
5094000000.0 -0.4975385866123135 -0.9546129698703315
5097000000.0 -0.45756486980868527 -0.894604846811651
5100000000.0 -0.47384347430697543 -0.9051482535660361
5103000000.0 -0.5586403814905303 -0.9463418330783021
5106000000.0 -0.5380606967138997 -0.9769582706892155
5109000000.0 -0.4860379819492909 -0.9185407195005855
5112000000.0 -0.5151671674622088 -0.913843714810584
5116000000.0 -0.4846196197614444 -0.8799688480412011
5119000000.0 -0.5490453343714128 -0.9220835614603633
5122000000.0 -0.5485162734160823 -0.8649902880134921
5125000000.0 -0.5296621906856253 -0.8901371454442448
5128000000.0 -0.5319140238706683 -0.9041219808245171
5131000000.0 -0.5668306687447914 -0.8446524485307599
5134000000.0 -0.5388052460464587 -0.8441270615626572
5138000000.0 -0.5660261771689693 -0.8778492671326862
5141000000.0 -0.5612085462282743 -0.9190335247979979
5144000000.0 -0.5719808737164558 -0.8782532313899007
5147000000.0 -0.6214614251411912 -0.8654458537974282
5150000000.0 -0.5370212449496826 -0.8483444772580996
5153000000.0 -0.5938025814391839 -0.8868593455960446
5156000000.0 -0.5767262345342025 -0.8685888364887223
5159000000.0 -0.6448817177361473 -0.8757619173712005
5162000000.0 -0.6279268519782668 -0.8086789905449361
5166000000.0 -0.6272995888483461 -0.7785596352764435
5169000000.0 -0.645579211758534 -0.8599558424031167
5172000000.0 -0.628598040822018 -0.8290283781675393
5175000000.0 -0.6617104502008517 -0.8716790635974488
5178000000.0 -0.6992318766410734 -0.8071163375207723
5181000000.0 -0.6652930511245156 -0.8237504253096023
5184000000.0 -0.6774257991563825 -0.7874499245223878
5188000000.0 -0.6817738235862496 -0.8004460150495054
5191000000.0 -0.7018039639173994 -0.7757800392988233
