! Created with skrf 1.8.0 (http://scikit-rf.org).
# Hz S RI R 50.0 
!freq ReS11 ImS11
4000000000.0 0.5890111526480276 0.8298995169181631
4003000000.0 0.672361652597129 0.8283439525592632
4006000000.0 0.6578321492700266 0.7937956614183019
4009000000.0 0.6820505155838719 0.7684636539674659
4012000000.0 0.6334103289108121 0.8423440420866216
4016000000.0 0.7394658349455528 0.7725033173402489
4019000000.0 0.6932443457321447 0.7505146879840894
4022000000.0 0.6654547901225577 0.7899940054418684
4025000000.0 0.7485055697415853 0.7563531104344724
4028000000.0 0.7289242312796215 0.7562227818649934
4031000000.0 0.6595326298607299 0.7522653971892589
4034000000.0 0.6970593291110914 0.7457502541942024
4038000000.0 0.7280311682685574 0.7202198653744357
4041000000.0 0.745411756423139 0.7421090085811091
4044000000.0 0.7696990318195018 0.7700996385092483
4047000000.0 0.7144184293946655 0.7887752262158573
4050000000.0 0.7900567977064398 0.697563450505677
4053000000.0 0.7386876460026256 0.677165132292441
4056000000.0 0.7219440472396912 0.7138081548961479
4059000000.0 0.7447759436428304 0.6847590778875037
4062000000.0 0.7773743065295559 0.6322825357821371
4066000000.0 0.7362588090945901 0.6238935631422071
4069000000.0 0.8579643044314103 0.6753653645130487
4072000000.0 0.7489322428550773 0.6505693516032152
4075000000.0 0.7979332410628308 0.7490819376980453
4078000000.0 0.8178008182876987 0.6579978463504491
4081000000.0 0.7591325452202075 0.7147375414255865
4084000000.0 0.8400272790603748 0.670321489134573
4088000000.0 0.7820449453187164 0.6618832726801529
4091000000.0 0.8556050751658627 0.6484054569792321
4094000000.0 0.8299444150378973 0.6585991363482926
4097000000.0 0.8444578672644671 0.6322624666572199
4100000000.0 0.8634004432337372 0.5795061267224151
4103000000.0 0.8599661063844113 0.6617412173405648
4106000000.0 0.8404698312814189 0.5801851952630483
4109000000.0 0.8559381962280292 0.6026060599114638
4112000000.0 0.8488445887003169 0.5773447595025258
4116000000.0 0.8667331437786968 0.6118397579375189
4119000000.0 0.8980675057189959 0.5565324573065
4122000000.0 0.8996399887652947 0.5688802449222623
4125000000.0 0.896927686111196 0.5903210662697178
4128000000.0 0.8218945403802187 0.5452879953136722
4131000000.0 0.8675449595230704 0.5168945736682687
4134000000.0 0.8861898010438518 0.5678712126771615
4138000000.0 0.8830790804641098 0.5024379939933197
4141000000.0 0.9112694456316105 0.5160302701902639
4144000000.0 0.8916678900299528 0.5191960585584803
4147000000.0 0.9132313163643014 0.4720578764388394
4150000000.0 0.9445401015652335 0.5057432889001539
4153000000.0 0.9241561791714666 0.4909383996383132
4156000000.0 0.9297546898497442 0.498961184417843
4159000000.0 0.8924670823502046 0.46204272409158603
4162000000.0 0.8929122440006501 0.4636378957639744
4166000000.0 0.9309049273587251 0.45799792916409476
4169000000.0 0.9140591869158432 0.43633335987858834
4172000000.0 0.9279182381698499 0.4717134912745741
4175000000.0 0.9431089108029669 0.4585866320855027
4178000000.0 0.9386903364249628 0.444009250474917
4181000000.0 0.938163569508379 0.4273329727140557
4184000000.0 0.9481250249431391 0.4109644847733431
4188000000.0 0.9273711213231841 0.4084129635790318
4191000000.0 0.9376941129264956 0.4425037946071643
4194000000.0 0.9232926489286036 0.39276488290593436
4197000000.0 0.9327915421938514 0.4015654656813075
4200000000.0 0.96110523737585 0.38484903566008666
4203000000.0 0.9608900695508884 0.3696821941875854
4206000000.0 0.975645678056891 0.3636868774203175
4209000000.0 0.9433761264306387 0.3787211101673788
4212000000.0 0.9698428540250903 0.33812582897089605
4216000000.0 0.9528666690885013 0.3685173033971853
4219000000.0 0.9526922583936361 0.3451008965875306
4222000000.0 0.9945961323410266 0.30872912683529735
4225000000.0 0.9580878532666788 0.32671070343268394
4228000000.0 1.000325563245187 0.30387751219695225
4231000000.0 0.973682817652113 0.29072592546554943
4234000000.0 0.9966554170540153 0.27681864597406186
4238000000.0 0.9760310908664822 0.28690135273127615
4241000000.0 0.9752988489921703 0.2690287100753121
4244000000.0 0.988827745748446 0.2665415904092129
4247000000.0 0.9873539990172535 0.27115962274871513
4250000000.0 0.977136455548639 0.25141271368123114
4253000000.0 0.9628739229170615 0.21616820429918754
4256000000.0 1.0360082860814201 0.23672785119191425
4259000000.0 0.9668013759365988 0.2064548721419042
4262000000.0 0.98028722327164 0.2266597482321593
4266000000.0 1.0145636932899116 0.17222651036078973
4269000000.0 1.0184001856637415 0.19272076274997937
4272000000.0 1.00096184620054 0.2020297089698475
4275000000.0 1.0157520668717483 0.195638414340764
4278000000.0 1.035590162774842 0.20146415553607278
4281000000.0 1.0181765585156952 0.16760120715397964
4284000000.0 1.0378894100416756 0.11817590800087294
4288000000.0 1.016290002707503 0.17886648089139204
4291000000.0 0.9638434500477416 0.12153179636586738
4294000000.0 1.0122452217632967 0.1313503650689007
4297000000.0 0.9851091507826277 0.14187125371545378
4300000000.0 0.9804612320196524 0.12044595557390578
4303000000.0 1.0101011063795946 0.09708552720833945
4306000000.0 0.9965604402462283 0.1144655586246407
4309000000.0 0.9820306677830424 0.09644197455830487
4312000000.0 1.0380466729304987 0.1297379316053748
4316000000.0 1.0220847145837086 0.08498505821854872
4319000000.0 0.9994446677642095 0.08556963272969477
4322000000.0 1.0185337011270725 0.041958013995797946
4325000000.0 1.0497124459043847 0.05012067641797978
4328000000.0 0.9937604659406423 0.0287398450737648
4331000000.0 1.019016922935087 0.007382823541515232
4334000000.0 1.025052114012892 0.007252547295519635
4338000000.0 1.005107394609932 0.04723679546361319
4341000000.0 1.0473829031246067 0.019817880528514797
4344000000.0 1.0282812204059661 0.006506430974971833
4347000000.0 1.0399659207995895 -0.025637011248411334
4350000000.0 0.9855651019877886 -0.021065352012366118
4353000000.0 1.0054528336416881 0.008330551740329345
4356000000.0 0.9879173683202511 -0.06890432834812898
4359000000.0 0.9714290192985212 -0.03382365038748256
4362000000.0 1.0289608867511417 -0.10703969385840498
4366000000.0 1.035495439232973 -0.07848240748737723
4369000000.0 0.9866248868811901 -0.07908580531283081
4372000000.0 0.9955022308752943 -0.12767483898352067
4375000000.0 1.0271407624677857 -0.08380435299660517
4378000000.0 0.9862480453705821 -0.10043323018114204
4381000000.0 0.9963154646600252 -0.09507905822150171
4384000000.0 1.051224654300737 -0.13088502794311047
4388000000.0 0.9897696587140459 -0.11280629382697399
4391000000.0 1.0122900797738594 -0.11665281483653299
4394000000.0 0.9799809114649914 -0.1459757141497122
4397000000.0 0.996692538748867 -0.17488206669555612
4400000000.0 1.0234126325230255 -0.16719939224937605
4403000000.0 1.002709591949405 -0.1650174078849752
4406000000.0 0.9842107034475521 -0.19290068530200694
4409000000.0 1.0246319979415373 -0.19526306882307262
4412000000.0 0.9809634906498067 -0.24142383439112328
4416000000.0 0.9712773112540893 -0.19677786686330234
4419000000.0 0.9857498548221297 -0.22413736583116095
4422000000.0 0.9926065948326959 -0.20781564794808113
4425000000.0 1.0063590545117433 -0.20370712224890578
4428000000.0 0.9780201632235138 -0.24925534248319886
4431000000.0 0.9964012985314203 -0.24931542560804593
4434000000.0 0.9673714632084375 -0.2668658753968395
4438000000.0 0.9966065749555926 -0.2791795580110181
4441000000.0 0.9842133873666794 -0.2732919206324131
4444000000.0 0.9508565546462588 -0.27808561977205426
4447000000.0 0.9622848653079108 -0.29088293989963154
4450000000.0 0.9617771556926974 -0.27644976130465554
4453000000.0 0.9876825719923382 -0.31555386910014793
4456000000.0 0.929124663363102 -0.31443377869312816
4459000000.0 0.923134770910784 -0.34365032482939484
4462000000.0 1.0129491514183209 -0.3606250326994117
4466000000.0 0.9887758730087284 -0.35768689814045507
4469000000.0 0.9541222162700392 -0.3387487038945637
4472000000.0 0.9483303603484032 -0.39186610398266386
4475000000.0 0.9141409260346127 -0.34308200583272275
4478000000.0 0.9850815350835315 -0.3898041114068421
4481000000.0 0.8940466328437305 -0.37679439956570443
4484000000.0 0.9129153657823785 -0.41798551993981437
4488000000.0 0.912485661126043 -0.39711891215713113
4491000000.0 0.9066977239093444 -0.42036928734073326
4494000000.0 0.9057536224614021 -0.41017257903238236
4497000000.0 0.9108900211330471 -0.4048843509830548
4500000000.0 0.9094963710056068 -0.4084640755239675
4503000000.0 0.9459162573213811 -0.4460201642057572
4506000000.0 0.8906629532034391 -0.4537808497054428
4509000000.0 0.9066355160275736 -0.4408408165274261
4512000000.0 0.8829124790238657 -0.467453404823994
4516000000.0 0.9039420900750819 -0.4680540411219554
4519000000.0 0.8848641168630369 -0.4451751500396787
4522000000.0 0.8657357719843728 -0.48963484184611006
4525000000.0 0.9083365240420658 -0.46570685289666214
4528000000.0 0.8850151899109129 -0.5353981879092141
4531000000.0 0.8677589801221592 -0.5078816898441629
4534000000.0 0.8515550466194934 -0.526456435881507
4538000000.0 0.8565711852656825 -0.517360138533881
4541000000.0 0.8261883772199579 -0.534196408671011
4544000000.0 0.8355603733155565 -0.544187075734296
4547000000.0 0.8667438908178919 -0.5201694040010154
4550000000.0 0.8535306663161253 -0.5872178285205979
4553000000.0 0.8346926875600786 -0.5664077408260653
4556000000.0 0.8106816010489821 -0.574779834765554
4559000000.0 0.8073458099323831 -0.5912776783676312
4562000000.0 0.835774528356718 -0.5830382072997919
4566000000.0 0.8241899536701334 -0.6069801695413197
4569000000.0 0.7904662237569258 -0.5816585493668174
4572000000.0 0.8114519515726482 -0.6017454214845189
4575000000.0 0.7982551170325942 -0.6271370230703217
4578000000.0 0.8113829858675787 -0.6351339468071792
4581000000.0 0.7695058148024274 -0.6402955662869766
4584000000.0 0.7889747703436787 -0.6356554819600859
4588000000.0 0.8032466434224873 -0.6435573844952002
4591000000.0 0.7844303053457934 -0.6356981339395927
4594000000.0 0.7502906815339957 -0.6629379229155734
4597000000.0 0.748982125724309 -0.6917130719010182
4600000000.0 0.7212654630085842 -0.6858124251749267
4603000000.0 0.7481249160677749 -0.68412675246838
4606000000.0 0.7551272297289193 -0.6922301428054229
4609000000.0 0.7415293871948384 -0.6823223614303621
4612000000.0 0.7404326397774926 -0.7074091780971742
4616000000.0 0.7184384507918657 -0.6994966938937022
4619000000.0 0.7221362313103366 -0.7046559164008752
4622000000.0 0.7157381492612384 -0.720465618414811
4625000000.0 0.6724120953696819 -0.7112409710345193
4628000000.0 0.7008832649951204 -0.7271567371728094
4631000000.0 0.6759843053185397 -0.7431956776353911
4634000000.0 0.7008018463266916 -0.7369510448079385
4638000000.0 0.6932418553190484 -0.7582082778401852
4641000000.0 0.6735956697077468 -0.7646496904320844
4644000000.0 0.6735814534201091 -0.7667804476068717
4647000000.0 0.6692820941139397 -0.7649438046925305
4650000000.0 0.6374705625741914 -0.778810758393235
4653000000.0 0.6613910533380316 -0.7889599196974554
4656000000.0 0.6293243279559184 -0.7769115415652121
4659000000.0 0.6131121807474568 -0.7877159889742902
4662000000.0 0.628238319720249 -0.7925957797394294
4666000000.0 0.6391190030396847 -0.8070447795159118
4669000000.0 0.6294106177557481 -0.8120724650305696
4672000000.0 0.6048896529159072 -0.8415879846054191
4675000000.0 0.5899833988639738 -0.8208778689538586
4678000000.0 0.594541026785484 -0.8020983155427086
4681000000.0 0.5769734133219264 -0.8362903828151996
4684000000.0 0.5648702222279585 -0.8409886769291364
4688000000.0 0.5642097791123821 -0.8477425688591527
4691000000.0 0.5732883997843243 -0.8307680327312401
4694000000.0 0.5598706516776963 -0.8492792848242061
4697000000.0 0.5325526431235448 -0.8175977144841582
4700000000.0 0.5444845328181619 -0.8446607509815394
4703000000.0 0.5391283247170446 -0.8243641537227837
4706000000.0 0.5229538706679904 -0.8729566600899903
4709000000.0 0.4933848451266961 -0.8845054869191259
4712000000.0 0.5211047502733932 -0.884159659632395
4716000000.0 0.5069681139019688 -0.8811666669173397
4719000000.0 0.5087682594341238 -0.8903269608952921
4722000000.0 0.4773773488212957 -0.8902587427172719
4725000000.0 0.48249451262746185 -0.8880758906905697
4728000000.0 0.46707263967671975 -0.8960518325447855
4731000000.0 0.4673580378180109 -0.9370797883479514
4734000000.0 0.4672635241152208 -0.904589707752216
4738000000.0 0.49481684393829023 -0.9558225746466013
4741000000.0 0.4479409785636381 -0.9237598048068216
4744000000.0 0.3924670059074586 -0.9187912801839818
4747000000.0 0.43115908864728975 -0.8854026448428336
4750000000.0 0.42614513142783417 -0.9667885836378973
4753000000.0 0.4248850975594486 -0.9254690032132288
4756000000.0 0.42878136860390226 -0.9631185290489219
4759000000.0 0.40609919609842327 -0.9633176122859823
4762000000.0 0.3828828290953542 -0.9305233834942717
4766000000.0 0.3757983461013046 -0.9511661373487539
4769000000.0 0.38250891779638707 -0.9760893382987498
4772000000.0 0.3497854928506155 -0.9589844164166774
4775000000.0 0.3386484992991521 -0.9685189260442555
4778000000.0 0.36306196582110867 -0.9621699844628707
4781000000.0 0.37468343565453316 -0.961702130592736
4784000000.0 0.34283464312906475 -0.9777952946021481
4788000000.0 0.3094872804731196 -0.976974601964228
4791000000.0 0.288848153260565 -0.9822048584363453
4794000000.0 0.3409783574623957 -1.0108178031297768
4797000000.0 0.2832919084720109 -0.9728998361568338
4800000000.0 0.2734102117538194 -0.9601906649642822
4803000000.0 0.25623283205857156 -0.9753796917387121
4806000000.0 0.2689901694460396 -1.0035574338193434
4809000000.0 0.22508068084526223 -1.0147278092643066
4812000000.0 0.1970355766776073 -0.9691618455275954
4816000000.0 0.2684968587779918 -0.9649314037801318
4819000000.0 0.2653981058029825 -1.004944983888856
4822000000.0 0.28279316271020816 -1.0249964897839638
4825000000.0 0.2535212490466489 -1.0239521663401185
4828000000.0 0.22987614120557914 -1.009255996561416
4831000000.0 0.1772033576790768 -1.0406902984041004
4834000000.0 0.2412328564738297 -1.0183382334148625
4838000000.0 0.19737568934789768 -1.038275139149925
4841000000.0 0.16590579248461731 -1.0079680621478113
4844000000.0 0.21127027275869975 -1.019003391709081
4847000000.0 0.18099769262571255 -0.9765688587601737
4850000000.0 0.1597189788188055 -1.036442986828524
4853000000.0 0.15688379489057327 -0.9864914795212099
4856000000.0 0.13945861971123102 -1.0020492831512928
4859000000.0 0.13584585233553031 -1.0593592062456163
4862000000.0 0.12887389901002258 -1.0053191820232894
4866000000.0 0.09355990018786536 -1.0422777863467145
4869000000.0 0.07765262242237937 -1.0185204118628073
4872000000.0 0.08218282789289662 -1.0562216222066685
4875000000.0 0.15593310014006148 -1.0536143286009505
4878000000.0 0.0692194185011864 -1.0572229794060122
4881000000.0 0.04868451150924737 -1.1036795801317196
4884000000.0 0.08447585475809258 -1.016137211115121
4888000000.0 0.07232481449035774 -1.0333242482175138
4891000000.0 0.0838855206519242 -1.0535493932852857
4894000000.0 0.028797372048592597 -1.0072736673689604
4897000000.0 0.059527286979059624 -1.0090266991958718
4900000000.0 0.0346429689034553 -1.069154886459761
4903000000.0 0.03743112253385934 -1.0614070769365245
4906000000.0 0.015647877756533486 -1.0520149082798294
4909000000.0 -0.0023247605561847497 -1.0506383111869746
4912000000.0 -0.022086681185492188 -1.0626455958789205
4916000000.0 0.02450398603365384 -1.0731382649861179
4919000000.0 0.011901843959745709 -1.048322071704462
4922000000.0 -0.014384773763615244 -1.0273181908585791
4925000000.0 -0.08817652955846811 -1.0226316391680812
4928000000.0 -0.0013691891276816082 -1.0098790274952856
4931000000.0 -0.04083307428322859 -1.0179516259421173
4934000000.0 -0.04962339167111317 -0.984162819060946
4938000000.0 -0.09744876685800972 -1.0139143512137305
4941000000.0 -0.08422511008108834 -0.9853054973059782
4944000000.0 -0.05921048168060167 -0.998174631902679
4947000000.0 -0.09297003963965486 -0.9964928531265285
4950000000.0 -0.09505952274402162 -0.9698432496654283
4953000000.0 -0.17550292801928158 -1.041291913360467
4956000000.0 -0.17821396673257717 -1.034463316729483
4959000000.0 -0.15932504150501206 -1.0022810511873839
4962000000.0 -0.1521649775481523 -1.0271924942780837
4966000000.0 -0.13946677757958298 -1.056415293845085
4969000000.0 -0.15482703029680134 -1.0674509537904087
4972000000.0 -0.18962953563708249 -1.0488959848034627
4975000000.0 -0.11851109686804565 -1.000136082671383
4978000000.0 -0.19143663362194963 -1.0428957197301596
4981000000.0 -0.21714465427855026 -0.999890047336871
4984000000.0 -0.18297147337150763 -1.0138999090923984
4988000000.0 -0.1894855322708322 -1.0240556972428108
4991000000.0 -0.15271639151198096 -1.0555806337158822
4994000000.0 -0.1973587724099734 -1.0157090622053877
4997000000.0 -0.28842175641788886 -0.9971884190638434
5000000000.0 -0.21751196963696584 -1.0425637663470095
5003000000.0 -0.2261540633289003 -1.0446569021975982
5006000000.0 -0.26136841819351453 -1.0539386571225413
5009000000.0 -0.2581915623597001 -0.9933548395910935
5012000000.0 -0.276934180534076 -1.0004049229601713
5016000000.0 -0.24798959606566373 -1.0262685779577458
5019000000.0 -0.2905317297931226 -0.9822416386881243
5022000000.0 -0.29988911912737726 -0.9974951788355972
5025000000.0 -0.30090515922255906 -1.0704414978939296
5028000000.0 -0.3265876403422985 -0.9937277729310374
5031000000.0 -0.3493616556159096 -0.9970287806387749
5034000000.0 -0.3959666153285286 -1.008908095587267
5038000000.0 -0.3741553199503028 -0.9463460551735077
5041000000.0 -0.2938619742019505 -1.0022045794400287
5044000000.0 -0.32937816467363445 -0.9564483486417151
5047000000.0 -0.33395929765987414 -0.9944675188413409
5050000000.0 -0.2794264286501701 -0.977199861074302
5053000000.0 -0.38193704578089627 -1.0129165401628308
5056000000.0 -0.3423636437805161 -0.9699868741404545
5059000000.0 -0.3444143526832219 -0.9998445194422722
5062000000.0 -0.419236319063903 -0.991372251305809
5066000000.0 -0.38362109293777746 -0.9280765177293224
5069000000.0 -0.41459956188535907 -0.9870352155572147
5072000000.0 -0.4098820482808483 -0.9385076999912652
5075000000.0 -0.3849618109912415 -0.9602138125820407
5078000000.0 -0.46994172606572354 -0.9474101760161411
5081000000.0 -0.4465622560491081 -0.9142075994092301
5084000000.0 -0.5010033423735315 -0.9714536957706772
5088000000.0 -0.42963419343018316 -0.9608089501607371
5091000000.0 -0.48181264516804784 -0.8931023486039109
5094000000.0 -0.4550235828637757 -0.9398300240636971
5097000000.0 -0.4209333382816428 -0.926240663154235
5100000000.0 -0.46958121684445536 -0.909199210273472
5103000000.0 -0.510299598089381 -0.889050192104507
5106000000.0 -0.4691737364808138 -0.9429626072866075
5109000000.0 -0.4518410148795428 -0.9384218768712145
5112000000.0 -0.5137718495449862 -0.8917492694253846
5116000000.0 -0.5153327375966832 -0.9040618933559375
5119000000.0 -0.5418742714859137 -0.8862703930408149
5122000000.0 -0.5870324879806211 -0.9078140330076194
5125000000.0 -0.5519784379895779 -0.9181960225544247
5128000000.0 -0.5580949745018103 -0.9168880795245562
5131000000.0 -0.5449690065026976 -0.8810006462524488
5134000000.0 -0.5245025212070391 -0.8714808700236626
5138000000.0 -0.5359239238328016 -0.8538264431633308
5141000000.0 -0.512335192512132 -0.9109689518195119
5144000000.0 -0.5810912898220119 -0.8880423184965129
5147000000.0 -0.58965464634522 -0.8925429565317132
5150000000.0 -0.5694147348092221 -0.9003175043700639
5153000000.0 -0.5889437454571389 -0.8940369529255234
5156000000.0 -0.567323537487009 -0.8374112877838187
5159000000.0 -0.6285344859013859 -0.910248063362386
5162000000.0 -0.6180909386409995 -0.8094465921356616
5166000000.0 -0.6719366072507865 -0.8639448653672285
5169000000.0 -0.634201816818552 -0.8520514215773802
5172000000.0 -0.6201822660354126 -0.7967786779599109
5175000000.0 -0.6516638179553471 -0.8894707357512616
5178000000.0 -0.670214973159702 -0.8173577212149473
5181000000.0 -0.6423476975643309 -0.8430928293399327
5184000000.0 -0.6751615191471411 -0.7866041057189979
5188000000.0 -0.6334726828155081 -0.84517177898752
