! Created with skrf 1.8.0 (http://scikit-rf.org).
# Hz S RI R 50.0 
!freq ReS11 ImS11
4000000000.0 0.6496854630975616 0.7938778993245599
4003000000.0 0.6617160944250922 0.8167294832482594
4006000000.0 0.6951997925519894 0.7794145028472804
4009000000.0 0.6523713363177632 0.7700919972538709
4012000000.0 0.6550658022860942 0.8205533110169863
4016000000.0 0.7074834450544614 0.769760840829349
4019000000.0 0.6862755850714739 0.7586338270345532
4022000000.0 0.6590745133342673 0.8243465069749739
4025000000.0 0.7689047887764503 0.7248968372347164
4028000000.0 0.698309949426569 0.7566026685927401
4031000000.0 0.6750717081158693 0.7439058788209646
4034000000.0 0.7332018666270587 0.7139358089815543
4038000000.0 0.724505276804672 0.7515364172568468
4041000000.0 0.7576189915407674 0.739487193867478
4044000000.0 0.7674797229574801 0.7400060410617039
4047000000.0 0.7194680926255816 0.7564528796324361
4050000000.0 0.773512392981869 0.7131345575355369
4053000000.0 0.7729606420483751 0.6775323579562553
4056000000.0 0.8007432414179042 0.6365213457693089
4059000000.0 0.7409164998147109 0.6788897781206442
4062000000.0 0.7918189721786228 0.6504606480335424
4066000000.0 0.7160666026471552 0.6047865798440322
4069000000.0 0.8208913246513833 0.6579803740583653
4072000000.0 0.7420942457785035 0.6806104895389582
4075000000.0 0.7460572727614069 0.7280780888201672
4078000000.0 0.8061095793268428 0.6601921325575661
4081000000.0 0.7845117048220211 0.6727360077499143
4084000000.0 0.8120472368707253 0.6595927197033147
4088000000.0 0.7775106695093568 0.6674619311841057
4091000000.0 0.8642696848079177 0.6767113708783044
4094000000.0 0.8119018184044553 0.6127116367942037
4097000000.0 0.8419256776361879 0.609922260971812
4100000000.0 0.844667005941564 0.6052617142004171
4103000000.0 0.8627002967790962 0.6235827305469133
4106000000.0 0.8772813736830729 0.5736291685925787
4109000000.0 0.8930800321377661 0.5876270985195664
4112000000.0 0.8143335942558998 0.5801682471265439
4116000000.0 0.8450585637149612 0.554614522899125
4119000000.0 0.8793462647229291 0.5535283683135153
4122000000.0 0.901012957152339 0.5056804988037962
4125000000.0 0.9212268511072184 0.5611624935747435
4128000000.0 0.8032934329189712 0.5586587115328594
4131000000.0 0.8358816498557273 0.5348619897937535
4134000000.0 0.8743967212590917 0.5388817957344683
4138000000.0 0.9006561661120582 0.4790539126960834
4141000000.0 0.9045069793350087 0.476797713607078
4144000000.0 0.9145132847144309 0.5014903409132767
4147000000.0 0.8989803410039289 0.45485032764491745
4150000000.0 0.9677659897101534 0.513192608479538
4153000000.0 0.8875031699114109 0.44491225740742524
4156000000.0 0.9151939481527664 0.49296538015477065
4159000000.0 0.8961936784013322 0.47659214804180633
4162000000.0 0.9171293824425013 0.42629378810616303
4166000000.0 0.9271356902518215 0.44236957636563246
4169000000.0 0.931425373349218 0.4351354187096206
4172000000.0 0.9313773029168224 0.4238361631715894
4175000000.0 0.9125561286462993 0.44925309013750975
4178000000.0 0.9320061510585597 0.4271848704127831
4181000000.0 0.9486081603154515 0.421658353605632
4184000000.0 0.9396947256277017 0.41861850919021854
4188000000.0 0.9665552420072276 0.42385897564434216
4191000000.0 0.9236504367920508 0.41697541366183594
4194000000.0 0.9395302027999446 0.36988291949077157
4197000000.0 0.9617432173843179 0.3753392320327528
4200000000.0 0.941400198785205 0.3773901761271232
4203000000.0 0.9691626081107282 0.37555923214739484
4206000000.0 0.9860823329628409 0.35967696218853645
4209000000.0 0.9377489523309194 0.3322780652079434
4212000000.0 0.9623179490668695 0.32623229220001815
4216000000.0 0.974860099787225 0.328982268865673
4219000000.0 0.9687008679932569 0.32804585872689684
4222000000.0 0.9845292498647398 0.2945408993015674
4225000000.0 0.9630743902193557 0.2954927958302206
4228000000.0 0.9908284254473818 0.2966617220372272
4231000000.0 0.9877254159771542 0.2797392113686632
4234000000.0 0.9769700414633418 0.27223907441537165
4238000000.0 0.9812908902109934 0.25452961417513886
4241000000.0 0.9855426513367338 0.237763352328337
4244000000.0 0.990694633499764 0.2508188778826712
4247000000.0 0.971589133332249 0.23937594280029845
4250000000.0 0.9864673874088068 0.22203433838799985
4253000000.0 0.9729306963344713 0.21441961695655687
4256000000.0 1.0154862991299578 0.21895066346598857
4259000000.0 0.9886227814461298 0.19305182075517066
4262000000.0 0.992136921982179 0.1819681851611434
4266000000.0 1.0131038331705209 0.15976533563476197
4269000000.0 0.9868957317447533 0.19163013106901003
4272000000.0 0.980962967359384 0.17661436071475578
4275000000.0 1.0077497162188622 0.17300778038092957
4278000000.0 1.0223423270095635 0.1640433743767003
4281000000.0 0.9932406238000131 0.1866599479563591
4284000000.0 1.031329634922896 0.10412281725988509
4288000000.0 0.990471228545463 0.15525987084659962
4291000000.0 0.9842025202126804 0.12930827261969347
4294000000.0 0.9909837744028877 0.10414542277049037
4297000000.0 0.9914219700294579 0.12362545367097429
4300000000.0 1.013470236294961 0.11414387033593135
4303000000.0 1.0018398482939634 0.08023656006263079
4306000000.0 1.0096132996755642 0.10728163768441493
4309000000.0 1.0150736549593842 0.08351406244641578
4312000000.0 1.020380395075948 0.11695404316968047
4316000000.0 1.0116631467705919 0.061646348620674266
4319000000.0 0.9868278945520143 0.04023045751746397
4322000000.0 0.976406083804931 -0.009357632132216173
4325000000.0 1.026810737393894 0.047658008654013914
4328000000.0 0.9996828016540474 0.014152438580403173
4331000000.0 1.0271091753845432 -0.025625653800063708
4334000000.0 1.0188925289268618 0.003612054016572913
4338000000.0 1.0069730353836093 0.021950373746055143
4341000000.0 1.0301028985664573 0.0076088847178840124
4344000000.0 1.034390775386406 0.007009775622985381
4347000000.0 1.0134744541542176 -0.047295036108336505
4350000000.0 0.9682175988422536 -0.03877829411996821
4353000000.0 1.0022180867675698 -0.029588481298969127
4356000000.0 1.0054443821842156 -0.06984857477040157
4359000000.0 0.9520843353742292 -0.0583182998910631
4362000000.0 1.015426759721005 -0.11330924514413755
4366000000.0 1.0291501710869242 -0.09922382148114756
4369000000.0 0.9564341613617274 -0.09584026096106615
4372000000.0 0.9876536202382951 -0.12932113366976922
4375000000.0 1.0061721338901606 -0.08823974508966607
4378000000.0 0.9742695456170798 -0.1025108214800535
4381000000.0 0.9872157404830899 -0.09983309955094435
4384000000.0 1.0456670040321314 -0.1397124341166069
4388000000.0 0.985921778045336 -0.13031244728709404
4391000000.0 0.9973909919007558 -0.1467310895845056
4394000000.0 0.9670385300890391 -0.17149573788446054
4397000000.0 0.9982713502546181 -0.17975121748602968
4400000000.0 1.0220803742807474 -0.19060663233612246
4403000000.0 1.0080071359043572 -0.1859710961442129
4406000000.0 0.9940201529374642 -0.21734227920798416
4409000000.0 1.0171828089523276 -0.2139119305038009
4412000000.0 0.9653635628928448 -0.2690476342418907
4416000000.0 0.9772159570179173 -0.22633002103122296
4419000000.0 0.9785018964037098 -0.2538584774520569
4422000000.0 0.975886295435018 -0.2249625533615616
4425000000.0 1.0109830168220868 -0.23301672246462243
4428000000.0 0.9619202271256593 -0.253389578040346
4431000000.0 1.0030645678353987 -0.25089246116693603
4434000000.0 0.9546648205361189 -0.27395478248561167
4438000000.0 0.9916050299110155 -0.2944577464292314
4441000000.0 0.9778669608335531 -0.2910082310496521
4444000000.0 0.948149177471804 -0.2920738359426314
4447000000.0 0.9470468952897738 -0.32093496945564826
4450000000.0 0.9560334366785399 -0.2957550618282451
4453000000.0 0.9920426086495306 -0.33138618701454325
4456000000.0 0.9178416824082926 -0.3368698418081813
4459000000.0 0.9031348676677431 -0.3592103487392314
4462000000.0 1.0072401811880065 -0.38035918692551934
4466000000.0 0.9803469160618349 -0.3698829162614159
4469000000.0 0.9524859716838469 -0.3540837125605897
4472000000.0 0.9439010620245133 -0.38962154306793906
4475000000.0 0.9134574418426443 -0.3690602664232374
4478000000.0 0.9522465673222495 -0.4319535567348083
4481000000.0 0.8898618097673878 -0.39317690187592735
4484000000.0 0.904692292645835 -0.4476698475809381
4488000000.0 0.9105237255896821 -0.4202580290232753
4491000000.0 0.9200454770192918 -0.43088659449300254
4494000000.0 0.8926236095709299 -0.423177115761686
4497000000.0 0.9050228709147115 -0.4275225804137963
4500000000.0 0.9032166130187831 -0.4225627506726645
4503000000.0 0.933722447895146 -0.46394356097676037
4506000000.0 0.8963917198172036 -0.46699156852880724
4509000000.0 0.8718595813485428 -0.4712412315480099
4512000000.0 0.8521448214323892 -0.4818489776230359
4516000000.0 0.9107515849481038 -0.48746023393492144
4519000000.0 0.8640764074305992 -0.4764734149359926
4522000000.0 0.8721775326369079 -0.5103878278853841
4525000000.0 0.876187918316522 -0.486476624614002
4528000000.0 0.8695471530895114 -0.5361481730703646
4531000000.0 0.8576960599634437 -0.505978301713965
4534000000.0 0.844443557512605 -0.5366240749646504
4538000000.0 0.8387574489633773 -0.5442740847109447
4541000000.0 0.8119740426224666 -0.5853318877434927
4544000000.0 0.8400499686477461 -0.5395037925836755
4547000000.0 0.8383605470712652 -0.5545693015765676
4550000000.0 0.8325649689447248 -0.5718325060016085
4553000000.0 0.8291755707102941 -0.5861626301418047
4556000000.0 0.8093152634369007 -0.5816425269942931
4559000000.0 0.8115145839722729 -0.6103449043927842
4562000000.0 0.8229272929214413 -0.6079689534632322
4566000000.0 0.8103589621881344 -0.6153774870438231
4569000000.0 0.7808758491551492 -0.6051434369464217
4572000000.0 0.7824019584223282 -0.6091871301691041
4575000000.0 0.7603387477382462 -0.6353167617325393
4578000000.0 0.8084054994549119 -0.6325458315811288
4581000000.0 0.767110476059924 -0.6618360477942864
4584000000.0 0.7453674277254833 -0.6439855805484725
4588000000.0 0.7799437865218324 -0.6659416598501997
4591000000.0 0.7646442974638832 -0.6708692570877376
4594000000.0 0.7385008120436042 -0.6886440863930303
4597000000.0 0.7533522458834203 -0.7004740696305793
4600000000.0 0.7100251313755533 -0.6999816703651282
4603000000.0 0.7478266793903444 -0.6957867519429294
4606000000.0 0.716336752382576 -0.6847229184970673
4609000000.0 0.7217535344115392 -0.7054543645924006
4612000000.0 0.7138482752354647 -0.7286698803176143
4616000000.0 0.69398230425211 -0.7159370582028659
4619000000.0 0.7008876383788367 -0.7266123050322618
4622000000.0 0.6834281104025309 -0.7342527444952178
4625000000.0 0.6618204003681039 -0.7405402604471881
4628000000.0 0.678457914977909 -0.7305402394953413
4631000000.0 0.6428662667678073 -0.7630246796808868
4634000000.0 0.6596816163469843 -0.7435622645372904
4638000000.0 0.6724804369806463 -0.7648769540990726
4641000000.0 0.6623787675851082 -0.7546103508753262
4644000000.0 0.6406907906363277 -0.7745850534871506
4647000000.0 0.628262428192703 -0.7721183863215516
4650000000.0 0.62301874543842 -0.7933401082316348
4653000000.0 0.6407607204735811 -0.7936937507654268
4656000000.0 0.6290818450935449 -0.8207393762286135
4659000000.0 0.6020849627340561 -0.809798793173363
4662000000.0 0.6022855888627578 -0.8271902194690469
4666000000.0 0.5944258693391102 -0.8190143437593608
4669000000.0 0.5982919669762272 -0.8092569219233635
4672000000.0 0.5758715234904493 -0.8482790637181339
4675000000.0 0.5785207379109121 -0.845377898327646
4678000000.0 0.547009013151968 -0.8113400459073289
4681000000.0 0.5352356182235931 -0.8619115965374996
4684000000.0 0.5477497350652757 -0.8745890302071768
4688000000.0 0.5298220240202622 -0.8783962858667631
4691000000.0 0.5489282777998059 -0.8792708476849633
4694000000.0 0.5441043602615867 -0.8267562002965667
4697000000.0 0.5038145080573176 -0.8365806214950349
4700000000.0 0.5399580925269064 -0.8433842543914627
4703000000.0 0.5330964440978727 -0.8282640036688484
4706000000.0 0.5131520589497376 -0.8577369274054294
4709000000.0 0.47474758361156766 -0.8748582914526026
4712000000.0 0.48976226824324254 -0.8665441928951704
4716000000.0 0.46567816853943755 -0.8913700610831967
4719000000.0 0.4905341595534722 -0.8994458930975615
4722000000.0 0.5025535463123402 -0.8777628475868955
4725000000.0 0.45789724967303197 -0.8876404951918605
4728000000.0 0.4506283643648119 -0.8979770016869313
4731000000.0 0.4535973893731852 -0.8961589577173332
4734000000.0 0.4720172048291865 -0.897412918314227
4738000000.0 0.4517833102091012 -0.9643790980610004
4741000000.0 0.4261765270038277 -0.9498698563951772
4744000000.0 0.3817172783081332 -0.9610980311873222
4747000000.0 0.3914121571892528 -0.9032114075930312
4750000000.0 0.3986266855153853 -0.9330872838856756
4753000000.0 0.40930730930194237 -0.9502235177367082
4756000000.0 0.3759729396889021 -0.9287699593275034
4759000000.0 0.37594409450973054 -0.9534035739118166
4762000000.0 0.36414703365447193 -0.9761540577947406
4766000000.0 0.38050730180323095 -0.9447997422570412
4769000000.0 0.38628144052639446 -0.9781545579708238
4772000000.0 0.355604867762744 -0.9633320619423137
4775000000.0 0.32579964964707475 -0.9765377175281962
4778000000.0 0.31683009526236805 -0.9934480554454416
4781000000.0 0.3477540353315548 -0.9563206282302927
4784000000.0 0.34035871028140363 -0.9592013640989531
4788000000.0 0.2795864597572396 -0.9891138240330841
4791000000.0 0.27908958772730014 -0.9524220979428445
4794000000.0 0.30230330743314165 -1.0180342395110935
4797000000.0 0.2690362047063357 -0.9792962672938336
4800000000.0 0.2566513786706311 -0.9634883578360474
4803000000.0 0.21469279158900326 -0.9724473772118747
4806000000.0 0.2384382370408509 -0.9872404228351483
4809000000.0 0.20776000316026935 -1.005841685263631
4812000000.0 0.19543483606070103 -0.9823844923816234
4816000000.0 0.2572580215868089 -0.9752025813212204
4819000000.0 0.2535724255349586 -1.031466116950766
4822000000.0 0.21027859098569335 -1.0375482731121148
4825000000.0 0.23768940259740026 -1.0158512059883509
4828000000.0 0.18443435623544294 -1.0145243482714221
4831000000.0 0.15655239135974033 -1.0174636895382847
4834000000.0 0.1749499301832323 -1.0172323570709292
4838000000.0 0.1513192521034241 -1.017356987121829
4841000000.0 0.13190315680315176 -0.9623491899266977
4844000000.0 0.18523090598789288 -1.0221162028617532
4847000000.0 0.17555203483726783 -0.977002154938241
4850000000.0 0.12004363161382384 -1.030538367515031
4853000000.0 0.12271175168432491 -1.001893293591475
4856000000.0 0.11772935730443018 -0.9977642374989716
4859000000.0 0.1046074462749333 -1.0425444847289933
4862000000.0 0.1088138875510928 -0.9927796287959071
4866000000.0 0.06914504361584853 -1.070222452568199
4869000000.0 0.06303007562888237 -1.0220254161826383
4872000000.0 0.06345003461254163 -1.0531389989772022
4875000000.0 0.10101842751346182 -1.0622125679401389
4878000000.0 0.04740795926682924 -1.041703748445083
4881000000.0 0.024095875300350983 -1.092249783124386
4884000000.0 0.058808201633505176 -1.0431356330912387
4888000000.0 0.07326690824723348 -1.0332328671908377
4891000000.0 0.030600718007660694 -1.051414437670662
4894000000.0 0.0021846779067535658 -1.022843375352371
4897000000.0 0.016221700088192903 -1.0007002709608663
4900000000.0 -0.01300688657868114 -1.0375405626845313
4903000000.0 -0.031297052158675356 -1.0237098679160503
4906000000.0 -0.02693101583911374 -1.062273004435185
4909000000.0 -0.05679405734041692 -1.0280528631942107
4912000000.0 -0.0544199329207367 -1.0687646905162533
4916000000.0 -0.031149932470936538 -1.0442300531889075
4919000000.0 -0.011106449681126299 -1.0265638481830954
4922000000.0 -0.01305318297675337 -1.0263230232310876
4925000000.0 -0.08161068025799645 -1.01566255461315
4928000000.0 -0.019824324724582593 -1.0104900627903335
4931000000.0 -0.05007066837503886 -1.0253311020450473
4934000000.0 -0.09835657079220829 -0.997392216891688
4938000000.0 -0.11953711016582093 -0.9927694594694414
4941000000.0 -0.09509109848593526 -0.9985133604786711
4944000000.0 -0.09690376975363929 -0.9806157004013023
4947000000.0 -0.1244116654243711 -0.9943248233529818
4950000000.0 -0.15426773177926878 -1.0240038558750455
4953000000.0 -0.1641238358742118 -1.0669978738022918
4956000000.0 -0.17451935887484965 -1.0155162082122764
4959000000.0 -0.20330426139313865 -0.9786937951999586
4962000000.0 -0.18986561486375533 -1.0622306970479258
4966000000.0 -0.12350568246646881 -1.0186690260837081
4969000000.0 -0.14196898712053346 -1.0599029122158368
4972000000.0 -0.21602114297286082 -1.026491789159468
4975000000.0 -0.14233090713406996 -1.0282045594588363
4978000000.0 -0.24356568623116603 -1.0128559226037985
4981000000.0 -0.2203386211485611 -0.9883023633581155
4984000000.0 -0.20412469155133864 -0.9636360759734226
4988000000.0 -0.20052651375461372 -0.9907492989795341
4991000000.0 -0.19980405920420397 -1.0372459100878186
4994000000.0 -0.25340129814896667 -1.0303894725509781
4997000000.0 -0.2907567199407564 -0.9987219796502458
5000000000.0 -0.26159792482930705 -1.0259519280584597
5003000000.0 -0.2786697586111136 -1.0251165061447114
5006000000.0 -0.29366596305817316 -1.0311112857855234
5009000000.0 -0.27710303149248217 -1.006486860815829
5012000000.0 -0.31826755559267433 -0.9774022839678542
5016000000.0 -0.26317423502746157 -1.0408074855530742
5019000000.0 -0.3219072680170294 -0.9579402562091199
5022000000.0 -0.32078574825927453 -0.9849488959518176
5025000000.0 -0.3630577141453813 -1.0365571497790194
5028000000.0 -0.3644835429987706 -0.9504526908296935
5031000000.0 -0.3479240676202757 -0.9875545501547892
5034000000.0 -0.3935132097275257 -0.9879374358982809
5038000000.0 -0.3669144593599758 -0.931396714928429
5041000000.0 -0.345726942765073 -0.9942707136394372
5044000000.0 -0.3209432932136116 -0.936545041920949
5047000000.0 -0.3750956548362075 -1.0033246337237678
5050000000.0 -0.2695154706316638 -0.9556110839775567
5053000000.0 -0.3964153828747329 -1.0044161843991213
5056000000.0 -0.36140826595771747 -0.9517905981935837
5059000000.0 -0.3898621854304281 -0.9719899004883205
5062000000.0 -0.46984816535962903 -0.952037761886249
5066000000.0 -0.37272208782046223 -0.9359518881941464
5069000000.0 -0.4479152301315439 -0.9264572288907719
5072000000.0 -0.4409642518001027 -0.8831174813083595
5075000000.0 -0.4170396619839998 -0.9675925001897099
5078000000.0 -0.46027068863926784 -0.897358281399145
5081000000.0 -0.427026973921976 -0.9247379859153203
5084000000.0 -0.4807033084454104 -0.9546568030455025
5088000000.0 -0.449935038415495 -0.9111965653064198
5091000000.0 -0.533145182557859 -0.9128398518903627
5094000000.0 -0.4738005107020487 -0.9101427169413866
5097000000.0 -0.47126439108342344 -0.9048131010659775
5100000000.0 -0.5088306621813757 -0.9182331588527178
5103000000.0 -0.51425464601148 -0.8747275915041631
5106000000.0 -0.49472813070139815 -0.9074036992133847
5109000000.0 -0.5004765143407973 -0.8529362007870651
5112000000.0 -0.5483117383384077 -0.8417862941707048
5116000000.0 -0.47887265056890077 -0.8600621248267131
5119000000.0 -0.5405190836564269 -0.8772121429910629
5122000000.0 -0.5079541751163692 -0.8470535142989952
5125000000.0 -0.5804128364763796 -0.8626187243971521
5128000000.0 -0.5093828761627396 -0.8640192859789655
5131000000.0 -0.566103784659521 -0.8024094112897201
5134000000.0 -0.5644338195637961 -0.8887913434135812
5138000000.0 -0.5955081926695245 -0.8850211904638113
5141000000.0 -0.5439692072203832 -0.8494187566193656
5144000000.0 -0.5774802600254606 -0.865285636094396
5147000000.0 -0.6030857218341155 -0.8715055820879377
5150000000.0 -0.6020502499271305 -0.8867301098332275
5153000000.0 -0.6509808907716492 -0.8336669132798427
5156000000.0 -0.5901630123752883 -0.8781167594210787
5159000000.0 -0.6620687607517529 -0.8499572945345544
5162000000.0 -0.6489080258621936 -0.7962986210323537
5166000000.0 -0.646353703342256 -0.8222212901478824
5169000000.0 -0.6822962306794472 -0.805850082031232
5172000000.0 -0.6570054446950279 -0.7908082726683112
5175000000.0 -0.6494983696646657 -0.8277029111276246
5178000000.0 -0.6845354974651958 -0.7432195607794612
5181000000.0 -0.672221223578044 -0.7956504206347436
5184000000.0 -0.6373758353066217 -0.7358814092737864
5188000000.0 -0.7149387593454906 -0.7828497373220096
