! Created with skrf 1.8.0 (http://scikit-rf.org).
# Hz S RI R 50.0 
!freq ReS11 ImS11
4000000000.0 0.7213172870710559 0.7293645011891077
4003000000.0 0.7433631125604301 0.7675894350275791
4006000000.0 0.7363434207538865 0.6969221804240542
4009000000.0 0.7460434004976342 0.7297867831313006
4012000000.0 0.7309544963191347 0.7935288860435759
4016000000.0 0.742943021445711 0.7181550759553221
4019000000.0 0.7785725843906826 0.7017390736274887
4022000000.0 0.7368756166775656 0.763349699984559
4025000000.0 0.7852929247777674 0.7231708875085573
4028000000.0 0.758961394702063 0.6846995502825086
4031000000.0 0.7397022517188884 0.6372648801637607
4034000000.0 0.7408588773829965 0.6646459373210122
4038000000.0 0.7917161832929979 0.661171578179855
4041000000.0 0.784553518736067 0.6398786622557013
4044000000.0 0.8274888274077039 0.7230082756660873
4047000000.0 0.8169268695553641 0.6911941868552272
4050000000.0 0.837621287374483 0.6286107745982819
4053000000.0 0.7873064285227599 0.6089449915623546
4056000000.0 0.8183290556355253 0.6592929265860911
4059000000.0 0.772037445249404 0.6093631284121392
4062000000.0 0.8226938183353264 0.6012144987249224
4066000000.0 0.7705109464043471 0.5617055999976908
4069000000.0 0.8672171879103442 0.616207344740276
4072000000.0 0.8071193429051872 0.6064907837914908
4075000000.0 0.8477523998610981 0.6259325837181937
4078000000.0 0.8759555711577617 0.5564774427041107
4081000000.0 0.8613998249127667 0.6518817754728
4084000000.0 0.860341348648593 0.5713625969699396
4088000000.0 0.8480709814303762 0.6070501939621601
4091000000.0 0.9293080581134643 0.6056100256896688
4094000000.0 0.8435096736688803 0.5333869528749013
4097000000.0 0.8786146661710444 0.5324738660691368
4100000000.0 0.88571041283819 0.5453962296683066
4103000000.0 0.8944754349767525 0.5694184356621985
4106000000.0 0.8646476460557547 0.5165242038760353
4109000000.0 0.9134496870951041 0.4958067946715882
4112000000.0 0.9046540478554919 0.4853943828911544
4116000000.0 0.9362212159159918 0.5023477140898612
4119000000.0 0.8939804286700074 0.48333947578306635
4122000000.0 0.9176545861479023 0.4710699983848934
4125000000.0 0.929419815150619 0.4794041534856239
4128000000.0 0.9152997381634186 0.4772181680321871
4131000000.0 0.919128839983818 0.4227031764576584
4134000000.0 0.9362412484497102 0.438259198673541
4138000000.0 0.9174656572410009 0.4092187649077898
4141000000.0 0.9203117166050919 0.4129534872650402
4144000000.0 0.9421818660024707 0.41268238694817166
4147000000.0 0.9279436248150118 0.39943012968303154
4150000000.0 0.9840706030079529 0.38646646846027105
4153000000.0 0.927468761057149 0.3852053841697861
4156000000.0 0.9518912195638538 0.4310887845305924
4159000000.0 0.932566921428841 0.39003146482873724
4162000000.0 0.9425316428360264 0.36157126240723947
4166000000.0 0.9677036618900843 0.36796062369195415
4169000000.0 0.9595548682035042 0.34490574894069526
4172000000.0 0.9448729615112124 0.36017849035695676
4175000000.0 0.9746449386084117 0.37298250077171285
4178000000.0 0.9994085234675514 0.34908838275529497
4181000000.0 0.955722634581601 0.3289483151947129
4184000000.0 0.9618660729463929 0.2987830230138602
4188000000.0 0.9586082964722564 0.2866715014134298
4191000000.0 0.9473410208660916 0.3257844883657535
4194000000.0 0.9813160333525947 0.2749636826087085
4197000000.0 0.9943280401435904 0.2944637550838523
4200000000.0 0.9943196637766656 0.29872835496940975
4203000000.0 0.9793426733300776 0.2779063962802374
4206000000.0 1.0171247830052135 0.2669011780012203
4209000000.0 0.9717626915530949 0.2455090667623674
4212000000.0 0.9984838131647303 0.20634646014419955
4216000000.0 0.9989398579430803 0.2592473035910931
4219000000.0 1.0190672167702073 0.24762861287688445
4222000000.0 1.0180866737321161 0.19878860062407766
4225000000.0 0.9935874955431421 0.20727365411356644
4228000000.0 1.0059806461768694 0.2056153701545739
4231000000.0 1.006764568169866 0.18554158820737543
4234000000.0 1.0164341146242704 0.17703512097780733
4238000000.0 1.0184914351939613 0.150942302808082
4241000000.0 1.0006130565273954 0.16254678837468817
4244000000.0 1.0096612066107502 0.14297117480648858
4247000000.0 1.0161233039009454 0.15750519003816638
4250000000.0 0.9845268684366901 0.12385453615802172
4253000000.0 0.9795893627984318 0.11626003841344251
4256000000.0 1.0349966488801199 0.11816232253057568
4259000000.0 0.9726762441153293 0.09234435517952069
4262000000.0 1.010197979628288 0.07609100676853323
4266000000.0 1.0299052872663934 0.060731756114629415
4269000000.0 1.0112273863260983 0.10187107178632737
4272000000.0 1.0201124665804817 0.09400956575079497
4275000000.0 1.016413747646474 0.06464421036022369
4278000000.0 1.0293814360855587 0.06943816982282155
4281000000.0 1.0271169723890834 0.04298534931994531
4284000000.0 1.0190078318044078 -0.0045883796881206335
4288000000.0 1.0090277964695633 0.051677336278392445
4291000000.0 0.9939059988033977 0.020976565033572953
4294000000.0 0.9934421481714228 -0.019042608701579047
4297000000.0 1.0215558814988068 0.017176010891655227
4300000000.0 0.97489680743723 0.00381429655863922
4303000000.0 1.0074876248566522 -0.02966752385209799
4306000000.0 1.020800901111356 0.012632740148805735
4309000000.0 1.0131554647371819 -0.016076497436880527
4312000000.0 1.043436497645842 -0.013616896021526208
4316000000.0 1.0102797124242677 -0.03549962957339388
4319000000.0 1.0043267575672132 -0.05301769062667859
4322000000.0 1.0058062697222456 -0.07203534737892199
4325000000.0 1.0125897426837758 -0.07119888210473682
4328000000.0 0.9910696405973447 -0.09280592314032571
4331000000.0 1.013649438731843 -0.11114880282827291
4334000000.0 1.0286418939713688 -0.11015171183952448
4338000000.0 1.0093106989868181 -0.08783467513366815
4341000000.0 1.038739496578615 -0.10435263950633308
4344000000.0 1.031610545327296 -0.1345178833970734
4347000000.0 1.026302552055286 -0.16029638165190768
4350000000.0 0.959211511732077 -0.1650170320927767
4353000000.0 0.9843395820682845 -0.1333922881030651
4356000000.0 0.9771948897829534 -0.19505960871211386
4359000000.0 0.9594492838933685 -0.16573718890442857
4362000000.0 0.9881034535533837 -0.2354554628979265
4366000000.0 1.007307855400353 -0.20328665055920042
4369000000.0 0.9577363660963657 -0.2002403944860611
4372000000.0 0.964513273561197 -0.2504016050142835
4375000000.0 0.9754864127532379 -0.194624383874321
4378000000.0 0.9530123364768632 -0.22626798768635048
4381000000.0 0.9588584489438374 -0.22367458596849085
4384000000.0 1.038746176597065 -0.2763098590931447
4388000000.0 0.9830488586904325 -0.26227191894808777
4391000000.0 0.9822608651715914 -0.25626068879509006
4394000000.0 0.9520678310393066 -0.281892064936993
4397000000.0 0.9728492957225552 -0.29005718653873674
4400000000.0 0.996061730106895 -0.3140796432674441
4403000000.0 0.9781616970252238 -0.2994211005793976
4406000000.0 0.9600869456310641 -0.33490371328125734
4409000000.0 0.9862208052628891 -0.33684397022393064
4412000000.0 0.930565718267652 -0.3839259303049492
4416000000.0 0.9436659171589776 -0.3480685669149478
4419000000.0 0.9495706020458174 -0.3716248912891479
4422000000.0 0.9472755742427423 -0.3449614328879102
4425000000.0 0.9601153080042241 -0.3655066124500684
4428000000.0 0.9454905697355764 -0.38293368445116305
4431000000.0 0.951449383257454 -0.39327944517885677
4434000000.0 0.938264418091999 -0.3928453977425681
4438000000.0 0.9511636641072976 -0.41370582690497537
4441000000.0 0.9354524349637148 -0.4143203352137872
4444000000.0 0.8911299225621558 -0.4015600140633129
4447000000.0 0.900876609039176 -0.4371096720829786
4450000000.0 0.9093288746006197 -0.41514103180219974
4453000000.0 0.9239251045523784 -0.4514386509944216
4456000000.0 0.8793905177826549 -0.4397609278079476
4459000000.0 0.8551749003326525 -0.4490523770799717
4462000000.0 0.934286968159727 -0.49724760346536356
4466000000.0 0.9250831046385435 -0.4957840757062254
4469000000.0 0.90112033052677 -0.4727070299594942
4472000000.0 0.8752210135720633 -0.5143157815640931
4475000000.0 0.8616335349965042 -0.48054012100430754
4478000000.0 0.8967186729733121 -0.5375681768302838
4481000000.0 0.8503769675415084 -0.5117705998691866
4484000000.0 0.8331762678381562 -0.5651932595628552
4488000000.0 0.8414803365719906 -0.5525657745770578
4491000000.0 0.8597605035094894 -0.5419318428861877
4494000000.0 0.8483706017345375 -0.5473804508451053
4497000000.0 0.8484222165280526 -0.5394689512042512
4500000000.0 0.8299903572346892 -0.5594736070334845
4503000000.0 0.8723688655347781 -0.588800858655107
4506000000.0 0.8265749923555283 -0.5885304289490185
4509000000.0 0.8082957591120443 -0.5804670353387484
4512000000.0 0.7574787107907377 -0.6013011818209459
4516000000.0 0.8344461209055134 -0.6079012119987951
4519000000.0 0.7960135360104506 -0.5985203775731458
4522000000.0 0.7938197777293998 -0.6277514334424384
4525000000.0 0.8169490658974146 -0.5987740501300561
4528000000.0 0.8196874249012149 -0.6542320589294042
4531000000.0 0.8033719291131644 -0.6457330081978273
4534000000.0 0.7712709799391285 -0.6672861766716259
4538000000.0 0.765331051237587 -0.6476231738776466
4541000000.0 0.7353707832764563 -0.6717909161819465
4544000000.0 0.7514994397746386 -0.6654894622537645
4547000000.0 0.7630300878389543 -0.6621185889787291
4550000000.0 0.7486798148247784 -0.7086613795309312
4553000000.0 0.7482161820444744 -0.7050857000341466
4556000000.0 0.7219824332432403 -0.6964986332204193
4559000000.0 0.703903329179553 -0.7104215912338467
4562000000.0 0.7257730423387729 -0.7261077059325668
4566000000.0 0.7124828184803957 -0.7290817110093242
4569000000.0 0.6807477596015611 -0.72920551050133
4572000000.0 0.7002805380461009 -0.7240806585413097
4575000000.0 0.6883573354175183 -0.7460305806062396
4578000000.0 0.7270314302718404 -0.7547041426828919
4581000000.0 0.6817845931529438 -0.7521409115075636
4584000000.0 0.6743651211065004 -0.7603298365925646
4588000000.0 0.6918513530638541 -0.7710845413482937
4591000000.0 0.6758957270513412 -0.7670321396483615
4594000000.0 0.6235837351106168 -0.7884748541624683
4597000000.0 0.6605258429335101 -0.794470213655539
4600000000.0 0.6139138943945055 -0.7924333802799526
4603000000.0 0.6158054633755474 -0.7823297869857936
4606000000.0 0.6429700000344215 -0.8091163507112862
4609000000.0 0.6123748124515322 -0.7992729903301649
4612000000.0 0.610913836422941 -0.8238696072169625
4616000000.0 0.5833486241963701 -0.8187129063833785
4619000000.0 0.5894974250290133 -0.812703517602738
4622000000.0 0.5662100021168394 -0.825170379604319
4625000000.0 0.5555680464952596 -0.8302204470540625
4628000000.0 0.564431462884882 -0.8452069855799764
4631000000.0 0.5439944396019598 -0.8674764100458969
4634000000.0 0.5484643739622753 -0.8543464423757966
4638000000.0 0.5506582139103833 -0.8498436746752057
4641000000.0 0.5521665128062757 -0.8566548506950982
4644000000.0 0.5251736865812889 -0.8772099677617512
4647000000.0 0.526366740651298 -0.8803868779694645
4650000000.0 0.5007674336140396 -0.874308573208586
4653000000.0 0.5115927207094038 -0.8823326431388373
4656000000.0 0.4744739519898354 -0.8875902580534529
4659000000.0 0.4787073566101723 -0.9106109642192523
4662000000.0 0.47114039592901263 -0.8942880467012273
4666000000.0 0.4526771685325275 -0.9034697763050951
4669000000.0 0.47066463102585265 -0.9247364440394206
4672000000.0 0.4390896183512874 -0.9456437612672971
4675000000.0 0.4433169667865238 -0.9379029841373543
4678000000.0 0.42663227124012565 -0.8955979455295304
4681000000.0 0.4008434675760044 -0.94734699617492
4684000000.0 0.40129921602162566 -0.9565304418144046
4688000000.0 0.3643965283871369 -0.9440931033037258
4691000000.0 0.418653885739925 -0.9593604519853496
4694000000.0 0.42079843187717664 -0.923804838670697
4697000000.0 0.37097510328281635 -0.9133023163141161
4700000000.0 0.37327805042078266 -0.9298722626867213
4703000000.0 0.3733834783830775 -0.8855250614896444
4706000000.0 0.357872711114094 -0.9807040083597809
4709000000.0 0.35722842390337983 -0.9478397328664468
4712000000.0 0.33221503450728623 -0.9639131220285847
4716000000.0 0.3327677935682859 -0.9962238582482521
4719000000.0 0.3509962671712926 -0.9923967729304253
4722000000.0 0.3236688646086708 -0.9618277647963112
4725000000.0 0.3112853355619324 -0.9458534008929497
4728000000.0 0.27684524694093354 -0.9645623807206805
4731000000.0 0.3043246000407063 -1.0173210127633605
4734000000.0 0.29375558257991846 -0.9594610490488638
4738000000.0 0.2847839729414169 -1.0326759126882548
4741000000.0 0.25896986001312233 -1.025533185451017
4744000000.0 0.23218519722214442 -1.01419159547334
4747000000.0 0.24957124237054407 -0.9677012728177242
4750000000.0 0.23827798572489495 -1.0035866541552259
4753000000.0 0.22502872628122353 -0.9807048595862835
4756000000.0 0.208383203418167 -1.0051901776790206
4759000000.0 0.25362775359081 -0.9743222028028968
4762000000.0 0.20622338263466206 -1.024343314243434
4766000000.0 0.1731913248626709 -1.009136341075432
4769000000.0 0.16288420423024771 -1.018135486609005
4772000000.0 0.19746107009842487 -1.0157914629709057
4775000000.0 0.1628479580450094 -1.0668564418660387
4778000000.0 0.15590933335668422 -1.024625329020609
4781000000.0 0.17219127688107497 -1.0012100843198002
4784000000.0 0.1706334319631016 -1.0046221334902379
4788000000.0 0.10736416907529359 -1.01447865675984
4791000000.0 0.09808557951596383 -1.0136906486894397
4794000000.0 0.14494984852555104 -1.0639559642824945
4797000000.0 0.08937872486227083 -0.9826579558009073
4800000000.0 0.10508051634353807 -1.0070983069703447
4803000000.0 0.049878847108633106 -1.0190191789972483
4806000000.0 0.06897026897833106 -1.0262191022184861
4809000000.0 0.03721071956783095 -1.0225408027565113
4812000000.0 0.007656863327512697 -1.033495287126006
4816000000.0 0.08171220153591327 -1.0165160658243877
4819000000.0 0.054828468299666644 -1.0313550274668617
4822000000.0 0.04481701405270416 -1.0525189197574665
4825000000.0 0.04369984678468203 -1.0457058112752453
4828000000.0 0.00363076821488284 -1.011557940097381
4831000000.0 -0.053965281820235786 -1.0443924212812392
4834000000.0 0.0022352860524551543 -1.022415918527855
4838000000.0 -0.05285336748519513 -1.0453027728947504
4841000000.0 -0.03154993194074966 -0.9982121645175165
4844000000.0 -0.02052400067512805 -1.041091481669402
4847000000.0 -0.03166532583548798 -1.0057848191092087
4850000000.0 -0.06484250204853745 -1.0574804002039189
4853000000.0 -0.06465491910708682 -0.9833038764833282
4856000000.0 -0.08739300313994702 -1.0297377515520614
4859000000.0 -0.10242388283948353 -1.0636038643182943
4862000000.0 -0.06612674751919072 -1.00817321532764
4866000000.0 -0.11046862564902826 -1.0416373301474569
4869000000.0 -0.11853676527536554 -1.0202140535713808
4872000000.0 -0.1479563399967917 -1.0649419533557558
4875000000.0 -0.06776523548505008 -1.0753859522484448
4878000000.0 -0.13350909191790022 -1.0330477215651594
4881000000.0 -0.2013680469994175 -1.0780867192417305
4884000000.0 -0.14685855845882137 -1.0270922042799469
4888000000.0 -0.12369622801995316 -1.0054928742056422
4891000000.0 -0.16726828549792436 -1.0512763980806863
4894000000.0 -0.17945972067542035 -1.0191720462039675
4897000000.0 -0.16698687098312073 -1.0224985294053202
4900000000.0 -0.21023347587742924 -1.0522962307944612
4903000000.0 -0.22816679562828823 -1.0542877618096476
4906000000.0 -0.2245264338856483 -1.085727250260025
4909000000.0 -0.2536914547095834 -0.9857484510770854
4912000000.0 -0.28994565624157703 -1.0631347969681346
4916000000.0 -0.2557864332980968 -1.0232969310244318
4919000000.0 -0.21324405547897762 -1.0275894953307065
4922000000.0 -0.22981361428993605 -0.9985571223074153
4925000000.0 -0.3044911790928285 -0.9653643102988714
4928000000.0 -0.20353807647452843 -1.0141368166237055
4931000000.0 -0.2933470168287751 -1.014975021869063
4934000000.0 -0.28482500823868445 -0.984203881001888
4938000000.0 -0.3231336997296565 -0.9891005190048386
4941000000.0 -0.28456563773916127 -0.986158633390817
4944000000.0 -0.29393870913968656 -0.9501568606593198
4947000000.0 -0.3136478220395943 -0.9458953842287695
4950000000.0 -0.31769815914967087 -0.9623278011656261
4953000000.0 -0.39176529161133167 -1.0037999795088397
4956000000.0 -0.3850028918683193 -0.9630582639421269
4959000000.0 -0.3911310321265702 -0.9236760238688139
4962000000.0 -0.4007544325050093 -0.9808090796098992
4966000000.0 -0.32708214054627627 -1.0202084423059028
4969000000.0 -0.3811356892165382 -1.027872211513137
4972000000.0 -0.3944659989875283 -0.9510832871627192
4975000000.0 -0.3890094940207802 -0.9622285990220807
4978000000.0 -0.38986674833338586 -0.9689847493620093
4981000000.0 -0.4424808392955343 -0.9764758709324344
4984000000.0 -0.4048572758355339 -0.9051608384916321
4988000000.0 -0.43635719910646625 -0.9344939809171106
4991000000.0 -0.41608448930035796 -0.9736211745293039
4994000000.0 -0.4435696114849853 -0.9161988940589998
4997000000.0 -0.5007299281860051 -0.937641252129274
5000000000.0 -0.49543827763086934 -0.9682374529458531
5003000000.0 -0.45688254087160135 -0.9219268780030464
5006000000.0 -0.5172143562539541 -0.9906529666952291
5009000000.0 -0.5103698555470729 -0.9068431812964365
5012000000.0 -0.533150614737949 -0.8884723651659663
5016000000.0 -0.48674997903973233 -0.9446205544411066
5019000000.0 -0.5315373047104646 -0.8777311559372344
5022000000.0 -0.5351216509397706 -0.911038598204104
5025000000.0 -0.5813947658709784 -0.9244452239842709
5028000000.0 -0.5636135158075071 -0.8823135437156683
5031000000.0 -0.5749154098686973 -0.8473727970387669
5034000000.0 -0.6150494226938862 -0.8687626222111982
5038000000.0 -0.5770990831309054 -0.8356602402431903
5041000000.0 -0.5560034555360553 -0.9021681087014674
5044000000.0 -0.5690443920148482 -0.878638271495651
5047000000.0 -0.6123550720217781 -0.8871956028234559
5050000000.0 -0.5556793636742402 -0.8852329306165967
5053000000.0 -0.6169620479835176 -0.8654303945036401
5056000000.0 -0.6004165850803395 -0.8922159827805622
5059000000.0 -0.6085768558754681 -0.8441497494372198
5062000000.0 -0.6567289737135 -0.8221822448050519
5066000000.0 -0.5955861406390576 -0.8585901363976078
5069000000.0 -0.6547730553982514 -0.8718498870489647
5072000000.0 -0.6053447302209035 -0.8189118758332112
5075000000.0 -0.6233853333781195 -0.8441596229219497
5078000000.0 -0.708645797060089 -0.7923311622999846
5081000000.0 -0.6861543143002922 -0.812294452771631
5084000000.0 -0.7102359788655463 -0.8252136160568522
5088000000.0 -0.6577534504314858 -0.7731612627685855
5091000000.0 -0.7075202281746509 -0.7559677191121534
5094000000.0 -0.6769112068667013 -0.7520657959011666
5097000000.0 -0.6678125880791563 -0.7940837377347658
5100000000.0 -0.7093116990602021 -0.7530014806015423
5103000000.0 -0.7323786111744173 -0.6994457986750777
5106000000.0 -0.734825257947863 -0.76939544343025
5109000000.0 -0.7523859814314493 -0.7712620169224152
5112000000.0 -0.7466599049152842 -0.7082179922971739
5116000000.0 -0.7172417274825338 -0.7153618206264152
5119000000.0 -0.8456115093031152 -0.7545689133843334
5122000000.0 -0.7713493944249938 -0.6771964828325419
5125000000.0 -0.7051894123985164 -0.7287394211371698
5128000000.0 -0.7636371664941984 -0.7237916539738849
5131000000.0 -0.8087537456987659 -0.6957574340125562
5134000000.0 -0.7891731263691314 -0.6967329838940354
5138000000.0 -0.7610617336918499 -0.6930726959875594
5141000000.0 -0.8231604254535203 -0.6945874611920375
5144000000.0 -0.7489175066740719 -0.701194549524973
5147000000.0 -0.7831249232905133 -0.6776721246164036
5150000000.0 -0.799951406911518 -0.6946065262212372
5153000000.0 -0.8776655199078844 -0.6774704130550829
5156000000.0 -0.8502517002071335 -0.6337333251549749
5159000000.0 -0.8548379616291127 -0.7080632604438712
5162000000.0 -0.8440527906669462 -0.619697441753006
5166000000.0 -0.8510382747554484 -0.6025424041544853
5169000000.0 -0.826269880149722 -0.6278856692550406
5172000000.0 -0.8448900437480564 -0.5989188522348193
5175000000.0 -0.8237604777026545 -0.6014387072760732
5178000000.0 -0.8778363109397413 -0.6280750042772398
5181000000.0 -0.8698036823558458 -0.5654308178819712
5184000000.0 -0.8761335360370933 -0.6074226529723108
5188000000.0 -0.9093469557403162 -0.5708029064077834
