! Created with skrf 1.8.0 (http://scikit-rf.org).
# Hz S RI R 50.0 
!freq ReS11 ImS11
4000000000.0 0.7037423142159303 0.7697293702369561
4003000000.0 0.7136243255563014 0.7827298408454704
4006000000.0 0.776465512083761 0.7124918892760765
4009000000.0 0.781802512674835 0.7235575430895871
4012000000.0 0.7162349081570508 0.7937520081960152
4016000000.0 0.7907282443787808 0.6991092801514549
4019000000.0 0.7351617212702659 0.6774045170240294
4022000000.0 0.7348939069060894 0.7316731247735425
4025000000.0 0.7784139254744032 0.6598597964325958
4028000000.0 0.7645185040705681 0.6590828410452665
4031000000.0 0.729066405337565 0.6478920717017483
4034000000.0 0.7357834075238086 0.6657911596324785
4038000000.0 0.7952953664201353 0.6561745861984165
4041000000.0 0.800022743337894 0.6962688371504939
4044000000.0 0.8247886892958584 0.6857534509451054
4047000000.0 0.8466623717029569 0.6623732546340583
4050000000.0 0.8392151469298424 0.6454675631311932
4053000000.0 0.8028740927801005 0.6072731682261769
4056000000.0 0.8321563479831362 0.6120518906566317
4059000000.0 0.8048860930662372 0.6314338892920703
4062000000.0 0.8213318699622205 0.599087845296222
4066000000.0 0.7844762186068603 0.5692839379435146
4069000000.0 0.8535875921607923 0.5606625936456177
4072000000.0 0.8320177705064145 0.6471934867186921
4075000000.0 0.9108301436209083 0.6254975857983487
4078000000.0 0.858850022831679 0.5934454431436529
4081000000.0 0.8767289956952846 0.6523025090228801
4084000000.0 0.9015060692313224 0.5592710755741586
4088000000.0 0.8516097384889441 0.5558996542044339
4091000000.0 0.8980747676524607 0.570588928291135
4094000000.0 0.8728052853340427 0.543104118393507
4097000000.0 0.8814247626564139 0.5400167434401237
4100000000.0 0.9038716620850019 0.5145668407906854
4103000000.0 0.8876003601229405 0.5426410860532069
4106000000.0 0.9073742024715856 0.4986921998988102
4109000000.0 0.9180271342895181 0.4911918467603514
4112000000.0 0.8983909761795468 0.5009577368202611
4116000000.0 0.9075845186610967 0.4790821330453161
4119000000.0 0.923903684322868 0.46352594367828404
4122000000.0 0.9299227631733147 0.4187579006737684
4125000000.0 0.9582831745679906 0.41910486188133816
4128000000.0 0.8830403961078322 0.45062499137675105
4131000000.0 0.9399625727112585 0.40182238265738346
4134000000.0 0.9163710393701524 0.4603814905229908
4138000000.0 0.9271039300487369 0.41241226063623176
4141000000.0 0.9186460094972225 0.411762287238178
4144000000.0 0.9477796484960577 0.42851367869003804
4147000000.0 0.9447595371992342 0.41056700885871783
4150000000.0 1.0070467124615146 0.3815417720664877
4153000000.0 0.933816434339849 0.3671267197779182
4156000000.0 0.9592952630794656 0.3844329945632009
4159000000.0 0.9122189905816411 0.3867057353187712
4162000000.0 0.9423008482962902 0.3668877811070398
4166000000.0 0.9517329595952846 0.3609449697905992
4169000000.0 0.9593510454028962 0.3316665608016083
4172000000.0 0.9459875220027041 0.3494164074066733
4175000000.0 0.9947943373500672 0.34861484135372095
4178000000.0 0.9664557138028149 0.335378295203859
4181000000.0 0.9782943266711968 0.28351121993397876
4184000000.0 0.9882396695941889 0.28213426191047225
4188000000.0 0.9901288645055375 0.27132138083670665
4191000000.0 0.9469451960416347 0.32946615098329174
4194000000.0 0.9498214449825229 0.2761047010415417
4197000000.0 1.001198277494255 0.27922799012115035
4200000000.0 1.0077443002528286 0.2801892336299958
4203000000.0 0.9910754266967995 0.28085747434340813
4206000000.0 1.009352663852126 0.24708552825532504
4209000000.0 0.9789920667913251 0.2360198776745333
4212000000.0 0.9994743411680256 0.19747357290367146
4216000000.0 1.0097260529738954 0.23890329398212767
4219000000.0 0.9883621154311549 0.22187770490779438
4222000000.0 1.0019735037838975 0.20567752393334232
4225000000.0 0.9926278282236622 0.19616349793793367
4228000000.0 1.0037604923489905 0.18635089936059598
4231000000.0 1.0055124148290044 0.1679192472926303
4234000000.0 1.0175220131708345 0.1664674059725041
4238000000.0 1.0099029244694306 0.14448793266621032
4241000000.0 1.0075858170092544 0.13094930686815692
4244000000.0 0.9868758639082661 0.13254097923121283
4247000000.0 0.9934193455983306 0.1391975189471465
4250000000.0 0.9908477432980898 0.11971083487718287
4253000000.0 0.9893687231393085 0.11363416321633008
4256000000.0 1.0246055353128367 0.09165648583507427
4259000000.0 0.9860852576930634 0.05618468219386752
4262000000.0 1.0323759737640175 0.05803176005649205
4266000000.0 1.043659329447631 0.06069163370115388
4269000000.0 0.9998315627049457 0.09735685496404614
4272000000.0 1.0231831078092215 0.07847121967768314
4275000000.0 1.0121036072416125 0.03738250882129407
4278000000.0 1.046179517388533 0.03761897965936048
4281000000.0 0.9973798817519827 0.029136803881471843
4284000000.0 1.01824310825938 0.0039199856732191896
4288000000.0 0.9945133732585013 0.04563728641309931
4291000000.0 0.989920610556639 0.007697768790957141
4294000000.0 1.0067039708318333 -0.024805943670438327
4297000000.0 1.002739092918323 0.012955103822587535
4300000000.0 0.9836619591039883 -0.029485679081171137
4303000000.0 0.9989842944427957 -0.05350612685828858
4306000000.0 1.009977519523014 -0.031646776839095496
4309000000.0 1.0113883605379907 -0.0265952724831353
4312000000.0 1.0229996743323417 -0.028984602594001027
4316000000.0 1.0291562083369628 -0.04476152759397235
4319000000.0 0.993644618785013 -0.0695411768082476
4322000000.0 0.9832787852541541 -0.1073741658604218
4325000000.0 1.01810449681517 -0.09261746417059041
4328000000.0 0.9962807254701173 -0.11019832937832434
4331000000.0 1.04074691328451 -0.1451565585009371
4334000000.0 0.9918987082609304 -0.11116501415583349
4338000000.0 1.001318527948666 -0.12076573754943265
4341000000.0 1.030027842854097 -0.11734395577965218
4344000000.0 1.0167981939858566 -0.14003997718904365
4347000000.0 1.0200633255786133 -0.16751723470349214
4350000000.0 0.9680997069410114 -0.15679408247000076
4353000000.0 0.9605625436104703 -0.15792461379100586
4356000000.0 0.9830559583350138 -0.205006682814948
4359000000.0 0.9419225222440205 -0.19544952521376566
4362000000.0 0.9664562597338704 -0.2616232920695157
4366000000.0 0.989631287430782 -0.2369932245737105
4369000000.0 0.9421014768435136 -0.21579114431149665
4372000000.0 0.9717040875088179 -0.24969616820334709
4375000000.0 0.9733656084132019 -0.20952119251390347
4378000000.0 0.963228920268027 -0.23660266978873806
4381000000.0 0.9811034496120403 -0.23304291787612033
4384000000.0 1.0549638793712113 -0.28159493310640676
4388000000.0 0.9578342948184732 -0.26233229070871256
4391000000.0 0.9876310997621052 -0.2878109304576705
4394000000.0 0.9333057914623246 -0.289023648295177
4397000000.0 0.9610069008388855 -0.3134734891850784
4400000000.0 0.9801653169061657 -0.33224193140806796
4403000000.0 0.9789477064912497 -0.3225708635505573
4406000000.0 0.9457020884820317 -0.3464421295424961
4409000000.0 0.9777036297137387 -0.34107266284818677
4412000000.0 0.9060191616392885 -0.38417030687188436
4416000000.0 0.9173065546432619 -0.37262003555607626
4419000000.0 0.9278804146965134 -0.3896179832180382
4422000000.0 0.9396834015569691 -0.35936630907128275
4425000000.0 0.9712501403850495 -0.36550299780165907
4428000000.0 0.9378039417115327 -0.3987029891797478
4431000000.0 0.9538309538146341 -0.4040792463262153
4434000000.0 0.9103450460891225 -0.3974344366109765
4438000000.0 0.9326288988200462 -0.42879480837485245
4441000000.0 0.934729129461972 -0.43211280246463046
4444000000.0 0.9003172623495368 -0.4173046533268779
4447000000.0 0.8932885790187334 -0.4438770011472922
4450000000.0 0.8926871789206713 -0.40892314067945756
4453000000.0 0.9260760279962561 -0.458871189155609
4456000000.0 0.8640467274560908 -0.46302642937338057
4459000000.0 0.849076610623863 -0.4770628823777766
4462000000.0 0.9293464886656992 -0.5212788698390763
4466000000.0 0.9178165919998994 -0.5239020991502849
4469000000.0 0.8934114229810741 -0.49662788869492486
4472000000.0 0.8738993386616535 -0.5309815482385407
4475000000.0 0.8514376218962992 -0.5031858172236611
4478000000.0 0.8914568120347329 -0.5617354596421377
4481000000.0 0.831170223598194 -0.5391541006213744
4484000000.0 0.835788779619469 -0.5744565234275131
4488000000.0 0.8306790833251639 -0.5705867783511733
4491000000.0 0.8354447192763081 -0.5795969517907684
4494000000.0 0.837880582942843 -0.5608776044519774
4497000000.0 0.8424157853107399 -0.567993375713029
4500000000.0 0.8231498705959348 -0.5825278059176582
4503000000.0 0.8523173926974763 -0.5945049181238602
4506000000.0 0.7995966802128618 -0.5967991138137583
4509000000.0 0.7932517232349248 -0.5825266684012177
4512000000.0 0.7877526680527308 -0.6146037958711351
4516000000.0 0.8169372296031857 -0.636019355775557
4519000000.0 0.7846042296201298 -0.5920709046793559
4522000000.0 0.7855445492404494 -0.6363381974612102
4525000000.0 0.7925166864073183 -0.6013771204273644
4528000000.0 0.7839596816829428 -0.6497142979436867
4531000000.0 0.7858732105723507 -0.6410041373811578
4534000000.0 0.7524257531778544 -0.6391896903793561
4538000000.0 0.7493951787164481 -0.6698664620125045
4541000000.0 0.7211985441469498 -0.6958340871238208
4544000000.0 0.7569729551441389 -0.693625974511276
4547000000.0 0.7524044395042151 -0.6741528832505297
4550000000.0 0.7131538452069921 -0.7169425373666275
4553000000.0 0.7117114117532755 -0.70175504455648
4556000000.0 0.6903294057010299 -0.6915272608250754
4559000000.0 0.6995909642025426 -0.7348528483376018
4562000000.0 0.725910778793369 -0.7286814748619959
4566000000.0 0.7141397517230668 -0.7150118054352572
4569000000.0 0.68440150773312 -0.7385425795411582
4572000000.0 0.6677111178002454 -0.7298759387142343
4575000000.0 0.6794325536531207 -0.770989499933623
4578000000.0 0.6995049579054311 -0.7854400995685946
4581000000.0 0.6695379413193994 -0.7684606188794956
4584000000.0 0.6718485266978124 -0.7726835974526455
4588000000.0 0.6672130772985355 -0.7888908681274663
4591000000.0 0.6517608399597599 -0.7735304059586082
4594000000.0 0.6293593297924206 -0.8105334351781728
4597000000.0 0.6419232507311083 -0.8000450481277639
4600000000.0 0.6008681942524912 -0.8162225168991711
4603000000.0 0.6153574683800026 -0.8140323840314435
4606000000.0 0.6229326510102413 -0.8275926621029659
4609000000.0 0.5919600209030492 -0.8063816531168757
4612000000.0 0.5852167641065122 -0.8285834823981895
4616000000.0 0.5633628790902141 -0.8278287701829992
4619000000.0 0.5671250204478613 -0.8408597526145769
4622000000.0 0.5558286225513566 -0.87465094348429
4625000000.0 0.5142774615416702 -0.8390921106655829
4628000000.0 0.5756239139416645 -0.8577763171162419
4631000000.0 0.5383863397871291 -0.8676213661561999
4634000000.0 0.5304265666461345 -0.8617578845204246
4638000000.0 0.5136279782682655 -0.8778879722025412
4641000000.0 0.5173960931760192 -0.8867039556899011
4644000000.0 0.4853022791150139 -0.8728866050043028
4647000000.0 0.5009322681030443 -0.8785307055587285
4650000000.0 0.46702777024550046 -0.8795085684089231
4653000000.0 0.47869508388252086 -0.8880622527839532
4656000000.0 0.4637960045854131 -0.9133255147227788
4659000000.0 0.45184926376112555 -0.9041073298644591
4662000000.0 0.45497449759073805 -0.916494679692364
4666000000.0 0.42201178105101955 -0.9103777664818282
4669000000.0 0.4395822223356017 -0.9130553983094091
4672000000.0 0.4298538272549921 -0.9545618517666518
4675000000.0 0.41066190037737815 -0.9354248736788431
4678000000.0 0.3859491365223833 -0.9196799942391005
4681000000.0 0.38430771878490805 -0.9547471261909244
4684000000.0 0.379718227759798 -0.9582286996848114
4688000000.0 0.37485179948008984 -0.9480405113893038
4691000000.0 0.4095157418811497 -0.9361499337550527
4694000000.0 0.3697607235255522 -0.9204163800887533
4697000000.0 0.3288930013760824 -0.9272397515587545
4700000000.0 0.35614404951378764 -0.9561372044701093
4703000000.0 0.38128351379121944 -0.9082109628175754
4706000000.0 0.30894206705883254 -0.977578528146422
4709000000.0 0.31070002085174203 -0.9549338059853701
4712000000.0 0.333507308191334 -0.9763607595342102
4716000000.0 0.3083422851727334 -0.9821358829529798
4719000000.0 0.33742557492557784 -0.9693071351715318
4722000000.0 0.33229656628498205 -0.9587824688901616
4725000000.0 0.27342672467696194 -0.9587393164462223
4728000000.0 0.2789351550910583 -1.0172631026555403
4731000000.0 0.2883129913600379 -1.0074474753797347
4734000000.0 0.2717255616618259 -0.9624103574260284
4738000000.0 0.2729987746674417 -1.0598245524527585
4741000000.0 0.1891070521343921 -1.020893911069184
4744000000.0 0.19012575898491196 -1.0039731805505634
4747000000.0 0.24568419280763737 -0.948710206547423
4750000000.0 0.23598330940295462 -1.0196636477994312
4753000000.0 0.21223392950633446 -1.0098275743338923
4756000000.0 0.16065346871689035 -1.0218169522266909
4759000000.0 0.20624585983494872 -1.0156847308748982
4762000000.0 0.15039106103472755 -1.00477306225542
4766000000.0 0.15673292550260015 -1.0276904338712654
4769000000.0 0.1393993312124789 -1.0294580534369506
4772000000.0 0.14528450629106665 -1.0121297176386617
4775000000.0 0.12189559192443622 -1.0827206139761862
4778000000.0 0.11874665489051897 -1.035900694328318
4781000000.0 0.14445520320682975 -0.9849373344575802
4784000000.0 0.13293228235449775 -0.9910219167785846
4788000000.0 0.07824479723669764 -1.0425453739433583
4791000000.0 0.09495851864272661 -1.0041068002378277
4794000000.0 0.10307288061968037 -1.0385359969451093
4797000000.0 0.06774832826388083 -1.003893453440457
4800000000.0 0.03223679561112536 -1.020539078022779
4803000000.0 0.009804419785918617 -1.030946742605999
4806000000.0 0.027272020512242895 -1.0400319061738146
4809000000.0 -0.01756643550908063 -1.0284207833913286
4812000000.0 -0.03295467366680008 -1.0189011474352558
4816000000.0 0.044528795031165413 -0.9963422472622199
4819000000.0 0.026584462022155253 -1.0620090440782672
4822000000.0 0.02369666791414174 -1.0840816162782585
4825000000.0 0.02112235399750767 -1.0554879916738409
4828000000.0 -0.028845707079934946 -1.0166576905587257
4831000000.0 -0.07747253329580538 -1.0562233780778436
4834000000.0 0.0054931533816152955 -1.0408394883784258
4838000000.0 -0.056301917611303307 -1.0467397422273002
4841000000.0 -0.0787106268116604 -1.0109729505469494
4844000000.0 -0.036979771526974126 -1.035268592705494
4847000000.0 -0.03764651197539337 -0.9878412886468206
4850000000.0 -0.10678322925317915 -1.0486633165606274
4853000000.0 -0.10799615197724766 -1.0121924439278864
4856000000.0 -0.115439356622767 -1.0089156772498171
4859000000.0 -0.1377628042824903 -1.0761024661880745
4862000000.0 -0.08081470008231247 -1.002286759071426
4866000000.0 -0.14908448559591897 -1.0210454572754102
4869000000.0 -0.16190423268678114 -1.0307086698561723
4872000000.0 -0.18179128986361465 -1.0301423423255656
4875000000.0 -0.11113364028120627 -1.0463750271331433
4878000000.0 -0.1691708232369239 -1.0343065173850605
4881000000.0 -0.23849971067453657 -1.0786013480169043
4884000000.0 -0.16688966776711261 -1.0129847353783357
4888000000.0 -0.14983020300414157 -1.0078140004771323
4891000000.0 -0.19520783221649737 -1.041444651211108
4894000000.0 -0.24099265590023008 -1.0288685290600454
4897000000.0 -0.20844836279611656 -1.011192345007916
4900000000.0 -0.26005678828809836 -1.0247282363879426
4903000000.0 -0.23633151214846815 -1.0385705156962595
4906000000.0 -0.2503894648640372 -1.0332600321644443
4909000000.0 -0.28620491200351134 -1.008942097695894
4912000000.0 -0.29446806596584996 -1.044569938450835
4916000000.0 -0.2989121817714205 -1.034766245918954
4919000000.0 -0.2703032342299921 -1.0472791782371007
4922000000.0 -0.27186969446535003 -1.0172877311772817
4925000000.0 -0.32513722439481807 -0.9684533465235428
4928000000.0 -0.2535927703484783 -0.992691391853611
4931000000.0 -0.2807397731602643 -1.0058461480855165
4934000000.0 -0.29701085043849496 -0.928624380836631
4938000000.0 -0.34585358460958526 -0.9860613374167846
4941000000.0 -0.32747838790375705 -0.9553284891607741
4944000000.0 -0.3417863328769428 -0.897017193081582
4947000000.0 -0.38759763100188893 -0.9400129491902786
4950000000.0 -0.3804758128181482 -0.9482393417388997
4953000000.0 -0.4183557281427186 -0.9521258497232983
4956000000.0 -0.4203247421726038 -0.953191774668577
4959000000.0 -0.4471192253381664 -0.8929870257406092
4962000000.0 -0.42273267306103735 -0.9662889492842243
4966000000.0 -0.42947159394648426 -0.9914453914560504
4969000000.0 -0.43509178532594306 -1.0249900832689083
4972000000.0 -0.4580696680280487 -0.938001506517497
4975000000.0 -0.39982517095608305 -0.9342305827749519
4978000000.0 -0.4746358690205861 -0.9327334309788822
4981000000.0 -0.49527791107504504 -0.9335196901916273
4984000000.0 -0.45507842314241453 -0.8774335623738896
4988000000.0 -0.4571194105574257 -0.9210327631183598
4991000000.0 -0.455718097209413 -0.9840720779489843
4994000000.0 -0.5018861841192177 -0.8853744433382503
4997000000.0 -0.5145494279434417 -0.9072504904528774
5000000000.0 -0.5247382280931324 -0.9207935021415061
5003000000.0 -0.4981313394103201 -0.9278228494695707
5006000000.0 -0.5567000090806924 -0.9302084231519374
5009000000.0 -0.5305526150134012 -0.9173187421385305
5012000000.0 -0.5714416781731348 -0.8913615516889948
5016000000.0 -0.5059905789045569 -0.9364970930296986
5019000000.0 -0.5507643104757007 -0.869160893865666
5022000000.0 -0.5764152688971947 -0.8567396652230721
5025000000.0 -0.5960419858456734 -0.9258325913027684
5028000000.0 -0.6031008118634347 -0.8699956787202002
5031000000.0 -0.6068530082007046 -0.8455169301984858
5034000000.0 -0.6466066617228995 -0.8975368812978477
5038000000.0 -0.6147528194097927 -0.7993932608573722
5041000000.0 -0.6100261950761241 -0.8562773596877514
5044000000.0 -0.5673465413846625 -0.8274788526802035
5047000000.0 -0.5986477651986535 -0.8395745983379407
5050000000.0 -0.5738311392275783 -0.8233213098642336
5053000000.0 -0.6654257340920823 -0.8576089960569382
5056000000.0 -0.6131720957920519 -0.8367493200450639
5059000000.0 -0.6552261122134659 -0.8263744885103126
5062000000.0 -0.7167318313170361 -0.8271651594206764
5066000000.0 -0.6669452177752507 -0.7919340965167027
5069000000.0 -0.6777997270429943 -0.7945397211879947
5072000000.0 -0.6852293371677597 -0.7664978046934894
5075000000.0 -0.6132895465631891 -0.7588537519566931
5078000000.0 -0.660497726011869 -0.7777075963278502
5081000000.0 -0.7269801048800225 -0.7254331678531959
5084000000.0 -0.7224319757063679 -0.7568809307591811
5088000000.0 -0.6773995062796994 -0.7362836215591044
5091000000.0 -0.7490427202955678 -0.6944242742418714
5094000000.0 -0.7522120302667885 -0.7427932663755754
5097000000.0 -0.6997211851598997 -0.7239092488765053
5100000000.0 -0.7468502529664236 -0.6971215538224207
5103000000.0 -0.787974690313132 -0.6827432023811331
5106000000.0 -0.7865976957738263 -0.7209438130409791
5109000000.0 -0.7334036773490383 -0.7567502947352721
5112000000.0 -0.8095254978378746 -0.6917058541074346
5116000000.0 -0.7897607565128107 -0.6623397379545399
5119000000.0 -0.8290046208211824 -0.7228311448773004
5122000000.0 -0.8279436628876176 -0.6514872909077154
5125000000.0 -0.730045921373377 -0.6875428684906136
5128000000.0 -0.8303789830353908 -0.6612579841172221
5131000000.0 -0.8203374076923278 -0.6690842685600144
5134000000.0 -0.7547422211787436 -0.6319799326855262
5138000000.0 -0.7971147898242129 -0.7063798654888122
5141000000.0 -0.8198150676777038 -0.6742856744080121
5144000000.0 -0.7659015139957498 -0.64017081629701
5147000000.0 -0.8592693834681904 -0.6388865065203856
5150000000.0 -0.8518944307072513 -0.6248375310112046
5153000000.0 -0.8736489816035902 -0.6331097125383479
5156000000.0 -0.827744776719335 -0.6153890203162528
5159000000.0 -0.8789193095853832 -0.6443410332928747
5162000000.0 -0.8836776560910178 -0.5282844651035002
5166000000.0 -0.8684728781066868 -0.5599752779784528
5169000000.0 -0.8969168716604439 -0.5935255009695295
5172000000.0 -0.8842267588792023 -0.5483569616728862
5175000000.0 -0.867182115355585 -0.5603438866772268
5178000000.0 -0.888222921980254 -0.5640627600720817
5181000000.0 -0.9141805638808475 -0.5320139861606435
5184000000.0 -0.9023310579677621 -0.5297449364937782
