! Created with skrf 1.8.0 (http://scikit-rf.org).
# Hz S RI R 50.0 
!freq ReS11 ImS11
4000000000.0 0.6615322799557323 0.7514254175363879
4003000000.0 0.7097715702509383 0.8035208388118529
4006000000.0 0.6858810109324824 0.7389055428999547
4009000000.0 0.6917310236469045 0.7556876936523599
4012000000.0 0.6765894194700555 0.8034066533652309
4016000000.0 0.7219619033380328 0.7540793753272739
4019000000.0 0.6825194341010883 0.7186981200496039
4022000000.0 0.668739055999638 0.775095982161084
4025000000.0 0.7679437938108107 0.7499586017974648
4028000000.0 0.7305650654378888 0.7347367839393844
4031000000.0 0.7283169115537758 0.7335333224229396
4034000000.0 0.7256339498456174 0.6949809425582845
4038000000.0 0.7961447172869065 0.686659188402989
4041000000.0 0.7336046741143825 0.6996208055163152
4044000000.0 0.8336752623790918 0.7554741885007684
4047000000.0 0.7761904782455461 0.7505437610312099
4050000000.0 0.7781661129906156 0.6831696290027542
4053000000.0 0.7724436550436137 0.67641489833636
4056000000.0 0.7885417222293999 0.6650845841516926
4059000000.0 0.7492926780077263 0.6681364642415444
4062000000.0 0.8040472115402573 0.6625119069167207
4066000000.0 0.7536240101766931 0.6303596896251237
4069000000.0 0.8535528199635959 0.6404711370243956
4072000000.0 0.76436408342001 0.6826362344991326
4075000000.0 0.7836510917149676 0.686612092951228
4078000000.0 0.8634143367644975 0.641837620792203
4081000000.0 0.7763761789501371 0.7028191019516442
4084000000.0 0.8323858067902351 0.5852848834702145
4088000000.0 0.7880345723249148 0.6627428074568449
4091000000.0 0.8825652912716142 0.6312002569171975
4094000000.0 0.8510509609135842 0.6177897663373877
4097000000.0 0.844224289320905 0.5752052738367297
4100000000.0 0.8550751476067509 0.5618740089019743
4103000000.0 0.8668244661922344 0.6082631401754399
4106000000.0 0.8688331007033124 0.5691162397762832
4109000000.0 0.8980698167304166 0.5734405714867157
4112000000.0 0.8757037824489882 0.5405877299093924
4116000000.0 0.8462526568072174 0.565599808541877
4119000000.0 0.8814580051996623 0.5309388927978465
4122000000.0 0.8640260926028622 0.5228745979147126
4125000000.0 0.9088590860908949 0.516771977380746
4128000000.0 0.8570181108601008 0.5672430947827055
4131000000.0 0.8530852104586412 0.4783790183262805
4134000000.0 0.8686981973955155 0.5017418165096444
4138000000.0 0.9144676582774294 0.49860156227443225
4141000000.0 0.8837230814934212 0.5106444388678636
4144000000.0 0.8619434887319204 0.4858204068076611
4147000000.0 0.9155717967121694 0.4658023864789393
4150000000.0 0.9288889517477149 0.46110581425281233
4153000000.0 0.9073878552023736 0.4722508499477477
4156000000.0 0.9369113159813447 0.49169015056652954
4159000000.0 0.9061773587087694 0.4513216104164887
4162000000.0 0.8964135209123398 0.4534271177441189
4166000000.0 0.9488243235586082 0.43872099937948295
4169000000.0 0.9330114497954501 0.37457941599804534
4172000000.0 0.9219100922834372 0.42659951351550435
4175000000.0 0.9396595787422284 0.40616279858468524
4178000000.0 0.9365467538281826 0.4240015083403945
4181000000.0 0.9325846661213189 0.3777801903377942
4184000000.0 0.9342157053448813 0.392060140670676
4188000000.0 0.9276381231412985 0.36037490802793704
4191000000.0 0.9182832270672509 0.3962983316521665
4194000000.0 0.9384825964633109 0.3407817656638048
4197000000.0 0.9643450232663141 0.3520107401700458
4200000000.0 0.9694470396821402 0.34494744068124306
4203000000.0 0.9727813236439881 0.3537428772345931
4206000000.0 0.9937346149298191 0.3109651465726701
4209000000.0 0.9400800857416884 0.3253370613179461
4212000000.0 0.9726606195170161 0.2873136061738858
4216000000.0 0.9583307339069527 0.3064812248153245
4219000000.0 0.9898015511983267 0.29931342619115675
4222000000.0 0.9908678717293342 0.26732131632753503
4225000000.0 0.9644887242965574 0.2812557817304945
4228000000.0 0.9764034139189608 0.2755668002029672
4231000000.0 0.9738490905854824 0.2584970225037127
4234000000.0 1.0061719237901756 0.24288633893339562
4238000000.0 0.9814989698082983 0.2477169634258756
4241000000.0 0.9837967681129622 0.21520971109663734
4244000000.0 0.9668239941624006 0.2296536706305476
4247000000.0 0.9826038936261917 0.23354970326651037
4250000000.0 0.9805294990632671 0.2002399143599069
4253000000.0 0.9765851898626923 0.18499533909897642
4256000000.0 1.0243293818753496 0.18529254856823524
4259000000.0 0.9567085226241525 0.15640919013740237
4262000000.0 1.0038495653049262 0.15642868930215995
4266000000.0 1.0246133596578386 0.1525817538907056
4269000000.0 1.0040079346320776 0.1624500794327953
4272000000.0 0.9996244712501688 0.14458567669699512
4275000000.0 1.0289903857215388 0.1554442592785038
4278000000.0 0.9996412961808961 0.13717036179166497
4281000000.0 1.009921885184134 0.1297380552618541
4284000000.0 1.0097632410925739 0.09628404309802105
4288000000.0 1.0235405938014976 0.1479396638338911
4291000000.0 0.9665958562961803 0.1023513535049669
4294000000.0 1.006198102120281 0.07916815297902367
4297000000.0 0.9877636718486834 0.10261071018422023
4300000000.0 0.9793513726277117 0.0851420080191114
4303000000.0 0.992939880751515 0.06313829522119856
4306000000.0 1.0254660783687823 0.07107040696722655
4309000000.0 1.0048504572129326 0.04982189177596026
4312000000.0 1.0531127900121717 0.0790654824564494
4316000000.0 0.9997344288707046 0.03895914369222893
4319000000.0 1.0136268639954724 0.012598640553870458
4322000000.0 0.9873120141928249 -0.00854622143687328
4325000000.0 1.0365407607927926 0.0009120295435738474
4328000000.0 0.9949803777402443 -0.007016782115676343
4331000000.0 1.0402209361259749 -0.025595488552026258
4334000000.0 1.0340010599972251 -0.01794532263214481
4338000000.0 1.0230734805483763 -0.023412370918469427
4341000000.0 1.0251788849942136 -0.00563879887583453
4344000000.0 0.9964230094374732 -0.06376440365787646
4347000000.0 1.0252465468618617 -0.07268419651674941
4350000000.0 0.9558593447867177 -0.09111935224830417
4353000000.0 0.9767788983098538 -0.056132352628735976
4356000000.0 0.9969582048141099 -0.10655323469569206
4359000000.0 0.965208361892414 -0.09157059062807194
4362000000.0 1.0115454230305343 -0.14312748552460364
4366000000.0 1.0169091229576488 -0.11609399893251383
4369000000.0 0.9582884194951984 -0.11155000469056775
4372000000.0 0.9822043691786622 -0.15993523388431713
4375000000.0 0.9876795306114527 -0.11166508864466614
4378000000.0 0.9772276019839601 -0.1600510438258098
4381000000.0 0.9862391459689885 -0.14102381908689665
4384000000.0 1.0520583682937263 -0.19275135966669416
4388000000.0 0.9750345115307267 -0.13944744980021884
4391000000.0 0.990230368454966 -0.1779730219256786
4394000000.0 0.9586252968479207 -0.18875044932491708
4397000000.0 0.9927856708076865 -0.21819980666618993
4400000000.0 0.9876498144129511 -0.20364786869550305
4403000000.0 1.002193161313022 -0.20578550452313354
4406000000.0 0.970161040434166 -0.260242438171897
4409000000.0 1.006876136086373 -0.2573278299970738
4412000000.0 0.9645831562655672 -0.2792493062312891
4416000000.0 0.9593532157276128 -0.2542004937484883
4419000000.0 0.9606472842214789 -0.2761770740660325
4422000000.0 0.9692808975971661 -0.2609196095361986
4425000000.0 0.9964816395085155 -0.25584209778837624
4428000000.0 0.9712215354692127 -0.3029064656027518
4431000000.0 0.9886664117281208 -0.2914588927059107
4434000000.0 0.9507640430146476 -0.29984663000489004
4438000000.0 0.9884410319957433 -0.32754096559899815
4441000000.0 0.9737955195300751 -0.3095288746192499
4444000000.0 0.9208581823795945 -0.32269233552194004
4447000000.0 0.9328710791776683 -0.34361878113571687
4450000000.0 0.9317358043945573 -0.31707981834072063
4453000000.0 0.9723207073106753 -0.3636450005485275
4456000000.0 0.8998526664237088 -0.3589450409463725
4459000000.0 0.8949295600944289 -0.3702407240008213
4462000000.0 0.9931483711469089 -0.4004551245172647
4466000000.0 0.9633756887329522 -0.41474997191879537
4469000000.0 0.9346587149187038 -0.3663418848735537
4472000000.0 0.9317806927816047 -0.43264361193901163
4475000000.0 0.9023964487651102 -0.41190315573213154
4478000000.0 0.960520932292065 -0.4465528018098569
4481000000.0 0.8981255992308841 -0.4228912594936068
4484000000.0 0.8888329718601864 -0.46423314185563447
4488000000.0 0.8832158836518181 -0.4397665695622686
4491000000.0 0.8910844877513721 -0.45667892768488066
4494000000.0 0.8961717536988615 -0.4433369853136745
4497000000.0 0.8635453790552112 -0.45878637347406287
4500000000.0 0.8908330522669903 -0.4721375411782745
4503000000.0 0.8975645362258315 -0.48901695324776545
4506000000.0 0.8649959692834825 -0.49166938129820337
4509000000.0 0.8551441176393662 -0.49919708999153367
4512000000.0 0.8582718282881775 -0.5183657152640826
4516000000.0 0.8825797071402972 -0.5097050242918898
4519000000.0 0.8498412889367658 -0.5138983349142583
4522000000.0 0.8640339943002815 -0.5211622971969582
4525000000.0 0.8445878692133424 -0.4965543973194808
4528000000.0 0.8726335946125214 -0.5569675680684127
4531000000.0 0.8519178017946221 -0.5492130348697809
4534000000.0 0.8268280991379935 -0.5283385123026443
4538000000.0 0.8212820712348261 -0.5651727964827624
4541000000.0 0.7879806426043952 -0.588709178476186
4544000000.0 0.8180174004488843 -0.5775012669299356
4547000000.0 0.8244334216330227 -0.5678076037269222
4550000000.0 0.8018341758080594 -0.6289361277423982
4553000000.0 0.8221523249351781 -0.6004206235580086
4556000000.0 0.7631348900099215 -0.6121362570776786
4559000000.0 0.7948079364300547 -0.6355178188673549
4562000000.0 0.8133296913556265 -0.6304660669483595
4566000000.0 0.7617939039663222 -0.6418453036804519
4569000000.0 0.7587908215028621 -0.6376539042866602
4572000000.0 0.7764690577288149 -0.6389760884334429
4575000000.0 0.7618602909695342 -0.665488335260071
4578000000.0 0.787643695584328 -0.6720725391149511
4581000000.0 0.7521183432559042 -0.6581648529367375
4584000000.0 0.7524234349173372 -0.6722258226862199
4588000000.0 0.7611423438829155 -0.6835351826449336
4591000000.0 0.7380745133093137 -0.6808480663439913
4594000000.0 0.7112878569220977 -0.706015815637949
4597000000.0 0.736584333176407 -0.7073787104482957
4600000000.0 0.687971464759552 -0.7233483170240107
4603000000.0 0.7017877100195083 -0.7198031346748899
4606000000.0 0.7142440229767083 -0.7152631507015685
4609000000.0 0.7058761942106844 -0.7377154490208467
4612000000.0 0.6899420502424461 -0.749528343121546
4616000000.0 0.6625830003580888 -0.7256332959424397
4619000000.0 0.6674304511664709 -0.7318035348400225
4622000000.0 0.6680173170910921 -0.764863763259701
4625000000.0 0.6275831327099076 -0.743082279150046
4628000000.0 0.659923774800758 -0.7453454949683033
4631000000.0 0.6321555038776232 -0.779018067183796
4634000000.0 0.6262107168074188 -0.7924559224707618
4638000000.0 0.6394677086122011 -0.7914125364711728
4641000000.0 0.6276729327627301 -0.7781033433447445
4644000000.0 0.6124078966188327 -0.7940306940938368
4647000000.0 0.6205640580024687 -0.7896225372107266
4650000000.0 0.5896025742805945 -0.8094738015324194
4653000000.0 0.6275322799780925 -0.810864647351575
4656000000.0 0.5874202951046569 -0.8242131578740024
4659000000.0 0.5805706383517509 -0.8250992326083088
4662000000.0 0.5858998451354585 -0.8402482300146558
4666000000.0 0.5529611471651796 -0.8435557486387472
4669000000.0 0.5707778464844849 -0.8327333693187731
4672000000.0 0.5586733463856821 -0.8689840969710005
4675000000.0 0.5406908582363321 -0.8482526185701128
4678000000.0 0.5514484296612894 -0.8464339252234429
4681000000.0 0.518468084567578 -0.9096117804318951
4684000000.0 0.512961199322116 -0.8874627890031823
4688000000.0 0.4984887705440098 -0.8800229766314381
4691000000.0 0.5387065980412323 -0.8820424766105757
4694000000.0 0.48923497258822746 -0.8650347900156667
4697000000.0 0.47206051930141424 -0.8682211253587373
4700000000.0 0.48935395395214965 -0.8849799774875362
4703000000.0 0.5020595303533985 -0.8276338597453456
4706000000.0 0.4650200207645977 -0.9193113654327553
4709000000.0 0.4165294857923313 -0.9012765743687329
4712000000.0 0.46663885383937986 -0.9258067934379202
4716000000.0 0.42535684565361 -0.9009364413738321
4719000000.0 0.465107692694554 -0.9120494829695863
4722000000.0 0.4585668838397458 -0.9029527422652104
4725000000.0 0.43198723754881163 -0.9097164221850398
4728000000.0 0.4023800972025911 -0.9264665435541608
4731000000.0 0.4349193435470533 -0.9312703931860447
4734000000.0 0.40380433536902016 -0.9027585926140657
4738000000.0 0.43418523166496037 -0.9650172390189878
4741000000.0 0.3772322781645362 -0.9727164073310489
4744000000.0 0.36045835552732336 -0.969781198924451
4747000000.0 0.3763867128179381 -0.9242342770175856
4750000000.0 0.3586533560913185 -0.93896360735167
4753000000.0 0.3805031798869468 -0.9374382406278087
4756000000.0 0.3403914683035103 -0.9625308670241675
4759000000.0 0.35243000999598695 -0.9625184491275333
4762000000.0 0.3162043553374104 -0.9807126119891766
4766000000.0 0.2921080000133779 -0.9594345806264132
4769000000.0 0.3499018466544631 -0.9701596807843257
4772000000.0 0.299755549963466 -0.9785098385700449
4775000000.0 0.2849177997254132 -1.0131409640340747
4778000000.0 0.28786209041334077 -0.9652738670959159
4781000000.0 0.30504247394195755 -0.9527168248333884
4784000000.0 0.2843228104227148 -0.961301153943194
4788000000.0 0.23266263574803336 -1.0004215891158659
4791000000.0 0.2489215967198244 -0.9601454127112533
4794000000.0 0.2787010453611532 -1.0203190512858156
4797000000.0 0.23052196665207994 -0.9802523024926261
4800000000.0 0.21708143615577752 -0.95712510986522
4803000000.0 0.17115898366732613 -0.985748402664711
4806000000.0 0.20162800491856572 -1.005594996511987
4809000000.0 0.15369033323560236 -0.9907862720618877
4812000000.0 0.13958216254615943 -0.9916610608561369
4816000000.0 0.22380373589075825 -0.992899454255759
4819000000.0 0.22409236022688223 -1.02956363674245
4822000000.0 0.18737949648593133 -1.053522443110925
4825000000.0 0.20646045819794095 -1.019230880205366
4828000000.0 0.14945807574438147 -1.007246209727498
4831000000.0 0.1024792589456977 -1.0413641560784042
4834000000.0 0.14815318531016003 -1.0061286242174705
4838000000.0 0.1283225634574168 -1.025366291812721
4841000000.0 0.10596693701385565 -1.0038284114515532
4844000000.0 0.16215728113563505 -1.0113870024922718
4847000000.0 0.1327061789217878 -1.0013205676707575
4850000000.0 0.07611946290342268 -1.042901865774418
4853000000.0 0.08925245869391978 -1.0028986664428343
4856000000.0 0.05591398806034853 -0.9947426973173646
4859000000.0 0.04801890537235247 -1.0606225005543695
4862000000.0 0.09235436693038221 -0.9980592027923586
4866000000.0 0.040491180256616285 -1.046927206397517
4869000000.0 0.012100147069546445 -1.020182431879763
4872000000.0 -0.00693441794425719 -1.0454854411220047
4875000000.0 0.09071658956299015 -1.0576963152284762
4878000000.0 0.033083822003469834 -1.040044882277919
4881000000.0 -0.02760420307753448 -1.081251933786974
4884000000.0 0.01828223076650498 -1.0141659716099238
4888000000.0 0.029749249013310684 -1.029981677143932
4891000000.0 0.022451319146351248 -1.0524021825016487
4894000000.0 -0.04004049839075192 -1.0137776383958914
4897000000.0 0.017486974365540947 -0.9932519087688094
4900000000.0 -0.012459995379935813 -1.062717649046132
4903000000.0 -0.04665540943679051 -1.037460025214805
4906000000.0 -0.06391090069921729 -1.0220223238851232
4909000000.0 -0.07777919833955824 -1.0553150284848256
4912000000.0 -0.0901735352732911 -1.053845762924355
4916000000.0 -0.06915639333295373 -1.0669694800890503
4919000000.0 -0.05102568300665103 -1.049193708930678
4922000000.0 -0.0553751076036991 -1.0450592355746466
4925000000.0 -0.157355224248001 -1.0353023164248092
4928000000.0 -0.06268053544433856 -1.0205453553269026
4931000000.0 -0.11904265998856596 -1.0588025518746786
4934000000.0 -0.11969195564838038 -1.0052872716379773
4938000000.0 -0.17004077764379627 -0.9962199382215271
4941000000.0 -0.14030331431109822 -1.022781328384999
4944000000.0 -0.14875850125746423 -0.9752528596881336
4947000000.0 -0.17438398245339823 -0.9771112469130295
4950000000.0 -0.17407509647514524 -1.0074823076007928
4953000000.0 -0.23794555206211188 -1.0225049370013963
4956000000.0 -0.18375769271382925 -1.018226382470274
4959000000.0 -0.21720510366146537 -0.9596509934926485
4962000000.0 -0.2725866182006721 -1.0325892473438887
4966000000.0 -0.21000673389799007 -1.030753860410555
4969000000.0 -0.22404479158213164 -1.0527812819847087
4972000000.0 -0.28410638509080544 -1.0391705217202567
4975000000.0 -0.2189117420605823 -0.9810779590876125
4978000000.0 -0.2588252481805521 -1.010578536871881
4981000000.0 -0.2888652362812184 -1.0158235878340607
4984000000.0 -0.26898602983641173 -0.9668567875376904
4988000000.0 -0.2517349761386882 -1.0053988078504343
4991000000.0 -0.23813069467834014 -1.0109115700720377
4994000000.0 -0.29873259366844296 -0.99253965924898
4997000000.0 -0.34176296513505494 -0.989511564362893
5000000000.0 -0.2921928229930255 -1.0208512896127622
5003000000.0 -0.2924487288968948 -1.019854923165026
5006000000.0 -0.330726948025011 -1.0304402760665796
5009000000.0 -0.332998263609664 -0.9608999834875916
5012000000.0 -0.3474421232652461 -0.9835913559495746
5016000000.0 -0.3235268430784776 -0.9956732945707114
5019000000.0 -0.3488741301006201 -0.9890008718599674
5022000000.0 -0.37021776066637013 -0.9864912741096412
5025000000.0 -0.42153724683442345 -1.017843447593205
5028000000.0 -0.39946068188563655 -0.9768053168038222
5031000000.0 -0.4041545274074746 -0.952854551815537
5034000000.0 -0.4400843851253593 -0.9726578122848044
5038000000.0 -0.43209537363448114 -0.9057732142203914
5041000000.0 -0.3888412597559546 -0.9701014057437575
5044000000.0 -0.36249641181086034 -0.9310447650997901
5047000000.0 -0.4319550815501792 -0.9681562317147704
5050000000.0 -0.3461810952087452 -0.9445483609169409
5053000000.0 -0.4988867050371243 -0.9717364699414235
5056000000.0 -0.3969526261482381 -0.9352499560772574
5059000000.0 -0.3984316952189955 -0.9628820357712303
5062000000.0 -0.4943180594418829 -0.9097172757472507
5066000000.0 -0.4235788366781257 -0.9268252027410857
5069000000.0 -0.45533717601417556 -0.9470943170789298
5072000000.0 -0.4386080110828977 -0.8840441795910068
5075000000.0 -0.48624217549003645 -0.9037378401144054
5078000000.0 -0.517764400586973 -0.9127055765873757
5081000000.0 -0.5305466356392365 -0.871580333938803
5084000000.0 -0.5307148001489348 -0.9537410927367951
5088000000.0 -0.44459666666926057 -0.852451435861934
5091000000.0 -0.542165568214027 -0.8889907695542876
5094000000.0 -0.4920324126317372 -0.9030578094026472
5097000000.0 -0.5307118750753194 -0.9018031016535482
5100000000.0 -0.5101417175852826 -0.8621592771015439
5103000000.0 -0.6240851722531292 -0.8514799530614326
5106000000.0 -0.5925399654567982 -0.8723186382230086
5109000000.0 -0.5401285710562307 -0.87684502348891
5112000000.0 -0.5479072051485423 -0.8352341592387733
5116000000.0 -0.5836100491063319 -0.8313773617226237
5119000000.0 -0.6394846243565097 -0.891561251372688
5122000000.0 -0.5747553251648634 -0.8409878160655533
5125000000.0 -0.5532377158461007 -0.8696684211040996
5128000000.0 -0.5816946981477106 -0.8518352045148201
5131000000.0 -0.6164577006845288 -0.8110496759421192
5134000000.0 -0.6239570898902078 -0.8312900894115133
5138000000.0 -0.6158361771057262 -0.8455325457498793
5141000000.0 -0.6074288933958629 -0.8414764450883636
5144000000.0 -0.6169506609613609 -0.8426727933764762
5147000000.0 -0.6748642564044035 -0.7991214564443567
5150000000.0 -0.6725667749531882 -0.8348420092720109
5153000000.0 -0.6751035618214156 -0.8060601850095884
5156000000.0 -0.668751267188204 -0.824356466467407
5159000000.0 -0.6525952662889966 -0.8350961258665244
5162000000.0 -0.6920853143524043 -0.7751790690511968
5166000000.0 -0.6638405935128577 -0.8028069443208764
5169000000.0 -0.6821348290745398 -0.8093483871529193
5172000000.0 -0.668518452312881 -0.7689447292114157
5175000000.0 -0.7410647344899356 -0.7686383157718668
5178000000.0 -0.7014312512716963 -0.7851127840140265
5181000000.0 -0.7156318618110713 -0.7836624638088752
5184000000.0 -0.7439475530551997 -0.7479966197232562
5188000000.0 -0.7132189828864833 -0.7743554620464712
