! Created with skrf 1.8.0 (http://scikit-rf.org).
# Hz S RI R 50.0 
!freq ReS11 ImS11
4000000000.0 0.6576230634002002 0.7804438560848495
4003000000.0 0.6951832368111864 0.798657427294167
4006000000.0 0.7289915577896214 0.7709485801825454
4009000000.0 0.7261788363561412 0.7660150193341043
4012000000.0 0.6521120337702687 0.826752378577119
4016000000.0 0.7234820602751776 0.7611458884250397
4019000000.0 0.706620676789568 0.7697094220719741
4022000000.0 0.6930757702639491 0.8559236657606545
4025000000.0 0.7905287125306845 0.7569515973617958
4028000000.0 0.7824708539240097 0.7408824809702657
4031000000.0 0.6995733286747992 0.6920476944891156
4034000000.0 0.763447720746603 0.7291532788369078
4038000000.0 0.7712198488054558 0.7177188814811392
4041000000.0 0.7502117912641307 0.7347068378872688
4044000000.0 0.7842894490917341 0.7430161286226676
4047000000.0 0.7795650007224293 0.7357920769150647
4050000000.0 0.7891700415808206 0.6900848486542098
4053000000.0 0.8050023107754299 0.6295961409627173
4056000000.0 0.792668299062189 0.6588106801073133
4059000000.0 0.7748668756336895 0.7067626745880078
4062000000.0 0.8305519299031046 0.6448503854035679
4066000000.0 0.767477422724324 0.6060923498624301
4069000000.0 0.8560735508836256 0.6837739014714799
4072000000.0 0.7614136258743971 0.6716545894815904
4075000000.0 0.8305039042201093 0.6818247961623314
4078000000.0 0.8226704120072781 0.6537499041908692
4081000000.0 0.7990876579816161 0.7184054107454045
4084000000.0 0.8711616069864768 0.6267046246210428
4088000000.0 0.8061512446337371 0.6400763357357402
4091000000.0 0.8813569303489569 0.6500085964125086
4094000000.0 0.8384465295580091 0.6422645427275536
4097000000.0 0.8392237934821369 0.600733576982468
4100000000.0 0.8406343945580569 0.564245600752783
4103000000.0 0.8852904157869574 0.6175026429390422
4106000000.0 0.8703920377756018 0.5440615691042744
4109000000.0 0.9182675388004051 0.5540847056605034
4112000000.0 0.8866908004836753 0.531845434651137
4116000000.0 0.8879790439518767 0.5900174494702624
4119000000.0 0.9118941327521529 0.5393907119907803
4122000000.0 0.9152699878874048 0.5155727586130737
4125000000.0 0.9399571514263797 0.5226915364071612
4128000000.0 0.8345922510418881 0.5358961819066741
4131000000.0 0.8996137035375754 0.45930411589247155
4134000000.0 0.9144705620175333 0.5421662121522798
4138000000.0 0.8733629815039197 0.4611539470933202
4141000000.0 0.914950515982629 0.5184696678903187
4144000000.0 0.9322818478463802 0.4709162162966393
4147000000.0 0.9175190973017203 0.49472745694015946
4150000000.0 0.9381881195717423 0.47579959515901954
4153000000.0 0.9162431261492247 0.43433728457593535
4156000000.0 0.9150506729149865 0.4863577893170167
4159000000.0 0.9175431869064641 0.438528692028551
4162000000.0 0.9064856809118784 0.42982785532178913
4166000000.0 0.9762984088814006 0.4526637485841374
4169000000.0 0.9897316921117586 0.39392375217758047
4172000000.0 0.924425863648613 0.4416636076817157
4175000000.0 0.9416152029047653 0.4358803371511148
4178000000.0 0.9579670550592893 0.4246213473693109
4181000000.0 0.9719139102053069 0.3868928915191824
4184000000.0 0.9633530121600329 0.39313570999934505
4188000000.0 0.9912277904107352 0.3569073601401349
4191000000.0 0.9327957614994825 0.3987175916378582
4194000000.0 0.9543825453725654 0.3402650679540117
4197000000.0 0.9713456669273934 0.3465175187834038
4200000000.0 0.979604329198446 0.35223091457475464
4203000000.0 0.9745251907020243 0.35824443868804257
4206000000.0 0.9925118911646805 0.3325642228971309
4209000000.0 0.9754911260146795 0.29782140644800675
4212000000.0 1.004154073016711 0.2992080390334041
4216000000.0 0.9844402994219099 0.3134975144031314
4219000000.0 1.0142780852666862 0.2953820543392772
4222000000.0 0.9933282959078513 0.2838799513468534
4225000000.0 0.9781603836560968 0.2798160858975942
4228000000.0 0.9922386341644622 0.2729899685084295
4231000000.0 0.9970177719183505 0.26906516056755897
4234000000.0 1.026435306823925 0.25913440094905715
4238000000.0 0.9917192358160352 0.23946078597291512
4241000000.0 0.9915148877710502 0.221219337222266
4244000000.0 0.987094596801727 0.2486299741355294
4247000000.0 0.9952895803369728 0.22475627466162912
4250000000.0 1.0021889678020914 0.19231284312803953
4253000000.0 0.9775672162696036 0.18115581188504476
4256000000.0 1.033529735477356 0.20527357085999753
4259000000.0 0.9712729876126879 0.17216493564907745
4262000000.0 1.0236963639730612 0.149967516622907
4266000000.0 1.0169404071188124 0.15097867973004997
4269000000.0 1.0148859149811846 0.17117096239341953
4272000000.0 1.0045301734540675 0.15786847716215927
4275000000.0 1.0289630116054334 0.13960454769979525
4278000000.0 1.027087557904484 0.13762498716951133
4281000000.0 1.0059718651721237 0.12969414930532025
4284000000.0 1.0590080827658233 0.07656895484352563
4288000000.0 1.0245146351243573 0.11761607689370882
4291000000.0 1.0116743456511736 0.10172214825510835
4294000000.0 1.0391492183861721 0.06888357124955254
4297000000.0 1.0087505749363932 0.10698065956325893
4300000000.0 1.0127044075515876 0.0912694177902657
4303000000.0 1.0215122938474879 0.06043125775257337
4306000000.0 1.0184396841789125 0.049521785995440895
4309000000.0 1.027865866229508 0.05095316072653529
4312000000.0 1.0413982420614547 0.0642637559475274
4316000000.0 1.0412179764648877 0.05031269528316097
4319000000.0 1.006871546760117 0.023702127154647312
4322000000.0 0.9935997294564016 -0.0179497890097869
4325000000.0 1.050539281248824 0.01327666770230014
4328000000.0 1.0043540827343849 -0.0026045789887376436
4331000000.0 1.0218981479859368 -0.047907880297390015
4334000000.0 1.0245933184063 -0.02786736621966715
4338000000.0 1.0269480965537578 -0.016757246609942947
4341000000.0 1.0330925775953463 -0.015149038760164726
4344000000.0 1.0319626343194108 -0.061284107359496645
4347000000.0 1.0353874362811188 -0.07572975947399505
4350000000.0 0.9954389643117812 -0.08850097414932274
4353000000.0 1.0083158532539758 -0.053471477088564964
4356000000.0 0.993221986795745 -0.10206759674520384
4359000000.0 0.9852029586143809 -0.10189907316342148
4362000000.0 1.0034581298787955 -0.14253957802777298
4366000000.0 1.048574350041943 -0.12790290587599565
4369000000.0 0.9899017147744523 -0.13369611374076362
4372000000.0 0.9755904086814264 -0.19385457727838074
4375000000.0 1.006259635242299 -0.12404454709911085
4378000000.0 0.9736204099415943 -0.14154723757578191
4381000000.0 0.9851725114346934 -0.166624213249484
4384000000.0 1.0629822397372095 -0.19552274401794986
4388000000.0 0.9812661422442324 -0.1781739544474989
4391000000.0 0.9928708487709823 -0.19706891467067225
4394000000.0 0.9806163761616881 -0.19330186305239447
4397000000.0 0.9977024047965768 -0.21259500737248443
4400000000.0 1.0220296100145922 -0.22581225253390047
4403000000.0 1.0035503454211518 -0.21050405795545282
4406000000.0 0.9892428217116946 -0.25086273812983917
4409000000.0 1.0048419303861806 -0.2480384529406883
4412000000.0 0.9679881456050087 -0.31378317466914973
4416000000.0 0.9727981515429582 -0.2737878692343307
4419000000.0 0.979429600636895 -0.28410026044940834
4422000000.0 0.981132155469796 -0.2621184941799166
4425000000.0 0.9947346946935511 -0.2526797627890402
4428000000.0 0.9774041686382265 -0.3005172430228138
4431000000.0 0.9953201726167413 -0.3000637593724444
4434000000.0 0.9606211238889779 -0.3172520226536556
4438000000.0 0.9869287592366076 -0.3288670422151422
4441000000.0 0.9781798976743776 -0.3435885070622966
4444000000.0 0.926966498630033 -0.3279096632431646
4447000000.0 0.9412852021554093 -0.34913036806807285
4450000000.0 0.9323987514282108 -0.33446765174816223
4453000000.0 0.9634024564752601 -0.36891207681646226
4456000000.0 0.9108830940789735 -0.3792478716504606
4459000000.0 0.8883717483912312 -0.37439404393579334
4462000000.0 0.9839914024058789 -0.41953758892501525
4466000000.0 0.9591569258295987 -0.40573121504269705
4469000000.0 0.9476413501571321 -0.37908698098494265
4472000000.0 0.9334057972980909 -0.42644361961517685
4475000000.0 0.9002857267746818 -0.41338405077345475
4478000000.0 0.9751484390766126 -0.4537719474367511
4481000000.0 0.889255731204716 -0.43611141915773993
4484000000.0 0.9067307374161864 -0.49703855506398775
4488000000.0 0.8777955264791781 -0.46162493940273086
4491000000.0 0.9018089832470955 -0.4619586816785578
4494000000.0 0.9009365265425961 -0.45598717945361755
4497000000.0 0.8856902111587437 -0.45316675607484824
4500000000.0 0.9044535460397356 -0.4735954292141099
4503000000.0 0.9133056259495893 -0.49240199492065967
4506000000.0 0.8730388103021023 -0.48829249704942557
4509000000.0 0.8532361745413006 -0.5029071188844296
4512000000.0 0.8521232387304141 -0.5182883858979876
4516000000.0 0.8997962369932492 -0.5342040124549622
4519000000.0 0.8467697902499741 -0.5187375498249069
4522000000.0 0.8608286048701379 -0.5551676722945225
4525000000.0 0.8863074552808892 -0.513493622715996
4528000000.0 0.8657938383465695 -0.5689945201233892
4531000000.0 0.854086886090202 -0.5549761440122307
4534000000.0 0.8366660127817998 -0.5629545739264837
4538000000.0 0.8209550858274923 -0.5703457216851591
4541000000.0 0.817645727580678 -0.587804246607748
4544000000.0 0.822485419006586 -0.5956948710952277
4547000000.0 0.8130824741035979 -0.583616967864518
4550000000.0 0.8086990466693136 -0.6227976973144388
4553000000.0 0.8110988409573776 -0.6447816949482799
4556000000.0 0.7901021990655019 -0.5975412149168178
4559000000.0 0.7950666241258416 -0.6376052590291343
4562000000.0 0.8121568019327159 -0.6533097347354938
4566000000.0 0.782627457649574 -0.6419422101519618
4569000000.0 0.7727326192040689 -0.6363753352359844
4572000000.0 0.755582463634022 -0.6441539444129685
4575000000.0 0.7551137530732219 -0.6801801011079498
4578000000.0 0.7938863265675968 -0.6777871875053045
4581000000.0 0.7498524647271633 -0.681262708073995
4584000000.0 0.7291067393570971 -0.6771849681555023
4588000000.0 0.7641751081980415 -0.6976059421130331
4591000000.0 0.7480630470808763 -0.6765451580439475
4594000000.0 0.7189543601433294 -0.7159021335470009
4597000000.0 0.7345867322727453 -0.7260929689228699
4600000000.0 0.6988688179578818 -0.7280120400188951
4603000000.0 0.7173319146682575 -0.7467627414783206
4606000000.0 0.7096750776873546 -0.7538929607657482
4609000000.0 0.7102212845096169 -0.7278733452671738
4612000000.0 0.6989283197958774 -0.768240969595901
4616000000.0 0.6761931869705626 -0.7501661377821152
4619000000.0 0.6804722413240117 -0.7482821266172207
4622000000.0 0.6609331201537648 -0.7786949060181343
4625000000.0 0.6311709398062958 -0.7747528743652141
4628000000.0 0.6560542398732728 -0.7738025028089743
4631000000.0 0.6520861089543204 -0.7839547080372267
4634000000.0 0.6472482735826683 -0.804986051653302
4638000000.0 0.6381998157574571 -0.8052209627933633
4641000000.0 0.6447816485485172 -0.7972044943743051
4644000000.0 0.636550433719824 -0.8005773123604677
4647000000.0 0.6321378601972287 -0.8103834179455646
4650000000.0 0.5884579747818308 -0.827526752566089
4653000000.0 0.6352187441551334 -0.8359646499326467
4656000000.0 0.6011187129552746 -0.8517970547822549
4659000000.0 0.5776312958343842 -0.8495281039625063
4662000000.0 0.5797063067810774 -0.852609274002051
4666000000.0 0.5636103718562903 -0.8257371225875579
4669000000.0 0.564370230480953 -0.8737029753845369
4672000000.0 0.5474103229460588 -0.8901068802087182
4675000000.0 0.5366144433411878 -0.8750636592030867
4678000000.0 0.5225592354495621 -0.8639168766551327
4681000000.0 0.5195282232189127 -0.9114713411500516
4684000000.0 0.5046822112449401 -0.9069612830537437
4688000000.0 0.5172713751269196 -0.8755501170238607
4691000000.0 0.5078603470718412 -0.8960872062856413
4694000000.0 0.5211626406603321 -0.8794457302063947
4697000000.0 0.4594654558602143 -0.8820889104984904
4700000000.0 0.4851269076726138 -0.8873365526981185
4703000000.0 0.49066424193196234 -0.8468749882629352
4706000000.0 0.476820843513836 -0.9181539769071859
4709000000.0 0.44401733719979397 -0.9298638037636833
4712000000.0 0.4608726263905858 -0.9058287260909106
4716000000.0 0.449249493821559 -0.938806206196074
4719000000.0 0.4863631500757255 -0.9329589763676378
4722000000.0 0.4656748904393184 -0.9272253722348238
4725000000.0 0.4408804652347541 -0.9277599819734957
4728000000.0 0.4144326846558344 -0.9256769660350821
4731000000.0 0.4266904473326154 -0.9576183346131544
4734000000.0 0.3990995084569394 -0.9268669546007033
4738000000.0 0.4272158978897821 -0.9852031227848598
4741000000.0 0.33935636106688244 -0.9880760280025229
4744000000.0 0.36822223029698065 -1.000185254086346
4747000000.0 0.39833205457673393 -0.9264565040696358
4750000000.0 0.3481890900499071 -0.964156155295897
4753000000.0 0.3501881988557462 -0.9774178574681457
4756000000.0 0.34291682202357787 -0.9597599324116415
4759000000.0 0.34984733483618735 -0.9624437891303739
4762000000.0 0.28352290948219205 -1.0226583040376134
4766000000.0 0.30296618099667955 -1.0062026639650035
4769000000.0 0.2852987267657429 -1.0007954378061161
4772000000.0 0.30709184491786234 -1.0018564107333794
4775000000.0 0.29617387665727746 -1.0298331260773885
4778000000.0 0.265611320678011 -1.0100889133669324
4781000000.0 0.28753557692437 -0.9834831675438864
4784000000.0 0.2552691278853496 -0.9987283608826839
4788000000.0 0.2570922279027299 -1.0109452676420754
4791000000.0 0.2387554191100545 -1.00763526050408
4794000000.0 0.2599233075408731 -1.0260386824873864
4797000000.0 0.1992629610311983 -0.9944357478722844
4800000000.0 0.2161510497153379 -0.9962297589106173
4803000000.0 0.16861833843857396 -1.0013727384570696
4806000000.0 0.1966699651183818 -1.033097786617372
4809000000.0 0.18382301837953793 -1.0223769952830044
4812000000.0 0.14022763830265608 -0.9881089216246646
4816000000.0 0.2025472063328691 -0.9981011217754105
4819000000.0 0.2274477966279311 -1.039102025485747
4822000000.0 0.1841605883049076 -1.0559569251601113
4825000000.0 0.16198023220992117 -1.0348635255380187
4828000000.0 0.13090999763372765 -1.0292561569365355
4831000000.0 0.08287496189874877 -1.0504174610564745
4834000000.0 0.14694274096335366 -1.0275482606128348
4838000000.0 0.10991293697047363 -1.0468083935942287
4841000000.0 0.07291283927263535 -1.025826327068919
4844000000.0 0.15623879522187625 -1.033857804940076
4847000000.0 0.11635164826776803 -1.0232080739356764
4850000000.0 0.06852044003045475 -1.0532287317363023
4853000000.0 0.05656119813130639 -0.9946375977054711
4856000000.0 0.06457511328468116 -1.0233576418594301
4859000000.0 0.06591323194395272 -1.1045009641531869
4862000000.0 0.08332029591962194 -1.0324659292051646
4866000000.0 0.03265011286598679 -1.0448326066989375
4869000000.0 0.028536852927534963 -1.0241299449344705
4872000000.0 -0.016596816810331788 -1.0545414225218084
4875000000.0 0.045963793162434305 -1.068359540952542
4878000000.0 0.009335688541543742 -1.045397393803004
4881000000.0 -0.04042981468184613 -1.1122686627337135
4884000000.0 0.028652609358711657 -1.0418390251352343
4888000000.0 0.030895662138820085 -1.0155005508380843
4891000000.0 -0.0015352314227654387 -1.0823269563456372
4894000000.0 -0.04814522214594796 -1.0488412368028235
4897000000.0 -0.005544156475130246 -1.0314976192655505
4900000000.0 -0.03652090836945973 -1.0679974480025844
4903000000.0 -0.03541983549914988 -1.0777644074612613
4906000000.0 -0.05715782849851314 -1.0642255313405595
4909000000.0 -0.10773130555729116 -1.0680255063488884
4912000000.0 -0.10547995521623028 -1.064681284751805
4916000000.0 -0.08480602611596313 -1.0627280488097341
4919000000.0 -0.06491133253612894 -1.0675235137635897
4922000000.0 -0.08057251172546642 -1.0630967781161655
4925000000.0 -0.11651221802953135 -1.035069645037232
4928000000.0 -0.08285897669308177 -1.0369738054665807
4931000000.0 -0.09752533609537588 -1.0812767655500304
4934000000.0 -0.13253409150971796 -1.0065096677792051
4938000000.0 -0.16250646572099747 -0.9950960023261844
4941000000.0 -0.15172722175284636 -1.0444355409471475
4944000000.0 -0.1109398643764058 -0.9909850170446555
4947000000.0 -0.17519454512169605 -1.0078851137903964
4950000000.0 -0.2084873559245024 -1.0012014598607426
4953000000.0 -0.24871535632871056 -1.0442920066459804
4956000000.0 -0.23163515761239123 -1.0051443045346717
4959000000.0 -0.2630527264901362 -0.9678188794136344
4962000000.0 -0.2805527403948842 -1.024564507882982
4966000000.0 -0.2002853003559184 -1.0627847376984054
4969000000.0 -0.209859982356924 -1.0649468619008653
4972000000.0 -0.25294270903672667 -0.9954595121124494
4975000000.0 -0.21264254891724035 -1.0163654892022833
4978000000.0 -0.2753762659001858 -1.0193227773733553
4981000000.0 -0.28013796376074573 -0.9946323584372002
4984000000.0 -0.2772775051908013 -0.9903972518891938
4988000000.0 -0.2664663716501221 -1.0005856071939998
4991000000.0 -0.25156268493094147 -1.040223411241378
4994000000.0 -0.2769206130848909 -1.019811843305101
4997000000.0 -0.33697946956587693 -0.9812637984644887
5000000000.0 -0.2969856633777229 -1.025725616064291
5003000000.0 -0.315008960636653 -1.0164688105790796
5006000000.0 -0.35607508024436463 -1.0464255257967312
5009000000.0 -0.32577955362905064 -1.0060591544352941
5012000000.0 -0.3762877725366858 -0.9597614365343676
5016000000.0 -0.32705272768237087 -1.021907143114401
5019000000.0 -0.38434604595822697 -0.9730793433613063
5022000000.0 -0.3588786533462478 -0.989375152838321
5025000000.0 -0.38346752285446023 -1.0120849699665435
5028000000.0 -0.4180978069836985 -0.983761413699807
5031000000.0 -0.41263320291526806 -0.9725620218465391
5034000000.0 -0.45015947692637703 -0.9645633828372946
5038000000.0 -0.42675519825005526 -0.9372234901302858
5041000000.0 -0.4051513377828584 -0.9817346084189801
5044000000.0 -0.3950470413480336 -0.9679203779327722
5047000000.0 -0.4236376359342872 -0.990228063937353
5050000000.0 -0.3716446083886922 -0.9694534770298717
5053000000.0 -0.4987080041485127 -0.988889599115991
5056000000.0 -0.4422698673951315 -0.9513997481309118
5059000000.0 -0.4301273276367205 -0.9820604059881551
5062000000.0 -0.5042517831464887 -0.9281870809953745
5066000000.0 -0.46946166763835384 -0.967002261712421
5069000000.0 -0.5488759307697236 -0.9433286213205702
5072000000.0 -0.478589134757605 -0.8997817209812458
5075000000.0 -0.5049315045869226 -0.9382070187179832
5078000000.0 -0.552546503611417 -0.884054342108143
5081000000.0 -0.534010069398745 -0.878895606144929
5084000000.0 -0.5327695358997527 -0.9252498337665669
5088000000.0 -0.521697644826312 -0.9224725828403633
5091000000.0 -0.5466119832035343 -0.86662452466445
5094000000.0 -0.5606359159617992 -0.8704087625457014
5097000000.0 -0.513024744505047 -0.8743286639409469
5100000000.0 -0.5610183849137351 -0.8695205730323997
5103000000.0 -0.5976446017905512 -0.8820865216991537
5106000000.0 -0.6026578061407767 -0.9163046333335796
5109000000.0 -0.5483423199379184 -0.8660512269531278
5112000000.0 -0.5436275379478416 -0.8482682967699622
5116000000.0 -0.5774300877135078 -0.8351904467942111
5119000000.0 -0.58945779746503 -0.8296675583345052
5122000000.0 -0.584921291693607 -0.834717424209072
5125000000.0 -0.5912132663824721 -0.8505425516598089
5128000000.0 -0.6383614122721551 -0.844314513928563
5131000000.0 -0.6264432725653548 -0.822471010870256
5134000000.0 -0.6195338630887521 -0.8586703370837324
5138000000.0 -0.6261278913393244 -0.8952226316751994
5141000000.0 -0.6215024401307163 -0.8490499713201334
5144000000.0 -0.6756485521414598 -0.8469498776552176
5147000000.0 -0.6820652240126294 -0.8371399590327744
5150000000.0 -0.7176655854411869 -0.856579804412358
5153000000.0 -0.6757700120436567 -0.8499161676467619
5156000000.0 -0.6853078267771421 -0.8473431119673369
5159000000.0 -0.6956511889644762 -0.8374689938109073
5162000000.0 -0.6863370680992942 -0.7831545553030581
5166000000.0 -0.7347053342529305 -0.7685164778804559
5169000000.0 -0.7144975264478601 -0.7738577333037598
5172000000.0 -0.6802176425298928 -0.7808102214260491
5175000000.0 -0.7573302864628622 -0.8000967706381824
5178000000.0 -0.7432741610394809 -0.776426841446811
5181000000.0 -0.7410403684853132 -0.8163593478567607
5184000000.0 -0.755508196086531 -0.7366951564129663
5188000000.0 -0.7353192869220564 -0.7486831561776295
