! Created with skrf 1.8.0 (http://scikit-rf.org).
# Hz S RI R 50.0 
!freq ReS11 ImS11
4000000000.0 0.6912186439819447 0.7896037595858723
4003000000.0 0.7303229830160992 0.8307166988276422
4006000000.0 0.6757678238636541 0.7318199919091456
4009000000.0 0.6723141262765542 0.7831483100673703
4012000000.0 0.6671513974178647 0.8108100815994451
4016000000.0 0.7413302311988674 0.7388543610704719
4019000000.0 0.7078075519252993 0.7636812728673404
4022000000.0 0.6591230646758741 0.7686400978125913
4025000000.0 0.7324387655214304 0.7410246400415027
4028000000.0 0.7759770741683272 0.7598054205913745
4031000000.0 0.6997367067021437 0.6982467758207292
4034000000.0 0.697958300625156 0.6951862859609297
4038000000.0 0.7944096980939201 0.7277529780836123
4041000000.0 0.7668234868256516 0.7172219391192113
4044000000.0 0.8008320879087435 0.7660639472827252
4047000000.0 0.8031142910750024 0.7425964288107164
4050000000.0 0.8097048044408078 0.7205207114325086
4053000000.0 0.7821409951927276 0.6401773226229941
4056000000.0 0.7740104405239918 0.6677034085217577
4059000000.0 0.7560238007757596 0.6760010559208018
4062000000.0 0.7701853302297718 0.6440109902419704
4066000000.0 0.7562749190791715 0.6171893629663504
4069000000.0 0.8702005093578424 0.6360621479086932
4072000000.0 0.8011698970487741 0.6496871625745144
4075000000.0 0.8340502179613728 0.6776012780321314
4078000000.0 0.8426070599250284 0.6042888247479696
4081000000.0 0.7824661967726233 0.653074191899005
4084000000.0 0.8508638240707094 0.585650853819115
4088000000.0 0.7830121526484645 0.6392137029838234
4091000000.0 0.8985383850115638 0.6213763902744918
4094000000.0 0.8205069644929054 0.6095932543524413
4097000000.0 0.8096275675278619 0.58002400393713
4100000000.0 0.8422048843740733 0.5813458263233813
4103000000.0 0.8441010195462586 0.5959104191720361
4106000000.0 0.8866406365806189 0.5371083964247081
4109000000.0 0.8692456353047358 0.5376470350653169
4112000000.0 0.8749181815103941 0.5277843735929098
4116000000.0 0.8886627646409827 0.5683445953797643
4119000000.0 0.8896333135207497 0.5300593539701837
4122000000.0 0.8870451147592202 0.5054795605952562
4125000000.0 0.8578418690232439 0.49418695203216895
4128000000.0 0.8870344448602877 0.535394184231764
4131000000.0 0.8821540934042278 0.50591289244121
4134000000.0 0.8900557537689068 0.49938214344816645
4138000000.0 0.8717260008228755 0.4705581871311893
4141000000.0 0.8930014998072369 0.4885965843890073
4144000000.0 0.9255821873698226 0.5107809757475048
4147000000.0 0.9241791533361521 0.4674443512453525
4150000000.0 0.9171279147093259 0.4723527715730736
4153000000.0 0.9191645008605658 0.4499424894647822
4156000000.0 0.9535904352129678 0.47847534432112204
4159000000.0 0.9203920357509863 0.43887308823728627
4162000000.0 0.9172418483474001 0.44054690801113294
4166000000.0 0.9649256090814928 0.4056774255081316
4169000000.0 0.9208069479036037 0.3876297555736019
4172000000.0 0.9339052941391206 0.41027115956661225
4175000000.0 0.9352405439533946 0.39996564956781017
4178000000.0 0.9608267527770945 0.38616344409677483
4181000000.0 0.9371469746404724 0.3901616613444493
4184000000.0 0.932098676438386 0.3787761057995131
4188000000.0 0.980739402840415 0.3468248891577964
4191000000.0 0.9242313376902254 0.376776230410059
4194000000.0 0.9413670238590943 0.32680519260058416
4197000000.0 0.9703191477088303 0.34917635160803123
4200000000.0 0.9640627618885889 0.3664586507592368
4203000000.0 0.9956736015965367 0.3326183965236079
4206000000.0 0.9979460737880416 0.35821395769682557
4209000000.0 0.9567453977690822 0.33624188438743935
4212000000.0 0.9958482319684767 0.26719613741715853
4216000000.0 0.9668470586631165 0.2956301034925099
4219000000.0 0.9976384610283927 0.29619868368205715
4222000000.0 0.9855904781341436 0.26215900235889633
4225000000.0 0.9666536668391086 0.27345201077813575
4228000000.0 0.9904296412593754 0.2669936258968222
4231000000.0 0.9848467495960828 0.24416981496530432
4234000000.0 1.0031137638515273 0.2421734762154134
4238000000.0 1.0095993307200883 0.21477013798798958
4241000000.0 0.9723932324373787 0.20908163692199289
4244000000.0 0.9628033870007666 0.22283429705519137
4247000000.0 1.0106335942494131 0.22067296546800996
4250000000.0 0.9886609679614429 0.1969706379286964
4253000000.0 0.9739136028833457 0.17701085055067095
4256000000.0 1.0271885201527011 0.1755089353230001
4259000000.0 0.9756588368351807 0.15812684592684803
4262000000.0 0.9934462067427048 0.1439826789610791
4266000000.0 1.022353738562172 0.1293534248936941
4269000000.0 0.9989434046313892 0.15018345371859057
4272000000.0 0.9852764883744896 0.15134218767823265
4275000000.0 1.0209874330590334 0.1290156940529828
4278000000.0 1.0244689251258956 0.1170109946001788
4281000000.0 1.0079516186014386 0.12435539638700153
4284000000.0 1.0265609842991474 0.06492028585145573
4288000000.0 1.0192591289339683 0.12358941685166797
4291000000.0 0.9854359964626545 0.10178858034411507
4294000000.0 0.9883763286619142 0.0748664957017056
4297000000.0 1.0055800391488392 0.08154330624432433
4300000000.0 0.9795362607176075 0.07629686245031048
4303000000.0 0.9914948610595153 0.053247110892060176
4306000000.0 1.036110582307122 0.08846141053817941
4309000000.0 0.9993177321189531 0.0490430688074054
4312000000.0 1.0169935803682666 0.05595624150663889
4316000000.0 1.030057654460657 0.020318984685870983
4319000000.0 0.9926611999330921 0.04052361371493583
4322000000.0 0.9974249926901 -0.01400779106993881
4325000000.0 1.0181102813857212 -0.0009164311994106639
4328000000.0 1.000228328774139 -0.01724611033866874
4331000000.0 1.0161343076113412 -0.06153682574771832
4334000000.0 1.008832823020557 -0.03838778370598141
4338000000.0 1.0204283326365253 -0.01273893871740256
4341000000.0 1.012907458168451 -0.01378789823660187
4344000000.0 1.026023491076547 -0.047683550834763444
4347000000.0 1.0355606351247473 -0.11217680232999294
4350000000.0 0.9912731585459064 -0.06971872038681699
4353000000.0 0.9706991169344317 -0.059149799374377546
4356000000.0 1.007646704834025 -0.09928867428278855
4359000000.0 0.9500481229103108 -0.0768249656454572
4362000000.0 1.0081946915538027 -0.14340617213349433
4366000000.0 1.0129106228659635 -0.13009425855181783
4369000000.0 0.9661481323562787 -0.1438415800338682
4372000000.0 0.9688174748081457 -0.17818151608648625
4375000000.0 0.9935029518320833 -0.1371622118662726
4378000000.0 0.9818992458192777 -0.16004804447849733
4381000000.0 0.9763462027941536 -0.14127771084563318
4384000000.0 1.04152123399756 -0.2021613565612367
4388000000.0 0.9916945855441772 -0.16384700867432192
4391000000.0 0.9973338670888083 -0.20067435698224165
4394000000.0 0.9535677315570095 -0.2076844391009863
4397000000.0 0.9834798733365837 -0.21299899779275422
4400000000.0 1.0143328763158046 -0.21395343019811291
4403000000.0 0.9995587373467666 -0.21995479673396376
4406000000.0 0.9881896431608802 -0.25445565870250414
4409000000.0 1.0018184780405868 -0.251592575505726
4412000000.0 0.9489129444354385 -0.3087630034606349
4416000000.0 0.9636911101122683 -0.2743597415051573
4419000000.0 0.966378302677859 -0.28682433384441286
4422000000.0 0.967171528245663 -0.2645069021565357
4425000000.0 0.991867689751197 -0.2693722752179155
4428000000.0 0.9574356617081909 -0.2982437541334688
4431000000.0 0.9876460227179977 -0.29028351896471694
4434000000.0 0.9593132783808548 -0.32054078905626693
4438000000.0 0.9679197342071939 -0.33481710416984145
4441000000.0 0.9755059485673674 -0.3385986371500814
4444000000.0 0.9315938239583195 -0.33372956765386486
4447000000.0 0.932566795389568 -0.3514014832919401
4450000000.0 0.932668871143095 -0.3433410057478251
4453000000.0 0.9641993064807609 -0.37647949722400864
4456000000.0 0.9012933895412302 -0.3752938017746119
4459000000.0 0.8889491625599026 -0.3788701374232435
4462000000.0 0.975354800557263 -0.4163467851266125
4466000000.0 0.9549467095405039 -0.4258082805029343
4469000000.0 0.9405457366917124 -0.39118365366863034
4472000000.0 0.9249914769805885 -0.45670574616553544
4475000000.0 0.8976722749404222 -0.4110350244433949
4478000000.0 0.9505735253358515 -0.46293949146699653
4481000000.0 0.8768876259978983 -0.4378488918563716
4484000000.0 0.8933841824982542 -0.5103027894219799
4488000000.0 0.8887314934264947 -0.4669057955318074
4491000000.0 0.8941901528475609 -0.4650519506567505
4494000000.0 0.8881844079523773 -0.46497219641008924
4497000000.0 0.8820146535301772 -0.4602769138282391
4500000000.0 0.8896924725177842 -0.4700409249282842
4503000000.0 0.8988643867761492 -0.5053124374590554
4506000000.0 0.862009138987738 -0.5109735839555472
4509000000.0 0.8440289094230067 -0.5019227293460963
4512000000.0 0.8558821462234024 -0.5327441037441385
4516000000.0 0.8822356056014381 -0.5398429035452288
4519000000.0 0.8453575541422514 -0.523107757712076
4522000000.0 0.8525435846612539 -0.5481814465515743
4525000000.0 0.8610466885052548 -0.5182993424872381
4528000000.0 0.868155320939684 -0.5801146069921359
4531000000.0 0.8429987839143273 -0.5659901353606953
4534000000.0 0.8288719713296312 -0.5483008173018995
4538000000.0 0.8232609762907641 -0.5734279638134543
4541000000.0 0.783431357592883 -0.6157986291510313
4544000000.0 0.7859804424941472 -0.5943457488986796
4547000000.0 0.804748816246854 -0.5802870470466426
4550000000.0 0.7929611478321403 -0.6199716885556094
4553000000.0 0.8068772067296275 -0.6267017709702118
4556000000.0 0.7824722544495679 -0.6357444274636174
4559000000.0 0.7879567192405088 -0.6426287938369954
4562000000.0 0.8036733292548355 -0.6311678315696785
4566000000.0 0.770353888160497 -0.6551954004821288
4569000000.0 0.7585450387383349 -0.6524497021601297
4572000000.0 0.7570269308519736 -0.6587475645233045
4575000000.0 0.7576131275354094 -0.6845662250001997
4578000000.0 0.7883177670818247 -0.6872758139937615
4581000000.0 0.7487181248595162 -0.6989402868268991
4584000000.0 0.7304444910528154 -0.7071801887370128
4588000000.0 0.7644301457523418 -0.6931362497650657
4591000000.0 0.714656856387782 -0.6950129686029608
4594000000.0 0.7025411934893298 -0.7117655713528965
4597000000.0 0.7127746731618834 -0.7391006426215635
4600000000.0 0.6810403265475136 -0.7224728300966786
4603000000.0 0.7040391895602922 -0.7495301128580154
4606000000.0 0.7102345676441875 -0.7401637279379697
4609000000.0 0.6831437261364319 -0.7414300965781455
4612000000.0 0.6850512356213807 -0.7518007759103422
4616000000.0 0.6655889667780448 -0.7342648670346
4619000000.0 0.6738565836539965 -0.740985114089841
4622000000.0 0.6482851215093708 -0.7518299491068992
4625000000.0 0.6302306638506582 -0.7752802772092454
4628000000.0 0.6580595495203535 -0.7716457935854076
4631000000.0 0.6214514323801077 -0.7727642947945177
4634000000.0 0.6133924609844092 -0.7805585435266924
4638000000.0 0.6320693205969442 -0.7848267352620459
4641000000.0 0.6294357043329006 -0.7954525340779934
4644000000.0 0.6162591317128486 -0.808385206827629
4647000000.0 0.6166189640271819 -0.8223993171633065
4650000000.0 0.5814600649500536 -0.8061826791240002
4653000000.0 0.6204395092316283 -0.832728695808485
4656000000.0 0.5964909603348671 -0.839201706208315
4659000000.0 0.5643349645478128 -0.834928300479094
4662000000.0 0.5719475051321484 -0.8511926057001671
4666000000.0 0.5531704402135962 -0.8367135844438607
4669000000.0 0.5598272382311049 -0.8460071965121727
4672000000.0 0.5423181419442376 -0.8697263601622001
4675000000.0 0.5254784197881878 -0.848717746062097
4678000000.0 0.5247557508337727 -0.8406861275286263
4681000000.0 0.488348967922465 -0.8822709594767193
4684000000.0 0.498675901917911 -0.8719802232082747
4688000000.0 0.47920319444793236 -0.8798566338917428
4691000000.0 0.49841456632599723 -0.9058616440036158
4694000000.0 0.49259142718013305 -0.8777930108694243
4697000000.0 0.4430916801400664 -0.8699841660697978
4700000000.0 0.4708659158616484 -0.875323502251653
4703000000.0 0.5056062008379466 -0.8502740758409513
4706000000.0 0.4751900866104064 -0.9035001009642245
4709000000.0 0.43772257786081187 -0.8924093620338189
4712000000.0 0.44134599265525687 -0.9350774409329939
4716000000.0 0.41953871018002126 -0.9200156205287662
4719000000.0 0.4416778171905751 -0.9559913343865333
4722000000.0 0.439446831545088 -0.9208047315697752
4725000000.0 0.42776242016290006 -0.927145440696347
4728000000.0 0.37270650174027026 -0.9488929991115223
4731000000.0 0.40769572089345557 -0.9563660229319588
4734000000.0 0.4176912085925505 -0.9509923186975993
4738000000.0 0.3979716538467706 -0.9786876929571835
4741000000.0 0.35081932488053946 -0.9577135445273987
4744000000.0 0.35084893238217574 -0.9613040692385689
4747000000.0 0.37998031449584035 -0.9249581401304895
4750000000.0 0.3518519448882227 -0.9635238324910634
4753000000.0 0.36410463266753396 -0.978105612705881
4756000000.0 0.33564818178725864 -0.9572136936694584
4759000000.0 0.3613046772388566 -0.9973232152662486
4762000000.0 0.32197348977814333 -0.9932529894148517
4766000000.0 0.3014569811307416 -0.9600635893459916
4769000000.0 0.32457278508063575 -0.9878955937200357
4772000000.0 0.3049573768841131 -0.9847278110112346
4775000000.0 0.2495506608288112 -1.018735940779478
4778000000.0 0.26450147041598343 -0.974281985642261
4781000000.0 0.26307372008452556 -0.9667536652846993
4784000000.0 0.2698338902178604 -0.986739592271889
4788000000.0 0.23747093226210547 -1.0122326895073146
4791000000.0 0.2271390169732924 -0.968719683629986
4794000000.0 0.26268955803084487 -1.0501176573320747
4797000000.0 0.19647779493933504 -0.9948744173564473
4800000000.0 0.18689088584619415 -0.9851417723316902
4803000000.0 0.18683901470147818 -1.0030486321194274
4806000000.0 0.19786597088564706 -1.022072888142983
4809000000.0 0.1552564247395833 -0.9979543009835964
4812000000.0 0.14607464534372824 -1.0076769692315801
4816000000.0 0.19499566797885215 -1.0069025174871247
4819000000.0 0.1824952243319862 -1.0176078897264498
4822000000.0 0.17629510252842934 -1.0293519381784448
4825000000.0 0.17772524160713343 -1.033516802914853
4828000000.0 0.11750262496531208 -1.020712332899473
4831000000.0 0.09353523996594597 -1.0436071760447996
4834000000.0 0.15296386726295916 -1.0179849834418755
4838000000.0 0.1043089885417016 -1.0127442073967057
4841000000.0 0.0776988564602775 -1.020004048250049
4844000000.0 0.13456263715620817 -1.0077759859308602
4847000000.0 0.10428863665203589 -0.9784172213897477
4850000000.0 0.08059412527511622 -1.0453544095845035
4853000000.0 0.08395292313155334 -1.0110734264621564
4856000000.0 0.049693650084557964 -1.010405143693966
4859000000.0 0.05898389126822948 -1.0770312523534145
4862000000.0 0.06991966849973144 -1.0028344303847025
4866000000.0 0.03562242196222124 -1.055728683558425
4869000000.0 0.006357119510430997 -1.0296981034347557
4872000000.0 -0.018785646089257653 -1.0507610438161825
4875000000.0 0.043879386455653674 -1.0647936963856697
4878000000.0 -0.029268320756505997 -1.0366493079150445
4881000000.0 -0.05990945657914629 -1.0801078513773936
4884000000.0 0.0033945011190813813 -1.0208435620983065
4888000000.0 0.002839267617246302 -1.0353935600562516
4891000000.0 -0.03142704187786899 -1.0644849912200447
4894000000.0 -0.06140640939414876 -1.0325134861082186
4897000000.0 0.0027409009711891925 -1.024029053164203
4900000000.0 -0.04911453630865831 -1.047388002104345
4903000000.0 -0.03980334674586388 -1.051827387864937
4906000000.0 -0.06494947540549312 -1.0162757935023004
4909000000.0 -0.09999216852500803 -1.0237931631063704
4912000000.0 -0.12869658348859292 -1.0351691243802785
4916000000.0 -0.08430011426403869 -1.0609459647830324
4919000000.0 -0.08577576075408362 -1.0718896552091273
4922000000.0 -0.07323539099205803 -1.0831230342965905
4925000000.0 -0.1579890728084913 -1.0027037789651772
4928000000.0 -0.054945839674197125 -1.0107334143275482
4931000000.0 -0.12735905438043282 -1.023260601737584
4934000000.0 -0.12752452130762665 -1.0015694806627358
4938000000.0 -0.17647017934985515 -1.005802876406617
4941000000.0 -0.19396330974796672 -1.0164924248308638
4944000000.0 -0.13068639683648225 -0.9496097787832951
4947000000.0 -0.1510624030645061 -1.0089603179837938
4950000000.0 -0.19748372483278676 -0.9940758773572745
4953000000.0 -0.27104964089535827 -1.031524922613932
4956000000.0 -0.22131207383338358 -1.0141684282047014
4959000000.0 -0.24278583897536313 -0.9493669148897439
4962000000.0 -0.24843207673917792 -1.041034528697672
4966000000.0 -0.2538500817887906 -1.0383777640510357
4969000000.0 -0.22624663806040246 -1.0732733365534437
4972000000.0 -0.27136956941996304 -0.9689501538470401
4975000000.0 -0.2426629856451192 -0.9864252506298623
4978000000.0 -0.2977644809933034 -0.9756379322956653
4981000000.0 -0.29508234446254833 -0.9718869448171206
4984000000.0 -0.2867651109479761 -0.9816544960233552
4988000000.0 -0.26652612592077723 -0.9935643205997532
4991000000.0 -0.26576327111826586 -1.0073460139961248
4994000000.0 -0.2806178502815255 -0.9924639110915447
4997000000.0 -0.35421693242569235 -0.9903124965806771
5000000000.0 -0.3207253598708816 -1.0057127900029734
5003000000.0 -0.3441181911727494 -0.9991000021287532
5006000000.0 -0.3620328123280575 -1.0126779964006836
5009000000.0 -0.34493870786793723 -0.9877806761757341
5012000000.0 -0.3873126935588746 -0.9725383338914215
5016000000.0 -0.3511540636731801 -1.0126778343571177
5019000000.0 -0.37485476892574954 -0.9771427751241017
5022000000.0 -0.392493040057449 -0.9622796988746809
5025000000.0 -0.39353192370040363 -1.011443431675121
5028000000.0 -0.41772337026820805 -0.9658644066499953
5031000000.0 -0.4223094759630852 -0.9399679900661638
5034000000.0 -0.47966829460882277 -0.9650646944635364
5038000000.0 -0.4207004210774965 -0.9176984546776537
5041000000.0 -0.3925229348715874 -0.9611362812220771
5044000000.0 -0.3823420134705604 -0.9106189824901086
5047000000.0 -0.4125532786258958 -0.957035378829488
5050000000.0 -0.3397374189868698 -0.9415872564883532
5053000000.0 -0.5084657888182611 -0.9504744587958494
5056000000.0 -0.45872602852812916 -0.9569545591876345
5059000000.0 -0.4581955196658822 -0.9396788860287076
5062000000.0 -0.5159727694451702 -0.9182327887009898
5066000000.0 -0.4629118303745561 -0.9214909531651012
5069000000.0 -0.5076334914124184 -0.9341036729492461
5072000000.0 -0.4561087648280171 -0.8765939506128426
5075000000.0 -0.493250311279935 -0.9030917815445667
5078000000.0 -0.5166022192901767 -0.917487685829534
5081000000.0 -0.5175913280196871 -0.8592900919730134
5084000000.0 -0.5545898452992494 -0.8849369711343731
5088000000.0 -0.5064290470857129 -0.8952972932473933
5091000000.0 -0.5897184382855187 -0.8786317144352185
5094000000.0 -0.5941447279109912 -0.8434142062419384
5097000000.0 -0.5152242574485929 -0.9070856261431752
5100000000.0 -0.5203356311075761 -0.8732999621492153
5103000000.0 -0.5897211909210167 -0.8339875599730077
5106000000.0 -0.5705943709675529 -0.907954281600321
5109000000.0 -0.5113556058196851 -0.8953590408429108
5112000000.0 -0.5923575734492565 -0.8337192677960794
5116000000.0 -0.5512123823959616 -0.8304465709218005
5119000000.0 -0.5818139585268985 -0.8418395767814979
5122000000.0 -0.6506709298499606 -0.8003438679428037
5125000000.0 -0.5585677947877908 -0.8689994150317485
5128000000.0 -0.6343722488694674 -0.8260402575247394
5131000000.0 -0.6071929394621818 -0.7765473623962091
5134000000.0 -0.644810034114921 -0.7927694066960282
5138000000.0 -0.6375280029555206 -0.8468344790100407
5141000000.0 -0.6333204644363999 -0.8477619733864081
5144000000.0 -0.6726907934742363 -0.8104656753768846
5147000000.0 -0.6485201457353424 -0.8724573791605272
5150000000.0 -0.6841630997365382 -0.8237357052633166
5153000000.0 -0.6827953495052514 -0.8136080597504207
5156000000.0 -0.6598170158176614 -0.8036222561357201
5159000000.0 -0.6967552085023502 -0.827327336563669
5162000000.0 -0.6863132045202033 -0.8181223053241531
5166000000.0 -0.7347599316474659 -0.7724675421228528
5169000000.0 -0.7115446522867922 -0.7857146429884039
5172000000.0 -0.6937978495598744 -0.7370251357437393
5175000000.0 -0.6990306926893207 -0.7838730435900394
5178000000.0 -0.7631786686761026 -0.7395435706907607
5181000000.0 -0.7212029626648567 -0.7566633983611342
5184000000.0 -0.7444023870620614 -0.7497081149030701
5188000000.0 -0.7259701634378068 -0.7432959601502717
