! Created with skrf 1.8.0 (http://scikit-rf.org).
# Hz S RI R 50.0 
!freq ReS11 ImS11
4000000000.0 0.6484503214755137 0.786065140341986
4003000000.0 0.6744518112954859 0.8078867010836593
4006000000.0 0.7026923490433833 0.71226877244201
4009000000.0 0.6787437541106123 0.7807315924769304
4012000000.0 0.6715003768051381 0.8251132088356277
4016000000.0 0.783275803850446 0.7797659382915421
4019000000.0 0.700994867883735 0.7106846128730766
4022000000.0 0.716714783086903 0.8101045856387565
4025000000.0 0.7932898322156887 0.7121732223787564
4028000000.0 0.7526863907964384 0.7292676233887494
4031000000.0 0.7111125103251315 0.7086637840560799
4034000000.0 0.767560383543973 0.7150333069143293
4038000000.0 0.785555527173494 0.7201871943243302
4041000000.0 0.7773924738628233 0.7156076673240369
4044000000.0 0.799176926591273 0.7181146219922637
4047000000.0 0.7879464094967302 0.7328142618117817
4050000000.0 0.846925709343556 0.6780498351614167
4053000000.0 0.7706353757922566 0.6320784249801079
4056000000.0 0.78505532657218 0.6909831910310651
4059000000.0 0.765242722589819 0.6363932778109573
4062000000.0 0.789807138141821 0.6626990723250188
4066000000.0 0.7622234767606573 0.5827843665796527
4069000000.0 0.8060008793056292 0.6421062919979377
4072000000.0 0.8162756729141918 0.663650471464623
4075000000.0 0.8206692541126641 0.6716255434890281
4078000000.0 0.8544195211046225 0.6049298859146272
4081000000.0 0.8121305374524825 0.6683827585584243
4084000000.0 0.854400299486474 0.5947830747471119
4088000000.0 0.8177991705522704 0.6349620539337822
4091000000.0 0.8729123953590217 0.6393967845052846
4094000000.0 0.8824638200646887 0.5648057888944183
4097000000.0 0.867576903349622 0.5701182209718785
4100000000.0 0.8628871995877851 0.5564500821198273
4103000000.0 0.8635943672247837 0.6142018174102268
4106000000.0 0.894059587237739 0.5629073560532968
4109000000.0 0.9115874789104947 0.5403497895148113
4112000000.0 0.8975923822416452 0.5417402118595922
4116000000.0 0.8987190885326307 0.5659902280902135
4119000000.0 0.8666326727177815 0.5073057566220824
4122000000.0 0.8814219956351175 0.4845245598029677
4125000000.0 0.918705025578944 0.5314878762231123
4128000000.0 0.8920664021602969 0.5121459239102139
4131000000.0 0.8896437018577541 0.4739910256030869
4134000000.0 0.8994656025922549 0.48637521415048435
4138000000.0 0.8776764047699921 0.4602342363361483
4141000000.0 0.8878836092970432 0.46058257281412085
4144000000.0 0.8915549425034003 0.47667033894127403
4147000000.0 0.9470259883684681 0.45650474520963363
4150000000.0 0.941839676745694 0.4262633942635416
4153000000.0 0.9222096405926945 0.44411106836729786
4156000000.0 0.9253265745896675 0.43092796841497105
4159000000.0 0.9155767649375477 0.4580542210916227
4162000000.0 0.9247288603261141 0.4311725827991463
4166000000.0 0.9831341072808855 0.4163401442723399
4169000000.0 0.9679500231959416 0.38988339778582703
4172000000.0 0.913282711137264 0.4026550214549885
4175000000.0 0.9629902484033074 0.407839235613585
4178000000.0 0.9783410121919579 0.37016148166644325
4181000000.0 0.9612608561783973 0.36220488817396046
4184000000.0 0.9447396589187176 0.35669962583388287
4188000000.0 0.9584079432434454 0.3476750665855154
4191000000.0 0.944959949715611 0.3823469412965595
4194000000.0 0.9425611441504216 0.343440011071121
4197000000.0 0.9679665164715839 0.3530471678524147
4200000000.0 0.9556189160475295 0.35194557154414985
4203000000.0 0.9672156575338221 0.33178726163374517
4206000000.0 0.9791325591212612 0.30137364733706734
4209000000.0 0.9594466131912146 0.30412289270515197
4212000000.0 0.995406373247823 0.2669297669823134
4216000000.0 0.9756690284668008 0.29907541006084376
4219000000.0 0.996102620475688 0.2808818422148177
4222000000.0 0.9922070867820361 0.26764130572092265
4225000000.0 0.9738428631017153 0.24950350518720701
4228000000.0 0.9910884856400439 0.26006271412627546
4231000000.0 0.9847777935384134 0.2392141269278628
4234000000.0 1.012780578525881 0.22875208929519364
4238000000.0 0.9958278852624229 0.1971426639982559
4241000000.0 0.9955194188601126 0.19747551085868298
4244000000.0 0.976516633138779 0.22185717422190504
4247000000.0 0.9985626153581065 0.19912814086639746
4250000000.0 0.9895485513340312 0.18160915963943441
4253000000.0 0.9795723849549347 0.15467531644229499
4256000000.0 1.0268668512371475 0.1647484896096164
4259000000.0 0.971700222728264 0.1522147357785323
4262000000.0 0.9956147915893132 0.14380995505582553
4266000000.0 1.0279154153127548 0.12200044406093302
4269000000.0 1.0032556491703697 0.15198245214028377
4272000000.0 0.9995516891439955 0.11995116075511489
4275000000.0 1.0075743716097585 0.12321113626982116
4278000000.0 1.0304372779205 0.11624450841462503
4281000000.0 1.0350981178415657 0.10975344968677735
4284000000.0 1.0225142402302319 0.0908815047570887
4288000000.0 1.0040393260693414 0.10565566537417143
4291000000.0 0.982886516084078 0.08262025837938354
4294000000.0 1.0227650314739736 0.05824082360905282
4297000000.0 1.0099132815236087 0.0811081827552133
4300000000.0 1.0055519020650734 0.07387615609248577
4303000000.0 1.0083585165431161 0.03315761811525335
4306000000.0 1.0414145013542768 0.04847330852538456
4309000000.0 1.0076279101523995 0.005770735935356902
4312000000.0 1.0424421303723947 0.05181433714500028
4316000000.0 1.0322579817855637 0.027052868891107848
4319000000.0 1.0093821974129815 0.012217028476098443
4322000000.0 0.9866684170533279 -0.03618108343804877
4325000000.0 1.0232668734594605 -0.018049567821110904
4328000000.0 1.0131519784340772 -0.047166661042060416
4331000000.0 1.0273741915348966 -0.06238045856285469
4334000000.0 1.0339448200496737 -0.041271934160903745
4338000000.0 1.0193675695358142 -0.05690620976246949
4341000000.0 1.04715277239001 -0.029916817975974896
4344000000.0 1.024748649054247 -0.05519792967855901
4347000000.0 1.0113260062247855 -0.11419041804461627
4350000000.0 0.9611990828556701 -0.09497840272787783
4353000000.0 0.9995252108280106 -0.08705544944810344
4356000000.0 0.9781357558720868 -0.133629972006244
4359000000.0 0.9655278687524542 -0.11363565161942933
4362000000.0 1.001610803251761 -0.17353404020680596
4366000000.0 1.0269284505724927 -0.1216068179133505
4369000000.0 0.9652765736349648 -0.13431366816666854
4372000000.0 0.9705994720438822 -0.18599176229523556
4375000000.0 0.9955025689650425 -0.13167296445414353
4378000000.0 0.9595796594465801 -0.17347040660175536
4381000000.0 0.9980296062354805 -0.15692206308205053
4384000000.0 1.0470189394499299 -0.2078774971249689
4388000000.0 0.9685407170593828 -0.1770915844316856
4391000000.0 0.9994663937302788 -0.20427481804175182
4394000000.0 0.970453934037304 -0.21505052617664905
4397000000.0 0.9755503352663388 -0.21821939360382825
4400000000.0 0.9981875991532057 -0.2565887521021975
4403000000.0 0.9932609236549178 -0.2397273976231765
4406000000.0 0.9775242823761483 -0.2706348842338089
4409000000.0 1.0144208755617274 -0.26492180504013507
4412000000.0 0.9453634221167873 -0.3167326319474368
4416000000.0 0.9388666278359563 -0.2797129195764288
4419000000.0 0.977568032648252 -0.29533189547762145
4422000000.0 0.9646477429752427 -0.27697798511534083
4425000000.0 0.9941850978184985 -0.2909047747285088
4428000000.0 0.9676100036371345 -0.32756298153623625
4431000000.0 0.9873828297727625 -0.3204783806125261
4434000000.0 0.9587351627315367 -0.3305483018456826
4438000000.0 0.9838929020733813 -0.3362973146480761
4441000000.0 0.9643263686061343 -0.353153509352499
4444000000.0 0.9355249946435318 -0.33641848711539435
4447000000.0 0.9348312706154867 -0.3641909609024571
4450000000.0 0.9327933490556778 -0.34155656776095067
4453000000.0 0.9668694660071963 -0.38684068089468604
4456000000.0 0.9025708833952846 -0.38774412696799015
4459000000.0 0.8848306974347557 -0.39164481831984677
4462000000.0 0.9926591120284038 -0.42000390053833203
4466000000.0 0.9621108369806373 -0.44669364064631956
4469000000.0 0.9230450333366801 -0.40174762473968906
4472000000.0 0.9256077083755851 -0.456411540746207
4475000000.0 0.884992425120106 -0.41546159641937397
4478000000.0 0.9428593498955647 -0.4701295003056756
4481000000.0 0.8681929556481087 -0.4547485842668427
4484000000.0 0.8666240236424683 -0.5039425850167271
4488000000.0 0.8678042272702846 -0.4716116120035605
4491000000.0 0.8952839030784656 -0.49366584685828346
4494000000.0 0.8678309399447548 -0.4730778496239401
4497000000.0 0.8883919349402745 -0.4760955707000117
4500000000.0 0.8846267986783838 -0.4828647766564092
4503000000.0 0.8911576957840548 -0.5173014688700848
4506000000.0 0.8422181866300782 -0.5354863760483533
4509000000.0 0.8542437596719841 -0.5280486067052159
4512000000.0 0.828794667955486 -0.5315796864341225
4516000000.0 0.8937548295343218 -0.5373643274773473
4519000000.0 0.8280929532764364 -0.5366695572234919
4522000000.0 0.8382447352762723 -0.5659203589766645
4525000000.0 0.8304903855032657 -0.5350176818267676
4528000000.0 0.8750792233382609 -0.5789874684688913
4531000000.0 0.834299025970041 -0.5710509833677676
4534000000.0 0.7970971959575375 -0.5770364025789465
4538000000.0 0.8204680859071865 -0.5779072461722886
4541000000.0 0.7879208937459238 -0.6196249181708914
4544000000.0 0.7917495063301723 -0.6006725750114472
4547000000.0 0.8110003411159155 -0.598075509460013
4550000000.0 0.7924575787851751 -0.6381969991259944
4553000000.0 0.7884704112649752 -0.6342311063006326
4556000000.0 0.766973203469685 -0.645191358844315
4559000000.0 0.7586585869748735 -0.6552409662635557
4562000000.0 0.78926537268123 -0.655079042607762
4566000000.0 0.7648851383017365 -0.6720813650823123
4569000000.0 0.7422556734735983 -0.6670955579565656
4572000000.0 0.7455752940966428 -0.6672791921503943
4575000000.0 0.7395002280304992 -0.7037052637546389
4578000000.0 0.76778923307231 -0.6700195274639389
4581000000.0 0.7311333366873412 -0.7106124184155941
4584000000.0 0.7211085813065767 -0.6952474005436236
4588000000.0 0.7527852843285555 -0.7086694459343097
4591000000.0 0.7092631063706825 -0.6996618913456796
4594000000.0 0.6933721455261133 -0.740980110061767
4597000000.0 0.7138962725258367 -0.7433530887728235
4600000000.0 0.6793795702618595 -0.7389744265351477
4603000000.0 0.68725330750131 -0.7477859178599627
4606000000.0 0.709138165748369 -0.7566993284832749
4609000000.0 0.6697827067127107 -0.7526644326825852
4612000000.0 0.6786426108783371 -0.7637782588742831
4616000000.0 0.6515643229146455 -0.7465091503236355
4619000000.0 0.6551715843574464 -0.7729842727360057
4622000000.0 0.6486093419756842 -0.7642662540683399
4625000000.0 0.6052147896399693 -0.7734994449404266
4628000000.0 0.6503243372988315 -0.7845437554556516
4631000000.0 0.6223921892515742 -0.8011161786888861
4634000000.0 0.6256845797787807 -0.8065204622710166
4638000000.0 0.6160930063039466 -0.8194772262315767
4641000000.0 0.597219289090919 -0.8024540470707906
4644000000.0 0.5907969559366396 -0.82339668910951
4647000000.0 0.5970551152136443 -0.8238621780537254
4650000000.0 0.5784586067655633 -0.8259793690397318
4653000000.0 0.5957234565453058 -0.8329519278932029
4656000000.0 0.5642463671331934 -0.8418328138780424
4659000000.0 0.5575567562290453 -0.8529482923863614
4662000000.0 0.5516801750044176 -0.861076235011635
4666000000.0 0.5327176470722143 -0.8682780427222037
4669000000.0 0.5478055573607582 -0.8521563743431702
4672000000.0 0.532372918164923 -0.8842750865934415
4675000000.0 0.4991731066286338 -0.884274279131044
4678000000.0 0.5144180114979561 -0.8618732367031198
4681000000.0 0.48616645680122905 -0.9119485102895419
4684000000.0 0.48093619302552615 -0.9138448499610994
4688000000.0 0.4708250627083082 -0.8815420664560727
4691000000.0 0.4885318173221668 -0.8983455060783168
4694000000.0 0.4792411210620314 -0.8767517440152275
4697000000.0 0.43709584521709177 -0.8763845458441943
4700000000.0 0.4756808334941689 -0.9068819828948098
4703000000.0 0.4640104910785706 -0.8466466168250388
4706000000.0 0.4632334395668871 -0.9239213184383349
4709000000.0 0.4231126907812732 -0.9141542066691064
4712000000.0 0.43856537927848177 -0.9159910144459312
4716000000.0 0.38227323682531533 -0.9364298778278521
4719000000.0 0.44553058959598774 -0.9429637800946005
4722000000.0 0.414253172661585 -0.9312974538545682
4725000000.0 0.4103316297776452 -0.9369960375786395
4728000000.0 0.3731154279160966 -0.9412754070774203
4731000000.0 0.3772633429129188 -0.9816535598557519
4734000000.0 0.3747288184209796 -0.9302402725531614
4738000000.0 0.4098622101499244 -0.9713909566786876
4741000000.0 0.35490555544481894 -0.9658468511882254
4744000000.0 0.3312849764960337 -0.9570755453127815
4747000000.0 0.3535008157050161 -0.9406787340149613
4750000000.0 0.3561824237005691 -0.9646515515857944
4753000000.0 0.3283503072409161 -0.971784751786379
4756000000.0 0.3353409035531701 -0.9867650544380353
4759000000.0 0.30207714859860596 -1.0031982311002954
4762000000.0 0.2880222137280866 -1.0028491886900641
4766000000.0 0.2550937197145996 -0.982457753495335
4769000000.0 0.2963213458882365 -0.9901719501215355
4772000000.0 0.2828660806454875 -1.011435177253071
4775000000.0 0.2660452452227835 -1.0345355533316607
4778000000.0 0.24887434987198392 -0.9988894204502964
4781000000.0 0.2801231221931819 -1.0017483269622434
4784000000.0 0.2551160402291621 -0.991970257419967
4788000000.0 0.1997987105722938 -0.9996857245178581
4791000000.0 0.21731248085916005 -0.9845868069311402
4794000000.0 0.22710077243820898 -1.0118005106566061
4797000000.0 0.2070697198292137 -0.999424492350585
4800000000.0 0.16536232188555275 -0.9847386546989514
4803000000.0 0.17633840061445705 -1.0072467356716313
4806000000.0 0.1874745455124299 -1.025511724139501
4809000000.0 0.12610621807179964 -1.0132559317125418
4812000000.0 0.12001552211977809 -1.0257404333914055
4816000000.0 0.17543496732540065 -1.002698757434727
4819000000.0 0.1800495581100368 -1.0518409221284888
4822000000.0 0.1415213246945562 -1.035173760092733
4825000000.0 0.15537847641384533 -1.0457954046107245
4828000000.0 0.11529763694761372 -1.020367704577125
4831000000.0 0.05392017443129532 -1.0496254934441696
4834000000.0 0.13582076515836708 -1.0199747173398261
4838000000.0 0.05333497684093283 -1.0383072475700665
4841000000.0 0.05773201914525546 -1.0072243516496044
4844000000.0 0.09086616086003546 -1.0538762759186502
4847000000.0 0.06310665294057063 -0.9786813702202133
4850000000.0 0.02293943856343946 -1.0556541060917661
4853000000.0 0.05797385766879613 -0.9992233678515272
4856000000.0 0.027350729794921744 -1.0183675404745418
4859000000.0 0.01489024873799033 -1.0445112821605638
4862000000.0 0.058771232954617995 -1.0029490553550429
4866000000.0 -0.004141898811928883 -1.043481261999127
4869000000.0 -0.011360764564021544 -1.0383041335168735
4872000000.0 -0.05061089143675281 -1.0563024486382289
4875000000.0 0.029301592787643296 -1.0639233394210004
4878000000.0 0.0009829184779701905 -1.0327960805984988
4881000000.0 -0.07814266987098956 -1.0808231715866112
4884000000.0 -0.038565351197164977 -1.024455471211205
4888000000.0 -0.025498309257639143 -1.0430442640580335
4891000000.0 -0.047674575214100165 -1.0456016507485055
4894000000.0 -0.08043272869949597 -0.9961551149050304
4897000000.0 -0.04620219556358712 -0.9933489324320428
4900000000.0 -0.07700995714461689 -1.0320853760838065
4903000000.0 -0.074313175810471 -1.0718516856876001
4906000000.0 -0.06818148191481561 -1.0362062734295727
4909000000.0 -0.09603159206443701 -1.038668891227482
4912000000.0 -0.13353735690357715 -1.0444079491261213
4916000000.0 -0.1061385375857207 -1.0781681379394155
4919000000.0 -0.08052270166310226 -1.0461016830599386
4922000000.0 -0.13476125939850678 -1.0428306170243398
4925000000.0 -0.16273640401337547 -1.0168714947502178
4928000000.0 -0.07089114617184315 -1.0473661224322153
4931000000.0 -0.14568079841397208 -1.0122106720693085
4934000000.0 -0.1617557605158811 -0.9556896604336721
4938000000.0 -0.17833040585530824 -1.035003498681965
4941000000.0 -0.17802961942175094 -0.9936127313439088
4944000000.0 -0.16957024951349772 -0.9639634758311117
4947000000.0 -0.17335911201887363 -0.9759091975234225
4950000000.0 -0.2545649427717465 -0.9752720573774387
4953000000.0 -0.3031048482032211 -1.0433063744506301
4956000000.0 -0.2568637696443991 -1.0114852469116167
4959000000.0 -0.26769086985063417 -0.9668564534094853
4962000000.0 -0.27266780066262486 -1.0305237407150838
4966000000.0 -0.2508115558054631 -1.0231566646346457
4969000000.0 -0.24942468181309307 -1.0267160920800693
4972000000.0 -0.3020526151137298 -0.9977553077636327
4975000000.0 -0.26915945712779366 -1.0164882224234513
4978000000.0 -0.3163769353016795 -0.9831901562123465
4981000000.0 -0.3155148414175072 -1.0145983174906879
4984000000.0 -0.26521107749017003 -0.9538431540241471
4988000000.0 -0.3065071254494603 -1.007376928707773
4991000000.0 -0.2856642897694344 -1.0302675994388855
4994000000.0 -0.3336820865224447 -0.9873443628833961
4997000000.0 -0.3901306607865262 -0.9644683478601691
5000000000.0 -0.34889129026552457 -1.0385428305997884
5003000000.0 -0.3546862950059943 -1.0139070806594888
5006000000.0 -0.3996330826355552 -1.0291621643163023
5009000000.0 -0.339813154080717 -0.9649078492876482
5012000000.0 -0.38952596614013896 -0.9632353597310719
5016000000.0 -0.3593496330056369 -0.9895013931895422
5019000000.0 -0.4028165151149773 -0.9710156289036775
5022000000.0 -0.4137328546237893 -0.9491558463852825
5025000000.0 -0.4203253717466114 -0.9966260175639667
5028000000.0 -0.4392429159197667 -0.9330636125486321
5031000000.0 -0.4336355644258958 -0.9701398561799904
5034000000.0 -0.4540552380144325 -0.9371377404105925
5038000000.0 -0.46503441554641933 -0.8956439962249674
5041000000.0 -0.41530679866324904 -0.9663831644322979
5044000000.0 -0.4287330999900465 -0.9071736531312719
5047000000.0 -0.45967984473411944 -0.9414243695836552
5050000000.0 -0.4121624134288153 -0.9210645691975865
5053000000.0 -0.5095039042073997 -0.9613448521279935
5056000000.0 -0.45276982285941014 -0.9636967864027284
5059000000.0 -0.47208502576187455 -0.961969603042725
5062000000.0 -0.5236633530740548 -0.9420742249635559
5066000000.0 -0.46484469668835116 -0.9206416314605059
5069000000.0 -0.5089060220278262 -0.9256220040931379
5072000000.0 -0.4792538053455473 -0.8760009583636847
5075000000.0 -0.49911759751227724 -0.940973382334199
5078000000.0 -0.5537413651306491 -0.8844131117074137
5081000000.0 -0.49829742794225523 -0.8409090702912981
5084000000.0 -0.5678494705216113 -0.9067784686405975
5088000000.0 -0.5023908504212186 -0.9124209494847433
5091000000.0 -0.5775579723720021 -0.8454731482246935
5094000000.0 -0.5609029509852134 -0.8872534503191137
5097000000.0 -0.5577511178500547 -0.8903605375953239
5100000000.0 -0.5785985108771894 -0.8290361215472445
5103000000.0 -0.5990650172578258 -0.8255535441498406
5106000000.0 -0.59963818485558 -0.8305318200424726
5109000000.0 -0.5842365616196536 -0.8838789476372906
5112000000.0 -0.6168154631122389 -0.7877428613707262
5116000000.0 -0.6033922113071163 -0.8102290233230504
5119000000.0 -0.6897062875062391 -0.8209478418003913
5122000000.0 -0.6386300433896189 -0.8312618326630967
5125000000.0 -0.5864138539212767 -0.8329788083152659
5128000000.0 -0.6677476178205757 -0.7932495708071781
5131000000.0 -0.6208064331893974 -0.8404438913405344
5134000000.0 -0.6448820289599476 -0.8204696225692847
5138000000.0 -0.6424555061324034 -0.8163794695053519
5141000000.0 -0.6241029507094711 -0.8283098008169618
5144000000.0 -0.6494944435557506 -0.831495844759289
5147000000.0 -0.6728073494608448 -0.8242499381108311
5150000000.0 -0.7026532316187908 -0.7673289712933375
5153000000.0 -0.7043989076663595 -0.8031890590699312
5156000000.0 -0.6882922288761666 -0.7865618857731366
5159000000.0 -0.7353513424543822 -0.7827001454166941
5162000000.0 -0.7312607880276382 -0.7534220603026621
5166000000.0 -0.7604655824582337 -0.7564694321631906
5169000000.0 -0.7635674424161158 -0.7658519646096201
5172000000.0 -0.7504050970333371 -0.7699770772458385
5175000000.0 -0.767973374782126 -0.766251281676561
5178000000.0 -0.7835361733491455 -0.7606116274057982
5181000000.0 -0.7949005799090041 -0.7537473555993844
5184000000.0 -0.7656923178746394 -0.710899367477154
5188000000.0 -0.8039471692398882 -0.7129183276880523
