! Created with skrf 1.8.0 (http://scikit-rf.org).
# Hz S RI R 50.0 
!freq ReS11 ImS11
4000000000.0 0.6898718986342091 0.7506764335403688
4003000000.0 0.7140973015373069 0.8023407364638577
4006000000.0 0.7125836793250288 0.6963867582009495
4009000000.0 0.7301449914047056 0.7723602788890261
4012000000.0 0.7148031442621353 0.7978055537102134
4016000000.0 0.7302980186213426 0.7179252722278309
4019000000.0 0.723393369167969 0.7396098889757414
4022000000.0 0.6962776832812291 0.7567653740372005
4025000000.0 0.7871826089159327 0.7190720179157597
4028000000.0 0.77695901810589 0.6886285027670029
4031000000.0 0.7264843130678608 0.694983405784761
4034000000.0 0.7370683937816204 0.6463567630923116
4038000000.0 0.7677982566609609 0.6619923750366817
4041000000.0 0.7892498925185116 0.6856292878445148
4044000000.0 0.8390398722670582 0.6832201991668319
4047000000.0 0.8135531442017732 0.6989207393146923
4050000000.0 0.827364904764539 0.640592379462318
4053000000.0 0.749929890210851 0.6081778954811379
4056000000.0 0.8122719538768559 0.6288242249481891
4059000000.0 0.7687573995453816 0.6505342820416229
4062000000.0 0.7949936120537647 0.5957530756245888
4066000000.0 0.7695999993722284 0.572624117674853
4069000000.0 0.8519673624230573 0.5797032516205569
4072000000.0 0.8081426025542113 0.6374201811085003
4075000000.0 0.8017152624608269 0.6425412591663175
4078000000.0 0.8620608966205047 0.6395053102883048
4081000000.0 0.8104076762550256 0.6501501314298727
4084000000.0 0.8820563020712561 0.5549264938858254
4088000000.0 0.8137451691819796 0.5919832154035816
4091000000.0 0.8743456299319154 0.5822556214989414
4094000000.0 0.818266055625638 0.5415570893310241
4097000000.0 0.8703691085736389 0.5528229593266456
4100000000.0 0.8624335591237817 0.5605351737643187
4103000000.0 0.8583166114140344 0.5756501188287448
4106000000.0 0.9225653384496617 0.528830182350684
4109000000.0 0.9230745551519464 0.5093655731855065
4112000000.0 0.9048964153966961 0.5288636082119136
4116000000.0 0.8959567112345151 0.5256255975804393
4119000000.0 0.9311017335130604 0.5113848283163273
4122000000.0 0.8936962119423816 0.5211605739028298
4125000000.0 0.9152113583637246 0.48945567376903326
4128000000.0 0.8691237057008165 0.4562596335300425
4131000000.0 0.8980494538727285 0.4330852740509731
4134000000.0 0.9072445377471606 0.492090919707329
4138000000.0 0.9132576870012383 0.4035676232154645
4141000000.0 0.9344444769943706 0.42655834817665195
4144000000.0 0.9099502785411476 0.4718698223443561
4147000000.0 0.9256546582330314 0.42502706290664444
4150000000.0 0.9351359658885542 0.43416472107738496
4153000000.0 0.9274791002537056 0.4453652003887283
4156000000.0 0.9602865048180527 0.4420584576408607
4159000000.0 0.9137956644496656 0.37195553422091926
4162000000.0 0.9457442105667979 0.40685374767139915
4166000000.0 0.9628605940379558 0.35895570831277057
4169000000.0 0.9514713623963429 0.361347550927302
4172000000.0 0.952916986986041 0.362902595358011
4175000000.0 0.9410664180496999 0.38090759842096206
4178000000.0 0.9782724928397786 0.3892995218095451
4181000000.0 0.974594197236389 0.3471312350800091
4184000000.0 0.9631904890688149 0.33704769940647256
4188000000.0 0.9520745382305023 0.3121602056868933
4191000000.0 0.9532547324121227 0.34539035410241375
4194000000.0 0.9439088077192479 0.2990528965452578
4197000000.0 0.9847932037057942 0.30640776003716536
4200000000.0 0.9661590639822424 0.3100663302571487
4203000000.0 0.9951662159400401 0.2825768635338447
4206000000.0 0.9997001262353605 0.291313500252745
4209000000.0 0.9710107998560268 0.276628652572158
4212000000.0 0.9858488227315624 0.2500403007270037
4216000000.0 0.9795992554996553 0.2842243155004079
4219000000.0 1.0015768632345916 0.26785952435394567
4222000000.0 0.9942091613672712 0.23472889908893962
4225000000.0 0.9620857751130909 0.2347336930710203
4228000000.0 0.9945106884172215 0.2231198807758026
4231000000.0 0.9941514886194595 0.20729890888999736
4234000000.0 0.9960651242830909 0.18461600277487922
4238000000.0 1.001732348311398 0.1794301506933613
4241000000.0 0.9860797618375674 0.17027070139140582
4244000000.0 1.0018063606858536 0.18679913780142443
4247000000.0 0.9866653552978526 0.18503923695988167
4250000000.0 0.9915197650797605 0.14306728647023875
4253000000.0 0.9802341917813053 0.13610586011022113
4256000000.0 1.018468112834492 0.1454058600094129
4259000000.0 0.985512126501148 0.11635300819903174
4262000000.0 1.018285468954409 0.11671713720528912
4266000000.0 1.0232531713435342 0.09137679443724275
4269000000.0 0.9784723943153576 0.1243809025488162
4272000000.0 1.0036777303060482 0.10440585928522075
4275000000.0 1.0175254928026574 0.09669856236848876
4278000000.0 1.017249846645886 0.07544602507244991
4281000000.0 1.0350122668613795 0.08272457900432219
4284000000.0 1.027288520715394 0.02963105951081335
4288000000.0 0.9985336904552734 0.085055381126562
4291000000.0 0.9893904348902349 0.046976103489052914
4294000000.0 0.9938166791554356 0.023714854613558115
4297000000.0 1.0073008649405373 0.0364634183467705
4300000000.0 1.0216403946884742 0.03414529079938774
4303000000.0 1.002932477303508 0.007305576090634008
4306000000.0 1.0260799475019475 0.028547210147439384
4309000000.0 0.987092527988375 0.030857936976296726
4312000000.0 1.0445810034251146 0.03216321631868266
4316000000.0 1.051581127590527 -0.020307169229826408
4319000000.0 0.9854995804834602 0.0067942574534498035
4322000000.0 0.9912359425256928 -0.06797472897631399
4325000000.0 1.026093791975749 -0.04720074438608732
4328000000.0 0.9961077373789334 -0.04218870049283982
4331000000.0 0.9951490169168419 -0.12035418233135586
4334000000.0 1.015052519624759 -0.08105264419673384
4338000000.0 1.0039895462679316 -0.06763055646117194
4341000000.0 1.0129817507941725 -0.032651158652430026
4344000000.0 1.0330377393678796 -0.11522497559585726
4347000000.0 1.0120760375014828 -0.1066626511627381
4350000000.0 0.9614821078927566 -0.1395682196794845
4353000000.0 0.9709089230413499 -0.12198737641653139
4356000000.0 0.9721569890858722 -0.15501248788269223
4359000000.0 0.9616260156712659 -0.15482168082584774
4362000000.0 0.9989058619223721 -0.22689074868439207
4366000000.0 1.0123161233393676 -0.19318040348772963
4369000000.0 0.9624220492309828 -0.1843714199793814
4372000000.0 0.9788237283951726 -0.22368681843397917
4375000000.0 1.0086043078731541 -0.1589262342095143
4378000000.0 0.9646496020988024 -0.1900907028643353
4381000000.0 0.9724316704494209 -0.2107177130218187
4384000000.0 1.0330472349535391 -0.23586128463339584
4388000000.0 0.9641356020493117 -0.2125485302687179
4391000000.0 0.994913086516183 -0.23936507152547346
4394000000.0 0.9430296226618191 -0.23638321818024105
4397000000.0 0.9592572355153004 -0.2556055540122644
4400000000.0 1.006656178363078 -0.2801029532934572
4403000000.0 0.9871011648153186 -0.27323007326085974
4406000000.0 0.971929523312274 -0.29686559474823393
4409000000.0 0.9960183535878571 -0.30167537741310885
4412000000.0 0.9395066067463693 -0.3431114816280888
4416000000.0 0.9523374733801147 -0.3208558158719878
4419000000.0 0.9490937107441236 -0.33580457660320917
4422000000.0 0.9538537143746233 -0.30364914234436124
4425000000.0 0.9853631971964049 -0.32298670637977767
4428000000.0 0.9564194437300271 -0.3454995719232657
4431000000.0 0.9672204602358907 -0.3529950636657406
4434000000.0 0.9370801028731789 -0.35605180226682026
4438000000.0 0.9538651209936171 -0.3831019272149502
4441000000.0 0.9557774975876872 -0.3872213916289458
4444000000.0 0.911718055017622 -0.38035400871622926
4447000000.0 0.9139762463721723 -0.3980110879037868
4450000000.0 0.9188319030498399 -0.3842581982464011
4453000000.0 0.9382584266088947 -0.424823504997907
4456000000.0 0.8880103502398303 -0.424581612601987
4459000000.0 0.8585289474038438 -0.42190297792302556
4462000000.0 0.9591582014226887 -0.46789711125985656
4466000000.0 0.9280832095725859 -0.47752015982354223
4469000000.0 0.9065592835444646 -0.43107588491454996
4472000000.0 0.8922874118852373 -0.49141047815295974
4475000000.0 0.8701720176304993 -0.4622032360006523
4478000000.0 0.9182324111836747 -0.48909637889161117
4481000000.0 0.851570389814931 -0.4768736350826742
4484000000.0 0.872108571373112 -0.5352756072492332
4488000000.0 0.8483412176601198 -0.5014591097676104
4491000000.0 0.8601596844420228 -0.5046232687951118
4494000000.0 0.8503716139164055 -0.516349925062616
4497000000.0 0.8524987822197962 -0.4986591248784648
4500000000.0 0.8506842464443489 -0.5217286258080565
4503000000.0 0.8541111701927606 -0.5517654958519567
4506000000.0 0.8490068437464786 -0.5491031252124005
4509000000.0 0.8300442773933554 -0.5480504369899607
4512000000.0 0.8083601242607348 -0.5650996856073996
4516000000.0 0.8442436844994285 -0.5783364381954594
4519000000.0 0.8219473665647119 -0.5736333415709927
4522000000.0 0.8147880296810681 -0.5961103616338937
4525000000.0 0.8389541639620552 -0.5623314422142788
4528000000.0 0.8360649001709111 -0.5984247014519463
4531000000.0 0.8065869619923065 -0.5883624833318284
4534000000.0 0.7665550676110422 -0.6199599270719613
4538000000.0 0.7754890896226878 -0.6309946905891995
4541000000.0 0.746340716483863 -0.6487129114750636
4544000000.0 0.7631052022793241 -0.6059124267041369
4547000000.0 0.7802031082621302 -0.6204068042091639
4550000000.0 0.7748175680324365 -0.6607619137753017
4553000000.0 0.7702816014713387 -0.6630259846119708
4556000000.0 0.7366851268157402 -0.6669931432357475
4559000000.0 0.7549910829299906 -0.670576218894229
4562000000.0 0.7724209810477087 -0.6935592733418623
4566000000.0 0.7440050678212045 -0.6973702160605912
4569000000.0 0.7049348130241246 -0.6784016700503255
4572000000.0 0.7293199731292428 -0.6941704059387217
4575000000.0 0.7067316188364317 -0.7351862578008448
4578000000.0 0.7278582411242898 -0.7135523120894477
4581000000.0 0.6813976676877967 -0.7241880763164997
4584000000.0 0.6776880171567149 -0.7214238179275619
4588000000.0 0.7140381478818583 -0.754379471625296
4591000000.0 0.692403168624854 -0.7379289651819015
4594000000.0 0.6460115762130855 -0.7565766397340136
4597000000.0 0.673130947126588 -0.7565629861604537
4600000000.0 0.6529176248561566 -0.7800593737877192
4603000000.0 0.6609900719183854 -0.763612381347875
4606000000.0 0.6447814748631743 -0.7747710826208661
4609000000.0 0.6554818738195606 -0.7674880776091401
4612000000.0 0.6239794511514507 -0.8008770405637782
4616000000.0 0.6127034471534007 -0.7897891395362133
4619000000.0 0.6128141173516151 -0.794503567379087
4622000000.0 0.6174426392251713 -0.8183943639862323
4625000000.0 0.5811072605495006 -0.7878854983487003
4628000000.0 0.6136420556229754 -0.7910115852177134
4631000000.0 0.563709540500269 -0.8223169300698834
4634000000.0 0.5732284131458898 -0.8297989892112141
4638000000.0 0.5768661106633562 -0.8237380888062511
4641000000.0 0.58195227599813 -0.8350912833676588
4644000000.0 0.5635430132482429 -0.8357575400138483
4647000000.0 0.5697989846592265 -0.8440255083022297
4650000000.0 0.5352099608811789 -0.828112799884981
4653000000.0 0.5697054663952101 -0.8695897318415816
4656000000.0 0.5289843400338359 -0.8592694940864216
4659000000.0 0.5049042059132354 -0.8723144401886738
4662000000.0 0.5180685317983784 -0.8607607659304668
4666000000.0 0.49461144326134054 -0.8687801694818013
4669000000.0 0.4968406679900715 -0.8898338195536367
4672000000.0 0.49065017007816264 -0.9216038092596005
4675000000.0 0.47812983548059546 -0.8976676360414773
4678000000.0 0.4631791831410293 -0.8953924959291478
4681000000.0 0.48173151413677917 -0.9149625933330527
4684000000.0 0.4428521664034447 -0.9215509400250524
4688000000.0 0.42772052485476664 -0.9250042882276301
4691000000.0 0.46514610790727295 -0.9120570498385472
4694000000.0 0.4385513742615821 -0.9203033120972499
4697000000.0 0.38331234572614525 -0.8800396395761336
4700000000.0 0.4310325140718827 -0.9361607727666765
4703000000.0 0.4436011242916127 -0.8865807136190995
4706000000.0 0.4088450459990808 -0.9022032279164103
4709000000.0 0.3588534234521785 -0.9508441327185998
4712000000.0 0.37321395881273023 -0.9401327906724869
4716000000.0 0.36686631327462266 -0.9521532861572835
4719000000.0 0.41422809456004095 -0.9350557045323
4722000000.0 0.3842372414890862 -0.9068615969255145
4725000000.0 0.3347394083675935 -0.9507995708250161
4728000000.0 0.3190529574920277 -0.9709719264640215
4731000000.0 0.3240999052634761 -0.9939377472939352
4734000000.0 0.3489126715246148 -0.9334915651251104
4738000000.0 0.3288606740480907 -0.9787377673932051
4741000000.0 0.315478691280575 -0.9871236966163525
4744000000.0 0.2843046472212442 -0.983550508683425
4747000000.0 0.2878138375353676 -0.9174003179176166
4750000000.0 0.2921695563860781 -0.9966064654859236
4753000000.0 0.2877529430223915 -1.0039189100742687
4756000000.0 0.25827840518711337 -0.9776654689578956
4759000000.0 0.2484518901915393 -1.0080899687122034
4762000000.0 0.2148850305723713 -1.02036504077926
4766000000.0 0.23362075234202734 -0.98930383291918
4769000000.0 0.19418736704663664 -1.0039179149241755
4772000000.0 0.2284096960942153 -1.001346495348212
4775000000.0 0.2082564997717492 -1.034248856436274
4778000000.0 0.19469156225611844 -1.0192183752120971
4781000000.0 0.20921016446092866 -1.0029630931381979
4784000000.0 0.20809500887891333 -0.9974875860045326
4788000000.0 0.152738848947658 -1.048049784936782
4791000000.0 0.16019914217521916 -0.9891990698777194
4794000000.0 0.1851373777134077 -1.0394052698981926
4797000000.0 0.15035279111830008 -0.9865488654624978
4800000000.0 0.12591078574950404 -0.9703300568403517
4803000000.0 0.07279466533520869 -1.011347787514777
4806000000.0 0.11563270498808838 -1.031152945696693
4809000000.0 0.06295110015712256 -1.0307482222638773
4812000000.0 0.09070621309009524 -1.0004203817426531
4816000000.0 0.1413595486318254 -0.98110217962926
4819000000.0 0.09257294251938061 -1.0440004507699006
4822000000.0 0.0862112800288922 -1.0601046242904852
4825000000.0 0.11199756059756502 -1.0377790005773913
4828000000.0 0.059359717365859654 -1.0093087341157267
4831000000.0 0.0009039903851941339 -1.04396807106633
4834000000.0 0.07698966645049689 -1.0275965840942733
4838000000.0 -0.010119493729195336 -1.0432005885634188
4841000000.0 0.018792092409253155 -1.016381589260713
4844000000.0 0.04881923753883095 -1.0171984696889635
4847000000.0 0.028034480763845737 -0.9638919191830704
4850000000.0 -0.012877894907376286 -1.0498544296793786
4853000000.0 -0.02180531945918096 -0.9953810573294861
4856000000.0 -0.02900093191629058 -1.0202444958071666
4859000000.0 -0.027931039321291172 -1.0500017984787524
4862000000.0 -0.008053642337214978 -1.0227712814673386
4866000000.0 -0.07741823031723669 -1.0357952065852245
4869000000.0 -0.07406916877861415 -1.00691856201048
4872000000.0 -0.10657778109196238 -1.0599467904227362
4875000000.0 0.0002649476908515927 -1.0551236253717424
4878000000.0 -0.07252711909031745 -1.03267242290892
4881000000.0 -0.11774146524304668 -1.0643205871771435
4884000000.0 -0.09958695224713239 -1.027393929651346
4888000000.0 -0.09086496959072997 -1.004658492045986
4891000000.0 -0.1010336400569134 -1.0477267656296565
4894000000.0 -0.13956096218255412 -0.9928058631286588
4897000000.0 -0.09399004900880371 -1.022132637776912
4900000000.0 -0.15747493437893695 -1.0654893429391354
4903000000.0 -0.14893289398878137 -1.0393274827404166
4906000000.0 -0.17774829951451138 -1.020376356248515
4909000000.0 -0.16577046679230945 -1.032796344319904
4912000000.0 -0.1835391907567696 -1.0535421794872075
4916000000.0 -0.17223669561168992 -1.0504592687709373
4919000000.0 -0.18495799001062152 -1.0474134079119863
4922000000.0 -0.18967650404822764 -1.0159517722045082
4925000000.0 -0.22849176389667766 -1.006287179367491
4928000000.0 -0.12525456796124496 -1.0098408877060843
4931000000.0 -0.2190021554226887 -1.0638983217573639
4934000000.0 -0.20237771826622675 -0.9739626902666716
4938000000.0 -0.2647352360941655 -0.971599673488775
4941000000.0 -0.2679756896602206 -0.9674110047226003
4944000000.0 -0.2548787300733868 -0.9469811850203353
4947000000.0 -0.27003793485723315 -0.9667399100862325
4950000000.0 -0.28505641660444075 -0.9587987248087142
4953000000.0 -0.32122344681814297 -1.028227851427459
4956000000.0 -0.2968594262401171 -0.9822406787461846
4959000000.0 -0.35729128018476153 -0.9459811245984638
4962000000.0 -0.324218029151638 -0.9923610290672623
4966000000.0 -0.3037808797269994 -1.0041884548392481
4969000000.0 -0.33862953642126736 -1.036787647863245
4972000000.0 -0.3608187796274488 -0.9677498603159101
4975000000.0 -0.32284247097621244 -0.9730001305798665
4978000000.0 -0.35929306128012384 -0.976979381826935
4981000000.0 -0.38026033495984213 -0.9605182804814538
4984000000.0 -0.3512009637492606 -0.9727909921679182
4988000000.0 -0.38135789215505805 -0.9547459207300226
4991000000.0 -0.3558466012809565 -0.9898592136315422
4994000000.0 -0.3498393134185638 -0.9419924897886478
4997000000.0 -0.4442849280823625 -0.9390075802191025
5000000000.0 -0.3822928435255555 -0.9871421491678458
5003000000.0 -0.4439548776563312 -0.9838769304019334
5006000000.0 -0.4271280222770466 -1.0055512817805454
5009000000.0 -0.43063222034003057 -0.9490139482799423
5012000000.0 -0.47350490250117944 -0.9327205725271019
5016000000.0 -0.4318763178593235 -0.968239906788952
5019000000.0 -0.45775243866625204 -0.9172541257143144
5022000000.0 -0.47389162240171967 -0.9174843944416151
5025000000.0 -0.5003406714595955 -0.9599892105178136
5028000000.0 -0.5088390227922048 -0.9145180430571936
5031000000.0 -0.49732300380980465 -0.8678120646487757
5034000000.0 -0.5326910078740072 -0.919704365385172
5038000000.0 -0.5035762116450636 -0.8447480475870737
5041000000.0 -0.48411205874498575 -0.9285875908865756
5044000000.0 -0.4857906221317426 -0.9036312525551192
5047000000.0 -0.5112351097109484 -0.9159149966884618
5050000000.0 -0.48081279041844527 -0.8942046271131034
5053000000.0 -0.5595757244637333 -0.8680979507684556
5056000000.0 -0.49948723738326695 -0.8843880239301223
5059000000.0 -0.5230063105288494 -0.8725827931621716
5062000000.0 -0.6226306388252848 -0.8878506123301495
5066000000.0 -0.592335962030955 -0.8555171080885096
5069000000.0 -0.6066055312012921 -0.8606882110042738
5072000000.0 -0.5533422866357246 -0.8428356615784063
5075000000.0 -0.5768781122929827 -0.8876444671335988
5078000000.0 -0.6292418073779344 -0.8189902048724904
5081000000.0 -0.5878138019665787 -0.7808616185215614
5084000000.0 -0.6639381812091842 -0.834243428418801
5088000000.0 -0.5895356721417865 -0.8363884261144767
5091000000.0 -0.6339645946912023 -0.8126318468443237
5094000000.0 -0.6441438703071531 -0.795528795514264
5097000000.0 -0.5849556675370754 -0.7905397467506632
5100000000.0 -0.6500130413522764 -0.7904066339090077
5103000000.0 -0.6886077696689793 -0.7644262053091689
5106000000.0 -0.6886587174968932 -0.8282975499990359
5109000000.0 -0.6160322884448681 -0.7822116923223322
5112000000.0 -0.6894708034930567 -0.7772115992966253
5116000000.0 -0.6267519380548777 -0.7556292900220113
5119000000.0 -0.6692123706301987 -0.7621446114593755
5122000000.0 -0.6655634188314451 -0.7536696307538504
5125000000.0 -0.6359618968729767 -0.7529151797273111
5128000000.0 -0.7208172197018385 -0.7461159754785618
5131000000.0 -0.7473445002613189 -0.737530663715724
5134000000.0 -0.7230228808785748 -0.7469557740037215
5138000000.0 -0.7181888082366931 -0.7485910962764227
5141000000.0 -0.705739471865567 -0.7224879053249469
5144000000.0 -0.7269369213565335 -0.7654659512910387
5147000000.0 -0.7104535003869713 -0.7106792162834159
5150000000.0 -0.7171955231248539 -0.70056305387443
5153000000.0 -0.7684301090188108 -0.7289047682692097
5156000000.0 -0.7482646161477752 -0.7484185235466796
5159000000.0 -0.8026755884238638 -0.7512166578241375
5162000000.0 -0.8227038251802118 -0.658298291778343
5166000000.0 -0.7902422470446341 -0.6674215274046394
5169000000.0 -0.8026230409651386 -0.6723034979809224
5172000000.0 -0.7754983341953504 -0.6825095522486847
5175000000.0 -0.8231973930628254 -0.7104897488096139
5178000000.0 -0.8512129434422904 -0.671685208505014
5181000000.0 -0.8474518036978778 -0.6783870465616795
5184000000.0 -0.8178125375264415 -0.6344932631167233
5188000000.0 -0.7953304488683917 -0.6468551794830281
