! Created with skrf 1.8.0 (http://scikit-rf.org).
# Hz S RI R 50.0 
!freq ReS11 ImS11
4000000000.0 0.5989536323030493 0.7985659688811788
4003000000.0 0.6514048718972225 0.8272251940489994
4006000000.0 0.7126813587401277 0.8020728670467121
4009000000.0 0.6710791260279808 0.8452153253808654
4012000000.0 0.6494186766756407 0.8826624613973016
4016000000.0 0.7285987381765076 0.7786439232970435
4019000000.0 0.6543958716673941 0.802642327981198
4022000000.0 0.6560505318631903 0.8403369070086492
4025000000.0 0.7693303448202085 0.7536778936975331
4028000000.0 0.7332399791683281 0.7750118189368951
4031000000.0 0.6362751099067548 0.6979871091953737
4034000000.0 0.7033537017432152 0.7424415191340115
4038000000.0 0.7356558508228725 0.7383665645956629
4041000000.0 0.7531316788184085 0.7317703193858704
4044000000.0 0.7872141522310004 0.7804661915882648
4047000000.0 0.7391058844228926 0.7890149740272788
4050000000.0 0.7379076965598479 0.7303826638292651
4053000000.0 0.73266844495245 0.6635896086066322
4056000000.0 0.7534161078841233 0.712622094099296
4059000000.0 0.7495664627038454 0.6675948101125495
4062000000.0 0.7831275221256105 0.7041100282091808
4066000000.0 0.6976184097435731 0.6203545026285554
4069000000.0 0.821128744193315 0.6606760620160396
4072000000.0 0.7484339702677705 0.7046936820502079
4075000000.0 0.7879738919706901 0.7389132747791141
4078000000.0 0.7731489283455947 0.6533895131344474
4081000000.0 0.7574964286937315 0.7162266285260842
4084000000.0 0.8287974735053046 0.605807608074381
4088000000.0 0.7695510281150258 0.6644828188196977
4091000000.0 0.9140499096160865 0.6476297898669292
4094000000.0 0.8172940850265283 0.6590539648634524
4097000000.0 0.8140110339330692 0.666884092729831
4100000000.0 0.8502418422685094 0.6142915686865771
4103000000.0 0.8665559378603109 0.6800409357127752
4106000000.0 0.863811382597228 0.5580939801597101
4109000000.0 0.8545641636924954 0.5948840886390769
4112000000.0 0.8317693819195993 0.5914449669523218
4116000000.0 0.8505601605258247 0.5910178711687805
4119000000.0 0.8728976700855043 0.5933749172816275
4122000000.0 0.8659069297168179 0.5675801307713645
4125000000.0 0.9250949472204938 0.5716684241758123
4128000000.0 0.8434703626680078 0.5389510728385273
4131000000.0 0.9011345930756017 0.5292908527421434
4134000000.0 0.8602889271271542 0.5310583328143034
4138000000.0 0.8829910524398705 0.5029543341469851
4141000000.0 0.8899025681735202 0.49283288550970616
4144000000.0 0.8695463789036091 0.5204248039521013
4147000000.0 0.9057009748512633 0.4953714655615737
4150000000.0 0.893263519400141 0.5018935714844062
4153000000.0 0.8924371317992541 0.5157827996006893
4156000000.0 0.9279456533344843 0.5156167211037019
4159000000.0 0.8837522920373948 0.46831180022368885
4162000000.0 0.900579965187245 0.48881721106200504
4166000000.0 0.9363465912776456 0.4797991032840534
4169000000.0 0.9232215685975383 0.43416061004199447
4172000000.0 0.9115432537339017 0.4611316628665422
4175000000.0 0.9360130704340647 0.4604432583129801
4178000000.0 0.95016542027654 0.44376529668347064
4181000000.0 0.9440051290798546 0.3852915350065318
4184000000.0 0.9087552726377891 0.4248973786466263
4188000000.0 0.927220287724678 0.39556659810630457
4191000000.0 0.9296941564841572 0.44918164861474547
4194000000.0 0.9284405873573597 0.3628970628899322
4197000000.0 0.9612336988176705 0.39451949728508645
4200000000.0 0.9551189639970104 0.38382863996031436
4203000000.0 0.9739639475592359 0.4008216556561185
4206000000.0 0.9491711137961684 0.3592304924847856
4209000000.0 0.950061316972258 0.3671953219207387
4212000000.0 0.9702759043710758 0.31080293413058524
4216000000.0 0.9733219932261805 0.34746784106231005
4219000000.0 0.9737737920453341 0.37110600781207304
4222000000.0 0.9705951736705336 0.33629214147897063
4225000000.0 0.9779967666763207 0.3116160375675271
4228000000.0 0.9819424120970994 0.32692514804167605
4231000000.0 0.9813025177509465 0.29095760866290277
4234000000.0 0.9747235270393662 0.29132808186448933
4238000000.0 0.9861887442036682 0.2833042041562922
4241000000.0 1.001333947723131 0.2698736880379722
4244000000.0 0.9863117676523974 0.2574597289127265
4247000000.0 0.9965420154156814 0.2847431402655216
4250000000.0 0.962647545994417 0.24293810267293148
4253000000.0 0.9705695582941043 0.25105185571520083
4256000000.0 1.014068127425741 0.24918016514819874
4259000000.0 0.9571937277600049 0.21867105264100592
4262000000.0 1.0100591713388294 0.20583895101353075
4266000000.0 1.0116363973937093 0.18623613651767718
4269000000.0 1.0097142743711223 0.21426219526450438
4272000000.0 0.9997807648517509 0.18925071670135724
4275000000.0 1.0251323847240807 0.1883105258665283
4278000000.0 1.0415719006335737 0.17528324396181172
4281000000.0 1.0216267498146046 0.17466890713663474
4284000000.0 1.0166345922589368 0.14317898102454799
4288000000.0 1.0107732983727102 0.17865844939066533
4291000000.0 0.9685616140722678 0.12984807440731339
4294000000.0 0.9986815222858275 0.11778681173977733
4297000000.0 1.0147609663242139 0.13730011111269558
4300000000.0 0.988698783338346 0.11158612477808594
4303000000.0 0.9771972553017354 0.1007074424183569
4306000000.0 1.0111639937650476 0.1163549050554076
4309000000.0 1.0102206154121354 0.0978510303583477
4312000000.0 1.027085271727227 0.15101295170148304
4316000000.0 1.0230492999020537 0.08407411452934312
4319000000.0 0.9805024014358218 0.08549545659305503
4322000000.0 1.0122443355938164 0.03828360608064184
4325000000.0 1.016797899373071 0.06516460840500925
4328000000.0 1.0108172151673622 0.05867797727621253
4331000000.0 1.030083880541931 -0.028094121175393227
4334000000.0 1.019169314397539 0.016843602504419825
4338000000.0 1.0258014507033355 0.05328960495890232
4341000000.0 1.044863335269534 0.04334186101381127
4344000000.0 1.032836636043953 -0.005684252062450379
4347000000.0 1.0170752442302708 -0.03571782377561761
4350000000.0 1.0044381548543315 -0.03943639787074857
4353000000.0 0.974842042681531 -0.01658010996762141
4356000000.0 1.0244303106960628 -0.05998299631269584
4359000000.0 0.9787946258073693 -0.042415894952369415
4362000000.0 1.0172871192548911 -0.09542712564576956
4366000000.0 1.017669083334332 -0.04551394710791279
4369000000.0 0.9896067168526971 -0.06678553737013568
4372000000.0 0.9928478986085321 -0.10671520497177427
4375000000.0 1.0125929914013663 -0.06253319379991149
4378000000.0 0.9944641002041896 -0.10122985270918756
4381000000.0 0.9945468097594685 -0.0872239312986719
4384000000.0 1.0657304974849282 -0.14267878344967572
4388000000.0 0.9817729411774039 -0.11613503847418905
4391000000.0 1.0049367139667613 -0.13659741012153226
4394000000.0 0.9837581174634754 -0.1384286791321207
4397000000.0 0.989765409342293 -0.14981322237525535
4400000000.0 1.020729977447715 -0.17784942772757145
4403000000.0 1.0016671939409816 -0.16869460589687701
4406000000.0 0.9842174225073301 -0.20737758571761036
4409000000.0 1.0341584202560625 -0.18564925985638625
4412000000.0 0.9807861494107386 -0.24490106130172054
4416000000.0 0.9722394221009232 -0.2233377329599758
4419000000.0 0.9800349762763386 -0.22336961201420255
4422000000.0 0.9828297574911333 -0.21166494849006048
4425000000.0 1.016357523164575 -0.20728310497566252
4428000000.0 0.9757023977563789 -0.2533863265782075
4431000000.0 1.0127079663908154 -0.2380758352070036
4434000000.0 0.9586023565378837 -0.2541011012216951
4438000000.0 1.0041987213361874 -0.2622670788760546
4441000000.0 0.9950037828961134 -0.2760044375282333
4444000000.0 0.9560875580600003 -0.27484071067757754
4447000000.0 0.959448252770443 -0.2964331877285959
4450000000.0 0.9629648449590753 -0.27928063858194396
4453000000.0 0.9928170015819578 -0.31328094954842906
4456000000.0 0.9293031429320201 -0.32156551591642235
4459000000.0 0.9125743256262167 -0.32660511410493737
4462000000.0 0.9968484060161666 -0.33813754631856185
4466000000.0 0.9792959810970651 -0.3568492989974462
4469000000.0 0.9668191539319112 -0.3221153414147697
4472000000.0 0.9565864349917579 -0.3840548872358375
4475000000.0 0.9100421191036616 -0.35063135179170535
4478000000.0 0.9712697863068427 -0.4099187008971409
4481000000.0 0.9085123365840492 -0.3898028428671487
4484000000.0 0.9119583475141766 -0.41752812694642716
4488000000.0 0.8933004649637524 -0.401395815852794
4491000000.0 0.9374197105083985 -0.4137690808243444
4494000000.0 0.9077863976299233 -0.4197542642051189
4497000000.0 0.9111074685575422 -0.404133907632903
4500000000.0 0.9093493001537893 -0.42225113693639377
4503000000.0 0.933315213973811 -0.45141468948907676
4506000000.0 0.8901558115625279 -0.4627065187967637
4509000000.0 0.8858318434251085 -0.45205838635372975
4512000000.0 0.8716924434617811 -0.46388702205008614
4516000000.0 0.9042685299390278 -0.49336433476033387
4519000000.0 0.8596596911764463 -0.45979434330522917
4522000000.0 0.8782428580530908 -0.495412534048097
4525000000.0 0.8984430856287935 -0.45439784578403153
4528000000.0 0.9067482707320429 -0.5277552115609588
4531000000.0 0.8882194918807851 -0.49134021513672044
4534000000.0 0.8573874879579295 -0.5265155496525454
4538000000.0 0.8562114653924009 -0.5429768163191462
4541000000.0 0.838144777748899 -0.5531593789481735
4544000000.0 0.8418959092631138 -0.5198038530461585
4547000000.0 0.855774280111292 -0.5319804894618434
4550000000.0 0.8426344323456776 -0.5768343339116246
4553000000.0 0.8401235109003355 -0.5733767172020069
4556000000.0 0.8003468153724003 -0.5800711248033115
4559000000.0 0.8274249115587966 -0.5740854851053379
4562000000.0 0.8640004004399231 -0.599172396060545
4566000000.0 0.8151436407380224 -0.6083986304707549
4569000000.0 0.8037402463982181 -0.584438627164233
4572000000.0 0.804587681940711 -0.5986683478250422
4575000000.0 0.7833087519066833 -0.6247836128449835
4578000000.0 0.8070462410612635 -0.6238295642225249
4581000000.0 0.7958045664847757 -0.6408655238618668
4584000000.0 0.7837233977542474 -0.6454810017000301
4588000000.0 0.8005637196382964 -0.6317908694025736
4591000000.0 0.7758197841177239 -0.6492992429300046
4594000000.0 0.7612930799293947 -0.6558601397884468
4597000000.0 0.7708928725205983 -0.6658815601825651
4600000000.0 0.722583344495291 -0.6740780491092208
4603000000.0 0.7551888035751971 -0.6829548512571914
4606000000.0 0.7613885801349015 -0.6921901826226228
4609000000.0 0.7360147315544271 -0.6862407536828767
4612000000.0 0.7420401215887283 -0.7203996190892685
4616000000.0 0.7187884481894775 -0.7010513615729983
4619000000.0 0.7131015104812864 -0.6996673516518126
4622000000.0 0.7187702027041264 -0.7108336203062686
4625000000.0 0.6867063986272913 -0.7181402006587175
4628000000.0 0.7201830919439145 -0.7203420789243643
4631000000.0 0.6870718761622663 -0.7447930034337842
4634000000.0 0.6947188691461472 -0.745987851462247
4638000000.0 0.670033255851019 -0.7491856845316135
4641000000.0 0.6803050847844756 -0.7478292313912295
4644000000.0 0.6658003807233277 -0.7556611493098743
4647000000.0 0.669768058019458 -0.7661091588094517
4650000000.0 0.6512981669820832 -0.7609018490028715
4653000000.0 0.6763513947395219 -0.7673220852110867
4656000000.0 0.6387353978943042 -0.7956155799899793
4659000000.0 0.6329313247154156 -0.7812654332367551
4662000000.0 0.641713016458022 -0.802628645252452
4666000000.0 0.6248631038101219 -0.8024625203419843
4669000000.0 0.6204442823141165 -0.8022830247747158
4672000000.0 0.6098154224410848 -0.8497816898151203
4675000000.0 0.5940159386305028 -0.8114682860204897
4678000000.0 0.5792218969508467 -0.7914538297133545
4681000000.0 0.567904703286771 -0.8617495673956823
4684000000.0 0.573258793517702 -0.8381695783134077
4688000000.0 0.5484247846558582 -0.8126036300509389
4691000000.0 0.5602630144095491 -0.8316587337594923
4694000000.0 0.5545359235665482 -0.8243023747296807
4697000000.0 0.5366531721674903 -0.8315431551830132
4700000000.0 0.5545171541847187 -0.8417739157216679
4703000000.0 0.5467608263941439 -0.8250531634547469
4706000000.0 0.5324677164255238 -0.8857664377298058
4709000000.0 0.49202982710205906 -0.8904663269594328
4712000000.0 0.49735849612316807 -0.8673221513831055
4716000000.0 0.4816273866122367 -0.8868556749054484
4719000000.0 0.5105487930701696 -0.8906192619245424
4722000000.0 0.5191028840046314 -0.8729727053633687
4725000000.0 0.5010464599413016 -0.8877770530867136
4728000000.0 0.43904418161926645 -0.887895935968918
4731000000.0 0.4768918368298265 -0.9172794442144243
4734000000.0 0.48581127190834644 -0.9074151206012497
4738000000.0 0.4966123067539358 -0.9333917413715591
4741000000.0 0.4416110692162971 -0.9440470715571507
4744000000.0 0.4285621285784744 -0.9475107210821195
4747000000.0 0.44468858667471856 -0.8803490070435783
4750000000.0 0.44379626374548575 -0.9323426554618409
4753000000.0 0.41158704521892864 -0.9188643547105314
4756000000.0 0.3933787666189719 -0.9490812109871172
4759000000.0 0.42125914680095955 -0.9550918930990215
4762000000.0 0.3635073001068594 -0.9473127964392694
4766000000.0 0.3848031785489291 -0.9563617206189761
4769000000.0 0.39071463718987154 -0.9786327008602266
4772000000.0 0.377866663734424 -0.9565136499612467
4775000000.0 0.3474018740366557 -1.0182613420138515
4778000000.0 0.33442972256887454 -0.9746674269769547
4781000000.0 0.35864252258628215 -0.9501948275502166
4784000000.0 0.36107890714039964 -0.9410845035319376
4788000000.0 0.340109921168778 -0.9614187761805053
4791000000.0 0.30398562533268325 -0.9692380738213738
4794000000.0 0.32638160327029486 -0.9910428478039568
4797000000.0 0.27989541984283667 -0.9736633925536672
4800000000.0 0.280411970779513 -0.9653362325025485
4803000000.0 0.22696883500183446 -0.9795480921614239
4806000000.0 0.2842692235615936 -0.9838200477758894
4809000000.0 0.21967483687690917 -1.0055657341575253
4812000000.0 0.20775857156900737 -0.9813150080799018
4816000000.0 0.25711058351711036 -0.9999455787765961
4819000000.0 0.26799946984058676 -1.022723027476791
4822000000.0 0.24302509473838513 -1.0039474423864143
4825000000.0 0.257032534402971 -1.0283716763697583
4828000000.0 0.2037789380584002 -1.0200975545255102
4831000000.0 0.18834641281742792 -1.024415990323306
4834000000.0 0.22400159973634975 -1.008840502235513
4838000000.0 0.18103051637644124 -1.0307883298228175
4841000000.0 0.16262380213757413 -0.9927601451163964
4844000000.0 0.18170510435811885 -1.0151362966131452
4847000000.0 0.18996682785257496 -0.9798897836093052
4850000000.0 0.15905591924750312 -1.0285396644891753
4853000000.0 0.17140260657517167 -0.9786735862346818
4856000000.0 0.13750246402074973 -1.0186844752118258
4859000000.0 0.13301227194777157 -1.0783966844950954
4862000000.0 0.15849714538499565 -1.0217303371801136
4866000000.0 0.08454355465660587 -1.028390671970339
4869000000.0 0.10462745340648477 -1.0484858626938527
4872000000.0 0.06833875206465452 -1.063871851493735
4875000000.0 0.140064111136047 -1.0574608158615724
4878000000.0 0.0814800069096418 -1.0160699332323644
4881000000.0 0.0353336664987842 -1.1012710901837544
4884000000.0 0.09683057021500313 -1.0207461803296274
4888000000.0 0.08178971833734058 -1.0033147460046612
4891000000.0 0.0697996820566103 -1.0292897409900512
4894000000.0 0.005665415411084564 -1.040493345483492
4897000000.0 0.05941284030241296 -1.018741890544721
4900000000.0 0.038749195740034686 -1.0482451632565024
4903000000.0 0.02167454636278989 -1.0475696052731498
4906000000.0 0.016674358579365913 -1.0670862502992837
4909000000.0 -0.01896252418360861 -1.046254111223033
4912000000.0 -0.025879831764211103 -1.0691022394766803
4916000000.0 0.014553892438093553 -1.0938561370684077
4919000000.0 0.020258391970090946 -1.0592459056058026
4922000000.0 -0.014156205523922272 -1.0421514197951494
4925000000.0 -0.07278607864516516 -1.0257709598544278
4928000000.0 0.02340280811506383 -1.0308532105935369
4931000000.0 -0.04127423601954526 -1.046976755588629
4934000000.0 -0.0604834031808371 -0.9630184372244065
4938000000.0 -0.10477713550610106 -1.0275467060334074
4941000000.0 -0.08739105547428215 -0.984680050393265
4944000000.0 -0.07748102549147876 -0.951796712557802
4947000000.0 -0.13082459342311223 -1.0043391380017144
4950000000.0 -0.12969286954546932 -1.0135800342446055
4953000000.0 -0.1889441458982919 -1.0234048157782598
4956000000.0 -0.13237036518870599 -1.0519456293817417
4959000000.0 -0.1385866494140988 -0.9848244102907298
4962000000.0 -0.14388804281002562 -1.007138203376609
4966000000.0 -0.1519580231744589 -1.045847636672458
4969000000.0 -0.14718204278883712 -1.0500464090425505
4972000000.0 -0.15713972831142656 -1.0311312940124235
4975000000.0 -0.15829800395779506 -0.9927460767127558
4978000000.0 -0.2047876126492124 -1.0340396810925723
4981000000.0 -0.20206068655818418 -1.0431900894081223
4984000000.0 -0.20679195935536707 -0.9838572317897886
4988000000.0 -0.19268539969245307 -0.9869028022347627
4991000000.0 -0.16032825033232556 -1.0261999078126338
4994000000.0 -0.20172711078834543 -1.0432798583471683
4997000000.0 -0.27372445085099995 -0.9999255145328183
5000000000.0 -0.21649574268397948 -1.034885771628277
5003000000.0 -0.23746877524430682 -1.0296281360117872
5006000000.0 -0.27704074697579406 -1.0315907546795622
5009000000.0 -0.2743604691773206 -1.0105946875391258
5012000000.0 -0.28232257233603314 -0.9966801084106902
5016000000.0 -0.23859906947495746 -1.0487063372676055
5019000000.0 -0.293147686282891 -0.9929224522225806
5022000000.0 -0.2942588471058024 -1.0145552992903482
5025000000.0 -0.2873115806260344 -1.0623079075873405
5028000000.0 -0.33176422944134354 -0.9983779207010814
5031000000.0 -0.3235773897813937 -0.9760204794894539
5034000000.0 -0.3654479269511087 -0.993370241475755
5038000000.0 -0.33578249490756296 -0.9490149539081998
5041000000.0 -0.3016570224845083 -0.984467020088576
5044000000.0 -0.3148382713040526 -0.9778443051626443
5047000000.0 -0.35330978212022063 -1.0221643444488757
5050000000.0 -0.26225409473464645 -1.0079155312332853
5053000000.0 -0.42422957299844366 -1.003085184014349
5056000000.0 -0.3585592726824548 -1.00587043003789
5059000000.0 -0.32275250021992624 -1.0160195955080917
5062000000.0 -0.4283126343265766 -0.9946547582165914
5066000000.0 -0.3443137267346337 -0.9988267590431652
5069000000.0 -0.407441078957103 -0.9919809330213577
5072000000.0 -0.41579387481567665 -0.9221793083484293
5075000000.0 -0.37387668554185827 -0.952302791758324
5078000000.0 -0.42955743101799254 -0.9519791518368226
5081000000.0 -0.41820594382295423 -0.9243945029765718
5084000000.0 -0.49969623545376396 -0.9832463314555231
5088000000.0 -0.40541842540769657 -0.9243675295345384
5091000000.0 -0.492251495086181 -0.9561428679105395
5094000000.0 -0.48156286469097703 -0.9121029534211883
5097000000.0 -0.45640515398593784 -0.9168827512819215
5100000000.0 -0.40383782533673634 -0.9175556847028697
5103000000.0 -0.5120213434859527 -0.9049818691627091
5106000000.0 -0.5168776458099433 -0.9852657960308628
5109000000.0 -0.45065568092488495 -0.8838495181282495
5112000000.0 -0.5185048586843515 -0.9054721770432907
5116000000.0 -0.4959380075484131 -0.8574780861825333
5119000000.0 -0.5612027375217051 -0.8977903255012105
5122000000.0 -0.491945507018221 -0.861464145935648
5125000000.0 -0.46616851003249016 -0.8868966717187876
5128000000.0 -0.5544218989424969 -0.8449530699536851
5131000000.0 -0.581862026301719 -0.890312333086048
5134000000.0 -0.526885919340816 -0.9158871773370976
5138000000.0 -0.5608354372721749 -0.9191368045676958
5141000000.0 -0.5564382065388194 -0.9226644013936709
5144000000.0 -0.5402449483430287 -0.8969876711396335
5147000000.0 -0.5730227844767523 -0.8722008386861367
5150000000.0 -0.5945090896885374 -0.8715468670088033
5153000000.0 -0.588246228095147 -0.8387154653154448
5156000000.0 -0.5503785410099649 -0.8671285396085453
5159000000.0 -0.6140816898510053 -0.8989742682916456
5162000000.0 -0.6316491100513663 -0.8017408465835558
5166000000.0 -0.6474933046415445 -0.8530195382452224
5169000000.0 -0.6357965555167807 -0.8666649203111665
5172000000.0 -0.6245434733630598 -0.8355139035846598
5175000000.0 -0.6295224672718406 -0.8486156977050512
5178000000.0 -0.6407775888380145 -0.8245866717136545
5181000000.0 -0.6516328795625391 -0.8470421444575311
5184000000.0 -0.6754887161295402 -0.8087798435991503
5188000000.0 -0.6328843375385681 -0.7849178686265289
