! Created with skrf 1.8.0 (http://scikit-rf.org).
# Hz S RI R 50.0 
!freq ReS11 ImS11
4000000000.0 -0.986301031055524 0.05570627497422165
4003000000.0 -0.9959816716691384 0.09145458720448313
4006000000.0 -1.0134779546947827 0.1874796656078649
4009000000.0 -1.0027334873530027 0.20553513414979988
4012000000.0 -1.028053990820707 0.18271180905702836
4016000000.0 -0.9775568152530829 0.2441648557387256
4019000000.0 -0.9912186110921959 0.29311386117406224
4022000000.0 -0.9694858213729936 0.21597283686127303
4025000000.0 -0.9206587617932855 0.40845073237535334
4028000000.0 -0.9880272999723497 0.36009976484290557
4031000000.0 -0.9209177360624444 0.34767351337228336
4034000000.0 -0.944655542463984 0.38333622040625104
4038000000.0 -0.9686054196053553 0.5039551320657444
4041000000.0 -0.8882630884425455 0.4437835155051727
4044000000.0 -0.9599019339089147 0.5713685457448671
4047000000.0 -0.9237859055983608 0.44894170857498594
4050000000.0 -0.8493853518319101 0.5771299773153281
4053000000.0 -0.8011826645839253 0.587899857689516
4056000000.0 -0.8438807059310236 0.5829691597268245
4059000000.0 -0.8616827487960407 0.5609287373899261
4062000000.0 -0.7644721315536703 0.6823618339827506
4066000000.0 -0.7432014423421078 0.6309862649676775
4069000000.0 -0.8062656664154929 0.6989866905999442
4072000000.0 -0.8447540855004496 0.5978608102335312
4075000000.0 -0.815773413812683 0.6604222224368093
4078000000.0 -0.7433724950323503 0.698138108474044
4081000000.0 -0.8012086366306294 0.6664837741024969
4084000000.0 -0.7233319708118542 0.8045107058650398
4088000000.0 -0.7338661565827734 0.7493983058555668
4091000000.0 -0.716710215850338 0.9359061333737155
4094000000.0 -0.6891933754555816 0.8010747678603808
4097000000.0 -0.6313806995444975 0.7816603080503248
4100000000.0 -0.6326679644997918 0.8323012885448275
4103000000.0 -0.6712460438029957 0.8192777620102949
4106000000.0 -0.5960805954646681 0.8597399429441777
4109000000.0 -0.513438171709854 0.8996706550208111
4112000000.0 -0.5618029882730968 0.8860030441090432
4116000000.0 -0.6205159710141398 0.8820161415113164
4119000000.0 -0.47483154802358785 0.9454047260852156
4122000000.0 -0.4970724608781206 0.9473581174648447
4125000000.0 -0.4707740127943095 0.9565261423941425
4128000000.0 -0.46163344905361214 0.8695949944487114
4131000000.0 -0.466948265250795 0.8838711598747964
4134000000.0 -0.43422465282989475 0.9517705121430611
4138000000.0 -0.41351075822655453 0.9107800006674933
4141000000.0 -0.33420953455196234 0.9528990916981515
4144000000.0 -0.39262809867048926 0.9826952930124859
4147000000.0 -0.2986762731427328 0.9555471638138235
4150000000.0 -0.41850002792735597 1.015404529160944
4153000000.0 -0.28560951577097377 1.0547117410780413
4156000000.0 -0.3042411906127543 1.034575696686397
4159000000.0 -0.34987976523124975 1.012754011525793
4162000000.0 -0.2871478768482737 0.983604966569184
4166000000.0 -0.20699465131692346 0.9567821123736997
4169000000.0 -0.1890294303219385 1.0497305710925264
4172000000.0 -0.27619159294360474 1.023770282675986
4175000000.0 -0.21300287532380624 0.9505219899563568
4178000000.0 -0.17657780183999458 1.0278344107150572
4181000000.0 -0.20538364954292632 1.0304105226510032
4184000000.0 -0.11301668242634852 1.0828643119934032
4188000000.0 -0.16620330922227267 1.091583552946652
4191000000.0 -0.1510474408834074 0.9988387654011797
4194000000.0 -0.13334791857199796 1.0550657365522764
4197000000.0 -0.02991441478922144 1.0245062307437331
4200000000.0 -0.04120638600656834 0.9873755960996712
4203000000.0 -0.0674392105764498 0.9917864903894631
4206000000.0 -0.027194542614425388 1.055152041349603
4209000000.0 -0.06419882746990543 1.0785101866228608
4212000000.0 -0.013751176850646057 1.0724434843628003
4216000000.0 0.0004709041660943547 1.0114375527606647
4219000000.0 0.028051087057640645 1.0091123076630453
4222000000.0 0.054513703574053274 1.0805559591591178
4225000000.0 0.03129146055903867 1.0086904921034454
4228000000.0 0.06362726840539384 1.037255259988916
4231000000.0 0.07744048136948706 1.0181095461472442
4234000000.0 0.04026626175871312 1.043561498088095
4238000000.0 0.09074363318307532 1.0356616799977467
4241000000.0 0.08425654873981211 1.0784880006781026
4244000000.0 0.11794386149090166 1.036409182993542
4247000000.0 0.13858826873188063 1.0708622463984268
4250000000.0 0.19746379478368353 1.0380290641070666
4253000000.0 0.16367758607810773 1.0275384762274922
4256000000.0 0.2056097081478833 0.958022273553063
4259000000.0 0.211794267466205 1.0149411657281164
4262000000.0 0.23281383306641573 1.0373061604228349
4266000000.0 0.2262347951610558 1.0092893408345232
4269000000.0 0.25622873288564757 1.0597154115847405
4272000000.0 0.288868776915873 0.9828531140608363
4275000000.0 0.29943705003438803 0.9910320756922892
4278000000.0 0.25843160958591344 0.9616028857674673
4281000000.0 0.30162346105149646 0.988364576981037
4284000000.0 0.30153718158593035 0.9885029408488799
4288000000.0 0.35626869849756937 0.9827824967497318
4291000000.0 0.3116677169971377 0.9955295063475941
4294000000.0 0.3366925357939532 0.961215340307321
4297000000.0 0.3826882839238279 0.9389699969822606
4300000000.0 0.434849587690412 0.9848812684460543
4303000000.0 0.3515021117723394 0.9680393691766044
4306000000.0 0.3762516587696081 0.9755333217683173
4309000000.0 0.43797076402250806 0.9422613093839758
4312000000.0 0.43756840333718516 0.9693209611335744
4316000000.0 0.41831573924691906 0.9404601909384378
4319000000.0 0.4445359639296153 0.8949981011817149
4322000000.0 0.4941432959961346 0.865292069695497
4325000000.0 0.4635792482386619 0.9009343533832311
4328000000.0 0.5292795762773069 0.9100755794101991
4331000000.0 0.5285368598721534 0.8777719509335095
4334000000.0 0.5137818042595275 0.920493722027041
4338000000.0 0.49602452793860097 0.8820399543483538
4341000000.0 0.5429419338697109 0.8848525289476022
4344000000.0 0.5644894894847908 0.8670776436694975
4347000000.0 0.5574424108484852 0.8568999883056141
4350000000.0 0.5558621499885366 0.8358537512903215
4353000000.0 0.5899300223567623 0.8444831378626065
4356000000.0 0.5729746979312578 0.8476957680106165
4359000000.0 0.5833539389760861 0.8259815250336267
4362000000.0 0.6139351115427651 0.8240719276438693
4366000000.0 0.6498879443516772 0.7927547943787976
4369000000.0 0.6118355144640749 0.8070874202997564
4372000000.0 0.6369552556148963 0.7768827242942269
4375000000.0 0.6219232214298993 0.7425504063380088
4378000000.0 0.6510003479781531 0.7833303149888026
4381000000.0 0.6527028876231684 0.8053064076273491
4384000000.0 0.7020846743641366 0.773306842739792
4388000000.0 0.6874161540921094 0.7772337789804844
4391000000.0 0.690099968163902 0.77982571735482
4394000000.0 0.6753880273130568 0.7478857956344489
4397000000.0 0.696978323981007 0.7130668864167236
4400000000.0 0.7651154244297538 0.7753192005049176
4403000000.0 0.7207779395713545 0.7125001062592038
4406000000.0 0.7804179779514908 0.6461193517311996
4409000000.0 0.7449730960624246 0.6842711092856015
4412000000.0 0.7637608592268417 0.6618454696645382
4416000000.0 0.7478364914764268 0.6326537053810651
4419000000.0 0.7636585171419448 0.6736264005263124
4422000000.0 0.7420803094048316 0.6417425036543225
4425000000.0 0.7732984210055501 0.6707140038794915
4428000000.0 0.787476887842607 0.6378465146133832
4431000000.0 0.8288635194159155 0.649308772055588
4434000000.0 0.8165913335982695 0.6105333573602698
4438000000.0 0.842798788065773 0.6251343083243812
4441000000.0 0.8282934375147133 0.6172080624946465
4444000000.0 0.8176567628405653 0.5762672877950143
4447000000.0 0.8369825103300013 0.5681281279662096
4450000000.0 0.8352012860664154 0.5714598512919871
4453000000.0 0.871364194629006 0.5832157291780702
4456000000.0 0.8474827237757004 0.5405336022813342
4459000000.0 0.8487312955205328 0.5011083517792979
4462000000.0 0.9194451440358389 0.5520516796083181
4466000000.0 0.8896931514459516 0.5232377548523625
4469000000.0 0.8593932887073148 0.5175477492185141
4472000000.0 0.9257073091368834 0.4821187377165267
4475000000.0 0.8714024979154639 0.47861384234164395
4478000000.0 0.941316193470351 0.485282707433489
4481000000.0 0.900018088979868 0.44829347730029157
4484000000.0 0.9169894396493947 0.412772460813003
4488000000.0 0.901182857801834 0.4208088307930592
4491000000.0 0.9210665551466349 0.40684613207894793
4494000000.0 0.9004614891308502 0.42211525976869385
4497000000.0 0.9046147738019159 0.42205603111081585
4500000000.0 0.9292245811337232 0.4163898146471217
4503000000.0 0.9660096007726306 0.40092875249177606
4506000000.0 0.9165364784283272 0.3859409094686748
4509000000.0 0.9322031447867638 0.3657566890850682
4512000000.0 0.9300580465829535 0.3406117137249992
4516000000.0 0.9548513292490988 0.3664254750316914
4519000000.0 0.9274572392163433 0.3531048712702377
4522000000.0 0.9681085957274169 0.2992281895501272
4525000000.0 0.9475151200121539 0.3444233665659717
4528000000.0 1.0191506290519614 0.3098453149792154
4531000000.0 0.9497817345389816 0.331699878942989
4534000000.0 0.9461496462234792 0.28870290039974106
4538000000.0 0.9766962244492767 0.2666367946067502
4541000000.0 0.9750364751234645 0.2051497107368078
4544000000.0 0.9665985226685465 0.2484380450644002
4547000000.0 0.9579415254712463 0.26292436649855083
4550000000.0 0.9785549311246424 0.23250865074144964
4553000000.0 0.9919848044526391 0.22426761564803097
4556000000.0 0.9675925697402068 0.1802650374967991
4559000000.0 1.0077775973921073 0.19120134247303905
4562000000.0 0.9941034420522363 0.20058280048126673
4566000000.0 1.0021384679105445 0.1604888942980003
4569000000.0 0.9495460112945421 0.16123171406401343
4572000000.0 0.9944750757684155 0.16982984267192502
4575000000.0 0.9968981626030688 0.12380100539666296
4578000000.0 0.9999949655555092 0.1523888694183199
4581000000.0 1.0412710410550983 0.09756799902542798
4584000000.0 0.9872525490138179 0.09188072536351127
4588000000.0 1.008356565828416 0.11285375598304123
4591000000.0 0.9890412593399325 0.09742360145870853
4594000000.0 1.0215928551676912 0.05942052147875659
4597000000.0 1.017875423229315 0.06542080521561455
4600000000.0 0.9689042824898527 0.008238872914942255
4603000000.0 1.018495593132159 0.0359264889278965
4606000000.0 1.0025901056935522 0.04442418114479538
4609000000.0 1.0324227405066115 0.0006052138023117833
4612000000.0 1.049916173617851 0.023976518216929896
4616000000.0 1.0175364271639558 -0.021650707265711687
4619000000.0 1.0128463672678798 0.015617965397378086
4622000000.0 0.9882694128910224 0.0015871247870642355
4625000000.0 0.9678275569569157 -0.032651175302462865
4628000000.0 0.9612724100803481 -0.012968318922127381
4631000000.0 0.971683413891915 -0.09547135207501276
4634000000.0 1.0135046329234798 -0.04313129451220844
4638000000.0 0.999181291807819 -0.06262346740341561
4641000000.0 1.0045297944792881 -0.07652752825999412
4644000000.0 0.998813955395818 -0.1013990566275209
4647000000.0 1.023238038516509 -0.10677267505942711
4650000000.0 0.9942092062536183 -0.14795045830015535
4653000000.0 1.0256251475901645 -0.12974302059002624
4656000000.0 0.9857890358735493 -0.17578591855544945
4659000000.0 0.9689373480089297 -0.14328208215815788
4662000000.0 0.9938320711198855 -0.1383671562633843
4666000000.0 0.961292590636407 -0.1605348335803197
4669000000.0 0.9787637540281744 -0.1606437089188447
4672000000.0 0.9739194263074218 -0.2156562426860807
4675000000.0 0.9454205319892002 -0.2454170471192399
4678000000.0 0.9786533677682279 -0.20509730045205554
4681000000.0 0.9847088616775926 -0.269213593761203
4684000000.0 0.9346659712772001 -0.22603263361025644
4688000000.0 0.948965621792794 -0.2445405995029316
4691000000.0 0.9437021565060043 -0.25194814256663073
4694000000.0 0.9775781497092602 -0.28260761875089735
4697000000.0 0.946845190046502 -0.28081409080824504
4700000000.0 0.9851517005549973 -0.2747207876919504
4703000000.0 0.9768186703373432 -0.3271223032751591
4706000000.0 0.9630746183435246 -0.30102553054922115
4709000000.0 0.9451224866506471 -0.3093380594094708
4712000000.0 0.9258134022498816 -0.35341910569826485
4716000000.0 0.9385181097418417 -0.3432193185994818
4719000000.0 0.9434990119001214 -0.37069405702317143
4722000000.0 0.9382994649571623 -0.377073199823582
4725000000.0 0.9067644491971089 -0.40027789922831036
4728000000.0 0.9263577878127995 -0.3752489127875067
4731000000.0 0.9426052665826565 -0.3682422327231049
4734000000.0 0.9144366180694122 -0.3851500046060968
4738000000.0 0.9190546346559476 -0.4065716314055977
4741000000.0 0.9058979258337927 -0.4162966377878225
4744000000.0 0.9081252542190076 -0.44930341413966024
4747000000.0 0.9173331594816702 -0.4428951835103001
4750000000.0 0.8685236737808377 -0.4615742168819534
4753000000.0 0.9152828791137958 -0.4839285530973005
4756000000.0 0.8715659151958778 -0.4820897532604714
4759000000.0 0.8783260947406226 -0.4874721330488604
4762000000.0 0.8836178937710489 -0.511353500057493
4766000000.0 0.8756020925489487 -0.5057242161331655
4769000000.0 0.9001162786899469 -0.5169392408295063
4772000000.0 0.8716288246484035 -0.5155847482293036
4775000000.0 0.8542027231509854 -0.5624954775691087
4778000000.0 0.8591314006167403 -0.5151842144503227
4781000000.0 0.8631796308408389 -0.5123101500032058
4784000000.0 0.8522976622550839 -0.5329682586117325
4788000000.0 0.8449159228873059 -0.553511405363904
4791000000.0 0.8279121726029078 -0.5845455234793637
4794000000.0 0.8213747744367303 -0.5727713136910855
4797000000.0 0.8309001619821419 -0.5974652519057507
4800000000.0 0.8035208205526932 -0.6228415010506931
4803000000.0 0.7809647074013741 -0.5887082606845337
4806000000.0 0.8009224279594276 -0.6500295993950436
4809000000.0 0.7869190995884139 -0.6257506959356889
4812000000.0 0.7550866056113634 -0.6550839670491011
4816000000.0 0.7790956953906674 -0.6350982649131275
4819000000.0 0.8038582815274231 -0.6588778148498031
4822000000.0 0.7992300995907722 -0.688675579859463
4825000000.0 0.7807467436144322 -0.650569112139075
4828000000.0 0.7617853594047246 -0.6529626351821963
4831000000.0 0.738044757077188 -0.7057030804109365
4834000000.0 0.7630035147121216 -0.6988056282429278
4838000000.0 0.748163209686824 -0.7221225517659771
4841000000.0 0.712861571019108 -0.7084541704346788
4844000000.0 0.7268397815147114 -0.7024390218490372
4847000000.0 0.7146290689227903 -0.6908420749897908
4850000000.0 0.7031583953179807 -0.7411236503654586
4853000000.0 0.7140195024143378 -0.721139765707024
4856000000.0 0.6856850814408593 -0.7334484254474031
4859000000.0 0.7079421003134737 -0.7671553482796574
4862000000.0 0.6727236858991914 -0.7350062544709182
4866000000.0 0.6508315020875365 -0.7683315749490836
4869000000.0 0.6573706952524629 -0.7644628155619183
4872000000.0 0.6456073669159448 -0.77331029923297
4875000000.0 0.6933552085914803 -0.7689814066959607
4878000000.0 0.6379620674179863 -0.8017805642477152
4881000000.0 0.6571891462552657 -0.8441640370279684
4884000000.0 0.6392652488026116 -0.7803082401220961
4888000000.0 0.6429564788962078 -0.7758001519658131
4891000000.0 0.6387704177010629 -0.8101445087601198
4894000000.0 0.5868535406112887 -0.8225743872897953
4897000000.0 0.6190714426934683 -0.8071282595389504
4900000000.0 0.5743852948899592 -0.8483954207213532
4903000000.0 0.5917533009139405 -0.8313543005614028
4906000000.0 0.5762113911100244 -0.858299946178316
4909000000.0 0.5572273243460076 -0.8500479392273159
4912000000.0 0.575203716277179 -0.8758808668803502
4916000000.0 0.575858919594783 -0.8563736298491995
4919000000.0 0.54977731337581 -0.8685134639933186
4922000000.0 0.5642212446016209 -0.8554520113677949
4925000000.0 0.49700707121048315 -0.8451271272728423
4928000000.0 0.5699879809796141 -0.8457829075881921
4931000000.0 0.5389459597616988 -0.878180884825936
4934000000.0 0.5050648372426421 -0.8512802679382068
4938000000.0 0.44627871326001206 -0.9165225228081482
4941000000.0 0.4921091796926027 -0.8992232374780813
4944000000.0 0.46727876240166255 -0.8461375792028658
4947000000.0 0.45238650224944776 -0.8834389859945869
4950000000.0 0.4399745409698082 -0.8969397833123924
4953000000.0 0.4152279984941802 -0.9329656695795858
4956000000.0 0.42866533028983445 -0.9532174375331309
4959000000.0 0.4002083445958492 -0.9048717029206049
4962000000.0 0.42461258964888826 -0.9573898971928057
4966000000.0 0.46331977266809493 -0.9640986472486454
4969000000.0 0.43890708539151546 -0.9524798502592431
4972000000.0 0.3663649226880067 -0.9730443960675276
4975000000.0 0.40108518427634543 -0.9428287689642125
4978000000.0 0.39379576947889294 -0.9591484183189187
4981000000.0 0.38661351778892317 -0.9748464384868638
4984000000.0 0.37629022614054763 -0.9305544409628276
4988000000.0 0.37195752945853966 -0.9342438437215851
4991000000.0 0.4049712507828633 -0.960970660571894
4994000000.0 0.35286356324359797 -0.9305098856872754
4997000000.0 0.2945546256556054 -0.954396252830317
5000000000.0 0.34364450503502997 -1.0088023759237137
5003000000.0 0.34042133130122815 -0.993715684920809
5006000000.0 0.320769615263413 -1.0229117044513274
5009000000.0 0.2962377634045306 -0.9821336794571526
5012000000.0 0.2681189085712712 -0.974091957445903
5016000000.0 0.33005386828889255 -1.0293535748003542
5019000000.0 0.2401799713356949 -0.9889387217513881
5022000000.0 0.24842559499603456 -1.0004257688045506
5025000000.0 0.29985827264281456 -1.0578118913785381
5028000000.0 0.23099819337063127 -1.0123640377976992
5031000000.0 0.22133474744162285 -0.9966138171266271
5034000000.0 0.19240009614880074 -1.0409074574970738
5038000000.0 0.17748321831493388 -0.981568124595982
5041000000.0 0.25529600066793257 -0.9835664928598914
5044000000.0 0.2281561883573516 -0.9761612862500574
5047000000.0 0.23460246535964374 -1.0314090764709092
5050000000.0 0.24671114990991438 -0.9836378386963005
5053000000.0 0.14716719783712653 -1.079715599604015
5056000000.0 0.22963272597011697 -1.0144048349500139
5059000000.0 0.22370560078612212 -1.0079338918966192
5062000000.0 0.13189359017307287 -1.044003253247844
5066000000.0 0.19893067086262575 -0.9861633655790036
5069000000.0 0.13802594556658895 -1.0434856189849202
5072000000.0 0.11376294003456869 -0.9623380538779966
5075000000.0 0.10575862120555587 -1.0331228581646086
5078000000.0 0.04827372345929264 -1.0458613721254186
5081000000.0 0.103618439280602 -0.9921204781928471
5084000000.0 0.11984653227879996 -1.0493093698533893
5088000000.0 0.08116415628677802 -1.0162101716636425
5091000000.0 0.012069266366464201 -1.0489254867939344
5094000000.0 0.052105934863448077 -1.036422788894391
5097000000.0 0.10450790012212045 -1.0817227547585468
5100000000.0 0.0673001737405439 -1.0303044724562096
5103000000.0 0.04137172521925564 -1.020484130532631
5106000000.0 0.033520231428154135 -1.0590187307543253
5109000000.0 0.039301321208423605 -1.0017702742480188
5112000000.0 0.008366366300913258 -1.0294166007866314
5116000000.0 0.05924970753179104 -0.9618903254407194
5119000000.0 0.0006801288718661577 -1.05040781918104
5122000000.0 -0.00975351662729084 -1.0302786433327966
5125000000.0 -0.014599710504285959 -1.0242740611716408
5128000000.0 -0.06975435840278 -0.9890914320308974
5131000000.0 -0.03649872408987176 -0.9871041380363669
5134000000.0 -0.04767121679895649 -1.0092935731650774
5138000000.0 -0.04981866671974797 -1.0552071739863877
5141000000.0 0.01779080769888454 -1.0135278587834229
5144000000.0 -0.0650555658851972 -1.090063485358284
5147000000.0 -0.07906683539610102 -1.0378005239983659
5150000000.0 -0.06559544626741487 -0.9974171151994334
5153000000.0 -0.0957518363574607 -1.0032392152864984
5156000000.0 -0.13235337253404392 -1.0739158902968344
5159000000.0 -0.1006640562691909 -1.0775815614207451
5162000000.0 -0.1388351736506346 -0.9730217842442965
5166000000.0 -0.17186902695635065 -1.0774535391824347
5169000000.0 -0.14280156625533424 -1.0476724075202428
5172000000.0 -0.18343024840038355 -0.9805428397866128
5175000000.0 -0.1414726002877315 -1.0371515159024403
5178000000.0 -0.20813192676005465 -1.0194571297130939
5181000000.0 -0.16081955176173873 -1.076758750892633
5184000000.0 -0.23116877324488835 -1.0277708432686907
5188000000.0 -0.16837777802400408 -1.0080861615279482
5191000000.0 -0.20593972396635854 -1.0228608396151964
