! Created with skrf 1.8.0 (http://scikit-rf.org).
# Hz S RI R 50.0 
!freq ReS11 ImS11
4000000000.0 0.6217476445156707 0.7682028238512535
4003000000.0 0.6265145287990588 0.8896038999339407
4006000000.0 0.6705990074585142 0.7649065777460629
4009000000.0 0.6490210645234149 0.7802000645214239
4012000000.0 0.660622444000019 0.8413524070776661
4016000000.0 0.7068970271145675 0.7281274398117465
4019000000.0 0.6844903849485033 0.7799758959762864
4022000000.0 0.6481194586424732 0.8174714385887
4025000000.0 0.7564141112924944 0.7500265256847822
4028000000.0 0.7077031700817142 0.7363794204241707
4031000000.0 0.7009685045476476 0.7488816848902976
4034000000.0 0.6735936145604604 0.7350756154812484
4038000000.0 0.758652000826137 0.7545250323384067
4041000000.0 0.7359338456740816 0.7883488035861804
4044000000.0 0.7920819293698018 0.7854982784032661
4047000000.0 0.7267280213158152 0.7418314836856102
4050000000.0 0.7921116423501932 0.7381966829443917
4053000000.0 0.7781277316833529 0.6551768274318277
4056000000.0 0.7614247873527042 0.7110720425443356
4059000000.0 0.743963529069016 0.7428949698867442
4062000000.0 0.7937431814410981 0.6955132333912155
4066000000.0 0.7451311567828287 0.6293896762509241
4069000000.0 0.8481694245614259 0.6964699244042791
4072000000.0 0.7336254100839914 0.6513274599688492
4075000000.0 0.7724001762007155 0.7117996507178754
4078000000.0 0.8176475827577709 0.645216512336107
4081000000.0 0.7920753272502697 0.7059655468969938
4084000000.0 0.8409761554336861 0.6787949558084825
4088000000.0 0.7545641283169687 0.6415279056474322
4091000000.0 0.8424659280442706 0.6504949744316308
4094000000.0 0.8131472159274574 0.6345825594242037
4097000000.0 0.8272408949806147 0.6355792619086527
4100000000.0 0.8279241234599394 0.6591078842225027
4103000000.0 0.8400960512484004 0.6339716530915962
4106000000.0 0.8647007851532637 0.6262578070420449
4109000000.0 0.873402269077723 0.5809055900140365
4112000000.0 0.8590831636515219 0.5856439168443939
4116000000.0 0.8588142197288402 0.5788778841940414
4119000000.0 0.8887291395057163 0.5619389975327524
4122000000.0 0.8878792855037659 0.5523568811693627
4125000000.0 0.9146838833937652 0.5403563751046665
4128000000.0 0.8385891764797005 0.5511266785349433
4131000000.0 0.8823916376674623 0.5295644735839977
4134000000.0 0.8786468009571078 0.5738640002847024
4138000000.0 0.8665174198771517 0.4999656466963632
4141000000.0 0.8711477160456268 0.5501812391494354
4144000000.0 0.9089914169412915 0.5398741109910734
4147000000.0 0.9185282851637939 0.505043505061505
4150000000.0 0.9276472965564064 0.5547828342699528
4153000000.0 0.9161502940737033 0.5136536944257537
4156000000.0 0.9237188141380266 0.4958370140260383
4159000000.0 0.8754338315769548 0.49560580504993873
4162000000.0 0.9061295926843096 0.48428631241728737
4166000000.0 0.9224173705785439 0.48229435953472155
4169000000.0 0.9372341992558648 0.4490153890877565
4172000000.0 0.9243013396766881 0.4664372763761177
4175000000.0 0.9028789878925241 0.4778441319870525
4178000000.0 0.940180138395603 0.4556904274484297
4181000000.0 0.9265683478759055 0.43904313196810185
4184000000.0 0.9352227829824656 0.4342591252005454
4188000000.0 0.9282733116449551 0.41800602562241373
4191000000.0 0.9147857496654404 0.433779967068669
4194000000.0 0.9299984328219478 0.36908496686719716
4197000000.0 0.9439263143027126 0.39422627301600427
4200000000.0 0.9551061433674999 0.38013614407299223
4203000000.0 0.9587125728329232 0.3895760364325699
4206000000.0 0.979736841394719 0.3946738782792815
4209000000.0 0.9635993869624793 0.3663964303624199
4212000000.0 0.9634238121813999 0.3254372910339033
4216000000.0 0.9469254059294526 0.3509264272050094
4219000000.0 0.9857404511711687 0.3550233997898916
4222000000.0 0.9666083315698282 0.3128314803407299
4225000000.0 0.948060923295019 0.330000937821991
4228000000.0 0.9618980873873704 0.3340177459770277
4231000000.0 0.987171547310229 0.29802411974500453
4234000000.0 0.9834346237174497 0.29509590785197
4238000000.0 0.9844074475152522 0.27938730965667025
4241000000.0 0.9800483680421024 0.26760625437235136
4244000000.0 0.9784829823205532 0.27250935760794165
4247000000.0 0.9793621600311123 0.26747871009255547
4250000000.0 0.9742377548817178 0.25477606176273526
4253000000.0 0.9717331294558371 0.24573195187780383
4256000000.0 1.016278762186511 0.2573668393237832
4259000000.0 0.9591938188763192 0.21235622268817708
4262000000.0 0.9956195740717597 0.22204983629350875
4266000000.0 1.021565610531683 0.16671495307062273
4269000000.0 1.0081724943380452 0.22989619579217388
4272000000.0 0.9893954313189436 0.18759644525104519
4275000000.0 1.0084219506199117 0.18906968869742785
4278000000.0 1.0326811142675347 0.19435416612915646
4281000000.0 1.0122379159486583 0.17325704770117917
4284000000.0 1.0180243823465287 0.13937739662542148
4288000000.0 1.0134716893366182 0.18333795420394988
4291000000.0 0.9809332122755017 0.15184493815526356
4294000000.0 1.0113218665186796 0.14901134750048567
4297000000.0 0.9890295414460996 0.14607263072055587
4300000000.0 1.0076506838716 0.12857130309104778
4303000000.0 0.99968191992731 0.09640949745865264
4306000000.0 1.0220473690036072 0.13694026580109764
4309000000.0 0.988359373508758 0.07513933976887217
4312000000.0 1.0368902178268815 0.12001170789302484
4316000000.0 1.0192241495874943 0.07120947762689243
4319000000.0 0.989446983097835 0.07783145156909867
4322000000.0 0.9882800817171346 0.02267779262765328
4325000000.0 1.0167255363102168 0.08648713739171042
4328000000.0 1.0282955704856673 0.028615075279670096
4331000000.0 1.0295346586473544 0.010939914645478749
4334000000.0 1.015726027338765 0.009324254573117946
4338000000.0 1.0159560174939326 0.04240991913726162
4341000000.0 1.0456714333509487 0.02604404765081711
4344000000.0 1.0304746034807135 0.005004169792362068
4347000000.0 1.0204616834506612 -0.036820713725503385
4350000000.0 0.982864461900201 -0.02062895723372518
4353000000.0 1.003704121746468 0.021965608473112186
4356000000.0 1.0206736701596928 -0.06661766707871702
4359000000.0 0.9555520647994115 -0.03140523845928456
4362000000.0 1.0258728681189264 -0.1003576528226756
4366000000.0 1.0315081590800397 -0.06258702342230901
4369000000.0 0.9722294539547464 -0.06357920987835647
4372000000.0 0.9825978591137989 -0.11126923957104322
4375000000.0 1.0059533074237264 -0.06128944430001787
4378000000.0 0.9680274041503358 -0.08570350426365433
4381000000.0 0.9792620233456479 -0.08768695811490705
4384000000.0 1.0690411240568474 -0.13402327441846973
4388000000.0 0.9841953716363947 -0.10921659891047446
4391000000.0 1.0253076769154128 -0.13469540660880008
4394000000.0 0.9781450065164824 -0.1460721812312891
4397000000.0 1.002266420783292 -0.15037026719413715
4400000000.0 1.0358111208826066 -0.16725727613675767
4403000000.0 1.0197481676148674 -0.1702633806564742
4406000000.0 1.002431030385394 -0.20423352407330558
4409000000.0 1.016679485844133 -0.18400248910873507
4412000000.0 0.9734078457973591 -0.25209023627740634
4416000000.0 0.9764501564464438 -0.21444171394846107
4419000000.0 0.9935939998472384 -0.22731426032828328
4422000000.0 0.9907023702270779 -0.20974701232590823
4425000000.0 1.007050047566898 -0.2041595468068309
4428000000.0 0.984251845644521 -0.24148735778956176
4431000000.0 1.0177970085986352 -0.2372566525117618
4434000000.0 0.9642818174335911 -0.2571349479818726
4438000000.0 1.0009088012252154 -0.27476671724339324
4441000000.0 0.9975532452239706 -0.2639984213399524
4444000000.0 0.9620164242232456 -0.27260990950988345
4447000000.0 0.9553200139937678 -0.3072330204603635
4450000000.0 0.9551441134020874 -0.28949509395057466
4453000000.0 0.9832450417389887 -0.2886629153120023
4456000000.0 0.938348033641335 -0.3165754916909506
4459000000.0 0.911999962377605 -0.3293551593394388
4462000000.0 1.0106566056650128 -0.3582273178073211
4466000000.0 0.9958222757364401 -0.3681184724958025
4469000000.0 0.9598071048642333 -0.3381291143092324
4472000000.0 0.9671033851018729 -0.3840333616838515
4475000000.0 0.9095073755898387 -0.33626109621757894
4478000000.0 0.9608695871587166 -0.411007894198836
4481000000.0 0.9088451014098585 -0.3802921920775173
4484000000.0 0.91679501722428 -0.41732537316539
4488000000.0 0.9238249675315667 -0.4050780033018288
4491000000.0 0.9285449444989646 -0.41804280243548364
4494000000.0 0.9061252808509421 -0.41322132178139587
4497000000.0 0.9326539357759769 -0.4076251520210847
4500000000.0 0.9105383835282355 -0.43732827612398767
4503000000.0 0.9321990859637943 -0.4399337149699232
4506000000.0 0.9032906021118219 -0.4311563804407699
4509000000.0 0.8764896437774008 -0.44402143677102857
4512000000.0 0.8624131454958754 -0.46773231643807345
4516000000.0 0.9180494533816217 -0.47379370904628376
4519000000.0 0.8744229278377101 -0.46717799895571227
4522000000.0 0.887802456044197 -0.4859679625395298
4525000000.0 0.8891328487153562 -0.4686848082473233
4528000000.0 0.9025559661657563 -0.5109083663631365
4531000000.0 0.8881155639432357 -0.5077809586007523
4534000000.0 0.8347858095750469 -0.5038583116260396
4538000000.0 0.8552167319336765 -0.5277084552485012
4541000000.0 0.8356556878270005 -0.54422383761676
4544000000.0 0.8434013792553232 -0.5201042503796527
4547000000.0 0.8338621344743498 -0.5309596492233561
4550000000.0 0.8467049933032711 -0.584662618738115
4553000000.0 0.8272611072038389 -0.5663834989224957
4556000000.0 0.8090665837722864 -0.5575343304012936
4559000000.0 0.8332772795456282 -0.5974146315835784
4562000000.0 0.8350675208978522 -0.579235989916826
4566000000.0 0.8188453202820116 -0.617602485572484
4569000000.0 0.7999758516557979 -0.5837608614651097
4572000000.0 0.8010788838780284 -0.60721171679911
4575000000.0 0.806268954892245 -0.6451123056882531
4578000000.0 0.8340611934533502 -0.6078713097997571
4581000000.0 0.786523455907673 -0.6295043641841758
4584000000.0 0.7829956054080589 -0.6381011321402219
4588000000.0 0.7955850807981661 -0.6453728934771557
4591000000.0 0.7843981258495013 -0.6373559914561505
4594000000.0 0.7580347289548608 -0.6808635125392296
4597000000.0 0.7788315406636832 -0.6698494717131503
4600000000.0 0.7367312481039523 -0.6807296512835616
4603000000.0 0.7560030054774994 -0.6916779275112016
4606000000.0 0.7584975160113522 -0.6768765302886365
4609000000.0 0.7464333481342768 -0.6968919848552959
4612000000.0 0.7493524643836078 -0.693787983103174
4616000000.0 0.7266563321230939 -0.6965396360538907
4619000000.0 0.7196844924560063 -0.6998162264126814
4622000000.0 0.733013981366074 -0.70550286483882
4625000000.0 0.6610355952687609 -0.7138815145267768
4628000000.0 0.6965370654005336 -0.7089299233639835
4631000000.0 0.6825880756962803 -0.740550301508789
4634000000.0 0.6862720076493886 -0.7412636680453125
4638000000.0 0.6911877784057708 -0.7508751872122658
4641000000.0 0.6871997287459947 -0.7557016883259148
4644000000.0 0.6803745136870845 -0.7573316051645285
4647000000.0 0.6802468133805599 -0.7628447851682795
4650000000.0 0.6540205002935949 -0.7591907127462096
4653000000.0 0.6612327535139272 -0.7797267428030393
4656000000.0 0.6307481867131013 -0.7773383338694921
4659000000.0 0.6264197148549477 -0.7894368649942054
4662000000.0 0.6432785880129482 -0.7981798089207557
4666000000.0 0.6070829081073711 -0.7926350036844054
4669000000.0 0.638672803190288 -0.7875977691880477
4672000000.0 0.6003546877742642 -0.8145213822632643
4675000000.0 0.5869626646899435 -0.8464629274255447
4678000000.0 0.5822770099431605 -0.803917729929411
4681000000.0 0.5709051652595978 -0.834290013393692
4684000000.0 0.5493703304942246 -0.8522097144135187
4688000000.0 0.5494545122066821 -0.8325793996845865
4691000000.0 0.5859149499121329 -0.8585398166228617
4694000000.0 0.5783124047502359 -0.8352114805325399
4697000000.0 0.49880273788528484 -0.8349308859354276
4700000000.0 0.5609398193179427 -0.8122335900997129
4703000000.0 0.538742483586197 -0.8433399493499583
4706000000.0 0.5238760470645047 -0.8791506659569557
4709000000.0 0.5012662236057108 -0.8701407763752848
4712000000.0 0.5298482230649755 -0.8768048346948148
4716000000.0 0.5099792991172016 -0.8795362305584278
4719000000.0 0.5104709278028473 -0.8625135039471047
4722000000.0 0.5134520898218162 -0.8869904132476949
4725000000.0 0.4691807582310605 -0.8869975841176139
4728000000.0 0.48790188414594027 -0.8798561029363614
4731000000.0 0.49497310689408536 -0.9188280631237316
4734000000.0 0.4733841675482582 -0.8884718081043834
4738000000.0 0.5017222668001717 -0.9307389519913388
4741000000.0 0.43357012849838406 -0.9368102521731747
4744000000.0 0.43211198936881046 -0.9332053609725897
4747000000.0 0.4327925933528891 -0.9093656280678323
4750000000.0 0.43470050938462523 -0.9403959928651143
4753000000.0 0.42786289201695593 -0.9330408655279067
4756000000.0 0.4194424411297703 -0.9471123870914584
4759000000.0 0.4124999393120951 -0.9435519634164982
4762000000.0 0.39151281115992853 -0.9574174803626576
4766000000.0 0.3801195161746069 -0.9383408338051238
4769000000.0 0.3689992587160947 -0.9701757265210728
4772000000.0 0.36936504403564885 -0.9712929164242022
4775000000.0 0.34391893194940326 -1.0078851817764867
4778000000.0 0.36235587685612264 -0.980858906245294
4781000000.0 0.3813954283905546 -0.9671925504112064
4784000000.0 0.37402279516809955 -0.9638320790463383
4788000000.0 0.2975581435852578 -1.0046157641132145
4791000000.0 0.3368283781618995 -0.9472012523722514
4794000000.0 0.31870432363521667 -1.0077769129678684
4797000000.0 0.2985385672196513 -0.9649937751681669
4800000000.0 0.25827950745486117 -0.9567397132254887
4803000000.0 0.2675622798385956 -0.9774069477742462
4806000000.0 0.26616906501282533 -0.9769673895460049
4809000000.0 0.23645201750870723 -0.9804086376881488
4812000000.0 0.22968365819943054 -0.989005508704522
4816000000.0 0.2859837705180252 -0.9700472485157252
4819000000.0 0.2754349925771743 -1.0280722415446575
4822000000.0 0.2557984557509672 -1.0005143737013333
4825000000.0 0.2489157946363439 -1.0069768013311253
4828000000.0 0.226961227429623 -1.0023729061000974
4831000000.0 0.1828872386243549 -1.0319421318498654
4834000000.0 0.2257238046167136 -1.0124992899264222
4838000000.0 0.18301823976164272 -1.0302702451630765
4841000000.0 0.17631826805178424 -0.9964654595467936
4844000000.0 0.2280029130289085 -1.0146720586434483
4847000000.0 0.18791646801205944 -0.9904944804579812
4850000000.0 0.16570213754489757 -1.040798670585352
4853000000.0 0.16041991257347055 -0.9928993503042962
4856000000.0 0.14279180531911223 -0.9904585564008456
4859000000.0 0.13138594544027046 -1.0359399647461052
4862000000.0 0.15017621627639 -0.997360887997255
4866000000.0 0.1015893359626272 -1.0445780622633238
4869000000.0 0.100593167131466 -1.034084501093393
4872000000.0 0.10163914876673548 -1.0414224255358018
4875000000.0 0.1395574694707901 -1.0652316378535667
4878000000.0 0.06916784375058438 -1.0219566907761493
4881000000.0 0.06346539111761472 -1.0898658352653623
4884000000.0 0.09395492251518227 -1.0246131674723593
4888000000.0 0.1171917304728514 -1.0081840903396078
4891000000.0 0.06490576617185162 -1.038126405035986
4894000000.0 -0.005768384593165076 -1.040681524545679
4897000000.0 0.06514824636273148 -1.0101114145022083
4900000000.0 0.017600622591698353 -1.0392094752673122
4903000000.0 0.03891383010019757 -1.0621048420048809
4906000000.0 0.021884268833660406 -1.0408044451319565
4909000000.0 -0.021986157865535906 -1.0368643165997768
4912000000.0 -0.042501574890416505 -1.0901841564974
4916000000.0 0.02591605854904852 -1.0527387134319204
4919000000.0 0.022368315527490273 -1.0626955294059481
4922000000.0 -0.004324547055701358 -1.0445351141385841
4925000000.0 -0.051686352672983965 -1.0218430780031633
4928000000.0 -9.388711864663501e-06 -0.9851114952946622
4931000000.0 -0.009147031224439495 -1.0664617545500599
4934000000.0 -0.06211792298335543 -0.9903394083839319
4938000000.0 -0.08600551123128229 -1.0227867764971077
4941000000.0 -0.07409890991603767 -1.0360963286586813
4944000000.0 -0.07358293918050629 -0.954624843213512
4947000000.0 -0.10238344434346167 -0.9980689124256431
4950000000.0 -0.11787324516584881 -0.9826724305431154
4953000000.0 -0.15279592669940578 -1.0383287837225883
4956000000.0 -0.15530874433582909 -1.0355803706277362
4959000000.0 -0.13691791315631321 -0.9886736969353105
4962000000.0 -0.10705944127309527 -1.0528856361240768
4966000000.0 -0.1208739409054671 -1.0688922034160855
4969000000.0 -0.1328589484897309 -1.0907167468610506
4972000000.0 -0.15895259839710799 -1.0268741608203955
4975000000.0 -0.14981839166707359 -1.0352703553541096
4978000000.0 -0.1865702869852176 -1.0260425686099213
4981000000.0 -0.20063901132412557 -0.9962475577748857
4984000000.0 -0.17115988499416337 -1.0043770891718713
4988000000.0 -0.16415303924188657 -0.9991207322511688
4991000000.0 -0.15963750224617745 -1.067878862314331
4994000000.0 -0.227646608179003 -0.9943350758433909
4997000000.0 -0.2697214480153676 -0.9943066170808925
5000000000.0 -0.23315514085273586 -1.0589777928636324
5003000000.0 -0.20947220810591954 -1.0328359651092054
5006000000.0 -0.23599593511784342 -1.0864208396436266
5009000000.0 -0.21231160093785226 -0.9995168380621756
5012000000.0 -0.2884587881755218 -1.0044470581768377
5016000000.0 -0.26188043391757904 -1.044472618053061
5019000000.0 -0.28965181322949496 -1.0072355391947734
5022000000.0 -0.29016035640716276 -0.9802334038494336
5025000000.0 -0.2894401609370498 -1.0677005146916991
5028000000.0 -0.33417319478746255 -0.9858139385317983
5031000000.0 -0.31472502163015637 -0.9789657535621573
5034000000.0 -0.3458369658705357 -1.0289792127531436
5038000000.0 -0.3271314321095534 -0.9338190432284315
5041000000.0 -0.2988165636293255 -1.0126268290417508
5044000000.0 -0.3090069216376824 -0.9431172326154654
5047000000.0 -0.34723318623837746 -0.975740066133166
5050000000.0 -0.27517428785440634 -0.9914009294856225
5053000000.0 -0.402430917094603 -1.0031585998843762
5056000000.0 -0.34251647618521397 -0.9966825436984119
5059000000.0 -0.3223907290614268 -0.9877929795253059
5062000000.0 -0.3958816325766865 -0.9780187687944599
5066000000.0 -0.33908708445328095 -0.9763709518649109
5069000000.0 -0.40737042337354923 -0.9746513126050002
5072000000.0 -0.39619852799879446 -0.9462087671937616
5075000000.0 -0.39129036055337396 -0.951450839592034
5078000000.0 -0.44830308804428903 -0.9233879519572221
5081000000.0 -0.4143066058708194 -0.8978982115306734
5084000000.0 -0.4885621744646037 -0.9666721968425076
5088000000.0 -0.4268340004097473 -0.9561315501440673
5091000000.0 -0.45102377578832425 -0.939691635157909
5094000000.0 -0.4579442920452185 -0.9387586722349569
5097000000.0 -0.4798426816812821 -0.9296953137804418
5100000000.0 -0.4336641771329321 -0.8918962189329692
5103000000.0 -0.5145389793635583 -0.8966298900136617
5106000000.0 -0.47127352255448157 -0.9397829611792441
5109000000.0 -0.4549757987122552 -0.9036218845051556
5112000000.0 -0.5349627871150223 -0.9160764982303218
5116000000.0 -0.4961669305560701 -0.8519718811754793
5119000000.0 -0.5900689719445026 -0.9022288071630129
5122000000.0 -0.5118676824267023 -0.9338932852169728
5125000000.0 -0.47353741115605497 -0.9241995488402485
5128000000.0 -0.5233521572839093 -0.9111228551334907
5131000000.0 -0.5215554472126624 -0.8844778816926638
5134000000.0 -0.5419560821062654 -0.865247323022341
5138000000.0 -0.5337270316197866 -0.892463693127241
5141000000.0 -0.5377587006783431 -0.9328241097092111
5144000000.0 -0.5638148210020023 -0.8607266579901566
5147000000.0 -0.5416037105667693 -0.8955178543931079
5150000000.0 -0.5786489631379672 -0.9465861064297535
5153000000.0 -0.5412689935214785 -0.8125559944143809
5156000000.0 -0.5793600566253593 -0.8977947976401641
5159000000.0 -0.6635142766614982 -0.878555202055077
5162000000.0 -0.6366589981437805 -0.851804745925887
5166000000.0 -0.6731924086680455 -0.8523485744751138
5169000000.0 -0.6221673157335691 -0.8624116492972254
5172000000.0 -0.6173480276957591 -0.858171051565496
5175000000.0 -0.617792631056245 -0.8668362515591722
5178000000.0 -0.6485811137274651 -0.8073465416067361
5181000000.0 -0.6491042926452423 -0.8566863423034806
5184000000.0 -0.6568225602186396 -0.7870792100695254
5188000000.0 -0.6326095208788496 -0.8054664930853639
