! Created with skrf 1.8.0 (http://scikit-rf.org).
# Hz S RI R 50.0 
!freq ReS11 ImS11
4000000000.0 0.6987595307716514 0.778316977169538
4003000000.0 0.750708430490405 0.8033208302317448
4006000000.0 0.7184138337839729 0.7679652626059069
4009000000.0 0.7249624731179927 0.7380224986329675
4012000000.0 0.7266116003679967 0.7925545334763997
4016000000.0 0.7485057937711579 0.7393412841622014
4019000000.0 0.7466963318156998 0.738258231796123
4022000000.0 0.6900797873279922 0.8094354830627101
4025000000.0 0.775702747868801 0.7446605229952913
4028000000.0 0.760262689773264 0.7323549239670109
4031000000.0 0.7388271298121332 0.7259367606782295
4034000000.0 0.7688493844025007 0.679370261401046
4038000000.0 0.8183565782932648 0.6684741723849361
4041000000.0 0.7992705053012232 0.7171252522998868
4044000000.0 0.7913845156367961 0.6948147491611364
4047000000.0 0.7899253124126607 0.6962454558290389
4050000000.0 0.7914800202166501 0.6913850011641421
4053000000.0 0.788355196321441 0.6109806052520006
4056000000.0 0.7909840443282603 0.6559468710648074
4059000000.0 0.7626715009130413 0.641536457611674
4062000000.0 0.8325319000220814 0.5945920725985032
4066000000.0 0.768285695247886 0.5989049572384734
4069000000.0 0.8689292633480982 0.598576069042055
4072000000.0 0.8450437177281603 0.6305265003617222
4075000000.0 0.8017518391333945 0.6366883829457874
4078000000.0 0.8657980768103143 0.6229746839026089
4081000000.0 0.8314165270728046 0.6520434365601632
4084000000.0 0.8847657950161016 0.5911617063230741
4088000000.0 0.8408864238173351 0.6175425854129994
4091000000.0 0.93021774993194 0.6199278657902301
4094000000.0 0.8556236438277942 0.5854205681837263
4097000000.0 0.8553133523366496 0.5915016436642617
4100000000.0 0.8602270264540254 0.5673530833955247
4103000000.0 0.936716362748697 0.6024253282409322
4106000000.0 0.9030428046121696 0.5519057040424596
4109000000.0 0.9016572289897566 0.5244183234262143
4112000000.0 0.8899958711801057 0.5327115624087162
4116000000.0 0.877561952586825 0.5590487569554724
4119000000.0 0.9265571004035571 0.4937851933416134
4122000000.0 0.9141558213575639 0.47872760138687764
4125000000.0 0.9134587675378348 0.4917478747432738
4128000000.0 0.8334412444486501 0.49921427815657327
4131000000.0 0.9067433550695198 0.47611660571355374
4134000000.0 0.8663934783712198 0.48239335728377064
4138000000.0 0.941476246285303 0.4183198207455416
4141000000.0 0.89528037346719 0.45716563702355095
4144000000.0 0.9132214659115178 0.4919206961711952
4147000000.0 0.9063906360781587 0.4445151864046543
4150000000.0 0.9530797329210272 0.45675552518974466
4153000000.0 0.9541567073509204 0.4288351580329619
4156000000.0 0.9606585889718886 0.45532064549685414
4159000000.0 0.9194100834830141 0.40585714518631094
4162000000.0 0.9307253383150043 0.37952638176253495
4166000000.0 0.9843304854138331 0.39554486362693386
4169000000.0 0.9578133988360443 0.37149831818068557
4172000000.0 0.9558899689903435 0.39028466762049746
4175000000.0 0.9738426785178685 0.35760060235638963
4178000000.0 0.9586454739047833 0.3670332986181086
4181000000.0 0.9881056358392306 0.34951352703685956
4184000000.0 0.9630146506163044 0.33744106689657444
4188000000.0 0.9805413641298764 0.343501963178769
4191000000.0 0.9368252989808722 0.36026501506014347
4194000000.0 0.9710639262520169 0.3175800803429306
4197000000.0 0.9921673002799126 0.3214715032169568
4200000000.0 0.9580985008058283 0.3280893963403191
4203000000.0 0.9921374729683173 0.31993255622027494
4206000000.0 0.990513489351362 0.2958728900896043
4209000000.0 0.9629566652197236 0.29103943950759276
4212000000.0 0.9864736294836507 0.2607660705657807
4216000000.0 0.9784644562935825 0.27606567059468007
4219000000.0 0.9992056826619513 0.27624748358263285
4222000000.0 1.0009580039768673 0.23795674108851583
4225000000.0 0.9735536476315687 0.23067465159429792
4228000000.0 0.9989089911860498 0.22429372246478443
4231000000.0 1.0009410611407397 0.21937217133830694
4234000000.0 1.0088946406880033 0.20386882163331949
4238000000.0 1.0216633641899495 0.2106257490236255
4241000000.0 1.0055523084250788 0.1938632811813728
4244000000.0 0.9977001552031272 0.17823936924998918
4247000000.0 0.9968659934836149 0.20101108905092308
4250000000.0 1.001873483788343 0.16970220783572038
4253000000.0 0.9868237926485701 0.1489882457516824
4256000000.0 1.0235258503589149 0.15834219704756708
4259000000.0 0.9827707262280362 0.14898318953506715
4262000000.0 1.0076604745996125 0.13654920107025117
4266000000.0 1.0263990700809447 0.11161607249956917
4269000000.0 1.0188377298525024 0.11619207478849028
4272000000.0 1.0283113476686487 0.11961073228751812
4275000000.0 1.0235824703169818 0.09324573945256937
4278000000.0 1.0277393361895202 0.10533220133249463
4281000000.0 1.0245887219991632 0.09475177413592466
4284000000.0 1.0471875582652572 0.04496985434815598
4288000000.0 1.0296293015797047 0.09668715519828505
4291000000.0 1.002323887781301 0.061283890819670186
4294000000.0 1.0087575277946519 0.03685607837374087
4297000000.0 1.0039626386272966 0.05377273182153816
4300000000.0 1.011545459621348 0.027369888629489282
4303000000.0 1.0283191765633117 -0.004869410493226575
4306000000.0 1.0233053159338965 0.03842344247906074
4309000000.0 0.9958586743550226 0.00540289127011806
4312000000.0 1.0578548153949718 0.047992701747620256
4316000000.0 1.0319050850028257 0.015394228910528551
4319000000.0 1.014225746689874 -0.0007794398028511118
4322000000.0 0.9955870529791583 -0.053175790835644436
4325000000.0 1.0303909276226098 -0.01542154907270929
4328000000.0 1.0139447619597188 -0.05475055525286823
4331000000.0 1.022644174966032 -0.09854698724528105
4334000000.0 1.0145214508956473 -0.06209069459367392
4338000000.0 0.9965326383478321 -0.07002926811046266
4341000000.0 1.0410917548644194 -0.04408945263382981
4344000000.0 1.0377118555572966 -0.10255470037934741
4347000000.0 1.035309816248256 -0.13162749654211886
4350000000.0 0.9899362663255192 -0.12489987582641701
4353000000.0 1.0021520436172706 -0.08016109919775227
4356000000.0 1.0074411500944205 -0.15513272385746532
4359000000.0 0.9467794773266827 -0.15514849173581835
4362000000.0 0.9996633347069781 -0.17953339055074202
4366000000.0 1.011288144077039 -0.16024067433849398
4369000000.0 0.9834546233090492 -0.1645919007619406
4372000000.0 0.9821164934456754 -0.20085419706252977
4375000000.0 0.9985857144064085 -0.16138462002428286
4378000000.0 0.9652340121559806 -0.17542849591304913
4381000000.0 0.9824403612490129 -0.18665857212268233
4384000000.0 1.0469753755038842 -0.22964273567538335
4388000000.0 0.9724366487832249 -0.21518054914206247
4391000000.0 1.01599924290484 -0.2232863101287713
4394000000.0 0.9602809480441914 -0.2401193613246497
4397000000.0 0.9794213843283648 -0.25649871614338837
4400000000.0 1.0039978145606963 -0.25936723123790284
4403000000.0 0.9899027560293927 -0.2540502655383197
4406000000.0 0.9689017056487634 -0.27943756966661787
4409000000.0 0.9887622627208668 -0.28247909835445506
4412000000.0 0.9549391225766235 -0.3299753473744932
4416000000.0 0.9603921213871633 -0.3177069706039042
4419000000.0 0.9623251683978942 -0.32595380755566594
4422000000.0 0.960759096218688 -0.29331643985580963
4425000000.0 0.9854315396712087 -0.30291278444105063
4428000000.0 0.9560994033527089 -0.33757253333109705
4431000000.0 0.969077883340443 -0.3373421484662159
4434000000.0 0.9333794521293804 -0.35311536396507803
4438000000.0 0.9901856161951275 -0.352828161141597
4441000000.0 0.962864191604851 -0.36893725215521894
4444000000.0 0.9290242130561481 -0.36107741535003857
4447000000.0 0.9353175581380053 -0.3822789042006961
4450000000.0 0.9337619129973662 -0.36286772842509757
4453000000.0 0.9684223420758795 -0.41720149990154654
4456000000.0 0.8928759637341009 -0.41066234208729724
4459000000.0 0.8854101298611314 -0.4069486879152979
4462000000.0 0.9768894554575858 -0.4429166158006236
4466000000.0 0.9509263663438973 -0.4571341817828214
4469000000.0 0.920811857587865 -0.40395248441297155
4472000000.0 0.9175095564693131 -0.4735412381757826
4475000000.0 0.8806321456422084 -0.4554051512274434
4478000000.0 0.9277540982682628 -0.5086141773221836
4481000000.0 0.8548577263009212 -0.4790936375715457
4484000000.0 0.872932401990729 -0.5148055531990413
4488000000.0 0.8631498463786084 -0.488594096708003
4491000000.0 0.8781704197031824 -0.501475836493591
4494000000.0 0.8802337245536713 -0.5034636647146848
4497000000.0 0.8678962844444589 -0.5033746570574101
4500000000.0 0.8738139801339084 -0.5092300892259161
4503000000.0 0.897775643274696 -0.5357517917763617
4506000000.0 0.8489533378908465 -0.5509251615474687
4509000000.0 0.8399443050445028 -0.5395368487559148
4512000000.0 0.8329022129103106 -0.5540699552524468
4516000000.0 0.8663596152538042 -0.563451822234053
4519000000.0 0.8302728868331316 -0.5515048605110472
4522000000.0 0.8419154550619534 -0.5790371501574588
4525000000.0 0.8423939324924647 -0.5567997724206702
4528000000.0 0.8435361789793681 -0.609627202480101
4531000000.0 0.8438590732782563 -0.581073674129193
4534000000.0 0.7945489071295624 -0.5942559735544674
4538000000.0 0.7937080193284818 -0.5970660859685709
4541000000.0 0.7680296360190362 -0.6315420387747894
4544000000.0 0.7800920911531832 -0.6326586614133373
4547000000.0 0.7926391132495813 -0.6187823882632952
4550000000.0 0.7847630953466611 -0.6591470161593556
4553000000.0 0.7760243828005153 -0.6555460571866571
4556000000.0 0.7479070952420828 -0.6623416949962369
4559000000.0 0.7671880450891979 -0.676675983246255
4562000000.0 0.7541771139837845 -0.693509452227651
4566000000.0 0.7548047445465753 -0.6823706242479157
4569000000.0 0.7398218633340445 -0.6857892221653441
4572000000.0 0.7324016874880479 -0.6936605468550847
4575000000.0 0.7316445711790525 -0.728594018084047
4578000000.0 0.746417504385718 -0.7270206678953696
4581000000.0 0.7141286775228085 -0.7196750850659624
4584000000.0 0.6996050688154007 -0.7160408833515838
4588000000.0 0.7243957567580226 -0.7406677285357975
4591000000.0 0.7193889520064135 -0.7301915147995821
4594000000.0 0.6788669810143446 -0.7473021980560245
4597000000.0 0.6841201459961785 -0.758603598484884
4600000000.0 0.6662517921775878 -0.7694910058578495
4603000000.0 0.6712722588942236 -0.7635159947989206
4606000000.0 0.6929698161934443 -0.7685378419891155
4609000000.0 0.6658885311986985 -0.7715299788937746
4612000000.0 0.6546833086801136 -0.7779123829082243
4616000000.0 0.6477443637545037 -0.7930133081269295
4619000000.0 0.6500199848487543 -0.773293577863421
4622000000.0 0.6306437212066639 -0.7909522742283717
4625000000.0 0.5937918922943003 -0.8049621172697212
4628000000.0 0.6416963786809298 -0.8118101670884762
4631000000.0 0.6041548073117904 -0.8058447184951353
4634000000.0 0.5968896174563144 -0.8366052597345989
4638000000.0 0.6030461532011189 -0.8253594615453912
4641000000.0 0.6052565635061082 -0.8235264913983614
4644000000.0 0.5718762615905396 -0.8354994270652801
4647000000.0 0.5745191346916996 -0.8337366656727492
4650000000.0 0.5487917082256626 -0.8364921775728238
4653000000.0 0.5802100574007049 -0.8464393636191434
4656000000.0 0.5419441064383528 -0.8569007660853156
4659000000.0 0.5399265998179932 -0.8669886887732112
4662000000.0 0.5521192160840042 -0.8573514986659561
4666000000.0 0.5043161299864259 -0.8833408927706066
4669000000.0 0.5332025408491097 -0.8831091649352412
4672000000.0 0.5043376851794298 -0.9206920147459758
4675000000.0 0.4934585343197045 -0.8989201389053744
4678000000.0 0.4894220368343867 -0.8862586828938774
4681000000.0 0.4660135837761361 -0.8945629803884511
4684000000.0 0.456263985198478 -0.939737885755743
4688000000.0 0.4527501460664934 -0.9208635934648711
4691000000.0 0.4811691604388184 -0.9196221174108827
4694000000.0 0.45921560084667157 -0.9087695419193793
4697000000.0 0.41957735248814343 -0.9112992362457764
4700000000.0 0.4425716762051797 -0.92996650481786
4703000000.0 0.4456136107620306 -0.8821770422368691
4706000000.0 0.4077911665831069 -0.950309064346725
4709000000.0 0.4121008926066834 -0.9409219504830877
4712000000.0 0.39792581992147935 -0.9545631641504809
4716000000.0 0.3926237644067636 -0.9397834013544848
4719000000.0 0.4421948509136426 -0.9382973554293641
4722000000.0 0.3909705207390566 -0.9413810587483653
4725000000.0 0.367166524005398 -0.9360378920141632
4728000000.0 0.32568661661927045 -0.9339509082278898
4731000000.0 0.38232917176275044 -0.9863872978209396
4734000000.0 0.37984191849606425 -0.9040896382135793
4738000000.0 0.3794775743589792 -0.9996361540605441
4741000000.0 0.324090014274696 -0.9938148304875866
4744000000.0 0.3317428332426851 -0.9737092985283748
4747000000.0 0.3392008462800173 -0.9177489188028751
4750000000.0 0.3052426844711049 -0.984782768866785
4753000000.0 0.2968535868168071 -0.9784609582573407
4756000000.0 0.29425512441911184 -1.006201031228256
4759000000.0 0.2875644479250896 -1.0243025745422218
4762000000.0 0.23372738256999384 -1.0194536320084644
4766000000.0 0.24853713240842742 -0.995436377839953
4769000000.0 0.23866023844277987 -0.990245828043509
4772000000.0 0.2624425336484792 -0.9939795137285793
4775000000.0 0.21320145967578522 -1.028937379960442
4778000000.0 0.22083399575560023 -1.0061061494930055
4781000000.0 0.24992969849727142 -0.9917223953496348
4784000000.0 0.23721616415413607 -1.0027596856189125
4788000000.0 0.19824383320253153 -1.0616160160724462
4791000000.0 0.1793496128181669 -0.9911735985994222
4794000000.0 0.23894970536219592 -1.0320571885618364
4797000000.0 0.1714084424347446 -0.9827229691912615
4800000000.0 0.16094164716830517 -0.9963114557696346
4803000000.0 0.10099059976501298 -1.0213530934983468
4806000000.0 0.1335486576382181 -1.0084482891717923
4809000000.0 0.09755553040214363 -1.0320034046275806
4812000000.0 0.09760663557689812 -1.0234082591119633
4816000000.0 0.13685124947371666 -1.0043390783900765
4819000000.0 0.15728003273746144 -1.0339596284373034
4822000000.0 0.12925703541649816 -1.0692249353194998
4825000000.0 0.14939723603234306 -1.0409442373975504
4828000000.0 0.07487307794589919 -1.0230268847194304
4831000000.0 0.03612462580506995 -1.056235328627966
4834000000.0 0.07837497695634398 -1.0313338239336023
4838000000.0 0.017678090519223782 -1.0540569056907663
4841000000.0 0.025781988435015238 -0.9989806414508292
4844000000.0 0.07979188266918925 -1.0304053197992755
4847000000.0 0.07425278196038482 -1.0097388519093862
4850000000.0 0.013603013940104422 -1.050740034522358
4853000000.0 0.02116778116060218 -0.9971797581844788
4856000000.0 0.00527365357589369 -1.0048117728683967
4859000000.0 0.0005145575999930818 -1.0575498263807033
4862000000.0 0.011963964575779945 -1.006535382967901
4866000000.0 -0.025752940398650365 -1.054908489141558
4869000000.0 -0.030169034586830946 -1.0106778631650915
4872000000.0 -0.07400984042201891 -1.0491717544663155
4875000000.0 0.0031188829740681767 -1.0940683080722737
4878000000.0 -0.04880049814118422 -1.04786978171419
4881000000.0 -0.09742556857700929 -1.097594963845936
4884000000.0 -0.025077211469253007 -1.0315805205247641
4888000000.0 -0.04543405351127912 -1.0394110851824865
4891000000.0 -0.08069667393402531 -1.0382156617507468
4894000000.0 -0.10401843534980237 -1.010897651718308
4897000000.0 -0.09699500073904757 -1.0391769871439038
4900000000.0 -0.10005133293194877 -1.0512498746810823
4903000000.0 -0.111457328755148 -1.0599536348724274
4906000000.0 -0.15256764405529805 -1.0298547956339261
4909000000.0 -0.17593867501220847 -1.0372352353840528
4912000000.0 -0.16261519913364736 -1.0429808974626982
4916000000.0 -0.13246138404609512 -1.0420691707589629
4919000000.0 -0.12492999075524232 -1.0500451095088423
4922000000.0 -0.12860231097289188 -1.055613714570207
4925000000.0 -0.17793983547993203 -1.000005712520232
4928000000.0 -0.14307240594234694 -0.9994327248706146
4931000000.0 -0.16202682472661062 -1.058018897261657
4934000000.0 -0.19032820122691446 -0.968981518916521
4938000000.0 -0.2157187499160858 -1.0251148728930288
4941000000.0 -0.20448266337490317 -0.9796015958059813
4944000000.0 -0.20681690509130038 -0.9540956354934536
4947000000.0 -0.22771331160593902 -1.0117923951004792
4950000000.0 -0.25326558943615113 -0.9955754673507293
4953000000.0 -0.3114630591050035 -1.0466466532394052
4956000000.0 -0.2857209651803256 -0.9937023324295896
4959000000.0 -0.303453869182972 -0.9666776303254607
4962000000.0 -0.3235763673310814 -1.0099883237211553
4966000000.0 -0.27778974637033216 -1.0226186880117678
4969000000.0 -0.28013243064125615 -1.0543456012257781
4972000000.0 -0.3385651023163849 -0.9799371559269762
4975000000.0 -0.2931356333614481 -1.0011481455252862
4978000000.0 -0.3660784394358054 -0.9615545203801629
4981000000.0 -0.3718308440276771 -0.9856703726056876
4984000000.0 -0.32863795907956217 -0.9737541917572602
4988000000.0 -0.32119035500454934 -0.9700920624015856
4991000000.0 -0.30857739574160475 -1.0353084993025283
4994000000.0 -0.334607417668883 -0.9727729299273302
4997000000.0 -0.4261662211367346 -0.9798988484155928
5000000000.0 -0.3779626155000917 -0.9964746458652047
5003000000.0 -0.39603226412808873 -0.9894251684540543
5006000000.0 -0.4211624879298119 -1.0001024099704467
5009000000.0 -0.41975747304409716 -0.9641225479118394
5012000000.0 -0.43771217210836405 -0.9624076844412188
5016000000.0 -0.3962307367223444 -1.006155633075584
5019000000.0 -0.4511690257997356 -0.9503542435931829
5022000000.0 -0.4246423872844677 -0.9539402560889922
5025000000.0 -0.4577285991920688 -0.9958195639277985
5028000000.0 -0.47464594286860684 -0.9702710423460721
5031000000.0 -0.4762356271509792 -0.9082741846880139
5034000000.0 -0.5198879207634085 -0.9336602826768647
5038000000.0 -0.5015645086998509 -0.8615601522957894
5041000000.0 -0.4678048542751211 -0.9515814279608862
5044000000.0 -0.5011269019257583 -0.8853740126737245
5047000000.0 -0.49354002164939786 -0.9416935694881067
5050000000.0 -0.4213040202272019 -0.8858983258948165
5053000000.0 -0.5654329423472383 -0.9513953075759662
5056000000.0 -0.49762536062451823 -0.9144202294483508
5059000000.0 -0.47366329229899934 -0.9171161591921625
5062000000.0 -0.5461837103779826 -0.905715347782668
5066000000.0 -0.5128323692411729 -0.8924672875505675
5069000000.0 -0.5742262755563647 -0.8990252765293208
5072000000.0 -0.5196789577653451 -0.8643536989810374
5075000000.0 -0.5727116318673934 -0.8884875550793632
5078000000.0 -0.6000593447575129 -0.8634377745820387
5081000000.0 -0.5795838315642323 -0.82600856154701
5084000000.0 -0.6276078789466849 -0.8785427908894317
5088000000.0 -0.5497892667997948 -0.8670100635008091
5091000000.0 -0.6147882362763764 -0.8488529072258115
5094000000.0 -0.6194843897162894 -0.8668654363064595
5097000000.0 -0.6065457829945725 -0.8508305155636491
5100000000.0 -0.6266683999330821 -0.8578927233877126
5103000000.0 -0.65181872622101 -0.8094227092289714
5106000000.0 -0.6296094318633901 -0.825113843645866
5109000000.0 -0.6407678203517329 -0.8448530301424837
5112000000.0 -0.653455931783243 -0.7872031774315369
5116000000.0 -0.6298717571664023 -0.7799646643681027
5119000000.0 -0.7071126657567963 -0.8684733526924231
5122000000.0 -0.6528136489689249 -0.8195245351424731
5125000000.0 -0.6472494273385058 -0.7774719508313209
5128000000.0 -0.7064111964158721 -0.7879478886775177
5131000000.0 -0.751498547558453 -0.7791987846673337
5134000000.0 -0.6834673788010315 -0.793136420081204
5138000000.0 -0.6998817100966487 -0.7456897983896641
5141000000.0 -0.6551906481663237 -0.7834069820743166
5144000000.0 -0.6886527341256745 -0.7871180383738804
5147000000.0 -0.7166816404710162 -0.7370527491324815
5150000000.0 -0.7216470428967885 -0.8167659364664313
5153000000.0 -0.7263923571016864 -0.7539092718443048
5156000000.0 -0.7117006855233422 -0.7408166449120791
5159000000.0 -0.7841203338330514 -0.7516130101543836
5162000000.0 -0.77623616776367 -0.7318145050190913
5166000000.0 -0.7695517764737593 -0.7273817740793602
5169000000.0 -0.7608003218116997 -0.7233683222801089
5172000000.0 -0.756121300266938 -0.740486607362779
5175000000.0 -0.7707501298476291 -0.7261424001212848
5178000000.0 -0.7618479986137232 -0.7001230035792984
5181000000.0 -0.8219036558375575 -0.6978096042921577
5184000000.0 -0.7668641081936904 -0.6686833839287198
5188000000.0 -0.7981532611023899 -0.6599078789268399
