! Created with skrf 1.8.0 (http://scikit-rf.org).
# Hz S RI R 50.0 
!freq ReS11 ImS11
4000000000.0 0.6151868868558835 0.8156798649461541
4003000000.0 0.669207396484292 0.80862473881052
4006000000.0 0.6824333782102266 0.7704231843036153
4009000000.0 0.6820373736034534 0.81223541819625
4012000000.0 0.6314857367098632 0.8294044106986117
4016000000.0 0.734351200440392 0.7167210276101388
4019000000.0 0.7145332568010918 0.7826309867729238
4022000000.0 0.7010259672008018 0.8640304116030443
4025000000.0 0.778758437314452 0.7480657203657841
4028000000.0 0.783503166747293 0.7206734185583401
4031000000.0 0.673227864310422 0.7177642935342663
4034000000.0 0.71080674508759 0.7086352162552672
4038000000.0 0.7595306482152825 0.7443301581611954
4041000000.0 0.7071667184035473 0.7255596228334413
4044000000.0 0.7540194692693744 0.7772905911385594
4047000000.0 0.7411164100529957 0.7495399648726204
4050000000.0 0.7873411420057368 0.7170413097208389
4053000000.0 0.7596179270220763 0.6369638788842273
4056000000.0 0.8016986817371983 0.6611870031642082
4059000000.0 0.746713766117467 0.7217405915916968
4062000000.0 0.7673083291966175 0.7003258216816606
4066000000.0 0.7265382918460066 0.630543952663429
4069000000.0 0.8279122245732036 0.6555439670018263
4072000000.0 0.7414257146042956 0.6970555457087819
4075000000.0 0.8056026468625888 0.6930921326056527
4078000000.0 0.8159909729199469 0.6462931125368838
4081000000.0 0.8037312525331959 0.7086956524785517
4084000000.0 0.8575923703885193 0.633117859130041
4088000000.0 0.7879331563764356 0.6346980964604271
4091000000.0 0.8715756356805392 0.6338918530258981
4094000000.0 0.8349629219939978 0.6420673287431186
4097000000.0 0.8468929344505388 0.5884227402380307
4100000000.0 0.8336129823988574 0.594676577963811
4103000000.0 0.8389942288485532 0.6105037511544005
4106000000.0 0.8730174642382458 0.5981632910863359
4109000000.0 0.9030426662895668 0.5442173375323729
4112000000.0 0.8835315443270935 0.5772715557526051
4116000000.0 0.8689324768227444 0.558835056336422
4119000000.0 0.877715044684867 0.5328578793162779
4122000000.0 0.8853446465737832 0.5041381076994433
4125000000.0 0.8946389921990594 0.5441397254768299
4128000000.0 0.855292447960304 0.5375943399397659
4131000000.0 0.8679553876042722 0.5323860498250642
4134000000.0 0.8613254026122829 0.534283538274175
4138000000.0 0.8935705913424994 0.4774922793662008
4141000000.0 0.8804384053249777 0.506782429713011
4144000000.0 0.9175349323389165 0.49517103944064295
4147000000.0 0.8761369700603837 0.4515462692617906
4150000000.0 0.9149242185893487 0.5050580642105726
4153000000.0 0.9287828818796365 0.4834556526404199
4156000000.0 0.9122659897797787 0.47519712143825743
4159000000.0 0.9160381319125854 0.45459181736540705
4162000000.0 0.9050296078212372 0.44829816682842294
4166000000.0 0.9279843016261187 0.4434006668083875
4169000000.0 0.9424096634503571 0.38900713070642434
4172000000.0 0.9350815779575656 0.45261956428980005
4175000000.0 0.9306197490983341 0.4090356181851548
4178000000.0 0.9367762975481161 0.41033446732849066
4181000000.0 0.9407600255499122 0.39217312343200394
4184000000.0 0.9252878380740628 0.4132394375520449
4188000000.0 0.9453968798692345 0.38467924835350553
4191000000.0 0.9089289743208742 0.40768998340464296
4194000000.0 0.9510388715401998 0.38335903980875263
4197000000.0 0.9715096676631939 0.3558821465334379
4200000000.0 0.9457871104624338 0.380614414304809
4203000000.0 0.9613546210299354 0.3605245251586372
4206000000.0 0.9777874472268343 0.35411957851637915
4209000000.0 0.9534704470239832 0.3286140463185951
4212000000.0 0.9851848590961606 0.3013778153902503
4216000000.0 0.9656172517754155 0.35263022552205997
4219000000.0 0.9835770281922879 0.3219580651103503
4222000000.0 0.9876703053061109 0.3035191884102911
4225000000.0 0.9677578986408357 0.301383723141636
4228000000.0 0.9772306402062751 0.2883694538083956
4231000000.0 1.0012285264037144 0.27133246275219497
4234000000.0 1.0182833976276324 0.27789968231549417
4238000000.0 1.0067911137097136 0.24609480655127383
4241000000.0 0.9764801208399518 0.24882587029269054
4244000000.0 0.9858138001288059 0.23895583063236653
4247000000.0 0.9869911873156132 0.23972606875425256
4250000000.0 0.9747119690065464 0.21193061144773057
4253000000.0 0.9708595636307433 0.20047938350378713
4256000000.0 1.018300475260503 0.1953427968037565
4259000000.0 0.9683583094480943 0.1862400029847425
4262000000.0 1.0006237283489994 0.17898388368958276
4266000000.0 1.021270534689295 0.17349808299003705
4269000000.0 0.9876806069434723 0.1891564443295712
4272000000.0 0.9927164800677645 0.1627821745414736
4275000000.0 1.0047793219652876 0.16818453827039126
4278000000.0 1.0347252664861608 0.18433448013282716
4281000000.0 0.996234276715184 0.1520773721547139
4284000000.0 1.0237798197230057 0.10346787638928737
4288000000.0 0.9961906012137687 0.16191320504470502
4291000000.0 0.9963276691671096 0.11231698601883906
4294000000.0 0.9899774714027408 0.09678840753812916
4297000000.0 0.99187656523762 0.11898374506942634
4300000000.0 0.9905659128829876 0.0982464428099766
4303000000.0 1.012494499714372 0.07586584451382562
4306000000.0 1.007249058282789 0.1040554320333768
4309000000.0 1.0116768580721778 0.06688096148526919
4312000000.0 1.0441233622547332 0.1252122096834894
4316000000.0 1.0121747379683597 0.05943858784413657
4319000000.0 0.9969476171056086 0.05573202274078311
4322000000.0 0.9760522589622505 0.010511785506712251
4325000000.0 1.0179876169598445 0.049198964420791344
4328000000.0 0.9910296820352886 -0.01888438518419508
4331000000.0 1.026664766040168 -0.030012091882993336
4334000000.0 1.032881666088017 0.006024655669913198
4338000000.0 1.003155634474087 0.016146540180321203
4341000000.0 1.0177999296979678 0.007547539713973289
4344000000.0 1.032836636043953 -0.005684252062450379
4347000000.0 1.0135654988380076 -0.06616384081438861
4350000000.0 0.9571742619544658 -0.05730736379336303
4353000000.0 0.9925491362941561 -0.041225336362646
4356000000.0 0.9878623571510502 -0.09169321377778274
4359000000.0 0.9520671393256783 -0.07234866854073217
4362000000.0 1.0143286417628223 -0.13220522883598623
4366000000.0 1.0189006580648705 -0.09456012655080352
4369000000.0 0.9667409202506974 -0.11219952070831316
4372000000.0 0.9786753489422562 -0.12731613982586326
4375000000.0 0.9997833344299161 -0.08868062269263129
4378000000.0 0.975444580386832 -0.11319088382010854
4381000000.0 0.9770243559683327 -0.1239827659177598
4384000000.0 1.0547986955074482 -0.14842074264006122
4388000000.0 0.9764851030958118 -0.13391302418204132
4391000000.0 0.9992788042755676 -0.1671694225012438
4394000000.0 0.9693745059764229 -0.16194724494467208
4397000000.0 0.9807087820542768 -0.17389211227044823
4400000000.0 1.0110914212462894 -0.19319139471117303
4403000000.0 0.9912172415976966 -0.19994447940373863
4406000000.0 0.9787915923875162 -0.20830192570382755
4409000000.0 1.010938040582264 -0.2207678906232632
4412000000.0 0.9627420560580562 -0.27373760326994684
4416000000.0 0.9642541264208748 -0.2302176121150423
4419000000.0 0.967554670689047 -0.24705606989979176
4422000000.0 0.9681518902940662 -0.2275239272896567
4425000000.0 1.0079392536142135 -0.22992338725451855
4428000000.0 0.9698582472654333 -0.26775036983318773
4431000000.0 0.9969383752113841 -0.28103405595099207
4434000000.0 0.9506912603267896 -0.28415431073663505
4438000000.0 0.9928348738534836 -0.2947198209449802
4441000000.0 0.9828871384797429 -0.2867018753730956
4444000000.0 0.9433700172438386 -0.29017157911270114
4447000000.0 0.9505201505712092 -0.3254075786265327
4450000000.0 0.9464105817893778 -0.30680476689891156
4453000000.0 0.9850704171459673 -0.3318748129095519
4456000000.0 0.9278722355743882 -0.3478782214698227
4459000000.0 0.9126315641931202 -0.35228141958135534
4462000000.0 1.017239114804644 -0.3674517483656111
4466000000.0 0.9801355876626054 -0.38934724143125515
4469000000.0 0.9380682194688802 -0.3595666542873549
4472000000.0 0.9353109646209784 -0.40901071614581497
4475000000.0 0.9195984895889207 -0.3728763309777843
4478000000.0 0.961858447475357 -0.42943504298840884
4481000000.0 0.9055188461931781 -0.4230620435936967
4484000000.0 0.890965520755951 -0.45235303698015983
4488000000.0 0.8872311925321145 -0.4364887982642941
4491000000.0 0.9057311343203868 -0.42455152931915424
4494000000.0 0.8927548411211582 -0.42851682707877164
4497000000.0 0.9035763061983217 -0.4348047694149233
4500000000.0 0.8967348482890494 -0.45168401350667897
4503000000.0 0.9241311174586053 -0.4649723193143006
4506000000.0 0.872357398898286 -0.48379415603351084
4509000000.0 0.8797605276399034 -0.4841007101179877
4512000000.0 0.8702422719043312 -0.4946804200116306
4516000000.0 0.9101774900304394 -0.4959615308933907
4519000000.0 0.8534211162260337 -0.4664861574010465
4522000000.0 0.8644561860488214 -0.534313113155513
4525000000.0 0.8519488334368868 -0.47665746666014785
4528000000.0 0.8873850224864321 -0.543316183066594
4531000000.0 0.8640443692595817 -0.5179132810126437
4534000000.0 0.8234327486379415 -0.5160173678766276
4538000000.0 0.8344431965158214 -0.5530599636361382
4541000000.0 0.822834679371627 -0.5898259974541983
4544000000.0 0.820717388676335 -0.5341586166539587
4547000000.0 0.8448510671423572 -0.5539819810312856
4550000000.0 0.8287757037808314 -0.6003931600296925
4553000000.0 0.82389095132432 -0.5997592701462715
4556000000.0 0.7946929909541203 -0.5910101360086977
4559000000.0 0.7984876863123412 -0.6141081294244306
4562000000.0 0.8068312218056881 -0.5909198698581707
4566000000.0 0.7827390548661732 -0.6284450895062377
4569000000.0 0.7706567013395064 -0.600835812745919
4572000000.0 0.7820870079458209 -0.637468774132849
4575000000.0 0.7726545503002744 -0.6702779250926891
4578000000.0 0.8027117843343736 -0.641339165453456
4581000000.0 0.7503690272713661 -0.6574283703806398
4584000000.0 0.7524222160357309 -0.643040076871255
4588000000.0 0.7655913548740703 -0.6715555638893967
4591000000.0 0.7695714578565706 -0.6618409462454218
4594000000.0 0.7192636269376627 -0.6790385779245283
4597000000.0 0.7416660039545755 -0.6998575988231803
4600000000.0 0.7055631753534011 -0.6968105794381702
4603000000.0 0.7315954234356893 -0.7084638724213049
4606000000.0 0.7306614690098852 -0.7030962161993819
4609000000.0 0.7215521291899791 -0.6938932553807671
4612000000.0 0.7245204543537577 -0.7198135551448832
4616000000.0 0.6898186435638167 -0.7372503758979664
4619000000.0 0.6900561367022566 -0.7420454108698606
4622000000.0 0.6938927766225496 -0.7431360176832899
4625000000.0 0.6593253242526945 -0.7477483075342072
4628000000.0 0.6650542064580375 -0.742482336735051
4631000000.0 0.6572636290225227 -0.7603338756528502
4634000000.0 0.6555166126982532 -0.772953040814209
4638000000.0 0.6628635300246948 -0.7595221252286705
4641000000.0 0.6537075858856577 -0.7644785227535204
4644000000.0 0.6380334025183674 -0.7741769972655522
4647000000.0 0.6427454600941337 -0.7942689489998016
4650000000.0 0.6172695059367778 -0.7822598257270958
4653000000.0 0.6377596726144777 -0.8064785804684278
4656000000.0 0.6062918337462186 -0.8028945890293406
4659000000.0 0.5970451806264666 -0.8092340418771011
4662000000.0 0.5775391416310905 -0.814562035273423
4666000000.0 0.588475363384941 -0.8155769883539943
4669000000.0 0.5961227874855062 -0.8294393646671736
4672000000.0 0.5710708675885479 -0.8472425775238749
4675000000.0 0.5712932742138497 -0.8474792809649903
4678000000.0 0.5663754177137149 -0.8114749327282162
4681000000.0 0.5427742469044785 -0.8699731997892931
4684000000.0 0.5208552221285767 -0.8549964509632813
4688000000.0 0.5354050625315017 -0.8658397414683519
4691000000.0 0.5374561916947627 -0.8353756275946018
4694000000.0 0.5280562114880767 -0.8606334033762435
4697000000.0 0.4928259441349684 -0.8544658998144732
4700000000.0 0.5314561173403021 -0.8765018717260589
4703000000.0 0.5083499280982466 -0.8268953394931928
4706000000.0 0.4907437826457704 -0.9000831532020152
4709000000.0 0.47189468098393306 -0.8797635515659835
4712000000.0 0.481797337250369 -0.9029423640889618
4716000000.0 0.4506433436626932 -0.9205218038660612
4719000000.0 0.4961923511804748 -0.9045148320225862
4722000000.0 0.4737446193603628 -0.8951736480601167
4725000000.0 0.46507323852558935 -0.9079661653684121
4728000000.0 0.4173154997171777 -0.9098944867072969
4731000000.0 0.449247061929005 -0.913141343613199
4734000000.0 0.4240907605757016 -0.8972588701013451
4738000000.0 0.4641253093882204 -0.9454725542466459
4741000000.0 0.39330024114172235 -0.9476020911031828
4744000000.0 0.3926607040447093 -0.9631190782567876
4747000000.0 0.41405738635187533 -0.8844121234536306
4750000000.0 0.38057053167179955 -0.9473259673432256
4753000000.0 0.412595211979392 -0.9486993149091181
4756000000.0 0.3644770861432681 -0.9421099787033944
4759000000.0 0.37289183856530334 -0.9504376969779724
4762000000.0 0.3501398774018004 -0.9612624485910285
4766000000.0 0.3602352395000988 -0.9214286179039489
4769000000.0 0.3326006601184122 -0.9506061955204504
4772000000.0 0.34124482793812083 -0.9598855197207885
4775000000.0 0.31135872671283 -0.9860437646523053
4778000000.0 0.3387450789747786 -0.9675313504717434
4781000000.0 0.33613015758242115 -0.9529653329584655
4784000000.0 0.3168411072150799 -0.9520958027027348
4788000000.0 0.26264619763352703 -0.9971758089306466
4791000000.0 0.2923467933499142 -0.9553453464787008
4794000000.0 0.3024300598430517 -1.0238339671873564
4797000000.0 0.23734922189533614 -0.9737158845126005
4800000000.0 0.24073033846457143 -0.9794688926762931
4803000000.0 0.19894722235674375 -0.9793183793362976
4806000000.0 0.22744225658205197 -1.0126596071102174
4809000000.0 0.17711073536465857 -0.9771304542900171
4812000000.0 0.1789883460302422 -0.9977785798279684
4816000000.0 0.2170707655480971 -0.953273914810048
4819000000.0 0.22099769515109569 -1.021716341720525
4822000000.0 0.21599802861764578 -1.0271658884463475
4825000000.0 0.2252737813048239 -1.0160132416394467
4828000000.0 0.18400881871462105 -1.0000112509107821
4831000000.0 0.12398959176200944 -1.0256261550237198
4834000000.0 0.18456179185081142 -1.0082610838555528
4838000000.0 0.14789379844249928 -1.0256949399307138
4841000000.0 0.12666963926950875 -1.0057577850671735
4844000000.0 0.17299608474300177 -1.0020648202339268
4847000000.0 0.15277084236786473 -0.9929935134117547
4850000000.0 0.11418708824981735 -1.0285528322400364
4853000000.0 0.11193990873819734 -0.9900137687707484
4856000000.0 0.11232951699498378 -1.007269878321408
4859000000.0 0.08003536472458204 -1.0493441818982645
4862000000.0 0.11119015869041544 -0.9951447660327896
4866000000.0 0.07292738731938858 -1.041419747283872
4869000000.0 0.056049279577541286 -1.0219803843509527
4872000000.0 0.03291129730522914 -1.0535900306637134
4875000000.0 0.11574613559855479 -1.0404794880092845
4878000000.0 0.024063816640693896 -1.03842622579271
4881000000.0 0.01744709373064126 -1.085356522932206
4884000000.0 0.04548845224227745 -1.0503547178436479
4888000000.0 0.03328788510985087 -1.034670614225712
4891000000.0 0.029213331069351985 -1.0329813326984214
4894000000.0 -0.01574060661345747 -1.0254461695889079
4897000000.0 0.041522344751546966 -1.0151552216832196
4900000000.0 0.003917608377649658 -1.035792545440354
4903000000.0 0.001866514005384394 -1.0304727634462572
4906000000.0 -0.04192536722623729 -1.0476924791836417
4909000000.0 -0.031728463748153524 -0.9975869790551017
4912000000.0 -0.037607627846209496 -1.0800772251668487
4916000000.0 -0.03353388014437043 -1.0608798466010947
4919000000.0 -0.0431529629697433 -1.0459048361691492
4922000000.0 -0.03885797886336377 -1.0348966921650768
4925000000.0 -0.09990361633526057 -1.0177466639012365
4928000000.0 -0.055248864278876195 -1.02797657209793
4931000000.0 -0.09174273063796594 -1.0476048941112917
4934000000.0 -0.11456589791551249 -0.979397589460856
4938000000.0 -0.13878831032233963 -1.0010192793632766
4941000000.0 -0.09942201918613304 -0.9730961087678437
4944000000.0 -0.1045076032172069 -0.9634078978430651
4947000000.0 -0.12134704906041385 -1.0163448575066005
4950000000.0 -0.1511668308493206 -0.9813685153876899
4953000000.0 -0.20610176176399597 -1.0619467724403844
4956000000.0 -0.19441097255787937 -1.015338371799824
4959000000.0 -0.15818536300369349 -0.9806664295020424
4962000000.0 -0.18700736574852242 -1.057970771239086
4966000000.0 -0.17208612200726242 -1.017735830333459
4969000000.0 -0.18094843867921745 -1.0738176807416921
4972000000.0 -0.18887574564807244 -0.9966063172424446
4975000000.0 -0.20121601629682048 -0.9710979766853224
4978000000.0 -0.25726715339992384 -1.025584029231042
4981000000.0 -0.26337631934162653 -1.0056752630560784
4984000000.0 -0.2137484868408698 -1.0005794361421003
4988000000.0 -0.2153646243044286 -1.0263574451180921
4991000000.0 -0.2010482363205246 -1.0336647672718278
4994000000.0 -0.21898489492215262 -1.005138840888453
4997000000.0 -0.2676778962923108 -1.0107895978658787
5000000000.0 -0.27306941384238914 -1.0299376334416248
5003000000.0 -0.25934864204429775 -1.034017978908686
5006000000.0 -0.3210727181829952 -1.0484495175023159
5009000000.0 -0.2666819852436344 -1.0024801165285988
5012000000.0 -0.3356367641462695 -0.9785827261008986
5016000000.0 -0.29029938211921164 -0.9889082495718708
5019000000.0 -0.31582994414648946 -0.9516248596926973
5022000000.0 -0.35046667947010224 -0.9820917990099167
5025000000.0 -0.35912214617459365 -1.0089310983564739
5028000000.0 -0.37026252551891903 -0.9558748992270811
5031000000.0 -0.3660899886322231 -0.9586908467844534
5034000000.0 -0.3901035006065724 -0.9939615214357171
5038000000.0 -0.38690637635455194 -0.9588291280177377
5041000000.0 -0.36103127071333974 -1.0122741614869732
5044000000.0 -0.3221242537788148 -0.9619475784629424
5047000000.0 -0.38394772638555125 -0.996997265080375
5050000000.0 -0.3284372219320868 -0.9799618111930288
5053000000.0 -0.40870283476873037 -0.9722242001911381
5056000000.0 -0.3572296783046497 -0.9843861703193317
5059000000.0 -0.34876712983930963 -0.9718481065278409
5062000000.0 -0.4155920788147739 -0.9227267623951481
5066000000.0 -0.4027889851190932 -0.9213117885864224
5069000000.0 -0.4572909495516093 -0.9591971827158684
5072000000.0 -0.4308855881552469 -0.9625257904761171
5075000000.0 -0.39920197944776625 -0.9386771727872301
5078000000.0 -0.485472295949196 -0.8787467995170957
5081000000.0 -0.4448374085084735 -0.8913649672357057
5084000000.0 -0.4951369571307551 -0.9410709341895356
5088000000.0 -0.47867926897867896 -0.9286406282133726
5091000000.0 -0.5107211749780469 -0.9317701493068666
5094000000.0 -0.47701152614810866 -0.9108880245719585
5097000000.0 -0.48195596515428707 -0.9095274766543204
5100000000.0 -0.5287261812684795 -0.9024492399069449
5103000000.0 -0.5669953594533546 -0.8791185381148253
5106000000.0 -0.5178396675229738 -0.9241342605514338
5109000000.0 -0.5180754662948377 -0.9425642055138634
5112000000.0 -0.5553774018931518 -0.8895855469704668
5116000000.0 -0.531191807471711 -0.814767021344055
5119000000.0 -0.5618802695178992 -0.8798360233442846
5122000000.0 -0.5475498750340289 -0.8427130874137876
5125000000.0 -0.5252596813115167 -0.9022781820933556
5128000000.0 -0.5495651711989863 -0.8462332412570863
5131000000.0 -0.5826781489946616 -0.8346065901492922
5134000000.0 -0.5766886337110666 -0.877201210238916
5138000000.0 -0.5570472899237835 -0.8571520713569116
5141000000.0 -0.6094097359192163 -0.8973013023993914
5144000000.0 -0.5842745889072221 -0.8831339613556535
5147000000.0 -0.6214550576979493 -0.8463860442204684
5150000000.0 -0.5902617377622106 -0.8608826117470375
5153000000.0 -0.6737130963581621 -0.8464938018604948
5156000000.0 -0.6323200269956089 -0.8062277303641197
5159000000.0 -0.6456596137319546 -0.8558097402191366
5162000000.0 -0.6353818462934261 -0.8025844454316972
5166000000.0 -0.6815246496639603 -0.7770888893502358
5169000000.0 -0.657685829206511 -0.7994454652603665
5172000000.0 -0.6655942470228103 -0.805239063293383
5175000000.0 -0.6941703517883714 -0.8368677489680137
5178000000.0 -0.6962689048035293 -0.7837771292229077
5181000000.0 -0.7362614117268473 -0.8313249200040841
5184000000.0 -0.690281579626698 -0.7711566999314349
5188000000.0 -0.6883521743104035 -0.7802232939702783
