! Created with skrf 1.8.0 (http://scikit-rf.org).
# Hz S RI R 50.0 
!freq ReS11 ImS11
4000000000.0 0.595339673930973 0.8155541588864246
4003000000.0 0.6836805177560693 0.8657163390126125
4006000000.0 0.6711310540713965 0.7802368328400531
4009000000.0 0.6833676894418944 0.819723784714754
4012000000.0 0.6555380043227849 0.8337179767516866
4016000000.0 0.6929484390728502 0.8083251765462727
4019000000.0 0.6789320121545768 0.7855093245760189
4022000000.0 0.6461509211352765 0.8406316817612919
4025000000.0 0.756033209052999 0.7441564074172353
4028000000.0 0.6934135739539578 0.7465110115417435
4031000000.0 0.6487478631451538 0.7376951943784943
4034000000.0 0.7491680422225511 0.7314339866429578
4038000000.0 0.7803900757338739 0.7541009536942662
4041000000.0 0.7232312350283664 0.7209435043574944
4044000000.0 0.7480895460539103 0.7891776630982874
4047000000.0 0.747383870841339 0.7269964585566845
4050000000.0 0.7684045582475085 0.7190192387665885
4053000000.0 0.7656997592640379 0.6502012639509458
4056000000.0 0.7935262102176259 0.7027838182506089
4059000000.0 0.7124815838641876 0.7054733101313959
4062000000.0 0.7510644504199445 0.7067759968123308
4066000000.0 0.7170495642205033 0.6368671976037796
4069000000.0 0.8380752390065994 0.696520687416655
4072000000.0 0.7673327530078715 0.7084999769607254
4075000000.0 0.8238035461619 0.7290393768567245
4078000000.0 0.8300142954543395 0.6846537372326097
4081000000.0 0.793542889906973 0.7275968909952214
4084000000.0 0.8146475273769581 0.6556838534785436
4088000000.0 0.7872546017217958 0.6764187844605064
4091000000.0 0.8443857282883376 0.6715413184661121
4094000000.0 0.8192784579156802 0.6345285362454208
4097000000.0 0.815080287281202 0.663061571728816
4100000000.0 0.8256614530161842 0.5975667372277644
4103000000.0 0.8018478172063002 0.6355189669083929
4106000000.0 0.8787744747923396 0.5925918681419869
4109000000.0 0.8891221256045452 0.5958167366212548
4112000000.0 0.8462363878688208 0.5827481822325704
4116000000.0 0.9073475988322234 0.6265376071051323
4119000000.0 0.8441302806058618 0.5613783136145349
4122000000.0 0.8907901995841933 0.5539585809291017
4125000000.0 0.9184863373598096 0.5369374469893804
4128000000.0 0.8384001760074965 0.5676299103955863
4131000000.0 0.8481713144862231 0.5317271903414794
4134000000.0 0.8577589012840154 0.5627798884942876
4138000000.0 0.8947376649786662 0.4896677500775272
4141000000.0 0.8760603775132272 0.4758122577268423
4144000000.0 0.8889656439636757 0.5374862828544051
4147000000.0 0.8915310276015372 0.5086471246366986
4150000000.0 0.926860968930537 0.530172899165843
4153000000.0 0.9072051299766779 0.4912031205537766
4156000000.0 0.9084783354283754 0.5147808711606694
4159000000.0 0.9154033671015385 0.4772852772688771
4162000000.0 0.902275831031291 0.4551401794216089
4166000000.0 0.9395858372731978 0.46774639258545847
4169000000.0 0.9552260608800912 0.43374794767857905
4172000000.0 0.9300713281160006 0.4650323487978482
4175000000.0 0.925999247096907 0.4717327369350733
4178000000.0 0.9525610816597118 0.43077107264499237
4181000000.0 0.9447352639183673 0.44593403505142515
4184000000.0 0.9218948635148256 0.41508361095288987
4188000000.0 0.9558118460369096 0.3915653758555102
4191000000.0 0.8951793414947481 0.43232183978650834
4194000000.0 0.918986538761748 0.4078795225584748
4197000000.0 0.9523379280028449 0.3865886127146681
4200000000.0 0.9612345466181473 0.3918854738711841
4203000000.0 0.9380039216765576 0.40494266603707596
4206000000.0 0.9717916585620278 0.37654072101096464
4209000000.0 0.9370241541422818 0.361048121431286
4212000000.0 0.9772145375154432 0.31909999674641965
4216000000.0 0.9678003432149564 0.3558658718117366
4219000000.0 0.9775511041978645 0.35513502848968237
4222000000.0 0.9757321572799189 0.329006233140773
4225000000.0 0.9719663630297262 0.3276483895317439
4228000000.0 0.9867904669375678 0.3214815596638677
4231000000.0 0.9798084249517394 0.2968790904368038
4234000000.0 0.9909000307624108 0.2867683854614632
4238000000.0 0.9716779100236053 0.2725894405966923
4241000000.0 0.9890137042105576 0.25989661803625497
4244000000.0 0.986703396791097 0.2803283081494435
4247000000.0 0.9797216010822418 0.2499543333549213
4250000000.0 0.964997386925267 0.24155099770868077
4253000000.0 0.9665621792568808 0.2348217005928483
4256000000.0 1.0291535175778188 0.2264713156024708
4259000000.0 0.9708517105651786 0.208198866815035
4262000000.0 0.9833144355275079 0.201380434401473
4266000000.0 1.0162158611128542 0.19645188265539937
4269000000.0 0.9921828515876374 0.21034150456933734
4272000000.0 0.99420014849292 0.18674371770471
4275000000.0 0.9981790136980493 0.1856936911660927
4278000000.0 1.0174671816060834 0.18698700026382187
4281000000.0 1.0168751128711584 0.16130541738046844
4284000000.0 1.0451208192996355 0.12044677271077092
4288000000.0 1.0056362483116164 0.1650904291487011
4291000000.0 0.9815404729783641 0.1308668459333917
4294000000.0 1.016963887084104 0.12799407135426333
4297000000.0 0.9904548386683344 0.1361648638925645
4300000000.0 1.0046536381771713 0.13153237964851575
4303000000.0 1.0265034698980038 0.12710189029683494
4306000000.0 1.0184902411996295 0.12778406841271647
4309000000.0 1.0028158240573306 0.10131806858246166
4312000000.0 1.033022211143157 0.11489716474834039
4316000000.0 1.0049165378952392 0.07767763068526205
4319000000.0 0.9868059158174196 0.07599692929861197
4322000000.0 1.0222156947846077 0.04223643406296741
4325000000.0 1.0092990287852541 0.04254398825472412
4328000000.0 1.00440790864613 0.034037442180029034
4331000000.0 1.0217699088523453 0.012257639054166714
4334000000.0 1.043862097486274 0.026658627361341836
4338000000.0 1.0035026625000443 0.021700191658025433
4341000000.0 1.0363042674520067 0.08651376169211966
4344000000.0 1.032242023986842 -0.02840278088023887
4347000000.0 1.0213288137257313 -0.05467214263093505
4350000000.0 0.9912744084573244 -0.017458163124976556
4353000000.0 0.9840479319272659 0.0015097235246072094
4356000000.0 1.0154687496702939 -0.059884058304370144
4359000000.0 0.9845754240017516 -0.05730965829142286
4362000000.0 1.0257314103821948 -0.10387708998385456
4366000000.0 1.0286586967235987 -0.056235652574776085
4369000000.0 0.9848128934499306 -0.06787091665770403
4372000000.0 1.008411760060832 -0.12525412818640033
4375000000.0 1.0084333556285168 -0.0761769244129481
4378000000.0 0.9919780794116583 -0.0939690180778452
4381000000.0 0.9900443759873683 -0.0922567973378558
4384000000.0 1.0705983507053671 -0.12104355929283736
4388000000.0 0.9960459055740872 -0.11029712697470642
4391000000.0 1.003393924574179 -0.12939385139965648
4394000000.0 0.9863785039291701 -0.1344121681220019
4397000000.0 1.0008033701348924 -0.1651296406711107
4400000000.0 1.0216360505644422 -0.1810615443610949
4403000000.0 0.9981709134257741 -0.160528384142561
4406000000.0 0.9960907015192632 -0.19247841954766287
4409000000.0 1.0246601494007148 -0.19362111761964915
4412000000.0 0.9770668005846751 -0.25547481018284846
4416000000.0 0.9781568407584997 -0.21094203802917125
4419000000.0 0.978571095760363 -0.2225943591867155
4422000000.0 0.972910346293905 -0.19593151323006933
4425000000.0 1.0113425065907191 -0.21336714374426727
4428000000.0 0.9761437876951684 -0.24110639778875814
4431000000.0 1.0130213990823584 -0.23662676162281748
4434000000.0 0.970678686166399 -0.25241613998927936
4438000000.0 1.0025387740968623 -0.27507641617989426
4441000000.0 0.994257550351179 -0.26431159614239225
4444000000.0 0.9593402863715248 -0.2828097819037446
4447000000.0 0.9595637682036737 -0.3044733355616651
4450000000.0 0.9556798392139895 -0.2815286372680845
4453000000.0 0.9898420390865208 -0.31041878715068594
4456000000.0 0.9269369221277476 -0.313637174000867
4459000000.0 0.9101089251229768 -0.3264933592291812
4462000000.0 1.0156252310813405 -0.3551901820162793
4466000000.0 0.9968315305547584 -0.35555648947563984
4469000000.0 0.9720083558703656 -0.32404072702321596
4472000000.0 0.9556620264216953 -0.3745218042270989
4475000000.0 0.9138743041886871 -0.3447172824017687
4478000000.0 0.9664166514225002 -0.40524957533662764
4481000000.0 0.896018461845216 -0.3766231623878521
4484000000.0 0.9005991008359997 -0.4403823548936333
4488000000.0 0.9010005015101141 -0.4165083027557408
4491000000.0 0.9304791959588076 -0.42937703587170084
4494000000.0 0.8971774520274868 -0.4144294795117371
4497000000.0 0.911766000610666 -0.395901183872901
4500000000.0 0.9087171293866432 -0.42161269316463607
4503000000.0 0.9357064652300355 -0.44213159011707653
4506000000.0 0.9049096441911879 -0.4505667891478822
4509000000.0 0.8895499748764526 -0.4515981869965823
4512000000.0 0.8617885260676555 -0.4705197813987372
4516000000.0 0.8982671561044923 -0.48736664532530277
4519000000.0 0.8962939630921364 -0.4560716547065641
4522000000.0 0.877873209205446 -0.49603857909918675
4525000000.0 0.8884898909533743 -0.4659828298496932
4528000000.0 0.8843377385705338 -0.5101314952306448
4531000000.0 0.8920038991801809 -0.4985066641912562
4534000000.0 0.8515955046243686 -0.4958023498107351
4538000000.0 0.8443568696132371 -0.5051068949204223
4541000000.0 0.8443289138973329 -0.5550735975258453
4544000000.0 0.8451787207481525 -0.5416266236438428
4547000000.0 0.8518980448437483 -0.5161255322374334
4550000000.0 0.8365826974718329 -0.5654007333725728
4553000000.0 0.8496812226130015 -0.5717241095775095
4556000000.0 0.7930138493757304 -0.570673977614656
4559000000.0 0.8204058940904709 -0.5844410193702443
4562000000.0 0.8358790113860639 -0.5786022585596805
4566000000.0 0.8255661319025116 -0.6107246296319628
4569000000.0 0.7975636286909692 -0.6129745551568935
4572000000.0 0.8046342582798729 -0.6033599417507028
4575000000.0 0.7766044519857043 -0.6414460204613784
4578000000.0 0.8358280621545102 -0.6248419253036829
4581000000.0 0.7838005726914186 -0.6308025976603533
4584000000.0 0.7602390852526135 -0.6331584409488311
4588000000.0 0.8028303033448682 -0.6514454230282216
4591000000.0 0.7851467489932082 -0.6277723652716044
4594000000.0 0.7689051234120561 -0.6800076712692819
4597000000.0 0.7726557370702367 -0.6927085331404719
4600000000.0 0.7299601710827324 -0.6767801680470226
4603000000.0 0.7454196161422224 -0.68059825918657
4606000000.0 0.7541349153450293 -0.6856497360223965
4609000000.0 0.7500416073910794 -0.6916354019369066
4612000000.0 0.7369769528159837 -0.6974055806956219
4616000000.0 0.7127614790995989 -0.695939190343545
4619000000.0 0.723511664997842 -0.7073262248747582
4622000000.0 0.7124613687090011 -0.7090612729392223
4625000000.0 0.6802196760927436 -0.710141688447754
4628000000.0 0.7112869810744873 -0.7131717604769263
4631000000.0 0.6787245989626596 -0.7375432066210551
4634000000.0 0.6972779540363717 -0.7552317555120472
4638000000.0 0.6738758227786207 -0.7526782222148504
4641000000.0 0.6786693031089063 -0.7499729510591547
4644000000.0 0.6681909201149664 -0.7404072255864781
4647000000.0 0.6819783864764131 -0.7713594937890436
4650000000.0 0.6434298831063423 -0.7697829624499576
4653000000.0 0.6790809850475644 -0.7920784213658528
4656000000.0 0.6394650858943707 -0.7952142016870662
4659000000.0 0.6267125541824187 -0.7812913004973087
4662000000.0 0.6297291228355659 -0.7927917570229601
4666000000.0 0.5966056160858528 -0.8237262692987486
4669000000.0 0.6284471471204982 -0.7756713446488817
4672000000.0 0.5965740595218861 -0.8458280713695654
4675000000.0 0.5747962761365837 -0.8373478410610656
4678000000.0 0.5722242161720656 -0.8200216147792189
4681000000.0 0.5760159404852627 -0.8644320717692997
4684000000.0 0.5496985312446616 -0.8569495213622292
4688000000.0 0.5646221502931437 -0.8256434689815502
4691000000.0 0.5968454189855082 -0.8447925364942348
4694000000.0 0.5682364061088602 -0.8287098229283749
4697000000.0 0.5151344708099137 -0.8400167254374153
4700000000.0 0.5429878465561994 -0.8626669349721974
4703000000.0 0.5326510443247379 -0.8423241281850764
4706000000.0 0.5353715350445547 -0.8630222506868579
4709000000.0 0.5030638879546107 -0.8505604274942096
4712000000.0 0.5218849784235298 -0.8590618766108523
4716000000.0 0.5092576014166076 -0.8825415987244665
4719000000.0 0.5513181706380624 -0.8782088030446759
4722000000.0 0.5114676350968641 -0.891447605140046
4725000000.0 0.4991496947419315 -0.887785416881085
4728000000.0 0.46480526486522833 -0.901482855565926
4731000000.0 0.4891934752604036 -0.9073323513801761
4734000000.0 0.476464980753451 -0.872474592878877
4738000000.0 0.4588281803077766 -0.9154543716287272
4741000000.0 0.4854381859170588 -0.9351150684998731
4744000000.0 0.42112753835366035 -0.9256601070997597
4747000000.0 0.4148055537219813 -0.9069517810410785
4750000000.0 0.4226794230827652 -0.9462671795173351
4753000000.0 0.42764917536790714 -0.9245981405750086
4756000000.0 0.3877342642099578 -0.9673925231426714
4759000000.0 0.4335346516957401 -0.9485022391421754
4762000000.0 0.3360951773964743 -0.9334484721275631
4766000000.0 0.3694011467479077 -0.9418702459116476
4769000000.0 0.3893105327703445 -0.9658726559479675
4772000000.0 0.37377494933416355 -0.955149766435313
4775000000.0 0.351332905491427 -0.9918297299846681
4778000000.0 0.3640819970507515 -0.9660270258453013
4781000000.0 0.3764717436863656 -0.9650025172467458
4784000000.0 0.37053233012027886 -0.9522450119405558
4788000000.0 0.3125902284286612 -0.9887602051837341
4791000000.0 0.30120958836539746 -0.9939539085060177
4794000000.0 0.3271277541353335 -0.9950940058872988
4797000000.0 0.2946317335108589 -0.9630321509547023
4800000000.0 0.27430839148624186 -0.97816471965349
4803000000.0 0.2478731429162352 -0.9780478690031735
4806000000.0 0.2751092984868532 -1.0201592809487607
4809000000.0 0.21483217790948558 -1.0011923130014737
4812000000.0 0.21745803464434402 -0.9874479254327495
4816000000.0 0.26479568578267093 -0.9750785979704104
4819000000.0 0.2651892134513485 -1.0103646566259257
4822000000.0 0.26159585788975454 -1.0210579027230267
4825000000.0 0.2575650660803509 -1.0053921747608934
4828000000.0 0.20763804297971383 -0.9935148333262608
4831000000.0 0.15983844879500606 -1.0271390737701689
4834000000.0 0.22314861499970656 -1.026934457329906
4838000000.0 0.1668764059786363 -1.0463927376579976
4841000000.0 0.19232645112370045 -0.9928425030575613
4844000000.0 0.1936849636819831 -1.0031650741738987
4847000000.0 0.19550520010269257 -0.9833823496160876
4850000000.0 0.15066788494485628 -1.0244318461406006
4853000000.0 0.15811967796114834 -1.007652022556539
4856000000.0 0.1385266059886197 -0.983189606865284
4859000000.0 0.12321276743234058 -1.0414133062182858
4862000000.0 0.1360235839825557 -1.0063575213365599
4866000000.0 0.11792731173736382 -1.040890350617273
4869000000.0 0.09737461455200272 -1.0355810818597577
4872000000.0 0.05648821042127557 -1.0561888507859516
4875000000.0 0.13805337076883598 -1.063454685781688
4878000000.0 0.08933846994115249 -1.0421485843711629
4881000000.0 0.04406860066027879 -1.072439121096927
4884000000.0 0.0712405547489118 -1.029653613831273
4888000000.0 0.10291580047120151 -1.042203658369507
4891000000.0 0.09084690936000958 -1.0707838733916362
4894000000.0 0.02792568959347691 -1.006137339325372
4897000000.0 0.048173078181537446 -1.0230278806226438
4900000000.0 0.04313214722989088 -1.0414502191113602
4903000000.0 0.043766050608372235 -1.0449000369574408
4906000000.0 0.02363710317661773 -1.045318085447769
4909000000.0 -0.0021102827083872115 -1.036582455833268
4912000000.0 0.004004015315878719 -1.0847768859587967
4916000000.0 -0.024888951732140376 -1.0509294127662114
4919000000.0 0.008675315693937473 -1.0736052304042487
4922000000.0 0.020748789623646006 -1.0445080587603572
4925000000.0 -0.07552095581186045 -1.0152527670752485
4928000000.0 0.018849372071005233 -1.0208545706955512
4931000000.0 -0.010587324261904993 -1.0110535278386052
4934000000.0 -0.056405126121856816 -1.0147791129542356
4938000000.0 -0.09883552670831246 -1.0214867782660013
4941000000.0 -0.06426421527876465 -1.0046388953589218
4944000000.0 -0.06103604050859843 -0.9488313616405244
4947000000.0 -0.06475650562521301 -0.9807295458391575
4950000000.0 -0.11342414191881427 -0.992072398034649
4953000000.0 -0.14620305743912893 -1.0486836457720194
4956000000.0 -0.1610196889416562 -1.0285277489349582
4959000000.0 -0.14067576115184896 -0.9801887422394221
4962000000.0 -0.14341419683975212 -1.0469446049386673
4966000000.0 -0.10954016865953081 -1.028870515711832
4969000000.0 -0.10570593674813439 -1.0810668297180388
4972000000.0 -0.14916003042196344 -1.0398376366326403
4975000000.0 -0.11759146564008363 -1.0250865770023978
4978000000.0 -0.16880119129835158 -1.0074838602235536
4981000000.0 -0.19754348445365386 -1.0133770696289235
4984000000.0 -0.204396846095284 -1.0055688589044507
4988000000.0 -0.1886788573279939 -0.9961121085213154
4991000000.0 -0.15591239658375 -1.065795411146956
4994000000.0 -0.21561750704097904 -0.9991152728450736
4997000000.0 -0.2953380818661791 -0.9900553903780863
5000000000.0 -0.2336340596437962 -1.054371777803646
5003000000.0 -0.24105087216268306 -1.0535994251847236
5006000000.0 -0.2567762328870703 -1.0589441923440002
5009000000.0 -0.23511402987022947 -0.9876791490982865
5012000000.0 -0.3030862229630095 -0.9798294989630472
5016000000.0 -0.23750440485023894 -1.0664902870640458
5019000000.0 -0.28912676646473556 -0.9624881802029785
5022000000.0 -0.27278987743612126 -0.9920642492151057
5025000000.0 -0.3103109624603127 -1.062494542197226
5028000000.0 -0.324679995279751 -0.9939117987895547
5031000000.0 -0.29597198365199107 -0.9985318831626292
5034000000.0 -0.3646947797396626 -1.021302429538837
5038000000.0 -0.3508632287552912 -0.9360544284294825
5041000000.0 -0.285947945059618 -1.0158331887767775
5044000000.0 -0.29181092882652193 -0.9927332588502965
5047000000.0 -0.3488237587457064 -0.9953346061366565
5050000000.0 -0.2819513414541014 -0.9604365371839167
5053000000.0 -0.39730617145265457 -0.9907624478779395
5056000000.0 -0.3175280812595982 -0.9620750377364065
5059000000.0 -0.3154141258741164 -0.987876463632878
5062000000.0 -0.40168331427405146 -0.9693712717426013
5066000000.0 -0.375450792981184 -0.948180717125455
5069000000.0 -0.4196587591526255 -0.953706755272398
5072000000.0 -0.42697368036384953 -0.9181768581799179
5075000000.0 -0.3849808478062877 -0.9643022981074822
5078000000.0 -0.4950818587491856 -0.9342793843496193
5081000000.0 -0.434768131082195 -0.9098821169902956
5084000000.0 -0.46013579364081447 -0.9430591594697362
5088000000.0 -0.41886100162788525 -0.9289408494625586
5091000000.0 -0.46180544131082574 -0.919114685634062
5094000000.0 -0.4258475412692685 -0.9193359588584434
5097000000.0 -0.4412942773223293 -0.9160930536674223
5100000000.0 -0.48058317492682073 -0.91307814746885
5103000000.0 -0.5275519995919011 -0.930523733691912
5106000000.0 -0.5386147455656027 -0.944542556749818
5109000000.0 -0.4702846847602034 -0.8866894078977465
5112000000.0 -0.5128059347639538 -0.8908944723571512
5116000000.0 -0.5121469651753049 -0.8380555243260108
5119000000.0 -0.5266409660029077 -0.942559423601431
5122000000.0 -0.5140384301368675 -0.9088751672762274
5125000000.0 -0.5444387341847546 -0.9065201311793053
5128000000.0 -0.5517876916596324 -0.8456507316342958
5131000000.0 -0.538061943374498 -0.9061219724256983
5134000000.0 -0.5020958544923808 -0.8783379612818255
5138000000.0 -0.5055937652459462 -0.8743535338172315
5141000000.0 -0.4917676640465211 -0.8539732545892507
5144000000.0 -0.5529964230194678 -0.8819509688391513
5147000000.0 -0.6032431796588289 -0.8993563130867576
5150000000.0 -0.5356218574865388 -0.9089018218387146
5153000000.0 -0.6109062398209513 -0.9059190918114945
5156000000.0 -0.5896384142596868 -0.8368453099420311
5159000000.0 -0.6244445637847269 -0.8890167039130531
5162000000.0 -0.6191863877697455 -0.8039302758341104
5166000000.0 -0.6402218221873254 -0.8628700964749734
5169000000.0 -0.6453286720075754 -0.8582818060667726
5172000000.0 -0.6237301609100309 -0.7987909093601135
5175000000.0 -0.6681939944336966 -0.8796048596412858
5178000000.0 -0.6751423569240005 -0.8363340359111707
5181000000.0 -0.6767093884300184 -0.8399250967668982
5184000000.0 -0.6680460085783452 -0.8200428235884362
5188000000.0 -0.6422277882496183 -0.8322734801635611
5191000000.0 -0.6592955576154576 -0.8159017620258623
