! Created with skrf 1.8.0 (http://scikit-rf.org).
# Hz S RI R 50.0 
!freq ReS11 ImS11
4000000000.0 0.6310087714043617 0.7966227494059288
4003000000.0 0.7213380482095074 0.833996136889613
4006000000.0 0.6529481076146276 0.77735340872003
4009000000.0 0.6230831634350148 0.8124826244543175
4012000000.0 0.6230612256088387 0.8327176893217919
4016000000.0 0.7175401131649225 0.7633637036319287
4019000000.0 0.6469111297745236 0.7646653371798258
4022000000.0 0.6189911853949411 0.7920671218270942
4025000000.0 0.7502123380319875 0.7773949207672473
4028000000.0 0.6556885123429249 0.7956145755217006
4031000000.0 0.6929034829709428 0.7517902670307809
4034000000.0 0.6803141527544778 0.727268783169571
4038000000.0 0.7438477985784362 0.7270137377057391
4041000000.0 0.7336074409856362 0.7236933289005995
4044000000.0 0.7638472084054991 0.7649261417965031
4047000000.0 0.7596381038114055 0.7773555384687316
4050000000.0 0.7797889177716256 0.6860011536962812
4053000000.0 0.7413999222118842 0.6970141860642014
4056000000.0 0.797790897070584 0.7100587722087751
4059000000.0 0.7654998705526694 0.6960519619226395
4062000000.0 0.7919495916720274 0.6849390187524442
4066000000.0 0.6851661111286917 0.6177688701564097
4069000000.0 0.8158750515699476 0.6838745801701641
4072000000.0 0.7408820411247273 0.7097813683168979
4075000000.0 0.811914681211507 0.7187008374412003
4078000000.0 0.8100969582289367 0.6543992651346712
4081000000.0 0.7723980365277103 0.7188717032559607
4084000000.0 0.8086680834392208 0.6318058868373493
4088000000.0 0.772095068816061 0.6621433803778645
4091000000.0 0.8488486017267872 0.6951398583711368
4094000000.0 0.7880292340769536 0.6051138100543257
4097000000.0 0.806891412149969 0.5775342777086725
4100000000.0 0.8262991422470326 0.6155510117700507
4103000000.0 0.8381575859636752 0.6429912532567079
4106000000.0 0.8601563887218417 0.6006481240207816
4109000000.0 0.8727965703501035 0.5825785295668342
4112000000.0 0.8543896678600569 0.5730351421409872
4116000000.0 0.8452676758556981 0.6111345915465967
4119000000.0 0.8957283447066804 0.5645369221524057
4122000000.0 0.8559481375191764 0.5369381113740712
4125000000.0 0.893007705909278 0.5403683390630953
4128000000.0 0.8335648012304442 0.5634285308236769
4131000000.0 0.8771387529183247 0.5232070987804482
4134000000.0 0.8382341695568261 0.5266945758869445
4138000000.0 0.8880256590909537 0.4982858344984871
4141000000.0 0.8948009439061969 0.47703888651953497
4144000000.0 0.8692754824350786 0.534094939247556
4147000000.0 0.8711322139897935 0.4848543384911331
4150000000.0 0.9528967439805971 0.5401559381932555
4153000000.0 0.8897862060156727 0.46275063690967055
4156000000.0 0.8961109354173373 0.5087007552263392
4159000000.0 0.8827940590037571 0.46823527428880324
4162000000.0 0.8861907996256784 0.4811771902907145
4166000000.0 0.9104650342088112 0.4503005514943921
4169000000.0 0.8961538396352083 0.4238192197094387
4172000000.0 0.9407981353013878 0.4717403914016594
4175000000.0 0.9319328307557654 0.44105507401554284
4178000000.0 0.9187496086597576 0.44041769594616154
4181000000.0 0.9137105577794862 0.4287898360140995
4184000000.0 0.9423629084325574 0.41265852167697276
4188000000.0 0.9571145485467376 0.40750762883552305
4191000000.0 0.8918979931890302 0.4202669921371552
4194000000.0 0.9112760111621976 0.3839533771806053
4197000000.0 0.9711545762664203 0.37108914949482313
4200000000.0 0.9365082847427761 0.39870409998568934
4203000000.0 0.9467167348416897 0.40521682559378946
4206000000.0 0.948767346559931 0.36870929389191703
4209000000.0 0.9308958449097625 0.3589897746097695
4212000000.0 0.9558645957205698 0.30969082724515373
4216000000.0 0.9590132421217459 0.3403040640161336
4219000000.0 0.9601939681621795 0.34581256601301025
4222000000.0 0.9778207952363123 0.32746246038789023
4225000000.0 0.956374027608436 0.31165788521010884
4228000000.0 0.9736286320911001 0.2999007944039904
4231000000.0 0.9810665417905952 0.2961653550482695
4234000000.0 0.9838707754551825 0.3074740859726583
4238000000.0 0.975194325944688 0.2811740403765488
4241000000.0 0.9940350340454098 0.23976779994350222
4244000000.0 0.9777733268560528 0.2604825930504041
4247000000.0 0.9782622904092082 0.2769270817330839
4250000000.0 0.9715075654070553 0.2494215340030968
4253000000.0 0.9392644128044083 0.2314149516982839
4256000000.0 1.0057633399206864 0.24575006770257596
4259000000.0 0.956740413716058 0.20844958347449613
4262000000.0 0.9813207069120566 0.2096268078912135
4266000000.0 0.9990000758693784 0.17088576007399314
4269000000.0 0.9854026116403638 0.22362589519693374
4272000000.0 0.9822092798098783 0.18200865123790583
4275000000.0 1.0013843008619545 0.17930205765548562
4278000000.0 1.0180914351536987 0.1663067070329426
4281000000.0 1.001738267370912 0.1604596316750957
4284000000.0 1.0197175321351186 0.13752386361974636
4288000000.0 1.004913077844726 0.1829306873383493
4291000000.0 0.9620030634609905 0.13160402991471043
4294000000.0 0.9921616283041114 0.12703153014105723
4297000000.0 0.9869689215991924 0.14160677534080757
4300000000.0 0.9804155253007514 0.1335820630021117
4303000000.0 1.0105776253375083 0.08607393334320056
4306000000.0 0.9849518770479986 0.1447837906690968
4309000000.0 0.9856458531825474 0.11753294430463314
4312000000.0 1.0066092200362153 0.12914624931205973
4316000000.0 1.0256099302959685 0.09267463425191337
4319000000.0 1.0077216415524783 0.07228196673809752
4322000000.0 0.9854111544121096 0.030789574966334818
4325000000.0 0.9878032586645712 0.039030924467871694
4328000000.0 0.9900311263524678 0.05589508414136894
4331000000.0 1.0261702437412092 -0.009984958061409588
4334000000.0 1.0248247965883488 0.010060837920918442
4338000000.0 1.0114058024713661 0.03683692936959411
4341000000.0 1.0256834096441665 0.008931404856607594
4344000000.0 1.0220950661094041 0.006799227600820912
4347000000.0 1.0096484283448306 -0.03212668478880537
4350000000.0 0.9871518442748339 -0.03109020132894716
4353000000.0 0.9843342207236092 -0.009558334623043119
4356000000.0 0.9987971584983106 -0.06315040154938657
4359000000.0 0.9699096383208727 -0.06352994715937677
4362000000.0 1.01474139196266 -0.08726848327702182
4366000000.0 1.0211759494036678 -0.08105315075527596
4369000000.0 0.9681161704337851 -0.08239276389987617
4372000000.0 0.9983289252966148 -0.12484013268177391
4375000000.0 1.0025173758461867 -0.07589528799926493
4378000000.0 0.9761750188135893 -0.08811638235852562
4381000000.0 0.9992424088409266 -0.11727222459832995
4384000000.0 1.0600448946785352 -0.14974259255607641
4388000000.0 0.9868601851986051 -0.11779282141406945
4391000000.0 1.0051288440974235 -0.12341910470772649
4394000000.0 0.9583835254097708 -0.13855424751743084
4397000000.0 0.994637535975549 -0.1618805187636121
4400000000.0 1.0043524337950633 -0.16973093975317927
4403000000.0 1.000581560650069 -0.16343025312026865
4406000000.0 0.9968533055550738 -0.19785623671360011
4409000000.0 1.0273365224764255 -0.19515421631938204
4412000000.0 0.9833760503012723 -0.250425012812046
4416000000.0 0.9625992746913283 -0.21709488392264317
4419000000.0 0.9861613177564311 -0.23351653664065783
4422000000.0 0.9811574378504142 -0.20657010596439682
4425000000.0 1.0059583569601263 -0.20949173755160141
4428000000.0 0.9738634203647871 -0.26184574965843005
4431000000.0 0.9943442277961163 -0.25554655080079103
4434000000.0 0.9720675569602093 -0.2467274871203906
4438000000.0 0.9897304357424284 -0.2545190442512933
4441000000.0 0.9807809550050113 -0.26662872853599484
4444000000.0 0.9384202299947884 -0.27974016516007877
4447000000.0 0.9466689796243083 -0.30889584968614536
4450000000.0 0.9532417343531584 -0.27903151063989795
4453000000.0 0.9846348712262687 -0.3263597251580027
4456000000.0 0.9232378904322672 -0.3346068887340182
4459000000.0 0.9192764492053647 -0.3286246819659867
4462000000.0 1.0069411446363854 -0.3537974171730164
4466000000.0 0.9727528253901049 -0.37061979635897496
4469000000.0 0.9509735061085945 -0.3514027905746139
4472000000.0 0.9460152584358633 -0.3944909574272208
4475000000.0 0.9086508783340649 -0.35334439893631475
4478000000.0 0.9617561092542057 -0.4036993077515293
4481000000.0 0.9024417415644905 -0.37846438362274265
4484000000.0 0.8910082989129127 -0.4299702214320196
4488000000.0 0.9009695960533929 -0.40516678972795966
4491000000.0 0.9284512031680173 -0.4067561329063372
4494000000.0 0.917878564430981 -0.39791034710307877
4497000000.0 0.9006833658515172 -0.39397773643752937
4500000000.0 0.9007398116908871 -0.4408945744433132
4503000000.0 0.9476951744501882 -0.4417204270458351
4506000000.0 0.905422838078151 -0.4433832686552189
4509000000.0 0.8821092743880676 -0.44165917745827366
4512000000.0 0.8702420956359056 -0.47567429418270757
4516000000.0 0.9261954211909089 -0.4544664749702252
4519000000.0 0.870756035987155 -0.47165096741947343
4522000000.0 0.8569884926682392 -0.4932882454781188
4525000000.0 0.891572416446258 -0.45205373901878526
4528000000.0 0.9019984932715497 -0.5073717243028967
4531000000.0 0.872294011223489 -0.48051441230249237
4534000000.0 0.8515950295587755 -0.5255164018937607
4538000000.0 0.8489517559980242 -0.5314422999498859
4541000000.0 0.8234451071317281 -0.5783371848262425
4544000000.0 0.84774874349689 -0.5392198235754374
4547000000.0 0.8476384053902264 -0.509640421857432
4550000000.0 0.8447901125406052 -0.5667901688863347
4553000000.0 0.8364534839564541 -0.5638293600170374
4556000000.0 0.7946010522297682 -0.5750741157396783
4559000000.0 0.8290961372608631 -0.5820889475662967
4562000000.0 0.8024674532157665 -0.6031502858938106
4566000000.0 0.8161193231851753 -0.5937995446492481
4569000000.0 0.7747442156777886 -0.5990825671570044
4572000000.0 0.7853086964614111 -0.5897041857718406
4575000000.0 0.797010305707476 -0.6414681967238315
4578000000.0 0.8302723093378941 -0.6111176903826413
4581000000.0 0.7709446142344084 -0.6446762788663896
4584000000.0 0.7687064252864867 -0.6229790074445924
4588000000.0 0.7915953768793612 -0.6515665991107931
4591000000.0 0.7999213722888002 -0.632041028608439
4594000000.0 0.7557873834688273 -0.673210937447817
4597000000.0 0.7618050951732822 -0.6712620437613761
4600000000.0 0.7288914523634827 -0.6723785067000493
4603000000.0 0.7421665554192539 -0.6958917404098248
4606000000.0 0.738488187081161 -0.697239368292222
4609000000.0 0.7326914836949918 -0.6838973022574738
4612000000.0 0.7345367957563628 -0.6994485640066102
4616000000.0 0.706481945227607 -0.6967890168293333
4619000000.0 0.7200747990356072 -0.7058127771249499
4622000000.0 0.7085581799283697 -0.7100046756607292
4625000000.0 0.6713610810535952 -0.7179989395929756
4628000000.0 0.7034738831622774 -0.7097261336685906
4631000000.0 0.6847419064061111 -0.7350215741117386
4634000000.0 0.6730303422678066 -0.7398261087019716
4638000000.0 0.6894949530178156 -0.7644637520574934
4641000000.0 0.6725355408405533 -0.753101235587882
4644000000.0 0.6631735976496214 -0.746918194428741
4647000000.0 0.656335544566405 -0.7651331927485809
4650000000.0 0.6472027466044684 -0.7801882213890685
4653000000.0 0.6580422139607591 -0.7856480451565913
4656000000.0 0.6322812657410597 -0.7854562138188852
4659000000.0 0.6285022841414083 -0.7937431097867715
4662000000.0 0.6216217010690602 -0.8062502128923179
4666000000.0 0.60192359216727 -0.7957573738716615
4669000000.0 0.6224013611076404 -0.7994770842974662
4672000000.0 0.5994320992055436 -0.8431748156181402
4675000000.0 0.6007711434236146 -0.8223524260531767
4678000000.0 0.583653493000196 -0.8231411818629326
4681000000.0 0.5720064798113021 -0.873139595509195
4684000000.0 0.5425621091475072 -0.858757151602416
4688000000.0 0.55244758511157 -0.8416331639719348
4691000000.0 0.5895150468688026 -0.8449055476056699
4694000000.0 0.5556295152803631 -0.8274723281258807
4697000000.0 0.5123815169997906 -0.8249813824265912
4700000000.0 0.5421323772449705 -0.8447821388580388
4703000000.0 0.5255795324858905 -0.8235623533686582
4706000000.0 0.5128705207466817 -0.8815504947505989
4709000000.0 0.5031189876032687 -0.893313962728388
4712000000.0 0.5083102899763071 -0.8581131670128965
4716000000.0 0.5021936171650825 -0.8988576783343554
4719000000.0 0.5196118796129744 -0.8591425642290856
4722000000.0 0.4877223416673575 -0.8869381636709655
4725000000.0 0.4869747912613429 -0.8770472940831043
4728000000.0 0.4545067480972339 -0.902495757422465
4731000000.0 0.4759437961395341 -0.9188210983324392
4734000000.0 0.4577244624304746 -0.8805939698095016
4738000000.0 0.4847765134257259 -0.9168817325600045
4741000000.0 0.4381201488524657 -0.9230284660485402
4744000000.0 0.41720175421517974 -0.9219041802881829
4747000000.0 0.4027012066404654 -0.8950780054265547
4750000000.0 0.41265726628640886 -0.9187350905656024
4753000000.0 0.4234672244785672 -0.9409949907386911
4756000000.0 0.40631098142380667 -0.9505542310898139
4759000000.0 0.4077858193218122 -0.9290027253295845
4762000000.0 0.3558903253645482 -0.9509578850174398
4766000000.0 0.3651613663610366 -0.9320814472765095
4769000000.0 0.39322183609990013 -0.9530499723962954
4772000000.0 0.3436412364454505 -0.9332872672206421
4775000000.0 0.3764552849553161 -1.0137220969564356
4778000000.0 0.33597391816292554 -0.9549176154215194
4781000000.0 0.3407415142625353 -0.9388089174827745
4784000000.0 0.3536598901427527 -0.9446902433076899
4788000000.0 0.30400324771547976 -1.0129269103425043
4791000000.0 0.30053549497831694 -0.9941949842241092
4794000000.0 0.351292672967808 -0.99399029429593
4797000000.0 0.2949347708426148 -0.9728444952717036
4800000000.0 0.27530420001598105 -0.9757246212500876
4803000000.0 0.22586900467749635 -0.9654581436062604
4806000000.0 0.27550843328662855 -0.9762934987850069
4809000000.0 0.20637281976369443 -1.0012572164437687
4812000000.0 0.23015511094810306 -0.9689290470843972
4816000000.0 0.27137231105585846 -0.9686288695815162
4819000000.0 0.26137079801781016 -1.0144001718547788
4822000000.0 0.2343133883512508 -1.0397011264663851
4825000000.0 0.2504473485558545 -0.9984689725101421
4828000000.0 0.2052410279510784 -1.0011284295595666
4831000000.0 0.17512574370878942 -1.03211890874709
4834000000.0 0.21091058104714433 -0.9952871464733755
4838000000.0 0.16626605074910322 -1.0370369664209085
4841000000.0 0.1593143894539267 -0.996568281689672
4844000000.0 0.213806426517258 -0.9921768369350003
4847000000.0 0.18502386908582802 -0.9697002017398189
4850000000.0 0.14430735934032118 -1.0332190602112397
4853000000.0 0.15360454405461865 -0.9918775746016675
4856000000.0 0.1296037860520356 -1.0158469980554645
4859000000.0 0.11789473914469409 -1.040653101228814
4862000000.0 0.13439509766709834 -0.9956182851184093
4866000000.0 0.11007216083988447 -1.0403358472186552
4869000000.0 0.10371249697637996 -1.009837721049496
4872000000.0 0.06071666551677413 -1.0532553846612025
4875000000.0 0.14315432944493445 -1.0453279480525697
4878000000.0 0.08429249268458201 -1.0329346329054465
4881000000.0 0.02330824688852181 -1.0631387094889253
4884000000.0 0.10162092949336732 -1.02777503582546
4888000000.0 0.09090900073358146 -1.013176530983446
4891000000.0 0.08219908077127144 -1.032879410709105
4894000000.0 0.0006711247543903075 -1.0276557412542375
4897000000.0 0.050192002987071827 -1.0290329657941895
4900000000.0 0.04706731154258683 -1.025905469018585
4903000000.0 0.022676063346844674 -1.0527216666774617
4906000000.0 0.00588041146794927 -1.0275472277823547
4909000000.0 -0.026849135936815725 -1.0389587202520592
4912000000.0 -0.039195507554548537 -1.057927304027459
4916000000.0 0.011372364593349851 -1.0524696207562445
4919000000.0 -0.010541181148136458 -1.049660369126904
4922000000.0 0.00582848994913146 -1.0157050626811661
4925000000.0 -0.08108485209223834 -1.038668926702493
4928000000.0 -0.003537634206491558 -0.998471634879482
4931000000.0 -0.007215437103729849 -1.0229650816355953
4934000000.0 -0.031844411663180014 -0.9978583863354636
4938000000.0 -0.10499896249892383 -0.9884882551314753
4941000000.0 -0.07673551529822757 -1.008195939024977
4944000000.0 -0.057135735252606956 -0.9603226455290941
4947000000.0 -0.11731101340293179 -0.9717353184822417
4950000000.0 -0.1053064376014524 -1.0013138851923846
4953000000.0 -0.15937200975132332 -1.0395489430644829
4956000000.0 -0.13550366347574444 -1.0268297921940883
4959000000.0 -0.16871456836677687 -0.9704008795042779
4962000000.0 -0.15247012682601382 -1.066128478633918
4966000000.0 -0.13204174592108692 -1.0806992351428089
4969000000.0 -0.15483209335557852 -1.0780230843241219
4972000000.0 -0.192229191335734 -1.0267576090094126
4975000000.0 -0.1829220548030239 -0.9627369459793749
4978000000.0 -0.18997667308710448 -1.0474144562490324
4981000000.0 -0.22796624667968649 -1.0097671140828368
4984000000.0 -0.17080702959532587 -0.9975070615617424
4988000000.0 -0.17555955677074625 -0.9959538364395497
4991000000.0 -0.15633660293804225 -1.0218703370315434
4994000000.0 -0.20530282606219202 -1.0202664481167973
4997000000.0 -0.2781279112236365 -0.9629470608034456
5000000000.0 -0.23757624788277226 -1.0485552957474205
5003000000.0 -0.2604130926906399 -1.0844747981416127
5006000000.0 -0.23901216370958558 -1.0586637038706794
5009000000.0 -0.2607362906361551 -0.9886145562117049
5012000000.0 -0.29591206358762195 -1.0001043051990264
5016000000.0 -0.23995845490343543 -1.0449670880296706
5019000000.0 -0.28282245471330014 -0.9989765018305297
5022000000.0 -0.2722597502780706 -0.968443486667635
5025000000.0 -0.29944968341502104 -1.0281986912344463
5028000000.0 -0.3076297753090931 -0.9786977586085661
5031000000.0 -0.35020258446695285 -0.9808172750360847
5034000000.0 -0.3619346307252418 -1.0137667313101946
5038000000.0 -0.3477890179821852 -0.9458247965504798
5041000000.0 -0.28637583738593547 -1.0045085930270305
5044000000.0 -0.3178768552653771 -0.9772743953706055
5047000000.0 -0.3107070234599722 -0.976235169506907
5050000000.0 -0.2591299094322519 -0.97172983116696
5053000000.0 -0.3904016568382961 -0.9834320227227675
5056000000.0 -0.3243214935344845 -1.0025884699054883
5059000000.0 -0.34932676743458485 -0.9791759073092395
5062000000.0 -0.4375514615888464 -0.9518465033243515
5066000000.0 -0.3409826668928809 -0.9234717984253176
5069000000.0 -0.3850469083759349 -0.9885724290140737
5072000000.0 -0.3983609935978751 -0.905442894647035
5075000000.0 -0.4062510547991639 -0.987362521447952
5078000000.0 -0.4532557220802839 -0.9233502403751206
5081000000.0 -0.4365467927019198 -0.9103731599544885
5084000000.0 -0.4470824405182563 -0.9448394348893532
5088000000.0 -0.390058852871197 -0.9423182303004771
5091000000.0 -0.5027342119957885 -0.9044984677502994
5094000000.0 -0.45387937890584046 -0.9114908424884728
5097000000.0 -0.4325055828340786 -0.9576893991276891
5100000000.0 -0.443911419454613 -0.934963389658548
5103000000.0 -0.5314369075345875 -0.9173244766520244
5106000000.0 -0.4543942843697178 -0.9495796164619372
5109000000.0 -0.44919339325499996 -0.9166545134734689
5112000000.0 -0.4987933829938471 -0.901923143559564
5116000000.0 -0.4836768775616661 -0.8323711522670656
5119000000.0 -0.5419962716538654 -0.8875882745416321
5122000000.0 -0.5281167289544038 -0.9033249058815427
5125000000.0 -0.5049035875082604 -0.9073869206719708
5128000000.0 -0.564614372489184 -0.8913714687622805
5131000000.0 -0.5804145579472676 -0.8448620513082172
5134000000.0 -0.5149326424732095 -0.8750400456044132
5138000000.0 -0.5614048483286594 -0.8641434541028998
5141000000.0 -0.5271121883318031 -0.8771814088382626
5144000000.0 -0.5481932787156805 -0.916288281053477
5147000000.0 -0.5825961628594519 -0.8740199572421765
5150000000.0 -0.5899853660537604 -0.8913914085081548
5153000000.0 -0.6026957793087859 -0.898718574866591
5156000000.0 -0.6027688377880882 -0.8918796102761635
5159000000.0 -0.6340309615937106 -0.875917999801489
5162000000.0 -0.6331380088235665 -0.828808045094975
5166000000.0 -0.6339814443795897 -0.8462474926634791
5169000000.0 -0.6588501617605776 -0.8652804614559835
5172000000.0 -0.6027815753119039 -0.8231572855323831
5175000000.0 -0.6245525096206034 -0.8715610946476988
5178000000.0 -0.6718625530864597 -0.8061736957627774
5181000000.0 -0.653239193271783 -0.8248219032972
5184000000.0 -0.6293007905718723 -0.838459318587501
5188000000.0 -0.6943567089992173 -0.814472844303621
