! Created with skrf 1.8.0 (http://scikit-rf.org).
# Hz S RI R 50.0 
!freq ReS11 ImS11
4000000000.0 0.6967493047405952 0.7969485532867848
4003000000.0 0.7270819646428629 0.8498891861764366
4006000000.0 0.7121461548453698 0.7464759215532834
4009000000.0 0.6317161781689684 0.7454353606395296
4012000000.0 0.6806044745706429 0.7718101846787992
4016000000.0 0.7542941214683165 0.7232693790116715
4019000000.0 0.6877013941946921 0.7551506888946553
4022000000.0 0.671418621774246 0.8118329222622563
4025000000.0 0.7513579323378239 0.6997144337780403
4028000000.0 0.7626781246237982 0.7256280439931893
4031000000.0 0.6838056926575692 0.7127884555755787
4034000000.0 0.7143174887510825 0.7072759604785562
4038000000.0 0.7797393340724503 0.7155945380471412
4041000000.0 0.7364720768517209 0.7442198838487885
4044000000.0 0.8104269083178085 0.7377411162490704
4047000000.0 0.7738931478562857 0.7301644018866202
4050000000.0 0.7884715654704233 0.6713600059564346
4053000000.0 0.7893119773759154 0.6680312250850033
4056000000.0 0.7881305472643337 0.6580726083386792
4059000000.0 0.789804652797258 0.6644710903431712
4062000000.0 0.7983273002190654 0.6463395180532368
4066000000.0 0.7341123079418066 0.5639191858789357
4069000000.0 0.8169641208600464 0.6129818386431684
4072000000.0 0.7691357985338316 0.6467688622553527
4075000000.0 0.8027754016627502 0.7380790096007008
4078000000.0 0.8420686314141878 0.6227628878993708
4081000000.0 0.8057514291917656 0.6544647046474336
4084000000.0 0.8664321338517558 0.605362921837364
4088000000.0 0.7824223967214317 0.6384203145829778
4091000000.0 0.879659921825961 0.6116048802825693
4094000000.0 0.8467509607826346 0.6023728540548815
4097000000.0 0.8320156131095654 0.5807425727327644
4100000000.0 0.8582436355092758 0.5505782460680708
4103000000.0 0.8306654730876484 0.5927542303432496
4106000000.0 0.9137636411764107 0.5866395494027644
4109000000.0 0.857894548975483 0.5489383577058238
4112000000.0 0.868173110252719 0.5358858882711626
4116000000.0 0.8815889654354057 0.5585444707814898
4119000000.0 0.8986461485786457 0.5153439838084121
4122000000.0 0.8944276735818082 0.48401683558816466
4125000000.0 0.907403871328857 0.5073714042564967
4128000000.0 0.8228353246663821 0.5211070131505792
4131000000.0 0.8824960185416758 0.49605014885133136
4134000000.0 0.8698205287536883 0.5048489446275407
4138000000.0 0.9077097636780367 0.46741078444225065
4141000000.0 0.897782972677887 0.48447524091331484
4144000000.0 0.8715235952499666 0.47641098754198435
4147000000.0 0.8785681632315441 0.4474813930993367
4150000000.0 0.9561057006780027 0.4733668406415476
4153000000.0 0.8966087416287171 0.4364390698575258
4156000000.0 0.9403889472382607 0.4588451640034764
4159000000.0 0.8868218647317399 0.44664093526403686
4162000000.0 0.8800423939698594 0.4252320221177348
4166000000.0 0.9572307639708364 0.42741016122495823
4169000000.0 0.9293928975104373 0.38689732867384086
4172000000.0 0.9518782374037663 0.43412276741903694
4175000000.0 0.9697351122523585 0.40601573516581274
4178000000.0 0.9264067083230139 0.38550346330806917
4181000000.0 0.9456955185652458 0.3710712649736946
4184000000.0 0.9298187984231464 0.3472307491853696
4188000000.0 0.9461062444853803 0.3408506990238064
4191000000.0 0.9079169556897274 0.3865320579388953
4194000000.0 0.944311955653311 0.3364785810045017
4197000000.0 0.9621588327934835 0.3410941317905453
4200000000.0 0.9578466614579424 0.36008140157158286
4203000000.0 0.9722929556495143 0.355363734069189
4206000000.0 0.9867387855795012 0.33216974001424876
4209000000.0 0.9681257594942922 0.3109675433740133
4212000000.0 0.9885139396774629 0.26534643986292417
4216000000.0 0.9790164846510129 0.32324534987556214
4219000000.0 0.9988835365315835 0.2886474709887087
4222000000.0 0.9890514614884385 0.27743747379819056
4225000000.0 0.9759067032572715 0.2626031602415596
4228000000.0 0.9985963841453549 0.24171666674764605
4231000000.0 0.9915133703153726 0.2407591512240339
4234000000.0 0.9827197375330362 0.2379186883417287
4238000000.0 0.9888895279722077 0.21993828440108756
4241000000.0 0.9874592808186475 0.2068388210851827
4244000000.0 0.979110110617988 0.22119883810891655
4247000000.0 0.9779102739254734 0.19801193543657997
4250000000.0 0.9729462531614104 0.1963724960599657
4253000000.0 0.9701117369181551 0.18498129467714242
4256000000.0 1.0292157179459147 0.18056536792342387
4259000000.0 0.983586364989635 0.14991419589496804
4262000000.0 1.0010388034615687 0.1462072107907356
4266000000.0 1.0299380386793178 0.11529135265388424
4269000000.0 0.9848397705386697 0.15448002034813646
4272000000.0 1.019336666862202 0.15473693849868242
4275000000.0 1.0051083729630912 0.13409065837162923
4278000000.0 1.0204548780021558 0.11459879863535008
4281000000.0 1.024798891712388 0.10382232198853318
4284000000.0 1.0134840177620825 0.06435826055487937
4288000000.0 0.974529670047941 0.12855219082601946
4291000000.0 0.9724612752087533 0.07138461317817389
4294000000.0 1.0107008233810193 0.06969805127609667
4297000000.0 0.9835291193826626 0.10739171063711296
4300000000.0 0.9933063895801617 0.08486233570989202
4303000000.0 1.0001040548319395 0.032104555435278376
4306000000.0 1.0103180715150004 0.05194818939993319
4309000000.0 1.0239948892755728 0.02420308947298401
4312000000.0 1.0293715402131465 0.055291056280810186
4316000000.0 1.002505051847236 0.027089744533314142
4319000000.0 0.9666635305343505 0.007475574578090338
4322000000.0 1.0167381518507719 -0.052761749814752505
4325000000.0 1.0149352512130865 -0.017788503065259267
4328000000.0 1.0127330416729243 -0.0038487834553620065
4331000000.0 1.0315470050803721 -0.0655129159143705
4334000000.0 1.0261893676537492 -0.05211663254857746
4338000000.0 0.9916771558997362 -0.015443667864804292
4341000000.0 1.0470885324611747 -0.02704451025339688
4344000000.0 1.0306597921441292 -0.03305460530922624
4347000000.0 1.000580265224678 -0.08482798190274911
4350000000.0 0.9925764402727576 -0.09251494323669071
4353000000.0 0.9763395650169759 -0.0686200531009358
4356000000.0 0.9882352705615701 -0.11004691173173684
4359000000.0 0.9630136473076213 -0.09265768172816756
4362000000.0 1.0022720557087283 -0.16063508465504978
4366000000.0 1.0174699443003694 -0.14154967783991848
4369000000.0 0.9710536871362516 -0.13868973078729116
4372000000.0 0.9915899246227791 -0.18384162280144895
4375000000.0 1.0097642353825176 -0.12994946989136041
4378000000.0 0.9628602608184113 -0.1588164626575193
4381000000.0 0.9741065685980721 -0.1560144775647021
4384000000.0 1.0513279161620621 -0.18988014982987783
4388000000.0 0.98777215366003 -0.1733660641430652
4391000000.0 0.9980930988205965 -0.186163025378737
4394000000.0 0.9482215580678867 -0.19224092578823165
4397000000.0 0.9869443524446155 -0.2143273190776428
4400000000.0 0.9991325686876882 -0.2377663583367055
4403000000.0 0.9889577872320197 -0.23611810907329825
4406000000.0 0.9760802491432267 -0.2498257290731236
4409000000.0 1.0076813049542976 -0.25753990674707233
4412000000.0 0.956182682965678 -0.30640848782799485
4416000000.0 0.963271759993243 -0.2707035329731769
4419000000.0 0.9727595115599403 -0.2932864484112287
4422000000.0 0.9646991878395292 -0.26425974870476177
4425000000.0 0.9764068047727258 -0.27117389557223637
4428000000.0 0.9644581984966977 -0.30511826750900084
4431000000.0 0.9844241507251119 -0.3001350910927039
4434000000.0 0.9376650391681385 -0.3294198842067402
4438000000.0 0.9741382366741136 -0.3208300366721596
4441000000.0 0.9647600726165895 -0.3377090528517033
4444000000.0 0.9287244964650045 -0.3256723655739247
4447000000.0 0.9380774737938695 -0.35302502919624
4450000000.0 0.9387471829078733 -0.33610799876573794
4453000000.0 0.9671556057899985 -0.37012484652421335
4456000000.0 0.8932203456764808 -0.3804955451972767
4459000000.0 0.8849470807080648 -0.3924666735229769
4462000000.0 0.9753373235380125 -0.4146385121428009
4466000000.0 0.955033470164601 -0.4189300991238559
4469000000.0 0.9308022928155673 -0.39647462711545883
4472000000.0 0.9259905846187515 -0.440125815563147
4475000000.0 0.897780060265967 -0.4181587098624988
4478000000.0 0.9346537473685453 -0.45934058394286914
4481000000.0 0.8814244751474642 -0.4493604390340383
4484000000.0 0.870684050114602 -0.49172038628863735
4488000000.0 0.8867868501005086 -0.4727467221156286
4491000000.0 0.8975128890679523 -0.48163359139020406
4494000000.0 0.883034927173198 -0.4684378078207952
4497000000.0 0.8803065902241625 -0.4557041836775515
4500000000.0 0.8934999365600902 -0.49770775960199665
4503000000.0 0.8964604448272968 -0.5093403295560005
4506000000.0 0.858189057791475 -0.5025109406063403
4509000000.0 0.8577425659532487 -0.5089273284177998
4512000000.0 0.8510513788782533 -0.5186755443725733
4516000000.0 0.8592258425396371 -0.5415940768544151
4519000000.0 0.8360611880272121 -0.5231573191399717
4522000000.0 0.8354253707526273 -0.5608130853661906
4525000000.0 0.8644340500667245 -0.5078059660331505
4528000000.0 0.8525636333281423 -0.5621594786095557
4531000000.0 0.8343887940754755 -0.5528402592782625
4534000000.0 0.8086360464242667 -0.5579561593745762
4538000000.0 0.8218657033684595 -0.5781138656655467
4541000000.0 0.7961248275590371 -0.6012996240167845
4544000000.0 0.8064046190955318 -0.5824711244897579
4547000000.0 0.801236530383621 -0.5751212659477238
4550000000.0 0.8006692870069569 -0.6329694497633132
4553000000.0 0.7960383506138058 -0.6475176699113685
4556000000.0 0.7653539642761233 -0.6400261588375089
4559000000.0 0.7678371744982796 -0.6353787181710051
4562000000.0 0.7813283313841339 -0.6394357922456017
4566000000.0 0.7653599757442047 -0.6465234585655568
4569000000.0 0.7393537182541261 -0.6424528491440717
4572000000.0 0.7495553174707158 -0.6673222503721322
4575000000.0 0.7532201032011561 -0.6958033557340765
4578000000.0 0.7641501522850376 -0.6620276271307775
4581000000.0 0.7358391182775732 -0.6816784769655899
4584000000.0 0.7142901159474265 -0.6775146760732119
4588000000.0 0.7436704008214765 -0.6951826556405823
4591000000.0 0.7291392814967179 -0.6951016279673726
4594000000.0 0.6964210308256908 -0.7170158639825247
4597000000.0 0.7056450902647162 -0.7167215847861438
4600000000.0 0.6698049927877007 -0.7421902930545344
4603000000.0 0.6890216154606312 -0.7471097895605489
4606000000.0 0.7156361450666394 -0.7448274025880374
4609000000.0 0.6912543953294684 -0.7323523959099695
4612000000.0 0.6688565557222094 -0.7528496982697589
4616000000.0 0.6583820561759355 -0.7557239506583077
4619000000.0 0.6525067287358866 -0.7483832117950086
4622000000.0 0.6574327832220037 -0.7738246885346337
4625000000.0 0.6029731331280499 -0.756371865413842
4628000000.0 0.6517832212677847 -0.7595323078253599
4631000000.0 0.6299972561699603 -0.7966302139384486
4634000000.0 0.6300090021977559 -0.786228915318531
4638000000.0 0.6241153577319238 -0.7989544010166378
4641000000.0 0.6250335870919522 -0.7995241543190793
4644000000.0 0.5991270514337695 -0.7834401478508991
4647000000.0 0.6237718464719176 -0.814827794727708
4650000000.0 0.5649644670767218 -0.8158993662716025
4653000000.0 0.6002401023520048 -0.817087551270203
4656000000.0 0.5819325917843218 -0.8311811002684535
4659000000.0 0.5544565252123841 -0.8252641770341673
4662000000.0 0.5756737946306377 -0.8395407116074076
4666000000.0 0.5506291916061661 -0.8477274579840857
4669000000.0 0.5555540826146997 -0.8380920473423537
4672000000.0 0.5268855416244573 -0.8822428194388935
4675000000.0 0.5208751938772589 -0.8669514477305112
4678000000.0 0.5262454351059114 -0.8426933065489746
4681000000.0 0.48709325014207033 -0.874223967472053
4684000000.0 0.4939857034539208 -0.8716281374601905
4688000000.0 0.46251816726963707 -0.8747048700453162
4691000000.0 0.5078211097675261 -0.8902668167985475
4694000000.0 0.48979563408896576 -0.8676074440299797
4697000000.0 0.4615423786267861 -0.893908030319982
4700000000.0 0.4595548866461574 -0.8597880454333227
4703000000.0 0.4837872414157131 -0.8709468225257075
4706000000.0 0.45604687191376725 -0.911669712816548
4709000000.0 0.4429621626389745 -0.89673944227302
4712000000.0 0.43705003022212163 -0.8876521519798893
4716000000.0 0.4220603384153734 -0.9184209817450315
4719000000.0 0.44840514995404784 -0.8991270429381959
4722000000.0 0.45202431432227685 -0.9143642545876831
4725000000.0 0.4062850485268328 -0.9440305453255872
4728000000.0 0.4033140394041057 -0.9196659332194894
4731000000.0 0.39213714381038045 -0.9622455566389405
4734000000.0 0.4020064258326155 -0.9249663554562724
4738000000.0 0.4077946973322897 -0.9964794286650089
4741000000.0 0.3541919804116548 -0.953873294066712
4744000000.0 0.36058345497546207 -0.9496657920413394
4747000000.0 0.3515513771643455 -0.9048903629883873
4750000000.0 0.36727013934369485 -0.9440350975031903
4753000000.0 0.35951613475424493 -0.9671270992363834
4756000000.0 0.324887885640725 -0.9342764706763276
4759000000.0 0.3263733162992988 -0.9709727807954583
4762000000.0 0.3284795405135935 -1.0153512441433272
4766000000.0 0.2976116069474445 -0.9784571486034204
4769000000.0 0.3244326312806141 -0.979938264715236
4772000000.0 0.31416379655949056 -0.9614543163280171
4775000000.0 0.2772269804279421 -1.0315922276948346
4778000000.0 0.2646182597487606 -1.006141750272933
4781000000.0 0.26333132288256567 -0.9799632531481071
4784000000.0 0.2650132300971244 -0.9694455861265466
4788000000.0 0.23850595198571956 -1.0094244142449513
4791000000.0 0.2215294427640073 -0.963042373867604
4794000000.0 0.24603663218688707 -1.0400991154427375
4797000000.0 0.22426745560781422 -0.9584609114882529
4800000000.0 0.16619858680121413 -0.9957042449160027
4803000000.0 0.16710801650326287 -0.9811160243653765
4806000000.0 0.15924996511855857 -1.0072769276098892
4809000000.0 0.14298997026607668 -1.0078677021008577
4812000000.0 0.14460931140730032 -0.9990753627541489
4816000000.0 0.2070337356667669 -0.988390468695787
4819000000.0 0.16733746273727731 -1.0230829621969444
4822000000.0 0.18273179300968276 -1.0492785283611035
4825000000.0 0.17193525814905725 -1.0381450071382365
4828000000.0 0.1387127244186073 -1.0079395212316191
4831000000.0 0.0876598449937215 -1.0370527071042874
4834000000.0 0.12459769885065149 -1.0116213684353854
4838000000.0 0.09570594117421405 -1.0527280738377767
4841000000.0 0.10193546927864372 -1.0001911919885913
4844000000.0 0.1394823371464709 -1.0209527791139725
4847000000.0 0.09607390324683124 -0.9869829922557332
4850000000.0 0.062270202086565474 -1.0330790676727957
4853000000.0 0.07631574731872834 -0.9993148156460308
4856000000.0 0.04752839252413345 -1.0060088993617686
4859000000.0 0.02695307029935137 -1.074091894051922
4862000000.0 0.05058379134117194 -0.9860415950369464
4866000000.0 0.001827250085328868 -1.0289756484332777
4869000000.0 -0.002602022354633176 -1.0094142162428454
4872000000.0 -0.015836860041355066 -1.0392467775740377
4875000000.0 0.04398954541229248 -1.0504480200685875
4878000000.0 -0.009445044202267161 -1.0366911173519942
4881000000.0 -0.05821801501748494 -1.0701038057435472
4884000000.0 -0.03776201174779783 -1.0336797698752662
4888000000.0 -0.002248918117491859 -1.0179763377003792
4891000000.0 -0.030694444778767177 -1.0445111631149318
4894000000.0 -0.06916032246539014 -0.9995934908008745
4897000000.0 -0.02040849640974587 -1.0085244892963598
4900000000.0 -0.06618036028041892 -1.0740814923920177
4903000000.0 -0.0578136177984915 -1.0515856484651918
4906000000.0 -0.08100198445435186 -1.043613967753256
4909000000.0 -0.11051651873093277 -1.0260200968218884
4912000000.0 -0.10983333428503798 -1.0636903150113712
4916000000.0 -0.11411737426588803 -1.0577762263648671
4919000000.0 -0.07036097838741166 -1.0760321800533967
4922000000.0 -0.11131769459248847 -1.0269649008382247
4925000000.0 -0.14352949608359775 -1.0024800084035288
4928000000.0 -0.11087664121721295 -1.0297428273550469
4931000000.0 -0.10880214302604733 -1.0418434576458253
4934000000.0 -0.15718097790159313 -0.9945860652010285
4938000000.0 -0.20934321290278035 -1.0155689301129378
4941000000.0 -0.1664291455977625 -0.9905648778801823
4944000000.0 -0.14567356928368305 -0.9841120356960229
4947000000.0 -0.17846502478457502 -0.9678153334695249
4950000000.0 -0.1834029599215523 -0.9661188473044683
4953000000.0 -0.258738848938931 -1.0313429937892806
4956000000.0 -0.22961646213153786 -0.9967745825715223
4959000000.0 -0.26927617657833935 -0.9657366516825373
4962000000.0 -0.20106155654613603 -1.0083515498911206
4966000000.0 -0.24622187335406687 -1.0088099099413863
4969000000.0 -0.25964244604805264 -1.0325818036391912
4972000000.0 -0.2602416494040022 -0.9799625908901064
4975000000.0 -0.24442695595058408 -0.9920158031999218
4978000000.0 -0.31258528911076766 -0.945815277805056
4981000000.0 -0.3136258295505203 -0.960848022044393
4984000000.0 -0.26510281005828606 -0.9515210664247293
4988000000.0 -0.28412779693047713 -0.9936379015538437
4991000000.0 -0.23320086284806568 -1.0452055900984265
4994000000.0 -0.3087217001719308 -0.9781118166176815
4997000000.0 -0.3628804676180552 -0.9556564402185028
5000000000.0 -0.31226453746220073 -1.0209953490623656
5003000000.0 -0.3151817317860918 -0.9967002257870412
5006000000.0 -0.36009963799328526 -0.9998929774036173
5009000000.0 -0.3372732576057029 -0.9545394415842493
5012000000.0 -0.36963590352490167 -0.9682532304709404
5016000000.0 -0.3337223022142141 -1.0048049558770116
5019000000.0 -0.4105810238067161 -0.9490025645374423
5022000000.0 -0.3727817171002473 -0.9853236772264056
5025000000.0 -0.4030531910101521 -1.0192336679097411
5028000000.0 -0.423505266684998 -0.9592015564530787
5031000000.0 -0.4097916941682529 -0.9584012157659457
5034000000.0 -0.45843478534393867 -0.9517462572072606
5038000000.0 -0.4141090462800008 -0.9180782137231902
5041000000.0 -0.40313069730494167 -0.9675365512706614
5044000000.0 -0.4021031762178813 -0.9068676526191483
5047000000.0 -0.457204889631084 -0.9341429088967966
5050000000.0 -0.3832570583107905 -0.9522295207914335
5053000000.0 -0.47952807525073116 -0.9530885808962846
5056000000.0 -0.4403291332172181 -0.9750310528100508
5059000000.0 -0.4314072606119897 -0.9585325636757985
5062000000.0 -0.5140098711823803 -0.9100673814297502
5066000000.0 -0.4866101341609951 -0.9235091044853161
5069000000.0 -0.474170272855967 -0.9333083681575881
5072000000.0 -0.4750853309204004 -0.8949960328106976
5075000000.0 -0.47792460338546006 -0.9417062260265423
5078000000.0 -0.5403114558507838 -0.8533530340869115
5081000000.0 -0.5471624147151388 -0.8475637562443826
5084000000.0 -0.5258010235025523 -0.8790352916933439
5088000000.0 -0.5249750211318248 -0.8645699100346755
5091000000.0 -0.5658045210328662 -0.8646848459136156
5094000000.0 -0.5674505281232531 -0.8726789326889594
5097000000.0 -0.5268403335039571 -0.9010581305499681
5100000000.0 -0.538509882379336 -0.8816459720655013
5103000000.0 -0.5700893049521466 -0.8829858546744765
5106000000.0 -0.6028881332777012 -0.8719977129405354
5109000000.0 -0.5665600856019517 -0.8535776075664356
5112000000.0 -0.5846639248616368 -0.8200184334777705
5116000000.0 -0.5823323753421966 -0.8412452256283875
5119000000.0 -0.6213454971425834 -0.8200436651886618
5122000000.0 -0.622983753415834 -0.8463234612945034
5125000000.0 -0.5972991654905332 -0.818996210933159
5128000000.0 -0.654536974054013 -0.8184381211454399
5131000000.0 -0.6426789895108677 -0.8250962559920977
5134000000.0 -0.6000439961676958 -0.8077999361051439
5138000000.0 -0.6557586712564876 -0.8213228138874753
5141000000.0 -0.5927591403444188 -0.8485920206014144
5144000000.0 -0.6337065527792144 -0.7953519886103859
5147000000.0 -0.7100766198795759 -0.8219834335665709
5150000000.0 -0.6323840707632716 -0.8260815602316921
5153000000.0 -0.6931049713384658 -0.7648686517172661
5156000000.0 -0.6786451930623565 -0.7427593505801028
5159000000.0 -0.7172616762282059 -0.8003513832943211
5162000000.0 -0.7194578008089565 -0.743647293079969
5166000000.0 -0.7187060231548326 -0.7637508164526607
5169000000.0 -0.7116511594749227 -0.7657726315776573
5172000000.0 -0.7164045901389848 -0.7328024140360241
5175000000.0 -0.7171465963562365 -0.7985803194483081
5178000000.0 -0.7604323625834175 -0.7319789542787802
5181000000.0 -0.7353715695025163 -0.7602160527492625
5184000000.0 -0.7512980741283445 -0.7340626879447023
5188000000.0 -0.741029342485877 -0.7362366624637655
