! Created with skrf 1.8.0 (http://scikit-rf.org).
# Hz S RI R 50.0 
!freq ReS11 ImS11
4000000000.0 0.8210389493993548 0.5984770753822624
4003000000.0 0.8417064561379393 0.6345526469947168
4006000000.0 0.7992248107544202 0.5531160010995025
4009000000.0 0.8631483839435581 0.6302612934592602
4012000000.0 0.84699824325957 0.6115064753096697
4016000000.0 0.8826438053176068 0.588906280959955
4019000000.0 0.8678863236184091 0.5269970043695517
4022000000.0 0.8819712866970614 0.640207688921975
4025000000.0 0.9247053934253588 0.5275280925008525
4028000000.0 0.858356332873091 0.5277552675209525
4031000000.0 0.8293170560276425 0.5128519953428147
4034000000.0 0.8721090420083589 0.4797531040708508
4038000000.0 0.9143255705246043 0.5210866034475578
4041000000.0 0.8956284725967283 0.4709680336949502
4044000000.0 0.9581667514782843 0.49455051427924
4047000000.0 0.932507150908636 0.5231552598517458
4050000000.0 0.9300537693006985 0.4686933368340721
4053000000.0 0.9124981934187684 0.45184698358867365
4056000000.0 0.919780030874599 0.46508005337536906
4059000000.0 0.9102165798825737 0.45066971776936665
4062000000.0 0.9434491612931342 0.4293790065987612
4066000000.0 0.9070559634847475 0.4262808097313998
4069000000.0 0.9975951071197813 0.3986029112328279
4072000000.0 0.940542736271866 0.41297214961385226
4075000000.0 0.9414463234593212 0.478247025604659
4078000000.0 0.9298731601673985 0.3910423162369582
4081000000.0 0.9278579911727027 0.43487818835701864
4084000000.0 0.9822730604434121 0.3506602320872518
4088000000.0 0.932723525046476 0.3798646996583912
4091000000.0 0.9962218337114496 0.38299604295723816
4094000000.0 0.9499037513022713 0.3586174000198542
4097000000.0 0.9796434663777156 0.33188757810272435
4100000000.0 0.9819376597061675 0.3211798935515609
4103000000.0 0.9978013693649972 0.3769472015841056
4106000000.0 0.9699969991591301 0.31237024559217863
4109000000.0 0.9935346733592219 0.2905526841272456
4112000000.0 0.9837756858189515 0.2702183551831849
4116000000.0 1.005283940949733 0.2654513936546016
4119000000.0 0.978637630812605 0.24275729046794936
4122000000.0 1.004874732270359 0.24524564079162492
4125000000.0 1.0058033214911997 0.22804818335296823
4128000000.0 0.9585332383768702 0.2421778591813658
4131000000.0 0.9816941146862084 0.20300526033662225
4134000000.0 1.0142333022527523 0.2111159714323705
4138000000.0 0.9608665957593763 0.19022575603328812
4141000000.0 0.9915375491791518 0.196191697776798
4144000000.0 1.0094375782418998 0.21036891178924805
4147000000.0 1.0055517072446933 0.16236298735073545
4150000000.0 1.0274709031501954 0.1621497342018669
4153000000.0 1.002930748803872 0.13779026087099794
4156000000.0 1.021397376202412 0.146348520266264
4159000000.0 1.000297058140463 0.14110061728727602
4162000000.0 0.9964032270308345 0.13144129897183265
4166000000.0 1.027039957656418 0.11398715739782445
4169000000.0 1.019463401639993 0.08883564709232056
4172000000.0 1.0262735485177854 0.13172567802134583
4175000000.0 1.021810942907369 0.127020233582817
4178000000.0 1.0160983927557128 0.09062920086418624
4181000000.0 1.0296535767741468 0.04329378737952261
4184000000.0 0.991034053795672 0.06062328813213158
4188000000.0 1.0020822625418797 0.042623787001853986
4191000000.0 1.0060811291616358 0.05724907793645173
4194000000.0 1.0023817835611104 0.022202266389124647
4197000000.0 1.0462576094763156 0.02327520972796948
4200000000.0 1.0281064054828166 0.033189102964792716
4203000000.0 1.045075782997941 0.022946461120611716
4206000000.0 1.0369590802186144 -0.004040886211262251
4209000000.0 1.002928112959627 -0.027009825777466967
4212000000.0 1.0073852128803125 -0.05451835915828601
4216000000.0 1.0371581013437905 -0.030088317944138132
4219000000.0 1.0125352649841424 -0.04669195871964257
4222000000.0 1.0105445904226582 -0.07106105969897711
4225000000.0 0.9938668405675497 -0.0818871588908422
4228000000.0 1.0231328358889316 -0.09453581513143852
4231000000.0 1.0133279379693287 -0.11032725252055836
4234000000.0 1.026385169690979 -0.13567816641509456
4238000000.0 1.013853734994929 -0.13811978581237477
4241000000.0 0.9837326947074421 -0.15339809008765376
4244000000.0 1.0011027356592879 -0.16023409972465633
4247000000.0 1.0051485101054487 -0.13293633304547076
4250000000.0 0.9908689218444495 -0.14671549015061777
4253000000.0 0.9816234861385833 -0.18138943205524588
4256000000.0 1.0262167315618855 -0.2032737166837318
4259000000.0 0.9551266709558535 -0.21371988844156492
4262000000.0 0.9792607706802607 -0.20954941193373047
4266000000.0 1.0053464982027687 -0.23628425274814563
4269000000.0 0.9841065839477271 -0.22102043755682618
4272000000.0 0.9791774627155624 -0.23681508262310125
4275000000.0 0.9947807458426308 -0.2406371766461609
4278000000.0 1.0123071286517547 -0.2725205129047312
4281000000.0 0.9876521071701468 -0.257944609065131
4284000000.0 0.9694953570453253 -0.3169169396545132
4288000000.0 0.973049710961933 -0.26084642562641996
4291000000.0 0.9521652782469752 -0.31037519517926937
4294000000.0 0.9666481404453341 -0.31599726044898613
4297000000.0 0.9467346766611684 -0.2989692990461654
4300000000.0 0.9318303182226395 -0.3035895281634828
4303000000.0 0.9173188346436156 -0.3529467627129301
4306000000.0 0.9705255005956639 -0.3218798077922742
4309000000.0 0.9677316978938533 -0.3752935979360405
4312000000.0 0.957816091109509 -0.36595175497612686
4316000000.0 0.974119832318733 -0.3774225322018516
4319000000.0 0.9200322158395553 -0.3685699769832288
4322000000.0 0.9190752697503468 -0.40248981422367663
4325000000.0 0.9240336109441026 -0.39996267663863
4328000000.0 0.9040223538378257 -0.4011276034095093
4331000000.0 0.9301141889712319 -0.455445249540936
4334000000.0 0.9117434898765849 -0.4519028525198938
4338000000.0 0.9037139362732474 -0.4287436071876022
4341000000.0 0.9219787276066993 -0.44414211498634715
4344000000.0 0.9094465582697924 -0.4788796285720832
4347000000.0 0.8883248175393413 -0.5297030558788445
4350000000.0 0.8510328640924533 -0.4914287915971407
4353000000.0 0.8798391036665958 -0.4723532178938159
4356000000.0 0.8385559728332772 -0.5371937435940296
4359000000.0 0.8050955122002426 -0.5192022694086207
4362000000.0 0.8483437939498915 -0.5729407668237468
4366000000.0 0.8596476199876022 -0.5608203237842013
4369000000.0 0.8131764853499078 -0.5495795360864432
4372000000.0 0.7984086023390431 -0.5900054870476298
4375000000.0 0.8399948037217118 -0.5642238801637902
4378000000.0 0.8101720388116567 -0.5696771346269844
4381000000.0 0.7961600164046565 -0.5821668602966603
4384000000.0 0.8463645508956705 -0.6423699404154448
4388000000.0 0.789479433759417 -0.5916165828106509
4391000000.0 0.8032266481718981 -0.6244205281763289
4394000000.0 0.7781846678038153 -0.6360299257122376
4397000000.0 0.7810917037352365 -0.6397039177769416
4400000000.0 0.7789688922947551 -0.671812949914397
4403000000.0 0.773017448474523 -0.6691061783919932
4406000000.0 0.7500047242098691 -0.6737311995936944
4409000000.0 0.7603034678722564 -0.7074732337365932
4412000000.0 0.7016778397931408 -0.7062985291930456
4416000000.0 0.7218310702867274 -0.6918756850394749
4419000000.0 0.707767389171529 -0.717509620679674
4422000000.0 0.7314107538101713 -0.6931534039117779
4425000000.0 0.71962998773416 -0.7306744836971703
4428000000.0 0.6900693068895436 -0.7566268855761842
4431000000.0 0.6920860302053734 -0.7443080952319387
4434000000.0 0.6705143326272782 -0.7404929479912745
4438000000.0 0.6860913542552906 -0.768066183151338
4441000000.0 0.6605448544684855 -0.7725224740079502
4444000000.0 0.6470685359317758 -0.7524341986720037
4447000000.0 0.6168214740993948 -0.786366078773798
4450000000.0 0.6407128752619566 -0.7743612424698986
4453000000.0 0.6413453807874048 -0.7938698285891427
4456000000.0 0.5974268805907506 -0.7948900352842532
4459000000.0 0.5767332453455956 -0.7949325545263817
4462000000.0 0.6159160150471568 -0.8555766978213611
4466000000.0 0.5970999204062692 -0.8617557418405445
4469000000.0 0.5980489760615169 -0.8369409048830319
4472000000.0 0.5818647367797108 -0.8480565302080402
4475000000.0 0.5421100229701572 -0.8262204751543826
4478000000.0 0.5451640521908867 -0.8739907603042181
4481000000.0 0.5093284161947101 -0.8414822383734348
4484000000.0 0.4860052213160998 -0.885299814564148
4488000000.0 0.5027824096738016 -0.8857791377864357
4491000000.0 0.5143800827400745 -0.8921787044847326
4494000000.0 0.4845375931764395 -0.883975558137069
4497000000.0 0.4900577158778167 -0.8884317385362436
4500000000.0 0.46412230177341657 -0.9308277227826796
4503000000.0 0.4742944613980684 -0.9176233689734654
4506000000.0 0.4379217972966813 -0.8974756554791364
4509000000.0 0.4000975915219185 -0.9109063394005553
4512000000.0 0.3896637237227411 -0.9121954581833764
4516000000.0 0.39358069804399964 -0.9694412452900036
4519000000.0 0.38156512033825285 -0.9038044534486432
4522000000.0 0.36440119550647754 -0.939781391865239
4525000000.0 0.3860532084398941 -0.9313215878150499
4528000000.0 0.3683134823557773 -0.974702473889218
4531000000.0 0.34909132184599917 -0.961986854767178
4534000000.0 0.3092519252063046 -0.9474972226879393
4538000000.0 0.31439445414216516 -0.9685302159389815
4541000000.0 0.2978718204566075 -0.9461823101402178
4544000000.0 0.28286878187091613 -0.9781147955661201
4547000000.0 0.29513788347394404 -0.9756109752294511
4550000000.0 0.2674447892964329 -1.0020836818566075
4553000000.0 0.22638339868608084 -0.988443185101359
4556000000.0 0.234894459429569 -0.991510158691601
4559000000.0 0.23872443208585223 -0.9985042723012403
4562000000.0 0.21489004513467258 -1.0021546724295354
4566000000.0 0.20364646176411294 -1.0112374894288445
4569000000.0 0.1626251283612085 -1.02549750035793
4572000000.0 0.17688153456336492 -1.0087328763915375
4575000000.0 0.14860323677727316 -1.003700436231814
4578000000.0 0.15562736543202532 -1.0159153324912635
4581000000.0 0.131099549422417 -1.0059929958325557
4584000000.0 0.11850316395669461 -1.0138587574302897
4588000000.0 0.09012928024478928 -1.0458140678680652
4591000000.0 0.06940237458586448 -1.022145600656211
4594000000.0 0.03990980208704003 -1.0060182294108668
4597000000.0 0.041514670802184586 -1.0393526675481304
4600000000.0 0.049171164304508366 -1.0430840098161545
4603000000.0 0.008399030390938589 -0.9872478975288593
4606000000.0 0.022342087557583948 -1.0688308588388524
4609000000.0 0.02266053499782049 -0.9946258077499157
4612000000.0 -0.030086936905086153 -1.0057930888425366
4616000000.0 -0.03808638126517025 -1.0217577152097561
4619000000.0 -0.047563093188052255 -1.0142915855565175
4622000000.0 -0.0927355860820753 -1.034599357140291
4625000000.0 -0.10582215773629775 -1.0415640104594617
4628000000.0 -0.11911314197986059 -1.0912591002033991
4631000000.0 -0.10228412412666685 -1.0501323204433026
4634000000.0 -0.16236999712907388 -1.0295350167659056
4638000000.0 -0.12638640206001428 -1.051929708280546
4641000000.0 -0.15606536839815022 -1.0186112719500626
4644000000.0 -0.1484597602564946 -0.9804561473538023
4647000000.0 -0.2094444396713808 -0.9957165525927296
4650000000.0 -0.19203839430269823 -0.9876155722913998
4653000000.0 -0.2117316632160257 -0.9863705736409971
4656000000.0 -0.20692566734539808 -0.9986300070879095
4659000000.0 -0.2524830652426496 -1.0154487464847375
4662000000.0 -0.2514128165711041 -1.0208809986660035
4666000000.0 -0.33651604237639055 -0.9947166171879395
4669000000.0 -0.326626064206757 -0.997458479107247
4672000000.0 -0.29501705524008637 -1.0371413181767757
4675000000.0 -0.31445631718184236 -1.0013942174628496
4678000000.0 -0.3133529621314381 -0.9388044379747852
4681000000.0 -0.36883369338448446 -0.9324100499212703
4684000000.0 -0.4262232418492008 -1.0119648361555935
4688000000.0 -0.43220235699103543 -0.9225490012903724
4691000000.0 -0.40003140328318876 -0.9977413003132947
4694000000.0 -0.37253744180580006 -0.9357305038195416
4697000000.0 -0.41604296766322196 -0.8659030977251978
4700000000.0 -0.4173044378926637 -0.9508001583284453
4703000000.0 -0.3457352902899485 -0.876786866411104
4706000000.0 -0.495836408497003 -0.9037480236491968
4709000000.0 -0.5202203198568475 -0.8714097206604853
4712000000.0 -0.4841764996206181 -0.933307712878516
4716000000.0 -0.5384227356187511 -0.9140709390335504
4719000000.0 -0.4754301388977039 -0.9107856562349829
4722000000.0 -0.5086582492067957 -0.8697852035114237
4725000000.0 -0.5312942657118521 -0.885941368689512
4728000000.0 -0.5502483513153584 -0.8395929066160808
4731000000.0 -0.6147424211639307 -0.8898985755985547
4734000000.0 -0.5441271957031502 -0.846302876276916
4738000000.0 -0.6251368498457268 -0.9243931671144165
4741000000.0 -0.6908474459703091 -0.8285026309019975
4744000000.0 -0.6664418719999333 -0.7913570316078652
4747000000.0 -0.5979007598973393 -0.8371664812999644
4750000000.0 -0.6567115118784361 -0.8591646397918715
4753000000.0 -0.6561097731287279 -0.8199890673945524
4756000000.0 -0.7367811194891849 -0.7951032815386647
4759000000.0 -0.7304282313608761 -0.8084087584699602
4762000000.0 -0.7841870856399212 -0.747040742627768
4766000000.0 -0.7428877003313306 -0.7437072614639363
4769000000.0 -0.721929095683226 -0.6937753507625084
4772000000.0 -0.7688338648926888 -0.7063514587232502
4775000000.0 -0.8183473325805498 -0.7556122088428088
4778000000.0 -0.8431587580672173 -0.6955220813344541
4781000000.0 -0.7724758580416246 -0.6516261237570207
4784000000.0 -0.7918371300578108 -0.6799318550875141
4788000000.0 -0.8793468392078504 -0.632179521809893
4791000000.0 -0.8146064064364963 -0.6293835182211546
4794000000.0 -0.8190908398864352 -0.6703925451802308
4797000000.0 -0.8243978944270607 -0.6125211605688983
4800000000.0 -0.8564952082163925 -0.5718274362611178
4803000000.0 -0.9139851038131044 -0.5072339150641154
4806000000.0 -0.9161755135152163 -0.5439179650443838
4809000000.0 -0.9470240897364861 -0.47788715435991724
4812000000.0 -0.920492016964576 -0.4445213176761189
4816000000.0 -0.8736364364125093 -0.5056823766849293
4819000000.0 -0.931060109203933 -0.49407185144730004
4822000000.0 -0.9652994070858902 -0.5079187776887342
4825000000.0 -0.966606796620195 -0.4666200848205838
4828000000.0 -0.9562487811862211 -0.4064679253377411
4831000000.0 -0.9671859692323973 -0.40451219182972564
4834000000.0 -0.9707767724964385 -0.3872276049942346
4838000000.0 -1.0064540953989694 -0.31522864842706577
4841000000.0 -0.9724030324083521 -0.3265831330972638
4844000000.0 -1.008574788918969 -0.33880323528973744
4847000000.0 -0.9698837877518833 -0.27483676306428173
4850000000.0 -1.0325775971620872 -0.22561958309414842
4853000000.0 -0.9795978979823161 -0.23228085174730084
4856000000.0 -0.9873622751501296 -0.20502084606006057
4859000000.0 -1.0736165595997116 -0.17528125778332942
4862000000.0 -1.0305812921351472 -0.18227809941121448
4866000000.0 -1.0378666257881628 -0.15366324933127729
4869000000.0 -1.0344497998122606 -0.14770418666968435
4872000000.0 -1.0057857606300826 -0.10251022762507614
4875000000.0 -1.1142665499006488 -0.11316283826949121
4878000000.0 -1.0073924346493528 -0.06972634636521365
4881000000.0 -1.0426138055359853 -0.04570647762202547
4884000000.0 -1.0741007566575962 -0.05727902977170002
4888000000.0 -0.9876248512411722 -0.045260439194448554
4891000000.0 -1.056752760741436 0.09832020030330083
4894000000.0 -1.0262778396086032 0.05548453169671849
4897000000.0 -1.0422831701529425 0.07612539377005267
4900000000.0 -1.0405595215822179 0.13607492661076698
4903000000.0 -1.0940271656844687 0.13084982043944463
4906000000.0 -1.0412585669726078 0.16749669100829573
4909000000.0 -1.0307590011792498 0.18462979618184455
4912000000.0 -1.0118476484770107 0.2775005895562195
4916000000.0 -0.9708572562444264 0.2681801400443789
4919000000.0 -0.9868950126980868 0.267483790527765
4922000000.0 -0.9598323645801732 0.3115539116306079
4925000000.0 -0.9594591842161376 0.3249338912207101
4928000000.0 -0.9842595895096733 0.3437952783627513
4931000000.0 -0.9722067474686782 0.411369069394596
4934000000.0 -0.9494022940524922 0.38462329383605526
4938000000.0 -0.9603510396730052 0.4232394512925053
4941000000.0 -0.896980559867757 0.47340944068089563
4944000000.0 -0.9555098903554059 0.5476029499617616
4947000000.0 -0.9146897321049063 0.5346515291778274
4950000000.0 -0.925061193775123 0.5425187189022279
4953000000.0 -0.8372808132162866 0.5459492275035113
4956000000.0 -0.8558997925168865 0.5874338321728889
4959000000.0 -0.82300428631486 0.6144298323747558
4962000000.0 -0.7985732512873802 0.6318445102307164
4966000000.0 -0.7554066692660341 0.6506424630103146
4969000000.0 -0.7351068462028887 0.6658322798627963
4972000000.0 -0.7470842390497756 0.655687257793299
4975000000.0 -0.6829172427749889 0.7579796315519819
4978000000.0 -0.7136034050143398 0.7428956223858199
4981000000.0 -0.6899158146652579 0.7310201724845503
4984000000.0 -0.6467675930089898 0.8260084000890549
4988000000.0 -0.6477076798950201 0.8452430078833401
4991000000.0 -0.5795899532831223 0.8603033443494041
4994000000.0 -0.5479305310262157 0.8377377877799677
4997000000.0 -0.5405479561591353 0.8521408145367267
5000000000.0 -0.4708591942234782 0.8886912275998535
5003000000.0 -0.42996722816989946 0.8700687549934175
5006000000.0 -0.4121387820469369 0.8734318369498764
5009000000.0 -0.3676927875084479 0.9421288550036628
5012000000.0 -0.39883882634930284 1.0203467093833227
5016000000.0 -0.32632580280080264 0.9488078430654783
5019000000.0 -0.31647478023858244 0.9914180929848775
5022000000.0 -0.24831680006580803 0.9853445275763615
5025000000.0 -0.21276500203897902 0.9197213021769042
5028000000.0 -0.23222267239229932 0.9661306291401116
5031000000.0 -0.13730321393528397 0.9832457838449441
5034000000.0 -0.1807602837368235 0.9907340336409722
5038000000.0 -0.11901181437049013 1.046618446614604
5041000000.0 -0.06718710452580373 0.9752439346328239
5044000000.0 -0.04339666019445165 0.9739404926151894
5047000000.0 0.04302126627654754 1.0158825778207916
5050000000.0 0.09182354966060598 1.0693794191532076
5053000000.0 0.10057230164337003 0.9539506024161024
5056000000.0 0.13987160281222866 0.9924028570463881
5059000000.0 0.20253822666300433 0.956633631650653
5062000000.0 0.15477263057069546 0.9862063870089746
5066000000.0 0.29919530927824406 1.0111017770381432
5069000000.0 0.2576050849031378 0.9547712348457804
5072000000.0 0.24614703345264377 1.0475173607655786
5075000000.0 0.3689602193310628 0.9337592346349626
5078000000.0 0.308388408695657 0.9420939942788791
5081000000.0 0.3985175956630201 0.9202474124759389
5084000000.0 0.4767740024921865 0.8586336737445894
5088000000.0 0.4719208288545098 0.9084602031673219
5091000000.0 0.5052150275645502 0.852549804213278
5094000000.0 0.5411476148983744 0.8200670948691371
5097000000.0 0.5490275283519516 0.8369557187410319
5100000000.0 0.603534061912176 0.8320960687702328
5103000000.0 0.644848952039069 0.7887460316965015
5106000000.0 0.6497022694428863 0.7169730735755786
5109000000.0 0.6995273688684128 0.7159611032048087
5112000000.0 0.7112742167110241 0.7359366839190369
5116000000.0 0.6989391347720283 0.667268552551416
5119000000.0 0.7549267180947421 0.6117429255706628
5122000000.0 0.798295689787716 0.6256518851345383
5125000000.0 0.7739807980550518 0.6158139924362868
5128000000.0 0.8159336861879105 0.5804024889627772
5131000000.0 0.8618065702863745 0.5379136603003489
5134000000.0 0.8709598704131684 0.5215849812909643
5138000000.0 0.8759463728630833 0.47100316019073785
5141000000.0 0.880987135949874 0.49328653984301424
5144000000.0 0.9351436051519091 0.41189125246258507
5147000000.0 0.8935864082603207 0.4494856759546281
5150000000.0 0.9321739166174985 0.3668710252408184
5153000000.0 0.9443748540301766 0.3438318530722964
5156000000.0 1.0109839168425585 0.3070751460953696
5159000000.0 0.9488571092878211 0.28955191301714334
5162000000.0 0.9444876332763921 0.25961659527678954
5166000000.0 1.0190196462396988 0.22973902052642822
5169000000.0 0.9897927577221347 0.17688411617194402
5172000000.0 0.9947471415268685 0.1611009245582034
5175000000.0 0.9994123163413775 0.15130010045127892
5178000000.0 0.975814558284783 0.06445130504092417
5181000000.0 1.0275614577982963 0.12419020727485156
5184000000.0 1.001217242400522 0.010973191158653417
5188000000.0 1.0007219695343699 0.05537771954576135
