! Created with skrf 1.8.0 (http://scikit-rf.org).
# Hz S RI R 50.0 
!freq ReS11 ImS11
4000000000.0 0.6133192627844336 0.7880087271365939
4003000000.0 0.657912179251557 0.8792081633815315
4006000000.0 0.6820883663517281 0.7773985964022777
4009000000.0 0.6483285745802698 0.7814887526085866
4012000000.0 0.622572998559813 0.8622836975091309
4016000000.0 0.6601295652918037 0.7843675260479688
4019000000.0 0.6924457217930895 0.7836234531998629
4022000000.0 0.6584816649551671 0.8213436572860336
4025000000.0 0.724508732395659 0.7563572968702922
4028000000.0 0.6969608088094646 0.7584817913417108
4031000000.0 0.6712793336287144 0.7314551224839109
4034000000.0 0.7396769133693085 0.7317076691506333
4038000000.0 0.7273726732053046 0.7380498089244821
4041000000.0 0.704876826042288 0.7467948335234689
4044000000.0 0.7757122671604912 0.7698387332489133
4047000000.0 0.7322801755167692 0.7701234711029125
4050000000.0 0.7666790262123341 0.7070192479514554
4053000000.0 0.7268676008133728 0.7046273096321836
4056000000.0 0.7448412022217588 0.7080109317591172
4059000000.0 0.7463634728876295 0.6720027620494211
4062000000.0 0.7808541597285322 0.7149093432511202
4066000000.0 0.70199458597116 0.6398113463689381
4069000000.0 0.7857949525199968 0.6844844648995644
4072000000.0 0.7137131300408884 0.7053274113591381
4075000000.0 0.7723453008743932 0.7067571547768834
4078000000.0 0.7620530743034968 0.6592684917136933
4081000000.0 0.7701123506513191 0.7415531837576161
4084000000.0 0.8210204531640735 0.6348165334552913
4088000000.0 0.7642979583709054 0.648488486607888
4091000000.0 0.843816376964094 0.6521299406102767
4094000000.0 0.8385264613582926 0.624351300214599
4097000000.0 0.826503846499713 0.6252882279251888
4100000000.0 0.8089577146431892 0.5928879171071759
4103000000.0 0.8520084275984912 0.65531838485575
4106000000.0 0.8344854450349609 0.6111666870720843
4109000000.0 0.8459324988104739 0.558771362574831
4112000000.0 0.8525810472082862 0.588114220652505
4116000000.0 0.8443637779191716 0.6104771388906053
4119000000.0 0.8671527747811392 0.5893007019794692
4122000000.0 0.8866349705024666 0.5401393092117338
4125000000.0 0.8878859618154089 0.5577241020358821
4128000000.0 0.8068965966915463 0.5234303013710522
4131000000.0 0.8655144256956302 0.5134200092469559
4134000000.0 0.8607371711308767 0.5414820967156935
4138000000.0 0.902127843241487 0.5095272216415894
4141000000.0 0.8906662918084063 0.5087470517004092
4144000000.0 0.8940430260705079 0.5556508869967784
4147000000.0 0.8862579138267455 0.47360912006496353
4150000000.0 0.9069261953562288 0.5251179221105864
4153000000.0 0.8872610776581407 0.47430227829491045
4156000000.0 0.9115501872362535 0.49829715202642166
4159000000.0 0.8684249761039105 0.511038193045384
4162000000.0 0.8589630087769382 0.46959716435211163
4166000000.0 0.9464779170753124 0.479267043965964
4169000000.0 0.8978497848871674 0.41661656558766536
4172000000.0 0.9070537100278355 0.4652078782297378
4175000000.0 0.9226937819221902 0.45669032894968437
4178000000.0 0.9616697677719368 0.4320820704312798
4181000000.0 0.9615312311627051 0.4036640848789108
4184000000.0 0.9321873849582735 0.41474557686501606
4188000000.0 0.9397327908426691 0.39263338186165797
4191000000.0 0.8954208445199751 0.4435968480078433
4194000000.0 0.9046329562995882 0.3952799209333462
4197000000.0 0.9613109292154048 0.37573504501080673
4200000000.0 0.9540434511471365 0.3681379319993132
4203000000.0 0.9435634909326952 0.3963299317966831
4206000000.0 0.9825971025241873 0.38607933541654044
4209000000.0 0.9400998391495455 0.3527792398195874
4212000000.0 0.9690338074115442 0.3097459965726689
4216000000.0 0.978429442047038 0.35797787379772844
4219000000.0 0.964908885704435 0.3558503486215695
4222000000.0 0.9458358967952236 0.3204447457203909
4225000000.0 0.9538190391538264 0.3098382843628361
4228000000.0 0.9959433731709444 0.310634266174735
4231000000.0 0.961528666424648 0.3130122025808002
4234000000.0 0.9844742400532016 0.29836444462325934
4238000000.0 0.9876771618077034 0.2535723778783253
4241000000.0 0.9694733025680482 0.2736558270692548
4244000000.0 0.9787926174778778 0.27961048706078984
4247000000.0 0.9696640981415556 0.27797985738010916
4250000000.0 0.9596097532605137 0.26146431384813446
4253000000.0 0.9570041423150482 0.2409792328325296
4256000000.0 1.00729129180271 0.24122942447069406
4259000000.0 0.9631791025261373 0.22015708383300694
4262000000.0 0.9978623260060784 0.21130577863686736
4266000000.0 1.013443500632734 0.1888623594870658
4269000000.0 0.9909005445657194 0.21759853603418713
4272000000.0 0.987819019396209 0.2100809905294777
4275000000.0 0.994700082957078 0.18843035782500017
4278000000.0 1.0173311404234742 0.18262866162507413
4281000000.0 1.0034797574088032 0.19022242386892174
4284000000.0 1.0117556225934998 0.15076608633536068
4288000000.0 0.9838595824316361 0.1913850735929011
4291000000.0 0.9903881714343656 0.1458684223305035
4294000000.0 1.0001351614862606 0.1535850692945251
4297000000.0 0.9931068658540089 0.16182398986217578
4300000000.0 0.9986333386406998 0.14077074504495887
4303000000.0 0.9850539315051029 0.1039180555488861
4306000000.0 1.0123664143199065 0.13934387439765775
4309000000.0 1.0117942673557438 0.09613507775700882
4312000000.0 1.034914535711998 0.1261107221260931
4316000000.0 0.9973431254531911 0.12253967251859589
4319000000.0 1.011874870098883 0.08421092178806729
4322000000.0 1.0045817885273813 0.05820915686327828
4325000000.0 1.0036368005098892 0.052722794570898665
4328000000.0 1.017593817017531 0.06408361931695698
4331000000.0 1.0048374305936958 0.020926638261356517
4334000000.0 1.0199840558624875 0.03813457002243503
4338000000.0 1.0117331314422526 0.05239592963747859
4341000000.0 1.0158908984915873 0.030842501909492726
4344000000.0 1.0517261542041116 0.012303301798365834
4347000000.0 1.03943588404517 -0.012892000769180123
4350000000.0 0.9561789339839508 -0.0016979926596194517
4353000000.0 0.9909771796933116 0.011644449079668023
4356000000.0 1.0093264455420818 -0.05816262607390921
4359000000.0 0.9708850137035736 -0.03933736820587175
4362000000.0 1.0077399387303618 -0.09765465392118117
4366000000.0 1.0270484060269354 -0.06379643189467915
4369000000.0 0.9746040547714108 -0.08047893804252142
4372000000.0 0.9820494066469387 -0.09797614837476118
4375000000.0 1.0128554488740884 -0.0730331087368709
4378000000.0 0.9857104739771979 -0.09503933845108078
4381000000.0 0.9943712139720478 -0.06629208808754786
4384000000.0 1.0665647721575637 -0.13507778950014598
4388000000.0 0.9892871253625157 -0.10735199626419471
4391000000.0 0.9986681652392138 -0.12439895424212674
4394000000.0 0.962171912274679 -0.12329422449448701
4397000000.0 0.9845788043295911 -0.15208946951506594
4400000000.0 1.0249606822550588 -0.16846609363174547
4403000000.0 0.9985648411824601 -0.15620330525544285
4406000000.0 0.9880908129636039 -0.19024990570443362
4409000000.0 1.023783194768288 -0.18894033973328858
4412000000.0 0.9755075104680098 -0.24493014401828994
4416000000.0 0.9807636397867925 -0.20524621691010558
4419000000.0 0.9796994643115834 -0.23805968797801966
4422000000.0 0.974244177209038 -0.20459976215584208
4425000000.0 0.9994644438622275 -0.19514951553004437
4428000000.0 0.9834812807480429 -0.24699837853898968
4431000000.0 0.9994670822618676 -0.22681875325502407
4434000000.0 0.9619102156684848 -0.2632034096701735
4438000000.0 0.9937954073754802 -0.2527085813595868
4441000000.0 0.9899607837800795 -0.27096942141289015
4444000000.0 0.9618214913559007 -0.27057020463386905
4447000000.0 0.9531522253303697 -0.2956009536768724
4450000000.0 0.9730306836017297 -0.2810426413606932
4453000000.0 0.9795628884308959 -0.30445569866006805
4456000000.0 0.9270671717807566 -0.31969780776547696
4459000000.0 0.9010578060922805 -0.32163742769193676
4462000000.0 1.0027068142416617 -0.3533266532085727
4466000000.0 0.9868154157337011 -0.3478600734112112
4469000000.0 0.9684694186499917 -0.3178039354613391
4472000000.0 0.9525631182571553 -0.3753004451902644
4475000000.0 0.9482318872931718 -0.34067449723147275
4478000000.0 0.9673409432090424 -0.40451205616337915
4481000000.0 0.9118578130208599 -0.38523872031865125
4484000000.0 0.9041615373124021 -0.43107876657494104
4488000000.0 0.9136587984960118 -0.4072065502559373
4491000000.0 0.9203479072441005 -0.40260411703365656
4494000000.0 0.8937141098641554 -0.38513492299547347
4497000000.0 0.9065246135165412 -0.3860884984525132
4500000000.0 0.9197109101492107 -0.3989458095099494
4503000000.0 0.9404208367247691 -0.4246756763158491
4506000000.0 0.9218505927244451 -0.43314658652006405
4509000000.0 0.8826552156031411 -0.4447048903501938
4512000000.0 0.8510602368738531 -0.4404030611682709
4516000000.0 0.913700828831399 -0.4637180175154746
4519000000.0 0.86520508723251 -0.4544844695247194
4522000000.0 0.8900336959431054 -0.4843418625340252
4525000000.0 0.9014645022158927 -0.45330863759758816
4528000000.0 0.9057057564263971 -0.48818455370812286
4531000000.0 0.8925766000106071 -0.4737887364270683
4534000000.0 0.8457919329913874 -0.4902814718367343
4538000000.0 0.8648806404326945 -0.5113724840020035
4541000000.0 0.8175763835958674 -0.5476269363045331
4544000000.0 0.8529780848497568 -0.5267889134938375
4547000000.0 0.8620276801190718 -0.5160068598853491
4550000000.0 0.8643602883083437 -0.5549459849343353
4553000000.0 0.8473751208671509 -0.5719274173159534
4556000000.0 0.8096341287856466 -0.5572058934755942
4559000000.0 0.8387367295065725 -0.5847273629453551
4562000000.0 0.843806505190869 -0.5976300073914219
4566000000.0 0.8221515470193037 -0.6060860847006246
4569000000.0 0.8189207747165537 -0.5970404872291792
4572000000.0 0.8039306302716096 -0.5909672983074948
4575000000.0 0.7998749235042732 -0.6270762604872081
4578000000.0 0.7962369202832273 -0.6017764635369639
4581000000.0 0.790699754017767 -0.6237070346068122
4584000000.0 0.7852002816346062 -0.6228117347836278
4588000000.0 0.8195477512394207 -0.635577615013392
4591000000.0 0.8026917105733049 -0.6079091786178098
4594000000.0 0.7561669713854478 -0.65538193008111
4597000000.0 0.7666955814455374 -0.6785482372758481
4600000000.0 0.7303522590885053 -0.6715461082857536
4603000000.0 0.7533225153547861 -0.6847987813354345
4606000000.0 0.758784419790404 -0.6793011448633284
4609000000.0 0.7405220714323107 -0.6902363520204301
4612000000.0 0.7155643517359075 -0.6941874633268109
4616000000.0 0.732853992962476 -0.6765543910204485
4619000000.0 0.7316679347533678 -0.7138670853214821
4622000000.0 0.711388659541566 -0.7003529494020532
4625000000.0 0.6795853265738979 -0.710123918895707
4628000000.0 0.7137009464513361 -0.7169999004739636
4631000000.0 0.6923537523886796 -0.7440649109072267
4634000000.0 0.6836735720292086 -0.7363925732780211
4638000000.0 0.6838329925593417 -0.7522775794225083
4641000000.0 0.6921438029009694 -0.7398544872826037
4644000000.0 0.672214554340042 -0.7408962279234208
4647000000.0 0.6769506627081553 -0.7447043799105895
4650000000.0 0.6368804468852595 -0.7561738085061794
4653000000.0 0.6658367705192392 -0.7747381573205829
4656000000.0 0.6332585637540475 -0.7879047596068445
4659000000.0 0.6301138067355739 -0.7844343513084644
4662000000.0 0.6405097395165773 -0.8006669879076911
4666000000.0 0.6195987902189778 -0.8009076035151597
4669000000.0 0.616013229629262 -0.7910957638038287
4672000000.0 0.5947542923993506 -0.8287721346353728
4675000000.0 0.5696527953569771 -0.837402967387691
4678000000.0 0.5868351812825591 -0.8057303279648487
4681000000.0 0.5725826000880444 -0.8339906197495585
4684000000.0 0.5632028293323373 -0.839895985950691
4688000000.0 0.5557861793163175 -0.8137094274780243
4691000000.0 0.5881618960030863 -0.831590736587501
4694000000.0 0.5667036269816778 -0.8260084117065192
4697000000.0 0.5108109442436273 -0.821834382952253
4700000000.0 0.5504260706793325 -0.8468636121998669
4703000000.0 0.5319393084141859 -0.8065509114075944
4706000000.0 0.5294911125716606 -0.8833539385030935
4709000000.0 0.49595714354592635 -0.8609698036736146
4712000000.0 0.5364582001808684 -0.8821984791872527
4716000000.0 0.49927384777048367 -0.8883583053181257
4719000000.0 0.5195836412259858 -0.8673623989778685
4722000000.0 0.5304202321416702 -0.8694495277031875
4725000000.0 0.4966863657405366 -0.8745820479678212
4728000000.0 0.4727701685333596 -0.8750878472274464
4731000000.0 0.5034675383493883 -0.9114597003808926
4734000000.0 0.4759313269332275 -0.864866613609489
4738000000.0 0.4781424838129646 -0.9712658906915074
4741000000.0 0.45210728817196655 -0.9072111892904353
4744000000.0 0.4335652540044743 -0.927270889263836
4747000000.0 0.4367400219561799 -0.8612875220132992
4750000000.0 0.4111244337471023 -0.9135170360344479
4753000000.0 0.41084086823005944 -0.9397637791411252
4756000000.0 0.420961253820101 -0.9303697447746613
4759000000.0 0.4156997037506329 -0.941030727789904
4762000000.0 0.3966141025560158 -0.9474134100705877
4766000000.0 0.39128214089480784 -0.9485589491997306
4769000000.0 0.3789874425285887 -0.9239113314052206
4772000000.0 0.3927415935804244 -0.9682100613397288
4775000000.0 0.3590599362047892 -1.0037961740828238
4778000000.0 0.3319904469586254 -0.9502293269549332
4781000000.0 0.3457015938825243 -0.9457167207391386
4784000000.0 0.38103004809082064 -0.9545663206958342
4788000000.0 0.30005377033177144 -0.9677549665802698
4791000000.0 0.32010075900640794 -0.9398994328202123
4794000000.0 0.3575815877675379 -1.0044779721005492
4797000000.0 0.2891805923709864 -0.9638626145604584
4800000000.0 0.30495583091445166 -0.9744412528641311
4803000000.0 0.24933606294459731 -0.9598090933585777
4806000000.0 0.28052883718497645 -0.9873808519764544
4809000000.0 0.23409100413096914 -0.9864113389715464
4812000000.0 0.20887897740502484 -0.9637793557965475
4816000000.0 0.2680802428368194 -0.9512556439383957
4819000000.0 0.2600364627615507 -1.0273594430285766
4822000000.0 0.25188425500578604 -1.0123602375191283
4825000000.0 0.2665694329157097 -1.019606112660055
4828000000.0 0.2316764994473456 -0.9719559368530885
4831000000.0 0.17949527319691866 -1.0213619607329825
4834000000.0 0.24307533763790523 -0.9882079364947607
4838000000.0 0.20306297664376022 -1.0172530565533677
4841000000.0 0.18849122791759296 -0.9838507928704526
4844000000.0 0.22746330100164952 -0.996191272875869
4847000000.0 0.2061774204164435 -0.9960704325256529
4850000000.0 0.15622529993087014 -1.0357101110340081
4853000000.0 0.18455268709430084 -1.0039740456305917
4856000000.0 0.1485040348456149 -0.9948140184294888
4859000000.0 0.1605481596298541 -1.0412789910511195
4862000000.0 0.1732686270696132 -0.9927894131407621
4866000000.0 0.11327599510450634 -1.0207013678511454
4869000000.0 0.11583002102701694 -1.0205710944011335
4872000000.0 0.09527822898180385 -1.0342557128903551
4875000000.0 0.15488865915392624 -1.0380320496752276
4878000000.0 0.07241073754120173 -1.0411786800730944
4881000000.0 0.06633128369119189 -1.0825414040389187
4884000000.0 0.08986591144194055 -1.0255140501033497
4888000000.0 0.11451393626351636 -1.0080234636888759
4891000000.0 0.0862116760431908 -1.050577376916627
4894000000.0 0.03153811065352866 -0.9924465871911231
4897000000.0 0.05434939718819823 -1.0247612346607553
4900000000.0 0.03010534663562008 -1.0275379441046613
4903000000.0 0.06016380348455601 -1.0413774327260394
4906000000.0 0.0031884724749767675 -1.04787691545696
4909000000.0 0.0026972703593775675 -1.0452481134867366
4912000000.0 -0.04259705571160102 -1.033163446716071
4916000000.0 0.005582982009923937 -1.0440463418605277
4919000000.0 0.0016950244647796625 -1.0510686750796876
4922000000.0 -0.007447729195250843 -1.071029876219261
4925000000.0 -0.07996870613787546 -1.0389633560301919
4928000000.0 0.021597656590230427 -1.001490258298596
4931000000.0 -0.002726588471945332 -1.039521191818479
4934000000.0 -0.03864789447499033 -0.9758715405477547
4938000000.0 -0.10315033110646475 -1.0063354620326224
4941000000.0 -0.061180000448207 -1.007607595697701
4944000000.0 -0.05338133942813866 -0.9859497819775449
4947000000.0 -0.12028203840911594 -0.9853005459106884
4950000000.0 -0.09986493083260718 -0.9693742807947017
4953000000.0 -0.14638759940410517 -1.0413429400357996
4956000000.0 -0.12380394679929341 -1.0089550921652257
4959000000.0 -0.14326915643107316 -0.9645132784257734
4962000000.0 -0.13319000987970445 -1.0471929830272597
4966000000.0 -0.11355690430732873 -1.03676031091627
4969000000.0 -0.11436801907244903 -1.0706680594486695
4972000000.0 -0.16650332474534071 -1.0489076154328933
4975000000.0 -0.1185282406454661 -1.003467235038909
4978000000.0 -0.18976606436232307 -0.9833054632727598
4981000000.0 -0.18948565595094777 -1.0213091557642835
4984000000.0 -0.1685986315541145 -0.9737800476348549
4988000000.0 -0.1690759521996127 -0.9882988708474725
4991000000.0 -0.15923572887003673 -1.0205138835988778
4994000000.0 -0.18394544556850645 -0.9679534867096222
4997000000.0 -0.2707909588252413 -1.015211020436393
5000000000.0 -0.21708236866661557 -1.025999809976395
5003000000.0 -0.20662274043873569 -1.0446061917788523
5006000000.0 -0.264549272742458 -1.0397287261724357
5009000000.0 -0.23856488875234164 -0.9929863935286017
5012000000.0 -0.2744583774093568 -0.9756186059099297
5016000000.0 -0.22134180804369363 -1.0372011638661882
5019000000.0 -0.2994179112447889 -1.0062259909829776
5022000000.0 -0.28524734849911004 -1.0179054552011482
5025000000.0 -0.3019213086222286 -1.0514967627940777
5028000000.0 -0.3222235315686036 -0.999295164815188
5031000000.0 -0.31621768827877583 -0.9840125739901336
5034000000.0 -0.369385293338902 -1.0036662178135163
5038000000.0 -0.34151156805298344 -0.9446341574122046
5041000000.0 -0.3327960882582288 -0.9975483084442235
5044000000.0 -0.27738925389937996 -0.9755979639750368
5047000000.0 -0.35199053137653397 -0.9839348910371201
5050000000.0 -0.2767700834591751 -0.9964844527248435
5053000000.0 -0.3922059009933625 -1.0282068142745726
5056000000.0 -0.326422977001677 -0.9562425074757976
5059000000.0 -0.3260052629409523 -0.9614988418719673
5062000000.0 -0.41222627146177193 -0.9556899117176969
5066000000.0 -0.407340220495956 -0.9615848715711759
5069000000.0 -0.4279988864677374 -0.9557177706817525
5072000000.0 -0.4174785746747939 -0.9406095975606554
5075000000.0 -0.3457338110961742 -0.9402337598877586
5078000000.0 -0.4643390494082898 -0.9670454053875961
5081000000.0 -0.4133701662707617 -0.9124536974443861
5084000000.0 -0.4331001111830127 -0.9665901883765577
5088000000.0 -0.39424312359202207 -0.9445246774221148
5091000000.0 -0.4955806815448321 -0.8735897520812801
5094000000.0 -0.46302438439108123 -0.9229010234589475
5097000000.0 -0.4222602966812832 -0.9388739835736906
5100000000.0 -0.4641935802936661 -0.9396306337225425
5103000000.0 -0.4837322792580062 -0.8981477983183411
5106000000.0 -0.48778735097269516 -0.903383715227684
5109000000.0 -0.45791101441642534 -0.9133296788796723
5112000000.0 -0.49409038903372526 -0.8842529132977162
5116000000.0 -0.4609173328727871 -0.870791701810351
5119000000.0 -0.5097540643456516 -0.8735421411272992
5122000000.0 -0.5022293361136351 -0.9233144013984231
5125000000.0 -0.49451362023644446 -0.901915316146917
5128000000.0 -0.5320634236054016 -0.8842016510162312
5131000000.0 -0.5352989814667645 -0.8158815345538364
5134000000.0 -0.5631034564840531 -0.8422924379677073
5138000000.0 -0.557436728849335 -0.8798791760843954
5141000000.0 -0.5226497158369141 -0.9338833685925134
5144000000.0 -0.48941136131739005 -0.9260712711522466
5147000000.0 -0.6003807247144695 -0.8671695963724194
5150000000.0 -0.5280218600052439 -0.8666658638692686
5153000000.0 -0.5777331241827466 -0.8829734801365208
5156000000.0 -0.6005857558835149 -0.8714780183629118
5159000000.0 -0.5637606194150999 -0.8974594633917722
5162000000.0 -0.5880804032836866 -0.8252358611668351
5166000000.0 -0.659051590490478 -0.8233494668197963
5169000000.0 -0.6355658555051334 -0.8542878234866517
5172000000.0 -0.6329136388224785 -0.8354829088208788
5175000000.0 -0.6303111772964045 -0.8651700993385824
5178000000.0 -0.6255126278088672 -0.8003038730144536
5181000000.0 -0.6568902958022317 -0.8611838719920857
5184000000.0 -0.6430800771268844 -0.8172055531179165
5188000000.0 -0.6862147897039841 -0.7898485279186226
