! Created with skrf 1.8.0 (http://scikit-rf.org).
# Hz S RI R 50.0 
!freq ReS11 ImS11
4000000000.0 0.6405404182894961 0.7844695383977613
4003000000.0 0.7493241398373958 0.8312978866555862
4006000000.0 0.7169312624370395 0.7365627808731804
4009000000.0 0.6854582224036384 0.7442098738897546
4012000000.0 0.6506450385692709 0.8355410783432187
4016000000.0 0.7162116852533523 0.7821682036026907
4019000000.0 0.7050818104103136 0.7817398371556592
4022000000.0 0.6808586651011247 0.8013939159864539
4025000000.0 0.7748294905164017 0.710056110809068
4028000000.0 0.7144610937075885 0.7219389687370272
4031000000.0 0.6879795507957307 0.6999197920183234
4034000000.0 0.7003840156425336 0.6994998786517109
4038000000.0 0.7756710332374346 0.6808210037971208
4041000000.0 0.7373698429908232 0.6850913374139741
4044000000.0 0.8008030959964767 0.7515545609197263
4047000000.0 0.7716730517609534 0.7838894248877196
4050000000.0 0.7737006035468036 0.6804514752605317
4053000000.0 0.7964100734250488 0.6348776794532547
4056000000.0 0.7845726607338016 0.6902836179507027
4059000000.0 0.7663452778039277 0.6631265415179499
4062000000.0 0.7827459632394216 0.651011509247498
4066000000.0 0.7457264861961472 0.6150161585050754
4069000000.0 0.8408953027728112 0.6399037200960345
4072000000.0 0.7911303009832784 0.6559675185186011
4075000000.0 0.7726443211480595 0.6730623549244998
4078000000.0 0.822385977931074 0.5901141545984946
4081000000.0 0.8100694273101537 0.6654569253899202
4084000000.0 0.8471041514699605 0.5976782630160471
4088000000.0 0.8006460317903026 0.6473948763716821
4091000000.0 0.8870827783826677 0.6652661900075751
4094000000.0 0.8275372027541259 0.611282100430687
4097000000.0 0.8675672160411099 0.5763752935014304
4100000000.0 0.8162894202422654 0.571053825471971
4103000000.0 0.8329465931862934 0.62446156117829
4106000000.0 0.8636167918608979 0.5444381202308931
4109000000.0 0.8548130492896451 0.5235475936863576
4112000000.0 0.8522488183430417 0.5214131520416099
4116000000.0 0.8619517931846952 0.588914538869065
4119000000.0 0.8790772803245513 0.5252196272905033
4122000000.0 0.8871843903870674 0.4953312187120067
4125000000.0 0.9323379793205553 0.4967310454451059
4128000000.0 0.8711805376406448 0.48765115624440014
4131000000.0 0.8870166838189778 0.5232417180239399
4134000000.0 0.8492081914569564 0.507680741411061
4138000000.0 0.8980396149944916 0.45623332867400085
4141000000.0 0.8786669093809703 0.4742341128896952
4144000000.0 0.9164099683877374 0.5300967510730366
4147000000.0 0.9032624724189652 0.44372921671608284
4150000000.0 0.9564832317656342 0.4938399484538461
4153000000.0 0.9135619083156995 0.46344989002367387
4156000000.0 0.9211884438512326 0.5064954842903974
4159000000.0 0.9051596180403434 0.4365794372660709
4162000000.0 0.9162014215792447 0.42858757276326676
4166000000.0 0.9557462469675333 0.39231188014041707
4169000000.0 0.9450596913821466 0.3993407583956937
4172000000.0 0.9438800945016476 0.4237091145475744
4175000000.0 0.9125234513802033 0.4337564059374665
4178000000.0 0.9627818829028407 0.40662665662491826
4181000000.0 0.954840634406984 0.3598208295281514
4184000000.0 0.9371896623578512 0.3730986047012262
4188000000.0 0.9505317971730165 0.33485332498591835
4191000000.0 0.9286778046514007 0.3913966979775095
4194000000.0 0.9176142330680022 0.32790408306755725
4197000000.0 0.9503196215343347 0.35165464101290517
4200000000.0 0.970407096553209 0.35355546184106057
4203000000.0 0.9718045064858511 0.35698661087818717
4206000000.0 0.9781738022080755 0.3428514698467621
4209000000.0 0.9486656861404216 0.31296559532905116
4212000000.0 0.9828587394437087 0.2877642803616498
4216000000.0 0.982123158050699 0.31617444221463403
4219000000.0 0.9900484826588662 0.3003911411538527
4222000000.0 0.9913364419661217 0.27768991086569933
4225000000.0 0.9592148036213164 0.28708792205709377
4228000000.0 0.9803449506263562 0.2747231718243859
4231000000.0 0.9824496590405313 0.24829837305374225
4234000000.0 1.0085414970758386 0.2408189643463789
4238000000.0 1.0074937809819409 0.23668609159427564
4241000000.0 0.9979887665210985 0.21853556327607282
4244000000.0 0.9763024742899145 0.23742193529245076
4247000000.0 0.9862826889682961 0.2177730326336968
4250000000.0 0.9883540518157734 0.19312700488170814
4253000000.0 0.9626346771307466 0.17986209691804544
4256000000.0 1.0250809819789846 0.19515683112514837
4259000000.0 0.9717258458642991 0.17655405132827148
4262000000.0 1.0074110918667454 0.13613468527582465
4266000000.0 1.0115192156556505 0.14335689893561498
4269000000.0 1.0020745449333575 0.16954840210558556
4272000000.0 1.0034400803702257 0.1416703776010253
4275000000.0 0.9960088900490722 0.14747258184965595
4278000000.0 1.0403249356345514 0.14007706318456653
4281000000.0 1.017013512843708 0.12775012898217708
4284000000.0 1.0149734017402725 0.07305900599581275
4288000000.0 1.0057474053752038 0.13697152287377645
4291000000.0 0.9857917197900514 0.08655095057391697
4294000000.0 1.001541500233358 0.06542827990098558
4297000000.0 1.0111040247433467 0.08071287728020844
4300000000.0 0.9978495138795038 0.05411111340692939
4303000000.0 0.9701933709151851 0.04251618212941101
4306000000.0 1.0324171090675067 0.05851416093881204
4309000000.0 1.0002466555439868 0.06874056938646987
4312000000.0 1.0141203419614437 0.04780096455871939
4316000000.0 1.0240142107156003 0.03717639040999991
4319000000.0 0.9999682947950657 0.012673231222985193
4322000000.0 0.997737361351971 -0.023407107414772144
4325000000.0 1.0029161083702127 -0.006703723948743051
4328000000.0 0.9948118930910455 0.002375313405043711
4331000000.0 1.0140385635765468 -0.036669799859284286
4334000000.0 0.9806823152077455 -0.04115570888645298
4338000000.0 1.001283053990234 -0.01401754690590866
4341000000.0 1.0230724759921674 -0.0018833735874662916
4344000000.0 1.0180615305623635 -0.04812864468832152
4347000000.0 1.0018961581846728 -0.08636639710760395
4350000000.0 0.973298009168502 -0.09040525682221266
4353000000.0 0.9700384900576631 -0.0489218693953372
4356000000.0 0.989982844284281 -0.11800561174730609
4359000000.0 0.9486204099110529 -0.08543302107282061
4362000000.0 0.9947915744062963 -0.1817669614326429
4366000000.0 1.0115705626381428 -0.12112734518093578
4369000000.0 0.9822543657846521 -0.1236192196472526
4372000000.0 0.9750872748983197 -0.16137941571669812
4375000000.0 0.9973593564878351 -0.14256929793110437
4378000000.0 0.966830622209328 -0.14185715083820416
4381000000.0 0.9727236495891907 -0.1473622996454202
4384000000.0 1.0487026797400514 -0.17004466683082747
4388000000.0 0.9752370149266184 -0.17924487796551875
4391000000.0 1.0053982103894459 -0.17554349631699873
4394000000.0 0.9514558467980575 -0.18907400760501028
4397000000.0 0.9879874212892246 -0.2151176362910621
4400000000.0 1.0000863839934009 -0.2255016727412591
4403000000.0 0.9884132584301679 -0.22590935059171688
4406000000.0 0.9826076551079627 -0.23953527152874418
4409000000.0 1.0198122491819592 -0.24840294056815354
4412000000.0 0.9534688758819304 -0.3006057170901026
4416000000.0 0.9594169642174737 -0.26767829894131123
4419000000.0 0.9686112512550253 -0.2852254449838049
4422000000.0 0.9688821468076168 -0.26091941970210736
4425000000.0 0.9844330321323664 -0.27175317017463235
4428000000.0 0.9529601584146592 -0.3006871113927697
4431000000.0 0.9742761717071775 -0.3001231936517907
4434000000.0 0.9460087807511628 -0.30833998794482764
4438000000.0 0.9785853932557749 -0.32033643887938257
4441000000.0 0.9726190436021831 -0.3233042283252044
4444000000.0 0.9298885455154386 -0.30813710323706966
4447000000.0 0.9363638126576608 -0.3756152800751287
4450000000.0 0.9448541772186828 -0.32903217291175435
4453000000.0 0.9706594301265052 -0.37324825423296143
4456000000.0 0.9068552545338484 -0.35207769706462166
4459000000.0 0.888480261039805 -0.38164611650951663
4462000000.0 0.984651282539915 -0.4090447713151239
4466000000.0 0.9491107928206759 -0.4218077940856765
4469000000.0 0.9334158152893961 -0.3843020088074558
4472000000.0 0.9172969401386576 -0.442349102024406
4475000000.0 0.8889014665115051 -0.41136231139789037
4478000000.0 0.9459422260223235 -0.4512657025422725
4481000000.0 0.8742650612009726 -0.4557784812110093
4484000000.0 0.8774051284394591 -0.48304003012396035
4488000000.0 0.8975566443870038 -0.4447539335030189
4491000000.0 0.8958966980801348 -0.4726128036450586
4494000000.0 0.8780718318503501 -0.46426670245335694
4497000000.0 0.8874819203087569 -0.44872797676848647
4500000000.0 0.8762816189260119 -0.46691817195542373
4503000000.0 0.897452138448223 -0.5096356633510524
4506000000.0 0.862434641075615 -0.48120551827816144
4509000000.0 0.851633256368906 -0.49043669043741356
4512000000.0 0.8463369355319973 -0.5116053628722922
4516000000.0 0.8962115789932871 -0.5193538929025084
4519000000.0 0.8473225714850431 -0.497268812729709
4522000000.0 0.829820872319107 -0.5352948232952284
4525000000.0 0.855417184851146 -0.5080225668227878
4528000000.0 0.8638722793355573 -0.5513323555009061
4531000000.0 0.848292779220759 -0.5420438998246367
4534000000.0 0.8302991525164961 -0.5506252903670338
4538000000.0 0.8250623340686785 -0.5688610647113151
4541000000.0 0.7896058990690004 -0.6017680465575794
4544000000.0 0.8090595834927248 -0.5755004835109888
4547000000.0 0.8211793544613992 -0.5799462965313555
4550000000.0 0.7972647899804217 -0.6118919702556455
4553000000.0 0.797042776116412 -0.6097495238016812
4556000000.0 0.7757442246429329 -0.5953760933586697
4559000000.0 0.7804876694441403 -0.631353452064102
4562000000.0 0.8017444647243481 -0.6362263065583486
4566000000.0 0.7828392424978354 -0.6334221192948144
4569000000.0 0.7412371641404925 -0.6453795177427841
4572000000.0 0.759838624882531 -0.6556204934242077
4575000000.0 0.7476633646949873 -0.6820398052069603
4578000000.0 0.7943857896529427 -0.6657154257192944
4581000000.0 0.7468512250835694 -0.6985090319713274
4584000000.0 0.7262308294929709 -0.663002358855739
4588000000.0 0.7572578465600951 -0.692923938649632
4591000000.0 0.7281292299540163 -0.6776555498468156
4594000000.0 0.6959781527858573 -0.7091571112603751
4597000000.0 0.7049026152711926 -0.7203609237839037
4600000000.0 0.6932591079284715 -0.7377677069361128
4603000000.0 0.7004159695011284 -0.7301883708368923
4606000000.0 0.7127875344216265 -0.7319711737355772
4609000000.0 0.6831050402201365 -0.7284846251234459
4612000000.0 0.6803512058209769 -0.7519457751485404
4616000000.0 0.6644571155979095 -0.7188003576785507
4619000000.0 0.6642010694487869 -0.7547430560030661
4622000000.0 0.6722169009987643 -0.7684817097162755
4625000000.0 0.6355107733149741 -0.7673506488336552
4628000000.0 0.6578562323117547 -0.7512241988269661
4631000000.0 0.6364633984419679 -0.7939015610161222
4634000000.0 0.6352440262947283 -0.7921822719084637
4638000000.0 0.6475425519505766 -0.7927294401443968
4641000000.0 0.627241729729175 -0.8028049614405443
4644000000.0 0.6014468783804471 -0.7953118780837173
4647000000.0 0.6341330163519047 -0.8103732135651918
4650000000.0 0.5990050538149442 -0.806877118726372
4653000000.0 0.6051204242678974 -0.827510553271234
4656000000.0 0.5963101232768011 -0.8294630474393145
4659000000.0 0.5698851395143344 -0.8246393170145342
4662000000.0 0.5793615415266298 -0.8424640400414808
4666000000.0 0.5294929835845562 -0.8435076103889189
4669000000.0 0.5581827022992116 -0.835225585611626
4672000000.0 0.5538201179674528 -0.8623858444166026
4675000000.0 0.5333227307267634 -0.8552609489155929
4678000000.0 0.5037291308346783 -0.8590122625038255
4681000000.0 0.5171246416581579 -0.8841312210372676
4684000000.0 0.5258090959471569 -0.8644305444840626
4688000000.0 0.503265697751744 -0.8808538694087105
4691000000.0 0.5323768239247388 -0.8920517242888393
4694000000.0 0.5224324012602458 -0.8661311826381841
4697000000.0 0.43995557545006464 -0.8700142515911189
4700000000.0 0.47745653838851543 -0.8910114097849506
4703000000.0 0.4718685674465448 -0.8498714280862427
4706000000.0 0.4818424932447782 -0.8985936815920939
4709000000.0 0.4342049968070898 -0.9145598200789521
4712000000.0 0.4471659405404298 -0.8822447277404264
4716000000.0 0.44278831403463415 -0.9183918584830515
4719000000.0 0.44744518262653454 -0.9128310311519351
4722000000.0 0.44042241542242433 -0.8788152544102983
4725000000.0 0.4165784196134159 -0.8909551915799616
4728000000.0 0.41087887692365554 -0.9081822810043427
4731000000.0 0.41099308410732127 -0.9516870727411801
4734000000.0 0.40050807277069794 -0.920764618807743
4738000000.0 0.4323394256009218 -0.9754454478715412
4741000000.0 0.36252993307314724 -0.9208584801666241
4744000000.0 0.3337542196998485 -0.9488630195653064
4747000000.0 0.3826924551321669 -0.9080822831106578
4750000000.0 0.3704254266268513 -0.9677681584980193
4753000000.0 0.36700656056799696 -0.9731573097060069
4756000000.0 0.33308915731962163 -0.9717569877394769
4759000000.0 0.3572726568711773 -0.9586188718913783
4762000000.0 0.3077614260500905 -0.9923798671734937
4766000000.0 0.3219341102764127 -0.9627271868616556
4769000000.0 0.31710404619879806 -0.9617720313830048
4772000000.0 0.3019851046555716 -0.9553570985253791
4775000000.0 0.29779176585567657 -0.9965613091680721
4778000000.0 0.2665040509168196 -0.9891020652298447
4781000000.0 0.287946504963426 -0.9590981328592767
4784000000.0 0.3043308236210988 -0.9587488327431483
4788000000.0 0.23303223625754962 -0.9674845783580714
4791000000.0 0.23114056325069343 -0.9787749028383009
4794000000.0 0.26939446260108196 -0.9913710887893719
4797000000.0 0.2265824117729133 -0.977284128553319
4800000000.0 0.21553434096520474 -0.9969844297234798
4803000000.0 0.16900071377500347 -1.0056907006936098
4806000000.0 0.21485609818960344 -1.0243109157972723
4809000000.0 0.14945788448979555 -0.988238020396394
4812000000.0 0.14394071704917924 -1.0131061634840859
4816000000.0 0.20304101911155578 -0.987868425955359
4819000000.0 0.17478698388547834 -1.0149784939190027
4822000000.0 0.17336190709867436 -1.028340419274205
4825000000.0 0.18618296207924942 -1.0501731572616422
4828000000.0 0.15006054447457867 -1.0025109788957272
4831000000.0 0.08974844071940535 -1.0415592219860232
4834000000.0 0.15242803123027926 -1.010407552356909
4838000000.0 0.10410727032616165 -1.035427337136304
4841000000.0 0.08598544448575003 -1.0117849595844604
4844000000.0 0.1410575775188712 -1.0103166910309187
4847000000.0 0.11141162012811022 -1.0006944991142048
4850000000.0 0.07071983830809735 -1.0379002733466134
4853000000.0 0.0940679064886648 -0.9951547995177847
4856000000.0 0.07786532354964286 -1.015753668917772
4859000000.0 0.04641630152674821 -1.058525017324078
4862000000.0 0.06179962243939011 -1.016639808808852
4866000000.0 0.014648392087565083 -1.0438712264883316
4869000000.0 0.02431642465234053 -1.0370591881414895
4872000000.0 0.016468026816532803 -1.0471477906116289
4875000000.0 0.07805176871549196 -1.061716808277051
4878000000.0 0.015686505175691597 -1.042286228802059
4881000000.0 -0.028493599025202404 -1.067827649098325
4884000000.0 0.023018821232562638 -1.0298007973984082
4888000000.0 0.023851466835559755 -1.02947623885324
4891000000.0 0.0035775148712057503 -1.0468799920585965
4894000000.0 -0.06049164598017626 -1.0193186961017913
4897000000.0 -0.022925161686278814 -1.014860285037522
4900000000.0 -0.041344892347611475 -1.046876744520708
4903000000.0 -0.050699615758922074 -1.0216240099428042
4906000000.0 -0.05521695576278639 -1.0405419143165169
4909000000.0 -0.0838381984382297 -1.0064595206469045
4912000000.0 -0.09118768435884315 -1.045391398718544
4916000000.0 -0.0934132257883829 -1.0360714091028709
4919000000.0 -0.0637320243277608 -1.080651438703292
4922000000.0 -0.08602033680433846 -1.0209891588727835
4925000000.0 -0.12314126766055664 -1.0098507401282468
4928000000.0 -0.06495242191953447 -1.016057843467696
4931000000.0 -0.10900340431487453 -1.01973319525316
4934000000.0 -0.12988612872370525 -0.9721695897277755
4938000000.0 -0.2028244049576567 -1.0289443696902834
4941000000.0 -0.11512968754714005 -1.0367039948130068
4944000000.0 -0.1240102023018197 -0.9835782195832903
4947000000.0 -0.16684067730367788 -1.005482999168824
4950000000.0 -0.20891500417395825 -0.9925188296552684
4953000000.0 -0.2267833054150657 -1.0508624289906234
4956000000.0 -0.24785079472232713 -1.027390465870208
4959000000.0 -0.2518857502233042 -0.9708990133807954
4962000000.0 -0.21440104449679423 -1.0368649007101045
4966000000.0 -0.20666082009865155 -1.0337381591221655
4969000000.0 -0.20757743320859734 -1.063466768947402
4972000000.0 -0.24161421287166882 -1.0353169027654485
4975000000.0 -0.2266832453486036 -1.0087096524801629
4978000000.0 -0.28453529406516154 -0.9939837692862916
4981000000.0 -0.2710485004185602 -1.0077098140623069
4984000000.0 -0.25599580311383363 -0.9695381615453309
4988000000.0 -0.27309021816542733 -0.9662402341155139
4991000000.0 -0.24230960441181 -1.0245790519487346
4994000000.0 -0.2925339519801877 -0.9893497510872831
4997000000.0 -0.34460085156440706 -1.001026289149484
5000000000.0 -0.3038629638020771 -1.0275525758314215
5003000000.0 -0.32151061442524403 -1.025173580870612
5006000000.0 -0.3631724035268886 -1.0297350142968147
5009000000.0 -0.3067072387278381 -0.9659333298695728
5012000000.0 -0.36584027263976454 -0.9790882934241629
5016000000.0 -0.3350924837293627 -1.0065033083151802
5019000000.0 -0.33734396724875615 -0.9512485403206987
5022000000.0 -0.3402772461221464 -0.9464354398295769
5025000000.0 -0.3618262347542816 -1.0217097876119028
5028000000.0 -0.4016979813207642 -0.9727509512800192
5031000000.0 -0.36404286129585706 -0.9447343489272061
5034000000.0 -0.4523531700303921 -0.9501816158317087
5038000000.0 -0.405039942329411 -0.9212437153130095
5041000000.0 -0.3732693488990543 -0.9822017052788709
5044000000.0 -0.3801332069720551 -0.9628414984187424
5047000000.0 -0.40013859670881186 -0.94999018648459
5050000000.0 -0.363118059352214 -0.9361390418755513
5053000000.0 -0.4446393155268912 -0.9516378329585373
5056000000.0 -0.42582942953558034 -0.9648734540661137
5059000000.0 -0.3860313822577142 -0.9683627926988011
5062000000.0 -0.481399640909961 -0.9367115660984355
5066000000.0 -0.4529916472869422 -0.9169746408092121
5069000000.0 -0.4825891598156248 -0.9384109122509808
5072000000.0 -0.505496689230831 -0.9107608973983137
5075000000.0 -0.4468485743359144 -0.9366108931112143
5078000000.0 -0.5190848763178826 -0.8987439860367727
5081000000.0 -0.5255213497386012 -0.8701357360504512
5084000000.0 -0.516387802845113 -0.9039527732961732
5088000000.0 -0.5031345661030484 -0.8839950597007948
5091000000.0 -0.5603227971395683 -0.9025966776071703
5094000000.0 -0.5508558974943809 -0.8414773679786111
5097000000.0 -0.551693880049597 -0.8590322486299338
5100000000.0 -0.5594345677742011 -0.8890869033290375
5103000000.0 -0.5871308780660774 -0.8546374298494296
5106000000.0 -0.5795793429228556 -0.9153263263350697
5109000000.0 -0.526126846654537 -0.8747321928319205
5112000000.0 -0.5941274289196595 -0.8355231628557847
5116000000.0 -0.5762416395774607 -0.844835170068098
5119000000.0 -0.6471599136874522 -0.8708477730483069
5122000000.0 -0.6093943361543108 -0.8499418320713019
5125000000.0 -0.5482623916096276 -0.8446953382712695
5128000000.0 -0.6065261149547658 -0.8059795324943211
5131000000.0 -0.6006881207567736 -0.8438821787921992
5134000000.0 -0.6035593879941844 -0.7869416141698672
5138000000.0 -0.647286531931678 -0.8261545328153808
5141000000.0 -0.6137295101696909 -0.8610817155225599
5144000000.0 -0.6243506134792389 -0.8286218401186909
5147000000.0 -0.6686228344379055 -0.8523128529688128
5150000000.0 -0.6480787434537977 -0.834587925106377
5153000000.0 -0.677290852578686 -0.8264312791194136
5156000000.0 -0.6668475183162692 -0.8171502731933779
5159000000.0 -0.7232393712590305 -0.8053525384011145
5162000000.0 -0.7046958013460095 -0.807715011146641
5166000000.0 -0.6946981924829121 -0.7743683787407004
5169000000.0 -0.6995056151499516 -0.798038574650145
5172000000.0 -0.6896430669420657 -0.7386837786434084
5175000000.0 -0.6801445883266349 -0.8265097927965869
5178000000.0 -0.7168943008283255 -0.7557421002282817
5181000000.0 -0.74008788829307 -0.7415557126996533
5184000000.0 -0.7475814588278884 -0.7532781829155167
5188000000.0 -0.6685903114418195 -0.7329384380137167
