! Created with skrf 1.8.0 (http://scikit-rf.org).
# Hz S RI R 50.0 
!freq ReS11 ImS11
4000000000.0 0.6431353768610001 0.7479391447893322
4003000000.0 0.664315233515592 0.8247995828264512
4006000000.0 0.7068060178904888 0.7654167912101922
4009000000.0 0.6625428725871014 0.7859648478491499
4012000000.0 0.7091263599579811 0.8235319190397795
4016000000.0 0.7258478019003525 0.7470655786323286
4019000000.0 0.7003158482956973 0.7231855253478108
4022000000.0 0.677302574597498 0.7823564865277509
4025000000.0 0.7457545066868101 0.7288434616072168
4028000000.0 0.730197747048527 0.7512912128963936
4031000000.0 0.7238933352006635 0.7246842233221303
4034000000.0 0.7261364534940428 0.7273376367991287
4038000000.0 0.7448371746727295 0.7252310389974331
4041000000.0 0.7205635084272914 0.7321525197345677
4044000000.0 0.7734689539264464 0.7962053423339736
4047000000.0 0.7435170679349441 0.7750294680776876
4050000000.0 0.7441689862887668 0.6641403871912696
4053000000.0 0.7556180237650684 0.6632899460768826
4056000000.0 0.7891406341953171 0.6846878821101967
4059000000.0 0.730289095385032 0.6370430686149016
4062000000.0 0.7754931870092283 0.6452425547506506
4066000000.0 0.7494818643454881 0.5932175679370251
4069000000.0 0.8498393672420623 0.6761762302813877
4072000000.0 0.7816077980926568 0.683920535311888
4075000000.0 0.8124317544333209 0.6636919180594005
4078000000.0 0.8535507837334121 0.656034157412694
4081000000.0 0.8156551497033735 0.7049306105278274
4084000000.0 0.8362413559787915 0.5990728502176523
4088000000.0 0.8117855812445274 0.6682940330781066
4091000000.0 0.8947260052603494 0.6643463162966992
4094000000.0 0.8116539845634952 0.6202947145222006
4097000000.0 0.8412095099879383 0.5929551690208885
4100000000.0 0.8338204696784196 0.5785185371411168
4103000000.0 0.857171737987914 0.6306116625988383
4106000000.0 0.8164202466606649 0.5862492460743276
4109000000.0 0.8467341341017425 0.5454405180691382
4112000000.0 0.8723097944363432 0.5386375425233201
4116000000.0 0.8449718214304266 0.5395949720666903
4119000000.0 0.8899546411081873 0.5447069686013473
4122000000.0 0.9088508304140906 0.5257683552416497
4125000000.0 0.9121864493060375 0.538249746530193
4128000000.0 0.8438526032113993 0.5268033135949843
4131000000.0 0.8871328220114313 0.4862665948499535
4134000000.0 0.874796605101603 0.5062457104997616
4138000000.0 0.8810480862363086 0.464862560129309
4141000000.0 0.9137379699281732 0.48498221664354746
4144000000.0 0.8998269174704892 0.5343374166527852
4147000000.0 0.9186534540792816 0.45190634900495646
4150000000.0 0.9633063985941035 0.47492017212336685
4153000000.0 0.9051908342077989 0.4650302419179172
4156000000.0 0.9434032474141893 0.47318528868227605
4159000000.0 0.8889956258524496 0.4414247362082698
4162000000.0 0.9074416259364497 0.45890421620578414
4166000000.0 0.9663254211980368 0.4190795536174766
4169000000.0 0.9495537372362843 0.41634086858937924
4172000000.0 0.9140380790821846 0.45777019279602754
4175000000.0 0.9537659392853783 0.4292877494807617
4178000000.0 0.95045542471961 0.40259891087840816
4181000000.0 0.9566462083566267 0.3813483439447788
4184000000.0 0.9422169762767993 0.3763869182631899
4188000000.0 0.9431654173807493 0.34693411032330546
4191000000.0 0.9100049212654917 0.38624173302573056
4194000000.0 0.9502229522442253 0.3519418652130274
4197000000.0 0.9801734028942815 0.34964740340041084
4200000000.0 0.9618317257806792 0.36894917145283257
4203000000.0 0.9864760758807841 0.36263760125490874
4206000000.0 0.9961577561037054 0.32888251874275914
4209000000.0 0.9569787016189037 0.3467698233438555
4212000000.0 0.9963385459841992 0.28458710676623633
4216000000.0 0.9860198035804593 0.3264813970905264
4219000000.0 0.9953676368839421 0.3152156867952096
4222000000.0 0.9970375738036152 0.28387739194233363
4225000000.0 0.9687291779097971 0.27649343962692097
4228000000.0 1.0004111546768797 0.2839460220018092
4231000000.0 0.9813499627243006 0.26761457350966067
4234000000.0 0.9962603152941789 0.24588773815398257
4238000000.0 1.00383956770079 0.2259115732699787
4241000000.0 0.9997370426416217 0.22963346785825373
4244000000.0 0.9908113463777108 0.2128857014075191
4247000000.0 0.9768134452789405 0.2236358912867314
4250000000.0 0.9699690925041837 0.20227188797653717
4253000000.0 0.9982156589876339 0.19357324002523274
4256000000.0 1.0229068551186968 0.22065380918889954
4259000000.0 0.9825631826830633 0.16272763185020997
4262000000.0 1.009881959849068 0.16809547789169474
4266000000.0 1.0323431654933017 0.15546312260135292
4269000000.0 0.9977501331264842 0.15964193285198938
4272000000.0 0.9835642712250267 0.15206517320400234
4275000000.0 1.0117780756105048 0.15584919627874022
4278000000.0 1.040813909362516 0.15444109506137976
4281000000.0 1.00749150576391 0.14884241101959605
4284000000.0 1.0281173126486265 0.07689277174038037
4288000000.0 1.0198295014488379 0.1513902334330564
4291000000.0 0.9867507782769415 0.10822077494828723
4294000000.0 1.0022697775377676 0.08760248428553492
4297000000.0 0.9982934312466795 0.10862223287215879
4300000000.0 0.9996090857534767 0.07321390806719089
4303000000.0 0.9991735617199786 0.05518518146050848
4306000000.0 1.0666874725466147 0.08476378112346467
4309000000.0 0.9993747553739504 0.06312901366496308
4312000000.0 1.020116719900376 0.07089965673807935
4316000000.0 1.0334671688896575 0.028290942204913683
4319000000.0 0.9952426196646124 0.04227075812142826
4322000000.0 0.9968222421065356 -0.012283650417258832
4325000000.0 1.0195106087078933 -0.007514936219496657
4328000000.0 0.9897430703104297 -0.002882576251374183
4331000000.0 1.000427541063436 -0.039062137335707875
4334000000.0 1.0183521845274002 -0.01899129604500395
4338000000.0 1.0094991727659308 0.007731733669729915
4341000000.0 1.0399005434466284 -0.013904754063257294
4344000000.0 1.0162386173725468 -0.036603628693061344
4347000000.0 1.0227230773993046 -0.0858946552664328
4350000000.0 0.9798319442326336 -0.09152282231939558
4353000000.0 0.9878682308267299 -0.06392414717547011
4356000000.0 0.9864178473557508 -0.11055245992312875
4359000000.0 0.9677806965096709 -0.07970978205507807
4362000000.0 1.0107585708327287 -0.15492698671980226
4366000000.0 1.0263902863551975 -0.10204940140093964
4369000000.0 0.9836296272763685 -0.1106511682949409
4372000000.0 1.007864998911609 -0.16624546073700958
4375000000.0 1.0004132262102852 -0.12937416152273673
4378000000.0 0.9924788007000434 -0.13378571342991513
4381000000.0 0.9713925638433345 -0.13625679877295338
4384000000.0 1.0685388755646437 -0.18106974689085245
4388000000.0 0.9827682182285393 -0.15892237769938133
4391000000.0 0.9920487882382385 -0.15891481177142056
4394000000.0 0.9576825861445178 -0.16868072656057215
4397000000.0 0.987778210596 -0.18808997310204592
4400000000.0 1.0117463549175945 -0.1974604428797831
4403000000.0 1.0014507528087457 -0.20992506633817598
4406000000.0 0.9899171100279373 -0.23085399685825256
4409000000.0 1.02062925706644 -0.24355023866909994
4412000000.0 0.9597170133647969 -0.29857286506818415
4416000000.0 0.9655400145813593 -0.26767014943796297
4419000000.0 0.9742380822735567 -0.2793102334705977
4422000000.0 0.9746356744950087 -0.23800266437498943
4425000000.0 0.9846506772427017 -0.24842910167296117
4428000000.0 0.9700804333221239 -0.2798410639554081
4431000000.0 0.9880147893764122 -0.28808496289022584
4434000000.0 0.9580971622490687 -0.31377086446058283
4438000000.0 0.9780328766010791 -0.3183409226019549
4441000000.0 0.9755407293415408 -0.3061947098554006
4444000000.0 0.9469753746682874 -0.32124437924704957
4447000000.0 0.932167633395806 -0.35955987506138243
4450000000.0 0.9483773187916075 -0.3314398607840797
4453000000.0 0.9597288391040307 -0.3505939068025366
4456000000.0 0.9095876771034938 -0.3470942855835689
4459000000.0 0.9118668576122266 -0.37046290285943984
4462000000.0 0.981551385805066 -0.388157731206768
4466000000.0 0.9645655214625445 -0.40348965540902093
4469000000.0 0.9399946926344429 -0.37247578477303367
4472000000.0 0.9385990859996456 -0.4120745125369006
4475000000.0 0.902692698203158 -0.383771830672188
4478000000.0 0.9560381026300272 -0.4382062739989113
4481000000.0 0.8825758440943724 -0.41744138589412355
4484000000.0 0.9001479820668963 -0.46416997609896826
4488000000.0 0.8823852430686396 -0.4569332437018915
4491000000.0 0.9038782192010718 -0.4638783128064969
4494000000.0 0.8884769362251621 -0.4564738793988034
4497000000.0 0.8897077725652167 -0.4406076268345516
4500000000.0 0.898836288113408 -0.4731361628420606
4503000000.0 0.9042634190168812 -0.4884200212354536
4506000000.0 0.8715965814441986 -0.48795069751219006
4509000000.0 0.8701516109976166 -0.5015860102800964
4512000000.0 0.8465931794716269 -0.4980774713077478
4516000000.0 0.8995721489363486 -0.5269212216969389
4519000000.0 0.8449002123784768 -0.49928325047494604
4522000000.0 0.854367362538478 -0.5266531789348294
4525000000.0 0.8683208833307943 -0.5087408857659382
4528000000.0 0.8752618170009536 -0.5631947178202842
4531000000.0 0.8663333943497254 -0.5394111364681001
4534000000.0 0.8143776364404518 -0.5480385413322453
4538000000.0 0.8320313042463281 -0.5611312580609564
4541000000.0 0.8057978969146129 -0.6031838649193225
4544000000.0 0.8280484513555197 -0.5636691561672988
4547000000.0 0.8122238459400936 -0.5630265663198337
4550000000.0 0.8033527495717332 -0.6283726217215758
4553000000.0 0.8077256734227964 -0.6186590835706565
4556000000.0 0.7779195261131353 -0.6048000896932743
4559000000.0 0.7888433088208731 -0.6166268701585051
4562000000.0 0.7971869834860386 -0.631089964128659
4566000000.0 0.7929469645481908 -0.6565983580401293
4569000000.0 0.7601391811871623 -0.6267312309261266
4572000000.0 0.7718361497845239 -0.6349617918499431
4575000000.0 0.7783718657187859 -0.6664363604372187
4578000000.0 0.8087533490512622 -0.6639762795058637
4581000000.0 0.760593778482951 -0.6879640616271726
4584000000.0 0.7340146988379285 -0.6873386089663749
4588000000.0 0.7758546981830566 -0.6728450156244224
4591000000.0 0.738220742862417 -0.6649676840027244
4594000000.0 0.7327366435000652 -0.7038030619133304
4597000000.0 0.7213802247083065 -0.7190784513803415
4600000000.0 0.6935977592030339 -0.7193201535187389
4603000000.0 0.711862474658311 -0.7157465596248092
4606000000.0 0.7175403999026957 -0.7337354891609188
4609000000.0 0.7035874658683848 -0.7267133547171686
4612000000.0 0.7014712329659343 -0.7339282664350388
4616000000.0 0.6877251680279066 -0.7311689702130547
4619000000.0 0.6792434328414428 -0.7421693323500265
4622000000.0 0.6728810497833763 -0.7601664947813024
4625000000.0 0.62821843322347 -0.7516822389175709
4628000000.0 0.6926718080096103 -0.7397556367178808
4631000000.0 0.6385894641124061 -0.7718433971113418
4634000000.0 0.6305730853682086 -0.7937178077182582
4638000000.0 0.6464902183464915 -0.7766645573798446
4641000000.0 0.6341665900617578 -0.7842993989085643
4644000000.0 0.6265507038064919 -0.7952902075323396
4647000000.0 0.6324353256879927 -0.8013530499063076
4650000000.0 0.6035053714269888 -0.8199401646220383
4653000000.0 0.626074366534479 -0.8187872318577817
4656000000.0 0.606032164179253 -0.8231558092709474
4659000000.0 0.5979840446349991 -0.8105220285125508
4662000000.0 0.5998706937021085 -0.8223500284780982
4666000000.0 0.561164894519928 -0.8436483616733464
4669000000.0 0.5788935519285818 -0.8500202875921055
4672000000.0 0.5691572009460275 -0.8595441907834886
4675000000.0 0.5311886121550223 -0.8706336321424761
4678000000.0 0.5445669878510403 -0.8519540025092299
4681000000.0 0.5422245244148545 -0.8873641221710324
4684000000.0 0.49196959118777966 -0.8689952855498558
4688000000.0 0.48642258899287 -0.8878860169719981
4691000000.0 0.526506326881388 -0.852121936669753
4694000000.0 0.5010646952412866 -0.8690435213301064
4697000000.0 0.44703393941195974 -0.8390922983998408
4700000000.0 0.49812965389876673 -0.8682114785062047
4703000000.0 0.49354361980361355 -0.8481898131331433
4706000000.0 0.480835278646412 -0.8931629697929332
4709000000.0 0.4459524246903126 -0.9201625160455748
4712000000.0 0.445859914027943 -0.8886178785467397
4716000000.0 0.42445115888467566 -0.9233502539598428
4719000000.0 0.4515067214346651 -0.9144465162607984
4722000000.0 0.4673438291595301 -0.9251628824699871
4725000000.0 0.44340425159848823 -0.9097853330263621
4728000000.0 0.4349946431615406 -0.9120266366308878
4731000000.0 0.43399079916385475 -0.9550291455604525
4734000000.0 0.43190435380638986 -0.9064695560219104
4738000000.0 0.44730625565363236 -0.9653685602414552
4741000000.0 0.3989098392850152 -0.9983194482258151
4744000000.0 0.3852068023152123 -0.9638915956476796
4747000000.0 0.3780237530592513 -0.9043582140276403
4750000000.0 0.34374479084390647 -0.9658630283332302
4753000000.0 0.38194854040661486 -0.9651030419861986
4756000000.0 0.37685794154357827 -0.9827273197565449
4759000000.0 0.3664439324231457 -0.9778537033804007
4762000000.0 0.316866794872823 -0.9924157767244653
4766000000.0 0.31304643085252953 -0.968065435188127
4769000000.0 0.2934246284747834 -0.967874998283481
4772000000.0 0.2945859982367351 -0.9507314692426314
4775000000.0 0.29538803723084 -1.014207325157479
4778000000.0 0.28533720907313975 -0.9693511444432915
4781000000.0 0.3013828670964944 -0.9660911652506374
4784000000.0 0.32985432525042757 -0.9788765543728527
4788000000.0 0.25341788587426434 -1.025817539842353
4791000000.0 0.2493893533416198 -0.9647416048228098
4794000000.0 0.2881539501447548 -1.0174859124498001
4797000000.0 0.2486122937133422 -0.9989063825251069
4800000000.0 0.20585975041822702 -0.9769150251589329
4803000000.0 0.18616221231721225 -0.9782925114885128
4806000000.0 0.21224000526923112 -1.0260900473232013
4809000000.0 0.14164048859081446 -1.0167802122547795
4812000000.0 0.15625776340947087 -0.9945484554084643
4816000000.0 0.20449949436294929 -0.9897168718163052
4819000000.0 0.22322394904671017 -1.0343575224189392
4822000000.0 0.2001705007105451 -1.0420087766860646
4825000000.0 0.17927608296047162 -1.0315775944030738
4828000000.0 0.1767867556853489 -1.015684394537705
4831000000.0 0.10649644866226786 -1.0494459531497717
4834000000.0 0.16582003004438417 -1.023925376762008
4838000000.0 0.11117460830953009 -1.0190455484957015
4841000000.0 0.11570828924459255 -0.9961118518747211
4844000000.0 0.14808114564614241 -1.0274965594464387
4847000000.0 0.11527439877175356 -0.9879982198570731
4850000000.0 0.08105985490572733 -1.0485896367966026
4853000000.0 0.10088327094276184 -1.006573790997153
4856000000.0 0.06791025743269503 -1.0430805840850603
4859000000.0 0.07958705885845571 -1.058787033940873
4862000000.0 0.07690104505898601 -1.006194523841158
4866000000.0 0.0276152574731367 -1.057020974034258
4869000000.0 0.03975299572014107 -1.0246656543399857
4872000000.0 0.015606924675179584 -1.024287618220499
4875000000.0 0.059801942872282195 -1.059999222629542
4878000000.0 0.011020075419932076 -1.035998472936483
4881000000.0 -0.02502264081793358 -1.0990547790193483
4884000000.0 0.02857519928504994 -1.0227136012722318
4888000000.0 0.012695916757414834 -1.0324716039488726
4891000000.0 0.02663624102986411 -1.056167352342671
4894000000.0 -0.03257472177749071 -1.03732314824906
4897000000.0 0.012142894409353781 -1.017947659127579
4900000000.0 -0.06418268070522931 -1.0484461780169798
4903000000.0 -0.0618767643404465 -1.0377281570480896
4906000000.0 -0.06935347877994068 -1.078581865757765
4909000000.0 -0.08630636321176041 -1.0351846433688277
4912000000.0 -0.07588456960744316 -1.0651210237424749
4916000000.0 -0.07781839811409161 -1.0594274339906278
4919000000.0 -0.07833643607273842 -1.0716119631639276
4922000000.0 -0.06989926445716499 -1.0212030008665653
4925000000.0 -0.0892534922399583 -1.009804556978641
4928000000.0 -0.05798740006772403 -1.0138658804295333
4931000000.0 -0.09585081868385774 -1.0705103864866232
4934000000.0 -0.13447816401005325 -0.9480923684787215
4938000000.0 -0.1652208227234636 -1.0141806362316177
4941000000.0 -0.10599142933460527 -0.9705968559286027
4944000000.0 -0.12405047554606272 -0.9702778613814929
4947000000.0 -0.16850488772403652 -0.9688021187882405
4950000000.0 -0.15470655693475582 -0.9914583544247252
4953000000.0 -0.2319496848804155 -1.0561893705006034
4956000000.0 -0.21722668467078488 -0.9881365300891877
4959000000.0 -0.19820899938414868 -0.9849910374721303
4962000000.0 -0.21048732436473364 -1.046802856345737
4966000000.0 -0.22310079301064928 -1.0615190471182292
4969000000.0 -0.18721454172965452 -1.0526192958657583
4972000000.0 -0.24191563384524037 -1.015430411880759
4975000000.0 -0.2115299853562523 -1.0501691219783198
4978000000.0 -0.265489207542041 -0.9878869363419506
4981000000.0 -0.26316683641619054 -1.001191950472889
4984000000.0 -0.24558665972492352 -0.9514787192293365
4988000000.0 -0.2516583735767811 -0.9721717457071359
4991000000.0 -0.23778958099342695 -1.0307971629962933
4994000000.0 -0.28186974834235823 -0.9677725694530563
4997000000.0 -0.31710158609601474 -0.9769983631696244
5000000000.0 -0.29188377694713497 -1.0239563086938452
5003000000.0 -0.3000930142228691 -1.021216591505322
5006000000.0 -0.3393173621511858 -1.0432483654912443
5009000000.0 -0.31343526080571515 -1.0140313724692496
5012000000.0 -0.34213906462473404 -0.9884098990119412
5016000000.0 -0.2940072901576494 -1.0366443541066093
5019000000.0 -0.3586925911621278 -0.9678951612942703
5022000000.0 -0.3709007372024643 -0.9756895761689302
5025000000.0 -0.370869687544468 -1.0273931793737507
5028000000.0 -0.3726251100757113 -0.9698346593192695
5031000000.0 -0.3852694145298531 -0.9771273045392334
5034000000.0 -0.4150308013653664 -0.9578644962974927
5038000000.0 -0.4048664489771443 -0.9006056114333505
5041000000.0 -0.3934286054311741 -0.966164314796634
5044000000.0 -0.34139170634798854 -0.9139270774162208
5047000000.0 -0.4335336043375369 -0.987993877469474
5050000000.0 -0.3516819180480506 -0.9987807059404101
5053000000.0 -0.5093824981609352 -0.9957287456409869
5056000000.0 -0.4015504579921815 -0.9717579844816024
5059000000.0 -0.420333951656859 -0.9875381999517246
5062000000.0 -0.5125996158341686 -0.9350692151836142
5066000000.0 -0.44467626366300506 -0.9193946053583473
5069000000.0 -0.49438057784333733 -0.9658903882655397
5072000000.0 -0.47600474671640725 -0.870950136731518
5075000000.0 -0.4208800603692022 -0.9082380509226078
5078000000.0 -0.5250862267289185 -0.9534032853912442
5081000000.0 -0.48965800131580234 -0.8620309387403836
5084000000.0 -0.5583150637433175 -0.9218628024162532
5088000000.0 -0.5001822648463596 -0.8834916568314977
5091000000.0 -0.5225532852775605 -0.8655913254932961
5094000000.0 -0.5029575955341645 -0.9314625865161049
5097000000.0 -0.46058817424172216 -0.9351550937540902
5100000000.0 -0.5280772309327312 -0.8933587992664916
5103000000.0 -0.5562503396026606 -0.8519366882740192
5106000000.0 -0.5382051091286159 -0.9016535484500141
5109000000.0 -0.5557812188682713 -0.862886429506095
5112000000.0 -0.5422082765430732 -0.889506257108422
5116000000.0 -0.622360817852535 -0.8035684334071849
5119000000.0 -0.6123271445285787 -0.8314471314956164
5122000000.0 -0.5824043858879058 -0.8583002994859703
5125000000.0 -0.5547982980267718 -0.9004255720395055
5128000000.0 -0.5983481697586412 -0.8191458315665137
5131000000.0 -0.6215519391451614 -0.8400036413491268
5134000000.0 -0.615032467236301 -0.8153271381975976
5138000000.0 -0.6118156708308234 -0.8276904349732633
5141000000.0 -0.5966350562136751 -0.9103900874557247
5144000000.0 -0.6216330394920312 -0.8530407618631667
5147000000.0 -0.6450079079554157 -0.8089081899420305
5150000000.0 -0.5925286831432157 -0.8483182307920181
5153000000.0 -0.6904601901374305 -0.8023148986557153
5156000000.0 -0.6594972419974121 -0.8218114334215402
5159000000.0 -0.655515681765616 -0.8286010002360412
5162000000.0 -0.6781186238124983 -0.7944937238065358
5166000000.0 -0.6704325917327271 -0.7834519854228106
5169000000.0 -0.7281759657328468 -0.7771809902549803
5172000000.0 -0.6865477836711675 -0.7649813863250986
5175000000.0 -0.7271608571627782 -0.7916711751416086
5178000000.0 -0.7154632510694487 -0.7736835471114082
5181000000.0 -0.7138597319602633 -0.8109117854238239
5184000000.0 -0.6912271119563741 -0.7548163799353259
5188000000.0 -0.7125066703291497 -0.7528541052973639
