! Created with skrf 1.8.0 (http://scikit-rf.org).
# Hz S RI R 50.0 
!freq ReS11 ImS11
4000000000.0 0.795191905765136 0.7139912451226378
4003000000.0 0.8246157184525149 0.7458732821543999
4006000000.0 0.8268724112823221 0.6085461969571063
4009000000.0 0.8367063546539834 0.6779720438756994
4012000000.0 0.8421448047992831 0.722799303909684
4016000000.0 0.854292096058362 0.6406328758179012
4019000000.0 0.8299693673448751 0.56682707545161
4022000000.0 0.7740019454786263 0.6654786024402262
4025000000.0 0.8927927025235737 0.6005463763677481
4028000000.0 0.8653623757441951 0.5739348920367211
4031000000.0 0.8013105436535957 0.5980179594215622
4034000000.0 0.8492450712214995 0.5824491695525735
4038000000.0 0.8483962183396881 0.54881881378873
4041000000.0 0.8311247050369847 0.5724549792930418
4044000000.0 0.8869147286394669 0.5910174481002559
4047000000.0 0.9219546649708676 0.5803161795475622
4050000000.0 0.8735051803672051 0.5295245536774873
4053000000.0 0.8662418217037946 0.4966751064078307
4056000000.0 0.8670552967034622 0.5839378755987571
4059000000.0 0.8613461958333878 0.5117316711385049
4062000000.0 0.9054410002244035 0.5231581631719147
4066000000.0 0.8368637444519187 0.46923592945096215
4069000000.0 0.9286962149159089 0.5174423179667856
4072000000.0 0.9061574256353883 0.5010564644022599
4075000000.0 0.9317544118552304 0.5235944054078254
4078000000.0 0.9412230268475372 0.4368998975853332
4081000000.0 0.9097042364814008 0.5149126629012521
4084000000.0 0.9420084758148849 0.4383990515059622
4088000000.0 0.8953739437979182 0.46559874657671796
4091000000.0 0.9552850570826051 0.4218069849162405
4094000000.0 0.9219155950505453 0.42167969324084775
4097000000.0 0.9513014641319658 0.4283652858997746
4100000000.0 0.9311235097576419 0.38631975716839045
4103000000.0 0.9625023912420014 0.42330595296464707
4106000000.0 0.9506270938364627 0.39107337174915413
4109000000.0 0.9990521634125031 0.3891027025671782
4112000000.0 0.9385445414310907 0.3680839667171622
4116000000.0 0.9305530243123897 0.36667465009943423
4119000000.0 0.9590021481947133 0.36995715093886383
4122000000.0 0.9880269995651646 0.31777800102536047
4125000000.0 0.9935954961293199 0.3152524685919152
4128000000.0 0.9237123699683675 0.34093490442792773
4131000000.0 0.9519096939971399 0.3111153661927225
4134000000.0 0.980913414391131 0.3174245430506615
4138000000.0 0.9686883698036717 0.2718932846983257
4141000000.0 0.9697292619748926 0.2993752657793336
4144000000.0 1.0055457418080391 0.2990582142839681
4147000000.0 0.9784802558774448 0.25569500500487835
4150000000.0 1.0111350413823508 0.27862289079619157
4153000000.0 0.963759701529007 0.2675685911922103
4156000000.0 1.0162067302808706 0.2795677741138244
4159000000.0 0.9956950631993207 0.2786292288395548
4162000000.0 0.9883057045089685 0.22327403387587008
4166000000.0 1.008560699436089 0.2254548378599407
4169000000.0 0.9926015638991574 0.18611184727020003
4172000000.0 0.9814354743630249 0.21607911160843357
4175000000.0 1.0192930704524221 0.21633675369419308
4178000000.0 1.0112122791799054 0.21121197085820576
4181000000.0 1.0074918542071691 0.17348579006675685
4184000000.0 0.9817648980932089 0.18329378311177502
4188000000.0 0.9946690232022732 0.15864907659987892
4191000000.0 1.0007516470893347 0.17686488150275514
4194000000.0 1.0003214995218115 0.13324005322407256
4197000000.0 1.0201761378227892 0.14181324627518638
4200000000.0 1.0183833813098195 0.13981530151644161
4203000000.0 1.022632691110629 0.13009122802139506
4206000000.0 1.0306108844777164 0.12119131751291579
4209000000.0 1.0157719416295345 0.09569424821393474
4212000000.0 1.0132285508019419 0.06325226088917552
4216000000.0 1.0470336480166802 0.11061788363680125
4219000000.0 1.0393703783189778 0.0684531477076438
4222000000.0 1.0148439909684783 0.06751389515483741
4225000000.0 1.008142717911187 0.05562153904520409
4228000000.0 1.031671347003404 0.03679460008246091
4231000000.0 1.0172447182705109 0.02620657766107734
4234000000.0 1.0098585119167565 0.0075548181713962215
4238000000.0 1.016193634640469 0.011316849852267552
4241000000.0 1.0053921124919336 -0.02791295488337725
4244000000.0 0.992999271365701 0.0002736739444529346
4247000000.0 1.0086888747052964 -0.001210738089274771
4250000000.0 0.9906737368677707 -0.03535660324729514
4253000000.0 0.9912174885710416 -0.050099221010563494
4256000000.0 1.050209218929244 -0.056763342218556834
4259000000.0 0.9741415535464772 -0.0714191696718175
4262000000.0 0.9920936982857103 -0.07689204970469232
4266000000.0 1.0043612472838308 -0.11182319096789443
4269000000.0 1.011442634555655 -0.08717830125790846
4272000000.0 0.9988539452321674 -0.1040670131522329
4275000000.0 1.0252532853749905 -0.11534875571023132
4278000000.0 1.0341401070561012 -0.13486987518043994
4281000000.0 1.0091258055274248 -0.11913543469473348
4284000000.0 0.9913091427155094 -0.19137794195156344
4288000000.0 1.0140784841678057 -0.10500644201237551
4291000000.0 0.9784996456566216 -0.14438265838451608
4294000000.0 1.0017396204939606 -0.16919014354823217
4297000000.0 0.9849148394226248 -0.14743871333965297
4300000000.0 0.9811367131102318 -0.1652256970026139
4303000000.0 0.9696752865692234 -0.1934510290835239
4306000000.0 0.9893447528071131 -0.19174077654332944
4309000000.0 0.9860769724655485 -0.19460200198461908
4312000000.0 1.0009989656226015 -0.1776369280107451
4316000000.0 1.0070622340337345 -0.19963323836524774
4319000000.0 0.9510110626082694 -0.23424409064426216
4322000000.0 0.9563040370791869 -0.2575701354482333
4325000000.0 0.9824111593875475 -0.26276890322062696
4328000000.0 0.9641853141863025 -0.2761705607760793
4331000000.0 0.9579141355143895 -0.32757382035662186
4334000000.0 0.9733167409114577 -0.3002873998370949
4338000000.0 0.964343530598859 -0.2702613955311342
4341000000.0 1.0056728872337657 -0.2812780329704325
4344000000.0 0.9910199222363288 -0.2966427618867539
4347000000.0 0.9560422531304238 -0.354364473777091
4350000000.0 0.9206708868636664 -0.3222948997942723
4353000000.0 0.9362744456479848 -0.3083733831314015
4356000000.0 0.9268536744556013 -0.3781594818245248
4359000000.0 0.893320929149015 -0.3691111046440898
4362000000.0 0.9304261560448748 -0.416798368142988
4366000000.0 0.9563530963380102 -0.39425916558025453
4369000000.0 0.8980410929629374 -0.39926391538629236
4372000000.0 0.8977080939981634 -0.4111294656288759
4375000000.0 0.9227992441708017 -0.39637916242833626
4378000000.0 0.8725505858707047 -0.41666613535963126
4381000000.0 0.8842467407643171 -0.41748723037453267
4384000000.0 0.954072135264935 -0.4742589054424027
4388000000.0 0.8923724370417345 -0.4267846247366299
4391000000.0 0.9126992583143108 -0.466895847043006
4394000000.0 0.875762703564981 -0.4867339311192629
4397000000.0 0.8711840442482703 -0.49056695271522494
4400000000.0 0.8894974959125397 -0.5114410739408618
4403000000.0 0.8922363557933531 -0.5047206147204109
4406000000.0 0.8662645768110394 -0.5347787731018044
4409000000.0 0.889944275827925 -0.5334505133720335
4412000000.0 0.8310501452713591 -0.5732966342469831
4416000000.0 0.8492020745607645 -0.5476281471481711
4419000000.0 0.8366941041050368 -0.5640254993193062
4422000000.0 0.8488253317629106 -0.5289069834458281
4425000000.0 0.8478599658462987 -0.5511147364751235
4428000000.0 0.8361115396227528 -0.5761633437280941
4431000000.0 0.8502505271923384 -0.5719270554060137
4434000000.0 0.8046527899871903 -0.5727087536616082
4438000000.0 0.830115080385621 -0.6149527306768352
4441000000.0 0.801149756047286 -0.6191591778371788
4444000000.0 0.781332150594171 -0.5890012807598964
4447000000.0 0.7842428374529764 -0.6265303242389328
4450000000.0 0.7904259437738619 -0.61673883661243
4453000000.0 0.805065431997369 -0.6470057166222585
4456000000.0 0.7539148691273294 -0.6523352952090867
4459000000.0 0.7299089006359744 -0.6295898846831152
4462000000.0 0.778310479725142 -0.6846686030687843
4466000000.0 0.796765094335731 -0.7125905998152323
4469000000.0 0.7683531836490005 -0.6745381298094282
4472000000.0 0.7339834904616918 -0.7138848712522867
4475000000.0 0.7222682898808638 -0.7015765872795968
4478000000.0 0.7108351778653257 -0.7200028919455893
4481000000.0 0.7018888676037095 -0.6914639267137919
4484000000.0 0.6926085083028718 -0.7512231275925636
4488000000.0 0.6885118081245598 -0.7488972584873678
4491000000.0 0.6915597912996803 -0.7383149042149845
4494000000.0 0.6935256903209495 -0.7245650744310375
4497000000.0 0.6547880169456978 -0.7269747796261546
4500000000.0 0.6691159455831348 -0.7617621223162565
4503000000.0 0.6735640731267991 -0.7942858570391889
4506000000.0 0.6366359939916599 -0.7490922855485322
4509000000.0 0.6244265300186875 -0.7770749592202583
4512000000.0 0.6279673567257562 -0.7675119838914447
4516000000.0 0.6354545941755163 -0.8360596931428248
4519000000.0 0.6164316777476613 -0.7814825923583756
4522000000.0 0.6121283247982677 -0.8107643050036855
4525000000.0 0.6368831837735995 -0.8097483989478858
4528000000.0 0.6109252016142213 -0.84309781522099
4531000000.0 0.578817149855221 -0.8266187016038997
4534000000.0 0.5690841992646066 -0.8518326889799297
4538000000.0 0.5570575553365563 -0.8292082516191662
4541000000.0 0.5327662525274666 -0.8503941876983627
4544000000.0 0.5448480012938528 -0.8642600982853423
4547000000.0 0.5394510631122014 -0.842678483169077
4550000000.0 0.536793536037772 -0.8770929207441213
4553000000.0 0.5114899468507049 -0.873747168503426
4556000000.0 0.5138425408799765 -0.8750338227761484
4559000000.0 0.4919288352322255 -0.887658240134823
4562000000.0 0.5129805411746476 -0.9054682782596344
4566000000.0 0.4750075217648666 -0.8985347883457782
4569000000.0 0.4733329619021508 -0.9052448806678368
4572000000.0 0.46080220417692164 -0.9152898816558054
4575000000.0 0.43979308974009934 -0.908230894829864
4578000000.0 0.4529794515351087 -0.9093252991604278
4581000000.0 0.4128977431133606 -0.913517953399367
4584000000.0 0.42549572644045436 -0.9359845343607792
4588000000.0 0.41584427455219686 -0.9113817162125534
4591000000.0 0.3954147314048981 -0.9401269753849842
4594000000.0 0.38943692088399207 -0.934056140884271
4597000000.0 0.3927098559365978 -0.9451057387921782
4600000000.0 0.35258997576596995 -0.9604011535269648
4603000000.0 0.34496891398691726 -0.9574661235928279
4606000000.0 0.3663398759552216 -0.965225210240542
4609000000.0 0.3236448160743234 -0.9589184734610505
4612000000.0 0.3288431515543291 -0.9571519808835319
4616000000.0 0.30644610226354096 -0.9522090162636945
4619000000.0 0.27948688981341296 -0.9655329985592557
4622000000.0 0.26471632076126983 -0.984258943373487
4625000000.0 0.26229200991545587 -0.9668274311616043
4628000000.0 0.2748358726874922 -1.0132469219563116
4631000000.0 0.2732448771679705 -0.9868898533812883
4634000000.0 0.21437736283141232 -0.9961429626701339
4638000000.0 0.25986205808844043 -0.9949047562733034
4641000000.0 0.2057483899689938 -0.983234843514654
4644000000.0 0.21831809564944232 -0.9853926710201967
4647000000.0 0.19362634751558427 -0.9768251274067874
4650000000.0 0.17830960173078714 -0.9685361572009846
4653000000.0 0.17984882137272695 -0.9927841686010705
4656000000.0 0.18189642792507824 -0.9989293631738334
4659000000.0 0.16161655391722388 -1.0299413540455067
4662000000.0 0.13295755994693664 -1.0208125948408115
4666000000.0 0.1186609595304781 -0.9982701966671778
4669000000.0 0.11534042674767164 -1.0221353296575852
4672000000.0 0.1023392977297649 -1.049282384022206
4675000000.0 0.07645300991212595 -1.036783010492777
4678000000.0 0.09254417185155228 -0.9915672634022569
4681000000.0 0.049825301526421936 -1.0216847058206935
4684000000.0 0.026070943750086506 -1.0114715171629856
4688000000.0 0.031993174349468106 -1.0100377911199527
4691000000.0 0.07644430315996752 -1.071100876499125
4694000000.0 0.07151640919273283 -0.9843811744800943
4697000000.0 -0.018402562366773623 -0.9652924482271912
4700000000.0 0.0025576733997154377 -1.0305067866312663
4703000000.0 0.051097292005397615 -0.9661476362146586
4706000000.0 -0.0285556702587563 -1.02971913345309
4709000000.0 0.000897724106323966 -1.0202034747360451
4712000000.0 -0.03940401625293061 -1.0132536386670061
4716000000.0 -0.06905834506818906 -1.0675128553395454
4719000000.0 -0.0032289806119336073 -1.0165227466125617
4722000000.0 -0.03666736115893915 -1.002520681558693
4725000000.0 -0.0523920302989368 -1.0334413303727785
4728000000.0 -0.09951334991016147 -1.0042616951692
4731000000.0 -0.09176624648948833 -1.0955150666809463
4734000000.0 -0.1069077031804177 -1.0126803995242233
4738000000.0 -0.1406623243036862 -1.1040859634651718
4741000000.0 -0.19472604754850847 -1.0589996537088
4744000000.0 -0.16081158857691463 -1.0207604190406592
4747000000.0 -0.12628967317539896 -0.9800486042457817
4750000000.0 -0.16423470755541703 -1.0608319987083186
4753000000.0 -0.12541092424249578 -1.0281318291276262
4756000000.0 -0.15880629368490212 -1.0084905669740782
4759000000.0 -0.19641239972981556 -1.0110032476353552
4762000000.0 -0.2633915948000858 -1.034935667148106
4766000000.0 -0.2510415696276929 -1.0396818347445211
4769000000.0 -0.2574729463435097 -0.974110824419684
4772000000.0 -0.24291556050864038 -1.0019346237607965
4775000000.0 -0.29278441810087175 -1.0230119747579827
4778000000.0 -0.33289434662870404 -0.948055096798276
4781000000.0 -0.2867244799722678 -0.9501150190386258
4784000000.0 -0.2822552450308131 -0.9679569180628403
4788000000.0 -0.3548142032078554 -0.9516417974805647
4791000000.0 -0.3459044275745017 -0.9404231683105954
4794000000.0 -0.3008875165893948 -1.035429565327266
4797000000.0 -0.34277371406140816 -0.9287357369660781
4800000000.0 -0.37085612002862045 -0.9544548659954561
4803000000.0 -0.4254113771302249 -0.9399610781736676
4806000000.0 -0.40462150266538754 -0.96361771145415
4809000000.0 -0.45141888852887924 -0.9188036727258989
4812000000.0 -0.4242069449745813 -0.9238273605286549
4816000000.0 -0.3656261230412913 -0.9216483900766121
4819000000.0 -0.44415023785219193 -0.9564069671327713
4822000000.0 -0.4434368705615862 -0.9627558050248893
4825000000.0 -0.4407951669629176 -0.9666533806038784
4828000000.0 -0.4666218543902111 -0.9168952523769655
4831000000.0 -0.5149978208880303 -0.9143430642795973
4834000000.0 -0.4726832956484953 -0.935513922340941
4838000000.0 -0.5279711884202862 -0.899891259018022
4841000000.0 -0.5360277754352963 -0.8878377590665428
4844000000.0 -0.4928089195701005 -0.9092735536450883
4847000000.0 -0.5066185130174683 -0.8720363159800757
4850000000.0 -0.5755543249897561 -0.8826721011391587
4853000000.0 -0.5699527260402186 -0.829910914283911
4856000000.0 -0.5720224401750229 -0.8307097337907065
4859000000.0 -0.6259803891927141 -0.8976189354287367
4862000000.0 -0.5621620939073595 -0.8779878887055865
4866000000.0 -0.6406033831133723 -0.8534257754941742
4869000000.0 -0.6138669160374908 -0.8237626452632227
4872000000.0 -0.6821313753110004 -0.8690597566486925
4875000000.0 -0.6337825892148083 -0.8740478590898952
4878000000.0 -0.6383457035134213 -0.7977875939920201
4881000000.0 -0.6987150773447816 -0.8083146180933052
4884000000.0 -0.6594326480403657 -0.8063008176280001
4888000000.0 -0.6403025463837051 -0.8094254054672564
4891000000.0 -0.668348661213425 -0.766853196577755
4894000000.0 -0.6987078354774295 -0.7640156105190475
4897000000.0 -0.6765141234858719 -0.7638998823075206
4900000000.0 -0.7205947297871271 -0.7873577551764797
4903000000.0 -0.7212521910740535 -0.7878922975547721
4906000000.0 -0.795350386055276 -0.7657466861183603
4909000000.0 -0.7715986570973078 -0.7195819383470434
4912000000.0 -0.833178454578213 -0.6939548089103724
4916000000.0 -0.7797208222126241 -0.7334519744272341
4919000000.0 -0.7715325693025954 -0.7065723933615081
4922000000.0 -0.7914513510365263 -0.7071953273318785
4925000000.0 -0.830617976474633 -0.6603785300757921
4928000000.0 -0.7560478598758503 -0.7116980673900352
4931000000.0 -0.8619752125946986 -0.6861201134143573
4934000000.0 -0.7978827076411777 -0.5942890171951866
4938000000.0 -0.8428858914651486 -0.5751438560533636
4941000000.0 -0.8288851901279956 -0.5988438052491561
4944000000.0 -0.8387901430671688 -0.5863851582593922
4947000000.0 -0.856956427956095 -0.5678632766885893
4950000000.0 -0.833283310921271 -0.5569712375921387
4953000000.0 -0.8907479108084815 -0.5825241468418092
4956000000.0 -0.9249337881942625 -0.5781193482848764
4959000000.0 -0.9109791667205887 -0.5035211516969724
4962000000.0 -0.8986824576464579 -0.5607112706163718
4966000000.0 -0.8969147776724402 -0.5586870836215254
4969000000.0 -0.9017271638129153 -0.5250444357863152
4972000000.0 -0.9223286877370903 -0.4859948230440395
4975000000.0 -0.9403290890003251 -0.46144654014138603
4978000000.0 -0.9726365820960012 -0.4384875745378548
4981000000.0 -0.9369997472717747 -0.46361411520873674
4984000000.0 -0.9340393643187812 -0.41721086539428776
4988000000.0 -0.9570206261707797 -0.425573348321896
4991000000.0 -0.9735735042122502 -0.43934998072295495
4994000000.0 -0.9247954637409057 -0.3797848529553376
4997000000.0 -0.9419624946576768 -0.342223272076908
5000000000.0 -0.978297316657137 -0.37155414815533133
5003000000.0 -0.97025294557104 -0.3344221359658395
5006000000.0 -0.9980115699727271 -0.33206289540621203
5009000000.0 -0.9845223981705127 -0.30665129212385867
5012000000.0 -1.0086622529713956 -0.2791072939086639
5016000000.0 -1.0214372709109192 -0.33378873633973516
5019000000.0 -1.0119693644941852 -0.26013660696363694
5022000000.0 -0.9996679920345332 -0.24802326799152014
5025000000.0 -1.0408793243453953 -0.21319478663994681
5028000000.0 -1.0418387871190005 -0.2400411609504442
5031000000.0 -1.0385470243327601 -0.17418305158028577
5034000000.0 -1.057914028259717 -0.20470531630306432
5038000000.0 -0.9920261245934823 -0.16577882156945972
5041000000.0 -1.0091789694669249 -0.19787669450788836
5044000000.0 -1.0240339180089277 -0.14487573447738739
5047000000.0 -1.0413757376462474 -0.09463115688643897
5050000000.0 -1.0072116705007432 -0.10600034840062572
5053000000.0 -1.0466904726502564 -0.03618548329708274
5056000000.0 -1.003948719290719 -0.03975982681993545
5059000000.0 -1.0283911349931971 0.04965410408323878
5062000000.0 -1.0039145763982764 -0.008530413050639424
5066000000.0 -1.102692910671678 0.034673346374517244
5069000000.0 -1.033608063785438 0.005247054360125597
5072000000.0 -1.0673386646559455 -0.01903637877981154
5075000000.0 -0.961091418489443 0.0194876921795982
5078000000.0 -1.0288935426206887 0.02082818978244408
5081000000.0 -1.034746108974589 0.16219028250913073
5084000000.0 -0.9895591094636049 0.14672781878350238
5088000000.0 -0.9938855181779348 0.10905031091137363
5091000000.0 -0.9673852489542296 0.14712604764145645
5094000000.0 -0.9442510048441284 0.20412340586869304
5097000000.0 -0.9530992569772309 0.16614492992820634
5100000000.0 -0.9876741576471608 0.25348785026749454
5103000000.0 -0.9888624366764026 0.2646527683271041
5106000000.0 -0.9093311754551683 0.2748509749860602
5109000000.0 -1.0127470468249469 0.30762143587236757
5112000000.0 -1.0012053517900932 0.35245522386627554
5116000000.0 -1.008692259327407 0.317280393566046
5119000000.0 -0.9596161799783343 0.40946110475871994
5122000000.0 -0.9170791800877331 0.39687134699635523
5125000000.0 -0.9519067434637185 0.3088783084938127
5128000000.0 -0.9328440764614037 0.421918261335396
5131000000.0 -0.9608708579909979 0.4805864581140643
5134000000.0 -0.8877370083287595 0.4817711190758584
5138000000.0 -0.9364139311878372 0.4424461600773363
5141000000.0 -0.9343863360830207 0.5224727891279763
5144000000.0 -0.7897817794872323 0.532366804737266
5147000000.0 -0.8590853115855691 0.542100681902688
5150000000.0 -0.8926005970625321 0.5906580725547895
5153000000.0 -0.9288137625906965 0.6139218081683678
5156000000.0 -0.812161192728354 0.562169658359167
5159000000.0 -0.8295541302131676 0.6520117570693637
5162000000.0 -0.7795691246060507 0.7133332334191006
5166000000.0 -0.7956895430269719 0.5836190816611599
5169000000.0 -0.7393762297965552 0.7050022865138666
5172000000.0 -0.8013048790876772 0.6892836171162426
5175000000.0 -0.7245190936743628 0.7297764836623621
5178000000.0 -0.7345588853736444 0.749284895597641
5181000000.0 -0.6427754426384045 0.7982142188242494
5184000000.0 -0.669161175538463 0.7186066105173357
