! Created with skrf 1.8.0 (http://scikit-rf.org).
# Hz S RI R 50.0 
!freq ReS11 ImS11
4000000000.0 0.6293604825712162 0.776331604796612
4003000000.0 0.659128613318657 0.7857582330959596
4006000000.0 0.7346095369988921 0.7614912619790275
4009000000.0 0.6391614194373925 0.8062020904256012
4012000000.0 0.614255796553702 0.8541104037564478
4016000000.0 0.7230525758035046 0.7849369956082086
4019000000.0 0.6825196834263065 0.730358763999913
4022000000.0 0.6412152165441182 0.8156419469206337
4025000000.0 0.7794413757124585 0.6566075549270932
4028000000.0 0.7286526499767716 0.7605049711836458
4031000000.0 0.6809299604926807 0.6939024304030738
4034000000.0 0.7152779232424744 0.6885485367419588
4038000000.0 0.7267712018861435 0.7660849318241247
4041000000.0 0.779619136800911 0.6978533952387974
4044000000.0 0.7425353348942589 0.7498186902376023
4047000000.0 0.7352171249078892 0.7609492864447951
4050000000.0 0.7680891650838234 0.6745573164150505
4053000000.0 0.7532077308331951 0.6750401791302754
4056000000.0 0.7463244978793949 0.6551167194865702
4059000000.0 0.7166544472546484 0.6841541497584895
4062000000.0 0.7831707229416752 0.6458893022420209
4066000000.0 0.7320034690410377 0.6042884579941278
4069000000.0 0.8309253265214037 0.6489451536962799
4072000000.0 0.7674404790727986 0.6972705772460972
4075000000.0 0.7960462519455233 0.6703782849272377
4078000000.0 0.8199475779246418 0.6490797922255681
4081000000.0 0.8077588024570314 0.6747117149724243
4084000000.0 0.8347229420658941 0.6121488565616133
4088000000.0 0.7953717003096965 0.6560655470414694
4091000000.0 0.8707913448553547 0.6751501426465327
4094000000.0 0.7852391354489511 0.5969633213874888
4097000000.0 0.8063752114948453 0.56043570865497
4100000000.0 0.8402767232367485 0.5841919279542425
4103000000.0 0.8608432389520408 0.5978542461842646
4106000000.0 0.8853175045831905 0.6265757168292444
4109000000.0 0.8862015617942816 0.54804381790865
4112000000.0 0.852972691414313 0.5548761162602158
4116000000.0 0.8599037216445907 0.5769716773790868
4119000000.0 0.8644975823527321 0.5621990133555046
4122000000.0 0.8991596359905013 0.5369158776944568
4125000000.0 0.9011758138158135 0.4945085342744699
4128000000.0 0.8171780558647795 0.520785692357148
4131000000.0 0.8682321201348674 0.47444105205750686
4134000000.0 0.8740239645973081 0.5148921964956916
4138000000.0 0.8807049744483062 0.46688755806054444
4141000000.0 0.8901918062215991 0.4880001756614232
4144000000.0 0.9175904868290345 0.5019082199071443
4147000000.0 0.9215726323306315 0.45906370336283725
4150000000.0 0.9250622556162531 0.48759408296518797
4153000000.0 0.955872952466822 0.4835484277675328
4156000000.0 0.9240818836700881 0.46795401366972356
4159000000.0 0.9104402100722109 0.44118926733506053
4162000000.0 0.9096233412745725 0.46719672479228125
4166000000.0 0.9633457357953765 0.4311453836325615
4169000000.0 0.9295519608294829 0.37425394035071635
4172000000.0 0.9309582348070924 0.4260804043282343
4175000000.0 0.9457506337494047 0.4288015801619353
4178000000.0 0.9367144812678505 0.4002774228925269
4181000000.0 0.945137532833144 0.3938356289982099
4184000000.0 0.9520319801625755 0.4058766173883614
4188000000.0 0.9265114456179329 0.3927792600195925
4191000000.0 0.9294273747458399 0.41321577343862964
4194000000.0 0.9324857608771346 0.36249526638689944
4197000000.0 0.9759205695047494 0.39882155792362156
4200000000.0 0.9694647446950748 0.3667870407203214
4203000000.0 0.9471279932495521 0.3489234740819843
4206000000.0 0.9691955926974147 0.34443449486044636
4209000000.0 0.9351326234477961 0.33669989286511876
4212000000.0 0.9714270451548433 0.2752556308359091
4216000000.0 0.9681102385853683 0.32055935725824586
4219000000.0 0.9920084044799757 0.33023983506400334
4222000000.0 0.9746303260011626 0.2910600226859451
4225000000.0 0.9713593643887655 0.2875043657301144
4228000000.0 0.991360959160233 0.28624156290650826
4231000000.0 0.9717481575846639 0.2504015389798482
4234000000.0 0.997302844598433 0.26059880248974443
4238000000.0 0.9892913762927003 0.24479471658087212
4241000000.0 0.9797006197255382 0.23023582848650037
4244000000.0 0.98225812025116 0.23969315826229076
4247000000.0 0.9797216010822418 0.2499543333549213
4250000000.0 0.9659601047726418 0.1967028109247932
4253000000.0 0.9862435521655097 0.20936195470051994
4256000000.0 1.0102328732584422 0.2047115552282523
4259000000.0 0.9644011655049597 0.17514638520085732
4262000000.0 1.0005897659543206 0.1641258196015495
4266000000.0 1.017426284067198 0.146744043427269
4269000000.0 0.9814879143391397 0.1948018565034513
4272000000.0 0.9934838017065314 0.1571683775860951
4275000000.0 1.015467545870814 0.17103289854058784
4278000000.0 1.0413406848697675 0.14805672443825693
4281000000.0 1.0163716936385492 0.172072003391947
4284000000.0 1.017310809544925 0.10122899794787388
4288000000.0 0.9899398888788731 0.1428567686586469
4291000000.0 0.9729525604007158 0.09208677725005114
4294000000.0 0.9854120957102547 0.08934436838420069
4297000000.0 0.978848134461606 0.1169427881257283
4300000000.0 0.9814049755383603 0.11700880666655053
4303000000.0 0.9943185684116526 0.08089902181555496
4306000000.0 1.0339342996066514 0.09282190713141203
4309000000.0 1.0112040903363377 0.04931827697216469
4312000000.0 1.0415347254335787 0.1015604213506773
4316000000.0 1.0350662069583612 0.07768638358122558
4319000000.0 0.989152375118252 0.04893838735503024
4322000000.0 0.9738663066720096 0.006126259637088197
4325000000.0 0.997575957167546 0.01670525525535009
4328000000.0 1.0105997309568646 0.018777916993746174
4331000000.0 0.9935060531790441 -0.03225082254291908
4334000000.0 1.0000967945587411 -0.01646719729064329
4338000000.0 1.0105363155437508 0.013077251893445843
4341000000.0 1.0105040155307345 -0.0013134347632037524
4344000000.0 1.015292579822519 -0.02053805538099633
4347000000.0 1.0125253564688748 -0.07200140181540096
4350000000.0 0.9831165452571009 -0.041866634373377204
4353000000.0 0.9895462736075475 -0.04040929243350917
4356000000.0 1.0112694685664612 -0.09093196240465706
4359000000.0 0.9733946614330133 -0.07393767304225608
4362000000.0 1.0111788474786039 -0.12923138933430256
4366000000.0 1.0174992219754473 -0.11613424077931012
4369000000.0 0.9575934944112086 -0.1151850676633728
4372000000.0 0.9954671188276931 -0.13281797709042412
4375000000.0 0.9700821508388158 -0.1011725919906181
4378000000.0 0.9783386053623075 -0.12926174563056414
4381000000.0 0.9791394292344564 -0.13121966949234834
4384000000.0 1.0494283714988142 -0.16908096526876265
4388000000.0 0.9820826165751931 -0.14090342412616924
4391000000.0 1.0085279157823601 -0.15403807595472147
4394000000.0 0.9677345985411232 -0.16692729395311431
4397000000.0 0.9770875217188528 -0.1935084556088829
4400000000.0 1.002294056353984 -0.19245836319021653
4403000000.0 0.999158681761344 -0.19416173657812014
4406000000.0 0.9861147456094655 -0.21420441665431195
4409000000.0 1.0174202059211876 -0.2178922117136837
4412000000.0 0.9586053848372035 -0.279011165541821
4416000000.0 0.9554830372575374 -0.2548640909127611
4419000000.0 0.9690762414461254 -0.2597774190174883
4422000000.0 0.9692614091120533 -0.23593595169136347
4425000000.0 0.9932239746610059 -0.25104930752816706
4428000000.0 0.9764497872411729 -0.27519861716621713
4431000000.0 0.9883512054970036 -0.27672400471269604
4434000000.0 0.952889356128792 -0.3011126580287046
4438000000.0 0.9830211718229 -0.29376296372458205
4441000000.0 0.9768054997671889 -0.3065481805892907
4444000000.0 0.9406474673133802 -0.29862875396948585
4447000000.0 0.9367702532005084 -0.3380374398467561
4450000000.0 0.9445193001725909 -0.31130755903381124
4453000000.0 0.9768387749315857 -0.34054600040598304
4456000000.0 0.9105783389124825 -0.3478779117700397
4459000000.0 0.9000251796102565 -0.3608890906864793
4462000000.0 0.9880915632268328 -0.37851865549314845
4466000000.0 0.96048182526202 -0.38328455746957435
4469000000.0 0.9516704332860813 -0.38611313085333504
4472000000.0 0.9279376200669561 -0.41208379310117105
4475000000.0 0.911965445470472 -0.37939521918387054
4478000000.0 0.9577895131239171 -0.4394401796577405
4481000000.0 0.8922224673144853 -0.408608505524549
4484000000.0 0.9032114317006745 -0.469487773707417
4488000000.0 0.9018911974440298 -0.433631474237748
4491000000.0 0.9206399172496949 -0.43911860679159054
4494000000.0 0.9033310045970758 -0.43587105131676107
4497000000.0 0.8987244221754078 -0.4439607600851556
4500000000.0 0.9041804237976456 -0.46091639532196627
4503000000.0 0.9233806102069055 -0.4826657564637799
4506000000.0 0.8893555388012842 -0.45247145244237874
4509000000.0 0.8742858803454638 -0.48185272825687064
4512000000.0 0.8518089177056226 -0.5065000409574942
4516000000.0 0.894830673368228 -0.501331037678375
4519000000.0 0.8569904315199779 -0.48353630230825856
4522000000.0 0.8615347942663076 -0.5417250995841176
4525000000.0 0.85546439320434 -0.4867783170987652
4528000000.0 0.8800821722909447 -0.5290193072035034
4531000000.0 0.8677700977796439 -0.5227855970508589
4534000000.0 0.8189825938573669 -0.5300945264332254
4538000000.0 0.8442618437486091 -0.5492916382720275
4541000000.0 0.7867779999154156 -0.5851061923653883
4544000000.0 0.8246842542120896 -0.5571702159901002
4547000000.0 0.8465073175110387 -0.5523100969110744
4550000000.0 0.8025986224694601 -0.6120928336206464
4553000000.0 0.7927760135646926 -0.6170286888404284
4556000000.0 0.7708959460207658 -0.5928963070480832
4559000000.0 0.7909180079316894 -0.6124839833934548
4562000000.0 0.8173585197637818 -0.6080031968044366
4566000000.0 0.8081471342246569 -0.6039385664131061
4569000000.0 0.7629248882972783 -0.6130909785315495
4572000000.0 0.7691416014884949 -0.6299786096320704
4575000000.0 0.775823655205411 -0.6437395890057042
4578000000.0 0.7967686206268088 -0.64390139155821
4581000000.0 0.7519971170907787 -0.661448644004959
4584000000.0 0.7409007330170612 -0.6535502327512285
4588000000.0 0.756636579179435 -0.6702269379857659
4591000000.0 0.7732405010777101 -0.6710787846405842
4594000000.0 0.7262813661354404 -0.6793989060545677
4597000000.0 0.7335206022503271 -0.717235714784916
4600000000.0 0.6986030296802147 -0.6848592581133737
4603000000.0 0.729038318181249 -0.7069616051514093
4606000000.0 0.7328503143166775 -0.700250397122305
4609000000.0 0.7299691452980457 -0.7054782976905734
4612000000.0 0.6966903715114002 -0.7293626042490231
4616000000.0 0.6701369560324306 -0.7134097196585609
4619000000.0 0.6986546010073594 -0.7328099981061696
4622000000.0 0.6799737571696379 -0.740517132163091
4625000000.0 0.6543370293274166 -0.7370988303934686
4628000000.0 0.6900680474137942 -0.7329413601429755
4631000000.0 0.6350482813740621 -0.7582346795597473
4634000000.0 0.6413051607715828 -0.7742537563343859
4638000000.0 0.6634698386490133 -0.7809436105052583
4641000000.0 0.6408728946040718 -0.7864851403228834
4644000000.0 0.6312319090066965 -0.7880056133935086
4647000000.0 0.6357799236668641 -0.7994294832065261
4650000000.0 0.6141343454449613 -0.8016854966946289
4653000000.0 0.6355285270079541 -0.8190723073131199
4656000000.0 0.5999503311312018 -0.812004667826975
4659000000.0 0.5995375476306043 -0.8189041626632941
4662000000.0 0.5964898124933897 -0.8262904124217751
4666000000.0 0.5742368151956845 -0.8364482756831892
4669000000.0 0.5807695545157128 -0.8103973439398797
4672000000.0 0.5545727355956296 -0.8509315592162691
4675000000.0 0.5409160750369715 -0.8333569548523108
4678000000.0 0.5349142591642743 -0.8260446829737558
4681000000.0 0.5289470144013242 -0.8649529019073258
4684000000.0 0.5226141567725119 -0.8654293494883724
4688000000.0 0.5243792689627418 -0.8371744628238332
4691000000.0 0.5379922067611694 -0.8591547814288232
4694000000.0 0.5276474059225919 -0.8633081814964239
4697000000.0 0.50281353216852 -0.8368782239619301
4700000000.0 0.50757888699292 -0.887788115970807
4703000000.0 0.497564893541625 -0.8415326448326093
4706000000.0 0.48165505966027455 -0.8943924282533339
4709000000.0 0.4445625965931374 -0.8893327087327205
4712000000.0 0.48195492838457066 -0.8977591263785313
4716000000.0 0.43924864580558437 -0.9024858167715895
4719000000.0 0.4830613057425819 -0.8929348158840081
4722000000.0 0.47739104921112335 -0.9290629894426499
4725000000.0 0.4637219183716169 -0.8870585281701533
4728000000.0 0.426943404456017 -0.8931175351789753
4731000000.0 0.41056804904818567 -0.9203156687932457
4734000000.0 0.4514793266374458 -0.9058723036771543
4738000000.0 0.43758395444885395 -0.9495431518942303
4741000000.0 0.387353147293099 -0.9454401458312692
4744000000.0 0.37364891130373046 -0.9481888711495758
4747000000.0 0.37514361319160255 -0.9015258292593004
4750000000.0 0.38389001733255 -0.9551076512578189
4753000000.0 0.37780918925027085 -0.9589550724330503
4756000000.0 0.33510006042986107 -0.9515281530275237
4759000000.0 0.3794426044584109 -0.9625242229577549
4762000000.0 0.34493823339427643 -0.9594262531312319
4766000000.0 0.3251922928917071 -0.9443271730384197
4769000000.0 0.32974035236949256 -0.9271133315993513
4772000000.0 0.3257226207324044 -0.9655756135421488
4775000000.0 0.30967131368641954 -1.0131937284467252
4778000000.0 0.2828018239207962 -0.9684821811646916
4781000000.0 0.3420478198873347 -0.9727848451861509
4784000000.0 0.3025709646526103 -0.9581835397334965
4788000000.0 0.2634887262701424 -0.9895444415772578
4791000000.0 0.279533264043376 -0.9655526833629643
4794000000.0 0.3008664744544905 -0.9888069084000697
4797000000.0 0.23427525210324815 -0.9813126456664171
4800000000.0 0.23218583591911174 -0.9543352171616482
4803000000.0 0.21262162535698867 -0.9670812509009847
4806000000.0 0.2263382857682512 -0.9869277264519345
4809000000.0 0.17850184515270845 -1.0172975933259532
4812000000.0 0.1728681155369482 -0.9747536017360834
4816000000.0 0.22307425517155563 -0.9809662145292011
4819000000.0 0.22844827793379124 -1.0127717877330757
4822000000.0 0.222757925604364 -1.0065424414863586
4825000000.0 0.21608029911360033 -1.0265213520470826
4828000000.0 0.14734451780160532 -0.9746326954275969
4831000000.0 0.1131968329167416 -1.0335117703648926
4834000000.0 0.18550600245690105 -1.0172872411144103
4838000000.0 0.12361030428170108 -1.0177429969223908
4841000000.0 0.11931305620634562 -1.0082832320537678
4844000000.0 0.17197358918476516 -1.0112699953876345
4847000000.0 0.1448049922939314 -0.9924035395111019
4850000000.0 0.10285934723364135 -1.0387910614948102
4853000000.0 0.11462715807145286 -0.9915898823113463
4856000000.0 0.09095071503321538 -0.9957653519179074
4859000000.0 0.08600041926817956 -1.0669809884489831
4862000000.0 0.10279432793705301 -0.9997082651435555
4866000000.0 0.0599362165036265 -1.0384286079732497
4869000000.0 0.0624744688249223 -1.0106975330431647
4872000000.0 0.0234360302363283 -1.0512712890254985
4875000000.0 0.12583962210665472 -1.0587623656033762
4878000000.0 0.03377232713705776 -1.0322766869733186
4881000000.0 0.016708602875256523 -1.0845147676041678
4884000000.0 0.05495811564181903 -1.0176815226173717
4888000000.0 0.06612987744125105 -1.0361432024494035
4891000000.0 0.022395326693810877 -1.0687643043567443
4894000000.0 -0.038301501085676634 -1.0026990826224194
4897000000.0 0.005375484438393498 -0.9669355569387839
4900000000.0 -0.017699095198951513 -1.0462834953863303
4903000000.0 -0.029065339189587938 -1.0506024256728252
4906000000.0 -0.037535237828819346 -1.044246411573883
4909000000.0 -0.047462523627623036 -1.039337634981341
4912000000.0 -0.08523338361149956 -1.044853234925841
4916000000.0 -0.021726576215783257 -1.0546195518190524
4919000000.0 -0.044976812965085086 -1.0601958625105485
4922000000.0 -0.04102732931637065 -1.043566895275241
4925000000.0 -0.08163084454234926 -0.9967705523828266
4928000000.0 -0.05370841034446942 -1.0199575827668603
4931000000.0 -0.051635642525726874 -1.0369576645473104
4934000000.0 -0.12007198590052535 -0.9874868487893291
4938000000.0 -0.16259407041093865 -1.0144310300083617
4941000000.0 -0.10840812040594329 -0.9883924943034776
4944000000.0 -0.10370759015897824 -0.9994965293524147
4947000000.0 -0.15037400749794314 -0.9804243542806372
4950000000.0 -0.18011313384373084 -1.0030076429750199
4953000000.0 -0.19640640898989314 -1.0352708017466528
4956000000.0 -0.2111844737503037 -1.0330504108975602
4959000000.0 -0.23164636611776931 -0.9847053613788453
4962000000.0 -0.1623734707492093 -1.0124987658329083
4966000000.0 -0.1938313370798313 -1.0127291681162411
4969000000.0 -0.17947063938964958 -1.0364572247590067
4972000000.0 -0.22333984060464032 -1.027897189698151
4975000000.0 -0.1972794944503771 -0.988857136835786
4978000000.0 -0.24518564881004756 -1.0146489680608528
4981000000.0 -0.27324778221040025 -1.017843427027519
4984000000.0 -0.2148818923651927 -0.9838743331056695
4988000000.0 -0.21789325896895306 -0.9982379807896218
4991000000.0 -0.20728703918060515 -1.0285397166759431
4994000000.0 -0.2629931444980966 -0.9935053293298005
4997000000.0 -0.30980953518473414 -0.99834075383929
5000000000.0 -0.28993251128335584 -1.0412284600782038
5003000000.0 -0.26853602693661255 -1.024895080431654
5006000000.0 -0.29181556741571313 -1.0396479413356663
5009000000.0 -0.310569378626695 -0.9876840902036091
5012000000.0 -0.30852376156851596 -1.0113050197157278
5016000000.0 -0.27938623750047625 -1.0302906174858895
5019000000.0 -0.3378983201984692 -0.9671770924782317
5022000000.0 -0.3378689628749021 -1.007786028429613
5025000000.0 -0.380395691235991 -1.0320415776022416
5028000000.0 -0.34766233757761666 -0.9784022628803253
5031000000.0 -0.3686359945160589 -0.9498585422173541
5034000000.0 -0.41083731824209435 -0.9808986795305314
5038000000.0 -0.3871082083363946 -0.9125594315952108
5041000000.0 -0.36552175465280046 -0.9659876894885634
5044000000.0 -0.34713162450138735 -0.9326397297884431
5047000000.0 -0.3798004320494937 -0.9814853005083967
5050000000.0 -0.3323010619869269 -0.9684015541456041
5053000000.0 -0.44605986783781193 -0.9933792332375324
5056000000.0 -0.3708829028321946 -0.9749178481069858
5059000000.0 -0.34854548086583265 -0.963166206474921
5062000000.0 -0.48568253066885914 -0.9340104883519222
5066000000.0 -0.4123612814092762 -0.9583330251383111
5069000000.0 -0.4799229808120019 -0.9346220975521694
5072000000.0 -0.43062715702604093 -0.9321090254975983
5075000000.0 -0.42151580560603796 -0.8990334171983492
5078000000.0 -0.5395258995126113 -0.9150657646136657
5081000000.0 -0.4472714760013577 -0.8867031930138348
5084000000.0 -0.5038561563551968 -0.9316081236363849
5088000000.0 -0.45857755655563626 -0.9279408569848286
5091000000.0 -0.5098537925463906 -0.8917745748681041
5094000000.0 -0.5107027432693144 -0.9072971136060025
5097000000.0 -0.47537426222860046 -0.8973526502494262
5100000000.0 -0.47715512201309856 -0.8556025297277053
5103000000.0 -0.5018681351145627 -0.8787933822813917
5106000000.0 -0.5193804009177655 -0.9356515151722584
5109000000.0 -0.5124020759898823 -0.9226927716003119
5112000000.0 -0.5665542798543022 -0.8309148769484072
5116000000.0 -0.5406623908544622 -0.8169062041150351
5119000000.0 -0.6178521725466463 -0.8779296360348836
5122000000.0 -0.5490569163520284 -0.856717394500295
5125000000.0 -0.5452050731613127 -0.879496164150313
5128000000.0 -0.5509560738174161 -0.8515023988136445
5131000000.0 -0.600939179832378 -0.8218670681944338
5134000000.0 -0.5721329356911075 -0.855654668329681
5138000000.0 -0.6148127888551729 -0.8543955138674888
5141000000.0 -0.5743619705103125 -0.8680677245157702
5144000000.0 -0.6103881953754857 -0.8507409253226662
5147000000.0 -0.6562129079854142 -0.8738481809769824
5150000000.0 -0.5939776972360605 -0.8416580372786515
5153000000.0 -0.6286619570679282 -0.8206084750171916
5156000000.0 -0.6170102218520896 -0.8272187365214444
5159000000.0 -0.7093558277927283 -0.8599735151327262
5162000000.0 -0.6787425197665837 -0.7629111987815843
5166000000.0 -0.6813113901504426 -0.8267944653150048
5169000000.0 -0.6626715007098699 -0.7783602733037378
5172000000.0 -0.6826818843255488 -0.7908821616578202
5175000000.0 -0.6599199615589438 -0.8089885414061458
5178000000.0 -0.6988954880045859 -0.7659004183690757
5181000000.0 -0.6978152102987639 -0.8281392223809142
5184000000.0 -0.6773344701689333 -0.7887798019558127
5188000000.0 -0.7110243327133121 -0.7656161794391922
