! Created with skrf 1.8.0 (http://scikit-rf.org).
# Hz S RI R 50.0 
!freq ReS11 ImS11
4000000000.0 0.6616028008029723 0.7801302960158529
4003000000.0 0.7127634415785046 0.8645828967311769
4006000000.0 0.7264657158152187 0.7457589125260244
4009000000.0 0.6719531660491682 0.8475845889361044
4012000000.0 0.6307040593970153 0.8248147995146209
4016000000.0 0.689110375214031 0.7451513122641937
4019000000.0 0.6829540662864981 0.747923835040833
4022000000.0 0.6761769323710508 0.7718420269208898
4025000000.0 0.768785145270808 0.7380353921879683
4028000000.0 0.7381385656664347 0.7379000302378027
4031000000.0 0.6769906517485514 0.6995418928108267
4034000000.0 0.6799936002352612 0.7019362086661265
4038000000.0 0.7770078865660076 0.7413069008150883
4041000000.0 0.7560211130382926 0.7229949645367173
4044000000.0 0.7436040615596278 0.7732515260487004
4047000000.0 0.7561448375861364 0.7760472376464773
4050000000.0 0.7803286314602111 0.6957524610846315
4053000000.0 0.7704552402209747 0.6656163256317327
4056000000.0 0.7804684238110935 0.6838915251714279
4059000000.0 0.7220777984778988 0.6812678220698736
4062000000.0 0.7949386428956666 0.6765860783414419
4066000000.0 0.7617371797105137 0.6367809282913582
4069000000.0 0.8230484719375962 0.6415447488925389
4072000000.0 0.7672239867136835 0.6925165782835665
4075000000.0 0.7944941823512847 0.7016949574879363
4078000000.0 0.8307985765673206 0.6559667456470214
4081000000.0 0.8390085907698721 0.7074008549887494
4084000000.0 0.8585104543543196 0.6366437086060879
4088000000.0 0.7861302376307289 0.6341316955661764
4091000000.0 0.9088412945464888 0.6617529612604662
4094000000.0 0.8450504868667025 0.6326556111605219
4097000000.0 0.8451468621655259 0.5762413510942004
4100000000.0 0.8250370761324027 0.6054716968130236
4103000000.0 0.8497614479690467 0.6075016200566612
4106000000.0 0.8619824913187273 0.5984718630424695
4109000000.0 0.9055234078460797 0.5489993083800908
4112000000.0 0.8641045062577437 0.5626930876641723
4116000000.0 0.8646932138217852 0.5596952420141468
4119000000.0 0.8687620062137903 0.5349146116826526
4122000000.0 0.8697197332064407 0.5044460652237632
4125000000.0 0.908377521755208 0.5346139321704502
4128000000.0 0.8474959405448187 0.5217319089535172
4131000000.0 0.8758403005506766 0.5282090786052267
4134000000.0 0.8538975174809007 0.5427460595119541
4138000000.0 0.8788580681790856 0.48384866702661805
4141000000.0 0.8987026166413077 0.5120337931676643
4144000000.0 0.893342087044787 0.5207151698930008
4147000000.0 0.9073382757320883 0.47134180983333746
4150000000.0 0.9427156850796127 0.4914717335360094
4153000000.0 0.9364062526229042 0.47003968304583355
4156000000.0 0.9148584560284203 0.4747788883606122
4159000000.0 0.9012674440125039 0.4642386407346973
4162000000.0 0.9142591103755908 0.468914700310357
4166000000.0 0.9394838534356647 0.44797171363620836
4169000000.0 0.9380853992792766 0.4103147402112811
4172000000.0 0.9280555998753891 0.4464223649362408
4175000000.0 0.9358244401688649 0.43412862097914834
4178000000.0 0.9473700329892517 0.4094530039056813
4181000000.0 0.95341323127651 0.39007076670654517
4184000000.0 0.9587067372544144 0.386948997402289
4188000000.0 0.9377584177283225 0.3761805766999188
4191000000.0 0.920728699545207 0.38437046499540767
4194000000.0 0.9214186554170171 0.35302802870289907
4197000000.0 0.9631206564683349 0.3776118682171567
4200000000.0 0.9490991932387864 0.36142731313648124
4203000000.0 0.9773129744326959 0.37593380620891903
4206000000.0 0.9780950194073306 0.3430724875071847
4209000000.0 0.9573135076751773 0.34605727665459446
4212000000.0 0.9730451202318857 0.31770178742974653
4216000000.0 0.9466678779046408 0.3310377904168372
4219000000.0 0.9699608851851214 0.31234923830572414
4222000000.0 0.9880730243046758 0.2778191323900388
4225000000.0 0.9738634999822431 0.2981301990257541
4228000000.0 0.9881622368814449 0.3004634000933317
4231000000.0 0.9882203422075634 0.28821407227128637
4234000000.0 0.9990042764076502 0.264419590022257
4238000000.0 0.9852012745436316 0.23277911348470146
4241000000.0 0.9794728311776828 0.24418888993633214
4244000000.0 0.99357137746115 0.23836765071694888
4247000000.0 0.9891151056410422 0.2226220696426976
4250000000.0 0.9719287420749134 0.2104612339037309
4253000000.0 0.96494440041043 0.1931362112234981
4256000000.0 1.0147329510276832 0.1983774210828929
4259000000.0 0.9812363225879781 0.19259572899359664
4262000000.0 1.0077488922085442 0.16371343036121563
4266000000.0 1.0208289571196913 0.16274776121474677
4269000000.0 1.007216206565782 0.2007691999218695
4272000000.0 1.0096414696269909 0.1925452464544854
4275000000.0 1.0308680297501986 0.17434718728361337
4278000000.0 1.0317738228393465 0.1609244367537675
4281000000.0 1.024144702097368 0.1434108877524125
4284000000.0 1.0235824951873134 0.1074423181518086
4288000000.0 0.994020485987932 0.16101426246717576
4291000000.0 0.9888445334594577 0.11974265150766873
4294000000.0 0.9815722931059454 0.09235650942141664
4297000000.0 0.9987209644922911 0.11829101671046298
4300000000.0 0.9980294489381385 0.12954374999310286
4303000000.0 1.0095343977955906 0.0563468272296921
4306000000.0 0.9896333637652651 0.12362575912224433
4309000000.0 1.0112641581616089 0.07133104479712653
4312000000.0 1.0074035383851665 0.10186550951376858
4316000000.0 1.0424404947676174 0.044829776552339926
4319000000.0 1.0056509204810127 0.08041470119472581
4322000000.0 1.002663376995148 -0.0033904095821774838
4325000000.0 0.9967046928419593 0.024981391966234653
4328000000.0 1.002009956333574 0.00046738267620245744
4331000000.0 1.019064645951652 -0.01197995847125978
4334000000.0 1.024278906065468 -0.0015627988015404493
4338000000.0 1.0069580597770007 -0.020999084019306488
4341000000.0 1.0202160391132233 -0.0019307261085173
4344000000.0 1.0452680780433017 -0.007896321691380465
4347000000.0 1.0147651901758306 -0.06788581113353796
4350000000.0 0.9910309093304546 -0.05719541693109896
4353000000.0 0.9975247865493717 -0.0122755480306605
4356000000.0 1.0071143825138442 -0.10324844585493485
4359000000.0 0.9608878072558766 -0.07207864340904843
4362000000.0 1.0303770094023559 -0.1540117198073448
4366000000.0 1.0176700443101385 -0.0947659041823399
4369000000.0 0.9744104750509618 -0.1061379679633137
4372000000.0 0.989891320144948 -0.16498409754276225
4375000000.0 1.015592636271309 -0.11852767343834401
4378000000.0 0.9658197935598744 -0.10598966626712546
4381000000.0 1.0052414739372115 -0.09955507437594663
4384000000.0 1.0624004040838697 -0.16442642887633974
4388000000.0 0.9864177146532546 -0.1376553720195901
4391000000.0 1.0153818007571465 -0.15383176657447062
4394000000.0 0.9705178143229818 -0.17379585836517944
4397000000.0 0.9903572799949112 -0.18985491889790979
4400000000.0 1.0013987263011 -0.20110406827061397
4403000000.0 0.9980210969275778 -0.2017832166425103
4406000000.0 0.9850178495394574 -0.2243990122143572
4409000000.0 1.0106277709740177 -0.22861656544513792
4412000000.0 0.9712382592871938 -0.26413423077198256
4416000000.0 0.9831083803640837 -0.2366265686336233
4419000000.0 0.9630351375044889 -0.2500611102368937
4422000000.0 0.9868589656452667 -0.23332491417091974
4425000000.0 0.9978529178390395 -0.2369251203999265
4428000000.0 0.9717612523710442 -0.2705174290592546
4431000000.0 0.9990971060988743 -0.27802129658989977
4434000000.0 0.9581144584055596 -0.2886756576595768
4438000000.0 0.9809989289113175 -0.2941568690218025
4441000000.0 0.9886432827711682 -0.30164643676317027
4444000000.0 0.9345443681194325 -0.28616917716638773
4447000000.0 0.9432927907656667 -0.325902397433692
4450000000.0 0.9472744848483221 -0.30929536549814396
4453000000.0 0.9739796551102882 -0.3422954209746133
4456000000.0 0.9178717801049593 -0.3368412195870769
4459000000.0 0.9028695475172512 -0.3640250402168531
4462000000.0 1.003005347422278 -0.37004676887672283
4466000000.0 0.9818081995220768 -0.39149916034955823
4469000000.0 0.9370307559810245 -0.37239348935238836
4472000000.0 0.9417078302381188 -0.39561194393010346
4475000000.0 0.909266574046761 -0.3849716187262133
4478000000.0 0.9492926771448394 -0.4276800922674019
4481000000.0 0.898755429433622 -0.41236381065821426
4484000000.0 0.8909056489122582 -0.45743325784588795
4488000000.0 0.8957637031561048 -0.42826912677675283
4491000000.0 0.9035669113138022 -0.4488492104251815
4494000000.0 0.8900649060762019 -0.4271818887074302
4497000000.0 0.8943772267930221 -0.4491989495349586
4500000000.0 0.896647308834688 -0.4428468809199266
4503000000.0 0.9181434742104888 -0.46420788770483024
4506000000.0 0.875669229964384 -0.47637306644492355
4509000000.0 0.865319790352604 -0.461662777498662
4512000000.0 0.8479158942622562 -0.48124561993741055
4516000000.0 0.8912369251594621 -0.4861583641096267
4519000000.0 0.8528270752905298 -0.4761800113411437
4522000000.0 0.8503185099739807 -0.49875467465970047
4525000000.0 0.8686024834256358 -0.4839912583896445
4528000000.0 0.886885602524027 -0.5467369776891103
4531000000.0 0.8569111367072726 -0.5261112637715925
4534000000.0 0.8323767721806072 -0.5214312601368991
4538000000.0 0.8453929600912258 -0.5457652551481516
4541000000.0 0.8208805077300034 -0.5743412884558475
4544000000.0 0.8462449195633286 -0.5628842177933793
4547000000.0 0.8290758090411935 -0.5457857425453418
4550000000.0 0.8255253366815769 -0.5965552925105722
4553000000.0 0.8281961108506262 -0.5886750532057747
4556000000.0 0.8130788995324165 -0.5809531728632382
4559000000.0 0.8164927493976795 -0.6190551826142765
4562000000.0 0.801304512984554 -0.6146149433021026
4566000000.0 0.8096622348772067 -0.6210484337220896
4569000000.0 0.7858920163138504 -0.6155611525187639
4572000000.0 0.7831747944026364 -0.6352941322889587
4575000000.0 0.7852620482184525 -0.6448563542840973
4578000000.0 0.7990687868589423 -0.6480974229454322
4581000000.0 0.7635788412216213 -0.6709545791568012
4584000000.0 0.739521318068645 -0.6543002773536661
4588000000.0 0.7800503573378377 -0.674779010863171
4591000000.0 0.7698491936184106 -0.6460320740029456
4594000000.0 0.7362035677719273 -0.6887821729530795
4597000000.0 0.7308999997678232 -0.707370690863734
4600000000.0 0.6955138596050703 -0.6958674785981512
4603000000.0 0.7191564145239595 -0.7071774977580759
4606000000.0 0.7407231345999429 -0.70332047822358
4609000000.0 0.7361452027403391 -0.7131427855969815
4612000000.0 0.7047810988142768 -0.7044308812246569
4616000000.0 0.6900482942528186 -0.720778038036034
4619000000.0 0.6886540772913924 -0.7255989641444178
4622000000.0 0.6954225913564521 -0.7353508460510845
4625000000.0 0.6569647458932079 -0.7317869880691239
4628000000.0 0.6836835464336944 -0.711180710068962
4631000000.0 0.6400037934789342 -0.7600826490430068
4634000000.0 0.655522154154042 -0.7723066948080827
4638000000.0 0.6537777770709611 -0.7684000211918295
4641000000.0 0.658110343733311 -0.7754220476865467
4644000000.0 0.6499403204797972 -0.7794984460117015
4647000000.0 0.6621819921629675 -0.7737123751892048
4650000000.0 0.6184222908647347 -0.8070911811961091
4653000000.0 0.6286870723089528 -0.8008719242965605
4656000000.0 0.6122988568460594 -0.790425370427434
4659000000.0 0.5991407991499852 -0.8253228055874161
4662000000.0 0.6013252056444658 -0.8202124056239417
4666000000.0 0.5780426326976766 -0.8182264387386957
4669000000.0 0.5893826959432131 -0.8233844498608122
4672000000.0 0.5725915372714194 -0.8504868015605485
4675000000.0 0.5460317744680745 -0.8494972080120962
4678000000.0 0.560960566764571 -0.8120582101918943
4681000000.0 0.5472580550218554 -0.8743194200558961
4684000000.0 0.5178320210549479 -0.8669157821593344
4688000000.0 0.5271043257485051 -0.8584434358921299
4691000000.0 0.5542101470773169 -0.8517960341822641
4694000000.0 0.5362731928821655 -0.858386864719938
4697000000.0 0.49142562517389815 -0.852184114555647
4700000000.0 0.555584085823759 -0.8515000478899517
4703000000.0 0.4886847985844874 -0.8293952689350022
4706000000.0 0.4716434014909511 -0.870271616680743
4709000000.0 0.4688162758248041 -0.8640085356061835
4712000000.0 0.47456764847367505 -0.8907449294246712
4716000000.0 0.4865888602219315 -0.9178194723248452
4719000000.0 0.47449795249482074 -0.8854774275272073
4722000000.0 0.4891677912346598 -0.884986884874577
4725000000.0 0.46444780685254483 -0.9033680666743037
4728000000.0 0.4357192642983929 -0.932458829560908
4731000000.0 0.4548375632138421 -0.9059900307202144
4734000000.0 0.4362321832892682 -0.9026278817456204
4738000000.0 0.45286621599093513 -0.9554199986679401
4741000000.0 0.4234577647511661 -0.967887062169302
4744000000.0 0.38406088001792366 -0.9620529986252392
4747000000.0 0.40661379920499285 -0.929214771757282
4750000000.0 0.41268376566713566 -0.961008576951632
4753000000.0 0.4394761782513655 -0.9377449507391208
4756000000.0 0.37162639885632576 -0.9552806217760905
4759000000.0 0.3603629980376394 -0.9521946534904242
4762000000.0 0.3457527664034847 -0.9927060072149211
4766000000.0 0.32514774234405014 -0.9529842124366608
4769000000.0 0.3573448990045284 -0.9755681417878873
4772000000.0 0.32729846718276956 -0.9648225274200269
4775000000.0 0.32274258298392355 -0.9979367330912927
4778000000.0 0.3450620087607734 -0.9779848166079096
4781000000.0 0.3026523139217703 -0.970575823382833
4784000000.0 0.3151855453421151 -0.9630210021981255
4788000000.0 0.25736393122495416 -0.9608440360266934
4791000000.0 0.26912399408082965 -0.9796874491724937
4794000000.0 0.30820795213478275 -1.0265750801237812
4797000000.0 0.2727356354147173 -0.9773770926155297
4800000000.0 0.22565875145620673 -0.9715877158027466
4803000000.0 0.21227504595083577 -0.9730610566690097
4806000000.0 0.2567600353584146 -1.0060162666130958
4809000000.0 0.18060814239460002 -0.9966992900935966
4812000000.0 0.17768718951965506 -1.0039989260800264
4816000000.0 0.22995199176044406 -0.9861427607812365
4819000000.0 0.22448937731318763 -1.0204612013255754
4822000000.0 0.22138367451797822 -1.049321957886027
4825000000.0 0.2443510257579403 -1.0145411686630843
4828000000.0 0.18229319290807802 -1.0021375875468648
4831000000.0 0.1320901517054984 -1.041706661842427
4834000000.0 0.18126581690995677 -1.027407697073273
4838000000.0 0.13240378205694855 -1.039415689553848
4841000000.0 0.12341306368698374 -0.9965777685342844
4844000000.0 0.16156948274321442 -1.0279527335622562
4847000000.0 0.16300947366631485 -0.9851682052889716
4850000000.0 0.120438809790016 -1.0454646032554111
4853000000.0 0.12203385036734701 -0.9940216919526583
4856000000.0 0.10496763519288929 -1.0073372331089896
4859000000.0 0.08748591796235142 -1.0546167944874223
4862000000.0 0.11574821069921619 -1.00216776238333
4866000000.0 0.0782415330839682 -1.0500129518068768
4869000000.0 0.04938000239638114 -1.0143023966862903
4872000000.0 0.07159719009245528 -1.0368962230362224
4875000000.0 0.1127703035526999 -1.0717047423194563
4878000000.0 0.024604620087332225 -1.0392095540588957
4881000000.0 -0.019389887011851993 -1.102939277175731
4884000000.0 0.024993420671621833 -1.0385212574890519
4888000000.0 0.059404891564015835 -1.0216450280008913
4891000000.0 0.05329395772807238 -1.0511308512203679
4894000000.0 -0.026160067276631276 -1.0108286813247291
4897000000.0 0.017379089322252933 -1.0205144340186867
4900000000.0 -0.005020910594730896 -1.0648352943555535
4903000000.0 0.006112040714333616 -1.059334722887661
4906000000.0 -0.02949874840012752 -1.0432694617999503
4909000000.0 -0.05227488491646407 -1.0688392307346097
4912000000.0 -0.0382801479091741 -1.0759593899992308
4916000000.0 -0.031071035241280916 -1.041287177829734
4919000000.0 0.0004265383093261105 -1.0573112431684093
4922000000.0 -0.03902994508720646 -1.0611954819918634
4925000000.0 -0.10926847759826724 -1.031300765863899
4928000000.0 -0.029260122494225452 -1.0168787600319278
4931000000.0 -0.07743286824744812 -1.0334583913043576
4934000000.0 -0.09209633424398493 -1.0006034862845106
4938000000.0 -0.1519640600363908 -1.0579114178769458
4941000000.0 -0.09663207579443371 -1.0079023207777498
4944000000.0 -0.1123856261616962 -0.9657840615743452
4947000000.0 -0.1379053237104886 -1.0148853267112063
4950000000.0 -0.12457064400674382 -0.9884244494585913
4953000000.0 -0.17968306257807365 -1.0704907861923103
4956000000.0 -0.1838721043893729 -1.0228402702569988
4959000000.0 -0.1700990390587971 -1.0112426787020956
4962000000.0 -0.18564386170551975 -1.0463741571909533
4966000000.0 -0.13545380306634547 -1.0507650790703662
4969000000.0 -0.17933652604195888 -1.0524395701403355
4972000000.0 -0.2200534861056487 -1.045609067459627
4975000000.0 -0.1877675046602049 -1.012791884475465
4978000000.0 -0.23720142438595104 -1.0133670888673285
4981000000.0 -0.24186530428798683 -0.9982785764958079
4984000000.0 -0.21841061410315646 -0.9957365823684738
4988000000.0 -0.24053536704022116 -1.0190080470574185
4991000000.0 -0.20546679697872378 -1.0589721678504556
4994000000.0 -0.25048887167941597 -1.018669301218821
4997000000.0 -0.2713998362469399 -0.9992720744391516
5000000000.0 -0.2541268715406904 -1.0458900315423372
5003000000.0 -0.30150196679664004 -1.0503579529367482
5006000000.0 -0.3460083430567432 -1.0977332036562393
5009000000.0 -0.25144206778702405 -0.9986119082828363
5012000000.0 -0.3239563635289899 -1.0024349902716412
5016000000.0 -0.30381007680921773 -1.0224961803133645
5019000000.0 -0.33414896879141376 -0.9575952437682438
5022000000.0 -0.34874273608648854 -0.9895968070556866
5025000000.0 -0.389633083017845 -1.0387958008561258
5028000000.0 -0.3455056808449374 -0.9739559345964242
5031000000.0 -0.36874025731767746 -0.9758259176989655
5034000000.0 -0.382685393475373 -1.0018591423644134
5038000000.0 -0.3819423389410219 -0.9310843603388961
5041000000.0 -0.34060039552512733 -0.9920708758924376
5044000000.0 -0.33224472253856085 -0.950116352877265
5047000000.0 -0.3538398303029438 -0.9622197257947006
5050000000.0 -0.34493803540289103 -0.9694886211691134
5053000000.0 -0.41621653065907316 -1.004069909604542
5056000000.0 -0.4004718101961118 -0.9487268111673186
5059000000.0 -0.3873781314225104 -0.9892008367621049
5062000000.0 -0.4764730937756595 -0.9285966034296165
5066000000.0 -0.37804589715663994 -0.9499535250465005
5069000000.0 -0.43825959349068766 -0.9225991629514866
5072000000.0 -0.42085438496460503 -0.9253706593333144
5075000000.0 -0.3996926362476726 -0.9213098601730707
5078000000.0 -0.49481282906854934 -0.9242125016322156
5081000000.0 -0.49646591427712045 -0.8764031677380973
5084000000.0 -0.4887687643618126 -0.9369443208447963
5088000000.0 -0.44110760911507363 -0.9048226687818386
5091000000.0 -0.5568364009081324 -0.8840236872685265
5094000000.0 -0.5303007758200233 -0.8753325637055308
5097000000.0 -0.4669994222679785 -0.9638348967761659
5100000000.0 -0.5106432531714787 -0.9245373011290504
5103000000.0 -0.4999295308467613 -0.8750357987615166
5106000000.0 -0.5434687204112959 -0.9295207150487852
5109000000.0 -0.5081281282051394 -0.9016880515453782
5112000000.0 -0.5820056353481942 -0.904594515750663
5116000000.0 -0.5343734253968171 -0.8359558128515334
5119000000.0 -0.5579383816154588 -0.9029239832752194
5122000000.0 -0.5560455071415018 -0.8430720555106939
5125000000.0 -0.5565539716733803 -0.8577501242613162
5128000000.0 -0.5788377439740129 -0.84640270422944
5131000000.0 -0.6132634263421708 -0.8729779526015093
5134000000.0 -0.6045273173124892 -0.847674336712702
5138000000.0 -0.569356460953206 -0.8790824541375998
5141000000.0 -0.5508993487947276 -0.8969347125941323
5144000000.0 -0.5774818370935214 -0.874179698301014
5147000000.0 -0.6284946915965915 -0.8741018971704236
5150000000.0 -0.5837687211761723 -0.8694215658808147
5153000000.0 -0.609926108190658 -0.8331004175052377
5156000000.0 -0.6357165697696143 -0.823206196083376
5159000000.0 -0.6445562655589553 -0.9023849038899522
5162000000.0 -0.6734750445919498 -0.8104741914396073
5166000000.0 -0.6785126945061454 -0.817634341010012
5169000000.0 -0.6761404626294939 -0.8168619458154119
5172000000.0 -0.6686224892592461 -0.8217400369594152
5175000000.0 -0.6802559462991704 -0.8434017943104386
5178000000.0 -0.6890601333880446 -0.7760778527372681
5181000000.0 -0.6997843887968135 -0.8077210601968491
5184000000.0 -0.6723743654624679 -0.7613676132441283
5188000000.0 -0.716048994413798 -0.8009635241621844
