! Created with skrf 1.8.0 (http://scikit-rf.org).
# Hz S RI R 50.0 
!freq ReS11 ImS11
4000000000.0 0.6337569762509863 0.7960392294976788
4003000000.0 0.6406579628553012 0.835567844657409
4006000000.0 0.6447374674485244 0.7605090733278516
4009000000.0 0.689578836566726 0.799704366800725
4012000000.0 0.6670912362545124 0.8506618285663413
4016000000.0 0.7211573662313526 0.7414653651080982
4019000000.0 0.6810717063861282 0.7683300720721737
4022000000.0 0.7018717420099568 0.8504959495874252
4025000000.0 0.7868530568978377 0.711680544200647
4028000000.0 0.7640806263048898 0.7246836074124057
4031000000.0 0.6744662429080628 0.7211915756536693
4034000000.0 0.7453377681418673 0.7303173051216072
4038000000.0 0.7559273157700849 0.718618947667585
4041000000.0 0.735839798871409 0.6918862656408014
4044000000.0 0.8347143369492882 0.7703380539765025
4047000000.0 0.7973813798452173 0.7640386297093075
4050000000.0 0.7765470673235964 0.6762997268123935
4053000000.0 0.7560207091221871 0.6857235189307671
4056000000.0 0.7650197141259237 0.6679139595224131
4059000000.0 0.7237800639933488 0.7008435004828184
4062000000.0 0.7855370026232987 0.6453121061115907
4066000000.0 0.7377952366132734 0.6394505658702533
4069000000.0 0.839988363377333 0.6780397863076105
4072000000.0 0.7864267248651596 0.6834822969558656
4075000000.0 0.7951788461356684 0.7256504068205321
4078000000.0 0.8416312406612882 0.6455892375631143
4081000000.0 0.8115108026256812 0.7018439814213898
4084000000.0 0.8270572031775856 0.5978613264631385
4088000000.0 0.7926721450219756 0.7122643183730624
4091000000.0 0.8782459430820065 0.6254769938980274
4094000000.0 0.841378970613869 0.6090144775323797
4097000000.0 0.8480920494785533 0.6455018266498014
4100000000.0 0.8682343061001089 0.5828385211318596
4103000000.0 0.823255594751537 0.6360420412839429
4106000000.0 0.9025310616672376 0.6037651374684346
4109000000.0 0.8880152367333121 0.5929949324714754
4112000000.0 0.8756285022962322 0.5792586189531657
4116000000.0 0.8575573424836298 0.616603416072872
4119000000.0 0.8890245266915029 0.5586833137684137
4122000000.0 0.8805401941542551 0.5575263888290973
4125000000.0 0.9198637112867418 0.5387804805147316
4128000000.0 0.863474790161863 0.5398244389109016
4131000000.0 0.8630061671605997 0.5205183873121644
4134000000.0 0.8786476422332755 0.5355123844157675
4138000000.0 0.873462788229108 0.5148452617696933
4141000000.0 0.889627618327915 0.5259097780275601
4144000000.0 0.9123202663480864 0.5397177815355583
4147000000.0 0.9075820406128469 0.47652227304982603
4150000000.0 0.963859681987444 0.5115600600098549
4153000000.0 0.9244068064298245 0.4541632900598759
4156000000.0 0.9252199480309797 0.5074590033628978
4159000000.0 0.8882363045304738 0.4505948875183396
4162000000.0 0.884514938509785 0.4488566872002818
4166000000.0 0.9511340896049485 0.4497616524975535
4169000000.0 0.9232455082716462 0.40958822287421603
4172000000.0 0.9699184271665396 0.41642219786461737
4175000000.0 0.929850021990311 0.44410764553750387
4178000000.0 0.9544614856426022 0.40602348994948645
4181000000.0 0.9575030653156811 0.38909673714312176
4184000000.0 0.9365109450839246 0.42949004849026456
4188000000.0 0.985684323450827 0.3872566192281607
4191000000.0 0.9350795042716672 0.3970002084418472
4194000000.0 0.9366762895517894 0.36620099558288777
4197000000.0 0.9870835809663854 0.378337827532852
4200000000.0 0.9693798085583212 0.36731837940391765
4203000000.0 0.9739952251459143 0.3770661924681976
4206000000.0 0.9870778698351765 0.34984398399667
4209000000.0 0.9572112369916658 0.3555960413142221
4212000000.0 0.9941691359077751 0.30278884592675015
4216000000.0 0.9829028069278333 0.33256952954531954
4219000000.0 0.997213772428994 0.33614591607519484
4222000000.0 0.9814102802347309 0.30074079228938616
4225000000.0 0.9732934597381897 0.2813294450172349
4228000000.0 0.9935438046638412 0.2973870917461857
4231000000.0 0.9976409259248729 0.28634447766470744
4234000000.0 0.99489011878715 0.28715548128967566
4238000000.0 1.0099112691200176 0.2465278255918427
4241000000.0 0.9906026377718784 0.24993685503310936
4244000000.0 0.9915955964138895 0.2386429641640982
4247000000.0 0.9950100689513145 0.24875210931681496
4250000000.0 0.997836122896471 0.2336596034749605
4253000000.0 0.9736229284259654 0.2043923300658706
4256000000.0 1.015870033697661 0.1992741891989312
4259000000.0 0.9778388418909987 0.17176985203368342
4262000000.0 1.0041867564367106 0.17734028912623587
4266000000.0 1.0170412013332353 0.1419056425185362
4269000000.0 1.0191532257729965 0.17598000071197148
4272000000.0 1.0007261540151733 0.16528389124629467
4275000000.0 1.0275815212027364 0.15011891795110338
4278000000.0 1.0307296382616014 0.17076081514802305
4281000000.0 1.0446325588944299 0.14556915293280354
4284000000.0 1.0546925392026327 0.0933979059862857
4288000000.0 1.0012184272192395 0.16177641280000096
4291000000.0 0.9936171694013617 0.12971630352747898
4294000000.0 1.0106566454575308 0.07499958374179953
4297000000.0 1.0032287474240347 0.13663166907466112
4300000000.0 0.9994678451607399 0.10690639644843153
4303000000.0 1.0372310112213148 0.044256652455921294
4306000000.0 1.0209969434259247 0.09177644316333486
4309000000.0 1.0166303102534457 0.058879959780792954
4312000000.0 1.0451332182738522 0.09023703479194298
4316000000.0 1.0174156908358172 0.05622422686744123
4319000000.0 1.009642188317655 0.0653928287583725
4322000000.0 1.0006600911824672 -0.0019236114267381782
4325000000.0 1.0447584606462499 0.06200156080121001
4328000000.0 1.007738840639141 0.022873950740684976
4331000000.0 1.0507036038218927 -0.024609771234936725
4334000000.0 1.0136412031712076 -0.006201138932326211
4338000000.0 1.0292995264571858 0.006024329983696494
4341000000.0 1.0247570692570585 0.01801927250321894
4344000000.0 1.0309169826783882 -0.014212237421670298
4347000000.0 1.0299251847426818 -0.0664986639515251
4350000000.0 0.9805885034375045 -0.07839018628021877
4353000000.0 0.9988350820859118 -0.022405594233475434
4356000000.0 1.0168124755626702 -0.08949244289545365
4359000000.0 0.9752488605382774 -0.08536443396625404
4362000000.0 1.008646510567906 -0.1200477383189016
4366000000.0 1.0422692100962143 -0.12207579309002775
4369000000.0 0.9863242200172724 -0.09276772865407402
4372000000.0 0.9926180984461517 -0.1623576158089633
4375000000.0 0.999695388402356 -0.09425441177062129
4378000000.0 0.9947077430927908 -0.11872037331776276
4381000000.0 0.9910639321220809 -0.13168748633446423
4384000000.0 1.0551258601403677 -0.164973381409704
4388000000.0 0.9763628350384371 -0.12683813957809295
4391000000.0 1.0195625795845717 -0.16708052035381882
4394000000.0 0.9664573070672593 -0.16545444806825288
4397000000.0 1.003528623927811 -0.19233983193908957
4400000000.0 1.01965173888066 -0.2106491071622392
4403000000.0 1.0015147351303828 -0.19795799059825128
4406000000.0 1.0007945625707533 -0.2275453401393974
4409000000.0 1.0163701243210321 -0.23832196415423007
4412000000.0 0.9673311163370857 -0.27833233692918247
4416000000.0 0.9761684638995625 -0.23668734558161647
4419000000.0 0.9950584349194914 -0.2555246624221463
4422000000.0 0.9851930503138884 -0.23740861011388664
4425000000.0 0.9915351864947947 -0.22586910156697113
4428000000.0 0.9769626245591161 -0.28603680116881675
4431000000.0 1.0011479068505214 -0.2712563288770433
4434000000.0 0.9646099733282062 -0.2799782248311943
4438000000.0 0.9987313215075377 -0.29934798212455593
4441000000.0 0.9817099185701983 -0.2927580791662423
4444000000.0 0.9389071948079326 -0.2984406528220133
4447000000.0 0.9527490664501576 -0.34190083392637816
4450000000.0 0.964373472255238 -0.30467008278478425
4453000000.0 0.9845175650989539 -0.34417906513034335
4456000000.0 0.9215636427391537 -0.35399813222620613
4459000000.0 0.9118489313878604 -0.3526117113948092
4462000000.0 0.9852164550960143 -0.39794373063841826
4466000000.0 0.9868541386530666 -0.4039315548875574
4469000000.0 0.9594894278400206 -0.3607716022323805
4472000000.0 0.9534746894878118 -0.40683830680814215
4475000000.0 0.9113056924516819 -0.35789195566838805
4478000000.0 0.9608236046359762 -0.44295613324077165
4481000000.0 0.8999147506281083 -0.41769931223368345
4484000000.0 0.9098573214293344 -0.46439447956921265
4488000000.0 0.909410256344648 -0.4445755606921107
4491000000.0 0.9263598079381234 -0.44797960012922605
4494000000.0 0.9115407112850831 -0.42935375747764154
4497000000.0 0.898084948454505 -0.44203508595670205
4500000000.0 0.8912566164337339 -0.44766279183448215
4503000000.0 0.9234442934439548 -0.4709021212535401
4506000000.0 0.8955906467537107 -0.49412846487397344
4509000000.0 0.8882964268119078 -0.4839065346867697
4512000000.0 0.8624841574751394 -0.4916473330013885
4516000000.0 0.9076288550553678 -0.4970239095838717
4519000000.0 0.8523752301593226 -0.48708048431761636
4522000000.0 0.8837958241502109 -0.5264707268170384
4525000000.0 0.8779601733520619 -0.4875608087966643
4528000000.0 0.8739266542772586 -0.5420991205163425
4531000000.0 0.8715872867198383 -0.5236679940803335
4534000000.0 0.839277342352556 -0.5532241886122264
4538000000.0 0.8480937605295089 -0.555407610407976
4541000000.0 0.8106232555310446 -0.5838969343965863
4544000000.0 0.8274118660470611 -0.5560882176259072
4547000000.0 0.8482954658786948 -0.5489333902899447
4550000000.0 0.8187895616369909 -0.597558957437209
4553000000.0 0.8140520123885009 -0.6041139297221333
4556000000.0 0.7978083319681439 -0.5876483246322866
4559000000.0 0.8090570045031003 -0.6090842072085985
4562000000.0 0.8319009243142623 -0.5956590750176538
4566000000.0 0.8017941928550723 -0.6198690496591954
4569000000.0 0.7833386868599032 -0.6104092790755236
4572000000.0 0.8045023759743893 -0.6134370903573544
4575000000.0 0.7837390406652094 -0.6745922969163594
4578000000.0 0.8148591019859519 -0.6501723685162182
4581000000.0 0.7585247510420817 -0.6774184971027057
4584000000.0 0.7541712755369893 -0.6726941041140903
4588000000.0 0.7862318738694938 -0.676608552108342
4591000000.0 0.7765407575056424 -0.6577021447330867
4594000000.0 0.7290877977140554 -0.6988440389935302
4597000000.0 0.7486562350774775 -0.6920745721717607
4600000000.0 0.7065475621974603 -0.7075467466006642
4603000000.0 0.7225481941843668 -0.7152951321577659
4606000000.0 0.7395026442129139 -0.7108474864258568
4609000000.0 0.6990843107632618 -0.7171040981753783
4612000000.0 0.7217618294719138 -0.7134002911040063
4616000000.0 0.7054549659864611 -0.7134972387621017
4619000000.0 0.6991567631851794 -0.7347370174169905
4622000000.0 0.7015245532143054 -0.7505124966007333
4625000000.0 0.6556581090231213 -0.7516929996819721
4628000000.0 0.6872118688555855 -0.7335465870668881
4631000000.0 0.6596981878783637 -0.7597804528122482
4634000000.0 0.656785802896992 -0.7651378451674063
4638000000.0 0.6658509011739709 -0.783371053291418
4641000000.0 0.6744429675293557 -0.7815368526567001
4644000000.0 0.6398856872079506 -0.7789267213816071
4647000000.0 0.6552377293951587 -0.7926163033106675
4650000000.0 0.6220391226565337 -0.799588759488139
4653000000.0 0.6352837720775422 -0.7966629400654881
4656000000.0 0.6025473933756553 -0.8319218773146813
4659000000.0 0.5884874751807193 -0.8238010933239746
4662000000.0 0.602492023303143 -0.8152067566818194
4666000000.0 0.5787506691597313 -0.847444896461959
4669000000.0 0.578217982032595 -0.8302928963037559
4672000000.0 0.568437470338522 -0.869041847639868
4675000000.0 0.5590424053476468 -0.8719493305182213
4678000000.0 0.5547637593241364 -0.8265025389990425
4681000000.0 0.5480392836545757 -0.8652187984232518
4684000000.0 0.5281028276467594 -0.8692979476050461
4688000000.0 0.48818378871377527 -0.8803023493692274
4691000000.0 0.5534998322441891 -0.862798556170199
4694000000.0 0.5246728911378823 -0.8736022524587421
4697000000.0 0.4990710096958542 -0.8486076829245868
4700000000.0 0.5086296927088538 -0.891118074148207
4703000000.0 0.5092573846809816 -0.8291129873002578
4706000000.0 0.4878762646927077 -0.8949366289733082
4709000000.0 0.4727614836438778 -0.8768964560725858
4712000000.0 0.49918615889672624 -0.9062581820331344
4716000000.0 0.4755256145146646 -0.9190351689089202
4719000000.0 0.4766688705870686 -0.895650956449916
4722000000.0 0.47395022788861985 -0.9080496853586297
4725000000.0 0.45912205210553586 -0.8895750483029635
4728000000.0 0.4253802842838941 -0.9389674640747148
4731000000.0 0.44387243262846077 -0.9614438226704833
4734000000.0 0.4253673118599589 -0.9364947310958827
4738000000.0 0.45383471708844125 -0.9679475757722373
4741000000.0 0.40937405891030487 -0.9646866391045783
4744000000.0 0.39240290195656374 -0.9486324101535403
4747000000.0 0.39357688538295216 -0.9206108441557076
4750000000.0 0.3879678917497258 -0.9349287965374867
4753000000.0 0.3918066037628883 -0.9626680348964272
4756000000.0 0.37238206878495933 -0.9725254145479079
4759000000.0 0.3671275217955552 -0.982540985698901
4762000000.0 0.3421844710138646 -1.0152590628639409
4766000000.0 0.35183448580978444 -0.9697177218541044
4769000000.0 0.3358304524258735 -0.9885690574433236
4772000000.0 0.33293727506998205 -0.9794264973715879
4775000000.0 0.2946758203939277 -1.0567691500070981
4778000000.0 0.3331972107416058 -0.9806523012821909
4781000000.0 0.3189089180303274 -0.9679673006510068
4784000000.0 0.3161607606067447 -0.9580021267929731
4788000000.0 0.28923996837551724 -1.0018531920783684
4791000000.0 0.2734509648649377 -0.9819624697357446
4794000000.0 0.2902518245913758 -1.010445283654469
4797000000.0 0.2375485027566498 -0.9766148128390434
4800000000.0 0.23588369718859917 -0.992639908885764
4803000000.0 0.21569438987492967 -1.0049793345781615
4806000000.0 0.2612926973539425 -1.007953351509896
4809000000.0 0.19328111365318607 -1.0177250292585178
4812000000.0 0.20493709543206698 -0.9989925011784018
4816000000.0 0.23036353749496663 -1.0026439070223332
4819000000.0 0.23832500521346117 -1.0342778854673957
4822000000.0 0.20683791584091032 -1.0637099872595506
4825000000.0 0.21725756666188942 -1.0333900639143387
4828000000.0 0.18314398651964123 -1.0175205289233258
4831000000.0 0.10914595714583802 -1.054505048059164
4834000000.0 0.18365022345126641 -1.0249768823775154
4838000000.0 0.13648128584394065 -1.0267354194817262
4841000000.0 0.14492056424735947 -1.0250550035800128
4844000000.0 0.17392950084893538 -1.0184392633317385
4847000000.0 0.15595594660171502 -1.000940676231289
4850000000.0 0.10603180412534595 -1.0574153827809054
4853000000.0 0.14868995418812392 -1.027299677235552
4856000000.0 0.09112298075617936 -1.0250376377754098
4859000000.0 0.09984493628243135 -1.066841481451358
4862000000.0 0.10875709336531268 -1.030400294445546
4866000000.0 0.07322864322512189 -1.0466918015700202
4869000000.0 0.0558161903597677 -1.0154512149179566
4872000000.0 0.02412109842408463 -1.0626901560173114
4875000000.0 0.11323561568207806 -1.0627921489763892
4878000000.0 0.03932977727107889 -1.0462913412938606
4881000000.0 -0.00032114060697164453 -1.1177559077717805
4884000000.0 0.037404346658179904 -1.046449276197984
4888000000.0 0.053353366237462674 -1.022913563511145
4891000000.0 0.037062921273228765 -1.0455029433712921
4894000000.0 -0.02281415496529155 -1.006514590967555
4897000000.0 0.027028079195088164 -1.0459086226465584
4900000000.0 0.019925087388401076 -1.0473043301197569
4903000000.0 0.01738925080168331 -1.0695993060856133
4906000000.0 -0.04236360493449771 -1.0652418495693923
4909000000.0 -0.04762685764138278 -1.0170895496088694
4912000000.0 -0.05366443697558973 -1.0891647340877844
4916000000.0 -0.0605194482277679 -1.0525337156753678
4919000000.0 -0.030637008920189987 -1.0969170879927845
4922000000.0 -0.02888379330401228 -1.063722733568845
4925000000.0 -0.11967605382472685 -1.0175486681785524
4928000000.0 -0.0088022131504214 -1.0249975433610483
4931000000.0 -0.05428089010791996 -1.051038393324579
4934000000.0 -0.12163770641942702 -0.9766987286335745
4938000000.0 -0.14806376475730876 -1.0483613190338972
4941000000.0 -0.10922202363994944 -0.9994682131522095
4944000000.0 -0.09481353398764675 -0.9836994191676252
4947000000.0 -0.14433249246821914 -1.0236645935849538
4950000000.0 -0.15924469606567487 -1.0050657368583564
4953000000.0 -0.18550448231352523 -1.0425350392195447
4956000000.0 -0.19022391621332507 -1.0141192861725574
4959000000.0 -0.19254923648862346 -1.0097512841728329
4962000000.0 -0.20190180309369712 -1.0262281962901978
4966000000.0 -0.16511469633318 -1.0611264449694005
4969000000.0 -0.19036947015563266 -1.062238234025429
4972000000.0 -0.21308807765180163 -1.0181378109626538
4975000000.0 -0.1858707208744659 -1.0126934923040753
4978000000.0 -0.2590122772254137 -1.0467919374893861
4981000000.0 -0.24857139374608003 -1.0134795124892577
4984000000.0 -0.21644486505533075 -1.0220925105966538
4988000000.0 -0.22297845112673031 -1.0168467322231975
4991000000.0 -0.22047004075392296 -1.070765940957435
4994000000.0 -0.24797402403286378 -1.0032422980907603
4997000000.0 -0.31647480472577677 -0.9993817705533085
5000000000.0 -0.2519400283547463 -1.020590815447355
5003000000.0 -0.27935422921155834 -1.0127112754734733
5006000000.0 -0.32020472737191064 -1.0615298489717395
5009000000.0 -0.29641239124299545 -1.0040047841520265
5012000000.0 -0.317878529500413 -0.9935543839303478
5016000000.0 -0.28750045908981176 -1.0350437541701958
5019000000.0 -0.34256755702564123 -0.9806717648295915
5022000000.0 -0.3318045137656588 -1.0267875101603987
5025000000.0 -0.3698378969122172 -1.054866178469015
5028000000.0 -0.3540847983378177 -1.0122444032970974
5031000000.0 -0.38268612658100276 -1.0116907421223584
5034000000.0 -0.40555852613913856 -0.9700937063323665
5038000000.0 -0.3945140722080417 -0.9522947054081656
5041000000.0 -0.3460532414819768 -0.9849302657887614
5044000000.0 -0.3885098031376626 -0.9350076620531574
5047000000.0 -0.3833419935422853 -0.9824724316269337
5050000000.0 -0.3137334783059855 -0.9501997487678511
5053000000.0 -0.4326914046742192 -1.0213500651458223
5056000000.0 -0.3888085554552415 -0.9890208270791356
5059000000.0 -0.3882880842918723 -0.9473652069420858
5062000000.0 -0.5007911407835843 -0.9317003493736435
5066000000.0 -0.3921580468157756 -0.9573294990989609
5069000000.0 -0.4639285707167262 -0.9769058671531982
5072000000.0 -0.41180785927743424 -0.9406714133715579
5075000000.0 -0.4455918185323009 -0.9416957036478015
5078000000.0 -0.4990307749969383 -0.9222041908468992
5081000000.0 -0.5177421266828903 -0.8842680101450858
5084000000.0 -0.5266959560001898 -0.9769634790692743
5088000000.0 -0.45532947201359186 -0.9233048976627098
5091000000.0 -0.537696353223402 -0.9367829212789687
5094000000.0 -0.5123556279876458 -0.9176174535141796
5097000000.0 -0.4953238836520314 -0.9104403901473583
5100000000.0 -0.5237774221285806 -0.9023475794273842
5103000000.0 -0.5819107998129317 -0.8997138581278782
5106000000.0 -0.5323827661770556 -0.9286495834016257
5109000000.0 -0.49417482726032924 -0.9076499605371402
5112000000.0 -0.5419586708284058 -0.873433569951612
5116000000.0 -0.4924433488839614 -0.8870068975306706
5119000000.0 -0.5789878084760535 -0.9387694012777537
5122000000.0 -0.5319958856115394 -0.9123873337730455
5125000000.0 -0.580335182839854 -0.8886148655226767
5128000000.0 -0.5427109940450882 -0.8500009341286354
5131000000.0 -0.557549695901501 -0.8618265271386703
5134000000.0 -0.5722240880764907 -0.8784167873604681
5138000000.0 -0.5411747014238142 -0.881113737309766
5141000000.0 -0.5831959783513063 -0.8804328399664263
5144000000.0 -0.5992858375091101 -0.891591392541723
5147000000.0 -0.6677507138267722 -0.8587677812731553
5150000000.0 -0.5825727898996983 -0.8878679817822545
5153000000.0 -0.6473390243541091 -0.8275314062897238
5156000000.0 -0.6189198899206143 -0.8335528402724065
5159000000.0 -0.6296598155891743 -0.8240009635811635
5162000000.0 -0.651681735644588 -0.7973132559341204
5166000000.0 -0.6680327585989426 -0.8012148274886849
5169000000.0 -0.6887073257853622 -0.8569969036724303
5172000000.0 -0.6651414690894526 -0.8082138502143545
5175000000.0 -0.6995843866629328 -0.8581852320811172
5178000000.0 -0.6783495795978447 -0.8003845357571033
5181000000.0 -0.7228816088045746 -0.8237204161645181
5184000000.0 -0.6858945494281539 -0.7600572654846371
5188000000.0 -0.7196060639279703 -0.7918180684619814
