! Created with skrf 1.8.0 (http://scikit-rf.org).
# Hz S RI R 50.0 
!freq ReS11 ImS11
4000000000.0 0.5932191649721416 0.8040229771689895
4003000000.0 0.7015441526761084 0.8643564858154545
4006000000.0 0.6596084095632688 0.7648062527078464
4009000000.0 0.6668109765468153 0.7857355945605884
4012000000.0 0.6745697157529263 0.8056663274356048
4016000000.0 0.6829352492576833 0.7656087134320355
4019000000.0 0.7045153245554607 0.7749791806240384
4022000000.0 0.6538934416630501 0.8189760468680549
4025000000.0 0.7170211554457036 0.7207840308896623
4028000000.0 0.724329491584693 0.7357627235299196
4031000000.0 0.6905173059507758 0.7287627987152889
4034000000.0 0.7306449137742064 0.70614947349959
4038000000.0 0.7245398585420926 0.7214305596272677
4041000000.0 0.7476251557009246 0.7283896329955148
4044000000.0 0.7789480738658358 0.7926068438174633
4047000000.0 0.7773257835790371 0.7399530123451632
4050000000.0 0.8008045383241849 0.6791989305198205
4053000000.0 0.7810124559885291 0.6717727572345948
4056000000.0 0.787532890978592 0.7328779134852095
4059000000.0 0.7544391598193141 0.6579359898538764
4062000000.0 0.8123094824674348 0.652035079940104
4066000000.0 0.7372279569235409 0.6413778081061933
4069000000.0 0.8440926047220539 0.6922780474363316
4072000000.0 0.7629274767350689 0.6937000178140893
4075000000.0 0.8131269052846332 0.6479392591059916
4078000000.0 0.8455699340000783 0.6440543574917831
4081000000.0 0.8269856087422349 0.7233004189008847
4084000000.0 0.8352515529643016 0.5985016206518439
4088000000.0 0.7987229052210173 0.6346143551757013
4091000000.0 0.845371380531636 0.6420508243798724
4094000000.0 0.8483656834496657 0.6675312204616352
4097000000.0 0.8544505942656488 0.5811814471576822
4100000000.0 0.8574324187407931 0.5722000041633284
4103000000.0 0.8636407068655034 0.6589860833892414
4106000000.0 0.8704166975201444 0.5589919652078874
4109000000.0 0.8394379245003825 0.5538381270779478
4112000000.0 0.9114211996560513 0.559377077038578
4116000000.0 0.8567506266912237 0.5604442684970089
4119000000.0 0.8791943782963161 0.5620373102761338
4122000000.0 0.9044734380477488 0.5082975384257877
4125000000.0 0.9254434576156731 0.533004135511447
4128000000.0 0.8535998482697839 0.5303952408137131
4131000000.0 0.8959642167425451 0.5178217819680534
4134000000.0 0.8432177421331138 0.5442381074550775
4138000000.0 0.8717820509881962 0.4762174840390832
4141000000.0 0.8668492549207453 0.4870994865386883
4144000000.0 0.8834582767624286 0.48846285134124595
4147000000.0 0.9282088201532764 0.4583432762204451
4150000000.0 0.9587490208192255 0.46709064279665463
4153000000.0 0.9195071463151153 0.4635686972093417
4156000000.0 0.9473067090502199 0.4916303515708039
4159000000.0 0.898749460945246 0.4816230420943998
4162000000.0 0.8813269395509546 0.46383500713911885
4166000000.0 0.942415330008207 0.420222404726037
4169000000.0 0.9440110556520594 0.4084620148329693
4172000000.0 0.9391648131052155 0.4300928340487023
4175000000.0 0.9348075789994276 0.45911641131827613
4178000000.0 0.9492082598584896 0.4038126311235002
4181000000.0 0.9316214616280247 0.4126721969525128
4184000000.0 0.9629913406809371 0.3883311718735328
4188000000.0 0.956973840435015 0.3817001373671586
4191000000.0 0.9250435140602935 0.42216292744641276
4194000000.0 0.9517228040948361 0.38339132914205887
4197000000.0 0.9700540533834564 0.3677044525686351
4200000000.0 0.9640188923704935 0.37423719523077426
4203000000.0 0.9677811607468348 0.35710072945087323
4206000000.0 0.9905523751932214 0.3381585690189743
4209000000.0 0.9605364457379021 0.33371835446167203
4212000000.0 0.9773989169408964 0.303050144325965
4216000000.0 0.9657348840752306 0.322815968751961
4219000000.0 0.9896488887840806 0.3177769023797805
4222000000.0 0.9639305755784775 0.300256736782681
4225000000.0 0.9599498099275958 0.27945836088440645
4228000000.0 0.9905136023370904 0.2779515003157821
4231000000.0 1.0075764612795157 0.2603762670192122
4234000000.0 0.9811517804717859 0.2665560822283115
4238000000.0 0.9950082181578425 0.23530082666716226
4241000000.0 0.9939034085731246 0.23643631524164965
4244000000.0 0.9844016816729195 0.248117458493754
4247000000.0 1.0054885945460794 0.2346466361221542
4250000000.0 0.9965418005075157 0.21343381970324438
4253000000.0 0.9862747483468832 0.1976817831561572
4256000000.0 1.024095490268864 0.19909187993799315
4259000000.0 0.9681534809067449 0.1837396260611158
4262000000.0 1.0086642838434048 0.1808492789021359
4266000000.0 1.0171492572344365 0.18173016406288234
4269000000.0 0.9804194632671984 0.16562833588352918
4272000000.0 1.0082543707358034 0.17385370267805178
4275000000.0 1.0074793601429524 0.1542577312591792
4278000000.0 1.0224247074667374 0.14911984790590327
4281000000.0 1.0128437784822732 0.13628377882126758
4284000000.0 1.0264995422216185 0.08192854466552238
4288000000.0 1.003505201474145 0.1484126635705285
4291000000.0 0.9934822215087237 0.1101971055018978
4294000000.0 1.018305675893085 0.11097034399363791
4297000000.0 1.006867829155465 0.1285687951003079
4300000000.0 0.9964853892728536 0.09248716356082676
4303000000.0 1.0063790706687141 0.0767759232606506
4306000000.0 1.021038755876038 0.07686540777673234
4309000000.0 1.0077641859559436 0.0636059800668667
4312000000.0 1.0225520708584042 0.09384342287570713
4316000000.0 1.026708645940684 0.05820055359857822
4319000000.0 0.9775365641023069 0.05745781378010063
4322000000.0 0.9905698530608497 0.005533911563721197
4325000000.0 1.0087188899768773 0.023943417491564492
4328000000.0 1.0210067910238874 0.015144261755653185
4331000000.0 1.0216575937890169 -0.024249480831353906
4334000000.0 1.0205707824725505 -0.006169632830532498
4338000000.0 0.9994803372234208 0.012379164364251391
4341000000.0 1.0323486411379759 0.008988876568904042
4344000000.0 1.0427689964390903 -0.025698935305689147
4347000000.0 0.9977408024983668 -0.06298558016436998
4350000000.0 0.986433746463247 -0.06509470924877203
4353000000.0 0.9893004805511019 -0.03519950826144999
4356000000.0 0.9920869414031139 -0.08148416521155476
4359000000.0 0.977779236061505 -0.060648537863500246
4362000000.0 1.0035496363325067 -0.15218616784857059
4366000000.0 1.0218166335581835 -0.11486800093353289
4369000000.0 0.9829101233949976 -0.10906470927824785
4372000000.0 1.0014481896460512 -0.149274497623111
4375000000.0 1.0097505076339708 -0.10948981010025301
4378000000.0 0.964197331327411 -0.12784612925674654
4381000000.0 0.9936530492867264 -0.11118107463676599
4384000000.0 1.0554826513146123 -0.15395463805786788
4388000000.0 0.9955492942557187 -0.1440405139692612
4391000000.0 1.0127302109751926 -0.18005268327405421
4394000000.0 0.9726267867452881 -0.16064439533033906
4397000000.0 0.982560143597361 -0.18862254245309312
4400000000.0 1.0064347525386106 -0.20411027382140082
4403000000.0 1.0065991603587023 -0.1984511500450854
4406000000.0 0.9950815826946032 -0.23063297744036407
4409000000.0 1.0047531907363025 -0.2362163406989202
4412000000.0 0.9664181617063548 -0.27558065963630435
4416000000.0 0.9593619646550424 -0.24916618649893932
4419000000.0 0.9834883885687784 -0.25963681116634957
4422000000.0 0.9781476884672677 -0.23918046287639871
4425000000.0 1.0069093679510501 -0.2465265406194076
4428000000.0 0.9698400976393798 -0.2744203798409421
4431000000.0 0.9837774752674724 -0.27951114586856474
4434000000.0 0.9594488704718037 -0.29479817660832286
4438000000.0 0.9908438589121078 -0.3028901733404724
4441000000.0 0.9833395652341592 -0.31314358369624956
4444000000.0 0.9474244583688447 -0.3102785225741261
4447000000.0 0.9454941259029132 -0.33590021945575643
4450000000.0 0.9512994618834691 -0.311760551783564
4453000000.0 0.9796593587054274 -0.34494026184779847
4456000000.0 0.9201538302938612 -0.3501742834726971
4459000000.0 0.9030897436263388 -0.351382406734184
4462000000.0 0.9969935778792798 -0.3888141203620305
4466000000.0 0.9603854367677644 -0.39832428489545146
4469000000.0 0.9368228499771423 -0.3644671426210615
4472000000.0 0.9351963223989207 -0.41879905205756646
4475000000.0 0.9003800908434274 -0.39006763331687155
4478000000.0 0.963387207334734 -0.43950544244078393
4481000000.0 0.8948602971172969 -0.4140658303693619
4484000000.0 0.8873349585326653 -0.4669698986133085
4488000000.0 0.9087354788915228 -0.433266582091437
4491000000.0 0.9228526612921973 -0.4549181019176602
4494000000.0 0.9070044957085882 -0.4420691630904934
4497000000.0 0.8984425386468171 -0.4449922458498148
4500000000.0 0.8899675501007827 -0.46124807400385764
4503000000.0 0.9335586537141722 -0.4996318617921887
4506000000.0 0.863464027795781 -0.4931330752997037
4509000000.0 0.8676183626292928 -0.4755148885818713
4512000000.0 0.8678454279128538 -0.4887459857123879
4516000000.0 0.8942364101865151 -0.5082410844429885
4519000000.0 0.8612614024655743 -0.4749922503958867
4522000000.0 0.8734824829575236 -0.5146793840892476
4525000000.0 0.8782302762610505 -0.5102612097855243
4528000000.0 0.8877027040089673 -0.5353347303689058
4531000000.0 0.871409993131238 -0.5294669148810442
4534000000.0 0.833020984940868 -0.5499225394736715
4538000000.0 0.8301447424805004 -0.5370983874451061
4541000000.0 0.8083947715179635 -0.5933196423349302
4544000000.0 0.8034308146429991 -0.5633169198931356
4547000000.0 0.8241730757834359 -0.5579947007726671
4550000000.0 0.792708593024112 -0.597689370136913
4553000000.0 0.8102739499061877 -0.6081476137807041
4556000000.0 0.7850102069745191 -0.5914025557013448
4559000000.0 0.8003598354671306 -0.6116346888083914
4562000000.0 0.8209797245498001 -0.6261196740107956
4566000000.0 0.7986574967115703 -0.6320260913658526
4569000000.0 0.7728818465460225 -0.6228288105682072
4572000000.0 0.7861828312896046 -0.6288105215662413
4575000000.0 0.7776227727821456 -0.6617936402792289
4578000000.0 0.7923207802456815 -0.6565447694366457
4581000000.0 0.753252965630347 -0.6738233669098279
4584000000.0 0.7560540608685561 -0.6674068753666618
4588000000.0 0.7795017353800887 -0.6836578632511291
4591000000.0 0.7493250250174626 -0.6911730162251936
4594000000.0 0.7206296326836072 -0.7075476177398846
4597000000.0 0.7407865713529516 -0.7181690049428381
4600000000.0 0.718644465004895 -0.7057860189119398
4603000000.0 0.7110827535748583 -0.7262198949911299
4606000000.0 0.7105972403292748 -0.7181336410164348
4609000000.0 0.7075058662202159 -0.7040362367441303
4612000000.0 0.7090911257449263 -0.7341285780360435
4616000000.0 0.6803900305089601 -0.7319037387710992
4619000000.0 0.6927320747234695 -0.7208190649105725
4622000000.0 0.684598234272539 -0.7494254051948935
4625000000.0 0.6525808009391401 -0.7483645931817227
4628000000.0 0.6822413496753603 -0.7522184870928352
4631000000.0 0.6610228458408862 -0.7805589495343142
4634000000.0 0.6611995231718107 -0.7657730866734044
4638000000.0 0.6371084848811447 -0.768715669314637
4641000000.0 0.6574893504061426 -0.7871338917585587
4644000000.0 0.6397167397717993 -0.790744598881872
4647000000.0 0.6370570601759963 -0.8004577213260478
4650000000.0 0.593444991217739 -0.8045343460202315
4653000000.0 0.6237197941111164 -0.814280821205546
4656000000.0 0.6010221705239667 -0.8156712766848693
4659000000.0 0.5894655625385699 -0.806154161978041
4662000000.0 0.5918426169947252 -0.8227143004017978
4666000000.0 0.5705979369644446 -0.8137726420872559
4669000000.0 0.587988962961576 -0.8073266269820073
4672000000.0 0.5658714609873459 -0.8673630016933601
4675000000.0 0.5451147304241223 -0.8501650740554776
4678000000.0 0.5343088090959494 -0.826341885175409
4681000000.0 0.5404780222319553 -0.8809014750706872
4684000000.0 0.5246351391741506 -0.8756760201111693
4688000000.0 0.5186196598407915 -0.8750427344989133
4691000000.0 0.5481614943926286 -0.8712394832347048
4694000000.0 0.5175916842511262 -0.8630020267012861
4697000000.0 0.49080518440833226 -0.8575645471758022
4700000000.0 0.5101059133940804 -0.8972711094236363
4703000000.0 0.5048506950339517 -0.8380355266610731
4706000000.0 0.44559744875305507 -0.8987330049236866
4709000000.0 0.4594394424552004 -0.8983539303540625
4712000000.0 0.48567931382050844 -0.9012214781040175
4716000000.0 0.44487167998510946 -0.9256523294520436
4719000000.0 0.5077409516930483 -0.8960157799543834
4722000000.0 0.4890578970724024 -0.9163226563910147
4725000000.0 0.44832173583893764 -0.9141539986561151
4728000000.0 0.4165863192085154 -0.9020890640394976
4731000000.0 0.43185245055321564 -0.9519877636520913
4734000000.0 0.4108909796221154 -0.9295024275617534
4738000000.0 0.4453920356311083 -0.9601825901820733
4741000000.0 0.39914077441507667 -0.9401564403162843
4744000000.0 0.361108381952954 -0.9652172891589893
4747000000.0 0.3717756443563476 -0.9165795552422384
4750000000.0 0.3794895365830381 -0.9549552573442468
4753000000.0 0.3829607713171477 -0.9432913947685024
4756000000.0 0.35154204890399643 -0.9375399621880316
4759000000.0 0.36729140059755827 -0.9672917058389904
4762000000.0 0.32411037585102226 -0.9977003710700493
4766000000.0 0.3342387110850972 -0.9564012067059048
4769000000.0 0.33021753304519086 -0.986500495599599
4772000000.0 0.3308724412567982 -0.9661570391282059
4775000000.0 0.33273265881711517 -1.028357891900223
4778000000.0 0.300857290423784 -0.9943284914258991
4781000000.0 0.29259869947410766 -0.9700644628134194
4784000000.0 0.3271303621201136 -0.9469016946398393
4788000000.0 0.2744972188282055 -1.0252808785081151
4791000000.0 0.2651629642577666 -0.9953831757321224
4794000000.0 0.28913830257445156 -1.000484110579549
4797000000.0 0.22935140777076768 -0.9818598751839965
4800000000.0 0.22499479322593519 -0.9741151091991418
4803000000.0 0.19978583551360513 -0.9752694827766863
4806000000.0 0.21086093149440063 -1.0260583198459508
4809000000.0 0.18593390140378013 -1.0137226014157739
4812000000.0 0.16344725379745495 -0.9939128175358158
4816000000.0 0.22098357465354834 -0.9604931551055924
4819000000.0 0.22358962055316792 -1.0351215426620435
4822000000.0 0.21601625065634206 -1.0342371790973897
4825000000.0 0.1935666280886991 -1.0435767654257213
4828000000.0 0.1749211468069809 -0.991276387867463
4831000000.0 0.15266629366253257 -1.0309597156514974
4834000000.0 0.1774205424181733 -1.0216129011942714
4838000000.0 0.12920514608123915 -1.0517591514172275
4841000000.0 0.11666311931711995 -1.009686365560889
4844000000.0 0.15071190265240078 -1.0197128545531682
4847000000.0 0.14129191207888678 -0.9627410513036145
4850000000.0 0.10511481627342004 -1.0439435976403408
4853000000.0 0.12664670661537886 -1.0052394434110639
4856000000.0 0.09440564309507767 -1.0037931209901683
4859000000.0 0.08175326680365684 -1.0470895868173598
4862000000.0 0.11037242737261625 -0.9961205707250739
4866000000.0 0.05991549491615568 -1.0341274040200168
4869000000.0 0.047105086928323964 -1.016199570345984
4872000000.0 0.03160877208741615 -1.05728204304276
4875000000.0 0.09363795701574743 -1.050777391389935
4878000000.0 0.05614070708917448 -1.0140025711342415
4881000000.0 -0.021545931939517926 -1.096220616147029
4884000000.0 0.036379969182161166 -1.0176515259704184
4888000000.0 0.057089163494731025 -1.0097199562551264
4891000000.0 0.027456087667925295 -1.0797865049866608
4894000000.0 -0.009753866606829035 -1.0069375396310662
4897000000.0 0.035392982384105175 -0.9971573681510086
4900000000.0 -0.004673444156280314 -1.0478446434709352
4903000000.0 -0.03421381479983899 -1.0313727575972378
4906000000.0 -0.04975984476345845 -1.0389183892692855
4909000000.0 -0.04140407274859816 -1.0253925424452721
4912000000.0 -0.06270532585325592 -1.0613833033653763
4916000000.0 -0.04412931138979042 -1.0632151430658898
4919000000.0 -0.040104766312303586 -1.0818530591390734
4922000000.0 -0.0637488371393524 -1.0325591862540024
4925000000.0 -0.12836528785970192 -1.0277456872306447
4928000000.0 -0.004604980058404123 -1.0530275534641638
4931000000.0 -0.07591110262844832 -1.0361413888312008
4934000000.0 -0.1087333880768133 -0.9951753124426704
4938000000.0 -0.15876814783590554 -0.9989898370639947
4941000000.0 -0.12691909939503815 -1.0124261264642758
4944000000.0 -0.1285472540338367 -0.9753925645488113
4947000000.0 -0.16295839921359265 -1.0021476132153566
4950000000.0 -0.1688603367812644 -1.00601116381521
4953000000.0 -0.22058992630461266 -1.0626140348391493
4956000000.0 -0.170641087932349 -0.9835713431274868
4959000000.0 -0.20638376149053325 -0.9774208041543624
4962000000.0 -0.21817292304791383 -1.0586817116029947
4966000000.0 -0.19226181849336638 -1.0357613835488577
4969000000.0 -0.21069433203222127 -1.0629584094714974
4972000000.0 -0.23878989901028855 -1.0091826033867266
4975000000.0 -0.21892949008639287 -1.0272422140931539
4978000000.0 -0.234822866610365 -0.9913711655933546
4981000000.0 -0.2588498290240906 -1.020832474752551
4984000000.0 -0.25173471540723336 -0.9943471652003262
4988000000.0 -0.22477185939330102 -1.000036017200171
4991000000.0 -0.24746106191793593 -1.0475988340348412
4994000000.0 -0.23880605445394032 -0.9856938769137418
4997000000.0 -0.30230523850275365 -1.0021784581294575
5000000000.0 -0.2658193816461044 -1.0113192780801588
5003000000.0 -0.28176678214501644 -1.023844791854114
5006000000.0 -0.3209090768106546 -1.0498000091325816
5009000000.0 -0.3085858753967089 -0.9813939133801096
5012000000.0 -0.3503095833013124 -0.99131124160228
5016000000.0 -0.31918013854357147 -1.0388402578165015
5019000000.0 -0.3464811467836879 -0.9752425450357924
5022000000.0 -0.34882362119973576 -0.9736909364276387
5025000000.0 -0.3682794510524317 -1.0262216961089479
5028000000.0 -0.37143708366834427 -0.9743214606921127
5031000000.0 -0.35537061443181317 -0.9665914642207897
5034000000.0 -0.42708779080915293 -0.9998611725184692
5038000000.0 -0.37833787014005094 -0.9423191946643215
5041000000.0 -0.36242143495040857 -0.9562050641680274
5044000000.0 -0.3579985747642579 -0.9885817034846353
5047000000.0 -0.38927504386751816 -0.9636953087132706
5050000000.0 -0.3275688683635619 -0.9654772320210492
5053000000.0 -0.43469717250642026 -1.0013763977245782
5056000000.0 -0.44112286016134417 -0.976990285696296
5059000000.0 -0.3880567212955312 -0.9841002524495556
5062000000.0 -0.483753462361042 -0.950214643602971
5066000000.0 -0.4325575978933933 -0.919833998995051
5069000000.0 -0.4332529136615789 -0.9673507327079641
5072000000.0 -0.4693761409977413 -0.9342181279160109
5075000000.0 -0.4638173668896235 -0.9366550607077173
5078000000.0 -0.4979851524288024 -0.9165879765776568
5081000000.0 -0.4770076473197384 -0.8765588300154478
5084000000.0 -0.48038745004744776 -0.9523545261594566
5088000000.0 -0.46184056324839284 -0.928529040526467
5091000000.0 -0.5381313546774045 -0.872993943621756
5094000000.0 -0.5488445146227767 -0.9080998454215333
5097000000.0 -0.4978750139561555 -0.8972282640379299
5100000000.0 -0.5138489386870109 -0.915064119120169
5103000000.0 -0.5786029497418836 -0.9131013063447541
5106000000.0 -0.5135912925685509 -0.9369900241369393
5109000000.0 -0.50718959725453 -0.8969540810315473
5112000000.0 -0.5363147200722831 -0.8614809765574982
5116000000.0 -0.5418024278311938 -0.8367828247064442
5119000000.0 -0.5826386126481845 -0.8333557469712831
5122000000.0 -0.5389081579707931 -0.8168140708334262
5125000000.0 -0.5708707259175558 -0.8763232509575521
5128000000.0 -0.6178808027224699 -0.8203964785609004
5131000000.0 -0.5947139505491427 -0.8308590264493536
5134000000.0 -0.6061527428036865 -0.8639729020653897
5138000000.0 -0.6229497867898055 -0.8639989611105325
5141000000.0 -0.5961752779581806 -0.8839305232213956
5144000000.0 -0.5596873939819778 -0.8672226183908314
5147000000.0 -0.627358846346699 -0.8555395397792165
5150000000.0 -0.6396648556868416 -0.8491809236319461
5153000000.0 -0.6572241353813364 -0.8464669907308484
5156000000.0 -0.6661476252055005 -0.8273617393302602
5159000000.0 -0.6552670502226294 -0.8286035869700084
5162000000.0 -0.6550752502377634 -0.793967016157852
5166000000.0 -0.6784903637185979 -0.8339385858632187
5169000000.0 -0.6892316179414834 -0.7786111694778622
5172000000.0 -0.678755005098645 -0.7746573915359054
5175000000.0 -0.7192507589914564 -0.8424441398659135
5178000000.0 -0.6966361063187145 -0.797889318357291
5181000000.0 -0.7144939040504348 -0.7953409327122348
5184000000.0 -0.7277298745772727 -0.8068320688196247
5188000000.0 -0.7121453930179531 -0.7374342540101818
