! Created with skrf 1.8.0 (http://scikit-rf.org).
# Hz S RI R 50.0 
!freq ReS11 ImS11
4000000000.0 0.6623237022971146 0.7583592348852404
4003000000.0 0.7461959467568438 0.7531894396184381
4006000000.0 0.7024594589448128 0.7363485759626078
4009000000.0 0.7313794343507196 0.733181594617836
4012000000.0 0.6888373870365405 0.7720880737000513
4016000000.0 0.7372338826533974 0.697490585313101
4019000000.0 0.710474969198923 0.6950807837070188
4022000000.0 0.6932584991521479 0.7829582686702116
4025000000.0 0.8021381459611252 0.6602749606586527
4028000000.0 0.8233238239443341 0.7082953814014568
4031000000.0 0.7188953868564274 0.6703338728171221
4034000000.0 0.7656931768075911 0.6684902360782359
4038000000.0 0.7861379625800823 0.6614986507158701
4041000000.0 0.7831830797678725 0.6783650853401453
4044000000.0 0.820053085196971 0.6822559323975979
4047000000.0 0.8016607210529964 0.711880981169932
4050000000.0 0.8403925506060068 0.651620922348818
4053000000.0 0.781579882927625 0.6153872675864018
4056000000.0 0.8136261483954068 0.6694846182365469
4059000000.0 0.7681438286583072 0.6267439281663052
4062000000.0 0.8354152165230981 0.6186189514031757
4066000000.0 0.7888617465034105 0.5836976246184871
4069000000.0 0.8717666366768068 0.6085915468314346
4072000000.0 0.8191328152686809 0.6191091047042132
4075000000.0 0.8930120615476317 0.6596270265616193
4078000000.0 0.8620886875922419 0.5902044502971328
4081000000.0 0.8152100758418315 0.6540426921429263
4084000000.0 0.9194777784648711 0.5680023685252922
4088000000.0 0.859271732980771 0.5986044209672925
4091000000.0 0.9060946945795555 0.5943451269135134
4094000000.0 0.8679571268629289 0.59217151858058
4097000000.0 0.8722281899739103 0.5559743883179025
4100000000.0 0.8450749996754696 0.5434146529842787
4103000000.0 0.8825502154416986 0.5432645159360139
4106000000.0 0.9062046725330983 0.5326873863342051
4109000000.0 0.9156315466266638 0.5133706506968789
4112000000.0 0.8800272108258498 0.5148809421797773
4116000000.0 0.8997063814628405 0.49388139710875256
4119000000.0 0.883434078881867 0.4735787163944821
4122000000.0 0.8888063330963283 0.4710654441476434
4125000000.0 0.9347562413780712 0.4613544294317324
4128000000.0 0.8850766952909889 0.47189908340790887
4131000000.0 0.9105183035815928 0.44181723154923214
4134000000.0 0.9255030253097762 0.45138328589362586
4138000000.0 0.9081445620612889 0.44439403978205877
4141000000.0 0.9356422033526953 0.4569256521256414
4144000000.0 0.955160038211124 0.45672990010015563
4147000000.0 0.9433188402993764 0.4173874177281827
4150000000.0 0.9615638576313071 0.4286607993457871
4153000000.0 0.9591646124355822 0.3954507361283959
4156000000.0 0.9714429156664566 0.4436515521787493
4159000000.0 0.9536345181302786 0.3859125061917594
4162000000.0 0.9209225169942765 0.3850192652401834
4166000000.0 0.987144481912144 0.3809772334057553
4169000000.0 0.9703527982350953 0.3337708610888954
4172000000.0 0.9666347467682166 0.3778413169157146
4175000000.0 0.9557966388334228 0.36097060195600866
4178000000.0 0.9700725056994046 0.3443214374971174
4181000000.0 0.9732131927545133 0.3311409361471681
4184000000.0 0.9396465651291613 0.3098656407466978
4188000000.0 0.9716934698416491 0.3062802494646172
4191000000.0 0.9613276745466188 0.3439981756549119
4194000000.0 0.9599681830831224 0.27694636895652514
4197000000.0 0.9970586707937886 0.30689126440236764
4200000000.0 0.9783554452368965 0.2976829428487915
4203000000.0 1.0195985445866582 0.29463767263869767
4206000000.0 1.0121715148676584 0.26813163983962557
4209000000.0 0.9681844366676625 0.2564060580548167
4212000000.0 1.0147313524955393 0.21398621928968947
4216000000.0 0.9949823197629546 0.2449715243066573
4219000000.0 0.9978067562005819 0.24500400133871472
4222000000.0 0.995849271319919 0.21306962832926674
4225000000.0 0.9956751833055486 0.21159455984654227
4228000000.0 1.000637088269626 0.20047614226863278
4231000000.0 1.0114323287585723 0.19663940890579013
4234000000.0 1.0292371361667794 0.16556582156842226
4238000000.0 1.0214056136807914 0.17204255699225277
4241000000.0 1.0031532312390494 0.13139689585864855
4244000000.0 1.0201143548316043 0.1617993301063863
4247000000.0 1.0164553576559046 0.16108490777716666
4250000000.0 0.9909675623830618 0.13328619981678191
4253000000.0 0.9830461970719433 0.11387267178095978
4256000000.0 1.0332123532299964 0.12860991069847394
4259000000.0 0.9674660340452932 0.09945251181927636
4262000000.0 1.02048950310402 0.08915743682617175
4266000000.0 1.0261759355130295 0.07698289094344843
4269000000.0 1.0233173170753556 0.1052799637704884
4272000000.0 1.0163474799731 0.0933069691788464
4275000000.0 1.0324969468081908 0.0645046122879323
4278000000.0 1.0487867912043125 0.08274686519055649
4281000000.0 1.020436444674098 0.07560759979120817
4284000000.0 1.0447871006098333 0.018947826707904805
4288000000.0 1.0089177289981164 0.05864741380223929
4291000000.0 0.9857339973623277 0.03947270633716975
4294000000.0 1.0074699321387344 0.014693232731565684
4297000000.0 1.0097879979410833 0.03635641016797607
4300000000.0 1.002854851358826 -0.007637406951445748
4303000000.0 1.0178851124948354 -0.017122026505184768
4306000000.0 1.011024865210596 0.016917666203614595
4309000000.0 1.0150494886367927 -0.014171153172304107
4312000000.0 1.0177767378504397 0.021379971122393454
4316000000.0 1.0081675331387592 -0.016629437809265582
4319000000.0 0.980947063800295 -0.04097977523436063
4322000000.0 0.9810769989640638 -0.062030182273424474
4325000000.0 0.9970328057670985 -0.0705755626031659
4328000000.0 1.00761572340914 -0.07808145383620359
4331000000.0 1.0138250584345843 -0.11841618400528423
4334000000.0 1.0058597816943255 -0.09334220354860726
4338000000.0 0.9938291076626349 -0.09332363311586239
4341000000.0 1.0345782821719032 -0.0684431262671393
4344000000.0 1.0153251768242098 -0.12538032077178743
4347000000.0 1.006428380838598 -0.1689577093843764
4350000000.0 0.9730398326323253 -0.15718487431538197
4353000000.0 0.9732431027372077 -0.11257955533031333
4356000000.0 0.9728934920507193 -0.1923072676057029
4359000000.0 0.9560550609359927 -0.1614767491683348
4362000000.0 1.0185922623922679 -0.22987484843123207
4366000000.0 1.0092858586224647 -0.20050031443346925
4369000000.0 0.9446378496887352 -0.19960163251229218
4372000000.0 0.9987704191469786 -0.23262959767770375
4375000000.0 1.000410088466756 -0.1827128925750025
4378000000.0 0.9684109949140355 -0.21567219485924807
4381000000.0 0.9682429080104307 -0.2081373711384223
4384000000.0 1.0604550867645843 -0.25496419917824165
4388000000.0 0.9697288059440532 -0.2442034396161813
4391000000.0 0.9820568507344236 -0.2581490732787458
4394000000.0 0.9494565851534156 -0.270252723673575
4397000000.0 0.982681312410209 -0.2843969134217296
4400000000.0 1.0007950243500683 -0.29604917172592893
4403000000.0 0.9681501881779864 -0.2948093348041383
4406000000.0 0.9534365242306266 -0.3296469148630994
4409000000.0 0.9877514632842324 -0.3221628742946068
4412000000.0 0.9457890715673943 -0.370657982496163
4416000000.0 0.933456034334126 -0.3414394601761858
4419000000.0 0.944035168352754 -0.3648473913959305
4422000000.0 0.9398972348193673 -0.32215655845672214
4425000000.0 0.9666738795866535 -0.34608945560848536
4428000000.0 0.9391451632883558 -0.37377934365119336
4431000000.0 0.9638707354723095 -0.37368556548866205
4434000000.0 0.9215338874989236 -0.39185075459113794
4438000000.0 0.9536240819098769 -0.3875914489478851
4441000000.0 0.9461597706889529 -0.40886590187964217
4444000000.0 0.9074451228481741 -0.39421803591834464
4447000000.0 0.9082883117677594 -0.4225729965066187
4450000000.0 0.9222704270913016 -0.41392163978453655
4453000000.0 0.9130547363902168 -0.4426842206227714
4456000000.0 0.8786190957208243 -0.45148603646766394
4459000000.0 0.8570273208957053 -0.4564647244121183
4462000000.0 0.9498718086947153 -0.4860713372015889
4466000000.0 0.9391066580960947 -0.49466636297835176
4469000000.0 0.8959116307379749 -0.44757222671900154
4472000000.0 0.9016003003871899 -0.5116400675536642
4475000000.0 0.8531849164316733 -0.48072274081294897
4478000000.0 0.9072302452333041 -0.5359567828986872
4481000000.0 0.8402386923849854 -0.509489548976789
4484000000.0 0.8392176480682372 -0.5315135973911006
4488000000.0 0.8417731847836594 -0.5374724506176413
4491000000.0 0.8611074575449249 -0.5350496550368353
4494000000.0 0.8607839864117497 -0.5162345066782827
4497000000.0 0.8677154343082458 -0.543122852907933
4500000000.0 0.8529256942472245 -0.5557531223574443
4503000000.0 0.8648398787427221 -0.5640946824769435
4506000000.0 0.8203107046499116 -0.5669232364008961
4509000000.0 0.8302132472408985 -0.5440796030003809
4512000000.0 0.8055906200895915 -0.5942689544173116
4516000000.0 0.8330060904595032 -0.6072104427901399
4519000000.0 0.8252592237624308 -0.5787549122008423
4522000000.0 0.7996284487258691 -0.605400801899672
4525000000.0 0.8104937585720369 -0.5994796252913268
4528000000.0 0.8143446058411934 -0.6456147913953045
4531000000.0 0.7969279032892559 -0.6188606834831141
4534000000.0 0.786528268967941 -0.6373825046109644
4538000000.0 0.7871790166858956 -0.6454804059738842
4541000000.0 0.7367886967314752 -0.6680751133775232
4544000000.0 0.7588511340596036 -0.6559655566259847
4547000000.0 0.7731049431440619 -0.6558758832928668
4550000000.0 0.766251982205052 -0.7090028144313802
4553000000.0 0.7212579751810411 -0.6999304688912998
4556000000.0 0.7119503804600251 -0.6895652328092308
4559000000.0 0.7378398986797549 -0.711648959880864
4562000000.0 0.7344774328336385 -0.7053933468714371
4566000000.0 0.7170988704605792 -0.7143694949758319
4569000000.0 0.7051974111952811 -0.7025122796728658
4572000000.0 0.7161604021943141 -0.7152573450474153
4575000000.0 0.6931510275696167 -0.7432876581384446
4578000000.0 0.7180205618437088 -0.7352615706315463
4581000000.0 0.678278005191815 -0.7588618273055989
4584000000.0 0.6725073171304248 -0.7679474762274167
4588000000.0 0.6809390685854918 -0.7702194668027023
4591000000.0 0.6750548744870177 -0.7491099089421276
4594000000.0 0.6528693145533653 -0.7572178203207589
4597000000.0 0.6576293734768444 -0.8037177085112057
4600000000.0 0.6248846779003339 -0.784466462388945
4603000000.0 0.6343990232028741 -0.8000746400949944
4606000000.0 0.651546583519928 -0.7931750630182542
4609000000.0 0.6322578918754204 -0.7692925127341225
4612000000.0 0.6046347486035121 -0.810073419906417
4616000000.0 0.5901358476307768 -0.7865594425379582
4619000000.0 0.6085731541586091 -0.8194670264929983
4622000000.0 0.5875628169747613 -0.8241649331382114
4625000000.0 0.5630220634731486 -0.8327734913848455
4628000000.0 0.5944218101312169 -0.8415779125833615
4631000000.0 0.5565644409943331 -0.8484368963762419
4634000000.0 0.5412623735168142 -0.8330480031046331
4638000000.0 0.5698565233730882 -0.8550235206412287
4641000000.0 0.5529503523635955 -0.8607130591113369
4644000000.0 0.5339774564579274 -0.8527425287464668
4647000000.0 0.5317611881749442 -0.8545549328407649
4650000000.0 0.4941014363953897 -0.8614177348435947
4653000000.0 0.5370744963263528 -0.8794533362025716
4656000000.0 0.49882393900480093 -0.872113874489967
4659000000.0 0.49915751696297156 -0.875709237944782
4662000000.0 0.5078443481084596 -0.9155877284348963
4666000000.0 0.4958635911535676 -0.9159275993702178
4669000000.0 0.488284456962086 -0.9099560039536085
4672000000.0 0.450259132276082 -0.924695772157841
4675000000.0 0.4639285320342866 -0.9470616076243733
4678000000.0 0.4436522391584071 -0.9053494016886207
4681000000.0 0.4152143685052793 -0.9378882025045941
4684000000.0 0.4042380729316339 -0.9614503050109662
4688000000.0 0.4069233731128673 -0.9421292438241501
4691000000.0 0.4335283476197792 -0.9337806322125992
4694000000.0 0.42342568599016667 -0.9351234593094555
4697000000.0 0.3543067602400226 -0.8968259408163883
4700000000.0 0.39619393550568094 -0.9327629236863457
4703000000.0 0.4094838458110943 -0.8895848494393193
4706000000.0 0.37409954567218595 -0.9695595881601085
4709000000.0 0.35511846776941547 -0.9145102350772056
4712000000.0 0.3587863089448589 -0.9659210652382652
4716000000.0 0.34021525105033723 -0.9730740842557213
4719000000.0 0.3888776750712266 -0.9602072937801653
4722000000.0 0.35563930606022975 -0.9366149505459183
4725000000.0 0.3389882853360391 -0.9473106941789415
4728000000.0 0.29278298552639787 -0.9509449709238562
4731000000.0 0.33254275526940125 -0.9973002304768288
4734000000.0 0.34429690417245273 -0.958528269397919
4738000000.0 0.31122671833985627 -1.023563190170016
4741000000.0 0.28593899601870526 -1.0209424486771002
4744000000.0 0.2666820320621394 -0.99242324235121
4747000000.0 0.3059807758457543 -0.9520754898004048
4750000000.0 0.25953767464996613 -0.9826592044274702
4753000000.0 0.270862287329428 -0.9992428295281771
4756000000.0 0.22354691694366757 -1.0208312710277587
4759000000.0 0.2546878901174769 -0.9602582842703989
4762000000.0 0.19565988814724056 -1.0247055971412347
4766000000.0 0.24155077986435197 -1.0311865892712198
4769000000.0 0.17964910634767955 -1.0095806031450376
4772000000.0 0.2033925393285577 -1.0386201510459023
4775000000.0 0.15002039488331315 -1.0711041964774017
4778000000.0 0.1443246800765968 -1.0199055120832732
4781000000.0 0.17855143303502646 -0.9972291748553963
4784000000.0 0.19630815207423716 -1.0186376410470919
4788000000.0 0.13370530815330922 -1.0288613574173626
4791000000.0 0.1456251291502036 -1.0010202441165077
4794000000.0 0.15301828894847166 -1.0369656849612132
4797000000.0 0.09063835645596732 -1.0012039791802627
4800000000.0 0.10218631412637427 -1.001925570149744
4803000000.0 0.05454537137008314 -1.0245265116694635
4806000000.0 0.12794617564316174 -1.0175617666377046
4809000000.0 0.03277496035048755 -1.0144665547418317
4812000000.0 0.01815927750754176 -1.0079566083823428
4816000000.0 0.09053718718636268 -1.0044543609479757
4819000000.0 0.08090916924020802 -1.0428131187623642
4822000000.0 0.0647775873381555 -1.057396179323856
4825000000.0 0.0742473706396039 -1.0347715942314526
4828000000.0 -0.001844738257769929 -1.0295341985628506
4831000000.0 -0.008141868596115792 -1.042148538699479
4834000000.0 0.039971097183431406 -1.0284026741171453
4838000000.0 -0.023819932634077653 -1.0379618334589473
4841000000.0 -0.0435142953001557 -1.031390332523499
4844000000.0 0.006625954727952799 -1.0384974113487775
4847000000.0 0.0057806234049486704 -0.9984586272033147
4850000000.0 -0.041016969507274625 -1.0399317306878135
4853000000.0 -0.022222309442316623 -0.9987100887998972
4856000000.0 -0.06067051161835568 -1.0208161932180713
4859000000.0 -0.08529771619123386 -1.0505047111678758
4862000000.0 -0.01694721739112494 -1.0018281662175168
4866000000.0 -0.10464550540739392 -1.0434481197420715
4869000000.0 -0.08220917586869773 -1.0214296268890963
4872000000.0 -0.10753663637026385 -1.0405050904462776
4875000000.0 -0.06601027182283659 -1.0842043120941334
4878000000.0 -0.11338716959400685 -1.04519052890826
4881000000.0 -0.16199752159515307 -1.0973999205156577
4884000000.0 -0.13712259046832753 -1.0301188116389666
4888000000.0 -0.11486171088646867 -1.0203782363145872
4891000000.0 -0.12459264741631773 -1.0415404635968686
4894000000.0 -0.16593222895540513 -1.0305861685413042
4897000000.0 -0.13126582239305706 -1.0141077056153285
4900000000.0 -0.1886448268924965 -1.0243517555753157
4903000000.0 -0.15923939895357633 -1.0566641455194676
4906000000.0 -0.22694106584447193 -1.0411613482089555
4909000000.0 -0.2026965121419628 -1.040058915310605
4912000000.0 -0.24325897373525507 -1.051482215840187
4916000000.0 -0.2064881137125078 -1.0111991187940514
4919000000.0 -0.18217934714709316 -1.0318865456158335
4922000000.0 -0.19799222278756415 -0.9993309757802886
4925000000.0 -0.2930305279091052 -1.0076946053297777
4928000000.0 -0.21158555988771616 -1.0141986820441113
4931000000.0 -0.25358601477743176 -1.0423105062503455
4934000000.0 -0.25039832255394545 -0.9597660043296085
4938000000.0 -0.3200167094358154 -0.9929841109568173
4941000000.0 -0.2485523017294417 -0.9945049583393815
4944000000.0 -0.22859475123674108 -0.9282788503504265
4947000000.0 -0.28606711580689526 -0.9719183983136346
4950000000.0 -0.3056932822263941 -0.9891375696539637
4953000000.0 -0.3702203598013211 -1.0167022971519597
4956000000.0 -0.3290292186470389 -0.9910734782859394
4959000000.0 -0.38546366584392 -0.9502414010265847
4962000000.0 -0.37349253612063893 -0.9901401866682142
4966000000.0 -0.35377777588144776 -1.0091093411843108
4969000000.0 -0.3381486805089752 -1.0152533537841226
4972000000.0 -0.40420465152487195 -0.965666584745318
4975000000.0 -0.37671275541940563 -0.9687594751019272
4978000000.0 -0.4072947091378405 -0.9584374308047392
4981000000.0 -0.4196586328635634 -0.9521461961919041
4984000000.0 -0.3764316407018624 -0.945657149538586
4988000000.0 -0.39175776268299983 -0.9333720236269801
4991000000.0 -0.3880263489186963 -0.9792215803847993
4994000000.0 -0.4275454712254442 -0.9837263438258693
4997000000.0 -0.47779398197402406 -0.9137503425618257
5000000000.0 -0.44240518647693894 -0.9690398203481767
5003000000.0 -0.47021455423147457 -0.9754795782411355
5006000000.0 -0.5079542113972917 -0.9729507409212214
5009000000.0 -0.48504885416538157 -0.9401610972182501
5012000000.0 -0.4853869017359003 -0.9169656939981252
5016000000.0 -0.48325495952304326 -0.9767985695805024
5019000000.0 -0.5183700411899886 -0.895641294179371
5022000000.0 -0.5022939316696767 -0.9010155293381616
5025000000.0 -0.5412414063560183 -0.9275553618438573
5028000000.0 -0.5411692348121505 -0.8916968340213433
5031000000.0 -0.5420582282870512 -0.8948386045214728
5034000000.0 -0.5876226563421689 -0.9214329591456467
5038000000.0 -0.5485432976147272 -0.8623266391531011
5041000000.0 -0.5125329262586216 -0.9295536531256187
5044000000.0 -0.5408046983456924 -0.8828513386696032
5047000000.0 -0.5645020385808321 -0.8930928138951658
5050000000.0 -0.501797033293012 -0.9011106008803147
5053000000.0 -0.6087608395096176 -0.8736950374436478
5056000000.0 -0.5403791767774345 -0.8800287988598345
5059000000.0 -0.5579125211888185 -0.9115193534743572
5062000000.0 -0.6656667015158891 -0.8701310181147577
5066000000.0 -0.5912672798667736 -0.8935465106333591
5069000000.0 -0.621420452332833 -0.8649148302739863
5072000000.0 -0.5668654364506757 -0.8533725685976936
5075000000.0 -0.6038801298538089 -0.8295415949603371
5078000000.0 -0.6422000819671734 -0.7792204559848822
5081000000.0 -0.618155239071612 -0.7873213344413366
5084000000.0 -0.6776036839735984 -0.8292140196258455
5088000000.0 -0.6439581379667341 -0.8029687322508701
5091000000.0 -0.6813115619597052 -0.8181152754352397
5094000000.0 -0.6911620175606835 -0.7440556954240822
5097000000.0 -0.6703270456930229 -0.7731521420034313
5100000000.0 -0.7151325333714553 -0.7817613986564542
5103000000.0 -0.7493253198129141 -0.7515092379612027
5106000000.0 -0.7190780918167732 -0.7662726279317515
5109000000.0 -0.6582532326713932 -0.7934293381660777
5112000000.0 -0.7463988240930769 -0.7539015150572204
5116000000.0 -0.7423207087159734 -0.7261300087284981
5119000000.0 -0.7821300002493252 -0.7410222490848501
5122000000.0 -0.6853882508236329 -0.733647311776944
5125000000.0 -0.7127771198628537 -0.7305135558393842
5128000000.0 -0.7582112037216093 -0.7274933202201885
5131000000.0 -0.8068957346050654 -0.7447257480928129
5134000000.0 -0.7607490682126984 -0.6833264783829773
5138000000.0 -0.7866937088645244 -0.7132297373570402
5141000000.0 -0.716290009132879 -0.7561958991446083
5144000000.0 -0.7234547600069546 -0.6674626976668698
5147000000.0 -0.8215036845536089 -0.6909826930832214
5150000000.0 -0.7997978749817126 -0.6676969434397264
5153000000.0 -0.8233812092540442 -0.6688125167926618
5156000000.0 -0.7829176037746763 -0.6882976895980408
5159000000.0 -0.7970745290524321 -0.6661821083740527
5162000000.0 -0.83384766417499 -0.6128072721959263
5166000000.0 -0.7935535637115518 -0.6472955752446012
5169000000.0 -0.8345662234892148 -0.6566387808255207
5172000000.0 -0.8340498077441435 -0.6325910161168125
5175000000.0 -0.8360448875041053 -0.6495261907179425
5178000000.0 -0.8594107062318894 -0.6137115610228125
5181000000.0 -0.8160497508462756 -0.5947253204587265
5184000000.0 -0.8412296952039613 -0.6052948802894136
5188000000.0 -0.8975498728605358 -0.5824549368880563
