! Created with skrf 1.8.0 (http://scikit-rf.org).
# Hz S RI R 50.0 
!freq ReS11 ImS11
4000000000.0 0.6004488224017245 0.8307687930605063
4003000000.0 0.7267930501779083 0.8362134367267342
4006000000.0 0.6659279061254294 0.7844443142343597
4009000000.0 0.6467730405168641 0.8154702997875478
4012000000.0 0.6475582620221589 0.8704673863942668
4016000000.0 0.7614669026229367 0.7800055927444738
4019000000.0 0.6988530398891231 0.7993655559368267
4022000000.0 0.6061040516182231 0.8169295302234263
4025000000.0 0.7331830323251238 0.7715486500520646
4028000000.0 0.697513303303664 0.737836165779175
4031000000.0 0.7080548508235323 0.7279895105032335
4034000000.0 0.6986788987718584 0.7630033208963886
4038000000.0 0.7319645972055913 0.7348936489593625
4041000000.0 0.7121668406045241 0.7382903545235437
4044000000.0 0.7584593764169045 0.7333608461175303
4047000000.0 0.7802394256537052 0.7463798943546136
4050000000.0 0.7880428909783156 0.6848422541595153
4053000000.0 0.8058586288370195 0.6985202739061322
4056000000.0 0.7272840051014403 0.7252966429006283
4059000000.0 0.7751872504051089 0.6843820515740329
4062000000.0 0.7937792152257064 0.6550022236922279
4066000000.0 0.7102414939890289 0.6375017725278951
4069000000.0 0.8386924124653782 0.6836400770424578
4072000000.0 0.8168518034545694 0.6818455561973038
4075000000.0 0.8233141358395886 0.7083868139594682
4078000000.0 0.8136719217378886 0.6639072501741756
4081000000.0 0.773695642909532 0.7238278346795484
4084000000.0 0.8201791701227181 0.6409478720430657
4088000000.0 0.8033603103978858 0.6750354813330295
4091000000.0 0.838320946426639 0.6621679370427629
4094000000.0 0.8123664961893844 0.6531606731154959
4097000000.0 0.8284624954091919 0.6222904601337289
4100000000.0 0.8461604000550909 0.6189596495451073
4103000000.0 0.8522690231734407 0.6491861459814865
4106000000.0 0.8586686946560228 0.5782534984257374
4109000000.0 0.8226828066813603 0.5785971012676252
4112000000.0 0.8904842641912862 0.5512197647971926
4116000000.0 0.8469844250413149 0.6192386178168054
4119000000.0 0.8947683299398722 0.5605090562701049
4122000000.0 0.8788737887506088 0.574195824019689
4125000000.0 0.901180668307978 0.5298746725842856
4128000000.0 0.8325826239610817 0.511623201125061
4131000000.0 0.8759023251156229 0.49873676590697136
4134000000.0 0.8861794608150626 0.5159610230744317
4138000000.0 0.8725715202790603 0.48971238269296385
4141000000.0 0.8870671357578709 0.4899168468214896
4144000000.0 0.8843652288232442 0.5282148936213011
4147000000.0 0.9177546387083857 0.4617270462161374
4150000000.0 0.9062502832156807 0.4987945635786039
4153000000.0 0.9347295481396256 0.4925724289366271
4156000000.0 0.945701606312702 0.49759844240820095
4159000000.0 0.8927641110865634 0.47206476035301176
4162000000.0 0.8883285736466542 0.45922595609566896
4166000000.0 0.9433265282534742 0.4653393039091299
4169000000.0 0.9171337765305901 0.4324638912952996
4172000000.0 0.9366108179847042 0.4441974961156491
4175000000.0 0.9373151249748543 0.4597431125770198
4178000000.0 0.9380410865134869 0.4459951528976994
4181000000.0 0.9408940869726095 0.4067003658446229
4184000000.0 0.9496492684889594 0.4265242571052064
4188000000.0 0.9395215330793592 0.40956574057972883
4191000000.0 0.931389848507671 0.44463645845045124
4194000000.0 0.9254619880833045 0.37605129825894834
4197000000.0 0.9838108562765907 0.3859217235583365
4200000000.0 0.9564588279835449 0.37937487832794625
4203000000.0 0.9512031960076952 0.3978509620474455
4206000000.0 0.9896735455175816 0.3739732617757539
4209000000.0 0.9503765149562512 0.3515167028316289
4212000000.0 0.970639988301293 0.3185917087656277
4216000000.0 0.969454011404266 0.3666686537863862
4219000000.0 0.9716344374300692 0.3510336099687378
4222000000.0 0.9596519067120857 0.3072914438510695
4225000000.0 0.970611312106022 0.2998642511767514
4228000000.0 0.9852512455604947 0.29899209112959
4231000000.0 0.9870669689233805 0.29960891884601704
4234000000.0 1.0202252705862738 0.2859212398652904
4238000000.0 0.9943015120126047 0.2607095402549422
4241000000.0 0.9891441582583453 0.2685604772250614
4244000000.0 0.9832851586481179 0.26757948095764617
4247000000.0 0.9836689247754556 0.2597549106373992
4250000000.0 0.9755008926728077 0.23952282587939022
4253000000.0 0.9797481723652919 0.2245698743763732
4256000000.0 1.0130515937714106 0.22106061922597675
4259000000.0 0.9731745364515078 0.20346240300807802
4262000000.0 0.9827763592889032 0.18954053191490397
4266000000.0 0.9933336157173375 0.1847382629332182
4269000000.0 1.0123785531080642 0.20173855244004082
4272000000.0 0.992780912618987 0.15462490512973143
4275000000.0 1.0197823851211487 0.18678523828598453
4278000000.0 1.0223557656874702 0.17147081480097115
4281000000.0 1.0136710477955884 0.15640946109056336
4284000000.0 1.0151202398927635 0.1334459034268236
4288000000.0 0.9854728188679281 0.16575401001526746
4291000000.0 0.9766089307143553 0.12529543525680287
4294000000.0 1.0066052392707185 0.11388518857765968
4297000000.0 0.9840827519188341 0.14325985350387238
4300000000.0 1.0049997197556002 0.12887590358069506
4303000000.0 1.0172454318770987 0.08338705724725838
4306000000.0 1.0033437471800926 0.12966128549307765
4309000000.0 0.9969532171950102 0.08110389898782101
4312000000.0 1.0028304421802747 0.14959361736469678
4316000000.0 1.042535380627603 0.07462226667222437
4319000000.0 1.006241491289371 0.08296870501550031
4322000000.0 1.0145883506663007 0.02710686585656276
4325000000.0 1.026409145580872 0.05713963807701304
4328000000.0 0.9998515450100911 0.029117178128691926
4331000000.0 1.020522260749383 -0.003658684897637668
4334000000.0 1.041289104313001 -0.006079623376380322
4338000000.0 1.0300720099927054 0.025851001663561288
4341000000.0 1.0157249536868247 0.03270371916310541
4344000000.0 1.0317406338620558 -0.0012248330337077673
4347000000.0 1.0463696530950597 -0.06250692827087351
4350000000.0 0.9782193223002458 -0.023110963758927128
4353000000.0 0.9925348159178449 -0.008287819770926158
4356000000.0 0.9915390121086856 -0.08360483412908663
4359000000.0 0.965093246721042 -0.03947941905299954
4362000000.0 1.0175176675929671 -0.11445419904890307
4366000000.0 1.027787229576331 -0.06284521471949384
4369000000.0 0.9696107950189671 -0.07728496226136158
4372000000.0 1.0059037274490634 -0.1450159346349521
4375000000.0 1.015353980472597 -0.08411817139020049
4378000000.0 0.9747712210558945 -0.09188898327408106
4381000000.0 0.9968790790098971 -0.12613672002590987
4384000000.0 1.0562306619711008 -0.13830335419381878
4388000000.0 0.9842681984942548 -0.1272158799519487
4391000000.0 1.018256795897063 -0.15296503449796395
4394000000.0 0.970635357707001 -0.15606925029563012
4397000000.0 1.0032586300931647 -0.1611705816792068
4400000000.0 1.0269008680393634 -0.1926377372757549
4403000000.0 0.9982685584192663 -0.1839640093676012
4406000000.0 0.988454150894614 -0.20575316563374038
4409000000.0 1.0100354041612742 -0.20117970428649784
4412000000.0 0.9664415370105724 -0.2605707354296779
4416000000.0 0.9754318724393525 -0.22113243394565063
4419000000.0 0.9759945745282502 -0.2331083664763633
4422000000.0 0.9769452983904614 -0.21211494009303059
4425000000.0 0.9949068004865994 -0.22835484927024163
4428000000.0 0.9935359238560322 -0.2609108049601464
4431000000.0 1.002174397260434 -0.2472048442130901
4434000000.0 0.9717672060426453 -0.2769849169591218
4438000000.0 1.0038303812850728 -0.2967164528000565
4441000000.0 0.9943766090969115 -0.28329748399537635
4444000000.0 0.9557018321988433 -0.2803751127889037
4447000000.0 0.954193092467043 -0.3099385582451896
4450000000.0 0.9533975627623369 -0.2985681599496691
4453000000.0 0.9887045044051442 -0.3172240659198863
4456000000.0 0.9257427026444006 -0.3141710605006146
4459000000.0 0.9097583095085537 -0.34033532704902425
4462000000.0 0.9964275316908238 -0.3573802192449905
4466000000.0 0.9949666771263838 -0.3747180606049063
4469000000.0 0.9593543368327161 -0.35151518828623807
4472000000.0 0.9427564369173422 -0.3952240237967829
4475000000.0 0.9218825712346712 -0.3702974771538259
4478000000.0 0.9736360142014343 -0.4271270661340747
4481000000.0 0.9069825613565415 -0.4078379277056703
4484000000.0 0.9120277241172965 -0.4558498633017549
4488000000.0 0.9049193727062135 -0.41478057732363066
4491000000.0 0.9294428769788314 -0.43138148368570617
4494000000.0 0.9160168244785419 -0.42790589986469874
4497000000.0 0.9204517777881465 -0.4221627217789075
4500000000.0 0.9020154591166969 -0.42843669134603024
4503000000.0 0.9250334191822946 -0.45205627211576765
4506000000.0 0.8900610041633752 -0.4425543986744302
4509000000.0 0.8824734571253996 -0.4781189509302253
4512000000.0 0.8790622299550294 -0.47534166451092397
4516000000.0 0.90691824496249 -0.49064731914466636
4519000000.0 0.8695078873862389 -0.47130850011207515
4522000000.0 0.8705847754583824 -0.49583126239616926
4525000000.0 0.8902442539316446 -0.48770730239603544
4528000000.0 0.8819122452066839 -0.5224683194383615
4531000000.0 0.8816541367074602 -0.5055372979710908
4534000000.0 0.8550659331607292 -0.5214297727045739
4538000000.0 0.839297657462823 -0.5466285423897382
4541000000.0 0.8205778171943735 -0.5531094497582584
4544000000.0 0.8227395481533659 -0.5419341471947826
4547000000.0 0.8503340943512555 -0.5334806895625723
4550000000.0 0.8396052815547321 -0.5743386167531033
4553000000.0 0.8284742119903519 -0.5670840558907884
4556000000.0 0.7952280286511573 -0.5868866809702926
4559000000.0 0.8193757752323322 -0.5860616269841032
4562000000.0 0.8340567301543205 -0.6070353886674638
4566000000.0 0.818215902804206 -0.6102732261223394
4569000000.0 0.796492699789078 -0.6193282276908028
4572000000.0 0.8019277311331299 -0.6151411725638531
4575000000.0 0.7915562203161828 -0.6414045966803805
4578000000.0 0.8035584207110551 -0.6298315083275604
4581000000.0 0.7950162613374714 -0.6498395932113852
4584000000.0 0.7687040603117159 -0.6371801058655768
4588000000.0 0.789722787091953 -0.6880265823143187
4591000000.0 0.7697639131896921 -0.6469224443911972
4594000000.0 0.7483748901726026 -0.6776552042143522
4597000000.0 0.7540104705227475 -0.6906818789371826
4600000000.0 0.7222421808327826 -0.7039590937717679
4603000000.0 0.7474191019016412 -0.6986771597052436
4606000000.0 0.759851771133066 -0.7092774686714283
4609000000.0 0.736134238923873 -0.7011892167178181
4612000000.0 0.7350732171486415 -0.7077906858437546
4616000000.0 0.7045562357374264 -0.7117656754619016
4619000000.0 0.714742967135407 -0.7132760363718651
4622000000.0 0.719838868186545 -0.7334871176907216
4625000000.0 0.6690505498686142 -0.7175734408773775
4628000000.0 0.7096076983771195 -0.72109976886602
4631000000.0 0.6629656552323535 -0.7599844516735546
4634000000.0 0.6678461661832034 -0.7542529617340602
4638000000.0 0.6746483995688323 -0.7756659340991054
4641000000.0 0.6669685877906667 -0.7550181443582288
4644000000.0 0.6566944633616472 -0.7876976704788207
4647000000.0 0.6600175718027985 -0.7952256190247151
4650000000.0 0.6330618265337847 -0.7918357838694994
4653000000.0 0.6534423890027918 -0.810366414874026
4656000000.0 0.6353785741647098 -0.7932975681722931
4659000000.0 0.6332846877069709 -0.7954018642394871
4662000000.0 0.6303886202897077 -0.8283470012683942
4666000000.0 0.5964522079076378 -0.8152890686387433
4669000000.0 0.5893183821221257 -0.8075131045418644
4672000000.0 0.5911685182681264 -0.8376871435824775
4675000000.0 0.5916067089787918 -0.8443718823466912
4678000000.0 0.5847766805792054 -0.8345486217048701
4681000000.0 0.5519849372433774 -0.8673232721146494
4684000000.0 0.5575701292095333 -0.8586786475732112
4688000000.0 0.5446929733476754 -0.8414100028412693
4691000000.0 0.5838048272807924 -0.8736585033864668
4694000000.0 0.54684754708353 -0.850943185475006
4697000000.0 0.49790331221632583 -0.8516095905093846
4700000000.0 0.5516046105535025 -0.8580292149212481
4703000000.0 0.5337850967460462 -0.8267051390361622
4706000000.0 0.4864418777000354 -0.8975286253721289
4709000000.0 0.4848333340624727 -0.866928903177362
4712000000.0 0.5064339109371896 -0.8982449228367767
4716000000.0 0.5099090338413589 -0.8913137027891371
4719000000.0 0.4814489122745791 -0.8924971725335615
4722000000.0 0.5139613921905184 -0.9035295328678221
4725000000.0 0.4936346910606954 -0.9103306842014983
4728000000.0 0.46591451054842625 -0.9080876914248017
4731000000.0 0.5042898733185426 -0.967056028986218
4734000000.0 0.44372511168129813 -0.893692576969817
4738000000.0 0.46291715572099434 -0.9377287267777188
4741000000.0 0.4350116521277255 -0.975348163175966
4744000000.0 0.386370481763093 -0.9648213204815307
4747000000.0 0.442791861540279 -0.9380806991268044
4750000000.0 0.40834326272465277 -0.9590367555590518
4753000000.0 0.4601018453200548 -0.954661041620276
4756000000.0 0.40206896005859233 -0.9577504981322833
4759000000.0 0.39559666800237375 -0.9721157201569699
4762000000.0 0.3865051716278546 -0.9977616646359259
4766000000.0 0.38318513789235026 -0.9578422593644795
4769000000.0 0.3679373562441923 -0.9480943341699929
4772000000.0 0.35661912519585437 -0.9884791911473977
4775000000.0 0.3436911627228063 -0.9923824809977819
4778000000.0 0.3592344434907069 -0.9781054100111887
4781000000.0 0.35480701163608697 -0.9661652509853267
4784000000.0 0.3513877497541402 -0.9585799032271102
4788000000.0 0.3068275063548973 -1.0066654170262266
4791000000.0 0.30440413247648634 -0.9776231541389325
4794000000.0 0.32130061565872614 -1.0114494746495093
4797000000.0 0.303960691963465 -0.9831138255243185
4800000000.0 0.28916795132482076 -0.9682104744109932
4803000000.0 0.2298972436522798 -0.9739764602630829
4806000000.0 0.2649455232379101 -1.004377613977737
4809000000.0 0.20693696679659784 -1.0118240470514879
4812000000.0 0.22634483882976214 -1.002356397158682
4816000000.0 0.26558228774388226 -0.9736523708536458
4819000000.0 0.24992580276079024 -1.0033155448621545
4822000000.0 0.25110631131466976 -1.0085597920729685
4825000000.0 0.24096582195260724 -1.0052915935921314
4828000000.0 0.200434739514736 -1.0059374211375482
4831000000.0 0.1631976037566515 -1.0377698829907818
4834000000.0 0.18864619354303375 -1.0087561429243044
4838000000.0 0.18131725460840692 -1.0239894637743079
4841000000.0 0.14165768783230073 -1.006787405972625
4844000000.0 0.2110395894772612 -1.0061958392374795
4847000000.0 0.1794067133951361 -0.9718045916329385
4850000000.0 0.14066173444912655 -1.0418012219942523
4853000000.0 0.142879225194322 -0.9930578436701658
4856000000.0 0.12006780822944496 -1.010843456534971
4859000000.0 0.10047820193343984 -1.0737797392342183
4862000000.0 0.1388104121398861 -1.0033707560676886
4866000000.0 0.09198905026635278 -1.039793338019426
4869000000.0 0.10108658830927503 -1.033040561096574
4872000000.0 0.06491813769567524 -1.0772922189142655
4875000000.0 0.1246662160563017 -1.0767033971431126
4878000000.0 0.07746969383540367 -1.025175721027258
4881000000.0 0.044627023665479354 -1.0940611371051332
4884000000.0 0.06706278065136231 -1.0453352404685488
4888000000.0 0.06334655538158661 -1.0418517041113
4891000000.0 0.05398213785567863 -1.0413520650492605
4894000000.0 0.019990618061810933 -1.0185436834149177
4897000000.0 0.026755512679927474 -1.046121630126869
4900000000.0 0.009066171320252975 -1.0298497525797754
4903000000.0 0.018975703720209142 -1.0463919220361206
4906000000.0 -0.017200351436027925 -1.0754695519762447
4909000000.0 -0.022784906751036497 -1.0540037393488377
4912000000.0 -0.033309647831014116 -1.061606363738282
4916000000.0 -0.012601031360910286 -1.064913426692538
4919000000.0 0.006509968297255003 -1.0861201655694575
4922000000.0 0.0036769220712908196 -1.0548518304035202
4925000000.0 -0.06433294274371675 -1.0188110120398686
4928000000.0 -0.013018215172426142 -1.0229104870207537
4931000000.0 -0.004037253947623498 -1.0435618844646142
4934000000.0 -0.07151059444947745 -0.9874743808405277
4938000000.0 -0.0841888856730477 -1.0271379544924615
4941000000.0 -0.06932460793583818 -1.0057839817493375
4944000000.0 -0.09314245124960813 -0.972574529277354
4947000000.0 -0.10640315992355176 -1.0123393049640979
4950000000.0 -0.12341370059615335 -0.9788074154711336
4953000000.0 -0.15413069115027422 -1.0731498908848487
4956000000.0 -0.14835725161431912 -1.0575867551572926
4959000000.0 -0.17503024083801558 -0.9970164825818801
4962000000.0 -0.14726576614251533 -1.043810090892467
4966000000.0 -0.16748158069067115 -1.0675642451728804
4969000000.0 -0.15491668978420614 -1.0686758745934686
4972000000.0 -0.20776630383110808 -1.0444064384099527
4975000000.0 -0.16578931679846035 -1.0365915564300967
4978000000.0 -0.20651164478734063 -1.0357850666904835
4981000000.0 -0.22111040299193005 -1.0125270346914446
4984000000.0 -0.19652560081161688 -0.9996121874882794
4988000000.0 -0.2335440024701702 -1.0180918126977605
4991000000.0 -0.17706134472118656 -1.0119485794982097
4994000000.0 -0.1966590541463884 -1.0237653551296912
4997000000.0 -0.2785463600109977 -0.9746167722749365
5000000000.0 -0.22901612809416527 -1.0324403582561046
5003000000.0 -0.2719434540500599 -1.0503269353080076
5006000000.0 -0.27765822889477487 -1.0512306737045276
5009000000.0 -0.2833949883748761 -1.012767172117858
5012000000.0 -0.30651261745688646 -0.9798685201690112
5016000000.0 -0.27522694525163766 -1.0599210205366278
5019000000.0 -0.3136999989516316 -0.9558454018897351
5022000000.0 -0.29345601055183956 -1.0053977058424823
5025000000.0 -0.3487584595403547 -1.0549261434112025
5028000000.0 -0.33580959106626107 -0.9882301239139946
5031000000.0 -0.3412355208966473 -1.0012204484383689
5034000000.0 -0.37543327578616514 -0.9953145752414656
5038000000.0 -0.35654084098865113 -0.9392655257192501
5041000000.0 -0.31928829900911426 -1.0081058382686585
5044000000.0 -0.3432353005640296 -0.9908333559538919
5047000000.0 -0.3375124595643451 -1.0098965092383012
5050000000.0 -0.302008821740967 -0.9898959348381722
5053000000.0 -0.41307099859028884 -0.9940577966767512
5056000000.0 -0.3774995084765287 -0.962058886934763
5059000000.0 -0.3602406995945932 -0.9878575722611019
5062000000.0 -0.4300955634095407 -0.9655481416361889
5066000000.0 -0.40639317144039677 -0.9593132279099819
5069000000.0 -0.4326723348705007 -0.9684479118181798
5072000000.0 -0.41216946990125103 -0.9122563605544616
5075000000.0 -0.38922194020555156 -0.9819942795571248
5078000000.0 -0.4631788790647657 -0.9411664421548
5081000000.0 -0.4496053626299396 -0.9342703692791824
5084000000.0 -0.4911438478300246 -0.9245957295876208
5088000000.0 -0.4132884068986587 -0.9446927259281979
5091000000.0 -0.5233246456208596 -0.9184051231696682
5094000000.0 -0.4776124955024517 -0.9170498022063777
5097000000.0 -0.4342005085788746 -0.9621967187117229
5100000000.0 -0.47565422837393273 -0.9415617806073638
5103000000.0 -0.5598087504000435 -0.869628640834946
5106000000.0 -0.5663442464896358 -0.9226594815461802
5109000000.0 -0.4755361856656616 -0.9100112937515923
5112000000.0 -0.5579365712308292 -0.9153845925608186
5116000000.0 -0.5355481743060344 -0.851011782750013
5119000000.0 -0.5168956265670186 -0.9022613470376837
5122000000.0 -0.5290865967598329 -0.884858902605939
5125000000.0 -0.48889210147017836 -0.9061176011117552
5128000000.0 -0.568230182629121 -0.8801499937962849
5131000000.0 -0.5679104450387855 -0.8562800970981735
5134000000.0 -0.5675787563853851 -0.8513433441133471
5138000000.0 -0.5854668070306883 -0.8907458072379895
5141000000.0 -0.5284139698931627 -0.9440100260613484
5144000000.0 -0.6092193103747674 -0.8609354887146524
5147000000.0 -0.6195448250639539 -0.8890542456589504
5150000000.0 -0.5503170141806784 -0.8577722772228944
5153000000.0 -0.5940188487268103 -0.8611084249626076
5156000000.0 -0.6077941208224807 -0.8673512648140905
5159000000.0 -0.6350485890123344 -0.8883902020558249
5162000000.0 -0.6726267224561416 -0.8052509200470679
5166000000.0 -0.6999062951826883 -0.8041159438079302
5169000000.0 -0.6042448593206282 -0.8111905093458742
5172000000.0 -0.6375117499561267 -0.8185475276606782
5175000000.0 -0.6741101240260093 -0.8474361788065861
5178000000.0 -0.6910746398602468 -0.7900899074309522
5181000000.0 -0.6610642720644825 -0.8563052886931443
5184000000.0 -0.679635867235765 -0.7994871019534404
5188000000.0 -0.6622496372085089 -0.8121680788184441
