! Created with skrf 1.8.0 (http://scikit-rf.org).
# Hz S RI R 50.0 
!freq ReS11 ImS11
4000000000.0 0.6388529763612899 0.8187475273202924
4003000000.0 0.6918979462519769 0.8203737090067122
4006000000.0 0.7427997208924819 0.7459635645604835
4009000000.0 0.6855620003563878 0.7954471117893325
4012000000.0 0.6713159456913249 0.8185267947573527
4016000000.0 0.7310320305902912 0.7767443480382232
4019000000.0 0.7537768629068027 0.7831226957946376
4022000000.0 0.6946093061303578 0.8048850761484844
4025000000.0 0.7924301299353989 0.7527074826093112
4028000000.0 0.7686144470007503 0.7226423234720305
4031000000.0 0.7211391242675513 0.7046964225129408
4034000000.0 0.7492400642158692 0.7305155406053242
4038000000.0 0.7660491661164611 0.7616378330541577
4041000000.0 0.7423551532299371 0.7442269162051526
4044000000.0 0.8067831334208744 0.7844644291615375
4047000000.0 0.7795694742963729 0.7868396050883922
4050000000.0 0.8022238695425872 0.6893053791297982
4053000000.0 0.7875759367271536 0.6746432493199794
4056000000.0 0.785427169934548 0.6844775572820383
4059000000.0 0.8081028875065284 0.6764155161448104
4062000000.0 0.8158854015817725 0.6924373248586604
4066000000.0 0.7466212580326168 0.615179239091159
4069000000.0 0.856419276409186 0.6600636049838703
4072000000.0 0.7898558185779365 0.6792822555855695
4075000000.0 0.8007196086769941 0.6935136424114985
4078000000.0 0.841192200098328 0.6426497929063245
4081000000.0 0.8120960000256798 0.6857880168378441
4084000000.0 0.8851486647631157 0.6493608577793595
4088000000.0 0.821790580918138 0.6588353980904949
4091000000.0 0.8845771838785184 0.6511705675400801
4094000000.0 0.8247776393213352 0.592731790743827
4097000000.0 0.837599616517758 0.5824120866828211
4100000000.0 0.8746207422837727 0.5835982471316674
4103000000.0 0.8556844296621084 0.6377758592307798
4106000000.0 0.8910544908703559 0.5704493732577042
4109000000.0 0.9189465298578334 0.6042268366656061
4112000000.0 0.8730731876365698 0.574698991284071
4116000000.0 0.8856798597743563 0.5669431680837901
4119000000.0 0.9094904109316306 0.5772562229126382
4122000000.0 0.917395786930258 0.5162749971308926
4125000000.0 0.9598416781985487 0.537020428171088
4128000000.0 0.8786263136066917 0.5515463589563148
4131000000.0 0.8951038857440607 0.545828418028028
4134000000.0 0.9025871762445318 0.5121486674173541
4138000000.0 0.9116323842244562 0.47584505773600266
4141000000.0 0.9140144297991459 0.4546129986109283
4144000000.0 0.928297640115088 0.52669365929584
4147000000.0 0.9412163273858204 0.46328157964213296
4150000000.0 0.9789036738435912 0.4806294550736711
4153000000.0 0.9273226010394119 0.45716297173411147
4156000000.0 0.9304342224355364 0.5154043878626003
4159000000.0 0.9167105394014872 0.4459415634395573
4162000000.0 0.9352362559460845 0.4528509241152453
4166000000.0 0.9513018596968559 0.44481729527236935
4169000000.0 0.978098419959232 0.4146547753021754
4172000000.0 0.9672495262285267 0.4330175078287885
4175000000.0 0.9378683396433566 0.43886374492155183
4178000000.0 0.9808620339781804 0.4000874243095289
4181000000.0 0.9593993855643368 0.38731238656101197
4184000000.0 0.9483049663584047 0.40680185127079577
4188000000.0 0.9673188147294762 0.3608971177451641
4191000000.0 0.9543430057176506 0.42686702884360866
4194000000.0 0.9565146814149624 0.3579403721168072
4197000000.0 0.9801697501680788 0.38757670822942974
4200000000.0 0.9767457696886495 0.3825398357649328
4203000000.0 0.9814529972132662 0.3572085735334547
4206000000.0 0.9818660219052714 0.3325247671628779
4209000000.0 0.9607990779005583 0.3295332641876137
4212000000.0 0.9889150207021691 0.30234755524842605
4216000000.0 0.9861791819509689 0.3197416579993238
4219000000.0 0.9977264736491147 0.32032342503086886
4222000000.0 0.9925788467689332 0.2752600105484353
4225000000.0 0.9716583586300809 0.2920141066063302
4228000000.0 1.0002417120848681 0.2993687167144006
4231000000.0 0.9970896843627558 0.25873354153639533
4234000000.0 1.0093297918389623 0.26448284035421865
4238000000.0 1.0073500094926962 0.2417714087689353
4241000000.0 0.9982021789599891 0.22911739922495827
4244000000.0 0.9944839597240197 0.2476946906106935
4247000000.0 0.9876312664350553 0.2301215547224681
4250000000.0 0.9731381119726588 0.1995599944057539
4253000000.0 0.9810783408526162 0.20474130500171744
4256000000.0 1.03098531731454 0.21428603038206678
4259000000.0 0.9869041318801455 0.17813320616797404
4262000000.0 1.0073358103151626 0.16396771112688216
4266000000.0 1.0266188528110731 0.15311035304579473
4269000000.0 1.0210774916526137 0.19586957253295192
4272000000.0 0.9790719743779205 0.17309142286971968
4275000000.0 1.0218876704497213 0.1657581657447113
4278000000.0 1.0401665815168575 0.13061831074944394
4281000000.0 1.017852866789336 0.1331536267459945
4284000000.0 1.0168465848972221 0.1048105733358497
4288000000.0 1.039032992046049 0.14442483376288334
4291000000.0 0.9795862860170084 0.09064431055924115
4294000000.0 1.0056793756391944 0.09582918900300084
4297000000.0 1.0064304676686 0.1153532993855939
4300000000.0 1.028875340499088 0.09112049239107997
4303000000.0 1.0169680964167167 0.06348170419139508
4306000000.0 1.0098456120479016 0.11424226206335716
4309000000.0 1.0256290258425007 0.068076498774065
4312000000.0 1.0272669546189972 0.06749120901882871
4316000000.0 1.0129184023515667 0.04650504575933183
4319000000.0 1.0198433699259195 0.019391825083818023
4322000000.0 0.988985536472615 0.0015320931640917385
4325000000.0 1.0111200682219212 0.024149268083112005
4328000000.0 1.0051854332101773 0.0018546461322196534
4331000000.0 1.0181161041459768 -0.026657028692764345
4334000000.0 1.021961099867639 -0.019212442998596133
4338000000.0 1.014404969408126 0.019425159978767495
4341000000.0 1.0677342882130751 0.0051818289296935716
4344000000.0 1.0240214741992 -0.047676387337286935
4347000000.0 1.0224451650370572 -0.07859841782041843
4350000000.0 0.9864028925320376 -0.08456201642614591
4353000000.0 1.0023337575901723 -0.04204622694904281
4356000000.0 1.0074762797333965 -0.10062929866585063
4359000000.0 0.976278840876022 -0.07276233589659092
4362000000.0 1.0207135876863518 -0.14564469733810165
4366000000.0 1.053825684149724 -0.10726487165247292
4369000000.0 0.9862625420071821 -0.09579092637157843
4372000000.0 0.9981353570150082 -0.15035405582537575
4375000000.0 1.0133709846219288 -0.12594459030823218
4378000000.0 0.9858910195704877 -0.12231367821735528
4381000000.0 0.981480636238963 -0.13004087540403308
4384000000.0 1.0514154528673914 -0.16963763519993977
4388000000.0 0.988605784701079 -0.16081664698461176
4391000000.0 1.0180850545420554 -0.17389252508675695
4394000000.0 0.9814426895820164 -0.1711997768718989
4397000000.0 1.0001122909359197 -0.20660212257584293
4400000000.0 1.0125909138162033 -0.20290885534958125
4403000000.0 1.008122192936015 -0.2064341094287227
4406000000.0 0.9946459612530356 -0.24211034803511788
4409000000.0 1.020042485513317 -0.2325681428989952
4412000000.0 0.9764987234318766 -0.2840645637898682
4416000000.0 0.971701862857083 -0.25090788359857263
4419000000.0 0.9876268625929636 -0.27382311978640916
4422000000.0 0.9901275970154924 -0.24394118653260838
4425000000.0 1.0151750622388465 -0.2618488323122622
4428000000.0 0.9796798775932039 -0.2886162102421845
4431000000.0 1.0179447255448755 -0.2848709170515764
4434000000.0 0.9711511190761433 -0.298530763712322
4438000000.0 0.9837382086018731 -0.3062757707200341
4441000000.0 0.9932093829715127 -0.31393438463960044
4444000000.0 0.9345749269709192 -0.3069862813942188
4447000000.0 0.9551697298262423 -0.34573705032199015
4450000000.0 0.9592929770864934 -0.325118240674529
4453000000.0 0.9810664796323287 -0.35019368101177195
4456000000.0 0.926045470061275 -0.35769750918978815
4459000000.0 0.8997079769298171 -0.36522642378972126
4462000000.0 0.9926576983610524 -0.41227384701090036
4466000000.0 0.9814319341016685 -0.3963690471797594
4469000000.0 0.9618780324157491 -0.3792935474214695
4472000000.0 0.9664973335349283 -0.42433304535400873
4475000000.0 0.9180097709249884 -0.38411725577958133
4478000000.0 0.967439387034414 -0.45687053525614507
4481000000.0 0.8977417818850846 -0.42581745011610866
4484000000.0 0.9087755831618181 -0.4791590185946558
4488000000.0 0.906955560242444 -0.4370568421035477
4491000000.0 0.9266410113588256 -0.4605267720948708
4494000000.0 0.9005486342179518 -0.4425122202106367
4497000000.0 0.912662010637679 -0.45262260567608853
4500000000.0 0.896900741178517 -0.46872158653790036
4503000000.0 0.9100628335819076 -0.48206624228376005
4506000000.0 0.8768737358746912 -0.49149844893371736
4509000000.0 0.8745914560770367 -0.4780768423945344
4512000000.0 0.8644834329537734 -0.5122582035727743
4516000000.0 0.9106958905510604 -0.5350890563770404
4519000000.0 0.845790439783329 -0.5047166001293412
4522000000.0 0.8486643902895215 -0.5252199446479467
4525000000.0 0.8853516659941276 -0.506542638621488
4528000000.0 0.8980794593184056 -0.5570746928233251
4531000000.0 0.8725745447622358 -0.5404377695494482
4534000000.0 0.8297952662175744 -0.5501807705973077
4538000000.0 0.8489317600987727 -0.5724684722509897
4541000000.0 0.8072265815003464 -0.5837797882273061
4544000000.0 0.8268142139406407 -0.5720799082802844
4547000000.0 0.8293177349534727 -0.5511828556098095
4550000000.0 0.8111199610983897 -0.6190304297630878
4553000000.0 0.8243013215893917 -0.6236716795335493
4556000000.0 0.7951932295832302 -0.6029007589200186
4559000000.0 0.8103404705313159 -0.6258552999107472
4562000000.0 0.8177676372414509 -0.6120537175419084
4566000000.0 0.7956277605427855 -0.6323868726435158
4569000000.0 0.7752355824284162 -0.6508694533320443
4572000000.0 0.7846429018950665 -0.6397736776977809
4575000000.0 0.7641403851879469 -0.6771417681143111
4578000000.0 0.7984208491052671 -0.6777401493147996
4581000000.0 0.7689104311316372 -0.6788842721184883
4584000000.0 0.7405819659405469 -0.6651548101568504
4588000000.0 0.7718444696798197 -0.7049220951806998
4591000000.0 0.7721762463009609 -0.6883444544945639
4594000000.0 0.7320892826399621 -0.7289212364687272
4597000000.0 0.7440804944713142 -0.7053586295776978
4600000000.0 0.7142607609763089 -0.7226339808893142
4603000000.0 0.726371816797063 -0.7283500255035633
4606000000.0 0.7255307362593613 -0.7257711406786436
4609000000.0 0.7133371928034784 -0.7344210746017427
4612000000.0 0.7128056626831525 -0.75062064134095
4616000000.0 0.7116312208376072 -0.7264446140204823
4619000000.0 0.6859182936409092 -0.7388254316176236
4622000000.0 0.7013561411252288 -0.7581153512139641
4625000000.0 0.6674525222247237 -0.7427890985763055
4628000000.0 0.676159673367278 -0.749968752451714
4631000000.0 0.6592679646657065 -0.7870426653736032
4634000000.0 0.65584548079436 -0.7734024761087277
4638000000.0 0.6618364839311791 -0.7771398968848187
4641000000.0 0.6464681667963922 -0.7934075936421378
4644000000.0 0.6275562272006701 -0.7811994848710747
4647000000.0 0.6352592723297434 -0.7935240384125626
4650000000.0 0.610444126418971 -0.7933491176299687
4653000000.0 0.6452277334513332 -0.8229961258555945
4656000000.0 0.6037618958634161 -0.8079885619949609
4659000000.0 0.5942952486582235 -0.8432990791391944
4662000000.0 0.6047765635158561 -0.8517310003396866
4666000000.0 0.5732973269968391 -0.8486431712242373
4669000000.0 0.5773500569343841 -0.8370313772083572
4672000000.0 0.565495417147012 -0.8631416007091827
4675000000.0 0.5782080539616106 -0.8556085910869762
4678000000.0 0.5538320909518915 -0.8276344417646933
4681000000.0 0.536747668789241 -0.8840306673065746
4684000000.0 0.520809155510048 -0.8858526804806768
4688000000.0 0.5129045948026905 -0.8729788168695503
4691000000.0 0.5351875957190343 -0.8881071241794372
4694000000.0 0.5257261246671348 -0.8766905846650295
4697000000.0 0.4631611472552275 -0.847718287064235
4700000000.0 0.5174954569707085 -0.881782625182647
4703000000.0 0.5150305657499276 -0.8587121382559266
4706000000.0 0.49103702831348106 -0.9154567331216624
4709000000.0 0.47819666690272583 -0.9096578956585767
4712000000.0 0.476684828991941 -0.912943561126968
4716000000.0 0.4483074155282425 -0.9030298916879704
4719000000.0 0.5069418513750334 -0.9071130100852901
4722000000.0 0.4872383681663556 -0.8934656906850951
4725000000.0 0.47201218833425734 -0.9143269159916458
4728000000.0 0.428641533432459 -0.9284042087553663
4731000000.0 0.4581532362955777 -0.981296196443024
4734000000.0 0.4464821949855066 -0.9296271293480637
4738000000.0 0.43744619660827977 -1.00449524508284
4741000000.0 0.40267518255643864 -0.9816121171791987
4744000000.0 0.38789750137178974 -0.9657567186101191
4747000000.0 0.4175743359862753 -0.9111512132179876
4750000000.0 0.38327848684028054 -0.9851022212541043
4753000000.0 0.3989602415028999 -0.9553652928576163
4756000000.0 0.3319175373637737 -0.9672281104005671
4759000000.0 0.3595844838825189 -0.9767362851441588
4762000000.0 0.30874370987988004 -0.9919122914331152
4766000000.0 0.3162099266463003 -1.0028650997924962
4769000000.0 0.32146536412944005 -0.9887770914895023
4772000000.0 0.33152027691209685 -0.9830004579628414
4775000000.0 0.3246324500886395 -1.0274187425803059
4778000000.0 0.2955089902557319 -0.9936205618582331
4781000000.0 0.303504028951192 -0.9943124343335328
4784000000.0 0.30749697659490455 -0.9984777678920264
4788000000.0 0.2560479296285101 -0.9990654635084191
4791000000.0 0.26749182299556934 -1.0155502192974306
4794000000.0 0.27341335189210775 -1.0283160727711038
4797000000.0 0.22564609059657528 -0.9897911229221007
4800000000.0 0.23618057117874464 -0.9944902750626885
4803000000.0 0.1844695745900611 -1.0185663509027159
4806000000.0 0.23530154628211444 -1.0064223362516687
4809000000.0 0.1686440541446537 -1.0327605289621906
4812000000.0 0.18216328156590986 -1.0123240129787088
4816000000.0 0.20709589712644447 -0.9989584595629935
4819000000.0 0.21192774740195996 -1.0671704552348726
4822000000.0 0.22557581963111784 -1.0622085904590193
4825000000.0 0.21557694859726792 -1.044912555428397
4828000000.0 0.15497435752596903 -1.0169823985362867
4831000000.0 0.11147656061161387 -1.0525682174251336
4834000000.0 0.17029481261332288 -1.0258898996780843
4838000000.0 0.12370103699846595 -1.0346729182549315
4841000000.0 0.13522109801434035 -1.0182297999474592
4844000000.0 0.15955994523508962 -1.0175728818535665
4847000000.0 0.15658636252376304 -1.0102312465031285
4850000000.0 0.11191943146817068 -1.0687055896982434
4853000000.0 0.1151298226342715 -1.0146429175453755
4856000000.0 0.1145432831008665 -1.0181580426166033
4859000000.0 0.08051074833590727 -1.0536613806318131
4862000000.0 0.11278470305924296 -1.028502178984476
4866000000.0 0.060700455899279415 -1.0627334767423644
4869000000.0 0.03516257173997629 -1.053601505864826
4872000000.0 0.04246469208057537 -1.0551313739304584
4875000000.0 0.1133001138751972 -1.0829230552974343
4878000000.0 0.04088787350703615 -1.04475130040668
4881000000.0 0.01504549439119218 -1.0956675396666447
4884000000.0 0.05889563969551727 -1.039005390459949
4888000000.0 0.06017183745332273 -1.0552053085999191
4891000000.0 0.03657444419773722 -1.066727824051445
4894000000.0 -0.020489376383323512 -1.0417038334736632
4897000000.0 0.005737053472886264 -1.0604420520944389
4900000000.0 -0.007166277753065994 -1.0647427729126993
4903000000.0 -0.017355202799869768 -1.0313833373356025
4906000000.0 -0.010506448485184505 -1.077450559460532
4909000000.0 -0.05280554413572134 -1.0326093228869915
4912000000.0 -0.09128790548241657 -1.0705818549272221
4916000000.0 -0.04100551679253576 -1.0708079435118585
4919000000.0 -0.07416982191262046 -1.0494668100710354
4922000000.0 -0.03547554507538987 -1.0387964739186046
4925000000.0 -0.14136839058213307 -1.0371349714139428
4928000000.0 -0.037492169513016496 -1.030523235094273
4931000000.0 -0.07547190741038946 -1.0504144412945837
4934000000.0 -0.10466288731057556 -1.0022692641478959
4938000000.0 -0.1697923498950844 -1.0185880730420716
4941000000.0 -0.09999816171315358 -1.005276133841592
4944000000.0 -0.12094669055978105 -0.9740690798934111
4947000000.0 -0.15932667157774552 -1.0118477386920266
4950000000.0 -0.17510186936986027 -1.0356543123537667
4953000000.0 -0.21521625664647565 -1.0516243436446495
4956000000.0 -0.16689948879546512 -1.002945523171501
4959000000.0 -0.23981933278373238 -1.00489158801147
4962000000.0 -0.20990884425977094 -1.0266545014930082
4966000000.0 -0.18171533532153272 -1.044275991929341
4969000000.0 -0.16251257235932082 -1.062210575099218
4972000000.0 -0.22870471964525088 -1.0393440385147719
4975000000.0 -0.1961111611327316 -1.011116556550595
4978000000.0 -0.2459531661451923 -1.0078237638454939
4981000000.0 -0.2804760490281726 -1.0198094975381384
4984000000.0 -0.23654836170423735 -0.985819628111207
4988000000.0 -0.23877678083790504 -1.0440226155465437
4991000000.0 -0.22435745081180475 -1.0775279666951465
4994000000.0 -0.27431850141534064 -1.0093453636103644
4997000000.0 -0.31856932191056114 -0.998138599889428
5000000000.0 -0.27946180859220504 -1.0378598950836213
5003000000.0 -0.32507828446285986 -1.0449060318779957
5006000000.0 -0.31505142948487386 -1.0606230043551623
5009000000.0 -0.3035505372177463 -1.0091360023606917
5012000000.0 -0.3520854890494269 -0.9939968498556346
5016000000.0 -0.3061676342593495 -1.0520928756186312
5019000000.0 -0.3700386381707619 -1.0057819497526541
5022000000.0 -0.3453123193152746 -0.9887663288812896
5025000000.0 -0.39015792967169366 -1.0462390458817492
5028000000.0 -0.3785195336666416 -0.9981127214567536
5031000000.0 -0.36946767425877924 -1.0092365773670213
5034000000.0 -0.4232118105813093 -1.007222480029321
5038000000.0 -0.39377322946650994 -0.9454201923380727
5041000000.0 -0.37488883093146597 -0.9943442860100232
5044000000.0 -0.374034671955058 -0.9414958482405865
5047000000.0 -0.40516748587745827 -0.989444098968025
5050000000.0 -0.3510071917330735 -0.9803322657567524
5053000000.0 -0.4728340035652424 -1.0121179717471194
5056000000.0 -0.40097065677538457 -0.9803146769533899
5059000000.0 -0.4019487985084536 -0.9880969683663096
5062000000.0 -0.4593812876429093 -0.9669047981572358
5066000000.0 -0.4121106177409226 -0.9586733315375233
5069000000.0 -0.4924667866368312 -0.9630230588347036
5072000000.0 -0.46933183724314265 -0.9113449007365098
5075000000.0 -0.4335178192380722 -0.9336987639713206
5078000000.0 -0.4984242216338503 -0.9637359137250281
5081000000.0 -0.5134347605820193 -0.9112005017677448
5084000000.0 -0.5047149106457598 -0.980702440839929
5088000000.0 -0.4967437286266655 -0.9303363095036583
5091000000.0 -0.5469327420947423 -0.8839023624047875
5094000000.0 -0.5337350095327607 -0.9036868422468719
5097000000.0 -0.45281731261987435 -0.9137522060219387
5100000000.0 -0.5768207312762763 -0.9181320202592557
5103000000.0 -0.5350699383236085 -0.9433574631400291
5106000000.0 -0.5804758755606162 -0.9502733148612152
5109000000.0 -0.49673878128827 -0.9462515690557802
5112000000.0 -0.5995974327851944 -0.913423591990036
5116000000.0 -0.5439339924216104 -0.8998654206408538
5119000000.0 -0.603978956263569 -0.8852902163324619
5122000000.0 -0.5782782002319732 -0.8963473285884753
5125000000.0 -0.5327757680188276 -0.8660883824262094
5128000000.0 -0.5534884370934625 -0.8436792007378415
5131000000.0 -0.5867999827542054 -0.8418890140827437
5134000000.0 -0.5792462054381163 -0.8800814625078334
5138000000.0 -0.6110017577950804 -0.8653748812975305
5141000000.0 -0.5726574534657574 -0.8807186043701747
5144000000.0 -0.6003152104960048 -0.8503964152728084
5147000000.0 -0.6361417306139052 -0.8878861102517198
5150000000.0 -0.6644376845097122 -0.8359963148972337
5153000000.0 -0.6796368384714893 -0.8237714680918219
5156000000.0 -0.6491277571377578 -0.854215599502821
5159000000.0 -0.6570065431840735 -0.8411536350786272
5162000000.0 -0.6583972635471607 -0.8111629005436296
5166000000.0 -0.7026736720117167 -0.8288848497399668
5169000000.0 -0.697330697808425 -0.8435572751149479
5172000000.0 -0.6713710388698008 -0.7924845504522509
5175000000.0 -0.6753650118492457 -0.8450291225208932
5178000000.0 -0.7021336152457183 -0.8100369988906756
5181000000.0 -0.748677635500362 -0.8051884909932567
5184000000.0 -0.7066877444709747 -0.7994148576601382
5188000000.0 -0.7065445562788181 -0.7785125451554277
